! freq	dB(S11)	phase(S11)	dB(S12)	phase(S12)	
!     	dB(S21)	phase(S21)	dB(S22)	phase(S22)	
!S-par simulation data
#  GHz  S  DB  R 50
0.000000	-0.000000	0.000000	-389.712604	180.000000	-389.712604	180.000000	-0.000000	0.000000
0.050000	-0.000118	-0.946254	-112.378800	86.228128	-112.378800	86.228128	-0.000118	-0.946264
0.100000	-0.000469	-1.892217	-106.733789	84.190668	-106.733789	84.190668	-0.000468	-1.892238
0.150000	-0.001037	-2.837620	-103.550986	83.324909	-103.550986	83.324909	-0.001037	-2.837653
0.200000	-0.001801	-3.782238	-101.335641	82.873420	-101.335641	82.873420	-0.001801	-3.782282
0.250000	-0.002747	-4.725815	-99.662157	82.533380	-99.662157	82.533380	-0.002747	-4.725870
0.300000	-0.003830	-5.668298	-98.341346	82.217381	-98.341346	82.217381	-0.003830	-5.668364
0.350000	-0.005031	-6.609547	-97.283713	81.928250	-97.283713	81.928250	-0.005032	-6.609624
0.400000	-0.006323	-7.549501	-96.434478	81.690258	-96.434478	81.690258	-0.006324	-7.549589
0.450000	-0.007681	-8.488132	-95.759280	81.538602	-95.759280	81.538602	-0.007682	-8.488230
0.500000	-0.009084	-9.425438	-95.235876	81.515843	-95.235876	81.515843	-0.009085	-9.425547
0.550000	-0.010514	-10.361436	-94.849870	81.673314	-94.849870	81.673314	-0.010515	-10.361555
0.600000	-0.011956	-11.296152	-94.592282	82.075015	-94.592282	82.075015	-0.011957	-11.296281
0.650000	-0.013399	-12.229620	-94.457958	82.803701	-94.457958	82.803701	-0.013401	-12.229758
0.700000	-0.014836	-13.161871	-94.444260	83.969749	-94.444260	83.969749	-0.014837	-13.162018
0.750000	-0.016259	-14.092938	-94.549506	85.723831	-94.549506	85.723831	-0.016261	-14.093094
0.800000	-0.017665	-15.022846	-94.770384	88.274304	-94.770384	88.274304	-0.017668	-15.023011
0.850000	-0.019053	-15.951617	-95.096992	91.908037	-95.096992	91.908037	-0.019055	-15.951790
0.900000	-0.020420	-16.879264	-95.503183	97.005081	-95.503183	97.005081	-0.020422	-16.879446
0.950000	-0.021766	-17.805798	-95.929434	104.014086	-95.929434	104.014086	-0.021769	-17.805988
1.000000	-0.023093	-18.731220	-96.260022	113.313001	-96.260022	113.313001	-0.023096	-18.731419
1.050000	-0.024401	-19.655529	-96.315518	124.871502	-96.315518	124.871502	-0.024404	-19.655736
1.100000	-0.025691	-20.578718	-95.909107	137.825783	-95.909107	137.825783	-0.025694	-20.578933
1.150000	-0.026965	-21.500774	-94.973718	150.518054	-94.973718	150.518054	-0.026967	-21.500999
1.200000	-0.028224	-22.421685	-93.624005	161.398981	-93.624005	161.398981	-0.028226	-22.421918
1.250000	-0.029470	-23.341433	-92.057233	169.849461	-92.057233	169.849461	-0.029472	-23.341674
1.300000	-0.030703	-24.259945	-90.421528	175.969691	-90.421528	175.969691	-0.030705	-24.260195
1.350000	-0.031925	-25.177250	-88.823619	-179.661043	-88.823619	-179.661043	-0.031927	-25.177509
1.400000	-0.033139	-26.093325	-87.300900	-176.605798	-87.300900	-176.605798	-0.033140	-26.093594
1.450000	-0.034344	-27.008147	-85.864931	-174.524845	-85.864931	-174.524845	-0.034345	-27.008424
1.500000	-0.035542	-27.921689	-84.515295	-173.169614	-84.515295	-173.169614	-0.035543	-27.921976
1.550000	-0.036734	-28.833927	-83.246646	-172.361554	-83.246646	-172.361554	-0.036735	-28.834223
1.600000	-0.037921	-29.744834	-82.052024	-171.972315	-82.052024	-171.972315	-0.037922	-29.745140
1.650000	-0.039104	-30.654385	-80.924332	-171.908731	-80.924332	-171.908731	-0.039104	-30.654701
1.700000	-0.040283	-31.562554	-79.856939	-172.102246	-79.856939	-172.102246	-0.040283	-31.562879
1.750000	-0.041459	-32.469315	-78.843885	-172.501652	-78.843885	-172.501652	-0.041459	-32.469650
1.800000	-0.042633	-33.374642	-77.879910	-173.068116	-77.879910	-173.068116	-0.042633	-33.374987
1.850000	-0.043806	-34.278510	-76.960407	-173.771757	-76.960407	-173.771757	-0.043806	-34.278865
1.900000	-0.044977	-35.180895	-76.081352	-174.589265	-76.081352	-174.589265	-0.044977	-35.181259
1.950000	-0.046148	-36.081771	-75.239225	-175.502221	-75.239225	-175.502221	-0.046148	-36.082146
2.000000	-0.047319	-36.981116	-74.430943	-176.495898	-74.430943	-176.495898	-0.047319	-36.981500
2.050000	-0.048491	-37.878905	-73.653794	-177.558389	-73.653794	-177.558389	-0.048490	-37.879298
2.100000	-0.049663	-38.775115	-72.905385	-178.679970	-72.905385	-178.679970	-0.049663	-38.775518
2.150000	-0.050837	-39.669725	-72.183596	-179.852626	-72.183596	-179.852626	-0.050837	-39.670138
2.200000	-0.052012	-40.562712	-71.486541	178.930308	-71.486541	178.930308	-0.052012	-40.563134
2.250000	-0.053190	-41.454055	-70.812535	177.674419	-70.812535	177.674419	-0.053190	-41.454487
2.300000	-0.054371	-42.343735	-70.160067	176.384424	-70.160067	176.384424	-0.054370	-42.344176
2.350000	-0.055554	-43.231731	-69.527778	175.064334	-69.527778	175.064334	-0.055554	-43.232181
2.400000	-0.056741	-44.118023	-68.914438	173.717582	-68.914438	173.717582	-0.056741	-44.118482
2.450000	-0.057932	-45.002594	-68.318936	172.347123	-68.318936	172.347123	-0.057931	-45.003062
2.500000	-0.059127	-45.885424	-67.740258	170.955515	-67.740258	170.955515	-0.059127	-45.885902
2.550000	-0.060327	-46.766421	-67.176591	169.544254	-67.176591	169.544254	-0.060326	-46.766907
2.600000	-0.061532	-47.645643	-66.628072	168.116169	-66.628072	168.116169	-0.061531	-47.646138
2.650000	-0.062742	-48.523074	-66.093917	166.672943	-66.093917	166.672943	-0.062742	-48.523577
2.700000	-0.063959	-49.398699	-65.573402	165.216064	-65.573402	165.216064	-0.063959	-49.399210
2.750000	-0.065181	-50.272503	-65.065863	163.746849	-65.065863	163.746849	-0.065181	-50.273022
2.800000	-0.066411	-51.144472	-64.570685	162.266473	-64.570685	162.266473	-0.066411	-51.144999
2.850000	-0.067648	-52.014594	-64.087297	160.775985	-64.087297	160.775985	-0.067648	-52.015129
2.900000	-0.068892	-52.882855	-63.615173	159.276325	-63.615173	159.276325	-0.068893	-52.883398
2.950000	-0.070145	-53.749245	-63.153819	157.768338	-63.153819	157.768338	-0.070145	-53.749794
3.000000	-0.071406	-54.613750	-62.702779	156.252786	-62.702779	156.252786	-0.071406	-54.614307
3.050000	-0.072676	-55.476362	-62.261624	154.730360	-62.261624	154.730360	-0.072677	-55.476926
3.100000	-0.073956	-56.337070	-61.829955	153.201683	-61.829955	153.201683	-0.073956	-56.337641
3.150000	-0.075245	-57.195865	-61.407396	151.667324	-61.407396	151.667324	-0.075246	-57.196442
3.200000	-0.076545	-58.052738	-60.993597	150.127800	-60.993597	150.127800	-0.076546	-58.053322
3.250000	-0.077856	-58.907681	-60.588227	148.583584	-60.588227	148.583584	-0.077856	-58.908271
3.300000	-0.079178	-59.760687	-60.190975	147.035108	-60.190975	147.035108	-0.079178	-59.761283
3.350000	-0.080511	-60.611750	-59.801547	145.482768	-59.801547	145.482768	-0.080512	-60.612352
3.400000	-0.081857	-61.460863	-59.419667	143.926928	-59.419667	143.926928	-0.081858	-61.461471
3.450000	-0.083216	-62.308022	-59.045074	142.367923	-59.045074	142.367923	-0.083216	-62.308635
3.500000	-0.084587	-63.153220	-58.677520	140.806062	-58.677520	140.806062	-0.084588	-63.153839
3.550000	-0.085973	-63.996456	-58.316770	139.241630	-58.316770	139.241630	-0.085973	-63.997079
3.600000	-0.087372	-64.837724	-57.962603	137.674890	-57.962603	137.674890	-0.087373	-64.838353
3.650000	-0.088786	-65.677023	-57.614807	136.106087	-57.614807	136.106087	-0.088786	-65.677656
3.700000	-0.090215	-66.514350	-57.273182	134.535446	-57.273182	134.535446	-0.090215	-66.514987
3.750000	-0.091659	-67.349703	-56.937538	132.963177	-56.937538	132.963177	-0.091660	-67.350345
3.800000	-0.093120	-68.182997	-56.607401	131.389422	-56.607401	131.389422	-0.093121	-68.183643
3.850000	-0.094597	-69.014316	-56.282911	129.814433	-56.282911	129.814433	-0.094598	-69.014966
3.900000	-0.096092	-69.843661	-55.963902	128.238375	-55.963902	128.238375	-0.096093	-69.844315
3.950000	-0.097604	-70.671034	-55.650214	126.661407	-55.650214	126.661407	-0.097604	-70.671691
4.000000	-0.099134	-71.496435	-55.341695	125.083673	-55.341695	125.083673	-0.099134	-71.497095
4.050000	-0.100682	-72.319868	-55.038201	123.505311	-55.038201	123.505311	-0.100682	-72.320531
4.100000	-0.102249	-73.141334	-54.739592	121.926448	-54.739592	121.926448	-0.102249	-73.142000
4.150000	-0.103835	-73.960839	-54.445736	120.347204	-54.445736	120.347204	-0.103836	-73.961506
4.200000	-0.105441	-74.778384	-54.156504	118.767692	-54.156504	118.767692	-0.105442	-74.779054
4.250000	-0.107067	-75.593976	-53.871775	117.188016	-53.871775	117.188016	-0.107068	-75.594648
4.300000	-0.108714	-76.407619	-53.591432	115.608275	-53.591432	115.608275	-0.108715	-76.408293
4.350000	-0.110383	-77.219319	-53.315361	114.028562	-53.315361	114.028562	-0.110383	-77.219994
4.400000	-0.112072	-78.029083	-53.043456	112.448965	-53.043456	112.448965	-0.112073	-78.029759
4.450000	-0.113784	-78.836917	-52.775611	110.869564	-52.775611	110.869564	-0.113785	-78.837594
4.500000	-0.115519	-79.642829	-52.511728	109.290438	-52.511728	109.290438	-0.115519	-79.643507
4.550000	-0.117276	-80.446827	-52.251709	107.711660	-52.251709	107.711660	-0.117277	-80.447505
4.600000	-0.119062	-81.248590	-51.994810	106.133388	-51.994810	106.133388	-0.119062	-81.249268
4.650000	-0.120872	-82.048375	-51.741474	104.555620	-51.741474	104.555620	-0.120872	-82.049053
4.700000	-0.122695	-82.847179	-51.493478	102.978157	-51.493478	102.978157	-0.122695	-82.847856
4.750000	-0.124557	-83.643042	-51.247003	101.401611	-51.247003	101.401611	-0.124557	-83.643718
4.800000	-0.126428	-84.438259	-51.006184	99.825307	-51.006184	99.825307	-0.126427	-84.438934
4.850000	-0.128343	-85.230247	-50.766287	98.250217	-50.766287	98.250217	-0.128343	-85.230920
4.900000	-0.130263	-86.021916	-50.532302	96.675265	-50.532302	96.675265	-0.130263	-86.022588
4.950000	-0.132234	-86.810081	-50.298717	95.101839	-50.298717	95.101839	-0.132234	-86.810750
5.000000	-0.134205	-87.598246	-50.071250	93.528412	-50.071250	93.528412	-0.134205	-87.598912
5.050000	-0.136233	-88.382643	-49.843727	91.956835	-49.843727	91.956835	-0.136233	-88.383306
5.100000	-0.138262	-89.167040	-49.622012	90.385258	-49.622012	90.385258	-0.138261	-89.167701
5.150000	-0.140345	-89.948040	-49.400785	88.815528	-49.400785	88.815528	-0.140344	-89.948696
5.200000	-0.142433	-90.728730	-49.184608	87.245967	-49.184608	87.245967	-0.142432	-90.729382
5.250000	-0.144571	-91.506385	-48.969397	85.678210	-48.969397	85.678210	-0.144571	-91.507033
5.300000	-0.146721	-92.283432	-48.758555	84.110814	-48.758555	84.110814	-0.146720	-92.284076
5.350000	-0.148917	-93.057800	-48.549098	82.545142	-48.549098	82.545142	-0.148916	-93.058437
5.400000	-0.151130	-93.831273	-48.343398	80.980046	-48.343398	80.980046	-0.151129	-93.831905
5.450000	-0.153385	-94.602412	-48.139451	79.416563	-48.139451	79.416563	-0.153384	-94.603038
5.500000	-0.155663	-95.372384	-47.938713	77.853887	-47.938713	77.853887	-0.155661	-95.373003
5.550000	-0.157979	-96.140358	-47.740045	76.292687	-47.740045	76.292687	-0.157978	-96.140970
5.600000	-0.160323	-96.906904	-47.544098	74.732542	-47.544098	74.732542	-0.160322	-96.907509
5.650000	-0.162702	-97.671778	-47.350494	73.173712	-47.350494	73.173712	-0.162700	-97.672374
5.700000	-0.165115	-98.434978	-47.159176	71.616198	-47.159176	71.616198	-0.165113	-98.435567
5.750000	-0.167557	-99.196820	-46.970435	70.059817	-46.970435	70.059817	-0.167556	-99.197399
5.800000	-0.170040	-99.956758	-46.783590	68.505022	-46.783590	68.505022	-0.170039	-99.957329
5.850000	-0.172548	-100.715638	-46.599522	66.951162	-46.599522	66.951162	-0.172547	-100.716199
5.900000	-0.175104	-101.472401	-46.417005	65.399171	-46.417005	65.399171	-0.175102	-101.472952
5.950000	-0.177678	-102.228393	-46.237431	63.847899	-46.237431	63.847899	-0.177676	-102.228933
6.000000	-0.180308	-102.982072	-46.059103	62.298784	-46.059103	62.298784	-0.180306	-102.982600
6.050000	-0.182950	-103.735251	-45.883854	60.750161	-45.883854	60.750161	-0.182949	-103.735768
6.100000	-0.185656	-104.485938	-45.709581	59.203991	-45.709581	59.203991	-0.185654	-104.486442
6.150000	-0.188368	-105.236383	-45.538499	57.658072	-45.538499	57.658072	-0.188366	-105.236874
6.200000	-0.191151	-105.984175	-45.368156	56.114907	-45.368156	56.114907	-0.191149	-105.984652
6.250000	-0.193934	-106.731967	-45.201090	54.571743	-45.201090	54.571743	-0.193932	-106.732431
6.300000	-0.196796	-107.476963	-45.034555	53.031639	-45.034555	53.031639	-0.196794	-107.477412
6.350000	-0.199659	-108.221960	-44.871154	51.491535	-44.871154	51.491535	-0.199656	-108.222394
6.400000	-0.202595	-108.964489	-44.708522	49.954280	-44.708522	49.954280	-0.202592	-108.964907
6.450000	-0.205538	-109.706793	-44.548678	48.417284	-44.548678	48.417284	-0.205536	-109.707195
6.500000	-0.208550	-110.446941	-44.389810	46.882915	-44.389810	46.882915	-0.208547	-110.447326
6.550000	-0.211576	-111.186658	-44.233420	45.349070	-44.233420	45.349070	-0.211573	-111.187026
6.600000	-0.214664	-111.924517	-44.078186	43.817617	-44.078186	43.817617	-0.214661	-111.924867
6.650000	-0.217774	-112.661755	-43.925151	42.286960	-43.925151	42.286960	-0.217771	-112.662087
6.700000	-0.220941	-113.397416	-43.773429	40.758449	-43.773429	40.758449	-0.220938	-113.397728
6.750000	-0.224137	-114.132287	-43.623654	39.231011	-43.623654	39.231011	-0.224133	-114.132580
6.800000	-0.227383	-114.865844	-43.475324	37.705464	-43.475324	37.705464	-0.227379	-114.866116
6.850000	-0.230666	-115.598462	-43.328717	36.181269	-43.328717	36.181269	-0.230662	-115.598713
6.900000	-0.233993	-116.330011	-43.183670	34.658704	-43.183670	34.658704	-0.233989	-116.330240
6.950000	-0.237364	-117.060491	-43.040144	33.137770	-43.040144	33.137770	-0.237360	-117.060698
7.000000	-0.240773	-117.790131	-42.898271	31.618200	-42.898271	31.618200	-0.240769	-117.790315
7.050000	-0.244235	-118.518594	-42.757742	30.100538	-42.757742	30.100538	-0.244231	-118.518754
7.100000	-0.247727	-119.246424	-42.618944	28.583969	-42.618944	28.583969	-0.247723	-119.246560
7.150000	-0.251281	-119.972989	-42.481330	27.069586	-42.481330	27.069586	-0.251276	-119.973101
7.200000	-0.254858	-120.699112	-42.345509	25.556021	-42.345509	25.556021	-0.254853	-120.699198
7.250000	-0.258504	-121.423905	-42.210734	24.044912	-42.210734	24.044912	-0.258499	-121.423965
7.300000	-0.262167	-122.148424	-42.077798	22.534348	-42.077798	22.534348	-0.262162	-122.148457
7.350000	-0.265907	-122.871570	-41.945785	21.026505	-41.945785	21.026505	-0.265902	-122.871576
7.400000	-0.269657	-123.594591	-41.815647	19.518933	-41.815647	19.518933	-0.269652	-123.594569
7.450000	-0.273493	-124.316220	-41.686326	18.014339	-41.686326	18.014339	-0.273488	-124.316169
7.500000	-0.277331	-125.037849	-41.558902	16.509745	-41.558902	16.509745	-0.277326	-125.037769
7.550000	-0.281264	-125.758092	-41.432202	15.008375	-41.432202	15.008375	-0.281258	-125.757982
7.600000	-0.285199	-126.478335	-41.307324	13.507004	-41.307324	13.507004	-0.285193	-126.478195
7.650000	-0.289222	-127.197430	-41.183268	12.008558	-41.183268	12.008558	-0.289216	-127.197258
7.700000	-0.293255	-127.916420	-41.060874	10.510378	-41.060874	10.510378	-0.293249	-127.916216
7.750000	-0.297370	-128.634480	-40.939385	9.014821	-40.939385	9.014821	-0.297364	-128.634243
7.800000	-0.301502	-129.352354	-40.819414	7.519789	-40.819414	7.519789	-0.301496	-129.352083
7.850000	-0.305709	-130.069493	-40.700418	6.027081	-40.700418	6.027081	-0.305702	-130.069189
7.900000	-0.309942	-130.786388	-40.582814	4.535148	-40.582814	4.535148	-0.309935	-130.786049
7.950000	-0.314242	-131.502725	-40.466242	3.045240	-40.466242	3.045240	-0.314235	-131.502350
8.000000	-0.318576	-132.218782	-40.350948	1.556346	-40.350948	1.556346	-0.318569	-132.218371
8.050000	-0.322970	-132.934433	-40.236735	0.069184	-40.236735	0.069184	-0.322963	-132.933986
8.100000	-0.327407	-133.649796	-40.123700	-1.416739	-40.123700	-1.416739	-0.327400	-133.649311
8.150000	-0.331896	-134.364883	-40.011782	-2.901215	-40.011782	-2.901215	-0.331888	-134.364360
8.200000	-0.336436	-135.079695	-39.900957	-4.384244	-39.900957	-4.384244	-0.336429	-135.079134
8.250000	-0.341020	-135.794340	-39.791276	-5.866103	-39.791276	-5.866103	-0.341013	-135.793740
8.300000	-0.345665	-136.508750	-39.682614	-7.346323	-39.682614	-7.346323	-0.345657	-136.508110
8.350000	-0.350346	-137.223076	-39.575113	-8.825638	-39.575113	-8.825638	-0.350338	-137.222395
8.400000	-0.355096	-137.937234	-39.468570	-10.303144	-39.468570	-10.303144	-0.355088	-137.936512
8.450000	-0.359873	-138.651367	-39.363198	-11.779996	-39.363198	-11.779996	-0.359865	-138.650603
8.500000	-0.364728	-139.365425	-39.258733	-13.254890	-39.258733	-13.254890	-0.364720	-139.364619
8.550000	-0.369604	-140.079493	-39.155440	-14.729367	-39.155440	-14.729367	-0.369595	-140.078644
8.600000	-0.374565	-140.793606	-39.053016	-16.201761	-39.053016	-16.201761	-0.374557	-140.792713
8.650000	-0.379538	-141.507737	-38.951755	-17.673955	-38.951755	-17.673955	-0.379530	-141.506800
8.700000	-0.384607	-142.222062	-38.851337	-19.143967	-38.851337	-19.143967	-0.384599	-142.221080
8.750000	-0.389678	-142.936388	-38.752066	-20.613978	-38.752066	-20.613978	-0.389670	-142.935360
8.800000	-0.394854	-143.651085	-38.653623	-22.081733	-38.653623	-22.081733	-0.394846	-143.650011
8.850000	-0.400033	-144.365783	-38.556283	-23.549488	-38.556283	-23.549488	-0.400025	-144.364662
8.900000	-0.405308	-145.080969	-38.459806	-25.015297	-38.459806	-25.015297	-0.405300	-145.079801
8.950000	-0.410594	-145.796201	-38.364370	-26.480928	-38.364370	-26.480928	-0.410586	-145.794985
9.000000	-0.415968	-146.512015	-38.269826	-27.944906	-38.269826	-27.944906	-0.415961	-146.510750
9.050000	-0.421362	-147.227945	-38.176271	-29.408552	-38.176271	-29.408552	-0.421355	-147.226632
9.100000	-0.426836	-147.944525	-38.083628	-30.870816	-38.083628	-30.870816	-0.426828	-147.943162
9.150000	-0.432338	-148.661321	-37.991935	-32.332621	-37.991935	-32.332621	-0.432331	-148.659908
9.200000	-0.437910	-149.378808	-37.901166	-33.793295	-37.901166	-33.793295	-0.437903	-149.377345
9.250000	-0.443520	-150.096641	-37.811318	-35.253404	-37.811318	-35.253404	-0.443513	-150.095126
9.300000	-0.449191	-150.815178	-37.722399	-36.712611	-37.722399	-36.712611	-0.449185	-150.813612
9.350000	-0.454908	-151.534219	-37.634385	-38.171175	-37.634385	-38.171175	-0.454903	-151.532601
9.400000	-0.460679	-152.253952	-37.547294	-39.629041	-37.547294	-39.629041	-0.460674	-152.252281
9.450000	-0.466503	-152.974377	-37.461107	-41.086210	-37.461107	-41.086210	-0.466498	-152.972653
9.500000	-0.472372	-153.695453	-37.375827	-42.542862	-37.375827	-42.542862	-0.472368	-153.693676
9.550000	-0.478302	-154.417440	-37.291461	-43.998788	-37.291461	-43.998788	-0.478299	-154.415609
9.600000	-0.484269	-155.140008	-37.207979	-45.454349	-37.207979	-45.454349	-0.484267	-155.138123
9.650000	-0.490306	-155.863738	-37.125435	-46.909182	-37.125435	-46.909182	-0.490304	-155.861798
9.700000	-0.496370	-156.587950	-37.043740	-48.363777	-37.043740	-48.363777	-0.496370	-156.585954
9.750000	-0.502511	-157.313606	-36.963021	-49.817662	-36.963021	-49.817662	-0.502512	-157.311555
9.800000	-0.508672	-158.039615	-36.883106	-51.271412	-36.883106	-51.271412	-0.508674	-158.037508
9.850000	-0.514917	-158.767385	-36.804222	-52.724489	-36.804222	-52.724489	-0.514920	-158.765222
9.900000	-0.521174	-159.495346	-36.726084	-54.177511	-36.726084	-54.177511	-0.521178	-159.493127
9.950000	-0.527521	-160.225419	-36.649045	-55.629915	-36.649045	-55.629915	-0.527526	-160.223143
10.000000	-0.533873	-160.955491	-36.572684	-57.082319	-36.572684	-57.082319	-0.533880	-160.953159
