! freq	dB(S11)	phase(S11)	dB(S12)	phase(S12)	
!     	dB(S21)	phase(S21)	dB(S22)	phase(S22)	
!S-par simulation data
#  GHz  S  DB  R 50
0.000000	-0.000000	-0.000000	-363.581913	180.000000	-363.581913	180.000000	-0.000000	-0.000000
0.050000	-0.000092	-0.817051	-112.293414	54.472800	-112.293414	54.472800	-0.000092	-0.817056
0.100000	-0.000365	-1.633901	-108.874955	63.876746	-108.874955	63.876746	-0.000366	-1.633909
0.150000	-0.000810	-2.450360	-106.219375	69.819072	-106.219375	69.819072	-0.000813	-2.450369
0.200000	-0.001412	-3.266265	-104.160203	73.205263	-104.160203	73.205263	-0.001417	-3.266272
0.250000	-0.002166	-4.081426	-102.540504	75.172373	-102.540504	75.172373	-0.002172	-4.081426
0.300000	-0.003037	-4.895791	-101.243159	76.461118	-101.243159	76.461118	-0.003046	-4.895780
0.350000	-0.004014	-5.709243	-100.196848	77.338446	-100.196848	77.338446	-0.004025	-5.709219
0.400000	-0.005077	-6.521720	-99.354109	78.001144	-99.354109	78.001144	-0.005090	-6.521678
0.450000	-0.006207	-7.333183	-98.683458	78.579397	-98.683458	78.579397	-0.006222	-7.333122
0.500000	-0.007387	-8.143616	-98.163920	79.172253	-98.163920	79.172253	-0.007403	-8.143534
0.550000	-0.008603	-8.953018	-97.781725	79.867207	-97.781725	79.867207	-0.008619	-8.952913
0.600000	-0.009840	-9.761399	-97.528223	80.753270	-97.528223	80.753270	-0.009856	-9.761271
0.650000	-0.011087	-10.568780	-97.398411	81.932140	-97.398411	81.932140	-0.011104	-10.568630
0.700000	-0.012337	-11.375184	-97.389627	83.530191	-97.389627	83.530191	-0.012353	-11.375012
0.750000	-0.013582	-12.180638	-97.499874	85.713337	-97.499874	85.713337	-0.013597	-12.180446
0.800000	-0.014816	-12.985168	-97.724963	88.705951	-97.724963	88.705951	-0.014830	-12.984956
0.850000	-0.016037	-13.788796	-98.053005	92.812053	-98.053005	92.812053	-0.016050	-13.788568
0.900000	-0.017241	-14.591545	-98.453791	98.426867	-98.453791	98.426867	-0.017253	-14.591301
0.950000	-0.018428	-15.393431	-98.860564	106.000264	-98.860564	106.000264	-0.018439	-15.393173
1.000000	-0.019597	-16.194468	-99.147775	115.871242	-99.147775	115.871242	-0.019606	-16.194198
1.050000	-0.020748	-16.994665	-99.130303	127.904162	-99.130303	127.904162	-0.020755	-16.994385
1.100000	-0.021881	-17.794028	-98.632681	141.097014	-98.632681	141.097014	-0.021887	-17.793738
1.150000	-0.022997	-18.592559	-97.616182	153.752927	-97.616182	153.752927	-0.023002	-18.592260
1.200000	-0.024098	-19.390256	-96.215714	164.445908	-96.215714	164.445908	-0.024102	-19.389950
1.250000	-0.025184	-20.187115	-94.626797	172.705947	-94.626797	172.705947	-0.025187	-20.186802
1.300000	-0.026256	-20.983091	-92.986489	178.704491	-92.986489	178.704491	-0.026258	-20.982772
1.350000	-0.027317	-21.778211	-91.391483	-176.977609	-91.391483	-176.977609	-0.027318	-21.777886
1.400000	-0.028367	-22.572464	-89.874088	-173.918577	-89.874088	-173.918577	-0.028368	-22.572133
1.450000	-0.029408	-23.365836	-88.443487	-171.794516	-88.443487	-171.794516	-0.029409	-23.365500
1.500000	-0.030442	-24.158313	-87.098291	-170.369234	-87.098291	-170.369234	-0.030442	-24.157972
1.550000	-0.031468	-24.949879	-85.832837	-169.472985	-85.832837	-169.472985	-0.031468	-24.949532
1.600000	-0.032489	-25.740517	-84.640135	-168.983472	-84.640135	-168.983472	-0.032489	-25.740164
1.650000	-0.033506	-26.530210	-83.513173	-168.811657	-83.513173	-168.811657	-0.033506	-26.529852
1.700000	-0.034519	-27.318597	-82.420552	-168.956700	-82.420552	-168.956700	-0.034518	-27.318233
1.750000	-0.035530	-28.106476	-81.417260	-169.215220	-81.417260	-169.215220	-0.035529	-28.106105
1.800000	-0.036539	-28.893129	-80.447013	-169.660661	-80.447013	-169.660661	-0.036539	-28.892751
1.850000	-0.037547	-29.678906	-79.528820	-170.239618	-79.528820	-170.239618	-0.037547	-29.678520
1.900000	-0.038554	-30.463591	-78.647166	-170.927868	-78.647166	-170.927868	-0.038555	-30.463198
1.950000	-0.039562	-31.247186	-77.800282	-171.725412	-77.800282	-171.725412	-0.039563	-31.246785
2.000000	-0.040571	-32.029837	-76.992002	-172.587734	-76.992002	-172.587734	-0.040572	-32.029427
2.050000	-0.041582	-32.811167	-76.205639	-173.540748	-76.205639	-173.540748	-0.041583	-32.810749
2.100000	-0.042594	-33.591717	-75.459101	-174.531894	-75.459101	-174.531894	-0.042595	-33.591290
2.150000	-0.043610	-34.370705	-74.724770	-175.599303	-74.724770	-175.599303	-0.043611	-34.370269
2.200000	-0.044627	-35.149089	-74.030934	-176.688347	-74.030934	-176.688347	-0.044628	-35.148643
2.250000	-0.045649	-35.925658	-73.341876	-177.842293	-73.341876	-177.842293	-0.045650	-35.925202
2.300000	-0.046672	-36.701812	-72.693592	-179.007399	-72.693592	-179.007399	-0.046674	-36.701346
2.350000	-0.047702	-37.475889	-72.044350	179.771693	-72.044350	179.771693	-0.047704	-37.475413
2.400000	-0.048733	-38.249752	-71.435873	178.546385	-71.435873	178.546385	-0.048735	-38.249266
2.450000	-0.049773	-39.021267	-70.821980	177.272688	-70.821980	177.272688	-0.049775	-39.020770
2.500000	-0.050813	-39.792782	-70.248625	175.998990	-70.248625	175.998990	-0.050815	-39.792275
2.550000	-0.051864	-40.561669	-69.666376	174.683038	-69.666376	174.683038	-0.051866	-40.561151
2.600000	-0.052915	-41.330556	-69.120716	173.367086	-69.120716	173.367086	-0.052917	-41.330027
2.650000	-0.053977	-42.096977	-68.570555	172.019746	-68.570555	172.019746	-0.053979	-42.096437
2.700000	-0.055041	-42.863173	-68.050033	170.669552	-68.050033	170.669552	-0.055042	-42.862623
2.750000	-0.056115	-43.627079	-67.528641	169.296005	-67.528641	169.296005	-0.056117	-43.626519
2.800000	-0.057192	-44.390528	-67.031067	167.917786	-67.031067	167.917786	-0.057193	-44.389956
2.850000	-0.058279	-45.151874	-66.535634	166.522233	-66.535634	166.522233	-0.058281	-45.151292
2.900000	-0.059370	-45.912519	-66.059117	165.120902	-66.059117	165.120902	-0.059372	-45.911927
2.950000	-0.060472	-46.671263	-65.587242	163.706790	-65.587242	163.706790	-0.060473	-46.670661
3.000000	-0.061579	-47.429057	-65.130136	162.286287	-65.130136	162.286287	-0.061580	-47.428444
3.050000	-0.062697	-48.185159	-64.679747	160.856472	-64.679747	160.856472	-0.062697	-48.184536
3.100000	-0.063821	-48.940053	-64.240608	159.420005	-64.240608	159.420005	-0.063821	-48.939421
3.150000	-0.064955	-49.693477	-63.809905	157.976878	-63.809905	157.976878	-0.064955	-49.692835
3.200000	-0.066097	-50.445431	-63.387457	156.527091	-63.387457	156.527091	-0.066097	-50.444779
3.250000	-0.067249	-51.196144	-62.974864	155.072671	-62.974864	155.072671	-0.067248	-51.195482
3.300000	-0.068411	-51.945118	-62.567971	153.611765	-62.567971	153.611765	-0.068411	-51.944448
3.350000	-0.069581	-52.693089	-62.172102	152.147771	-62.172102	152.147771	-0.069580	-52.692409
3.400000	-0.070765	-53.439050	-61.779749	150.677599	-61.779749	150.677599	-0.070764	-53.438362
3.450000	-0.071955	-54.184251	-61.399374	149.205503	-61.399374	149.205503	-0.071954	-54.183553
3.500000	-0.073162	-54.927169	-61.020647	147.727636	-61.020647	147.727636	-0.073161	-54.926462
3.550000	-0.074373	-55.669575	-60.654671	146.248709	-60.654671	146.248709	-0.074371	-55.668859
3.600000	-0.075604	-56.409422	-60.288746	144.764488	-60.288746	144.764488	-0.075602	-56.408698
3.650000	-0.076838	-57.149011	-59.936189	143.279833	-59.936189	143.279833	-0.076836	-57.148279
3.700000	-0.078095	-57.885765	-59.582316	141.790410	-59.582316	141.790410	-0.078093	-57.885024
3.750000	-0.079353	-58.622518	-59.242296	140.300988	-59.242296	140.300988	-0.079351	-58.621769
3.800000	-0.080638	-59.356159	-58.899791	138.807359	-58.899791	138.807359	-0.080636	-59.355401
3.850000	-0.081923	-60.089799	-58.570281	137.313731	-58.570281	137.313731	-0.081921	-60.089032
3.900000	-0.083236	-60.820571	-58.239752	135.817036	-58.239752	135.817036	-0.083233	-60.819796
3.950000	-0.084550	-61.551082	-57.920198	134.320064	-57.920198	134.320064	-0.084548	-61.550298
4.000000	-0.085891	-62.278975	-57.600903	132.820929	-57.600903	132.820929	-0.085888	-62.278183
4.050000	-0.087237	-63.006344	-57.290794	131.321361	-57.290794	131.321361	-0.087235	-63.005543
4.100000	-0.088608	-63.731350	-56.982059	129.820336	-56.982059	129.820336	-0.088606	-63.730541
4.150000	-0.089988	-64.455568	-56.680924	128.318826	-56.680924	128.318826	-0.089985	-64.454751
4.200000	-0.091390	-65.177682	-56.382133	126.816399	-56.382133	126.816399	-0.091388	-65.176856
4.250000	-0.092805	-65.898744	-56.089536	125.313514	-56.089536	125.313514	-0.092802	-65.897909
4.300000	-0.094241	-66.617963	-55.800125	123.810115	-55.800125	123.810115	-0.094238	-66.617119
4.350000	-0.095692	-67.335865	-55.515660	122.306350	-55.515660	122.306350	-0.095689	-67.335013
4.400000	-0.097163	-68.052189	-55.235113	120.802361	-55.235113	120.802361	-0.097160	-68.051327
4.450000	-0.098653	-68.766933	-54.958403	119.298148	-54.958403	119.298148	-0.098651	-68.766062
4.500000	-0.100160	-69.480363	-54.686245	117.793904	-54.686245	117.793904	-0.100158	-69.479483
4.550000	-0.101691	-70.191953	-54.416938	116.289617	-54.416938	116.289617	-0.101689	-70.191063
4.600000	-0.103237	-70.902493	-54.152730	114.785415	-54.152730	114.785415	-0.103235	-70.901594
4.650000	-0.104811	-71.610936	-53.890499	113.281380	-53.890499	113.281380	-0.104808	-71.610027
4.700000	-0.106396	-72.318595	-53.633837	111.777479	-53.633837	111.777479	-0.106394	-72.317676
4.750000	-0.108014	-73.023900	-53.378375	110.273979	-53.378375	110.273979	-0.108012	-73.022972
4.800000	-0.109641	-73.728686	-53.128884	108.770608	-53.128884	108.770608	-0.109639	-73.727747
4.850000	-0.111306	-74.430868	-52.879904	107.267885	-52.879904	107.267885	-0.111304	-74.429919
4.900000	-0.112975	-75.132791	-52.637238	105.765245	-52.637238	105.765245	-0.112974	-75.131832
4.950000	-0.114689	-75.831866	-52.394473	104.263510	-52.394473	104.263510	-0.114687	-75.830896
5.000000	-0.116403	-76.530941	-52.158309	102.761775	-52.158309	102.761775	-0.116401	-76.529960
5.050000	-0.118167	-77.226928	-51.921507	101.261208	-51.921507	101.261208	-0.118166	-77.225937
5.100000	-0.119931	-77.922915	-51.690990	99.760642	-51.690990	99.760642	-0.119930	-77.921913
5.150000	-0.121744	-78.616092	-51.460472	98.261288	-51.460472	98.261288	-0.121743	-78.615078
5.200000	-0.123561	-79.309013	-51.235386	96.762044	-51.235386	96.762044	-0.123560	-79.307988
5.250000	-0.125422	-79.999401	-51.010869	95.264013	-51.010869	95.264013	-0.125421	-79.998364
5.300000	-0.127294	-80.689282	-50.791012	93.766225	-50.791012	93.766225	-0.127293	-80.688234
5.350000	-0.129207	-81.376903	-50.572232	92.269613	-50.572232	92.269613	-0.129206	-81.375843
5.400000	-0.131134	-82.063771	-50.357413	90.773394	-50.357413	90.773394	-0.131133	-82.062700
5.450000	-0.133100	-82.748652	-50.144124	89.278286	-50.144124	89.278286	-0.133099	-82.747568
5.500000	-0.135085	-83.432538	-49.934165	87.783733	-49.934165	87.783733	-0.135084	-83.431443
5.550000	-0.137105	-84.114705	-49.726139	86.290202	-49.726139	86.290202	-0.137104	-84.113598
5.600000	-0.139151	-84.795643	-49.520870	84.797401	-49.520870	84.797401	-0.139150	-84.794524
5.650000	-0.141227	-85.475125	-49.317893	83.305513	-49.317893	83.305513	-0.141225	-85.473994
5.700000	-0.143333	-86.153152	-49.117159	81.814537	-49.117159	81.814537	-0.143332	-86.152008
5.750000	-0.145466	-86.829981	-48.919031	80.324350	-48.919031	80.324350	-0.145465	-86.828825
5.800000	-0.147636	-87.505135	-48.722682	78.835266	-48.722682	78.835266	-0.147635	-87.503967
5.850000	-0.149828	-88.179345	-48.529217	77.346833	-48.529217	77.346833	-0.149827	-88.178164
5.900000	-0.152063	-88.851668	-48.337115	75.859701	-48.337115	75.859701	-0.152062	-88.850474
5.950000	-0.154316	-89.523294	-48.148137	74.373071	-48.148137	74.373071	-0.154314	-89.522088
6.000000	-0.156617	-90.192829	-47.960152	72.887948	-47.960152	72.887948	-0.156616	-90.191611
6.050000	-0.158931	-90.861909	-47.775498	71.403168	-47.775498	71.403168	-0.158929	-90.860678
6.100000	-0.161301	-91.528705	-47.591506	69.920107	-47.591506	69.920107	-0.161299	-91.527461
6.150000	-0.163678	-92.195276	-47.411023	68.437223	-47.411023	68.437223	-0.163676	-92.194021
6.200000	-0.166118	-92.859382	-47.230909	66.956280	-47.230909	66.956280	-0.166116	-92.858114
6.250000	-0.168560	-93.523487	-47.054453	65.475337	-47.054453	65.475337	-0.168557	-93.522207
6.300000	-0.171072	-94.184954	-46.878107	63.996568	-46.878107	63.996568	-0.171068	-94.183661
6.350000	-0.173584	-94.846421	-46.705271	62.517798	-46.705271	62.517798	-0.173581	-94.845116
6.400000	-0.176164	-95.505520	-46.532865	61.041075	-46.532865	61.041075	-0.176160	-95.504202
6.450000	-0.178750	-96.164403	-46.363552	59.564538	-46.363552	59.564538	-0.178746	-96.163073
6.500000	-0.181398	-96.821181	-46.194957	58.089913	-46.194957	58.089913	-0.181394	-96.819838
6.550000	-0.184059	-97.477537	-46.029078	56.615670	-46.029078	56.615670	-0.184054	-97.476181
6.600000	-0.186777	-98.132042	-45.864173	55.143200	-45.864173	55.143200	-0.186772	-98.130675
6.650000	-0.189514	-98.785931	-45.701642	53.671320	-45.701642	53.671320	-0.189509	-98.784551
6.700000	-0.192303	-99.438216	-45.540313	52.201064	-45.540313	52.201064	-0.192298	-99.436824
6.750000	-0.195119	-100.089699	-45.381050	50.731620	-45.381050	50.731620	-0.195113	-100.088294
6.800000	-0.197980	-100.739816	-45.223189	49.263643	-45.223189	49.263643	-0.197975	-100.738399
6.850000	-0.200875	-101.388957	-45.067118	47.796714	-45.067118	47.796714	-0.200869	-101.387528
6.900000	-0.203810	-102.036961	-44.912622	46.331086	-44.912622	46.331086	-0.203804	-102.035520
6.950000	-0.206786	-102.683828	-44.759668	44.866760	-44.759668	44.866760	-0.206780	-102.682374
7.000000	-0.209797	-103.329775	-44.608441	43.403556	-44.608441	43.403556	-0.209790	-103.328308
7.050000	-0.212855	-103.974435	-44.458536	41.941924	-44.458536	41.941924	-0.212848	-103.972956
7.100000	-0.215942	-104.618384	-44.310484	40.481225	-44.310484	40.481225	-0.215935	-104.616893
7.150000	-0.219084	-105.260909	-44.163560	39.022389	-44.163560	39.022389	-0.219077	-105.259405
7.200000	-0.222248	-105.902919	-44.018596	37.564278	-44.018596	37.564278	-0.222241	-105.901403
7.250000	-0.225476	-106.543383	-43.874587	36.108345	-43.874587	36.108345	-0.225469	-106.541854
7.300000	-0.228719	-107.183516	-43.732626	34.652914	-43.732626	34.652914	-0.228711	-107.181974
7.350000	-0.232033	-107.821994	-43.591470	33.199997	-43.591470	33.199997	-0.232026	-107.820439
7.400000	-0.235356	-108.460313	-43.452431	31.747342	-43.452431	31.747342	-0.235349	-108.458746
7.450000	-0.238759	-109.096883	-43.314067	30.297560	-43.314067	30.297560	-0.238752	-109.095303
7.500000	-0.242164	-109.733453	-43.177872	28.847779	-43.177872	28.847779	-0.242156	-109.731860
7.550000	-0.245656	-110.368196	-43.042239	27.401258	-43.042239	27.401258	-0.245649	-110.366590
7.600000	-0.249151	-111.002938	-42.908692	25.954737	-42.908692	25.954737	-0.249143	-111.001319
7.650000	-0.252727	-111.636081	-42.775853	24.511323	-42.775853	24.511323	-0.252720	-111.634448
7.700000	-0.256313	-112.269079	-42.644897	23.068192	-42.644897	23.068192	-0.256306	-112.267432
7.750000	-0.259975	-112.900693	-42.514776	21.627994	-42.514776	21.627994	-0.259968	-112.899032
7.800000	-0.263654	-113.532030	-42.386356	20.188384	-42.386356	20.188384	-0.263646	-113.530355
7.850000	-0.267402	-114.162187	-42.258880	18.751515	-42.258880	18.751515	-0.267395	-114.160498
7.900000	-0.271175	-114.791951	-42.132942	17.315560	-42.132942	17.315560	-0.271168	-114.790247
7.950000	-0.275011	-115.420725	-42.008038	15.882133	-42.008038	15.882133	-0.275005	-115.419006
8.000000	-0.278880	-116.049004	-41.884526	14.449968	-41.884526	14.449968	-0.278874	-116.047270
8.050000	-0.282805	-116.676471	-41.762124	13.020093	-41.762124	13.020093	-0.282799	-116.674722
8.100000	-0.286772	-117.303357	-41.640984	11.591854	-41.640984	11.591854	-0.286766	-117.301592
8.150000	-0.290787	-117.929594	-41.521015	10.165642	-41.521015	10.165642	-0.290782	-117.927812
8.200000	-0.294853	-118.555181	-41.402191	8.741460	-41.402191	8.741460	-0.294847	-118.553382
8.250000	-0.298960	-119.180266	-41.284586	7.319021	-41.284586	7.319021	-0.298955	-119.178450
8.300000	-0.303126	-119.804649	-41.168022	5.899023	-41.168022	5.899023	-0.303122	-119.802816
8.350000	-0.307327	-120.428663	-41.052716	4.480462	-41.052716	4.480462	-0.307323	-120.426813
8.400000	-0.311595	-121.051941	-40.938355	3.064773	-40.938355	3.064773	-0.311591	-121.050071
8.450000	-0.315891	-121.674966	-40.825281	1.650190	-40.825281	1.650190	-0.315887	-121.673079
8.500000	-0.320263	-122.297238	-40.713067	0.238925	-40.713067	0.238925	-0.320259	-122.295331
8.550000	-0.324654	-122.919359	-40.602159	-1.171585	-40.602159	-1.171585	-0.324651	-122.917432
8.600000	-0.329132	-123.540728	-40.492033	-2.578317	-40.492033	-2.578317	-0.329129	-123.538780
8.650000	-0.333620	-124.162030	-40.383227	-3.984665	-40.383227	-3.984665	-0.333618	-124.160062
8.700000	-0.338206	-124.782600	-40.275131	-5.386769	-40.275131	-5.386769	-0.338203	-124.780610
8.750000	-0.342793	-125.403170	-40.168363	-6.788873	-40.168363	-6.788873	-0.342791	-125.401159
8.800000	-0.347487	-126.023050	-40.062237	-8.186262	-40.062237	-8.186262	-0.347486	-126.021015
8.850000	-0.352184	-126.642929	-39.957392	-9.583652	-39.957392	-9.583652	-0.352183	-126.640871
8.900000	-0.356981	-127.262274	-39.853228	-10.976656	-39.853228	-10.976656	-0.356979	-127.260193
8.950000	-0.361788	-127.881571	-39.750248	-12.369260	-39.750248	-12.369260	-0.361787	-127.879465
9.000000	-0.366688	-128.500476	-39.647980	-13.757829	-39.647980	-13.757829	-0.366688	-128.498345
9.050000	-0.371609	-129.119303	-39.546806	-15.145591	-39.546806	-15.145591	-0.371609	-129.117146
9.100000	-0.376615	-129.737863	-39.446371	-16.529692	-39.446371	-16.529692	-0.376614	-129.735679
9.150000	-0.381650	-130.356334	-39.346943	-17.912572	-39.346943	-17.912572	-0.381650	-130.354123
9.200000	-0.386763	-130.974645	-39.248276	-19.292183	-39.248276	-19.292183	-0.386762	-130.972406
9.250000	-0.391915	-131.592876	-39.150536	-20.670159	-39.150536	-20.670159	-0.391915	-131.590608
9.300000	-0.397137	-132.211036	-39.053573	-22.045273	-39.053573	-22.045273	-0.397136	-132.208739
9.350000	-0.402408	-132.829146	-38.957461	-23.418343	-38.957461	-23.418343	-0.402407	-132.826819
9.400000	-0.407740	-133.447257	-38.862140	-24.788968	-38.862140	-24.788968	-0.407739	-133.444899
9.450000	-0.413132	-134.065368	-38.767596	-26.157148	-38.767596	-26.157148	-0.413131	-134.062978
9.500000	-0.418577	-134.683531	-38.673856	-27.523308	-38.673856	-27.523308	-0.418574	-134.681108
9.550000	-0.424092	-135.301766	-38.580821	-28.886638	-38.580821	-28.886638	-0.424089	-135.299311
9.600000	-0.429651	-135.920085	-38.488602	-30.248372	-38.488602	-30.248372	-0.429647	-135.917596
9.650000	-0.435292	-136.538572	-38.397016	-31.606914	-38.397016	-31.606914	-0.435287	-136.536048
9.700000	-0.440967	-137.157154	-38.306258	-32.964280	-38.306258	-32.964280	-0.440961	-137.154594
9.750000	-0.446735	-137.776021	-38.216062	-34.318118	-38.216062	-34.318118	-0.446729	-137.773425
9.800000	-0.452528	-138.394973	-38.126708	-35.671190	-38.126708	-35.671190	-0.452520	-138.392340
9.850000	-0.458427	-139.014352	-38.037845	-37.020433	-38.037845	-37.020433	-0.458418	-139.011681
9.900000	-0.464340	-139.633785	-37.949838	-38.369304	-37.949838	-38.369304	-0.464329	-139.631076
9.950000	-0.470371	-140.253811	-37.862251	-39.714085	-37.862251	-39.714085	-0.470359	-140.251062
10.000000	-0.476407	-140.873836	-37.775537	-41.058865	-37.775537	-41.058865	-0.476393	-140.871049
