! freq	dB(S11)	phase(S11)	dB(S12)	phase(S12)	
!     	dB(S21)	phase(S21)	dB(S22)	phase(S22)	
!S-par simulation data
#  GHz  S  DB  R 50
0.000000	-0.000000	0.000000	-357.422753	0.000000	-357.422753	0.000000	-0.000000	0.000000
0.050000	-0.000121	-0.977923	-114.517997	87.480595	-114.517997	87.480595	-0.000104	-0.765541
0.100000	-0.000479	-1.955551	-108.742236	86.471273	-108.742236	86.471273	-0.000413	-1.530815
0.150000	-0.001060	-2.932610	-105.411271	85.960886	-105.411271	85.960886	-0.000910	-2.295578
0.200000	-0.001842	-3.908872	-103.085735	85.507935	-103.085735	85.507935	-0.001573	-3.059638
0.250000	-0.002812	-4.884071	-101.336893	85.050512	-101.336893	85.050512	-0.002385	-3.822785
0.300000	-0.003924	-5.858150	-99.964091	84.607159	-99.964091	84.607159	-0.003305	-4.585001
0.350000	-0.005159	-6.830962	-98.868666	84.206702	-98.868666	84.206702	-0.004312	-5.346196
0.400000	-0.006490	-7.802438	-97.990229	83.880870	-97.990229	83.880870	-0.005382	-6.106352
0.450000	-0.007891	-8.772545	-97.290884	83.663761	-97.290884	83.663761	-0.006494	-6.865483
0.500000	-0.009340	-9.741276	-96.746071	83.594243	-96.746071	83.594243	-0.007630	-7.623618
0.550000	-0.010818	-10.708643	-96.339780	83.719253	-96.339780	83.719253	-0.008778	-8.380802
0.600000	-0.012311	-11.674670	-96.061784	84.098055	-96.061784	84.098055	-0.009927	-9.137079
0.650000	-0.013807	-12.639389	-95.905865	84.808013	-95.905865	84.808013	-0.011070	-9.892497
0.700000	-0.015295	-13.602832	-95.868389	85.952671	-95.868389	85.952671	-0.012202	-10.647096
0.750000	-0.016771	-14.565030	-95.946710	87.673084	-95.946710	87.673084	-0.013320	-11.400912
0.800000	-0.018229	-15.526009	-96.136692	90.163080	-96.136692	90.163080	-0.014424	-12.153975
0.850000	-0.019666	-16.485793	-96.428160	93.687096	-96.428160	93.687096	-0.015512	-12.906305
0.900000	-0.021083	-17.444395	-96.796326	98.592139	-96.796326	98.592139	-0.016586	-13.657919
0.950000	-0.022477	-18.401827	-97.186963	105.286154	-97.186963	105.286154	-0.017645	-14.408826
1.000000	-0.023851	-19.358091	-97.496708	114.120986	-97.496708	114.120986	-0.018692	-15.159031
1.050000	-0.025203	-20.313187	-97.565022	125.108776	-97.565022	125.108776	-0.019726	-15.908535
1.100000	-0.026537	-21.267108	-97.217240	137.545521	-97.217240	137.545521	-0.020750	-16.657333
1.150000	-0.027853	-22.219843	-96.371996	149.974929	-96.371996	149.974929	-0.021764	-17.405420
1.200000	-0.029152	-23.171379	-95.111006	160.899828	-95.111006	160.899828	-0.022770	-18.152786
1.250000	-0.030437	-24.121696	-93.610241	169.586558	-93.610241	169.586558	-0.023768	-18.899421
1.300000	-0.031708	-25.070722	-92.015720	176.005461	-92.015720	176.005461	-0.024759	-19.645279
1.350000	-0.032968	-26.018486	-90.440982	-179.336164	-90.440982	-179.336164	-0.025746	-20.390379
1.400000	-0.034217	-26.964966	-88.930019	-176.023019	-88.930019	-176.023019	-0.026727	-21.134706
1.450000	-0.035458	-27.910135	-87.498938	-173.718219	-87.498938	-173.718219	-0.027704	-21.878245
1.500000	-0.036691	-28.853969	-86.150135	-172.169399	-86.150135	-172.169399	-0.028678	-22.620981
1.550000	-0.037918	-29.796441	-84.879938	-171.192723	-84.879938	-171.192723	-0.029650	-23.362897
1.600000	-0.039139	-30.737524	-83.682376	-170.654898	-83.682376	-170.654898	-0.030618	-24.103978
1.650000	-0.040356	-31.677193	-82.550935	-170.458654	-82.550935	-170.458654	-0.031585	-24.844207
1.700000	-0.041568	-32.615419	-81.479334	-170.532184	-81.479334	-170.532184	-0.032550	-25.583569
1.750000	-0.042779	-33.552177	-80.461821	-170.821749	-80.461821	-170.821749	-0.033514	-26.322047
1.800000	-0.043986	-34.487440	-79.493260	-171.286553	-79.493260	-171.286553	-0.034477	-27.059624
1.850000	-0.045193	-35.421182	-78.569119	-171.895195	-78.569119	-171.895195	-0.035440	-27.796286
1.900000	-0.046398	-36.353378	-77.685415	-172.623174	-77.685415	-172.623174	-0.036403	-28.532017
1.950000	-0.047603	-37.284003	-76.838654	-173.451140	-76.838654	-173.451140	-0.037366	-29.266800
2.000000	-0.048809	-38.213033	-76.025765	-174.363623	-76.025765	-174.363623	-0.038329	-30.000620
2.050000	-0.050015	-39.140442	-75.244040	-175.348128	-75.244040	-175.348128	-0.039293	-30.733462
2.100000	-0.051222	-40.066209	-74.491087	-176.394456	-74.491087	-176.394456	-0.040258	-31.465312
2.150000	-0.052431	-40.990311	-73.764784	-177.494206	-73.764784	-177.494206	-0.041224	-32.196153
2.200000	-0.053642	-41.912726	-73.063242	-178.640401	-73.063242	-178.640401	-0.042192	-32.925971
2.250000	-0.054855	-42.833433	-72.384772	-179.827194	-72.384772	-179.827194	-0.043162	-33.654753
2.300000	-0.056071	-43.752411	-71.727857	178.950343	-71.727857	178.950343	-0.044134	-34.382483
2.350000	-0.057291	-44.669640	-71.091134	177.696401	-71.091134	177.696401	-0.045108	-35.109148
2.400000	-0.058515	-45.585103	-70.473370	176.414560	-70.473370	176.414560	-0.046086	-35.834733
2.450000	-0.059743	-46.498780	-69.873447	175.107899	-69.873447	175.107899	-0.047066	-36.559226
2.500000	-0.060975	-47.410655	-69.290349	173.779082	-69.290349	173.779082	-0.048050	-37.282613
2.550000	-0.062213	-48.320630	-68.722234	172.429657	-68.722234	172.429657	-0.049038	-38.004832
2.600000	-0.063456	-49.228768	-68.169261	171.062573	-68.169261	171.062573	-0.050030	-38.725918
2.650000	-0.064705	-50.135054	-67.630643	169.679576	-67.630643	169.679576	-0.051027	-39.445859
2.700000	-0.065961	-51.039475	-67.105655	168.282207	-67.105655	168.282207	-0.052028	-40.164642
2.750000	-0.067223	-51.942015	-66.593627	166.871833	-66.593627	166.871833	-0.053035	-40.882255
2.800000	-0.068492	-52.842664	-66.093945	165.449669	-66.093945	165.449669	-0.054047	-41.598687
2.850000	-0.069769	-53.741408	-65.606035	164.016799	-65.606035	164.016799	-0.055065	-42.313926
2.900000	-0.071054	-54.638236	-65.129369	162.574194	-65.129369	162.574194	-0.056089	-43.027961
2.950000	-0.072348	-55.533138	-64.663453	161.122727	-64.663453	161.122727	-0.057119	-43.740782
3.000000	-0.073651	-56.426104	-64.207827	159.663183	-64.207827	159.663183	-0.058156	-44.452377
3.050000	-0.074963	-57.317125	-63.762064	158.196272	-63.762064	158.196272	-0.059201	-45.162736
3.100000	-0.076285	-58.206193	-63.325762	156.722639	-63.325762	156.722639	-0.060253	-45.871849
3.150000	-0.077617	-59.093300	-62.898546	155.242866	-62.898546	155.242866	-0.061314	-46.579707
3.200000	-0.078961	-59.978439	-62.480064	153.757485	-62.480064	153.757485	-0.062382	-47.286299
3.250000	-0.080316	-60.861606	-62.069984	152.266982	-62.069984	152.266982	-0.063459	-47.991618
3.300000	-0.081682	-61.742793	-61.667996	150.771800	-61.667996	150.771800	-0.064545	-48.695653
3.350000	-0.083061	-62.621997	-61.273806	149.272346	-61.273806	149.272346	-0.065641	-49.398397
3.400000	-0.084453	-63.499214	-60.887138	147.768992	-60.887138	147.768992	-0.066746	-50.099841
3.450000	-0.085858	-64.374440	-60.507729	146.262081	-60.507729	146.262081	-0.067862	-50.799977
3.500000	-0.087277	-65.247674	-60.135332	144.751930	-60.135332	144.751930	-0.068988	-51.498797
3.550000	-0.088710	-66.118913	-59.769714	143.238830	-59.769714	143.238830	-0.070125	-52.196295
3.600000	-0.090158	-66.988157	-59.410651	141.723052	-59.410651	141.723052	-0.071273	-52.892464
3.650000	-0.091621	-67.855405	-59.057934	140.204844	-59.057934	140.204844	-0.072433	-53.587295
3.700000	-0.093100	-68.720659	-58.711363	138.684438	-58.711363	138.684438	-0.073604	-54.280785
3.750000	-0.094595	-69.583918	-58.370746	137.162049	-58.370746	137.162049	-0.074788	-54.972925
3.800000	-0.096108	-70.445098	-58.035594	135.637809	-58.035594	135.637809	-0.075985	-55.663651
3.850000	-0.097639	-71.304290	-57.706065	134.111987	-57.706065	134.111987	-0.077196	-56.353017
3.900000	-0.099187	-72.161495	-57.381993	132.584755	-57.381993	132.584755	-0.078420	-57.041018
3.950000	-0.100753	-73.016718	-57.063220	131.056274	-57.063220	131.056274	-0.079657	-57.727649
4.000000	-0.102339	-73.869964	-56.749593	129.526693	-56.749593	129.526693	-0.080909	-58.412904
4.050000	-0.103943	-74.721238	-56.440969	127.996153	-56.440969	127.996153	-0.082176	-59.096781
4.100000	-0.105568	-75.570546	-56.137209	126.464786	-56.137209	126.464786	-0.083457	-59.779276
4.150000	-0.107213	-76.417894	-55.838181	124.932715	-55.838181	124.932715	-0.084754	-60.460384
4.200000	-0.108879	-77.263290	-55.543759	123.400055	-55.543759	123.400055	-0.086067	-61.140104
4.250000	-0.110566	-78.106742	-55.253820	121.866915	-55.253820	121.866915	-0.087395	-61.818431
4.300000	-0.112275	-78.948259	-54.968248	120.333397	-54.968248	120.333397	-0.088740	-62.495365
4.350000	-0.114007	-79.787849	-54.686931	118.799599	-54.686931	118.799599	-0.090102	-63.170901
4.400000	-0.115761	-80.625522	-54.409763	117.265611	-54.409763	117.265611	-0.091481	-63.845039
4.450000	-0.117538	-81.461290	-54.136640	115.731518	-54.136640	115.731518	-0.092878	-64.517776
4.500000	-0.119340	-82.295162	-53.867462	114.197402	-53.867462	114.197402	-0.094293	-65.189113
4.550000	-0.121165	-83.127151	-53.602136	112.663339	-53.602136	112.663339	-0.095726	-65.859047
4.600000	-0.123016	-83.957269	-53.340568	111.129402	-53.340568	111.129402	-0.097177	-66.527578
4.650000	-0.124891	-84.785529	-53.082671	109.595660	-53.082671	109.595660	-0.098648	-67.194705
4.700000	-0.126793	-85.611944	-52.828360	108.062178	-52.828360	108.062178	-0.100138	-67.860429
4.750000	-0.128720	-86.436528	-52.577552	106.529018	-52.577552	106.529018	-0.101649	-68.524750
4.800000	-0.130675	-87.259296	-52.330169	104.996239	-52.330169	104.996239	-0.103179	-69.187668
4.850000	-0.132656	-88.080263	-52.086134	103.463897	-52.086134	103.463897	-0.104730	-69.849185
4.900000	-0.134665	-88.899445	-51.845375	101.932046	-51.845375	101.932046	-0.106302	-70.509300
4.950000	-0.136702	-89.716858	-51.607819	100.400736	-51.607819	100.400736	-0.107895	-71.168017
5.000000	-0.138768	-90.532518	-51.373398	98.870017	-51.373398	98.870017	-0.109511	-71.825335
5.050000	-0.140879	-91.345475	-51.140308	97.340324	-51.140308	97.340324	-0.111161	-72.480471
5.100000	-0.142990	-92.158432	-50.913310	95.810630	-50.913310	95.810630	-0.112811	-73.135607
5.150000	-0.145159	-92.968144	-50.686538	94.282334	-50.686538	94.282334	-0.114505	-73.788082
5.200000	-0.147333	-93.777562	-50.465043	92.754165	-50.465043	92.754165	-0.116203	-74.440316
5.250000	-0.149560	-94.584102	-50.244309	91.227413	-50.244309	91.227413	-0.117942	-75.090143
5.300000	-0.151798	-95.390065	-50.028120	89.700945	-50.028120	89.700945	-0.119690	-75.739488
5.350000	-0.154086	-96.193505	-49.813166	88.175874	-49.813166	88.175874	-0.121476	-76.386679
5.400000	-0.156391	-96.996103	-49.602096	86.651270	-49.602096	86.651270	-0.123275	-77.033151
5.450000	-0.158741	-97.796521	-49.392677	85.128010	-49.392677	85.128010	-0.125109	-77.677720
5.500000	-0.161114	-98.595848	-49.186551	83.605422	-49.186551	83.605422	-0.126962	-78.321338
5.550000	-0.163528	-99.393323	-48.982441	82.084094	-48.982441	82.084094	-0.128846	-78.963301
5.600000	-0.165971	-100.189477	-48.781091	80.563666	-48.781091	80.563666	-0.130752	-79.604084
5.650000	-0.168450	-100.984094	-48.582078	79.044387	-48.582078	79.044387	-0.132688	-80.243460
5.700000	-0.170965	-101.777177	-48.385348	77.526255	-48.385348	77.526255	-0.134651	-80.881430
5.750000	-0.173511	-102.569024	-48.191231	76.009135	-48.191231	76.009135	-0.136638	-81.518239
5.800000	-0.176099	-103.359142	-47.998971	74.493430	-47.998971	74.493430	-0.138660	-82.153422
5.850000	-0.178714	-104.148309	-47.809564	72.978575	-47.809564	72.978575	-0.140701	-82.787684
5.900000	-0.181378	-104.935573	-47.621633	71.465421	-47.621633	71.465421	-0.142783	-83.420107
5.950000	-0.184062	-105.722153	-47.436758	69.952935	-47.436758	69.952935	-0.144880	-84.051846
6.000000	-0.186804	-106.506679	-47.253022	68.442453	-47.253022	68.442453	-0.147023	-84.681537
6.050000	-0.189559	-107.290768	-47.072513	66.932437	-47.072513	66.932437	-0.149177	-85.310777
6.100000	-0.192380	-108.072675	-46.892845	65.424746	-46.892845	65.424746	-0.151383	-85.937767
6.150000	-0.195208	-108.854373	-46.716546	63.917297	-46.716546	63.917297	-0.153595	-86.564535
6.200000	-0.198110	-109.633783	-46.540824	62.412512	-46.540824	62.412512	-0.155866	-87.188858
6.250000	-0.201012	-110.413193	-46.368586	60.907727	-46.368586	60.907727	-0.158138	-87.813181
6.300000	-0.203996	-111.190233	-46.196695	59.405964	-46.196695	59.405964	-0.160476	-88.434871
6.350000	-0.206981	-111.967273	-46.028139	57.904201	-46.028139	57.904201	-0.162815	-89.056561
6.400000	-0.210043	-112.742261	-45.860209	56.405312	-45.860209	56.405312	-0.165216	-89.675872
6.450000	-0.213112	-113.517062	-45.695233	54.906685	-45.695233	54.906685	-0.167623	-90.294967
6.500000	-0.216252	-114.290110	-45.531129	53.410767	-45.531129	53.410767	-0.170088	-90.911931
6.550000	-0.219407	-115.062807	-45.369634	51.915391	-45.369634	51.915391	-0.172565	-91.528469
6.600000	-0.222627	-115.834029	-45.209229	50.422540	-45.209229	50.422540	-0.175096	-92.143119
6.650000	-0.225869	-116.604760	-45.051123	48.930532	-45.051123	48.930532	-0.177646	-92.757140
6.700000	-0.229171	-117.374275	-44.894296	47.440847	-44.894296	47.440847	-0.180244	-93.369512
6.750000	-0.232502	-118.143181	-44.739490	45.952325	-44.739490	45.952325	-0.182867	-93.981058
6.800000	-0.235887	-118.911110	-44.586128	44.465908	-44.586128	44.465908	-0.185534	-94.591187
6.850000	-0.239309	-119.678339	-44.434537	42.980994	-44.434537	42.980994	-0.188232	-95.200303
6.900000	-0.242777	-120.444804	-44.284530	41.497949	-44.284530	41.497949	-0.190969	-95.808227
6.950000	-0.246291	-121.210505	-44.136073	40.016772	-44.136073	40.016772	-0.193745	-96.414958
7.000000	-0.249845	-121.975633	-43.989321	38.537209	-43.989321	38.537209	-0.196553	-97.020714
7.050000	-0.253452	-122.739960	-43.843922	37.059904	-43.843922	37.059904	-0.199408	-97.625107
7.100000	-0.257092	-123.503882	-43.700328	35.583938	-43.700328	35.583938	-0.202289	-98.228736
7.150000	-0.260795	-124.266993	-43.557912	34.110648	-43.557912	34.110648	-0.205224	-98.830839
7.200000	-0.264523	-125.029840	-43.417385	32.638402	-43.417385	32.638402	-0.208180	-99.432382
7.250000	-0.268323	-125.791896	-43.277886	31.169285	-43.277886	31.169285	-0.211197	-100.032245
7.300000	-0.272140	-126.553805	-43.140339	29.700892	-43.140339	29.700892	-0.214228	-100.631744
7.350000	-0.276037	-127.314973	-43.003691	28.236120	-43.003691	28.236120	-0.217329	-101.229419
7.400000	-0.279944	-128.076082	-42.869044	26.771725	-42.869044	26.771725	-0.220438	-101.826915
7.450000	-0.283941	-128.836533	-42.735189	25.311491	-42.735189	25.311491	-0.223625	-102.422455
7.500000	-0.287939	-129.596985	-42.603365	23.851256	-42.603365	23.851256	-0.226812	-103.017994
7.550000	-0.292036	-130.356894	-42.472247	22.395781	-42.472247	22.395781	-0.230086	-103.611452
7.600000	-0.296135	-131.116804	-42.343079	20.940305	-42.343079	20.940305	-0.233360	-104.204910
7.650000	-0.300326	-131.876384	-42.214746	19.489426	-42.214746	19.489426	-0.236716	-104.796510
7.700000	-0.304527	-132.635933	-42.088187	18.038966	-42.088187	18.038966	-0.240079	-105.387942
7.750000	-0.308813	-133.395337	-41.962577	16.592938	-41.962577	16.592938	-0.243518	-105.977733
7.800000	-0.313117	-134.154713	-41.838586	15.147796	-41.838586	15.147796	-0.246972	-106.567196
7.850000	-0.317498	-134.914102	-41.715643	13.706918	-41.715643	13.706918	-0.250495	-107.155226
7.900000	-0.321906	-135.673496	-41.594186	12.267460	-41.594186	12.267460	-0.254042	-107.742777
7.950000	-0.326384	-136.433037	-41.473861	10.832091	-41.473861	10.832091	-0.257651	-108.329094
8.000000	-0.330898	-137.192650	-41.354911	9.398765	-41.354911	9.398765	-0.261291	-108.914793
8.050000	-0.335473	-137.952513	-41.237163	7.969341	-41.237163	7.969341	-0.264988	-109.499448
8.100000	-0.340093	-138.712555	-41.120702	6.542705	-41.120702	6.542705	-0.268725	-110.083355
8.150000	-0.344767	-139.472919	-41.005497	5.119767	-41.005497	5.119767	-0.272510	-110.666397
8.200000	-0.349494	-140.233607	-40.891519	3.700526	-40.891519	3.700526	-0.276344	-111.248574
8.250000	-0.354267	-140.994661	-40.778835	2.284745	-40.778835	2.284745	-0.280221	-111.830055
8.300000	-0.359103	-141.756227	-40.667344	0.873809	-40.667344	0.873809	-0.284155	-112.410563
8.350000	-0.363976	-142.518167	-40.557170	-0.533962	-40.557170	-0.533962	-0.288123	-112.990536
8.400000	-0.368921	-143.280857	-40.448187	-1.935403	-40.448187	-1.935403	-0.292159	-113.569438
8.450000	-0.373895	-144.043896	-40.340524	-3.334073	-40.340524	-3.334073	-0.296222	-114.147954
8.500000	-0.378951	-144.807978	-40.234090	-4.724431	-40.234090	-4.724431	-0.300362	-114.725313
8.550000	-0.384027	-145.572341	-40.128956	-6.112582	-40.128956	-6.112582	-0.304521	-115.302425
8.600000	-0.389193	-146.338109	-40.025135	-7.489698	-40.025135	-7.489698	-0.308768	-115.878304
8.650000	-0.394372	-147.104046	-39.922565	-8.865459	-39.922565	-8.865459	-0.313025	-116.454065
8.700000	-0.399652	-147.871833	-39.821453	-10.226330	-39.821453	-10.226330	-0.317382	-117.028527
8.750000	-0.404935	-148.639621	-39.721504	-11.587202	-39.721504	-11.587202	-0.321741	-117.602989
8.800000	-0.410330	-149.409815	-39.623230	-12.927549	-39.623230	-12.927549	-0.326212	-118.176094
8.850000	-0.415728	-150.180010	-39.526056	-14.267897	-39.526056	-14.267897	-0.330685	-118.749199
8.900000	-0.421233	-150.952843	-39.430722	-15.583672	-39.430722	-15.583672	-0.335265	-119.321113
8.950000	-0.426751	-151.725916	-39.336492	-16.897214	-39.336492	-16.897214	-0.339857	-119.892919
9.000000	-0.432372	-152.501891	-39.244252	-18.180454	-39.244252	-18.180454	-0.344552	-120.463683
9.050000	-0.438017	-153.278445	-39.153175	-19.457635	-39.153175	-19.457635	-0.349271	-121.034239
9.100000	-0.443767	-154.058228	-39.064185	-20.696172	-39.064185	-20.696172	-0.354090	-121.603884
9.150000	-0.449555	-154.839087	-38.976474	-21.921829	-38.976474	-21.921829	-0.358945	-122.173225
9.200000	-0.455447	-155.623262	-38.890712	-23.101758	-38.890712	-23.101758	-0.363891	-122.741829
9.250000	-0.461393	-156.409093	-38.806319	-24.258823	-38.806319	-24.258823	-0.368885	-123.310064
9.300000	-0.467518	-157.200380	-38.723966	-25.329335	-38.723966	-25.329335	-0.374011	-123.877331
9.350000	-0.473717	-157.993610	-38.642517	-26.365587	-38.642517	-26.365587	-0.379181	-124.444303
9.400000	-0.480155	-158.793204	-38.561994	-27.286661	-38.561994	-27.286661	-0.384487	-125.010348
9.450000	-0.486847	-159.598028	-38.480411	-28.100763	-38.480411	-28.100763	-0.389893	-125.575738
9.500000	-0.493837	-160.409035	-38.397482	-28.788445	-38.397482	-28.788445	-0.395415	-126.140354
9.550000	-0.501381	-161.228907	-38.308049	-29.278917	-38.308049	-29.278917	-0.401084	-126.703917
9.600000	-0.509924	-162.061941	-38.203036	-29.465168	-38.203036	-29.465168	-0.406952	-127.265888
9.650000	-0.520459	-162.913928	-38.058463	-29.198117	-38.058463	-29.198117	-0.413065	-127.825340
9.700000	-0.534211	-163.787980	-37.843607	-28.406101	-37.843607	-28.406101	-0.419408	-128.381355
9.750000	-0.555754	-164.694004	-37.450590	-26.917276	-37.450590	-26.917276	-0.425927	-128.930409
9.800000	-0.594599	-165.618197	-36.690207	-25.257157	-36.690207	-25.257157	-0.431998	-129.466986
9.850000	-0.666257	-166.429502	-35.378755	-26.092311	-35.378755	-26.092311	-0.435116	-129.986636
9.900000	-0.741666	-166.754549	-34.052705	-34.162316	-34.052705	-34.162316	-0.430925	-130.519693
9.950000	-0.722424	-166.918571	-33.902392	-45.606994	-33.902392	-45.606994	-0.426757	-131.120553
10.000000	-0.670025	-167.525648	-34.481000	-52.687785	-34.481000	-52.687785	-0.430732	-131.734956
