! freq	dB(S11)	phase(S11)	dB(S12)	phase(S12)	
!     	dB(S21)	phase(S21)	dB(S22)	phase(S22)	
!S-par simulation data
#  GHz  S  DB  R 50
0.000000	-83.913767	0.000000	-0.000554	0.000000	-0.000554	0.000000	-83.913767	0.000000
0.050000	-37.123593	-92.412984	-0.004474	-3.037628	-0.004474	-3.037628	-37.120837	-92.400500
0.100000	-31.093864	-95.786305	-0.013343	-6.048033	-0.013343	-6.048033	-31.093388	-95.792758
0.150000	-27.587512	-98.973850	-0.023611	-9.035317	-0.023611	-9.035317	-27.587711	-98.984000
0.200000	-25.114413	-102.096134	-0.034354	-12.011215	-0.034354	-12.011215	-25.114814	-102.108879
0.250000	-23.210315	-105.181847	-0.045785	-14.981513	-0.045785	-14.981513	-23.210753	-105.197286
0.300000	-21.668496	-108.240941	-0.058230	-17.948040	-0.058230	-17.948040	-21.668904	-108.259331
0.350000	-20.377730	-111.278235	-0.071830	-20.910888	-0.071830	-20.910888	-20.378086	-111.299825
0.400000	-19.272125	-114.295488	-0.086657	-23.869383	-0.086657	-23.869383	-19.272423	-114.320495
0.450000	-18.309840	-117.293140	-0.102760	-26.822446	-0.102760	-26.822446	-18.310087	-117.321746
0.500000	-17.460615	-120.273254	-0.120028	-29.769533	-0.120028	-29.769533	-17.460823	-120.305590
0.550000	-16.703579	-123.236848	-0.138385	-32.709947	-0.138385	-32.709947	-16.703763	-123.273009
0.600000	-16.024087	-126.184267	-0.157784	-35.642728	-0.157784	-35.642728	-16.024261	-126.224320
0.650000	-15.409716	-129.117190	-0.178080	-38.567633	-0.178080	-38.567633	-15.409893	-129.161176
0.700000	-14.851157	-132.036813	-0.199155	-41.484372	-0.199155	-41.484372	-14.851348	-132.084758
0.750000	-14.341645	-134.943785	-0.220910	-44.392410	-0.220910	-44.392410	-14.341857	-134.995709
0.800000	-13.875263	-137.839155	-0.243219	-47.291593	-0.243219	-47.291593	-13.875503	-137.895078
0.850000	-13.447035	-140.723991	-0.265950	-50.181951	-0.265950	-50.181951	-13.447304	-140.783937
0.900000	-13.052968	-143.599150	-0.288982	-53.063520	-0.288982	-53.063520	-13.053268	-143.663153
0.950000	-12.689813	-146.465348	-0.312197	-55.936358	-0.312197	-55.936358	-12.690141	-146.533455
1.000000	-12.354770	-149.323271	-0.335476	-58.800633	-0.335476	-58.800633	-12.355126	-149.395541
1.050000	-12.045453	-152.173541	-0.358707	-61.656584	-0.358707	-61.656584	-12.045834	-152.250049
1.100000	-11.759809	-155.016721	-0.381779	-64.504512	-0.381779	-64.504512	-11.760210	-155.097557
1.150000	-11.496054	-157.853326	-0.404590	-67.344774	-0.404590	-67.344774	-11.496472	-157.938594
1.200000	-11.252632	-160.683831	-0.427040	-70.177779	-0.427040	-70.177779	-11.253065	-160.773649
1.250000	-11.028174	-163.508679	-0.449038	-73.003980	-0.449038	-73.003980	-11.028619	-163.603180
1.300000	-10.821732	-166.328187	-0.470482	-75.823744	-0.470482	-75.823744	-10.822186	-166.427517
1.350000	-10.631952	-169.142882	-0.491307	-78.637750	-0.491307	-78.637750	-10.632413	-169.247197
1.400000	-10.457866	-171.953159	-0.511438	-81.446555	-0.511438	-81.446555	-10.458334	-172.062626
1.450000	-10.298604	-174.759410	-0.530812	-84.250740	-0.530812	-84.250740	-10.299079	-174.874205
1.500000	-10.153381	-177.562028	-0.549370	-87.050908	-0.549370	-87.050908	-10.153862	-177.682337
1.550000	-10.021481	179.638588	-0.567061	-89.847676	-0.567061	-89.847676	-10.021969	179.512569
1.600000	-9.902251	176.842031	-0.583839	-92.641673	-0.583839	-92.641673	-9.902748	176.710098
1.650000	-9.795094	174.047883	-0.599667	-95.433538	-0.599667	-95.433538	-9.795602	173.909824
1.700000	-9.699460	171.255713	-0.614513	-98.223915	-0.614513	-98.223915	-9.699981	171.111307
1.750000	-9.614842	168.465078	-0.628350	-101.013451	-0.628350	-101.013451	-9.615378	168.314094
1.800000	-9.540768	165.675517	-0.641161	-103.802795	-0.641161	-103.802795	-9.541323	165.517716
1.850000	-9.476800	162.886557	-0.652931	-106.592593	-0.652931	-106.592593	-9.477377	162.721691
1.900000	-9.422628	160.097705	-0.663641	-109.383505	-0.663641	-109.383505	-9.423231	159.925514
1.950000	-9.377860	157.308443	-0.673289	-112.176190	-0.673289	-112.176190	-9.378491	157.128653
2.000000	-9.342033	154.518252	-0.681891	-114.971262	-0.681891	-114.971262	-9.342695	154.330583
2.050000	-9.314805	151.726605	-0.689455	-117.769340	-0.689455	-117.769340	-9.315503	151.530766
2.100000	-9.296539	148.932734	-0.695908	-120.571406	-0.695908	-120.571406	-9.297275	148.728396
2.150000	-9.285444	146.136539	-0.701458	-123.377302	-0.701458	-123.377302	-9.286222	145.923414
2.200000	-9.282023	143.337265	-0.706027	-126.187967	-0.706027	-126.187967	-9.282846	143.115024
2.250000	-9.285989	140.534356	-0.709644	-129.003965	-0.709644	-129.003965	-9.286860	140.302658
2.300000	-9.297064	137.727255	-0.712340	-131.825841	-0.712340	-131.825841	-9.297985	137.485744
2.350000	-9.314974	134.915406	-0.714153	-134.654121	-0.714153	-134.654121	-9.315948	134.663711
2.400000	-9.339451	132.098253	-0.715125	-137.489307	-0.715125	-137.489307	-9.340482	131.835990
2.450000	-9.370228	129.275250	-0.715298	-140.331883	-0.715298	-140.331883	-9.371318	129.002021
2.500000	-9.407039	126.445857	-0.714722	-143.182306	-0.714722	-143.182306	-9.408190	126.161250
2.550000	-9.449841	123.609222	-0.713420	-146.041386	-0.713420	-146.041386	-9.451056	123.312790
2.600000	-9.498104	120.765112	-0.711479	-148.909184	-0.711479	-148.909184	-9.499385	120.456414
2.650000	-9.551547	117.913033	-0.708957	-151.786073	-0.708957	-151.786073	-9.552896	117.591616
2.700000	-9.609879	115.052510	-0.705913	-154.672395	-0.705913	-154.672395	-9.611300	114.717910
2.750000	-9.672801	112.183094	-0.702408	-157.568464	-0.702408	-157.568464	-9.674296	111.834837
2.800000	-9.739999	109.304359	-0.698506	-160.474561	-0.698506	-160.474561	-9.741570	108.941962
2.850000	-9.811145	106.415906	-0.694269	-163.390939	-0.694269	-163.390939	-9.812793	106.038881
2.900000	-9.885890	103.517366	-0.689762	-166.317817	-0.689762	-166.317817	-9.887620	103.125222
2.950000	-9.963871	100.608400	-0.685049	-169.255384	-0.685049	-169.255384	-9.965684	100.200647
3.000000	-10.044698	97.688703	-0.680196	-172.203801	-0.680196	-172.203801	-10.046597	97.264853
3.050000	-10.127961	94.758002	-0.675264	-175.163196	-0.675264	-175.163196	-10.129947	94.317574
3.100000	-10.213221	91.816058	-0.670318	-178.133673	-0.670318	-178.133673	-10.215298	91.358585
3.150000	-10.300016	88.862665	-0.665417	178.884693	-0.665417	178.884693	-10.302185	88.387698
3.200000	-10.387852	85.897652	-0.660621	175.891848	-0.660621	175.891848	-10.390116	85.404763
3.250000	-10.476207	82.920879	-0.655987	172.887762	-0.655987	172.887762	-10.478567	82.409671
3.300000	-10.564529	79.932236	-0.651570	169.872423	-0.651570	169.872423	-10.566988	79.402349
3.350000	-10.652237	76.931642	-0.647423	166.845838	-0.647423	166.845838	-10.654795	76.382761
3.400000	-10.738719	73.919041	-0.643596	163.808025	-0.643596	163.808025	-10.741378	73.350902
3.450000	-10.823337	70.894399	-0.640135	160.759014	-0.640135	160.759014	-10.826097	70.306799
3.500000	-10.905426	67.857700	-0.637085	157.698842	-0.637085	157.698842	-10.908287	67.250506
3.550000	-10.984298	64.808942	-0.634489	154.627552	-0.634489	154.627552	-10.987260	64.182098
3.600000	-11.059247	61.748132	-0.632385	151.545191	-0.632385	151.545191	-11.062309	61.101668
3.650000	-11.129554	58.675280	-0.630812	148.451802	-0.630812	148.451802	-11.132714	58.009322
3.700000	-11.194489	55.590396	-0.629804	145.347427	-0.629804	145.347427	-11.197746	54.905173
3.750000	-11.253325	52.493486	-0.629395	142.232106	-0.629395	142.232106	-11.256675	51.789337
3.800000	-11.304998	49.384023	-0.629647	139.105397	-0.629647	139.105397	-11.308436	48.661427
3.850000	-11.349087	46.262510	-0.630564	135.967798	-0.630564	135.967798	-11.352610	45.522053
3.900000	-11.384915	43.128914	-0.632178	132.819326	-0.632178	132.819326	-11.388516	42.371306
3.950000	-11.411840	39.983184	-0.634519	129.659986	-0.634519	129.659986	-11.415511	39.209259
4.000000	-11.429263	36.825254	-0.637619	126.489779	-0.637619	126.489779	-11.432999	36.035968
4.050000	-11.436646	33.655043	-0.641510	123.308694	-0.641510	123.308694	-11.440437	32.851469
4.100000	-11.433512	30.472456	-0.646226	120.116718	-0.646226	120.116718	-11.437350	29.655780
4.150000	-11.419461	27.277392	-0.651800	116.913829	-0.651800	116.913829	-11.423336	26.448903
4.200000	-11.394175	24.069748	-0.658270	113.700007	-0.658270	113.700007	-11.398076	23.230827
4.250000	-11.357423	20.849424	-0.665674	110.475229	-0.665674	110.475229	-11.361340	20.001528
4.300000	-11.309070	17.616331	-0.674055	107.239474	-0.674055	107.239474	-11.312992	16.760983
4.350000	-11.249078	14.370396	-0.683456	103.992729	-0.683456	103.992729	-11.252994	13.509165
4.400000	-11.179089	11.113258	-0.693779	100.736421	-0.693779	100.736421	-11.182988	10.247532
4.450000	-11.095960	7.841391	-0.705368	97.467568	-0.705368	97.467568	-11.099831	6.973008
4.500000	-11.001655	4.556639	-0.718126	94.187744	-0.718126	94.187744	-11.005486	3.687206
4.550000	-10.896520	1.259070	-0.732106	90.896992	-0.732106	90.896992	-10.900302	0.390168
4.600000	-10.780985	-2.051203	-0.747365	87.595374	-0.747365	87.595374	-10.784710	-2.918032
4.650000	-10.655559	-5.374018	-0.763962	84.282981	-0.763962	84.282981	-10.659217	-6.237288
4.700000	-10.520818	-8.709161	-0.781955	80.959931	-0.781955	80.959931	-10.524400	-9.567454
4.750000	-10.377396	-12.056371	-0.801405	77.626373	-0.801405	77.626373	-10.380896	-12.908347
4.800000	-10.225543	-15.415826	-0.822440	74.282054	-0.822440	74.282054	-10.228956	-16.260188
4.850000	-10.066972	-18.786054	-0.844972	70.928183	-0.844972	70.928183	-10.070292	-19.621710
4.900000	-9.901863	-22.167294	-0.869141	67.564456	-0.869141	67.564456	-9.905086	-22.993187
4.950000	-9.730982	-25.559111	-0.895003	64.191164	-0.895003	64.191164	-9.734106	-26.374285
5.000000	-9.555106	-28.961038	-0.922615	60.808636	-0.922615	60.808636	-9.558126	-29.764643
5.050000	-9.374775	-32.372876	-0.952086	57.416966	-0.952086	57.416966	-9.377692	-33.164143
5.100000	-9.191034	-35.793780	-0.983406	54.016857	-0.983406	54.016857	-9.193845	-36.572066
5.150000	-9.004636	-39.223218	-1.016619	50.608747	-1.016619	50.608747	-9.007341	-39.987978
5.200000	-8.816313	-42.660647	-1.051760	47.193102	-1.051760	47.193102	-8.818911	-43.411426
5.250000	-8.626771	-46.105521	-1.088858	43.770417	-1.088858	43.770417	-8.629263	-46.841951
5.300000	-8.436684	-49.557293	-1.127933	40.341204	-1.127933	40.341204	-8.439069	-50.279087
5.350000	-8.246692	-53.015423	-1.169000	36.905994	-1.169000	36.905994	-8.248972	-53.722368
5.400000	-8.057397	-56.479382	-1.212063	33.465329	-1.212063	33.465329	-8.059572	-57.171331
5.450000	-7.869364	-59.948657	-1.257117	30.019750	-1.257117	30.019750	-7.871435	-60.625525
5.500000	-7.683116	-63.422757	-1.304148	26.569800	-1.304148	26.569800	-7.685083	-64.084514
5.550000	-7.499135	-66.901215	-1.353131	23.116007	-1.353131	23.116007	-7.501000	-67.547880
5.600000	-7.317864	-70.383599	-1.404031	19.658880	-1.404031	19.658880	-7.319626	-71.015230
5.650000	-7.139701	-73.869545	-1.456821	16.198877	-1.456821	16.198877	-7.141361	-74.486241
5.700000	-6.965022	-77.358687	-1.511442	12.736460	-1.511442	12.736460	-6.966581	-77.960577
5.750000	-6.794152	-80.850682	-1.567813	9.272058	-1.567813	9.272058	-6.795611	-81.437921
5.800000	-6.627371	-84.345280	-1.625858	5.806018	-1.625858	5.806018	-6.628730	-84.918043
5.850000	-6.464922	-87.842289	-1.685494	2.338626	-1.685494	2.338626	-6.466180	-88.400768
5.900000	-6.307012	-91.341584	-1.746629	-1.129901	-1.746629	-1.129901	-6.308170	-91.885982
5.950000	-6.153813	-94.843108	-1.809165	-4.599424	-1.809165	-4.599424	-6.154872	-95.373640
6.000000	-6.005466	-98.346885	-1.872994	-8.069887	-1.872994	-8.069887	-6.006425	-98.863768
6.050000	-5.862080	-101.853020	-1.938005	-11.541326	-1.938005	-11.541326	-5.862940	-102.356474
6.100000	-5.723736	-105.361709	-2.004081	-15.013875	-2.004081	-15.013875	-5.724497	-105.851955
6.150000	-5.590488	-108.873243	-2.071101	-18.487771	-2.071101	-18.487771	-5.591150	-109.350497
6.200000	-5.462363	-112.388015	-2.138943	-21.963362	-2.138943	-21.963362	-5.462926	-112.852489
6.250000	-5.339365	-115.906527	-2.207481	-25.441109	-2.207481	-25.441109	-5.339829	-116.358425
6.300000	-5.221554	-119.429507	-2.276589	-28.921673	-2.276589	-28.921673	-5.221919	-119.869028
6.350000	-5.108818	-122.957622	-2.346140	-32.405723	-2.346140	-32.405723	-5.109084	-123.384948
6.400000	-5.001098	-126.491744	-2.416013	-35.894108	-2.416013	-35.894108	-5.001265	-126.907047
6.450000	-4.898317	-130.032885	-2.486093	-39.387810	-2.486093	-39.387810	-4.898384	-130.436322
6.500000	-4.800383	-133.582196	-2.556268	-42.887952	-2.556268	-42.887952	-4.800351	-133.973907
6.550000	-4.707189	-137.140977	-2.626436	-46.395798	-2.626436	-46.395798	-4.707057	-137.521086
6.600000	-4.618614	-140.710684	-2.696501	-49.912763	-2.696501	-49.912763	-4.618382	-141.079300
6.650000	-4.534527	-144.292939	-2.766379	-53.440416	-2.766379	-53.440416	-4.534192	-144.650152
6.700000	-4.454718	-147.889233	-2.836015	-56.980215	-2.836015	-56.980215	-4.454281	-148.235111
6.750000	-4.379344	-151.503129	-2.905269	-60.535449	-2.905269	-60.535449	-4.378804	-151.837723
6.800000	-4.307742	-155.134231	-2.974232	-64.105918	-2.974232	-64.105918	-4.307098	-155.457570
6.850000	-4.240124	-158.787187	-3.042777	-67.695877	-3.042777	-67.695877	-4.239374	-159.099277
6.900000	-4.176116	-162.463327	-3.110956	-71.306622	-3.110956	-71.306622	-4.175258	-162.764154
6.950000	-4.115524	-166.165483	-3.178795	-74.940780	-3.178795	-74.940780	-4.114556	-166.455009
7.000000	-4.058311	-169.898391	-3.246299	-78.602668	-3.246299	-78.602668	-4.057230	-170.176553
7.050000	-4.003943	-173.661753	-3.313641	-82.292043	-3.313641	-82.292043	-4.002749	-173.928473
7.100000	-3.952640	-177.465378	-3.380832	-86.017737	-3.380832	-86.017737	-3.951329	-177.720536
7.150000	-3.903699	178.694128	-3.448140	-89.776640	-3.448140	-89.776640	-3.902269	178.450652
7.200000	-3.857249	174.804956	-3.515723	-93.579267	-3.515723	-93.579267	-3.855696	174.573334
7.250000	-3.812759	170.868684	-3.583870	-97.424046	-3.583870	-97.424046	-3.811081	170.649087
7.300000	-3.770084	166.876101	-3.652934	-101.318976	-3.652934	-101.318976	-3.768279	166.668741
7.350000	-3.728899	162.822620	-3.723321	-105.267829	-3.723321	-105.267829	-3.726965	162.627726
7.400000	-3.688851	158.704506	-3.795497	-109.273508	-3.795497	-109.273508	-3.686785	158.522320
7.450000	-3.649681	154.508035	-3.870233	-113.347508	-3.870233	-113.347508	-3.647481	154.338845
7.500000	-3.610966	150.237833	-3.947918	-117.485184	-3.947918	-117.485184	-3.608632	150.081903
7.550000	-3.572337	145.867050	-4.030113	-121.708717	-4.030113	-121.708717	-3.569867	145.724720
7.600000	-3.533432	141.406179	-4.117115	-126.008124	-4.117115	-126.008124	-3.530829	141.277735
7.650000	-3.493719	136.828981	-4.210993	-130.404001	-4.210993	-130.404001	-3.490984	136.714763
7.700000	-3.452845	132.134990	-4.312750	-134.895018	-4.312750	-134.895018	-3.449984	132.035301
7.750000	-3.410269	127.306471	-4.424625	-139.493287	-4.424625	-139.493287	-3.407287	127.221617
7.800000	-3.365572	122.333295	-4.548623	-144.204178	-4.548623	-144.204178	-3.362480	122.263546
7.850000	-3.318119	117.192101	-4.688218	-149.041920	-4.688218	-149.041920	-3.314929	117.137699
7.900000	-3.267475	111.868307	-4.846716	-154.012469	-4.846716	-154.012469	-3.264206	111.829421
7.950000	-3.213142	106.339172	-5.028785	-159.125604	-5.028785	-159.125604	-3.209816	106.315882
8.000000	-3.154757	100.582008	-5.239968	-164.387928	-5.239968	-164.387928	-3.151405	100.574267
8.050000	-3.092118	94.571694	-5.487153	-169.803442	-5.487153	-169.803442	-3.088777	94.579290
8.100000	-3.025238	88.279119	-5.779159	-175.372407	-5.779159	-175.372407	-3.021956	88.301625
8.150000	-2.954491	81.672160	-6.127178	178.912624	-6.127178	178.912624	-2.951328	81.708877
8.200000	-2.880774	74.715971	-6.545485	173.072201	-6.545485	173.072201	-2.877803	74.765857
8.250000	-2.805704	67.373769	-7.052327	167.148968	-7.052327	167.148968	-2.803015	67.435364
8.300000	-2.731848	59.608358	-7.670998	161.222829	-7.670998	161.222829	-2.729552	59.679695
8.350000	-2.662997	51.382354	-8.431414	155.438976	-8.431414	155.438976	-2.661227	51.460862
8.400000	-2.604413	42.664133	-9.370177	150.061346	-9.370177	150.061346	-2.603330	42.746539
8.450000	-2.562512	33.441515	-10.526283	145.549805	-10.526283	145.549805	-2.562301	33.523836
8.500000	-2.544699	23.716378	-11.930397	142.724108	-11.930397	142.724108	-2.545570	23.793871
8.550000	-2.557943	13.521674	-13.559947	142.919645	-13.559947	142.919645	-2.560121	13.588949
8.600000	-2.609780	2.898820	-15.184414	148.278545	-15.184414	148.278545	-2.613505	2.949648
8.650000	-2.703123	-8.057763	-16.159765	159.543382	-16.159765	159.543382	-2.708617	-8.029996
8.700000	-2.837111	-19.239594	-15.812860	172.244153	-15.812860	172.244153	-2.844556	-19.241750
8.750000	-3.005776	-30.527558	-14.466225	179.941220	-14.466225	179.941220	-3.015284	-30.566454
8.800000	-3.198446	-41.805723	-12.902365	-178.474569	-12.902365	-178.474569	-3.210034	-41.887826
8.850000	-3.400929	-52.975483	-11.516930	178.990036	-11.516930	178.990036	-3.414502	-53.106443
8.900000	-3.598369	-63.963767	-10.396560	174.062774	-10.396560	174.062774	-3.613714	-64.148106
8.950000	-3.776779	-74.719592	-9.527809	167.788042	-9.527809	167.788042	-3.793571	-74.960435
9.000000	-3.925561	-85.218685	-8.871140	160.783229	-8.871140	160.783229	-3.943396	-85.517501
9.050000	-4.037750	-95.450865	-8.388602	153.389806	-8.388602	153.389806	-4.056174	-95.807464
9.100000	-4.109505	-105.411736	-8.050018	145.803376	-8.050018	145.803376	-4.128044	-105.824325
9.150000	-4.141208	-115.108011	-7.828857	138.141096	-7.828857	138.141096	-4.159414	-115.573440
9.200000	-4.134816	-124.541442	-7.706849	130.469689	-7.706849	130.469689	-4.152286	-125.055398
9.250000	-4.096016	-133.728862	-7.665286	122.826263	-7.665286	122.826263	-4.112430	-134.286485
9.300000	-4.029723	-142.675905	-7.692989	115.231315	-7.692989	115.231315	-4.044837	-143.271922
9.350000	-3.940420	-151.378073	-7.783398	107.699486	-7.783398	107.699486	-3.954059	-152.006832
9.400000	-3.834391	-159.849247	-7.926913	100.235410	-7.926913	100.235410	-3.846463	-160.505367
9.450000	-3.716435	-168.094449	-8.117908	92.842735	-8.117908	92.842735	-3.726905	-168.772783
9.500000	-3.590621	-176.112637	-8.352605	85.525933	-8.352605	85.525933	-3.599506	-176.808261
9.550000	-3.460844	176.081517	-8.625612	78.283550	-8.625612	78.283550	-3.468198	175.372921
9.600000	-3.329765	168.493621	-8.935040	71.121253	-8.935040	71.121253	-3.335670	167.776147
9.650000	-3.199768	161.109956	-9.276954	64.037899	-9.276954	64.037899	-3.204320	160.387108
9.700000	-3.072494	153.927546	-9.649126	57.036480	-9.649126	57.036480	-3.075800	153.202457
9.750000	-2.949227	146.943544	-10.049248	50.120546	-10.049248	50.120546	-2.951397	146.218992
9.800000	-2.830694	140.144775	-10.474850	43.289040	-10.474850	43.289040	-2.831834	139.423081
9.850000	-2.717645	133.535579	-10.923926	36.549063	-10.923926	36.549063	-2.717861	132.818853
9.900000	-2.610198	127.100371	-11.394335	29.897977	-11.394335	29.897977	-2.609586	126.390318
9.950000	-2.508593	120.837312	-11.884020	23.339547	-11.884020	23.339547	-2.507245	120.135415
10.000000	-2.412821	114.739135	-12.391026	16.874377	-12.391026	16.874377	-2.410818	114.046624
