! freq	dB(S11)	phase(S11)	dB(S12)	phase(S12)	
!     	dB(S21)	phase(S21)	dB(S22)	phase(S22)	
!S-par simulation data
#  GHz  S  DB  R 50
0.000000	-0.000000	0.000000	-351.163534	180.000000	-351.163534	180.000000	-0.000000	0.000000
0.050000	-0.000736	-1.202463	-102.858754	89.019159	-102.858754	89.019159	-0.000831	-1.419928
0.100000	-0.002542	-2.399936	-96.886238	87.588422	-96.886238	87.588422	-0.002952	-2.835152
0.150000	-0.004727	-3.591385	-93.420538	86.251517	-93.420538	86.251517	-0.005664	-4.244150
0.200000	-0.006836	-4.778365	-91.001171	84.971490	-91.001171	84.971490	-0.008398	-5.647876
0.250000	-0.008756	-5.963113	-89.159854	83.733669	-89.159854	83.733669	-0.010925	-7.048550
0.300000	-0.010482	-7.146606	-87.695196	82.540756	-87.695196	82.540756	-0.013177	-8.447196
0.350000	-0.012056	-8.329435	-86.498286	81.396718	-86.498286	81.396718	-0.015177	-9.844536
0.400000	-0.013525	-9.511814	-85.505282	80.308670	-85.505282	80.308670	-0.016974	-11.240870
0.450000	-0.014920	-10.693705	-84.680983	79.292135	-84.680983	79.292135	-0.018614	-12.636175
0.500000	-0.016277	-11.875056	-83.990703	78.352308	-83.990703	78.352308	-0.020160	-14.030471
0.550000	-0.017612	-13.055736	-83.415149	77.502718	-83.415149	77.502718	-0.021646	-15.423632
0.600000	-0.018940	-14.235608	-82.940568	76.759775	-82.940568	76.759775	-0.023099	-16.815513
0.650000	-0.020267	-15.414536	-82.557032	76.143394	-82.557032	76.143394	-0.024538	-18.205963
0.700000	-0.021600	-16.592392	-82.257342	75.677844	-82.257342	75.677844	-0.025978	-19.594833
0.750000	-0.022944	-17.768977	-82.040641	75.406311	-82.040641	75.406311	-0.027430	-20.981866
0.800000	-0.024302	-18.944173	-81.902653	75.371449	-81.902653	75.371449	-0.028902	-22.366913
0.850000	-0.025675	-20.117904	-81.838516	75.622067	-81.838516	75.622067	-0.030400	-23.749877
0.900000	-0.027062	-21.290186	-81.840528	76.195994	-81.840528	76.195994	-0.031923	-25.130787
0.950000	-0.028464	-22.460849	-81.909800	77.188360	-81.909800	77.188360	-0.033476	-26.509401
1.000000	-0.029880	-23.629812	-82.041786	78.698460	-82.041786	78.698460	-0.035058	-27.885600
1.050000	-0.031310	-24.796998	-82.228781	80.849042	-82.228781	80.849042	-0.036669	-29.259272
1.100000	-0.032752	-25.962338	-82.457371	83.786722	-82.457371	83.786722	-0.038308	-30.630310
1.150000	-0.034204	-27.125766	-82.704771	87.674669	-82.704771	87.674669	-0.039973	-31.998612
1.200000	-0.035665	-28.287222	-82.934315	92.668721	-82.934315	92.668721	-0.041663	-33.364082
1.250000	-0.037135	-29.446649	-83.091849	98.864816	-83.091849	98.864816	-0.043375	-34.726628
1.300000	-0.038610	-30.603899	-83.097921	106.246490	-83.097921	106.246490	-0.045107	-36.086030
1.350000	-0.040090	-31.759011	-82.885283	114.432758	-82.885283	114.432758	-0.046855	-37.442335
1.400000	-0.041574	-32.911937	-82.411344	122.858090	-82.411344	122.858090	-0.048617	-38.795466
1.450000	-0.043059	-34.062633	-81.682248	130.884507	-81.682248	130.884507	-0.050390	-40.145354
1.500000	-0.044545	-35.211056	-80.748476	138.013725	-80.748476	138.013725	-0.052172	-41.491932
1.550000	-0.046031	-36.357166	-79.680070	143.994341	-79.680070	143.994341	-0.053958	-42.835140
1.600000	-0.047516	-37.500925	-78.542418	148.794925	-78.542418	148.794925	-0.055747	-44.174920
1.650000	-0.048998	-38.642296	-77.384623	152.517023	-77.384623	152.517023	-0.057537	-45.511221
1.700000	-0.050479	-39.781247	-76.238616	155.315704	-76.238616	155.315704	-0.059324	-46.843995
1.750000	-0.051956	-40.917743	-75.122941	157.350876	-75.122941	157.350876	-0.061106	-48.173200
1.800000	-0.053429	-42.051755	-74.047129	158.765124	-74.047129	158.765124	-0.062883	-49.498796
1.850000	-0.054899	-43.183252	-73.015139	159.677197	-73.015139	159.677197	-0.064651	-50.820747
1.900000	-0.056365	-44.312207	-72.027685	160.182779	-72.027685	160.182779	-0.066409	-52.139023
1.950000	-0.057827	-45.438594	-71.083691	160.357841	-71.083691	160.357841	-0.068156	-53.453597
2.000000	-0.059286	-46.562386	-70.181168	160.262431	-70.181168	160.262431	-0.069891	-54.764443
2.050000	-0.060741	-47.683562	-69.317719	159.944072	-69.317719	159.944072	-0.071614	-56.071542
2.100000	-0.062192	-48.802098	-68.490826	159.440544	-68.490826	159.440544	-0.073322	-57.374875
2.150000	-0.063640	-49.917973	-67.698013	158.782069	-67.698013	158.782069	-0.075017	-58.674428
2.200000	-0.065086	-51.031167	-66.936924	157.992998	-66.936924	157.992998	-0.076699	-59.970190
2.250000	-0.066529	-52.141662	-66.205358	157.093101	-66.205358	157.093101	-0.078367	-61.262150
2.300000	-0.067971	-53.249441	-65.501291	156.098549	-65.501291	156.098549	-0.080021	-62.550302
2.350000	-0.069413	-54.354488	-64.822864	155.022671	-64.822864	155.022671	-0.081664	-63.834642
2.400000	-0.070853	-55.456787	-64.168385	153.876527	-64.168385	153.876527	-0.083295	-65.115166
2.450000	-0.072294	-56.556325	-63.536310	152.669366	-63.536310	152.669366	-0.084915	-66.391875
2.500000	-0.073737	-57.653090	-62.925233	151.408966	-62.925233	151.408966	-0.086527	-67.664770
2.550000	-0.075181	-58.746949	-62.332987	150.100146	-62.332987	150.100146	-0.088130	-68.933689
2.600000	-0.076628	-59.838012	-61.759406	148.750711	-61.759406	148.750711	-0.089727	-70.198803
2.650000	-0.078078	-60.926272	-61.203411	147.365369	-61.203411	147.365369	-0.091320	-71.460118
2.700000	-0.079533	-62.011720	-60.664015	145.948186	-60.664015	145.948186	-0.092911	-72.717644
2.750000	-0.080994	-63.094350	-60.140314	144.502684	-60.140314	144.502684	-0.094500	-73.971388
2.800000	-0.082460	-64.174158	-59.631480	143.031931	-59.631480	143.031931	-0.096091	-75.221364
2.850000	-0.083933	-65.251139	-59.136751	141.538610	-59.136751	141.538610	-0.097684	-76.467582
2.900000	-0.085414	-66.325291	-58.655427	140.025077	-58.655427	140.025077	-0.099282	-77.710059
2.950000	-0.086904	-67.396613	-58.186860	138.493411	-58.186860	138.493411	-0.100887	-78.948808
3.000000	-0.088403	-68.465105	-57.730453	136.945450	-57.730453	136.945450	-0.102501	-80.183847
3.050000	-0.089912	-69.530766	-57.285651	135.382829	-57.285651	135.382829	-0.104125	-81.415195
3.100000	-0.091433	-70.593600	-56.851940	133.807006	-56.851940	133.807006	-0.105761	-82.642871
3.150000	-0.092966	-71.653610	-56.428843	132.219283	-56.428843	132.219283	-0.107411	-83.866896
3.200000	-0.094512	-72.710801	-56.015914	130.620832	-56.015914	130.620832	-0.109077	-85.087295
3.250000	-0.096071	-73.765177	-55.612737	129.012706	-55.612737	129.012706	-0.110760	-86.304091
3.300000	-0.097645	-74.816747	-55.218925	127.395858	-55.218925	127.395858	-0.112462	-87.517310
3.350000	-0.099234	-75.865518	-54.834114	125.771149	-54.834114	125.771149	-0.114184	-88.726981
3.400000	-0.100839	-76.911499	-54.457963	124.139364	-54.457963	124.139364	-0.115927	-89.933132
3.450000	-0.102461	-77.954700	-54.090153	122.501216	-54.090153	122.501216	-0.117693	-91.135796
3.500000	-0.104101	-78.995134	-53.730381	120.857358	-53.730381	120.857358	-0.119483	-92.335005
3.550000	-0.105759	-80.032813	-53.378365	119.208389	-53.378365	119.208389	-0.121298	-93.530794
3.600000	-0.107436	-81.067750	-53.033837	117.554856	-53.033837	117.554856	-0.123139	-94.723200
3.650000	-0.109132	-82.099960	-52.696544	115.897264	-52.696544	115.897264	-0.125006	-95.912261
3.700000	-0.110849	-83.129460	-52.366246	114.236080	-52.366246	114.236080	-0.126902	-97.098017
3.750000	-0.112588	-84.156267	-52.042718	112.571734	-52.042718	112.571734	-0.128825	-98.280510
3.800000	-0.114348	-85.180283	-51.725527	110.904523	-51.725527	110.904523	-0.130779	-99.459646
3.850000	-0.116131	-86.201644	-51.414709	109.234950	-51.414709	109.234950	-0.132762	-100.635613
3.900000	-0.117938	-87.220372	-51.110066	107.563355	-51.110066	107.563355	-0.134776	-101.808459
3.950000	-0.119767	-88.236487	-50.811413	105.890056	-50.811413	105.890056	-0.136820	-102.978234
4.000000	-0.121621	-89.250012	-50.518571	104.215349	-50.518571	104.215349	-0.138895	-104.144988
4.050000	-0.123500	-90.260971	-50.231370	102.539510	-50.231370	102.539510	-0.141001	-105.308774
4.100000	-0.125404	-91.269388	-49.949649	100.862796	-49.949649	100.862796	-0.143139	-106.469649
4.150000	-0.127333	-92.275289	-49.673252	99.185448	-49.673252	99.185448	-0.145308	-107.627667
4.200000	-0.129290	-93.278700	-49.402029	97.507692	-49.402029	97.507692	-0.147510	-108.782888
4.250000	-0.131273	-94.279648	-49.135839	95.829738	-49.135839	95.829738	-0.149744	-109.935371
4.300000	-0.133283	-95.278163	-48.874544	94.151785	-48.874544	94.151785	-0.152011	-111.085177
4.350000	-0.135321	-96.274272	-48.618012	92.474015	-48.618012	92.474015	-0.154310	-112.232371
4.400000	-0.137387	-97.268008	-48.366118	90.796603	-48.366118	90.796603	-0.156642	-113.377015
4.450000	-0.139483	-98.259400	-48.118740	89.119708	-48.118740	89.119708	-0.159007	-114.519177
4.500000	-0.141607	-99.248481	-47.875759	87.443481	-47.875759	87.443481	-0.161405	-115.658925
4.550000	-0.143761	-100.235284	-47.637064	85.768062	-47.637064	85.768062	-0.163835	-116.796326
4.600000	-0.145945	-101.219843	-47.402544	84.093583	-47.402544	84.093583	-0.166300	-117.931451
4.650000	-0.148160	-102.202192	-47.172094	82.420163	-47.172094	82.420163	-0.168797	-119.064373
4.700000	-0.150405	-103.182367	-46.945613	80.747915	-46.945613	80.747915	-0.171328	-120.195164
4.750000	-0.152682	-104.160404	-46.723003	79.076943	-46.723003	79.076943	-0.173892	-121.323898
4.800000	-0.154990	-105.136342	-46.504167	77.407343	-46.504167	77.407343	-0.176490	-122.450651
4.850000	-0.157330	-106.110216	-46.289014	75.739202	-46.289014	75.739202	-0.179121	-123.575499
4.900000	-0.159703	-107.082068	-46.077456	74.072602	-46.077456	74.072602	-0.181787	-124.698521
4.950000	-0.162108	-108.051935	-45.869404	72.407614	-45.869404	72.407614	-0.184486	-125.819794
5.000000	-0.164546	-109.019859	-45.664777	70.744307	-45.664777	70.744307	-0.187220	-126.939400
5.050000	-0.167020	-109.985800	-45.463436	69.082817	-45.463436	69.082817	-0.189990	-128.057353
5.100000	-0.169527	-110.949885	-45.265365	67.423125	-45.265365	67.423125	-0.192794	-129.173809
5.150000	-0.172068	-111.912156	-45.070489	65.765277	-45.070489	65.765277	-0.195632	-130.288850
5.200000	-0.174644	-112.872658	-44.878734	64.109315	-44.878734	64.109315	-0.198506	-131.402560
5.250000	-0.177254	-113.831433	-44.690028	62.455273	-44.690028	62.455273	-0.201415	-132.515024
5.300000	-0.179899	-114.788528	-44.504301	60.803183	-44.504301	60.803183	-0.204359	-133.626327
5.350000	-0.182580	-115.743988	-44.321487	59.153070	-44.321487	59.153070	-0.207339	-134.736556
5.400000	-0.185297	-116.697860	-44.141520	57.504956	-44.141520	57.504956	-0.210355	-135.845797
5.450000	-0.188049	-117.650190	-43.964338	55.858858	-43.964338	55.858858	-0.213407	-136.954140
5.500000	-0.190838	-118.601026	-43.789879	54.214788	-43.789879	54.214788	-0.216496	-138.061671
5.550000	-0.193664	-119.550418	-43.618086	52.572757	-43.618086	52.572757	-0.219621	-139.168481
5.600000	-0.196526	-120.498413	-43.448901	50.932771	-43.448901	50.932771	-0.222784	-140.274659
5.650000	-0.199426	-121.445063	-43.282269	49.294833	-43.282269	49.294833	-0.225983	-141.380295
5.700000	-0.202363	-122.390417	-43.118139	47.658944	-43.118139	47.658944	-0.229221	-142.485480
5.750000	-0.205338	-123.334527	-42.956458	46.025103	-42.956458	46.025103	-0.232497	-143.590307
5.800000	-0.208351	-124.277445	-42.797178	44.393307	-42.797178	44.393307	-0.235811	-144.694867
5.850000	-0.211402	-125.219222	-42.640252	42.763550	-42.640252	42.763550	-0.239163	-145.799253
5.900000	-0.214493	-126.159913	-42.485635	41.135828	-42.485635	41.135828	-0.242555	-146.903558
5.950000	-0.217622	-127.099571	-42.333284	39.510133	-42.333284	39.510133	-0.245987	-148.007875
6.000000	-0.220791	-128.038250	-42.183157	37.886459	-42.183157	37.886459	-0.249458	-149.112298
6.050000	-0.223999	-128.976006	-42.035214	36.264800	-42.035214	36.264800	-0.252969	-150.216923
6.100000	-0.227247	-129.912893	-41.889418	34.645148	-41.889418	34.645148	-0.256521	-151.321843
6.150000	-0.230536	-130.848970	-41.745733	33.027498	-41.745733	33.027498	-0.260113	-152.427153
6.200000	-0.233865	-131.784291	-41.604125	31.411847	-41.604125	31.411847	-0.263747	-153.532950
6.250000	-0.237235	-132.718916	-41.464561	29.798191	-41.464561	29.798191	-0.267422	-154.639329
6.300000	-0.240648	-133.652877	-41.327004	28.186618	-41.327004	28.186618	-0.271141	-155.746420
6.350000	-0.244102	-134.586263	-41.191436	26.577042	-41.191436	26.577042	-0.274902	-156.854295
6.400000	-0.247599	-135.519134	-41.057828	24.969470	-41.057828	24.969470	-0.278706	-157.963050
6.450000	-0.251137	-136.451551	-40.926157	23.363910	-40.926157	23.363910	-0.282552	-159.072781
6.500000	-0.254719	-137.383573	-40.796398	21.760375	-40.796398	21.760375	-0.286441	-160.183587
6.550000	-0.258343	-138.315263	-40.668531	20.158882	-40.668531	20.158882	-0.290374	-161.295564
6.600000	-0.262011	-139.246681	-40.542534	18.559453	-40.542534	18.559453	-0.294350	-162.408810
6.650000	-0.265722	-140.177892	-40.418391	16.962113	-40.418391	16.962113	-0.298370	-163.523423
6.700000	-0.269478	-141.108958	-40.296085	15.366895	-40.296085	15.366895	-0.302434	-164.639499
6.750000	-0.273278	-142.039943	-40.175600	13.773837	-40.175600	13.773837	-0.306543	-165.757138
6.800000	-0.277123	-142.970911	-40.056924	12.182980	-40.056924	12.182980	-0.310695	-166.876436
6.850000	-0.281013	-143.901928	-39.940046	10.594376	-39.940046	10.594376	-0.314892	-167.997493
6.900000	-0.284949	-144.833060	-39.824956	9.008080	-39.824956	9.008080	-0.319133	-169.120405
6.950000	-0.288931	-145.764372	-39.711646	7.424156	-39.711646	7.424156	-0.323419	-170.245270
7.000000	-0.292959	-146.695932	-39.600110	5.842674	-39.600110	5.842674	-0.327750	-171.372187
7.050000	-0.297035	-147.627808	-39.490342	4.263712	-39.490342	4.263712	-0.332125	-172.501253
7.100000	-0.301158	-148.560067	-39.382339	2.687355	-39.382339	2.687355	-0.336545	-173.632567
7.150000	-0.305328	-149.492779	-39.276100	1.113695	-39.276100	1.113695	-0.341009	-174.766224
7.200000	-0.309548	-150.426013	-39.171624	-0.457166	-39.171624	-0.457166	-0.345517	-175.902324
7.250000	-0.313816	-151.359840	-39.068913	-2.025119	-39.068913	-2.025119	-0.350070	-177.040962
7.300000	-0.318134	-152.294329	-38.967969	-3.590050	-38.967969	-3.590050	-0.354666	-178.182236
7.350000	-0.322501	-153.229554	-38.868795	-5.151832	-38.868795	-5.151832	-0.359306	-179.326243
7.400000	-0.326919	-154.165585	-38.771398	-6.710333	-38.771398	-6.710333	-0.363989	179.526922
7.450000	-0.331388	-155.102496	-38.675784	-8.265414	-38.675784	-8.265414	-0.368715	178.377161
7.500000	-0.335909	-156.040361	-38.581960	-9.816925	-38.581960	-9.816925	-0.373484	177.224381
7.550000	-0.340484	-156.979300	-38.489973	-11.364542	-38.489973	-11.364542	-0.378296	176.068345
7.600000	-0.345111	-157.919349	-38.399800	-12.908254	-38.399800	-12.908254	-0.383150	174.909090
7.650000	-0.349793	-158.860581	-38.311452	-14.447892	-38.311452	-14.447892	-0.388044	173.746523
7.700000	-0.354528	-159.803075	-38.224941	-15.983277	-38.224941	-15.983277	-0.392978	172.580550
7.750000	-0.359318	-160.746905	-38.140279	-17.514223	-38.140279	-17.514223	-0.397952	171.411078
7.800000	-0.364163	-161.692151	-38.057480	-19.040540	-38.057480	-19.040540	-0.402964	170.238015
7.850000	-0.369065	-162.638890	-37.976559	-20.562033	-37.976559	-20.562033	-0.408013	169.061271
7.900000	-0.374023	-163.587201	-37.897530	-22.078498	-37.897530	-22.078498	-0.413099	167.880754
7.950000	-0.379039	-164.537163	-37.820408	-23.589729	-37.820408	-23.589729	-0.418221	166.696375
8.000000	-0.384114	-165.488858	-37.745210	-25.095517	-37.745210	-25.095517	-0.423377	165.508045
8.050000	-0.389247	-166.442364	-37.671951	-26.595646	-37.671951	-26.595646	-0.428566	164.315678
8.100000	-0.394440	-167.397766	-37.600648	-28.089900	-37.600648	-28.089900	-0.433787	163.119185
8.150000	-0.399694	-168.355143	-37.531316	-29.578058	-37.531316	-29.578058	-0.439038	161.918483
8.200000	-0.405010	-169.314580	-37.463973	-31.059900	-37.463973	-31.059900	-0.444318	160.713487
8.250000	-0.410388	-170.276161	-37.398633	-32.535203	-37.398633	-32.535203	-0.449626	159.504115
8.300000	-0.415830	-171.239968	-37.335313	-34.003744	-37.335313	-34.003744	-0.454960	158.290284
8.350000	-0.421336	-172.206088	-37.274029	-35.465300	-37.274029	-35.465300	-0.460317	157.071915
8.400000	-0.426907	-173.174605	-37.214795	-36.919651	-37.214795	-36.919651	-0.465697	155.848930
8.450000	-0.432544	-174.145607	-37.157626	-38.366577	-37.157626	-38.366577	-0.471097	154.621252
8.500000	-0.438248	-175.119179	-37.102536	-39.805859	-37.102536	-39.805859	-0.476515	153.388807
8.550000	-0.444021	-176.095411	-37.049537	-41.237285	-37.049537	-41.237285	-0.481950	152.151520
8.600000	-0.449863	-177.074389	-36.998641	-42.660642	-36.998641	-42.660642	-0.487398	150.909322
8.650000	-0.455776	-178.056203	-36.949860	-44.075726	-36.949860	-44.075726	-0.492858	149.662143
8.700000	-0.461760	-179.040942	-36.903203	-45.482335	-36.903203	-45.482335	-0.498326	148.409915
8.750000	-0.467817	179.971304	-36.858679	-46.880274	-36.858679	-46.880274	-0.503802	147.152575
8.800000	-0.473951	178.980304	-36.816380	-48.268958	-36.816380	-48.268958	-0.509281	145.889832
8.850000	-0.480160	177.986099	-36.776229	-49.648585	-36.776229	-49.648585	-0.514761	144.621849
8.900000	-0.486445	176.988596	-36.738230	-51.018980	-36.738230	-51.018980	-0.520239	143.348570
8.950000	-0.492808	175.987702	-36.702386	-52.379975	-36.702386	-52.379975	-0.525712	142.069939
9.000000	-0.499251	174.983326	-36.668698	-53.731413	-36.668698	-53.731413	-0.531177	140.785906
9.050000	-0.505774	173.975372	-36.637164	-55.073144	-36.637164	-55.073144	-0.536631	139.496422
9.100000	-0.512379	172.963747	-36.607782	-56.405026	-36.607782	-56.405026	-0.542070	138.201442
9.150000	-0.519067	171.948356	-36.580548	-57.726928	-36.580548	-57.726928	-0.547492	136.900924
9.200000	-0.525839	170.929104	-36.555455	-59.038727	-36.555455	-59.038727	-0.552892	135.594829
9.250000	-0.532699	169.905896	-36.532495	-60.340309	-36.532495	-60.340309	-0.558267	134.283123
9.300000	-0.539646	168.878635	-36.511659	-61.631571	-36.511659	-61.631571	-0.563613	132.965772
9.350000	-0.546682	167.847226	-36.492935	-62.912417	-36.492935	-62.912417	-0.568926	131.642750
9.400000	-0.553809	166.811570	-36.476309	-64.182764	-36.476309	-64.182764	-0.574204	130.314033
9.450000	-0.561029	165.771572	-36.461765	-65.442535	-36.461765	-65.442535	-0.579441	128.979599
9.500000	-0.568344	164.727134	-36.449287	-66.691666	-36.449287	-66.691666	-0.584633	127.639434
9.550000	-0.575754	163.678158	-36.438855	-67.930099	-36.438855	-67.930099	-0.589777	126.293526
9.600000	-0.583262	162.624547	-36.430448	-69.157787	-36.430448	-69.157787	-0.594868	124.941866
9.650000	-0.590870	161.566202	-36.424044	-70.374692	-36.424044	-70.374692	-0.599902	123.584454
9.700000	-0.598580	160.503025	-36.419620	-71.580785	-36.419620	-71.580785	-0.604874	122.221289
9.750000	-0.606393	159.434918	-36.417148	-72.776045	-36.417148	-72.776045	-0.609781	120.852379
9.800000	-0.614311	158.361784	-36.416602	-73.960460	-36.416602	-73.960460	-0.614616	119.477736
9.850000	-0.622337	157.283523	-36.417953	-75.134024	-36.417953	-75.134024	-0.619377	118.097375
9.900000	-0.630472	156.200037	-36.421171	-76.296742	-36.421171	-76.296742	-0.624059	116.711318
9.950000	-0.638718	155.111230	-36.426225	-77.448623	-36.426225	-77.448623	-0.628655	115.319593
10.000000	-0.647077	154.017002	-36.433081	-78.589686	-36.433081	-78.589686	-0.633163	113.922232
