! freq	dB(S11)	phase(S11)	dB(S12)	phase(S12)	
!     	dB(S21)	phase(S21)	dB(S22)	phase(S22)	
!S-par simulation data
#  GHz  S  DB  R 50
0.000000	-81.585212	0.000000	-0.000724	0.000000	-0.000724	0.000000	-81.585212	0.000000
0.050000	-47.620490	-88.017942	-0.005493	-2.972572	-0.005493	-2.972572	-47.621931	-87.944175
0.100000	-41.880649	-93.180418	-0.011581	-5.903795	-0.011581	-5.903795	-41.881229	-93.049912
0.150000	-38.485626	-97.170470	-0.016197	-8.823593	-0.016197	-8.823593	-38.486118	-96.974111
0.200000	-36.101463	-100.738260	-0.020325	-11.741081	-0.020325	-11.741081	-36.102189	-100.475070
0.250000	-34.296297	-104.093682	-0.024355	-14.657169	-0.024355	-14.657169	-34.297412	-103.763508
0.300000	-32.870382	-107.339067	-0.028382	-17.572173	-0.028382	-17.572173	-32.871954	-106.942045
0.350000	-31.713903	-110.518187	-0.032393	-20.486550	-0.032393	-20.486550	-31.715964	-110.054642
0.400000	-30.763380	-113.652125	-0.036363	-23.400799	-0.036363	-23.400799	-30.765949	-113.122554
0.450000	-29.985580	-116.752044	-0.040263	-26.315538	-0.040263	-26.315538	-29.988689	-116.157184
0.500000	-29.348071	-119.829282	-0.044078	-29.231301	-0.044078	-29.231301	-29.351749	-119.169993
0.550000	-28.832347	-122.889514	-0.047793	-32.148567	-0.047793	-32.148567	-28.836636	-122.166823
0.600000	-28.428488	-125.936613	-0.051393	-35.067865	-0.051393	-35.067865	-28.433448	-125.151778
0.650000	-28.133913	-128.973613	-0.054857	-37.989866	-0.054857	-37.989866	-28.139633	-128.128261
0.700000	-27.938737	-132.003812	-0.058181	-40.914931	-0.058181	-40.914931	-27.945325	-131.099843
0.750000	-27.842271	-135.029236	-0.061356	-43.843584	-0.061356	-43.843584	-27.849863	-134.069028
0.800000	-27.852501	-138.051626	-0.064365	-46.776641	-0.064365	-46.776641	-27.861287	-137.038411
0.850000	-27.974016	-141.072887	-0.067209	-49.714703	-0.067209	-49.714703	-27.984232	-140.010910
0.900000	-28.215994	-144.094661	-0.069895	-52.658398	-0.069895	-52.658398	-28.227953	-142.989586
0.950000	-28.595557	-147.118542	-0.072432	-55.608496	-0.072432	-55.608496	-28.609681	-145.978287
1.000000	-29.137551	-150.146129	-0.074843	-58.565783	-0.074843	-58.565783	-29.154429	-148.982097
1.050000	-29.879870	-153.179079	-0.077158	-61.531079	-0.077158	-61.531079	-29.900370	-152.008448
1.100000	-30.882468	-156.219215	-0.079421	-64.505233	-0.079421	-64.505233	-30.907947	-155.069457
1.150000	-32.246382	-159.268775	-0.081689	-67.489116	-0.081689	-67.489116	-32.279159	-158.187669
1.200000	-34.159802	-162.331129	-0.084035	-70.483615	-0.084035	-70.483615	-34.204356	-161.412734
1.250000	-37.036036	-165.413462	-0.086546	-73.489615	-0.086546	-73.489615	-37.102931	-164.883665
1.300000	-42.138444	-168.546913	-0.089335	-76.508287	-0.089335	-76.508287	-42.264379	-169.296009
1.350000	-61.494259	-175.190969	-0.092523	-79.540238	-0.092523	-79.540238	-60.168688	126.320331
1.400000	-43.254564	5.575686	-0.096250	-82.586292	-0.096250	-82.586292	-43.058177	11.492303
1.450000	-36.282324	2.365130	-0.100678	-85.647225	-0.100678	-85.647225	-36.192311	6.302608
1.500000	-32.192518	-0.787818	-0.105985	-88.723752	-0.105985	-88.723752	-32.133235	2.657418
1.550000	-29.228743	-3.942169	-0.112370	-91.816510	-0.112370	-91.816510	-29.184110	-0.689804
1.600000	-26.879100	-7.106975	-0.120003	-94.925527	-0.120003	-94.925527	-26.843031	-3.935481
1.650000	-24.909407	-10.286384	-0.129209	-98.052357	-0.129209	-98.052357	-24.878981	-7.137857
1.700000	-23.208482	-13.481456	-0.140192	-101.196717	-0.140192	-101.196717	-23.182040	-10.324865
1.750000	-21.706592	-16.692948	-0.153215	-104.358776	-0.153215	-104.358776	-21.683107	-13.508782
1.800000	-20.359068	-19.921207	-0.168552	-107.538544	-0.168552	-107.538544	-20.337856	-16.696314
1.850000	-19.135567	-23.166283	-0.186486	-110.735859	-0.186486	-110.735859	-19.116146	-19.891299
1.900000	-18.014282	-26.428055	-0.207323	-113.950465	-0.207323	-113.950465	-17.996296	-23.095980
1.950000	-16.979475	-29.706062	-0.231360	-117.181800	-0.231360	-117.181800	-16.962650	-26.311490
2.000000	-16.019411	-32.999522	-0.258871	-120.429009	-0.258871	-120.429009	-16.003521	-29.538131
2.050000	-15.124763	-36.307508	-0.290141	-123.691116	-0.290141	-123.691116	-15.109614	-32.775660
2.100000	-14.287577	-39.629152	-0.325549	-126.967233	-0.325549	-126.967233	-14.272985	-36.023473
2.150000	-13.503058	-42.962464	-0.365184	-130.255365	-0.365184	-130.255365	-13.488866	-39.279575
2.200000	-12.765774	-46.305959	-0.409366	-133.554159	-0.409366	-133.554159	-12.751957	-42.541628
2.250000	-12.071600	-49.657205	-0.458322	-136.861803	-0.458322	-136.861803	-12.058638	-45.807141
2.300000	-11.417237	-53.011478	-0.512148	-140.176200	-0.512148	-140.176200	-11.406185	-49.077264
2.350000	-10.800410	-56.359686	-0.571253	-143.495440	-0.571253	-143.495440	-10.790847	-52.354619
2.400000	-10.220755	-59.717801	-0.635654	-146.817015	-0.635654	-146.817015	-10.209873	-55.635018
2.450000	-9.672477	-63.086850	-0.705463	-150.138464	-0.705463	-150.138464	-9.661130	-58.913582
2.500000	-9.154012	-66.450714	-0.780755	-153.457214	-0.780755	-153.457214	-9.142863	-62.187007
2.550000	-8.664346	-69.806468	-0.861621	-156.770508	-0.861621	-156.770508	-8.653478	-65.452464
2.600000	-8.202114	-73.152284	-0.948002	-160.075642	-0.948002	-160.075642	-8.191503	-68.707374
2.650000	-7.765939	-76.485832	-1.039853	-163.369852	-1.039853	-163.369852	-7.755548	-71.949086
2.700000	-7.354523	-79.804592	-1.137082	-166.650376	-1.137082	-166.650376	-7.344320	-75.174955
2.750000	-6.966648	-83.106007	-1.239556	-169.914498	-1.239556	-169.914498	-6.956607	-78.382372
2.800000	-6.601163	-86.387567	-1.347097	-173.159579	-1.347097	-173.159579	-6.591261	-81.568809
2.850000	-6.257259	-89.645930	-1.459601	-176.382190	-1.459601	-176.382190	-6.247478	-84.730874
2.900000	-5.933387	-92.880475	-1.576576	-179.581568	-1.576576	-179.581568	-5.923713	-87.868023
2.950000	-5.628767	-96.088386	-1.697842	177.245166	-1.697842	177.245166	-5.619186	-90.977401
3.000000	-5.342434	-99.267761	-1.823077	174.099978	-1.823077	174.099978	-5.332936	-94.057104
3.050000	-5.073458	-102.416911	-1.951933	170.984613	-1.951933	170.984613	-5.064034	-97.105437
3.100000	-4.820943	-105.534363	-2.084041	167.900582	-2.084041	167.900582	-4.811584	-100.120925
3.150000	-4.584119	-108.618502	-2.219023	164.849522	-2.219023	164.849522	-4.574817	-103.101932
3.200000	-4.362148	-111.668285	-2.356465	161.832492	-2.356465	161.832492	-4.352898	-106.047406
3.250000	-4.154131	-114.683295	-2.495958	158.849917	-2.495958	158.849917	-4.144927	-108.956935
3.300000	-3.959291	-117.662979	-2.637096	155.902351	-2.637096	155.902351	-3.950128	-111.829956
3.350000	-3.777163	-120.605787	-2.779422	152.991329	-2.779422	152.991329	-3.768035	-114.664865
3.400000	-3.606219	-123.515174	-2.922692	150.113421	-2.922692	150.113421	-3.597124	-117.465229
3.450000	-3.446670	-126.387271	-3.066322	147.272453	-3.066322	147.272453	-3.437604	-120.227031
3.500000	-3.297576	-129.223605	-3.209984	144.466904	-3.209984	144.466904	-3.288534	-122.951830
3.550000	-3.157728	-132.027450	-3.353530	141.693524	-3.353530	141.693524	-3.148708	-125.642986
3.600000	-3.027948	-134.792589	-3.496004	138.958459	-3.496004	138.958459	-3.018948	-128.294023
3.650000	-2.906343	-137.526268	-3.637639	136.254527	-3.637639	136.254527	-2.897359	-130.912413
3.700000	-2.792869	-140.227010	-3.777872	133.583186	-3.777872	133.583186	-2.783900	-133.496575
3.750000	-2.687392	-142.893956	-3.916135	130.945280	-3.916135	130.945280	-2.678434	-136.045561
3.800000	-2.588673	-145.532176	-4.052632	128.335788	-4.052632	128.335788	-2.579726	-138.564591
3.850000	-2.497164	-148.138262	-4.186389	125.758078	-4.186389	125.758078	-2.488226	-141.050042
3.900000	-2.411910	-150.716350	-4.317536	123.208054	-4.317536	123.208054	-2.402978	-143.506159
3.950000	-2.332427	-153.268335	-4.445915	120.683841	-4.445915	120.683841	-2.323501	-145.934856
4.000000	-2.259127	-155.791665	-4.570467	118.187955	-4.570467	118.187955	-2.250206	-148.333350
4.050000	-2.190834	-158.292220	-4.691814	115.714575	-4.691814	115.714575	-2.181917	-150.707746
4.100000	-2.127759	-160.768938	-4.809121	113.264742	-4.809121	113.264742	-2.118845	-153.056812
4.150000	-2.069607	-163.223519	-4.922133	110.836758	-4.922133	110.836758	-2.060695	-155.382230
4.200000	-2.015732	-165.659482	-5.031141	108.427133	-5.031141	108.427133	-2.006821	-157.687641
4.250000	-1.966665	-168.075039	-5.134788	106.037590	-5.134788	106.037590	-1.957755	-159.970956
4.300000	-1.921571	-170.474774	-5.233759	103.663580	-5.233759	103.663580	-1.912662	-162.236974
4.350000	-1.880439	-172.859702	-5.327551	101.304050	-5.327551	101.304050	-1.871530	-164.486625
4.400000	-1.843450	-175.230461	-5.415302	98.958290	-5.415302	98.958290	-1.834541	-166.720373
4.450000	-1.809964	-177.590682	-5.497660	96.622677	-5.497660	96.622677	-1.801053	-168.942048
4.500000	-1.780373	-179.940886	-5.573397	94.296553	-5.573397	94.296553	-1.771461	-171.151910
4.550000	-1.754370	177.716253	-5.642648	91.977186	-5.642648	91.977186	-1.745456	-173.352703
4.600000	-1.731725	175.378420	-5.705489	89.662188	-5.705489	89.662188	-1.722808	-175.546798
4.650000	-1.713060	173.043990	-5.760187	87.349636	-5.760187	87.349636	-1.704138	-177.735441
4.700000	-1.697729	170.710109	-5.807814	85.036657	-5.807814	85.036657	-1.688800	-179.921780
4.750000	-1.686105	168.374327	-5.847248	82.720481	-5.847248	82.720481	-1.677167	177.891966
4.800000	-1.678383	166.033730	-5.877809	80.397861	-5.877809	80.397861	-1.669432	175.703006
4.850000	-1.674273	163.686140	-5.900014	78.066476	-5.900014	78.066476	-1.665305	173.509010
4.900000	-1.674642	161.326691	-5.911758	75.720660	-5.911758	75.720660	-1.665650	171.305568
4.950000	-1.679215	158.953298	-5.913705	73.358110	-5.913705	73.358110	-1.670192	169.090416
5.000000	-1.688337	156.562177	-5.905178	70.974412	-5.905178	70.974412	-1.679274	166.859907
5.050000	-1.703034	154.146302	-5.884115	68.561237	-5.884115	68.561237	-1.693915	164.607469
5.100000	-1.723002	151.704626	-5.851612	66.117295	-5.851612	66.117295	-1.713812	162.331811
5.150000	-1.749634	149.227953	-5.805264	63.631460	-5.805264	63.631460	-1.740350	160.024298
5.200000	-1.783572	146.710973	-5.744589	61.097098	-5.744589	61.097098	-1.774166	157.679776
5.250000	-1.825211	144.150356	-5.669836	58.509833	-5.669836	58.509833	-1.815648	155.294933
5.300000	-1.877767	141.526767	-5.576470	55.845488	-5.576470	55.845488	-1.867994	152.851608
5.350000	-1.941147	138.841273	-5.466568	53.104508	-5.466568	53.104508	-1.931105	150.350583
5.400000	-2.018370	136.077875	-5.337444	50.265863	-5.337444	50.265863	-2.007975	147.776794
5.450000	-2.113388	133.217426	-5.186266	47.303607	-5.186266	47.303607	-2.102520	145.112256
5.500000	-2.227860	130.256527	-5.014504	44.211036	-5.014504	44.211036	-2.216378	142.353804
5.550000	-2.369419	127.163374	-4.817542	40.943007	-4.817542	40.943007	-2.357102	139.471888
5.600000	-2.544896	123.918252	-4.594442	37.467280	-4.594442	37.467280	-2.531440	136.448584
5.650000	-2.764036	120.497166	-4.344131	33.741789	-4.344131	33.741789	-2.749003	133.262506
5.700000	-3.042689	116.865955	-4.064664	29.701890	-4.064664	29.701890	-3.025403	129.883942
5.750000	-3.400387	113.001612	-3.757027	25.285434	-3.757027	25.285434	-3.379813	126.295329
5.800000	-3.871595	108.873983	-3.421691	20.387783	-3.421691	20.387783	-3.845977	122.476878
5.850000	-4.501388	104.495239	-3.064779	14.915000	-3.064779	14.915000	-4.467715	118.454726
5.900000	-5.372902	99.935933	-2.695423	8.709574	-2.695423	8.709574	-5.325237	114.328360
5.950000	-6.609409	95.476723	-2.332888	1.642640	-2.332888	1.642640	-6.535190	110.424811
6.000000	-8.438739	91.978065	-2.008055	-6.448841	-2.008055	-6.448841	-8.305851	107.699489
6.050000	-11.255011	92.300920	-1.768536	-15.668403	-1.768536	-15.668403	-10.961221	109.141249
6.100000	-15.353772	107.472023	-1.677147	-25.991927	-1.677147	-25.991927	-14.535559	124.799683
6.150000	-16.189939	153.629311	-1.802169	-37.189361	-1.802169	-37.189361	-15.122576	164.907503
6.200000	-11.557132	176.671972	-2.193701	-48.790855	-2.193701	-48.790855	-11.139331	-173.146816
6.250000	-7.933186	177.470790	-2.863071	-60.194228	-2.863071	-60.194228	-7.747950	-171.240744
6.300000	-5.577840	172.221899	-3.777124	-70.845203	-3.777124	-70.845203	-5.474926	-175.657091
6.350000	-4.031893	165.512399	-4.872328	-80.413119	-4.872328	-80.413119	-3.965898	178.230730
6.400000	-2.999456	158.768831	-6.084118	-88.796339	-6.084118	-88.796339	-2.953031	171.948000
6.450000	-2.297812	152.468633	-7.360324	-96.052409	-7.360324	-96.052409	-2.263042	166.027285
6.500000	-1.814302	146.741153	-8.661824	-102.298727	-8.661824	-102.298727	-1.787056	160.627329
6.550000	-1.471281	141.548889	-9.973245	-107.715344	-9.973245	-107.715344	-1.449266	155.729101
6.600000	-1.224636	136.836026	-11.281072	-112.424925	-11.281072	-112.424925	-1.206428	151.286442
6.650000	-1.044107	132.529417	-12.580894	-116.541918	-12.580894	-116.541918	-1.028787	147.232801
6.700000	-0.910747	128.570096	-13.866166	-120.142725	-13.866166	-120.142725	-0.897684	143.513256
6.750000	-0.809067	124.881107	-15.151353	-123.323667	-15.151353	-123.323667	-0.797840	140.054494
6.800000	-0.731192	121.423812	-16.434484	-126.119406	-16.434484	-126.119406	-0.721486	136.819604
6.850000	-0.670819	118.158690	-17.720325	-128.562456	-17.720325	-128.562456	-0.662399	133.770566
6.900000	-0.623607	115.055016	-19.012300	-130.667032	-19.012300	-130.667032	-0.616293	130.877701
6.950000	-0.586304	112.085885	-20.316262	-132.436789	-20.316262	-132.436789	-0.579956	128.114931
7.000000	-0.556504	109.228436	-21.640127	-133.864520	-21.640127	-133.864520	-0.551011	125.460039
7.050000	-0.532535	106.465283	-22.989904	-134.924341	-22.989904	-134.924341	-0.527805	122.896081
7.100000	-0.513444	103.787740	-24.355449	-135.530687	-24.355449	-135.530687	-0.509394	120.414460
7.150000	-0.497598	101.170869	-25.775357	-135.701951	-25.775357	-135.701951	-0.494170	117.991000
7.200000	-0.484692	98.612094	-27.235910	-135.308429	-27.235910	-135.308429	-0.481828	115.623013
7.250000	-0.474164	96.102782	-28.737930	-134.231054	-28.737930	-134.231054	-0.471811	113.301987
7.300000	-0.465581	93.635553	-30.276610	-132.317453	-30.276610	-132.317453	-0.463691	111.020624
7.350000	-0.458605	91.204047	-31.837238	-129.385844	-31.837238	-129.385844	-0.457132	108.772607
7.400000	-0.452972	88.802724	-33.389123	-125.247193	-33.389123	-125.247193	-0.451874	106.552413
7.450000	-0.448478	86.426704	-34.879275	-119.764032	-34.879275	-119.764032	-0.447712	104.355153
7.500000	-0.444964	84.071645	-36.231642	-112.962945	-36.231642	-112.962945	-0.444487	102.176454
7.550000	-0.442341	81.734196	-37.346197	-105.170513	-37.346197	-105.170513	-0.442110	100.012809
7.600000	-0.440478	79.409894	-38.193276	-97.177464	-38.193276	-97.177464	-0.440449	97.859791
7.650000	-0.439315	77.095422	-38.794315	-89.852044	-38.794315	-89.852044	-0.439443	95.714005
7.700000	-0.438809	74.787629	-39.234524	-83.890938	-39.234524	-83.890938	-0.439049	93.572204
7.750000	-0.438944	72.483461	-39.629166	-79.690308	-39.629166	-79.690308	-0.439245	91.431229
7.800000	-0.439718	70.179900	-40.093800	-77.441128	-40.093800	-77.441128	-0.440030	89.287941
7.850000	-0.441153	67.873896	-40.735538	-77.335704	-40.735538	-77.335704	-0.441423	87.139161
7.900000	-0.443293	65.562301	-41.658653	-79.843709	-41.658653	-79.843709	-0.443463	84.981594
7.950000	-0.446205	63.241792	-42.961810	-86.195200	-42.961810	-86.195200	-0.446215	82.811759
8.000000	-0.449988	60.908788	-44.636928	-99.378337	-44.636928	-99.378337	-0.449773	80.625898
8.050000	-0.454773	58.559349	-46.020105	-124.029119	-46.020105	-124.029119	-0.454264	78.419878
8.100000	-0.460739	56.189059	-45.345337	-156.603397	-45.345337	-156.603397	-0.459862	76.189065
8.150000	-0.468122	53.792875	-42.423930	175.622005	-42.423930	175.622005	-0.466799	73.928172
8.200000	-0.477235	51.364944	-38.967910	158.677721	-38.967910	158.677721	-0.475380	71.631070
8.250000	-0.488494	48.898369	-35.824974	148.644575	-35.824974	148.644575	-0.486017	69.290540
8.300000	-0.502455	46.384902	-33.061961	141.886014	-33.061961	141.886014	-0.499258	66.897960
8.350000	-0.519541	43.819641	-30.628294	136.667627	-30.628294	136.667627	-0.515527	64.448424
8.400000	-0.541265	41.182323	-28.387337	132.312864	-28.387337	132.312864	-0.536317	61.920371
8.450000	-0.569027	38.458470	-26.298121	128.357404	-26.298121	128.357404	-0.563023	59.298763
8.500000	-0.604865	35.629433	-24.323426	124.547601	-24.323426	124.547601	-0.597681	56.564177
8.550000	-0.650883	32.680103	-22.450697	120.737515	-22.450697	120.737515	-0.642400	53.700975
8.600000	-0.713359	29.557975	-20.605270	116.786654	-20.605270	116.786654	-0.703450	50.653731
8.650000	-0.797010	26.243187	-18.807874	112.593450	-18.807874	112.593450	-0.785586	47.401771
8.700000	-0.912088	22.680896	-17.028731	108.030028	-17.028731	108.030028	-0.899108	43.886959
8.750000	-1.074999	18.805361	-15.248609	102.936571	-15.248609	102.936571	-1.060555	40.038905
8.800000	-1.315293	14.528619	-13.444971	97.082119	-13.444971	97.082119	-1.299791	35.761543
8.850000	-1.677532	9.794840	-11.628045	90.211889	-11.628045	90.211889	-1.662080	30.987964
8.900000	-2.239678	4.609085	-9.813911	81.980011	-9.813911	81.980011	-2.227084	25.703694
8.950000	-3.144212	-0.764695	-8.040217	71.922947	-8.040217	71.922947	-3.142089	20.135502
9.000000	-4.612900	-5.146512	-6.407783	59.641872	-6.407783	59.641872	-4.643656	15.404149
9.050000	-6.853306	-4.812811	-5.080030	45.113868	-5.080030	45.113868	-6.988040	15.229134
9.100000	-9.224676	8.398606	-4.237665	29.093682	-4.237665	29.093682	-9.623715	28.633722
9.150000	-9.056043	31.170292	-3.956734	13.154495	-3.956734	13.154495	-9.555409	53.665550
9.200000	-6.904578	41.934746	-4.142066	-1.178617	-4.142066	-1.178617	-7.225973	65.516682
9.250000	-5.070161	42.504493	-4.604794	-13.220913	-4.604794	-13.220913	-5.271022	66.183582
9.300000	-3.845683	39.548803	-5.181583	-23.071909	-5.181583	-23.071909	-3.982793	63.157013
9.350000	-3.043341	35.690024	-5.774935	-31.145380	-5.774935	-31.145380	-3.143837	59.223601
9.400000	-2.506731	31.773568	-6.336427	-37.850345	-6.336427	-37.850345	-2.584091	55.250732
9.450000	-2.135101	28.048038	-6.847706	-43.544663	-6.847706	-43.544663	-2.196550	51.485024
9.500000	-1.868832	24.559855	-7.305127	-48.492391	-7.305127	-48.492391	-1.918571	47.968141
9.550000	-1.673271	21.297739	-7.709911	-52.872682	-7.709911	-52.872682	-1.713948	44.684950
9.600000	-1.528255	18.242501	-8.062890	-56.799052	-8.062890	-56.799052	-1.561667	41.613451
9.650000	-1.414279	15.336373	-8.378208	-60.423763	-8.378208	-60.423763	-1.441514	38.693305
9.700000	-1.327214	12.579693	-8.651385	-63.763395	-8.651385	-63.763395	-1.349172	35.923648
9.750000	-1.257762	9.932170	-8.893047	-66.904354	-8.893047	-66.904354	-1.275023	33.262983
9.800000	-1.202794	7.383651	-9.104152	-69.871734	-9.104152	-69.871734	-1.215820	30.700294
9.850000	-1.158915	4.917265	-9.288774	-72.699586	-9.288774	-72.699586	-1.168049	28.218114
9.900000	-1.123471	2.517865	-9.451012	-75.416839	-9.451012	-75.416839	-1.128966	25.800902
9.950000	-1.095507	0.181593	-9.591015	-78.032471	-9.591015	-78.032471	-1.097575	23.444230
10.000000	-1.072789	-2.108179	-9.714343	-80.575021	-9.714343	-80.575021	-1.071575	21.131604
