! freq	dB(S11)	phase(S11)	dB(S12)	phase(S12)	
!     	dB(S21)	phase(S21)	dB(S22)	phase(S22)	
!S-par simulation data
#  GHz  S  DB  R 50
0.000000	-81.989101	0.000000	-0.000691	0.000000	-0.000691	0.000000	-81.989101	0.000000
0.050000	-40.526431	-91.817232	-0.006822	-3.177685	-0.006822	-3.177685	-40.528317	-91.971248
0.100000	-34.602804	-95.353123	-0.013636	-6.314161	-0.013636	-6.314161	-34.604998	-95.656975
0.150000	-31.131140	-98.751247	-0.020075	-9.440302	-0.020075	-9.440302	-31.133760	-99.207345
0.200000	-28.669519	-102.041249	-0.026904	-12.560928	-0.026904	-12.560928	-28.672446	-102.650622
0.250000	-26.767116	-105.254802	-0.034232	-15.676308	-0.034232	-15.676308	-26.770245	-106.018837
0.300000	-25.220746	-108.420489	-0.042019	-18.787594	-0.042019	-18.787594	-25.223990	-109.341254
0.350000	-23.921102	-111.554209	-0.050251	-21.895827	-0.050251	-21.895827	-23.924398	-112.634339
0.400000	-22.803185	-114.664399	-0.058948	-25.001626	-0.058948	-25.001626	-22.806493	-115.907100
0.450000	-21.826217	-117.755297	-0.068182	-28.105244	-0.068182	-28.105244	-21.829515	-119.164692
0.500000	-20.960508	-120.831824	-0.077930	-31.207076	-0.077930	-31.207076	-20.963791	-122.412335
0.550000	-20.185530	-123.896055	-0.088192	-34.307251	-0.088192	-34.307251	-20.188801	-125.652602
0.600000	-19.486497	-126.949019	-0.098963	-37.405808	-0.098963	-37.405808	-19.489768	-128.887196
0.650000	-18.852608	-129.991062	-0.110237	-40.502724	-0.110237	-40.502724	-18.855894	-132.117402
0.700000	-18.274011	-133.023383	-0.121936	-43.598149	-0.121936	-43.598149	-18.277329	-135.344610
0.750000	-17.743629	-136.046235	-0.134010	-46.692111	-0.134010	-46.692111	-17.746997	-138.569672
0.800000	-17.256408	-139.059282	-0.146415	-49.784552	-0.146415	-49.784552	-17.259845	-141.793327
0.850000	-16.807393	-142.062801	-0.159074	-52.875507	-0.159074	-52.875507	-16.810915	-145.016422
0.900000	-16.392508	-145.056948	-0.171919	-55.964984	-0.171919	-55.964984	-16.396131	-148.239713
0.950000	-16.008548	-148.041675	-0.184887	-59.052961	-0.184887	-59.052961	-16.012288	-151.463955
1.000000	-15.652727	-151.016967	-0.197924	-62.139439	-0.197924	-62.139439	-15.656597	-154.689925
1.050000	-15.322654	-153.982802	-0.210979	-65.224455	-0.210979	-65.224455	-15.326667	-157.918418
1.100000	-15.016262	-156.939144	-0.224013	-68.308095	-0.224013	-68.308095	-15.020430	-161.150262
1.150000	-14.731747	-159.885949	-0.236988	-71.390510	-0.236988	-71.390510	-14.736085	-164.386313
1.200000	-14.467529	-162.823156	-0.249871	-74.471915	-0.249871	-74.471915	-14.472051	-167.627461
1.250000	-14.222211	-165.750695	-0.262633	-77.552587	-0.262633	-77.552587	-14.226933	-170.874631
1.300000	-13.994793	-168.668257	-0.275238	-80.632855	-0.275238	-80.632855	-13.999733	-174.128959
1.350000	-13.783919	-171.575939	-0.287659	-83.713110	-0.287659	-83.713110	-13.789098	-177.391315
1.400000	-13.588594	-174.473602	-0.299866	-86.793759	-0.299866	-86.793759	-13.594036	179.337264
1.450000	-13.407924	-177.361078	-0.311831	-89.875235	-0.311831	-89.875235	-13.413658	176.055701
1.500000	-13.241101	179.761830	-0.323523	-92.957989	-0.323523	-92.957989	-13.247159	172.762878
1.550000	-13.087387	176.895356	-0.334916	-96.042484	-0.334916	-96.042484	-13.093807	169.457637
1.600000	-12.946114	174.039770	-0.345984	-99.129196	-0.345984	-99.129196	-12.952940	166.138776
1.650000	-12.816669	171.195382	-0.356703	-102.218610	-0.356703	-102.218610	-12.823951	162.805045
1.700000	-12.698491	168.362546	-0.367053	-105.311217	-0.367053	-105.311217	-12.706286	159.455150
1.750000	-12.591063	165.541664	-0.377016	-108.407514	-0.377016	-108.407514	-12.599435	156.087742
1.800000	-12.493908	162.733185	-0.386575	-111.508000	-0.386575	-111.508000	-12.502932	152.701421
1.850000	-12.406585	159.937615	-0.395717	-114.613183	-0.395717	-114.613183	-12.416343	149.294729
1.900000	-12.328777	157.155669	-0.404428	-117.723633	-0.404428	-117.723633	-12.339364	145.865891
1.950000	-12.260097	154.387993	-0.412700	-120.839879	-0.412700	-120.839879	-12.271618	142.413266
2.000000	-12.200095	151.635134	-0.420534	-123.962378	-0.420534	-123.962378	-12.212668	138.935433
2.050000	-12.148439	148.897855	-0.427927	-127.091646	-0.427927	-127.091646	-12.162194	135.430656
2.100000	-12.104820	146.176997	-0.434881	-130.228202	-0.434881	-130.228202	-12.119900	131.897121
2.150000	-12.068943	143.473480	-0.441397	-133.372566	-0.441397	-133.372566	-12.085509	128.332923
2.200000	-12.040532	140.788313	-0.447481	-136.525261	-0.447481	-136.525261	-12.058760	124.736063
2.250000	-12.019326	138.122601	-0.453140	-139.686812	-0.453140	-139.686812	-12.039411	121.104440
2.300000	-12.005075	135.477549	-0.458384	-142.857747	-0.458384	-142.857747	-12.027231	117.435842
2.350000	-11.997541	132.854476	-0.463223	-146.038597	-0.463223	-146.038597	-12.022005	113.727934
2.400000	-11.996495	130.254820	-0.467669	-149.229900	-0.467669	-149.229900	-12.023527	109.978252
2.450000	-12.001716	127.680150	-0.471738	-152.432196	-0.471738	-152.432196	-12.031601	106.184186
2.500000	-12.012987	125.132177	-0.475444	-155.646034	-0.475444	-155.646034	-12.046040	102.342971
2.550000	-12.030215	122.613435	-0.478798	-158.872245	-0.478798	-158.872245	-12.066790	98.450508
2.600000	-12.053058	120.125391	-0.481827	-162.111146	-0.481827	-162.111146	-12.093538	94.504679
2.650000	-12.081301	117.670275	-0.484550	-165.363314	-0.484550	-165.363314	-12.126107	90.502139
2.700000	-12.114724	115.250514	-0.486988	-168.629340	-0.486988	-168.629340	-12.164324	86.439311
2.750000	-12.153100	112.868753	-0.489164	-171.909829	-0.489164	-171.909829	-12.208010	82.312369
2.800000	-12.196188	110.527863	-0.491101	-175.205406	-0.491101	-175.205406	-12.256983	78.117214
2.850000	-12.243731	108.230967	-0.492826	-178.516716	-0.492826	-178.516716	-12.311049	73.849445
2.900000	-12.295447	105.981450	-0.494364	178.155576	-0.494364	178.155576	-12.370000	69.504331
2.950000	-12.351024	103.782976	-0.495743	174.810775	-0.495743	174.810775	-12.433609	65.076786
3.000000	-12.410115	101.639499	-0.496995	171.448158	-0.496995	171.448158	-12.501621	60.561330
3.050000	-12.472324	99.555279	-0.498151	168.066972	-0.498151	168.066972	-12.573748	55.952061
3.100000	-12.537196	97.534877	-0.499246	164.666423	-0.499246	164.666423	-12.649655	51.242625
3.150000	-12.604217	95.583966	-0.500318	161.245451	-0.500318	161.245451	-12.728975	46.424940
3.200000	-12.672754	93.707885	-0.501410	157.803147	-0.501410	157.803147	-12.811228	41.491391
3.250000	-12.742072	91.911320	-0.502566	154.338804	-0.502566	154.338804	-12.895827	36.435238
3.300000	-12.811332	90.199912	-0.503836	150.851439	-0.503836	150.851439	-12.982109	31.248054
3.350000	-12.879630	88.576636	-0.505268	147.340739	-0.505268	147.340739	-13.069300	25.925225
3.400000	-12.945697	87.053079	-0.506935	143.804085	-0.506935	143.804085	-13.156417	20.448465
3.450000	-13.008251	85.631968	-0.508900	140.241085	-0.508900	140.241085	-13.242309	14.812565
3.500000	-13.065754	84.318655	-0.511241	136.650493	-0.511241	136.650493	-13.325607	9.007574
3.550000	-13.116444	83.117910	-0.514042	133.030984	-0.514042	133.030984	-13.404698	3.023537
3.600000	-13.158312	82.033601	-0.517401	129.381148	-0.517401	129.381148	-13.477708	-3.149303
3.650000	-13.189104	81.068312	-0.521430	125.699486	-0.521430	125.699486	-13.542484	-9.520460
3.700000	-13.206321	80.222883	-0.526255	121.984406	-0.526255	121.984406	-13.596493	-16.099360
3.750000	-13.207240	79.495913	-0.532017	118.234218	-0.532017	118.234218	-13.636560	-22.894155
3.800000	-13.188638	78.884766	-0.538900	114.446566	-0.538900	114.446566	-13.658655	-29.911357
3.850000	-13.147735	78.380071	-0.547078	110.620057	-0.547078	110.620057	-13.659277	-37.145986
3.900000	-13.081513	77.970411	-0.556765	106.752685	-0.556765	106.752685	-13.634745	-44.593232
3.950000	-12.987073	77.640307	-0.568205	102.842339	-0.568205	102.842339	-13.581272	-52.244400
4.000000	-12.861794	77.370141	-0.581678	98.886808	-0.581678	98.886808	-13.495126	-60.085559
4.050000	-12.703482	77.136374	-0.597502	94.883784	-0.597502	94.883784	-13.372887	-68.097074
4.100000	-12.510534	76.912073	-0.616039	90.830876	-0.616039	90.830876	-13.211723	-76.253877
4.150000	-12.282070	76.667772	-0.637702	86.725621	-0.637702	86.725621	-13.009636	-84.526317
4.200000	-12.017595	76.371772	-0.662996	82.564950	-0.662996	82.564950	-12.765183	-92.881983
4.250000	-11.718091	75.992682	-0.692448	78.346541	-0.692448	78.346541	-12.478770	-101.285482
4.300000	-11.385414	75.500965	-0.726638	74.068136	-0.726638	74.068136	-12.152057	-109.702707
4.350000	-11.021972	74.869243	-0.766244	69.727269	-0.766244	69.727269	-11.787585	-118.102415
4.400000	-10.630807	74.073472	-0.812019	65.321591	-0.812019	65.321591	-11.388849	-126.457339
4.450000	-10.215447	73.093583	-0.864806	60.848930	-0.864806	60.848930	-10.960076	-134.745193
4.500000	-9.779753	71.913804	-0.925539	56.307373	-0.925539	56.307373	-10.505983	-142.949123
4.550000	-9.327767	70.522706	-0.995243	51.695357	-0.995243	51.695357	-10.031544	-151.057624
4.600000	-8.863422	68.911946	-1.075093	47.011423	-1.075093	47.011423	-9.541594	-159.063535
4.650000	-8.390666	67.077025	-1.166378	42.254681	-1.166378	42.254681	-9.040941	-166.963783
4.700000	-7.913777	65.020208	-1.270316	37.426005	-1.270316	37.426005	-8.534699	-174.760018
4.750000	-7.436497	62.744637	-1.388297	32.526398	-1.388297	32.526398	-8.027276	177.544976
4.800000	-6.962342	60.256050	-1.521779	27.557812	-1.521779	27.557812	-7.522741	169.947201
4.850000	-6.494583	57.562431	-1.672269	22.523255	-1.672269	22.523255	-7.024806	162.442229
4.900000	-6.036232	54.673713	-1.841304	17.426894	-1.841304	17.426894	-6.536820	155.025856
4.950000	-5.590028	51.601518	-2.030423	12.274115	-2.030423	12.274115	-6.061774	147.694613
5.000000	-5.158425	48.358936	-2.241137	7.071554	-2.241137	7.071554	-5.602301	140.446123
5.050000	-4.743585	44.958283	-2.475150	1.826611	-2.475150	1.826611	-5.160660	133.280517
5.100000	-4.347466	41.417459	-2.733560	-3.450914	-2.733560	-3.450914	-4.738905	126.197017
5.150000	-3.971596	37.752677	-3.017586	-8.750930	-3.017586	-8.750930	-4.338592	119.197421
5.200000	-3.617170	33.980691	-3.328300	-14.062521	-3.328300	-14.062521	-3.960917	112.284779
5.250000	-3.285050	30.118512	-3.666608	-19.374184	-3.666608	-19.374184	-3.606722	105.463180
5.300000	-2.975766	26.183112	-4.033243	-24.674099	-4.033243	-24.674099	-3.276498	98.737479
5.350000	-2.689521	22.191120	-4.428770	-29.950424	-4.428770	-29.950424	-2.970405	92.112999
5.400000	-2.426212	18.158525	-4.853600	-35.191577	-4.853600	-35.191577	-2.688289	85.595207
5.450000	-2.185608	14.100295	-5.308065	-40.385966	-5.308065	-40.385966	-2.429864	79.190547
5.500000	-1.967002	10.030721	-5.792267	-45.523355	-5.792267	-45.523355	-2.194373	72.903439
5.550000	-1.769459	5.962438	-6.306336	-50.594694	-6.306336	-50.594694	-1.980828	66.737522
5.600000	-1.591950	1.906489	-6.850467	-55.591784	-6.850467	-55.591784	-1.788149	60.696133
5.650000	-1.433319	-2.127625	-7.424955	-60.507556	-7.424955	-60.507556	-1.615133	54.781660
5.700000	-1.292331	-6.131952	-8.030270	-65.336057	-8.030270	-65.336057	-1.460497	48.995480
5.750000	-1.167702	-10.100048	-8.667141	-70.072379	-8.667141	-70.072379	-1.322916	43.337962
5.800000	-1.058139	-14.026899	-9.336649	-74.712529	-9.336649	-74.712529	-1.201054	37.808502
5.850000	-0.962760	-17.907202	-10.039536	-79.249790	-10.039536	-79.249790	-1.093998	32.409793
5.900000	-0.879623	-21.741076	-10.779111	-83.687069	-10.779111	-83.687069	-0.999748	27.132310
5.950000	-0.807842	-25.526062	-11.557790	-88.019496	-11.557790	-88.019496	-0.917386	21.975914
6.000000	-0.746311	-29.261625	-12.379396	-92.244257	-12.379396	-92.244257	-0.845767	16.936957
6.050000	-0.694005	-32.947988	-13.248969	-96.357820	-13.248969	-96.357820	-0.783826	12.011301
6.100000	-0.649978	-36.586004	-14.173137	-100.355234	-14.173137	-100.355234	-0.730581	7.194421
6.150000	-0.613371	-40.177040	-15.160659	-104.229128	-15.160659	-104.229128	-0.685135	2.481491
6.200000	-0.583404	-43.722870	-16.223214	-107.968171	-16.223214	-107.968171	-0.646675	-2.132533
6.250000	-0.559376	-47.225592	-17.376620	-111.554573	-17.376620	-111.554573	-0.614469	-6.652847
6.300000	-0.540764	-50.686717	-18.641462	-114.954742	-18.641462	-114.954742	-0.587967	-11.082938
6.350000	-0.526886	-54.109718	-20.050028	-118.122536	-20.050028	-118.122536	-0.566457	-15.430181
6.400000	-0.517249	-57.497259	-21.648652	-120.970937	-21.648652	-120.970937	-0.549425	-19.699920
6.450000	-0.511422	-60.852097	-23.509918	-123.335224	-23.509918	-123.335224	-0.536419	-23.897478
6.500000	-0.509022	-64.177051	-25.755908	-124.868321	-25.755908	-124.868321	-0.527044	-28.028142
6.550000	-0.509714	-67.474984	-28.612366	-124.708498	-28.612366	-124.708498	-0.520956	-32.097151
6.600000	-0.513208	-70.748785	-32.543370	-120.056706	-32.543370	-120.056706	-0.517854	-36.109687
6.650000	-0.519250	-74.001359	-38.241631	-97.384965	-38.241631	-97.384965	-0.517483	-40.070878
6.700000	-0.527624	-77.235618	-39.899156	-32.354819	-39.899156	-32.354819	-0.519624	-43.985797
6.750000	-0.538148	-80.454475	-34.240453	0.601193	-34.240453	0.601193	-0.524091	-47.859471
6.800000	-0.550668	-83.660836	-30.229086	7.436844	-30.229086	7.436844	-0.530731	-51.696886
6.850000	-0.565062	-86.857597	-27.478815	8.412135	-27.478815	8.412135	-0.539418	-55.503005
6.900000	-0.581251	-90.047597	-25.424477	7.378189	-25.424477	7.378189	-0.550073	-59.282543
6.950000	-0.599162	-93.233789	-23.796688	5.443994	-23.796688	5.443994	-0.562616	-63.040618
7.000000	-0.618730	-96.419071	-22.453342	3.032200	-22.453342	3.032200	-0.576974	-66.782484
7.050000	-0.639931	-99.606233	-21.311906	0.332136	-21.311906	0.332136	-0.593114	-70.513145
7.100000	-0.662761	-102.798026	-20.320310	-2.557107	-20.320310	-2.557107	-0.611019	-74.237662
7.150000	-0.687232	-105.997153	-19.443675	-5.579713	-19.443675	-5.579713	-0.630693	-77.961173
7.200000	-0.713375	-109.206272	-18.657535	-8.702670	-18.657535	-8.702670	-0.652156	-81.688913
7.250000	-0.741233	-112.427986	-17.944092	-11.905908	-17.944092	-11.905908	-0.675443	-85.426236
7.300000	-0.770862	-115.664849	-17.290010	-15.177145	-17.290010	-15.177145	-0.700605	-89.178640
7.350000	-0.802330	-118.919361	-16.685058	-18.509037	-16.685058	-18.509037	-0.727709	-92.951791
7.400000	-0.835711	-122.193969	-16.121233	-21.897499	-16.121233	-21.897499	-0.756836	-96.751548
7.450000	-0.871089	-125.491071	-15.592171	-25.340684	-15.592171	-25.340684	-0.788080	-100.583986
7.500000	-0.908553	-128.813015	-15.092749	-28.838337	-15.092749	-28.838337	-0.821552	-104.455429
7.550000	-0.948245	-132.162740	-14.618745	-32.392617	-14.618745	-32.392617	-0.857427	-108.373623
7.600000	-0.990220	-135.541951	-14.166773	-36.004191	-14.166773	-36.004191	-0.895794	-112.344642
7.650000	-1.034584	-138.952839	-13.734038	-39.675577	-13.734038	-39.675577	-0.936806	-116.375734
7.700000	-1.081443	-142.397538	-13.318238	-43.409828	-13.318238	-43.409828	-0.980622	-120.474504
7.750000	-1.130906	-145.878114	-12.917481	-47.210433	-12.917481	-47.210433	-1.027416	-124.648936
7.800000	-1.183088	-149.396556	-12.530228	-51.081232	-12.530228	-51.081232	-1.077365	-128.907417
7.850000	-1.238102	-152.954758	-12.155241	-55.026359	-12.155241	-55.026359	-1.130654	-133.258750
7.900000	-1.296067	-156.554497	-11.791550	-59.050177	-11.791550	-59.050177	-1.187470	-137.712169
7.950000	-1.357098	-160.197407	-11.438425	-63.157234	-11.438425	-63.157234	-1.247992	-142.277334
8.000000	-1.421313	-163.884943	-11.095354	-67.352199	-11.095354	-67.352199	-1.312390	-146.964322
8.050000	-1.488820	-167.618344	-10.762030	-71.639814	-10.762030	-71.639814	-1.380813	-151.783599
8.100000	-1.559721	-171.398585	-10.438339	-76.024824	-10.438339	-76.024824	-1.453379	-156.745962
8.150000	-1.634131	-175.226852	-10.124338	-80.513072	-10.124338	-80.513072	-1.530197	-161.864270
8.200000	-1.712105	-179.103441	-9.820310	-85.109241	-9.820310	-85.109241	-1.611267	-167.150095
8.250000	-1.793625	176.972294	-9.526705	-89.816498	-9.526705	-89.816498	-1.696464	-172.612911
8.300000	-1.878646	173.000924	-9.244117	-94.638768	-9.244117	-94.638768	-1.785588	-178.263596
8.350000	-1.966975	168.984754	-8.973164	-99.575997	-8.973164	-99.575997	-1.878238	175.893548
8.400000	-2.058530	164.922379	-8.714974	-104.638467	-8.714974	-104.638467	-1.974051	169.836603
8.450000	-2.152860	160.817011	-8.470495	-109.824462	-8.470495	-109.824462	-2.072220	163.564043
8.500000	-2.249438	156.670471	-8.240887	-115.135258	-8.240887	-115.135258	-2.171795	157.069874
8.550000	-2.347554	152.484423	-8.027414	-120.571138	-8.027414	-120.571138	-2.271570	150.350705
8.600000	-2.446308	148.260020	-7.831417	-126.131266	-7.831417	-126.131266	-2.370074	143.406466
8.650000	-2.544616	143.997471	-7.654290	-131.813587	-7.654290	-131.813587	-2.465578	136.241148
8.700000	-2.641241	139.695576	-7.497441	-137.614763	-7.497441	-137.614763	-2.556131	128.863537
8.750000	-2.734857	135.351294	-7.362259	-143.530140	-7.362259	-143.530140	-2.639618	121.287839
8.800000	-2.824039	130.958610	-7.250408	-149.555247	-7.250408	-149.555247	-2.713684	113.531934
8.850000	-2.907625	126.510503	-7.162822	-155.681257	-7.162822	-155.681257	-2.776330	105.625037
8.900000	-2.984509	121.996120	-7.100905	-161.901077	-7.100905	-161.901077	-2.825461	97.598111
8.950000	-3.054233	117.405837	-7.064794	-168.203288	-7.064794	-168.203288	-2.859973	89.490742
9.000000	-3.116406	112.725778	-7.055470	-174.579769	-7.055470	-174.579769	-2.878665	81.341646
9.050000	-3.171145	107.941962	-7.073384	178.978785	-7.073384	178.978785	-2.881091	73.192995
9.100000	-3.218826	103.036481	-7.119466	172.480068	-7.119466	172.480068	-2.867031	65.089370
9.150000	-3.260569	97.996065	-7.193232	165.933406	-7.193232	165.933406	-2.837602	57.072321
9.200000	-3.297770	92.806774	-7.294246	159.345928	-7.294246	159.345928	-2.794290	49.178662
9.250000	-3.332093	87.453147	-7.422167	152.722445	-7.422167	152.722445	-2.738832	41.440901
9.300000	-3.365522	81.918717	-7.576575	146.065457	-7.576575	146.065457	-2.673206	33.886018
9.350000	-3.400374	76.185280	-7.757048	139.374688	-7.757048	139.374688	-2.599478	26.535090
9.400000	-3.439467	70.227751	-7.963604	132.645892	-7.963604	132.645892	-2.519583	19.407303
9.450000	-3.486139	64.020031	-8.196082	125.871416	-8.196082	125.871416	-2.435466	12.512677
9.500000	-3.544131	57.535558	-8.454399	119.040372	-8.454399	119.040372	-2.348865	5.851977
9.550000	-3.618042	50.737035	-8.739411	112.136817	-8.739411	112.136817	-2.261132	-0.574236
9.600000	-3.713493	43.578258	-9.052776	105.140133	-9.052776	105.140133	-2.173344	-6.768627
9.650000	-3.837401	36.001968	-9.397241	98.024990	-9.397241	98.024990	-2.086310	-12.736585
9.700000	-3.999144	27.925630	-9.777473	90.758092	-9.777473	90.758092	-2.000611	-18.481010
9.750000	-4.209004	19.264818	-10.199397	83.307256	-10.199397	83.307256	-1.916596	-24.014391
9.800000	-4.480463	9.899430	-10.671966	75.634594	-10.671966	75.634594	-1.834438	-29.345158
9.850000	-4.830730	-0.338608	-11.207961	67.698392	-11.207961	67.698392	-1.754180	-34.480228
9.900000	-5.276820	-11.635102	-11.823057	59.470711	-11.823057	59.470711	-1.675702	-39.433238
9.950000	-5.836868	-24.255157	-12.538232	50.930350	-12.538232	50.930350	-1.598815	-44.213909
10.000000	-6.523334	-38.555274	-13.379882	42.075470	-13.379882	42.075470	-1.523261	-48.831732
