! freq	dB(S11)	phase(S11)	dB(S12)	phase(S12)	
!     	dB(S21)	phase(S21)	dB(S22)	phase(S22)	
!S-par simulation data
#  GHz  S  DB  R 50
0.000000	-0.000000	0.000000	-346.146580	0.000000	-346.146580	0.000000	-0.000000	0.000000
0.050000	-0.001162	-1.808918	-95.356205	88.276902	-95.356205	88.276902	-0.001162	-1.809028
0.100000	-0.003934	-3.609041	-89.364669	86.516701	-89.364669	86.516701	-0.003934	-3.609261
0.150000	-0.007126	-5.399219	-85.891416	84.775225	-85.891416	84.775225	-0.007127	-5.399549
0.200000	-0.010094	-7.182419	-83.464165	83.051657	-83.464165	83.051657	-0.010095	-7.182858
0.250000	-0.012762	-8.962093	-81.613292	81.347511	-81.613292	81.347511	-0.012764	-8.962640
0.300000	-0.015172	-10.739528	-80.136319	79.668658	-80.136319	79.668658	-0.015175	-10.740183
0.350000	-0.017416	-12.515391	-78.923885	78.020942	-78.923885	78.020942	-0.017418	-12.516154
0.400000	-0.019564	-14.289814	-77.911727	76.411571	-77.911727	76.411571	-0.019567	-14.290684
0.450000	-0.021666	-16.062512	-77.063570	74.853323	-77.063570	74.853323	-0.021669	-16.063490
0.500000	-0.023757	-17.833381	-76.345281	73.351064	-76.345281	73.351064	-0.023760	-17.834467
0.550000	-0.025849	-19.602133	-75.737216	71.915105	-75.737216	71.915105	-0.025852	-19.603325
0.600000	-0.027951	-21.368466	-75.225214	70.557400	-75.225214	70.557400	-0.027954	-21.369765
0.650000	-0.030064	-23.132084	-74.798866	69.291913	-74.798866	69.291913	-0.030067	-23.133490
0.700000	-0.032188	-24.892699	-74.450426	68.135056	-74.450426	68.135056	-0.032191	-24.894210
0.750000	-0.034322	-26.649821	-74.177828	67.115602	-74.177828	67.115602	-0.034325	-26.651437
0.800000	-0.036462	-28.403174	-73.976280	66.260212	-73.976280	66.260212	-0.036465	-28.404895
0.850000	-0.038605	-30.152945	-73.835471	65.577723	-73.835471	65.577723	-0.038608	-30.154771
0.900000	-0.040749	-31.898454	-73.759714	65.127199	-73.759714	65.127199	-0.040752	-31.900384
0.950000	-0.042891	-33.639643	-73.744094	64.945669	-73.744094	64.945669	-0.042894	-33.641677
1.000000	-0.045029	-35.376315	-73.786020	65.088125	-73.786020	65.088125	-0.045032	-35.378452
1.050000	-0.047159	-37.108284	-73.882150	65.621784	-73.882150	65.621784	-0.047162	-37.110523
1.100000	-0.049280	-38.835381	-74.027527	66.628050	-74.027527	66.628050	-0.049284	-38.837723
1.150000	-0.051391	-40.557450	-74.214319	68.203483	-74.214319	68.203483	-0.051395	-40.559894
1.200000	-0.053490	-42.274346	-74.430038	70.458032	-74.430038	70.458032	-0.053494	-42.276891
1.250000	-0.055576	-43.985937	-74.655215	73.507346	-74.655215	73.507346	-0.055580	-43.988583
1.300000	-0.057648	-45.691980	-74.859446	77.475061	-74.859446	77.475061	-0.057652	-45.694726
1.350000	-0.059705	-47.392478	-75.001949	82.393109	-75.001949	82.393109	-0.059709	-47.395325
1.400000	-0.061748	-49.087331	-75.033198	88.206875	-75.033198	88.206875	-0.061752	-49.090278
1.450000	-0.063776	-50.776446	-74.903372	94.710786	-74.903372	94.710786	-0.063780	-50.779492
1.500000	-0.065788	-52.459737	-74.576804	101.544938	-74.576804	101.544938	-0.065793	-52.462882
1.550000	-0.067786	-54.137128	-74.045500	108.264660	-74.045500	108.264660	-0.067791	-54.140371
1.600000	-0.069770	-55.808550	-73.332186	114.458871	-73.332186	114.458871	-0.069775	-55.811892
1.650000	-0.071739	-57.473942	-72.480479	119.847707	-72.480479	119.847707	-0.071744	-57.477381
1.700000	-0.073694	-59.132648	-71.524595	124.219307	-71.524595	124.219307	-0.073699	-59.136184
1.750000	-0.075637	-60.785750	-70.539471	127.761682	-70.539471	127.761682	-0.075643	-60.789382
1.800000	-0.077569	-62.432675	-69.541487	130.471653	-69.541487	130.471653	-0.077574	-62.436403
1.850000	-0.079489	-64.073391	-68.552597	132.457260	-68.552597	132.457260	-0.079494	-64.077214
1.900000	-0.081398	-65.707867	-67.586404	133.830327	-67.586404	133.830327	-0.081404	-65.711785
1.950000	-0.083299	-67.336080	-66.650586	134.693141	-66.650586	134.693141	-0.083304	-67.340092
2.000000	-0.085190	-68.958014	-65.748904	135.133625	-65.748904	135.133625	-0.085196	-68.962120
2.050000	-0.087075	-70.573656	-64.882657	135.224921	-64.882657	135.224921	-0.087081	-70.577855
2.100000	-0.088953	-72.183001	-64.051663	135.026864	-64.051663	135.026864	-0.088959	-72.187292
2.150000	-0.090825	-73.786047	-63.254887	134.588051	-63.254887	134.588051	-0.090831	-73.790430
2.200000	-0.092693	-75.382799	-62.490839	133.947883	-62.490839	133.947883	-0.092699	-75.387273
2.250000	-0.094558	-76.973267	-61.757821	133.138356	-61.757821	133.138356	-0.094564	-76.977832
2.300000	-0.096420	-78.557465	-61.054070	132.185548	-61.054070	132.185548	-0.096426	-78.562120
2.350000	-0.098281	-80.135414	-60.377845	131.110818	-60.377845	131.110818	-0.098287	-80.140158
2.400000	-0.100141	-81.707137	-59.727479	129.931758	-59.727479	129.931758	-0.100147	-81.711970
2.450000	-0.102003	-83.272664	-59.101397	128.662940	-59.101397	128.662940	-0.102009	-83.277585
2.500000	-0.103865	-84.832028	-58.498133	127.316510	-58.498133	127.316510	-0.103872	-84.837038
2.550000	-0.105731	-86.385004	-57.915574	125.900119	-57.915574	125.900119	-0.105737	-86.390101
2.600000	-0.107601	-87.931902	-57.353344	124.425538	-57.353344	124.425538	-0.107607	-87.937086
2.650000	-0.109475	-89.472771	-56.810274	122.899905	-56.810274	122.899905	-0.109481	-89.478041
2.700000	-0.111354	-91.007661	-56.285293	121.329329	-56.285293	121.329329	-0.111360	-91.013018
2.750000	-0.113241	-92.536629	-55.777416	119.719061	-55.777416	119.719061	-0.113247	-92.542071
2.800000	-0.115134	-94.059733	-55.285740	118.073642	-55.285740	118.073642	-0.115140	-94.065260
2.850000	-0.117036	-95.577038	-54.809438	116.397020	-54.809438	116.397020	-0.117042	-95.582649
2.900000	-0.118947	-97.088610	-54.347746	114.692642	-54.347746	114.692642	-0.118953	-97.094305
2.950000	-0.120868	-98.594519	-53.899962	112.963536	-53.899962	112.963536	-0.120875	-98.600299
3.000000	-0.122800	-100.094840	-53.465437	111.212374	-53.465437	111.212374	-0.122807	-100.100703
3.050000	-0.124744	-101.589649	-53.043573	109.441526	-53.043573	109.441526	-0.124750	-101.595595
3.100000	-0.126700	-103.079028	-52.633815	107.653102	-52.633815	107.653102	-0.126706	-103.085057
3.150000	-0.128670	-104.563059	-52.235648	105.848991	-52.235648	105.848991	-0.128676	-104.569170
3.200000	-0.130653	-106.041829	-51.848593	104.030893	-51.848593	104.030893	-0.130659	-106.048023
3.250000	-0.132651	-107.515428	-51.472204	102.200340	-51.472204	102.200340	-0.132658	-107.521703
3.300000	-0.134665	-108.983947	-51.106065	100.358723	-51.106065	100.358723	-0.134671	-108.990304
3.350000	-0.136695	-110.447481	-50.749784	98.507304	-50.749784	98.507304	-0.136701	-110.453920
3.400000	-0.138742	-111.906128	-50.402998	96.647240	-50.402998	96.647240	-0.138748	-111.912648
3.450000	-0.140806	-113.359987	-50.065361	94.779584	-50.065361	94.779584	-0.140812	-113.366588
3.500000	-0.142889	-114.809160	-49.736551	92.905308	-49.736551	92.905308	-0.142895	-114.815842
3.550000	-0.144990	-116.253750	-49.416261	91.025304	-49.416261	91.025304	-0.144996	-116.260514
3.600000	-0.147111	-117.693866	-49.104202	89.140393	-49.104202	89.140393	-0.147117	-117.700710
3.650000	-0.149252	-119.129614	-48.800100	87.251335	-48.800100	87.251335	-0.149258	-119.136539
3.700000	-0.151414	-120.561104	-48.503696	85.358831	-48.503696	85.358831	-0.151420	-120.568110
3.750000	-0.153597	-121.988450	-48.214741	83.463530	-48.214741	83.463530	-0.153603	-121.995536
3.800000	-0.155802	-123.411594	-47.932916	81.565962	-47.932916	81.565962	-0.155808	-123.418760
3.850000	-0.158030	-124.830832	-47.658099	79.666795	-47.658099	79.666795	-0.158036	-124.838078
3.900000	-0.160281	-126.246281	-47.390074	77.766534	-47.390074	77.766534	-0.160287	-126.253608
3.950000	-0.162555	-127.658060	-47.128631	75.865645	-47.128631	75.865645	-0.162561	-127.665467
4.000000	-0.164853	-129.066288	-46.873573	73.964555	-46.873573	73.964555	-0.164859	-129.073776
4.050000	-0.167175	-130.471087	-46.624709	72.063657	-46.624709	72.063657	-0.167181	-130.478656
4.100000	-0.169522	-131.872579	-46.381855	70.163307	-46.381855	70.163307	-0.169528	-131.880227
4.150000	-0.171894	-133.270886	-46.144836	68.263830	-46.144836	68.263830	-0.171900	-133.278615
4.200000	-0.174291	-134.666134	-45.913484	66.365519	-45.913484	66.365519	-0.174297	-134.673943
4.250000	-0.176714	-136.058446	-45.687636	64.468638	-45.687636	64.468638	-0.176720	-136.066337
4.300000	-0.179164	-137.447951	-45.467137	62.573420	-45.467137	62.573420	-0.179169	-137.455922
4.350000	-0.181639	-138.834774	-45.251837	60.680070	-45.251837	60.680070	-0.181645	-138.842826
4.400000	-0.184141	-140.219043	-45.041593	58.788769	-45.041593	58.788769	-0.184147	-140.227176
4.450000	-0.186671	-141.600886	-44.836267	56.899671	-44.836267	56.899671	-0.186676	-141.609101
4.500000	-0.189227	-142.980433	-44.635728	55.012903	-44.635728	55.012903	-0.189232	-142.988729
4.550000	-0.191811	-144.357813	-44.439849	53.128571	-44.439849	53.128571	-0.191816	-144.366190
4.600000	-0.194422	-145.733155	-44.248509	51.246759	-44.248509	51.246759	-0.194427	-145.741614
4.650000	-0.197062	-147.106591	-44.061592	49.367528	-44.061592	49.367528	-0.197066	-147.115132
4.700000	-0.199728	-148.478250	-43.878988	47.490921	-43.878988	47.490921	-0.199733	-148.486873
4.750000	-0.202423	-149.848264	-43.700592	45.616959	-43.700592	45.616959	-0.202428	-149.856970
4.800000	-0.205146	-151.216764	-43.526304	43.745648	-43.526304	43.745648	-0.205151	-151.225552
4.850000	-0.207897	-152.583882	-43.356030	41.876977	-43.356030	41.876977	-0.207901	-152.592752
4.900000	-0.210676	-153.949748	-43.189679	40.010919	-43.189679	40.010919	-0.210680	-153.958702
4.950000	-0.213483	-155.314496	-43.027168	38.147435	-43.027168	38.147435	-0.213487	-155.323532
5.000000	-0.216317	-156.678255	-42.868416	36.286473	-42.868416	36.286473	-0.216321	-156.687375
5.050000	-0.219181	-158.041127	-42.713390	34.428072	-42.713390	34.428072	-0.219185	-158.050331
5.100000	-0.222073	-159.403287	-42.561985	32.572050	-42.561985	32.572050	-0.222076	-159.412575
5.150000	-0.224992	-160.764865	-42.414137	30.718324	-42.414137	30.718324	-0.224995	-160.774237
5.200000	-0.227938	-162.125993	-42.269786	28.866808	-42.269786	28.866808	-0.227941	-162.135449
5.250000	-0.230912	-163.486802	-42.128877	27.017409	-42.128877	27.017409	-0.230915	-163.496343
5.300000	-0.233912	-164.847422	-41.991361	25.170031	-41.991361	25.170031	-0.233915	-164.857047
5.350000	-0.236939	-166.207983	-41.857191	23.324579	-41.857191	23.324579	-0.236942	-166.217694
5.400000	-0.239992	-167.568615	-41.726329	21.480955	-41.726329	21.480955	-0.239995	-167.578411
5.450000	-0.243071	-168.929447	-41.598737	19.639064	-41.598737	19.639064	-0.243073	-168.939329
5.500000	-0.246176	-170.290609	-41.474384	17.798815	-41.474384	17.798815	-0.246178	-170.300577
5.550000	-0.249306	-171.652228	-41.353243	15.960122	-41.353243	15.960122	-0.249307	-171.662282
5.600000	-0.252460	-173.014432	-41.235291	14.122903	-41.235291	14.122903	-0.252461	-173.024572
5.650000	-0.255638	-174.377347	-41.120509	12.287087	-41.120509	12.287087	-0.255639	-174.387574
5.700000	-0.258840	-175.741100	-41.008883	10.452611	-41.008883	10.452611	-0.258841	-175.751413
5.750000	-0.262065	-177.105815	-40.900401	8.619424	-40.900401	8.619424	-0.262065	-177.116216
5.800000	-0.265312	-178.471618	-40.795056	6.787486	-40.795056	6.787486	-0.265312	-178.482106
5.850000	-0.268581	-179.838631	-40.692844	4.956773	-40.692844	4.956773	-0.268581	-179.849206
5.900000	-0.271871	178.793024	-40.593764	3.127276	-40.593764	3.127276	-0.271870	178.782360
5.950000	-0.275181	177.423224	-40.497819	1.299002	-40.497819	1.299002	-0.275180	177.412472
6.000000	-0.278511	176.051850	-40.405014	-0.528024	-40.405014	-0.528024	-0.278509	176.041010
6.050000	-0.281859	174.678783	-40.315355	-2.353757	-40.315355	-2.353757	-0.281858	174.667855
6.100000	-0.285226	173.303906	-40.228854	-4.178133	-40.228854	-4.178133	-0.285224	173.292889
6.150000	-0.288610	171.927101	-40.145523	-6.001064	-40.145523	-6.001064	-0.288607	171.915996
6.200000	-0.292010	170.548256	-40.065374	-7.822444	-40.065374	-7.822444	-0.292007	170.537062
6.250000	-0.295425	169.167255	-39.988424	-9.642140	-39.988424	-9.642140	-0.295421	169.155973
6.300000	-0.298855	167.783885	-39.914803	-11.459911	-39.914803	-11.459911	-0.298851	167.772513
6.350000	-0.302298	166.398128	-39.844422	-13.275646	-39.844422	-13.275646	-0.302294	166.386668
6.400000	-0.305754	165.009878	-39.777296	-15.089140	-39.777296	-15.089140	-0.305749	164.998328
6.450000	-0.309221	163.619028	-39.713445	-16.900162	-39.713445	-16.900162	-0.309215	163.607389
6.500000	-0.312698	162.225473	-39.652885	-18.708456	-39.652885	-18.708456	-0.312692	162.213745
6.550000	-0.316184	160.829114	-39.595634	-20.513743	-39.595634	-20.513743	-0.316177	160.817296
6.600000	-0.319678	159.429848	-39.541709	-22.315719	-39.541709	-22.315719	-0.319670	159.417941
6.650000	-0.323179	158.027579	-39.491124	-24.114057	-39.491124	-24.114057	-0.323170	158.015583
6.700000	-0.326685	156.622213	-39.443895	-25.908409	-39.443895	-25.908409	-0.326676	156.610127
6.750000	-0.330195	155.213655	-39.400032	-27.698401	-39.400032	-27.698401	-0.330186	155.201481
6.800000	-0.333709	153.801817	-39.359546	-29.483642	-39.359546	-29.483642	-0.333699	153.789553
6.850000	-0.337225	152.386610	-39.322446	-31.263720	-39.322446	-31.263720	-0.337214	152.374258
6.900000	-0.340741	150.967951	-39.288737	-33.038205	-39.288737	-33.038205	-0.340729	150.955510
6.950000	-0.344257	149.545757	-39.258422	-34.806650	-39.258422	-34.806650	-0.344244	149.533227
7.000000	-0.347770	148.119950	-39.231501	-36.568592	-39.231501	-36.568592	-0.347757	148.107332
7.050000	-0.351281	146.690455	-39.207971	-38.323555	-39.207971	-38.323555	-0.351267	146.677749
7.100000	-0.354787	145.257199	-39.187826	-40.071053	-39.187826	-40.071053	-0.354772	145.244405
7.150000	-0.358287	143.820114	-39.171056	-41.810588	-39.171056	-41.810588	-0.358271	143.807232
7.200000	-0.361780	142.379134	-39.157648	-43.541654	-39.157648	-43.541654	-0.361763	142.366165
7.250000	-0.365264	140.934198	-39.147585	-45.263740	-39.147585	-45.263740	-0.365246	140.921142
7.300000	-0.368739	139.485247	-39.140848	-46.976331	-39.140848	-46.976331	-0.368720	139.472105
7.350000	-0.372202	138.032229	-39.137412	-48.678910	-39.137412	-48.678910	-0.372183	138.019001
7.400000	-0.375653	136.575092	-39.137251	-50.370959	-39.137251	-50.370959	-0.375633	136.561779
7.450000	-0.379090	135.113792	-39.140334	-52.051962	-39.140334	-52.051962	-0.379069	135.100394
7.500000	-0.382513	133.648287	-39.146626	-53.721408	-39.146626	-53.721408	-0.382490	133.634804
7.550000	-0.385918	132.178353	-39.156228	-55.378241	-39.156228	-55.378241	-0.385894	132.164787
7.600000	-0.389305	130.704142	-39.168957	-57.022464	-39.168957	-57.022464	-0.389280	130.690493
7.650000	-0.392674	129.225627	-39.184770	-58.653588	-39.184770	-58.653588	-0.392648	129.211895
7.700000	-0.396023	127.742785	-39.203621	-60.271131	-39.203621	-60.271131	-0.395995	127.728972
7.750000	-0.399350	126.255600	-39.225462	-61.874623	-39.225462	-61.874623	-0.399322	126.241705
7.800000	-0.402655	124.764058	-39.250242	-63.463607	-39.250242	-63.463607	-0.402625	124.750084
7.850000	-0.405937	123.268153	-39.277909	-65.037635	-39.277909	-65.037635	-0.405906	123.254100
7.900000	-0.409194	121.767884	-39.308409	-66.596275	-39.308409	-66.596275	-0.409162	121.753752
7.950000	-0.412426	120.263253	-39.341686	-68.139104	-39.341686	-68.139104	-0.412393	120.249044
8.000000	-0.415632	118.754270	-39.377687	-69.665716	-39.377687	-69.665716	-0.415597	118.739985
8.050000	-0.418810	117.240951	-39.416355	-71.175712	-39.416355	-71.175712	-0.418774	117.226590
8.100000	-0.421960	115.723316	-39.457635	-72.668708	-39.457635	-72.668708	-0.421923	115.708881
8.150000	-0.425082	114.201392	-39.501470	-74.144329	-39.501470	-74.144329	-0.425043	114.186884
8.200000	-0.428174	112.675211	-39.547808	-75.602209	-39.547808	-75.602209	-0.428134	112.660631
8.250000	-0.431236	111.144812	-39.596595	-77.041987	-39.596595	-77.041987	-0.431194	111.130162
8.300000	-0.434267	109.610240	-39.647781	-78.463310	-39.647781	-78.463310	-0.434224	109.595520
8.350000	-0.437268	108.071546	-39.701318	-79.865823	-39.701318	-79.865823	-0.437223	108.056759
8.400000	-0.440237	106.528788	-39.757159	-81.249172	-39.757159	-81.249172	-0.440190	106.513934
8.450000	-0.443174	104.982028	-39.815264	-82.612996	-39.815264	-82.612996	-0.443126	104.967109
8.500000	-0.446079	103.431338	-39.875596	-83.956925	-39.875596	-83.956925	-0.446030	103.416356
8.550000	-0.448953	101.876794	-39.938123	-85.280572	-39.938123	-85.280572	-0.448902	101.861749
8.600000	-0.451794	100.318479	-40.002818	-86.583526	-40.002818	-86.583526	-0.451742	100.303374
8.650000	-0.454604	98.756482	-40.069662	-87.865349	-40.069662	-87.865349	-0.454551	98.741318
8.700000	-0.457383	97.190900	-40.138646	-89.125561	-40.138646	-89.125561	-0.457327	97.175679
8.750000	-0.460130	95.621836	-40.209766	-90.363629	-40.209766	-90.363629	-0.460073	95.606559
8.800000	-0.462845	94.049256	-40.283099	-91.577938	-40.283099	-91.577938	-0.462786	94.033925
8.850000	-0.465530	92.473429	-40.358600	-92.768758	-40.358600	-92.768758	-0.465470	92.458047
8.900000	-0.468185	90.894478	-40.436308	-93.935292	-40.436308	-93.935292	-0.468123	90.879046
8.950000	-0.470812	89.312532	-40.516278	-95.076607	-40.516278	-95.076607	-0.470749	89.297052
9.000000	-0.473411	87.727728	-40.598589	-96.191606	-40.598589	-96.191606	-0.473346	87.712201
9.050000	-0.475984	86.140206	-40.683342	-97.278979	-40.683342	-97.278979	-0.475917	86.124635
9.100000	-0.478531	84.550115	-40.770669	-98.337153	-40.770669	-98.337153	-0.478463	84.534501
9.150000	-0.481054	82.957608	-40.860740	-99.364219	-40.860740	-99.364219	-0.480985	82.941955
9.200000	-0.483554	81.362847	-40.953766	-100.357839	-40.953766	-100.357839	-0.483483	81.347155
9.250000	-0.486034	79.765996	-41.050013	-101.315121	-41.050013	-101.315121	-0.485961	79.750268
9.300000	-0.488493	78.167226	-41.149814	-102.232450	-41.149814	-102.232450	-0.488420	78.151465
9.350000	-0.490936	76.566716	-41.253587	-103.105253	-41.253587	-103.105253	-0.490860	76.550923
9.400000	-0.493362	74.964647	-41.361855	-103.927678	-41.361855	-103.927678	-0.493285	74.948824
9.450000	-0.495775	73.361207	-41.475278	-104.692124	-41.475278	-104.692124	-0.495697	73.345356
9.500000	-0.498176	71.756587	-41.594689	-105.388565	-41.594689	-105.388565	-0.498097	71.740711
9.550000	-0.500568	70.150985	-41.721150	-106.003531	-41.721150	-106.003531	-0.500487	70.135085
9.600000	-0.502953	68.544602	-41.856018	-106.518543	-41.856018	-106.518543	-0.502871	68.528682
9.650000	-0.505333	66.937644	-42.001040	-106.907644	-42.001040	-106.907644	-0.505250	66.921705
9.700000	-0.507712	65.330321	-42.158459	-107.133322	-42.158459	-107.133322	-0.507627	65.314366
9.750000	-0.510091	63.722847	-42.331133	-107.139580	-42.331133	-107.139580	-0.510005	63.706877
9.800000	-0.512474	62.115421	-42.521750	-106.861637	-42.521750	-106.861637	-0.512387	62.099439
9.850000	-0.514863	60.508293	-42.736028	-106.118785	-42.736028	-106.118785	-0.514775	60.492301
9.900000	-0.517261	58.901679	-42.975922	-104.687133	-42.975922	-104.687133	-0.517172	58.885680
9.950000	-0.519672	57.295804	-43.236860	-102.125283	-43.236860	-102.125283	-0.519582	57.279799
10.000000	-0.522098	55.690897	-43.482596	-97.582402	-43.482596	-97.582402	-0.522007	55.674889
