! freq	dB(S11)	phase(S11)	dB(S12)	phase(S12)	
!     	dB(S21)	phase(S21)	dB(S22)	phase(S22)	
!S-par simulation data
#  GHz  S  DB  R 50
0.000000	-83.468384	0.000000	-0.000583	0.000000	-0.000583	0.000000	-83.468384	0.000000
0.050000	-34.987812	-93.591759	-0.006672	-3.292101	-0.006672	-3.292101	-34.965936	-92.525942
0.100000	-28.992603	-97.515109	-0.017333	-6.541053	-0.017333	-6.541053	-28.976772	-95.419998
0.150000	-25.507585	-101.371889	-0.029212	-9.772552	-0.029212	-9.772552	-25.494357	-98.265099
0.200000	-23.053491	-105.209418	-0.042976	-12.995669	-0.042976	-12.995669	-23.039650	-101.083369
0.250000	-21.164982	-109.030159	-0.058966	-16.211328	-0.058966	-16.211328	-21.149281	-103.870706
0.300000	-19.634781	-112.831730	-0.077202	-19.419269	-0.077202	-19.419269	-19.617241	-106.627913
0.350000	-18.353328	-116.613242	-0.097658	-22.618946	-0.097658	-22.618946	-18.334355	-109.357441
0.400000	-17.254957	-120.376758	-0.120191	-25.810111	-0.120191	-25.810111	-17.234934	-112.062708
0.450000	-16.298430	-124.124503	-0.144740	-28.992035	-0.144740	-28.992035	-16.277606	-114.745019
0.500000	-15.454532	-127.859820	-0.171102	-32.164584	-0.171102	-32.164584	-15.433040	-117.406294
0.550000	-14.703581	-131.584873	-0.199178	-35.327015	-0.199178	-35.327015	-14.681473	-120.046299
0.600000	-14.029876	-135.302109	-0.228746	-38.479316	-0.228746	-38.479316	-14.007166	-122.665752
0.650000	-13.422371	-139.013153	-0.259656	-41.621007	-0.259656	-41.621007	-13.399051	-125.263927
0.700000	-12.871753	-142.719662	-0.291695	-44.752142	-0.291695	-44.752142	-12.847807	-127.840789
0.750000	-12.371025	-146.423021	-0.324676	-47.872616	-0.324676	-47.872616	-12.346431	-130.395664
0.800000	-11.914324	-150.124617	-0.358398	-50.982566	-0.358398	-50.982566	-11.889060	-132.928087
0.850000	-11.496716	-153.825848	-0.392658	-54.082310	-0.392658	-54.082310	-11.470753	-135.437743
0.900000	-11.114542	-157.528204	-0.427266	-57.172000	-0.427266	-57.172000	-11.087846	-137.923669
0.950000	-10.764192	-161.233266	-0.462022	-60.252251	-0.462022	-60.252251	-10.736722	-140.385723
1.000000	-10.442800	-164.942747	-0.496737	-63.323646	-0.496737	-63.323646	-10.414505	-142.823470
1.050000	-10.147906	-168.658513	-0.531230	-66.386878	-0.531230	-66.386878	-10.118726	-145.236502
1.100000	-9.877384	-172.382600	-0.565325	-69.442748	-0.565325	-69.442748	-9.847247	-147.624432
1.150000	-9.629387	-176.117227	-0.598854	-72.492163	-0.598854	-72.492163	-9.598207	-149.986888
1.200000	-9.402301	-179.864806	-0.631655	-75.536132	-0.631655	-75.536132	-9.369977	-152.323500
1.250000	-9.194708	176.372050	-0.663578	-78.575763	-0.663578	-78.575763	-9.161126	-154.633893
1.300000	-9.006267	172.589048	-0.694395	-81.612147	-0.694395	-81.612147	-8.971280	-156.915836
1.350000	-8.833730	168.786451	-0.724169	-84.646920	-0.724169	-84.646920	-8.797207	-159.173191
1.400000	-8.678180	164.957433	-0.752578	-87.681291	-0.752578	-87.681291	-8.639937	-161.401252
1.450000	-8.537495	161.100979	-0.779646	-90.716734	-0.779646	-90.716734	-8.497351	-163.602140
1.500000	-8.411408	157.212107	-0.805213	-93.754901	-0.805213	-93.754901	-8.369147	-165.774100
1.550000	-8.299469	153.286025	-0.829159	-96.797547	-0.829159	-96.797547	-8.254848	-167.915796
1.600000	-8.200150	149.321329	-0.851536	-99.846021	-0.851536	-99.846021	-8.152919	-170.028649
1.650000	-8.114508	145.307323	-0.872040	-102.903177	-0.872040	-102.903177	-8.064343	-172.107376
1.700000	-8.040255	141.246224	-0.890898	-105.969629	-0.890898	-105.969629	-7.986853	-174.155691
1.750000	-7.978151	137.127418	-0.907883	-109.048404	-0.907883	-109.048404	-7.921130	-176.168781
1.800000	-7.927482	132.946383	-0.923022	-112.141365	-0.923022	-112.141365	-7.866428	-178.145861
1.850000	-7.887906	128.696653	-0.936305	-115.250761	-0.936305	-115.250761	-7.822354	179.915091
1.900000	-7.859223	124.370315	-0.947715	-118.379174	-0.947715	-118.379174	-7.788644	178.016893
1.950000	-7.841135	119.959487	-0.957277	-121.529151	-0.957277	-121.529151	-7.764928	176.162371
2.000000	-7.833243	115.456683	-0.965049	-124.703064	-0.965049	-124.703064	-7.750738	174.354251
2.050000	-7.835267	110.852859	-0.971094	-127.903607	-0.971094	-127.903607	-7.745702	172.596159
2.100000	-7.846909	106.138162	-0.975491	-131.133598	-0.975491	-131.133598	-7.749422	170.892238
2.150000	-7.867845	101.301847	-0.978346	-134.395980	-0.978346	-134.395980	-7.761455	169.247185
2.200000	-7.897696	96.332198	-0.979789	-137.693836	-0.979789	-137.693836	-7.781293	167.666294
2.250000	-7.936012	91.216446	-0.979978	-141.030391	-0.979978	-141.030391	-7.808334	166.155488
2.300000	-7.982234	85.940705	-0.979103	-144.409019	-0.979103	-144.409019	-7.841854	164.721330
2.350000	-8.035660	80.489912	-0.977389	-147.833252	-0.977389	-147.833252	-7.880973	163.371011
2.400000	-8.095401	74.847815	-0.975098	-151.306791	-0.975098	-151.306791	-7.924605	162.112288
2.450000	-8.160321	68.997000	-0.972537	-154.833504	-0.972537	-154.833504	-7.971415	160.953371
2.500000	-8.228978	62.919006	-0.970065	-158.417442	-0.970065	-158.417442	-8.019764	159.902724
2.550000	-8.299525	56.588734	-0.968113	-162.064274	-0.968113	-162.064274	-8.067572	158.971463
2.600000	-8.369567	49.991394	-0.967162	-165.777188	-0.967162	-165.777188	-8.112348	158.165033
2.650000	-8.436230	43.107512	-0.967762	-169.560794	-0.967762	-169.560794	-8.151143	157.489976
2.700000	-8.496014	35.918770	-0.970548	-173.419881	-0.970548	-173.419881	-8.180492	156.950687
2.750000	-8.545166	28.418277	-0.976145	-177.357079	-0.976145	-177.357079	-8.196883	156.544657
2.800000	-8.578238	20.578000	-0.985535	178.618535	-0.985535	178.618535	-8.195148	156.275369
2.850000	-8.589775	12.395767	-0.999647	174.502725	-0.999647	174.502725	-8.170508	156.131530
2.900000	-8.573892	3.875050	-1.019556	170.290661	-1.019556	170.290661	-8.118003	156.095603
2.950000	-8.524585	-4.971772	-1.046481	165.977357	-1.046481	165.977357	-8.032812	156.142167
3.000000	-8.436093	-14.122141	-1.081820	161.557679	-1.081820	161.557679	-7.910559	156.237354
3.050000	-8.303498	-23.542006	-1.127155	157.026712	-1.127155	157.026712	-7.747801	156.338972
3.100000	-8.123304	-33.186770	-1.184265	152.379901	-1.184265	152.379901	-7.542444	156.398017
3.150000	-7.893644	-43.004329	-1.255225	147.612557	-1.255225	147.612557	-7.293807	156.360401
3.200000	-7.615230	-52.936533	-1.342290	142.721370	-1.342290	142.721370	-7.003352	156.171049
3.250000	-7.291490	-62.925272	-1.447844	137.704747	-1.447844	137.704747	-6.674708	155.779176
3.300000	-6.927706	-72.917561	-1.574574	132.561716	-1.574574	132.561716	-6.312884	155.139665
3.350000	-6.530859	-82.867710	-1.725398	127.292856	-1.725398	127.292856	-5.924172	154.216157
3.400000	-6.109053	-92.739030	-1.903442	121.900591	-1.903442	121.900591	-5.515704	152.982592
3.450000	-5.670820	-102.503718	-2.112097	116.389146	-2.112097	116.389146	-5.094928	151.422813
3.500000	-5.224690	-112.141734	-2.355004	110.764901	-2.355004	110.764901	-4.669293	149.530260
3.550000	-4.779092	-121.641543	-2.635511	105.038242	-2.635511	105.038242	-4.246180	147.312450
3.600000	-4.341353	-130.995312	-2.957243	99.221087	-2.957243	99.221087	-3.832072	144.782182
3.650000	-3.917825	-140.197977	-3.323843	93.327757	-3.323843	93.327757	-3.432640	141.958636
3.700000	-3.513779	-149.245794	-3.738957	87.374745	-3.738957	87.374745	-3.052642	138.865796
3.750000	-3.133381	-158.135348	-4.206224	81.380354	-4.206224	81.380354	-2.695876	135.530949
3.800000	-2.779890	-166.861204	-4.729582	75.364241	-4.729582	75.364241	-2.365358	131.981303
3.850000	-2.455268	-175.421068	-5.312458	69.347387	-5.312458	69.347387	-2.062882	128.249302
3.900000	-2.160602	176.189307	-5.958875	63.350660	-5.958875	63.350660	-1.789455	124.364204
3.950000	-1.896152	167.974096	-6.673349	57.394904	-6.673349	57.394904	-1.545311	120.353796
4.000000	-1.661471	159.937033	-7.461215	51.500767	-7.461215	51.500767	-1.330018	116.243651
4.050000	-1.455534	152.081055	-8.329090	45.688841	-8.329090	45.688841	-1.142594	112.056586
4.100000	-1.277050	144.409515	-9.285373	39.981274	-9.285373	39.981274	-0.981810	107.812005
4.150000	-1.124076	136.921990	-10.341333	34.400803	-10.341333	34.400803	-0.845801	103.526862
4.200000	-0.994452	129.616481	-11.512722	28.973657	-11.512722	28.973657	-0.732494	99.214507
4.250000	-0.886307	122.493282	-12.820973	23.738349	-12.820973	23.738349	-0.640108	94.884773
4.300000	-0.797284	115.547351	-14.298313	18.746817	-14.298313	18.746817	-0.566380	90.545057
4.350000	-0.725259	108.774319	-15.993237	14.087155	-15.993237	14.087155	-0.509278	86.199941
4.400000	-0.668193	102.168964	-17.983385	9.922144	-17.983385	9.922144	-0.466855	81.851769
4.450000	-0.624165	95.725404	-20.402742	6.594732	-20.402742	6.594732	-0.437272	77.500962
4.500000	-0.591386	89.437291	-23.508345	4.969399	-23.508345	4.969399	-0.418822	73.146327
4.550000	-0.568217	83.297979	-27.867595	7.935056	-27.867595	7.935056	-0.409940	68.785330
4.600000	-0.553197	77.301324	-34.568117	31.271036	-34.568117	31.271036	-0.409231	64.414274
4.650000	-0.544990	71.441021	-34.749474	105.863464	-34.749474	105.863464	-0.415421	60.028474
4.700000	-0.542318	65.708951	-28.771848	129.385007	-28.771848	129.385007	-0.427283	55.622784
4.750000	-0.544111	60.098512	-25.066866	132.613329	-25.066866	132.613329	-0.443794	51.191417
4.800000	-0.549420	54.603296	-22.600804	131.336720	-22.600804	131.336720	-0.464043	46.728158
4.850000	-0.557406	49.217118	-20.813452	128.475622	-20.813452	128.475622	-0.487228	42.226464
4.900000	-0.567329	43.934032	-19.449057	124.890837	-19.449057	124.890837	-0.512638	37.679547
4.950000	-0.578537	38.748335	-18.373672	120.919287	-18.373672	120.919287	-0.539652	33.080447
5.000000	-0.590459	33.654561	-17.509347	116.716960	-17.509347	116.716960	-0.567728	28.422092
5.050000	-0.602590	28.648644	-16.808428	112.362764	-16.808428	112.362764	-0.596398	23.696292
5.100000	-0.614484	23.724220	-16.237287	107.903566	-16.237287	107.903566	-0.625251	18.896800
5.150000	-0.625760	18.876439	-15.773979	103.365289	-15.773979	103.365289	-0.653956	14.016600
5.200000	-0.636088	14.100608	-15.403215	98.764498	-15.403215	98.764498	-0.682247	9.048833
5.250000	-0.645180	9.392161	-15.114285	94.113043	-15.114285	94.113043	-0.709918	3.986894
5.300000	-0.652786	4.746631	-14.899748	89.420933	-14.899748	89.420933	-0.736829	-1.175475
5.350000	-0.658693	0.159627	-14.754573	84.698311	-14.754573	84.698311	-0.762904	-6.444059
5.400000	-0.662718	-4.373200	-14.675533	79.956939	-14.675533	79.956939	-0.788133	-11.824035
5.450000	-0.664685	-8.855747	-14.661353	75.211513	-14.661353	75.211513	-0.812572	-17.320968
5.500000	-0.664474	-13.292689	-14.710787	70.480831	-14.710787	70.480831	-0.836364	-22.937804
5.550000	-0.661993	-17.688657	-14.823226	65.787879	-14.823226	65.787879	-0.859726	-28.676247
5.600000	-0.658376	-22.048825	-14.996090	60.976378	-14.996090	60.976378	-0.880324	-34.551265
5.650000	-0.653534	-26.375710	-15.241090	56.119164	-15.241090	56.119164	-0.899521	-40.562364
5.700000	-0.647467	-30.673251	-15.564020	51.247406	-15.564020	51.247406	-0.917613	-46.708259
5.750000	-0.640332	-34.944989	-15.973315	46.378161	-15.973315	46.378161	-0.934657	-52.989771
5.800000	-0.632407	-39.194986	-16.478277	41.531478	-16.478277	41.531478	-0.950775	-59.402453
5.850000	-0.624019	-43.426285	-17.094251	36.733873	-17.094251	36.733873	-0.966085	-65.944212
5.900000	-0.615587	-47.641505	-17.843486	32.027112	-17.843486	32.027112	-0.980737	-72.612768
5.950000	-0.607572	-51.843619	-18.751951	27.466451	-18.751951	27.466451	-0.994935	-79.396835
6.000000	-0.600528	-56.033827	-19.867055	23.165172	-19.867055	23.165172	-1.008865	-86.294215
6.050000	-0.594951	-60.213909	-21.250408	19.294474	-21.250408	19.294474	-1.022757	-93.289741
6.100000	-0.591396	-64.384258	-23.010878	16.220207	-23.010878	16.220207	-1.036830	-100.373728
6.150000	-0.590413	-68.544764	-25.337509	14.820755	-25.337509	14.820755	-1.051309	-107.533083
6.200000	-0.592371	-72.695169	-28.587815	17.326611	-28.587815	17.326611	-1.066381	-114.750988
6.250000	-0.597886	-76.833646	-33.223401	33.987583	-33.223401	33.987583	-1.082272	-122.014167
6.300000	-0.607108	-80.959246	-35.614038	86.348687	-35.614038	86.348687	-1.099093	-129.303276
6.350000	-0.620414	-85.069608	-30.755385	122.416268	-30.755385	122.416268	-1.116991	-136.601699
6.400000	-0.637892	-89.162872	-26.526044	130.697177	-26.526044	130.697177	-1.136021	-143.891571
6.450000	-0.659604	-93.236875	-23.515368	131.145855	-23.515368	131.145855	-1.156217	-151.155751
6.500000	-0.685523	-97.289499	-21.240011	128.896626	-21.240011	128.896626	-1.177569	-158.377691
6.550000	-0.715533	-101.318774	-19.431364	125.461486	-19.431364	125.461486	-1.200028	-165.541749
6.600000	-0.749538	-105.322290	-17.943439	121.416192	-17.943439	121.416192	-1.223536	-172.631261
6.650000	-0.787203	-109.299024	-16.689530	117.046546	-16.689530	117.046546	-1.247963	-179.633983
6.700000	-0.828128	-113.248794	-15.613546	112.497884	-15.613546	112.497884	-1.273159	173.458437
6.750000	-0.872111	-117.169546	-14.679247	107.846319	-14.679247	107.846319	-1.299012	166.660996
6.800000	-0.918702	-121.061705	-13.859417	103.147192	-13.859417	103.147192	-1.325358	159.979426
6.850000	-0.967514	-124.925415	-13.134354	98.434101	-13.134354	98.434101	-1.352048	153.420174
6.900000	-1.018162	-128.761176	-12.489011	93.729791	-12.489011	93.729791	-1.378942	146.988104
6.950000	-1.070265	-132.569812	-11.911590	89.049933	-11.911590	89.049933	-1.405909	140.686604
7.000000	-1.123458	-136.352427	-11.392636	84.405371	-11.392636	84.405371	-1.432830	134.517727
7.050000	-1.177399	-140.110359	-10.924434	79.803551	-10.924434	79.803551	-1.459603	128.482337
7.100000	-1.231766	-143.845028	-10.500692	75.249708	-10.500692	75.249708	-1.486137	122.580900
7.150000	-1.286260	-147.558028	-10.116123	70.747295	-10.116123	70.747295	-1.512357	116.812963
7.200000	-1.340616	-151.251345	-9.765984	66.297620	-9.765984	66.297620	-1.538208	111.175413
7.250000	-1.394599	-154.926791	-9.446399	61.901456	-9.446399	61.901456	-1.563648	105.665833
7.300000	-1.448001	-158.586196	-9.154034	57.558826	-9.154034	57.558826	-1.588643	100.281328
7.350000	-1.500639	-162.231375	-8.886002	53.269190	-8.886002	53.269190	-1.613174	95.018639
7.400000	-1.552336	-165.863950	-8.639981	49.032327	-8.639981	49.032327	-1.637223	89.875873
7.450000	-1.602942	-169.485588	-8.413859	44.847414	-8.413859	44.847414	-1.660781	84.850254
7.500000	-1.652514	-173.098926	-8.204320	40.707301	-8.204320	40.707301	-1.683915	79.925190
7.550000	-1.700637	-176.703761	-8.012136	36.620620	-8.012136	36.620620	-1.706525	75.119702
7.600000	-1.747567	179.696984	-7.833449	32.575654	-7.833449	32.575654	-1.728736	70.407428
7.650000	-1.792994	176.102912	-7.668512	28.577651	-7.668512	28.577651	-1.750493	65.800063
7.700000	-1.837030	172.512440	-7.515217	24.620634	-7.515217	24.620634	-1.771866	61.284292
7.750000	-1.879576	168.924679	-7.372846	20.704450	-7.372846	20.704450	-1.792868	56.859853
7.800000	-1.920576	165.338784	-7.240596	16.828117	-7.240596	16.828117	-1.813524	52.524648
7.850000	-1.960149	161.753905	-7.117041	12.986998	-7.117041	12.986998	-1.833899	48.268395
7.900000	-1.998061	158.169528	-7.002333	9.184320	-7.002333	9.184320	-1.853988	44.098425
7.950000	-2.034609	154.585139	-6.894656	5.412434	-6.894656	5.412434	-1.873885	39.997636
8.000000	-2.069486	151.000366	-6.794513	1.676155	-6.794513	1.676155	-1.893592	35.976886
8.050000	-2.102997	147.415070	-6.700354	-2.031554	-6.700354	-2.031554	-1.913194	32.020369
8.100000	-2.134982	143.829104	-6.612242	-5.708633	-6.612242	-5.708633	-1.932731	28.132683
8.150000	-2.165568	140.242537	-6.529407	-9.358153	-6.529407	-9.358153	-1.952267	24.306863
8.200000	-2.194796	136.655511	-6.451395	-12.981461	-6.451395	-12.981461	-1.971866	20.539776
8.250000	-2.222630	133.068253	-6.378005	-16.578372	-6.378005	-16.578372	-1.991602	16.831692
8.300000	-2.249288	129.481101	-6.308422	-20.153002	-6.308422	-20.153002	-2.011536	13.173245
8.350000	-2.274642	125.894513	-6.242750	-23.703181	-6.242750	-23.703181	-2.031775	9.569048
8.400000	-2.298884	122.308955	-6.180331	-27.232256	-6.180331	-27.232256	-2.052392	6.011431
8.450000	-2.322073	118.724988	-6.120875	-30.741020	-6.120875	-30.741020	-2.073488	2.498391
8.500000	-2.344301	115.143208	-6.064048	-34.230682	-6.064048	-34.230682	-2.095167	-0.972996
8.550000	-2.365639	111.564409	-6.009593	-37.701755	-6.009593	-37.701755	-2.117580	-4.404155
8.600000	-2.386278	107.988900	-5.957029	-41.157104	-5.957029	-41.157104	-2.140780	-7.801540
8.650000	-2.406297	104.417497	-5.906142	-44.597048	-5.906142	-44.597048	-2.164944	-11.166095
8.700000	-2.425836	100.850843	-5.856617	-48.022906	-5.856617	-48.022906	-2.190228	-14.500879
8.750000	-2.445052	97.289546	-5.808144	-51.436058	-5.808144	-51.436058	-2.216806	-17.809034
8.800000	-2.464117	93.734453	-5.760413	-54.837552	-5.760413	-54.837552	-2.244944	-21.092950
8.850000	-2.483244	90.185813	-5.713072	-58.229522	-5.713072	-58.229522	-2.274814	-24.357187
8.900000	-2.502650	86.644016	-5.665801	-61.613675	-5.665801	-61.613675	-2.306674	-27.605314
8.950000	-2.522576	83.109332	-5.618274	-64.991874	-5.618274	-64.991874	-2.340819	-30.841102
9.000000	-2.543293	79.581876	-5.570163	-68.366162	-5.570163	-68.366162	-2.377591	-34.068567
9.050000	-2.565103	76.061576	-5.521138	-71.738793	-5.521138	-71.738793	-2.417387	-37.292015
9.100000	-2.588348	72.548118	-5.470869	-75.112270	-5.470869	-75.112270	-2.460675	-40.516100
9.150000	-2.613410	69.040870	-5.419038	-78.489372	-5.419038	-78.489372	-2.508009	-43.745893
9.200000	-2.640458	65.538368	-5.365594	-81.872202	-5.365594	-81.872202	-2.559532	-46.985288
9.250000	-2.670430	62.040033	-5.309817	-85.265596	-5.309817	-85.265596	-2.616935	-50.242889
9.300000	-2.703811	58.542784	-5.251618	-88.673226	-5.251618	-88.673226	-2.681006	-53.525708
9.350000	-2.741107	55.042746	-5.191049	-92.098188	-5.191049	-92.098188	-2.752676	-56.840389
9.400000	-2.783098	51.534308	-5.128210	-95.543878	-5.128210	-95.543878	-2.833477	-60.195578
9.450000	-2.831336	48.006147	-5.063383	-99.014438	-5.063383	-99.014438	-2.926477	-63.606076
9.500000	-2.887565	44.440325	-4.997822	-102.506670	-4.997822	-102.506670	-3.034959	-67.083082
9.550000	-2.955494	40.806739	-4.933432	-106.005355	-4.933432	-106.005355	-3.164699	-70.636842
9.600000	-3.044604	37.053942	-4.872198	-109.462509	-4.872198	-109.462509	-3.327106	-74.265515
9.650000	-3.187329	33.120227	-4.806183	-112.716992	-4.806183	-112.716992	-3.546866	-77.864566
9.700000	-3.452092	29.295085	-4.660367	-115.626316	-4.660367	-115.626316	-3.819595	-80.942666
9.750000	-3.786394	26.645954	-4.360989	-119.387853	-4.360989	-119.387853	-3.976631	-83.445108
9.800000	-4.036240	24.757931	-4.203364	-124.351804	-4.203364	-124.351804	-4.033646	-86.775527
9.850000	-4.091113	23.363926	-4.153518	-128.335506	-4.153518	-128.335506	-4.112321	-91.199536
9.900000	-4.064623	20.339790	-3.956305	-132.370818	-3.956305	-132.370818	-4.363657	-96.301667
9.950000	-4.200721	16.824501	-3.757550	-136.980937	-3.757550	-136.980937	-4.727409	-101.414723
10.000000	-4.439505	13.613853	-3.567135	-141.882035	-3.567135	-141.882035	-5.193965	-106.764874
