! freq	dB(S11)	phase(S11)	dB(S12)	phase(S12)	
!     	dB(S21)	phase(S21)	dB(S22)	phase(S22)	
!S-par simulation data
#  GHz  S  DB  R 50
0.000000	0.000000	0.000000	-357.570958	180.000000	-357.570958	180.000000	-0.000000	0.000000
0.050000	-0.005849	-1.134662	-103.873779	85.720241	-103.873779	85.720241	-0.005949	-1.134616
0.100000	-0.009872	-2.316817	-97.990821	86.050772	-97.990821	86.050772	-0.009941	-2.317107
0.150000	-0.011493	-3.500123	-94.541490	85.476037	-94.541490	85.476037	-0.011532	-3.500417
0.200000	-0.012432	-4.680460	-92.121010	84.657617	-92.121010	84.657617	-0.012455	-4.680704
0.250000	-0.013171	-5.858434	-90.280582	83.749231	-90.280582	83.749231	-0.013186	-5.858626
0.300000	-0.013884	-7.034827	-88.811798	82.819187	-88.811798	82.819187	-0.013894	-7.034975
0.350000	-0.014623	-8.209823	-87.608531	81.894834	-87.608531	81.894834	-0.014630	-8.209932
0.400000	-0.015412	-9.383549	-86.606241	80.997107	-86.606241	80.997107	-0.015417	-9.383626
0.450000	-0.016263	-10.556044	-85.763603	80.142577	-85.763603	80.142577	-0.016266	-10.556092
0.500000	-0.017178	-11.727299	-85.052753	79.346513	-85.052753	79.346513	-0.017180	-11.727321
0.550000	-0.018156	-12.897278	-84.454199	78.624503	-84.454199	78.624503	-0.018158	-12.897276
0.600000	-0.019196	-14.065930	-83.953946	77.993555	-83.953946	77.993555	-0.019197	-14.065907
0.650000	-0.020294	-15.233199	-83.541767	77.473026	-83.541767	77.473026	-0.020294	-15.233154
0.700000	-0.021445	-16.399022	-83.210099	77.085572	-83.210099	77.085572	-0.021444	-16.398958
0.750000	-0.022645	-17.563338	-82.953295	76.858227	-82.953295	76.858227	-0.022644	-17.563256
0.800000	-0.023889	-18.726085	-82.767071	76.823699	-82.767071	76.823699	-0.023888	-18.725985
0.850000	-0.025173	-19.887203	-82.648037	77.021966	-82.648037	77.021966	-0.025172	-19.887086
0.900000	-0.026492	-21.046635	-82.593243	77.502214	-82.593243	77.502214	-0.026491	-21.046501
0.950000	-0.027842	-22.204325	-82.599636	78.325126	-82.599636	78.325126	-0.027841	-22.204173
1.000000	-0.029219	-23.360218	-82.663329	79.565395	-82.663329	79.565395	-0.029217	-23.360050
1.050000	-0.030618	-24.514265	-82.778558	81.313987	-82.778558	81.313987	-0.030616	-24.514080
1.100000	-0.032036	-25.666417	-82.936147	83.679106	-82.936147	83.679106	-0.032033	-25.666215
1.150000	-0.033469	-26.816626	-83.121325	86.783566	-83.121325	86.783566	-0.033466	-26.816408
1.200000	-0.034914	-27.964850	-83.310912	90.754444	-83.310912	90.754444	-0.034911	-27.964614
1.250000	-0.036369	-29.111046	-83.470395	95.698674	-83.470395	95.698674	-0.036366	-29.110792
1.300000	-0.037830	-30.255082	-83.546526	101.697190	-83.546526	101.697190	-0.037827	-30.254809
1.350000	-0.039296	-31.397006	-83.483942	108.596329	-83.483942	108.596329	-0.039293	-31.396715
1.400000	-0.040764	-32.536783	-83.230733	116.099858	-83.230733	116.099858	-0.040761	-32.536473
1.450000	-0.042233	-33.674377	-82.758133	123.755998	-82.758133	123.755998	-0.042230	-33.674046
1.500000	-0.043701	-34.809753	-82.072616	131.074310	-82.072616	131.074310	-0.043699	-34.809402
1.550000	-0.045168	-35.942878	-81.212159	137.663493	-81.212159	137.663493	-0.045165	-35.942506
1.600000	-0.046631	-37.073721	-80.230131	143.305536	-80.230131	143.305536	-0.046628	-37.073327
1.650000	-0.048091	-38.202251	-79.178720	147.946767	-79.178720	147.946767	-0.048088	-38.201834
1.700000	-0.049547	-39.328438	-78.099617	151.644044	-78.099617	151.644044	-0.049544	-39.327997
1.750000	-0.050999	-40.452253	-77.021951	154.508221	-77.021951	154.508221	-0.050996	-40.451788
1.800000	-0.052445	-41.573668	-75.964116	156.664630	-75.964116	156.664630	-0.052442	-41.573177
1.850000	-0.053887	-42.692657	-74.936679	158.231846	-74.936679	158.231846	-0.053884	-42.692140
1.900000	-0.055325	-43.809193	-73.944998	159.313051	-73.944998	159.313051	-0.055321	-43.808648
1.950000	-0.056757	-44.923252	-72.991159	159.994278	-72.991159	159.994278	-0.056754	-44.922679
2.000000	-0.058186	-46.034809	-72.075288	160.345723	-72.075288	160.345723	-0.058182	-46.034207
2.050000	-0.059610	-47.143841	-71.196391	160.424109	-71.196391	160.424109	-0.059607	-47.143208
2.100000	-0.061032	-48.250326	-70.352878	160.275148	-70.352878	160.275148	-0.061028	-48.249662
2.150000	-0.062450	-49.354243	-69.542878	159.935730	-69.542878	159.935730	-0.062446	-49.353547
2.200000	-0.063866	-50.455572	-68.764430	159.435743	-68.764430	159.435743	-0.063862	-50.454842
2.250000	-0.065281	-51.554292	-68.015587	158.799526	-68.015587	158.799526	-0.065277	-51.553528
2.300000	-0.066694	-52.650387	-67.294483	158.047019	-67.294483	158.047019	-0.066690	-52.649588
2.350000	-0.068107	-53.743838	-66.599356	157.194667	-66.599356	157.194667	-0.068103	-53.743002
2.400000	-0.069521	-54.834629	-65.928565	156.256112	-65.928565	156.256112	-0.069517	-54.833757
2.450000	-0.070936	-55.922746	-65.280592	155.242751	-65.280592	155.242751	-0.070932	-55.921835
2.500000	-0.072353	-57.008174	-64.654039	154.164160	-64.654039	154.164160	-0.072349	-57.007224
2.550000	-0.073773	-58.090782	-64.046660	153.026273	-64.046660	153.026273	-0.073769	-58.089792
2.600000	-0.075197	-59.170676	-63.458356	151.838660	-63.458356	151.838660	-0.075192	-59.169645
2.650000	-0.076625	-60.247845	-62.888027	150.607092	-62.888027	150.607092	-0.076620	-60.246772
2.700000	-0.078059	-61.322279	-62.334662	149.336539	-62.334662	149.336539	-0.078054	-61.321164
2.750000	-0.079499	-62.393971	-61.797334	148.031301	-61.797334	148.031301	-0.079494	-62.392813
2.800000	-0.080946	-63.462914	-61.275190	146.695117	-61.275190	146.695117	-0.080940	-63.461712
2.850000	-0.082401	-64.529102	-60.767445	145.331250	-60.767445	145.331250	-0.082395	-64.527855
2.900000	-0.083864	-65.592529	-60.273373	143.942560	-60.273373	143.942560	-0.083858	-65.591238
2.950000	-0.085337	-66.653194	-59.792304	142.531563	-59.792304	142.531563	-0.085331	-66.651857
3.000000	-0.086819	-67.711093	-59.323619	141.100483	-59.323619	141.100483	-0.086813	-67.709710
3.050000	-0.088313	-68.766226	-58.866741	139.651291	-58.866741	139.651291	-0.088307	-68.764796
3.100000	-0.089819	-69.818593	-58.421137	138.185737	-58.421137	138.185737	-0.089812	-69.817116
3.150000	-0.091337	-70.868196	-57.986309	136.705387	-57.986309	136.705387	-0.091330	-70.866672
3.200000	-0.092868	-71.915037	-57.561794	135.211640	-57.561794	135.211640	-0.092861	-71.913465
3.250000	-0.094413	-72.959120	-57.147160	133.705752	-57.147160	133.705752	-0.094406	-72.957500
3.300000	-0.095972	-74.000450	-56.742003	132.188853	-56.742003	132.188853	-0.095965	-73.998782
3.350000	-0.097547	-75.039034	-56.345943	130.661966	-56.345943	130.661966	-0.097540	-75.037317
3.400000	-0.099138	-76.074879	-55.958626	129.126014	-55.958626	129.126014	-0.099131	-76.073114
3.450000	-0.100746	-77.107994	-55.579718	127.581836	-55.579718	127.581836	-0.100738	-77.106181
3.500000	-0.102371	-78.138389	-55.208907	126.030194	-55.208907	126.030194	-0.102363	-78.136527
3.550000	-0.104014	-79.166075	-54.845895	124.471785	-54.845895	124.471785	-0.104006	-79.164165
3.600000	-0.105675	-80.191065	-54.490407	122.907243	-54.490407	122.907243	-0.105667	-80.189106
3.650000	-0.107356	-81.213371	-54.142177	121.337151	-54.142177	121.337151	-0.107348	-81.211364
3.700000	-0.109057	-82.233009	-53.800959	119.762043	-53.800959	119.762043	-0.109048	-82.230954
3.750000	-0.110778	-83.249994	-53.466516	118.182410	-53.466516	118.182410	-0.110769	-83.247891
3.800000	-0.112521	-84.264229	-53.138375	116.598548	-53.138375	116.598548	-0.112512	-84.262079
3.850000	-0.114286	-85.275848	-52.816598	115.011067	-52.816598	115.011067	-0.114277	-85.273651
3.900000	-0.116073	-86.284870	-52.500984	113.420349	-52.500984	113.420349	-0.116064	-86.282626
3.950000	-0.117882	-87.291316	-52.191339	111.826750	-52.191339	111.826750	-0.117873	-87.289026
4.000000	-0.119716	-88.295207	-51.887482	110.230597	-51.887482	110.230597	-0.119706	-88.292870
4.050000	-0.121572	-89.296565	-51.589236	108.632199	-51.589236	108.632199	-0.121563	-89.294183
4.100000	-0.123454	-90.295414	-51.296437	107.031840	-51.296437	107.031840	-0.123444	-90.292987
4.150000	-0.125360	-91.291779	-51.008926	105.429787	-51.008926	105.429787	-0.125350	-91.289308
4.200000	-0.127291	-92.285685	-50.726551	103.826288	-50.726551	103.826288	-0.127281	-92.283170
4.250000	-0.129249	-93.277159	-50.449168	102.221576	-50.449168	102.221576	-0.129239	-93.274600
4.300000	-0.131233	-94.266228	-50.176638	100.615868	-50.176638	100.615868	-0.131223	-94.263627
4.350000	-0.133244	-95.252922	-49.908828	99.009370	-49.908828	99.009370	-0.133233	-95.250278
4.400000	-0.135282	-96.237269	-49.645612	97.402273	-49.645612	97.402273	-0.135271	-96.234583
4.450000	-0.137348	-97.219300	-49.386868	95.794757	-49.386868	95.794757	-0.137337	-97.216574
4.500000	-0.139442	-98.199046	-49.132478	94.186991	-49.132478	94.186991	-0.139431	-98.196280
4.550000	-0.141565	-99.176541	-48.882330	92.579135	-48.882330	92.579135	-0.141554	-99.173735
4.600000	-0.143718	-100.151816	-48.636317	90.971338	-48.636317	90.971338	-0.143706	-100.148972
4.650000	-0.145900	-101.124907	-48.394334	89.363743	-48.394334	89.363743	-0.145888	-101.122025
4.700000	-0.148112	-102.095849	-48.156282	87.756483	-48.156282	87.756483	-0.148100	-102.092929
4.750000	-0.150354	-103.064677	-47.922064	86.149683	-47.922064	86.149683	-0.150343	-103.061720
4.800000	-0.152628	-104.031427	-47.691588	84.543462	-47.691588	84.543462	-0.152616	-104.028435
4.850000	-0.154933	-104.996139	-47.464764	82.937932	-47.464764	82.937932	-0.154921	-104.993112
4.900000	-0.157270	-105.958850	-47.241506	81.333200	-47.241506	81.333200	-0.157258	-105.955788
4.950000	-0.159639	-106.919599	-47.021732	79.729364	-47.021732	79.729364	-0.159627	-106.916504
5.000000	-0.162041	-107.878427	-46.805359	78.126520	-46.805359	78.126520	-0.162029	-107.875298
5.050000	-0.164478	-108.835294	-46.592230	76.524807	-46.592230	76.524807	-0.164465	-108.832133
5.100000	-0.166948	-109.790326	-46.382359	74.924265	-46.382359	74.924265	-0.166935	-109.787134
5.150000	-0.169452	-110.743566	-46.175672	73.324973	-46.175672	73.324973	-0.169439	-110.740342
5.200000	-0.171990	-111.695056	-45.972100	71.727006	-45.972100	71.727006	-0.171977	-111.691802
5.250000	-0.174563	-112.644841	-45.771574	70.130432	-45.771574	70.130432	-0.174550	-112.641558
5.300000	-0.177171	-113.592965	-45.574028	68.535319	-45.574028	68.535319	-0.177158	-113.589653
5.350000	-0.179815	-114.539474	-45.379400	66.941727	-45.379400	66.941727	-0.179801	-114.536134
5.400000	-0.182495	-115.484415	-45.187627	65.349716	-45.187627	65.349716	-0.182481	-115.481047
5.450000	-0.185211	-116.427834	-44.998649	63.759340	-44.998649	63.759340	-0.185197	-116.424438
5.500000	-0.187964	-117.369778	-44.812410	62.170651	-44.812410	62.170651	-0.187950	-117.366356
5.550000	-0.190754	-118.310296	-44.628853	60.583697	-44.628853	60.583697	-0.190739	-118.306848
5.600000	-0.193582	-119.249438	-44.447924	58.998523	-44.447924	58.998523	-0.193567	-119.245964
5.650000	-0.196447	-120.187252	-44.269572	57.415172	-44.269572	57.415172	-0.196432	-120.183753
5.700000	-0.199351	-121.123789	-44.093745	55.833684	-44.093745	55.833684	-0.199336	-121.120265
5.750000	-0.202293	-122.059100	-43.920394	54.254095	-43.920394	54.254095	-0.202278	-122.055552
5.800000	-0.205275	-122.993238	-43.749473	52.676440	-43.749473	52.676440	-0.205259	-122.989666
5.850000	-0.208303	-123.926074	-43.580784	51.101102	-43.580784	51.101102	-0.208287	-123.922478
5.900000	-0.211372	-124.857796	-43.414404	49.527848	-43.414404	49.527848	-0.211356	-124.854178
5.950000	-0.214463	-125.789011	-43.250732	47.955660	-43.250732	47.955660	-0.214446	-125.785370
6.000000	-0.217617	-126.718702	-43.088855	46.386672	-43.088855	46.386672	-0.217600	-126.715039
6.050000	-0.220785	-127.648095	-42.929692	44.818411	-42.929692	44.818411	-0.220768	-127.644409
6.100000	-0.224025	-128.575995	-42.772172	43.253790	-42.772172	43.253790	-0.224008	-128.572288
6.150000	-0.227273	-129.503767	-42.617349	41.689541	-42.617349	41.689541	-0.227256	-129.500038
6.200000	-0.230600	-130.430123	-42.464050	40.129375	-42.464050	40.129375	-0.230583	-130.426373
6.250000	-0.233929	-131.356478	-42.313411	38.569210	-42.313411	38.569210	-0.233911	-131.352708
6.300000	-0.237345	-132.281541	-42.164206	37.013575	-42.164206	37.013575	-0.237327	-132.277750
6.350000	-0.240763	-133.206604	-42.017520	35.457939	-42.017520	35.457939	-0.240745	-133.202793
6.400000	-0.244263	-134.130718	-41.872373	33.906516	-41.872373	33.906516	-0.244245	-134.126887
6.450000	-0.247772	-135.054746	-41.729532	32.355475	-41.729532	32.355475	-0.247753	-135.050894
6.500000	-0.251357	-135.978130	-41.588309	30.808310	-41.588309	30.808310	-0.251338	-135.974259
6.550000	-0.254958	-136.901386	-41.449209	29.261921	-41.449209	29.261921	-0.254939	-136.897495
6.600000	-0.258629	-137.824264	-41.311784	27.719058	-41.311784	27.719058	-0.258609	-137.820354
6.650000	-0.262324	-138.747015	-41.176331	26.177371	-41.176331	26.177371	-0.262304	-138.743087
6.700000	-0.266067	-139.669630	-41.042672	24.638054	-41.042672	24.638054	-0.266047	-139.665682
6.750000	-0.269864	-140.592146	-40.910747	23.101415	-40.910747	23.101415	-0.269843	-140.588181
6.800000	-0.273707	-141.514661	-40.780586	21.567069	-40.780586	21.567069	-0.273686	-141.510678
6.850000	-0.277597	-142.437238	-40.652165	20.035028	-40.652165	20.035028	-0.277576	-142.433237
6.900000	-0.281535	-143.359943	-40.525465	18.505303	-40.525465	18.505303	-0.281513	-143.355925
6.950000	-0.285519	-144.282842	-40.400465	16.977904	-40.400465	16.977904	-0.285497	-144.278807
7.000000	-0.289552	-145.206001	-40.277147	15.452844	-40.277147	15.452844	-0.289529	-145.201951
7.050000	-0.293633	-146.129489	-40.155493	13.930134	-40.155493	13.930134	-0.293610	-146.125423
7.100000	-0.297762	-147.053372	-40.035485	12.409789	-40.035485	12.409789	-0.297739	-147.049292
7.150000	-0.301941	-147.977720	-39.917108	10.891821	-39.917108	10.891821	-0.301917	-147.973625
7.200000	-0.306169	-148.902601	-39.800345	9.376246	-39.800345	9.376246	-0.306144	-148.898493
7.250000	-0.310446	-149.828085	-39.685182	7.863079	-39.685182	7.863079	-0.310421	-149.823965
7.300000	-0.314773	-150.754243	-39.571605	6.352337	-39.571605	6.352337	-0.314748	-150.750112
7.350000	-0.319151	-151.681146	-39.459601	4.844038	-39.459601	4.844038	-0.319125	-151.677005
7.400000	-0.323580	-152.608865	-39.349157	3.338202	-39.349157	3.338202	-0.323553	-152.604715
7.450000	-0.328059	-153.537472	-39.240262	1.834850	-39.240262	1.834850	-0.328032	-153.533315
7.500000	-0.332590	-154.467042	-39.132904	0.334005	-39.132904	0.334005	-0.332562	-154.462879
7.550000	-0.337174	-155.397695	-39.027084	-1.164198	-39.027084	-1.164198	-0.337146	-155.393528
7.600000	-0.341811	-156.329464	-38.922783	-2.659843	-38.922783	-2.659843	-0.341782	-156.325295
7.650000	-0.346500	-157.262425	-38.819992	-4.152900	-38.819992	-4.152900	-0.346471	-157.258255
7.700000	-0.351242	-158.196652	-38.718704	-5.643340	-38.718704	-5.643340	-0.351212	-158.192485
7.750000	-0.356036	-159.132223	-38.618908	-7.131131	-38.618908	-7.131131	-0.356006	-159.128060
7.800000	-0.360884	-160.069213	-38.520598	-8.616238	-38.520598	-8.616238	-0.360853	-160.065058
7.850000	-0.365786	-161.007701	-38.423767	-10.098626	-38.423767	-10.098626	-0.365754	-161.003556
7.900000	-0.370741	-161.947766	-38.328407	-11.578256	-38.328407	-11.578256	-0.370709	-161.943633
7.950000	-0.375751	-162.889484	-38.234513	-13.055088	-38.234513	-13.055088	-0.375718	-162.885368
8.000000	-0.380815	-163.832938	-38.142078	-14.529078	-38.142078	-14.529078	-0.380781	-163.828842
8.050000	-0.385934	-164.778205	-38.051098	-16.000181	-38.051098	-16.000181	-0.385900	-164.774134
8.100000	-0.391109	-165.725369	-37.961566	-17.468349	-37.961566	-17.468349	-0.391073	-165.721325
8.150000	-0.396339	-166.674509	-37.873478	-18.933532	-37.873478	-18.933532	-0.396302	-166.670498
8.200000	-0.401624	-167.625709	-37.786830	-20.395678	-37.786830	-20.395678	-0.401587	-167.621736
8.250000	-0.406965	-168.579051	-37.701616	-21.854731	-37.701616	-21.854731	-0.406928	-168.575121
8.300000	-0.412363	-169.534618	-37.617833	-23.310635	-37.617833	-23.310635	-0.412325	-169.530737
8.350000	-0.417817	-170.492495	-37.535477	-24.763328	-37.535477	-24.763328	-0.417778	-170.488670
8.400000	-0.423328	-171.452768	-37.454544	-26.212749	-37.454544	-26.212749	-0.423289	-171.449003
8.450000	-0.428896	-172.415520	-37.375030	-27.658832	-37.375030	-27.658832	-0.428856	-172.411824
8.500000	-0.434522	-173.380839	-37.296932	-29.101511	-37.296932	-29.101511	-0.434481	-173.377219
8.550000	-0.440204	-174.348812	-37.220246	-30.540716	-37.220246	-30.540716	-0.440163	-174.345276
8.600000	-0.445945	-175.319525	-37.144968	-31.976375	-37.144968	-31.976375	-0.445903	-175.316081
8.650000	-0.451743	-176.293067	-37.071096	-33.408413	-37.071096	-33.408413	-0.451701	-176.289725
8.700000	-0.457600	-177.269527	-36.998626	-34.836754	-36.998626	-34.836754	-0.457557	-177.266296
8.750000	-0.463515	-178.248994	-36.927554	-36.261319	-36.927554	-36.261319	-0.463472	-178.245884
8.800000	-0.469491	-179.231698	-36.857913	-37.681857	-36.857913	-37.681857	-0.469447	-179.228719
8.850000	-0.475526	179.782403	-36.789664	-39.098447	-36.789664	-39.098447	-0.475482	179.785238
8.900000	-0.481619	178.793217	-36.722804	-40.511006	-36.722804	-40.511006	-0.481575	178.795896
8.950000	-0.487772	177.800651	-36.657329	-41.919445	-36.657329	-41.919445	-0.487728	177.803161
9.000000	-0.493984	176.804614	-36.593234	-43.323678	-36.593234	-43.323678	-0.493940	176.806942
9.050000	-0.500255	175.805012	-36.530515	-44.723613	-36.530515	-44.723613	-0.500212	175.807143
9.100000	-0.506586	174.801753	-36.469167	-46.119159	-36.469167	-46.119159	-0.506543	174.803671
9.150000	-0.512976	173.794741	-36.409186	-47.510224	-36.409186	-47.510224	-0.512934	173.796432
9.200000	-0.519426	172.783882	-36.350566	-48.896712	-36.350566	-48.896712	-0.519385	172.785328
9.250000	-0.525935	171.769082	-36.293301	-50.278529	-36.293301	-50.278529	-0.525896	171.770265
9.300000	-0.532505	170.750245	-36.237386	-51.655579	-36.237386	-51.655579	-0.532467	170.751147
9.350000	-0.539134	169.727275	-36.182815	-53.027764	-36.182815	-53.027764	-0.539097	169.727875
9.400000	-0.545823	168.700075	-36.129582	-54.394986	-36.129582	-54.394986	-0.545788	168.700354
9.450000	-0.552571	167.668550	-36.077680	-55.757148	-36.077680	-55.757148	-0.552540	167.668485
9.500000	-0.559380	166.632602	-36.027102	-57.114150	-36.027102	-57.114150	-0.559351	166.632170
9.550000	-0.566248	165.592133	-35.977840	-58.465895	-35.977840	-58.465895	-0.566223	165.591311
9.600000	-0.573176	164.547047	-35.929886	-59.812282	-35.929886	-59.812282	-0.573154	164.545809
9.650000	-0.580164	163.497246	-35.883234	-61.153213	-35.883234	-61.153213	-0.580146	163.495565
9.700000	-0.587211	162.442630	-35.837873	-62.488589	-35.837873	-62.488589	-0.587198	162.440480
9.750000	-0.594317	161.383104	-35.793795	-63.818313	-35.793795	-63.818313	-0.594309	161.380455
9.800000	-0.601483	160.318568	-35.750991	-65.142286	-35.750991	-65.142286	-0.601481	160.315390
9.850000	-0.608708	159.248923	-35.709452	-66.460412	-35.709452	-66.460412	-0.608712	159.245185
9.900000	-0.615991	158.174073	-35.669166	-67.772594	-35.669166	-67.772594	-0.616002	158.169741
9.950000	-0.623333	157.093918	-35.630124	-69.078738	-35.630124	-69.078738	-0.623352	157.088958
10.000000	-0.630733	156.008362	-35.592314	-70.378749	-35.592314	-70.378749	-0.630760	156.002737
