! freq	dB(S11)	phase(S11)	dB(S12)	phase(S12)	
!     	dB(S21)	phase(S21)	dB(S22)	phase(S22)	
!S-par simulation data
#  GHz  S  DB  R 50
0.000000	-0.000000	0.000000	-272.079579	0.000000	-272.079579	0.000000	-0.000000	0.000000
0.050000	-0.000592	-0.768532	-85.022615	86.594419	-85.022615	86.594419	-0.004573	-6.156017
0.100000	-0.001765	-1.532039	-79.041005	83.201474	-79.041005	83.201474	-0.014503	-12.254077
0.150000	-0.002910	-2.291808	-75.584500	79.833811	-75.584500	79.833811	-0.024721	-18.276500
0.200000	-0.003940	-3.049882	-73.175538	76.502548	-73.175538	76.502548	-0.033546	-24.222540
0.250000	-0.004903	-3.807070	-71.351632	73.218444	-71.351632	73.218444	-0.041096	-30.084845
0.300000	-0.005838	-4.563644	-69.906321	69.990473	-69.906321	69.990473	-0.047794	-35.852198
0.350000	-0.006764	-5.319706	-68.730117	66.825203	-68.730117	66.825203	-0.053937	-41.512332
0.400000	-0.007688	-6.075311	-67.763790	63.746162	-67.763790	63.746162	-0.059681	-47.053893
0.450000	-0.008616	-6.830492	-66.936912	60.960296	-66.936912	60.960296	-0.065079	-52.465411
0.500000	-0.009550	-7.585281	-66.228494	57.997115	-66.228494	57.997115	-0.070144	-57.741615
0.550000	-0.010491	-8.339691	-65.639120	55.165802	-65.639120	55.165802	-0.074861	-62.876386
0.600000	-0.011440	-9.093723	-65.139968	52.454128	-65.139968	52.454128	-0.079214	-67.866081
0.650000	-0.012398	-9.847367	-64.717882	49.855184	-64.717882	49.855184	-0.083188	-72.707978
0.700000	-0.013362	-10.600608	-64.362816	47.369088	-64.362816	47.369088	-0.086775	-77.401695
0.750000	-0.014332	-11.353418	-64.067112	44.998681	-64.067112	44.998681	-0.089979	-81.947017
0.800000	-0.015306	-12.105775	-63.823262	42.743852	-63.823262	42.743852	-0.092818	-86.349198
0.850000	-0.016281	-12.857643	-63.626265	40.608133	-63.626265	40.608133	-0.095308	-90.610000
0.900000	-0.017257	-13.608985	-63.471621	38.594371	-63.471621	38.594371	-0.097472	-94.733099
0.950000	-0.018230	-14.359760	-63.355523	36.705736	-63.355523	36.705736	-0.099338	-98.722720
1.000000	-0.019200	-15.109928	-63.274719	34.945837	-63.274719	34.945837	-0.100933	-102.583502
1.050000	-0.020165	-15.859450	-63.226401	33.318848	-63.226401	33.318848	-0.102286	-106.320372
1.100000	-0.021125	-16.608285	-63.208112	31.829634	-63.208112	31.829634	-0.103427	-109.938438
1.150000	-0.022079	-17.356396	-63.217664	30.483883	-63.217664	30.483883	-0.104383	-113.442906
1.200000	-0.023028	-18.103750	-63.253066	29.288231	-63.253066	29.288231	-0.105180	-116.839003
1.250000	-0.023972	-18.850314	-63.312456	28.250378	-63.312456	28.250378	-0.105842	-120.131924
1.300000	-0.024911	-19.596042	-63.394449	27.383050	-63.394449	27.383050	-0.106391	-123.324766
1.350000	-0.025846	-20.340928	-63.496702	26.693038	-63.496702	26.693038	-0.106849	-126.424762
1.400000	-0.026779	-21.084949	-63.617289	26.191856	-63.617289	26.191856	-0.107234	-129.436753
1.450000	-0.027710	-21.828089	-63.754100	25.892289	-63.754100	25.892289	-0.107563	-132.365418
1.500000	-0.028640	-22.570330	-63.904741	25.808279	-63.904741	25.808279	-0.107850	-135.215261
1.550000	-0.029571	-23.311659	-64.066426	25.954661	-64.066426	25.954661	-0.108107	-137.990598
1.600000	-0.030502	-24.052064	-64.235859	26.346711	-64.235859	26.346711	-0.108347	-140.695561
1.650000	-0.031434	-24.791535	-64.409113	26.999417	-64.409113	26.999417	-0.108578	-143.334092
1.700000	-0.032368	-25.530061	-64.581523	27.926427	-64.581523	27.926427	-0.108809	-145.909945
1.750000	-0.033304	-26.267634	-64.747598	29.138592	-64.747598	29.138592	-0.109048	-148.426691
1.800000	-0.034243	-27.004245	-64.901000	30.642092	-64.901000	30.642092	-0.109300	-150.887725
1.850000	-0.035184	-27.739884	-65.034605	32.436211	-65.034605	32.436211	-0.109571	-153.296268
1.900000	-0.036128	-28.474533	-65.140308	34.513748	-65.140308	34.513748	-0.109866	-155.654870
1.950000	-0.037076	-29.208183	-65.209949	36.851984	-65.209949	36.851984	-0.110189	-157.966522
2.000000	-0.038026	-29.940836	-65.236278	39.412438	-65.236278	39.412438	-0.110544	-160.234498
2.050000	-0.038980	-30.672483	-65.212752	42.146696	-65.212752	42.146696	-0.110933	-162.461391
2.100000	-0.039938	-31.403026	-65.129374	44.998290	-65.129374	44.998290	-0.111362	-164.646542
2.150000	-0.040898	-32.132643	-64.994436	47.888371	-64.994436	47.888371	-0.111826	-166.799084
2.200000	-0.041862	-32.861227	-64.802436	50.758707	-64.802436	50.758707	-0.112331	-168.917488
2.250000	-0.042830	-33.588767	-64.555862	53.543695	-64.555862	53.543695	-0.112877	-171.003857
2.300000	-0.043801	-34.315253	-64.259379	56.185678	-64.259379	56.185678	-0.113467	-173.060188
2.350000	-0.044775	-35.040675	-63.919247	58.638471	-63.919247	58.638471	-0.114102	-175.088378
2.400000	-0.045754	-35.765024	-63.542625	60.869014	-63.542625	60.869014	-0.114781	-177.090229
2.450000	-0.046736	-36.488288	-63.136919	62.857255	-63.136919	62.857255	-0.115508	-179.067457
2.500000	-0.047723	-37.210457	-62.709255	64.594684	-62.709255	64.594684	-0.116281	178.978305
2.550000	-0.048714	-37.931472	-62.264702	66.071661	-62.264702	66.071661	-0.117105	177.046362
2.600000	-0.049709	-38.651371	-61.810692	67.307610	-61.810692	67.307610	-0.117977	175.134238
2.650000	-0.050710	-39.370142	-61.351927	68.315365	-61.351927	68.315365	-0.118898	173.240525
2.700000	-0.051715	-40.087775	-60.892235	69.110313	-60.892235	69.110313	-0.119869	171.363874
2.750000	-0.052725	-40.804259	-60.434658	69.709040	-60.434658	69.709040	-0.120890	169.502994
2.800000	-0.053741	-41.519585	-59.981556	70.128366	-59.981556	70.128366	-0.121962	167.656648
2.850000	-0.054762	-42.233742	-59.534716	70.384692	-59.534716	70.384692	-0.123085	165.823647
2.900000	-0.055790	-42.946720	-59.095456	70.493594	-59.095456	70.493594	-0.124261	164.002848
2.950000	-0.056824	-43.658508	-58.664717	70.469591	-58.664717	70.469591	-0.125490	162.193152
3.000000	-0.057864	-44.369096	-58.243138	70.326046	-58.243138	70.326046	-0.126772	160.393497
3.050000	-0.058911	-45.078476	-57.831124	70.075139	-57.831124	70.075139	-0.128108	158.602861
3.100000	-0.059966	-45.786637	-57.428900	69.727907	-57.428900	69.727907	-0.129500	156.820251
3.150000	-0.061028	-46.493570	-57.036548	69.294303	-57.036548	69.294303	-0.130947	155.044709
3.200000	-0.062099	-47.199265	-56.654048	68.783280	-56.654048	68.783280	-0.132451	153.275302
3.250000	-0.063177	-47.903715	-56.281297	68.202882	-56.281297	68.202882	-0.134013	151.511126
3.300000	-0.064265	-48.606909	-55.918138	67.560326	-55.918138	67.560326	-0.135635	149.751297
3.350000	-0.065361	-49.308840	-55.564368	66.862094	-55.564368	66.862094	-0.137317	147.994955
3.400000	-0.066467	-50.009500	-55.219758	66.114010	-55.219758	66.114010	-0.139060	146.241258
3.450000	-0.067582	-50.708879	-54.884055	65.321313	-54.884055	65.321313	-0.140867	144.489383
3.500000	-0.068708	-51.406972	-54.556997	64.488728	-54.556997	64.488728	-0.142738	142.738519
3.550000	-0.069844	-52.103769	-54.238314	63.620517	-54.238314	63.620517	-0.144676	140.987871
3.600000	-0.070992	-52.799264	-53.927731	62.720542	-53.927731	62.720542	-0.146682	139.236655
3.650000	-0.072150	-53.493451	-53.624975	61.792308	-53.624975	61.792308	-0.148758	137.484096
3.700000	-0.073320	-54.186321	-53.329776	60.839002	-53.329776	60.839002	-0.150907	135.729427
3.750000	-0.074503	-54.877870	-53.041865	59.863535	-53.041865	59.863535	-0.153131	133.971887
3.800000	-0.075698	-55.568033	-52.760889	58.867842	-52.760889	58.867842	-0.155435	132.210528
3.850000	-0.076906	-56.256862	-52.486697	57.855306	-52.486697	57.855306	-0.157821	130.444721
3.900000	-0.078128	-56.944351	-52.219034	56.828162	-52.219034	56.828162	-0.160289	128.673715
3.950000	-0.079363	-57.630496	-51.957651	55.788479	-51.957651	55.788479	-0.162845	126.896756
4.000000	-0.080613	-58.315292	-51.702307	54.738181	-51.702307	54.738181	-0.165491	125.113091
4.050000	-0.081877	-58.998734	-51.452764	53.679063	-51.452764	53.679063	-0.168231	123.321959
4.100000	-0.083155	-59.680818	-51.208789	52.612805	-51.208789	52.612805	-0.171069	121.522597
4.150000	-0.084450	-60.361540	-50.970156	51.540989	-50.970156	51.540989	-0.174011	119.714232
4.200000	-0.085759	-61.040897	-50.736640	50.465103	-50.736640	50.465103	-0.177060	117.896082
4.250000	-0.087085	-61.718886	-50.508022	49.386559	-50.508022	49.386559	-0.180222	116.067356
4.300000	-0.088427	-62.395504	-50.284081	48.306697	-50.284081	48.306697	-0.183503	114.227248
4.350000	-0.089787	-63.070748	-50.064603	47.226796	-50.064603	47.226796	-0.186908	112.374939
4.400000	-0.091163	-63.744616	-49.849371	46.148074	-49.849371	46.148074	-0.190445	110.509593
4.450000	-0.092557	-64.417106	-49.638169	45.071703	-49.638169	45.071703	-0.194120	108.630353
4.500000	-0.093969	-65.088217	-49.430782	43.998804	-49.430782	43.998804	-0.197942	106.736345
4.550000	-0.095399	-65.757948	-49.226990	42.930458	-49.226990	42.930458	-0.201918	104.826669
4.600000	-0.096849	-66.426296	-49.026573	41.867703	-49.026573	41.867703	-0.206058	102.900402
4.650000	-0.098317	-67.093263	-48.829304	40.811537	-48.829304	40.811537	-0.210372	100.956590
4.700000	-0.099805	-67.758846	-48.634956	39.762923	-48.634956	39.762923	-0.214869	98.994252
4.750000	-0.101314	-68.423047	-48.443292	38.722779	-48.443292	38.722779	-0.219562	97.012372
4.800000	-0.102842	-69.085866	-48.254071	37.691988	-48.254071	37.691988	-0.224463	95.009897
4.850000	-0.104392	-69.747303	-48.067041	36.671385	-48.067041	36.671385	-0.229585	92.985738
4.900000	-0.105962	-70.407359	-47.881945	35.661759	-47.881945	35.661759	-0.234943	90.938760
4.950000	-0.107554	-71.066035	-47.698513	34.663847	-47.698513	34.663847	-0.240553	88.867785
5.000000	-0.109168	-71.723333	-47.516466	33.678327	-47.516466	33.678327	-0.246431	86.771584
5.050000	-0.110806	-72.379195	-47.335381	32.706400	-47.335381	32.706400	-0.252609	84.647659
5.100000	-0.112466	-73.033683	-47.155058	31.748049	-47.155058	31.748049	-0.259096	82.495757
5.150000	-0.114150	-73.686799	-46.975175	30.803709	-46.975175	30.803709	-0.265913	80.314468
5.200000	-0.115857	-74.338545	-46.795396	29.873709	-46.795396	29.873709	-0.273084	78.102312
5.250000	-0.117587	-74.989000	-46.615597	28.957467	-46.615597	28.957467	-0.280614	75.859556
5.300000	-0.119342	-75.638032	-46.435030	28.056499	-46.435030	28.056499	-0.288567	73.581408
5.350000	-0.121123	-76.285705	-46.253483	27.170110	-46.253483	27.170110	-0.296956	71.267541
5.400000	-0.122928	-76.932022	-46.070560	26.298067	-46.070560	26.298067	-0.305814	68.916151
5.450000	-0.124759	-77.576987	-45.885854	25.439949	-45.885854	25.439949	-0.315176	66.525338
5.500000	-0.126616	-78.220605	-45.698946	24.595122	-45.698946	24.595122	-0.325080	64.093100
5.550000	-0.128500	-78.862879	-45.509406	23.762721	-45.509406	23.762721	-0.335568	61.617320
5.600000	-0.130411	-79.503816	-45.316793	22.941621	-45.316793	22.941621	-0.346682	59.095766
5.650000	-0.132349	-80.143405	-45.120573	22.130509	-45.120573	22.130509	-0.358479	56.525521
5.700000	-0.134315	-80.781652	-44.920275	21.327612	-44.920275	21.327612	-0.371014	53.903996
5.750000	-0.136310	-81.418577	-44.715541	20.530772	-44.715541	20.530772	-0.384333	51.229058
5.800000	-0.138333	-82.054185	-44.505933	19.737600	-44.505933	19.737600	-0.398499	48.497893
5.850000	-0.140385	-82.688483	-44.291026	18.945348	-44.291026	18.945348	-0.413575	45.707523
5.900000	-0.142467	-83.321477	-44.070416	18.150901	-44.070416	18.150901	-0.429633	42.854789
5.950000	-0.144579	-83.953173	-43.843723	17.350773	-43.843723	17.350773	-0.446747	39.936348
6.000000	-0.146721	-84.583577	-43.610603	16.541103	-43.610603	16.541103	-0.464996	36.948660
6.050000	-0.148894	-85.212697	-43.370752	15.717664	-43.370752	15.717664	-0.484467	33.887973
6.100000	-0.151099	-85.840538	-43.123915	14.875873	-43.123915	14.875873	-0.505250	30.750322
6.150000	-0.153335	-86.467109	-42.869895	14.010817	-42.869895	14.010817	-0.527441	27.531514
6.200000	-0.155603	-87.092416	-42.608558	13.117277	-42.608558	13.117277	-0.551142	24.227121
6.250000	-0.157904	-87.716467	-42.339844	12.189765	-42.339844	12.189765	-0.576458	20.832477
6.300000	-0.160240	-88.339241	-42.063414	11.221567	-42.063414	11.221567	-0.603536	17.340484
6.350000	-0.162608	-88.960775	-41.779711	10.207520	-41.779711	10.207520	-0.632456	13.747931
6.400000	-0.165011	-89.581075	-41.488933	9.141609	-41.488933	9.141609	-0.663334	10.049409
6.450000	-0.167449	-90.200149	-41.191374	8.017768	-41.191374	8.017768	-0.696281	6.239282
6.500000	-0.169921	-90.818005	-40.887425	6.829944	-40.887425	6.829944	-0.731411	2.311704
6.550000	-0.172429	-91.434651	-40.577578	5.572164	-40.577578	5.572164	-0.768828	-1.739354
6.600000	-0.174973	-92.050094	-40.262425	4.238611	-40.262425	4.238611	-0.808629	-5.920066
6.650000	-0.177554	-92.664343	-39.942660	2.823691	-39.942660	2.823691	-0.850895	-10.236701
6.700000	-0.180170	-93.277432	-39.619424	1.324233	-39.619424	1.324233	-0.895633	-14.692132
6.750000	-0.182824	-93.889302	-39.292741	-0.269848	-39.292741	-0.269848	-0.943009	-19.300980
6.800000	-0.185516	-94.500002	-38.964134	-1.960050	-38.964134	-1.960050	-0.992941	-24.064491
6.850000	-0.188246	-95.109539	-38.634685	-3.750271	-38.634685	-3.750271	-1.045378	-28.988421
6.900000	-0.191014	-95.717922	-38.305559	-5.643788	-38.305559	-5.643788	-1.100215	-34.078059
6.950000	-0.193820	-96.325158	-37.977996	-7.643180	-37.977996	-7.643180	-1.157278	-39.338032
7.000000	-0.196664	-96.931257	-37.653304	-9.750242	-37.653304	-9.750242	-1.216313	-44.772085
7.050000	-0.199547	-97.536225	-37.332845	-11.965912	-37.332845	-11.965912	-1.276978	-50.382829
7.100000	-0.202469	-98.140067	-37.018004	-14.290713	-37.018004	-14.290713	-1.338829	-56.172323
7.150000	-0.205429	-98.742787	-36.710232	-16.724123	-36.710232	-16.724123	-1.401300	-62.140866
7.200000	-0.208428	-99.344404	-36.411028	-19.262985	-36.411028	-19.262985	-1.463717	-68.284110
7.250000	-0.211465	-99.944928	-36.121816	-21.904091	-36.121816	-21.904091	-1.525304	-74.597102
7.300000	-0.214540	-100.544370	-35.843983	-24.643120	-35.843983	-24.643120	-1.585188	-81.072295
7.350000	-0.217653	-101.142740	-35.578848	-27.474642	-35.578848	-27.474642	-1.642421	-87.699339
7.400000	-0.220804	-101.740050	-35.327641	-30.392163	-35.327641	-30.392163	-1.696001	-94.464950
7.450000	-0.223991	-102.336312	-35.091477	-33.388197	-35.091477	-33.388197	-1.744917	-101.352896
7.500000	-0.227215	-102.931540	-34.871329	-36.454380	-34.871329	-36.454380	-1.788191	-108.344109
7.550000	-0.230476	-103.525733	-34.668199	-39.582346	-34.668199	-39.582346	-1.824815	-115.417776
7.600000	-0.233772	-104.118921	-34.482566	-42.761392	-34.482566	-42.761392	-1.854112	-122.548526
7.650000	-0.237105	-104.711120	-34.314859	-45.981484	-34.314859	-45.981484	-1.875496	-129.710965
7.700000	-0.240472	-105.302347	-34.165312	-49.232454	-34.165312	-49.232454	-1.888585	-136.878845
7.750000	-0.243875	-105.892618	-34.033962	-52.504213	-34.033962	-52.504213	-1.893227	-144.025831
7.800000	-0.247313	-106.481953	-33.920660	-55.786958	-33.920660	-55.786958	-1.889501	-151.126264
7.850000	-0.250786	-107.070369	-33.825082	-59.071362	-33.825082	-59.071362	-1.877703	-158.155891
7.900000	-0.254294	-107.657885	-33.746752	-62.348737	-33.746752	-62.348737	-1.858328	-165.092492
7.950000	-0.257839	-108.244512	-33.685212	-65.610947	-33.685212	-65.610947	-1.831973	-171.915106
8.000000	-0.261419	-108.830274	-33.639656	-68.850885	-33.639656	-68.850885	-1.799464	-178.607166
8.050000	-0.265036	-109.415194	-33.609207	-72.062524	-33.609207	-72.062524	-1.761691	174.844487
8.100000	-0.268690	-109.999291	-33.593010	-75.240696	-33.593010	-75.240696	-1.719544	168.450550
8.150000	-0.272382	-110.582583	-33.590184	-78.381153	-33.590184	-78.381153	-1.673902	162.218835
8.200000	-0.276113	-111.165088	-33.599839	-81.480527	-33.599839	-81.480527	-1.625613	156.154479
8.250000	-0.279883	-111.746824	-33.621099	-84.536268	-33.621099	-84.536268	-1.575462	150.260217
8.300000	-0.283693	-112.327809	-33.653111	-87.546570	-33.653111	-87.546570	-1.524156	144.536691
8.350000	-0.287545	-112.908034	-33.695364	-90.508696	-33.695364	-90.508696	-1.472311	138.988418
8.400000	-0.291439	-113.487558	-33.746548	-93.424751	-33.746548	-93.424751	-1.420502	133.603131
8.450000	-0.295376	-114.066380	-33.806179	-96.293598	-33.806179	-96.293598	-1.369160	128.380938
8.500000	-0.299357	-114.644516	-33.873608	-99.115571	-33.873608	-99.115571	-1.318653	123.317157
8.550000	-0.303382	-115.221980	-33.948243	-101.891325	-33.948243	-101.891325	-1.269278	118.406445
8.600000	-0.307452	-115.798788	-34.029554	-104.621767	-34.029554	-104.621767	-1.221267	113.643004
8.650000	-0.311569	-116.374956	-34.117067	-107.307994	-34.117067	-107.307994	-1.174795	109.020745
8.700000	-0.315733	-116.950497	-34.210366	-109.951235	-34.210366	-109.951235	-1.129989	104.533428
8.750000	-0.319944	-117.525427	-34.309090	-112.552803	-34.309090	-112.552803	-1.086934	100.174775
8.800000	-0.324205	-118.099748	-34.413000	-115.113212	-34.413000	-115.113212	-1.045719	95.941075
8.850000	-0.328515	-118.673487	-34.521740	-117.634736	-34.521740	-117.634736	-1.006335	91.823426
8.900000	-0.332874	-119.246660	-34.635086	-120.118723	-34.635086	-120.118723	-0.968782	87.815897
8.950000	-0.337283	-119.819282	-34.752856	-122.566483	-34.752856	-122.566483	-0.933047	83.912760
9.000000	-0.341742	-120.391367	-34.874900	-124.979267	-34.874900	-124.979267	-0.899100	80.108519
9.050000	-0.346252	-120.962932	-35.001100	-127.358267	-35.001100	-127.358267	-0.866904	76.397917
9.100000	-0.350814	-121.533992	-35.131363	-129.704599	-35.131363	-129.704599	-0.836415	72.775952
9.150000	-0.355427	-122.104563	-35.265621	-132.019315	-35.265621	-132.019315	-0.807582	69.237871
9.200000	-0.360091	-122.674669	-35.403799	-134.303934	-35.403799	-134.303934	-0.780327	65.777828
9.250000	-0.364810	-123.244287	-35.546007	-136.556752	-35.546007	-136.556752	-0.754726	62.398163
9.300000	-0.369578	-123.813499	-35.692007	-138.782898	-35.692007	-138.782898	-0.730515	59.084350
9.350000	-0.374401	-124.382274	-35.841962	-140.980006	-35.841962	-140.980006	-0.707803	55.840668
9.400000	-0.379274	-124.950654	-35.995803	-143.150668	-35.995803	-143.150668	-0.686457	52.659717
9.450000	-0.384199	-125.518661	-36.153537	-145.296048	-36.153537	-145.296048	-0.666427	49.538129
9.500000	-0.389177	-126.086297	-36.315227	-147.416205	-36.315227	-147.416205	-0.647736	46.476092
9.550000	-0.394203	-126.653626	-36.480755	-149.515828	-36.480755	-149.515828	-0.630196	43.464185
9.600000	-0.399284	-127.220627	-36.650156	-151.594503	-36.650156	-151.594503	-0.613967	40.508630
9.650000	-0.404409	-127.787391	-36.823129	-153.660261	-36.823129	-153.660261	-0.598788	37.597045
9.700000	-0.409585	-128.353929	-36.999023	-155.719294	-36.999023	-155.719294	-0.584813	34.735069
9.750000	-0.414804	-128.920335	-37.176409	-157.784505	-37.176409	-157.784505	-0.571862	31.914180
9.800000	-0.420067	-129.486711	-37.350435	-159.875051	-37.350435	-159.875051	-0.559987	29.135331
9.850000	-0.425375	-130.053230	-37.509455	-161.995837	-37.509455	-161.995837	-0.549142	26.395511
9.900000	-0.430737	-130.620184	-37.633307	-164.030026	-37.633307	-164.030026	-0.539267	23.691130
9.950000	-0.436210	-131.188185	-37.735562	-165.570096	-37.735562	-165.570096	-0.530440	21.023548
10.000000	-0.441932	-131.757746	-37.902293	-166.726849	-37.902293	-166.726849	-0.522498	18.385614
