! freq	dB(S11)	phase(S11)	dB(S12)	phase(S12)	
!     	dB(S21)	phase(S21)	dB(S22)	phase(S22)	
!S-par simulation data
#  GHz  S  DB  R 50
0.000000	-0.000000	-0.000000	-349.398045	180.000000	-349.398045	180.000000	-0.000000	-0.000000
0.050000	-0.002176	-2.598035	-101.588205	88.635995	-101.588205	88.635995	-0.000558	-0.863061
0.100000	-0.006294	-5.175899	-95.616871	86.753992	-95.616871	86.753992	-0.001863	-1.721805
0.150000	-0.010060	-7.739030	-92.160404	85.000015	-92.160404	85.000015	-0.003328	-2.575901
0.200000	-0.013294	-10.294570	-89.749831	83.306576	-89.749831	83.306576	-0.004675	-3.427112
0.250000	-0.016268	-12.844411	-87.926861	81.665381	-87.926861	81.665381	-0.005863	-4.276852
0.300000	-0.019193	-15.388268	-86.487645	80.078970	-86.487645	80.078970	-0.006937	-5.125951
0.350000	-0.022166	-17.925479	-85.320795	78.551561	-85.320795	78.551561	-0.007953	-5.974782
0.400000	-0.025218	-20.455049	-84.362403	77.092145	-84.362403	77.092145	-0.008946	-6.823464
0.450000	-0.028350	-22.975647	-83.575092	75.716029	-83.575092	75.716029	-0.009940	-7.672007
0.500000	-0.031543	-25.486869	-82.927335	74.433572	-82.927335	74.433572	-0.010947	-8.520388
0.550000	-0.034774	-27.987980	-82.400230	73.261888	-82.400230	73.261888	-0.011972	-9.368555
0.600000	-0.038025	-30.477769	-81.984389	72.229401	-81.984389	72.229401	-0.013013	-10.216427
0.650000	-0.041275	-32.955977	-81.667441	71.359185	-81.667441	71.359185	-0.014069	-11.063941
0.700000	-0.044506	-35.422146	-81.441939	70.682910	-81.441939	70.682910	-0.015134	-11.911021
0.750000	-0.047705	-37.875333	-81.305873	70.250816	-81.305873	70.250816	-0.016204	-12.757570
0.800000	-0.050859	-40.315024	-81.255767	70.119582	-81.255767	70.119582	-0.017275	-13.603507
0.850000	-0.053959	-42.740877	-81.288011	70.358229	-81.288011	70.358229	-0.018346	-14.448757
0.900000	-0.056999	-45.152448	-81.399641	71.058515	-81.399641	71.058515	-0.019414	-15.293252
0.950000	-0.059969	-47.549225	-81.586702	72.341827	-81.586702	72.341827	-0.020479	-16.136925
1.000000	-0.062865	-49.930774	-81.841173	74.361369	-81.841173	74.361369	-0.021541	-16.979719
1.050000	-0.065681	-52.296678	-82.147699	77.306138	-82.147699	77.306138	-0.022601	-17.821588
1.100000	-0.068412	-54.646547	-82.478081	81.392283	-82.478081	81.392283	-0.023659	-18.662492
1.150000	-0.071053	-56.980011	-82.784152	86.826949	-82.784152	86.826949	-0.024717	-19.502401
1.200000	-0.073601	-59.296724	-82.992254	93.722199	-82.992254	93.722199	-0.025775	-20.341289
1.250000	-0.076052	-61.596360	-83.008078	101.953764	-83.008078	101.953764	-0.026834	-21.179135
1.300000	-0.078401	-63.878236	-82.735285	111.032960	-82.735285	111.032960	-0.027894	-22.015898
1.350000	-0.080649	-66.142449	-82.140845	120.117095	-82.140845	120.117095	-0.028956	-22.851586
1.400000	-0.082797	-68.388751	-81.260329	128.401057	-81.260329	128.401057	-0.030020	-23.686187
1.450000	-0.084847	-70.616922	-80.179070	135.381767	-80.179070	135.381767	-0.031085	-24.519688
1.500000	-0.086803	-72.826774	-78.989498	140.918556	-78.989498	140.918556	-0.032153	-25.352079
1.550000	-0.088670	-75.018151	-77.763819	145.114089	-77.763819	145.114089	-0.033222	-26.183349
1.600000	-0.090456	-77.190931	-76.548401	148.172504	-76.548401	148.172504	-0.034292	-27.013487
1.650000	-0.092169	-79.345031	-75.369073	150.310060	-75.369073	150.310060	-0.035364	-27.842482
1.700000	-0.093820	-81.480403	-74.238258	151.716763	-74.238258	151.716763	-0.036437	-28.670324
1.750000	-0.095418	-83.597040	-73.160509	152.546759	-73.160509	152.546759	-0.037511	-29.497002
1.800000	-0.096975	-85.694973	-72.136079	152.920767	-72.136079	152.920767	-0.038586	-30.322503
1.850000	-0.098502	-87.774266	-71.163027	152.932056	-71.163027	152.932056	-0.039661	-31.146817
1.900000	-0.100008	-89.834821	-70.237875	152.650001	-70.237875	152.650001	-0.040737	-31.969917
1.950000	-0.101503	-91.876774	-69.357493	152.131680	-69.357493	152.131680	-0.041814	-32.791792
2.000000	-0.102994	-93.900488	-68.519082	151.422913	-68.519082	151.422913	-0.042891	-33.612443
2.050000	-0.104488	-95.906148	-67.719415	150.557302	-67.719415	150.557302	-0.043970	-34.431855
2.100000	-0.105991	-97.893959	-66.955498	149.561541	-66.955498	149.561541	-0.045050	-35.250018
2.150000	-0.107505	-99.864144	-66.224598	148.457023	-66.224598	148.457023	-0.046130	-36.066917
2.200000	-0.109034	-101.816940	-65.524236	147.261041	-65.524236	147.261041	-0.047213	-36.882541
2.250000	-0.110580	-103.752596	-64.852172	145.987693	-64.852172	145.987693	-0.048297	-37.696876
2.300000	-0.112143	-105.671372	-64.206390	144.648560	-64.206390	144.648560	-0.049383	-38.509908
2.350000	-0.113722	-107.573535	-63.585069	143.253230	-63.585069	143.253230	-0.050471	-39.321626
2.400000	-0.115319	-109.459358	-62.986569	141.809696	-62.986569	141.809696	-0.051562	-40.132017
2.450000	-0.116930	-111.329122	-62.409404	140.324663	-62.409404	140.324663	-0.052656	-40.941067
2.500000	-0.118556	-113.183110	-61.852234	138.803795	-61.852234	138.803795	-0.053754	-41.748764
2.550000	-0.120196	-115.021116	-61.313361	137.251011	-61.313361	137.251011	-0.054855	-42.555051
2.600000	-0.121847	-116.843946	-60.792223	135.671551	-60.792223	135.671551	-0.055961	-43.359959
2.650000	-0.123508	-118.651895	-60.287801	134.068889	-60.287801	134.068889	-0.057072	-44.163476
2.700000	-0.125177	-120.445262	-59.799164	132.446027	-59.799164	132.446027	-0.058188	-44.965591
2.750000	-0.126854	-122.224346	-59.325461	130.805568	-59.325461	130.805568	-0.059309	-45.766293
2.800000	-0.128538	-123.989446	-58.865909	129.149781	-58.865909	129.149781	-0.060436	-46.565568
2.850000	-0.130226	-125.740865	-58.419791	127.480650	-58.419791	127.480650	-0.061570	-47.363408
2.900000	-0.131919	-127.478907	-57.986444	125.799920	-57.986444	125.799920	-0.062711	-48.159800
2.950000	-0.133615	-129.203874	-57.565256	124.109126	-57.565256	124.109126	-0.063859	-48.954736
3.000000	-0.135315	-130.916071	-57.155660	122.409627	-57.155660	122.409627	-0.065015	-49.748204
3.050000	-0.137017	-132.615802	-56.757132	120.702628	-56.757132	120.702628	-0.066179	-50.540194
3.100000	-0.138721	-134.303369	-56.369183	118.989200	-56.369183	118.989200	-0.067352	-51.330699
3.150000	-0.140428	-135.979076	-55.991359	117.270301	-55.991359	117.270301	-0.068534	-52.119708
3.200000	-0.142137	-137.643225	-55.623236	115.546788	-55.623236	115.546788	-0.069726	-52.907213
3.250000	-0.143847	-139.296116	-55.264417	113.819428	-55.264417	113.819428	-0.070928	-53.693207
3.300000	-0.145561	-140.938048	-54.914533	112.088914	-54.914533	112.088914	-0.072141	-54.477680
3.350000	-0.147276	-142.569321	-54.573235	110.355867	-54.573235	110.355867	-0.073364	-55.260627
3.400000	-0.148995	-144.190229	-54.240197	108.620850	-54.240197	108.620850	-0.074600	-56.042040
3.450000	-0.150716	-145.801066	-53.915112	106.884372	-53.915112	106.884372	-0.075847	-56.821912
3.500000	-0.152442	-147.402124	-53.597691	105.146895	-53.597691	105.146895	-0.077106	-57.600238
3.550000	-0.154171	-148.993691	-53.287662	103.408837	-53.287662	103.408837	-0.078379	-58.377012
3.600000	-0.155904	-150.576055	-52.984766	101.670579	-52.984766	101.670579	-0.079665	-59.152229
3.650000	-0.157643	-152.149500	-52.688761	99.932467	-52.688761	99.932467	-0.080964	-59.925883
3.700000	-0.159387	-153.714304	-52.399417	98.194817	-52.399417	98.194817	-0.082278	-60.697972
3.750000	-0.161138	-155.270748	-52.116514	96.457914	-52.116514	96.457914	-0.083606	-61.468491
3.800000	-0.162895	-156.818766	-51.839735	94.722077	-51.839735	94.722077	-0.084950	-62.237367
3.850000	-0.164659	-158.358994	-51.569009	92.987508	-51.569009	92.987508	-0.086310	-63.004667
3.900000	-0.166432	-159.891698	-51.304150	91.254421	-51.304150	91.254421	-0.087685	-63.770388
3.950000	-0.168213	-161.417143	-51.044978	89.523012	-51.044978	89.523012	-0.089077	-64.534529
4.000000	-0.170002	-162.935590	-50.791322	87.793457	-50.791322	87.793457	-0.090486	-65.297086
4.050000	-0.171802	-164.447296	-50.543020	86.065920	-50.543020	86.065920	-0.091912	-66.058061
4.100000	-0.173611	-165.952515	-50.299918	84.340545	-50.299918	84.340545	-0.093356	-66.817451
4.150000	-0.175431	-167.451497	-50.061866	82.617466	-50.061866	82.617466	-0.094818	-67.575257
4.200000	-0.177261	-168.944488	-49.828726	80.896803	-49.828726	80.896803	-0.096298	-68.331479
4.250000	-0.179103	-170.431732	-49.600362	79.178664	-49.600362	79.178664	-0.097798	-69.086118
4.300000	-0.180957	-171.913466	-49.376645	77.463145	-49.376645	77.463145	-0.099317	-69.839175
4.350000	-0.182823	-173.389928	-49.157453	75.750335	-49.157453	75.750335	-0.100855	-70.590651
4.400000	-0.184702	-174.861347	-48.942669	74.040310	-48.942669	74.040310	-0.102414	-71.340549
4.450000	-0.186594	-176.327953	-48.732180	72.333140	-48.732180	72.333140	-0.103994	-72.088872
4.500000	-0.188498	-177.789968	-48.525880	70.628886	-48.525880	70.628886	-0.105595	-72.835621
4.550000	-0.190416	-179.247615	-48.323665	68.927602	-48.323665	68.927602	-0.107217	-73.580801
4.600000	-0.192348	179.298891	-48.125438	67.229335	-48.125438	67.229335	-0.108861	-74.324415
4.650000	-0.194293	177.849337	-47.931106	65.534126	-47.931106	65.534126	-0.110528	-75.066467
4.700000	-0.196252	176.403513	-47.740579	63.842011	-47.740579	63.842011	-0.112217	-75.806963
4.750000	-0.198226	174.961213	-47.553772	62.153022	-47.553772	62.153022	-0.113930	-76.545906
4.800000	-0.200213	173.522237	-47.370602	60.467185	-47.370602	60.467185	-0.115666	-77.283304
4.850000	-0.202214	172.086386	-47.190993	58.784524	-47.190993	58.784524	-0.117426	-78.019160
4.900000	-0.204228	170.653465	-47.014869	57.105058	-47.014869	57.105058	-0.119211	-78.753483
4.950000	-0.206257	169.223283	-46.842160	55.428805	-46.842160	55.428805	-0.121021	-79.486278
5.000000	-0.208299	167.795654	-46.672798	53.755780	-46.672798	53.755780	-0.122856	-80.217552
5.050000	-0.210355	166.370489	-46.506724	52.086140	-46.506724	52.086140	-0.124718	-80.947247
5.100000	-0.212424	164.947497	-46.343877	50.419758	-46.343877	50.419758	-0.126606	-81.675439
5.150000	-0.214507	163.526503	-46.184198	48.756645	-46.184198	48.756645	-0.128521	-82.402134
5.200000	-0.216601	162.107335	-46.027632	47.096816	-46.027632	47.096816	-0.130463	-83.127341
5.250000	-0.218708	160.689824	-45.874126	45.440284	-45.874126	45.440284	-0.132433	-83.851070
5.300000	-0.220827	159.273806	-45.723629	43.787064	-45.723629	43.787064	-0.134430	-84.573330
5.350000	-0.222956	157.859119	-45.576094	42.137175	-45.576094	42.137175	-0.136456	-85.294131
5.400000	-0.225097	156.445606	-45.431475	40.490635	-45.431475	40.490635	-0.138510	-86.013482
5.450000	-0.227248	155.033114	-45.289729	38.847467	-45.289729	38.847467	-0.140594	-86.731395
5.500000	-0.229408	153.621490	-45.150816	37.207696	-45.150816	37.207696	-0.142707	-87.447880
5.550000	-0.231578	152.210590	-45.014697	35.571353	-45.014697	35.571353	-0.144851	-88.162949
5.600000	-0.233755	150.800270	-44.881336	33.938471	-44.881336	33.938471	-0.147025	-88.876612
5.650000	-0.235941	149.390390	-44.750698	32.309088	-44.750698	32.309088	-0.149229	-89.588882
5.700000	-0.238133	147.980814	-44.622751	30.683249	-44.622751	30.683249	-0.151465	-90.299772
5.750000	-0.240332	146.571410	-44.497462	29.061002	-44.497462	29.061002	-0.153733	-91.009293
5.800000	-0.242536	145.162050	-44.374804	27.442403	-44.374804	27.442403	-0.156033	-91.717458
5.850000	-0.244744	143.752608	-44.254747	25.827514	-44.254747	25.827514	-0.158366	-92.424282
5.900000	-0.246956	142.342963	-44.137266	24.216403	-44.137266	24.216403	-0.160732	-93.129776
5.950000	-0.249171	140.932997	-44.022335	22.609145	-44.022335	22.609145	-0.163131	-93.833956
6.000000	-0.251388	139.522597	-43.909930	21.005822	-43.909930	21.005822	-0.165564	-94.536835
6.050000	-0.253606	138.111652	-43.800028	19.406525	-43.800028	19.406525	-0.168031	-95.238428
6.100000	-0.255824	136.700055	-43.692608	17.811352	-43.692608	17.811352	-0.170533	-95.938750
6.150000	-0.258041	135.287704	-43.587647	16.220408	-43.587647	16.220408	-0.173070	-96.637815
6.200000	-0.260256	133.874499	-43.485126	14.633807	-43.485126	14.633807	-0.175643	-97.335640
6.250000	-0.262468	132.460346	-43.385024	13.051672	-43.385024	13.051672	-0.178252	-98.032239
6.300000	-0.264677	131.045104	-43.287380	11.474339	-43.287380	11.474339	-0.180898	-98.727577
6.350000	-0.266880	129.628726	-43.192120	9.901755	-43.192120	9.901755	-0.183582	-99.421725
6.400000	-0.269078	128.211129	-43.099224	8.334067	-43.099224	8.334067	-0.186303	-100.114697
6.450000	-0.271268	126.792235	-43.008675	6.771433	-43.008675	6.771433	-0.189061	-100.806512
6.500000	-0.273451	125.371968	-42.920453	5.214018	-42.920453	5.214018	-0.191858	-101.497186
6.550000	-0.275625	123.950257	-42.834540	3.661995	-42.834540	3.661995	-0.194693	-102.186737
6.600000	-0.277790	122.527034	-42.750915	2.115546	-42.750915	2.115546	-0.197567	-102.875182
6.650000	-0.279943	121.102236	-42.669560	0.574860	-42.669560	0.574860	-0.200480	-103.562540
6.700000	-0.282085	119.675805	-42.590455	-0.959867	-42.590455	-0.959867	-0.203433	-104.248829
6.750000	-0.284215	118.247684	-42.513578	-2.488431	-42.513578	-2.488431	-0.206426	-104.934068
6.800000	-0.286331	116.817823	-42.438910	-4.010620	-42.438910	-4.010620	-0.209460	-105.618274
6.850000	-0.288432	115.386175	-42.366428	-5.526216	-42.366428	-5.526216	-0.212534	-106.301469
6.900000	-0.290519	113.952699	-42.296110	-7.034996	-42.296110	-7.034996	-0.215650	-106.983670
6.950000	-0.292590	112.517354	-42.227932	-8.536730	-42.227932	-8.536730	-0.218808	-107.664898
7.000000	-0.294645	111.080109	-42.161870	-10.031182	-42.161870	-10.031182	-0.222008	-108.345172
7.050000	-0.296682	109.640932	-42.097898	-11.518112	-42.097898	-11.518112	-0.225250	-109.024512
7.100000	-0.298702	108.199799	-42.035991	-12.997273	-42.035991	-12.997273	-0.228535	-109.702939
7.150000	-0.300703	106.756689	-41.976120	-14.468418	-41.976120	-14.468418	-0.231864	-110.380474
7.200000	-0.302685	105.311585	-41.918256	-15.931294	-41.918256	-15.931294	-0.235236	-111.057138
7.250000	-0.304648	103.864475	-41.862371	-17.385643	-41.862371	-17.385643	-0.238652	-111.732951
7.300000	-0.306592	102.415351	-41.808432	-18.831209	-41.808432	-18.831209	-0.242112	-112.407936
7.350000	-0.308516	100.964212	-41.756407	-20.267729	-41.756407	-20.267729	-0.245617	-113.082113
7.400000	-0.310419	99.511057	-41.706262	-21.694943	-41.706262	-21.694943	-0.249168	-113.755506
7.450000	-0.312302	98.055893	-41.657962	-23.112586	-41.657962	-23.112586	-0.252763	-114.428135
7.500000	-0.314165	96.598731	-41.611470	-24.520395	-41.611470	-24.520395	-0.256405	-115.100024
7.550000	-0.316007	95.139500	-41.566814	-25.917654	-41.566814	-25.917654	-0.260094	-115.771165
7.600000	-0.317828	93.678307	-41.523888	-27.304528	-41.523888	-27.304528	-0.263831	-116.441613
7.650000	-0.319630	92.215178	-41.482650	-28.680754	-41.482650	-28.680754	-0.267613	-117.111392
7.700000	-0.321412	90.750142	-41.443058	-30.046070	-41.443058	-30.046070	-0.271444	-117.780525
7.750000	-0.323175	89.283232	-41.405069	-31.400218	-41.405069	-31.400218	-0.275321	-118.449036
7.800000	-0.324920	87.814488	-41.368638	-32.742940	-41.368638	-32.742940	-0.279247	-119.116949
7.850000	-0.326647	86.343953	-41.333719	-34.073981	-41.333719	-34.073981	-0.283220	-119.784288
7.900000	-0.328356	84.871674	-41.300265	-35.393088	-41.300265	-35.393088	-0.287242	-120.451078
7.950000	-0.330050	83.397704	-41.268229	-36.700013	-41.268229	-36.700013	-0.291313	-121.117344
8.000000	-0.331728	81.922099	-41.237559	-37.994510	-41.237559	-37.994510	-0.295433	-121.783110
8.050000	-0.333392	80.444922	-41.208207	-39.276335	-41.208207	-39.276335	-0.299602	-122.448401
8.100000	-0.335043	78.966236	-41.180121	-40.545250	-41.180121	-40.545250	-0.303821	-123.113245
8.150000	-0.336683	77.486114	-41.153248	-41.801018	-41.153248	-41.801018	-0.308089	-123.777665
8.200000	-0.338313	76.004628	-41.127536	-43.043408	-41.127536	-43.043408	-0.312408	-124.441689
8.250000	-0.339934	74.521859	-41.102930	-44.272191	-41.102930	-44.272191	-0.316777	-125.105343
8.300000	-0.341549	73.037888	-41.079375	-45.487141	-41.079375	-45.487141	-0.321196	-125.768653
8.350000	-0.343158	71.552803	-41.056817	-46.688038	-41.056817	-46.688038	-0.325667	-126.431647
8.400000	-0.344766	70.066696	-41.035199	-47.874662	-41.035199	-47.874662	-0.330188	-127.094351
8.450000	-0.346372	68.579661	-41.014463	-49.046799	-41.014463	-49.046799	-0.334761	-127.756793
8.500000	-0.347980	67.091798	-40.994554	-50.204236	-40.994554	-50.204236	-0.339385	-128.419001
8.550000	-0.349591	65.603211	-40.975413	-51.346762	-40.975413	-51.346762	-0.344060	-129.081003
8.600000	-0.351209	64.114005	-40.956981	-52.474171	-40.956981	-52.474171	-0.348788	-129.742826
8.650000	-0.352836	62.624292	-40.939201	-53.586256	-40.939201	-53.586256	-0.353568	-130.404500
8.700000	-0.354474	61.134186	-40.922013	-54.682812	-40.922013	-54.682812	-0.358399	-131.066054
8.750000	-0.356127	59.643805	-40.905359	-55.763636	-40.905359	-55.763636	-0.363283	-131.727516
8.800000	-0.357798	58.153268	-40.889194	-56.827821	-40.889194	-56.827821	-0.368222	-132.388915
8.850000	-0.359489	56.662712	-40.873438	-57.875847	-40.873438	-57.875847	-0.373213	-133.050285
8.900000	-0.361205	55.172265	-40.858031	-58.907510	-40.858031	-58.907510	-0.378257	-133.711656
8.950000	-0.362947	53.682058	-40.842913	-59.922602	-40.842913	-59.922602	-0.383354	-134.373057
9.000000	-0.364719	52.192224	-40.828025	-60.920915	-40.828025	-60.920915	-0.388503	-135.034521
9.050000	-0.366525	50.702898	-40.813305	-61.902237	-40.813305	-61.902237	-0.393706	-135.696077
9.100000	-0.368369	49.214220	-40.798695	-62.866350	-40.798695	-62.866350	-0.398961	-136.357758
9.150000	-0.370253	47.726331	-40.784135	-63.813034	-40.784135	-63.813034	-0.404270	-137.019594
9.200000	-0.372181	46.239373	-40.769564	-64.742061	-40.769564	-64.742061	-0.409631	-137.681619
9.250000	-0.374158	44.753491	-40.754925	-65.653198	-40.754925	-65.653198	-0.415046	-138.343864
9.300000	-0.376186	43.268833	-40.740156	-66.546201	-40.740156	-66.546201	-0.420513	-139.006362
9.350000	-0.378271	41.785546	-40.725200	-67.420819	-40.725200	-67.420819	-0.426034	-139.669146
9.400000	-0.380414	40.303782	-40.709998	-68.276793	-40.709998	-68.276793	-0.431607	-140.332249
9.450000	-0.382621	38.823691	-40.694491	-69.113848	-40.694491	-69.113848	-0.437233	-140.995706
9.500000	-0.384896	37.345427	-40.678622	-69.931699	-40.678622	-69.931699	-0.442913	-141.659550
9.550000	-0.387241	35.869142	-40.662332	-70.730048	-40.662332	-70.730048	-0.448644	-142.323815
9.600000	-0.389662	34.394992	-40.645565	-71.508578	-40.645565	-71.508578	-0.454429	-142.988537
9.650000	-0.392163	32.923131	-40.628264	-72.266958	-40.628264	-72.266958	-0.460265	-143.653751
9.700000	-0.394746	31.453714	-40.610374	-73.004837	-40.610374	-73.004837	-0.466154	-144.319493
9.750000	-0.397417	29.986898	-40.591839	-73.721845	-40.591839	-73.721845	-0.472095	-144.985798
9.800000	-0.400179	28.522839	-40.572605	-74.417588	-40.572605	-74.417588	-0.478088	-145.652702
9.850000	-0.403036	27.061691	-40.552618	-75.091650	-40.552618	-75.091650	-0.484133	-146.320243
9.900000	-0.405991	25.603611	-40.531827	-75.743588	-40.531827	-75.743588	-0.490229	-146.988458
9.950000	-0.409050	24.148754	-40.510179	-76.372932	-40.510179	-76.372932	-0.496375	-147.657385
10.000000	-0.412216	22.697275	-40.487626	-76.979180	-40.487626	-76.979180	-0.502573	-148.327060
