! freq	dB(S11)	phase(S11)	dB(S12)	phase(S12)	
!     	dB(S21)	phase(S21)	dB(S22)	phase(S22)	
!S-par simulation data
#  GHz  S  DB  R 50
0.000000	-0.000000	-0.000000	-360.280158	180.000000	-360.280158	180.000000	-0.000000	-0.000000
0.050000	-0.000167	-1.044183	-106.757438	68.463014	-106.757438	68.463014	-0.000163	-1.043172
0.100000	-0.000658	-2.087862	-101.370909	77.009389	-101.370909	77.009389	-0.000643	-2.085861
0.150000	-0.001441	-3.130591	-98.030266	79.509684	-98.030266	79.509684	-0.001410	-3.127634
0.200000	-0.002471	-4.172037	-95.658114	80.308846	-95.658114	80.308846	-0.002421	-4.168167
0.250000	-0.003708	-5.211860	-93.851102	80.390927	-93.851102	80.390927	-0.003639	-5.207124
0.300000	-0.005082	-6.250074	-92.412192	80.174593	-92.412192	80.174593	-0.004997	-6.244507
0.350000	-0.006557	-7.286573	-91.239526	79.792845	-91.239526	79.792845	-0.006459	-7.280201
0.400000	-0.008094	-8.321373	-90.270582	79.336210	-90.270582	79.336210	-0.007986	-8.314214
0.450000	-0.009660	-9.354533	-89.465238	78.861439	-89.465238	78.861439	-0.009547	-9.346594
0.500000	-0.011234	-10.386132	-88.796534	78.409761	-88.796534	78.409761	-0.011120	-10.377410
0.550000	-0.012799	-11.416250	-88.245781	78.015585	-88.245781	78.015585	-0.012686	-11.406740
0.600000	-0.014345	-12.444965	-87.799786	77.711352	-87.799786	77.711352	-0.014236	-12.434656
0.650000	-0.015867	-13.472341	-87.449163	77.530790	-87.449163	77.530790	-0.015764	-13.461220
0.700000	-0.017362	-14.498427	-87.187246	77.511592	-87.187246	77.511592	-0.017266	-14.486483
0.750000	-0.018831	-15.523257	-87.009314	77.698064	-87.009314	77.698064	-0.018741	-15.510479
0.800000	-0.020274	-16.546852	-86.911973	78.144120	-86.911973	78.144120	-0.020190	-16.533230
0.850000	-0.021694	-17.569219	-86.892534	78.916881	-86.892534	78.916881	-0.021616	-17.554745
0.900000	-0.023092	-18.590355	-86.948243	80.101062	-86.948243	80.101062	-0.023019	-18.575024
0.950000	-0.024472	-19.610250	-87.075160	81.804073	-87.075160	81.804073	-0.024404	-19.594058
1.000000	-0.025837	-20.628883	-87.266376	84.161092	-87.266376	84.161092	-0.025772	-20.611828
1.050000	-0.027187	-21.646233	-87.509168	87.337863	-87.509168	87.337863	-0.027125	-21.628314
1.100000	-0.028526	-22.662270	-87.780661	91.525699	-87.780661	91.525699	-0.028466	-22.643488
1.150000	-0.029856	-23.676964	-88.042031	96.917714	-88.042031	96.917714	-0.029796	-23.657321
1.200000	-0.031177	-24.690281	-88.233042	103.649406	-88.233042	103.649406	-0.031118	-24.669781
1.250000	-0.032491	-25.702188	-88.272555	111.690932	-88.272555	111.690932	-0.032432	-25.680834
1.300000	-0.033800	-26.712585	-88.060653	120.730245	-88.060653	120.730245	-0.033739	-26.690381
1.350000	-0.035103	-27.721497	-87.551473	130.033977	-87.551473	130.033977	-0.035041	-27.698448
1.400000	-0.036403	-28.728888	-86.754710	138.834577	-86.754710	138.834577	-0.036339	-28.705000
1.450000	-0.037699	-29.734724	-85.735059	146.559930	-85.735059	146.559930	-0.037633	-29.710002
1.500000	-0.038993	-30.738970	-84.577602	152.958366	-84.577602	152.958366	-0.038924	-30.713418
1.550000	-0.040283	-31.741590	-83.357279	158.039415	-83.357279	158.039415	-0.040212	-31.715215
1.600000	-0.041572	-32.742551	-82.126981	161.952283	-82.126981	161.952283	-0.041497	-32.715360
1.650000	-0.042859	-33.741822	-80.918887	164.889931	-80.918887	164.889931	-0.042781	-33.713818
1.700000	-0.044144	-34.739368	-79.750261	167.037561	-79.750261	167.037561	-0.044063	-34.710559
1.750000	-0.045427	-35.735160	-78.628974	168.553018	-78.628974	168.553018	-0.045343	-35.705550
1.800000	-0.046710	-36.729167	-77.557430	169.563639	-77.557430	169.563639	-0.046623	-36.698762
1.850000	-0.047991	-37.721359	-76.535052	170.169619	-76.535052	170.169619	-0.047901	-37.690165
1.900000	-0.049272	-38.711709	-75.559744	170.449085	-75.559744	170.449085	-0.049179	-38.679730
1.950000	-0.050552	-39.700188	-74.628724	170.462926	-74.628724	170.462926	-0.050456	-39.667429
2.000000	-0.051832	-40.686770	-73.738987	170.258791	-73.738987	170.258791	-0.051733	-40.653237
2.050000	-0.053112	-41.671429	-72.887549	169.874223	-72.887549	169.874223	-0.053010	-41.637127
2.100000	-0.054392	-42.654140	-72.071571	169.339034	-72.071571	169.339034	-0.054288	-42.619073
2.150000	-0.055672	-43.634879	-71.288412	168.677097	-71.288412	168.677097	-0.055566	-43.599053
2.200000	-0.056954	-44.613624	-70.535650	167.907698	-70.535650	167.907698	-0.056845	-44.577043
2.250000	-0.058237	-45.590352	-69.811083	167.046539	-69.811083	167.046539	-0.058126	-45.553020
2.300000	-0.059522	-46.565041	-69.112708	166.106515	-69.112708	166.106515	-0.059408	-46.526964
2.350000	-0.060808	-47.537672	-68.438717	165.098291	-68.438717	165.098291	-0.060693	-47.498853
2.400000	-0.062097	-48.508225	-67.787469	164.030755	-67.787469	164.030755	-0.061980	-48.468669
2.450000	-0.063390	-49.476681	-67.157480	162.911361	-67.157480	162.911361	-0.063270	-49.436392
2.500000	-0.064685	-50.443023	-66.547403	161.746405	-66.547403	161.746405	-0.064564	-50.402005
2.550000	-0.065985	-51.407139	-65.955080	160.539698	-65.955080	160.539698	-0.065862	-51.365397
2.600000	-0.067289	-52.369107	-65.380439	159.297692	-65.380439	159.297692	-0.067164	-52.326645
2.650000	-0.068598	-53.328911	-64.822451	158.024233	-64.822451	158.024233	-0.068472	-53.285733
2.700000	-0.069912	-54.286536	-64.280176	156.722647	-64.280176	156.722647	-0.069784	-54.242647
2.750000	-0.071232	-55.241970	-63.752754	155.395823	-63.752754	155.395823	-0.071103	-55.197374
2.800000	-0.072559	-56.195200	-63.239396	154.046280	-63.239396	154.046280	-0.072429	-56.149900
2.850000	-0.073894	-57.146214	-62.739376	152.676226	-62.739376	152.676226	-0.073761	-57.100216
2.900000	-0.075235	-58.095002	-62.252028	151.287599	-62.252028	151.287599	-0.075102	-58.048308
2.950000	-0.076586	-59.041554	-61.776734	149.882113	-61.776734	149.882113	-0.076450	-58.994169
3.000000	-0.077945	-59.985860	-61.312925	148.461281	-61.312925	148.461281	-0.077808	-59.937789
3.050000	-0.079313	-60.927912	-60.860073	147.026452	-60.860073	147.026452	-0.079175	-60.879159
3.100000	-0.080692	-61.867704	-60.417687	145.578827	-60.417687	145.578827	-0.080552	-61.818272
3.150000	-0.082081	-62.805228	-59.985312	144.119480	-59.985312	144.119480	-0.081940	-62.755121
3.200000	-0.083482	-63.740479	-59.562524	142.649376	-59.562524	142.649376	-0.083339	-63.689702
3.250000	-0.084894	-64.673452	-59.148927	141.169384	-59.148927	141.169384	-0.084749	-64.622009
3.300000	-0.086319	-65.604143	-58.744151	139.680286	-58.744151	139.680286	-0.086173	-65.552038
3.350000	-0.087757	-66.532549	-58.347850	138.182796	-58.347850	138.182796	-0.087609	-66.479786
3.400000	-0.089208	-67.458668	-57.959702	136.677558	-57.959702	136.677558	-0.089059	-67.405252
3.450000	-0.090674	-68.382498	-57.579401	135.165162	-57.579401	135.165162	-0.090523	-68.328432
3.500000	-0.092154	-69.304039	-57.206663	133.646147	-57.206663	133.646147	-0.092001	-69.249327
3.550000	-0.093650	-70.223291	-56.841219	132.121008	-56.841219	132.121008	-0.093495	-70.167937
3.600000	-0.095162	-71.140254	-56.482815	130.590202	-56.482815	130.590202	-0.095005	-71.084264
3.650000	-0.096690	-72.054932	-56.131215	129.054149	-56.131215	129.054149	-0.096532	-71.998308
3.700000	-0.098236	-72.967327	-55.786193	127.513240	-55.786193	127.513240	-0.098076	-72.910072
3.750000	-0.099799	-73.877441	-55.447535	125.967838	-55.447535	125.967838	-0.099637	-73.819561
3.800000	-0.101381	-74.785181	-55.114758	124.418117	-55.114758	124.418117	-0.101217	-74.726680
3.850000	-0.102982	-75.690651	-54.787978	122.864587	-54.787978	122.864587	-0.102816	-75.631533
3.900000	-0.104603	-76.593858	-54.467011	121.307544	-54.467011	121.307544	-0.104435	-76.534125
3.950000	-0.106243	-77.494807	-54.151684	119.747266	-54.151684	119.747266	-0.106073	-77.434465
4.000000	-0.107904	-78.393507	-53.841834	118.184018	-53.841834	118.184018	-0.107732	-78.332558
4.050000	-0.109585	-79.289966	-53.537304	116.618051	-53.537304	116.618051	-0.109411	-79.228415
4.100000	-0.111289	-80.184193	-53.237945	115.049604	-53.237945	115.049604	-0.111112	-80.122043
4.150000	-0.113014	-81.076198	-52.943615	113.478903	-52.943615	113.478903	-0.112835	-81.013453
4.200000	-0.114762	-81.965992	-52.654177	111.906168	-52.654177	111.906168	-0.114581	-81.902655
4.250000	-0.116532	-82.853586	-52.369504	110.331606	-52.369504	110.331606	-0.116349	-82.789660
4.300000	-0.118327	-83.738992	-52.089469	108.755420	-52.089469	108.755420	-0.118141	-83.674482
4.350000	-0.120145	-84.622222	-51.813955	107.177802	-51.813955	107.177802	-0.119957	-84.557131
4.400000	-0.121987	-85.503292	-51.542848	105.598939	-51.542848	105.598939	-0.121797	-85.437623
4.450000	-0.123855	-86.382214	-51.276038	104.019013	-51.276038	104.019013	-0.123663	-86.315970
4.500000	-0.125748	-87.259004	-51.013421	102.438198	-51.013421	102.438198	-0.125553	-87.192189
4.550000	-0.127667	-88.133678	-50.754894	100.856663	-50.754894	100.856663	-0.127470	-88.066294
4.600000	-0.129612	-89.006251	-50.500361	99.274573	-50.500361	99.274573	-0.129412	-88.938303
4.650000	-0.131584	-89.876741	-50.249728	97.692087	-50.249728	97.692087	-0.131382	-89.808231
4.700000	-0.133583	-90.745166	-50.002904	96.109360	-50.002904	96.109360	-0.133378	-90.676097
4.750000	-0.135609	-91.611544	-49.759802	94.526542	-49.759802	94.526542	-0.135402	-91.541918
4.800000	-0.137664	-92.475893	-49.520337	92.943779	-49.520337	92.943779	-0.137454	-92.405714
4.850000	-0.139747	-93.338235	-49.284426	91.361214	-49.284426	91.361214	-0.139535	-93.267505
4.900000	-0.141859	-94.198587	-49.051991	89.778983	-49.051991	89.778983	-0.141645	-94.127310
4.950000	-0.144000	-95.056973	-48.822955	88.197221	-48.822955	88.197221	-0.143783	-94.985150
5.000000	-0.146171	-95.913412	-48.597242	86.616055	-48.597242	86.616055	-0.145952	-95.841046
5.050000	-0.148373	-96.767846	-48.374673	85.035650	-48.374673	85.035650	-0.148152	-96.694939
5.100000	-0.150606	-97.620380	-48.155294	83.456098	-48.155294	83.456098	-0.150382	-97.546935
5.150000	-0.152870	-98.471038	-47.939032	81.877517	-47.939032	81.877517	-0.152643	-98.397058
5.200000	-0.155165	-99.319845	-47.725822	80.300017	-47.725822	80.300017	-0.154936	-99.245330
5.250000	-0.157492	-100.166824	-47.515598	78.723707	-47.515598	78.723707	-0.157260	-100.091778
5.300000	-0.159851	-101.012001	-47.308295	77.148689	-47.308295	77.148689	-0.159616	-100.936425
5.350000	-0.162242	-101.855401	-47.103851	75.575061	-47.103851	75.575061	-0.162005	-101.779298
5.400000	-0.164666	-102.697051	-46.902205	74.002917	-46.902205	74.002917	-0.164426	-102.620421
5.450000	-0.167135	-103.536389	-46.702670	72.432933	-46.702670	72.432933	-0.166893	-103.459236
5.500000	-0.169622	-104.374838	-46.506687	70.863800	-46.506687	70.863800	-0.169376	-104.297162
5.550000	-0.172150	-105.211268	-46.312955	69.296818	-46.312955	69.296818	-0.171902	-105.133071
5.600000	-0.174707	-106.046256	-46.122001	67.731372	-46.122001	67.731372	-0.174457	-105.967540
5.650000	-0.177301	-106.879578	-45.933499	66.167922	-45.933499	66.167922	-0.177048	-106.800343
5.700000	-0.179931	-107.711231	-45.747380	64.606467	-45.747380	64.606467	-0.179675	-107.631480
5.750000	-0.182592	-108.541549	-45.563876	63.046782	-45.563876	63.046782	-0.182334	-108.461282
5.800000	-0.185297	-109.369997	-45.382401	61.489574	-45.382401	61.489574	-0.185035	-109.289216
5.850000	-0.188026	-110.197421	-45.203677	59.933851	-45.203677	59.933851	-0.187763	-110.116126
5.900000	-0.190806	-111.022797	-45.026666	58.381097	-45.026666	58.381097	-0.190540	-110.940990
5.950000	-0.193606	-111.847439	-44.852513	56.829498	-44.852513	56.829498	-0.193337	-111.765120
6.000000	-0.196463	-112.669880	-44.679792	55.281358	-44.679792	55.281358	-0.196191	-112.587051
6.050000	-0.199334	-113.491855	-44.510014	53.734005	-44.510014	53.734005	-0.199059	-113.408516
6.100000	-0.202269	-114.311502	-44.341415	52.190587	-44.341415	52.190587	-0.201992	-114.227654
6.150000	-0.205212	-115.130929	-44.175827	50.647568	-44.175827	50.647568	-0.204932	-115.046572
6.200000	-0.208228	-115.947929	-44.011190	49.108932	-44.011190	49.108932	-0.207945	-115.863063
6.250000	-0.211245	-116.764929	-43.849615	47.570297	-43.849615	47.570297	-0.210959	-116.679555
6.300000	-0.214342	-117.579429	-43.688790	46.036453	-43.688790	46.036453	-0.214054	-117.493548
6.350000	-0.217440	-118.393930	-43.530888	44.502610	-43.530888	44.502610	-0.217149	-118.307541
6.400000	-0.220614	-119.206280	-43.373906	42.973125	-43.373906	42.973125	-0.220320	-119.119384
6.450000	-0.223796	-120.018434	-43.219541	41.444037	-43.219541	41.444037	-0.223499	-119.931031
6.500000	-0.227047	-120.828763	-43.066248	39.918840	-43.066248	39.918840	-0.226747	-120.740852
6.550000	-0.230313	-121.638727	-42.915295	38.394422	-42.915295	38.394422	-0.230010	-121.550309
6.600000	-0.233643	-122.447168	-42.765546	36.873410	-42.765546	36.873410	-0.233338	-122.358242
6.650000	-0.236995	-123.255101	-42.617885	35.353533	-42.617885	35.353533	-0.236687	-123.165667
6.700000	-0.240405	-124.061789	-42.471546	33.836569	-42.471546	33.836569	-0.240094	-123.971846
6.750000	-0.243845	-124.867854	-42.327069	32.321062	-42.327069	32.321062	-0.243531	-124.777402
6.800000	-0.247336	-125.672925	-42.184017	30.807982	-42.184017	30.807982	-0.247019	-125.581964
6.850000	-0.250865	-126.477287	-42.042624	29.296634	-42.042624	29.296634	-0.250545	-126.385816
6.900000	-0.254439	-127.280883	-41.902746	27.787242	-41.902746	27.787242	-0.254116	-127.188901
6.950000	-0.258059	-128.083711	-41.764347	26.279807	-41.764347	26.279807	-0.257733	-127.991218
7.000000	-0.261717	-128.885973	-41.627541	24.773885	-41.627541	24.773885	-0.261388	-128.792966
7.050000	-0.265428	-129.687439	-41.492058	23.270082	-41.492058	23.270082	-0.265096	-129.593920
7.100000	-0.269171	-130.488510	-41.358231	21.767388	-41.358231	21.767388	-0.268836	-130.394476
7.150000	-0.272977	-131.288790	-41.225596	20.266911	-41.225596	20.266911	-0.272638	-131.194240
7.200000	-0.276806	-132.088817	-41.094666	18.767183	-41.094666	18.767183	-0.276465	-131.993751
7.250000	-0.280707	-132.888087	-40.964823	17.269701	-40.964823	17.269701	-0.280362	-132.792503
7.300000	-0.284624	-133.687219	-40.836718	15.772660	-40.836718	15.772660	-0.284277	-133.591116
7.350000	-0.288621	-134.485660	-40.709621	14.277825	-40.709621	14.277825	-0.288271	-134.389036
7.400000	-0.292628	-135.284047	-40.584280	12.783180	-40.584280	12.783180	-0.292274	-135.186901
7.450000	-0.296723	-136.081841	-40.459896	11.290630	-40.459896	11.290630	-0.296366	-135.984171
7.500000	-0.300821	-136.879636	-40.337269	9.798081	-40.337269	9.798081	-0.300460	-136.781441
7.550000	-0.305016	-137.676969	-40.215577	8.307449	-40.215577	8.307449	-0.304653	-137.578247
7.600000	-0.309213	-138.474303	-40.095567	6.816818	-40.095567	6.816818	-0.308847	-138.375052
7.650000	-0.313502	-139.271387	-39.976613	5.327607	-39.976613	5.327607	-0.313132	-139.171605
7.700000	-0.317801	-140.068448	-39.859214	3.838526	-39.859214	3.838526	-0.317428	-139.968134
7.750000	-0.322185	-140.865440	-39.742976	2.350437	-39.742976	2.350437	-0.321808	-140.764591
7.800000	-0.326587	-141.662419	-39.628194	0.862546	-39.628194	0.862546	-0.326207	-141.561034
7.850000	-0.331067	-142.459481	-39.514662	-0.624713	-39.514662	-0.624713	-0.330683	-142.357556
7.900000	-0.335574	-143.256571	-39.402514	-2.111761	-39.402514	-2.111761	-0.335187	-143.154106
7.950000	-0.340152	-144.053865	-39.291687	-3.598464	-39.291687	-3.598464	-0.339761	-143.950856
8.000000	-0.344765	-144.851262	-39.182204	-5.084995	-39.182204	-5.084995	-0.344372	-144.747707
8.050000	-0.349442	-145.648952	-39.074091	-6.571396	-39.074091	-6.571396	-0.349045	-145.544849
8.100000	-0.354164	-146.446853	-38.967313	-8.057705	-38.967313	-8.057705	-0.353763	-146.342199
8.150000	-0.358941	-147.245105	-38.861932	-9.544032	-38.861932	-9.544032	-0.358537	-147.139898
8.200000	-0.363773	-148.043710	-38.757912	-11.030378	-38.757912	-11.030378	-0.363365	-147.937947
8.250000	-0.368652	-148.842692	-38.655289	-12.516828	-38.655289	-12.516828	-0.368241	-148.736371
8.300000	-0.373596	-149.642203	-38.554093	-14.003425	-38.554093	-14.003425	-0.373181	-149.535320
8.350000	-0.378578	-150.442084	-38.454263	-15.490158	-38.454263	-15.490158	-0.378160	-150.334637
8.400000	-0.383635	-151.242706	-38.355964	-16.977166	-38.355964	-16.977166	-0.383213	-151.134691
8.450000	-0.388723	-152.043656	-38.258969	-18.464301	-38.258969	-18.464301	-0.388297	-151.935072
8.500000	-0.393895	-152.845595	-38.163651	-19.951818	-38.163651	-19.951818	-0.393466	-152.736437
8.550000	-0.399089	-153.647788	-38.069541	-21.439425	-38.069541	-21.439425	-0.398656	-153.538055
8.600000	-0.404378	-154.451253	-37.977297	-22.927481	-37.977297	-22.927481	-0.403941	-154.340938
8.650000	-0.409679	-155.254862	-37.886128	-24.415579	-37.886128	-24.415579	-0.409239	-155.143966
8.700000	-0.415087	-156.060062	-37.797058	-25.904128	-37.797058	-25.904128	-0.414643	-155.948579
8.750000	-0.420498	-156.865263	-37.708892	-27.392677	-37.708892	-27.392677	-0.420050	-156.753192
8.800000	-0.426025	-157.672411	-37.623100	-28.881588	-37.623100	-28.881588	-0.425574	-157.559746
8.850000	-0.431556	-158.479560	-37.538148	-30.370499	-37.538148	-30.370499	-0.431102	-158.366300
8.900000	-0.437196	-159.288691	-37.455600	-31.859542	-37.455600	-31.859542	-0.436738	-159.174829
8.950000	-0.442849	-160.098003	-37.373973	-33.348597	-37.373973	-33.348597	-0.442387	-159.983538
9.000000	-0.448603	-160.909296	-37.294742	-34.837510	-37.294742	-34.837510	-0.448138	-160.794223
9.050000	-0.454380	-161.720985	-37.216551	-36.326394	-37.216551	-36.326394	-0.453911	-161.605302
9.100000	-0.460249	-162.534622	-37.140710	-37.814844	-37.140710	-37.814844	-0.459776	-162.418323
9.150000	-0.466151	-163.348907	-37.066071	-39.303148	-37.066071	-39.303148	-0.465675	-163.231990
9.200000	-0.472136	-164.165070	-36.993693	-40.790725	-36.993693	-40.790725	-0.471656	-164.047529
9.250000	-0.478165	-164.982170	-36.922718	-42.277939	-36.922718	-42.277939	-0.477682	-164.864003
9.300000	-0.484269	-165.801041	-36.853874	-43.764160	-36.853874	-43.764160	-0.483781	-165.682242
9.350000	-0.490426	-166.621176	-36.786673	-45.249672	-36.786673	-45.249672	-0.489935	-166.501743
9.400000	-0.496648	-167.442941	-36.721431	-46.733978	-36.721431	-46.733978	-0.496154	-167.322868
9.450000	-0.502936	-168.266333	-36.658108	-48.217079	-36.658108	-48.217079	-0.502438	-168.145617
9.500000	-0.509279	-169.091176	-36.596533	-49.698840	-36.596533	-49.698840	-0.508778	-168.969812
9.550000	-0.515697	-169.918048	-36.537185	-51.178724	-36.537185	-51.178724	-0.515193	-169.796032
9.600000	-0.522152	-170.745837	-36.479052	-52.657620	-36.479052	-52.657620	-0.521644	-170.623167
9.650000	-0.528690	-171.576016	-36.423415	-54.133869	-36.423415	-54.133869	-0.528179	-171.452685
9.700000	-0.535293	-172.408037	-36.369755	-55.607858	-36.369755	-55.607858	-0.534779	-172.284041
9.750000	-0.541960	-173.241953	-36.318087	-57.079354	-36.318087	-57.079354	-0.541443	-173.117287
9.800000	-0.548692	-174.077814	-36.268424	-58.548120	-36.268424	-58.548120	-0.548171	-173.952474
9.850000	-0.555490	-174.915672	-36.220777	-60.013908	-36.220777	-60.013908	-0.554965	-174.789653
9.900000	-0.562352	-175.755580	-36.175156	-61.476465	-36.175156	-61.476465	-0.561825	-175.628877
9.950000	-0.569280	-176.597589	-36.131568	-62.935532	-36.131568	-62.935532	-0.568749	-176.470198
10.000000	-0.576274	-177.441750	-36.090020	-64.390842	-36.090020	-64.390842	-0.575740	-177.313666
