! freq	dB(S11)	phase(S11)	dB(S12)	phase(S12)	
!     	dB(S21)	phase(S21)	dB(S22)	phase(S22)	
!S-par simulation data
#  GHz  S  DB  R 50
0.000000	-0.000000	-0.000000	-385.262092	180.000000	-385.262092	180.000000	0.000000	0.000000
0.050000	-0.000100	-0.765759	-117.822679	86.830078	-117.822679	86.830078	-0.000103	-0.761215
0.100000	-0.000397	-1.531270	-112.142071	85.324477	-112.142071	85.324477	-0.000406	-1.522170
0.150000	-0.000882	-2.296287	-108.922838	84.789212	-108.922838	84.789212	-0.000900	-2.282609
0.200000	-0.001524	-3.060663	-106.681511	84.526469	-106.681511	84.526469	-0.001553	-3.042383
0.250000	-0.002305	-3.824238	-104.993865	84.331442	-104.993865	84.331442	-0.002345	-3.801330
0.300000	-0.003211	-4.586811	-103.686906	84.167359	-103.686906	84.167359	-0.003260	-4.559250
0.350000	-0.004199	-5.348482	-102.646002	84.047619	-102.646002	84.047619	-0.004255	-5.316253
0.400000	-0.005258	-6.109084	-101.831427	84.015465	-101.831427	84.015465	-0.005317	-6.072177
0.450000	-0.006362	-6.868709	-101.197964	84.109045	-101.197964	84.109045	-0.006421	-6.827122
0.500000	-0.007496	-7.627336	-100.728868	84.387524	-100.728868	84.387524	-0.007552	-7.581075
0.550000	-0.008645	-8.385009	-100.409860	84.919367	-100.409860	84.919367	-0.008694	-8.334085
0.600000	-0.009799	-9.141767	-100.233411	85.795466	-100.233411	85.795466	-0.009839	-9.086196
0.650000	-0.010949	-9.897652	-100.195902	87.139358	-100.195902	87.139358	-0.010979	-9.837453
0.700000	-0.012090	-10.652705	-100.295640	89.123717	-100.295640	89.123717	-0.012109	-10.587897
0.750000	-0.013218	-11.406962	-100.529649	91.994021	-100.529649	91.994021	-0.013225	-11.337565
0.800000	-0.014332	-12.160452	-100.887254	96.098626	-100.887254	96.098626	-0.014327	-12.086485
0.850000	-0.015427	-12.913076	-101.319587	102.378386	-101.319587	102.378386	-0.015411	-12.834561
0.900000	-0.016506	-13.664945	-101.760181	111.046406	-101.760181	111.046406	-0.016479	-13.581898
0.950000	-0.017578	-14.416444	-102.049183	120.978825	-102.049183	120.978825	-0.017540	-14.328875
1.000000	-0.018627	-15.166838	-101.825783	134.704438	-101.825783	134.704438	-0.018580	-15.074768
1.050000	-0.019672	-15.916988	-101.376487	148.197131	-101.376487	148.197131	-0.019617	-15.820421
1.100000	-0.020695	-16.665914	-99.924781	160.525230	-99.924781	160.525230	-0.020633	-16.564871
1.150000	-0.021717	-17.414716	-98.598926	172.397045	-98.598926	172.397045	-0.021648	-17.309199
1.200000	-0.022720	-18.162152	-96.692677	179.249734	-96.692677	179.249734	-0.022647	-18.052178
1.250000	-0.023723	-18.909588	-95.130418	-173.897577	-95.130418	-173.897577	-0.023645	-18.795158
1.300000	-0.024714	-19.655880	-93.455121	-170.027122	-93.455121	-170.027122	-0.024632	-19.537006
1.350000	-0.025699	-20.401423	-91.880758	-167.365916	-91.880758	-167.365916	-0.025614	-20.278115
1.400000	-0.026678	-21.146205	-90.408229	-165.582507	-90.408229	-165.582507	-0.026591	-21.018470
1.450000	-0.027653	-21.890211	-89.030877	-164.445317	-89.030877	-164.445317	-0.027564	-21.758057
1.500000	-0.028624	-22.633424	-87.739753	-163.792360	-87.739753	-163.792360	-0.028533	-22.496861
1.550000	-0.029592	-23.375832	-86.525809	-163.508992	-86.525809	-163.508992	-0.029500	-23.234866
1.600000	-0.030557	-24.117416	-85.380719	-163.512764	-85.380719	-163.512764	-0.030464	-23.972058
1.650000	-0.031520	-24.858161	-84.297114	-163.743325	-84.297114	-163.743325	-0.031426	-24.708419
1.700000	-0.032481	-25.597746	-83.245381	-164.203244	-83.245381	-164.203244	-0.032386	-25.443634
1.750000	-0.033442	-26.336880	-82.276641	-164.745636	-82.276641	-164.745636	-0.033345	-26.178402
1.800000	-0.034402	-27.074926	-81.338377	-165.426047	-81.338377	-165.426047	-0.034304	-26.912095
1.850000	-0.035361	-27.812194	-80.448641	-166.205044	-80.448641	-166.205044	-0.035263	-27.645019
1.900000	-0.036321	-28.548495	-79.592821	-167.066080	-79.592821	-167.066080	-0.036221	-28.376989
1.950000	-0.037281	-29.283829	-78.769422	-168.009156	-78.769422	-168.009156	-0.037180	-29.108003
2.000000	-0.038241	-30.018328	-77.982195	-169.001489	-77.982195	-169.001489	-0.038139	-29.838194
2.050000	-0.039203	-30.751659	-77.215322	-170.062785	-77.215322	-170.062785	-0.039099	-30.567232
2.100000	-0.040166	-31.484301	-76.486098	-171.153368	-76.486098	-171.153368	-0.040060	-31.295589
2.150000	-0.041131	-32.215563	-75.768034	-172.302527	-75.768034	-172.302527	-0.041023	-32.022586
2.200000	-0.042097	-32.946293	-75.088550	-173.468429	-75.088550	-173.468429	-0.041986	-32.749057
2.250000	-0.043066	-33.675422	-74.413134	-174.684566	-74.413134	-174.684566	-0.042953	-33.473951
2.300000	-0.044036	-34.404186	-73.776823	-175.909393	-73.776823	-175.909393	-0.043921	-34.198484
2.350000	-0.045011	-35.131121	-73.139053	-177.177669	-73.139053	-177.177669	-0.044893	-34.921214
2.400000	-0.045987	-35.857868	-72.540609	-178.449386	-72.540609	-178.449386	-0.045866	-35.643759
2.450000	-0.046969	-36.582549	-71.936368	-179.758960	-71.936368	-179.758960	-0.046845	-36.364267
2.500000	-0.047952	-37.307229	-71.371441	178.931467	-71.371441	178.931467	-0.047824	-37.084775
2.550000	-0.048942	-38.029598	-70.797295	177.588707	-70.797295	177.588707	-0.048812	-37.803004
2.600000	-0.049933	-38.751967	-70.258759	176.245947	-70.258759	176.245947	-0.049799	-38.521234
2.650000	-0.050932	-39.472167	-69.715325	174.878447	-69.715325	174.878447	-0.050795	-39.237326
2.700000	-0.051932	-40.192169	-69.200789	173.508697	-69.200789	173.508697	-0.051791	-39.953223
2.750000	-0.052942	-40.910156	-68.684951	172.120472	-68.684951	172.120472	-0.052797	-40.667134
2.800000	-0.053953	-41.627740	-68.192361	170.728553	-68.192361	170.728553	-0.053805	-41.380648
2.850000	-0.054974	-42.343472	-67.701472	169.322864	-67.701472	169.322864	-0.054821	-42.092336
2.900000	-0.055998	-43.058587	-67.229045	167.912585	-67.229045	167.912585	-0.055842	-42.803417
2.950000	-0.057031	-43.772024	-66.760834	166.492104	-66.760834	166.492104	-0.056871	-43.512843
3.000000	-0.058070	-44.484623	-66.307015	165.066522	-66.307015	165.066522	-0.057905	-44.221443
3.050000	-0.059117	-45.195727	-65.859517	163.633460	-65.859517	163.633460	-0.058948	-44.928571
3.100000	-0.060170	-45.905765	-65.422937	162.195056	-65.422937	162.195056	-0.059997	-45.634646
3.150000	-0.061232	-46.614501	-64.994442	160.751261	-64.994442	160.751261	-0.061055	-46.339438
3.200000	-0.062303	-47.321936	-64.573889	159.302074	-64.573889	159.302074	-0.062122	-47.042947
3.250000	-0.063382	-48.028270	-64.162896	157.849099	-64.162896	157.849099	-0.063196	-47.745370
3.300000	-0.064471	-48.733062	-63.757291	156.390822	-63.757291	156.390822	-0.064281	-48.446273
3.350000	-0.065567	-49.436962	-63.362476	154.929987	-63.362476	154.929987	-0.065373	-49.146295
3.400000	-0.066677	-50.139075	-62.970853	153.464037	-62.970853	153.464037	-0.066478	-49.844556
3.450000	-0.067792	-50.840510	-62.591043	151.996468	-62.591043	151.996468	-0.067588	-50.542148
3.500000	-0.068923	-51.539911	-62.212533	150.524043	-62.212533	150.524043	-0.068715	-51.237732
3.550000	-0.070059	-52.238854	-61.846680	149.050708	-61.846680	149.050708	-0.069846	-51.932866
3.600000	-0.071213	-52.935510	-61.480498	147.572828	-61.480498	147.572828	-0.070997	-52.625743
3.650000	-0.072370	-53.631936	-61.127664	146.094566	-61.127664	146.094566	-0.072149	-53.318392
3.700000	-0.073550	-54.325820	-60.773099	144.612105	-60.773099	144.612105	-0.073324	-54.008534
3.750000	-0.074730	-55.019704	-60.432441	143.129643	-60.432441	143.129643	-0.074500	-54.698675
3.800000	-0.075937	-55.710790	-60.088844	141.643356	-60.088844	141.643356	-0.075701	-55.386055
3.850000	-0.077143	-56.401877	-59.758324	140.157068	-59.758324	140.157068	-0.076903	-56.073435
3.900000	-0.078376	-57.090378	-59.426381	138.667873	-59.426381	138.667873	-0.078131	-56.758263
3.950000	-0.079610	-57.778644	-59.105472	137.178413	-59.105472	137.178413	-0.079361	-57.442859
4.000000	-0.080870	-58.464543	-58.784475	135.686787	-58.784475	135.686787	-0.080616	-58.125118
4.050000	-0.082135	-59.149969	-58.472696	134.194728	-58.472696	134.194728	-0.081876	-58.806910
4.100000	-0.083423	-59.833253	-58.162000	132.701094	-58.162000	132.701094	-0.083159	-59.486586
4.150000	-0.084720	-60.515822	-57.858907	131.206935	-57.858907	131.206935	-0.084450	-60.165557
4.200000	-0.086038	-61.196477	-57.557925	129.711672	-57.557925	129.711672	-0.085764	-60.842637
4.250000	-0.087368	-61.876174	-57.263106	128.215856	-57.263106	128.215856	-0.087088	-61.518773
4.300000	-0.088718	-62.554191	-56.971301	126.719302	-56.971301	126.719302	-0.088433	-62.193247
4.350000	-0.090083	-63.231007	-56.684375	125.222220	-56.684375	125.222220	-0.089792	-62.866535
4.400000	-0.091465	-63.906377	-56.401254	123.724679	-56.401254	123.724679	-0.091169	-63.538395
4.450000	-0.092867	-64.580302	-56.121868	122.226679	-56.121868	122.226679	-0.092564	-64.208827
4.500000	-0.094284	-65.253020	-55.846976	120.728427	-55.846976	120.728427	-0.093975	-64.878067
4.550000	-0.095723	-65.924048	-55.574802	119.229819	-55.574802	119.229819	-0.095409	-65.545637
4.600000	-0.097176	-66.594110	-55.307722	117.731103	-55.307722	117.731103	-0.096855	-66.212252
4.650000	-0.098655	-67.262239	-55.042451	116.232167	-55.042451	116.232167	-0.098328	-66.876957
4.700000	-0.100145	-67.929643	-54.782798	114.733211	-54.782798	114.733211	-0.099812	-67.540945
4.750000	-0.101665	-68.594872	-54.524144	113.234197	-54.524144	113.234197	-0.101326	-68.202784
4.800000	-0.103193	-69.259619	-54.271559	111.735207	-54.271559	111.735207	-0.102848	-68.864146
4.850000	-0.104758	-69.921951	-54.019255	110.236342	-54.019255	110.236342	-0.104405	-69.523121
4.900000	-0.106326	-70.584042	-53.773407	108.737505	-53.773407	108.737505	-0.105966	-70.181857
4.950000	-0.107934	-71.243482	-53.527201	107.238994	-53.527201	107.238994	-0.107568	-70.837972
5.000000	-0.109544	-71.902921	-53.287782	105.740482	-53.287782	105.740482	-0.109170	-71.494088
5.050000	-0.111199	-72.559477	-53.047437	104.242512	-53.047437	104.242512	-0.110818	-72.147351
5.100000	-0.112855	-73.216032	-52.813565	102.744542	-52.813565	102.744542	-0.112467	-72.800614
5.150000	-0.114555	-73.869952	-52.579456	101.247225	-52.579456	101.247225	-0.114159	-73.451271
5.200000	-0.116259	-74.523633	-52.350927	99.749967	-52.350927	99.749967	-0.115855	-74.101691
5.250000	-0.118005	-75.174929	-52.122780	98.253435	-52.122780	98.253435	-0.117593	-74.749752
5.300000	-0.119759	-75.825747	-51.899404	96.757047	-51.899404	96.757047	-0.119339	-75.397341
5.350000	-0.121552	-76.474431	-51.676962	95.261421	-51.676962	95.261421	-0.121123	-76.042819
5.400000	-0.123358	-77.122403	-51.458558	93.766048	-51.458558	93.766048	-0.122921	-76.687592
5.450000	-0.125199	-77.768489	-51.241583	92.271442	-51.241583	92.271442	-0.124753	-77.330498
5.500000	-0.127058	-78.413632	-51.027980	90.777219	-51.027980	90.777219	-0.126604	-77.972472
5.550000	-0.128950	-79.057136	-50.816248	89.283738	-50.816248	89.283738	-0.128486	-78.612824
5.600000	-0.130864	-79.699469	-50.607284	87.790788	-50.607284	87.790788	-0.130391	-79.252017
5.650000	-0.132807	-80.340408	-50.400585	86.298533	-50.400585	86.298533	-0.132325	-79.889830
5.700000	-0.134778	-80.979954	-50.196107	84.806972	-50.196107	84.806972	-0.134286	-80.526264
5.750000	-0.136774	-81.618348	-49.994242	83.316035	-49.994242	83.316035	-0.136272	-81.161558
5.800000	-0.138803	-82.255130	-49.794104	81.825973	-49.794104	81.825973	-0.138292	-81.795257
5.850000	-0.140853	-82.891000	-49.596889	80.336443	-49.596889	80.336443	-0.140332	-82.428052
5.900000	-0.142943	-83.525046	-49.400952	78.847979	-49.400952	78.847979	-0.142411	-83.059040
5.950000	-0.145048	-84.158414	-49.208211	77.359939	-49.208211	77.359939	-0.144506	-83.689358
6.000000	-0.147200	-84.789751	-49.016344	75.873169	-49.016344	75.873169	-0.146647	-84.317664
6.050000	-0.149363	-85.420641	-48.827911	74.386696	-48.827911	74.386696	-0.148799	-84.945528
6.100000	-0.151578	-86.049301	-48.639989	72.901710	-48.639989	72.901710	-0.151004	-85.571181
6.150000	-0.153799	-86.677739	-48.455708	71.416879	-48.455708	71.416879	-0.153214	-86.196616
6.200000	-0.156080	-87.303753	-48.271611	69.933760	-48.271611	69.933760	-0.155483	-86.819649
6.250000	-0.158361	-87.929767	-48.091334	68.450641	-48.091334	68.450641	-0.157753	-87.442681
6.300000	-0.160708	-88.553170	-47.910947	66.969469	-47.910947	66.969469	-0.160088	-88.063126
6.350000	-0.163056	-89.176573	-47.734230	65.488296	-47.734230	65.488296	-0.162425	-88.683572
6.400000	-0.165467	-89.797616	-47.557749	64.008975	-47.557749	64.008975	-0.164823	-89.301677
6.450000	-0.167884	-90.418445	-47.384490	62.529822	-47.384490	62.529822	-0.167228	-89.919571
6.500000	-0.170359	-91.037161	-47.211779	61.052410	-47.211779	61.052410	-0.169691	-90.535369
6.550000	-0.172846	-91.655453	-47.041879	59.575347	-47.041879	59.575347	-0.172165	-91.150747
6.600000	-0.175386	-92.271874	-46.872810	58.099899	-46.872810	58.099899	-0.174693	-91.764269
6.650000	-0.177945	-92.887671	-46.706176	56.624989	-46.706176	56.624989	-0.177240	-92.377172
6.700000	-0.180553	-93.501831	-46.540626	55.151555	-46.540626	55.151555	-0.179835	-92.988452
6.750000	-0.183186	-94.115174	-46.377167	53.678858	-46.377167	53.678858	-0.182455	-93.598920
6.800000	-0.185862	-94.727110	-46.215021	52.207484	-46.215021	52.207484	-0.185118	-94.207993
6.850000	-0.188570	-95.338042	-46.054651	50.737056	-46.054651	50.737056	-0.187812	-94.816069
6.900000	-0.191316	-95.947791	-45.895797	49.267786	-45.895797	49.267786	-0.190545	-95.422971
6.950000	-0.194101	-96.556357	-45.738431	47.799674	-45.738431	47.799674	-0.193317	-96.028699
7.000000	-0.196919	-97.163957	-45.582764	46.332547	-45.582764	46.332547	-0.196121	-96.633467
7.050000	-0.199782	-97.770205	-45.428323	44.866797	-45.428323	44.866797	-0.198970	-97.236892
7.100000	-0.202672	-98.375696	-45.275741	43.401847	-45.275741	43.401847	-0.201846	-97.839565
7.150000	-0.205616	-98.979673	-45.124147	41.938498	-45.124147	41.938498	-0.204776	-98.440735
7.200000	-0.208580	-99.583096	-44.974554	40.475757	-44.974554	40.475757	-0.207726	-99.041353
7.250000	-0.211605	-100.184853	-44.825731	39.014841	-44.825731	39.014841	-0.210736	-99.640316
7.300000	-0.214645	-100.786249	-44.679035	37.554335	-44.679035	37.554335	-0.213761	-100.238919
7.350000	-0.217753	-101.385837	-44.532911	36.095878	-44.532911	36.095878	-0.216855	-100.835726
7.400000	-0.220869	-101.985250	-44.389024	34.637628	-44.389024	34.637628	-0.219956	-101.432357
7.450000	-0.224062	-102.582722	-44.245529	33.181652	-44.245529	33.181652	-0.223134	-102.027059
7.500000	-0.227257	-103.180195	-44.104366	31.725676	-44.104366	31.725676	-0.226314	-102.621761
7.550000	-0.230536	-103.775606	-43.963432	30.272192	-43.963432	30.272192	-0.229577	-103.214411
7.600000	-0.233817	-104.371018	-43.824748	28.818709	-43.824748	28.818709	-0.232843	-103.807062
7.650000	-0.237176	-104.964591	-43.686474	27.367516	-43.686474	27.367516	-0.236187	-104.397881
7.700000	-0.240545	-105.557997	-43.550208	25.916532	-43.550208	25.916532	-0.239539	-104.988535
7.750000	-0.243987	-106.149779	-43.414513	24.467628	-43.414513	24.467628	-0.242965	-105.577571
7.800000	-0.247444	-106.741237	-43.280605	23.019140	-43.280605	23.019140	-0.246407	-106.166283
7.850000	-0.250969	-107.331278	-43.147415	21.572518	-43.147415	21.572518	-0.249915	-106.753583
7.900000	-0.254517	-107.920847	-43.015806	20.126518	-43.015806	20.126518	-0.253447	-107.340411
7.950000	-0.258127	-108.509196	-42.885049	18.682163	-42.885049	18.682163	-0.257039	-107.926023
8.000000	-0.261767	-109.096935	-42.755684	17.238630	-42.755684	17.238630	-0.260663	-108.511027
8.050000	-0.265462	-109.683643	-42.627290	15.796522	-42.627290	15.796522	-0.264340	-109.095001
8.100000	-0.269195	-110.269614	-42.500114	14.355431	-42.500114	14.355431	-0.268056	-109.678239
8.150000	-0.272977	-110.854733	-42.374017	12.915542	-42.374017	12.915542	-0.271820	-110.260626
8.200000	-0.276805	-111.438999	-42.248978	11.476856	-42.248978	11.476856	-0.275630	-110.842161
8.250000	-0.280674	-112.022581	-42.125114	10.039152	-42.125114	10.039152	-0.279481	-111.423012
8.300000	-0.284599	-112.605206	-42.002163	8.602823	-42.002163	8.602823	-0.283387	-112.002906
8.350000	-0.288556	-113.187306	-41.880471	7.167262	-41.880471	7.167262	-0.287326	-112.582274
8.400000	-0.292578	-113.768356	-41.759560	5.733236	-41.759560	5.733236	-0.291328	-113.160591
8.450000	-0.296626	-114.349029	-41.639983	4.299770	-41.639983	4.299770	-0.295356	-113.738530
8.500000	-0.300746	-114.928570	-41.521065	2.867980	-41.521065	2.867980	-0.299457	-114.315335
8.550000	-0.304884	-115.507871	-41.403547	1.436551	-41.403547	1.436551	-0.303575	-114.891899
8.600000	-0.309104	-116.085972	-41.286579	0.006921	-41.286579	0.006921	-0.307774	-115.467259
8.650000	-0.313334	-116.663958	-41.171067	-1.422535	-41.171067	-1.422535	-0.311983	-116.042504
8.700000	-0.317655	-117.240688	-41.056008	-2.850090	-41.056008	-2.850090	-0.316282	-116.616487
8.750000	-0.321977	-117.817418	-40.942453	-4.277645	-40.942453	-4.277645	-0.320583	-117.190469
8.800000	-0.326399	-118.392848	-40.829264	-5.703223	-40.829264	-5.703223	-0.324983	-117.763144
8.850000	-0.330824	-118.968277	-40.717530	-7.128801	-40.717530	-7.128801	-0.329385	-118.335819
8.900000	-0.335341	-119.542582	-40.606262	-8.552665	-40.606262	-8.552665	-0.333878	-118.907360
8.950000	-0.339868	-120.116783	-40.496315	-9.976373	-40.496315	-9.976373	-0.338382	-119.478798
9.000000	-0.344480	-120.690023	-40.386923	-11.398621	-40.386923	-11.398621	-0.342969	-120.049264
9.050000	-0.349111	-121.263071	-40.278730	-12.820576	-40.278730	-12.820576	-0.347575	-120.619537
9.100000	-0.353819	-121.835309	-40.171175	-14.241312	-40.171175	-14.241312	-0.352257	-121.188990
9.150000	-0.358554	-122.407278	-40.064706	-15.661642	-40.064706	-15.661642	-0.356967	-121.758171
9.200000	-0.363359	-122.978577	-39.958949	-17.080979	-39.958949	-17.080979	-0.361744	-122.326673
9.250000	-0.368200	-123.549543	-39.854178	-18.499821	-39.854178	-18.499821	-0.366557	-122.894837
9.300000	-0.373102	-124.119969	-39.750183	-19.917879	-39.750183	-19.917879	-0.371431	-123.462452
9.350000	-0.378049	-124.690009	-39.647085	-21.335378	-39.647085	-21.335378	-0.376348	-124.029674
9.400000	-0.383049	-125.259627	-39.544821	-22.752284	-39.544821	-22.752284	-0.381318	-124.596465
9.450000	-0.388102	-125.828822	-39.443376	-24.168596	-39.443376	-24.168596	-0.386340	-125.162825
9.500000	-0.393201	-126.397698	-39.342813	-25.584482	-39.342813	-25.584482	-0.391407	-125.728858
9.550000	-0.398361	-126.966128	-39.243002	-26.999770	-39.243002	-26.999770	-0.396534	-126.294433
9.600000	-0.403559	-127.534330	-39.144114	-28.414774	-39.144114	-28.414774	-0.401698	-126.859774
9.650000	-0.408827	-128.102078	-39.045922	-29.829209	-39.045922	-29.829209	-0.406930	-127.424646
9.700000	-0.414123	-128.669675	-38.948686	-31.243475	-38.948686	-31.243475	-0.412191	-127.989363
9.750000	-0.419499	-129.236824	-38.852104	-32.657235	-38.852104	-32.657235	-0.417530	-128.553614
9.800000	-0.424896	-129.803887	-38.756499	-34.070911	-38.756499	-34.070911	-0.422888	-129.117775
9.850000	-0.430380	-130.370522	-38.661518	-35.484177	-38.661518	-35.484177	-0.428332	-129.681489
9.900000	-0.435876	-130.937122	-38.567528	-36.897417	-38.567528	-36.897417	-0.433787	-130.245165
9.950000	-0.441469	-131.503332	-38.474146	-38.310376	-38.474146	-38.310376	-0.439337	-130.808427
10.000000	-0.447065	-132.069541	-38.381757	-39.723335	-38.381757	-39.723335	-0.444890	-131.371689
