! freq	dB(S11)	phase(S11)	dB(S12)	phase(S12)	
!     	dB(S21)	phase(S21)	dB(S22)	phase(S22)	
!S-par simulation data
#  GHz  S  DB  R 50
0.000000	-0.000000	0.000000	-306.249913	180.000000	-306.249913	180.000000	-0.000000	0.000000
0.050000	-0.000119	-0.814449	-97.172676	10.657119	-97.172676	10.657119	-0.000096	-0.868684
0.100000	-0.000469	-1.628572	-97.070640	12.148128	-97.070640	12.148128	-0.000382	-1.737158
0.150000	-0.001030	-2.442078	-96.963464	15.455340	-96.963464	15.455340	-0.000850	-2.605225
0.200000	-0.001774	-3.254742	-96.837208	19.016967	-96.837208	19.016967	-0.001483	-3.472713
0.250000	-0.002675	-4.066332	-96.701543	22.482495	-96.701543	22.482495	-0.002277	-4.339418
0.300000	-0.003687	-4.876845	-96.571128	25.746870	-96.571128	25.746870	-0.003197	-5.205282
0.350000	-0.004785	-5.686198	-96.459306	28.770215	-96.459306	28.770215	-0.004232	-6.070176
0.400000	-0.005940	-6.494393	-96.379869	31.554409	-96.379869	31.554409	-0.005361	-6.934026
0.450000	-0.007129	-7.301464	-96.346265	34.125851	-96.346265	34.125851	-0.006564	-7.796783
0.500000	-0.008335	-8.107462	-96.371892	36.528556	-96.371892	36.528556	-0.007824	-8.658422
0.550000	-0.009545	-8.912445	-96.470665	38.822156	-96.470665	38.822156	-0.009125	-9.518932
0.600000	-0.010749	-9.716471	-96.657845	41.084028	-96.657845	41.084028	-0.010451	-10.378319
0.650000	-0.011942	-10.519593	-96.951115	43.416338	-96.951115	43.416338	-0.011792	-11.236595
0.700000	-0.013120	-11.321857	-97.371945	45.960675	-97.371945	45.960675	-0.013137	-12.093781
0.750000	-0.014282	-12.123299	-97.947200	48.926373	-97.947200	48.926373	-0.014479	-12.949900
0.800000	-0.015428	-12.923944	-98.710492	52.645933	-98.710492	52.645933	-0.015810	-13.804976
0.850000	-0.016557	-13.723813	-99.700841	57.686468	-99.700841	57.686468	-0.017128	-14.659032
0.900000	-0.017672	-14.522915	-100.948396	65.070060	-100.948396	65.070060	-0.018428	-15.512088
0.950000	-0.018773	-15.321256	-102.408512	76.608221	-102.408512	76.608221	-0.019709	-16.364161
1.000000	-0.019862	-16.118835	-103.747789	94.721390	-103.747789	94.721390	-0.020970	-17.215265
1.050000	-0.020940	-16.915645	-104.069805	119.715032	-104.069805	119.715032	-0.022210	-18.065409
1.100000	-0.022009	-17.711680	-102.634933	145.026344	-102.634933	145.026344	-0.023430	-18.914599
1.150000	-0.023070	-18.506927	-100.161208	162.906817	-100.161208	162.906817	-0.024631	-19.762837
1.200000	-0.024124	-19.301374	-97.597410	173.698108	-97.597410	173.698108	-0.025813	-20.610122
1.250000	-0.025171	-20.095004	-95.262087	-179.791175	-95.262087	-179.791175	-0.026978	-21.456448
1.300000	-0.026213	-20.887766	-93.175709	-175.788486	-93.175709	-175.788486	-0.028127	-22.301766
1.350000	-0.027251	-21.679676	-91.316334	-173.206507	-91.316334	-173.206507	-0.029261	-23.146107
1.400000	-0.028285	-22.470719	-89.641377	-171.544210	-89.641377	-171.544210	-0.030383	-23.989458
1.450000	-0.029316	-23.260875	-88.116289	-170.508628	-88.116289	-170.508628	-0.031494	-24.831805
1.500000	-0.030344	-24.050126	-86.714412	-169.919632	-86.714412	-169.919632	-0.032595	-25.673131
1.550000	-0.031370	-24.838455	-85.415301	-169.661212	-85.415301	-169.661212	-0.033688	-26.513421
1.600000	-0.032393	-25.625842	-84.203137	-169.655510	-84.203137	-169.655510	-0.034773	-27.352654
1.650000	-0.033415	-26.412270	-83.065520	-169.848358	-83.065520	-169.848358	-0.035853	-28.190813
1.700000	-0.034436	-27.197373	-81.968486	-170.243174	-81.968486	-170.243174	-0.036928	-29.027487
1.750000	-0.035455	-27.981959	-80.962968	-170.710800	-80.962968	-170.710800	-0.038000	-29.863583
1.800000	-0.036474	-28.765303	-79.992681	-171.303263	-79.992681	-171.303263	-0.039070	-30.698286
1.850000	-0.037493	-29.547761	-79.075569	-171.984895	-79.075569	-171.984895	-0.040138	-31.531994
1.900000	-0.038511	-30.329117	-78.195419	-172.743939	-78.195419	-172.743939	-0.041206	-32.364464
1.950000	-0.039530	-31.109370	-77.350327	-173.580396	-77.350327	-173.580396	-0.042274	-33.195695
2.000000	-0.040549	-31.888675	-76.543620	-174.465763	-76.543620	-174.465763	-0.043343	-34.025855
2.050000	-0.041568	-32.666652	-75.758677	-175.419606	-75.758677	-175.419606	-0.044413	-34.854517
2.100000	-0.042588	-33.444044	-75.019733	-176.397335	-75.019733	-176.397335	-0.045485	-35.682519
2.150000	-0.043610	-34.219922	-74.293031	-177.434832	-74.293031	-177.434832	-0.046561	-36.508806
2.200000	-0.044633	-34.994653	-73.590365	-178.510734	-73.590365	-178.510734	-0.047640	-37.333795
2.250000	-0.045658	-35.768224	-72.910084	-179.621454	-72.910084	-179.621454	-0.048723	-38.157465
2.300000	-0.046685	-36.540618	-72.250722	179.236117	-72.250722	179.236117	-0.049810	-38.979799
2.350000	-0.047715	-37.311821	-71.610968	178.064691	-71.610968	178.064691	-0.050902	-39.800777
2.400000	-0.048747	-38.081819	-70.989645	176.866652	-70.989645	176.866652	-0.052000	-40.620382
2.450000	-0.049783	-38.850597	-70.385692	175.644108	-70.385692	175.644108	-0.053102	-41.438597
2.500000	-0.050822	-39.618141	-69.798148	174.398941	-69.798148	174.398941	-0.054211	-42.255405
2.550000	-0.051866	-40.384382	-69.225185	173.131997	-69.225185	173.131997	-0.055327	-43.070726
2.600000	-0.052914	-41.149361	-68.667059	171.845756	-68.667059	171.845756	-0.056448	-43.884606
2.650000	-0.053966	-41.913065	-68.123032	170.541579	-68.123032	170.541579	-0.057577	-44.697031
2.700000	-0.055024	-42.675481	-67.592426	169.220706	-67.592426	169.220706	-0.058713	-45.507985
2.750000	-0.056087	-43.436597	-67.074619	167.884271	-67.074619	167.884271	-0.059856	-46.317455
2.800000	-0.057156	-44.196400	-66.569036	166.533321	-66.569036	166.533321	-0.061007	-47.125427
2.850000	-0.058231	-44.954879	-66.075144	165.168820	-66.075144	165.168820	-0.062166	-47.931888
2.900000	-0.059313	-45.712022	-65.592449	163.791663	-65.592449	163.791663	-0.063334	-48.736826
2.950000	-0.060401	-46.467819	-65.120494	162.402683	-65.120494	162.402683	-0.064509	-49.540229
3.000000	-0.061498	-47.222258	-64.658847	161.002658	-64.658847	161.002658	-0.065694	-50.342087
3.050000	-0.062602	-47.975330	-64.207111	159.592314	-64.207111	159.592314	-0.066888	-51.142388
3.100000	-0.063715	-48.727024	-63.764908	158.172334	-63.764908	158.172334	-0.068090	-51.941122
3.150000	-0.064836	-49.477330	-63.331888	156.743360	-63.331888	156.743360	-0.069303	-52.738280
3.200000	-0.065966	-50.226239	-62.907719	155.305998	-62.907719	155.305998	-0.070525	-53.533854
3.250000	-0.067106	-50.973742	-62.492089	153.860820	-62.492089	153.860820	-0.071757	-54.327834
3.300000	-0.068256	-51.719831	-62.084702	152.408366	-62.084702	152.408366	-0.073000	-55.120213
3.350000	-0.069417	-52.464248	-61.683484	150.948118	-61.683484	150.948118	-0.074256	-55.910702
3.400000	-0.070591	-53.207172	-61.289696	149.481336	-61.289696	149.481336	-0.075523	-56.699506
3.450000	-0.071770	-53.949342	-60.908050	148.011697	-60.908050	148.011697	-0.076796	-57.487462
3.500000	-0.072967	-54.689254	-60.528278	146.533486	-60.528278	146.533486	-0.078087	-58.272874
3.550000	-0.074168	-55.428658	-60.161388	145.053669	-60.161388	145.053669	-0.079383	-59.057716
3.600000	-0.075391	-56.165529	-59.794835	143.565822	-59.794835	143.565822	-0.080699	-59.839714
3.650000	-0.076616	-56.902143	-59.441730	142.077308	-59.441730	142.077308	-0.082019	-60.621426
3.700000	-0.077866	-57.635947	-59.087662	140.581442	-59.087662	140.581442	-0.083363	-61.399992
3.750000	-0.079116	-58.369751	-58.747463	139.085576	-58.747463	139.085576	-0.084707	-62.178559
3.800000	-0.080395	-59.100467	-58.405200	137.583147	-58.405200	137.583147	-0.086080	-62.953683
3.850000	-0.081675	-59.831183	-58.075913	136.080717	-58.075913	136.080717	-0.087453	-63.728806
3.900000	-0.082982	-60.559051	-57.746016	134.573471	-57.746016	134.573471	-0.088853	-64.500765
3.950000	-0.084293	-61.286661	-57.427083	133.065786	-57.427083	133.065786	-0.090257	-65.272437
4.000000	-0.085630	-62.011670	-57.108786	131.554699	-57.108786	131.554699	-0.091687	-66.041230
4.050000	-0.086973	-62.736158	-56.799684	130.042932	-56.799684	130.042932	-0.093123	-66.809446
4.100000	-0.088342	-63.458298	-56.492285	128.528886	-56.492285	128.528886	-0.094585	-67.575071
4.150000	-0.089720	-64.179654	-56.192521	127.014080	-56.192521	127.014080	-0.096055	-68.339833
4.200000	-0.091121	-64.898917	-55.895372	125.497867	-55.895372	125.497867	-0.097549	-69.102294
4.250000	-0.092535	-65.617134	-55.604481	123.980949	-55.604481	123.980949	-0.099055	-69.863604
4.300000	-0.093971	-66.333516	-55.316984	122.463273	-55.316984	122.463273	-0.100584	-70.622907
4.350000	-0.095422	-67.048588	-55.034527	120.945056	-55.034527	120.945056	-0.102128	-71.380775
4.400000	-0.096894	-67.762088	-54.756129	119.426544	-54.756129	119.426544	-0.103693	-72.136928
4.450000	-0.098385	-68.474016	-54.481691	117.907736	-54.481691	117.907736	-0.105278	-72.891365
4.500000	-0.099894	-69.184634	-54.211879	116.388935	-54.211879	116.388935	-0.106880	-73.644380
4.550000	-0.101427	-69.893419	-53.945065	114.870145	-53.945065	114.870145	-0.108507	-74.395402
4.600000	-0.102974	-70.601159	-53.683364	113.351533	-53.683364	113.351533	-0.110149	-75.145293
4.650000	-0.104550	-71.306807	-53.423803	111.833278	-53.423803	111.833278	-0.111821	-75.892919
4.700000	-0.106137	-72.011674	-53.169769	110.315264	-53.169769	110.315264	-0.113505	-76.639703
4.750000	-0.107758	-72.714196	-52.917110	108.797974	-52.917110	108.797974	-0.115223	-77.383956
4.800000	-0.109386	-73.416198	-52.670332	107.280905	-52.670332	107.280905	-0.116950	-78.127652
4.850000	-0.111054	-74.115605	-52.424242	105.764934	-52.424242	105.764934	-0.118717	-78.868558
4.900000	-0.112726	-74.814753	-52.184338	104.249097	-52.184338	104.249097	-0.120489	-79.609188
4.950000	-0.114441	-75.511061	-51.944505	102.734727	-51.944505	102.734727	-0.122307	-80.346777
5.000000	-0.116157	-76.207368	-51.711118	101.220357	-51.711118	101.220357	-0.124126	-81.084366
5.050000	-0.117923	-76.900595	-51.477249	99.707804	-51.477249	99.707804	-0.125998	-81.818670
5.100000	-0.119689	-77.593822	-51.249513	98.195251	-51.249513	98.195251	-0.127870	-82.552975
5.150000	-0.121502	-78.284245	-51.021868	96.684511	-51.021868	96.684511	-0.129793	-83.284301
5.200000	-0.123320	-78.974414	-50.799530	95.173935	-50.799530	95.173935	-0.131721	-84.015356
5.250000	-0.125183	-79.662053	-50.577797	93.665100	-50.577797	93.665100	-0.133696	-84.743736
5.300000	-0.127054	-80.349187	-50.360620	92.156612	-50.360620	92.156612	-0.135682	-85.471582
5.350000	-0.128967	-81.034067	-50.144511	90.649743	-50.144511	90.649743	-0.137712	-86.197052
5.400000	-0.130894	-81.718194	-49.932273	89.143413	-49.932273	89.143413	-0.139757	-86.921731
5.450000	-0.132858	-82.400338	-49.721523	87.638544	-49.721523	87.638544	-0.141844	-87.644328
5.500000	-0.134842	-83.081489	-49.514019	86.134406	-49.514019	86.134406	-0.143951	-88.365885
5.550000	-0.136860	-83.760924	-49.308382	84.631551	-49.308382	84.631551	-0.146095	-89.085649
5.600000	-0.138903	-84.439133	-49.105424	83.129613	-49.105424	83.129613	-0.148266	-89.804133
5.650000	-0.140976	-85.115888	-48.904673	81.628770	-48.904673	81.628770	-0.150471	-90.521106
5.700000	-0.143079	-85.791189	-48.706086	80.129022	-48.706086	80.129022	-0.152708	-91.236569
5.750000	-0.145208	-86.465296	-48.510014	78.630176	-48.510014	78.630176	-0.154973	-91.950796
5.800000	-0.147373	-87.137728	-48.315638	77.132595	-48.315638	77.132595	-0.157278	-92.663293
5.850000	-0.149560	-87.809219	-48.124056	75.635728	-48.124056	75.635728	-0.159606	-93.374821
5.900000	-0.151790	-88.478824	-47.933747	74.140287	-47.933747	74.140287	-0.161981	-94.084411
5.950000	-0.154036	-89.147733	-47.746478	72.645375	-47.746478	72.645375	-0.164374	-94.793290
6.000000	-0.156331	-89.814554	-47.560105	71.152051	-47.560105	71.152051	-0.166820	-95.500034
6.050000	-0.158638	-90.480918	-47.376991	69.659077	-47.376991	69.659077	-0.169278	-96.206316
6.100000	-0.161001	-91.145000	-47.194437	68.167855	-47.194437	68.167855	-0.171797	-96.910280
6.150000	-0.163370	-91.808859	-47.015331	66.676809	-47.015331	66.676809	-0.174323	-97.614018
6.200000	-0.165802	-92.470251	-46.836493	65.187691	-46.836493	65.187691	-0.176917	-98.315271
6.250000	-0.168234	-93.131643	-46.661263	63.698573	-46.661263	63.698573	-0.179512	-99.016524
6.300000	-0.170737	-93.790395	-46.486047	62.211583	-46.486047	62.211583	-0.182181	-99.715138
6.350000	-0.173241	-94.449147	-46.314296	60.724594	-46.314296	60.724594	-0.184852	-100.413752
6.400000	-0.175811	-95.105528	-46.142898	59.239603	-46.142898	59.239603	-0.187593	-101.110017
6.450000	-0.178387	-95.761692	-45.974552	57.754794	-45.974552	57.754794	-0.190341	-101.806068
6.500000	-0.181025	-96.415747	-45.806867	56.271873	-45.806867	56.271873	-0.193155	-102.500050
6.550000	-0.183676	-97.069379	-45.641860	54.789330	-45.641860	54.789330	-0.195982	-103.193618
6.600000	-0.186384	-97.721154	-45.477792	53.308580	-45.477792	53.308580	-0.198869	-103.885386
6.650000	-0.189111	-98.372311	-45.316068	51.828427	-45.316068	51.828427	-0.201776	-104.576555
6.700000	-0.191890	-99.021856	-45.155532	50.349979	-45.155532	50.349979	-0.204737	-105.266184
6.750000	-0.194696	-99.670595	-44.997042	48.872384	-44.997042	48.872384	-0.207725	-105.955042
6.800000	-0.197547	-100.317960	-44.839960	47.396404	-44.839960	47.396404	-0.210762	-106.642605
6.850000	-0.200433	-100.964343	-44.684662	45.921578	-44.684662	45.921578	-0.213832	-107.329245
6.900000	-0.203358	-101.609579	-44.530962	44.448267	-44.530962	44.448267	-0.216945	-108.014824
6.950000	-0.206325	-102.253669	-44.378822	42.976473	-44.378822	42.976473	-0.220099	-108.699341
7.000000	-0.209326	-102.896829	-44.228437	41.506072	-44.228437	41.506072	-0.223288	-109.383018
7.050000	-0.212376	-103.538689	-44.079423	40.037623	-44.079423	40.037623	-0.226526	-110.065516
7.100000	-0.215454	-104.179829	-43.932293	38.570410	-43.932293	38.570410	-0.229793	-110.747376
7.150000	-0.218589	-104.819526	-43.786378	37.105671	-43.786378	37.105671	-0.233116	-111.427961
7.200000	-0.221745	-105.458699	-43.642446	35.641965	-43.642446	35.641965	-0.236462	-112.108096
7.250000	-0.224966	-106.096302	-43.499603	34.181356	-43.499603	34.181356	-0.239871	-112.786880
7.300000	-0.228203	-106.733567	-43.358816	32.721515	-43.358816	32.721515	-0.243296	-113.465384
7.350000	-0.231512	-107.369144	-43.219021	31.265510	-43.219021	31.265510	-0.246792	-114.142484
7.400000	-0.234830	-108.004558	-43.081327	29.809931	-43.081327	29.809931	-0.250296	-114.819454
7.450000	-0.238229	-108.638182	-42.944555	28.359053	-42.944555	28.359053	-0.253880	-115.494995
7.500000	-0.241629	-109.271805	-42.809903	26.908175	-42.809903	26.908175	-0.257465	-116.170535
7.550000	-0.245119	-109.903548	-42.676128	25.462999	-42.676128	25.462999	-0.261136	-116.844645
7.600000	-0.248611	-110.535291	-42.544381	24.017823	-42.544381	24.017823	-0.264810	-117.518754
7.650000	-0.252187	-111.165379	-42.413660	22.578445	-42.413660	22.578445	-0.268564	-118.191677
7.700000	-0.255772	-111.795316	-42.284792	21.139593	-42.284792	21.139593	-0.272327	-118.864492
7.750000	-0.259434	-112.423811	-42.157068	19.706567	-42.157068	19.706567	-0.276164	-119.536347
7.800000	-0.263114	-113.052019	-42.031049	18.274705	-42.031049	18.274705	-0.280017	-120.208010
7.850000	-0.266865	-113.678987	-41.906264	16.848615	-41.906264	16.848615	-0.283938	-120.878921
7.900000	-0.270641	-114.305542	-41.783059	15.424448	-41.783059	15.424448	-0.287882	-121.549582
7.950000	-0.274481	-114.931049	-41.661151	14.005905	-41.661151	14.005905	-0.291888	-122.219680
8.000000	-0.278354	-115.556032	-41.540719	12.590172	-41.540719	12.590172	-0.295925	-122.889497
8.050000	-0.282285	-116.180144	-41.421622	11.179808	-41.421622	11.179808	-0.300016	-123.558918
8.100000	-0.286258	-116.803635	-41.303917	9.773278	-41.303917	9.773278	-0.304148	-124.228057
8.150000	-0.290280	-117.426422	-41.187564	8.371744	-41.187564	8.371744	-0.308327	-124.896943
8.200000	-0.294354	-118.048503	-41.072530	6.975207	-41.072530	6.975207	-0.312553	-125.565578
8.250000	-0.298470	-118.670032	-40.958848	5.583170	-40.958848	5.583170	-0.316821	-126.234078
8.300000	-0.302645	-119.290788	-40.846424	4.197433	-40.846424	4.197433	-0.321145	-126.902392
8.350000	-0.306855	-119.911131	-40.735336	2.815567	-40.735336	2.815567	-0.325503	-127.570664
8.400000	-0.311133	-120.530647	-40.625452	1.441446	-40.625452	1.441446	-0.329928	-128.238851
8.450000	-0.315439	-121.149874	-40.516877	0.070434	-40.516877	0.070434	-0.334378	-128.907056
8.500000	-0.319822	-121.768236	-40.409455	-1.291251	-40.409455	-1.291251	-0.338905	-129.575319
8.550000	-0.324224	-122.386421	-40.303308	-2.650728	-40.303308	-2.650728	-0.343450	-130.243630
8.600000	-0.328713	-123.003718	-40.198259	-3.999162	-40.198259	-3.999162	-0.348082	-130.912183
8.650000	-0.333213	-123.620933	-40.094449	-5.346425	-40.094449	-5.346425	-0.352725	-131.580780
8.700000	-0.337809	-124.237254	-39.991680	-6.680801	-39.991680	-6.680801	-0.357467	-132.249849
8.750000	-0.342407	-124.853576	-39.890112	-8.015177	-39.890112	-8.015177	-0.362210	-132.918919
8.800000	-0.347111	-125.469013	-39.789518	-9.334706	-39.789518	-9.334706	-0.367065	-133.588742
8.850000	-0.351818	-126.084449	-39.690075	-10.654234	-39.690075	-10.654234	-0.371922	-134.258566
8.900000	-0.356623	-126.699161	-39.591562	-11.959448	-39.591562	-11.959448	-0.376886	-134.929312
8.950000	-0.361439	-127.313806	-39.494136	-13.263360	-39.494136	-13.263360	-0.381862	-135.600141
9.000000	-0.366345	-127.927869	-39.397590	-14.553640	-39.397590	-14.553640	-0.386940	-136.272029
9.050000	-0.371271	-128.541817	-39.302066	-15.841194	-39.302066	-15.841194	-0.392040	-136.944129
9.100000	-0.376279	-129.155313	-39.207368	-17.115945	-39.207368	-17.115945	-0.397238	-137.617392
9.150000	-0.381317	-129.768659	-39.113621	-18.386429	-39.113621	-18.386429	-0.402470	-138.291042
9.200000	-0.386428	-130.381668	-39.020651	-19.645081	-39.020651	-19.645081	-0.407794	-138.965922
9.250000	-0.391577	-130.994508	-38.928553	-20.897817	-38.928553	-20.897817	-0.413165	-139.641417
9.300000	-0.396792	-131.607112	-38.837185	-22.139827	-38.837185	-22.139827	-0.418623	-140.318171
9.350000	-0.402054	-132.219547	-38.746601	-23.374176	-38.746601	-23.374176	-0.424143	-140.995824
9.400000	-0.407373	-132.831829	-38.656708	-24.599030	-38.656708	-24.599030	-0.429742	-141.674721
9.450000	-0.412749	-133.443958	-38.567496	-25.814390	-38.567496	-25.814390	-0.435422	-142.354860
9.500000	-0.418173	-134.056002	-38.478951	-27.021605	-38.478951	-27.021605	-0.441173	-143.036181
9.550000	-0.423663	-134.667927	-38.390967	-28.217416	-38.390967	-28.217416	-0.447025	-143.719156
9.600000	-0.429192	-135.279818	-38.303638	-29.406538	-38.303638	-29.406538	-0.452939	-144.403199
9.650000	-0.434796	-135.891643	-38.216731	-30.582280	-38.216731	-30.582280	-0.458976	-145.089378
9.700000	-0.440430	-136.503469	-38.130487	-31.752885	-38.130487	-31.752885	-0.465066	-145.776454
9.750000	-0.446149	-137.115298	-38.044505	-32.908080	-38.044505	-32.908080	-0.471305	-146.466226
9.800000	-0.451890	-137.727146	-37.959214	-34.059777	-37.959214	-34.059777	-0.477584	-147.156664
9.850000	-0.457724	-138.339087	-37.874001	-35.193984	-37.874001	-35.193984	-0.484044	-147.850440
9.900000	-0.463570	-138.951047	-37.789529	-36.326410	-37.789529	-36.326410	-0.490529	-148.544586
9.950000	-0.469519	-139.563208	-37.704928	-37.439230	-37.704928	-37.439230	-0.497231	-149.242801
10.000000	-0.475472	-140.175369	-37.621143	-38.552050	-37.621143	-38.552050	-0.503939	-149.941017
