! freq	dB(S11)	phase(S11)	dB(S12)	phase(S12)	
!     	dB(S21)	phase(S21)	dB(S22)	phase(S22)	
!S-par simulation data
#  GHz  S  DB  R 50
0.000000	-82.302548	0.000000	-0.000666	0.000000	-0.000666	0.000000	-82.302548	0.000000
0.050000	-49.235463	-85.365884	-0.005086	-2.598587	-0.005086	-2.598587	-49.238039	-85.339485
0.100000	-43.460961	-91.373004	-0.010775	-5.158227	-0.010775	-5.158227	-43.460556	-91.371503
0.150000	-39.994865	-95.282980	-0.014983	-7.706712	-0.014983	-7.706712	-39.993652	-95.286729
0.200000	-37.522120	-98.595086	-0.018666	-10.253110	-0.018666	-10.253110	-37.520571	-98.602014
0.250000	-35.602788	-101.631098	-0.022252	-12.798239	-0.022252	-12.798239	-35.601047	-101.640758
0.300000	-34.036768	-104.532525	-0.025875	-15.342108	-0.025875	-15.342108	-34.034884	-104.544875
0.350000	-32.715918	-107.356153	-0.029543	-17.884870	-0.029543	-17.884870	-32.713906	-107.371263
0.400000	-31.575476	-110.128010	-0.033243	-20.426749	-0.033243	-20.426749	-31.573339	-110.145996
0.450000	-30.574139	-112.861030	-0.036965	-22.967991	-0.036965	-22.967991	-30.571870	-112.882042
0.500000	-29.682714	-115.567540	-0.040704	-25.508924	-0.040704	-25.508924	-29.680306	-115.591725
0.550000	-28.880639	-118.253253	-0.044460	-28.049761	-0.044460	-28.049761	-28.878083	-118.280753
0.600000	-28.152896	-120.921722	-0.048238	-30.590672	-0.048238	-30.590672	-28.150183	-120.952681
0.650000	-27.488283	-123.575385	-0.052046	-33.131809	-0.052046	-33.131809	-27.485405	-123.609942
0.700000	-26.877301	-126.217433	-0.055889	-35.673255	-0.055889	-35.673255	-26.874253	-126.255706
0.750000	-26.312783	-128.849467	-0.059772	-38.215077	-0.059772	-38.215077	-26.309562	-128.891565
0.800000	-25.789270	-131.472436	-0.063702	-40.757351	-0.063702	-40.757351	-25.785873	-131.518459
0.850000	-25.301840	-134.087778	-0.067683	-43.300117	-0.067683	-43.300117	-25.298267	-134.137810
0.900000	-24.846416	-136.696602	-0.071717	-45.843409	-0.071717	-45.843409	-24.842670	-136.750714
0.950000	-24.419665	-139.299764	-0.075805	-48.387267	-0.075805	-48.387267	-24.415750	-139.358014
1.000000	-24.018710	-141.898067	-0.079950	-50.931731	-0.079950	-50.931731	-24.014631	-141.960499
1.050000	-23.641066	-144.492233	-0.084153	-53.476847	-0.084153	-53.476847	-23.636829	-144.558881
1.100000	-23.284570	-147.082921	-0.088413	-56.022660	-0.088413	-56.022660	-23.280182	-147.153807
1.150000	-22.947321	-149.670730	-0.092730	-58.569226	-0.092730	-58.569226	-22.942788	-149.745866
1.200000	-22.627636	-152.256209	-0.097104	-61.116603	-0.097104	-61.116603	-22.622965	-152.335600
1.250000	-22.324013	-154.839861	-0.101535	-63.664855	-0.101535	-63.664855	-22.319211	-154.923503
1.300000	-22.035197	-157.422122	-0.106024	-66.214075	-0.106024	-66.214075	-22.030269	-157.510007
1.350000	-21.759863	-160.003445	-0.110569	-68.764321	-0.110569	-68.764321	-21.754812	-160.095559
1.400000	-21.496897	-162.584200	-0.115169	-71.315675	-0.115169	-71.315675	-21.491728	-162.680529
1.450000	-21.245283	-165.164719	-0.119825	-73.868223	-0.119825	-73.868223	-21.239997	-165.265247
1.500000	-21.004084	-167.745293	-0.124538	-76.422058	-0.124538	-76.422058	-20.998681	-167.850007
1.550000	-20.772431	-170.326175	-0.129307	-78.977273	-0.129307	-78.977273	-20.766910	-170.435064
1.600000	-20.549513	-172.907583	-0.134134	-81.533970	-0.134134	-81.533970	-20.543874	-173.020640
1.650000	-20.334574	-175.489698	-0.139021	-84.092251	-0.139021	-84.092251	-20.328814	-175.606922
1.700000	-20.126900	-178.072669	-0.143969	-86.652222	-0.143969	-86.652222	-20.121015	-178.194065
1.750000	-19.925816	179.343383	-0.148981	-89.213992	-0.148981	-89.213992	-19.919802	179.217807
1.800000	-19.730680	176.758365	-0.154060	-91.777670	-0.154060	-91.777670	-19.724535	176.628594
1.850000	-19.540880	174.172206	-0.159209	-94.343370	-0.159209	-94.343370	-19.534602	174.038220
1.900000	-19.355836	171.584837	-0.164434	-96.911230	-0.164434	-96.911230	-19.349423	171.446617
1.950000	-19.174974	168.996216	-0.169739	-99.481368	-0.169739	-99.481368	-19.168424	168.853742
2.000000	-18.997746	166.406320	-0.175129	-102.053877	-0.175129	-102.053877	-18.991062	166.259575
2.050000	-18.823632	163.815114	-0.180610	-104.628872	-0.180610	-104.628872	-18.816817	163.664091
2.100000	-18.652135	161.222560	-0.186188	-107.206468	-0.186188	-107.206468	-18.645193	161.067259
2.150000	-18.482773	158.628609	-0.191872	-109.786779	-0.191872	-109.786779	-18.475711	158.469046
2.200000	-18.315086	156.033198	-0.197668	-112.369921	-0.197668	-112.369921	-18.307913	155.869406
2.250000	-18.148633	153.436246	-0.203586	-114.956004	-0.203586	-114.956004	-18.141359	153.268279
2.300000	-17.982995	150.837655	-0.209634	-117.545140	-0.209634	-117.545140	-17.975631	150.665590
2.350000	-17.817773	148.237301	-0.215823	-120.137439	-0.215823	-120.137439	-17.810330	148.061242
2.400000	-17.652592	145.635043	-0.222163	-122.733006	-0.222163	-122.733006	-17.645083	145.455118
2.450000	-17.487099	143.030717	-0.228664	-125.331946	-0.228664	-125.331946	-17.479536	142.847083
2.500000	-17.320970	140.424144	-0.235340	-127.934361	-0.235340	-127.934361	-17.313364	140.236982
2.550000	-17.153807	137.815071	-0.242207	-130.540428	-0.242207	-130.540428	-17.146169	137.624593
2.600000	-16.985422	135.203343	-0.249274	-133.150168	-0.249274	-133.150168	-16.977760	135.009779
2.650000	-16.815572	132.588754	-0.256555	-135.763670	-0.256555	-135.763670	-16.807895	132.392353
2.700000	-16.644046	129.971099	-0.264065	-138.381021	-0.264065	-138.381021	-16.636358	129.772124
2.750000	-16.470659	127.350182	-0.271818	-141.002304	-0.271818	-141.002304	-16.462964	127.148910
2.800000	-16.295259	124.725822	-0.279830	-143.627597	-0.279830	-143.627597	-16.287558	124.522536
2.850000	-16.117721	122.097854	-0.288118	-146.256972	-0.288118	-146.256972	-16.110015	121.892844
2.900000	-15.937952	119.466141	-0.296698	-148.890496	-0.296698	-148.890496	-15.930239	119.259697
2.950000	-15.755886	116.830571	-0.305589	-151.528231	-0.305589	-151.528231	-15.748163	116.622980
3.000000	-15.571483	114.191062	-0.314808	-154.170233	-0.314808	-154.170233	-15.563747	113.982608
3.050000	-15.384732	111.547565	-0.324374	-156.816551	-0.324374	-156.816551	-15.376980	111.338526
3.100000	-15.195646	108.900061	-0.334305	-159.467227	-0.334305	-159.467227	-15.187875	108.690709
3.150000	-15.004191	106.248523	-0.344628	-162.122344	-0.344628	-162.122344	-14.996397	106.039122
3.200000	-14.810425	103.592997	-0.355361	-164.781931	-0.355361	-164.781931	-14.802607	103.383805
3.250000	-14.614502	100.933601	-0.366522	-167.445959	-0.366522	-167.445959	-14.606658	100.724866
3.300000	-14.416520	98.270434	-0.378132	-170.114438	-0.378132	-170.114438	-14.408651	98.062396
3.350000	-14.216598	95.603617	-0.390212	-172.787370	-0.390212	-172.787370	-14.208706	95.396510
3.400000	-14.014870	92.933288	-0.402785	-175.464748	-0.402785	-175.464748	-14.006958	92.727344
3.450000	-13.811485	90.259602	-0.415873	-178.146554	-0.415873	-178.146554	-13.803558	90.055047
3.500000	-13.606604	87.582722	-0.429497	179.167240	-0.429497	179.167240	-13.598668	87.379780
3.550000	-13.400400	84.902820	-0.443681	176.476672	-0.443681	176.476672	-13.392463	84.701713
3.600000	-13.193056	82.220069	-0.458446	173.781793	-0.458446	173.781793	-13.185126	82.021022
3.650000	-12.984764	79.534647	-0.473816	171.082662	-0.473816	171.082662	-12.976852	79.337883
3.700000	-12.775723	76.846729	-0.489811	168.379354	-0.489811	168.379354	-12.767839	76.652473
3.750000	-12.566140	74.156486	-0.506456	165.671954	-0.506456	165.671954	-12.558294	73.964964
3.800000	-12.356112	71.464041	-0.523784	162.960477	-0.523784	162.960477	-12.348317	71.275488
3.850000	-12.145979	68.769607	-0.541803	160.245124	-0.541803	160.245124	-12.138246	68.584253
3.900000	-11.935960	66.073338	-0.560533	157.526021	-0.560533	157.526021	-11.928300	65.891416
3.950000	-11.726278	63.375383	-0.579994	154.803308	-0.579994	154.803308	-11.718701	63.197127
4.000000	-11.517157	60.675885	-0.600203	152.077139	-0.600203	152.077139	-11.509672	60.501530
4.050000	-11.308822	57.974983	-0.621177	149.347680	-0.621177	149.347680	-11.301438	57.804765
4.100000	-11.101497	55.272811	-0.642930	146.615113	-0.642930	146.615113	-11.094223	55.106966
4.150000	-10.895407	52.569502	-0.665476	143.879633	-0.665476	143.879633	-10.888249	52.408264
4.200000	-10.690775	49.865186	-0.688826	141.141447	-0.688826	141.141447	-10.683737	49.708790
4.250000	-10.487822	47.159996	-0.712989	138.400776	-0.712989	138.400776	-10.480908	47.008672
4.300000	-10.286765	44.454063	-0.737971	135.657854	-0.737971	135.657854	-10.279978	44.308041
4.350000	-10.087819	41.747526	-0.763774	132.912927	-0.763774	132.912927	-10.081160	41.607031
4.400000	-9.891176	39.040521	-0.790408	130.166233	-0.790408	130.166233	-9.884644	38.905779
4.450000	-9.697054	36.333203	-0.817869	127.418047	-0.817869	127.418047	-9.690647	36.204433
4.500000	-9.505679	33.625729	-0.846141	124.668664	-0.846141	124.668664	-9.499394	33.503145
4.550000	-9.317247	30.918261	-0.875214	121.918365	-0.875214	121.918365	-9.311081	30.802074
4.600000	-9.131952	28.210970	-0.905071	119.167436	-0.905071	119.167436	-9.125898	28.101385
4.650000	-8.949979	25.504032	-0.935694	116.416167	-0.935694	116.416167	-8.944032	25.401250
4.700000	-8.771508	22.797631	-0.967055	113.664850	-0.967055	113.664850	-8.765659	22.701852
4.750000	-8.596710	20.091956	-0.999126	110.913776	-0.999126	110.913776	-8.590954	20.003376
4.800000	-8.425754	17.387203	-1.031872	108.163230	-1.031872	108.163230	-8.420081	17.306016
4.850000	-8.258799	14.683568	-1.065250	105.413492	-1.065250	105.413492	-8.253201	14.609970
4.900000	-8.095997	11.981251	-1.099214	102.664835	-1.099214	102.664835	-8.090465	11.915435
4.950000	-7.937495	9.280448	-1.133710	99.917517	-1.133710	99.917517	-7.932020	9.222612
5.000000	-7.783431	6.581351	-1.168681	97.171780	-1.168681	97.171780	-7.778004	6.531696
5.050000	-7.633986	3.884189	-1.204063	94.427891	-1.204063	94.427891	-7.628599	3.842925
5.100000	-7.489252	1.189096	-1.239777	91.686016	-1.239777	91.686016	-7.483895	1.156438
5.150000	-7.349347	-1.503774	-1.275744	88.946326	-1.275744	88.946326	-7.344012	-1.527601
5.200000	-7.214385	-4.194288	-1.311878	86.208960	-1.311878	86.208960	-7.209065	-4.209046
5.250000	-7.084477	-6.882336	-1.348086	83.474023	-1.348086	83.474023	-7.079163	-6.887774
5.300000	-6.959726	-9.567840	-1.384269	80.741579	-1.384269	80.741579	-6.954412	-9.563688
5.350000	-6.840234	-12.250757	-1.420320	78.011646	-1.420320	78.011646	-6.834913	-12.236724
5.400000	-6.726100	-14.931085	-1.456127	75.284197	-1.456127	75.284197	-6.720765	-14.906856
5.450000	-6.617422	-17.608866	-1.491571	72.559145	-1.491571	72.559145	-6.612067	-17.574099
5.500000	-6.514296	-20.284194	-1.526526	69.836348	-1.526526	69.836348	-6.508916	-20.238517
5.550000	-6.416821	-22.957220	-1.560858	67.115599	-1.560858	67.115599	-6.411409	-22.900224
5.600000	-6.325099	-25.628156	-1.594431	64.396619	-1.594431	64.396619	-6.319650	-25.559397
5.650000	-6.239291	-28.297267	-1.627086	61.679065	-1.627086	61.679065	-6.233798	-28.216249
5.700000	-6.159517	-30.964922	-1.658668	58.962486	-1.658668	58.962486	-6.153975	-30.871102
5.750000	-6.085845	-33.631582	-1.689031	56.246336	-1.689031	56.246336	-6.080247	-33.524365
5.800000	-6.018407	-36.297771	-1.718015	53.529992	-1.718015	53.529992	-6.012746	-36.176505
5.850000	-5.957350	-38.964108	-1.745453	50.812730	-1.745453	50.812730	-5.951617	-38.828075
5.900000	-5.902836	-41.631310	-1.771172	48.093714	-1.771172	48.093714	-5.897022	-41.479717
5.950000	-5.855050	-44.300197	-1.794998	45.371993	-1.794998	45.371993	-5.849145	-44.132172
6.000000	-5.814200	-46.971705	-1.816749	42.646489	-1.816749	42.646489	-5.808193	-46.786283
6.050000	-5.780526	-49.646887	-1.836243	39.915988	-1.836243	39.915988	-5.774402	-49.443001
6.100000	-5.754300	-52.326922	-1.853292	37.179130	-1.853292	37.179130	-5.748042	-52.103392
6.150000	-5.735834	-55.013126	-1.867707	34.434398	-1.867707	34.434398	-5.729425	-54.768643
6.200000	-5.725490	-57.706957	-1.879296	31.680104	-1.879296	31.680104	-5.718907	-57.440067
6.250000	-5.723685	-60.410029	-1.887866	28.914373	-1.887866	28.914373	-5.716901	-60.119110
6.300000	-5.731108	-63.124398	-1.893149	26.134783	-1.893149	26.134783	-5.724094	-62.807598
6.350000	-5.748139	-65.851826	-1.895017	23.339271	-1.895017	23.339271	-5.740859	-65.507108
6.400000	-5.775433	-68.594457	-1.893280	20.525283	-1.893280	20.525283	-5.767846	-68.219530
6.450000	-5.813754	-71.354628	-1.887749	17.689999	-1.887749	17.689999	-5.805812	-70.946909
6.500000	-5.863995	-74.134885	-1.878241	14.830308	-1.878241	14.830308	-5.855641	-73.691445
6.550000	-5.927203	-76.937985	-1.864581	11.942779	-1.864581	11.942779	-5.918370	-76.455491
6.600000	-6.004611	-79.766910	-1.846606	9.023622	-1.846606	9.023622	-5.995219	-79.241546
6.650000	-6.097671	-82.624865	-1.824165	6.068660	-1.824165	6.068660	-6.087625	-82.052240
6.700000	-6.207699	-85.514440	-1.797239	3.074336	-1.797239	3.074336	-6.196886	-84.889609
6.750000	-6.337740	-88.441297	-1.765450	0.033017	-1.765450	0.033017	-6.326018	-87.758141
6.800000	-6.489721	-91.408162	-1.728883	-3.059570	-1.728883	-3.059570	-6.476917	-90.659689
6.850000	-6.666626	-94.418992	-1.687510	-6.209659	-1.687510	-6.209659	-6.652526	-93.596909
6.900000	-6.872083	-97.477778	-1.641355	-9.424137	-1.641355	-9.424137	-6.856418	-96.572152
6.950000	-7.110541	-100.588393	-1.590510	-12.710604	-1.590510	-12.710604	-7.092967	-99.587195
7.000000	-7.387507	-103.754335	-1.535157	-16.077442	-1.535157	-16.077442	-7.367574	-102.642818
7.050000	-7.709878	-106.978324	-1.475587	-19.533870	-1.475587	-19.533870	-7.686990	-105.738152
7.100000	-8.086626	-110.261920	-1.412212	-23.090543	-1.412212	-23.090543	-8.059969	-108.869780
7.150000	-8.529399	-113.604033	-1.345632	-26.759300	-1.345632	-26.759300	-8.497825	-112.029615
7.200000	-9.052695	-116.998128	-1.276721	-30.551233	-1.276721	-30.551233	-9.014551	-115.201731
7.250000	-9.676517	-120.430328	-1.206580	-34.479321	-1.206580	-34.479321	-9.629321	-118.358139
7.300000	-10.428533	-123.872629	-1.136644	-38.557370	-1.136644	-38.557370	-10.368369	-121.449306
7.350000	-11.348420	-127.270771	-1.068747	-42.799825	-1.068747	-42.799825	-11.268734	-124.386579
7.400000	-12.494882	-130.521233	-1.005154	-47.220035	-1.005154	-47.220035	-12.383916	-127.010345
7.450000	-13.965464	-133.399911	-0.948854	-51.836072	-0.948854	-51.836072	-13.799470	-128.987464
7.500000	-15.924839	-135.405304	-0.903329	-56.659667	-0.903329	-56.659667	-15.649206	-129.614633
7.550000	-18.696046	-135.119997	-0.872955	-61.704272	-0.872955	-61.704272	-18.154980	-127.063701
7.600000	-22.953759	-127.236187	-0.862647	-66.976915	-0.862647	-66.976915	-21.563668	-115.839405
7.650000	-28.299731	-84.795036	-0.878114	-72.481359	-0.878114	-72.481359	-24.558524	-81.629389
7.700000	-23.990308	-27.022452	-0.925687	-78.214865	-0.925687	-78.214865	-22.132162	-40.409183
7.750000	-18.577439	-15.010713	-1.012385	-84.167662	-1.012385	-84.167662	-17.930525	-25.207985
7.800000	-14.932775	-14.611568	-1.144919	-90.317753	-1.144919	-90.317753	-14.631366	-22.154609
7.850000	-12.269821	-17.664263	-1.329740	-96.633650	-1.329740	-96.633650	-12.100034	-23.614234
7.900000	-10.203993	-22.188072	-1.572525	-103.074120	-1.572525	-103.074120	-10.096444	-27.121810
7.950000	-8.545862	-27.467748	-1.877894	-109.589672	-1.877894	-109.589672	-8.472223	-31.708126
8.000000	-7.189958	-33.157636	-2.248353	-116.124552	-2.248353	-116.124552	-7.136714	-36.897918
8.050000	-6.070503	-39.058157	-2.684531	-122.622051	-2.684531	-122.622051	-6.030429	-42.422325
8.100000	-5.142619	-45.037615	-3.185387	-129.028265	-3.185387	-129.028265	-5.111511	-48.109835
8.150000	-4.373391	-51.002260	-3.748434	-135.294846	-3.748434	-135.294846	-4.348641	-53.842321
8.200000	-3.736673	-56.884528	-4.369930	-141.382499	-4.369930	-141.382499	-3.716578	-59.536228
8.250000	-3.210734	-62.638227	-5.045658	-147.262921	-5.045658	-147.262921	-3.194142	-65.134530
8.300000	-2.777603	-68.233505	-5.771559	-152.917106	-5.771559	-152.917106	-2.763703	-70.599952
8.350000	-2.422280	-73.653078	-6.543992	-158.333869	-6.543992	-158.333869	-2.410485	-75.909930
8.400000	-2.132000	-78.890061	-7.360070	-163.509018	-7.360070	-163.509018	-2.121877	-81.053653
8.450000	-1.895509	-83.947507	-8.218516	-168.445993	-8.218516	-168.445993	-1.886734	-86.031081
8.500000	-1.703755	-88.832721	-9.119354	-173.149323	-9.119354	-173.149323	-1.696079	-90.847253
8.550000	-1.549206	-93.556742	-10.064252	-177.624318	-10.064252	-177.624318	-1.542436	-95.511435
8.600000	-1.425630	-98.132958	-11.056778	178.124933	-11.056778	178.124933	-1.419611	-100.035600
8.650000	-1.327892	-102.576059	-12.102757	174.097740	-12.102757	174.097740	-1.322501	-104.433304
8.700000	-1.251783	-106.901309	-13.210798	170.299481	-13.210798	170.299481	-1.246916	-108.718879
8.750000	-1.193859	-111.124044	-14.393125	166.745372	-14.393125	166.745372	-1.189429	-112.906893
8.800000	-1.151500	-115.258325	-15.665627	163.471296	-15.665627	163.471296	-1.147431	-117.010817
8.850000	-1.122192	-119.320315	-17.053597	160.532910	-17.053597	160.532910	-1.118416	-121.046197
8.900000	-1.104235	-123.323639	-18.590447	158.045847	-18.590447	158.045847	-1.100686	-125.026227
8.950000	-1.095876	-127.283388	-20.330542	156.194197	-20.330542	156.194197	-1.092493	-128.965500
9.000000	-1.096097	-131.212020	-22.351839	155.371223	-22.351839	155.371223	-1.092817	-132.876154
9.050000	-1.104000	-135.122356	-24.779181	156.406971	-24.779181	156.406971	-1.100757	-136.770676
9.100000	-1.119071	-139.027161	-27.786306	161.541270	-27.786306	161.541270	-1.115793	-140.661563
9.150000	-1.140695	-142.939534	-31.409757	176.859005	-31.409757	176.859005	-1.137302	-144.561575
9.200000	-1.168518	-146.872102	-33.843993	-148.022558	-33.843993	-148.022558	-1.164923	-148.483030
9.250000	-1.202424	-150.837707	-31.831378	-112.261650	-31.831378	-112.261650	-1.198525	-152.438468
9.300000	-1.242468	-154.849650	-28.477362	-96.448928	-28.477362	-96.448928	-1.238150	-156.440870
9.350000	-1.288901	-158.921933	-25.719594	-91.251458	-25.719594	-91.251458	-1.284028	-160.503886
9.400000	-1.342320	-163.071120	-23.542689	-90.425426	-23.542689	-90.425426	-1.336731	-164.643667
9.450000	-1.403514	-167.314389	-21.765169	-91.673784	-21.765169	-91.673784	-1.397015	-168.876894
9.500000	-1.473495	-171.668677	-20.258296	-94.096333	-20.258296	-94.096333	-1.465857	-173.219921
9.550000	-1.553866	-176.154562	-18.937886	-97.315629	-18.937886	-97.315629	-1.544810	-177.692603
9.600000	-1.646893	179.204384	-17.747214	-101.153230	-17.747214	-101.153230	-1.636071	177.682410
9.650000	-1.755776	174.380943	-16.645875	-105.530409	-16.645875	-105.530409	-1.742745	172.879099
9.700000	-1.885537	169.338493	-15.601844	-110.437912	-15.601844	-110.437912	-1.869707	167.862565
9.750000	-2.042703	164.042219	-14.591817	-115.889257	-14.591817	-115.889257	-2.023283	162.600091
9.800000	-2.237529	158.446264	-13.595008	-121.945462	-13.595008	-121.945462	-2.213397	157.048850
9.850000	-2.486523	152.493571	-12.591864	-128.715314	-12.591864	-128.715314	-2.455984	151.156272
9.900000	-2.813367	146.138387	-11.570021	-136.327889	-11.570021	-136.327889	-2.773805	144.882223
9.950000	-3.256033	139.346905	-10.520543	-144.971496	-10.520543	-144.971496	-3.203167	138.200643
10.000000	-3.879884	132.136573	-9.439077	-154.932219	-9.439077	-154.932219	-3.806136	131.139791
