! freq	dB(S11)	phase(S11)	dB(S12)	phase(S12)	
!     	dB(S21)	phase(S21)	dB(S22)	phase(S22)	
!S-par simulation data
#  GHz  S  DB  R 50
0.000000	-0.000000	0.000000	-367.067185	0.000000	-367.067185	0.000000	-0.000000	0.000000
0.050000	-0.000263	-0.768247	-98.006724	-2.398925	-98.006724	-2.398925	-0.000272	-0.768399
0.100000	-0.000988	-1.535125	-97.926381	4.560350	-97.926381	4.560350	-0.001018	-1.535348
0.150000	-0.002023	-2.299813	-97.857355	9.295663	-97.857355	9.295663	-0.002076	-2.300009
0.200000	-0.003207	-3.062183	-97.780502	13.316744	-97.780502	13.316744	-0.003275	-3.062281
0.250000	-0.004424	-3.822383	-97.702586	16.876933	-97.702586	16.876933	-0.004498	-3.822359
0.300000	-0.005606	-4.581042	-97.634473	20.102277	-97.634473	20.102277	-0.005677	-4.580904
0.350000	-0.006729	-5.338462	-97.587710	23.016450	-97.587710	23.016450	-0.006793	-5.338236
0.400000	-0.007790	-6.094953	-97.574668	25.653291	-97.574668	25.653291	-0.007844	-6.094666
0.450000	-0.008784	-6.850530	-97.630642	27.983931	-97.630642	27.983931	-0.008828	-6.850215
0.500000	-0.009755	-7.605780	-97.716177	30.202315	-97.716177	30.202315	-0.009788	-7.605449
0.550000	-0.010694	-8.360409	-97.899425	32.267544	-97.899425	32.267544	-0.010718	-8.360079
0.600000	-0.011610	-9.114595	-98.158005	34.223376	-98.158005	34.223376	-0.011627	-9.114276
0.650000	-0.012519	-9.868269	-98.541658	36.227789	-98.541658	36.227789	-0.012529	-9.867968
0.700000	-0.013420	-10.621431	-99.067440	38.280783	-99.067440	38.280783	-0.013424	-10.621154
0.750000	-0.014323	-11.374135	-99.759492	40.718718	-99.759492	40.718718	-0.014323	-11.373883
0.800000	-0.015228	-12.126197	-100.717562	43.695572	-100.717562	43.695572	-0.015226	-12.125971
0.850000	-0.016139	-12.877855	-101.923399	48.001484	-101.923399	48.001484	-0.016133	-12.877654
0.900000	-0.017058	-13.628705	-103.634550	54.965516	-103.634550	54.965516	-0.017051	-13.628528
0.950000	-0.017981	-14.379224	-105.610562	66.972970	-105.610562	66.972970	-0.017973	-14.379069
1.000000	-0.018916	-15.128749	-107.567184	94.110689	-107.567184	94.110689	-0.018908	-15.128614
1.050000	-0.019854	-15.878035	-108.884319	121.360223	-108.884319	121.360223	-0.019846	-15.877921
1.100000	-0.020804	-16.626131	-105.434205	149.168827	-105.434205	149.168827	-0.020796	-16.626032
1.150000	-0.021755	-17.374101	-102.810479	175.211603	-102.810479	175.211603	-0.021748	-17.374017
1.200000	-0.022717	-18.120675	-99.506990	-178.169729	-99.506990	-178.169729	-0.022710	-18.120603
1.250000	-0.023679	-18.867250	-97.119476	-171.551061	-97.119476	-171.551061	-0.023673	-18.867190
1.300000	-0.024648	-19.612631	-94.907015	-168.967860	-94.907015	-168.967860	-0.024642	-19.612580
1.350000	-0.025620	-20.357225	-92.982313	-167.424877	-92.982313	-167.424877	-0.025615	-20.357182
1.400000	-0.026594	-21.101015	-91.272888	-166.534823	-91.272888	-166.534823	-0.026591	-21.100978
1.450000	-0.027571	-21.843986	-89.730096	-166.083668	-89.730096	-166.083668	-0.027568	-21.843954
1.500000	-0.028549	-22.586122	-88.320121	-165.944253	-88.320121	-165.944253	-0.028546	-22.586095
1.550000	-0.029527	-23.327409	-87.018640	-166.036334	-87.018640	-166.036334	-0.029526	-23.327384
1.600000	-0.030506	-24.067832	-85.807623	-166.306660	-85.807623	-166.306660	-0.030505	-24.067809
1.650000	-0.031485	-24.807376	-84.673350	-166.718382	-84.673350	-166.718382	-0.031485	-24.807355
1.700000	-0.032463	-25.545713	-83.581764	-167.276047	-83.581764	-167.276047	-0.032463	-25.545693
1.750000	-0.033441	-26.283579	-82.581491	-167.886553	-82.581491	-167.886553	-0.033442	-26.283560
1.800000	-0.034418	-27.020321	-81.617392	-168.589535	-81.617392	-168.589535	-0.034419	-27.020302
1.850000	-0.035394	-27.756260	-80.706521	-169.358570	-80.706521	-169.358570	-0.035396	-27.756241
1.900000	-0.036370	-28.491206	-79.832819	-170.186403	-79.832819	-170.186403	-0.036372	-28.491187
1.950000	-0.037345	-29.225161	-78.994227	-171.073031	-78.994227	-171.073031	-0.037347	-29.225141
2.000000	-0.038319	-29.958265	-78.193813	-171.997692	-78.193813	-171.997692	-0.038322	-29.958245
2.050000	-0.039293	-30.690179	-77.415248	-172.975600	-77.415248	-172.975600	-0.039295	-30.690159
2.100000	-0.040266	-31.421396	-76.675703	-173.977938	-76.675703	-173.977938	-0.040269	-31.421375
2.150000	-0.041239	-32.151215	-75.948063	-175.029139	-75.948063	-175.029139	-0.041242	-32.151194
2.200000	-0.042212	-32.880498	-75.260060	-176.095438	-75.260060	-176.095438	-0.042215	-32.880476
2.250000	-0.043186	-33.608168	-74.576370	-177.207033	-74.576370	-177.207033	-0.043188	-33.608146
2.300000	-0.044160	-34.335472	-73.932705	-178.327091	-73.932705	-178.327091	-0.044162	-34.335449
2.350000	-0.045135	-35.060940	-73.287483	-179.489466	-73.287483	-179.489466	-0.045138	-35.060918
2.400000	-0.046111	-35.786221	-72.682463	179.344544	-72.682463	179.344544	-0.046114	-35.786198
2.450000	-0.047090	-36.509434	-72.071309	178.138785	-72.071309	178.138785	-0.047093	-36.509412
2.500000	-0.048070	-37.232648	-71.500345	176.933026	-71.500345	176.933026	-0.048072	-37.232626
2.550000	-0.049054	-37.953555	-70.919664	175.689728	-70.919664	175.689728	-0.049057	-37.953533
2.600000	-0.050039	-38.674462	-70.375382	174.446430	-70.375382	174.446430	-0.050041	-38.674441
2.650000	-0.051030	-39.393209	-69.825805	173.173051	-69.825805	173.173051	-0.051033	-39.393188
2.700000	-0.052022	-40.111760	-69.305745	171.896937	-69.305745	171.896937	-0.052024	-40.111740
2.750000	-0.053022	-40.828305	-68.784100	170.596725	-68.784100	170.596725	-0.053024	-40.828286
2.800000	-0.054023	-41.544450	-68.286176	169.291692	-68.286176	169.291692	-0.054025	-41.544432
2.850000	-0.055032	-42.258755	-67.789787	167.967424	-67.789787	167.967424	-0.055034	-42.258738
2.900000	-0.056045	-42.972446	-67.312212	166.636745	-67.312212	166.636745	-0.056046	-42.972431
2.950000	-0.057066	-43.684472	-66.838796	165.290830	-66.838796	165.290830	-0.057067	-43.684458
3.000000	-0.058091	-44.395665	-66.380027	163.937296	-66.380027	163.937296	-0.058092	-44.395652
3.050000	-0.059125	-45.105375	-65.927618	162.571842	-65.927618	162.571842	-0.059126	-45.105363
3.100000	-0.060165	-45.814025	-65.486305	161.197874	-65.486305	161.197874	-0.060166	-45.814015
3.150000	-0.061214	-46.521384	-65.053197	159.814750	-65.053197	159.814750	-0.061215	-46.521375
3.200000	-0.062272	-47.227450	-64.628155	158.422471	-64.628155	158.422471	-0.062272	-47.227443
3.250000	-0.063337	-47.932424	-64.212856	157.023350	-64.212856	157.023350	-0.063338	-47.932418
3.300000	-0.064413	-48.635867	-63.803033	155.614649	-63.803033	155.614649	-0.064414	-48.635864
3.350000	-0.065497	-49.338424	-63.404228	154.201041	-63.404228	154.201041	-0.065497	-49.338422
3.400000	-0.066594	-50.039207	-63.008688	152.777616	-63.008688	152.777616	-0.066594	-50.039207
3.450000	-0.067697	-50.739317	-62.625212	151.350897	-62.625212	151.350897	-0.067697	-50.739319
3.500000	-0.068816	-51.437406	-62.243112	149.914291	-62.243112	149.914291	-0.068817	-51.437410
3.550000	-0.069940	-52.135041	-61.873926	148.475723	-61.873926	148.475723	-0.069941	-52.135046
3.600000	-0.071085	-52.830404	-61.504505	147.027349	-61.504505	147.027349	-0.071085	-52.830411
3.650000	-0.072232	-53.525537	-61.148678	145.578102	-61.148678	145.578102	-0.072232	-53.525546
3.700000	-0.073402	-54.218145	-60.791244	144.119264	-60.791244	144.119264	-0.073403	-54.218156
3.750000	-0.074573	-54.910752	-60.447938	142.660425	-60.447938	142.660425	-0.074574	-54.910765
3.800000	-0.075772	-55.600579	-60.101857	141.192335	-60.101857	141.192335	-0.075773	-55.600594
3.850000	-0.076971	-56.290405	-59.769039	139.724245	-59.769039	139.724245	-0.076972	-56.290422
3.900000	-0.078197	-56.977660	-59.435005	138.248712	-59.435005	138.248712	-0.078198	-56.977679
3.950000	-0.079426	-57.664681	-59.112161	136.772503	-59.112161	136.772503	-0.079427	-57.664702
4.000000	-0.080681	-58.349348	-58.789459	135.290413	-58.789459	135.290413	-0.080682	-58.349371
4.050000	-0.081941	-59.033543	-58.476114	133.807146	-58.476114	133.807146	-0.081942	-59.033568
4.100000	-0.083226	-59.715606	-58.164090	132.319335	-58.164090	132.319335	-0.083227	-59.715633
4.150000	-0.084520	-60.396958	-57.859801	130.830010	-57.859801	130.830010	-0.084521	-60.396987
4.200000	-0.085836	-61.076405	-57.557853	129.337273	-57.557853	129.337273	-0.085837	-61.076436
4.250000	-0.087164	-61.754898	-57.262206	127.842830	-57.262206	127.842830	-0.087165	-61.754931
4.300000	-0.088514	-62.431717	-56.969782	126.345919	-56.969782	126.345919	-0.088515	-62.431752
4.350000	-0.089878	-63.107340	-56.682386	124.847246	-56.682386	124.847246	-0.089880	-63.107377
4.400000	-0.091262	-63.781523	-56.398975	123.346876	-56.398975	123.346876	-0.091263	-63.781562
4.450000	-0.092664	-64.454266	-56.119463	121.844810	-56.119463	121.844810	-0.092666	-64.454307
4.500000	-0.094083	-65.125806	-55.844588	120.341657	-55.844588	120.341657	-0.094085	-65.125850
4.550000	-0.095525	-65.795663	-55.572612	118.836985	-55.572612	118.836985	-0.095527	-65.795708
4.600000	-0.096981	-66.464556	-55.305832	117.331691	-55.305832	117.331691	-0.096983	-66.464604
4.650000	-0.098464	-67.131523	-55.041061	115.825154	-55.041061	115.825154	-0.098466	-67.131573
4.700000	-0.099958	-67.797767	-54.781964	114.318324	-54.781964	114.318324	-0.099959	-67.797819
4.750000	-0.101483	-68.461842	-54.524084	112.810615	-54.524084	112.810615	-0.101485	-68.461897
4.800000	-0.103016	-69.125436	-54.272284	111.302820	-54.272284	111.302820	-0.103018	-69.125493
4.850000	-0.104586	-69.786623	-54.020993	109.794588	-54.020993	109.794588	-0.104588	-69.786682
4.900000	-0.106159	-70.447569	-53.776128	108.286363	-53.776128	108.286363	-0.106161	-70.447631
4.950000	-0.107774	-71.105872	-53.531139	106.778211	-53.531139	106.778211	-0.107776	-71.105936
5.000000	-0.109389	-71.764174	-53.292871	105.270059	-53.292871	105.270059	-0.109391	-71.764241
5.050000	-0.111051	-72.419599	-53.053908	103.762542	-53.053908	103.762542	-0.111053	-72.419669
5.100000	-0.112713	-73.075025	-52.821344	102.255026	-52.821344	102.255026	-0.112715	-73.075097
5.150000	-0.114419	-73.727822	-52.588715	100.748562	-52.588715	100.748562	-0.114422	-73.727897
5.200000	-0.116130	-74.380380	-52.361612	99.242193	-52.361612	99.242193	-0.116132	-74.380458
5.250000	-0.117882	-75.030559	-52.135007	97.737168	-52.135007	97.737168	-0.117884	-75.030640
5.300000	-0.119642	-75.680262	-51.913132	96.232413	-51.913132	96.232413	-0.119644	-75.680346
5.350000	-0.121441	-76.327836	-51.692255	94.729183	-51.692255	94.729183	-0.121443	-76.327923
5.400000	-0.123252	-76.974700	-51.475383	93.226462	-51.475383	93.226462	-0.123255	-76.974790
5.450000	-0.125099	-77.619682	-51.259958	91.725347	-51.259958	91.725347	-0.125101	-77.619775
5.500000	-0.126963	-78.263723	-51.047874	90.225035	-51.047874	90.225035	-0.126965	-78.263820
5.550000	-0.128858	-78.906130	-50.837639	88.726322	-50.837639	88.726322	-0.128861	-78.906230
5.600000	-0.130777	-79.547369	-50.630135	87.228751	-50.630135	87.228751	-0.130780	-79.547473
5.650000	-0.132723	-80.187218	-50.424843	85.732694	-50.424843	85.732694	-0.132726	-80.187325
5.700000	-0.134697	-80.825677	-50.221721	84.238150	-50.221721	84.238150	-0.134700	-80.825788
5.750000	-0.136694	-81.462988	-50.021138	82.744969	-50.021138	82.744969	-0.136697	-81.463102
5.800000	-0.138725	-82.098691	-49.822207	81.253697	-49.822207	81.253697	-0.138728	-82.098810
5.850000	-0.140775	-82.733485	-49.626114	79.763581	-49.626114	79.763581	-0.140778	-82.733607
5.900000	-0.142864	-83.366460	-49.431191	78.275779	-49.431191	78.275779	-0.142868	-83.366586
5.950000	-0.144969	-83.998759	-49.239381	76.788885	-49.239381	76.788885	-0.144972	-83.998889
6.000000	-0.147117	-84.629033	-49.048293	75.304713	-49.048293	75.304713	-0.147121	-84.629168
6.050000	-0.149277	-85.258863	-48.860569	73.821165	-48.860569	73.821165	-0.149280	-85.259001
6.100000	-0.151487	-85.886468	-48.673150	72.340740	-48.673150	72.340740	-0.151490	-85.886611
6.150000	-0.153703	-86.513854	-48.489329	70.860634	-48.489329	70.860634	-0.153706	-86.514001
6.200000	-0.155975	-87.138823	-48.305423	69.384035	-48.305423	69.384035	-0.155979	-87.138975
6.250000	-0.158249	-87.763793	-48.125331	67.907435	-48.125331	67.907435	-0.158252	-87.763949
6.300000	-0.160585	-88.386161	-47.944790	66.434702	-47.944790	66.434702	-0.160589	-88.386322
6.350000	-0.162923	-89.008530	-47.767925	64.961968	-47.767925	64.961968	-0.162927	-89.008696
6.400000	-0.165320	-89.628548	-47.590948	63.492781	-47.590948	63.492781	-0.165324	-89.628719
6.450000	-0.167723	-90.248353	-47.417180	62.023916	-47.417180	62.023916	-0.167727	-90.248528
6.500000	-0.170181	-90.866053	-47.243614	60.558250	-47.243614	60.558250	-0.170186	-90.866233
6.550000	-0.172651	-91.483333	-47.072820	59.093224	-47.072820	59.093224	-0.172656	-91.483518
6.600000	-0.175172	-92.098749	-46.902525	57.631028	-46.902525	57.631028	-0.175177	-92.098939
6.650000	-0.177711	-92.713544	-46.734591	56.169775	-46.734591	56.169775	-0.177716	-92.713739
6.700000	-0.180296	-93.326710	-46.567435	54.710974	-46.567435	54.710974	-0.180301	-93.326911
6.750000	-0.182904	-93.939063	-46.402255	53.253400	-46.402255	53.253400	-0.182910	-93.939269
6.800000	-0.185555	-94.550017	-46.238117	51.797899	-46.238117	51.797899	-0.185560	-94.550228
6.850000	-0.188235	-95.159972	-46.075593	50.343879	-46.075593	50.343879	-0.188241	-95.160189
6.900000	-0.190951	-95.768750	-45.914362	48.891561	-45.914362	48.891561	-0.190957	-95.768972
6.950000	-0.193705	-96.376353	-45.754408	47.440944	-45.754408	47.440944	-0.193711	-96.376580
7.000000	-0.196489	-96.982994	-45.595981	45.991673	-45.595981	45.991673	-0.196496	-96.983227
7.050000	-0.199317	-97.588291	-45.438516	44.544285	-45.438516	44.544285	-0.199324	-97.588530
7.100000	-0.202170	-98.192836	-45.282801	43.097908	-45.282801	43.097908	-0.202177	-98.193081
7.150000	-0.205074	-98.795877	-45.127757	41.653552	-45.127757	41.653552	-0.205081	-98.796127
7.200000	-0.207998	-99.398366	-44.974669	40.209901	-44.974669	40.209901	-0.208005	-99.398622
7.250000	-0.210980	-99.999201	-44.821985	38.768362	-44.821985	38.768362	-0.210987	-99.999462
7.300000	-0.213975	-100.599676	-44.671449	37.327254	-44.671449	37.327254	-0.213983	-100.599943
7.350000	-0.217036	-101.198356	-44.521074	35.888300	-44.521074	35.888300	-0.217044	-101.198629
7.400000	-0.220105	-101.796860	-44.373024	34.449541	-44.373024	34.449541	-0.220113	-101.797139
7.450000	-0.223246	-102.393439	-44.224916	33.012928	-44.224916	33.012928	-0.223255	-102.393723
7.500000	-0.226390	-102.990017	-44.079292	31.576315	-44.079292	31.576315	-0.226399	-102.990307
7.550000	-0.229614	-103.584548	-43.933420	30.141789	-43.933420	30.141789	-0.229624	-103.584844
7.600000	-0.232840	-104.179079	-43.789958	28.707262	-43.789958	28.707262	-0.232849	-104.179381
7.650000	-0.236141	-104.771784	-43.646513	27.274409	-43.646513	27.274409	-0.236152	-104.772091
7.700000	-0.239451	-105.364323	-43.505193	25.841708	-43.505193	25.841708	-0.239462	-105.364636
7.750000	-0.242832	-105.955249	-43.364141	24.410309	-43.364141	24.410309	-0.242843	-105.955569
7.800000	-0.246228	-106.545853	-43.224951	22.979171	-43.224951	22.979171	-0.246239	-106.546179
7.850000	-0.249689	-107.135049	-43.086265	21.549007	-43.086265	21.549007	-0.249700	-107.135381
7.900000	-0.253173	-107.723776	-42.949204	20.119168	-42.949204	20.119168	-0.253184	-107.724113
7.950000	-0.256715	-108.311291	-42.812865	18.690024	-42.812865	18.690024	-0.256727	-108.311634
8.000000	-0.260288	-108.898199	-42.677940	17.261227	-42.677940	17.261227	-0.260301	-108.898548
8.050000	-0.263914	-109.484083	-42.543937	15.832893	-42.543937	15.832893	-0.263927	-109.484437
8.100000	-0.267579	-110.069233	-42.411165	14.404890	-42.411165	14.404890	-0.267592	-110.069594
8.150000	-0.271289	-110.653535	-42.279493	12.977167	-42.279493	12.977167	-0.271303	-110.653902
8.200000	-0.275047	-111.236989	-42.148900	11.549722	-42.148900	11.549722	-0.275060	-111.237361
8.250000	-0.278844	-111.819761	-42.019562	10.122420	-42.019562	10.122420	-0.278858	-111.820139
8.300000	-0.282696	-112.401580	-41.891183	8.695317	-41.891183	8.695317	-0.282710	-112.401964
8.350000	-0.286580	-112.982875	-41.764189	7.268263	-41.764189	7.268263	-0.286595	-112.983264
8.400000	-0.290529	-113.563122	-41.638067	5.841307	-41.638067	5.841307	-0.290544	-113.563517
8.450000	-0.294503	-114.142992	-41.513433	4.414346	-41.513433	4.414346	-0.294518	-114.143393
8.500000	-0.298550	-114.721731	-41.389620	2.987369	-41.389620	2.987369	-0.298566	-114.722138
8.550000	-0.302616	-115.300229	-41.267368	1.560367	-41.267368	1.560367	-0.302631	-115.300642
8.600000	-0.306763	-115.877525	-41.145925	0.133234	-41.145925	0.133234	-0.306779	-115.877944
8.650000	-0.310921	-116.454707	-41.026082	-1.293919	-41.026082	-1.293919	-0.310937	-116.455132
8.700000	-0.315171	-117.030625	-40.907075	-2.721305	-40.907075	-2.721305	-0.315188	-117.031056
8.750000	-0.319423	-117.606544	-40.789676	-4.148691	-40.789676	-4.148691	-0.319440	-117.606981
8.800000	-0.323777	-118.181152	-40.673179	-5.576386	-40.673179	-5.576386	-0.323795	-118.181595
8.850000	-0.328134	-118.755760	-40.558224	-7.004082	-40.558224	-7.004082	-0.328151	-118.756209
8.900000	-0.332586	-119.329228	-40.444356	-8.432071	-40.444356	-8.432071	-0.332604	-119.329683
8.950000	-0.337049	-119.902592	-40.331924	-9.860086	-40.331924	-9.860086	-0.337067	-119.903054
9.000000	-0.341601	-120.474977	-40.220734	-11.288333	-40.220734	-11.288333	-0.341619	-120.475445
9.050000	-0.346172	-121.047166	-40.110911	-12.716626	-40.110911	-12.716626	-0.346190	-121.047640
9.100000	-0.350825	-121.618525	-40.002451	-14.145056	-40.002451	-14.145056	-0.350844	-121.619005
9.150000	-0.355507	-122.189607	-39.895327	-15.573531	-39.895327	-15.573531	-0.355526	-122.190094
9.200000	-0.360264	-122.759997	-39.789652	-17.002023	-39.789652	-17.002023	-0.360282	-122.760491
9.250000	-0.365058	-123.330042	-39.685320	-18.430524	-39.685320	-18.430524	-0.365077	-123.330542
9.300000	-0.369919	-123.899522	-39.582487	-19.858912	-39.582487	-19.858912	-0.369938	-123.900029
9.350000	-0.374829	-124.468600	-39.481043	-21.287220	-39.481043	-21.287220	-0.374848	-124.469113
9.400000	-0.379797	-125.037229	-39.381111	-22.715289	-39.381111	-22.715289	-0.379815	-125.037749
9.450000	-0.384823	-125.605409	-39.282653	-24.143121	-39.282653	-24.143121	-0.384842	-125.605937
9.500000	-0.389899	-126.173246	-39.185680	-25.570608	-39.185680	-25.570608	-0.389918	-126.173782
9.550000	-0.395045	-126.740601	-39.090305	-26.997613	-39.090305	-26.997613	-0.395064	-126.741144
9.600000	-0.400232	-127.307705	-38.996349	-28.424202	-38.996349	-28.424202	-0.400251	-127.308256
9.650000	-0.405499	-127.874307	-38.904155	-29.849960	-38.904155	-29.849960	-0.405518	-127.874866
9.700000	-0.410798	-128.440739	-38.813273	-31.275285	-38.813273	-31.275285	-0.410817	-128.441306
9.750000	-0.416189	-129.006660	-38.724354	-32.699310	-38.724354	-32.699310	-0.416208	-129.007236
9.800000	-0.421603	-129.572479	-38.636602	-34.122953	-38.636602	-34.122953	-0.421622	-129.573064
9.850000	-0.427119	-130.137792	-38.551047	-35.544689	-38.551047	-35.544689	-0.427138	-130.138386
9.900000	-0.432649	-130.703060	-38.466478	-36.966182	-38.466478	-36.966182	-0.432668	-130.703664
9.950000	-0.438294	-131.267839	-38.384374	-38.385007	-38.384374	-38.385007	-0.438313	-131.268452
10.000000	-0.443943	-131.832617	-38.303038	-39.803832	-38.303038	-39.803832	-0.443961	-131.833240
