! freq	dB(S11)	phase(S11)	dB(S12)	phase(S12)	
!     	dB(S21)	phase(S21)	dB(S22)	phase(S22)	
!S-par simulation data
#  GHz  S  DB  R 50
0.000000	-0.000000	-0.000000	-364.994956	180.000000	-364.994956	180.000000	-0.000000	0.000000
0.050000	-0.006146	-2.202494	-101.950325	86.832523	-101.950325	86.832523	-0.001802	-0.883613
0.100000	-0.010008	-4.357891	-96.009327	86.230425	-96.009327	86.230425	-0.003523	-1.751390
0.150000	-0.011840	-6.512619	-92.554460	85.106466	-92.554460	85.106466	-0.004453	-2.616921
0.200000	-0.013287	-8.668354	-90.135798	83.860478	-90.135798	83.860478	-0.005139	-3.482758
0.250000	-0.014748	-10.823557	-88.299426	82.579129	-88.299426	82.579129	-0.005779	-4.348838
0.300000	-0.016340	-12.977130	-86.838096	81.299032	-86.838096	81.299032	-0.006444	-5.214892
0.350000	-0.018114	-15.127954	-85.649036	80.044482	-85.649036	80.044482	-0.007169	-6.080664
0.400000	-0.020062	-17.275532	-84.662692	78.829830	-84.662692	78.829830	-0.007956	-6.946009
0.450000	-0.022172	-19.419327	-83.837819	77.668781	-83.837819	77.668781	-0.008806	-7.810809
0.500000	-0.024437	-21.558656	-83.149827	76.579089	-83.149827	76.579089	-0.009718	-8.674942
0.550000	-0.026833	-23.693223	-82.577136	75.574800	-82.577136	75.574800	-0.010684	-9.538353
0.600000	-0.029339	-25.822710	-82.105187	74.672749	-82.105187	74.672749	-0.011697	-10.400993
0.650000	-0.031940	-27.946612	-81.726113	73.897943	-81.726113	73.897943	-0.012754	-11.262791
0.700000	-0.034616	-30.064600	-81.432727	73.277414	-81.432727	73.277414	-0.013846	-12.123704
0.750000	-0.037348	-32.176556	-81.217743	72.838307	-81.217743	72.838307	-0.014967	-12.983729
0.800000	-0.040120	-34.282144	-81.078182	72.621643	-81.078182	72.621643	-0.016112	-13.842826
0.850000	-0.042919	-36.380899	-81.013400	72.686738	-81.013400	72.686738	-0.017276	-14.700944
0.900000	-0.045730	-38.472901	-81.017468	73.083201	-81.017468	73.083201	-0.018453	-15.558108
0.950000	-0.048542	-40.557956	-81.087400	73.885789	-81.087400	73.885789	-0.019640	-16.414303
1.000000	-0.051345	-42.635496	-81.221746	75.219930	-81.221746	75.219930	-0.020834	-17.269464
1.050000	-0.054130	-44.705701	-81.409615	77.183236	-81.409615	77.183236	-0.022029	-18.123627
1.100000	-0.056891	-46.768456	-81.637803	79.911631	-81.637803	79.911631	-0.023226	-18.976787
1.150000	-0.059622	-48.823344	-81.884068	83.596861	-81.884068	83.596861	-0.024420	-19.828896
1.200000	-0.062317	-50.870350	-82.110711	88.377119	-82.110711	88.377119	-0.025610	-20.679960
1.250000	-0.064976	-52.909529	-82.265912	94.311480	-82.265912	94.311480	-0.026796	-21.529991
1.300000	-0.067594	-54.940623	-82.280628	101.357721	-82.280628	101.357721	-0.027976	-22.378957
1.350000	-0.070169	-56.963393	-82.081491	109.225218	-82.081491	109.225218	-0.029149	-23.226829
1.400000	-0.072703	-58.978065	-81.633719	117.357967	-81.633719	117.357967	-0.030315	-24.073636
1.450000	-0.075194	-60.984552	-80.939371	125.156933	-80.939371	125.156933	-0.031473	-24.919362
1.500000	-0.077641	-62.982368	-80.030231	132.066818	-80.030231	132.066818	-0.032624	-25.763938
1.550000	-0.080047	-64.971919	-78.989179	137.865822	-78.989179	137.865822	-0.033767	-26.607410
1.600000	-0.082414	-66.953175	-77.879034	142.514266	-77.879034	142.514266	-0.034904	-27.449766
1.650000	-0.084741	-68.925741	-76.741537	146.060447	-76.741537	146.060447	-0.036033	-28.290940
1.700000	-0.087031	-70.889826	-75.614381	148.688915	-75.614381	148.688915	-0.037157	-29.130947
1.750000	-0.089286	-72.845568	-74.518052	150.568352	-74.518052	150.568352	-0.038274	-29.969792
1.800000	-0.091509	-74.792853	-73.460567	151.827010	-73.460567	151.827010	-0.039386	-30.807440
1.850000	-0.093701	-76.731701	-72.446253	152.583154	-72.446253	152.583154	-0.040494	-31.643875
1.900000	-0.095865	-78.662050	-71.475449	152.928752	-71.475449	152.928752	-0.041597	-32.479068
1.950000	-0.098003	-80.583944	-70.547518	152.941818	-70.547518	152.941818	-0.042697	-33.313002
2.000000	-0.100117	-82.497527	-69.661277	152.686041	-69.661277	152.686041	-0.043795	-34.145671
2.050000	-0.102211	-84.402859	-68.814371	152.208504	-68.814371	152.208504	-0.044890	-34.977060
2.100000	-0.104286	-86.300015	-68.004316	151.546762	-68.004316	151.546762	-0.045984	-35.807151
2.150000	-0.106345	-88.189075	-67.228654	150.730953	-67.228654	150.730953	-0.047077	-36.635927
2.200000	-0.108390	-90.070132	-66.485039	149.785430	-66.485039	149.785430	-0.048170	-37.463371
2.250000	-0.110424	-91.943288	-65.771277	148.730014	-65.771277	148.730014	-0.049263	-38.289466
2.300000	-0.112448	-93.808652	-65.085340	147.580954	-65.085340	147.580954	-0.050358	-39.114195
2.350000	-0.114465	-95.666346	-64.425366	146.351667	-64.425366	146.351667	-0.051454	-39.937541
2.400000	-0.116477	-97.516497	-63.789652	145.053307	-63.789652	145.053307	-0.052553	-40.759489
2.450000	-0.118487	-99.359243	-63.176646	143.695208	-63.176646	143.695208	-0.053655	-41.580021
2.500000	-0.120495	-101.194730	-62.584928	142.285231	-62.584928	142.285231	-0.054760	-42.399123
2.550000	-0.122504	-103.022961	-62.012824	140.829180	-62.012824	140.829180	-0.055869	-43.216747
2.600000	-0.124517	-104.844256	-61.459586	139.333791	-61.459586	139.333791	-0.056983	-44.032909
2.650000	-0.126534	-106.658785	-60.924126	137.803868	-60.924126	137.803868	-0.058103	-44.847595
2.700000	-0.128558	-108.466725	-60.405447	136.243547	-60.405447	136.243547	-0.059227	-45.660789
2.750000	-0.130590	-110.268260	-59.902634	134.656401	-59.902634	134.656401	-0.060358	-46.472479
2.800000	-0.132631	-112.063582	-59.414848	133.045530	-59.414848	133.045530	-0.061496	-47.282650
2.850000	-0.134684	-113.852889	-58.941313	131.413637	-58.941313	131.413637	-0.062641	-48.091291
2.900000	-0.136750	-115.636385	-58.481317	129.763079	-58.481317	129.763079	-0.063793	-48.898387
2.950000	-0.138831	-117.413750	-58.033208	128.094458	-58.033208	128.094458	-0.064954	-49.703775
3.000000	-0.140927	-119.186226	-57.598317	126.412545	-57.598317	126.412545	-0.066123	-50.507731
3.050000	-0.143040	-120.953545	-57.175137	124.717464	-57.175137	124.717464	-0.067301	-51.310108
3.100000	-0.145171	-122.715935	-56.763141	123.010625	-56.763141	123.010625	-0.068488	-52.110897
3.150000	-0.147322	-124.473628	-56.361839	121.293274	-56.361839	121.293274	-0.069685	-52.910087
3.200000	-0.149493	-126.226863	-55.970775	119.566517	-55.970775	119.566517	-0.070892	-53.707669
3.250000	-0.151685	-127.975881	-55.589523	117.831335	-55.589523	117.831335	-0.072110	-54.503633
3.300000	-0.153901	-129.720931	-55.217687	116.088599	-55.217687	116.088599	-0.073339	-55.297973
3.350000	-0.156140	-131.462264	-54.854896	114.339085	-54.854896	114.339085	-0.074579	-56.090679
3.400000	-0.158403	-133.200136	-54.500803	112.583485	-54.500803	112.583485	-0.075831	-56.881744
3.450000	-0.160692	-134.934808	-54.155081	110.822414	-54.155081	110.822414	-0.077095	-57.671162
3.500000	-0.163008	-136.666544	-53.817428	109.056423	-53.817428	109.056423	-0.078372	-58.458926
3.550000	-0.165351	-138.395611	-53.487555	107.286004	-53.487555	107.286004	-0.079661	-59.245031
3.600000	-0.167722	-140.122282	-53.165196	105.511594	-53.165196	105.511594	-0.080964	-60.029471
3.650000	-0.170121	-141.846832	-52.850097	103.733588	-52.850097	103.733588	-0.082281	-60.812242
3.700000	-0.172550	-143.569539	-52.542023	101.952337	-52.542023	101.952337	-0.083612	-61.593340
3.750000	-0.175009	-145.290685	-52.240749	100.168156	-52.240749	100.168156	-0.084958	-62.372761
3.800000	-0.177500	-147.010513	-51.945919	98.381225	-51.945919	98.381225	-0.086319	-63.150429
3.850000	-0.180022	-148.729379	-51.657504	96.591921	-51.657504	96.591921	-0.087696	-63.926414
3.900000	-0.182576	-150.447576	-51.375317	94.800470	-51.375317	94.800470	-0.089088	-64.700714
3.950000	-0.185162	-152.165395	-51.099180	93.007076	-51.099180	93.007076	-0.090497	-65.473328
4.000000	-0.187779	-153.883128	-50.829067	91.212011	-50.829067	91.212011	-0.091921	-66.244347
4.050000	-0.190431	-155.601065	-50.564560	89.415272	-50.564560	89.415272	-0.093363	-67.013604
4.100000	-0.193116	-157.319515	-50.305632	87.617089	-50.305632	87.617089	-0.094823	-67.781174
4.150000	-0.195834	-159.038782	-50.052144	85.817604	-50.052144	85.817604	-0.096300	-68.547057
4.200000	-0.198587	-160.759173	-49.803966	84.016943	-49.803966	84.016943	-0.097796	-69.311254
4.250000	-0.201373	-162.480994	-49.560976	82.215226	-49.560976	82.215226	-0.099310	-70.073766
4.300000	-0.204194	-164.204556	-49.323058	80.412563	-49.323058	80.412563	-0.100843	-70.834596
4.350000	-0.207049	-165.930170	-49.090105	78.609058	-49.090105	78.609058	-0.102396	-71.593745
4.400000	-0.209939	-167.658180	-48.862002	76.804802	-48.862002	76.804802	-0.103969	-72.351199
4.450000	-0.212864	-169.388912	-48.638659	74.999893	-48.638659	74.999893	-0.105563	-73.106961
4.500000	-0.215824	-171.122656	-48.419999	73.194428	-48.419999	73.194428	-0.107178	-73.861053
4.550000	-0.218818	-172.859731	-48.205936	71.388496	-48.205936	71.388496	-0.108813	-74.613479
4.600000	-0.221846	-174.600457	-47.996393	69.582183	-47.996393	69.582183	-0.110471	-75.364244
4.650000	-0.224909	-176.345153	-47.791293	67.775576	-47.791293	67.775576	-0.112151	-76.113353
4.700000	-0.228006	-178.094141	-47.590568	65.968761	-47.590568	65.968761	-0.113853	-76.860812
4.750000	-0.231136	-179.847744	-47.394151	64.161823	-47.394151	64.161823	-0.115579	-77.606627
4.800000	-0.234300	178.393714	-47.201981	62.354853	-47.201981	62.354853	-0.117328	-78.350804
4.850000	-0.237497	176.629912	-47.014002	60.547939	-47.014002	60.547939	-0.119101	-79.093350
4.900000	-0.240727	174.860524	-46.830161	58.741174	-46.830161	58.741174	-0.120898	-79.834272
4.950000	-0.243989	173.085227	-46.650407	56.934654	-46.650407	56.934654	-0.122721	-80.573578
5.000000	-0.247282	171.303697	-46.474694	55.128478	-46.474694	55.128478	-0.124569	-81.311275
5.050000	-0.250608	169.515461	-46.302996	53.322761	-46.302996	53.322761	-0.126443	-82.047339
5.100000	-0.253964	167.720330	-46.135262	51.517603	-46.135262	51.517603	-0.128343	-82.781812
5.150000	-0.257351	165.917983	-45.971458	49.713116	-45.971458	49.713116	-0.130270	-83.514703
5.200000	-0.260766	164.108099	-45.811549	47.909417	-45.811549	47.909417	-0.132225	-84.246022
5.250000	-0.264210	162.290359	-45.655506	46.106628	-45.655506	46.106628	-0.134207	-84.975780
5.300000	-0.267682	160.464444	-45.503300	44.304879	-45.503300	44.304879	-0.136217	-85.703986
5.350000	-0.271180	158.630039	-45.354908	42.504303	-45.354908	42.504303	-0.138256	-86.430651
5.400000	-0.274705	156.786830	-45.210306	40.705041	-45.210306	40.705041	-0.140324	-87.155786
5.450000	-0.278254	154.934508	-45.069475	38.907243	-45.069475	38.907243	-0.142422	-87.879402
5.500000	-0.281828	153.072764	-44.932399	37.111062	-44.932399	37.111062	-0.144550	-88.601511
5.550000	-0.285424	151.201296	-44.799063	35.316662	-44.799063	35.316662	-0.146708	-89.322124
5.600000	-0.289042	149.319803	-44.669454	33.524216	-44.669454	33.524216	-0.148897	-90.041256
5.650000	-0.292682	147.427876	-44.543585	31.733929	-44.543585	31.733929	-0.151117	-90.758901
5.700000	-0.296340	145.525214	-44.421451	29.945999	-44.421451	29.945999	-0.153370	-91.475073
5.750000	-0.300017	143.611646	-44.303027	28.160604	-44.303027	28.160604	-0.155655	-92.189803
5.800000	-0.303711	141.686894	-44.188310	26.377956	-44.188310	26.377956	-0.157973	-92.903103
5.850000	-0.307421	139.750688	-44.077302	24.598281	-44.077302	24.598281	-0.160324	-93.614987
5.900000	-0.311145	137.802764	-43.970002	22.821816	-43.970002	22.821816	-0.162709	-94.325470
5.950000	-0.314883	135.842866	-43.866417	21.048813	-43.866417	21.048813	-0.165127	-95.034567
6.000000	-0.318632	133.870750	-43.766552	19.279539	-43.766552	19.279539	-0.167580	-95.742291
6.050000	-0.322391	131.886176	-43.670417	17.514278	-43.670417	17.514278	-0.170068	-96.448659
6.100000	-0.326160	129.888919	-43.578022	15.753331	-43.578022	15.753331	-0.172592	-97.153686
6.150000	-0.329935	127.878763	-43.489382	13.997021	-43.489382	13.997021	-0.175150	-97.857388
6.200000	-0.333718	125.855504	-43.404512	12.245691	-43.404512	12.245691	-0.177745	-98.559780
6.250000	-0.337505	123.818950	-43.323431	10.499705	-43.323431	10.499705	-0.180377	-99.260880
6.300000	-0.341295	121.768626	-43.246226	8.759590	-43.246226	8.759590	-0.183046	-99.960676
6.350000	-0.345088	119.704659	-43.172856	7.025651	-43.172856	7.025651	-0.185752	-100.659214
6.400000	-0.348881	117.626900	-43.103344	5.298340	-43.103344	5.298340	-0.188496	-101.356511
6.450000	-0.352675	115.535219	-43.037715	3.578140	-43.037715	3.578140	-0.191278	-102.052585
6.500000	-0.356466	113.429500	-42.975998	1.865570	-42.975998	1.865570	-0.194099	-102.747453
6.550000	-0.360255	111.309647	-42.918219	0.161190	-42.918219	0.161190	-0.196958	-103.441134
6.600000	-0.364040	109.175581	-42.864409	-1.534403	-42.864409	-1.534403	-0.199857	-104.133646
6.650000	-0.367821	107.027244	-42.814598	-3.220564	-42.814598	-3.220564	-0.202795	-104.825008
6.700000	-0.371596	104.864598	-42.768816	-4.896601	-42.768816	-4.896601	-0.205773	-105.515240
6.750000	-0.375364	102.687626	-42.727094	-6.561772	-42.727094	-6.561772	-0.208791	-106.204359
6.800000	-0.379126	100.496334	-42.689461	-8.215278	-42.689461	-8.215278	-0.211849	-106.892387
6.850000	-0.382880	98.290750	-42.655946	-9.856262	-42.655946	-9.856262	-0.214949	-107.579343
6.900000	-0.386627	96.070772	-42.626621	-11.483652	-42.626621	-11.483652	-0.218090	-108.265236
6.950000	-0.390365	93.836481	-42.601509	-13.096426	-42.601509	-13.096426	-0.221273	-108.950087
7.000000	-0.394096	91.588135	-42.580588	-14.693677	-42.580588	-14.693677	-0.224498	-109.633929
7.050000	-0.397818	89.325865	-42.563871	-16.274275	-42.563871	-16.274275	-0.227765	-110.316782
7.100000	-0.401533	87.049825	-42.551368	-17.837021	-42.551368	-17.837021	-0.231075	-110.998668
7.150000	-0.405241	84.760201	-42.543081	-19.380636	-42.543081	-19.380636	-0.234428	-111.679609
7.200000	-0.408943	82.457201	-42.539002	-20.903766	-42.539002	-20.903766	-0.237824	-112.359626
7.250000	-0.412640	80.141065	-42.539116	-22.404977	-42.539116	-22.404977	-0.241263	-113.038742
7.300000	-0.416333	77.812058	-42.543392	-23.882759	-42.543392	-23.882759	-0.244746	-113.716979
7.350000	-0.420024	75.470476	-42.551790	-25.335523	-42.551790	-25.335523	-0.248274	-114.394359
7.400000	-0.423714	73.116640	-42.564251	-26.761605	-42.564251	-26.761605	-0.251846	-115.070907
7.450000	-0.427405	70.750900	-42.580701	-28.159272	-42.580701	-28.159272	-0.255462	-115.746644
7.500000	-0.431099	68.373636	-42.601045	-29.526725	-42.601045	-29.526725	-0.259124	-116.421595
7.550000	-0.434799	65.985020	-42.625245	-30.861363	-42.625245	-30.861363	-0.262832	-117.095767
7.600000	-0.438508	63.585738	-42.653074	-32.161935	-42.653074	-32.161935	-0.266586	-117.769201
7.650000	-0.442229	61.176251	-42.684365	-33.426496	-42.684365	-33.426496	-0.270386	-118.441922
7.700000	-0.445965	58.757045	-42.718920	-34.653079	-42.718920	-34.653079	-0.274232	-119.113953
7.750000	-0.449718	56.328631	-42.756513	-35.839716	-42.756513	-35.839716	-0.278126	-119.785320
7.800000	-0.453494	53.891542	-42.796884	-36.984455	-42.796884	-36.984455	-0.282066	-120.456048
7.850000	-0.457296	51.446337	-42.839740	-38.085381	-42.839740	-38.085381	-0.286054	-121.126162
7.900000	-0.461128	48.993591	-42.884751	-39.140647	-42.884751	-39.140647	-0.290089	-121.795686
7.950000	-0.464994	46.533903	-42.931552	-40.148501	-42.931552	-40.148501	-0.294173	-122.464647
8.000000	-0.468899	44.067888	-42.979742	-41.107313	-42.979742	-41.107313	-0.298305	-123.133070
8.050000	-0.472847	41.596178	-43.028881	-42.015618	-43.028881	-42.015618	-0.302486	-123.800981
8.100000	-0.476844	39.119418	-43.078497	-42.872144	-43.078497	-42.872144	-0.306716	-124.468407
8.150000	-0.480894	36.638229	-43.128071	-43.675271	-43.128071	-43.675271	-0.310996	-125.135369
8.200000	-0.485003	34.153302	-43.177046	-44.424216	-43.177046	-44.424216	-0.315327	-125.801894
8.250000	-0.489176	31.665364	-43.224858	-45.119117	-43.224858	-45.119117	-0.319707	-126.468014
8.300000	-0.493417	29.175100	-43.270919	-45.759887	-43.270919	-45.759887	-0.324139	-127.133755
8.350000	-0.497732	26.683199	-43.314623	-46.346813	-43.314623	-46.346813	-0.328621	-127.799145
8.400000	-0.502126	24.190352	-43.355357	-46.880586	-43.355357	-46.880586	-0.333154	-128.464212
8.450000	-0.506604	21.697251	-43.392506	-47.362325	-43.392506	-47.362325	-0.337739	-129.128981
8.500000	-0.511170	19.204582	-43.425463	-47.793579	-43.425463	-47.793579	-0.342376	-129.793480
8.550000	-0.515831	16.713029	-43.453638	-48.176342	-43.453638	-48.176342	-0.347066	-130.457738
8.600000	-0.520589	14.223268	-43.476468	-48.513035	-43.476468	-48.513035	-0.351807	-131.121781
8.650000	-0.525451	11.735966	-43.493425	-48.806495	-43.493425	-48.806495	-0.356602	-131.785637
8.700000	-0.530421	9.251778	-43.504030	-49.059941	-43.504030	-49.059941	-0.361450	-132.449335
8.750000	-0.535503	6.771347	-43.507856	-49.276933	-43.507856	-49.276933	-0.366352	-133.112902
8.800000	-0.540702	4.295409	-43.504375	-49.460709	-43.504375	-49.460709	-0.371308	-133.776365
8.850000	-0.546022	1.824489	-43.493444	-49.616160	-43.493444	-49.616160	-0.376318	-134.439754
8.900000	-0.551465	-0.640823	-43.474843	-49.747537	-43.474843	-49.747537	-0.381383	-135.103099
8.950000	-0.557034	-3.099960	-43.448429	-49.859178	-43.448429	-49.859178	-0.386503	-135.766428
9.000000	-0.562733	-5.552377	-43.414135	-49.955433	-43.414135	-49.955433	-0.391677	-136.429770
9.050000	-0.568563	-7.997553	-43.371966	-50.040590	-43.371966	-50.040590	-0.396906	-137.093152
9.100000	-0.574527	-10.434993	-43.322003	-50.118811	-43.322003	-50.118811	-0.402190	-137.756604
9.150000	-0.580626	-12.864228	-43.264388	-50.194067	-43.264388	-50.194067	-0.407530	-138.420155
9.200000	-0.586862	-15.284817	-43.199326	-50.270086	-43.199326	-50.270086	-0.412925	-139.083834
9.250000	-0.593236	-17.696346	-43.127074	-50.350307	-43.127074	-50.350307	-0.418376	-139.747669
9.300000	-0.599749	-20.098433	-43.047932	-50.437848	-43.047932	-50.437848	-0.423882	-140.411692
9.350000	-0.606400	-22.490724	-42.962238	-50.535481	-42.962238	-50.535481	-0.429444	-141.075929
9.400000	-0.613191	-24.872784	-42.870281	-50.645777	-42.870281	-50.645777	-0.435062	-141.740415
9.450000	-0.620121	-27.244311	-42.772452	-50.770844	-42.772452	-50.770844	-0.440737	-142.405180
9.500000	-0.627188	-29.605156	-42.669221	-50.912211	-42.669221	-50.912211	-0.446467	-143.070251
9.550000	-0.634389	-31.955095	-42.560986	-51.071203	-42.560986	-51.071203	-0.452252	-143.735658
9.600000	-0.641723	-34.293929	-42.448139	-51.248816	-42.448139	-51.248816	-0.458093	-144.401431
9.650000	-0.649187	-36.621496	-42.331065	-51.445744	-42.331065	-51.445744	-0.463989	-145.067601
9.700000	-0.656779	-38.937662	-42.210135	-51.662406	-42.210135	-51.662406	-0.469940	-145.734197
9.750000	-0.664495	-41.242325	-42.085703	-51.898969	-42.085703	-51.898969	-0.475945	-146.401251
9.800000	-0.672331	-43.535413	-41.958105	-52.155381	-41.958105	-52.155381	-0.482005	-147.068793
9.850000	-0.680284	-45.816886	-41.827652	-52.431396	-41.827652	-52.431396	-0.488118	-147.736854
9.900000	-0.688347	-48.086730	-41.694635	-52.726604	-41.694635	-52.726604	-0.494285	-148.405466
9.950000	-0.696517	-50.344965	-41.559318	-53.040452	-41.559318	-53.040452	-0.500505	-149.074659
10.000000	-0.704787	-52.591635	-41.421943	-53.372276	-41.421943	-53.372276	-0.506778	-149.744465
