! freq	dB(S11)	phase(S11)	dB(S12)	phase(S12)	
!     	dB(S21)	phase(S21)	dB(S22)	phase(S22)	
!S-par simulation data
#  GHz  S  DB  R 50
0.000000	-0.000000	-0.000000	-359.599570	180.000000	-359.599570	180.000000	-0.000000	-0.000000
0.050000	-0.000095	-0.957991	-87.194011	175.815602	-87.194011	175.815602	-0.000095	-0.958076
0.100000	-0.000379	-1.915786	-86.612202	159.033093	-86.612202	159.033093	-0.000379	-1.915956
0.150000	-0.000844	-2.873198	-85.883315	146.726856	-85.883315	146.726856	-0.000844	-2.873453
0.200000	-0.001478	-3.830061	-85.058522	136.764630	-85.058522	136.764630	-0.001479	-3.830401
0.250000	-0.002278	-4.786174	-84.203118	128.645782	-84.203118	128.645782	-0.002278	-4.786598
0.300000	-0.003212	-5.741470	-83.372603	121.812809	-83.372603	121.812809	-0.003213	-5.741977
0.350000	-0.004272	-6.695809	-82.586536	116.043171	-82.586536	116.043171	-0.004273	-6.696398
0.400000	-0.005438	-7.649100	-81.856184	111.104866	-81.856184	111.104866	-0.005439	-7.649772
0.450000	-0.006694	-8.601276	-81.185183	106.822975	-81.185183	106.822975	-0.006695	-8.602030
0.500000	-0.008022	-9.552288	-80.573161	103.067164	-80.573161	103.067164	-0.008024	-9.553122
0.550000	-0.009406	-10.502103	-80.017807	99.740795	-80.017807	99.740795	-0.009408	-10.503018
0.600000	-0.010832	-11.450705	-79.515989	96.772301	-79.515989	96.772301	-0.010835	-11.451700
0.650000	-0.012287	-12.398088	-79.064345	94.108730	-79.064345	94.108730	-0.012289	-12.399161
0.700000	-0.013759	-13.344254	-78.659572	91.711034	-78.659572	91.711034	-0.013762	-13.345405
0.750000	-0.015239	-14.289212	-78.298557	89.550684	-78.298557	89.550684	-0.015242	-14.290441
0.800000	-0.016719	-15.232973	-77.978424	87.607243	-77.978424	87.607243	-0.016721	-15.234279
0.850000	-0.018192	-16.175553	-77.696527	85.866627	-77.696527	85.866627	-0.018195	-16.176935
0.900000	-0.019655	-17.116965	-77.450426	84.319857	-77.450426	84.319857	-0.019657	-17.118422
0.950000	-0.021102	-18.057221	-77.237844	82.962172	-77.237844	82.962172	-0.021104	-18.058753
1.000000	-0.022531	-18.996333	-77.056617	81.792372	-77.056617	81.792372	-0.022534	-18.997939
1.050000	-0.023942	-19.934310	-76.904634	80.812360	-76.904634	80.812360	-0.023945	-19.935988
1.100000	-0.025332	-20.871157	-76.779776	80.026779	-76.779776	80.026779	-0.025335	-20.872907
1.150000	-0.026702	-21.806877	-76.679834	79.442727	-76.679834	79.442727	-0.026705	-21.808699
1.200000	-0.028052	-22.741471	-76.602434	79.069488	-76.602434	79.069488	-0.028054	-22.743363
1.250000	-0.029382	-23.674936	-76.544938	78.918232	-76.544938	78.918232	-0.029384	-23.676897
1.300000	-0.030692	-24.607217	-76.504898	79.012485	-76.504898	79.012485	-0.030695	-24.609246
1.350000	-0.031985	-25.538354	-76.477886	79.356298	-76.477886	79.356298	-0.031988	-25.540450
1.400000	-0.033262	-26.468338	-76.459697	79.963385	-76.459697	79.963385	-0.033264	-26.470499
1.450000	-0.034523	-27.397156	-76.445393	80.846327	-76.445393	80.846327	-0.034525	-27.399381
1.500000	-0.035771	-28.324793	-76.429223	82.015035	-76.429223	82.015035	-0.035773	-28.327082
1.550000	-0.037006	-29.251236	-76.404601	83.474806	-76.404601	83.474806	-0.037008	-29.253586
1.600000	-0.038230	-30.176466	-76.364177	85.224059	-76.364177	85.224059	-0.038233	-30.178877
1.650000	-0.039445	-31.100466	-76.300045	87.251937	-76.300045	87.251937	-0.039448	-31.102936
1.700000	-0.040652	-32.023218	-76.204108	89.536174	-76.204108	89.536174	-0.040654	-32.025746
1.750000	-0.041852	-32.944703	-76.068615	92.041742	-76.068615	92.041742	-0.041854	-32.947287
1.800000	-0.043046	-33.864901	-75.886815	94.720849	-75.886815	94.720849	-0.043048	-33.867540
1.850000	-0.044236	-34.783793	-75.653630	97.514696	-75.653630	97.514696	-0.044238	-34.786485
1.900000	-0.045423	-35.701358	-75.366220	100.357044	-75.366220	100.357044	-0.045425	-35.704102
1.950000	-0.046607	-36.617576	-75.024292	103.179142	-75.024292	103.179142	-0.046609	-36.620370
2.000000	-0.047790	-37.532428	-74.630087	105.915148	-74.630087	105.915148	-0.047792	-37.535270
2.050000	-0.048972	-38.445894	-74.188031	108.507002	-74.188031	108.507002	-0.048974	-38.448783
2.100000	-0.050156	-39.357954	-73.704157	110.907916	-73.704157	110.907916	-0.050157	-39.360888
2.150000	-0.051340	-40.268590	-73.185422	113.084042	-73.185422	113.084042	-0.051342	-40.271567
2.200000	-0.052527	-41.177782	-72.639051	115.014394	-72.639051	115.014394	-0.052529	-41.180801
2.250000	-0.053717	-42.085513	-72.072018	116.689462	-72.072018	116.689462	-0.053718	-42.088571
2.300000	-0.054910	-42.991765	-71.490678	118.109073	-71.490678	118.109073	-0.054911	-42.994861
2.350000	-0.056107	-43.896520	-70.900572	119.280025	-70.900572	119.280025	-0.056109	-43.899652
2.400000	-0.057310	-44.799763	-70.306357	120.213865	-70.306357	120.213865	-0.057311	-44.802929
2.450000	-0.058518	-45.701477	-69.711823	120.925013	-69.711823	120.925013	-0.058519	-45.704676
2.500000	-0.059732	-46.601648	-69.119973	121.429308	-69.119973	121.429308	-0.059733	-46.604878
2.550000	-0.060952	-47.500194	-68.531712	121.735394	-68.531712	121.735394	-0.060953	-47.503452
2.600000	-0.062180	-48.397167	-67.950380	121.867985	-67.950380	121.867985	-0.062181	-48.400452
2.650000	-0.063415	-49.292556	-67.377200	121.841915	-67.377200	121.841915	-0.063416	-49.295865
2.700000	-0.064659	-50.186348	-66.813017	121.670906	-66.813017	121.670906	-0.064659	-50.189680
2.750000	-0.065911	-51.078534	-66.258375	121.367466	-66.258375	121.367466	-0.065911	-51.081887
2.800000	-0.067171	-51.969104	-65.713582	120.942868	-65.713582	120.942868	-0.067172	-51.972475
2.850000	-0.068441	-52.858047	-65.178763	120.407174	-65.178763	120.407174	-0.068441	-52.861435
2.900000	-0.069721	-53.745358	-64.653904	119.769302	-64.653904	119.769302	-0.069721	-53.748760
2.950000	-0.071011	-54.631028	-64.138881	119.037097	-64.138881	119.037097	-0.071010	-54.634443
3.000000	-0.072311	-55.515053	-63.633491	118.217411	-63.633491	118.217411	-0.072310	-55.518478
3.050000	-0.073622	-56.397427	-63.137469	117.316189	-63.137469	117.316189	-0.073621	-56.400861
3.100000	-0.074945	-57.278147	-62.650504	116.338538	-62.650504	116.338538	-0.074943	-57.281587
3.150000	-0.076279	-58.157211	-62.172250	115.288803	-62.172250	115.288803	-0.076277	-58.160655
3.200000	-0.077625	-59.034617	-61.702334	114.170621	-61.702334	114.170621	-0.077623	-59.038064
3.250000	-0.078983	-59.910367	-61.240361	112.986979	-61.240361	112.986979	-0.078981	-59.913814
3.300000	-0.080355	-60.784461	-60.785919	111.740250	-60.785919	111.740250	-0.080352	-60.787906
3.350000	-0.081741	-61.656712	-60.336677	110.425339	-60.336677	110.425339	-0.081738	-61.660153
3.400000	-0.083140	-62.527435	-59.895434	109.054680	-59.895434	109.054680	-0.083137	-62.530870
3.450000	-0.084553	-63.396457	-59.459577	107.622508	-59.459577	107.622508	-0.084550	-63.399884
3.500000	-0.085977	-64.264332	-59.034310	106.148851	-59.034310	106.148851	-0.085974	-64.267749
3.550000	-0.087423	-65.129782	-58.606279	104.585830	-58.606279	104.585830	-0.087420	-65.133187
3.600000	-0.088877	-65.994494	-58.191433	102.994957	-58.191433	102.994957	-0.088873	-65.997886
3.650000	-0.090355	-66.856780	-57.772498	101.310011	-57.772498	101.310011	-0.090350	-66.860155
3.700000	-0.091844	-67.718012	-57.361902	99.580529	-57.361902	99.580529	-0.091839	-67.721369
3.750000	-0.093352	-68.577585	-56.953434	97.781063	-56.953434	97.781063	-0.093347	-68.580923
3.800000	-0.094880	-69.435440	-56.544108	95.899763	-56.544108	95.899763	-0.094874	-69.438756
3.850000	-0.096419	-70.292381	-56.143455	93.974933	-56.143455	93.974933	-0.096413	-70.295675
3.900000	-0.097989	-71.147009	-55.731467	91.920928	-55.731467	91.920928	-0.097983	-71.150277
3.950000	-0.099569	-72.000996	-55.328984	89.825835	-55.328984	89.825835	-0.099562	-72.004238
4.000000	-0.101179	-72.853036	-54.915566	87.597570	-54.915566	87.597570	-0.101172	-72.856250
4.050000	-0.102807	-73.704108	-54.502135	85.283921	-54.502135	85.283921	-0.102800	-73.707293
4.100000	-0.104458	-74.553972	-54.085088	82.863542	-54.085088	82.863542	-0.104451	-74.557128
4.150000	-0.106143	-75.402499	-53.651269	80.278383	-53.651269	80.278383	-0.106135	-75.405624
4.200000	-0.107841	-76.250475	-53.224041	77.625375	-53.224041	77.625375	-0.107833	-76.253569
4.250000	-0.109593	-77.097027	-52.755227	74.691955	-52.755227	74.691955	-0.109585	-77.100090
4.300000	-0.111365	-77.943347	-52.288056	71.664073	-52.288056	71.664073	-0.111357	-77.946379
4.350000	-0.113191	-78.789046	-51.781391	68.356498	-51.781391	68.356498	-0.113183	-78.792050
4.400000	-0.115053	-79.634752	-51.260932	64.878891	-51.260932	64.878891	-0.115045	-79.637729
4.450000	-0.116989	-80.480778	-50.685448	61.059188	-50.685448	61.059188	-0.116981	-80.483732
4.500000	-0.119009	-81.327776	-50.054623	56.898252	-50.054623	56.898252	-0.119002	-81.330713
4.550000	-0.121147	-82.176658	-49.348282	52.323940	-49.348282	52.323940	-0.121141	-82.179586
4.600000	-0.123473	-83.029015	-48.530336	47.222217	-48.530336	47.222217	-0.123468	-83.031948
4.650000	-0.126083	-83.886872	-47.572630	41.509845	-47.572630	41.509845	-0.126082	-83.889831
4.700000	-0.129185	-84.753783	-46.422147	35.032375	-46.422147	35.032375	-0.129188	-84.756799
4.750000	-0.133282	-85.636926	-44.976358	27.506808	-44.976358	27.506808	-0.133293	-85.640053
4.800000	-0.139601	-86.549566	-43.097146	18.495614	-43.097146	18.495614	-0.139628	-86.552901
4.850000	-0.152114	-87.521991	-40.519870	6.949791	-40.519870	6.949791	-0.152180	-87.525728
4.900000	-0.188125	-88.622690	-36.741909	-10.378273	-36.741909	-10.378273	-0.188308	-88.627230
4.950000	-0.351216	-89.663045	-31.189441	-48.669599	-31.189441	-48.669599	-0.351937	-89.668116
5.000000	-0.359641	-88.435981	-31.272399	-126.723212	-31.272399	-126.723212	-0.360337	-88.434022
5.050000	-0.204597	-89.402858	-36.605480	-164.339814	-36.605480	-164.339814	-0.204765	-89.401548
5.100000	-0.170185	-90.470780	-40.111785	177.670968	-40.111785	177.670968	-0.170239	-90.470275
5.150000	-0.160051	-91.424423	-42.375357	165.016959	-42.375357	165.016959	-0.160069	-91.424302
5.200000	-0.156680	-92.321325	-43.906751	154.676919	-43.906751	154.676919	-0.156682	-92.321389
5.250000	-0.155965	-93.187251	-44.943414	145.809158	-44.943414	145.809158	-0.155958	-93.187397
5.300000	-0.156428	-94.035734	-45.663655	137.988372	-45.663655	137.988372	-0.156416	-94.035901
5.350000	-0.157554	-94.872474	-46.150417	131.043144	-46.150417	131.043144	-0.157538	-94.872625
5.400000	-0.159076	-95.701027	-46.469845	124.831827	-46.469845	124.831827	-0.159058	-95.701135
5.450000	-0.160875	-96.523052	-46.658580	119.294228	-46.658580	119.294228	-0.160855	-96.523095
5.500000	-0.162834	-97.340899	-46.769613	114.227472	-46.769613	114.227472	-0.162812	-97.340865
5.550000	-0.164929	-98.154934	-46.814460	109.607486	-46.814460	109.607486	-0.164906	-98.154809
5.600000	-0.167132	-98.965790	-46.810015	105.367078	-46.810015	105.367078	-0.167107	-98.965566
5.650000	-0.169424	-99.773925	-46.768601	101.449760	-46.768601	101.449760	-0.169398	-99.773592
5.700000	-0.171792	-100.579679	-46.699295	97.808214	-46.699295	97.808214	-0.171765	-100.579231
5.750000	-0.174228	-101.383314	-46.608845	94.402878	-46.608845	94.402878	-0.174200	-101.382743
5.800000	-0.176726	-102.185033	-46.502317	91.200687	-46.502317	91.200687	-0.176697	-102.184332
5.850000	-0.179290	-102.984735	-46.381876	88.197866	-46.381876	88.197866	-0.179260	-102.983899
5.900000	-0.181910	-103.782755	-46.251763	85.353286	-46.251763	85.353286	-0.181880	-103.781778
5.950000	-0.184558	-104.580031	-46.119479	82.571437	-46.119479	82.571437	-0.184526	-104.578909
6.000000	-0.187285	-105.375074	-45.977103	79.977782	-45.977103	79.977782	-0.187252	-105.373799
6.050000	-0.190029	-106.169681	-45.835130	77.416220	-45.835130	77.416220	-0.189996	-106.168252
6.100000	-0.192857	-106.962107	-45.686131	75.015130	-45.686131	75.015130	-0.192823	-106.960515
6.150000	-0.195695	-107.754339	-45.538959	72.626589	-45.538959	72.626589	-0.195660	-107.752584
6.200000	-0.198623	-108.544438	-45.386805	70.376086	-45.386805	70.376086	-0.198587	-108.542510
6.250000	-0.201551	-109.334537	-45.237271	68.125583	-45.237271	68.125583	-0.201515	-109.332436
6.300000	-0.204578	-110.122553	-45.084142	65.994894	-45.084142	65.994894	-0.204540	-110.120270
6.350000	-0.207605	-110.910570	-44.933666	63.864205	-44.933666	63.864205	-0.207567	-110.908105
6.400000	-0.210722	-111.696880	-44.781359	61.822275	-44.781359	61.822275	-0.210683	-111.694223
6.450000	-0.213848	-112.483034	-44.631286	59.788414	-44.631286	59.788414	-0.213808	-112.480185
6.500000	-0.217055	-113.267805	-44.480543	57.820672	-44.480543	57.820672	-0.217014	-113.264755
6.550000	-0.220280	-114.052299	-44.331740	55.866154	-44.331740	55.866154	-0.220238	-114.049047
6.600000	-0.223579	-114.835693	-44.183051	53.960991	-44.183051	53.960991	-0.223536	-114.832231
6.650000	-0.226903	-115.618720	-44.036082	52.072279	-44.036082	52.072279	-0.226859	-115.615046
6.700000	-0.230294	-116.400894	-43.889767	50.220334	-43.889767	50.220334	-0.230249	-116.397001
6.750000	-0.233718	-117.182641	-43.744996	48.386773	-43.744996	48.386773	-0.233672	-117.178526
6.800000	-0.237201	-117.963750	-43.601261	46.580410	-43.601261	46.580410	-0.237154	-117.959406
6.850000	-0.240727	-118.744402	-43.458925	44.793475	-43.458925	44.793475	-0.240678	-118.739825
6.900000	-0.244303	-119.524598	-43.317895	43.026392	-43.317895	43.026392	-0.244253	-119.519784
6.950000	-0.247929	-120.304339	-43.178146	41.279161	-43.178146	41.279161	-0.247879	-120.299281
7.000000	-0.251599	-121.083778	-43.039899	39.546100	-43.039899	39.546100	-0.251547	-121.078471
7.050000	-0.255328	-121.862792	-42.902837	37.832876	-42.902837	37.832876	-0.255275	-121.857231
7.100000	-0.259091	-122.641627	-42.767416	36.129405	-42.767416	36.129405	-0.259037	-122.635808
7.150000	-0.262923	-123.420102	-42.633111	34.445441	-42.633111	34.445441	-0.262867	-123.414017
7.200000	-0.266780	-124.198490	-42.500541	32.767794	-42.500541	32.767794	-0.266724	-124.192136
7.250000	-0.270715	-124.976616	-42.369047	31.109099	-42.369047	31.109099	-0.270657	-124.969985
7.300000	-0.274667	-125.754716	-42.239344	29.454052	-42.239344	29.454052	-0.274608	-125.747805
7.350000	-0.278704	-126.532687	-42.110712	27.817249	-42.110712	27.817249	-0.278644	-126.525485
7.400000	-0.282752	-127.310660	-41.983891	26.182031	-41.983891	26.182031	-0.282690	-127.303168
7.450000	-0.286892	-128.088672	-41.858177	24.564260	-41.858177	24.564260	-0.286829	-128.080878
7.500000	-0.291034	-128.866685	-41.734257	22.946489	-41.734257	22.946489	-0.290970	-128.858587
7.550000	-0.295278	-129.644941	-41.611531	21.345341	-41.611531	21.345341	-0.295212	-129.636528
7.600000	-0.299524	-130.423198	-41.490515	19.744193	-41.490515	19.744193	-0.299456	-130.414470
7.650000	-0.303862	-131.201869	-41.370889	18.156454	-41.370889	18.156454	-0.303793	-131.192812
7.700000	-0.308211	-131.980579	-41.252864	16.569934	-41.252864	16.569934	-0.308141	-131.971192
7.750000	-0.312644	-132.759842	-41.136401	14.994271	-41.136401	14.994271	-0.312572	-132.750114
7.800000	-0.317097	-133.539217	-41.021476	13.420779	-41.021476	13.420779	-0.317023	-133.529145
7.850000	-0.321625	-134.319255	-40.908261	11.856158	-40.908261	11.856158	-0.321550	-134.308828
7.900000	-0.326180	-135.099515	-40.796570	10.294494	-40.796570	10.294494	-0.326104	-135.088729
7.950000	-0.330804	-135.880515	-40.686706	8.740195	-40.686706	8.740195	-0.330726	-135.869360
8.000000	-0.335463	-136.661886	-40.578416	7.189580	-40.578416	7.189580	-0.335383	-136.650356
8.050000	-0.340182	-137.444040	-40.472030	5.645226	-40.472030	5.645226	-0.340101	-137.432126
8.100000	-0.344946	-138.226755	-40.367335	4.105344	-40.367335	4.105344	-0.344863	-138.214449
8.150000	-0.349761	-139.010261	-40.264580	2.570934	-40.264580	2.570934	-0.349677	-138.997555
8.200000	-0.354630	-139.794560	-40.163712	1.041997	-40.163712	1.041997	-0.354544	-139.781445
8.250000	-0.359543	-140.579622	-40.064764	-0.482037	-40.064764	-0.482037	-0.359456	-140.566090
8.300000	-0.364519	-141.365753	-39.967988	-1.999205	-39.967988	-1.999205	-0.364430	-141.351794
8.350000	-0.369527	-142.152456	-39.872905	-3.512738	-39.872905	-3.512738	-0.369436	-142.138064
8.400000	-0.374595	-142.940305	-39.780093	-5.019000	-39.780093	-5.019000	-0.374503	-142.925469
8.450000	-0.379734	-143.729581	-39.689930	-6.515946	-39.689930	-6.515946	-0.379640	-143.714289
8.500000	-0.384920	-144.519849	-39.601912	-8.006138	-39.601912	-8.006138	-0.384825	-144.504092
8.550000	-0.390156	-145.311136	-39.516048	-9.489228	-39.516048	-9.489228	-0.390059	-145.294905
8.600000	-0.395459	-146.103889	-39.432912	-10.961629	-39.432912	-10.961629	-0.395360	-146.087171
8.650000	-0.400828	-146.898111	-39.352545	-12.422451	-39.352545	-12.422451	-0.400728	-146.880896
8.700000	-0.406252	-147.693541	-39.274585	-13.873186	-39.274585	-13.873186	-0.406151	-147.675818
8.750000	-0.411732	-148.490210	-39.199043	-15.313272	-39.199043	-15.313272	-0.411630	-148.471968
8.800000	-0.417309	-149.289046	-39.127291	-16.732821	-39.127291	-16.732821	-0.417205	-149.270270
8.850000	-0.422951	-150.089300	-39.058252	-18.137504	-39.058252	-18.137504	-0.422846	-150.069978
8.900000	-0.428661	-150.891007	-38.991953	-19.526292	-38.991953	-19.526292	-0.428554	-150.871129
8.950000	-0.434462	-151.694644	-38.929118	-20.892563	-38.929118	-20.892563	-0.434353	-151.674195
9.000000	-0.440370	-152.500496	-38.870233	-22.230003	-38.870233	-22.230003	-0.440260	-152.479460
9.050000	-0.446365	-153.308058	-38.814495	-23.543222	-38.814495	-23.543222	-0.446254	-153.286423
9.100000	-0.452451	-154.117376	-38.761948	-24.830591	-38.761948	-24.830591	-0.452338	-154.095129
9.150000	-0.458692	-154.929596	-38.714501	-26.070670	-38.714501	-26.070670	-0.458577	-154.906716
9.200000	-0.465060	-155.744034	-38.671044	-27.270273	-38.671044	-27.270273	-0.464943	-155.720505
9.250000	-0.471553	-156.560588	-38.631391	-28.429055	-38.631391	-28.429055	-0.471433	-156.536397
9.300000	-0.478203	-157.379763	-38.596392	-29.534317	-38.596392	-29.534317	-0.478079	-157.354889
9.350000	-0.485075	-158.202487	-38.567707	-30.558535	-38.567707	-30.558535	-0.484947	-158.176907
9.400000	-0.492121	-159.027877	-38.543825	-31.515978	-38.543825	-31.515978	-0.491987	-159.001571
9.450000	-0.499349	-159.856047	-38.524948	-32.400947	-38.524948	-32.400947	-0.499209	-159.828995
9.500000	-0.506871	-160.688678	-38.514177	-33.159280	-38.514177	-33.159280	-0.506723	-160.660846
9.550000	-0.514663	-161.525461	-38.511161	-33.786308	-38.511161	-33.786308	-0.514503	-161.496816
9.600000	-0.522697	-162.366073	-38.515472	-34.284097	-38.515472	-34.284097	-0.522524	-162.336580
9.650000	-0.531006	-163.211145	-38.528492	-34.624412	-38.528492	-34.624412	-0.530816	-163.180764
9.700000	-0.539720	-164.063675	-38.557136	-34.668455	-38.557136	-34.668455	-0.539509	-164.032327
9.750000	-0.548638	-164.920442	-38.595438	-34.526912	-38.595438	-34.526912	-0.548404	-164.888078
9.800000	-0.557896	-165.785597	-38.654383	-33.985368	-38.654383	-33.985368	-0.557633	-165.752107
9.850000	-0.567390	-166.659008	-38.736947	-32.990604	-38.736947	-32.990604	-0.567096	-166.624271
9.900000	-0.577026	-167.541218	-38.849549	-31.433659	-38.849549	-31.433659	-0.576702	-167.505091
9.950000	-0.586679	-168.434086	-39.007510	-29.056204	-39.007510	-29.056204	-0.586329	-168.396382
10.000000	-0.596147	-169.338195	-39.230004	-25.570609	-39.230004	-25.570609	-0.595783	-169.298703
