! freq	dB(S11)	phase(S11)	dB(S12)	phase(S12)	
!     	dB(S21)	phase(S21)	dB(S22)	phase(S22)	
!S-par simulation data
#  GHz  S  DB  R 50
0.000000	-86.729157	0.000000	-0.000400	0.000000	-0.000400	0.000000	-86.729157	0.000000
0.050000	-37.276924	-92.548733	-0.004338	-2.558270	-0.004338	-2.558270	-37.276315	-92.551844
0.100000	-31.285466	-95.305316	-0.012305	-5.086126	-0.012305	-5.086126	-31.285254	-95.309006
0.150000	-27.797950	-97.912766	-0.020738	-7.593982	-0.020738	-7.593982	-27.797961	-97.915570
0.200000	-25.334166	-100.453559	-0.029411	-10.093895	-0.029411	-10.093895	-25.334232	-100.455401
0.250000	-23.431439	-102.964540	-0.038824	-12.590078	-0.038824	-12.590078	-23.431481	-102.965795
0.300000	-21.884686	-105.462461	-0.049320	-15.083123	-0.049320	-15.083123	-21.884681	-105.463477
0.350000	-20.585696	-107.953743	-0.061128	-17.572310	-0.061128	-17.572310	-20.585644	-107.954762
0.400000	-19.468868	-110.440800	-0.074249	-20.057018	-0.074249	-20.057018	-19.468777	-110.441959
0.450000	-18.492377	-112.923878	-0.088684	-22.536475	-0.088684	-22.536475	-18.492257	-112.925257
0.500000	-17.628278	-115.402311	-0.104452	-25.009665	-0.104452	-25.009665	-17.628138	-115.403956
0.550000	-16.855630	-117.875528	-0.121449	-27.476114	-0.121449	-27.476114	-16.855478	-117.877461
0.600000	-16.159135	-120.342858	-0.139586	-29.935335	-0.139586	-29.935335	-16.158976	-120.345090
0.650000	-15.527677	-122.803407	-0.158807	-32.386601	-0.158807	-32.386601	-15.527517	-122.805939
0.700000	-14.952255	-125.256511	-0.179013	-34.829457	-0.179013	-34.829457	-14.952097	-125.259342
0.750000	-14.425323	-127.701831	-0.200079	-37.263779	-0.200079	-37.263779	-14.425170	-127.704957
0.800000	-13.941267	-130.138809	-0.221910	-39.689167	-0.221910	-39.689167	-13.941123	-130.142225
0.850000	-13.495769	-132.566756	-0.244417	-42.105075	-0.244417	-42.105075	-13.495634	-132.570456
0.900000	-13.084272	-134.985761	-0.267462	-44.511748	-0.267462	-44.511748	-13.084148	-134.989740
0.950000	-12.703462	-137.395599	-0.290938	-46.909082	-0.290938	-46.909082	-12.703350	-137.399853
1.000000	-12.351174	-139.795606	-0.314749	-49.296521	-0.314749	-49.296521	-12.351075	-139.800129
1.050000	-12.024371	-142.186141	-0.338768	-51.674536	-0.338768	-51.674536	-12.024285	-142.190932
1.100000	-11.720914	-144.567219	-0.362892	-54.043228	-0.362892	-54.043228	-11.720841	-144.572275
1.150000	-11.439411	-146.938517	-0.387011	-56.402374	-0.387011	-56.402374	-11.439352	-146.943838
1.200000	-11.178079	-149.300266	-0.411018	-58.752283	-0.411018	-58.752283	-11.178033	-149.305852
1.250000	-10.935276	-151.652799	-0.434819	-61.093357	-0.434819	-61.093357	-10.935242	-151.658652
1.300000	-10.709983	-153.996115	-0.458309	-63.425675	-0.458309	-63.425675	-10.709962	-154.002238
1.350000	-10.501291	-156.330287	-0.481385	-65.749388	-0.481385	-65.749388	-10.501282	-156.336686
1.400000	-10.307805	-158.655923	-0.503973	-68.065147	-0.503973	-68.065147	-10.307807	-158.662604
1.450000	-10.128690	-160.973296	-0.525991	-70.373283	-0.525991	-70.373283	-10.128702	-160.980267
1.500000	-9.963686	-163.282344	-0.547319	-72.673828	-0.547319	-72.673828	-9.963708	-163.289616
1.550000	-9.811528	-165.583885	-0.567919	-74.967612	-0.567919	-74.967612	-9.811558	-165.591468
1.600000	-9.671592	-167.878309	-0.587724	-77.255072	-0.587724	-77.255072	-9.671630	-167.886217
1.650000	-9.543738	-170.165755	-0.606628	-79.536429	-0.606628	-79.536429	-9.543783	-170.174003
1.700000	-9.427195	-172.446874	-0.624591	-81.812354	-0.624591	-81.812354	-9.427246	-172.455479
1.750000	-9.321354	-174.722237	-0.641577	-84.083441	-0.641577	-84.083441	-9.321410	-174.731217
1.800000	-9.225945	-176.992252	-0.657521	-86.350145	-0.657521	-86.350145	-9.226006	-177.001627
1.850000	-9.140603	-179.257435	-0.672378	-88.613014	-0.672378	-88.613014	-9.140667	-179.267227
1.900000	-9.065098	178.481728	-0.686096	-90.872575	-0.686096	-90.872575	-9.065166	178.471494
1.950000	-8.999141	176.224677	-0.698639	-93.129414	-0.698639	-93.129414	-8.999211	176.213973
2.000000	-8.942382	173.970816	-0.709991	-95.384139	-0.709991	-95.384139	-8.942453	173.959615
2.050000	-8.894602	171.719588	-0.720128	-97.637327	-0.720128	-97.637327	-8.894673	171.707859
2.100000	-8.855612	169.470432	-0.729033	-99.889557	-0.729033	-99.889557	-8.855684	169.458143
2.150000	-8.825255	167.222787	-0.736691	-102.141406	-0.736691	-102.141406	-8.825326	167.209901
2.200000	-8.803400	164.976086	-0.743095	-104.393454	-0.743095	-104.393454	-8.803470	164.962568
2.250000	-8.789943	162.729768	-0.748239	-106.646275	-0.748239	-106.646275	-8.790013	162.715577
2.300000	-8.784808	160.483274	-0.752127	-108.900439	-0.752127	-108.900439	-8.784877	160.468368
2.350000	-8.787942	158.236048	-0.754762	-111.156511	-0.754762	-111.156511	-8.788010	158.220382
2.400000	-8.799320	155.987544	-0.756156	-113.415045	-0.756156	-113.415045	-8.799386	155.971070
2.450000	-8.818937	153.737222	-0.756324	-115.676592	-0.756324	-115.676592	-8.819002	153.719888
2.500000	-8.846818	151.484555	-0.755284	-117.941687	-0.755284	-117.941687	-8.846882	151.466307
2.550000	-8.883186	149.228950	-0.753036	-120.210958	-0.753036	-120.210958	-8.883249	149.209730
2.600000	-8.927934	146.969960	-0.749632	-122.484839	-0.749632	-122.484839	-8.927997	146.949704
2.650000	-8.981161	144.707098	-0.745106	-124.763829	-0.745106	-124.763829	-8.981224	144.685741
2.700000	-9.042988	142.439897	-0.739492	-127.048410	-0.739492	-127.048410	-9.043051	142.417370
2.750000	-9.113563	140.167911	-0.732830	-129.339049	-0.732830	-129.339049	-9.113627	140.144137
2.800000	-9.193063	137.890714	-0.725164	-131.636194	-0.725164	-131.636194	-9.193128	137.865613
2.850000	-9.281690	135.607905	-0.716539	-133.940276	-0.716539	-133.940276	-9.281758	135.581391
2.900000	-9.379679	133.319111	-0.707006	-136.251703	-0.707006	-136.251703	-9.379751	133.291090
2.950000	-9.487295	131.023983	-0.696618	-138.570865	-0.696618	-138.570865	-9.487371	130.994357
3.000000	-9.604835	128.722208	-0.685431	-140.898129	-0.685431	-140.898129	-9.604917	128.690867
3.050000	-9.732636	126.413504	-0.673503	-143.233838	-0.673503	-143.233838	-9.732724	126.380331
3.100000	-9.871069	124.097624	-0.660898	-145.578314	-0.660898	-145.578314	-9.871164	124.062493
3.150000	-10.020645	121.774282	-0.647672	-147.931950	-0.647672	-147.931950	-10.020749	121.737052
3.200000	-10.181827	119.443310	-0.633894	-150.295026	-0.633894	-150.295026	-10.181941	119.403827
3.250000	-10.355033	117.104674	-0.619640	-152.667682	-0.619640	-152.667682	-10.355159	117.062774
3.300000	-10.540831	114.758312	-0.604981	-155.050130	-0.604981	-155.050130	-10.540971	114.713811
3.350000	-10.739853	112.404217	-0.589988	-157.442553	-0.589988	-157.442553	-10.740007	112.356915
3.400000	-10.952799	110.042443	-0.574735	-159.845107	-0.574735	-159.845107	-10.952970	109.992116
3.450000	-11.180450	107.673111	-0.559297	-162.257915	-0.559297	-162.257915	-11.180640	107.619510
3.500000	-11.423678	105.296416	-0.543748	-164.681071	-0.543748	-164.681071	-11.423890	105.239266
3.550000	-11.683460	102.912637	-0.528165	-167.114638	-0.528165	-167.114638	-11.683695	102.851627
3.600000	-11.960891	100.522148	-0.512625	-169.558649	-0.512625	-169.558649	-11.961152	100.456929
3.650000	-12.257209	98.125429	-0.497202	-172.013104	-0.497202	-172.013104	-12.257499	98.055605
3.700000	-12.573815	95.723085	-0.481974	-174.477971	-0.481974	-174.477971	-12.574138	95.648207
3.750000	-12.912307	93.315869	-0.467015	-176.953188	-0.467015	-176.953188	-12.912667	93.235420
3.800000	-13.274722	90.904643	-0.452408	-179.438883	-0.452408	-179.438883	-13.275124	90.818016
3.850000	-13.662963	88.490665	-0.438220	178.065296	-0.438220	178.065296	-13.663412	88.397166
3.900000	-14.079481	86.075348	-0.424523	175.559507	-0.424523	175.559507	-14.079985	85.974166
3.950000	-14.527147	83.660435	-0.411386	173.043934	-0.411386	173.043934	-14.527715	83.550614
4.000000	-15.009355	81.248093	-0.398876	170.518792	-0.398876	170.518792	-15.009999	81.128493
4.050000	-15.530160	78.841041	-0.387056	167.984323	-0.387056	167.984323	-15.530894	78.710292
4.100000	-16.094460	76.442741	-0.375989	165.440795	-0.375989	165.440795	-16.095305	76.299175
4.150000	-16.708253	74.057672	-0.365732	162.888499	-0.365732	162.888499	-16.709234	73.899228
4.200000	-17.378993	71.691742	-0.356340	160.327753	-0.356340	160.327753	-17.380147	71.515839
4.250000	-18.116105	69.352936	-0.347864	157.758892	-0.347864	157.758892	-18.117483	69.156278
4.300000	-18.931749	67.052345	-0.340352	155.182274	-0.340352	155.182274	-18.933426	66.830638
4.350000	-19.841996	64.805888	-0.333846	152.598270	-0.333846	152.598270	-19.844084	64.553391
4.400000	-20.868791	62.638588	-0.328396	150.007199	-0.328396	150.007199	-20.871466	62.347268
4.450000	-22.042899	60.589783	-0.324038	147.409477	-0.324038	147.409477	-22.046455	60.248013
4.500000	-23.409534	58.723612	-0.320789	144.805591	-0.320789	144.805591	-23.414490	58.313923
4.550000	-25.039313	57.159142	-0.318674	142.195961	-0.318674	142.195961	-25.046680	56.653290
4.600000	-27.051032	56.141057	-0.317714	139.581015	-0.317714	139.581015	-27.063046	55.489018
4.650000	-29.666967	56.264876	-0.317922	136.961180	-0.317922	136.961180	-29.689630	55.365578
4.700000	-33.370951	59.447775	-0.319309	134.336884	-0.319309	134.336884	-33.426626	58.053085
4.750000	-39.331817	76.246107	-0.321880	131.708555	-0.321880	131.708555	-39.573850	73.797885
4.800000	-43.211589	149.650588	-0.325638	129.076613	-0.325638	129.076613	-43.840856	151.075488
4.850000	-36.120799	-166.960117	-0.330577	126.441475	-0.330577	126.441475	-36.238740	-165.001306
4.900000	-31.448435	-159.818772	-0.336691	123.803545	-0.336691	123.803545	-31.489425	-158.610732
4.950000	-28.366561	-158.587929	-0.343967	121.163219	-0.343967	121.163219	-28.387510	-157.718268
5.000000	-26.090553	-159.165473	-0.352390	118.520877	-0.352390	118.520877	-26.103513	-158.481996
5.050000	-24.293459	-160.534214	-0.361963	115.876857	-0.361963	115.876857	-24.302443	-159.966976
5.100000	-22.812669	-162.304850	-0.372638	113.231552	-0.372638	113.231552	-22.819370	-161.817598
5.150000	-21.556341	-164.313823	-0.384389	110.585289	-0.384389	110.585289	-21.561605	-163.884842
5.200000	-20.467669	-166.475346	-0.397186	107.938379	-0.397186	107.938379	-20.471967	-166.090653
5.250000	-19.509095	-168.740189	-0.410997	105.291109	-0.410997	105.291109	-19.512710	-168.390269
5.300000	-18.654499	-171.078095	-0.425788	102.643746	-0.425788	102.643746	-18.657612	-170.756191
5.350000	-17.884977	-173.469437	-0.441522	99.996533	-0.441522	99.996533	-17.887707	-173.170583
5.400000	-17.186399	-175.900923	-0.458162	97.349692	-0.458162	97.349692	-17.188832	-175.621367
5.450000	-16.547923	-178.363225	-0.475669	94.703419	-0.475669	94.703419	-16.550118	-178.100066
5.500000	-15.961039	179.150395	-0.494001	92.057887	-0.494001	92.057887	-15.963041	179.399445
5.550000	-15.418941	176.644926	-0.513119	89.413248	-0.513119	89.413248	-15.420785	176.881703
5.600000	-14.916096	174.124140	-0.532981	86.769627	-0.532981	86.769627	-14.917807	174.350133
5.650000	-14.448019	171.590826	-0.553553	84.127141	-0.553553	84.127141	-14.449617	171.807273
5.700000	-14.010889	169.047301	-0.574791	81.485874	-0.574791	81.485874	-14.012391	169.255230
5.750000	-13.601402	166.495457	-0.596648	78.845872	-0.596648	78.845872	-13.602821	166.695719
5.800000	-13.216812	163.936694	-0.619085	76.207172	-0.619085	76.207172	-13.218160	164.130011
5.850000	-12.854753	161.372139	-0.642062	73.569792	-0.642062	73.569792	-12.856038	161.559126
5.900000	-12.513171	158.802700	-0.665543	70.933731	-0.665543	70.933731	-12.514402	158.983887
5.950000	-12.190273	156.229115	-0.689492	68.298972	-0.689492	68.298972	-12.191456	156.404957
6.000000	-11.884477	153.651981	-0.713873	65.665478	-0.713873	65.665478	-11.885618	153.822877
6.050000	-11.594385	151.071787	-0.738655	63.033201	-0.738655	63.033201	-11.595489	151.238080
6.100000	-11.318751	148.488928	-0.763807	60.402077	-0.763807	60.402077	-11.319821	148.650920
6.150000	-11.056459	145.903723	-0.789300	57.772032	-0.789300	57.772032	-11.057500	146.061681
6.200000	-10.806507	143.316434	-0.815109	55.142980	-0.815109	55.142980	-10.807523	143.470589
6.250000	-10.567990	140.727268	-0.841209	52.514825	-0.841209	52.514825	-10.568984	140.877827
6.300000	-10.340178	138.136359	-0.867583	49.887481	-0.867583	49.887481	-10.341151	138.283506
6.350000	-10.122225	135.543879	-0.894206	47.260819	-0.894206	47.260819	-10.123181	135.687776
6.400000	-9.913450	132.949934	-0.921062	44.634726	-0.921062	44.634726	-9.914392	133.090722
6.450000	-9.713233	130.354605	-0.948138	42.009085	-0.948138	42.009085	-9.714161	130.492410
6.500000	-9.521003	127.757959	-0.975420	39.383778	-0.975420	39.383778	-9.521919	127.892894
6.550000	-9.336234	125.160049	-1.002900	36.758689	-1.002900	36.758689	-9.337140	125.292212
6.600000	-9.158444	122.560917	-1.030572	34.133702	-1.030572	34.133702	-9.159342	122.690397
6.650000	-8.987189	119.960600	-1.058429	31.508701	-1.058429	31.508701	-8.988079	120.087475
6.700000	-8.822056	117.359130	-1.086471	28.883579	-1.086471	28.883579	-8.822940	117.483469
6.750000	-8.662664	114.756536	-1.114695	26.258231	-1.114695	26.258231	-8.663543	114.878400
6.800000	-8.508664	112.152847	-1.143104	23.632559	-1.143104	23.632559	-8.509537	112.272290
6.850000	-8.359727	109.548094	-1.171702	21.006473	-1.171702	21.006473	-8.360596	109.665164
6.900000	-8.215576	106.942301	-1.200494	18.379886	-1.200494	18.379886	-8.216442	107.057038
6.950000	-8.075927	104.335505	-1.229487	15.752723	-1.229487	15.752723	-8.076789	104.447947
7.000000	-7.940497	101.727761	-1.258689	13.124928	-1.258689	13.124928	-7.941355	101.837938
7.050000	-7.809046	99.119117	-1.288108	10.496452	-1.288108	10.496452	-7.809901	99.227056
7.100000	-7.681352	96.509627	-1.317755	7.867257	-1.317755	7.867257	-7.682205	96.615350
7.150000	-7.557213	93.899352	-1.347641	5.237316	-1.347641	5.237316	-7.558061	94.002878
7.200000	-7.436438	91.288361	-1.377778	2.606617	-1.377778	2.606617	-7.437283	91.389704
7.250000	-7.318854	88.676726	-1.408176	-0.024841	-1.408176	-0.024841	-7.319695	88.775900
7.300000	-7.204301	86.064532	-1.438848	-2.657044	-1.438848	-2.657044	-7.205138	86.161545
7.350000	-7.092634	83.451864	-1.469807	-5.289968	-1.469807	-5.289968	-7.093466	83.546723
7.400000	-6.983719	80.838819	-1.501062	-7.923573	-1.501062	-7.923573	-6.984545	80.931528
7.450000	-6.877435	78.225496	-1.532625	-10.557807	-1.532625	-10.557807	-6.878255	78.316058
7.500000	-6.773671	75.612004	-1.564506	-13.192607	-1.564506	-13.192607	-6.774484	75.700417
7.550000	-6.672356	72.998453	-1.596718	-15.827904	-1.596718	-15.827904	-6.673161	73.084717
7.600000	-6.573372	70.384965	-1.629263	-18.463600	-1.629263	-18.463600	-6.574170	70.469075
7.650000	-6.476644	67.771659	-1.662148	-21.099595	-1.662148	-21.099595	-6.477432	67.853609
7.700000	-6.382102	65.158658	-1.695375	-23.735782	-1.695375	-23.735782	-6.382881	65.238442
7.750000	-6.289689	62.546087	-1.728947	-26.372044	-1.728947	-26.372044	-6.290457	62.623695
7.800000	-6.199352	59.934072	-1.762862	-29.008258	-1.762862	-29.008258	-6.200110	60.009495
7.850000	-6.111053	57.322738	-1.797117	-31.644295	-1.797117	-31.644295	-6.111799	57.395964
7.900000	-6.024756	54.712212	-1.831705	-34.280019	-1.831705	-34.280019	-6.025490	54.783228
7.950000	-5.940436	52.102615	-1.866618	-36.915295	-1.866618	-36.915295	-5.941158	52.171409
8.000000	-5.858075	49.494070	-1.901842	-39.549982	-1.901842	-39.549982	-5.858785	49.560625
8.050000	-5.777663	46.886691	-1.937361	-42.183943	-1.937361	-42.183943	-5.778359	46.950992
8.100000	-5.699195	44.280591	-1.973157	-44.817040	-1.973157	-44.817040	-5.699878	44.342621
8.150000	-5.622689	41.675891	-2.009207	-47.449129	-2.009207	-47.449129	-5.623359	41.735630
8.200000	-5.548156	39.072691	-2.045482	-50.080079	-2.045482	-50.080079	-5.548812	39.130120
8.250000	-5.475597	36.471064	-2.081950	-52.709780	-2.081950	-52.709780	-5.476241	36.526162
8.300000	-5.405036	33.871090	-2.118576	-55.338124	-2.118576	-55.338124	-5.405668	33.923835
8.350000	-5.336546	31.272887	-2.155318	-57.964969	-2.155318	-57.964969	-5.337164	31.323255
8.400000	-5.269999	28.676327	-2.192141	-60.590391	-2.192141	-60.590391	-5.270607	28.724296
8.450000	-5.205684	26.081733	-2.228980	-63.214075	-2.228980	-63.214075	-5.206280	26.127274
8.500000	-5.143423	23.488884	-2.265801	-65.836192	-2.265801	-65.836192	-5.144009	23.531971
8.550000	-5.083399	20.897935	-2.302532	-68.456582	-2.302532	-68.456582	-5.083977	20.938538
8.600000	-5.025634	18.308843	-2.339116	-71.075271	-2.339116	-71.075271	-5.026205	18.346932
8.650000	-4.970116	15.721513	-2.375499	-73.692341	-2.375499	-73.692341	-4.970680	15.757055
8.700000	-4.917102	13.136074	-2.411572	-76.307674	-2.411572	-76.307674	-4.917663	13.169032
8.750000	-4.866341	10.552192	-2.447334	-78.921586	-2.447334	-78.921586	-4.866899	10.582533
8.800000	-4.818380	7.970130	-2.482584	-81.533861	-2.482584	-81.533861	-4.818938	7.997809
8.850000	-4.772816	5.389440	-2.517369	-84.144931	-2.517369	-84.144931	-4.773375	5.414418
8.900000	-4.730110	2.810210	-2.551491	-86.754770	-2.551491	-86.754770	-4.730673	2.832437
8.950000	-4.690113	0.232150	-2.584930	-89.363684	-2.584930	-89.363684	-4.690682	0.251579
9.000000	-4.653028	-2.344888	-2.617555	-91.971880	-2.617555	-91.971880	-4.653606	-2.328310
9.050000	-4.619017	-4.921107	-2.649240	-94.579627	-2.649240	-94.579627	-4.619607	-4.907440
9.100000	-4.587969	-7.496807	-2.679963	-97.187263	-2.679963	-97.187263	-4.588573	-7.486111
9.150000	-4.560423	-10.072221	-2.709445	-99.795168	-2.709445	-99.795168	-4.561045	-10.064570
9.200000	-4.535951	-12.647681	-2.737795	-102.403669	-2.737795	-102.403669	-4.536594	-12.643144
9.250000	-4.515348	-15.223590	-2.764613	-105.013402	-2.764613	-105.013402	-4.516015	-15.222256
9.300000	-4.498151	-17.800239	-2.790032	-107.624645	-2.790032	-107.624645	-4.498846	-17.802193
9.350000	-4.484950	-20.378165	-2.813727	-110.238166	-2.813727	-110.238166	-4.485676	-20.383511
9.400000	-4.475690	-22.957748	-2.835661	-112.854430	-2.835661	-112.854430	-4.476451	-22.966593
9.450000	-4.470555	-25.539490	-2.855687	-115.474098	-2.855687	-115.474098	-4.471355	-25.551954
9.500000	-4.469993	-28.124081	-2.873535	-118.098112	-2.873535	-118.098112	-4.470836	-28.140304
9.550000	-4.473693	-30.711747	-2.889302	-120.726710	-2.889302	-120.726710	-4.474583	-30.731866
9.600000	-4.482710	-33.303768	-2.902412	-123.361688	-2.902412	-123.361688	-4.483653	-33.327965
9.650000	-4.496341	-35.899999	-2.913177	-126.002758	-2.913177	-126.002758	-4.497341	-35.928440
9.700000	-4.515759	-38.502030	-2.920951	-128.652147	-2.920951	-128.652147	-4.516822	-38.534937
9.750000	-4.540524	-41.109863	-2.925935	-131.309805	-2.925935	-131.309805	-4.541656	-41.147452
9.800000	-4.571394	-43.724807	-2.927701	-133.977565	-2.927701	-133.977565	-4.572601	-43.767340
9.850000	-4.608601	-46.347583	-2.926112	-136.656429	-2.926112	-136.656429	-4.609891	-46.395345
9.900000	-4.652275	-48.978770	-2.921093	-139.347225	-2.921093	-139.347225	-4.653656	-49.032070
9.950000	-4.703479	-51.620214	-2.912073	-142.052604	-2.912073	-142.052604	-4.704962	-51.679431
10.000000	-4.761571	-54.271315	-2.899433	-144.771765	-2.899433	-144.771765	-4.763166	-54.336813
