! freq	dB(S11)	phase(S11)	dB(S12)	phase(S12)	
!     	dB(S21)	phase(S21)	dB(S22)	phase(S22)	
!S-par simulation data
#  GHz  S  DB  R 50
0.000000	-0.000000	-0.000000	-347.463855	180.000000	-347.463855	180.000000	-0.000000	-0.000000
0.050000	-0.000781	-1.165843	-111.633207	89.203825	-111.633207	89.203825	-0.000543	-0.773044
0.100000	-0.002563	-2.325508	-105.656410	88.225069	-105.656410	88.225069	-0.001725	-1.541596
0.150000	-0.004516	-3.478715	-102.205678	87.305960	-102.205678	87.305960	-0.002950	-2.305901
0.200000	-0.006261	-4.627888	-99.811704	86.426638	-99.811704	86.426638	-0.004005	-3.067866
0.250000	-0.007807	-5.775290	-98.001865	85.586051	-98.001865	85.586051	-0.004930	-3.828913
0.300000	-0.009210	-6.921747	-96.575709	84.794699	-96.575709	84.794699	-0.005776	-4.589496
0.350000	-0.010544	-8.067672	-95.424607	84.064009	-95.424607	84.064009	-0.006594	-5.349810
0.400000	-0.011860	-9.213193	-94.485546	83.409017	-94.485546	83.409017	-0.007419	-6.109890
0.450000	-0.013196	-10.358271	-93.726072	82.857388	-93.726072	82.857388	-0.008275	-6.869696
0.500000	-0.014567	-11.502893	-93.110447	82.422561	-93.110447	82.422561	-0.009172	-7.629224
0.550000	-0.015977	-12.646990	-92.620630	82.131067	-92.620630	82.131067	-0.010115	-8.388451
0.600000	-0.017423	-13.790481	-92.244300	82.016027	-92.244300	82.016027	-0.011102	-9.147365
0.650000	-0.018899	-14.933276	-91.973111	82.119292	-91.973111	82.119292	-0.012131	-9.905958
0.700000	-0.020395	-16.075273	-91.801533	82.494358	-91.801533	82.494358	-0.013193	-10.664226
0.750000	-0.021901	-17.216293	-91.731659	83.237039	-91.731659	83.237039	-0.014279	-11.422133
0.800000	-0.023404	-18.356200	-91.759817	84.453647	-91.759817	84.453647	-0.015373	-12.179649
0.850000	-0.024898	-19.494874	-91.879359	86.276129	-91.879359	86.276129	-0.016461	-12.936723
0.900000	-0.026379	-20.632286	-92.077479	88.821047	-92.077479	88.821047	-0.017532	-13.693314
0.950000	-0.027843	-21.768241	-92.345495	92.342787	-92.345495	92.342787	-0.018577	-14.449306
1.000000	-0.029291	-22.902629	-92.655495	97.108017	-92.655495	97.108017	-0.019593	-15.204600
1.050000	-0.030724	-24.035358	-92.955652	103.395368	-92.955652	103.395368	-0.020581	-15.959108
1.100000	-0.032145	-25.166349	-93.160234	111.395637	-93.160234	111.395637	-0.021542	-16.712757
1.150000	-0.033556	-26.295543	-93.151315	121.022386	-93.151315	121.022386	-0.022484	-17.465498
1.200000	-0.034962	-27.422889	-92.811582	131.704479	-92.811582	131.704479	-0.023413	-18.217301
1.250000	-0.036363	-28.548351	-92.087228	142.409287	-92.087228	142.409287	-0.024332	-18.968151
1.300000	-0.037763	-29.671812	-91.009908	151.999002	-91.009908	151.999002	-0.025248	-19.718005
1.350000	-0.039162	-30.793330	-89.718463	159.922915	-89.718463	159.922915	-0.026163	-20.466907
1.400000	-0.040561	-31.912883	-88.329734	166.124649	-88.329734	166.124649	-0.027080	-21.214865
1.450000	-0.041961	-33.030452	-86.925328	170.811970	-86.925328	170.811970	-0.027999	-21.961883
1.500000	-0.043363	-34.146016	-85.551977	174.267197	-85.551977	174.267197	-0.028922	-22.707966
1.550000	-0.044765	-35.259559	-84.232435	176.754366	-84.232435	176.754366	-0.029848	-23.453117
1.600000	-0.046168	-36.371061	-82.975463	178.489776	-82.975463	178.489776	-0.030779	-24.197336
1.650000	-0.047572	-37.480505	-81.782408	179.640981	-81.782408	179.640981	-0.031713	-24.940621
1.700000	-0.048977	-38.587872	-80.650994	-179.665031	-80.650994	-179.665031	-0.032650	-25.682968
1.750000	-0.050382	-39.693144	-79.577367	-179.332487	-79.577367	-179.332487	-0.033590	-26.424373
1.800000	-0.051787	-40.796302	-78.557152	-179.288880	-78.557152	-179.288880	-0.034534	-27.164827
1.850000	-0.053193	-41.897328	-77.585978	-179.478866	-77.585978	-179.478866	-0.035480	-27.904323
1.900000	-0.054599	-42.996203	-76.659718	-179.859769	-76.659718	-179.859769	-0.036429	-28.642853
1.950000	-0.056005	-44.092909	-75.774588	179.601686	-75.774588	179.601686	-0.037381	-29.380405
2.000000	-0.057411	-45.187427	-74.927172	178.931731	-74.927172	178.931731	-0.038335	-30.116969
2.050000	-0.058818	-46.279741	-74.114408	178.151268	-74.114408	178.151268	-0.039292	-30.852533
2.100000	-0.060226	-47.369833	-73.333560	177.277126	-73.333560	177.277126	-0.040252	-31.587086
2.150000	-0.061635	-48.457687	-72.582189	176.322985	-72.582189	176.322985	-0.041215	-32.320616
2.200000	-0.063045	-49.543285	-71.858116	175.300066	-71.858116	175.300066	-0.042181	-33.053110
2.250000	-0.064457	-50.626614	-71.159390	174.217652	-71.159390	174.217652	-0.043150	-33.784555
2.300000	-0.065872	-51.707657	-70.484266	173.083485	-70.484266	173.083485	-0.044123	-34.514939
2.350000	-0.067289	-52.786402	-69.831172	171.904067	-69.831172	171.904067	-0.045099	-35.244249
2.400000	-0.068710	-53.862836	-69.198693	170.684896	-69.198693	170.684896	-0.046079	-35.972472
2.450000	-0.070134	-54.936945	-68.585548	169.430653	-68.585548	169.430653	-0.047064	-36.699594
2.500000	-0.071563	-56.008719	-67.990579	168.145346	-67.990579	168.145346	-0.048053	-37.425604
2.550000	-0.072997	-57.078046	-67.411806	166.831365	-67.411806	166.831365	-0.049048	-38.150439
2.600000	-0.074437	-58.145018	-66.849292	165.492990	-66.849292	165.492990	-0.050047	-38.874135
2.650000	-0.075884	-59.209626	-66.302145	164.132774	-66.302145	164.132774	-0.051052	-39.596678
2.700000	-0.077337	-60.271865	-65.769550	162.752951	-65.769550	162.752951	-0.052063	-40.318058
2.750000	-0.078798	-61.331728	-65.250757	161.355484	-65.250757	161.355484	-0.053080	-41.038261
2.800000	-0.080267	-62.389210	-64.745078	159.942107	-64.745078	159.942107	-0.054103	-41.757277
2.850000	-0.081745	-63.444309	-64.251874	158.514354	-64.251874	158.514354	-0.055133	-42.475093
2.900000	-0.083233	-64.497022	-63.770559	157.073590	-63.770559	157.073590	-0.056170	-43.191697
2.950000	-0.084731	-65.547348	-63.300586	155.621030	-63.300586	155.621030	-0.057214	-43.907079
3.000000	-0.086241	-66.595288	-62.841449	154.157762	-62.841449	154.157762	-0.058266	-44.621228
3.050000	-0.087761	-67.640841	-62.392677	152.684762	-62.392677	152.684762	-0.059326	-45.334134
3.100000	-0.089294	-68.684012	-61.953829	151.202910	-61.953829	151.202910	-0.060395	-46.045785
3.150000	-0.090840	-69.724803	-61.524495	149.712996	-61.524495	149.712996	-0.061471	-46.756172
3.200000	-0.092399	-70.763221	-61.104292	148.215739	-61.104292	148.215739	-0.062557	-47.465286
3.250000	-0.093973	-71.799270	-60.692859	146.711787	-60.692859	146.711787	-0.063652	-48.173116
3.300000	-0.095561	-72.832960	-60.289859	145.201734	-60.289859	145.201734	-0.064756	-48.879654
3.350000	-0.097165	-73.864298	-59.894974	143.686116	-59.894974	143.686116	-0.065870	-49.584892
3.400000	-0.098785	-74.893295	-59.507905	142.165426	-59.507905	142.165426	-0.066994	-50.288820
3.450000	-0.100422	-75.919962	-59.128370	140.640114	-59.128370	140.640114	-0.068129	-50.991431
3.500000	-0.102076	-76.944311	-58.756105	139.110594	-58.756105	139.110594	-0.069274	-51.692717
3.550000	-0.103749	-77.966357	-58.390856	137.577244	-58.390856	137.577244	-0.070430	-52.392670
3.600000	-0.105439	-78.986114	-58.032388	136.040415	-58.032388	136.040415	-0.071597	-53.091284
3.650000	-0.107150	-80.003599	-57.680474	134.500428	-57.680474	134.500428	-0.072776	-53.788553
3.700000	-0.108880	-81.018829	-57.334902	132.957583	-57.334902	132.957583	-0.073967	-54.484468
3.750000	-0.110630	-82.031823	-56.995467	131.412154	-56.995467	131.412154	-0.075170	-55.179026
3.800000	-0.112403	-83.042505	-56.661683	129.864310	-56.661683	129.864310	-0.076385	-55.872160
3.850000	-0.114197	-84.050995	-56.333682	128.314397	-56.333682	128.314397	-0.077613	-56.563924
3.900000	-0.116014	-85.057314	-56.011291	126.762636	-56.011291	126.762636	-0.078854	-57.254314
3.950000	-0.117853	-86.061487	-55.694341	125.209232	-55.694341	125.209232	-0.080108	-57.943325
4.000000	-0.119717	-87.063538	-55.382671	123.654377	-55.382671	123.654377	-0.081375	-58.630952
4.050000	-0.121604	-88.063493	-55.076130	122.098252	-55.076130	122.098252	-0.082656	-59.317192
4.100000	-0.123516	-89.061380	-54.774571	120.541025	-54.774571	120.541025	-0.083951	-60.002040
4.150000	-0.125453	-90.057228	-54.477855	118.982854	-54.477855	118.982854	-0.085260	-60.685494
4.200000	-0.127416	-91.051066	-54.185848	117.423891	-54.185848	117.423891	-0.086582	-61.367550
4.250000	-0.129406	-92.042925	-53.898423	115.864276	-53.898423	115.864276	-0.087919	-62.048205
4.300000	-0.131423	-93.032836	-53.615455	114.304143	-53.615455	114.304143	-0.089270	-62.727455
4.350000	-0.133467	-94.020834	-53.336829	112.743619	-53.336829	112.743619	-0.090636	-63.405298
4.400000	-0.135539	-95.006953	-53.062429	111.182824	-53.062429	111.182824	-0.092017	-64.081730
4.450000	-0.137641	-95.991228	-52.792149	109.621874	-52.792149	109.621874	-0.093412	-64.756749
4.500000	-0.139771	-96.973695	-52.525882	108.060878	-52.525882	108.060878	-0.094822	-65.430350
4.550000	-0.141932	-97.954394	-52.263529	106.499940	-52.263529	106.499940	-0.096248	-66.102531
4.600000	-0.144122	-98.933362	-52.004991	104.939161	-52.004991	104.939161	-0.097689	-66.773287
4.650000	-0.146344	-99.910641	-51.750176	103.378638	-51.750176	103.378638	-0.099147	-67.442615
4.700000	-0.148598	-100.886271	-51.498993	101.818464	-51.498993	101.818464	-0.100620	-68.110510
4.750000	-0.150884	-101.860296	-51.251354	100.258729	-51.251354	100.258729	-0.102112	-68.776970
4.800000	-0.153202	-102.832759	-51.007175	98.699520	-51.007175	98.699520	-0.103621	-69.441993
4.850000	-0.155554	-103.803705	-50.766373	97.140924	-50.766373	97.140924	-0.105150	-70.105575
4.900000	-0.157940	-104.773182	-50.528869	95.583022	-50.528869	95.583022	-0.106700	-70.767719
4.950000	-0.160361	-105.741235	-50.294585	94.025897	-50.294585	94.025897	-0.108272	-71.428425
5.000000	-0.162816	-106.707916	-50.063448	92.469629	-50.063448	92.469629	-0.109867	-72.087697
5.050000	-0.165315	-107.672996	-49.834751	90.914518	-49.834751	90.914518	-0.111491	-72.745233
5.100000	-0.167845	-108.637015	-49.609515	89.360300	-49.609515	89.360300	-0.113138	-73.401564
5.150000	-0.170407	-109.599996	-49.387631	87.807010	-49.387631	87.807010	-0.114807	-74.056694
5.200000	-0.173009	-110.561710	-49.168376	86.254977	-49.168376	86.254977	-0.116504	-74.710304
5.250000	-0.175655	-111.522156	-48.951505	84.704421	-48.951505	84.704421	-0.118232	-75.362297
5.300000	-0.178335	-112.481724	-48.737763	83.155021	-48.737763	83.155021	-0.119984	-76.013112
5.350000	-0.181049	-113.440439	-48.527055	81.606813	-48.527055	81.606813	-0.121758	-76.662752
5.400000	-0.183815	-114.397939	-48.318175	80.060589	-48.318175	80.060589	-0.123568	-77.310587
5.450000	-0.186619	-115.354666	-48.112021	78.515884	-48.112021	78.515884	-0.125402	-77.957155
5.500000	-0.189459	-116.310719	-47.908694	76.972625	-47.908694	76.972625	-0.127260	-78.602564
5.550000	-0.192341	-117.266030	-47.707760	75.431150	-47.707760	75.431150	-0.129145	-79.246609
5.600000	-0.195278	-118.220550	-47.508642	73.892052	-47.508642	73.892052	-0.131062	-79.888982
5.650000	-0.198252	-119.174602	-47.312141	72.354705	-47.312141	72.354705	-0.133003	-80.530211
5.700000	-0.201265	-120.128219	-47.118178	70.819161	-47.118178	70.819161	-0.134968	-81.170297
5.750000	-0.204335	-121.081319	-46.925849	69.286428	-46.925849	69.286428	-0.136966	-81.808728
5.800000	-0.207454	-122.034124	-46.735584	67.756193	-46.735584	67.756193	-0.138992	-82.445821
5.850000	-0.210614	-122.986742	-46.547631	66.228185	-46.547631	66.228185	-0.141042	-83.081786
5.900000	-0.213821	-123.939213	-46.361754	64.702711	-46.361754	64.702711	-0.143118	-83.716524
5.950000	-0.217097	-124.891672	-46.177039	63.181210	-46.177039	63.181210	-0.145233	-84.349534
6.000000	-0.220421	-125.844253	-45.994367	61.662552	-45.994367	61.662552	-0.147372	-84.981431
6.050000	-0.223793	-126.797014	-45.813658	60.146862	-45.813658	60.146862	-0.149536	-85.612220
6.100000	-0.227235	-127.750185	-45.634123	58.635583	-45.634123	58.635583	-0.151735	-86.241503
6.150000	-0.230747	-128.703983	-45.455749	57.129000	-45.455749	57.129000	-0.153966	-86.869393
6.200000	-0.234318	-129.658421	-45.278936	55.626474	-45.278936	55.626474	-0.156224	-87.496192
6.250000	-0.237952	-130.613585	-45.103593	54.128213	-45.103593	54.128213	-0.158509	-88.121904
6.300000	-0.241702	-131.570410	-44.927983	52.638149	-44.927983	52.638149	-0.160837	-88.745851
6.350000	-0.245536	-132.528622	-44.753235	51.154071	-44.753235	51.154071	-0.163193	-89.368729
6.400000	-0.249462	-133.488404	-44.579166	49.676453	-44.579166	49.676453	-0.165577	-89.990539
6.450000	-0.253522	-134.450591	-44.404621	48.208114	-44.404621	48.208114	-0.167996	-90.610999
6.500000	-0.257772	-135.416314	-44.228301	46.752137	-44.228301	46.752137	-0.170455	-91.230023
6.550000	-0.262206	-136.385392	-44.050794	45.306997	-44.050794	45.306997	-0.172942	-91.847999
6.600000	-0.266848	-137.358258	-43.871696	43.873659	-43.871696	43.873659	-0.175459	-92.464929
6.650000	-0.271969	-138.339297	-43.685429	42.463229	-43.685429	42.463229	-0.178021	-93.080251
6.700000	-0.277541	-139.327276	-43.493966	41.069666	-43.493966	41.069666	-0.180611	-93.694629
6.750000	-0.283991	-140.327577	-43.290445	39.702324	-43.290445	39.702324	-0.183239	-94.307691
6.800000	-0.291854	-141.344831	-43.068812	38.362077	-43.068812	38.362077	-0.185903	-94.919519
6.850000	-0.302297	-142.387641	-42.816978	37.044306	-42.816978	37.044306	-0.188602	-95.530085
6.900000	-0.318276	-143.472321	-42.509202	35.713551	-42.509202	35.713551	-0.191332	-96.139285
6.950000	-0.347644	-144.623976	-42.094472	34.202085	-42.094472	34.202085	-0.194076	-96.746978
7.000000	-0.415941	-145.850816	-41.471123	31.722790	-41.471123	31.722790	-0.196756	-97.352872
7.050000	-0.593695	-146.693787	-40.677051	24.658725	-40.677051	24.658725	-0.199035	-97.957693
7.100000	-0.638599	-145.740315	-41.429509	12.883068	-41.429509	12.883068	-0.201356	-98.568186
7.150000	-0.447554	-146.316520	-42.669885	14.007877	-42.669885	14.007877	-0.204737	-99.175377
7.200000	-0.373753	-147.559385	-42.835091	16.693081	-42.835091	16.693081	-0.207983	-99.778468
7.250000	-0.349369	-148.738687	-42.712105	17.524219	-42.712105	17.524219	-0.211117	-100.380120
7.300000	-0.340644	-149.847031	-42.543002	17.371875	-42.543002	17.371875	-0.214227	-100.980757
7.350000	-0.338377	-150.910443	-42.371884	16.705788	-42.371884	16.705788	-0.217347	-101.580387
7.400000	-0.339004	-151.947653	-42.207660	15.769421	-42.207660	15.769421	-0.220492	-102.179013
7.450000	-0.341170	-152.968717	-42.050883	14.673747	-42.050883	14.673747	-0.223668	-102.776648
7.500000	-0.344319	-153.978599	-41.901294	13.468081	-41.901294	13.468081	-0.226886	-103.373115
7.550000	-0.347808	-154.984586	-41.756021	12.223236	-41.756021	12.223236	-0.230125	-103.969036
7.600000	-0.351871	-155.984418	-41.616719	10.911246	-41.616719	10.911246	-0.233419	-104.563569
7.650000	-0.356136	-156.982724	-41.481053	9.576843	-41.481053	9.576843	-0.236745	-105.157320
7.700000	-0.360580	-157.979681	-41.348724	8.222634	-41.348724	8.222634	-0.240100	-105.750379
7.750000	-0.365285	-158.976045	-41.220288	6.843317	-41.220288	6.843317	-0.243516	-106.342014
7.800000	-0.370082	-159.972763	-41.094371	5.457193	-41.094371	5.457193	-0.246961	-106.933034
7.850000	-0.374999	-160.970028	-40.971084	4.062517	-40.971084	4.062517	-0.250443	-107.523240
7.900000	-0.380069	-161.968883	-40.850539	2.660435	-40.850539	2.660435	-0.253979	-108.112274
7.950000	-0.385239	-162.969315	-40.732277	1.256101	-40.732277	1.256101	-0.257555	-108.700501
8.000000	-0.390501	-163.971348	-40.616165	-0.149211	-40.616165	-0.149211	-0.261167	-109.287997
8.050000	-0.395870	-164.975494	-40.502221	-1.554139	-40.502221	-1.554139	-0.264822	-109.874641
8.100000	-0.401375	-165.982673	-40.390542	-2.955099	-40.390542	-2.955099	-0.268530	-110.460271
8.150000	-0.406981	-166.992161	-40.280848	-4.351056	-40.280848	-4.351056	-0.272275	-111.045221
8.200000	-0.412695	-168.004054	-40.173102	-5.740834	-40.173102	-5.740834	-0.276058	-111.629502
8.250000	-0.418582	-169.019755	-40.067584	-7.117255	-40.067584	-7.117255	-0.279895	-112.212844
8.300000	-0.424647	-170.038862	-39.964146	-8.476399	-39.964146	-8.476399	-0.283778	-112.795462
8.350000	-0.430882	-171.060847	-39.862591	-9.817501	-39.862591	-9.817501	-0.287699	-113.377517
8.400000	-0.437385	-172.086783	-39.763051	-11.127221	-39.763051	-11.127221	-0.291670	-113.958878
8.450000	-0.444221	-173.116613	-39.665277	-12.395257	-39.665277	-12.395257	-0.295692	-114.539650
8.500000	-0.451639	-174.151234	-39.568526	-13.586199	-39.568526	-13.586199	-0.299779	-115.119838
8.550000	-0.459917	-175.190007	-39.470141	-14.661169	-39.470141	-14.661169	-0.303943	-115.699661
8.600000	-0.469369	-176.231533	-39.365216	-15.580956	-39.365216	-15.580956	-0.308198	-116.279323
8.650000	-0.481359	-177.272874	-39.233284	-16.182191	-39.233284	-16.182191	-0.312654	-116.859022
8.700000	-0.497986	-178.294067	-38.999777	-16.308269	-38.999777	-16.308269	-0.317578	-117.438700
8.750000	-0.516894	-179.221571	-38.464729	-16.721954	-38.464729	-16.721954	-0.323481	-118.014112
8.800000	-0.504849	179.926822	-37.856552	-21.359928	-37.856552	-21.359928	-0.328745	-118.574281
8.850000	-0.482897	178.828714	-37.972329	-26.313180	-37.972329	-26.313180	-0.331648	-119.140123
8.900000	-0.481870	177.685050	-38.148885	-28.483083	-38.148885	-28.483083	-0.335065	-119.714618
8.950000	-0.486803	176.565218	-38.225580	-29.929650	-38.225580	-29.929650	-0.338993	-120.289840
9.000000	-0.493247	175.461600	-38.230140	-31.233106	-38.230140	-31.233106	-0.343227	-120.864147
9.050000	-0.500063	174.363001	-38.204900	-32.514831	-38.204900	-32.514831	-0.347595	-121.437772
9.100000	-0.506963	173.266511	-38.159846	-33.806621	-38.159846	-33.806621	-0.352061	-122.010720
9.150000	-0.513810	172.168083	-38.100595	-35.123064	-38.100595	-35.123064	-0.356624	-122.582782
9.200000	-0.520617	171.066507	-38.036795	-36.451302	-38.036795	-36.451302	-0.361241	-123.154307
9.250000	-0.527392	169.961657	-37.970032	-37.788101	-37.970032	-37.788101	-0.365905	-123.725366
9.300000	-0.534136	168.852386	-37.901274	-39.131822	-37.901274	-39.131822	-0.370620	-124.295911
9.350000	-0.540856	167.736917	-37.832117	-40.479434	-37.832117	-40.479434	-0.375393	-124.865888
9.400000	-0.547568	166.616891	-37.763746	-41.828940	-37.763746	-41.828940	-0.380204	-125.435506
9.450000	-0.554274	165.492191	-37.696484	-43.180458	-37.696484	-43.180458	-0.385053	-126.004775
9.500000	-0.560974	164.360363	-37.631498	-44.536799	-37.631498	-44.536799	-0.389954	-126.573580
9.550000	-0.567673	163.222470	-37.568843	-45.901449	-37.568843	-45.901449	-0.394898	-127.142042
9.600000	-0.574374	162.079336	-37.508082	-47.275301	-37.508082	-47.275301	-0.399877	-127.710232
9.650000	-0.581077	160.930383	-37.449209	-48.661164	-37.449209	-48.661164	-0.404893	-128.278138
9.700000	-0.587780	159.772901	-37.391802	-50.066709	-37.391802	-50.066709	-0.409962	-128.845689
9.750000	-0.594485	158.609744	-37.334810	-51.483504	-37.334810	-51.483504	-0.415064	-129.413036
9.800000	-0.601190	157.440851	-37.278044	-52.910352	-37.278044	-52.910352	-0.420199	-129.980190
9.850000	-0.607894	156.263975	-37.221015	-54.347095	-37.221015	-54.347095	-0.425378	-130.547108
9.900000	-0.614595	155.079446	-37.163661	-55.787871	-37.163661	-55.787871	-0.430596	-131.113844
9.950000	-0.621292	153.888807	-37.106231	-57.229837	-37.106231	-57.229837	-0.435846	-131.680456
10.000000	-0.627986	152.692004	-37.048780	-58.671860	-37.048780	-58.671860	-0.441128	-132.246954
