! freq	dB(S11)	phase(S11)	dB(S12)	phase(S12)	
!     	dB(S21)	phase(S21)	dB(S22)	phase(S22)	
!S-par simulation data
#  GHz  S  DB  R 50
0.000000	-0.000000	-0.000000	-373.183517	180.000000	-373.183517	180.000000	-0.000000	0.000000
0.050000	-0.002863	-1.183959	-102.557111	87.993086	-102.557111	87.993086	-0.001707	-1.736102
0.100000	-0.005042	-2.344542	-96.643342	86.632384	-96.643342	86.632384	-0.004904	-3.456354
0.150000	-0.006132	-3.503799	-93.218053	85.410064	-93.218053	85.410064	-0.007629	-5.165472
0.200000	-0.006968	-4.663807	-90.819933	84.193451	-90.819933	84.193451	-0.009725	-6.870604
0.250000	-0.007787	-5.824111	-89.001318	82.981249	-89.001318	82.981249	-0.011409	-8.574348
0.300000	-0.008673	-6.984219	-87.564470	81.790408	-87.564470	81.790408	-0.012894	-10.277425
0.350000	-0.009642	-8.143851	-86.392961	80.633543	-86.392961	80.633543	-0.014330	-11.979925
0.400000	-0.010702	-9.302774	-85.426624	79.526479	-85.426624	79.526479	-0.015778	-13.681635
0.450000	-0.011851	-10.460823	-84.624832	78.484480	-84.624832	78.484480	-0.017278	-15.382322
0.500000	-0.013087	-11.617766	-83.967454	77.533449	-83.967454	77.533449	-0.018859	-17.081619
0.550000	-0.014398	-12.773556	-83.430668	76.689593	-83.430668	76.689593	-0.020527	-18.779377
0.600000	-0.015772	-13.928136	-82.999501	75.974206	-82.999501	75.974206	-0.022282	-20.475436
0.650000	-0.017199	-15.081439	-82.664700	75.415517	-82.664700	75.415517	-0.024123	-22.169625
0.700000	-0.018671	-16.233407	-82.419761	75.048211	-82.419761	75.048211	-0.026048	-23.861783
0.750000	-0.020180	-17.383993	-82.260152	74.915461	-82.260152	74.915461	-0.028050	-25.551767
0.800000	-0.021718	-18.533121	-82.184633	75.080498	-82.184633	75.080498	-0.030128	-27.239383
0.850000	-0.023280	-19.680655	-82.195740	75.647994	-82.195740	75.647994	-0.032276	-28.924333
0.900000	-0.024856	-20.826699	-82.282901	76.684634	-82.282901	76.684634	-0.034482	-30.606723
0.950000	-0.026442	-21.971228	-82.441194	78.310436	-82.441194	78.310436	-0.036738	-32.286454
1.000000	-0.028033	-23.114220	-82.661749	80.675766	-82.661749	80.675766	-0.039037	-33.963439
1.050000	-0.029625	-24.255654	-82.928289	83.961996	-82.928289	83.961996	-0.041373	-35.637597
1.100000	-0.031215	-25.395513	-83.212045	88.370890	-83.212045	88.370890	-0.043737	-37.308858
1.150000	-0.032800	-26.533660	-83.457573	94.192966	-83.457573	94.192966	-0.046125	-38.976937
1.200000	-0.034377	-27.670123	-83.583238	101.458806	-83.583238	101.458806	-0.048528	-40.641863
1.250000	-0.035946	-28.804953	-83.501875	109.903982	-83.501875	109.903982	-0.050939	-42.303719
1.300000	-0.037505	-29.938133	-83.139432	118.999350	-83.139432	118.999350	-0.053353	-43.962467
1.350000	-0.039053	-31.069644	-82.472528	127.993032	-82.472528	127.993032	-0.055765	-45.618076
1.400000	-0.040591	-32.199470	-81.541356	136.167970	-81.541356	136.167970	-0.058170	-47.270521
1.450000	-0.042117	-33.327581	-80.425124	143.064795	-80.425124	143.064795	-0.060563	-48.919764
1.500000	-0.043632	-34.453775	-79.188217	148.415745	-79.188217	148.415745	-0.062938	-50.565459
1.550000	-0.045136	-35.578223	-77.928392	152.495209	-77.928392	152.495209	-0.065295	-52.207953
1.600000	-0.046630	-36.700904	-76.685633	155.498247	-76.685633	155.498247	-0.067630	-53.847246
1.650000	-0.048114	-37.821801	-75.481861	157.623186	-75.481861	157.623186	-0.069941	-55.483343
1.700000	-0.049589	-38.940784	-74.321903	159.011029	-74.321903	159.011029	-0.072225	-57.116066
1.750000	-0.051056	-40.057966	-73.217412	159.856095	-73.217412	159.856095	-0.074482	-58.745663
1.800000	-0.052516	-41.173272	-72.165206	160.251382	-72.165206	160.251382	-0.076712	-60.372058
1.850000	-0.053970	-42.286683	-71.163371	160.286198	-71.163371	160.286198	-0.078914	-61.995276
1.900000	-0.055418	-43.398178	-70.209058	160.029743	-70.209058	160.029743	-0.081087	-63.615345
1.950000	-0.056861	-44.507740	-69.299086	159.535817	-69.299086	159.535817	-0.083233	-65.232297
2.000000	-0.058301	-45.615348	-68.430249	158.846528	-68.430249	158.846528	-0.085353	-66.846169
2.050000	-0.059739	-46.720984	-67.599485	157.995107	-67.599485	157.995107	-0.087447	-68.456999
2.100000	-0.061175	-47.824632	-66.803941	157.008006	-66.803941	157.008006	-0.089518	-70.064831
2.150000	-0.062610	-48.926275	-66.041001	155.906479	-66.041001	155.906479	-0.091567	-71.669710
2.200000	-0.064045	-50.025897	-65.308290	154.707749	-65.308290	154.707749	-0.093596	-73.271687
2.250000	-0.065481	-51.123483	-64.603652	153.425897	-64.603652	153.425897	-0.095607	-74.870813
2.300000	-0.066919	-52.219019	-63.925145	152.072528	-63.925145	152.072528	-0.097604	-76.467146
2.350000	-0.068360	-53.312493	-63.271010	150.657279	-63.271010	150.657279	-0.099588	-78.060743
2.400000	-0.069805	-54.403892	-62.639657	149.188213	-62.639657	149.188213	-0.101562	-79.651667
2.450000	-0.071254	-55.493206	-62.029650	147.672119	-62.029650	147.672119	-0.103529	-81.239983
2.500000	-0.072709	-56.580426	-61.439682	146.114754	-61.439682	146.114754	-0.105492	-82.825760
2.550000	-0.074170	-57.665452	-60.867758	144.519640	-60.867758	144.519640	-0.107454	-84.408964
2.600000	-0.075639	-58.748367	-60.313713	142.892691	-60.313713	142.892691	-0.109417	-85.989781
2.650000	-0.077114	-59.829167	-59.776546	141.237467	-59.776546	141.237467	-0.111385	-87.568290
2.700000	-0.078599	-60.907846	-59.255342	139.557052	-59.255342	139.557052	-0.113360	-89.144572
2.750000	-0.080093	-61.984403	-58.749265	137.854136	-58.749265	137.854136	-0.115345	-90.718712
2.800000	-0.081596	-63.058835	-58.257543	136.131069	-58.257543	136.131069	-0.117342	-92.290797
2.850000	-0.083110	-64.131141	-57.779468	134.389914	-57.779468	134.389914	-0.119355	-93.860921
2.900000	-0.084636	-65.201324	-57.314384	132.632487	-57.314384	132.632487	-0.121385	-95.429177
2.950000	-0.086174	-66.269385	-56.861687	130.860393	-56.861687	130.860393	-0.123435	-96.995665
3.000000	-0.087724	-67.335328	-56.420815	129.075052	-56.420815	129.075052	-0.125506	-98.560488
3.050000	-0.089287	-68.399158	-55.991249	127.277726	-55.991249	127.277726	-0.127602	-100.123751
3.100000	-0.090865	-69.460882	-55.572502	125.469538	-55.572502	125.469538	-0.129723	-101.685565
3.150000	-0.092457	-70.520507	-55.164124	123.651489	-55.164124	123.651489	-0.131872	-103.246043
3.200000	-0.094064	-71.578043	-54.765695	121.824472	-54.765695	121.824472	-0.134050	-104.805304
3.250000	-0.095687	-72.633499	-54.376819	119.989289	-54.376819	119.989289	-0.136258	-106.363470
3.300000	-0.097327	-73.686888	-53.997130	118.146657	-53.997130	118.146657	-0.138498	-107.920666
3.350000	-0.098984	-74.738224	-53.626281	116.297218	-53.626281	116.297218	-0.140772	-109.477022
3.400000	-0.100658	-75.787520	-53.263949	114.441550	-53.263949	114.441550	-0.143079	-111.032672
3.450000	-0.102351	-76.834792	-52.909828	112.580172	-52.909828	112.580172	-0.145422	-112.587756
3.500000	-0.104062	-77.880058	-52.563634	110.713550	-52.563634	110.713550	-0.147800	-114.142414
3.550000	-0.105793	-78.923336	-52.225096	108.842104	-52.225096	108.842104	-0.150215	-115.696795
3.600000	-0.107544	-79.964647	-51.893959	106.966210	-51.893959	106.966210	-0.152667	-117.251048
3.650000	-0.109316	-81.004010	-51.569986	105.086207	-51.569986	105.086207	-0.155157	-118.805330
3.700000	-0.111109	-82.041450	-51.252948	103.202399	-51.252948	103.202399	-0.157684	-120.359800
3.750000	-0.112925	-83.076988	-50.942633	101.315059	-50.942633	101.315059	-0.160250	-121.914620
3.800000	-0.114763	-84.110571	-50.638662	99.424300	-50.638662	99.424300	-0.162855	-123.469992
3.850000	-0.116625	-85.142307	-50.341042	97.530490	-50.341042	97.530490	-0.165499	-125.026071
3.900000	-0.118511	-86.172223	-50.049590	95.633823	-50.049590	95.633823	-0.168181	-126.583035
3.950000	-0.120420	-87.200350	-49.764135	93.734470	-49.764135	93.734470	-0.170901	-128.141065
4.000000	-0.122355	-88.226716	-49.484513	91.832583	-49.484513	91.832583	-0.173660	-129.700347
4.050000	-0.124316	-89.251353	-49.210570	89.928300	-49.210570	89.928300	-0.176456	-131.261071
4.100000	-0.126302	-90.274294	-48.942158	88.021738	-48.942158	88.021738	-0.179291	-132.823430
4.150000	-0.128315	-91.295572	-48.679139	86.113003	-48.679139	86.113003	-0.182163	-134.387623
4.200000	-0.130356	-92.315222	-48.421381	84.202186	-48.421381	84.202186	-0.185072	-135.953850
4.250000	-0.132425	-93.333281	-48.168759	82.289368	-48.168759	82.289368	-0.188019	-137.522318
4.300000	-0.134522	-94.349785	-47.921157	80.374616	-47.921157	80.374616	-0.191002	-139.093237
4.350000	-0.136648	-95.364774	-47.678461	78.457989	-47.678461	78.457989	-0.194022	-140.666820
4.400000	-0.138804	-96.378286	-47.440565	76.539536	-47.440565	76.539536	-0.197078	-142.243285
4.450000	-0.140990	-97.390362	-47.207370	74.619298	-47.207370	74.619298	-0.200170	-143.822851
4.500000	-0.143207	-98.401044	-46.978780	72.697306	-46.978780	72.697306	-0.203298	-145.405745
4.550000	-0.145456	-99.410374	-46.754706	70.773588	-46.754706	70.773588	-0.206461	-146.992194
4.600000	-0.147737	-100.418398	-46.535063	68.848162	-46.535063	68.848162	-0.209659	-148.582429
4.650000	-0.150050	-101.425159	-46.319771	66.921042	-46.319771	66.921042	-0.212892	-150.176686
4.700000	-0.152397	-102.430704	-46.108755	64.992236	-46.108755	64.992236	-0.216159	-151.775201
4.750000	-0.154778	-103.435081	-45.901943	63.061749	-45.901943	63.061749	-0.219461	-153.378217
4.800000	-0.157193	-104.438337	-45.699268	61.129579	-45.699268	61.129579	-0.222797	-154.985977
4.850000	-0.159643	-105.440522	-45.500668	59.195722	-45.500668	59.195722	-0.226167	-156.598727
4.900000	-0.162128	-106.441686	-45.306085	57.260171	-45.306085	57.260171	-0.229571	-158.216717
4.950000	-0.164650	-107.441880	-45.115462	55.322914	-45.115462	55.322914	-0.233008	-159.840199
5.000000	-0.167209	-108.441158	-44.928748	53.383940	-44.928748	53.383940	-0.236479	-161.469427
5.050000	-0.169806	-109.439538	-44.745899	51.443157	-44.745899	51.443157	-0.239986	-163.104930
5.100000	-0.172442	-110.437114	-44.566879	49.500621	-44.566879	49.500621	-0.243525	-164.746717
5.150000	-0.175116	-111.433942	-44.391645	47.556316	-44.391645	47.556316	-0.247098	-166.395049
5.200000	-0.177829	-112.430080	-44.220162	45.610221	-44.220162	45.610221	-0.250704	-168.050187
5.250000	-0.180580	-113.425616	-44.052368	43.662416	-44.052368	43.662416	-0.254342	-169.712000
5.300000	-0.183372	-114.420548	-43.888271	41.712703	-43.888271	41.712703	-0.258015	-171.381443
5.350000	-0.186205	-115.414963	-43.727829	39.761140	-43.727829	39.761140	-0.261720	-173.058479
5.400000	-0.189079	-116.408924	-43.571015	37.807706	-43.571015	37.807706	-0.265459	-174.743372
5.450000	-0.191995	-117.402491	-43.417809	35.852384	-43.417809	35.852384	-0.269231	-176.436388
5.500000	-0.194954	-118.395727	-43.268191	33.895154	-43.268191	33.895154	-0.273036	-178.137793
5.550000	-0.197955	-119.388697	-43.122147	31.935999	-43.122147	31.935999	-0.276873	-179.847853
5.600000	-0.200999	-120.381465	-42.979663	29.974904	-42.979663	29.974904	-0.280743	178.433168
5.650000	-0.204087	-121.374096	-42.840744	28.011833	-42.840744	28.011833	-0.284646	176.704904
5.700000	-0.207221	-122.366659	-42.705388	26.046777	-42.705388	26.046777	-0.288582	174.967083
5.750000	-0.210399	-123.359225	-42.573576	24.079747	-42.573576	24.079747	-0.292549	173.219544
5.800000	-0.213622	-124.351861	-42.445308	22.110740	-42.445308	22.110740	-0.296547	171.462029
5.850000	-0.216891	-125.344639	-42.320585	20.139753	-42.320585	20.139753	-0.300577	169.694283
5.900000	-0.220207	-126.337628	-42.199413	18.166791	-42.199413	18.166791	-0.304636	167.916053
5.950000	-0.223569	-127.330902	-42.081800	16.191861	-42.081800	16.191861	-0.308726	166.127090
6.000000	-0.226978	-128.324533	-41.967755	14.214975	-41.967755	14.214975	-0.312843	164.327148
6.050000	-0.230434	-129.318595	-41.857293	12.236152	-41.857293	12.236152	-0.316989	162.515989
6.100000	-0.233939	-130.313164	-41.750431	10.255416	-41.750431	10.255416	-0.321161	160.693375
6.150000	-0.237491	-131.308316	-41.647188	8.272797	-41.647188	8.272797	-0.325359	158.859078
6.200000	-0.241093	-132.304127	-41.547588	6.288335	-41.547588	6.288335	-0.329581	157.012874
6.250000	-0.244744	-133.300677	-41.451656	4.302076	-41.451656	4.302076	-0.333825	155.154546
6.300000	-0.248445	-134.298065	-41.359482	2.314038	-41.359482	2.314038	-0.338091	153.283612
6.350000	-0.252196	-135.296354	-41.271043	0.324326	-41.271043	0.324326	-0.342375	151.400136
6.400000	-0.255997	-136.295627	-41.186375	-1.666984	-41.186375	-1.666984	-0.346675	149.503924
6.450000	-0.259849	-137.295966	-41.105517	-3.659805	-41.105517	-3.659805	-0.350990	147.594796
6.500000	-0.263751	-138.297455	-41.028510	-5.654038	-41.028510	-5.654038	-0.355317	145.672578
6.550000	-0.267705	-139.300179	-40.955402	-7.649572	-40.955402	-7.649572	-0.359653	143.737109
6.600000	-0.271711	-140.304224	-40.886239	-9.646278	-40.886239	-9.646278	-0.363994	141.788241
6.650000	-0.275768	-141.309677	-40.821077	-11.644016	-40.821077	-11.644016	-0.368339	139.825835
6.700000	-0.279877	-142.316625	-40.759971	-13.642627	-40.759971	-13.642627	-0.372683	137.849767
6.750000	-0.284039	-143.325159	-40.702980	-15.641935	-40.702980	-15.641935	-0.377022	135.859928
6.800000	-0.288253	-144.335369	-40.650169	-17.641744	-40.650169	-17.641744	-0.381354	133.856221
6.850000	-0.292519	-145.347346	-40.601606	-19.641839	-40.601606	-19.641839	-0.385674	131.838567
6.900000	-0.296840	-146.361204	-40.557407	-21.641977	-40.557407	-21.641977	-0.389977	129.806748
6.950000	-0.301214	-147.377040	-40.517653	-23.641889	-40.517653	-23.641889	-0.394259	127.760716
7.000000	-0.305641	-148.394929	-40.482379	-25.641282	-40.482379	-25.641282	-0.398516	125.700596
7.050000	-0.310122	-149.414968	-40.451668	-27.639841	-40.451668	-27.639841	-0.402743	123.626378
7.100000	-0.314657	-150.437254	-40.425608	-29.637217	-40.425608	-29.637217	-0.406935	121.538072
7.150000	-0.319245	-151.461884	-40.404293	-31.633031	-40.404293	-31.633031	-0.411088	119.435707
7.200000	-0.323887	-152.488960	-40.387820	-33.626870	-40.387820	-33.626870	-0.415196	117.319333
7.250000	-0.328584	-153.518581	-40.376288	-35.618285	-40.376288	-35.618285	-0.419254	115.189022
7.300000	-0.333334	-154.550851	-40.369806	-37.606784	-40.369806	-37.606784	-0.423259	113.044866
7.350000	-0.338138	-155.585871	-40.368484	-39.591835	-40.368484	-39.591835	-0.427204	110.886983
7.400000	-0.342997	-156.623747	-40.372437	-41.572862	-40.372437	-41.572862	-0.431085	108.715509
7.450000	-0.347909	-157.664584	-40.381787	-43.549236	-40.381787	-43.549236	-0.434899	106.530607
7.500000	-0.352876	-158.708489	-40.396661	-45.520279	-40.396661	-45.520279	-0.438639	104.332463
7.550000	-0.357897	-159.755642	-40.417313	-47.485103	-40.417313	-47.485103	-0.442302	102.121008
7.600000	-0.362973	-160.806084	-40.443762	-49.443021	-40.443762	-49.443021	-0.445885	99.896766
7.650000	-0.368103	-161.859928	-40.476150	-51.393164	-40.476150	-51.393164	-0.449384	97.659997
7.700000	-0.373286	-162.917283	-40.514624	-53.334593	-40.514624	-53.334593	-0.452798	95.410987
7.750000	-0.378523	-163.978263	-40.559340	-55.266287	-40.559340	-55.266287	-0.456125	93.150044
7.800000	-0.383813	-165.042983	-40.610458	-57.187144	-40.610458	-57.187144	-0.459362	90.877504
7.850000	-0.389157	-166.111556	-40.668143	-59.095968	-40.668143	-59.095968	-0.462511	88.593725
7.900000	-0.394553	-167.184099	-40.732569	-60.991464	-40.732569	-60.991464	-0.465571	86.299089
7.950000	-0.400003	-168.260729	-40.803916	-62.872229	-40.803916	-62.872229	-0.468544	83.994004
8.000000	-0.405505	-169.341566	-40.882370	-64.736739	-40.882370	-64.736739	-0.471433	81.678900
8.050000	-0.411059	-170.426728	-40.968125	-66.583339	-40.968125	-66.583339	-0.474241	79.354229
8.100000	-0.416665	-171.516336	-41.061382	-68.410231	-41.061382	-68.410231	-0.476973	77.020468
8.150000	-0.422323	-172.610563	-41.162420	-70.215200	-41.162420	-70.215200	-0.479635	74.678025
8.200000	-0.428032	-173.709536	-41.271456	-71.996033	-41.271456	-71.996033	-0.482234	72.327437
8.250000	-0.433793	-174.813329	-41.388638	-73.750624	-41.388638	-73.750624	-0.484781	69.969337
8.300000	-0.439603	-175.922066	-41.514194	-75.476413	-41.514194	-75.476413	-0.487288	67.604282
8.350000	-0.445463	-177.035874	-41.648360	-77.170599	-41.648360	-77.170599	-0.489765	65.232848
8.400000	-0.451372	-178.154878	-41.791374	-78.830104	-41.791374	-78.830104	-0.492228	62.855627
8.450000	-0.457329	-179.279207	-41.943481	-80.451551	-41.943481	-80.451551	-0.494694	60.473228
8.500000	-0.463335	179.591011	-42.104930	-82.031216	-42.104930	-82.031216	-0.497178	58.086274
8.550000	-0.469387	178.455648	-42.275969	-83.564992	-42.275969	-83.564992	-0.499703	55.695400
8.600000	-0.475486	177.314573	-42.456846	-85.048337	-42.456846	-85.048337	-0.502289	53.301253
8.650000	-0.481631	176.167657	-42.647804	-86.476220	-42.647804	-86.476220	-0.504961	50.904492
8.700000	-0.487821	175.014768	-42.849074	-87.843053	-42.849074	-87.843053	-0.507743	48.505784
8.750000	-0.494054	173.855775	-43.060871	-89.142625	-43.060871	-89.142625	-0.510665	46.105804
8.800000	-0.500332	172.690407	-43.283489	-90.366226	-43.283489	-90.366226	-0.513759	43.705239
8.850000	-0.506652	171.518665	-43.516950	-91.507535	-43.516950	-91.507535	-0.517054	41.304802
8.900000	-0.513014	170.340416	-43.761344	-92.557867	-43.761344	-92.557867	-0.520585	38.905186
8.950000	-0.519415	169.155527	-44.016682	-93.507521	-44.016682	-93.507521	-0.524386	36.507085
9.000000	-0.525856	167.963866	-44.282876	-94.345671	-44.282876	-94.345671	-0.528495	34.111195
9.050000	-0.532335	166.765299	-44.559696	-95.060249	-44.559696	-95.060249	-0.532951	31.718212
9.100000	-0.538850	165.559694	-44.846733	-95.637853	-44.846733	-95.637853	-0.537794	29.328832
9.150000	-0.545401	164.346918	-45.143334	-96.063660	-45.143334	-96.063660	-0.543066	26.943749
9.200000	-0.551986	163.126840	-45.448541	-96.321408	-45.448541	-96.321408	-0.548811	24.563655
9.250000	-0.558604	161.899327	-45.760995	-96.393440	-45.760995	-96.393440	-0.555073	22.189236
9.300000	-0.565253	160.664249	-46.078837	-96.260892	-46.078837	-96.260892	-0.561898	19.821178
9.350000	-0.571933	159.421475	-46.399583	-95.904056	-46.399583	-95.904056	-0.569333	17.460157
9.400000	-0.578641	158.170790	-46.719814	-95.300162	-46.719814	-95.300162	-0.577432	15.106939
9.450000	-0.585376	156.912062	-47.035231	-94.429566	-47.035231	-94.429566	-0.586245	12.762213
9.500000	-0.592136	155.645247	-47.340762	-93.278455	-47.340762	-93.278455	-0.595815	10.426553
9.550000	-0.598919	154.370222	-47.630116	-91.834951	-47.630116	-91.834951	-0.606188	8.100611
9.600000	-0.605724	153.086863	-47.895947	-90.094394	-47.895947	-90.094394	-0.617415	5.785033
9.650000	-0.612549	151.795048	-48.130033	-88.062299	-48.130033	-88.062299	-0.629543	3.480452
9.700000	-0.619391	150.494657	-48.323666	-85.757257	-48.323666	-85.757257	-0.642621	1.187498
9.750000	-0.626249	149.185573	-48.468259	-83.213106	-48.468259	-83.213106	-0.656695	-1.093212
9.800000	-0.633120	147.867682	-48.556137	-80.479587	-48.556137	-80.479587	-0.671813	-3.361068
9.850000	-0.640003	146.540871	-48.581419	-77.620776	-48.581419	-77.620776	-0.688020	-5.615468
9.900000	-0.646895	145.205031	-48.540786	-74.711018	-48.540786	-74.711018	-0.705360	-7.855821
9.950000	-0.653794	143.860057	-48.433950	-71.828813	-48.433950	-71.828813	-0.723875	-10.081546
10.000000	-0.660698	142.505847	-48.263699	-69.049797	-48.263699	-69.049797	-0.743607	-12.292071
