! freq	dB(S11)	phase(S11)	dB(S12)	phase(S12)	
!     	dB(S21)	phase(S21)	dB(S22)	phase(S22)	
!S-par simulation data
#  GHz  S  DB  R 50
0.000000	-0.000000	0.000000	-352.983326	0.000000	-352.983326	0.000000	-0.000000	0.000000
0.050000	-0.003724	-0.847435	-91.976184	89.804846	-91.976184	89.804846	-0.004287	-0.846633
0.100000	-0.005949	-1.666323	-85.951154	88.642267	-85.951154	88.642267	-0.006203	-1.664128
0.150000	-0.006850	-2.485229	-82.426047	87.694055	-82.426047	87.694055	-0.006929	-2.483399
0.200000	-0.007388	-3.305755	-79.922804	86.806459	-79.922804	86.806459	-0.007398	-3.304405
0.250000	-0.007864	-4.126991	-77.979055	85.941606	-77.979055	85.941606	-0.007843	-4.126037
0.300000	-0.008347	-4.948524	-76.388738	85.090976	-76.388738	85.090976	-0.008314	-4.947884
0.350000	-0.008861	-5.770111	-75.041979	84.250907	-75.041979	84.250907	-0.008826	-5.769718
0.400000	-0.009428	-6.591553	-73.872426	83.421419	-73.872426	83.421419	-0.009399	-6.591343
0.450000	-0.010045	-7.412706	-72.838092	82.600197	-72.838092	82.600197	-0.010024	-7.412638
0.500000	-0.010712	-8.233511	-71.910108	81.787261	-71.910108	81.787261	-0.010701	-8.233550
0.550000	-0.011428	-9.053924	-71.068023	80.982330	-71.068023	80.982330	-0.011427	-9.054040
0.600000	-0.012233	-9.873307	-70.290928	80.194888	-70.290928	80.194888	-0.012241	-9.873459
0.650000	-0.013049	-10.692562	-69.576593	79.409632	-69.576593	79.409632	-0.013066	-10.692744
0.700000	-0.013878	-11.511613	-68.914682	78.627501	-68.914682	78.627501	-0.013903	-11.511823
0.750000	-0.014805	-12.329039	-68.285631	77.870373	-68.285631	77.870373	-0.014834	-12.329247
0.800000	-0.015732	-13.146465	-67.699076	77.113245	-67.699076	77.113245	-0.015766	-13.146670
0.850000	-0.016686	-13.963193	-67.142863	76.366230	-67.142863	76.366230	-0.016723	-13.963393
0.900000	-0.017694	-14.778525	-66.607389	75.639441	-66.607389	75.639441	-0.017732	-14.778713
0.950000	-0.018702	-15.593856	-66.103019	74.912653	-66.103019	74.912653	-0.018741	-15.594033
1.000000	-0.019740	-16.407924	-65.612700	74.203225	-65.612700	74.203225	-0.019777	-16.408093
1.050000	-0.020801	-17.220982	-65.138260	73.507687	-65.138260	73.507687	-0.020836	-17.221145
1.100000	-0.021862	-18.034039	-64.688399	72.812148	-64.688399	72.812148	-0.021895	-18.034196
1.150000	-0.022945	-18.845237	-64.237575	72.140165	-64.237575	72.140165	-0.022975	-18.845398
1.200000	-0.024035	-19.655905	-63.802723	71.474912	-63.802723	71.474912	-0.024062	-19.656072
1.250000	-0.025126	-20.466573	-63.388608	70.809658	-63.388608	70.809658	-0.025149	-20.466746
1.300000	-0.026227	-21.274787	-62.957306	70.171334	-62.957306	70.171334	-0.026246	-21.274977
1.350000	-0.027328	-22.083000	-62.546411	69.533009	-62.546411	69.533009	-0.027344	-22.083208
1.400000	-0.028429	-22.890663	-62.143910	68.899281	-62.143910	68.899281	-0.028441	-22.890890
1.450000	-0.029528	-23.696395	-61.725272	68.281644	-61.725272	68.281644	-0.029538	-23.696647
1.500000	-0.030628	-24.502128	-61.325887	67.664006	-61.325887	67.664006	-0.030635	-24.502405
1.550000	-0.031725	-25.306761	-60.919353	67.051299	-60.919353	67.051299	-0.031729	-25.307065
1.600000	-0.032816	-26.110020	-60.501556	66.444754	-60.501556	66.444754	-0.032819	-26.110353
1.650000	-0.033908	-26.913279	-60.102936	65.838210	-60.102936	65.838210	-0.033909	-26.913641
1.700000	-0.034992	-27.714724	-59.669233	65.228906	-59.669233	65.228906	-0.034992	-27.715115
1.750000	-0.036073	-28.515263	-59.231203	64.618224	-59.231203	64.618224	-0.036072	-28.515683
1.800000	-0.037153	-29.315802	-58.814207	64.007541	-58.814207	64.007541	-0.037152	-29.316251
1.850000	-0.038232	-30.115789	-58.393842	63.390736	-58.393842	63.390736	-0.038230	-30.116267
1.900000	-0.039303	-30.913491	-57.904540	62.748567	-57.904540	62.748567	-0.039301	-30.913995
1.950000	-0.040374	-31.711193	-57.441339	62.106398	-57.441339	62.106398	-0.040372	-31.711724
2.000000	-0.041445	-32.508894	-57.001593	61.464229	-57.001593	61.464229	-0.041443	-32.509452
2.050000	-0.042516	-33.304866	-56.472510	60.771868	-56.472510	60.771868	-0.042515	-33.305449
2.100000	-0.043588	-34.100172	-55.934017	60.060201	-55.934017	60.060201	-0.043588	-34.100780
2.150000	-0.044660	-34.895478	-55.426969	59.348535	-55.426969	59.348535	-0.044660	-34.896111
2.200000	-0.045737	-35.690440	-54.891520	58.606718	-54.891520	58.606718	-0.045738	-35.691098
2.250000	-0.046830	-36.484368	-54.229543	57.774450	-54.229543	57.774450	-0.046832	-36.485052
2.300000	-0.047923	-37.278296	-53.614464	56.942182	-53.614464	56.942182	-0.047926	-37.279007
2.350000	-0.049017	-38.072225	-53.040075	56.109914	-53.040075	56.109914	-0.049020	-38.072961
2.400000	-0.050143	-38.866407	-52.331613	55.173101	-52.331613	55.173101	-0.050147	-38.867173
2.450000	-0.051281	-39.660732	-51.622958	54.201244	-51.622958	54.201244	-0.051286	-39.661531
2.500000	-0.052476	-40.456700	-50.773259	53.110387	-50.773259	53.110387	-0.052481	-40.457538
2.550000	-0.053705	-41.253885	-49.910130	51.968850	-49.910130	51.968850	-0.053711	-41.254767
2.600000	-0.055011	-42.053836	-48.942750	50.712129	-48.942750	50.712129	-0.055019	-42.054772
2.650000	-0.056453	-42.858645	-47.841921	49.319668	-47.841921	49.319668	-0.056462	-42.859649
2.700000	-0.057997	-43.667127	-46.712714	47.824573	-46.712714	47.824573	-0.058007	-43.668211
2.750000	-0.059842	-44.485553	-45.389154	46.112865	-45.389154	46.112865	-0.059854	-44.486745
2.800000	-0.062273	-45.321191	-43.791249	44.077354	-43.791249	44.077354	-0.062289	-45.322537
2.850000	-0.065863	-46.185289	-41.860459	41.569491	-41.860459	41.569491	-0.065886	-46.186865
2.900000	-0.072183	-47.102833	-39.450011	38.235926	-39.450011	38.235926	-0.072219	-47.104778
2.950000	-0.087612	-48.147838	-36.140336	32.972299	-36.140336	32.972299	-0.087684	-48.150481
3.000000	-0.150401	-49.559088	-31.023136	21.435258	-31.023136	21.435258	-0.150629	-49.563376
3.050000	-0.698065	-49.982221	-22.812018	-33.397225	-22.812018	-33.397225	-0.699732	-49.985757
3.100000	-0.204998	-47.759507	-29.227399	-112.241115	-29.227399	-112.241115	-0.205346	-47.755180
3.150000	-0.103580	-49.314592	-34.977032	-127.737857	-34.977032	-127.737857	-0.103672	-49.312357
3.200000	-0.084127	-50.401279	-38.485197	-134.234146	-38.485197	-134.234146	-0.084169	-50.399876
3.250000	-0.077983	-51.329342	-40.971365	-138.493500	-40.971365	-138.493500	-0.078007	-51.328363
3.300000	-0.075737	-52.189960	-42.889020	-141.929956	-42.889020	-141.929956	-0.075752	-52.189233
3.350000	-0.075177	-53.011225	-44.343192	-144.990511	-44.343192	-144.990511	-0.075188	-53.010654
3.400000	-0.075293	-53.813490	-45.561879	-147.916297	-45.561879	-147.916297	-0.075301	-53.813031
3.450000	-0.075564	-54.610122	-46.814661	-150.836495	-46.814661	-150.836495	-0.075569	-54.609760
3.500000	-0.076297	-55.389850	-47.716485	-153.739933	-47.716485	-153.739933	-0.076301	-55.389549
3.550000	-0.077072	-56.167531	-48.658117	-156.663559	-48.658117	-156.663559	-0.077075	-56.167286
3.600000	-0.078054	-56.934973	-49.357349	-159.688122	-49.357349	-159.688122	-0.078056	-56.934764
3.650000	-0.079047	-57.701737	-50.096327	-162.727057	-50.096327	-162.727057	-0.079048	-57.701563
3.700000	-0.080160	-58.461034	-50.648492	-165.924071	-50.648492	-165.924071	-0.080160	-58.460883
3.750000	-0.081273	-59.220332	-51.238156	-169.121085	-51.238156	-169.121085	-0.081272	-59.220204
3.800000	-0.082470	-59.973475	-51.672656	-172.500777	-51.672656	-172.500777	-0.082469	-59.973362
3.850000	-0.083668	-60.726618	-52.130042	-175.880469	-52.130042	-175.880469	-0.083666	-60.726520
3.900000	-0.084925	-61.475104	-52.475211	-179.412754	-52.475211	-179.412754	-0.084922	-61.475017
3.950000	-0.086187	-62.223168	-52.821737	177.041089	-52.821737	177.041089	-0.086184	-62.223090
4.000000	-0.087494	-62.967528	-53.082850	173.386450	-53.082850	173.386450	-0.087490	-62.967456
4.050000	-0.088811	-63.711147	-53.331606	169.710114	-53.331606	169.710114	-0.088806	-63.711081
4.100000	-0.090164	-64.451734	-53.513322	165.974113	-53.513322	165.974113	-0.090159	-64.451672
4.150000	-0.091530	-65.191311	-53.673737	162.218222	-53.673737	162.218222	-0.091525	-65.191251
4.200000	-0.092942	-65.927183	-53.757426	158.459562	-53.757426	158.459562	-0.092937	-65.927124
4.250000	-0.094378	-66.661202	-53.801944	154.699518	-53.801944	154.699518	-0.094372	-66.661143
4.300000	-0.095814	-67.395222	-53.846691	150.939473	-53.846691	150.939473	-0.095808	-67.395163
4.350000	-0.097250	-68.129241	-53.891670	147.179429	-53.891670	147.179429	-0.097244	-68.129182
4.400000	-0.098732	-68.859827	-53.873897	143.500384	-53.873897	143.500384	-0.098726	-68.859767
4.450000	-0.100260	-69.586981	-53.793755	139.902339	-53.793755	139.902339	-0.100254	-69.586917
4.500000	-0.101789	-70.314134	-53.714345	136.304295	-53.714345	136.304295	-0.101782	-70.314067
4.550000	-0.103318	-71.041287	-53.635655	132.706250	-53.635655	132.706250	-0.103311	-71.041217
4.600000	-0.104878	-71.766304	-53.526185	129.201284	-53.526185	129.201284	-0.104871	-71.766230
4.650000	-0.106502	-72.487048	-53.356218	125.882474	-53.356218	125.882474	-0.106495	-72.486968
4.700000	-0.108125	-73.207792	-53.189514	122.563665	-53.189514	122.563665	-0.108118	-73.207706
4.750000	-0.109749	-73.928536	-53.025949	119.244856	-53.025949	119.244856	-0.109742	-73.928445
4.800000	-0.111390	-74.648273	-52.853305	115.975985	-52.853305	115.975985	-0.111383	-74.648177
4.850000	-0.113113	-75.362979	-52.624924	112.956809	-52.624924	112.956809	-0.113106	-75.362874
4.900000	-0.114837	-76.077684	-52.402394	109.937633	-52.402394	109.937633	-0.114829	-76.077572
4.950000	-0.116560	-76.792389	-52.185424	106.918457	-52.185424	106.918457	-0.116553	-76.792270
5.000000	-0.118284	-77.507094	-51.973741	103.899281	-51.973741	103.899281	-0.118277	-77.506967
5.050000	-0.120113	-78.216122	-51.709636	101.142336	-51.709636	101.142336	-0.120106	-78.215985
5.100000	-0.121942	-78.925150	-51.453325	98.385391	-51.453325	98.385391	-0.121935	-78.925003
5.150000	-0.123771	-79.634178	-51.204362	95.628446	-51.204362	95.628446	-0.123764	-79.634021
5.200000	-0.125600	-80.343206	-50.962336	92.871501	-50.962336	92.871501	-0.125593	-80.343039
5.250000	-0.127522	-81.047835	-50.684789	90.285280	-50.684789	90.285280	-0.127515	-81.047656
5.300000	-0.129463	-81.751584	-50.407702	87.733202	-50.407702	87.733202	-0.129456	-81.751392
5.350000	-0.131404	-82.455333	-50.139181	85.181125	-50.139181	85.181125	-0.131397	-82.455129
5.400000	-0.133345	-83.159083	-49.878712	82.629048	-49.878712	82.629048	-0.133339	-83.158865
5.450000	-0.135366	-83.859629	-49.593458	80.175474	-49.593458	80.175474	-0.135359	-83.859397
5.500000	-0.137426	-84.558574	-49.301640	77.771152	-49.301640	77.771152	-0.137419	-84.558326
5.550000	-0.139486	-85.257519	-49.019307	75.366829	-49.019307	75.366829	-0.139480	-85.257255
5.600000	-0.141547	-85.956465	-48.745864	72.962507	-48.745864	72.962507	-0.141541	-85.956184
5.650000	-0.143672	-86.653307	-48.455359	70.607015	-48.455359	70.607015	-0.143666	-86.653008
5.700000	-0.145860	-87.348048	-48.149728	68.300354	-48.149728	68.300354	-0.145854	-87.347727
5.750000	-0.148049	-88.042788	-47.854486	65.993694	-47.854486	65.993694	-0.148043	-88.042446
5.800000	-0.150238	-88.737528	-47.568951	63.687033	-47.568951	63.687033	-0.150232	-88.737165
5.850000	-0.152474	-89.431132	-47.273390	61.398627	-47.273390	61.398627	-0.152468	-89.430746
5.900000	-0.154802	-90.122462	-46.950684	59.146731	-46.950684	59.146731	-0.154796	-90.122048
5.950000	-0.157130	-90.813793	-46.639540	56.894834	-46.639540	56.894834	-0.157124	-90.813351
6.000000	-0.159459	-91.505124	-46.339157	54.642938	-46.339157	54.642938	-0.159453	-91.504653
6.050000	-0.161813	-92.196073	-46.037283	52.393819	-46.037283	52.393819	-0.161807	-92.195572
6.100000	-0.164296	-92.885113	-45.690005	50.158587	-45.690005	50.158587	-0.164290	-92.884574
6.150000	-0.166779	-93.574153	-45.356079	47.923355	-45.356079	47.923355	-0.166773	-93.573576
6.200000	-0.169263	-94.263194	-45.034517	45.688122	-45.034517	45.688122	-0.169257	-94.262577
6.250000	-0.171748	-94.952234	-44.724436	43.452890	-44.724436	43.452890	-0.171742	-94.951579
6.300000	-0.174411	-95.640675	-44.339564	41.197486	-44.339564	41.197486	-0.174405	-95.639965
6.350000	-0.177076	-96.329116	-43.971024	38.942082	-43.971024	38.942082	-0.177069	-96.328352
6.400000	-0.179741	-97.017558	-43.617487	36.686678	-43.617487	36.686678	-0.179734	-97.016738
6.450000	-0.182406	-97.705999	-43.277779	34.431274	-43.277779	34.431274	-0.182399	-97.705124
6.500000	-0.185264	-98.396274	-42.853748	32.125187	-42.853748	32.125187	-0.185256	-98.395322
6.550000	-0.188160	-99.086916	-42.431042	29.808964	-42.431042	29.808964	-0.188151	-99.085882
6.600000	-0.191057	-99.777558	-42.027955	27.492740	-42.027955	27.492740	-0.191048	-99.776443
6.650000	-0.193955	-100.468200	-41.642749	25.176516	-41.642749	25.176516	-0.193945	-100.467003
6.700000	-0.197012	-101.161896	-41.198191	22.808638	-41.198191	22.808638	-0.197001	-101.160597
6.750000	-0.200149	-101.857119	-40.739458	20.414932	-40.739458	20.414932	-0.200137	-101.855707
6.800000	-0.203421	-102.555651	-40.243903	17.977310	-40.243903	17.977310	-0.203408	-102.554109
6.850000	-0.206791	-103.256548	-39.734836	15.508319	-39.734836	15.508319	-0.206775	-103.254862
6.900000	-0.210331	-103.961907	-39.188728	12.988486	-39.188728	12.988486	-0.210313	-103.960056
6.950000	-0.214043	-104.671728	-38.613891	10.417812	-38.613891	10.417812	-0.214022	-104.669690
7.000000	-0.217987	-105.387458	-38.003487	7.787864	-38.003487	7.787864	-0.217962	-105.385206
7.050000	-0.222257	-106.111458	-37.340628	5.074932	-37.340628	5.074932	-0.222227	-106.108954
7.100000	-0.226753	-106.840741	-36.671645	2.313249	-36.671645	2.313249	-0.226716	-106.837961
7.150000	-0.231901	-107.584924	-35.912940	-0.583926	-35.912940	-0.583926	-0.231855	-107.581804
7.200000	-0.237799	-108.344571	-35.086684	-3.615283	-35.086684	-3.615283	-0.237742	-108.341045
7.250000	-0.244793	-109.124573	-34.179911	-6.818781	-34.179911	-6.818781	-0.244719	-109.120555
7.300000	-0.253314	-109.930080	-33.188119	-10.234675	-33.188119	-10.234675	-0.253217	-109.925462
7.350000	-0.264561	-110.774798	-32.064540	-13.975514	-32.064540	-13.975514	-0.264430	-110.769417
7.400000	-0.280118	-111.671752	-30.795919	-18.154104	-30.795919	-18.154104	-0.279935	-111.665392
7.450000	-0.303641	-112.647062	-29.329797	-23.012634	-29.329797	-23.012634	-0.303372	-112.639395
7.500000	-0.342506	-113.737779	-27.612875	-28.952275	-27.612875	-28.952275	-0.342088	-113.728324
7.550000	-0.414974	-115.000379	-25.555776	-36.806186	-25.555776	-36.806186	-0.414266	-114.988403
7.600000	-0.567610	-116.460476	-23.080584	-48.302122	-23.080584	-48.302122	-0.566273	-116.445089
7.650000	-0.919422	-117.691795	-20.252632	-67.403169	-20.252632	-67.403169	-0.916577	-117.673828
7.700000	-1.468473	-115.965446	-18.142270	-99.700914	-18.142270	-99.700914	-1.463179	-115.958464
7.750000	-1.314450	-111.688194	-18.905510	-136.810596	-18.905510	-136.810596	-1.310118	-111.703431
7.800000	-0.851315	-111.344529	-21.455346	-161.450399	-21.455346	-161.450399	-0.849106	-111.362644
7.850000	-0.609308	-112.485105	-23.925434	-175.686347	-23.925434	-175.686347	-0.608105	-112.500426
7.900000	-0.494118	-113.690180	-25.960070	175.170596	-25.960070	175.170596	-0.493379	-113.702899
7.950000	-0.434980	-114.775285	-27.605135	168.605083	-27.605135	168.605083	-0.434480	-114.786083
8.000000	-0.402002	-115.754578	-28.953669	163.455402	-28.953669	163.455402	-0.401640	-115.763968
8.050000	-0.382648	-116.657866	-30.074530	159.167111	-30.074530	159.167111	-0.382373	-116.666198
8.100000	-0.371235	-117.506336	-31.007047	155.463114	-31.007047	155.463114	-0.371018	-117.513859
8.150000	-0.364427	-118.318059	-31.800039	152.149799	-31.800039	152.149799	-0.364252	-118.324938
8.200000	-0.360715	-119.102452	-32.471494	149.138544	-32.471494	149.138544	-0.360571	-119.108811
8.250000	-0.359272	-119.865471	-33.028286	146.381575	-33.028286	146.381575	-0.359151	-119.871409
8.300000	-0.359281	-120.614398	-33.498999	143.811280	-33.498999	143.811280	-0.359179	-120.619983
8.350000	-0.360673	-121.350220	-33.865124	141.443069	-33.865124	141.443069	-0.360586	-121.355520
8.400000	-0.362803	-122.079526	-34.171365	139.193398	-34.171365	139.193398	-0.362729	-122.084579
8.450000	-0.365777	-122.802224	-34.396859	137.087205	-34.396859	137.087205	-0.365714	-122.807072
8.500000	-0.369512	-123.520551	-34.541898	135.113241	-34.541898	135.113241	-0.369458	-123.525231
8.550000	-0.373858	-124.236834	-34.619303	133.238630	-34.619303	133.238630	-0.373814	-124.241375
8.600000	-0.378815	-124.952387	-34.628550	131.450258	-34.628550	131.450258	-0.378779	-124.956816
8.650000	-0.384405	-125.668507	-34.568709	129.733254	-34.568709	129.733254	-0.384378	-125.672849
8.700000	-0.390680	-126.386510	-34.438463	128.070411	-34.438463	128.070411	-0.390662	-126.390791
8.750000	-0.397854	-127.108532	-34.224515	126.440270	-34.224515	126.440270	-0.397846	-127.112780
8.800000	-0.406170	-127.837043	-33.919551	124.797957	-33.919551	124.797957	-0.406173	-127.841289
8.850000	-0.415561	-128.572061	-33.545014	123.112672	-33.545014	123.112672	-0.415577	-128.576331
8.900000	-0.426895	-129.318914	-33.059535	121.307183	-33.059535	121.307183	-0.426927	-129.323248
8.950000	-0.440807	-130.080441	-32.460935	119.292696	-32.460935	119.292696	-0.440861	-130.084882
9.000000	-0.458276	-130.859855	-31.743747	116.961163	-31.743747	116.961163	-0.458359	-130.864452
9.050000	-0.481684	-131.663735	-30.872886	114.084959	-30.872886	114.084959	-0.481809	-131.668554
9.100000	-0.514079	-132.494265	-29.841863	110.402054	-29.841863	110.402054	-0.514265	-132.499374
9.150000	-0.562739	-133.350198	-28.606091	105.328813	-28.606091	105.328813	-0.563023	-133.355667
9.200000	-0.639068	-134.197772	-27.165826	98.006468	-27.165826	98.006468	-0.639513	-134.203599
9.250000	-0.761537	-134.893094	-25.576148	86.822335	-25.576148	86.822335	-0.762251	-134.898951
9.300000	-0.927185	-135.021239	-24.157460	69.734498	-24.157460	69.734498	-0.928277	-135.025807
9.350000	-1.019135	-134.190220	-23.682409	46.641929	-23.682409	46.641929	-1.020432	-134.191165
9.400000	-0.910224	-133.438245	-24.742060	23.529402	-24.742060	23.529402	-0.911238	-133.435797
9.450000	-0.745130	-133.710881	-26.792956	6.582075	-26.792956	6.582075	-0.745741	-133.707532
9.500000	-0.635104	-134.520686	-29.058997	-4.088118	-29.058997	-4.088118	-0.635451	-134.517644
9.550000	-0.573405	-135.444061	-31.247847	-10.601788	-31.247847	-10.601788	-0.573601	-135.441537
9.600000	-0.540411	-136.355341	-33.295809	-14.343270	-33.295809	-14.343270	-0.540522	-136.353270
9.650000	-0.523052	-137.230569	-35.236192	-16.098476	-35.236192	-16.098476	-0.523112	-137.228836
9.700000	-0.514084	-138.075348	-37.156413	-16.270038	-37.156413	-16.270038	-0.514111	-138.073850
9.750000	-0.510612	-138.895168	-39.081247	-14.682075	-39.081247	-14.682075	-0.510617	-138.893806
9.800000	-0.510497	-139.698123	-41.073778	-10.881314	-41.073778	-10.881314	-0.510486	-139.696806
9.850000	-0.512724	-140.489768	-43.141262	-3.850002	-43.141262	-3.850002	-0.512702	-140.488400
9.900000	-0.516586	-141.275165	-45.187963	7.978392	-45.187963	7.978392	-0.516553	-141.273644
9.950000	-0.521866	-142.057804	-46.655896	26.739008	-46.655896	26.739008	-0.521821	-142.056000
10.000000	-0.528177	-142.841126	-46.926575	49.571673	-46.926575	49.571673	-0.528118	-142.838901
