! freq	dB(S11)	phase(S11)	dB(S12)	phase(S12)	
!     	dB(S21)	phase(S21)	dB(S22)	phase(S22)	
!S-par simulation data
#  GHz  S  DB  R 50
0.000000	-0.000000	0.000000	-380.441819	180.000000	-380.441819	180.000000	-0.000000	-0.000000
0.050000	-0.000081	-0.909460	-91.429359	179.184430	-91.429359	179.184430	-0.000097	-1.368576
0.100000	-0.000322	-1.818765	-90.975585	163.287172	-90.975585	163.287172	-0.000387	-2.736974
0.150000	-0.000719	-2.727765	-90.450150	151.833570	-90.450150	151.833570	-0.000867	-4.105022
0.200000	-0.001263	-3.636327	-89.846694	142.410835	-89.846694	142.410835	-0.001528	-5.472558
0.250000	-0.001953	-4.544281	-89.209985	134.563956	-89.209985	134.563956	-0.002375	-6.839379
0.300000	-0.002765	-5.451567	-88.586566	127.862951	-88.586566	127.862951	-0.003383	-8.205396
0.350000	-0.003693	-6.358060	-87.999089	122.156831	-87.999089	122.156831	-0.004549	-9.570442
0.400000	-0.004724	-7.263671	-87.463523	117.272826	-87.463523	117.272826	-0.005863	-10.934386
0.450000	-0.005845	-8.168329	-86.988916	113.076408	-86.988916	113.076408	-0.007313	-12.297105
0.500000	-0.007043	-9.071973	-86.580111	109.466440	-86.580111	109.466440	-0.008888	-13.658492
0.550000	-0.008303	-9.974560	-86.239592	106.370444	-86.239592	106.370444	-0.010575	-15.018448
0.600000	-0.009615	-10.876057	-85.968640	103.740502	-85.968640	103.740502	-0.012362	-16.376888
0.650000	-0.010966	-11.776439	-85.768021	101.550282	-85.768021	101.550282	-0.014236	-17.733735
0.700000	-0.012346	-12.675692	-85.638349	99.793409	-85.638349	99.793409	-0.016186	-19.088926
0.750000	-0.013747	-13.573810	-85.580204	98.483278	-85.580204	98.483278	-0.018201	-20.442402
0.800000	-0.015159	-14.470788	-85.594022	97.654357	-85.594022	97.654357	-0.020269	-21.794118
0.850000	-0.016575	-15.366629	-85.679704	97.365043	-85.679704	97.365043	-0.022381	-23.144034
0.900000	-0.017991	-16.261334	-85.835785	97.701988	-85.835785	97.701988	-0.024527	-24.492114
0.950000	-0.019401	-17.154910	-86.057900	98.785326	-86.057900	98.785326	-0.026698	-25.838333
1.000000	-0.020801	-18.047360	-86.336098	100.772839	-86.336098	100.772839	-0.028888	-27.182667
1.050000	-0.022189	-18.938690	-86.650461	103.857887	-86.650461	103.857887	-0.031089	-28.525097
1.100000	-0.023562	-19.828901	-86.964749	108.249833	-86.964749	108.249833	-0.033296	-29.865606
1.150000	-0.024918	-20.717998	-87.219397	114.117624	-87.219397	114.117624	-0.035501	-31.204181
1.200000	-0.026257	-21.605978	-87.329366	121.477040	-87.329366	121.477040	-0.037701	-32.540811
1.250000	-0.027578	-22.492843	-87.197895	130.038269	-87.197895	130.038269	-0.039892	-33.875484
1.300000	-0.028880	-23.378538	-86.737431	139.111474	-86.737431	139.111474	-0.042069	-35.208106
1.350000	-0.030165	-24.263108	-85.959559	147.769386	-85.959559	147.769386	-0.044229	-36.538752
1.400000	-0.031433	-25.146545	-84.932586	155.333961	-84.932586	155.333961	-0.046369	-37.867413
1.450000	-0.032683	-26.028839	-83.751972	161.501150	-83.751972	161.501150	-0.048488	-39.194080
1.500000	-0.033919	-26.909982	-82.502353	166.276508	-82.502353	166.276508	-0.050582	-40.518742
1.550000	-0.035140	-27.789960	-81.242680	169.827317	-81.242680	169.827317	-0.052652	-41.841389
1.600000	-0.036347	-28.668760	-80.007993	172.368130	-80.007993	172.368130	-0.054694	-43.162010
1.650000	-0.037541	-29.546369	-78.816493	174.101795	-78.816493	174.101795	-0.056709	-44.480591
1.700000	-0.038725	-30.422771	-77.676047	175.198530	-77.676047	175.198530	-0.058694	-45.797121
1.750000	-0.039898	-31.297949	-76.588683	175.793657	-76.588683	175.793657	-0.060650	-47.111585
1.800000	-0.041063	-32.171886	-75.553346	175.992242	-75.553346	175.992242	-0.062577	-48.423969
1.850000	-0.042219	-33.044566	-74.567477	175.875209	-74.567477	175.875209	-0.064473	-49.734256
1.900000	-0.043369	-33.915970	-73.627888	175.504925	-73.627888	175.504925	-0.066340	-51.042431
1.950000	-0.044514	-34.786079	-72.731234	174.929690	-72.731234	174.929690	-0.068178	-52.348478
2.000000	-0.045654	-35.654875	-71.874250	174.187187	-71.874250	174.187187	-0.069989	-53.652383
2.050000	-0.046791	-36.522340	-71.053866	173.307060	-71.053866	173.307060	-0.071773	-54.954130
2.100000	-0.047925	-37.388454	-70.267257	172.312836	-70.267257	172.312836	-0.073532	-56.253707
2.150000	-0.049057	-38.253199	-69.511848	171.223348	-69.511848	171.223348	-0.075268	-57.551101
2.200000	-0.050190	-39.116556	-68.785308	170.053798	-68.785308	170.053798	-0.076984	-58.846304
2.250000	-0.051322	-39.978505	-68.085536	168.816558	-68.085536	168.816558	-0.078683	-60.139309
2.300000	-0.052456	-40.839030	-67.410635	167.521771	-67.410635	167.521771	-0.080366	-61.430113
2.350000	-0.053592	-41.698110	-66.758894	166.177810	-66.758894	166.177810	-0.082038	-62.718715
2.400000	-0.054731	-42.555730	-66.128768	164.791638	-66.128768	164.791638	-0.083701	-64.005120
2.450000	-0.055873	-43.411871	-65.518861	163.369073	-65.518861	163.369073	-0.085358	-65.289333
2.500000	-0.057019	-44.266515	-64.927906	161.915012	-64.927906	161.915012	-0.087013	-66.571366
2.550000	-0.058171	-45.119581	-64.353885	160.432567	-64.353885	160.432567	-0.088669	-67.851141
2.600000	-0.059328	-45.971116	-63.796717	158.926547	-63.796717	158.926547	-0.090329	-69.128771
2.650000	-0.060491	-46.821104	-63.255436	157.399894	-63.255436	157.399894	-0.091996	-70.404278
2.700000	-0.061661	-47.669531	-62.729159	155.855134	-62.729159	155.855134	-0.093672	-71.677687
2.750000	-0.062838	-48.516382	-62.217076	154.294444	-62.217076	154.294444	-0.095360	-72.949027
2.800000	-0.064023	-49.361643	-61.718447	152.719709	-61.718447	152.719709	-0.097063	-74.218329
2.850000	-0.065217	-50.205299	-61.232589	151.132563	-61.232589	151.132563	-0.098782	-75.485627
2.900000	-0.066420	-51.047338	-60.758873	149.534430	-60.758873	149.534430	-0.100518	-76.750955
2.950000	-0.067631	-51.887748	-60.296719	147.926553	-60.296719	147.926553	-0.102275	-78.014354
3.000000	-0.068853	-52.726516	-59.845590	146.310021	-59.845590	146.310021	-0.104052	-79.275861
3.050000	-0.070085	-53.563631	-59.404990	144.685791	-59.404990	144.685791	-0.105852	-80.535521
3.100000	-0.071327	-54.399082	-58.974455	143.054705	-58.974455	143.054705	-0.107675	-81.793375
3.150000	-0.072581	-55.232860	-58.553557	141.417506	-58.553557	141.417506	-0.109523	-83.049471
3.200000	-0.073846	-56.064954	-58.141895	139.774854	-58.141895	139.774854	-0.111396	-84.303855
3.250000	-0.075123	-56.895357	-57.739099	138.127333	-57.739099	138.127333	-0.113296	-85.556577
3.300000	-0.076413	-57.724059	-57.344818	136.475463	-57.344818	136.475463	-0.115223	-86.807687
3.350000	-0.077715	-58.551053	-56.958727	134.819709	-56.958727	134.819709	-0.117177	-88.057237
3.400000	-0.079030	-59.376332	-56.580522	133.160486	-56.580522	133.160486	-0.119159	-89.305283
3.450000	-0.080359	-60.199889	-56.209916	131.498167	-56.209916	131.498167	-0.121170	-90.551879
3.500000	-0.081701	-61.021719	-55.846641	129.833089	-55.846641	129.833089	-0.123211	-91.797083
3.550000	-0.083058	-61.841817	-55.490443	128.165554	-55.490443	128.165554	-0.125281	-93.040954
3.600000	-0.084429	-62.660178	-55.141086	126.495838	-55.141086	126.495838	-0.127382	-94.283555
3.650000	-0.085815	-63.476798	-54.798345	124.824188	-54.798345	124.824188	-0.129514	-95.524947
3.700000	-0.087216	-64.291674	-54.462009	123.150834	-54.462009	123.150834	-0.131677	-96.765195
3.750000	-0.088633	-65.104803	-54.131878	121.475983	-54.131878	121.475983	-0.133872	-98.004367
3.800000	-0.090067	-65.916106	-53.807500	119.799778	-53.807500	119.799778	-0.136101	-99.242491
3.850000	-0.091516	-66.725660	-53.488982	118.122458	-53.488982	118.122458	-0.138362	-100.479683
3.900000	-0.092983	-67.533461	-53.176152	116.444185	-53.176152	116.444185	-0.140657	-101.716017
3.950000	-0.094466	-68.339511	-52.868849	114.765107	-52.868849	114.765107	-0.142986	-102.951568
4.000000	-0.095967	-69.143810	-52.566917	113.085365	-52.566917	113.085365	-0.145348	-104.186411
4.050000	-0.097486	-69.946359	-52.270211	111.405089	-52.270211	111.405089	-0.147746	-105.420625
4.100000	-0.099023	-70.747158	-51.978591	109.724401	-51.978591	109.724401	-0.150179	-106.654292
4.150000	-0.100578	-71.546211	-51.691924	108.043416	-51.691924	108.043416	-0.152647	-107.887493
4.200000	-0.102152	-72.343520	-51.410084	106.362243	-51.410084	106.362243	-0.155152	-109.120313
4.250000	-0.103746	-73.139088	-51.132949	104.680984	-51.132949	104.680984	-0.157693	-110.352838
4.300000	-0.105358	-73.932919	-50.860404	102.999736	-50.860404	102.999736	-0.160272	-111.585158
4.350000	-0.106991	-74.725018	-50.592337	101.318592	-50.592337	101.318592	-0.162888	-112.817361
4.400000	-0.108645	-75.515388	-50.328642	99.637638	-50.328642	99.637638	-0.165542	-114.049541
4.450000	-0.110318	-76.304036	-50.069219	97.956958	-50.069219	97.956958	-0.168236	-115.281793
4.500000	-0.112014	-77.090967	-49.813968	96.276631	-49.813968	96.276631	-0.170968	-116.514212
4.550000	-0.113730	-77.876188	-49.562796	94.596733	-49.562796	94.596733	-0.173740	-117.746897
4.600000	-0.115469	-78.659706	-49.315612	92.917333	-49.315612	92.917333	-0.176553	-118.979948
4.650000	-0.117229	-79.441528	-49.072329	91.238501	-49.072329	91.238501	-0.179406	-120.213468
4.700000	-0.119013	-80.221662	-48.832864	89.560300	-48.832864	89.560300	-0.182300	-121.447561
4.750000	-0.120820	-81.000117	-48.597136	87.882792	-48.597136	87.882792	-0.185236	-122.682334
4.800000	-0.122650	-81.776902	-48.365066	86.206033	-48.365066	86.206033	-0.188214	-123.917894
4.850000	-0.124504	-82.552026	-48.136579	84.530077	-48.136579	84.530077	-0.191235	-125.154353
4.900000	-0.126383	-83.325499	-47.911601	82.854975	-47.911601	82.854975	-0.194299	-126.391823
4.950000	-0.128287	-84.097331	-47.690064	81.180775	-47.690064	81.180775	-0.197406	-127.630417
5.000000	-0.130216	-84.867533	-47.471897	79.507518	-47.471897	79.507518	-0.200558	-128.870253
5.050000	-0.132172	-85.636046	-47.256949	77.835291	-47.256949	77.835291	-0.203756	-130.111513
5.100000	-0.134154	-86.402954	-47.045251	76.164087	-47.045251	76.164087	-0.206998	-131.354263
5.150000	-0.136164	-87.168269	-46.836740	74.493940	-46.836740	74.493940	-0.210287	-132.598627
5.200000	-0.138200	-87.932002	-46.631355	72.824879	-46.631355	72.824879	-0.213620	-133.844729
5.250000	-0.140265	-88.694168	-46.429038	71.156927	-46.429038	71.156927	-0.217000	-135.092695
5.300000	-0.142358	-89.454779	-46.229731	69.490108	-46.229731	69.490108	-0.220427	-136.342653
5.350000	-0.144480	-90.213850	-46.033381	67.824438	-46.033381	67.824438	-0.223900	-137.594734
5.400000	-0.146632	-90.971395	-45.839933	66.159934	-45.839933	66.159934	-0.227420	-138.849071
5.450000	-0.148813	-91.727429	-45.649335	64.496604	-45.649335	64.496604	-0.230988	-140.105796
5.500000	-0.151026	-92.481967	-45.461538	62.834457	-45.461538	62.834457	-0.234604	-141.365048
5.550000	-0.153270	-93.235024	-45.276492	61.173496	-45.276492	61.173496	-0.238268	-142.626962
5.600000	-0.155546	-93.986617	-45.094152	59.513722	-45.094152	59.513722	-0.241980	-143.891680
5.650000	-0.157854	-94.736762	-44.914470	57.855130	-44.914470	57.855130	-0.245740	-145.159344
5.700000	-0.160196	-95.485477	-44.737405	56.197716	-44.737405	56.197716	-0.249549	-146.430097
5.750000	-0.162572	-96.232777	-44.562912	54.541468	-44.562912	54.541468	-0.253408	-147.704084
5.800000	-0.164984	-96.978682	-44.390951	52.886375	-44.390951	52.886375	-0.257315	-148.981454
5.850000	-0.167431	-97.723210	-44.221482	51.232421	-44.221482	51.232421	-0.261271	-150.262355
5.900000	-0.169915	-98.466380	-44.054468	49.579587	-44.054468	49.579587	-0.265277	-151.546939
5.950000	-0.172436	-99.208211	-43.889872	47.927853	-43.889872	47.927853	-0.269332	-152.835359
6.000000	-0.174996	-99.948724	-43.727659	46.277196	-43.727659	46.277196	-0.273436	-154.127769
6.050000	-0.177595	-100.687939	-43.567794	44.627591	-43.567794	44.627591	-0.277590	-155.424327
6.100000	-0.180235	-101.425879	-43.410247	42.979010	-43.410247	42.979010	-0.281793	-156.725189
6.150000	-0.182917	-102.162567	-43.254986	41.331425	-43.254986	41.331425	-0.286046	-158.030516
6.200000	-0.185642	-102.898026	-43.101982	39.684806	-43.101982	39.684806	-0.290347	-159.340470
6.250000	-0.188410	-103.632281	-42.951206	38.039123	-42.951206	38.039123	-0.294697	-160.655213
6.300000	-0.191226	-104.365308	-42.802619	36.394382	-42.802619	36.394382	-0.299098	-161.975134
6.350000	-0.194088	-105.097188	-42.656214	34.750510	-42.656214	34.750510	-0.303548	-163.300190
6.400000	-0.196998	-105.827950	-42.511967	33.107478	-42.511967	33.107478	-0.308046	-164.630550
6.450000	-0.199956	-106.557625	-42.369856	31.465253	-42.369856	31.465253	-0.312591	-165.966382
6.500000	-0.202963	-107.286245	-42.229860	29.823807	-42.229860	29.823807	-0.317184	-167.307858
6.550000	-0.206020	-108.013845	-42.091960	28.183111	-42.091960	28.183111	-0.321824	-168.655148
6.600000	-0.209127	-108.740460	-41.956138	26.543140	-41.956138	26.543140	-0.326511	-170.008426
6.650000	-0.212285	-109.466128	-41.822376	24.903868	-41.822376	24.903868	-0.331243	-171.367865
6.700000	-0.215493	-110.190884	-41.690660	23.265277	-41.690660	23.265277	-0.336020	-172.733641
6.750000	-0.218750	-110.914766	-41.560975	21.627347	-41.560975	21.627347	-0.340843	-174.105929
6.800000	-0.222055	-111.637811	-41.433309	19.990066	-41.433309	19.990066	-0.345709	-175.484905
6.850000	-0.225406	-112.360054	-41.307650	18.353424	-41.307650	18.353424	-0.350618	-176.870747
6.900000	-0.228802	-113.081527	-41.183988	16.717417	-41.183988	16.717417	-0.355569	-178.263632
6.950000	-0.232241	-113.802261	-41.062314	15.082047	-41.062314	15.082047	-0.360562	-179.663738
7.000000	-0.235719	-114.522282	-40.942620	13.447319	-40.942620	13.447319	-0.365595	178.928756
7.050000	-0.239235	-115.241612	-40.824899	11.813249	-40.824899	11.813249	-0.370667	177.513672
7.100000	-0.242786	-115.960271	-40.709146	10.179857	-40.709146	10.179857	-0.375777	176.090833
7.150000	-0.246371	-116.678273	-40.595355	8.547172	-40.595355	8.547172	-0.380924	174.660061
7.200000	-0.249989	-117.395633	-40.483523	6.915229	-40.483523	6.915229	-0.386107	173.221177
7.250000	-0.253638	-118.112362	-40.373647	5.284076	-40.373647	5.284076	-0.391324	171.774006
7.300000	-0.257318	-118.828472	-40.265724	3.653765	-40.265724	3.653765	-0.396574	170.318371
7.350000	-0.261030	-119.543975	-40.159754	2.024361	-40.159754	2.024361	-0.401855	168.854098
7.400000	-0.264775	-120.258885	-40.055736	0.395940	-40.055736	0.395940	-0.407165	167.381015
7.450000	-0.268554	-120.973217	-39.953670	-1.231414	-39.953670	-1.231414	-0.412504	165.898949
7.500000	-0.272369	-121.686990	-39.853555	-2.857604	-39.853555	-2.857604	-0.417869	164.407730
7.550000	-0.276223	-122.400203	-39.755431	-4.482461	-39.755431	-4.482461	-0.423259	162.906779
7.600000	-0.280117	-123.112904	-39.659266	-6.105913	-39.659266	-6.105913	-0.428671	161.396328
7.650000	-0.284052	-123.825121	-39.565060	-7.727825	-39.565060	-7.727825	-0.434104	159.876217
7.700000	-0.288031	-124.536881	-39.472815	-9.348049	-39.472815	-9.348049	-0.439554	158.346287
7.750000	-0.292055	-125.248218	-39.382533	-10.966424	-39.382533	-10.966424	-0.445021	156.806383
7.800000	-0.296127	-125.959163	-39.294215	-12.582776	-39.294215	-12.582776	-0.450501	155.256354
7.850000	-0.300247	-126.669750	-39.207862	-14.196915	-39.207862	-14.196915	-0.455993	153.696055
7.900000	-0.304417	-127.380016	-39.123476	-15.808640	-39.123476	-15.808640	-0.461493	152.125343
7.950000	-0.308639	-128.089996	-39.041058	-17.417731	-39.041058	-17.417731	-0.467000	150.544083
8.000000	-0.312913	-128.799729	-38.960609	-19.023958	-38.960609	-19.023958	-0.472510	148.952144
8.050000	-0.317241	-129.509250	-38.882127	-20.627074	-38.882127	-20.627074	-0.478022	147.349400
8.100000	-0.321624	-130.218600	-38.805612	-22.226818	-38.805612	-22.226818	-0.483531	145.735736
8.150000	-0.326062	-130.927816	-38.731064	-23.822912	-38.731064	-23.822912	-0.489037	144.111039
8.200000	-0.330556	-131.636937	-38.658480	-25.415068	-38.658480	-25.415068	-0.494535	142.475206
8.250000	-0.335108	-132.346004	-38.587857	-27.002978	-38.587857	-27.002978	-0.500023	140.828143
8.300000	-0.339717	-133.055055	-38.519192	-28.586323	-38.519192	-28.586323	-0.505497	139.169763
8.350000	-0.344384	-133.764131	-38.452480	-30.164767	-38.452480	-30.164767	-0.510955	137.499988
8.400000	-0.349110	-134.473272	-38.387715	-31.737962	-38.387715	-31.737962	-0.516394	135.818752
8.450000	-0.353895	-135.182519	-38.324891	-33.305543	-38.324891	-33.305543	-0.521810	134.125997
8.500000	-0.358740	-135.891913	-38.264001	-34.867135	-38.264001	-34.867135	-0.527201	132.421676
8.550000	-0.363645	-136.601495	-38.205036	-36.422346	-38.205036	-36.422346	-0.532563	130.705756
8.600000	-0.368611	-137.311308	-38.147986	-37.970772	-38.147986	-37.970772	-0.537893	128.978213
8.650000	-0.373638	-138.021392	-38.092840	-39.511997	-38.092840	-39.511997	-0.543187	127.239036
8.700000	-0.378726	-138.731790	-38.039589	-41.045591	-38.039589	-41.045591	-0.548444	125.488231
8.750000	-0.383876	-139.442546	-37.988218	-42.571115	-37.988218	-42.571115	-0.553659	123.725812
8.800000	-0.389091	-140.153722	-37.938784	-44.087724	-37.938784	-44.087724	-0.558827	121.951310
8.850000	-0.394368	-140.865347	-37.891204	-45.595305	-37.891204	-45.595305	-0.563947	120.165279
8.900000	-0.399708	-141.577465	-37.845465	-47.093383	-37.845465	-47.093383	-0.569016	118.367782
8.950000	-0.405111	-142.290120	-37.801550	-48.581476	-37.801550	-48.581476	-0.574032	116.558900
9.000000	-0.410574	-143.003325	-37.759357	-50.059680	-37.759357	-50.059680	-0.578994	114.739338
9.050000	-0.416104	-143.717182	-37.719027	-51.526473	-37.719027	-51.526473	-0.583894	112.908106
9.100000	-0.421698	-144.431714	-37.680476	-52.981797	-37.680476	-52.981797	-0.588733	111.065825
9.150000	-0.427356	-145.146966	-37.643687	-54.425141	-37.643687	-54.425141	-0.593506	109.212646
9.200000	-0.433079	-145.862988	-37.608646	-55.855989	-37.608646	-55.855989	-0.598213	107.348735
9.250000	-0.438867	-146.579826	-37.575339	-57.273823	-37.575339	-57.273823	-0.602851	105.474277
9.300000	-0.444720	-147.297530	-37.543752	-58.678120	-37.543752	-58.678120	-0.607418	103.589478
9.350000	-0.450639	-148.016149	-37.513875	-60.068359	-37.513875	-60.068359	-0.611912	101.694563
9.400000	-0.456624	-148.735745	-37.485713	-61.443855	-37.485713	-61.443855	-0.616331	99.789669
9.450000	-0.462675	-149.456369	-37.459260	-62.804070	-37.459260	-62.804070	-0.620673	97.875071
9.500000	-0.468793	-150.178063	-37.434490	-64.148650	-37.434490	-64.148650	-0.624938	95.951160
9.550000	-0.474977	-150.900879	-37.411401	-65.477085	-37.411401	-65.477085	-0.629125	94.018240
9.600000	-0.481228	-151.624870	-37.389991	-66.788878	-37.389991	-66.788878	-0.633234	92.076635
9.650000	-0.487546	-152.350090	-37.370263	-68.083539	-37.370263	-68.083539	-0.637264	90.126688
9.700000	-0.493930	-153.076593	-37.352221	-69.360593	-37.352221	-69.360593	-0.641215	88.168763
9.750000	-0.500382	-153.804434	-37.335876	-70.619584	-37.335876	-70.619584	-0.645087	86.203240
9.800000	-0.506901	-154.533670	-37.321239	-71.860071	-37.321239	-71.860071	-0.648882	84.230522
9.850000	-0.513488	-155.264357	-37.308328	-73.081638	-37.308328	-73.081638	-0.652600	82.251027
9.900000	-0.520142	-155.996553	-37.297164	-74.283896	-37.297164	-74.283896	-0.656242	80.265191
9.950000	-0.526865	-156.730316	-37.287773	-75.466482	-37.287773	-75.466482	-0.659810	78.273469
10.000000	-0.533655	-157.465707	-37.280184	-76.629071	-37.280184	-76.629071	-0.663306	76.276332
