! freq	dB(S11)	phase(S11)	dB(S12)	phase(S12)	
!     	dB(S21)	phase(S21)	dB(S22)	phase(S22)	
!S-par simulation data
#  GHz  S  DB  R 50
0.000000	-0.000000	0.000000	-312.019803	0.000000	-312.019803	0.000000	-0.000000	0.000000
0.050000	-0.002590	-1.956459	-85.143459	87.749756	-85.143459	87.749756	-0.003779	-2.823722
0.100000	-0.005707	-3.890550	-79.102314	86.116612	-79.102314	86.116612	-0.008355	-5.614077
0.150000	-0.008089	-5.818762	-75.813632	83.458649	-75.813632	83.458649	-0.011830	-8.394493
0.200000	-0.010323	-7.744844	-73.317454	80.718796	-73.317454	80.718796	-0.015063	-11.170177
0.250000	-0.012602	-9.668639	-71.420199	78.369730	-71.420199	78.369730	-0.018343	-13.940428
0.300000	-0.014963	-11.589569	-69.902112	76.070090	-69.902112	76.070090	-0.021729	-16.703647
0.350000	-0.017379	-13.507635	-68.644669	73.797467	-68.644669	73.797467	-0.025184	-19.459444
0.400000	-0.019828	-15.422837	-67.580059	71.551086	-67.580059	71.551086	-0.028674	-22.207383
0.450000	-0.022292	-17.335134	-66.665950	69.333739	-66.665950	69.333739	-0.032171	-24.946865
0.500000	-0.024761	-19.244354	-65.875484	67.151031	-65.875484	67.151031	-0.035656	-27.676868
0.550000	-0.027230	-21.150690	-65.185119	65.004498	-65.185119	65.004498	-0.039120	-30.397580
0.600000	-0.029696	-23.054083	-64.579657	62.898123	-64.579657	62.898123	-0.042557	-33.108528
0.650000	-0.032156	-24.954292	-64.049320	60.838502	-64.049320	60.838502	-0.045958	-35.808703
0.700000	-0.034606	-26.851169	-63.585243	58.831071	-63.585243	58.831071	-0.049315	-38.497487
0.750000	-0.037043	-28.744693	-63.178756	56.878843	-63.178756	56.878843	-0.052624	-41.174813
0.800000	-0.039462	-30.634683	-62.824292	54.987339	-62.824292	54.987339	-0.055875	-43.840124
0.850000	-0.041858	-32.520631	-62.520021	53.168390	-62.520021	53.168390	-0.059057	-46.491838
0.900000	-0.044228	-34.402523	-62.260096	51.425645	-62.260096	51.425645	-0.062166	-49.130095
0.950000	-0.046570	-36.280203	-62.040867	49.765620	-62.040867	49.765620	-0.065201	-51.754575
1.000000	-0.048884	-38.153393	-61.860208	48.198171	-61.860208	48.198171	-0.068159	-54.364575
1.050000	-0.051169	-40.021554	-61.717995	46.740864	-61.717995	46.740864	-0.071036	-56.958599
1.100000	-0.053428	-41.884846	-61.609584	45.397498	-61.609584	45.397498	-0.073843	-59.537379
1.150000	-0.055665	-43.743094	-61.533189	44.180358	-61.533189	44.180358	-0.076583	-62.100556
1.200000	-0.057882	-45.595902	-61.488370	43.110130	-61.488370	43.110130	-0.079259	-64.647107
1.250000	-0.060081	-47.443075	-61.473324	42.205938	-61.473324	42.205938	-0.081878	-67.176644
1.300000	-0.062268	-49.284750	-61.484679	41.478565	-61.484679	41.478565	-0.084447	-69.689756
1.350000	-0.064444	-51.120819	-61.520332	40.947452	-61.520332	40.947452	-0.086970	-72.186283
1.400000	-0.066611	-52.950758	-61.579119	40.652089	-61.579119	40.652089	-0.089449	-74.664863
1.450000	-0.068770	-54.774790	-61.656278	40.606617	-61.656278	40.606617	-0.091888	-77.126329
1.500000	-0.070923	-56.592960	-61.747460	40.830825	-61.747460	40.830825	-0.094291	-79.570969
1.550000	-0.073071	-58.405146	-61.847841	41.352124	-61.847841	41.352124	-0.096659	-81.998594
1.600000	-0.075213	-60.210871	-61.950620	42.218126	-61.950620	42.218126	-0.098989	-84.408036
1.650000	-0.077349	-62.010587	-62.047456	43.421621	-62.047456	43.421621	-0.101287	-86.800744
1.700000	-0.079479	-63.804232	-62.129302	44.973954	-62.129302	44.973954	-0.103551	-89.176708
1.750000	-0.081603	-65.591621	-62.184772	46.882139	-62.184772	46.882139	-0.105781	-91.535586
1.800000	-0.083720	-67.372803	-62.202289	49.122355	-62.202289	49.122355	-0.107977	-93.877689
1.850000	-0.085830	-69.147774	-62.170178	51.652756	-62.170178	51.652756	-0.110139	-96.203184
1.900000	-0.087930	-70.915667	-62.068116	54.427917	-62.068116	54.427917	-0.112263	-98.509973
1.950000	-0.090023	-72.678182	-61.906402	57.309479	-61.906402	57.309479	-0.114359	-100.802706
2.000000	-0.092107	-74.434531	-61.673391	60.229297	-61.673391	60.229297	-0.116422	-103.079471
2.050000	-0.094183	-76.184743	-61.369721	63.086469	-61.369721	63.086469	-0.118453	-105.340516
2.100000	-0.096250	-77.928858	-61.000241	65.787465	-61.000241	65.787465	-0.120453	-107.586105
2.150000	-0.098308	-79.666918	-60.573151	68.254915	-60.573151	68.254915	-0.122423	-109.816518
2.200000	-0.100358	-81.398975	-60.098729	70.432792	-60.098729	70.432792	-0.124364	-112.032047
2.250000	-0.102400	-83.125087	-59.588005	72.287489	-59.588005	72.287489	-0.126279	-114.232998
2.300000	-0.104434	-84.845320	-59.051663	73.805597	-59.051663	73.805597	-0.128167	-116.419687
2.350000	-0.106462	-86.559744	-58.499303	74.989765	-58.499303	74.989765	-0.130032	-118.592442
2.400000	-0.108484	-88.268438	-57.939069	75.854035	-57.939069	75.854035	-0.131875	-120.751597
2.450000	-0.110501	-89.971486	-57.377557	76.419566	-57.377557	76.419566	-0.133699	-122.897499
2.500000	-0.112514	-91.668977	-56.819906	76.711220	-56.819906	76.711220	-0.135505	-125.030497
2.550000	-0.114525	-93.360773	-56.268962	76.745522	-56.268962	76.745522	-0.137294	-127.150422
2.600000	-0.116535	-95.047220	-55.728844	76.559886	-55.728844	76.559886	-0.139071	-129.258200
2.650000	-0.118546	-96.728423	-55.201439	76.178297	-55.201439	76.178297	-0.140838	-131.354198
2.700000	-0.120558	-98.404496	-54.687982	75.622774	-54.687982	75.622774	-0.142596	-133.438789
2.750000	-0.122574	-100.075556	-54.189209	74.913201	-54.189209	74.913201	-0.144348	-135.512348
2.800000	-0.124595	-101.741726	-53.705489	74.067326	-53.705489	74.067326	-0.146097	-137.575255
2.850000	-0.126623	-103.403134	-53.236915	73.100868	-53.236915	73.100868	-0.147844	-139.627889
2.900000	-0.128659	-105.059911	-52.783382	72.027672	-52.783382	72.027672	-0.149593	-141.670631
2.950000	-0.130705	-106.712195	-52.344644	70.859881	-52.344644	70.859881	-0.151344	-143.703865
3.000000	-0.132763	-108.360126	-51.920363	69.608125	-51.920363	69.608125	-0.153101	-145.727972
3.050000	-0.134834	-110.003850	-51.510133	68.281689	-51.510133	68.281689	-0.154865	-147.743335
3.100000	-0.136920	-111.643516	-51.113515	66.888680	-51.113515	66.888680	-0.156639	-149.750337
3.150000	-0.139023	-113.279279	-50.730048	65.436170	-50.730048	65.436170	-0.158423	-151.749360
3.200000	-0.141144	-114.911295	-50.359263	63.930330	-50.359263	63.930330	-0.160220	-153.740782
3.250000	-0.143286	-116.539727	-50.000698	62.376545	-50.000698	62.376545	-0.162032	-155.724984
3.300000	-0.145448	-118.164740	-49.653899	60.779517	-49.653899	60.779517	-0.163859	-157.702343
3.350000	-0.147633	-119.786502	-49.318431	59.143354	-49.318431	59.143354	-0.165704	-159.673233
3.400000	-0.149843	-121.405187	-48.993875	57.471648	-48.993875	57.471648	-0.167566	-161.638028
3.450000	-0.152078	-123.020970	-48.679834	55.767546	-48.679834	55.767546	-0.169448	-163.597097
3.500000	-0.154340	-124.634032	-48.375934	54.033804	-48.375934	54.033804	-0.171351	-165.550808
3.550000	-0.156630	-126.244555	-48.081825	52.272847	-48.081825	52.272847	-0.173275	-167.499527
3.600000	-0.158950	-127.852726	-47.797179	50.486808	-47.797179	50.486808	-0.175220	-169.443614
3.650000	-0.161300	-129.458734	-47.521694	48.677570	-47.521694	48.677570	-0.177188	-171.383428
3.700000	-0.163681	-131.062773	-47.255086	46.846802	-47.255086	46.846802	-0.179179	-173.319324
3.750000	-0.166095	-132.665038	-46.997097	44.995989	-46.997097	44.995989	-0.181193	-175.251654
3.800000	-0.168543	-134.265669	-46.747545	43.125699	-46.747545	43.125699	-0.183231	-177.180642
3.850000	-0.171026	-135.864946	-46.506178	41.237979	-46.506178	41.237979	-0.185293	-179.106786
3.900000	-0.173544	-137.463075	-46.272799	39.333895	-46.272799	39.333895	-0.187378	178.969574
3.950000	-0.176097	-139.060263	-46.047226	37.414421	-46.047226	37.414421	-0.189486	177.048102
4.000000	-0.178686	-140.656723	-45.829295	35.480452	-45.829295	35.480452	-0.191617	175.128468
4.050000	-0.181311	-142.252667	-45.618860	33.532819	-45.618860	33.532819	-0.193771	173.210344
4.100000	-0.183974	-143.848313	-45.415787	31.572303	-45.415787	31.572303	-0.195947	171.293408
4.150000	-0.186674	-145.443880	-45.219958	29.599638	-45.219958	29.599638	-0.198144	169.377342
4.200000	-0.189412	-147.039590	-45.031267	27.615528	-45.031267	27.615528	-0.200362	167.461831
4.250000	-0.192187	-148.635667	-44.849619	25.620648	-44.849619	25.620648	-0.202601	165.546567
4.300000	-0.195001	-150.232340	-44.674933	23.615652	-44.674933	23.615652	-0.204859	163.631245
4.350000	-0.197853	-151.829837	-44.507134	21.601179	-44.507134	21.601179	-0.207136	161.715567
4.400000	-0.200744	-153.428391	-44.346158	19.577858	-44.346158	19.577858	-0.209431	159.799237
4.450000	-0.203672	-155.028235	-44.191949	17.546306	-44.191949	17.546306	-0.211743	157.881966
4.500000	-0.206640	-156.629608	-44.044460	15.507139	-44.044460	15.507139	-0.214072	155.963470
4.550000	-0.209645	-158.232747	-43.903647	13.460963	-43.903647	13.460963	-0.216415	154.043470
4.600000	-0.212688	-159.837894	-43.769475	11.408387	-43.769475	11.408387	-0.218773	152.121690
4.650000	-0.215769	-161.445292	-43.641915	9.350015	-43.641915	9.350015	-0.221144	150.197862
4.700000	-0.218889	-163.055187	-43.520941	7.286449	-43.520941	7.286449	-0.223528	148.271722
4.750000	-0.222045	-164.667826	-43.406535	5.218289	-43.406535	5.218289	-0.225923	146.343012
4.800000	-0.225239	-166.283457	-43.298679	3.146135	-43.298679	3.146135	-0.228329	144.411479
4.850000	-0.228469	-167.902333	-43.197365	1.070580	-43.197365	1.070580	-0.230745	142.476874
4.900000	-0.231736	-169.524705	-43.102584	-1.007785	-43.102584	-1.007785	-0.233170	140.538956
4.950000	-0.235039	-171.150828	-43.014334	-3.088372	-43.014334	-3.088372	-0.235603	138.597486
5.000000	-0.238378	-172.780958	-42.932617	-5.170603	-42.932617	-5.170603	-0.238043	136.652234
5.050000	-0.241753	-174.415550	-42.857700	-7.253922	-42.857700	-7.253922	-0.240490	134.702787
5.100000	-0.245163	-176.054688	-42.789344	-9.337694	-42.789344	-9.337694	-0.242943	132.749089
5.150000	-0.248608	-177.698633	-42.727566	-11.421362	-42.727566	-11.421362	-0.245401	130.790924
5.200000	-0.252086	-179.347645	-42.672386	-13.504376	-42.672386	-13.504376	-0.247865	128.828080
5.250000	-0.255597	178.998014	-42.623831	-15.586196	-42.623831	-15.586196	-0.250333	126.860351
5.300000	-0.259141	177.338080	-42.581936	-17.666288	-42.581936	-17.666288	-0.252806	124.887534
5.350000	-0.262716	175.672290	-42.546743	-19.744126	-42.546743	-19.744126	-0.255284	122.909431
5.400000	-0.266323	174.000382	-42.518299	-21.819187	-42.518299	-21.819187	-0.257766	120.925847
5.450000	-0.269961	172.322090	-42.496666	-23.890953	-42.496666	-23.890953	-0.260252	118.936591
5.500000	-0.273629	170.637149	-42.481909	-25.958905	-42.481909	-25.958905	-0.262744	116.941474
5.550000	-0.277326	168.945297	-42.474110	-28.022519	-42.474110	-28.022519	-0.265242	114.940310
5.600000	-0.281052	167.246269	-42.473358	-30.081266	-42.473358	-30.081266	-0.267746	112.932914
5.650000	-0.284806	165.539801	-42.479758	-32.134603	-42.479758	-32.134603	-0.270257	110.919102
5.700000	-0.288586	163.825630	-42.493428	-34.181966	-42.493428	-34.181966	-0.272777	108.898690
5.750000	-0.292394	162.103496	-42.514501	-36.222768	-42.514501	-36.222768	-0.275307	106.871494
5.800000	-0.296227	160.373135	-42.543128	-38.256385	-42.543128	-38.256385	-0.277850	104.837327
5.850000	-0.300085	158.634291	-42.579476	-40.282152	-42.579476	-40.282152	-0.280406	102.795999
5.900000	-0.303966	156.886704	-42.623732	-42.299345	-42.623732	-42.299345	-0.282978	100.747316
5.950000	-0.307871	155.130119	-42.676106	-44.307176	-42.676106	-44.307176	-0.285570	98.691076
6.000000	-0.311798	153.364283	-42.736827	-46.304772	-42.736827	-46.304772	-0.288185	96.627072
6.050000	-0.315746	151.588944	-42.806151	-48.291162	-42.806151	-48.291162	-0.290825	94.555084
6.100000	-0.319715	149.803856	-42.884359	-50.265260	-42.884359	-50.265260	-0.293496	92.474880
6.150000	-0.323702	148.008773	-42.971760	-52.225835	-42.971760	-52.225835	-0.296202	90.386216
6.200000	-0.327709	146.203453	-43.068691	-54.171496	-43.068691	-54.171496	-0.298948	88.288826
6.250000	-0.331732	144.387661	-43.175524	-56.100656	-43.175524	-56.100656	-0.301741	86.182424
6.300000	-0.335772	142.560687	-43.293054	-58.010604	-43.293054	-58.010604	-0.304589	84.066277
6.350000	-0.339827	140.722760	-43.421345	-59.899933	-43.421345	-59.899933	-0.307500	81.940432
6.400000	-0.343896	138.873657	-43.560873	-61.766195	-43.560873	-61.766195	-0.310482	79.804507
6.450000	-0.347978	137.013162	-43.712157	-63.606564	-43.712157	-63.606564	-0.313545	77.658077
6.500000	-0.352072	135.141066	-43.875757	-65.417766	-43.875757	-65.417766	-0.316700	75.500671
6.550000	-0.356176	133.257165	-44.052277	-67.196005	-44.052277	-67.196005	-0.319962	73.331758
6.600000	-0.360289	131.361264	-44.242363	-68.936865	-44.242363	-68.936865	-0.323343	71.150742
6.650000	-0.364411	129.453172	-44.446711	-70.635201	-44.446711	-70.635201	-0.326863	68.956951
6.700000	-0.368539	127.532711	-44.666056	-72.284999	-44.666056	-72.284999	-0.330539	66.749624
6.750000	-0.372673	125.599709	-44.901177	-73.879219	-44.901177	-73.879219	-0.334394	64.527893
6.800000	-0.376812	123.654003	-45.152887	-75.409594	-45.152887	-75.409594	-0.338454	62.290774
6.850000	-0.380954	121.695440	-45.422026	-76.866393	-45.422026	-76.866393	-0.342749	60.037137
6.900000	-0.385098	119.723877	-45.709442	-78.238138	-45.709442	-78.238138	-0.347312	57.765691
6.950000	-0.389244	117.739184	-46.015966	-79.511256	-46.015966	-79.511256	-0.352185	55.474949
7.000000	-0.393389	115.741239	-46.342372	-80.669671	-46.342372	-80.669671	-0.357413	53.163196
7.050000	-0.397534	113.729934	-46.689319	-81.694323	-46.689319	-81.694323	-0.363053	50.828451
7.100000	-0.401676	111.706353	-47.056891	-82.578983	-47.056891	-82.578983	-0.369120	48.470890
7.150000	-0.405816	109.667912	-47.446186	-83.264728	-47.446186	-83.264728	-0.375791	46.082825
7.200000	-0.409952	107.615860	-47.856197	-83.735538	-47.856197	-83.735538	-0.383111	43.663621
7.250000	-0.414083	105.550143	-48.285716	-83.954464	-48.285716	-83.954464	-0.391195	41.209585
7.300000	-0.418210	103.470721	-48.732353	-83.878999	-48.732353	-83.878999	-0.400181	38.716360
7.350000	-0.422331	101.377569	-49.192019	-83.461477	-49.192019	-83.461477	-0.410239	36.178779
7.400000	-0.426446	99.270676	-49.658256	-82.650719	-49.658256	-82.650719	-0.421580	33.590681
7.450000	-0.430555	97.150051	-50.121438	-81.395800	-50.121438	-81.395800	-0.434468	30.944671
7.500000	-0.434659	95.015716	-50.567951	-79.653139	-50.567951	-79.653139	-0.449234	28.231819
7.550000	-0.438756	92.867416	-50.978005	-77.387170	-50.978005	-77.387170	-0.466365	25.439258
7.600000	-0.442848	90.705507	-51.329859	-74.622713	-51.329859	-74.622713	-0.486379	22.554888
7.650000	-0.446936	88.530066	-51.598421	-71.430104	-51.598421	-71.430104	-0.510010	19.561898
7.700000	-0.451021	86.341187	-51.759797	-67.950117	-51.759797	-67.950117	-0.538233	16.439207
7.750000	-0.455103	84.138981	-51.796451	-64.394209	-51.796451	-64.394209	-0.572368	13.160074
7.800000	-0.459184	81.923578	-51.702134	-61.024677	-51.702134	-61.024677	-0.614232	9.690138
7.850000	-0.463267	79.695127	-51.484317	-58.119355	-51.484317	-58.119355	-0.666377	5.984609
7.900000	-0.467354	77.453793	-51.162970	-55.936188	-51.162970	-55.936188	-0.732460	1.984166
7.950000	-0.471447	75.199994	-50.767736	-54.672530	-50.767736	-54.672530	-0.817341	-2.381721
8.000000	-0.475552	72.933385	-50.328287	-54.561780	-50.328287	-54.561780	-0.930127	-7.242320
8.050000	-0.479672	70.654491	-49.881292	-55.760000	-49.881292	-55.760000	-1.082997	-12.743509
8.100000	-0.483817	68.363544	-49.463391	-58.485888	-49.463391	-58.485888	-1.296259	-19.108998
8.150000	-0.487998	66.060752	-49.117893	-63.067704	-49.117893	-63.067704	-1.604249	-26.677369
8.200000	-0.492234	63.746433	-48.903376	-70.022234	-48.903376	-70.022234	-2.066194	-35.966165
8.250000	-0.496547	61.421092	-48.906533	-80.189786	-48.906533	-80.189786	-2.786185	-47.790715
8.300000	-0.500931	59.085359	-49.260238	-95.025985	-49.260238	-95.025985	-3.951437	-63.562555
8.350000	-0.505313	56.739708	-50.119648	-117.083457	-50.119648	-117.083457	-5.866535	-86.028997
8.400000	-0.509648	54.384007	-51.380184	-150.573538	-51.380184	-150.573538	-8.731733	-121.728679
8.450000	-0.513980	52.018217	-51.806523	163.054409	-51.806523	163.054409	-10.595601	-179.880502
8.500000	-0.518365	49.642707	-50.202887	118.272026	-50.202887	118.272026	-8.405998	125.469237
8.550000	-0.522826	47.258013	-48.011667	86.845162	-48.011667	86.845162	-5.763578	93.154373
8.600000	-0.527374	44.864608	-46.239679	65.757732	-46.239679	65.757732	-4.037556	72.692898
8.650000	-0.532015	42.462975	-44.922334	50.870212	-44.922334	50.870212	-2.972844	58.255444
8.700000	-0.536756	40.053539	-43.918886	39.806290	-43.918886	39.806290	-2.300586	47.383866
8.750000	-0.541603	37.636793	-43.117103	31.194305	-43.117103	31.194305	-1.858631	38.795488
8.800000	-0.546566	35.213158	-42.447374	24.236854	-42.447374	24.236854	-1.557301	31.764695
8.850000	-0.551651	32.783146	-41.866839	18.420868	-41.866839	18.420868	-1.344254	25.825439
8.900000	-0.556870	30.347112	-41.349890	13.435099	-41.349890	13.435099	-1.189995	20.694901
8.950000	-0.562230	27.905622	-40.879472	9.047143	-40.879472	9.047143	-1.074942	16.158878
9.000000	-0.567742	25.459086	-40.444920	5.112696	-40.444920	5.112696	-0.987663	12.084172
9.050000	-0.573417	23.007968	-40.038813	1.524232	-40.038813	1.524232	-0.920346	8.370454
9.100000	-0.579263	20.552778	-39.655930	-1.797909	-39.655930	-1.797909	-0.867641	4.942388
9.150000	-0.585287	18.094028	-39.292507	-4.913026	-39.292507	-4.913026	-0.825834	1.743205
9.200000	-0.591504	15.632092	-38.945845	-7.858956	-38.945845	-7.858956	-0.792631	-1.262432
9.250000	-0.597924	13.167424	-38.613807	-10.668760	-38.613807	-10.668760	-0.766173	-4.106109
9.300000	-0.604552	10.700556	-38.294709	-13.371975	-38.294709	-13.371975	-0.744912	-6.817285
9.350000	-0.611398	8.231897	-37.987259	-15.987106	-37.987259	-15.987106	-0.727916	-9.413459
9.400000	-0.618486	5.761825	-37.690401	-18.526908	-37.690401	-18.526908	-0.714582	-11.905225
9.450000	-0.625808	3.290870	-37.403275	-21.009810	-37.403275	-21.009810	-0.704063	-14.312563
9.500000	-0.633372	0.819428	-37.125185	-23.446103	-37.125185	-23.446103	-0.695916	-16.645381
9.550000	-0.641184	-1.652115	-36.855555	-25.844425	-36.855555	-25.844425	-0.689792	-18.911947
9.600000	-0.649251	-4.123387	-36.593905	-28.212090	-36.593905	-28.212090	-0.685406	-21.119208
9.650000	-0.657579	-6.594027	-36.339837	-30.555344	-36.339837	-30.555344	-0.682528	-23.273044
9.700000	-0.666190	-9.063602	-36.093037	-32.878608	-36.093037	-32.878608	-0.681047	-25.375497
9.750000	-0.675086	-11.531755	-35.853263	-35.187464	-35.853263	-35.187464	-0.680766	-27.432273
9.800000	-0.684256	-13.998227	-35.620310	-37.486718	-35.620310	-37.486718	-0.681498	-29.449266
9.850000	-0.693702	-16.462727	-35.394021	-39.779796	-35.394021	-39.779796	-0.683140	-31.429567
9.900000	-0.703427	-18.924982	-35.174283	-42.069700	-35.174283	-42.069700	-0.685605	-33.375874
9.950000	-0.713429	-21.384737	-34.961025	-44.359063	-34.961025	-44.359063	-0.688818	-35.290552
10.000000	-0.723708	-23.841756	-34.754208	-46.650187	-34.754208	-46.650187	-0.692717	-37.175688
