! freq	dB(S11)	phase(S11)	dB(S12)	phase(S12)	
!     	dB(S21)	phase(S21)	dB(S22)	phase(S22)	
!S-par simulation data
#  GHz  S  DB  R 50
0.000000	0.000000	0.000000	-338.396162	180.000000	-338.396162	180.000000	-0.000000	0.000000
0.050000	-0.000850	-1.337568	-110.447011	88.364216	-110.447011	88.364216	-0.000485	-0.771985
0.100000	-0.002876	-2.668915	-104.502756	87.852864	-104.502756	87.852864	-0.001638	-1.540422
0.150000	-0.005233	-3.993164	-101.036635	87.078539	-101.036635	87.078539	-0.002977	-2.304832
0.200000	-0.007441	-5.312460	-98.627568	86.178639	-98.627568	86.178639	-0.004228	-3.066494
0.250000	-0.009431	-6.629354	-96.808487	85.261461	-96.808487	85.261461	-0.005356	-3.826908
0.300000	-0.011229	-7.944852	-95.377842	84.370967	-95.377842	84.370967	-0.006376	-4.586709
0.350000	-0.012898	-9.259499	-94.225794	83.534389	-94.225794	83.534389	-0.007328	-5.346269
0.400000	-0.014490	-10.573445	-93.288509	82.773307	-93.288509	82.773307	-0.008241	-6.105735
0.450000	-0.016041	-11.886566	-92.533256	82.118689	-92.533256	82.118689	-0.009136	-6.865132
0.500000	-0.017577	-13.198788	-91.923725	81.585183	-91.923725	81.585183	-0.010027	-7.624431
0.550000	-0.019111	-14.509939	-91.441752	81.200266	-91.441752	81.200266	-0.010919	-8.383573
0.600000	-0.020651	-15.819841	-91.074997	80.997997	-91.074997	80.997997	-0.011814	-9.142489
0.650000	-0.022198	-17.128316	-90.815170	81.021373	-90.815170	81.021373	-0.012712	-9.901104
0.700000	-0.023756	-18.435196	-90.656849	81.325448	-90.656849	81.325448	-0.013615	-10.659344
0.750000	-0.025324	-19.740208	-90.602406	82.009130	-90.602406	82.009130	-0.014521	-11.417107
0.800000	-0.026903	-21.043192	-90.648253	83.182595	-90.648253	83.182595	-0.015431	-12.174322
0.850000	-0.028489	-22.344048	-90.787644	84.983273	-90.787644	84.983273	-0.016345	-12.930939
0.900000	-0.030082	-23.642810	-91.007407	87.533383	-91.007407	87.533383	-0.017263	-13.686954
0.950000	-0.031680	-24.939234	-91.298072	91.098879	-91.298072	91.098879	-0.018185	-14.442288
1.000000	-0.033281	-26.233209	-91.629601	95.958484	-91.629601	95.958484	-0.019113	-15.196905
1.050000	-0.034885	-27.524631	-91.946012	102.399387	-91.946012	102.399387	-0.020046	-15.950771
1.100000	-0.036489	-28.813401	-92.155065	110.604623	-92.155065	110.604623	-0.020984	-16.703860
1.150000	-0.038092	-30.099430	-92.132060	120.445070	-92.132060	120.445070	-0.021928	-17.456149
1.200000	-0.039692	-31.382632	-91.758596	131.268856	-91.758596	131.268856	-0.022877	-18.207620
1.250000	-0.041290	-32.662926	-90.990281	141.970026	-90.990281	141.970026	-0.023831	-18.958255
1.300000	-0.042882	-33.940103	-89.873362	151.403942	-89.873362	151.403942	-0.024789	-19.708002
1.350000	-0.044470	-35.214219	-88.555497	159.087877	-88.555497	159.087877	-0.025752	-20.456883
1.400000	-0.046051	-36.485204	-87.153646	165.024704	-87.153646	165.024704	-0.026718	-21.204888
1.450000	-0.047626	-37.752996	-85.746008	169.456276	-85.746008	169.456276	-0.027687	-21.952005
1.500000	-0.049195	-39.017532	-84.375742	172.678510	-84.375742	172.678510	-0.028659	-22.698222
1.550000	-0.050757	-40.278754	-83.062968	174.958069	-83.062968	174.958069	-0.029632	-23.443530
1.600000	-0.052312	-41.536606	-81.814756	176.509358	-81.814756	176.509358	-0.030607	-24.187917
1.650000	-0.053861	-42.791035	-80.631435	177.496720	-80.631435	177.496720	-0.031583	-24.931375
1.700000	-0.055402	-44.041990	-79.510144	178.043927	-79.510144	178.043927	-0.032560	-25.673892
1.750000	-0.056938	-45.289423	-78.446697	178.243957	-78.446697	178.243957	-0.033537	-26.415458
1.800000	-0.058468	-46.533288	-77.436541	178.167013	-77.436541	178.167013	-0.034514	-27.156064
1.850000	-0.059992	-47.773541	-76.475213	177.866577	-76.475213	177.866577	-0.035491	-27.895698
1.900000	-0.061511	-49.010141	-75.558544	177.383821	-75.558544	177.383821	-0.036468	-28.634351
1.950000	-0.063026	-50.243048	-74.682738	176.750801	-74.682738	176.750801	-0.037445	-29.372012
2.000000	-0.064537	-51.472226	-73.844377	175.992748	-73.844377	175.992748	-0.038422	-30.108671
2.050000	-0.066045	-52.697639	-73.040411	175.129741	-73.040411	175.129741	-0.039399	-30.844317
2.100000	-0.067551	-53.919256	-72.268115	174.177916	-72.268115	174.177916	-0.040375	-31.578938
2.150000	-0.069054	-55.137045	-71.525066	173.150370	-71.525066	173.150370	-0.041352	-32.312525
2.200000	-0.070557	-56.350978	-70.809098	172.057825	-70.809098	172.057825	-0.042329	-33.045066
2.250000	-0.072059	-57.561029	-70.118276	170.909134	-70.118276	170.909134	-0.043306	-33.776550
2.300000	-0.073562	-58.767174	-69.450868	169.711664	-69.450868	169.711664	-0.044284	-34.506967
2.350000	-0.075066	-59.969391	-68.805317	168.471587	-68.805317	168.471587	-0.045264	-35.236305
2.400000	-0.076571	-61.167661	-68.180218	167.194114	-68.180218	167.194114	-0.046244	-35.964553
2.450000	-0.078079	-62.361965	-67.574304	165.883667	-67.574304	165.883667	-0.047227	-36.691700
2.500000	-0.079591	-63.552289	-66.986427	164.544023	-66.986427	164.544023	-0.048211	-37.417736
2.550000	-0.081106	-64.738444	-66.414655	163.177431	-66.414655	163.177431	-0.049199	-38.142599
2.600000	-0.082627	-65.920594	-65.859023	161.787907	-65.859023	161.787907	-0.050189	-38.866327
2.650000	-0.084153	-67.098729	-65.318654	160.377837	-65.318654	160.377837	-0.051182	-39.588910
2.700000	-0.085685	-68.272842	-64.792742	158.949308	-64.792742	158.949308	-0.052179	-40.310337
2.750000	-0.087224	-69.442928	-64.280549	157.504149	-64.280549	157.504149	-0.053181	-41.030596
2.800000	-0.088770	-70.608986	-63.781399	156.043972	-63.781399	156.043972	-0.054187	-41.749679
2.850000	-0.090325	-71.771013	-63.294666	154.570202	-63.294666	154.570202	-0.055198	-42.467573
2.900000	-0.091888	-72.929011	-62.819774	153.084107	-62.819774	153.084107	-0.056215	-43.184269
2.950000	-0.093461	-74.082984	-62.356189	151.586815	-62.356189	151.586815	-0.057237	-43.899758
3.000000	-0.095043	-75.232936	-61.903416	150.079337	-61.903416	150.079337	-0.058267	-44.614028
3.050000	-0.096636	-76.378874	-61.460996	148.562584	-61.460996	148.562584	-0.059303	-45.327071
3.100000	-0.098241	-77.520807	-61.028501	147.037374	-61.028501	147.037374	-0.060346	-46.038877
3.150000	-0.099857	-78.658745	-60.605532	145.504452	-60.605532	145.504452	-0.061397	-46.749436
3.200000	-0.101486	-79.792701	-60.191718	143.964492	-60.191718	143.964492	-0.062457	-47.458740
3.250000	-0.103127	-80.922689	-59.786709	142.418112	-59.786709	142.418112	-0.063526	-48.166780
3.300000	-0.104782	-82.048725	-59.390181	140.865877	-59.390181	140.865877	-0.064603	-48.873546
3.350000	-0.106451	-83.170825	-59.001826	139.308308	-59.001826	139.308308	-0.065690	-49.579032
3.400000	-0.108135	-84.289010	-58.621356	137.745885	-58.621356	137.745885	-0.066788	-50.283228
3.450000	-0.109833	-85.403299	-58.248502	136.179054	-58.248502	136.179054	-0.067896	-50.986128
3.500000	-0.111547	-86.513715	-57.883006	134.608229	-57.883006	134.608229	-0.069015	-51.687722
3.550000	-0.113277	-87.620282	-57.524629	133.033799	-57.524629	133.033799	-0.070145	-52.388005
3.600000	-0.115024	-88.723024	-57.173142	131.456125	-57.173142	131.456125	-0.071287	-53.086969
3.650000	-0.116788	-89.821968	-56.828328	129.875549	-56.828328	129.875549	-0.072442	-53.784607
3.700000	-0.118570	-90.917143	-56.489982	128.292392	-56.489982	128.292392	-0.073609	-54.480912
3.750000	-0.120370	-92.008577	-56.157911	126.706959	-56.157911	126.706959	-0.074789	-55.175880
3.800000	-0.122189	-93.096141	-55.831662	125.119466	-55.831662	125.119466	-0.075984	-55.869445
3.850000	-0.124027	-94.180030	-55.511347	123.530282	-55.511347	123.530282	-0.077192	-56.561659
3.900000	-0.125885	-95.260278	-55.196797	121.939667	-55.196797	121.939667	-0.078415	-57.252519
3.950000	-0.127763	-96.336919	-54.887847	120.347869	-54.887847	120.347869	-0.079653	-57.942018
4.000000	-0.129662	-97.409989	-54.584342	118.755125	-54.584342	118.755125	-0.080906	-58.630152
4.050000	-0.131582	-98.479524	-54.286133	117.161659	-54.286133	117.161659	-0.082174	-59.316917
4.100000	-0.133524	-99.545562	-53.993076	115.567689	-53.993076	115.567689	-0.083458	-60.002308
4.150000	-0.135488	-100.608142	-53.705033	113.973421	-53.705033	113.973421	-0.084759	-60.686323
4.200000	-0.137474	-101.667305	-53.421871	112.379053	-53.421871	112.379053	-0.086077	-61.368958
4.250000	-0.139484	-102.723091	-53.143462	110.784775	-53.143462	110.784775	-0.087411	-62.050209
4.300000	-0.141517	-103.775542	-52.869682	109.190767	-52.869682	109.190767	-0.088763	-62.730075
4.350000	-0.143574	-104.824700	-52.600412	107.597201	-52.600412	107.597201	-0.090133	-63.408551
4.400000	-0.145656	-105.870610	-52.335535	106.004241	-52.335535	106.004241	-0.091521	-64.085638
4.450000	-0.147762	-106.913317	-52.074940	104.412044	-52.074940	104.412044	-0.092928	-64.761332
4.500000	-0.149895	-107.952864	-51.818517	102.820757	-51.818517	102.820757	-0.094353	-65.435632
4.550000	-0.152053	-108.989299	-51.566161	101.230518	-51.566161	101.230518	-0.095798	-66.108537
4.600000	-0.154238	-110.022669	-51.317769	99.641459	-51.317769	99.641459	-0.097262	-66.780046
4.650000	-0.156450	-111.053021	-51.073240	98.053701	-51.073240	98.053701	-0.098746	-67.450158
4.700000	-0.158689	-112.080403	-50.832478	96.467359	-50.832478	96.467359	-0.100251	-68.118873
4.750000	-0.160956	-113.104865	-50.595387	94.882537	-50.595387	94.882537	-0.101776	-68.786192
4.800000	-0.163252	-114.126456	-50.361874	93.299331	-50.361874	93.299331	-0.103323	-69.452114
4.850000	-0.165576	-115.145227	-50.131850	91.717829	-50.131850	91.717829	-0.104890	-70.116641
4.900000	-0.167930	-116.161228	-49.905226	90.138107	-49.905226	90.138107	-0.106479	-70.779772
4.950000	-0.170314	-117.174512	-49.681916	88.560234	-49.681916	88.560234	-0.108090	-71.441510
5.000000	-0.172728	-118.185130	-49.461836	86.984270	-49.461836	86.984270	-0.109724	-72.101856
5.050000	-0.175174	-119.193025	-49.244805	85.410350	-49.244805	85.410350	-0.111381	-72.760751
5.100000	-0.177651	-120.198364	-49.030848	83.838432	-49.030848	83.838432	-0.113061	-73.418258
5.150000	-0.180160	-121.201203	-48.819887	82.268542	-48.819887	82.268542	-0.114765	-74.074379
5.200000	-0.182701	-122.201595	-48.611843	80.700701	-48.611843	80.700701	-0.116492	-74.729118
5.250000	-0.185274	-123.199596	-48.406643	79.134917	-48.406643	79.134917	-0.118243	-75.382477
5.300000	-0.187881	-124.195260	-48.204214	77.571190	-48.204214	77.571190	-0.120018	-76.034459
5.350000	-0.190521	-125.188643	-48.004483	76.009509	-48.004483	76.009509	-0.121818	-76.685068
5.400000	-0.193194	-126.179802	-47.807382	74.449854	-47.807382	74.449854	-0.123643	-77.334309
5.450000	-0.195902	-127.168793	-47.612842	72.892194	-47.612842	72.892194	-0.125493	-77.982184
5.500000	-0.198645	-128.155672	-47.420800	71.336491	-47.420800	71.336491	-0.127368	-78.628698
5.550000	-0.201422	-129.140499	-47.231190	69.782694	-47.231190	69.782694	-0.129269	-79.273857
5.600000	-0.204235	-130.123329	-47.043951	68.230745	-47.043951	68.230745	-0.131197	-79.917664
5.650000	-0.207084	-131.104221	-46.859023	66.680575	-46.859023	66.680575	-0.133151	-80.560126
5.700000	-0.209969	-132.083234	-46.676348	65.132107	-46.676348	65.132107	-0.135132	-81.201247
5.750000	-0.212890	-133.060427	-46.495871	63.585255	-46.495871	63.585255	-0.137139	-81.841034
5.800000	-0.215848	-134.035859	-46.317537	62.039925	-46.317537	62.039925	-0.139175	-82.479491
5.850000	-0.218843	-135.009589	-46.141295	60.496012	-46.141295	60.496012	-0.141238	-83.116626
5.900000	-0.221876	-135.981677	-45.967096	58.953406	-45.967096	58.953406	-0.143329	-83.752445
5.950000	-0.224946	-136.952184	-45.794890	57.411988	-45.794890	57.411988	-0.145448	-84.386954
6.000000	-0.228054	-137.921169	-45.624634	55.871632	-45.624634	55.871632	-0.147596	-85.020161
6.050000	-0.231200	-138.888695	-45.456285	54.332204	-45.456285	54.332204	-0.149773	-85.652072
6.100000	-0.234385	-139.854822	-45.289800	52.793566	-45.289800	52.793566	-0.151979	-86.282695
6.150000	-0.237609	-140.819611	-45.125143	51.255572	-45.125143	51.255572	-0.154215	-86.912037
6.200000	-0.240872	-141.783124	-44.962275	49.718071	-44.962275	49.718071	-0.156481	-87.540107
6.250000	-0.244174	-142.745424	-44.801165	48.180907	-44.801165	48.180907	-0.158777	-88.166913
6.300000	-0.247517	-143.706525	-44.641728	46.643921	-44.641728	46.643921	-0.161104	-88.792408
6.350000	-0.250899	-144.666544	-44.483990	45.106934	-44.483990	45.106934	-0.163463	-89.416656
6.400000	-0.254321	-145.625543	-44.327926	43.569779	-44.327926	43.569779	-0.165853	-90.039666
6.450000	-0.257783	-146.583585	-44.173510	42.032288	-44.173510	42.032288	-0.168275	-90.661447
6.500000	-0.261285	-147.540735	-44.020723	40.494291	-44.020723	40.494291	-0.170728	-91.282008
6.550000	-0.264826	-148.497055	-43.869545	38.955617	-43.869545	38.955617	-0.173213	-91.901358
6.600000	-0.268408	-149.452611	-43.719960	37.416097	-43.719960	37.416097	-0.175731	-92.519507
6.650000	-0.272030	-150.407467	-43.571955	35.875562	-43.571955	35.875562	-0.178282	-93.136465
6.700000	-0.275692	-151.361688	-43.425519	34.333846	-43.425519	34.333846	-0.180866	-93.752241
6.750000	-0.279395	-152.315338	-43.280644	32.790786	-43.280644	32.790786	-0.183484	-94.366847
6.800000	-0.283137	-153.268483	-43.137325	31.246224	-43.137325	31.246224	-0.186135	-94.980291
6.850000	-0.286920	-154.221190	-42.995557	29.700006	-42.995557	29.700006	-0.188821	-95.592586
6.900000	-0.290742	-155.173524	-42.855342	28.151988	-42.855342	28.151988	-0.191541	-96.203741
6.950000	-0.294605	-156.125551	-42.716681	26.602030	-42.716681	26.602030	-0.194296	-96.813767
7.000000	-0.298507	-157.077338	-42.579578	25.050003	-42.579578	25.050003	-0.197086	-97.422676
7.050000	-0.302449	-158.028953	-42.444042	23.495788	-42.444042	23.495788	-0.199911	-98.030478
7.100000	-0.306431	-158.980462	-42.310080	21.939277	-42.310080	21.939277	-0.202773	-98.637186
7.150000	-0.310452	-159.931933	-42.177706	20.380377	-42.177706	20.380377	-0.205671	-99.242811
7.200000	-0.314512	-160.883435	-42.046933	18.819008	-42.046933	18.819008	-0.208606	-99.847364
7.250000	-0.318611	-161.835035	-41.917776	17.255106	-41.917776	17.255106	-0.211577	-100.450858
7.300000	-0.322748	-162.786803	-41.790255	15.688623	-41.790255	15.688623	-0.214586	-101.053304
7.350000	-0.326924	-163.738807	-41.664388	14.119531	-41.664388	14.119531	-0.217633	-101.654716
7.400000	-0.331138	-164.691117	-41.540197	12.547822	-41.540197	12.547822	-0.220718	-102.255104
7.450000	-0.335390	-165.643802	-41.417705	10.973509	-41.417705	10.973509	-0.223841	-102.854483
7.500000	-0.339679	-166.596934	-41.296935	9.396629	-41.296935	9.396629	-0.227003	-103.452864
7.550000	-0.344007	-167.550607	-41.177920	7.817136	-41.177920	7.817136	-0.230207	-104.050219
7.600000	-0.348371	-168.504875	-41.060685	6.235232	-41.060685	6.235232	-0.233450	-104.646603
7.650000	-0.352771	-169.459807	-40.945256	4.651034	-40.945256	4.651034	-0.236733	-105.242030
7.700000	-0.357206	-170.415476	-40.831658	3.064687	-40.831658	3.064687	-0.240056	-105.836514
7.750000	-0.361677	-171.371955	-40.719917	1.476365	-40.719917	1.476365	-0.243421	-106.430067
7.800000	-0.366182	-172.329314	-40.610059	-0.113727	-40.610059	-0.113727	-0.246827	-107.022703
7.850000	-0.370721	-173.287628	-40.502107	-1.705352	-40.502107	-1.705352	-0.250274	-107.614436
7.900000	-0.375293	-174.246970	-40.396083	-3.298242	-40.396083	-3.298242	-0.253764	-108.205280
7.950000	-0.379897	-175.207413	-40.292008	-4.892096	-40.292008	-4.892096	-0.257297	-108.795249
8.000000	-0.384534	-176.169032	-40.189900	-6.486580	-40.189900	-6.486580	-0.260872	-109.384357
8.050000	-0.389202	-177.131901	-40.089773	-8.081326	-40.089773	-8.081326	-0.264491	-109.972618
8.100000	-0.393900	-178.096096	-39.991639	-9.675934	-39.991639	-9.675934	-0.268154	-110.560046
8.150000	-0.398629	-179.061691	-39.895507	-11.269968	-39.895507	-11.269968	-0.271862	-111.146656
8.200000	-0.403386	179.971238	-39.801378	-12.862962	-39.801378	-12.862962	-0.275614	-111.732463
8.250000	-0.408171	179.002613	-39.709250	-14.454415	-39.709250	-14.454415	-0.279412	-112.317481
8.300000	-0.412984	178.032358	-39.619117	-16.043795	-39.619117	-16.043795	-0.283255	-112.901725
8.350000	-0.417823	177.060397	-39.530963	-17.630540	-39.530963	-17.630540	-0.287145	-113.485211
8.400000	-0.422688	176.086651	-39.444769	-19.214058	-39.444769	-19.214058	-0.291082	-114.067952
8.450000	-0.427577	175.111043	-39.360505	-20.793729	-39.360505	-20.793729	-0.295066	-114.649964
8.500000	-0.432490	174.133493	-39.278135	-22.368907	-39.278135	-22.368907	-0.299098	-115.231262
8.550000	-0.437426	173.153923	-39.197613	-23.938922	-39.197613	-23.938922	-0.303178	-115.811862
8.600000	-0.442383	172.172254	-39.118885	-25.503081	-39.118885	-25.503081	-0.307307	-116.391780
8.650000	-0.447360	171.188405	-39.041886	-27.060671	-39.041886	-27.060671	-0.311485	-116.971029
8.700000	-0.452357	170.202296	-38.966540	-28.610964	-38.966540	-28.610964	-0.315713	-117.549628
8.750000	-0.457372	169.213846	-38.892760	-30.153214	-38.892760	-30.153214	-0.319992	-118.127590
8.800000	-0.462405	168.222866	-38.820480	-31.686248	-38.820480	-31.686248	-0.324324	-118.704905
8.850000	-0.467454	167.229375	-38.749544	-33.209651	-38.749544	-33.209651	-0.328708	-119.281618
8.900000	-0.472517	166.233290	-38.679826	-34.722653	-38.679826	-34.722653	-0.333143	-119.857744
8.950000	-0.477594	165.234531	-38.611182	-36.224482	-38.611182	-36.224482	-0.337632	-120.433299
9.000000	-0.482682	164.233012	-38.543455	-37.714371	-38.543455	-37.714371	-0.342174	-121.008300
9.050000	-0.487782	163.228652	-38.476469	-39.191556	-38.476469	-39.191556	-0.346769	-121.582762
9.100000	-0.492890	162.221366	-38.410033	-40.655284	-38.410033	-40.655284	-0.351420	-122.156702
9.150000	-0.498007	161.211070	-38.343936	-42.104815	-38.343936	-42.104815	-0.356125	-122.730137
9.200000	-0.503131	160.197680	-38.277950	-43.539425	-38.277950	-43.539425	-0.360887	-123.303082
9.250000	-0.508259	159.181111	-38.211824	-44.958414	-38.211824	-44.958414	-0.365705	-123.875554
9.300000	-0.513392	158.161278	-38.145284	-46.361104	-38.145284	-46.361104	-0.370579	-124.447571
9.350000	-0.518526	157.138094	-38.078033	-47.746852	-38.078033	-47.746852	-0.375512	-125.019148
9.400000	-0.523662	156.111475	-38.009749	-49.115047	-38.009749	-49.115047	-0.380503	-125.590303
9.450000	-0.528796	155.081334	-37.940079	-50.465119	-37.940079	-50.465119	-0.385553	-126.161052
9.500000	-0.533929	154.047584	-37.868642	-51.796548	-37.868642	-51.796548	-0.390663	-126.731412
9.550000	-0.539057	153.010139	-37.795022	-53.108867	-37.795022	-53.108867	-0.395834	-127.301400
9.600000	-0.544181	151.968913	-37.718764	-54.401669	-37.718764	-54.401669	-0.401065	-127.871033
9.650000	-0.549297	150.923817	-37.639374	-55.674623	-37.639374	-55.674623	-0.406359	-128.440328
9.700000	-0.554404	149.874765	-37.556312	-56.927479	-37.556312	-56.927479	-0.411715	-129.009303
9.750000	-0.559501	148.821669	-37.468984	-58.160087	-37.468984	-58.160087	-0.417134	-129.577974
9.800000	-0.564587	147.764442	-37.376742	-59.372408	-37.376742	-59.372408	-0.422618	-130.146359
9.850000	-0.569658	146.702996	-37.278867	-60.564542	-37.278867	-60.564542	-0.428167	-130.714475
9.900000	-0.574714	145.637243	-37.174572	-61.736746	-37.174572	-61.736746	-0.433781	-131.282339
9.950000	-0.579754	144.567097	-37.062978	-62.889473	-37.062978	-62.889473	-0.439461	-131.849969
10.000000	-0.584774	143.492469	-36.943113	-64.023409	-36.943113	-64.023409	-0.445209	-132.417382
