! freq	dB(S11)	phase(S11)	dB(S12)	phase(S12)	
!     	dB(S21)	phase(S21)	dB(S22)	phase(S22)	
!S-par simulation data
#  GHz  S  DB  R 50
0.000000	-0.000000	0.000000	-391.759385	0.000000	-391.759385	0.000000	-0.000000	0.000000
0.050000	-0.000090	-0.764616	-91.983139	0.017856	-91.983139	0.017856	-0.000060	-0.757423
0.100000	-0.000357	-1.529027	-91.992843	2.546278	-91.992843	2.546278	-0.000238	-1.514747
0.150000	-0.000795	-2.293023	-92.015107	4.468201	-92.015107	4.468201	-0.000536	-2.271867
0.200000	-0.001379	-3.056480	-92.049319	6.200120	-92.049319	6.200120	-0.000941	-3.028711
0.250000	-0.002097	-3.819249	-92.098526	7.802975	-92.098526	7.802975	-0.001450	-3.785189
0.300000	-0.002938	-4.581144	-92.168515	9.281429	-92.168515	9.281429	-0.002068	-4.541175
0.350000	-0.003865	-5.342234	-92.260607	10.655984	-92.260607	10.655984	-0.002770	-5.296679
0.400000	-0.004872	-6.102351	-92.383758	11.907693	-92.383758	11.907693	-0.003562	-6.051561
0.450000	-0.005933	-6.861557	-92.542087	13.044170	-92.542087	13.044170	-0.004426	-6.805821
0.500000	-0.007035	-7.619814	-92.744691	14.058287	-92.744691	14.058287	-0.005359	-7.559384
0.550000	-0.008164	-8.377141	-93.000697	14.949783	-93.000697	14.949783	-0.006351	-8.312218
0.600000	-0.009309	-9.133562	-93.321544	15.718388	-93.321544	15.718388	-0.007393	-9.064291
0.650000	-0.010461	-9.889102	-93.721565	16.364451	-93.721565	16.364451	-0.008478	-9.815579
0.700000	-0.011613	-10.643791	-94.219291	16.888448	-94.219291	16.888448	-0.009597	-10.566064
0.750000	-0.012759	-11.397655	-94.839608	17.290225	-94.839608	17.290225	-0.010743	-11.315733
0.800000	-0.013897	-12.150719	-95.617466	17.567734	-95.617466	17.567734	-0.011909	-12.064579
0.850000	-0.015021	-12.902873	-96.630934	17.685568	-96.630934	17.685568	-0.013092	-12.812452
0.900000	-0.016133	-13.654233	-97.952150	17.649331	-97.952150	17.649331	-0.014284	-13.559458
0.950000	-0.017237	-14.405206	-99.628939	17.457062	-99.628939	17.457062	-0.015477	-14.306033
1.000000	-0.018320	-15.155018	-102.173506	16.796695	-102.173506	16.796695	-0.016672	-15.051312
1.050000	-0.019399	-15.904575	-105.619236	2.910770	-105.619236	2.910770	-0.017866	-15.796305
1.100000	-0.020455	-16.652859	-109.925534	-77.102942	-109.925534	-77.102942	-0.019051	-16.539867
1.150000	-0.021509	-17.401015	-115.672851	-150.861191	-115.672851	-150.861191	-0.020235	-17.283288
1.200000	-0.022541	-18.147762	-104.979147	-155.809350	-104.979147	-155.809350	-0.021401	-18.025145
1.250000	-0.023574	-18.894509	-100.329157	-160.757509	-100.329157	-160.757509	-0.022566	-18.767002
1.300000	-0.024591	-19.640088	-96.954041	-161.665900	-96.954041	-161.665900	-0.023714	-19.507584
1.350000	-0.025598	-20.384907	-94.352846	-162.415645	-94.352846	-162.415645	-0.024848	-20.247352
1.400000	-0.026598	-21.128957	-92.211023	-163.117977	-92.211023	-163.117977	-0.025970	-20.986304
1.450000	-0.027591	-21.872225	-90.374925	-163.815440	-90.374925	-163.815440	-0.027078	-21.724438
1.500000	-0.028578	-22.614700	-88.757861	-164.526533	-88.757861	-164.526533	-0.028173	-22.461750
1.550000	-0.029559	-23.356367	-87.306059	-165.259871	-87.306059	-165.259871	-0.029256	-23.198235
1.600000	-0.030535	-24.097214	-85.983829	-166.019480	-85.983829	-166.019480	-0.030325	-23.933887
1.650000	-0.031506	-24.837226	-84.766250	-166.807061	-84.766250	-166.807061	-0.031383	-24.668701
1.700000	-0.032474	-25.576086	-83.612516	-167.632834	-83.612516	-167.632834	-0.032426	-25.402368
1.750000	-0.033439	-26.314497	-82.564556	-168.473395	-82.564556	-168.473395	-0.033462	-26.135590
1.800000	-0.034402	-27.051831	-81.565039	-169.347137	-81.565039	-169.347137	-0.034487	-26.867754
1.850000	-0.035364	-27.788394	-80.627466	-170.244579	-80.627466	-170.244579	-0.035503	-27.599161
1.900000	-0.036324	-28.524000	-79.734414	-171.168475	-79.734414	-171.168475	-0.036511	-28.329638
1.950000	-0.037283	-29.258649	-78.882181	-172.118825	-78.882181	-172.118825	-0.037510	-29.059183
2.000000	-0.038242	-29.992473	-78.072451	-173.089435	-78.072451	-173.089435	-0.038504	-29.787930
2.050000	-0.039201	-30.725142	-77.288686	-174.088409	-77.288686	-174.088409	-0.039489	-30.515560
2.100000	-0.040161	-31.457129	-76.546284	-175.102227	-76.546284	-175.102227	-0.040471	-31.242533
2.150000	-0.041122	-32.187751	-75.819018	-176.145732	-75.819018	-176.145732	-0.041446	-31.968192
2.200000	-0.042085	-32.917846	-75.132384	-177.199435	-75.132384	-177.199435	-0.042420	-32.693342
2.250000	-0.043050	-33.646358	-74.452772	-178.283731	-74.452772	-178.283731	-0.043389	-33.416970
2.300000	-0.044016	-34.374507	-73.813246	-179.374269	-73.813246	-179.374269	-0.044357	-34.140249
2.350000	-0.044987	-35.100845	-73.174536	179.503989	-73.174536	179.503989	-0.045322	-34.861786
2.400000	-0.045959	-35.826997	-72.575444	178.379373	-72.575444	178.379373	-0.046287	-35.583143
2.450000	-0.046938	-36.551099	-71.972342	177.223150	-71.972342	177.223150	-0.047252	-36.302526
2.500000	-0.047916	-37.275201	-71.408410	176.066927	-71.408410	176.066927	-0.048217	-37.021910
2.550000	-0.048904	-37.997009	-70.836670	174.878844	-70.836670	174.878844	-0.049184	-37.739079
2.600000	-0.049892	-38.718816	-70.300250	173.690761	-70.300250	173.690761	-0.050152	-38.456248
2.650000	-0.050889	-39.438468	-69.759807	172.475595	-69.759807	172.475595	-0.051125	-39.171332
2.700000	-0.051887	-40.157923	-69.248015	171.257968	-69.248015	171.257968	-0.052098	-39.886226
2.750000	-0.052896	-40.875373	-68.735397	170.017430	-68.735397	170.017430	-0.053078	-40.599176
2.800000	-0.053906	-41.592421	-68.245820	168.772310	-68.245820	168.772310	-0.054059	-41.311736
2.850000	-0.054927	-42.307626	-67.758132	167.507940	-67.758132	167.507940	-0.055049	-42.022502
2.900000	-0.055951	-43.022215	-67.288728	166.237155	-67.288728	166.237155	-0.056041	-42.732671
2.950000	-0.056985	-43.735132	-66.823524	164.950349	-66.823524	164.950349	-0.057042	-43.441208
3.000000	-0.058025	-44.447213	-66.372547	163.655535	-66.372547	163.655535	-0.058048	-44.148930
3.050000	-0.059073	-45.157802	-65.927744	162.347564	-65.927744	162.347564	-0.059063	-44.855193
3.100000	-0.060129	-45.867327	-65.493686	161.030198	-65.493686	161.030198	-0.060084	-45.560414
3.150000	-0.061194	-46.575553	-65.067494	159.702228	-65.067494	159.702228	-0.061114	-46.264361
3.200000	-0.062268	-47.282478	-64.649045	158.363655	-64.649045	158.363655	-0.062153	-46.967032
3.250000	-0.063349	-47.988304	-64.239912	157.016762	-64.239912	157.016762	-0.063200	-47.668621
3.300000	-0.064442	-48.692588	-63.835927	155.658221	-63.835927	155.658221	-0.064258	-48.368694
3.350000	-0.065542	-49.395980	-63.442502	154.293407	-63.442502	154.293407	-0.065325	-49.067887
3.400000	-0.066656	-50.097587	-63.051976	152.916050	-63.051976	152.916050	-0.066405	-49.765319
3.450000	-0.067775	-50.798515	-62.673073	151.534259	-62.673073	151.534259	-0.067492	-50.462080
3.500000	-0.068911	-51.497407	-62.295118	150.139168	-62.295118	150.139168	-0.068596	-51.156828
3.550000	-0.070050	-52.195842	-61.929694	148.741294	-61.929694	148.741294	-0.069705	-51.851124
3.600000	-0.071209	-52.891989	-61.563523	147.329502	-61.563523	147.329502	-0.070836	-52.543152
3.650000	-0.072371	-53.587905	-61.210654	145.916401	-61.210654	145.916401	-0.071968	-53.234950
3.700000	-0.073555	-54.281277	-60.855570	144.488902	-60.855570	144.488902	-0.073126	-53.924224
3.750000	-0.074739	-54.974649	-60.514433	143.061402	-60.514433	143.061402	-0.074284	-54.613497
3.800000	-0.075949	-55.665221	-60.169815	141.619163	-60.169815	141.619163	-0.075472	-55.299985
3.850000	-0.077159	-56.355793	-59.838348	140.176923	-59.838348	140.176923	-0.076659	-55.986473
3.900000	-0.078394	-57.043777	-59.504971	138.722044	-59.504971	138.722044	-0.077875	-56.670382
3.950000	-0.079632	-57.731526	-59.182683	137.266015	-59.182683	137.266015	-0.079094	-57.354057
4.000000	-0.080894	-58.416905	-58.859887	135.799282	-58.859887	135.799282	-0.080340	-58.035368
4.050000	-0.082161	-59.101811	-58.546337	134.330408	-58.546337	134.330408	-0.081591	-58.716207
4.100000	-0.083451	-59.784571	-58.233530	132.852607	-58.233530	132.852607	-0.082868	-59.394902
4.150000	-0.084749	-60.466617	-57.928322	131.371829	-57.928322	131.371829	-0.084155	-60.072884
4.200000	-0.086067	-61.146747	-57.624970	129.883748	-57.624970	129.883748	-0.085465	-60.748950
4.250000	-0.087397	-61.825920	-57.327747	128.392014	-57.327747	128.392014	-0.086787	-61.424058
4.300000	-0.088746	-62.503409	-57.033367	126.894446	-57.033367	126.894446	-0.088131	-62.097483
4.350000	-0.090109	-63.179697	-56.743808	125.392711	-56.743808	125.392711	-0.089491	-62.769704
4.400000	-0.091489	-63.854539	-56.457963	123.886458	-56.457963	123.886458	-0.090871	-63.440478
4.450000	-0.092888	-64.527935	-56.175776	122.375687	-56.175776	122.375687	-0.092271	-64.109803
4.500000	-0.094301	-65.200124	-55.898066	120.861558	-55.898066	120.861558	-0.093687	-64.777919
4.550000	-0.095736	-65.870622	-55.622986	119.342729	-55.622986	119.342729	-0.095128	-65.444342
4.600000	-0.097183	-66.540154	-55.353045	117.821544	-55.353045	117.821544	-0.096582	-66.109796
4.650000	-0.098656	-67.207753	-55.084830	116.295646	-55.084830	116.295646	-0.098065	-66.773313
4.700000	-0.100139	-67.874628	-54.822324	114.768231	-54.822324	114.768231	-0.099559	-67.436104
4.750000	-0.101652	-68.539328	-54.560750	113.236265	-54.560750	113.236265	-0.101086	-68.096716
4.800000	-0.103172	-69.203545	-54.305370	111.703455	-54.305370	111.703455	-0.102620	-68.756844
4.850000	-0.104727	-69.865349	-54.050228	110.166429	-54.050228	110.166429	-0.104192	-69.414555
4.900000	-0.106285	-70.526913	-53.801687	108.629066	-53.801687	108.629066	-0.105769	-70.072023
4.950000	-0.107882	-71.185827	-53.552784	107.087993	-53.552784	107.087993	-0.107388	-70.726839
5.000000	-0.109480	-71.844741	-53.310816	105.546921	-53.310816	105.546921	-0.109007	-71.381654
5.050000	-0.111123	-72.500774	-53.067968	104.002816	-53.067968	104.002816	-0.110674	-72.033583
5.100000	-0.112766	-73.156807	-52.831725	102.458710	-52.831725	102.458710	-0.112342	-72.685513
5.150000	-0.114451	-73.810208	-52.595353	100.912750	-52.595353	100.912750	-0.114055	-73.334810
5.200000	-0.116141	-74.463370	-52.364679	99.366621	-52.364679	99.366621	-0.115772	-73.983867
5.250000	-0.117871	-75.114151	-52.134537	97.819637	-52.134537	97.819637	-0.117532	-74.630543
5.300000	-0.119609	-75.764456	-51.909277	96.272483	-51.909277	96.272483	-0.119300	-75.276743
5.350000	-0.121384	-76.412630	-51.685131	94.725296	-51.685131	94.725296	-0.121108	-75.920814
5.400000	-0.123173	-77.060093	-51.465136	93.178097	-51.465136	93.178097	-0.122929	-76.564175
5.450000	-0.124996	-77.705674	-51.246763	91.631507	-51.246763	91.631507	-0.124785	-77.205657
5.500000	-0.126836	-78.350314	-51.031885	90.085221	-51.031885	90.085221	-0.126660	-77.846201
5.550000	-0.128708	-78.993319	-50.819070	88.540008	-50.819070	88.540008	-0.128567	-78.485114
5.600000	-0.130603	-79.635156	-50.609164	86.995560	-50.609164	86.995560	-0.130496	-79.122862
5.650000	-0.132525	-80.275602	-50.401699	85.452475	-50.401699	85.452475	-0.132455	-79.759227
5.700000	-0.134475	-80.914658	-50.196618	83.910753	-50.196618	83.910753	-0.134441	-80.394207
5.750000	-0.136450	-81.552566	-49.994302	82.370518	-49.994302	82.370518	-0.136451	-81.028046
5.800000	-0.138458	-82.188865	-49.793901	80.832363	-49.793901	80.832363	-0.138496	-81.660286
5.850000	-0.140486	-82.824256	-49.596539	79.295659	-49.596539	79.295659	-0.140560	-82.291623
5.900000	-0.142553	-83.457826	-49.400669	77.761860	-49.400669	77.761860	-0.142663	-82.921153
5.950000	-0.144637	-84.090722	-49.208072	76.229331	-49.208072	76.229331	-0.144782	-83.550015
6.000000	-0.146766	-84.721591	-49.016583	74.700616	-49.016583	74.700616	-0.146946	-84.176868
6.050000	-0.148906	-85.352016	-48.828566	73.172860	-48.828566	73.172860	-0.149120	-84.803281
6.100000	-0.151098	-85.980216	-48.641308	71.649893	-48.641308	71.649893	-0.151346	-85.427492
6.150000	-0.153296	-86.608196	-48.457690	70.127455	-48.457690	70.127455	-0.153577	-86.051486
6.200000	-0.155554	-87.233758	-48.274511	68.610831	-48.274511	68.610831	-0.155866	-86.673091
6.250000	-0.157812	-87.859320	-48.095116	67.094206	-48.095116	67.094206	-0.158155	-87.294696
6.300000	-0.160137	-88.482279	-47.915863	65.584440	-47.915863	65.584440	-0.160508	-87.913734
6.350000	-0.162463	-89.105238	-47.740235	64.074674	-47.740235	64.074674	-0.162862	-88.532771
6.400000	-0.164851	-89.725844	-47.565038	62.571596	-47.565038	62.571596	-0.165276	-89.149492
6.450000	-0.167246	-90.346236	-47.393034	61.069127	-47.393034	61.069127	-0.167695	-89.766002
6.500000	-0.169699	-90.964521	-47.221715	59.573033	-47.221715	59.573033	-0.170171	-90.380441
6.550000	-0.172164	-91.582384	-47.053189	58.078215	-47.053189	58.078215	-0.172657	-90.994465
6.600000	-0.174684	-92.198379	-46.885576	56.589336	-46.885576	56.589336	-0.175195	-91.606656
6.650000	-0.177223	-92.813753	-46.720385	55.102438	-46.720385	55.102438	-0.177751	-92.218237
6.700000	-0.179811	-93.427494	-46.556310	53.620942	-46.556310	53.620942	-0.180352	-92.828219
6.750000	-0.182424	-94.040419	-46.394311	52.142147	-46.394311	52.142147	-0.182977	-93.437402
6.800000	-0.185081	-94.651940	-46.233612	50.668135	-46.233612	50.668135	-0.185644	-94.045211
6.850000	-0.187771	-95.262460	-46.074664	49.197537	-46.074664	49.197537	-0.188341	-94.652041
6.900000	-0.190500	-95.871799	-45.917186	47.731043	-45.917186	47.731043	-0.191074	-95.257717
6.950000	-0.193268	-96.479957	-45.761151	46.268651	-45.761151	46.268651	-0.193843	-95.862240
7.000000	-0.196069	-97.087151	-45.606744	44.809644	-45.606744	44.809644	-0.196643	-96.465822
7.050000	-0.198917	-97.692995	-45.453486	43.355378	-45.453486	43.355378	-0.199487	-97.068086
7.100000	-0.201792	-98.298083	-45.302008	41.903765	-45.302008	41.903765	-0.202356	-97.669614
7.150000	-0.204722	-98.901659	-45.151398	40.457458	-45.151398	40.457458	-0.205275	-98.269669
7.200000	-0.207673	-99.504680	-45.002711	39.013080	-45.002711	39.013080	-0.208214	-98.869183
7.250000	-0.210686	-100.106038	-44.854625	37.574485	-44.854625	37.574485	-0.211210	-99.467077
7.300000	-0.213714	-100.707034	-44.708600	36.137120	-44.708600	36.137120	-0.214220	-100.064620
7.350000	-0.216812	-101.306224	-44.562920	34.705907	-44.562920	34.705907	-0.217295	-100.660404
7.400000	-0.219919	-101.905237	-44.419436	33.275275	-44.419436	33.275275	-0.220377	-101.256017
7.450000	-0.223104	-102.502311	-44.276050	31.851037	-44.276050	31.851037	-0.223533	-101.849742
7.500000	-0.226290	-103.099385	-44.134993	30.426798	-44.134993	30.426798	-0.226689	-102.443467
7.550000	-0.229563	-103.694396	-43.993799	29.009053	-43.993799	29.009053	-0.229926	-103.035184
7.600000	-0.232837	-104.289407	-43.854864	27.591307	-43.854864	27.591307	-0.233164	-103.626902
7.650000	-0.236192	-104.882578	-43.715968	26.179007	-43.715968	26.179007	-0.236478	-104.216826
7.700000	-0.239556	-105.475582	-43.579066	24.767201	-43.579066	24.767201	-0.239800	-104.806588
7.750000	-0.242995	-106.066960	-43.442376	23.359832	-43.442376	23.359832	-0.243192	-105.394763
7.800000	-0.246449	-106.658012	-43.307428	21.953349	-43.307428	21.953349	-0.246599	-105.982621
7.850000	-0.249973	-107.247644	-43.172862	20.550350	-43.172862	20.550350	-0.250071	-106.569091
7.900000	-0.253520	-107.836803	-43.039798	19.148511	-43.039798	19.148511	-0.253566	-107.155098
7.950000	-0.257129	-108.424739	-42.907287	17.749278	-42.907287	17.749278	-0.257119	-107.739907
8.000000	-0.260769	-109.012063	-42.776050	16.351348	-42.776050	16.351348	-0.260702	-108.324116
8.050000	-0.264465	-109.598353	-42.645532	14.955240	-42.645532	14.955240	-0.264338	-108.907307
8.100000	-0.268200	-110.183903	-42.516077	13.560434	-42.516077	13.560434	-0.268012	-109.489770
8.150000	-0.271983	-110.768598	-42.387503	12.166775	-42.387503	12.166775	-0.271732	-110.071388
8.200000	-0.275814	-111.352437	-42.259798	10.774263	-42.259798	10.774263	-0.275499	-110.652159
8.250000	-0.279685	-111.935590	-42.133129	9.382345	-42.133129	9.382345	-0.279305	-111.232247
8.300000	-0.283613	-112.517781	-42.007157	7.991261	-42.007157	7.991261	-0.283167	-111.811379
8.350000	-0.287573	-113.099445	-41.882367	6.600354	-41.882367	6.600354	-0.287061	-112.389981
8.400000	-0.291598	-113.680053	-41.758124	5.209801	-41.758124	5.209801	-0.291019	-112.967526
8.450000	-0.295648	-114.260283	-41.635198	3.819150	-41.635198	3.819150	-0.295002	-113.544687
8.500000	-0.299771	-114.839375	-41.512698	2.428209	-41.512698	2.428209	-0.299059	-114.120698
8.550000	-0.303912	-115.418226	-41.391633	1.037047	-41.391633	1.037047	-0.303134	-114.696461
8.600000	-0.308133	-115.995870	-41.270906	-0.355216	-41.270906	-0.355216	-0.307292	-115.270989
8.650000	-0.312364	-116.573400	-41.151712	-1.747667	-41.151712	-1.747667	-0.311460	-115.845398
8.700000	-0.316685	-117.149666	-41.032805	-3.142188	-41.032805	-3.142188	-0.315721	-116.418497
8.750000	-0.321008	-117.725933	-40.915504	-4.536709	-40.915504	-4.536709	-0.319984	-116.991595
8.800000	-0.325428	-118.300893	-40.798482	-5.934418	-40.798482	-5.934418	-0.324351	-117.563314
8.850000	-0.329850	-118.875853	-40.683016	-7.332128	-40.683016	-7.332128	-0.328720	-118.135034
8.900000	-0.334361	-119.449682	-40.568057	-8.733598	-40.568057	-8.733598	-0.333186	-118.705536
8.950000	-0.338883	-120.023409	-40.454509	-10.135410	-40.454509	-10.135410	-0.337662	-119.275928
9.000000	-0.343486	-120.596170	-40.341682	-11.541375	-40.341682	-11.541375	-0.342229	-119.845255
9.050000	-0.348107	-121.168738	-40.230154	-12.948172	-40.230154	-12.948172	-0.346817	-120.414370
9.100000	-0.352802	-121.740495	-40.119541	-14.359335	-40.119541	-14.359335	-0.351487	-120.982564
9.150000	-0.357522	-122.311982	-40.010154	-15.771955	-40.010154	-15.771955	-0.356187	-121.550451
9.200000	-0.362308	-122.882800	-39.901852	-17.188977	-39.901852	-17.188977	-0.360963	-122.117553
9.250000	-0.367128	-123.453284	-39.794748	-18.608200	-39.794748	-18.608200	-0.365779	-122.684262
9.300000	-0.372005	-124.023230	-39.688867	-20.031686	-39.688867	-20.031686	-0.370663	-123.250313
9.350000	-0.376923	-124.592792	-39.584205	-21.458217	-39.584205	-21.458217	-0.375597	-123.815892
9.400000	-0.381890	-125.161933	-39.480869	-22.888709	-39.480869	-22.888709	-0.380591	-124.380931
9.450000	-0.386907	-125.730655	-39.378828	-24.323162	-39.378828	-24.323162	-0.385645	-124.945428
9.500000	-0.391964	-126.299062	-39.278173	-25.761126	-39.278173	-25.761126	-0.390752	-125.509494
9.550000	-0.397077	-126.867029	-39.178951	-27.204005	-39.178951	-27.204005	-0.395930	-126.072957
9.600000	-0.402223	-127.434773	-39.081126	-28.649817	-39.081126	-28.649817	-0.401152	-126.636089
9.650000	-0.407431	-128.002072	-38.984938	-30.101498	-38.984938	-30.101498	-0.406457	-127.198563
9.700000	-0.412665	-128.569225	-38.890103	-31.555436	-38.890103	-31.555436	-0.411796	-127.760800
9.750000	-0.417969	-129.135945	-38.797178	-33.016148	-38.797178	-33.016148	-0.417230	-128.322329
9.800000	-0.423289	-129.702583	-38.705501	-34.478376	-38.705501	-34.478376	-0.422689	-128.883708
9.850000	-0.428685	-130.268815	-38.616085	-35.948185	-38.616085	-35.948185	-0.428256	-129.444337
9.900000	-0.434092	-130.835014	-38.527745	-37.418742	-38.527745	-37.418742	-0.433837	-130.004894
9.950000	-0.439579	-131.400853	-38.442091	-38.897530	-38.442091	-38.897530	-0.439539	-130.564666
10.000000	-0.445069	-131.966691	-38.357273	-40.376318	-38.357273	-40.376318	-0.445245	-131.124437
