! freq	dB(S11)	phase(S11)	dB(S12)	phase(S12)	
!     	dB(S21)	phase(S21)	dB(S22)	phase(S22)	
!S-par simulation data
#  GHz  S  DB  R 50
0.000000	-0.000000	-0.000000	-375.853832	180.000000	-375.853832	180.000000	-0.000000	-0.000000
0.050000	-0.000094	-0.774870	-114.282889	89.286020	-114.282889	89.286020	-0.000093	-0.775100
0.100000	-0.000373	-1.549521	-108.300131	88.580041	-108.300131	88.580041	-0.000369	-1.549987
0.150000	-0.000832	-2.323734	-104.843632	87.890939	-104.843632	87.890939	-0.000821	-2.324446
0.200000	-0.001441	-3.097375	-102.432251	87.225500	-102.432251	87.225500	-0.001425	-3.098344
0.250000	-0.002190	-3.870289	-100.606617	86.593157	-100.606617	86.593157	-0.002165	-3.871530
0.300000	-0.003065	-4.642279	-99.168450	86.008662	-99.168450	86.008662	-0.003034	-4.643808
0.350000	-0.004028	-5.413421	-97.996317	85.475463	-97.996317	85.475463	-0.003990	-5.415249
0.400000	-0.005070	-6.183541	-97.036417	85.014801	-97.036417	85.014801	-0.005027	-6.185679
0.450000	-0.006166	-6.952709	-96.241024	84.636147	-96.241024	84.636147	-0.006119	-6.955164
0.500000	-0.007300	-7.720888	-95.586053	84.361147	-95.586053	84.361147	-0.007251	-7.723664
0.550000	-0.008458	-8.488105	-95.052165	84.211651	-95.052165	84.211651	-0.008408	-8.491203
0.600000	-0.009627	-9.254389	-94.626232	84.215204	-94.626232	84.215204	-0.009579	-9.257808
0.650000	-0.010799	-10.019774	-94.298963	84.405986	-94.298963	84.405986	-0.010753	-10.023510
0.700000	-0.011966	-10.784293	-94.063733	84.826889	-94.063733	84.826889	-0.011923	-10.788343
0.750000	-0.013124	-11.547982	-93.915688	85.532264	-93.915688	85.532264	-0.013084	-11.552338
0.800000	-0.014268	-12.310871	-93.850925	86.591494	-93.850925	86.591494	-0.014233	-12.315527
0.850000	-0.015394	-13.072856	-93.877226	88.207166	-93.877226	88.207166	-0.015364	-13.077806
0.900000	-0.016502	-13.834057	-93.980839	90.407588	-93.980839	90.407588	-0.016478	-13.839293
0.950000	-0.017603	-14.594878	-94.111500	93.044289	-94.111500	93.044289	-0.017583	-14.600398
1.000000	-0.018677	-15.354562	-94.323218	96.989829	-94.323218	96.989829	-0.018663	-15.360357
1.050000	-0.019747	-16.113996	-94.532010	101.359267	-94.532010	101.359267	-0.019738	-16.120065
1.100000	-0.020791	-16.872189	-94.703967	107.848201	-94.703967	107.848201	-0.020786	-16.878524
1.150000	-0.021833	-17.630257	-94.849288	114.544222	-94.849288	114.544222	-0.021833	-17.636858
1.200000	-0.022852	-18.386953	-94.667133	123.518197	-94.667133	123.518197	-0.022855	-18.393815
1.250000	-0.023871	-19.143649	-94.488720	132.492172	-94.488720	132.492172	-0.023877	-19.150772
1.300000	-0.024874	-19.899205	-93.858918	142.003331	-93.858918	142.003331	-0.024883	-19.906587
1.350000	-0.025869	-20.654020	-92.952072	150.816916	-92.952072	150.816916	-0.025881	-20.661659
1.400000	-0.026857	-21.408082	-91.843619	158.435301	-91.843619	158.435301	-0.026871	-21.415976
1.450000	-0.027839	-22.161377	-90.619699	164.690171	-90.619699	164.690171	-0.027854	-22.169527
1.500000	-0.028815	-22.913893	-89.350602	169.646325	-89.350602	169.646325	-0.028832	-22.922299
1.550000	-0.029787	-23.665615	-88.083456	173.477022	-88.083456	173.477022	-0.029806	-23.674276
1.600000	-0.030756	-24.416528	-86.845786	176.379433	-86.845786	176.379433	-0.030775	-24.425444
1.650000	-0.031723	-25.166616	-85.651709	178.533953	-85.651709	178.533953	-0.031742	-25.175788
1.700000	-0.032686	-25.915564	-84.474875	179.938764	-84.474875	179.938764	-0.032707	-25.924993
1.750000	-0.033649	-26.664068	-83.395569	-178.924724	-83.395569	-178.924724	-0.033670	-26.673754
1.800000	-0.034612	-27.411503	-82.347024	-178.219186	-82.347024	-178.219186	-0.034633	-27.421446
1.850000	-0.035574	-28.158175	-81.355146	-177.821488	-81.355146	-177.821488	-0.035595	-28.168375
1.900000	-0.036536	-28.903895	-80.403704	-177.664966	-80.403704	-177.664966	-0.036557	-28.914354
1.950000	-0.037499	-29.648665	-79.491092	-177.749620	-79.491092	-177.749620	-0.037520	-29.659383
2.000000	-0.038463	-30.392615	-78.622805	-177.970690	-78.622805	-177.970690	-0.038484	-30.403591
2.050000	-0.039428	-31.135416	-77.779441	-178.382743	-77.779441	-178.382743	-0.039450	-31.146652
2.100000	-0.040395	-31.877540	-76.981856	-178.871604	-76.981856	-178.871604	-0.040417	-31.889034
2.150000	-0.041365	-32.618307	-76.198487	-179.514077	-76.198487	-179.514077	-0.041387	-32.630061
2.200000	-0.042336	-33.358550	-75.461239	179.801605	-75.461239	179.801605	-0.042358	-33.370564
2.250000	-0.043311	-34.097221	-74.729970	178.991752	-74.729970	178.991752	-0.043333	-34.109494
2.300000	-0.044288	-34.835532	-74.044604	178.161081	-74.044604	178.161081	-0.044310	-34.848064
2.350000	-0.045270	-35.572045	-73.358861	177.226315	-73.358861	177.226315	-0.045293	-35.584837
2.400000	-0.046253	-36.308375	-72.718502	176.283600	-72.718502	176.283600	-0.046276	-36.321425
2.450000	-0.047244	-37.042675	-72.072837	175.253451	-72.072837	175.253451	-0.047267	-37.055983
2.500000	-0.048234	-37.776974	-71.471865	174.223301	-71.471865	174.223301	-0.048258	-37.790542
2.550000	-0.049235	-38.509006	-70.861751	173.118895	-70.861751	173.118895	-0.049259	-38.522831
2.600000	-0.050235	-39.241038	-70.291695	172.014488	-70.291695	172.014488	-0.050260	-39.255120
2.650000	-0.051245	-39.970945	-69.717182	170.856214	-69.717182	170.856214	-0.051271	-39.985282
2.700000	-0.052256	-40.700658	-69.174949	169.693042	-69.174949	169.693042	-0.052282	-40.715251
2.750000	-0.053276	-41.428399	-68.632081	168.490577	-68.632081	168.490577	-0.053304	-41.443247
2.800000	-0.054299	-42.155746	-68.115038	167.280252	-68.115038	167.280252	-0.054328	-42.170847
2.850000	-0.055332	-42.881284	-67.600497	166.041221	-67.600497	166.041221	-0.055362	-42.896639
2.900000	-0.056369	-43.606220	-67.106386	164.792620	-67.106386	164.792620	-0.056399	-43.621827
2.950000	-0.057415	-44.329521	-66.617363	163.523103	-66.617363	163.523103	-0.057446	-44.345379
3.000000	-0.058466	-45.052005	-66.144231	162.243128	-66.144231	162.243128	-0.058498	-45.068114
3.050000	-0.059527	-45.773037	-65.678326	160.948030	-65.678326	160.948030	-0.059560	-45.789394
3.100000	-0.060594	-46.493031	-65.224475	159.642132	-65.224475	159.642132	-0.060628	-46.509637
3.150000	-0.061670	-47.211763	-64.779621	158.325455	-64.779621	158.325455	-0.061705	-47.228616
3.200000	-0.062755	-47.929233	-64.343563	156.997999	-64.343563	156.997999	-0.062791	-47.946333
3.250000	-0.063848	-48.645638	-63.917966	155.663037	-63.917966	155.663037	-0.063885	-48.662984
3.300000	-0.064952	-49.360553	-63.498392	154.317567	-63.498392	154.317567	-0.064991	-49.378143
3.350000	-0.066063	-50.074607	-63.090486	152.967059	-63.090486	152.967059	-0.066103	-50.092441
3.400000	-0.067188	-50.786940	-62.686233	151.606480	-62.686233	151.606480	-0.067229	-50.805016
3.450000	-0.068319	-51.498621	-62.294640	150.242726	-62.294640	150.242726	-0.068360	-51.516939
3.500000	-0.069466	-52.208348	-61.904674	148.869449	-61.904674	148.869449	-0.069508	-52.226906
3.550000	-0.070617	-52.917636	-61.528178	147.494392	-61.528178	147.494392	-0.070661	-52.936435
3.600000	-0.071788	-53.624736	-61.151571	146.110438	-61.151571	146.110438	-0.071833	-53.643773
3.650000	-0.072962	-54.331616	-60.789090	144.725737	-60.789090	144.725737	-0.073007	-54.350891
3.700000	-0.074158	-55.036073	-60.425009	143.332816	-60.425009	143.332816	-0.074205	-55.055585
3.750000	-0.075355	-55.740531	-60.075576	141.939894	-60.075576	141.939894	-0.075403	-55.760279
3.800000	-0.076579	-56.442332	-59.723267	140.539464	-59.723267	140.539464	-0.076628	-56.462316
3.850000	-0.077803	-57.144134	-59.384693	139.139035	-59.384693	139.139035	-0.077853	-57.164353
3.900000	-0.079054	-57.843494	-59.044797	137.732874	-59.044797	137.732874	-0.079104	-57.863946
3.950000	-0.080307	-58.542631	-58.716475	136.326193	-58.716475	136.326193	-0.080358	-58.563317
4.000000	-0.081586	-59.239545	-58.388194	134.915211	-58.388194	134.915211	-0.081638	-59.260462
4.050000	-0.082870	-59.936013	-58.069573	133.503370	-58.069573	133.503370	-0.082922	-59.957163
4.100000	-0.084178	-60.630480	-57.752186	132.088375	-57.752186	132.088375	-0.084231	-60.651860
4.150000	-0.085495	-61.324279	-57.442758	130.672329	-57.442758	130.672329	-0.085549	-61.345890
4.200000	-0.086834	-62.016301	-57.135608	129.254044	-57.135608	129.254044	-0.086889	-62.038141
4.250000	-0.088185	-62.707434	-56.834909	127.834639	-56.834909	127.834639	-0.088240	-62.729504
4.300000	-0.089557	-63.397016	-56.537399	126.413714	-56.537399	126.413714	-0.089613	-63.419315
4.350000	-0.090944	-64.085491	-56.244997	124.991702	-56.244997	124.991702	-0.091000	-64.108018
4.400000	-0.092350	-64.772644	-55.956582	123.568727	-55.956582	123.568727	-0.092407	-64.795398
4.450000	-0.093775	-65.458473	-55.672078	122.144786	-55.672078	122.144786	-0.093832	-65.481455
4.500000	-0.095217	-66.143208	-55.392257	120.720298	-55.392257	120.720298	-0.095275	-66.166417
4.550000	-0.096682	-66.826410	-55.115283	119.295042	-55.115283	119.295042	-0.096740	-66.849845
4.600000	-0.098160	-67.508743	-54.843597	117.869537	-54.843597	117.869537	-0.098219	-67.532404
4.650000	-0.099667	-68.189339	-54.573807	116.443529	-54.573807	116.443529	-0.099726	-68.213226
4.700000	-0.101184	-68.869290	-54.309830	115.017464	-54.309830	115.017464	-0.101244	-68.893403
4.750000	-0.102735	-69.547308	-54.046902	113.591226	-54.046902	113.591226	-0.102795	-69.571646
4.800000	-0.104293	-70.224902	-53.790243	112.165030	-53.790243	112.165030	-0.104353	-70.249465
4.850000	-0.105888	-70.900375	-53.533876	110.739047	-53.533876	110.739047	-0.105949	-70.925162
4.900000	-0.107488	-71.575639	-53.284170	109.313124	-53.284170	109.313124	-0.107549	-71.600651
4.950000	-0.109131	-72.248607	-53.034079	107.887855	-53.034079	107.887855	-0.109193	-72.273843
5.000000	-0.110774	-72.921574	-52.790987	106.462587	-52.790987	106.462587	-0.110837	-72.947034
5.050000	-0.112467	-73.592081	-52.546904	105.038471	-52.546904	105.038471	-0.112530	-73.617766
5.100000	-0.114160	-74.262589	-52.309493	103.614355	-52.309493	103.614355	-0.114223	-74.288497
5.150000	-0.115900	-74.930889	-52.071782	102.191683	-52.071782	102.191683	-0.115963	-74.957021
5.200000	-0.117644	-75.598989	-51.839818	100.769142	-51.839818	100.769142	-0.117708	-75.625345
5.250000	-0.119432	-76.265133	-51.608174	99.348257	-51.608174	99.348257	-0.119497	-76.291712
5.300000	-0.121230	-76.930885	-51.381434	97.927702	-51.381434	97.927702	-0.121295	-76.957688
5.350000	-0.123069	-77.594928	-51.155569	96.508941	-51.155569	96.508941	-0.123135	-77.621955
5.400000	-0.124923	-78.258402	-50.933840	95.090777	-50.933840	95.090777	-0.124989	-78.285653
5.450000	-0.126814	-78.920408	-50.713484	93.674475	-50.713484	93.674475	-0.126881	-78.947883
5.500000	-0.128726	-79.581680	-50.496559	92.259104	-50.496559	92.259104	-0.128793	-79.609379
5.550000	-0.130672	-80.241720	-50.281454	90.845597	-50.281454	90.845597	-0.130739	-80.269643
5.600000	-0.132643	-80.900879	-50.069132	89.433421	-50.069132	89.433421	-0.132711	-80.929026
5.650000	-0.134645	-81.559032	-49.859033	88.023047	-49.859033	88.023047	-0.134714	-81.587403
5.700000	-0.136678	-82.216178	-49.651118	86.614474	-49.651118	86.614474	-0.136748	-82.244774
5.750000	-0.138739	-82.872533	-49.445787	85.207574	-49.445787	85.207574	-0.138810	-82.901353
5.800000	-0.140837	-83.527779	-49.242084	83.803018	-49.242084	83.803018	-0.140909	-83.556824
5.850000	-0.142957	-84.182435	-49.041294	82.399943	-49.041294	82.399943	-0.143030	-84.211706
5.900000	-0.145123	-84.835911	-48.841610	80.999828	-48.841610	80.999828	-0.145197	-84.865407
5.950000	-0.147306	-85.488981	-48.645139	79.600933	-48.645139	79.600933	-0.147381	-85.518703
6.000000	-0.149542	-86.140833	-48.449276	78.205696	-48.449276	78.205696	-0.149618	-86.170781
6.050000	-0.151790	-86.792443	-48.256906	76.811348	-48.256906	76.811348	-0.151867	-86.822617
6.100000	-0.154099	-87.442841	-48.064662	75.421440	-48.064662	75.421440	-0.154177	-87.473242
6.150000	-0.156414	-88.093133	-47.876177	74.032014	-47.876177	74.032014	-0.156494	-88.123761
6.200000	-0.158799	-88.742270	-47.687343	72.647900	-47.687343	72.647900	-0.158881	-88.773126
6.250000	-0.161185	-89.391407	-47.502526	71.263785	-47.502526	71.263785	-0.161268	-89.422491
6.300000	-0.163651	-90.039508	-47.316877	69.885940	-47.316877	69.885940	-0.163735	-90.070821
6.350000	-0.166117	-90.687609	-47.135114	68.508096	-47.135114	68.508096	-0.166203	-90.719151
6.400000	-0.168660	-91.335002	-46.952805	67.136445	-46.952805	67.136445	-0.168747	-91.366774
6.450000	-0.171210	-91.982330	-46.773864	65.765357	-46.773864	65.765357	-0.171299	-92.014332
6.500000	-0.173835	-92.629272	-46.594632	64.400303	-46.594632	64.400303	-0.173926	-92.661505
6.550000	-0.176475	-93.276136	-46.418259	63.036456	-46.418259	63.036456	-0.176568	-93.308601
6.600000	-0.179186	-93.922928	-46.241821	61.678392	-46.241821	61.678392	-0.179281	-93.955626
6.650000	-0.181922	-94.569696	-46.067728	60.322256	-46.067728	60.322256	-0.182018	-94.602627
6.700000	-0.184726	-95.216694	-45.893772	58.971542	-45.893772	58.971542	-0.184824	-95.249858
6.750000	-0.187564	-95.863806	-45.721624	57.623541	-45.721624	57.623541	-0.187664	-95.897204
6.800000	-0.190467	-96.511431	-45.549803	56.280478	-45.549803	56.280478	-0.190569	-96.545064
6.850000	-0.193417	-97.159422	-45.379202	54.940944	-45.379202	54.940944	-0.193521	-97.193291
6.900000	-0.196428	-97.808182	-45.209117	53.605724	-45.209117	53.605724	-0.196535	-97.842287
6.950000	-0.199501	-98.457710	-45.039581	52.274819	-45.039581	52.274819	-0.199610	-98.492052
7.000000	-0.202631	-99.108221	-44.870764	50.947451	-44.870764	50.947451	-0.202743	-99.142800
7.050000	-0.205842	-99.760108	-44.701694	49.625035	-44.701694	49.625035	-0.205956	-99.794925
7.100000	-0.209106	-100.413128	-44.533584	48.305226	-44.533584	48.305226	-0.209222	-100.448183
7.150000	-0.212476	-101.068415	-44.364216	46.990633	-44.364216	46.990633	-0.212594	-101.103707
7.200000	-0.215893	-101.724888	-44.196130	45.677603	-44.196130	45.677603	-0.216013	-101.760418
7.250000	-0.219448	-102.384920	-44.025471	44.369264	-44.025471	44.369264	-0.219570	-102.420686
7.300000	-0.223043	-103.046037	-43.856554	43.061446	-43.856554	43.061446	-0.223167	-103.082039
7.350000	-0.226825	-103.712585	-43.683278	41.756236	-43.683278	41.756236	-0.226951	-103.748820
7.400000	-0.230633	-104.379876	-43.512449	40.450801	-43.512449	40.450801	-0.230760	-104.416343
7.450000	-0.234701	-105.055331	-43.334747	39.142881	-43.334747	39.142881	-0.234829	-105.092025
7.500000	-0.238770	-105.730787	-43.160607	37.834962	-43.160607	37.834962	-0.238900	-105.767706
7.550000	-0.243106	-106.414897	-42.979952	36.518906	-42.979952	36.518906	-0.243237	-106.452032
7.600000	-0.247650	-107.105840	-42.795454	35.192831	-42.795454	35.192831	-0.247781	-107.143182
7.650000	-0.252439	-107.804788	-42.606246	33.851740	-42.606246	33.851740	-0.252569	-107.842323
7.700000	-0.257520	-108.513154	-42.411287	32.488930	-42.411287	32.488930	-0.257647	-108.550867
7.750000	-0.262951	-109.232661	-42.209316	31.095365	-42.209316	31.095365	-0.263075	-109.270528
7.800000	-0.268811	-109.965426	-41.998800	29.658776	-41.998800	29.658776	-0.268931	-110.003417
7.850000	-0.275206	-110.714083	-41.777848	28.162372	-41.777848	28.162372	-0.275317	-110.752158
7.900000	-0.282275	-111.481953	-41.544121	26.582944	-41.544121	26.582944	-0.282376	-111.520054
7.950000	-0.290215	-112.273277	-41.294681	24.888039	-41.294681	24.888039	-0.290299	-112.311327
8.000000	-0.299300	-113.093562	-41.025792	23.031666	-41.025792	23.031666	-0.299360	-113.131453
8.050000	-0.309927	-113.950085	-40.732624	20.947617	-40.732624	20.947617	-0.309951	-113.987665
8.100000	-0.322684	-114.852654	-40.408776	18.538830	-40.408776	18.538830	-0.322654	-114.889702
8.150000	-0.337915	-115.804684	-40.054359	15.747921	-40.054359	15.747921	-0.337810	-115.840938
8.200000	-0.357945	-116.842948	-39.641321	12.211450	-39.641321	12.211450	-0.357716	-116.877889
8.250000	-0.384579	-117.984889	-39.159784	7.667838	-39.159784	7.667838	-0.384149	-118.017796
8.300000	-0.422013	-119.273624	-38.576786	1.543266	-38.576786	1.543266	-0.421240	-119.303333
8.350000	-0.477643	-120.770252	-37.836593	-7.053233	-37.836593	-7.053233	-0.476253	-120.794884
8.400000	-0.567191	-122.578828	-36.813654	-19.697272	-36.813654	-19.697272	-0.564589	-122.595202
8.450000	-0.725195	-124.857622	-35.234284	-38.811492	-35.234284	-38.811492	-0.719967	-124.860588
8.500000	-1.039052	-127.816621	-32.537603	-67.515250	-32.537603	-67.515250	-1.027371	-127.800168
8.550000	-1.742460	-131.326284	-28.091579	-108.243299	-28.091579	-108.243299	-1.713121	-131.307406
8.600000	-3.274498	-132.196861	-22.472719	-163.285130	-22.472719	-163.285130	-3.208695	-132.407722
8.650000	-4.998451	-120.471292	-18.475570	127.838508	-18.475570	127.838508	-5.001476	-121.355525
8.700000	-3.749729	-103.077936	-18.841595	60.027456	-18.841595	60.027456	-3.845386	-103.216761
8.750000	-1.875534	-103.410106	-22.294638	16.033482	-22.294638	16.033482	-1.915605	-103.285100
8.800000	-1.124219	-107.283373	-25.727066	-6.989180	-25.727066	-6.989180	-1.141168	-107.189422
8.850000	-0.810984	-110.333263	-28.415297	-19.418452	-28.415297	-19.418452	-0.819560	-110.276249
8.900000	-0.657410	-112.617666	-30.459724	-26.538116	-30.459724	-26.538116	-0.662403	-112.585450
8.950000	-0.572634	-114.410313	-32.019885	-30.785248	-32.019885	-30.785248	-0.575859	-114.394443
9.000000	-0.521885	-115.888301	-33.220773	-33.400614	-33.220773	-33.400614	-0.524136	-115.883616
9.050000	-0.489774	-117.157817	-34.153743	-35.069951	-34.153743	-35.069951	-0.491443	-117.161131
9.100000	-0.468938	-118.280372	-34.878047	-36.179881	-34.878047	-36.179881	-0.470237	-118.289599
9.150000	-0.455021	-119.300703	-35.448650	-36.981423	-35.448650	-36.981423	-0.456069	-119.314491
9.200000	-0.445924	-120.241698	-35.892696	-37.609795	-35.892696	-37.609795	-0.446799	-120.259068
9.250000	-0.440051	-121.124383	-36.241718	-38.160666	-36.241718	-38.160666	-0.440800	-121.144657
9.300000	-0.436588	-121.959760	-36.511999	-38.687683	-36.511999	-38.687683	-0.437243	-121.982421
9.350000	-0.434692	-122.762186	-36.728094	-39.222483	-36.728094	-39.222483	-0.435273	-122.786892
9.400000	-0.434258	-123.531958	-36.889663	-39.787891	-36.889663	-39.787891	-0.434781	-123.558388
9.450000	-0.434918	-124.275631	-37.008756	-40.398194	-37.008756	-40.398194	-0.435396	-124.303542
9.500000	-0.436102	-125.006372	-37.107569	-41.036371	-37.107569	-41.036371	-0.436540	-125.035648
9.550000	-0.438129	-125.715530	-37.172217	-41.731408	-37.172217	-41.731408	-0.438536	-125.745985
9.600000	-0.440649	-126.411470	-37.217062	-42.470169	-37.217062	-42.470169	-0.441028	-126.442997
9.650000	-0.443532	-127.097577	-37.247341	-43.243518	-37.247341	-43.243518	-0.443886	-127.130099
9.700000	-0.446843	-127.771790	-37.260505	-44.062959	-37.260505	-44.062959	-0.447175	-127.805217
9.750000	-0.450505	-128.436092	-37.260161	-44.925550	-37.260161	-44.925550	-0.450817	-128.470355
9.800000	-0.454385	-129.094193	-37.251616	-45.816574	-37.251616	-45.816574	-0.454679	-129.129249
9.850000	-0.458505	-129.745469	-37.234286	-46.740087	-37.234286	-46.740087	-0.458782	-129.781273
9.900000	-0.462896	-130.389072	-37.207612	-47.702827	-37.207612	-47.702827	-0.463157	-130.425578
9.950000	-0.467436	-131.028547	-37.176170	-48.687668	-37.176170	-48.687668	-0.467680	-131.065731
10.000000	-0.472119	-131.664043	-37.140234	-49.694087	-37.140234	-49.694087	-0.472348	-131.701882
