! freq	dB(S11)	phase(S11)	dB(S12)	phase(S12)	
!     	dB(S21)	phase(S21)	dB(S22)	phase(S22)	
!S-par simulation data
#  GHz  S  DB  R 50
0.000000	-0.000000	0.000000	-348.044676	0.000000	-348.044676	0.000000	-0.000000	0.000000
0.050000	-0.000076	-0.774555	-108.084380	36.239327	-108.084380	36.239327	-0.000073	-0.774654
0.100000	-0.000301	-1.548963	-105.066592	54.383365	-105.066592	54.383365	-0.000292	-1.549168
0.150000	-0.000674	-2.323067	-102.466606	63.456256	-102.466606	63.456256	-0.000654	-2.323394
0.200000	-0.001177	-3.096769	-100.391242	68.608072	-100.391242	68.608072	-0.001143	-3.097237
0.250000	-0.001803	-3.869944	-98.713328	71.721524	-98.713328	71.721524	-0.001754	-3.870578
0.300000	-0.002552	-4.642427	-97.335291	73.656480	-97.335291	73.656480	-0.002485	-4.643257
0.350000	-0.003391	-5.414250	-96.181179	75.027339	-96.181179	75.027339	-0.003306	-5.415299
0.400000	-0.004321	-6.185243	-95.208824	75.984169	-95.208824	75.984169	-0.004219	-6.186540
0.450000	-0.005319	-6.955429	-94.380855	76.716960	-94.380855	76.716960	-0.005202	-6.956997
0.500000	-0.006377	-7.724742	-93.675803	77.311481	-93.675803	77.311481	-0.006246	-7.726601
0.550000	-0.007480	-8.493166	-93.076161	77.840542	-93.076161	77.840542	-0.007338	-8.495333
0.600000	-0.008617	-9.260694	-92.569245	78.358887	-92.569245	78.358887	-0.008467	-9.263181
0.650000	-0.009778	-10.027326	-92.145485	78.912856	-92.145485	78.912856	-0.009623	-10.030140
0.700000	-0.010955	-10.793068	-91.797531	79.545126	-91.797531	79.545126	-0.010797	-10.796213
0.750000	-0.012139	-11.557931	-91.519593	80.298059	-91.519593	80.298059	-0.011982	-11.561408
0.800000	-0.013324	-12.321930	-91.306910	81.216337	-91.306910	81.216337	-0.013170	-12.325735
0.850000	-0.014503	-13.084936	-91.164549	82.404120	-91.164549	82.404120	-0.014355	-13.089061
0.900000	-0.015675	-13.847072	-91.081158	83.876239	-91.081158	83.876239	-0.015535	-13.851510
0.950000	-0.016840	-14.608784	-91.022950	85.553736	-91.022950	85.553736	-0.016709	-14.613530
1.000000	-0.017986	-15.369228	-91.038228	87.847367	-91.038228	87.847367	-0.017866	-15.374266
1.050000	-0.019128	-16.129396	-91.062375	90.340605	-91.062375	90.340605	-0.019018	-16.134724
1.100000	-0.020243	-16.888190	-91.131060	93.831870	-91.131060	93.831870	-0.020146	-16.893789
1.150000	-0.021357	-17.646848	-91.196877	97.452356	-91.196877	97.452356	-0.021271	-17.652717
1.200000	-0.022441	-18.404013	-91.225422	102.494273	-91.225422	102.494273	-0.022368	-18.410134
1.250000	-0.023526	-19.161179	-91.254061	107.536190	-91.254061	107.536190	-0.023465	-19.167551
1.300000	-0.024588	-19.917124	-91.157684	113.769056	-91.157684	113.769056	-0.024539	-19.923735
1.350000	-0.025637	-20.672285	-90.925525	120.576733	-90.925525	120.576733	-0.025600	-20.679128
1.400000	-0.026674	-21.426657	-90.527991	127.674999	-90.527991	127.674999	-0.026647	-21.433727
1.450000	-0.027700	-22.180233	-89.955756	134.712301	-89.955756	134.712301	-0.027683	-22.187524
1.500000	-0.028715	-22.933004	-89.222784	141.351885	-89.222784	141.351885	-0.028707	-22.940512
1.550000	-0.029721	-23.684960	-88.360666	147.343808	-88.360666	147.343808	-0.029722	-23.692682
1.600000	-0.030718	-24.436091	-87.408295	152.554114	-87.408295	152.554114	-0.030727	-24.444023
1.650000	-0.031709	-25.186383	-86.402701	156.952260	-86.402701	156.952260	-0.031725	-25.194525
1.700000	-0.032691	-25.935521	-85.331692	160.347355	-85.331692	160.347355	-0.032713	-25.943872
1.750000	-0.033670	-26.684212	-84.320723	163.364798	-84.320723	163.364798	-0.033698	-26.692770
1.800000	-0.034645	-27.431824	-83.300001	165.689260	-83.300001	165.689260	-0.034678	-27.440591
1.850000	-0.035616	-28.178668	-82.313410	167.518735	-82.313410	167.518735	-0.035653	-28.187643
1.900000	-0.036584	-28.924556	-81.350865	168.927663	-81.350865	168.927663	-0.036625	-28.933740
1.950000	-0.037551	-29.669487	-80.415608	169.916042	-80.415608	169.916042	-0.037594	-29.678882
2.000000	-0.038516	-30.413595	-79.519887	170.658968	-79.519887	170.658968	-0.038561	-30.423202
2.050000	-0.039481	-31.156547	-78.642799	171.058257	-78.642799	171.058257	-0.039528	-31.166369
2.100000	-0.040446	-31.898818	-77.812084	171.318108	-77.812084	171.318108	-0.040494	-31.908854
2.150000	-0.041411	-32.639724	-76.991725	171.299081	-76.991725	171.299081	-0.041461	-32.649978
2.200000	-0.042378	-33.380101	-76.220516	171.204153	-76.220516	171.204153	-0.042428	-33.390575
2.250000	-0.043347	-34.118892	-75.452544	170.881518	-75.452544	170.881518	-0.043397	-34.129589
2.300000	-0.044318	-34.857320	-74.734542	170.521299	-74.734542	170.521299	-0.044368	-34.868240
2.350000	-0.045293	-35.593931	-74.013943	169.973159	-74.013943	169.973159	-0.045343	-35.605077
2.400000	-0.046270	-36.330355	-73.343147	169.410755	-73.343147	169.410755	-0.046319	-36.341727
2.450000	-0.047253	-37.064720	-72.665095	168.691451	-72.665095	168.691451	-0.047301	-37.076323
2.500000	-0.048236	-37.799085	-72.036163	167.972148	-72.036163	167.972148	-0.048284	-37.810919
2.550000	-0.049229	-38.531144	-71.396309	167.120406	-71.396309	167.120406	-0.049276	-38.543210
2.600000	-0.050223	-39.263202	-70.800374	166.268663	-70.800374	166.268663	-0.050268	-39.275502
2.650000	-0.051226	-39.993091	-70.199137	165.321413	-70.199137	165.321413	-0.051271	-40.005626
2.700000	-0.052231	-40.722782	-69.633135	164.365480	-69.633135	164.365480	-0.052274	-40.735554
2.750000	-0.053246	-41.450454	-69.066293	163.340278	-69.066293	163.340278	-0.053288	-41.463463
2.800000	-0.054263	-42.177722	-68.527530	162.301224	-68.527530	162.301224	-0.054305	-42.190969
2.850000	-0.055291	-42.903133	-67.991499	161.211856	-67.991499	161.211856	-0.055332	-42.916618
2.900000	-0.056323	-43.627925	-67.477615	160.105717	-67.477615	160.105717	-0.056362	-43.641648
2.950000	-0.057365	-44.351032	-66.969340	158.963146	-66.969340	158.963146	-0.057404	-44.364994
3.000000	-0.058412	-45.073297	-66.478262	157.802359	-66.478262	157.802359	-0.058450	-45.087498
3.050000	-0.059469	-45.794061	-65.995118	156.615411	-65.995118	156.615411	-0.059507	-45.808499
3.100000	-0.060533	-46.513753	-65.525024	155.409777	-65.525024	155.409777	-0.060570	-46.528429
3.150000	-0.061607	-47.232136	-65.064739	154.185640	-65.064739	154.185640	-0.061643	-47.247049
3.200000	-0.062689	-47.949211	-64.614015	152.943000	-64.614015	152.943000	-0.062725	-47.964360
3.250000	-0.063780	-48.665180	-64.174612	151.687584	-64.174612	151.687584	-0.063816	-48.680564
3.300000	-0.064882	-49.379599	-63.741823	150.414285	-63.741823	150.414285	-0.064918	-49.395217
3.350000	-0.065991	-50.093120	-63.321568	149.132496	-63.321568	149.132496	-0.066027	-50.108971
3.400000	-0.067114	-50.804846	-62.905431	147.833732	-62.905431	147.833732	-0.067150	-50.820929
3.450000	-0.068242	-51.515891	-62.502795	146.529673	-62.502795	146.529673	-0.068279	-51.532204
3.500000	-0.069387	-52.224893	-62.102154	145.209730	-62.102154	145.209730	-0.069424	-52.241433
3.550000	-0.070537	-52.933435	-61.715781	143.886852	-61.715781	143.886852	-0.070574	-52.950203
3.600000	-0.071705	-53.639682	-61.329594	142.549292	-61.329594	142.549292	-0.071743	-53.656674
3.650000	-0.072876	-54.345697	-60.958276	141.210513	-60.958276	141.210513	-0.072915	-54.362914
3.700000	-0.074070	-55.049165	-60.585594	139.858309	-60.585594	139.858309	-0.074109	-55.066602
3.750000	-0.075264	-55.752632	-60.228246	138.506106	-60.228246	138.506106	-0.075304	-55.770290
3.800000	-0.076485	-56.453298	-59.868206	137.141746	-59.868206	137.141746	-0.076525	-56.471172
3.850000	-0.077705	-57.153964	-59.522497	135.777387	-59.522497	135.777387	-0.077747	-57.172055
3.900000	-0.078951	-57.852045	-59.175665	134.403795	-59.175665	134.403795	-0.078994	-57.870349
3.950000	-0.080199	-58.549891	-58.840897	133.029365	-58.840897	133.029365	-0.080243	-58.568407
4.000000	-0.081472	-59.245374	-58.506365	131.647998	-58.506365	131.647998	-0.081517	-59.264100
4.050000	-0.082750	-59.940385	-58.181894	130.265243	-58.181894	130.265243	-0.082796	-59.959320
4.100000	-0.084051	-60.633262	-57.858841	128.877340	-57.858841	128.877340	-0.084099	-60.652403
4.150000	-0.085360	-61.325427	-57.544073	127.487721	-57.544073	127.487721	-0.085409	-61.344772
4.200000	-0.086691	-62.015689	-57.231751	126.094337	-57.231751	126.094337	-0.086741	-62.035237
4.250000	-0.088033	-62.704999	-56.926139	124.699070	-56.926139	124.699070	-0.088084	-62.724750
4.300000	-0.089395	-63.392643	-56.623869	123.301095	-56.623869	123.301095	-0.089447	-63.412593
4.350000	-0.090771	-64.079095	-56.326902	121.901188	-56.326902	121.901188	-0.090824	-64.099244
4.400000	-0.092165	-64.764117	-56.034064	120.499375	-56.034064	120.499375	-0.092220	-64.784464
4.450000	-0.093577	-65.447710	-55.745274	119.095657	-55.745274	119.095657	-0.093633	-65.468253
4.500000	-0.095005	-66.130112	-55.461300	117.690634	-55.461300	117.690634	-0.095063	-66.150851
4.550000	-0.096455	-66.810848	-55.180250	116.283784	-55.180250	116.283784	-0.096514	-66.831780
4.600000	-0.097918	-67.490633	-54.904624	114.876074	-54.904624	114.876074	-0.097978	-67.511759
4.650000	-0.099408	-68.168518	-54.630911	113.466644	-54.630911	113.466644	-0.099469	-68.189837
4.700000	-0.100908	-68.845692	-54.363155	112.056679	-54.363155	112.056679	-0.100971	-68.867203
4.750000	-0.102439	-69.520735	-54.096406	110.645112	-54.096406	110.645112	-0.102503	-69.542437
4.800000	-0.103977	-70.195306	-53.836085	109.233249	-53.836085	109.233249	-0.104042	-70.217200
4.850000	-0.105551	-70.867519	-53.575955	107.819901	-53.575955	107.819901	-0.105618	-70.889605
4.900000	-0.107129	-71.539498	-53.322667	106.406428	-53.322667	106.406428	-0.107197	-71.561775
4.950000	-0.108748	-72.208898	-53.068836	104.991585	-53.068836	104.991585	-0.108817	-72.231367
5.000000	-0.110368	-72.878298	-52.822212	103.576742	-52.822212	103.576742	-0.110438	-72.900959
5.050000	-0.112034	-73.544904	-52.574385	102.160633	-52.574385	102.160633	-0.112105	-73.567758
5.100000	-0.113700	-74.211510	-52.333433	100.744524	-52.333433	100.744524	-0.113772	-74.234557
5.150000	-0.115411	-74.875576	-52.091990	99.327429	-52.091990	99.327429	-0.115484	-74.898817
5.200000	-0.117126	-75.539411	-51.856457	97.910243	-51.856457	97.910243	-0.117201	-75.562846
5.250000	-0.118883	-76.200958	-51.621081	96.492296	-51.621081	96.492296	-0.118959	-76.224589
5.300000	-0.120649	-76.862047	-51.390735	95.074197	-51.390735	95.074197	-0.120726	-76.885875
5.350000	-0.122454	-77.521099	-51.161135	93.655521	-51.161135	93.655521	-0.122532	-77.545126
5.400000	-0.124272	-78.179473	-50.935757	92.236653	-50.935757	92.236653	-0.124351	-78.203699
5.450000	-0.126127	-78.836057	-50.711660	90.817367	-50.711660	90.817367	-0.126206	-78.860486
5.500000	-0.128000	-79.491747	-50.491046	89.397872	-50.491046	89.397872	-0.128080	-79.516379
5.550000	-0.129905	-80.145893	-50.272200	87.978097	-50.272200	87.978097	-0.129987	-80.170731
5.600000	-0.131835	-80.798936	-50.056158	86.558120	-50.056158	86.558120	-0.131917	-80.823981
5.650000	-0.133793	-81.450676	-49.842325	85.137983	-49.842325	85.137983	-0.133876	-81.475931
5.700000	-0.135780	-82.101112	-49.630670	83.717683	-49.630670	83.717683	-0.135864	-82.126578
5.750000	-0.137793	-82.750479	-49.421626	82.297323	-49.421626	82.297323	-0.137877	-82.776160
5.800000	-0.139840	-83.398352	-49.214182	80.876877	-49.214182	80.876877	-0.139925	-83.424249
5.850000	-0.141908	-84.045385	-49.009713	79.456449	-49.009713	79.456449	-0.141994	-84.071501
5.900000	-0.144018	-84.690740	-48.806306	78.036057	-48.806306	78.036057	-0.144104	-84.717079
5.950000	-0.146143	-85.335479	-48.606207	76.615736	-48.606207	76.615736	-0.146230	-85.362041
6.000000	-0.148316	-85.978368	-48.406663	75.195625	-48.406663	75.195625	-0.148404	-86.005159
6.050000	-0.150500	-86.620856	-48.210732	73.775604	-48.210732	73.775604	-0.150588	-86.647876
6.100000	-0.152738	-87.261334	-48.014877	72.356030	-48.014877	72.356030	-0.152827	-87.288589
6.150000	-0.154983	-87.901617	-47.822918	70.936523	-47.822918	70.936523	-0.155072	-87.929106
6.200000	-0.157288	-88.539744	-47.630566	69.517764	-47.630566	69.517764	-0.157378	-88.567474
6.250000	-0.159594	-89.177871	-47.442382	68.099005	-47.442382	68.099005	-0.159685	-89.205842
6.300000	-0.161969	-89.813711	-47.253339	66.681364	-47.253339	66.681364	-0.162060	-89.841929
6.350000	-0.164344	-90.449551	-47.068324	65.263723	-47.068324	65.263723	-0.164436	-90.478017
6.400000	-0.166783	-91.083357	-46.882787	63.847396	-46.882787	63.847396	-0.166875	-91.112077
6.450000	-0.169229	-91.716979	-46.700741	62.431189	-46.700741	62.431189	-0.169321	-91.745952
6.500000	-0.171734	-92.348814	-46.518473	61.016444	-46.518473	61.016444	-0.171827	-92.378048
6.550000	-0.174252	-92.980292	-46.339176	59.601991	-46.339176	59.601991	-0.174346	-93.009787
6.600000	-0.176825	-93.610223	-46.159924	58.189086	-46.159924	58.189086	-0.176919	-93.639984
6.650000	-0.179417	-94.239639	-45.983128	56.776697	-45.983128	56.776697	-0.179511	-94.269668
6.700000	-0.182058	-94.867738	-45.806623	55.365869	-45.806623	55.365869	-0.182154	-94.898040
6.750000	-0.184725	-95.495179	-45.632047	53.955823	-45.632047	53.955823	-0.184821	-95.525757
6.800000	-0.187437	-96.121524	-45.457992	52.547273	-45.457992	52.547273	-0.187534	-96.152382
6.850000	-0.190181	-96.747087	-45.285312	51.139792	-45.285312	51.139792	-0.190278	-96.778228
6.900000	-0.192964	-97.371764	-45.113383	49.733662	-45.113383	49.733662	-0.193062	-97.403192
6.950000	-0.195787	-97.995555	-44.942226	48.328881	-44.942226	48.328881	-0.195885	-98.027273
7.000000	-0.198643	-98.618656	-44.772061	46.925228	-44.772061	46.925228	-0.198742	-98.650669
7.050000	-0.201545	-99.240792	-44.601988	45.523151	-44.601988	45.523151	-0.201645	-99.273103
7.100000	-0.204475	-99.862419	-44.433183	44.121916	-44.433183	44.121916	-0.204576	-99.895033
7.150000	-0.207458	-100.483031	-44.263677	42.722361	-44.263677	42.722361	-0.207561	-100.515952
7.200000	-0.210463	-101.103298	-44.095773	41.323327	-44.095773	41.323327	-0.210568	-101.136530
7.250000	-0.213530	-101.722533	-43.926221	39.925854	-43.926221	39.925854	-0.213636	-101.756082
7.300000	-0.216612	-102.341567	-43.758696	38.528596	-43.758696	38.528596	-0.216719	-102.375435
7.350000	-0.219763	-102.959594	-43.588362	37.132411	-43.588362	37.132411	-0.219873	-102.993789
7.400000	-0.222923	-103.577536	-43.420615	35.736228	-43.420615	35.736228	-0.223035	-103.612061
7.450000	-0.226161	-104.194549	-43.248610	34.340057	-43.248610	34.340057	-0.226275	-104.229414
7.500000	-0.229401	-104.811561	-43.079945	32.943885	-43.079945	32.943885	-0.229517	-104.846767
7.550000	-0.232728	-105.427788	-42.905183	31.545792	-42.905183	31.545792	-0.232847	-105.463349
7.600000	-0.236056	-106.044015	-42.733867	30.147699	-42.733867	30.147699	-0.236179	-106.079930
7.650000	-0.239468	-106.659769	-42.555924	28.745238	-42.555924	28.745238	-0.239594	-106.696056
7.700000	-0.242888	-107.275481	-42.380668	27.342380	-42.380668	27.342380	-0.243018	-107.312141
7.750000	-0.246387	-107.891038	-42.198194	25.932129	-42.198194	25.932129	-0.246522	-107.928088
7.800000	-0.249903	-108.506563	-42.017384	24.520399	-42.017384	24.520399	-0.250043	-108.544009
7.850000	-0.253494	-109.122255	-41.828723	23.097593	-41.828723	23.097593	-0.253639	-109.160116
7.900000	-0.257111	-109.738002	-41.640310	21.671096	-41.640310	21.671096	-0.257262	-109.776286
7.950000	-0.260800	-110.354240	-41.443394	20.229112	-41.443394	20.229112	-0.260959	-110.392971
8.000000	-0.264526	-110.970724	-41.244735	18.779384	-41.244735	18.779384	-0.264693	-111.009914
8.050000	-0.268323	-111.588028	-41.036952	17.308967	-41.036952	17.308967	-0.268498	-111.627705
8.100000	-0.272171	-112.205918	-40.824570	15.823774	-40.824570	15.823774	-0.272356	-112.246103
8.150000	-0.276091	-112.824958	-40.602569	14.311894	-40.602569	14.311894	-0.276286	-112.865682
8.200000	-0.280082	-113.445148	-40.371798	12.773329	-40.371798	12.773329	-0.280289	-113.486444
8.250000	-0.284147	-114.066811	-40.131213	11.201411	-40.131213	11.201411	-0.284369	-114.108716
8.300000	-0.288316	-114.690536	-39.875643	9.582801	-39.875643	9.582801	-0.288554	-114.733101
8.350000	-0.292540	-115.315411	-39.616406	7.938090	-39.616406	7.938090	-0.292795	-115.358664
8.400000	-0.296924	-115.943787	-39.332609	6.213673	-39.332609	6.213673	-0.297200	-115.987811
8.450000	-0.301453	-116.575366	-39.030134	4.415499	-39.030134	4.415499	-0.301754	-116.620235
8.500000	-0.306161	-117.210812	-38.705957	2.527238	-38.705957	2.527238	-0.306491	-117.256613
8.550000	-0.311094	-117.850939	-38.356478	0.528439	-38.356478	0.528439	-0.311460	-117.897780
8.600000	-0.316361	-118.497530	-37.971537	-1.625471	-37.971537	-1.625471	-0.316771	-118.545556
8.650000	-0.322043	-119.151452	-37.549537	-3.958496	-37.549537	-3.958496	-0.322508	-119.200828
8.700000	-0.328226	-119.813435	-37.090745	-6.491654	-37.090745	-6.491654	-0.328760	-119.864342
8.750000	-0.335266	-120.487545	-36.573434	-9.332422	-36.573434	-9.332422	-0.335893	-120.540256
8.800000	-0.343506	-121.176122	-35.991585	-12.550616	-35.991585	-12.550616	-0.344259	-121.230961
8.850000	-0.353529	-121.882694	-35.334140	-16.255829	-35.334140	-16.255829	-0.354456	-121.940065
8.900000	-0.366385	-122.612437	-34.583132	-20.624094	-34.583132	-20.624094	-0.367565	-122.672854
8.950000	-0.383933	-123.371509	-33.717237	-25.916774	-33.717237	-25.916774	-0.385493	-123.435610
9.000000	-0.409425	-124.164853	-32.716971	-32.514697	-32.716971	-32.514697	-0.411581	-124.233343
9.050000	-0.448476	-124.989851	-31.572973	-40.982337	-31.572973	-40.982337	-0.451591	-125.063249
9.100000	-0.510838	-125.816010	-30.300562	-52.234684	-30.300562	-52.234684	-0.515521	-125.893801
9.150000	-0.607503	-126.528603	-29.012243	-67.470003	-29.012243	-67.470003	-0.614597	-126.606882
9.200000	-0.730786	-126.874273	-28.013500	-87.607963	-28.013500	-87.607963	-0.740755	-126.942443
9.250000	-0.819159	-126.695225	-27.767012	-111.466272	-27.767012	-111.466272	-0.830684	-126.740526
9.300000	-0.813296	-126.406107	-28.432482	-135.029344	-28.432482	-135.029344	-0.823867	-126.428902
9.350000	-0.750597	-126.486150	-29.606502	-155.067918	-29.606502	-155.067918	-0.759086	-126.497355
9.400000	-0.687377	-126.921616	-30.797043	-171.341701	-30.797043	-171.341701	-0.694003	-126.929602
9.450000	-0.642027	-127.547549	-31.731706	175.176175	-31.731706	175.176175	-0.647303	-127.556107
9.500000	-0.614138	-128.260435	-32.301944	163.628448	-32.301944	163.628448	-0.618479	-128.270907
9.550000	-0.599622	-129.015296	-32.490274	153.463716	-32.490274	153.463716	-0.603308	-129.028037
9.600000	-0.596045	-129.799147	-32.294572	144.415092	-32.294572	144.415092	-0.599265	-129.814181
9.650000	-0.601996	-130.611112	-31.747140	136.231180	-31.747140	136.231180	-0.604877	-130.628383
9.700000	-0.618419	-131.459650	-30.858607	128.693101	-30.858607	128.693101	-0.621058	-131.479118
9.750000	-0.648232	-132.357496	-29.644308	121.467376	-29.644308	121.467376	-0.650717	-132.379166
9.800000	-0.698358	-133.320742	-28.101438	114.082442	-28.101438	114.082442	-0.700800	-133.344610
9.850000	-0.783439	-134.358466	-26.213152	105.801685	-26.213152	105.801685	-0.786015	-134.384204
9.900000	-0.934760	-135.422893	-23.958621	95.346185	-23.958621	95.346185	-0.937750	-135.448583
9.950000	-1.210291	-136.177570	-21.401925	80.395344	-21.401925	80.395344	-1.213682	-136.195757
10.000000	-1.619326	-135.290342	-19.005318	57.520527	-19.005318	57.520527	-1.619921	-135.291617
