! freq	dB(S11)	phase(S11)	dB(S12)	phase(S12)	
!     	dB(S21)	phase(S21)	dB(S22)	phase(S22)	
!S-par simulation data
#  GHz  S  DB  R 50
0.000000	0.000000	-0.000000	-319.581033	180.000000	-319.581033	180.000000	-0.000000	-0.000000
0.050000	-0.000099	-0.997238	-75.469943	-164.324821	-75.469943	-164.324821	-0.000158	-1.571877
0.100000	-0.000394	-1.994266	-74.879642	177.174260	-74.879642	177.174260	-0.000628	-3.143353
0.150000	-0.000878	-2.990885	-74.690573	165.935309	-74.690573	165.935309	-0.001398	-4.714044
0.200000	-0.001537	-3.986917	-74.547619	156.853349	-74.547619	156.853349	-0.002449	-6.283605
0.250000	-0.002369	-4.982146	-74.408470	148.885580	-74.408470	148.885580	-0.003773	-7.851608
0.300000	-0.003341	-5.976497	-74.268415	141.578759	-74.268415	141.578759	-0.005320	-9.417898
0.350000	-0.004443	-6.969819	-74.130524	134.829003	-74.130524	134.829003	-0.007074	-10.982160
0.400000	-0.005657	-7.962013	-73.999868	128.559623	-73.999868	128.559623	-0.009004	-12.544173
0.450000	-0.006964	-8.953000	-73.881789	122.725502	-73.881789	122.725502	-0.011082	-14.103754
0.500000	-0.008346	-9.942724	-73.781234	117.295686	-73.781234	117.295686	-0.013278	-15.660753
0.550000	-0.009788	-10.931145	-73.702546	112.246608	-73.702546	112.246608	-0.015565	-17.215052
0.600000	-0.011273	-11.918241	-73.649449	107.559473	-73.649449	107.559473	-0.017918	-18.766557
0.650000	-0.012787	-12.903999	-73.625117	103.219371	-73.625117	103.219371	-0.020316	-20.315195
0.700000	-0.014320	-13.888415	-73.632283	99.215146	-73.632283	99.215146	-0.022740	-21.860910
0.750000	-0.015862	-14.871494	-73.673349	95.539615	-73.673349	95.539615	-0.025172	-23.403659
0.800000	-0.017403	-15.853242	-73.750497	92.190010	-73.750497	92.190010	-0.027599	-24.943406
0.850000	-0.018937	-16.833668	-73.865775	89.168605	-73.865775	89.168605	-0.030010	-26.480121
0.900000	-0.020459	-17.812783	-74.021163	86.483569	-74.021163	86.483569	-0.032398	-28.013776
0.950000	-0.021966	-18.790594	-74.218599	84.150115	-74.218599	84.150115	-0.034754	-29.544345
1.000000	-0.023454	-19.767108	-74.459961	82.192029	-74.459961	82.192029	-0.037076	-31.071800
1.050000	-0.024921	-20.742330	-74.746957	80.643708	-74.746957	80.643708	-0.039358	-32.596113
1.100000	-0.026367	-21.716260	-75.080902	79.552815	-75.080902	79.552815	-0.041601	-34.117253
1.150000	-0.027792	-22.688898	-75.462268	78.983621	-75.462268	78.983621	-0.043803	-35.635188
1.200000	-0.029194	-23.660240	-75.889897	79.020952	-75.889897	79.020952	-0.045965	-37.149883
1.250000	-0.030576	-24.630278	-76.359646	79.774204	-76.359646	79.774204	-0.048086	-38.661301
1.300000	-0.031936	-25.598944	-76.861385	81.424573	-76.861385	81.424573	-0.050168	-40.169256
1.350000	-0.033278	-26.566283	-77.374916	84.103003	-77.374916	84.103003	-0.052213	-41.673852
1.400000	-0.034602	-27.532280	-77.866931	87.971467	-77.866931	87.971467	-0.054224	-43.175048
1.450000	-0.035909	-28.496918	-78.285921	93.139217	-78.285921	93.139217	-0.056202	-44.672802
1.500000	-0.037202	-29.460177	-78.562895	99.573089	-78.562895	99.573089	-0.058151	-46.167073
1.550000	-0.038481	-30.422040	-78.623986	107.001343	-78.623986	107.001343	-0.060073	-47.657820
1.600000	-0.039748	-31.382483	-78.416418	114.896438	-78.416418	114.896438	-0.061969	-49.145003
1.650000	-0.041005	-32.341486	-77.933623	122.605497	-77.933623	122.605497	-0.063843	-50.628585
1.700000	-0.042253	-33.299024	-77.218096	129.564094	-77.218096	129.564094	-0.065697	-52.108527
1.750000	-0.043492	-34.255075	-76.339712	135.442179	-76.339712	135.442179	-0.067533	-53.584794
1.800000	-0.044725	-35.209616	-75.368852	140.152671	-75.368852	140.152671	-0.069353	-55.057355
1.850000	-0.045953	-36.162620	-74.360724	143.772186	-74.360724	143.772186	-0.071160	-56.526178
1.900000	-0.047177	-37.114065	-73.352225	146.451623	-73.352225	146.451623	-0.072955	-57.991235
1.950000	-0.048398	-38.063927	-72.365255	148.355951	-72.365255	148.355951	-0.074741	-59.452503
2.000000	-0.049617	-39.012180	-71.411404	149.635065	-71.411404	149.635065	-0.076519	-60.909959
2.050000	-0.050835	-39.958802	-70.495836	150.414269	-70.495836	150.414269	-0.078290	-62.363584
2.100000	-0.052053	-40.903769	-69.619957	150.794192	-69.619957	150.794192	-0.080058	-63.813364
2.150000	-0.053272	-41.847057	-68.783094	150.854172	-68.783094	150.854172	-0.081822	-65.259286
2.200000	-0.054493	-42.788645	-67.983497	150.656345	-67.983497	150.656345	-0.083585	-66.701343
2.250000	-0.055716	-43.728510	-67.218926	150.249368	-67.218926	150.249368	-0.085348	-68.139530
2.300000	-0.056943	-44.666631	-66.486981	149.671474	-66.486981	149.671474	-0.087113	-69.573845
2.350000	-0.058173	-45.602987	-65.785276	148.952862	-65.785276	148.952862	-0.088880	-71.004291
2.400000	-0.059408	-46.537558	-65.111540	148.117539	-65.111540	148.117539	-0.090651	-72.430875
2.450000	-0.060648	-47.470325	-64.463658	147.184718	-64.463658	147.184718	-0.092428	-73.853606
2.500000	-0.061894	-48.401269	-63.839686	146.169872	-63.839686	146.169872	-0.094210	-75.272498
2.550000	-0.063147	-49.330291	-63.236992	145.083005	-63.236992	145.083005	-0.096000	-76.687405
2.600000	-0.064406	-50.257454	-62.654932	143.937643	-62.654932	143.937643	-0.097798	-78.098513
2.650000	-0.065673	-51.182742	-62.092035	142.741982	-62.092035	142.741982	-0.099606	-79.505849
2.700000	-0.066947	-52.106140	-61.546971	141.502805	-61.546971	141.502805	-0.101423	-80.909441
2.750000	-0.068230	-53.027632	-61.018542	140.225753	-61.018542	140.225753	-0.103252	-82.309323
2.800000	-0.069521	-53.947207	-60.505666	138.915536	-60.505666	138.915536	-0.105093	-83.705531
2.850000	-0.070822	-54.864851	-60.007361	137.576106	-60.007361	137.576106	-0.106946	-85.098104
2.900000	-0.072132	-55.780552	-59.522741	136.210791	-59.522741	136.210791	-0.108813	-86.487086
2.950000	-0.073453	-56.694300	-59.051002	134.822406	-59.051002	134.822406	-0.110695	-87.872524
3.000000	-0.074783	-57.606085	-58.591411	133.413342	-58.591411	133.413342	-0.112591	-89.254469
3.050000	-0.076124	-58.515898	-58.143306	131.985635	-58.143306	131.985635	-0.114504	-90.632973
3.100000	-0.077477	-59.423730	-57.706079	130.541025	-57.706079	130.541025	-0.116433	-92.008094
3.150000	-0.078841	-60.329575	-57.279178	129.081008	-57.279178	129.081008	-0.118380	-93.379892
3.200000	-0.080217	-61.233427	-56.862099	127.606873	-56.862099	127.606873	-0.120345	-94.748431
3.250000	-0.081605	-62.135279	-56.454380	126.119735	-56.454380	126.119735	-0.122329	-96.113778
3.300000	-0.083005	-63.035127	-56.055597	124.620565	-56.055597	124.620565	-0.124332	-97.476002
3.350000	-0.084419	-63.932967	-55.665362	123.110209	-55.665362	123.110209	-0.126356	-98.835177
3.400000	-0.085846	-64.828798	-55.283318	121.589411	-55.283318	121.589411	-0.128401	-100.191378
3.450000	-0.087287	-65.722616	-54.909137	120.058830	-54.909137	120.058830	-0.130468	-101.544685
3.500000	-0.088742	-66.614422	-54.542516	118.519049	-54.542516	118.519049	-0.132558	-102.895179
3.550000	-0.090212	-67.504213	-54.183176	116.970591	-54.183176	116.970591	-0.134670	-104.242945
3.600000	-0.091697	-68.391992	-53.830860	115.413929	-53.830860	115.413929	-0.136807	-105.588072
3.650000	-0.093197	-69.277760	-53.485330	113.849492	-53.485330	113.849492	-0.138968	-106.930648
3.700000	-0.094712	-70.161519	-53.146364	112.277673	-53.146364	112.277673	-0.141154	-108.270769
3.750000	-0.096245	-71.043273	-52.813758	110.698837	-52.813758	110.698837	-0.143366	-109.608528
3.800000	-0.097794	-71.922938	-52.487059	109.113049	-52.487059	109.113049	-0.145607	-110.943932
3.850000	-0.099360	-72.800606	-52.166376	107.520932	-52.166376	107.520932	-0.147874	-112.277184
3.900000	-0.100945	-73.676284	-51.851543	105.922789	-51.851543	105.922789	-0.150170	-113.608389
3.950000	-0.102547	-74.549978	-51.542406	104.318910	-51.542406	104.318910	-0.152495	-114.937653
4.000000	-0.104167	-75.421694	-51.238819	102.709577	-51.238819	102.709577	-0.154849	-116.265084
4.050000	-0.105807	-76.291443	-50.940646	101.095062	-50.940646	101.095062	-0.157233	-117.590795
4.100000	-0.107465	-77.159231	-50.647758	99.475634	-50.647758	99.475634	-0.159649	-118.914899
4.150000	-0.109144	-78.025068	-50.360036	97.851557	-50.360036	97.851557	-0.162096	-120.237512
4.200000	-0.110843	-78.888966	-50.077365	96.223089	-50.077365	96.223089	-0.164575	-121.558754
4.250000	-0.112563	-79.750935	-49.799637	94.590488	-49.799637	94.590488	-0.167087	-122.878744
4.300000	-0.114305	-80.610987	-49.526748	92.954012	-49.526748	92.954012	-0.169632	-124.197607
4.350000	-0.116068	-81.469134	-49.258602	91.313914	-49.258602	91.313914	-0.172212	-125.515466
4.400000	-0.117853	-82.325389	-48.995104	89.670447	-48.995104	89.670447	-0.174827	-126.832451
4.450000	-0.119662	-83.179768	-48.736165	88.023864	-48.736165	88.023864	-0.177478	-128.148691
4.500000	-0.121494	-84.032283	-48.481697	86.374416	-48.481697	86.374416	-0.180164	-129.464318
4.550000	-0.123350	-84.882951	-48.231618	84.722352	-48.231618	84.722352	-0.182888	-130.779467
4.600000	-0.125230	-85.731787	-47.985846	83.067920	-47.985846	83.067920	-0.185649	-132.094273
4.650000	-0.127136	-86.578809	-47.744301	81.411365	-47.744301	81.411365	-0.188448	-133.408876
4.700000	-0.129067	-87.424033	-47.506909	79.752930	-47.506909	79.752930	-0.191286	-134.723416
4.750000	-0.131024	-88.267477	-47.273593	78.092853	-47.273593	78.092853	-0.194164	-136.038036
4.800000	-0.133009	-89.109161	-47.044280	76.431369	-47.044280	76.431369	-0.197081	-137.352881
4.850000	-0.135020	-89.949103	-46.818898	74.768708	-46.818898	74.768708	-0.200039	-138.668098
4.900000	-0.137059	-90.787323	-46.597376	73.105094	-46.597376	73.105094	-0.203038	-139.983837
4.950000	-0.139127	-91.623843	-46.379644	71.440745	-46.379644	71.440745	-0.206079	-141.300249
5.000000	-0.141224	-92.458682	-46.165632	69.775871	-46.165632	69.775871	-0.209162	-142.617487
5.050000	-0.143352	-93.291792	-45.955210	68.110670	-45.955210	68.110670	-0.212290	-143.935758
5.100000	-0.145510	-94.123268	-45.748382	66.445356	-45.748382	66.445356	-0.215461	-145.255183
5.150000	-0.147699	-94.953134	-45.545079	64.780111	-45.545079	64.780111	-0.218676	-146.575923
5.200000	-0.149920	-95.781414	-45.345234	63.115108	-45.345234	63.115108	-0.221935	-147.898140
5.250000	-0.152172	-96.608130	-45.148781	61.450506	-45.148781	61.450506	-0.225239	-149.221999
5.300000	-0.154457	-97.433310	-44.955652	59.786453	-44.955652	59.786453	-0.228588	-150.547666
5.350000	-0.156775	-98.256977	-44.765784	58.123084	-44.765784	58.123084	-0.231983	-151.875310
5.400000	-0.159127	-99.079159	-44.579110	56.460521	-44.579110	56.460521	-0.235424	-153.205103
5.450000	-0.161514	-99.899881	-44.395566	54.798871	-44.395566	54.798871	-0.238911	-154.537217
5.500000	-0.163935	-100.719172	-44.215089	53.138227	-44.215089	53.138227	-0.242446	-155.871829
5.550000	-0.166392	-101.537060	-44.037616	51.478668	-44.037616	51.478668	-0.246027	-157.209115
5.600000	-0.168885	-102.353572	-43.863084	49.820255	-43.863084	49.820255	-0.249656	-158.549257
5.650000	-0.171414	-103.168739	-43.691433	48.163035	-43.691433	48.163035	-0.253333	-159.892437
5.700000	-0.173981	-103.982589	-43.522602	46.507037	-43.522602	46.507037	-0.257057	-161.238838
5.750000	-0.176585	-104.795154	-43.356531	44.852274	-43.356531	44.852274	-0.260831	-162.588649
5.800000	-0.179227	-105.606464	-43.193163	43.198743	-43.193163	43.198743	-0.264652	-163.942059
5.850000	-0.181909	-106.416552	-43.032441	41.546423	-43.032441	41.546423	-0.268523	-165.299259
5.900000	-0.184630	-107.225449	-42.874308	39.895276	-42.874308	39.895276	-0.272442	-166.660445
5.950000	-0.187390	-108.033189	-42.718711	38.245244	-42.718711	38.245244	-0.276411	-168.025812
6.000000	-0.190191	-108.839805	-42.565595	36.596255	-42.565595	36.596255	-0.280429	-169.395561
6.050000	-0.193033	-109.645331	-42.414909	34.948216	-42.414909	34.948216	-0.284497	-170.769892
6.100000	-0.195916	-110.449803	-42.266604	33.301018	-42.266604	33.301018	-0.288613	-172.149011
6.150000	-0.198842	-111.253256	-42.120630	31.654533	-42.120630	31.654533	-0.292780	-173.533125
6.200000	-0.201809	-112.055726	-41.976940	30.008613	-41.976940	30.008613	-0.296996	-174.922444
6.250000	-0.204820	-112.857251	-41.835489	28.363095	-41.835489	28.363095	-0.301262	-176.317181
6.300000	-0.207875	-113.657831	-41.696232	26.717794	-41.696232	26.717794	-0.305580	-177.717805
6.350000	-0.210975	-114.457546	-41.559131	25.072486	-41.559131	25.072486	-0.309948	-179.124301
6.400000	-0.214118	-115.256435	-41.424144	23.426947	-41.424144	23.426947	-0.314366	179.463109
6.450000	-0.217307	-116.054538	-41.291235	21.780929	-41.291235	21.780929	-0.318833	178.044201
6.500000	-0.220540	-116.851898	-41.160366	20.134168	-41.160366	20.134168	-0.323350	176.618746
6.550000	-0.223819	-117.648555	-41.031502	18.486374	-41.031502	18.486374	-0.327918	175.186514
6.600000	-0.227144	-118.444554	-40.904608	16.837236	-40.904608	16.837236	-0.332535	173.747269
6.650000	-0.230516	-119.239937	-40.779653	15.186421	-40.779653	15.186421	-0.337202	172.300773
6.700000	-0.233934	-120.034749	-40.656607	13.533567	-40.656607	13.533567	-0.341919	170.846783
6.750000	-0.237399	-120.829037	-40.535439	11.878288	-40.535439	11.878288	-0.346686	169.385055
6.800000	-0.240912	-121.622847	-40.416122	10.220166	-40.416122	10.220166	-0.351503	167.915337
6.850000	-0.244473	-122.416228	-40.298627	8.558752	-40.298627	8.558752	-0.356371	166.437376
6.900000	-0.248082	-123.209228	-40.182929	6.893564	-40.182929	6.893564	-0.361290	164.950912
6.950000	-0.251739	-124.001899	-40.069002	5.224076	-40.069002	5.224076	-0.366259	163.455683
7.000000	-0.255446	-124.794290	-39.956819	3.549723	-39.956819	3.549723	-0.371280	161.951418
7.050000	-0.259202	-125.586457	-39.846354	1.869889	-39.846354	1.869889	-0.376353	160.437843
7.100000	-0.263008	-126.378452	-39.737581	0.183904	-39.737581	0.183904	-0.381478	158.914677
7.150000	-0.266864	-127.170332	-39.630472	-1.508967	-39.630472	-1.508967	-0.386657	157.381632
7.200000	-0.270771	-127.962155	-39.524998	-3.209527	-39.524998	-3.209527	-0.391891	155.838414
7.250000	-0.274729	-128.753978	-39.421128	-4.918665	-39.421128	-4.918665	-0.397180	154.284718
7.300000	-0.278738	-129.545865	-39.318827	-6.637361	-39.318827	-6.637361	-0.402526	152.720232
7.350000	-0.282799	-130.337876	-39.218058	-8.366706	-39.218058	-8.366706	-0.407932	151.144634
7.400000	-0.286913	-131.130077	-39.118779	-10.107918	-39.118779	-10.107918	-0.413399	149.557587
7.450000	-0.291080	-131.922536	-39.020941	-11.862361	-39.020941	-11.862361	-0.418930	147.958745
7.500000	-0.295301	-132.715321	-38.924489	-13.631573	-38.924489	-13.631573	-0.424529	146.347743
7.550000	-0.299578	-133.508525	-38.829369	-15.418106	-38.829369	-15.418106	-0.430203	144.723636
7.600000	-0.303911	-134.302209	-38.735491	-17.223336	-38.735491	-17.223336	-0.435954	143.086548
7.650000	-0.308300	-135.096453	-38.642766	-19.049569	-38.642766	-19.049569	-0.441789	141.436048
7.700000	-0.312746	-135.891336	-38.551087	-20.899459	-38.551087	-20.899459	-0.447714	139.771678
7.750000	-0.317250	-136.686944	-38.460328	-22.776071	-38.460328	-22.776071	-0.453738	138.092942
7.800000	-0.321814	-137.483367	-38.370339	-24.682964	-38.370339	-24.682964	-0.459874	136.399305
7.850000	-0.326439	-138.280699	-38.280941	-26.624290	-38.280941	-26.624290	-0.466133	134.690180
7.900000	-0.331127	-139.079038	-38.191916	-28.604922	-38.191916	-28.604922	-0.472533	132.964920
7.950000	-0.335879	-139.878489	-38.103002	-30.630604	-38.103002	-30.630604	-0.479094	131.222802
8.000000	-0.340700	-140.679163	-38.013877	-32.708147	-38.013877	-32.708147	-0.485841	129.463012
8.050000	-0.345591	-141.481179	-37.924148	-34.845678	-37.924148	-34.845678	-0.492807	127.684622
8.100000	-0.350556	-142.284664	-37.833328	-37.052952	-37.833328	-37.052952	-0.500032	125.886561
8.150000	-0.355589	-143.089527	-37.741259	-39.329288	-37.741259	-39.329288	-0.507519	124.070495
8.200000	-0.360716	-143.896372	-37.646366	-41.712807	-37.646366	-41.712807	-0.515425	122.229083
8.250000	-0.365934	-144.705137	-37.548046	-44.209697	-37.548046	-44.209697	-0.523795	120.363491
8.300000	-0.371251	-145.516003	-37.445043	-46.841729	-37.445043	-46.841729	-0.532743	118.471550
8.350000	-0.376685	-146.329320	-37.335121	-49.647707	-37.335121	-49.647707	-0.542480	116.548679
8.400000	-0.382237	-147.145039	-37.217110	-52.641414	-37.217110	-52.641414	-0.553128	114.595004
8.450000	-0.387929	-147.963506	-37.087878	-55.871648	-37.087878	-55.871648	-0.565002	112.605188
8.500000	-0.393785	-148.785011	-36.943644	-59.392050	-36.943644	-59.392050	-0.578509	110.573890
8.550000	-0.399839	-149.609890	-36.779268	-63.271318	-36.779268	-63.271318	-0.594230	108.494181
8.600000	-0.406163	-150.438918	-36.584064	-67.647575	-36.584064	-67.647575	-0.613386	106.350784
8.650000	-0.412815	-151.272336	-36.348728	-72.619699	-36.348728	-72.619699	-0.637259	104.133977
8.700000	-0.419907	-152.110745	-36.057606	-78.355028	-36.057606	-78.355028	-0.668143	101.825323
8.750000	-0.427654	-152.955209	-35.681885	-85.144471	-35.681885	-85.144471	-0.710624	99.391238
8.800000	-0.436373	-153.806552	-35.185329	-93.322241	-35.185329	-93.322241	-0.772114	96.792178
8.850000	-0.446701	-154.665841	-34.505038	-103.456673	-34.505038	-103.456673	-0.868477	93.961561
8.900000	-0.459765	-155.532738	-33.560525	-116.322991	-33.560525	-116.322991	-1.031482	90.823908
8.950000	-0.477877	-156.401494	-32.241023	-133.299233	-32.241023	-133.299233	-1.338015	87.341145
9.000000	-0.504607	-157.242669	-30.501892	-156.685017	-30.501892	-156.685017	-1.965350	84.001228
9.050000	-0.537811	-157.962310	-28.708711	170.196305	-28.708711	170.196305	-3.120122	84.210196
9.100000	-0.546444	-158.523934	-28.136048	128.550407	-28.136048	128.550407	-3.622998	93.461723
9.150000	-0.521615	-159.225137	-29.318703	90.896740	-29.318703	90.896740	-2.495963	98.118673
9.200000	-0.502729	-160.106120	-30.960994	63.979673	-30.960994	63.979673	-1.634540	95.735352
9.250000	-0.496347	-161.032764	-32.290104	45.123057	-32.290104	45.123057	-1.215880	92.166693
9.300000	-0.496811	-161.961301	-33.229236	31.321680	-33.229236	31.321680	-1.006866	88.792640
9.350000	-0.500666	-162.886822	-33.867403	20.814519	-33.867403	20.814519	-0.893534	85.719920
9.400000	-0.506343	-163.811736	-34.294375	12.575609	-34.294375	12.575609	-0.827621	82.879260
9.450000	-0.513134	-164.739055	-34.574756	5.970728	-34.574756	5.970728	-0.787370	80.201969
9.500000	-0.520709	-165.671416	-34.751618	0.585375	-34.751618	0.585375	-0.762090	77.638776
9.550000	-0.528898	-166.610847	-34.855307	-3.889340	-34.855307	-3.889340	-0.745861	75.153895
9.600000	-0.537642	-167.559289	-34.903309	-7.642049	-34.903309	-7.642049	-0.735615	72.725529
9.650000	-0.546920	-168.518555	-34.907792	-10.815870	-34.907792	-10.815870	-0.729428	70.337886
9.700000	-0.556743	-169.490487	-34.876787	-13.515603	-34.876787	-13.515603	-0.726093	67.979826
9.750000	-0.567139	-170.477048	-34.815537	-15.819133	-34.815537	-15.819133	-0.724823	65.643362
9.800000	-0.578150	-171.480411	-34.727361	-17.785036	-34.727361	-17.785036	-0.725085	63.322692
9.850000	-0.589832	-172.503053	-34.614203	-19.457752	-34.614203	-19.457752	-0.726511	61.013556
9.900000	-0.602245	-173.547856	-34.476991	-20.871161	-34.476991	-20.871161	-0.728840	58.712808
9.950000	-0.615460	-174.618236	-34.315859	-22.051078	-34.315859	-22.051078	-0.731880	56.418124
10.000000	-0.629550	-175.718301	-34.130290	-23.017011	-34.130290	-23.017011	-0.735490	54.127794
