! freq	dB(S11)	phase(S11)	dB(S12)	phase(S12)	
!     	dB(S21)	phase(S21)	dB(S22)	phase(S22)	
!S-par simulation data
#  GHz  S  DB  R 50
0.000000	-0.000000	0.000000	-335.882117	180.000000	-335.882117	180.000000	0.000000	0.000000
0.050000	-0.000556	-0.915424	-104.696725	88.693620	-104.696725	88.693620	-0.000903	-1.542157
0.100000	-0.001920	-1.827123	-98.707487	87.634019	-98.707487	87.634019	-0.003202	-3.082305
0.150000	-0.003571	-2.734344	-95.235719	86.521523	-95.235719	86.521523	-0.006155	-4.618513
0.200000	-0.005166	-3.638280	-92.811856	85.402324	-92.811856	85.402324	-0.009171	-6.149805
0.250000	-0.006619	-4.540616	-90.966625	84.291770	-90.966625	84.291770	-0.011989	-7.677234
0.300000	-0.007925	-5.442105	-89.498334	83.201730	-89.498334	83.201730	-0.014517	-9.201438
0.350000	-0.009116	-6.343200	-88.298050	82.143834	-88.298050	82.143834	-0.016759	-10.723247
0.400000	-0.010226	-7.244076	-87.301913	81.130705	-87.301913	81.130705	-0.018760	-12.243247
0.450000	-0.011282	-8.144735	-86.474666	80.181762	-86.474666	80.181762	-0.020566	-13.761702
0.500000	-0.012309	-9.045140	-85.781615	79.306101	-85.781615	79.306101	-0.022248	-15.278947
0.550000	-0.013322	-9.945211	-85.203385	78.519366	-85.203385	78.519366	-0.023848	-16.795036
0.600000	-0.014329	-10.844866	-84.726140	77.839551	-84.726140	77.839551	-0.025398	-18.309959
0.650000	-0.015339	-11.744022	-84.339853	77.287789	-84.339853	77.287789	-0.026922	-19.823662
0.700000	-0.016355	-12.642602	-84.037212	76.889316	-84.037212	76.889316	-0.028439	-21.336073
0.750000	-0.017381	-13.540495	-83.817188	76.688349	-83.817188	76.688349	-0.029964	-22.847013
0.800000	-0.018419	-14.437631	-83.675316	76.728270	-83.675316	76.728270	-0.031509	-24.356380
0.850000	-0.019471	-15.333968	-83.606512	77.058348	-83.606512	77.058348	-0.033082	-25.864105
0.900000	-0.020535	-16.229514	-83.602857	77.716362	-83.602857	77.716362	-0.034684	-27.370213
0.950000	-0.021612	-17.124178	-83.665028	78.797674	-83.665028	78.797674	-0.036322	-28.874511
1.000000	-0.022701	-18.017916	-83.787972	80.400860	-83.787972	80.400860	-0.037998	-30.376905
1.050000	-0.023802	-18.910688	-83.963345	82.646679	-83.963345	82.646679	-0.039713	-31.877301
1.100000	-0.024913	-19.802459	-84.176980	85.677556	-84.176980	85.677556	-0.041467	-33.375612
1.150000	-0.026034	-20.693196	-84.405365	89.648951	-84.405365	89.648951	-0.043260	-34.871754
1.200000	-0.027163	-21.582869	-84.611479	94.704167	-84.611479	94.704167	-0.045092	-36.365646
1.250000	-0.028300	-22.471449	-84.741865	100.921880	-84.741865	100.921880	-0.046961	-37.857213
1.300000	-0.029442	-23.358860	-84.719789	108.265344	-84.719789	108.265344	-0.048867	-39.346276
1.350000	-0.030590	-24.245124	-84.482854	116.351184	-84.482854	116.351184	-0.050807	-40.832870
1.400000	-0.031741	-25.130220	-83.993239	124.632334	-83.993239	124.632334	-0.052779	-42.316932
1.450000	-0.032895	-26.014125	-83.259093	132.505644	-83.259093	132.505644	-0.054779	-43.798406
1.500000	-0.034051	-26.896818	-82.329255	139.505019	-82.329255	139.505019	-0.056806	-45.277239
1.550000	-0.035209	-27.778279	-81.270183	145.395545	-81.270183	145.395545	-0.058857	-46.753382
1.600000	-0.036368	-28.658490	-80.143858	150.147088	-80.143858	150.147088	-0.060928	-48.226792
1.650000	-0.037526	-29.537433	-78.997124	153.854298	-78.997124	153.854298	-0.063018	-49.697431
1.700000	-0.038684	-30.415089	-77.860765	156.663274	-77.860765	156.663274	-0.065123	-51.165263
1.750000	-0.039842	-31.291443	-76.752911	158.725986	-76.752911	158.725986	-0.067240	-52.630261
1.800000	-0.040999	-32.166477	-75.683066	160.178990	-75.683066	160.178990	-0.069365	-54.092400
1.850000	-0.042155	-33.040177	-74.655333	161.136792	-74.655333	161.136792	-0.071496	-55.551660
1.900000	-0.043310	-33.912527	-73.670623	161.692195	-73.670623	161.692195	-0.073629	-57.008028
1.950000	-0.044463	-34.783511	-72.728061	161.919242	-72.728061	161.919242	-0.075761	-58.461495
2.000000	-0.045616	-35.653116	-71.825835	161.876699	-71.825835	161.876699	-0.077889	-59.912056
2.050000	-0.046768	-36.521328	-70.961700	161.611229	-70.961700	161.611229	-0.080009	-61.359715
2.100000	-0.047919	-37.388133	-70.133268	161.160026	-70.133268	161.160026	-0.082119	-62.804477
2.150000	-0.049070	-38.253517	-69.338166	160.552912	-69.338166	160.552912	-0.084215	-64.246357
2.200000	-0.050220	-39.117469	-68.574124	159.813952	-68.574124	159.813952	-0.086294	-65.685371
2.250000	-0.051371	-39.979975	-67.839016	158.962707	-67.839016	158.962707	-0.088354	-67.121546
2.300000	-0.052522	-40.841023	-67.130876	158.015191	-67.130876	158.015191	-0.090391	-68.554909
2.350000	-0.053674	-41.700603	-66.447896	156.984606	-66.447896	156.984606	-0.092404	-69.985499
2.400000	-0.054828	-42.558703	-65.788426	155.881913	-65.788426	155.881913	-0.094390	-71.413355
2.450000	-0.055983	-43.415311	-65.150961	154.716269	-65.150961	154.716269	-0.096348	-72.838525
2.500000	-0.057141	-44.270419	-64.534127	153.495372	-64.534127	153.495372	-0.098277	-74.261062
2.550000	-0.058302	-45.123950	-63.935734	152.223877	-63.935734	152.223877	-0.100173	-75.680915
2.600000	-0.059466	-45.975960	-63.355696	150.909603	-63.355696	150.909603	-0.102039	-77.098263
2.650000	-0.060635	-46.826441	-62.792957	149.557194	-62.792957	149.557194	-0.103875	-78.513174
2.700000	-0.061808	-47.675384	-62.246551	148.170650	-62.246551	148.170650	-0.105681	-79.925720
2.750000	-0.062986	-48.522782	-61.715597	146.753428	-61.715597	146.753428	-0.107461	-81.335977
2.800000	-0.064170	-49.368628	-61.199287	145.308533	-61.199287	145.308533	-0.109216	-82.744023
2.850000	-0.065360	-50.212916	-60.696877	143.838585	-60.696877	143.838585	-0.110951	-84.149937
2.900000	-0.066558	-51.055640	-60.207686	142.345876	-60.207686	142.345876	-0.112669	-85.553801
2.950000	-0.067762	-51.896796	-59.731085	140.832424	-59.731085	140.832424	-0.114375	-86.955694
3.000000	-0.068975	-52.736378	-59.266492	139.300003	-59.266492	139.300003	-0.116076	-88.355695
3.050000	-0.070197	-53.574385	-58.813372	137.750185	-58.813372	137.750185	-0.117777	-89.753880
3.100000	-0.071428	-54.410813	-58.371227	136.184364	-58.371227	136.184364	-0.119486	-91.150324
3.150000	-0.072669	-55.245660	-57.939597	134.603779	-57.939597	134.603779	-0.121210	-92.545095
3.200000	-0.073921	-56.078926	-57.518053	133.009536	-57.518053	133.009536	-0.122955	-93.938259
3.250000	-0.075184	-56.910612	-57.106196	131.402621	-57.106196	131.402621	-0.124730	-95.329878
3.300000	-0.076458	-57.740718	-56.703655	129.783919	-56.703655	129.783919	-0.126540	-96.720009
3.350000	-0.077745	-58.569246	-56.310084	128.154219	-56.310084	128.154219	-0.128392	-98.108706
3.400000	-0.079046	-59.396201	-55.925159	126.514231	-55.925159	126.514231	-0.130292	-99.496019
3.450000	-0.080359	-60.221588	-55.548575	124.864592	-55.548575	124.864592	-0.132244	-100.881997
3.500000	-0.081687	-61.045411	-55.180049	123.205869	-55.180049	123.205869	-0.134253	-102.266689
3.550000	-0.083030	-61.867680	-54.819314	121.538571	-54.819314	121.538571	-0.136320	-103.650142
3.600000	-0.084389	-62.688404	-54.466120	119.863149	-54.466120	119.863149	-0.138450	-105.032407
3.650000	-0.085763	-63.507593	-54.120230	118.180002	-54.120230	118.180002	-0.140641	-106.413536
3.700000	-0.087154	-64.325260	-53.781422	116.489477	-53.781422	116.489477	-0.142894	-107.793588
3.750000	-0.088563	-65.141422	-53.449488	114.791876	-53.449488	114.791876	-0.145209	-109.172623
3.800000	-0.089991	-65.956030	-53.123993	113.087164	-53.123993	113.087164	-0.147586	-110.550672
3.850000	-0.091438	-66.769173	-52.805013	111.375847	-52.805013	111.375847	-0.150021	-111.927854
3.900000	-0.092905	-67.580873	-52.492371	109.658076	-52.492371	109.658076	-0.152511	-113.304251
3.950000	-0.094392	-68.391158	-52.185900	107.933950	-52.185900	107.933950	-0.155053	-114.679950
4.000000	-0.095900	-69.200057	-51.885440	106.203517	-51.885440	106.203517	-0.157645	-116.055046
4.050000	-0.097430	-70.007608	-51.590843	104.466764	-51.590843	104.466764	-0.160284	-117.429641
4.100000	-0.098984	-70.813851	-51.301968	102.723618	-51.301968	102.723618	-0.162967	-118.803841
4.150000	-0.100562	-71.618831	-51.018682	100.973933	-51.018682	100.973933	-0.165691	-120.177758
4.200000	-0.102165	-72.422604	-50.740863	99.217483	-50.740863	99.217483	-0.168455	-121.551511
4.250000	-0.103795	-73.225231	-50.468393	97.453949	-50.468393	97.453949	-0.171255	-122.925221
4.300000	-0.105453	-74.026784	-50.201168	95.682906	-50.201168	95.682906	-0.174092	-124.299014
4.350000	-0.107140	-74.827347	-49.939087	93.903801	-49.939087	93.903801	-0.176963	-125.673022
4.400000	-0.108860	-75.627018	-49.682064	92.115928	-49.682064	92.115928	-0.179868	-127.047377
4.450000	-0.110613	-76.425913	-49.430020	90.318399	-49.430020	90.318399	-0.182806	-128.422216
4.500000	-0.112403	-77.224169	-49.182889	88.510099	-49.182889	88.510099	-0.185778	-129.797680
4.550000	-0.114234	-78.021951	-48.940619	86.689638	-48.940619	86.689638	-0.188784	-131.173909
4.600000	-0.116109	-78.819456	-48.703174	84.855272	-48.703174	84.855272	-0.191826	-132.551050
4.650000	-0.118034	-79.616927	-48.470538	83.004816	-48.470538	83.004816	-0.194905	-133.929250
4.700000	-0.120016	-80.414661	-48.242722	81.135510	-48.242722	81.135510	-0.198023	-135.308661
4.750000	-0.122065	-81.213028	-48.019767	79.243843	-48.019767	79.243843	-0.201184	-136.689439
4.800000	-0.124192	-82.012498	-47.801759	77.325306	-47.801759	77.325306	-0.204391	-138.071742
4.850000	-0.126416	-82.813671	-47.588844	75.374033	-47.588844	75.374033	-0.207646	-139.455735
4.900000	-0.128758	-83.617331	-47.381249	73.382286	-47.381249	73.382286	-0.210955	-140.841588
4.950000	-0.131255	-84.424519	-47.179324	71.339672	-47.179324	71.339672	-0.214322	-142.229479
5.000000	-0.133957	-85.236651	-46.983594	69.231954	-46.983594	69.231954	-0.217750	-143.619595
5.050000	-0.136977	-86.056545	-46.795248	67.029262	-46.795248	67.029262	-0.221250	-145.012347
5.100000	-0.140382	-86.885592	-46.614931	64.719814	-46.614931	64.719814	-0.224813	-146.407494
5.150000	-0.144479	-87.730131	-46.445716	62.235855	-46.445716	62.235855	-0.228451	-147.805670
5.200000	-0.149596	-88.595485	-46.290479	59.522571	-46.290479	59.522571	-0.232157	-149.206810
5.250000	-0.156595	-89.494490	-46.156810	56.442025	-46.156810	56.442025	-0.235932	-150.611259
5.300000	-0.166995	-90.445388	-46.056950	52.792551	-46.056950	52.792551	-0.239770	-152.019145
5.350000	-0.185255	-91.491677	-46.025378	48.067427	-46.025378	48.067427	-0.243666	-153.430846
5.400000	-0.223921	-92.716853	-46.152745	41.156107	-46.152745	41.156107	-0.247609	-154.846477
5.450000	-0.334903	-94.301382	-46.813928	28.486464	-46.813928	28.486464	-0.251589	-156.266251
5.500000	-0.788119	-95.766036	-50.944087	-7.872698	-50.944087	-7.872698	-0.255593	-157.690304
5.550000	-0.969336	-90.378841	-49.154411	136.118842	-49.154411	136.118842	-0.259611	-159.118790
5.600000	-0.400327	-91.034129	-44.883526	89.346252	-44.883526	89.346252	-0.263633	-160.551827
5.650000	-0.259045	-92.661973	-44.303892	73.981837	-44.303892	73.981837	-0.267655	-161.989525
5.700000	-0.215263	-93.911927	-44.073471	66.228675	-44.073471	66.228675	-0.271671	-163.432134
5.750000	-0.197300	-94.965865	-43.904742	61.123424	-43.904742	61.123424	-0.275682	-164.879590
5.800000	-0.188689	-95.920273	-43.752015	57.206272	-43.752015	57.206272	-0.279689	-166.331655
5.850000	-0.185095	-96.806385	-43.605151	54.052678	-43.605151	54.052678	-0.283695	-167.789329
5.900000	-0.183577	-97.657784	-43.460559	51.269689	-43.460559	51.269689	-0.287705	-169.251745
5.950000	-0.183491	-98.481301	-43.317360	48.774665	-43.317360	48.774665	-0.291724	-170.719967
6.000000	-0.184175	-99.287644	-43.175525	46.451447	-43.175525	46.451447	-0.295757	-172.193410
6.050000	-0.185410	-100.080276	-43.035034	44.261212	-43.035034	44.261212	-0.299809	-173.672664
6.100000	-0.187021	-100.862583	-42.896015	42.167966	-42.896015	42.167966	-0.303884	-175.157785
6.150000	-0.188897	-101.637082	-42.758606	40.145592	-42.758606	40.145592	-0.307985	-176.648712
6.200000	-0.190993	-102.404609	-42.622858	38.184265	-42.622858	38.184265	-0.312118	-178.146208
6.250000	-0.193238	-103.167202	-42.488911	36.264527	-42.488911	36.264527	-0.316282	-179.649475
6.300000	-0.195632	-103.924664	-42.356781	34.386346	-42.356781	34.386346	-0.320484	178.839934
6.350000	-0.198127	-104.678569	-42.226559	32.535780	-42.226559	32.535780	-0.324720	177.323248
6.400000	-0.200725	-105.428833	-42.098281	30.712337	-42.098281	30.712337	-0.328995	175.799243
6.450000	-0.203405	-106.176174	-41.971978	28.909786	-41.971978	28.909786	-0.333307	174.268419
6.500000	-0.206162	-106.920802	-41.847685	27.125833	-41.847685	27.125833	-0.337657	172.730330
6.550000	-0.208991	-107.662933	-41.725433	25.358324	-41.725433	25.358324	-0.342045	171.184666
6.600000	-0.211882	-108.402967	-41.605218	23.604101	-41.605218	23.604101	-0.346468	169.631839
6.650000	-0.214840	-109.140806	-41.487113	21.863294	-41.487113	21.863294	-0.350931	168.070650
6.700000	-0.217858	-109.876747	-41.371119	20.133678	-41.371119	20.133678	-0.355430	166.501365
6.750000	-0.220929	-110.611070	-41.257204	18.413346	-41.257204	18.413346	-0.359961	164.924488
6.800000	-0.224055	-111.343786	-41.145411	16.702045	-41.145411	16.702045	-0.364524	163.339409
6.850000	-0.227235	-112.075000	-41.035752	14.999024	-41.035752	14.999024	-0.369119	161.745981
6.900000	-0.230468	-112.804808	-40.928239	13.303663	-40.928239	13.303663	-0.373742	160.144058
6.950000	-0.233752	-113.533297	-40.822885	11.615456	-40.822885	11.615456	-0.378393	158.533500
7.000000	-0.237087	-114.260546	-40.719701	9.933992	-40.719701	9.933992	-0.383069	156.914171
7.050000	-0.240473	-114.986627	-40.618698	8.258944	-40.618698	8.258944	-0.387768	155.285941
7.100000	-0.243909	-115.711607	-40.519888	6.590056	-40.519888	6.590056	-0.392488	153.648686
7.150000	-0.247395	-116.435549	-40.423280	4.927140	-40.423280	4.927140	-0.397227	152.002285
7.200000	-0.250931	-117.158511	-40.328885	3.270060	-40.328885	3.270060	-0.401980	150.346625
7.250000	-0.254518	-117.880551	-40.236712	1.618737	-40.236712	1.618737	-0.406748	148.681601
7.300000	-0.258154	-118.601721	-40.146771	-0.026864	-40.146771	-0.026864	-0.411525	147.007112
7.350000	-0.261840	-119.322072	-40.059071	-1.666735	-40.059071	-1.666735	-0.416310	145.323065
7.400000	-0.265576	-120.041655	-39.973618	-3.300827	-39.973618	-3.300827	-0.421100	143.629376
7.450000	-0.269363	-120.760516	-39.890419	-4.929055	-39.890419	-4.929055	-0.425891	141.925969
7.500000	-0.273200	-121.478702	-39.809482	-6.551300	-39.809482	-6.551300	-0.430682	140.212775
7.550000	-0.277090	-122.196234	-39.730878	-8.167136	-39.730878	-8.167136	-0.435467	138.489305
7.600000	-0.281030	-122.913185	-39.654546	-9.776639	-39.654546	-9.776639	-0.440245	136.755936
7.650000	-0.285022	-123.629599	-39.580487	-11.379596	-39.580487	-11.379596	-0.445012	135.012630
7.700000	-0.289065	-124.345520	-39.508701	-12.975769	-39.508701	-12.975769	-0.449765	133.259360
7.750000	-0.293160	-125.060988	-39.439187	-14.564896	-39.439187	-14.564896	-0.454500	131.496109
7.800000	-0.297307	-125.776048	-39.371939	-16.146689	-39.371939	-16.146689	-0.459216	129.722872
7.850000	-0.301506	-126.490741	-39.306953	-17.720843	-39.306953	-17.720843	-0.463907	127.939655
7.900000	-0.305757	-127.205109	-39.244219	-19.287031	-39.244219	-19.287031	-0.468572	126.146478
7.950000	-0.310062	-127.919194	-39.183727	-20.844907	-39.183727	-20.844907	-0.473207	124.343372
8.000000	-0.314419	-128.633037	-39.125465	-22.394107	-39.125465	-22.394107	-0.477809	122.530383
8.050000	-0.318830	-129.346680	-39.069416	-23.934253	-39.069416	-23.934253	-0.482375	120.707569
8.100000	-0.323295	-130.060164	-39.015563	-25.464951	-39.015563	-25.464951	-0.486903	118.875004
8.150000	-0.327808	-130.773541	-38.963642	-26.987134	-38.963642	-26.987134	-0.491394	117.034021
8.200000	-0.332382	-131.486828	-38.914135	-28.497644	-38.914135	-28.497644	-0.495836	115.182111
8.250000	-0.337011	-132.200083	-38.866754	-29.997438	-38.866754	-29.997438	-0.500230	113.320758
8.300000	-0.341696	-132.913349	-38.821469	-31.486078	-38.821469	-31.486078	-0.504575	111.450096
8.350000	-0.346436	-133.626668	-38.778249	-32.963112	-38.778249	-32.963112	-0.508868	109.570274
8.400000	-0.351233	-134.340082	-38.737059	-34.428084	-38.737059	-34.428084	-0.513108	107.681458
8.450000	-0.356085	-135.053636	-38.697861	-35.880530	-38.697861	-35.880530	-0.517292	105.783831
8.500000	-0.360995	-135.767371	-38.660615	-37.319980	-38.660615	-37.319980	-0.521419	103.877591
8.550000	-0.365961	-136.481333	-38.625279	-38.745960	-38.625279	-38.745960	-0.525487	101.962954
8.600000	-0.370986	-137.195565	-38.591806	-40.157993	-38.591806	-40.157993	-0.529495	100.040153
8.650000	-0.376068	-137.910111	-38.560148	-41.555595	-38.560148	-41.555595	-0.533443	98.109438
8.700000	-0.381208	-138.625018	-38.530256	-42.938285	-38.530256	-42.938285	-0.537329	96.171075
8.750000	-0.386407	-139.340329	-38.502075	-44.305575	-38.502075	-44.305575	-0.541153	94.225347
8.800000	-0.391666	-140.056102	-38.475585	-45.656621	-38.475585	-45.656621	-0.544914	92.272408
8.850000	-0.396985	-140.772374	-38.450691	-46.991268	-38.450691	-46.991268	-0.548613	90.312736
8.900000	-0.402363	-141.489192	-38.427336	-48.309026	-38.427336	-48.309026	-0.552252	88.346666
8.950000	-0.407802	-142.206604	-38.405457	-49.609404	-38.405457	-49.609404	-0.555830	86.374549
9.000000	-0.413301	-142.924657	-38.384992	-50.891909	-38.384992	-50.891909	-0.559349	84.396751
9.050000	-0.418861	-143.643400	-38.365877	-52.156046	-38.365877	-52.156046	-0.562811	82.413653
9.100000	-0.424483	-144.362882	-38.348045	-53.401319	-38.348045	-53.401319	-0.566218	80.425651
9.150000	-0.430166	-145.083152	-38.331431	-54.627231	-38.331431	-54.627231	-0.569572	78.433158
9.200000	-0.435912	-145.804260	-38.315966	-55.833279	-38.315966	-55.833279	-0.572876	76.436597
9.250000	-0.441720	-146.526258	-38.301583	-57.018958	-38.301583	-57.018958	-0.576133	74.436405
9.300000	-0.447591	-147.249197	-38.288213	-58.183759	-38.288213	-58.183759	-0.579345	72.433034
9.350000	-0.453525	-147.973128	-38.275786	-59.327164	-38.275786	-59.327164	-0.582518	70.426945
9.400000	-0.459523	-148.698117	-38.264243	-60.448408	-38.264243	-60.448408	-0.585654	68.418591
9.450000	-0.465586	-149.424219	-38.253512	-61.546941	-38.253512	-61.546941	-0.588758	66.408472
9.500000	-0.471714	-150.151477	-38.243516	-62.622457	-38.243516	-62.622457	-0.591835	64.397103
9.550000	-0.477906	-150.879946	-38.234188	-63.674404	-38.234188	-63.674404	-0.594891	62.384986
9.600000	-0.484164	-151.609680	-38.225460	-64.702213	-38.225460	-64.702213	-0.597930	60.372627
9.650000	-0.490487	-152.340738	-38.217269	-65.705302	-38.217269	-65.705302	-0.600959	58.360537
9.700000	-0.496877	-153.073176	-38.209551	-66.683068	-38.209551	-66.683068	-0.603983	56.349236
9.750000	-0.503332	-153.807052	-38.202244	-67.634891	-38.202244	-67.634891	-0.607007	54.339244
9.800000	-0.509855	-154.542425	-38.195290	-68.560127	-38.195290	-68.560127	-0.610040	52.331085
9.850000	-0.516445	-155.279354	-38.188633	-69.458108	-38.188633	-69.458108	-0.613086	50.325283
9.900000	-0.523102	-156.017900	-38.182220	-70.328137	-38.182220	-70.328137	-0.616153	48.322366
9.950000	-0.529827	-156.758125	-38.176002	-71.169487	-38.176002	-71.169487	-0.619247	46.322857
10.000000	-0.536620	-157.500091	-38.169935	-71.981399	-38.169935	-71.981399	-0.622375	44.327279
