! freq	dB(S11)	phase(S11)	dB(S12)	phase(S12)	
!     	dB(S21)	phase(S21)	dB(S22)	phase(S22)	
!S-par simulation data
#  GHz  S  DB  R 50
0.000000	-0.000000	0.000000	-364.516542	0.000000	-364.516542	0.000000	-0.000000	0.000000
0.050000	-0.000124	-1.014001	-107.958886	87.519158	-107.958886	87.519158	-0.000116	-0.944029
0.100000	-0.000490	-2.027700	-102.101826	85.406296	-102.101826	85.406296	-0.000459	-1.887780
0.150000	-0.001085	-3.040815	-98.795799	83.792471	-98.795799	83.792471	-0.001016	-2.830992
0.200000	-0.001886	-4.053112	-96.527578	82.602364	-96.527578	82.602364	-0.001766	-3.773450
0.250000	-0.002877	-5.064322	-94.825388	81.722358	-94.825388	81.722358	-0.002696	-4.714903
0.300000	-0.004014	-6.074390	-93.471748	81.017523	-93.471748	81.017523	-0.003763	-5.655299
0.350000	-0.005276	-7.083168	-92.364989	80.435254	-92.364989	80.435254	-0.004948	-6.594500
0.400000	-0.006635	-8.090589	-91.444605	79.941335	-91.444605	79.941335	-0.006225	-7.532443
0.450000	-0.008067	-9.096622	-90.673319	79.523767	-90.673319	79.523767	-0.007569	-8.469098
0.500000	-0.009548	-10.101262	-90.026713	79.184750	-90.026713	79.184750	-0.008961	-9.404461
0.550000	-0.011060	-11.104520	-89.488075	78.935898	-89.488075	78.935898	-0.010381	-10.338548
0.600000	-0.012589	-12.106422	-89.045611	78.795859	-89.045611	78.795859	-0.011815	-11.271383
0.650000	-0.014122	-13.106998	-88.690842	78.789543	-88.690842	78.789543	-0.013253	-12.202999
0.700000	-0.015652	-14.106278	-88.417582	78.948420	-88.417582	78.948420	-0.014684	-13.133429
0.750000	-0.017170	-15.104290	-88.221234	79.311619	-88.221234	79.311619	-0.016103	-14.062705
0.800000	-0.018674	-16.101061	-88.098197	79.927722	-88.098197	79.927722	-0.017506	-14.990856
0.850000	-0.020161	-17.096607	-88.045287	80.857195	-88.045287	80.857195	-0.018891	-15.917905
0.900000	-0.021629	-18.090944	-88.059011	82.175396	-88.059011	82.175396	-0.020255	-16.843869
0.950000	-0.023077	-19.084078	-88.134561	83.975852	-88.134561	83.975852	-0.021598	-17.768759
1.000000	-0.024506	-20.076012	-88.264296	86.372983	-88.264296	86.372983	-0.022922	-18.692582
1.050000	-0.025917	-21.066742	-88.435483	89.502261	-88.435483	89.502261	-0.024226	-19.615340
1.100000	-0.027310	-22.056261	-88.627103	93.513644	-88.627103	93.513644	-0.025513	-20.537026
1.150000	-0.028686	-23.044560	-88.805949	98.551008	-88.805949	98.551008	-0.026782	-21.457635
1.200000	-0.030046	-24.031622	-88.923441	104.707861	-88.923441	104.707861	-0.028037	-22.377155
1.250000	-0.031393	-25.017432	-88.916690	111.954260	-88.916690	111.954260	-0.029277	-23.295571
1.300000	-0.032726	-26.001915	-88.707937	120.068039	-88.707937	120.068039	-0.030505	-24.212816
1.350000	-0.034047	-26.985104	-88.257012	128.509427	-88.257012	128.509427	-0.031721	-25.128920
1.400000	-0.035358	-27.966978	-87.560245	136.685296	-87.560245	136.685296	-0.032929	-26.043862
1.450000	-0.036659	-28.947515	-86.656807	144.093911	-86.656807	144.093911	-0.034128	-26.957620
1.500000	-0.037952	-29.926690	-85.609268	150.447087	-85.609268	150.447087	-0.035320	-27.870171
1.550000	-0.039237	-30.904481	-84.480611	155.669587	-84.480611	155.669587	-0.036505	-28.781493
1.600000	-0.040516	-31.880863	-83.320885	159.828374	-83.320885	159.828374	-0.037686	-29.691561
1.650000	-0.041789	-32.855814	-82.164274	163.057084	-82.164274	163.057084	-0.038862	-30.600352
1.700000	-0.043057	-33.829311	-81.031646	165.504832	-81.031646	165.504832	-0.040036	-31.507842
1.750000	-0.044321	-34.801329	-79.934440	167.310143	-79.934440	167.310143	-0.041206	-32.414007
1.800000	-0.045582	-35.771847	-78.878036	168.591353	-78.878036	168.591353	-0.042375	-33.318824
1.850000	-0.046840	-36.740843	-77.864154	169.445429	-77.864154	169.445429	-0.043542	-34.222268
1.900000	-0.048096	-37.708294	-76.892413	169.950264	-76.892413	169.950264	-0.044708	-35.124316
1.950000	-0.049351	-38.674181	-75.961296	170.167940	-75.961296	170.167940	-0.045875	-36.024947
2.000000	-0.050605	-39.638483	-75.068727	170.147882	-75.068727	170.147882	-0.047042	-36.924138
2.050000	-0.051859	-40.601182	-74.212405	169.929564	-74.212405	169.929564	-0.048209	-37.821866
2.100000	-0.053113	-41.562258	-73.389999	169.544668	-73.389999	169.544668	-0.049378	-38.718112
2.150000	-0.054368	-42.521694	-72.599251	169.018794	-72.599251	169.018794	-0.050549	-39.612853
2.200000	-0.055625	-43.479473	-71.838025	168.372769	-71.838025	168.372769	-0.051722	-40.506070
2.250000	-0.056884	-44.435581	-71.104336	167.623662	-71.104336	167.623662	-0.052898	-41.397744
2.300000	-0.058147	-45.390002	-70.396354	166.785563	-70.396354	166.785563	-0.054077	-42.287856
2.350000	-0.059412	-46.342723	-69.712399	165.870184	-69.712399	165.870184	-0.055259	-43.176387
2.400000	-0.060681	-47.293731	-69.050934	164.887328	-69.050934	164.887328	-0.056446	-44.063319
2.450000	-0.061955	-48.243016	-68.410557	163.845253	-68.410557	163.845253	-0.057636	-44.948636
2.500000	-0.063234	-49.190567	-67.789983	162.750958	-67.789983	162.750958	-0.058832	-45.832321
2.550000	-0.064519	-50.136300	-67.187043	161.608637	-67.187043	161.608637	-0.060032	-46.714287
2.600000	-0.065810	-51.080283	-66.601775	160.425571	-66.601775	160.425571	-0.061239	-47.594588
2.650000	-0.067108	-52.022510	-66.033181	159.206083	-66.033181	159.206083	-0.062451	-48.473211
2.700000	-0.068413	-52.962977	-65.480346	157.953926	-65.480346	157.953926	-0.063669	-49.350142
2.750000	-0.069727	-53.901681	-64.942429	156.672367	-64.942429	156.672367	-0.064895	-50.225368
2.800000	-0.071048	-54.838622	-64.418656	155.364263	-64.418656	155.364263	-0.066127	-51.098877
2.850000	-0.072379	-55.773800	-63.908312	154.032122	-63.908312	154.032122	-0.067368	-51.970656
2.900000	-0.073720	-56.707217	-63.410736	152.678155	-63.410736	152.678155	-0.068616	-52.840695
2.950000	-0.075072	-57.638880	-62.925318	151.304311	-62.925318	151.304311	-0.069873	-53.708984
3.000000	-0.076434	-58.568794	-62.451487	149.912320	-62.451487	149.912320	-0.071139	-54.575512
3.050000	-0.077808	-59.496968	-61.988716	148.503715	-61.988716	148.503715	-0.072414	-55.440270
3.100000	-0.079194	-60.423416	-61.536512	147.079860	-61.536512	147.079860	-0.073699	-56.303251
3.150000	-0.080593	-61.348150	-61.094415	145.641970	-61.094415	145.641970	-0.074994	-57.164446
3.200000	-0.082006	-62.271189	-60.661993	144.191129	-60.661993	144.191129	-0.076300	-58.023848
3.250000	-0.083434	-63.192553	-60.238843	142.728302	-60.238843	142.728302	-0.077617	-58.881450
3.300000	-0.084876	-64.112268	-59.824585	141.254348	-59.824585	141.254348	-0.078946	-59.737248
3.350000	-0.086335	-65.030361	-59.418862	139.770030	-59.418862	139.770030	-0.080287	-60.591235
3.400000	-0.087810	-65.946866	-59.021335	138.276027	-59.021335	138.276027	-0.081641	-61.443407
3.450000	-0.089303	-66.861822	-58.631687	136.772935	-58.631687	136.772935	-0.083007	-62.293761
3.500000	-0.090814	-67.775272	-58.249615	135.261275	-58.249615	135.261275	-0.084387	-63.142292
3.550000	-0.092346	-68.687268	-57.874831	133.741497	-57.874831	133.741497	-0.085781	-63.988999
3.600000	-0.093898	-69.597868	-57.507061	132.213985	-57.507061	132.213985	-0.087190	-64.833879
3.650000	-0.095472	-70.507140	-57.146043	130.679054	-57.146043	130.679054	-0.088613	-65.676932
3.700000	-0.097070	-71.415161	-56.791527	129.136952	-56.791527	129.136952	-0.090052	-66.518155
3.750000	-0.098692	-72.322022	-56.443271	127.587860	-56.443271	127.587860	-0.091506	-67.357551
3.800000	-0.100343	-73.227788	-56.100717	126.031587	-56.100717	126.031587	-0.092978	-68.195038
3.850000	-0.102023	-74.132632	-55.763981	124.468459	-55.763981	124.468459	-0.094466	-69.030699
3.900000	-0.103734	-75.036703	-55.432838	122.898408	-55.432838	122.898408	-0.095972	-69.864535
3.950000	-0.105480	-75.940171	-55.107067	121.321271	-55.107067	121.321271	-0.097496	-70.696549
4.000000	-0.107265	-76.843242	-54.786449	119.736770	-54.786449	119.736770	-0.099038	-71.526743
4.050000	-0.109092	-77.746162	-54.470762	118.144489	-54.470762	118.144489	-0.100599	-72.355122
4.100000	-0.110967	-78.649228	-54.159782	116.543851	-54.159782	116.543851	-0.102179	-73.181690
4.150000	-0.112898	-79.552800	-53.853279	114.934068	-53.853279	114.934068	-0.103779	-74.006452
4.200000	-0.114893	-80.457324	-53.551010	113.314094	-53.551010	113.314094	-0.105398	-74.829413
4.250000	-0.116965	-81.363358	-53.252714	111.682544	-53.252714	111.682544	-0.107039	-75.650580
4.300000	-0.119130	-82.271603	-52.958109	110.037582	-52.958109	110.037582	-0.108701	-76.469959
4.350000	-0.121410	-83.182965	-52.666876	108.376766	-52.666876	108.376766	-0.110384	-77.287557
4.400000	-0.123837	-84.098623	-52.378646	106.696808	-52.378646	106.696808	-0.112090	-78.103383
4.450000	-0.126457	-85.020153	-52.092982	104.993222	-52.092982	104.993222	-0.113818	-78.917444
4.500000	-0.129335	-85.949702	-51.809346	103.259764	-51.809346	103.259764	-0.115568	-79.729751
4.550000	-0.132578	-86.890280	-51.527055	101.487525	-51.527055	101.487525	-0.117343	-80.540313
4.600000	-0.136353	-87.846239	-51.245208	99.663410	-51.245208	99.663410	-0.119141	-81.349140
4.650000	-0.140943	-88.824110	-50.962578	97.767416	-50.962578	97.767416	-0.120963	-82.156243
4.700000	-0.146859	-89.834155	-50.677433	95.767500	-50.677433	95.767500	-0.122810	-82.961635
4.750000	-0.155090	-90.893427	-50.387263	93.609119	-50.387263	93.609119	-0.124681	-83.765329
4.800000	-0.167056	-92.022178	-50.090139	91.225735	-50.090139	91.225735	-0.126576	-84.567448
4.850000	-0.188656	-93.294618	-49.777461	88.364569	-49.777461	88.364569	-0.128497	-85.367767
4.900000	-0.233810	-94.827770	-49.446759	84.583539	-49.446759	84.583539	-0.130441	-86.166464
4.950000	-0.361029	-96.932820	-49.126413	78.456695	-49.126413	78.456695	-0.132407	-86.963590
5.000000	-0.919997	-99.839330	-49.350140	64.551169	-49.350140	64.551169	-0.134410	-87.759444
5.050000	-1.777056	-90.902315	-56.254226	66.801738	-56.254226	66.801738	-0.136650	-88.553324
5.100000	-0.567891	-90.487606	-51.911171	97.890393	-51.911171	97.890393	-0.138692	-89.344459
5.150000	-0.306795	-93.038306	-50.232997	93.408290	-50.232997	93.408290	-0.140746	-90.134822
5.200000	-0.233087	-94.786456	-49.514636	89.776265	-49.514636	89.776265	-0.142853	-90.923717
5.250000	-0.203909	-96.156660	-49.054781	86.931999	-49.054781	86.931999	-0.144998	-91.711095
5.300000	-0.191174	-97.325549	-48.703924	84.551915	-48.703924	84.551915	-0.147181	-92.496787
5.350000	-0.184283	-98.402711	-48.399722	82.391747	-48.399722	82.391747	-0.149394	-93.281111
5.400000	-0.180915	-99.414632	-48.126283	80.390648	-48.126283	80.390648	-0.151639	-94.063956
5.450000	-0.179520	-100.383686	-47.872643	78.495184	-47.872643	78.495184	-0.153917	-94.845339
5.500000	-0.179391	-101.321048	-47.633157	76.678165	-47.633157	76.678165	-0.156230	-95.625147
5.550000	-0.180007	-102.237349	-47.403678	74.913278	-47.403678	74.913278	-0.158577	-96.403498
5.600000	-0.181123	-103.138153	-47.181998	73.186655	-47.181998	73.186655	-0.160956	-97.180449
5.650000	-0.182656	-104.024890	-46.966717	71.494609	-46.966717	71.494609	-0.163377	-97.955718
5.700000	-0.184380	-104.904934	-46.756855	69.818977	-46.756855	69.818977	-0.165820	-98.730082
5.750000	-0.186375	-105.774848	-46.551468	68.168089	-46.551468	68.168089	-0.168310	-99.502644
5.800000	-0.188461	-106.641362	-46.350639	66.525506	-46.350639	66.525506	-0.170816	-100.274585
5.850000	-0.190789	-107.498498	-46.152930	64.905881	-46.152930	64.905881	-0.173381	-101.044298
5.900000	-0.193173	-108.353508	-45.959046	63.291550	-45.959046	63.291550	-0.175966	-101.813362
5.950000	-0.195692	-109.203355	-45.768028	61.690074	-45.768028	61.690074	-0.178595	-102.580851
6.000000	-0.198298	-110.050065	-45.579862	60.096734	-45.579862	60.096734	-0.181260	-103.347145
6.050000	-0.200975	-110.894268	-45.394701	58.509901	-45.394701	58.509901	-0.183953	-104.112482
6.100000	-0.203765	-111.734852	-45.211380	56.933212	-45.211380	56.933212	-0.186701	-104.876116
6.150000	-0.206591	-112.574353	-45.031186	55.359672	-45.031186	55.359672	-0.189466	-105.639207
6.200000	-0.209535	-113.410717	-44.852221	53.796184	-44.852221	53.796184	-0.192292	-106.400462
6.250000	-0.212524	-114.246195	-44.675857	52.236235	-44.675857	52.236235	-0.195142	-107.161048
6.300000	-0.215596	-115.080011	-44.501133	50.682940	-44.501133	50.682940	-0.198037	-107.920376
6.350000	-0.218750	-115.912796	-44.327891	49.135740	-44.327891	49.135740	-0.200974	-108.678576
6.400000	-0.221955	-116.744925	-44.156811	47.592419	-44.156811	47.592419	-0.203939	-109.436057
6.450000	-0.225291	-117.576416	-43.985824	46.058120	-43.985824	46.058120	-0.206965	-110.191992
6.500000	-0.228670	-118.407884	-43.817063	44.526681	-43.817063	44.526681	-0.210010	-110.947472
6.550000	-0.232206	-119.239772	-43.647711	43.004979	-43.647711	43.004979	-0.213117	-111.701501
6.600000	-0.235841	-120.072567	-43.479244	41.488590	-43.479244	41.488590	-0.216253	-112.454884
6.650000	-0.239625	-120.906706	-43.310558	39.980077	-43.310558	39.980077	-0.219434	-113.207311
6.700000	-0.243602	-121.743308	-43.140924	38.479961	-43.140924	38.479961	-0.222654	-113.958920
6.750000	-0.247881	-122.584076	-42.968453	36.991068	-42.968453	36.991068	-0.225921	-114.709567
6.800000	-0.252580	-123.430840	-42.791731	35.513936	-42.791731	35.513936	-0.229232	-115.459382
6.850000	-0.257957	-124.286836	-42.607710	34.049831	-42.607710	34.049831	-0.232585	-116.208386
6.900000	-0.264258	-125.154488	-42.414422	32.597080	-42.414422	32.597080	-0.235976	-116.956699
6.950000	-0.272941	-126.047644	-42.197123	31.152372	-42.197123	31.152372	-0.239413	-117.704113
7.000000	-0.286581	-126.981231	-41.938867	29.678288	-41.938867	29.678288	-0.242885	-118.450735
7.050000	-0.314209	-127.988636	-41.592711	27.999385	-41.592711	27.999385	-0.246372	-119.196486
7.100000	-0.390738	-129.075513	-41.065317	25.159043	-41.065317	25.159043	-0.249787	-119.941358
7.150000	-0.587337	-129.266673	-40.721253	16.764992	-40.721253	16.764992	-0.252962	-120.687678
7.200000	-0.459537	-128.577445	-41.934491	13.274143	-41.934491	13.274143	-0.256875	-121.435514
7.250000	-0.348192	-129.592411	-42.118875	15.878939	-42.118875	15.878939	-0.260853	-122.179285
7.300000	-0.316540	-130.634610	-41.955290	16.344562	-41.955290	16.344562	-0.264715	-122.922320
7.350000	-0.307022	-131.588900	-41.767760	15.784625	-41.767760	15.784625	-0.268572	-123.665019
7.400000	-0.304759	-132.490977	-41.592266	14.802086	-41.592266	14.802086	-0.272459	-124.407377
7.450000	-0.305472	-133.363401	-41.429157	13.619687	-41.429157	13.619687	-0.276388	-125.149390
7.500000	-0.307510	-134.219576	-41.274968	12.339503	-41.274968	12.339503	-0.280358	-125.891109
7.550000	-0.310434	-135.063203	-41.128448	10.989753	-41.128448	10.989753	-0.284379	-126.632500
7.600000	-0.313831	-135.899341	-40.987486	9.601275	-40.987486	9.601275	-0.288449	-127.373620
7.650000	-0.317546	-136.730234	-40.851014	8.186791	-40.851014	8.186791	-0.292569	-128.114500
7.700000	-0.321487	-137.557369	-40.718285	6.754150	-40.718285	6.754150	-0.296739	-128.855171
7.750000	-0.325601	-138.381776	-40.588765	5.308401	-40.588765	5.308401	-0.300962	-129.595670
7.800000	-0.329854	-139.204193	-40.462067	3.852900	-40.462067	3.852900	-0.305236	-130.336030
7.850000	-0.334221	-140.025169	-40.337904	2.389928	-40.337904	2.389928	-0.309564	-131.076287
7.900000	-0.338689	-140.845124	-40.216064	0.921053	-40.216064	0.921053	-0.313945	-131.816478
7.950000	-0.343275	-141.664273	-40.096538	-0.554025	-40.096538	-0.554025	-0.318401	-132.556643
8.000000	-0.347907	-142.483160	-39.978864	-2.031364	-39.978864	-2.031364	-0.322887	-133.296806
8.050000	-0.352631	-143.301898	-39.863265	-3.513176	-39.863265	-3.513176	-0.327443	-134.037036
8.100000	-0.357423	-144.120530	-39.749538	-4.998183	-39.749538	-4.998183	-0.332049	-134.777314
8.150000	-0.362291	-144.939400	-39.637802	-6.487195	-39.637802	-6.487195	-0.336721	-135.517725
8.200000	-0.367234	-145.758507	-39.528000	-7.980212	-39.528000	-7.980212	-0.341458	-136.258269
8.250000	-0.372242	-146.578051	-39.420258	-9.477790	-39.420258	-9.477790	-0.346256	-136.998975
8.300000	-0.377338	-147.398206	-39.314788	-10.981755	-39.314788	-10.981755	-0.351139	-137.739909
8.350000	-0.382475	-148.218711	-39.211235	-12.489591	-39.211235	-12.489591	-0.356063	-138.480952
8.400000	-0.387721	-149.040225	-39.110971	-14.009329	-39.110971	-14.009329	-0.361101	-139.222288
8.450000	-0.393057	-149.862598	-39.014336	-15.541634	-39.014336	-15.541634	-0.366240	-139.963806
8.500000	-0.398496	-150.685908	-38.922659	-17.091030	-38.922659	-17.091030	-0.371496	-140.705416
8.550000	-0.404062	-151.510197	-38.838446	-18.663514	-38.838446	-18.663514	-0.376901	-141.446901
8.600000	-0.409797	-152.335410	-38.766800	-20.264892	-38.766800	-20.264892	-0.382493	-142.187750
8.650000	-0.415781	-153.161179	-38.718927	-21.888611	-38.718927	-21.888611	-0.388311	-142.926703
8.700000	-0.422119	-153.986045	-38.719710	-23.445056	-38.719710	-23.445056	-0.394236	-143.660607
8.750000	-0.428610	-154.805402	-38.798372	-24.419675	-38.798372	-24.419675	-0.399103	-144.384054
8.800000	-0.433053	-155.618954	-38.752762	-23.809187	-38.752762	-23.809187	-0.399556	-145.113931
8.850000	-0.436244	-156.452155	-38.414153	-24.371215	-38.414153	-24.371215	-0.401331	-145.881554
8.900000	-0.440959	-157.293400	-38.158089	-26.120359	-38.158089	-26.120359	-0.406501	-146.648437
8.950000	-0.446638	-158.134155	-38.004852	-27.997126	-38.004852	-27.997126	-0.412682	-147.405953
9.000000	-0.452576	-158.974504	-37.889414	-29.747813	-37.889414	-29.747813	-0.418835	-148.159524
9.050000	-0.458604	-159.815471	-37.787763	-31.407072	-37.787763	-31.407072	-0.424893	-148.912001
9.100000	-0.464690	-160.657681	-37.692901	-33.003824	-37.692901	-33.003824	-0.430889	-149.664435
9.150000	-0.470837	-161.501869	-37.601990	-34.554358	-37.601990	-34.554358	-0.436861	-150.417539
9.200000	-0.477027	-162.347599	-37.513162	-36.081991	-37.513162	-36.081991	-0.442835	-151.171318
9.250000	-0.483277	-163.195697	-37.426070	-37.588890	-37.426070	-37.588890	-0.448831	-151.926289
9.300000	-0.489568	-164.045318	-37.340262	-39.084959	-37.340262	-39.084959	-0.454844	-152.682048
9.350000	-0.495926	-164.897752	-37.255814	-40.566512	-37.255814	-40.566512	-0.460893	-153.439313
9.400000	-0.502343	-165.752656	-37.172498	-42.039783	-37.172498	-42.039783	-0.466972	-154.197913
9.450000	-0.508801	-166.609289	-37.090186	-43.507672	-37.090186	-43.507672	-0.473074	-154.957444
9.500000	-0.515333	-167.469315	-37.009014	-44.967508	-37.009014	-44.967508	-0.479215	-155.718784
9.550000	-0.521924	-168.332102	-36.928873	-46.422391	-36.928873	-46.422391	-0.485391	-156.481571
9.600000	-0.528564	-169.197293	-36.849706	-47.873454	-36.849706	-47.873454	-0.491599	-157.245610
9.650000	-0.535258	-170.065167	-36.771518	-49.320689	-36.771518	-49.320689	-0.497841	-158.011040
9.700000	-0.542024	-170.937031	-36.694425	-50.763235	-36.694425	-50.763235	-0.504136	-158.778532
9.750000	-0.548838	-171.811590	-36.618279	-52.203060	-36.618279	-52.203060	-0.510468	-159.547416
9.800000	-0.555698	-172.688890	-36.543071	-53.640262	-36.543071	-53.640262	-0.516838	-160.317718
9.850000	-0.562618	-173.570053	-36.468898	-55.074136	-36.468898	-55.074136	-0.523260	-161.090021
9.900000	-0.569591	-174.454985	-36.395740	-56.505142	-36.395740	-56.505142	-0.529731	-161.864281
9.950000	-0.576604	-175.342960	-36.323508	-57.933983	-36.323508	-57.933983	-0.536243	-162.640126
10.000000	-0.583656	-176.234025	-36.252191	-59.360711	-36.252191	-59.360711	-0.542795	-163.417581
