! freq	dB(S11)	phase(S11)	dB(S12)	phase(S12)	
!     	dB(S21)	phase(S21)	dB(S22)	phase(S22)	
!S-par simulation data
#  GHz  S  DB  R 50
0.000000	-0.000000	0.000000	-356.110116	0.000000	-356.110116	0.000000	-0.000000	0.000000
0.050000	-0.000107	-0.868437	-112.734163	88.464822	-112.734163	88.464822	-0.000118	-0.964840
0.100000	-0.000425	-1.736619	-106.805259	87.023167	-106.805259	87.023167	-0.000469	-1.929394
0.150000	-0.000940	-2.604308	-103.425424	85.736876	-103.425424	85.736876	-0.001038	-2.893397
0.200000	-0.001634	-3.471307	-101.107854	84.626475	-101.107854	84.626475	-0.001805	-3.856627
0.250000	-0.002494	-4.337391	-99.390643	83.698025	-99.390643	83.698025	-0.002756	-4.818827
0.300000	-0.003480	-5.202513	-98.053292	82.920118	-98.053292	82.920118	-0.003847	-5.779941
0.350000	-0.004574	-6.066549	-96.990772	82.287529	-96.990772	82.287529	-0.005059	-6.739828
0.400000	-0.005752	-6.929449	-96.139295	81.795553	-96.139295	81.795553	-0.006365	-7.698421
0.450000	-0.006992	-7.791188	-95.459706	81.449856	-95.459706	81.449856	-0.007742	-8.655689
0.500000	-0.008275	-8.651768	-94.927158	81.267419	-94.927158	81.267419	-0.009166	-9.611625
0.550000	-0.009584	-9.511207	-94.525741	81.277506	-94.525741	81.277506	-0.010620	-10.566243
0.600000	-0.010905	-10.369533	-94.245455	81.523573	-94.245455	81.523573	-0.012088	-11.519568
0.650000	-0.012228	-11.226780	-94.080367	82.066750	-94.080367	82.066750	-0.013560	-12.471632
0.700000	-0.013545	-12.082982	-94.027268	82.991539	-94.027268	82.991539	-0.015026	-13.422467
0.750000	-0.014851	-12.938173	-94.084385	84.414473	-94.084385	84.414473	-0.016479	-14.372106
0.800000	-0.016143	-13.792382	-94.249568	86.496504	-94.249568	86.496504	-0.017916	-15.320577
0.850000	-0.017416	-14.645633	-94.517101	89.458992	-94.517101	89.458992	-0.019333	-16.267903
0.900000	-0.018672	-15.497945	-94.871680	93.599459	-94.871680	93.599459	-0.020730	-17.214100
0.950000	-0.019908	-16.349332	-95.277394	99.291769	-95.277394	99.291769	-0.022105	-18.159181
1.000000	-0.021127	-17.199801	-95.660488	106.929740	-95.660488	106.929740	-0.023460	-19.103151
1.050000	-0.022328	-18.049357	-95.892428	116.742526	-95.892428	116.742526	-0.024795	-20.046010
1.100000	-0.023512	-18.897996	-95.800321	128.449963	-95.800321	128.449963	-0.026111	-20.987754
1.150000	-0.024682	-19.745716	-95.241931	140.977320	-95.241931	140.977320	-0.027409	-21.928374
1.200000	-0.025838	-20.592506	-94.211209	152.758047	-94.211209	152.758047	-0.028692	-22.867858
1.250000	-0.026982	-21.438356	-92.845066	162.613510	-92.845066	162.613510	-0.029961	-23.806191
1.300000	-0.028114	-22.283211	-91.304564	170.130719	-91.304564	170.130719	-0.031216	-24.743304
1.350000	-0.029237	-23.127094	-89.737675	175.682015	-89.737675	175.682015	-0.032460	-25.679225
1.400000	-0.030352	-23.969990	-88.211924	179.683064	-88.211924	179.683064	-0.033694	-26.613934
1.450000	-0.031459	-24.811879	-86.756750	-177.491331	-86.756750	-177.491331	-0.034919	-27.547408
1.500000	-0.032560	-25.652742	-85.381278	-175.548242	-85.381278	-175.548242	-0.036137	-28.479624
1.550000	-0.033656	-26.492560	-84.084973	-174.270743	-84.084973	-174.270743	-0.037349	-29.410556
1.600000	-0.034748	-27.331311	-82.863186	-173.500885	-82.863186	-173.500885	-0.038555	-30.340180
1.650000	-0.035836	-28.168976	-81.709847	-173.123617	-81.709847	-173.123617	-0.039757	-31.268472
1.700000	-0.036921	-29.005534	-80.618706	-173.054403	-80.618706	-173.054403	-0.040955	-32.195407
1.750000	-0.038005	-29.840963	-79.583868	-173.230355	-79.583868	-173.230355	-0.042151	-33.120959
1.800000	-0.039086	-30.675243	-78.599989	-173.604039	-78.599989	-173.604039	-0.043344	-34.045104
1.850000	-0.040167	-31.508353	-77.662312	-174.139175	-77.662312	-174.139175	-0.044537	-34.967819
1.900000	-0.041248	-32.340273	-76.766644	-174.807632	-76.766644	-174.807632	-0.045728	-35.889078
1.950000	-0.042329	-33.170982	-75.909297	-175.587318	-75.909297	-175.587318	-0.046919	-36.808859
2.000000	-0.043410	-34.000461	-75.087032	-176.460669	-75.087032	-176.460669	-0.048110	-37.727139
2.050000	-0.044492	-34.828689	-74.296994	-177.413568	-74.296994	-177.413568	-0.049303	-38.643895
2.100000	-0.045576	-35.655648	-73.536665	-178.434546	-73.536665	-178.434546	-0.050496	-39.559105
2.150000	-0.046662	-36.481319	-72.803812	-179.514195	-72.803812	-179.514195	-0.051692	-40.472748
2.200000	-0.047749	-37.305683	-72.096452	179.355269	-72.096452	179.355269	-0.052889	-41.384804
2.250000	-0.048840	-38.128723	-71.412814	178.180341	-71.412814	178.180341	-0.054090	-42.295252
2.300000	-0.049933	-38.950420	-70.751314	176.966486	-70.751314	176.966486	-0.055293	-43.204074
2.350000	-0.051030	-39.770758	-70.110526	175.718330	-70.110526	175.718330	-0.056500	-44.111250
2.400000	-0.052130	-40.589720	-69.489165	174.439817	-69.489165	174.439817	-0.057711	-45.016762
2.450000	-0.053234	-41.407290	-68.886067	173.134330	-68.886067	173.134330	-0.058926	-45.920594
2.500000	-0.054343	-42.223452	-68.300177	171.804791	-68.300177	171.804791	-0.060147	-46.822729
2.550000	-0.055456	-43.038128	-67.729618	170.452900	-67.729618	170.452900	-0.061372	-47.723075
2.600000	-0.056575	-43.851364	-67.174521	169.081870	-67.174521	169.081870	-0.062603	-48.621691
2.650000	-0.057699	-44.663147	-66.634069	167.693606	-66.634069	167.693606	-0.063841	-49.518564
2.700000	-0.058829	-45.473462	-66.107514	166.289784	-66.107514	166.289784	-0.065084	-50.413678
2.750000	-0.059965	-46.282297	-65.594167	164.871890	-65.594167	164.871890	-0.066335	-51.307022
2.800000	-0.061107	-47.089638	-65.093390	163.441241	-65.093390	163.441241	-0.067593	-52.198582
2.850000	-0.062257	-47.895473	-64.604597	161.999013	-64.604597	161.999013	-0.068859	-53.088349
2.900000	-0.063413	-48.699791	-64.127242	160.546259	-64.127242	160.546259	-0.070133	-53.976309
2.950000	-0.064578	-49.502579	-63.660819	159.083924	-63.660819	159.083924	-0.071416	-54.862454
3.000000	-0.065750	-50.303828	-63.204855	157.612856	-63.204855	157.612856	-0.072708	-55.746774
3.050000	-0.066931	-51.103526	-62.758912	156.133824	-62.758912	156.133824	-0.074009	-56.629260
3.100000	-0.068121	-51.901664	-62.322579	154.647522	-62.322579	154.647522	-0.075321	-57.509904
3.150000	-0.069320	-52.698231	-61.895471	153.154583	-61.895471	153.154583	-0.076643	-58.388699
3.200000	-0.070529	-53.493221	-61.477228	151.655579	-61.477228	151.655579	-0.077976	-59.265637
3.250000	-0.071747	-54.286623	-61.067513	150.151035	-61.067513	150.151035	-0.079321	-60.140714
3.300000	-0.072976	-55.078429	-60.666005	148.641430	-60.666005	148.641430	-0.080677	-61.013924
3.350000	-0.074216	-55.868634	-60.272407	147.127203	-60.272407	147.127203	-0.082046	-61.885261
3.400000	-0.075467	-56.657228	-59.886435	145.608757	-59.886435	145.608757	-0.083428	-62.754724
3.450000	-0.076730	-57.444206	-59.507824	144.086462	-59.507824	144.086462	-0.084823	-63.622307
3.500000	-0.078005	-58.229562	-59.136320	142.560661	-59.136320	142.560661	-0.086232	-64.488008
3.550000	-0.079293	-59.013291	-58.771685	141.031669	-58.771685	141.031669	-0.087655	-65.351827
3.600000	-0.080593	-59.795386	-58.413692	139.499779	-58.413692	139.499779	-0.089094	-66.213761
3.650000	-0.081907	-60.575844	-58.062128	137.965259	-58.062128	137.965259	-0.090547	-67.073810
3.700000	-0.083235	-61.354660	-57.716789	136.428363	-57.716789	136.428363	-0.092017	-67.931973
3.750000	-0.084577	-62.131830	-57.377480	134.889322	-57.377480	134.889322	-0.093503	-68.788253
3.800000	-0.085934	-62.907281	-57.043717	133.348280	-57.043717	133.348280	-0.095006	-69.642569
3.850000	-0.087306	-63.681080	-56.715646	131.805530	-56.715646	131.805530	-0.096527	-70.495004
3.900000	-0.088694	-64.453226	-56.393100	130.261259	-56.393100	130.261259	-0.098065	-71.345562
3.950000	-0.090098	-65.223716	-56.075916	128.715642	-56.075916	128.715642	-0.099622	-72.194247
4.000000	-0.091519	-65.992550	-55.763941	127.168843	-55.763941	127.168843	-0.101198	-73.041061
4.050000	-0.092956	-66.759726	-55.457028	125.621015	-55.457028	125.621015	-0.102793	-73.886011
4.100000	-0.094411	-67.525246	-55.155037	124.072301	-55.155037	124.072301	-0.104408	-74.729102
4.150000	-0.095883	-68.289107	-54.857832	122.522836	-54.857832	122.522836	-0.106044	-75.570339
4.200000	-0.097374	-69.051312	-54.565285	120.972748	-54.565285	120.972748	-0.107700	-76.409729
4.250000	-0.098883	-69.811861	-54.277272	119.422155	-54.277272	119.422155	-0.109378	-77.247280
4.300000	-0.100411	-70.570756	-53.993675	117.871170	-53.993675	117.871170	-0.111077	-78.083000
4.350000	-0.101959	-71.327999	-53.714381	116.319899	-53.714381	116.319899	-0.112799	-78.916897
4.400000	-0.103527	-72.083591	-53.439280	114.768442	-53.439280	114.768442	-0.114544	-79.748979
4.450000	-0.105115	-72.837537	-53.168267	113.216892	-53.168267	113.216892	-0.116312	-80.579258
4.500000	-0.106724	-73.589839	-52.901242	111.665338	-52.901242	111.665338	-0.118103	-81.407743
4.550000	-0.108354	-74.340501	-52.638107	110.113866	-52.638107	110.113866	-0.119919	-82.234445
4.600000	-0.110006	-75.089528	-52.378769	108.562555	-52.378769	108.562555	-0.121760	-83.059375
4.650000	-0.111680	-75.836922	-52.123139	107.011479	-52.123139	107.011479	-0.123626	-83.882546
4.700000	-0.113376	-76.582691	-51.871129	105.460711	-51.871129	105.460711	-0.125518	-84.703969
4.750000	-0.115096	-77.326839	-51.622656	103.910318	-51.622656	103.910318	-0.127436	-85.523660
4.800000	-0.116839	-78.069372	-51.377639	102.360365	-51.377639	102.360365	-0.129381	-86.341630
4.850000	-0.118606	-78.810296	-51.136001	100.810912	-51.136001	100.810912	-0.131353	-87.157894
4.900000	-0.120397	-79.549618	-50.897667	99.262018	-50.897667	99.262018	-0.133352	-87.972467
4.950000	-0.122213	-80.287346	-50.662564	97.713738	-50.662564	97.713738	-0.135380	-88.785365
5.000000	-0.124054	-81.023485	-50.430622	96.166124	-50.430622	96.166124	-0.137436	-89.596602
5.050000	-0.125935	-81.757157	-50.200123	94.619660	-50.200123	94.619660	-0.139538	-90.405278
5.100000	-0.127816	-82.490830	-49.975583	93.073196	-49.975583	93.073196	-0.141640	-91.213954
5.150000	-0.129748	-83.221515	-49.751430	91.528291	-49.751430	91.528291	-0.143800	-92.019556
5.200000	-0.131685	-83.951928	-49.532450	89.983527	-49.532450	89.983527	-0.145965	-92.824879
5.250000	-0.133669	-84.679660	-49.314361	88.440332	-49.314361	88.440332	-0.148183	-93.627475
5.300000	-0.135662	-85.406856	-49.100737	86.897451	-49.100737	86.897451	-0.150413	-94.429525
5.350000	-0.137700	-86.131671	-48.888446	85.356106	-48.888446	85.356106	-0.152693	-95.229184
5.400000	-0.139753	-86.855692	-48.679986	83.815274	-48.679986	83.815274	-0.154989	-96.028045
5.450000	-0.141846	-87.577630	-48.473247	82.275908	-48.473247	82.275908	-0.157331	-96.824840
5.500000	-0.143959	-88.298524	-48.269768	80.737275	-48.269768	80.737275	-0.159696	-97.620601
5.550000	-0.146109	-89.017625	-48.068348	79.200006	-48.068348	79.200006	-0.162103	-98.414608
5.600000	-0.148285	-89.735444	-47.869679	77.663710	-47.869679	77.663710	-0.164538	-99.207362
5.650000	-0.150493	-90.451752	-47.673362	76.128646	-47.673362	76.128646	-0.167010	-99.998662
5.700000	-0.152734	-91.166549	-47.479340	74.594814	-47.479340	74.594814	-0.169519	-100.788506
5.750000	-0.155002	-91.880110	-47.287922	73.062055	-47.287922	73.062055	-0.172058	-101.577181
5.800000	-0.157308	-92.591942	-47.098392	71.530801	-47.098392	71.530801	-0.174641	-102.364217
5.850000	-0.159637	-93.302805	-46.911682	70.000441	-46.911682	70.000441	-0.177249	-103.150352
5.900000	-0.162012	-94.011732	-46.726498	68.471870	-46.726498	68.471870	-0.179908	-103.934684
5.950000	-0.164404	-94.719947	-46.544316	66.943994	-46.544316	66.943994	-0.182588	-104.718369
6.000000	-0.166848	-95.426032	-46.363338	65.418202	-46.363338	65.418202	-0.185325	-105.500108
6.050000	-0.169304	-96.131653	-46.185514	63.892889	-46.185514	63.892889	-0.188076	-106.281434
6.100000	-0.171820	-96.834961	-46.008610	62.369965	-46.008610	62.369965	-0.190893	-107.060692
6.150000	-0.174342	-97.538044	-45.834984	60.847288	-45.834984	60.847288	-0.193718	-107.839753
6.200000	-0.176930	-98.238644	-45.662028	59.327314	-45.662028	59.327314	-0.196617	-108.616648
6.250000	-0.179520	-98.939245	-45.492449	57.807340	-45.492449	57.807340	-0.199518	-109.393543
6.300000	-0.182183	-99.637210	-45.323322	56.290388	-45.323322	56.290388	-0.202500	-110.168194
6.350000	-0.184847	-100.335174	-45.157424	54.773437	-45.157424	54.773437	-0.205484	-110.942846
6.400000	-0.187581	-101.030790	-44.992233	53.259319	-44.992233	53.259319	-0.208546	-111.715555
6.450000	-0.190321	-101.726193	-44.829911	51.745459	-44.829911	51.745459	-0.211615	-112.488088
6.500000	-0.193126	-102.419525	-44.668518	50.234225	-44.668518	50.234225	-0.214756	-113.258962
6.550000	-0.195945	-103.112443	-44.509668	48.723517	-44.509668	48.723517	-0.217913	-114.029504
6.600000	-0.198823	-103.803557	-44.351946	47.215215	-44.351946	47.215215	-0.221135	-114.798652
6.650000	-0.201722	-104.494070	-44.196471	45.707714	-44.196471	45.707714	-0.224381	-115.567334
6.700000	-0.204675	-105.183034	-44.042294	44.202386	-44.042294	44.202386	-0.227686	-116.334868
6.750000	-0.207655	-105.871224	-43.890101	42.698143	-43.890101	42.698143	-0.231022	-117.101826
6.800000	-0.210683	-106.558107	-43.739354	41.195827	-43.739354	41.195827	-0.234412	-117.867859
6.850000	-0.213746	-107.244058	-43.590354	39.694887	-43.590354	39.694887	-0.237841	-118.633231
6.900000	-0.216852	-107.928934	-43.442926	38.195618	-43.442926	38.195618	-0.241316	-119.397882
6.950000	-0.219999	-108.612733	-43.297034	36.698020	-43.297034	36.698020	-0.244838	-120.161810
7.000000	-0.223183	-109.295673	-43.152820	35.201829	-43.152820	35.201829	-0.248401	-120.925197
7.050000	-0.226417	-109.977411	-43.009953	33.707607	-43.009953	33.707607	-0.252018	-121.687827
7.100000	-0.229681	-110.658492	-42.868853	32.214520	-42.868853	32.214520	-0.255669	-122.450073
7.150000	-0.233002	-111.338259	-42.728935	30.723703	-42.728935	30.723703	-0.259384	-123.211552
7.200000	-0.236346	-112.017558	-42.590854	29.233744	-42.590854	29.233744	-0.263125	-123.972782
7.250000	-0.239757	-112.695450	-42.453809	27.746356	-42.453809	27.746356	-0.266938	-124.733263
7.300000	-0.243184	-113.373045	-42.318657	26.259544	-42.318657	26.259544	-0.270770	-125.493604
7.350000	-0.246685	-114.049158	-42.184415	24.775605	-42.184415	24.775605	-0.274683	-126.253243
7.400000	-0.250195	-114.725131	-42.052106	23.291954	-42.052106	23.291954	-0.278607	-127.012824
7.450000	-0.253788	-115.399564	-41.920597	21.811477	-41.920597	21.811477	-0.282622	-127.771779
7.500000	-0.257383	-116.073997	-41.791049	20.331001	-41.791049	20.331001	-0.286640	-128.530734
7.550000	-0.261070	-116.746851	-41.662209	18.853995	-41.662209	18.853995	-0.290758	-129.289166
7.600000	-0.264758	-117.419706	-41.535252	17.376990	-41.535252	17.376990	-0.294878	-130.047599
7.650000	-0.268531	-118.091208	-41.409112	15.903170	-41.409112	15.903170	-0.299093	-130.805705
7.700000	-0.272314	-118.762587	-41.284686	14.429640	-41.284686	14.429640	-0.303317	-131.563782
7.750000	-0.276176	-119.432826	-41.161171	12.959006	-41.161171	12.959006	-0.307629	-132.321702
7.800000	-0.280055	-120.102837	-41.039221	11.488951	-41.039221	11.488951	-0.311960	-133.079591
7.850000	-0.284006	-120.771902	-40.918261	10.021497	-40.918261	10.021497	-0.316369	-133.837469
7.900000	-0.287983	-121.440652	-40.798733	8.554911	-40.798733	8.554911	-0.320807	-134.595343
7.950000	-0.292024	-122.108635	-40.680260	7.090630	-40.680260	7.090630	-0.325316	-135.353325
8.000000	-0.296099	-122.776235	-40.563102	5.627502	-40.563102	5.627502	-0.329862	-136.111360
8.050000	-0.300232	-123.443230	-40.447054	4.166383	-40.447054	4.166383	-0.334472	-136.869593
8.100000	-0.304406	-124.109794	-40.332218	2.706698	-40.332218	2.706698	-0.339127	-137.627968
8.150000	-0.308631	-124.775896	-40.218533	1.248725	-40.218533	1.248725	-0.343838	-138.386604
8.200000	-0.312907	-125.441538	-40.105974	-0.207537	-40.105974	-0.207537	-0.348604	-139.145502
8.250000	-0.317225	-126.106844	-39.994596	-1.662382	-39.994596	-1.662382	-0.353417	-139.904695
8.300000	-0.321602	-126.771682	-39.884269	-3.115245	-39.884269	-3.115245	-0.358295	-140.664302
8.350000	-0.326014	-127.436292	-39.775143	-4.566984	-39.775143	-4.566984	-0.363211	-141.424209
8.400000	-0.330494	-128.100446	-39.667008	-6.016476	-39.667008	-6.016476	-0.368201	-142.184715
8.450000	-0.335002	-128.764460	-39.560083	-7.465133	-39.560083	-7.465133	-0.373221	-142.945494
8.500000	-0.339585	-129.428053	-39.454102	-8.911288	-39.454102	-8.911288	-0.378325	-143.707093
8.550000	-0.344188	-130.091574	-39.349330	-10.356891	-39.349330	-10.356891	-0.383450	-144.468907
8.600000	-0.348877	-130.754731	-39.245466	-11.799744	-39.245466	-11.799744	-0.388668	-145.231796
8.650000	-0.353576	-131.417862	-39.142801	-13.242324	-39.142801	-13.242324	-0.393898	-145.994809
8.700000	-0.358370	-132.080710	-39.041022	-14.681915	-39.041022	-14.681915	-0.399231	-146.759189
8.750000	-0.363166	-132.743559	-38.940422	-16.121506	-38.940422	-16.121506	-0.404567	-147.523569
8.800000	-0.368066	-133.406229	-38.840696	-17.557877	-38.840696	-17.557877	-0.410015	-148.289645
8.850000	-0.372968	-134.068899	-38.742102	-18.994248	-38.742102	-18.994248	-0.415466	-149.055722
8.900000	-0.377966	-134.731527	-38.644419	-20.427710	-38.644419	-20.427710	-0.421022	-149.823544
8.950000	-0.382975	-135.394152	-38.547805	-21.860907	-38.547805	-21.860907	-0.426589	-150.591525
9.000000	-0.388072	-136.056851	-38.452129	-23.291499	-38.452129	-23.291499	-0.432252	-151.361271
9.050000	-0.393189	-136.719566	-38.357470	-24.721570	-38.357470	-24.721570	-0.437936	-152.131370
9.100000	-0.398384	-137.382451	-38.263766	-26.149332	-38.263766	-26.149332	-0.443705	-152.903220
9.150000	-0.403608	-138.045393	-38.171041	-27.576326	-38.171041	-27.576326	-0.449506	-153.675653
9.200000	-0.408903	-138.708582	-38.079279	-29.001300	-38.079279	-29.001300	-0.455384	-154.449790
9.250000	-0.414236	-139.371893	-37.988468	-30.425266	-37.988468	-30.425266	-0.461301	-155.224779
9.300000	-0.419630	-140.035503	-37.898618	-31.847495	-37.898618	-31.847495	-0.467286	-156.001389
9.350000	-0.425071	-140.699328	-37.809704	-33.268483	-37.809704	-33.268483	-0.473320	-156.779158
9.400000	-0.430565	-141.363481	-37.721742	-34.688008	-37.721742	-34.688008	-0.479413	-157.558431
9.450000	-0.436114	-142.027965	-37.634711	-36.106068	-37.634711	-36.106068	-0.485563	-158.339210
9.500000	-0.441708	-142.692786	-37.548611	-37.522930	-37.548611	-37.522930	-0.491763	-159.121339
9.550000	-0.447365	-143.358079	-37.463451	-38.938112	-37.463451	-38.938112	-0.498029	-159.905360
9.600000	-0.453059	-144.023693	-37.379193	-40.352350	-37.379193	-40.352350	-0.504336	-160.690541
9.650000	-0.458824	-144.689949	-37.295895	-41.764700	-37.295895	-41.764700	-0.510718	-161.478043
9.700000	-0.464618	-145.356484	-37.213460	-43.176354	-37.213460	-43.176354	-0.517131	-162.266475
9.750000	-0.470490	-146.023858	-37.132016	-44.585916	-37.132016	-44.585916	-0.523627	-163.057699
9.800000	-0.476383	-146.691446	-37.051388	-45.995020	-37.051388	-45.995020	-0.530145	-163.849585
9.850000	-0.482363	-147.360098	-36.971794	-47.401834	-36.971794	-47.401834	-0.536755	-164.644777
9.900000	-0.488355	-148.028870	-36.892957	-48.808423	-36.892957	-48.808423	-0.543379	-165.440322
9.950000	-0.494441	-148.698963	-36.815211	-50.212525	-36.815211	-50.212525	-0.550101	-166.239735
10.000000	-0.500532	-149.369057	-36.738155	-51.616627	-36.738155	-51.616627	-0.556828	-167.039147
