! freq	dB(S11)	phase(S11)	dB(S12)	phase(S12)	
!     	dB(S21)	phase(S21)	dB(S22)	phase(S22)	
!S-par simulation data
#  GHz  S  DB  R 50
0.000000	-83.176503	0.000000	-0.000603	0.000000	-0.000603	0.000000	-83.176503	0.000000
0.050000	-38.511080	-92.094896	-0.006624	-2.975300	-0.006624	-2.975300	-38.511116	-91.973905
0.100000	-32.564718	-95.582343	-0.013963	-5.906217	-0.013963	-5.906217	-32.562818	-95.210646
0.150000	-29.079767	-98.905975	-0.021041	-8.828654	-0.021041	-8.828654	-29.077713	-98.348853
0.200000	-26.611055	-102.115271	-0.029012	-11.746997	-0.029012	-11.746997	-26.607789	-101.390206
0.250000	-24.701516	-105.259950	-0.038043	-14.661207	-0.038043	-14.661207	-24.697286	-104.367804
0.300000	-23.146887	-108.362423	-0.048119	-17.571300	-0.048119	-17.571300	-23.142348	-107.297535
0.350000	-21.837807	-111.436940	-0.059188	-20.477674	-0.059188	-20.477674	-21.833512	-110.190654
0.400000	-20.709006	-114.492439	-0.071222	-23.380764	-0.071222	-23.380764	-20.705215	-113.055585
0.450000	-19.718443	-117.534634	-0.084206	-26.280913	-0.084206	-26.280913	-19.715127	-115.899096
0.500000	-18.837456	-120.567197	-0.098133	-29.178347	-0.098133	-29.178347	-18.834388	-118.726660
0.550000	-18.045625	-123.592504	-0.112995	-32.073190	-0.112995	-32.073190	-18.042484	-121.542580
0.600000	-17.327871	-126.612112	-0.128776	-34.965497	-0.128776	-34.965497	-17.324327	-124.350102
0.650000	-16.672798	-129.627027	-0.145462	-37.855254	-0.145462	-37.855254	-16.668572	-127.151475
0.700000	-16.071420	-132.638005	-0.163016	-40.742463	-0.163016	-40.742463	-16.066320	-129.948257
0.750000	-15.516646	-135.645571	-0.181403	-43.627095	-0.181403	-43.627095	-15.510572	-132.741316
0.800000	-15.002737	-138.650134	-0.200582	-46.509122	-0.200582	-46.509122	-14.995679	-135.531053
0.850000	-14.525013	-141.652030	-0.220514	-49.388511	-0.220514	-49.388511	-14.517037	-138.317516
0.900000	-14.079579	-144.651571	-0.241152	-52.265239	-0.241152	-52.265239	-14.070809	-141.100528
0.950000	-13.663043	-147.649088	-0.262443	-55.139337	-0.262443	-55.139337	-13.653644	-143.879829
1.000000	-13.272580	-150.644887	-0.284338	-58.010830	-0.284338	-58.010830	-13.262738	-146.655072
1.050000	-12.905753	-153.639286	-0.306792	-60.879765	-0.306792	-60.879765	-12.895663	-149.425897
1.100000	-12.560450	-156.632616	-0.329760	-63.746214	-0.329760	-63.746214	-12.550300	-152.191971
1.150000	-12.234816	-159.625225	-0.353200	-66.610278	-0.353200	-66.610278	-12.224780	-154.953007
1.200000	-11.927215	-162.617478	-0.377074	-69.472086	-0.377074	-69.472086	-11.917445	-157.708784
1.250000	-11.636194	-165.609761	-0.401346	-72.331805	-0.401346	-72.331805	-11.626816	-160.459145
1.300000	-11.360536	-168.602487	-0.425987	-75.189605	-0.425987	-75.189605	-11.351648	-163.203929
1.350000	-11.098977	-171.596077	-0.450966	-78.045751	-0.450966	-78.045751	-11.090646	-165.943208
1.400000	-10.850458	-174.590969	-0.476254	-80.900507	-0.476254	-80.900507	-10.842721	-168.677042
1.450000	-10.614015	-177.587615	-0.501831	-83.754167	-0.501831	-83.754167	-10.606881	-171.405555
1.500000	-10.388766	179.413518	-0.527676	-86.607054	-0.527676	-86.607054	-10.382219	-174.128928
1.550000	-10.174100	176.411816	-0.553779	-89.459509	-0.553779	-89.459509	-10.168099	-176.847192
1.600000	-9.968715	173.407160	-0.580106	-92.311919	-0.580106	-92.311919	-9.963204	-179.561193
1.650000	-9.772627	170.398511	-0.606671	-95.164685	-0.606671	-95.164685	-9.767527	177.729465
1.700000	-9.584538	167.385960	-0.633445	-98.018138	-0.633445	-98.018138	-9.579766	175.023777
1.750000	-9.404269	164.368576	-0.660435	-100.872758	-0.660435	-100.872758	-9.399725	172.321776
1.800000	-9.231144	161.345962	-0.687638	-103.728947	-0.687638	-103.728947	-9.226725	169.622944
1.850000	-9.064635	158.317601	-0.715054	-106.587137	-0.715054	-106.587137	-9.060235	166.926857
1.900000	-8.904278	155.282898	-0.742692	-109.447796	-0.742692	-109.447796	-8.899790	164.233098
1.950000	-8.749601	152.241319	-0.770560	-112.311380	-0.770560	-112.311380	-8.744919	161.541205
2.000000	-8.600127	149.192417	-0.798672	-115.178305	-0.798672	-115.178305	-8.595152	158.850696
2.050000	-8.455441	146.135683	-0.827043	-118.049015	-0.827043	-118.049015	-8.450081	156.161112
2.100000	-8.315146	143.070617	-0.855697	-120.923953	-0.855697	-120.923953	-8.309317	153.471990
2.150000	-8.178867	139.996727	-0.884657	-123.803561	-0.884657	-123.803561	-8.172493	150.782866
2.200000	-8.046245	136.913530	-0.913954	-126.688279	-0.913954	-126.688279	-8.039261	148.093278
2.250000	-7.916941	133.820558	-0.943621	-129.578542	-0.943621	-129.578542	-7.909293	145.402764
2.300000	-7.790630	130.717357	-0.973695	-132.474783	-0.973695	-132.474783	-7.782273	142.710866
2.350000	-7.667002	127.603486	-1.004219	-135.377430	-1.004219	-135.377430	-7.657903	140.017126
2.400000	-7.545763	124.478524	-1.035238	-138.286906	-1.035238	-138.286906	-7.535898	137.321091
2.450000	-7.426633	121.342065	-1.066802	-141.203628	-1.066802	-141.203628	-7.415986	134.622306
2.500000	-7.309343	118.193724	-1.098967	-144.128007	-1.098967	-144.128007	-7.297907	131.920319
2.550000	-7.193634	115.032861	-1.131803	-147.060633	-1.131803	-147.060633	-7.181410	129.214589
2.600000	-7.079262	111.859391	-1.165364	-150.001738	-1.165364	-150.001738	-7.066253	126.504733
2.650000	-6.965996	108.672992	-1.199717	-152.951714	-1.199717	-152.951714	-6.952212	123.790294
2.700000	-6.853621	105.473362	-1.234934	-155.910944	-1.234934	-155.910944	-6.839074	121.070815
2.750000	-6.741884	102.259477	-1.271139	-158.880344	-1.271139	-158.880344	-6.726587	118.345519
2.800000	-6.630669	99.032402	-1.308335	-161.859342	-1.308335	-161.859342	-6.614633	115.614474
2.850000	-6.519767	95.791315	-1.346642	-164.848714	-1.346642	-164.848714	-6.503003	112.876977
2.900000	-6.409010	92.535997	-1.386152	-167.848816	-1.386152	-167.848816	-6.391527	110.132549
2.950000	-6.298397	89.267675	-1.426846	-170.858885	-1.426846	-170.858885	-6.280199	107.381470
3.000000	-6.187515	85.983490	-1.469035	-173.881324	-1.469035	-173.881324	-6.168602	104.621859
3.050000	-6.076358	82.684522	-1.512731	-176.915513	-1.512731	-176.915513	-6.056723	101.853855
3.100000	-5.964809	79.370617	-1.558049	-179.961779	-1.558049	-179.961779	-5.944442	99.076956
3.150000	-5.852742	76.041462	-1.605126	176.979417	-1.605126	176.979417	-5.831625	96.290546
3.200000	-5.740064	72.696915	-1.654094	173.907749	-1.654094	173.907749	-5.718175	93.494100
3.250000	-5.626719	69.337005	-1.705071	170.823041	-1.705071	170.823041	-5.604030	90.687208
3.300000	-5.512645	65.961599	-1.758198	167.724990	-1.758198	167.724990	-5.489122	87.869361
3.350000	-5.397789	62.570559	-1.813627	164.613297	-1.813627	164.613297	-5.373396	85.040048
3.400000	-5.282115	59.163740	-1.871518	161.487667	-1.871518	161.487667	-5.256811	82.198766
3.450000	-5.165598	55.740985	-1.932040	158.347807	-1.932040	158.347807	-5.139338	79.345016
3.500000	-5.048224	52.302118	-1.995372	155.193428	-1.995372	155.193428	-5.020963	76.478306
3.550000	-4.929993	48.846938	-2.061707	152.024240	-2.061707	152.024240	-4.901682	73.598151
3.600000	-4.810917	45.375217	-2.131249	148.839955	-2.131249	148.839955	-4.781506	70.704075
3.650000	-4.691017	41.886688	-2.204215	145.640277	-2.204215	145.640277	-4.660457	67.795612
3.700000	-4.570326	38.381037	-2.280840	142.424908	-2.280840	142.424908	-4.538566	64.872302
3.750000	-4.448888	34.857898	-2.361375	139.193540	-2.361375	139.193540	-4.415878	61.933692
3.800000	-4.326703	31.316440	-2.446171	135.945488	-2.446171	135.945488	-4.292391	58.978980
3.850000	-4.203887	27.756530	-2.535453	132.680759	-2.535453	132.680759	-4.168221	56.008049
3.900000	-4.080509	24.177567	-2.629541	129.398988	-2.629541	129.398988	-4.043436	53.020441
3.950000	-3.956645	20.578841	-2.728787	126.099781	-2.728787	126.099781	-3.918112	50.015690
4.000000	-3.832378	16.959523	-2.833575	122.782701	-2.833575	122.782701	-3.792326	46.993303
4.050000	-3.707793	13.318637	-2.944331	119.447266	-2.944331	119.447266	-3.666162	43.952757
4.100000	-3.582982	9.655037	-3.061529	116.092933	-3.061529	116.092933	-3.539706	40.893482
4.150000	-3.458038	5.967381	-3.185700	112.719086	-3.185700	112.719086	-3.413043	37.814848
4.200000	-3.333055	2.254089	-3.317441	109.325021	-3.317441	109.325021	-3.286259	34.716138
4.250000	-3.208130	-1.486695	-3.457434	105.909928	-3.457434	105.909928	-3.159438	31.596533
4.300000	-3.083358	-5.257157	-3.606456	102.472871	-3.606456	102.472871	-3.032663	28.455075
4.350000	-2.958835	-9.059873	-3.765411	99.012768	-3.765411	99.012768	-2.906009	25.290640
4.400000	-2.834639	-12.898318	-3.935443	95.528081	-3.935443	95.528081	-2.779533	22.101602
4.450000	-2.710867	-16.776255	-4.117826	92.017295	-4.117826	92.017295	-2.653305	18.886288
4.500000	-2.587630	-20.697662	-4.313963	88.478972	-4.313963	88.478972	-2.527402	15.642990
4.550000	-2.465022	-24.667754	-4.525649	84.911153	-4.525649	84.911153	-2.401880	12.369316
4.600000	-2.343145	-28.692798	-4.755074	81.311600	-4.755074	81.311600	-2.276790	9.062338
4.650000	-2.222110	-32.780366	-5.004941	77.677797	-5.004941	77.677797	-2.152182	5.718467
4.700000	-2.102052	-36.939656	-5.278640	74.006974	-5.278640	74.006974	-2.028107	2.333272
4.750000	-1.983136	-41.181916	-5.580472	70.296195	-5.580472	70.296195	-1.904631	-1.098742
4.800000	-1.865586	-45.521008	-5.916000	66.542573	-5.916000	66.542573	-1.781843	-4.584427
4.850000	-1.749714	-49.974147	-6.292542	62.743709	-6.292542	62.743709	-1.659879	-8.132384
4.900000	-1.635975	-54.562911	-6.719929	58.898580	-6.719929	58.898580	-1.538958	-11.753481
4.950000	-1.525050	-59.314614	-7.211694	55.009316	-7.211694	55.009316	-1.419441	-15.461556
5.000000	-1.417974	-64.264210	-7.786986	51.084813	-7.786986	51.084813	-1.301919	-19.274371
5.050000	-1.316484	-69.462583	-8.475447	47.149150	-8.475447	47.149150	-1.187434	-23.217835
5.100000	-1.223150	-74.966572	-9.319415	43.260642	-9.319415	43.260642	-1.077667	-27.320543
5.150000	-1.142184	-80.856727	-10.388420	39.554342	-10.388420	39.554342	-0.975455	-31.622614
5.200000	-1.080496	-87.241841	-11.801643	36.363010	-11.801643	36.363010	-0.885600	-36.176927
5.250000	-1.049653	-94.270595	-13.779874	34.605115	-13.779874	34.605115	-0.816331	-41.052729
5.300000	-1.069245	-102.145627	-16.754979	37.345886	-16.754979	37.345886	-0.781785	-46.337389
5.350000	-1.173106	-111.143324	-21.144946	57.788838	-21.144946	57.788838	-0.806436	-52.133715
5.400000	-1.424928	-121.673201	-20.580580	113.783621	-20.580580	113.783621	-0.935764	-58.553435
5.450000	-1.934178	-134.221754	-14.478508	133.675456	-14.478508	133.675456	-1.244581	-65.611036
5.500000	-2.894999	-149.377952	-9.887495	130.995095	-9.887495	130.995095	-1.851722	-73.036567
5.550000	-4.633505	-167.786983	-6.633327	120.761949	-6.633327	120.761949	-2.904552	-79.825471
5.600000	-7.688296	169.309871	-4.416886	107.044200	-4.416886	107.044200	-4.469174	-83.612354
5.650000	-12.935223	135.585041	-3.082936	92.218670	-3.082936	92.218670	-6.220829	-81.072634
5.700000	-18.014157	57.948490	-2.447073	78.053016	-2.447073	78.053016	-7.251585	-71.865743
5.750000	-13.182415	-6.680659	-2.285985	65.495500	-2.285985	65.495500	-7.033935	-62.357381
5.800000	-9.414351	-31.892946	-2.405754	54.726683	-2.405754	54.726683	-6.168652	-57.476865
5.850000	-7.210329	-47.218814	-2.675677	45.526953	-2.675677	45.526953	-5.261249	-56.609931
5.900000	-5.804376	-58.634635	-3.020108	37.573194	-3.020108	37.573194	-4.501056	-57.998143
5.950000	-4.842835	-67.906732	-3.398850	30.577903	-3.398850	30.577903	-3.898562	-60.531618
6.000000	-4.144190	-75.856602	-3.791921	24.287330	-3.791921	24.287330	-3.420619	-63.624034
6.050000	-3.618275	-82.871265	-4.189861	18.547847	-4.189861	18.547847	-3.039017	-67.010385
6.100000	-3.206490	-89.232176	-4.589357	13.218406	-4.589357	13.218406	-2.728023	-70.545247
6.150000	-2.875993	-95.099633	-4.989434	8.210984	-4.989434	8.210984	-2.471096	-74.161848
6.200000	-2.604018	-100.596417	-5.391161	3.451986	-5.391161	3.451986	-2.255261	-77.825505
6.250000	-2.376858	-105.798271	-5.795800	-1.105615	-5.795800	-1.105615	-2.072338	-81.521711
6.300000	-2.182125	-110.784412	-6.206636	-5.513897	-6.206636	-5.513897	-1.914092	-85.243038
6.350000	-2.013404	-115.594969	-6.625976	-9.799297	-6.625976	-9.799297	-1.776283	-88.989525
6.400000	-1.866685	-120.256194	-7.056101	-13.978759	-7.056101	-13.978759	-1.656364	-92.765986
6.450000	-1.736936	-124.805423	-7.500918	-18.077118	-7.500918	-18.077118	-1.550686	-96.575774
6.500000	-1.621106	-129.265930	-7.964135	-22.109148	-7.964135	-22.109148	-1.457053	-100.423719
6.550000	-1.517179	-133.654210	-8.449776	-26.084179	-8.449776	-26.084179	-1.374065	-104.316356
6.600000	-1.424004	-137.982070	-8.962678	-30.006258	-8.962678	-30.006258	-1.301084	-108.264692
6.650000	-1.339512	-142.266810	-9.508679	-33.883201	-9.508679	-33.883201	-1.236482	-112.272097
6.700000	-1.262789	-146.518002	-10.094458	-37.714776	-10.094458	-37.714776	-1.179669	-116.346280
6.750000	-1.193238	-150.743782	-10.728429	-41.495489	-10.728429	-41.495489	-1.130356	-120.497349
6.800000	-1.130201	-154.952173	-11.420923	-45.215637	-11.420923	-45.215637	-1.088142	-124.733250
6.850000	-1.073256	-159.149764	-12.185123	-48.856726	-12.185123	-48.856726	-1.052838	-129.062943
6.900000	-1.022178	-163.342196	-13.038396	-52.385863	-13.038396	-52.385863	-1.024447	-133.496973
6.950000	-0.976811	-167.534394	-14.003876	-55.748696	-14.003876	-55.748696	-1.003015	-138.045339
7.000000	-0.937055	-171.730362	-15.113253	-58.856415	-15.113253	-58.856415	-0.988612	-142.716912
7.050000	-0.902974	-175.933284	-16.412170	-61.550867	-16.412170	-61.550867	-0.981467	-147.521951
7.100000	-0.874725	179.854428	-17.968802	-63.535498	-17.968802	-63.535498	-0.981888	-152.470907
7.150000	-0.852549	175.631164	-19.889020	-64.199235	-19.889020	-64.199235	-0.990253	-157.574328
7.200000	-0.836768	171.396180	-22.337439	-62.106672	-22.337439	-62.106672	-1.006991	-162.842725
7.250000	-0.827766	167.149668	-25.500081	-53.327574	-25.500081	-53.327574	-1.032571	-168.286391
7.300000	-0.825982	162.892853	-28.786066	-27.999882	-28.786066	-27.999882	-1.067478	-173.915189
7.350000	-0.831885	158.628086	-28.481013	12.477145	-28.481013	12.477145	-1.112187	-179.738279
7.400000	-0.845857	154.358924	-24.896214	35.868391	-24.896214	35.868391	-1.167011	174.238490
7.450000	-0.868582	150.090239	-21.602679	43.099945	-21.602679	43.099945	-1.232563	168.002682
7.500000	-0.900311	145.828329	-19.034854	44.190255	-19.034854	44.190255	-1.308868	161.552724
7.550000	-0.941420	141.581007	-16.991251	42.593392	-16.991251	42.593392	-1.396017	154.883653
7.600000	-0.991917	137.357034	-15.315548	39.629452	-15.315548	39.629452	-1.493611	147.998071
7.650000	-1.051833	133.166963	-13.908726	35.852027	-13.908726	35.852027	-1.601161	140.896157
7.700000	-1.120547	129.020484	-12.707816	31.567897	-12.707816	31.567897	-1.717430	133.591092
7.750000	-1.197301	124.927068	-11.670355	26.939890	-11.670355	26.939890	-1.840994	126.096960
7.800000	-1.281464	120.900237	-10.768727	22.058512	-10.768727	22.058512	-1.970286	118.420266
7.850000	-1.371574	116.949442	-9.982164	17.003192	-9.982164	17.003192	-2.102935	110.584684
7.900000	-1.465952	113.082908	-9.295088	11.829297	-9.295088	11.829297	-2.236331	102.616555
7.950000	-1.562713	109.306964	-8.695384	6.579348	-8.695384	6.579348	-2.367682	94.545720
8.000000	-1.659816	105.625750	-8.173360	1.287695	-8.173360	1.287695	-2.494133	86.405202
8.050000	-1.755157	102.040734	-7.720929	-4.017031	-7.720929	-4.017031	-2.612934	78.230730
8.100000	-1.846667	98.550653	-7.331153	-9.310834	-7.331153	-9.310834	-2.721622	70.059535
8.150000	-1.932353	95.152362	-6.998269	-14.573368	-6.998269	-14.573368	-2.818074	61.929528
8.200000	-2.010484	91.839600	-6.716826	-19.788021	-6.716826	-19.788021	-2.900872	53.877317
8.250000	-2.079715	88.603771	-6.481647	-24.942392	-6.481647	-24.942392	-2.969467	45.934932
8.300000	-2.138963	85.435952	-6.288483	-30.027153	-6.288483	-30.027153	-3.023998	38.129722
8.350000	-2.187687	82.325600	-6.132993	-35.037979	-6.132993	-35.037979	-3.065762	30.478533
8.400000	-2.224679	79.265974	-6.014220	-39.967752	-6.014220	-39.967752	-3.096288	23.002563
8.450000	-2.249986	76.245143	-5.928962	-44.820414	-5.928962	-44.820414	-3.119975	15.694705
8.500000	-2.262016	73.254271	-5.880198	-49.592224	-5.880198	-49.592224	-3.144222	8.552697
8.550000	-2.259410	70.274791	-5.873067	-54.275691	-5.873067	-54.275691	-3.185641	1.550078
8.600000	-2.238285	67.259915	-5.927099	-58.778927	-5.927099	-58.778927	-3.285858	-5.265895
8.650000	-2.202916	64.051619	-6.059597	-62.596086	-6.059597	-62.596086	-3.525346	-11.238817
8.700000	-2.222798	60.600966	-6.058105	-65.006979	-6.058105	-65.006979	-3.662868	-14.384115
8.750000	-2.281626	57.697853	-5.833327	-68.703444	-5.833327	-68.703444	-3.303958	-18.422187
8.800000	-2.284697	54.997568	-5.748714	-73.282399	-5.748714	-73.282399	-3.048870	-24.242443
8.850000	-2.262956	52.229607	-5.750244	-77.686166	-5.750244	-77.686166	-2.914096	-30.018921
8.900000	-2.232836	49.412985	-5.785242	-81.865791	-5.785242	-81.865791	-2.826494	-35.486250
8.950000	-2.199106	46.575352	-5.835772	-85.885214	-5.835772	-85.885214	-2.757448	-40.688737
9.000000	-2.163188	43.730640	-5.896303	-89.775438	-5.896303	-89.775438	-2.697719	-45.659021
9.050000	-2.125836	40.887282	-5.964188	-93.557074	-5.964188	-93.557074	-2.643503	-50.426565
9.100000	-2.087673	38.050381	-6.037386	-97.252211	-6.037386	-97.252211	-2.592825	-55.030639
9.150000	-2.049008	35.225067	-6.115403	-100.859181	-6.115403	-100.859181	-2.545391	-59.469034
9.200000	-2.010267	32.412305	-6.196811	-104.398906	-6.196811	-104.398906	-2.500434	-63.783108
9.250000	-1.971728	29.617634	-6.281395	-107.863523	-6.281395	-107.863523	-2.458284	-67.961686
9.300000	-1.933625	26.840310	-6.368212	-111.269453	-6.368212	-111.269453	-2.418474	-72.037536
9.350000	-1.896220	24.084577	-6.456869	-114.613738	-6.456869	-114.613738	-2.381245	-76.009135
9.400000	-1.859664	21.350978	-6.546833	-117.903489	-6.546833	-117.903489	-2.346440	-79.891979
9.450000	-1.824112	18.641105	-6.637650	-121.142155	-6.637650	-121.142155	-2.314040	-83.695207
9.500000	-1.789750	15.957836	-6.728878	-124.330076	-6.728878	-124.330076	-2.284155	-87.422977
9.550000	-1.756560	13.299399	-6.820209	-127.475745	-6.820209	-127.475745	-2.256491	-91.091141
9.600000	-1.724835	10.671707	-6.911068	-130.574532	-6.911068	-130.574532	-2.231421	-94.696992
9.650000	-1.694403	8.070279	-7.001377	-133.637313	-7.001377	-133.637313	-2.208481	-98.258139
9.700000	-1.665548	5.501074	-7.090489	-136.660267	-7.090489	-136.660267	-2.188050	-101.773542
9.750000	-1.638124	2.960766	-7.178358	-139.651046	-7.178358	-139.651046	-2.169817	-105.255265
9.800000	-1.612268	0.452355	-7.264491	-142.609934	-7.264491	-142.609934	-2.153969	-108.707206
9.850000	-1.587972	-2.024246	-7.348637	-145.540375	-7.348637	-145.540375	-2.140494	-112.136148
9.900000	-1.565186	-4.469852	-7.430620	-148.446307	-7.430620	-148.446307	-2.129355	-115.548908
9.950000	-1.544058	-6.881017	-7.509846	-151.328455	-7.509846	-151.328455	-2.120873	-118.950115
10.000000	-1.524350	-9.262530	-7.586573	-154.193072	-7.586573	-154.193072	-2.114765	-122.346626
