! freq	dB(S11)	phase(S11)	dB(S12)	phase(S12)	
!     	dB(S21)	phase(S21)	dB(S22)	phase(S22)	
!S-par simulation data
#  GHz  S  DB  R 50
0.000000	-0.000000	0.000000	-322.082976	0.000000	-322.082976	0.000000	-0.000000	0.000000
0.050000	-0.000827	-1.472132	-108.200764	88.731106	-108.200764	88.731106	-0.000388	-0.815660
0.100000	-0.002794	-2.938220	-102.211924	87.697428	-102.211924	87.697428	-0.001367	-1.628771
0.150000	-0.005093	-4.397356	-98.757203	86.641428	-98.757203	86.641428	-0.002606	-2.438469
0.200000	-0.007312	-5.852064	-96.349325	85.595983	-96.349325	85.595983	-0.003864	-3.245613
0.250000	-0.009365	-7.304056	-94.530593	84.578622	-94.530593	84.578622	-0.005049	-4.051005
0.300000	-0.011285	-8.754278	-93.105152	83.609018	-93.105152	83.609018	-0.006144	-4.855302
0.350000	-0.013152	-10.203524	-91.941796	82.686509	-91.941796	82.686509	-0.007191	-5.659127
0.400000	-0.014989	-11.651751	-90.986391	81.829134	-90.986391	81.829134	-0.008201	-6.462585
0.450000	-0.016824	-13.098916	-90.200927	81.054573	-90.200927	81.054573	-0.009197	-7.265782
0.500000	-0.018669	-14.544782	-89.568945	80.397400	-89.568945	80.397400	-0.010193	-8.068727
0.550000	-0.020525	-15.989534	-89.051070	79.853384	-89.051070	79.853384	-0.011195	-8.871464
0.600000	-0.022393	-17.432879	-88.647315	79.467179	-88.647315	79.467179	-0.012207	-9.673926
0.650000	-0.024268	-18.874708	-88.348652	79.276018	-88.348652	79.276018	-0.013227	-10.476061
0.700000	-0.026145	-20.314906	-88.149472	79.329597	-88.149472	79.329597	-0.014253	-11.277804
0.750000	-0.028020	-21.753347	-88.046676	79.697271	-88.046676	79.697271	-0.015279	-12.079075
0.800000	-0.029891	-23.190221	-88.023861	80.388514	-88.023861	80.388514	-0.016305	-12.879891
0.850000	-0.031752	-24.624969	-88.101040	81.614342	-88.101040	81.614342	-0.017326	-13.680037
0.900000	-0.033602	-26.057708	-88.262771	83.478808	-88.262771	83.478808	-0.018342	-14.479502
0.950000	-0.035440	-27.488416	-88.497531	86.139866	-88.497531	86.139866	-0.019353	-15.278249
1.000000	-0.037266	-28.917015	-88.788472	89.809518	-88.788472	89.809518	-0.020358	-16.076231
1.050000	-0.039079	-30.343426	-89.104593	94.724426	-89.104593	94.724426	-0.021360	-16.873403
1.100000	-0.040879	-31.767574	-89.393588	101.105766	-89.393588	101.105766	-0.022358	-17.669731
1.150000	-0.042668	-33.189386	-89.576286	109.090111	-89.576286	109.090111	-0.023355	-18.465184
1.200000	-0.044444	-34.608571	-89.517647	118.671305	-89.517647	118.671305	-0.024351	-19.259660
1.250000	-0.046209	-36.025008	-89.088439	129.027266	-89.088439	129.027266	-0.025347	-20.053122
1.300000	-0.047964	-37.438872	-88.302155	139.029072	-88.302155	139.029072	-0.026345	-20.845647
1.350000	-0.049712	-38.850101	-87.230849	147.924045	-87.230849	147.924045	-0.027344	-21.637222
1.400000	-0.051451	-40.258634	-85.980396	155.316335	-85.980396	155.316335	-0.028345	-22.427838
1.450000	-0.053186	-41.664662	-84.666897	161.250105	-84.666897	161.250105	-0.029347	-23.217570
1.500000	-0.054913	-43.067503	-83.311127	165.568037	-83.311127	165.568037	-0.030352	-24.006191
1.550000	-0.056637	-44.467445	-81.987245	168.724082	-81.987245	168.724082	-0.031359	-24.793813
1.600000	-0.058357	-45.864226	-80.707026	170.914208	-80.707026	170.914208	-0.032368	-25.580354
1.650000	-0.060074	-47.258037	-79.490076	172.416241	-79.490076	172.416241	-0.033378	-26.365886
1.700000	-0.061789	-48.648512	-78.327195	173.327500	-78.327195	173.327500	-0.034390	-27.150292
1.750000	-0.063503	-50.036100	-77.230913	173.846636	-77.230913	173.846636	-0.035403	-27.933725
1.800000	-0.065217	-51.420524	-76.189899	174.019169	-76.189899	174.019169	-0.036417	-28.716096
1.850000	-0.066931	-52.801750	-75.200126	173.913873	-75.200126	173.913873	-0.037433	-29.497393
1.900000	-0.068645	-54.179748	-74.257543	173.583489	-74.257543	173.583489	-0.038449	-30.277605
1.950000	-0.070360	-55.554490	-73.358303	173.068852	-73.358303	173.068852	-0.039466	-31.056720
2.000000	-0.072078	-56.925954	-72.498864	172.401906	-72.498864	172.401906	-0.040485	-31.834727
2.050000	-0.073797	-58.294120	-71.676009	171.607909	-71.676009	171.607909	-0.041504	-32.611614
2.100000	-0.075519	-59.658971	-70.886845	170.707034	-70.886845	170.707034	-0.042525	-33.387368
2.150000	-0.077243	-61.020496	-70.128776	169.715558	-70.128776	169.715558	-0.043547	-34.161978
2.200000	-0.078972	-62.378684	-69.399481	168.646732	-69.399481	168.646732	-0.044571	-34.935431
2.250000	-0.080704	-63.733532	-68.696878	167.511444	-68.696878	167.511444	-0.045597	-35.707715
2.300000	-0.082440	-65.085037	-68.019099	166.318709	-68.019099	166.318709	-0.046625	-36.478817
2.350000	-0.084181	-66.433200	-67.364466	165.076052	-67.364466	165.076052	-0.047655	-37.248725
2.400000	-0.085927	-67.778026	-66.731466	163.789800	-66.731466	163.789800	-0.048688	-38.017425
2.450000	-0.087678	-69.119524	-66.118732	162.465304	-66.118732	162.465304	-0.049724	-38.784907
2.500000	-0.089436	-70.457705	-65.525025	161.107124	-65.525025	161.107124	-0.050763	-39.551157
2.550000	-0.091200	-71.792441	-64.948342	159.718025	-64.948342	159.718025	-0.051807	-40.316109
2.600000	-0.092972	-73.123894	-64.388639	158.302766	-64.388639	158.302766	-0.052854	-41.079804
2.650000	-0.094751	-74.452087	-63.844966	156.864203	-63.844966	156.864203	-0.053906	-41.842230
2.700000	-0.096538	-75.777042	-63.316455	155.404825	-63.316455	155.404825	-0.054962	-42.603375
2.750000	-0.098333	-77.098788	-62.802310	153.926807	-62.802310	153.926807	-0.056024	-43.363228
2.800000	-0.100138	-78.417355	-62.301799	152.432060	-62.301799	152.432060	-0.057092	-44.121778
2.850000	-0.101953	-79.732776	-61.814247	150.922270	-61.814247	150.922270	-0.058166	-44.879013
2.900000	-0.103779	-81.045086	-61.339029	149.398925	-61.339029	149.398925	-0.059246	-45.634922
2.950000	-0.105616	-82.354324	-60.875568	147.863349	-60.875568	147.863349	-0.060333	-46.389495
3.000000	-0.107465	-83.660532	-60.423328	146.316717	-60.423328	146.316717	-0.061428	-47.142721
3.050000	-0.109327	-84.963752	-59.981811	144.760081	-59.981811	144.760081	-0.062530	-47.894591
3.100000	-0.111203	-86.264031	-59.550552	143.194380	-59.550552	143.194380	-0.063641	-48.645094
3.150000	-0.113093	-87.561417	-59.129120	141.620458	-59.129120	141.620458	-0.064760	-49.394221
3.200000	-0.114998	-88.855962	-58.717109	140.039074	-58.717109	140.039074	-0.065888	-50.141963
3.250000	-0.116919	-90.147717	-58.314142	138.450913	-58.314142	138.450913	-0.067025	-50.888311
3.300000	-0.118857	-91.436739	-57.919862	136.856594	-57.919862	136.856594	-0.068173	-51.633257
3.350000	-0.120813	-92.723085	-57.533936	135.256678	-57.533936	135.256678	-0.069330	-52.376793
3.400000	-0.122788	-94.006814	-57.156053	133.651672	-57.156053	133.651672	-0.070499	-53.118909
3.450000	-0.124783	-95.287988	-56.785916	132.042040	-56.785916	132.042040	-0.071678	-53.859601
3.500000	-0.126798	-96.566670	-56.423249	130.428204	-56.423249	130.428204	-0.072869	-54.598859
3.550000	-0.128834	-97.842925	-56.067788	128.810547	-56.067788	128.810547	-0.074072	-55.336677
3.600000	-0.130894	-99.116822	-55.719288	127.189424	-55.719288	127.189424	-0.075287	-56.073050
3.650000	-0.132976	-100.388428	-55.377513	125.565156	-55.377513	125.565156	-0.076515	-56.807970
3.700000	-0.135084	-101.657814	-55.042242	123.938040	-55.042242	123.938040	-0.077756	-57.541433
3.750000	-0.137216	-102.925053	-54.713266	122.308348	-54.713266	122.308348	-0.079010	-58.273433
3.800000	-0.139376	-104.190131	-54.390130	120.676242	-54.390130	120.676242	-0.080279	-59.003902
3.850000	-0.141564	-105.453219	-54.072923	119.042064	-54.072923	119.042064	-0.081563	-59.732897
3.900000	-0.143780	-106.714392	-53.761463	117.406025	-53.761463	117.406025	-0.082861	-60.460416
3.950000	-0.146025	-107.973731	-53.455579	115.768324	-53.455579	115.768324	-0.084175	-61.186455
4.000000	-0.148301	-109.231313	-53.155108	114.129144	-53.155108	114.129144	-0.085504	-61.911010
4.050000	-0.150607	-110.487222	-52.859894	112.488655	-52.859894	112.488655	-0.086848	-62.634079
4.100000	-0.152946	-111.741540	-52.569789	110.847018	-52.569789	110.847018	-0.088210	-63.355658
4.150000	-0.155317	-112.994351	-52.284652	109.204380	-52.284652	109.204380	-0.089588	-64.075747
4.200000	-0.157723	-114.245739	-52.004348	107.560884	-52.004348	107.560884	-0.090983	-64.794342
4.250000	-0.160162	-115.495792	-51.728749	105.916660	-51.728749	105.916660	-0.092396	-65.511443
4.300000	-0.162638	-116.744596	-51.457733	104.271832	-51.457733	104.271832	-0.093827	-66.227049
4.350000	-0.165149	-117.992242	-51.191182	102.626519	-51.191182	102.626519	-0.095276	-66.941159
4.400000	-0.167697	-119.238818	-50.928984	100.980830	-50.928984	100.980830	-0.096744	-67.653773
4.450000	-0.170283	-120.484415	-50.671033	99.334872	-50.671033	99.334872	-0.098231	-68.364890
4.500000	-0.172907	-121.729126	-50.417226	97.688746	-50.417226	97.688746	-0.099737	-69.074512
4.550000	-0.175569	-122.973043	-50.167464	96.042548	-50.167464	96.042548	-0.101264	-69.782639
4.600000	-0.178271	-124.216260	-49.921654	94.396370	-49.921654	94.396370	-0.102810	-70.489273
4.650000	-0.181013	-125.458873	-49.679706	92.750300	-49.679706	92.750300	-0.104378	-71.194414
4.700000	-0.183796	-126.700977	-49.441533	91.104424	-49.441533	91.104424	-0.105966	-71.898066
4.750000	-0.186619	-127.942669	-49.207053	89.458824	-49.207053	89.458824	-0.107576	-72.600229
4.800000	-0.189484	-129.184047	-48.976186	87.813581	-48.976186	87.813581	-0.109209	-73.300908
4.850000	-0.192390	-130.425209	-48.748855	86.168772	-48.748855	86.168772	-0.110863	-74.000105
4.900000	-0.195338	-131.666256	-48.524988	84.524473	-48.524988	84.524473	-0.112540	-74.697822
4.950000	-0.198328	-132.907287	-48.304514	82.880757	-48.304514	82.880757	-0.114240	-75.394065
5.000000	-0.201361	-134.148403	-48.087365	81.237698	-48.087365	81.237698	-0.115964	-76.088837
5.050000	-0.204438	-135.389721	-47.873390	79.595401	-47.873390	79.595401	-0.117712	-76.782078
5.100000	-0.207557	-136.631338	-47.662621	77.953907	-47.662621	77.953907	-0.119485	-77.473858
5.150000	-0.210719	-137.873360	-47.454997	76.313286	-47.454997	76.313286	-0.121283	-78.164181
5.200000	-0.213924	-139.115890	-47.250460	74.673604	-47.250460	74.673604	-0.123105	-78.853054
5.250000	-0.217171	-140.359034	-47.048953	73.034931	-47.048953	73.034931	-0.124954	-79.540481
5.300000	-0.220460	-141.602898	-46.850422	71.397333	-46.850422	71.397333	-0.126828	-80.226469
5.350000	-0.223792	-142.847590	-46.654815	69.760875	-46.654815	69.760875	-0.128728	-80.911024
5.400000	-0.227165	-144.093216	-46.462082	68.125625	-46.462082	68.125625	-0.130656	-81.594153
5.450000	-0.230580	-145.339886	-46.272174	66.491648	-46.272174	66.491648	-0.132610	-82.275863
5.500000	-0.234036	-146.587709	-46.085043	64.859009	-46.085043	64.859009	-0.134592	-82.956161
5.550000	-0.237533	-147.836794	-45.900646	63.227775	-45.900646	63.227775	-0.136602	-83.635054
5.600000	-0.241070	-149.087253	-45.718937	61.598011	-45.718937	61.598011	-0.138640	-84.312552
5.650000	-0.244647	-150.339196	-45.539874	59.969783	-45.539874	59.969783	-0.140707	-84.988661
5.700000	-0.248263	-151.592736	-45.363418	58.343155	-45.363418	58.343155	-0.142804	-85.663390
5.750000	-0.251917	-152.847985	-45.189527	56.718195	-45.189527	56.718195	-0.144929	-86.336749
5.800000	-0.255610	-154.105058	-45.018164	55.094967	-45.018164	55.094967	-0.147085	-87.008746
5.850000	-0.259340	-155.364068	-44.849291	53.473538	-44.849291	53.473538	-0.149271	-87.679390
5.900000	-0.263106	-156.625131	-44.682873	51.853974	-44.682873	51.853974	-0.151488	-88.348692
5.950000	-0.266909	-157.888361	-44.518875	50.236340	-44.518875	50.236340	-0.153736	-89.016661
6.000000	-0.270746	-159.153874	-44.357262	48.620705	-44.357262	48.620705	-0.156016	-89.683307
6.050000	-0.274617	-160.421789	-44.198003	47.007134	-44.198003	47.007134	-0.158327	-90.348641
6.100000	-0.278522	-161.692221	-44.041065	45.395694	-44.041065	45.395694	-0.160671	-91.012673
6.150000	-0.282459	-162.965290	-43.886416	43.786452	-43.886416	43.786452	-0.163048	-91.675415
6.200000	-0.286428	-164.241114	-43.734028	42.179475	-43.734028	42.179475	-0.165458	-92.336878
6.250000	-0.290428	-165.519811	-43.583870	40.574830	-43.583870	40.574830	-0.167901	-92.997073
6.300000	-0.294459	-166.801638	-43.435902	38.972693	-43.435902	38.972693	-0.170380	-93.655959
6.350000	-0.298519	-168.086590	-43.290111	37.373028	-43.290111	37.373028	-0.172893	-94.313602
6.400000	-0.302607	-169.374787	-43.146471	35.775903	-43.146471	35.775903	-0.175441	-94.970014
6.450000	-0.306722	-170.666352	-43.004955	34.181385	-43.004955	34.181385	-0.178025	-95.625209
6.500000	-0.310865	-171.961407	-42.865538	32.589541	-42.865538	32.589541	-0.180643	-96.279199
6.550000	-0.315033	-173.260073	-42.728193	31.000437	-42.728193	31.000437	-0.183298	-96.931998
6.600000	-0.319227	-174.562473	-42.592895	29.414140	-42.592895	29.414140	-0.185989	-97.583618
6.650000	-0.323445	-175.868732	-42.459620	27.830715	-42.459620	27.830715	-0.188717	-98.234074
6.700000	-0.327688	-177.178971	-42.328344	26.250227	-42.328344	26.250227	-0.191481	-98.883380
6.750000	-0.331955	-178.493317	-42.199043	24.672741	-42.199043	24.672741	-0.194284	-99.531548
6.800000	-0.336246	-179.811893	-42.071693	23.098319	-42.071693	23.098319	-0.197124	-100.178595
6.850000	-0.340561	178.865175	-41.946272	21.527025	-41.946272	21.527025	-0.200002	-100.824535
6.900000	-0.344900	177.537762	-41.822757	19.958919	-41.822757	19.958919	-0.202918	-101.469382
6.950000	-0.349263	176.205742	-41.701125	18.394060	-41.701125	18.394060	-0.205874	-102.113153
7.000000	-0.353651	174.868989	-41.581354	16.832507	-41.581354	16.832507	-0.208868	-102.755862
7.050000	-0.358065	173.527374	-41.463421	15.274315	-41.463421	15.274315	-0.211903	-103.397525
7.100000	-0.362505	172.180771	-41.347305	13.719537	-41.347305	13.719537	-0.214977	-104.038159
7.150000	-0.366973	170.829050	-41.232983	12.168222	-41.232983	12.168222	-0.218091	-104.677780
7.200000	-0.371471	169.472082	-41.120434	10.620419	-41.120434	10.620419	-0.221246	-105.316404
7.250000	-0.376000	168.109737	-41.009634	9.076169	-41.009634	9.076169	-0.224441	-105.954050
7.300000	-0.380563	166.741881	-40.900562	7.535511	-40.900562	7.535511	-0.227677	-106.590733
7.350000	-0.385162	165.368383	-40.793195	5.998477	-40.793195	5.998477	-0.230955	-107.226473
7.400000	-0.389801	163.989106	-40.687509	4.465093	-40.687509	4.465093	-0.234275	-107.861288
7.450000	-0.394483	162.603911	-40.583481	2.935379	-40.583481	2.935379	-0.237636	-108.495195
7.500000	-0.399212	161.212660	-40.481087	1.409344	-40.481087	1.409344	-0.241039	-109.128215
7.550000	-0.403995	159.814930	-40.380321	-0.112854	-40.380321	-0.112854	-0.244486	-109.760331
7.600000	-0.408834	158.410836	-40.281138	-1.631391	-40.281138	-1.631391	-0.247975	-110.391601
7.650000	-0.413736	157.000224	-40.183512	-3.146298	-40.183512	-3.146298	-0.251507	-111.022046
7.700000	-0.418706	155.582934	-40.087412	-4.657627	-40.087412	-4.657627	-0.255082	-111.651689
7.750000	-0.423749	154.158798	-39.992809	-6.165452	-39.992809	-6.165452	-0.258699	-112.280553
7.800000	-0.428872	152.727642	-39.899669	-7.669878	-39.899669	-7.669878	-0.262359	-112.908662
7.850000	-0.434079	151.289280	-39.807955	-9.171046	-39.807955	-9.171046	-0.266062	-113.536040
7.900000	-0.439376	149.843519	-39.717629	-10.669140	-39.717629	-10.669140	-0.269807	-114.162716
7.950000	-0.444767	148.390152	-39.628646	-12.164407	-39.628646	-12.164407	-0.273594	-114.788719
8.000000	-0.450255	146.928962	-39.540957	-13.657165	-39.540957	-13.657165	-0.277423	-115.414079
8.050000	-0.455841	145.459721	-39.454506	-15.147831	-39.454506	-15.147831	-0.281294	-116.038833
8.100000	-0.461524	143.982190	-39.369226	-16.636952	-39.369226	-16.636952	-0.285206	-116.663020
8.150000	-0.467297	142.496122	-39.285042	-18.125247	-39.285042	-18.125247	-0.289158	-117.286683
8.200000	-0.473152	141.001266	-39.201862	-19.613674	-39.201862	-19.613674	-0.293150	-117.909877
8.250000	-0.479074	139.497371	-39.119574	-21.103526	-39.119574	-21.103526	-0.297180	-118.532663
8.300000	-0.485044	137.984196	-39.038044	-22.596571	-39.038044	-22.596571	-0.301247	-119.155119
8.350000	-0.491037	136.462085	-38.957125	-24.094702	-38.957125	-24.094702	-0.305348	-119.777348
8.400000	-0.497022	134.930059	-38.876593	-25.601788	-38.876593	-25.601788	-0.309485	-120.399456
8.450000	-0.502955	133.387380	-38.796103	-27.124475	-38.796103	-27.124475	-0.313657	-121.021647
8.500000	-0.508800	131.835297	-38.715412	-28.668340	-38.715412	-28.668340	-0.317862	-121.644150
8.550000	-0.514506	130.273028	-38.634000	-30.248475	-38.634000	-30.248475	-0.322105	-122.267389
8.600000	-0.520029	128.700831	-38.551436	-31.885820	-38.551436	-31.885820	-0.326401	-122.891952
8.650000	-0.525337	127.119232	-38.467587	-33.616789	-38.467587	-33.616789	-0.330791	-123.518780
8.700000	-0.530372	125.527532	-38.383675	-35.535162	-38.383675	-35.535162	-0.335425	-124.150035
8.750000	-0.535149	123.927462	-38.306992	-37.763280	-38.306992	-37.763280	-0.340616	-124.787987
8.800000	-0.539611	122.317908	-38.285817	-40.757231	-38.285817	-40.757231	-0.347862	-125.439215
8.850000	-0.543781	120.699923	-38.588066	-44.852040	-38.588066	-44.852040	-0.361811	-126.098773
8.900000	-0.547669	119.073784	-39.528943	-43.860153	-39.528943	-43.860153	-0.385802	-126.673963
8.950000	-0.551304	117.439869	-39.246235	-39.379742	-39.246235	-39.379742	-0.391379	-127.150794
9.000000	-0.554720	115.798355	-38.807631	-39.777962	-38.807631	-39.777962	-0.386371	-127.718672
9.050000	-0.557966	114.149431	-38.559307	-41.182289	-38.559307	-41.182289	-0.385095	-128.328850
9.100000	-0.561102	112.494036	-38.394479	-42.697623	-38.394479	-42.697623	-0.386395	-128.946725
9.150000	-0.564167	110.831199	-38.277000	-44.195527	-38.277000	-44.195527	-0.389315	-129.565457
9.200000	-0.567220	109.161417	-38.182107	-45.656343	-38.182107	-45.656343	-0.393025	-130.183302
9.250000	-0.570310	107.485291	-38.099987	-47.086435	-38.099987	-47.086435	-0.397182	-130.800243
9.300000	-0.573479	105.802443	-38.027069	-48.488838	-38.027069	-48.488838	-0.401665	-131.416339
9.350000	-0.576769	104.112873	-37.960587	-49.868231	-37.960587	-49.868231	-0.406377	-132.031742
9.400000	-0.580191	102.417453	-37.898463	-51.230380	-37.898463	-51.230380	-0.411245	-132.646649
9.450000	-0.583827	100.714337	-37.840608	-52.573245	-37.840608	-52.573245	-0.416273	-133.261045
9.500000	-0.587681	99.004474	-37.785754	-53.901502	-37.785754	-53.901502	-0.421415	-133.875104
9.550000	-0.591779	97.287869	-37.733434	-55.216617	-37.733434	-55.216617	-0.426656	-134.488902
9.600000	-0.596143	95.564546	-37.683312	-56.519700	-37.683312	-56.519700	-0.431987	-135.102508
9.650000	-0.600792	93.834545	-37.635136	-57.811607	-37.635136	-57.811607	-0.437398	-135.715977
9.700000	-0.605744	92.097927	-37.588718	-59.093001	-37.588718	-59.093001	-0.442884	-136.329363
9.750000	-0.611015	90.354773	-37.543910	-60.364406	-37.543910	-60.364406	-0.448442	-136.942711
9.800000	-0.616619	88.605186	-37.500593	-61.626237	-37.500593	-61.626237	-0.454068	-137.556065
9.850000	-0.622571	86.849289	-37.458673	-62.878827	-37.458673	-62.878827	-0.459759	-138.169464
9.900000	-0.628884	85.087227	-37.418069	-64.122448	-37.418069	-64.122448	-0.465514	-138.782947
9.950000	-0.635572	83.319164	-37.378715	-65.357320	-37.378715	-65.357320	-0.471330	-139.396551
10.000000	-0.642646	81.545283	-37.340555	-66.583626	-37.340555	-66.583626	-0.477206	-140.010310
