! freq	dB(S11)	phase(S11)	dB(S12)	phase(S12)	
!     	dB(S21)	phase(S21)	dB(S22)	phase(S22)	
!S-par simulation data
#  GHz  S  DB  R 50
0.000000	-0.000000	0.000000	-279.030500	0.000000	-279.030500	0.000000	-0.000000	0.000000
0.050000	-0.000500	-0.775309	-104.737398	88.683421	-104.737398	88.683421	-0.001425	-2.223541
0.100000	-0.001666	-1.546733	-98.758504	87.154974	-98.758504	87.154974	-0.004881	-4.436274
0.150000	-0.002968	-2.314001	-95.306320	85.692056	-95.306320	85.692056	-0.008951	-6.636014
0.200000	-0.004163	-3.078712	-92.903413	84.265767	-92.903413	84.265767	-0.012828	-8.826124
0.250000	-0.005215	-3.842133	-91.090347	82.878944	-91.090347	82.878944	-0.016291	-11.009637
0.300000	-0.006167	-4.605001	-89.662927	81.540143	-89.662927	81.540143	-0.019385	-13.188365
0.350000	-0.007069	-5.367645	-88.509541	80.258123	-88.509541	80.258123	-0.022229	-15.363048
0.400000	-0.007954	-6.130170	-87.566498	79.045584	-87.566498	79.045584	-0.024911	-17.533539
0.450000	-0.008842	-6.892591	-86.797003	77.921856	-86.797003	77.921856	-0.027490	-19.699143
0.500000	-0.009744	-7.654891	-86.169703	76.901003	-86.169703	76.901003	-0.030010	-21.859466
0.550000	-0.010663	-8.417027	-85.666238	76.004504	-85.666238	76.004504	-0.032496	-24.013843
0.600000	-0.011599	-9.178937	-85.278183	75.267320	-85.278183	75.267320	-0.034960	-26.161258
0.650000	-0.012547	-9.940563	-84.993672	74.719243	-84.993672	74.719243	-0.037411	-28.301258
0.700000	-0.013503	-10.701841	-84.805980	74.401171	-84.805980	74.401171	-0.039852	-30.433287
0.750000	-0.014464	-11.462688	-84.714156	74.378170	-84.714156	74.378170	-0.042285	-32.556468
0.800000	-0.015425	-12.223028	-84.715433	74.726219	-84.715433	74.726219	-0.044710	-34.670225
0.850000	-0.016384	-12.982798	-84.806472	75.540416	-84.806472	75.540416	-0.047125	-36.774123
0.900000	-0.017339	-13.741936	-84.983774	76.949445	-84.983774	76.949445	-0.049527	-38.867683
0.950000	-0.018292	-14.500384	-85.240990	79.125966	-85.240990	79.125966	-0.051916	-40.950397
1.000000	-0.019241	-15.258094	-85.563823	82.288983	-85.563823	82.288983	-0.054288	-43.021827
1.050000	-0.020189	-16.015028	-85.923550	86.701270	-85.923550	86.701270	-0.056640	-45.081572
1.100000	-0.021135	-16.771154	-86.267235	92.632373	-86.267235	92.632373	-0.058971	-47.129261
1.150000	-0.022082	-17.526450	-86.508505	100.253216	-86.508505	100.253216	-0.061278	-49.164557
1.200000	-0.023029	-18.280896	-86.531210	109.443340	-86.531210	109.443340	-0.063558	-51.187151
1.250000	-0.023977	-19.034478	-86.224284	119.602476	-86.224284	119.602476	-0.065809	-53.196765
1.300000	-0.024928	-19.787164	-85.533202	129.691022	-85.533202	129.691022	-0.068029	-55.192856
1.350000	-0.025880	-20.538964	-84.520979	138.707950	-84.520979	138.707950	-0.070217	-57.175483
1.400000	-0.026835	-21.289869	-83.301113	146.122061	-83.301113	146.122061	-0.072371	-59.144451
1.450000	-0.027792	-22.039872	-81.984822	151.865323	-81.984822	151.865323	-0.074491	-61.099587
1.500000	-0.028750	-22.788964	-80.650973	156.131360	-80.650973	156.131360	-0.076575	-63.040745
1.550000	-0.029711	-23.537139	-79.345425	159.192784	-79.345425	159.192784	-0.078624	-64.967797
1.600000	-0.030673	-24.284388	-78.090922	161.307221	-78.090922	161.307221	-0.080637	-66.880642
1.650000	-0.031636	-25.030705	-76.896536	162.686621	-76.896536	162.686621	-0.082614	-68.779194
1.700000	-0.032600	-25.776079	-75.764003	163.495568	-75.764003	163.495568	-0.084555	-70.663392
1.750000	-0.033566	-26.520503	-74.691414	163.859032	-74.691414	163.859032	-0.086461	-72.533191
1.800000	-0.034532	-27.263968	-73.675230	163.871409	-73.675230	163.871409	-0.088334	-74.388563
1.850000	-0.035499	-28.006463	-72.711337	163.604251	-72.711337	163.604251	-0.090173	-76.229501
1.900000	-0.036467	-28.747970	-71.795054	163.110260	-71.795054	163.110260	-0.091979	-78.055854
1.950000	-0.037435	-29.488476	-70.922581	162.432705	-70.922581	162.432705	-0.093755	-79.867645
2.000000	-0.038404	-30.227982	-70.090798	161.606401	-70.090798	161.606401	-0.095501	-81.665070
2.050000	-0.039374	-30.966477	-69.296356	160.656925	-69.296356	160.656925	-0.097219	-83.448181
2.100000	-0.040345	-31.703951	-68.536250	159.604690	-68.536250	159.604690	-0.098911	-85.217041
2.150000	-0.041317	-32.440391	-67.807790	158.466140	-67.807790	158.466140	-0.100578	-86.971729
2.200000	-0.042291	-33.175788	-67.108570	157.254645	-67.108570	157.254645	-0.102223	-88.712332
2.250000	-0.043266	-33.910129	-66.436440	155.981169	-66.436440	155.981169	-0.103846	-90.438950
2.300000	-0.044243	-34.643403	-65.789472	154.654773	-65.789472	154.654773	-0.105450	-92.151692
2.350000	-0.045222	-35.375598	-65.165937	153.283002	-65.165937	153.283002	-0.107037	-93.850678
2.400000	-0.046203	-36.106703	-64.564275	151.872182	-64.564275	151.872182	-0.108608	-95.536034
2.450000	-0.047188	-36.836706	-63.983082	150.427652	-63.983082	150.427652	-0.110166	-97.207898
2.500000	-0.048175	-37.565595	-63.421085	148.953944	-63.421085	148.953944	-0.111711	-98.866413
2.550000	-0.049166	-38.293323	-62.876606	147.454199	-62.876606	147.454199	-0.113246	-100.511304
2.600000	-0.050161	-39.019912	-62.349185	145.932661	-62.349185	145.932661	-0.114773	-102.143165
2.650000	-0.051160	-39.745353	-61.837855	144.392151	-61.837855	144.392151	-0.116294	-103.762161
2.700000	-0.052163	-40.469633	-61.341729	142.835116	-61.341729	142.835116	-0.117809	-105.368460
2.750000	-0.053172	-41.192743	-60.859997	141.263687	-60.859997	141.263687	-0.119322	-106.962237
2.800000	-0.054185	-41.914669	-60.391913	139.679727	-60.391913	139.679727	-0.120833	-108.543672
2.850000	-0.055205	-42.635403	-59.936790	138.084871	-59.936790	138.084871	-0.122343	-110.112946
2.900000	-0.056230	-43.354933	-59.493994	136.480556	-59.493994	136.480556	-0.123856	-111.670247
2.950000	-0.057262	-44.073249	-59.062938	134.868055	-59.062938	134.868055	-0.125371	-113.215764
3.000000	-0.058301	-44.790340	-58.643077	133.248493	-58.643077	133.248493	-0.126891	-114.749691
3.050000	-0.059348	-45.506197	-58.233906	131.622870	-58.233906	131.622870	-0.128417	-116.272222
3.100000	-0.060401	-46.220809	-57.834955	129.992076	-57.834955	129.992076	-0.129949	-117.783555
3.150000	-0.061463	-46.934168	-57.445784	128.356908	-57.445784	128.356908	-0.131490	-119.283890
3.200000	-0.062534	-47.646263	-57.065983	126.718076	-57.065983	126.718076	-0.133040	-120.773428
3.250000	-0.063613	-48.357087	-56.695169	125.076220	-56.695169	125.076220	-0.134601	-122.252371
3.300000	-0.064702	-49.066629	-56.332981	123.431915	-56.332981	123.431915	-0.136173	-123.720922
3.350000	-0.065800	-49.774882	-55.979083	121.785678	-55.979083	121.785678	-0.137758	-125.179286
3.400000	-0.066908	-50.481838	-55.633158	120.137976	-55.633158	120.137976	-0.139357	-126.627668
3.450000	-0.068027	-51.187488	-55.294906	118.489231	-55.294906	118.489231	-0.140970	-128.066272
3.500000	-0.069156	-51.891825	-54.964046	116.839827	-54.964046	116.839827	-0.142599	-129.495303
3.550000	-0.070297	-52.594842	-54.640312	115.190112	-54.640312	115.190112	-0.144244	-130.914968
3.600000	-0.071449	-53.296531	-54.323453	113.540400	-54.323453	113.540400	-0.145906	-132.325471
3.650000	-0.072613	-53.996887	-54.013233	111.890979	-54.013233	111.890979	-0.147585	-133.727017
3.700000	-0.073789	-54.695902	-53.709424	110.242111	-53.709424	110.242111	-0.149284	-135.119810
3.750000	-0.074978	-55.393571	-53.411816	108.594035	-53.411816	108.594035	-0.151001	-136.504053
3.800000	-0.076181	-56.089828	-53.120039	106.947022	-53.120039	106.947022	-0.152739	-137.879596
3.850000	-0.077397	-56.784728	-52.834084	105.301235	-52.834084	105.301235	-0.154497	-139.247011
3.900000	-0.078627	-57.478264	-52.553765	103.656855	-52.553765	103.656855	-0.156276	-140.606500
3.950000	-0.079872	-58.170433	-52.278908	102.014046	-52.278908	102.014046	-0.158077	-141.958262
4.000000	-0.081131	-58.861229	-52.009346	100.372960	-52.009346	100.372960	-0.159899	-143.302495
4.050000	-0.082404	-59.550649	-51.744918	98.733736	-51.744918	98.733736	-0.161744	-144.639396
4.100000	-0.083694	-60.238689	-51.485473	97.096502	-51.485473	97.096502	-0.163611	-145.969160
4.150000	-0.084998	-60.925346	-51.230866	95.461374	-51.230866	95.461374	-0.165501	-147.291982
4.200000	-0.086319	-61.610615	-50.980958	93.828459	-50.980958	93.828459	-0.167415	-148.608053
4.250000	-0.087657	-62.294496	-50.735615	92.197857	-50.735615	92.197857	-0.169352	-149.917565
4.300000	-0.089011	-62.976984	-50.494712	90.569657	-50.494712	90.569657	-0.171313	-151.220707
4.350000	-0.090383	-63.658078	-50.258125	88.943941	-50.258125	88.943941	-0.173298	-152.517666
4.400000	-0.091772	-64.337777	-50.025740	87.320788	-50.025740	87.320788	-0.175307	-153.808629
4.450000	-0.093179	-65.016078	-49.797443	85.700265	-49.797443	85.700265	-0.177341	-155.093780
4.500000	-0.094604	-65.692980	-49.573128	84.082436	-49.573128	84.082436	-0.179400	-156.373301
4.550000	-0.096048	-66.368483	-49.352692	82.467360	-49.352692	82.467360	-0.181484	-157.647373
4.600000	-0.097511	-67.042585	-49.136036	80.855091	-49.136036	80.855091	-0.183592	-158.916174
4.650000	-0.098994	-67.715287	-48.923065	79.245677	-48.923065	79.245677	-0.185726	-160.179883
4.700000	-0.100496	-68.386589	-48.713688	77.639163	-48.713688	77.639163	-0.187884	-161.438673
4.750000	-0.102018	-69.056491	-48.507818	76.035589	-48.507818	76.035589	-0.190068	-162.692719
4.800000	-0.103562	-69.724993	-48.305369	74.434993	-48.305369	74.434993	-0.192277	-163.942193
4.850000	-0.105126	-70.392097	-48.106261	72.837409	-48.106261	72.837409	-0.194511	-165.187263
4.900000	-0.106711	-71.057804	-47.910416	71.242867	-47.910416	71.242867	-0.196770	-166.428098
4.950000	-0.108318	-71.722115	-47.717759	69.651397	-47.717759	69.651397	-0.199054	-167.664864
5.000000	-0.109948	-72.385032	-47.528218	68.063025	-47.528218	68.063025	-0.201364	-168.897724
5.050000	-0.111600	-73.046497	-47.341680	66.477910	-47.341680	66.477910	-0.203699	-170.126687
5.100000	-0.113276	-73.706572	-47.158127	64.895940	-47.158127	64.895940	-0.206060	-171.352082
5.150000	-0.114975	-74.365262	-46.977493	63.317136	-46.977493	63.317136	-0.208445	-172.574068
5.200000	-0.116698	-75.022568	-46.799716	61.741515	-46.799716	61.741515	-0.210855	-173.792801
5.250000	-0.118444	-75.678494	-46.624736	60.169096	-46.624736	60.169096	-0.213290	-175.008436
5.300000	-0.120216	-76.333043	-46.452494	58.599895	-46.452494	58.599895	-0.215749	-176.221126
5.350000	-0.122012	-76.986220	-46.282935	57.033929	-46.282935	57.033929	-0.218233	-177.431022
5.400000	-0.123833	-77.638027	-46.116005	55.471212	-46.116005	55.471212	-0.220741	-178.638273
5.450000	-0.125680	-78.288471	-45.951652	53.911759	-45.951652	53.911759	-0.223272	-179.843028
5.500000	-0.127553	-78.937555	-45.789826	52.355587	-45.789826	52.355587	-0.225828	178.954569
5.550000	-0.129452	-79.585284	-45.630479	50.802709	-45.630479	50.802709	-0.228407	177.754373
5.600000	-0.131378	-80.231664	-45.473564	49.253141	-45.473564	49.253141	-0.231009	176.556243
5.650000	-0.133332	-80.876699	-45.319037	47.706899	-45.319037	47.706899	-0.233634	175.360036
5.700000	-0.135312	-81.520395	-45.166854	46.164000	-45.166854	46.164000	-0.236283	174.165616
5.750000	-0.137321	-82.162759	-45.016973	44.624460	-45.016973	44.624460	-0.238953	172.972844
5.800000	-0.139359	-82.803796	-44.869354	43.088297	-44.869354	43.088297	-0.241647	171.781585
5.850000	-0.141425	-83.443513	-44.723959	41.555531	-44.723959	41.555531	-0.244362	170.591706
5.900000	-0.143520	-84.081916	-44.580749	40.026182	-44.580749	40.026182	-0.247099	169.403076
5.950000	-0.145645	-84.719012	-44.439689	38.500273	-44.439689	38.500273	-0.249858	168.215563
6.000000	-0.147800	-85.354808	-44.300743	36.977826	-44.300743	36.977826	-0.252638	167.029039
6.050000	-0.149985	-85.989311	-44.163878	35.458867	-44.163878	35.458867	-0.255439	165.843378
6.100000	-0.152201	-86.622530	-44.029062	33.943424	-44.029062	33.943424	-0.258260	164.658455
6.150000	-0.154449	-87.254471	-43.896261	32.431524	-43.896261	32.431524	-0.261102	163.474145
6.200000	-0.156728	-87.885143	-43.765446	30.923200	-43.765446	30.923200	-0.263963	162.290329
6.250000	-0.159039	-88.514554	-43.636587	29.418485	-43.636587	29.418485	-0.266845	161.106884
6.300000	-0.161383	-89.142658	-43.509658	27.917573	-43.509658	27.917573	-0.269746	159.923700
6.350000	-0.163761	-89.769518	-43.384630	26.420348	-43.384630	26.420348	-0.272667	158.740643
6.400000	-0.166171	-90.395144	-43.261477	24.926849	-43.261477	24.926849	-0.275606	157.557598
6.450000	-0.168616	-91.019544	-43.140171	23.437121	-43.140171	23.437121	-0.278564	156.374454
6.500000	-0.171094	-91.642728	-43.020687	21.951208	-43.020687	21.951208	-0.281539	155.191098
6.550000	-0.173607	-92.264705	-42.903000	20.469160	-42.903000	20.469160	-0.284532	154.007421
6.600000	-0.176154	-92.885485	-42.787084	18.991028	-42.787084	18.991028	-0.287543	152.823315
6.650000	-0.178737	-93.505077	-42.672917	17.516865	-42.672917	17.516865	-0.290570	151.638675
6.700000	-0.181355	-94.123492	-42.560473	16.046730	-42.560473	16.046730	-0.293614	150.453395
6.750000	-0.184010	-94.740739	-42.449730	14.580680	-42.449730	14.580680	-0.296675	149.267375
6.800000	-0.186700	-95.356830	-42.340665	13.118779	-42.340665	13.118779	-0.299751	148.080512
6.850000	-0.189428	-95.971774	-42.233256	11.661092	-42.233256	11.661092	-0.302844	146.892709
6.900000	-0.192193	-96.585583	-42.127481	10.207686	-42.127481	10.207686	-0.305951	145.703868
6.950000	-0.194995	-97.198268	-42.023317	8.758631	-42.023317	8.758631	-0.309074	144.513894
7.000000	-0.197835	-97.809839	-41.920743	7.314002	-41.920743	7.314002	-0.312211	143.322693
7.050000	-0.200713	-98.420307	-41.819738	5.873872	-41.819738	5.873872	-0.315363	142.130175
7.100000	-0.203630	-99.029686	-41.720280	4.438321	-41.720280	4.438321	-0.318529	140.936249
7.150000	-0.206586	-99.637985	-41.622347	3.007430	-41.622347	3.007430	-0.321709	139.740829
7.200000	-0.209582	-100.245217	-41.525919	1.581280	-41.525919	1.581280	-0.324902	138.543828
7.250000	-0.212617	-100.851394	-41.430975	0.159957	-41.430975	0.159957	-0.328109	137.345163
7.300000	-0.215693	-101.456528	-41.337492	-1.256450	-41.337492	-1.256450	-0.331329	136.144752
7.350000	-0.218809	-102.060631	-41.245451	-2.667854	-41.245451	-2.667854	-0.334562	134.942517
7.400000	-0.221966	-102.663716	-41.154828	-4.074163	-41.154828	-4.074163	-0.337807	133.738379
7.450000	-0.225164	-103.265795	-41.065604	-5.475283	-41.065604	-5.475283	-0.341066	132.532263
7.500000	-0.228404	-103.866882	-40.977756	-6.871120	-40.977756	-6.871120	-0.344336	131.324097
7.550000	-0.231688	-104.466948	-40.891284	-8.261339	-40.891284	-8.261339	-0.347619	130.113713
7.600000	-0.235014	-105.066048	-40.806145	-9.646071	-40.806145	-9.646071	-0.350914	128.901134
7.650000	-0.238383	-105.664196	-40.722315	-11.025219	-40.722315	-11.025219	-0.354221	127.686292
7.700000	-0.241795	-106.261405	-40.639774	-12.398682	-40.639774	-12.398682	-0.357540	126.469125
7.750000	-0.245250	-106.857690	-40.558497	-13.766359	-40.558497	-13.766359	-0.360871	125.249570
7.800000	-0.248749	-107.453064	-40.478461	-15.128149	-40.478461	-15.128149	-0.364213	124.027570
7.850000	-0.252292	-108.047541	-40.399643	-16.483949	-40.399643	-16.483949	-0.367567	122.803068
7.900000	-0.255879	-108.641136	-40.322019	-17.833658	-40.322019	-17.833658	-0.370933	121.576010
7.950000	-0.259511	-109.233861	-40.245565	-19.177172	-40.245565	-19.177172	-0.374310	120.346345
8.000000	-0.263188	-109.825733	-40.170256	-20.514390	-40.170256	-20.514390	-0.377699	119.114024
8.050000	-0.266910	-110.416765	-40.096067	-21.845208	-40.096067	-21.845208	-0.381101	117.879002
8.100000	-0.270678	-111.006973	-40.022973	-23.169525	-40.022973	-23.169525	-0.384514	116.641236
8.150000	-0.274491	-111.596370	-39.950948	-24.487240	-39.950948	-24.487240	-0.387939	115.400684
8.200000	-0.278351	-112.184974	-39.879966	-25.798252	-39.879966	-25.798252	-0.391376	114.157310
8.250000	-0.282258	-112.772797	-39.810000	-27.102459	-39.810000	-27.102459	-0.394826	112.911078
8.300000	-0.286211	-113.359857	-39.741024	-28.399765	-39.741024	-28.399765	-0.398289	111.661958
8.350000	-0.290211	-113.946168	-39.673011	-29.690071	-39.673011	-29.690071	-0.401765	110.409920
8.400000	-0.294258	-114.531747	-39.605932	-30.973280	-39.605932	-30.973280	-0.405254	109.154939
8.450000	-0.298353	-115.116609	-39.539760	-32.249297	-39.539760	-32.249297	-0.408758	107.896992
8.500000	-0.302496	-115.700770	-39.474466	-33.518029	-39.474466	-33.518029	-0.412275	106.636059
8.550000	-0.306686	-116.284246	-39.410022	-34.779384	-39.410022	-34.779384	-0.415807	105.372125
8.600000	-0.310925	-116.867054	-39.346399	-36.033272	-39.346399	-36.033272	-0.419354	104.105176
8.650000	-0.315212	-117.449211	-39.283566	-37.279606	-39.283566	-37.279606	-0.422917	102.835202
8.700000	-0.319549	-118.030732	-39.221494	-38.518299	-39.221494	-38.518299	-0.426497	101.562198
8.750000	-0.323933	-118.611635	-39.160154	-39.749267	-39.160154	-39.749267	-0.430093	100.286160
8.800000	-0.328370	-119.191912	-39.099524	-40.972086	-39.099524	-40.972086	-0.433707	99.006957
8.850000	-0.332855	-119.771606	-39.039563	-42.187013	-39.039563	-42.187013	-0.437340	97.724725
8.900000	-0.337390	-120.350735	-38.980237	-43.393971	-38.980237	-43.393971	-0.440992	96.439472
8.950000	-0.341974	-120.929317	-38.921516	-44.592886	-38.921516	-44.592886	-0.444664	95.151211
9.000000	-0.346609	-121.507369	-38.863368	-45.783687	-38.863368	-45.783687	-0.448356	93.859955
9.050000	-0.351293	-122.084909	-38.805761	-46.966305	-38.805761	-46.966305	-0.452070	92.565723
9.100000	-0.356028	-122.661956	-38.748662	-48.140673	-38.748662	-48.140673	-0.455807	91.268539
9.150000	-0.360812	-123.238526	-38.692039	-49.306728	-38.692039	-49.306728	-0.459568	89.968428
9.200000	-0.365647	-123.814640	-38.635859	-50.464408	-38.635859	-50.464408	-0.463353	88.665420
9.250000	-0.370533	-124.390315	-38.580088	-51.613654	-38.580088	-51.613654	-0.467163	87.359548
9.300000	-0.375469	-124.965570	-38.524694	-52.754412	-38.524694	-52.754412	-0.471001	86.050851
9.350000	-0.380456	-125.540425	-38.469643	-53.886627	-38.469643	-53.886627	-0.474866	84.739369
9.400000	-0.385493	-126.114898	-38.414901	-55.010248	-38.414901	-55.010248	-0.478761	83.425147
9.450000	-0.390581	-126.689008	-38.360435	-56.125229	-38.360435	-56.125229	-0.482686	82.108234
9.500000	-0.395721	-127.262776	-38.306210	-57.231521	-38.306210	-57.231521	-0.486643	80.788683
9.550000	-0.400910	-127.836221	-38.252192	-58.329084	-38.252192	-58.329084	-0.490633	79.466551
9.600000	-0.406151	-128.409363	-38.198346	-59.417875	-38.198346	-59.417875	-0.494658	78.141896
9.650000	-0.411443	-128.982222	-38.144639	-60.497855	-38.144639	-60.497855	-0.498718	76.814784
9.700000	-0.416786	-129.554818	-38.091036	-61.568990	-38.091036	-61.568990	-0.502816	75.485283
9.750000	-0.422179	-130.127172	-38.037501	-62.631244	-38.037501	-62.631244	-0.506953	74.153463
9.800000	-0.427624	-130.699305	-37.984000	-63.684586	-37.984000	-63.684586	-0.511130	72.819401
9.850000	-0.433119	-131.271238	-37.930497	-64.728985	-37.930497	-64.728985	-0.515349	71.483175
9.900000	-0.438665	-131.842992	-37.876958	-65.764414	-37.876958	-65.764414	-0.519611	70.144869
9.950000	-0.444261	-132.414588	-37.823347	-66.790845	-37.823347	-66.790845	-0.523919	68.804568
10.000000	-0.449908	-132.986048	-37.769629	-67.808256	-37.769629	-67.808256	-0.528273	67.462362
