! freq	dB(S11)	phase(S11)	dB(S12)	phase(S12)	
!     	dB(S21)	phase(S21)	dB(S22)	phase(S22)	
!S-par simulation data
#  GHz  S  DB  R 50
0.000000	-0.000000	-0.000000	-366.337415	180.000000	-366.337415	180.000000	0.000000	0.000000
0.050000	-0.000532	-0.829564	-111.562323	89.101400	-111.562323	89.101400	-0.000748	-1.178017
0.100000	-0.001771	-1.655065	-105.597991	88.141865	-105.597991	88.141865	-0.002532	-2.350568
0.150000	-0.003167	-2.476159	-102.159475	87.171614	-102.159475	87.171614	-0.004608	-3.516887
0.200000	-0.004441	-3.294398	-99.777963	86.231359	-99.777963	86.231359	-0.006552	-4.678896
0.250000	-0.005580	-4.111383	-97.981451	85.334446	-97.981451	85.334446	-0.008303	-5.838883
0.300000	-0.006613	-4.927745	-96.570930	84.496154	-96.570930	84.496154	-0.009885	-6.997788
0.350000	-0.007587	-5.743832	-95.438557	83.730548	-95.438557	83.730548	-0.011355	-8.156148
0.400000	-0.008537	-6.559771	-94.522129	83.055222	-94.522129	83.055222	-0.012760	-9.314147
0.450000	-0.009486	-7.375570	-93.790820	82.502624	-93.790820	82.502624	-0.014132	-10.471756
0.500000	-0.010446	-8.191211	-93.208750	82.088609	-93.208750	82.088609	-0.015494	-11.628922
0.550000	-0.011420	-9.006641	-92.758772	81.845201	-92.758772	81.845201	-0.016856	-12.785526
0.600000	-0.012408	-9.821796	-92.429586	81.813264	-92.429586	81.813264	-0.018223	-13.941441
0.650000	-0.013407	-10.636608	-92.214013	82.045695	-92.214013	82.045695	-0.019599	-15.096534
0.700000	-0.014415	-11.451001	-92.107804	82.611895	-92.107804	82.611895	-0.020983	-16.250679
0.750000	-0.015427	-12.264865	-92.115063	83.638123	-92.115063	83.638123	-0.022376	-17.403683
0.800000	-0.016440	-13.078119	-92.232751	85.271367	-92.232751	85.271367	-0.023777	-18.555424
0.850000	-0.017453	-13.890701	-92.452904	87.701259	-92.452904	87.701259	-0.025186	-19.705820
0.900000	-0.018465	-14.702599	-92.758380	91.103559	-92.758380	91.103559	-0.026601	-20.854878
0.950000	-0.019474	-15.513719	-93.129871	95.843600	-93.129871	95.843600	-0.028021	-22.002433
1.000000	-0.020483	-16.324011	-93.514737	102.289458	-93.514737	102.289458	-0.029446	-23.148406
1.050000	-0.021490	-17.133434	-93.816150	110.747284	-93.816150	110.747284	-0.030876	-24.292726
1.100000	-0.022497	-17.941956	-93.887670	121.211055	-93.887670	121.211055	-0.032308	-25.435326
1.150000	-0.023505	-18.749550	-93.571654	133.035852	-93.571654	133.035852	-0.033743	-26.576149
1.200000	-0.024514	-19.556192	-92.791649	144.904813	-92.791649	144.904813	-0.035181	-27.715141
1.250000	-0.025524	-20.361866	-91.614742	155.440700	-91.614742	155.440700	-0.036620	-28.852254
1.300000	-0.026536	-21.166513	-90.182540	163.831350	-90.182540	163.831350	-0.038060	-29.987360
1.350000	-0.027550	-21.970163	-88.664185	170.182504	-88.664185	170.182504	-0.039500	-31.120498
1.400000	-0.028565	-22.772803	-87.151662	174.831879	-87.151662	174.831879	-0.040941	-32.251634
1.450000	-0.029583	-23.574424	-85.691471	178.155029	-85.691471	178.155029	-0.042380	-33.380731
1.500000	-0.030602	-24.375015	-84.302640	-179.529269	-84.302640	-179.529269	-0.043819	-34.507759
1.550000	-0.031622	-25.174565	-82.989912	-177.975732	-82.989912	-177.975732	-0.045257	-35.632688
1.600000	-0.032644	-25.973066	-81.751301	-177.002590	-81.751301	-177.002590	-0.046693	-36.755488
1.650000	-0.033667	-26.770506	-80.582008	-176.476510	-80.582008	-176.476510	-0.048128	-37.876133
1.700000	-0.034690	-27.566874	-79.476332	-176.299405	-79.476332	-176.299405	-0.049561	-38.994597
1.750000	-0.035715	-28.362161	-78.428557	-176.398441	-78.428557	-176.398441	-0.050992	-40.110855
1.800000	-0.036740	-29.156355	-77.433334	-176.718879	-77.433334	-176.718879	-0.052421	-41.224886
1.850000	-0.037765	-29.949445	-76.485821	-177.219038	-76.485821	-177.219038	-0.053849	-42.336665
1.900000	-0.038791	-30.741418	-75.581701	-177.866758	-75.581701	-177.866758	-0.055275	-43.446171
1.950000	-0.039818	-31.532264	-74.717155	-178.636908	-74.717155	-178.636908	-0.056699	-44.553384
2.000000	-0.040845	-32.321969	-73.888814	-179.509612	-73.888814	-179.509612	-0.058122	-45.658285
2.050000	-0.041874	-33.110522	-73.093705	179.531031	-73.093705	179.531031	-0.059545	-46.760853
2.100000	-0.042903	-33.897910	-72.329201	178.497873	-72.329201	178.497873	-0.060967	-47.861071
2.150000	-0.043933	-34.684121	-71.592973	177.401407	-71.592973	177.401407	-0.062389	-48.958921
2.200000	-0.044965	-35.469141	-70.882953	176.250277	-70.882953	176.250277	-0.063811	-50.054388
2.250000	-0.045998	-36.252958	-70.197295	175.051665	-70.197295	175.051665	-0.065234	-51.147455
2.300000	-0.047034	-37.035559	-69.534349	173.811586	-69.534349	173.811586	-0.066658	-52.238108
2.350000	-0.048072	-37.816931	-68.892631	172.535112	-68.892631	172.535112	-0.068085	-53.326333
2.400000	-0.049112	-38.597062	-68.270807	171.226553	-68.270807	171.226553	-0.069513	-54.412116
2.450000	-0.050156	-39.375939	-67.667666	169.889591	-67.667666	169.889591	-0.070945	-55.495447
2.500000	-0.051203	-40.153548	-67.082116	168.527393	-67.082116	168.527393	-0.072381	-56.576313
2.550000	-0.052254	-40.929823	-66.512263	167.141830	-66.512263	167.141830	-0.073821	-57.654597
2.600000	-0.053308	-41.704804	-65.958190	165.736334	-65.958190	165.736334	-0.075266	-58.730397
2.650000	-0.054368	-42.478481	-65.419053	164.312950	-65.419053	164.312950	-0.076717	-59.803705
2.700000	-0.055433	-43.250840	-64.894079	162.873473	-64.894079	162.873473	-0.078175	-60.874513
2.750000	-0.056503	-44.021871	-64.382558	161.419489	-64.382558	161.419489	-0.079639	-61.942817
2.800000	-0.057579	-44.791562	-63.883835	159.952403	-63.883835	159.952403	-0.081112	-63.008612
2.850000	-0.058661	-45.559902	-63.397304	158.473464	-63.397304	158.473464	-0.082593	-64.071893
2.900000	-0.059749	-46.326879	-62.922404	156.983789	-62.922404	156.983789	-0.084083	-65.132658
2.950000	-0.060845	-47.092482	-62.458617	155.484376	-62.458617	155.484376	-0.085583	-66.190907
3.000000	-0.061949	-47.856703	-62.005458	153.976124	-62.005458	153.976124	-0.087093	-67.246637
3.050000	-0.063060	-48.619529	-61.562477	152.459843	-61.562477	152.459843	-0.088615	-68.299851
3.100000	-0.064180	-49.380953	-61.129252	150.936263	-61.129252	150.936263	-0.090149	-69.350551
3.150000	-0.065309	-50.140963	-60.705391	149.406048	-60.705391	149.406048	-0.091695	-70.398738
3.200000	-0.066446	-50.899551	-60.290525	147.869801	-60.290525	147.869801	-0.093255	-71.444418
3.250000	-0.067594	-51.656708	-59.884308	146.328071	-59.884308	146.328071	-0.094829	-72.487597
3.300000	-0.068751	-52.412427	-59.486415	144.781359	-59.486415	144.781359	-0.096418	-73.528280
3.350000	-0.069919	-53.166698	-59.096540	143.230125	-59.096540	143.230125	-0.098022	-74.566476
3.400000	-0.071098	-53.919514	-58.714395	141.674789	-58.714395	141.674789	-0.099642	-75.602193
3.450000	-0.072289	-54.670868	-58.339709	140.115738	-58.339709	140.115738	-0.101279	-76.635442
3.500000	-0.073491	-55.420753	-57.972223	138.553330	-57.972223	138.553330	-0.102933	-77.666234
3.550000	-0.074705	-56.169162	-57.611695	136.987892	-57.611695	136.987892	-0.104606	-78.694581
3.600000	-0.075931	-56.916089	-57.257894	135.419728	-57.257894	135.419728	-0.106297	-79.720497
3.650000	-0.077171	-57.661529	-56.910602	133.849119	-56.910602	133.849119	-0.108007	-80.743996
3.700000	-0.078424	-58.405476	-56.569611	132.276327	-56.569611	132.276327	-0.109737	-81.765095
3.750000	-0.079691	-59.147926	-56.234725	130.701593	-56.234725	130.701593	-0.111488	-82.783810
3.800000	-0.080973	-59.888807	-55.905472	129.125077	-55.905472	129.125077	-0.113261	-83.800059
3.850000	-0.082269	-60.628182	-55.581979	127.547072	-55.581979	127.547072	-0.115056	-84.813962
3.900000	-0.083580	-61.366047	-55.264074	125.967770	-55.264074	125.967770	-0.116873	-85.825542
3.950000	-0.084907	-62.102397	-54.951593	124.387353	-54.951593	124.387353	-0.118714	-86.834820
4.000000	-0.086249	-62.837231	-54.644380	122.805988	-54.644380	122.805988	-0.120577	-87.841818
4.050000	-0.087608	-63.570547	-54.342285	121.223834	-54.342285	121.223834	-0.122465	-88.846561
4.100000	-0.088983	-64.302341	-54.045165	119.641038	-54.045165	119.641038	-0.124378	-89.849073
4.150000	-0.090375	-65.032612	-53.752884	118.057740	-53.752884	118.057740	-0.126317	-90.849379
4.200000	-0.091784	-65.761359	-53.465311	116.474068	-53.465311	116.474068	-0.128281	-91.847508
4.250000	-0.093212	-66.488582	-53.182319	114.890145	-53.182319	114.890145	-0.130271	-92.843487
4.300000	-0.094657	-67.214279	-52.903790	113.306086	-52.903790	113.306086	-0.132289	-93.837344
4.350000	-0.096121	-67.938451	-52.629607	111.721998	-52.629607	111.721998	-0.134334	-94.829110
4.400000	-0.097604	-68.661097	-52.359659	110.137981	-52.359659	110.137981	-0.136407	-95.818817
4.450000	-0.099107	-69.382220	-52.093841	108.554133	-52.093841	108.554133	-0.138508	-96.806495
4.500000	-0.100629	-70.101819	-51.832048	106.970541	-51.832048	106.970541	-0.140639	-97.792177
4.550000	-0.102171	-70.819896	-51.574184	105.387292	-51.574184	105.387292	-0.142799	-98.775899
4.600000	-0.103734	-71.536454	-51.320153	103.804463	-51.320153	103.804463	-0.144990	-99.757694
4.650000	-0.105317	-72.251494	-51.069864	102.222132	-51.069864	102.222132	-0.147211	-100.737598
4.700000	-0.106922	-72.965019	-50.823229	100.640368	-50.823229	100.640368	-0.149463	-101.715649
4.750000	-0.108549	-73.677032	-50.580162	99.059238	-50.580162	99.059238	-0.151747	-102.691883
4.800000	-0.110198	-74.387536	-50.340583	97.478806	-50.340583	97.478806	-0.154064	-103.666340
4.850000	-0.111869	-75.096536	-50.104413	95.899131	-50.104413	95.899131	-0.156412	-104.639058
4.900000	-0.113563	-75.804035	-49.871575	94.320270	-49.871575	94.320270	-0.158794	-105.610078
4.950000	-0.115280	-76.510037	-49.641995	92.742276	-49.641995	92.742276	-0.161210	-106.579442
5.000000	-0.117021	-77.214548	-49.415603	91.165199	-49.415603	91.165199	-0.163659	-107.547190
5.050000	-0.118787	-77.917509	-49.192217	89.589131	-49.192217	89.589131	-0.166145	-108.513301
5.100000	-0.120578	-78.618989	-48.971892	88.014077	-48.971892	88.014077	-0.168665	-109.477887
5.150000	-0.122393	-79.318996	-48.754562	86.440080	-48.754562	86.440080	-0.171221	-110.440994
5.200000	-0.124234	-80.017534	-48.540166	84.867179	-48.540166	84.867179	-0.173813	-111.402668
5.250000	-0.126101	-80.714610	-48.328644	83.295412	-48.328644	83.295412	-0.176442	-112.362953
5.300000	-0.127993	-81.410233	-48.119935	81.724817	-48.119935	81.724817	-0.179107	-113.321898
5.350000	-0.129912	-82.104408	-47.913985	80.155425	-47.913985	80.155425	-0.181810	-114.279551
5.400000	-0.131858	-82.797143	-47.710738	78.587271	-47.710738	78.587271	-0.184550	-115.235959
5.450000	-0.133831	-83.488447	-47.510141	77.020385	-47.510141	77.020385	-0.187328	-116.191173
5.500000	-0.135832	-84.178327	-47.312142	75.454795	-47.312142	75.454795	-0.190145	-117.145243
5.550000	-0.137861	-84.866793	-47.116692	73.890530	-47.116692	73.890530	-0.193002	-118.098219
5.600000	-0.139918	-85.553852	-46.923742	72.327616	-46.923742	72.327616	-0.195897	-119.050154
5.650000	-0.142004	-86.239515	-46.733245	70.766078	-46.733245	70.766078	-0.198833	-120.001099
5.700000	-0.144120	-86.923790	-46.545156	69.205940	-46.545156	69.205940	-0.201809	-120.951109
5.750000	-0.146265	-87.606687	-46.359431	67.647223	-46.359431	67.647223	-0.204825	-121.900236
5.800000	-0.148440	-88.288217	-46.176026	66.089951	-46.176026	66.089951	-0.207883	-122.848537
5.850000	-0.150645	-88.968390	-45.994900	64.534142	-45.994900	64.534142	-0.210982	-123.796065
5.900000	-0.152882	-89.647216	-45.816013	62.979818	-45.816013	62.979818	-0.214123	-124.742877
5.950000	-0.155149	-90.324706	-45.639325	61.426995	-45.639325	61.426995	-0.217307	-125.689031
6.000000	-0.157449	-91.000872	-45.464798	59.875692	-45.464798	59.875692	-0.220533	-126.634583
6.050000	-0.159780	-91.675725	-45.292396	58.325926	-45.292396	58.325926	-0.223803	-127.579591
6.100000	-0.162143	-92.349277	-45.122081	56.777713	-45.122081	56.777713	-0.227116	-128.524115
6.150000	-0.164540	-93.021540	-44.953820	55.231069	-44.953820	55.231069	-0.230473	-129.468215
6.200000	-0.166970	-93.692526	-44.787578	53.686007	-44.787578	53.686007	-0.233874	-130.411949
6.250000	-0.169433	-94.362248	-44.623322	52.142542	-44.623322	52.142542	-0.237320	-131.355381
6.300000	-0.171949	-95.030019	-44.460414	50.601607	-44.460414	50.601607	-0.240836	-132.298472
6.350000	-0.174466	-95.697790	-44.300505	49.060671	-44.300505	49.060671	-0.244353	-133.241563
6.400000	-0.177049	-96.363222	-44.141550	47.522867	-44.141550	47.522867	-0.247956	-134.184448
6.450000	-0.179638	-97.028441	-43.985278	45.985348	-43.985278	45.985348	-0.251569	-135.127315
6.500000	-0.182289	-97.691584	-43.830141	44.450719	-43.830141	44.450719	-0.255262	-136.070228
6.550000	-0.184953	-98.354311	-43.677406	42.916667	-43.677406	42.916667	-0.258972	-137.013150
6.600000	-0.187673	-99.015216	-43.525959	41.385250	-43.525959	41.385250	-0.262755	-137.956329
6.650000	-0.190412	-99.675514	-43.376664	39.854712	-43.376664	39.854712	-0.266563	-138.899592
6.700000	-0.193191	-100.334624	-43.229057	38.325948	-43.229057	38.325948	-0.270421	-139.843149
6.750000	-0.196012	-100.992412	-43.083009	36.799188	-43.083009	36.799188	-0.274336	-140.787096
6.800000	-0.198872	-101.649092	-42.938639	35.274147	-42.938639	35.274147	-0.278299	-141.731461
6.850000	-0.201770	-102.304680	-42.795924	33.750834	-42.795924	33.750834	-0.282311	-142.676314
6.900000	-0.204706	-102.959193	-42.654840	32.229257	-42.654840	32.229257	-0.286372	-143.621725
6.950000	-0.207681	-103.612646	-42.515365	30.709423	-42.515365	30.709423	-0.290483	-144.567763
7.000000	-0.210695	-104.265055	-42.377475	29.191340	-42.377475	29.191340	-0.294643	-145.514501
7.050000	-0.213749	-104.916437	-42.241150	27.675016	-42.241150	27.675016	-0.298854	-146.462010
7.100000	-0.216843	-105.566810	-42.106369	26.160458	-42.106369	26.160458	-0.303114	-147.410362
7.150000	-0.219977	-106.216189	-41.973111	24.647672	-41.973111	24.647672	-0.307426	-148.359630
7.200000	-0.223151	-106.864592	-41.841355	23.136665	-41.841355	23.136665	-0.311788	-149.309889
7.250000	-0.226367	-107.512037	-41.711083	21.627443	-41.711083	21.627443	-0.316201	-150.261213
7.300000	-0.229624	-108.158542	-41.582276	20.120013	-41.582276	20.120013	-0.320666	-151.213677
7.350000	-0.232922	-108.804123	-41.454914	18.614380	-41.454914	18.614380	-0.325183	-152.167356
7.400000	-0.236262	-109.448800	-41.328980	17.110549	-41.328980	17.110549	-0.329751	-153.122328
7.450000	-0.239644	-110.092590	-41.204457	15.608527	-41.204457	15.608527	-0.334371	-154.078669
7.500000	-0.243069	-110.735513	-41.081326	14.108319	-41.081326	14.108319	-0.339044	-155.036456
7.550000	-0.246539	-111.377551	-40.959558	12.610008	-40.959558	12.610008	-0.343771	-155.995840
7.600000	-0.250052	-112.018761	-40.839152	11.113520	-40.839152	11.113520	-0.348552	-156.956834
7.650000	-0.253608	-112.659162	-40.720091	9.618861	-40.720091	9.618861	-0.353384	-157.919521
7.700000	-0.257208	-113.298774	-40.602362	8.126035	-40.602362	8.126035	-0.358270	-158.883979
7.750000	-0.260852	-113.937616	-40.485948	6.635045	-40.485948	6.635045	-0.363210	-159.850290
7.800000	-0.264540	-114.575708	-40.370834	5.145895	-40.370834	5.145895	-0.368202	-160.818535
7.850000	-0.268272	-115.213071	-40.257007	3.658591	-40.257007	3.658591	-0.373248	-161.788798
7.900000	-0.272050	-115.849725	-40.144453	2.173134	-40.144453	2.173134	-0.378348	-162.761161
7.950000	-0.275872	-116.485691	-40.033157	0.689529	-40.033157	0.689529	-0.383501	-163.735707
8.000000	-0.279740	-117.120989	-39.923107	-0.792221	-39.923107	-0.792221	-0.388708	-164.712521
8.050000	-0.283653	-117.755640	-39.814289	-2.272113	-39.814289	-2.272113	-0.393968	-165.691687
8.100000	-0.287612	-118.389666	-39.706691	-3.750143	-39.706691	-3.750143	-0.399283	-166.673292
8.150000	-0.291618	-119.023089	-39.600302	-5.226309	-39.600302	-5.226309	-0.404651	-167.657421
8.200000	-0.295669	-119.655929	-39.495108	-6.700609	-39.495108	-6.700609	-0.410073	-168.644160
8.250000	-0.299766	-120.288210	-39.391098	-8.173038	-39.391098	-8.173038	-0.415549	-169.633597
8.300000	-0.303911	-120.919953	-39.288262	-9.643596	-39.288262	-9.643596	-0.421079	-170.625820
8.350000	-0.308101	-121.551180	-39.186588	-11.112278	-39.186588	-11.112278	-0.426663	-171.620917
8.400000	-0.312339	-122.181915	-39.086066	-12.579084	-39.086066	-12.579084	-0.432300	-172.618977
8.450000	-0.316624	-122.812181	-38.986685	-14.044011	-38.986685	-14.044011	-0.437991	-173.620089
8.500000	-0.320956	-123.441999	-38.888435	-15.507056	-38.888435	-15.507056	-0.443735	-174.624343
8.550000	-0.325336	-124.071395	-38.791307	-16.968217	-38.791307	-16.968217	-0.449532	-175.631829
8.600000	-0.329763	-124.700392	-38.695291	-18.427493	-38.695291	-18.427493	-0.455383	-176.642639
8.650000	-0.334238	-125.329013	-38.600379	-19.884881	-38.600379	-19.884881	-0.461286	-177.656863
8.700000	-0.338760	-125.957282	-38.506560	-21.340379	-38.506560	-21.340379	-0.467242	-178.674594
8.750000	-0.343331	-126.585225	-38.413827	-22.793985	-38.413827	-22.793985	-0.473250	-179.695924
8.800000	-0.347951	-127.212854	-38.322177	-24.245615	-38.322177	-24.245615	-0.479312	179.278891
8.850000	-0.352619	-127.840207	-38.231598	-25.695348	-38.231598	-25.695348	-0.485426	178.249912
8.900000	-0.357335	-128.467311	-38.142081	-27.143184	-38.142081	-27.143184	-0.491592	177.217048
8.950000	-0.362100	-129.094190	-38.053620	-28.589118	-38.053620	-28.589118	-0.497808	176.180205
9.000000	-0.366912	-129.720871	-37.966207	-30.033150	-37.966207	-30.033150	-0.504075	175.139288
9.050000	-0.371773	-130.347379	-37.879835	-31.475277	-37.879835	-31.475277	-0.510391	174.094203
9.100000	-0.376681	-130.973741	-37.794498	-32.915496	-37.794498	-32.915496	-0.516757	173.044857
9.150000	-0.381638	-131.599984	-37.710190	-34.353804	-37.710190	-34.353804	-0.523172	171.991154
9.200000	-0.386643	-132.226134	-37.626903	-35.790199	-37.626903	-35.790199	-0.529635	170.933001
9.250000	-0.391696	-132.852218	-37.544632	-37.224678	-37.544632	-37.224678	-0.536145	169.870302
9.300000	-0.396797	-133.478264	-37.463371	-38.657237	-37.463371	-38.657237	-0.542703	168.802963
9.350000	-0.401946	-134.104300	-37.383115	-40.087874	-37.383115	-40.087874	-0.549307	167.730889
9.400000	-0.407142	-134.730354	-37.303859	-41.516583	-37.303859	-41.516583	-0.555956	166.653986
9.450000	-0.412386	-135.356454	-37.225597	-42.943362	-37.225597	-42.943362	-0.562649	165.572159
9.500000	-0.417678	-135.982629	-37.148325	-44.368205	-37.148325	-44.368205	-0.569386	164.485314
9.550000	-0.423017	-136.608907	-37.072038	-45.791109	-37.072038	-45.791109	-0.576166	163.393357
9.600000	-0.428404	-137.235319	-36.996732	-47.212067	-36.996732	-47.212067	-0.582987	162.296194
9.650000	-0.433837	-137.861894	-36.922402	-48.631076	-36.922402	-48.631076	-0.589849	161.193733
9.700000	-0.439317	-138.488661	-36.849046	-50.048128	-36.849046	-50.048128	-0.596750	160.085880
9.750000	-0.444844	-139.115652	-36.776658	-51.463217	-36.776658	-51.463217	-0.603689	158.972543
9.800000	-0.450417	-139.742897	-36.705237	-52.876337	-36.705237	-52.876337	-0.610666	157.853630
9.850000	-0.456036	-140.370427	-36.634777	-54.287479	-36.634777	-54.287479	-0.617678	156.729051
9.900000	-0.461701	-140.998273	-36.565277	-55.696637	-36.565277	-55.696637	-0.624724	155.598715
9.950000	-0.467411	-141.626467	-36.496733	-57.103802	-36.496733	-57.103802	-0.631803	154.462534
10.000000	-0.473166	-142.255042	-36.429143	-58.508965	-36.429143	-58.508965	-0.638913	153.320418
