! freq	dB(S11)	phase(S11)	dB(S12)	phase(S12)	
!     	dB(S21)	phase(S21)	dB(S22)	phase(S22)	
!S-par simulation data
#  GHz  S  DB  R 50
0.000000	0.000000	0.000000	-328.790329	0.000000	-328.790329	0.000000	0.000000	0.000000
0.050000	-0.000441	-1.165432	-109.112451	88.982727	-109.112451	88.982727	-0.000414	-0.806822
0.100000	-0.001624	-2.328406	-103.126563	88.048233	-103.126563	88.048233	-0.001450	-1.610760
0.150000	-0.003252	-3.487676	-99.660856	87.113953	-99.660856	87.113953	-0.002728	-2.410985
0.200000	-0.005042	-4.643463	-97.239666	86.197972	-97.239666	86.197972	-0.003989	-3.208379
0.250000	-0.006826	-5.796363	-95.405235	85.312888	-95.405235	85.312888	-0.005140	-4.003899
0.300000	-0.008541	-6.947445	-93.946281	84.465457	-93.946281	84.465457	-0.006196	-4.798463
0.350000	-0.010175	-8.097171	-92.756394	83.666737	-92.756394	83.666737	-0.007182	-5.592408
0.400000	-0.011741	-9.245915	-91.770973	82.927629	-91.770973	82.927629	-0.008132	-6.385946
0.450000	-0.013257	-10.393876	-90.948856	82.260497	-90.948856	82.260497	-0.009072	-7.179170
0.500000	-0.014739	-11.541128	-90.262462	81.679689	-90.262462	81.679689	-0.010019	-7.972110
0.550000	-0.016201	-12.687668	-89.692651	81.202178	-89.692651	81.202178	-0.010986	-8.764771
0.600000	-0.017651	-13.833448	-89.225837	80.848339	-89.225837	80.848339	-0.011977	-9.557143
0.650000	-0.019095	-14.978387	-88.852234	80.642949	-88.852234	80.642949	-0.012992	-10.349208
0.700000	-0.020536	-16.122392	-88.564732	80.616469	-88.564732	80.616469	-0.014029	-11.140943
0.750000	-0.021974	-17.265359	-88.358096	80.806701	-88.358096	80.806701	-0.015081	-11.932311
0.800000	-0.023410	-18.407183	-88.228329	81.260924	-88.228329	81.260924	-0.016141	-12.723265
0.850000	-0.024845	-19.547759	-88.172046	82.038588	-88.172046	82.038588	-0.017199	-13.513741
0.900000	-0.026276	-20.686986	-88.185737	83.214597	-88.185737	83.214597	-0.018250	-14.303664
0.950000	-0.027705	-21.824766	-88.264735	84.882975	-88.264735	84.882975	-0.019289	-15.092956
1.000000	-0.029131	-22.961009	-88.401683	87.160159	-88.401683	87.160159	-0.020313	-15.881535
1.050000	-0.030553	-24.095631	-88.584192	90.185980	-88.584192	90.185980	-0.021323	-16.669332
1.100000	-0.031972	-25.228553	-88.791475	94.118096	-88.791475	94.118096	-0.022322	-17.456285
1.150000	-0.033388	-26.359703	-88.990071	99.112094	-88.990071	99.112094	-0.023310	-18.242347
1.200000	-0.034801	-27.489016	-89.130045	105.276218	-89.130045	105.276218	-0.024292	-19.027486
1.250000	-0.036211	-28.616434	-89.145408	112.593272	-89.145408	112.593272	-0.025271	-19.811676
1.300000	-0.037619	-29.741813	-88.953242	120.843153	-88.953242	120.843153	-0.026249	-20.594861
1.350000	-0.039024	-30.865189	-88.508949	129.458979	-88.508949	129.458979	-0.027228	-21.377071
1.400000	-0.040428	-31.986515	-87.807578	137.808662	-87.807578	137.808662	-0.028209	-22.158300
1.450000	-0.041830	-33.105751	-86.890848	145.357410	-86.890848	145.357410	-0.029193	-22.938542
1.500000	-0.043231	-34.222859	-85.825657	151.803012	-85.825657	151.803012	-0.030180	-23.717792
1.550000	-0.044630	-35.337802	-84.678749	157.072988	-84.678749	157.072988	-0.031170	-24.496044
1.600000	-0.046029	-36.450548	-83.502419	161.244965	-83.502419	161.244965	-0.032163	-25.273293
1.650000	-0.047426	-37.561065	-82.331776	164.464144	-82.331776	164.464144	-0.033160	-26.049531
1.700000	-0.048822	-38.669325	-81.187818	166.888979	-81.187818	166.888979	-0.034159	-26.824752
1.750000	-0.050218	-39.775299	-80.081746	168.664552	-80.081746	168.664552	-0.035160	-27.598947
1.800000	-0.051612	-40.878961	-79.018584	169.913440	-79.018584	169.913440	-0.036164	-28.372107
1.850000	-0.053007	-41.980286	-77.999687	170.735213	-77.999687	170.735213	-0.037170	-29.144222
1.900000	-0.054400	-43.079249	-77.024356	171.209293	-77.024356	171.209293	-0.038177	-29.915283
1.950000	-0.055794	-44.175828	-76.090805	171.398609	-76.090805	171.398609	-0.039186	-30.685279
2.000000	-0.057187	-45.270001	-75.196742	171.353021	-75.196742	171.353021	-0.040197	-31.454199
2.050000	-0.058581	-46.361746	-74.339691	171.112181	-74.339691	171.112181	-0.041210	-32.222031
2.100000	-0.059975	-47.451043	-73.517184	170.707806	-73.517184	170.707806	-0.042224	-32.988763
2.150000	-0.061370	-48.537873	-72.726848	170.165444	-72.726848	170.165444	-0.043240	-33.754385
2.200000	-0.062766	-49.622217	-71.966461	169.505821	-71.966461	169.505821	-0.044257	-34.518884
2.250000	-0.064164	-50.704058	-71.233965	168.745885	-71.233965	168.745885	-0.045277	-35.282248
2.300000	-0.065563	-51.783380	-70.527471	167.899591	-70.527471	167.899591	-0.046299	-36.044464
2.350000	-0.066965	-52.860166	-69.845250	166.978518	-69.845250	166.978518	-0.047324	-36.805522
2.400000	-0.068369	-53.934402	-69.185728	165.992340	-69.185728	165.992340	-0.048351	-37.565407
2.450000	-0.069777	-55.006074	-68.547467	164.949189	-68.547467	164.949189	-0.049381	-38.324109
2.500000	-0.071188	-56.075170	-67.929160	163.855949	-67.929160	163.855949	-0.050415	-39.081615
2.550000	-0.072604	-57.141563	-67.328632	162.716790	-67.328632	162.716790	-0.051453	-39.837861
2.600000	-0.074025	-58.205355	-66.745884	161.538802	-66.745884	161.538802	-0.052494	-40.592886
2.650000	-0.075452	-59.266537	-66.179903	160.326221	-66.179903	160.326221	-0.053540	-41.346679
2.700000	-0.076884	-60.325099	-65.629761	159.082716	-65.629761	159.082716	-0.054591	-42.099228
2.750000	-0.078323	-61.381035	-65.094608	157.811485	-65.094608	157.811485	-0.055647	-42.850522
2.800000	-0.079770	-62.434337	-64.573662	156.515321	-64.573662	156.515321	-0.056708	-43.600551
2.850000	-0.081225	-63.484999	-64.066203	155.196677	-64.066203	155.196677	-0.057776	-44.349303
2.900000	-0.082688	-64.533018	-63.571565	153.857713	-63.571565	153.857713	-0.058850	-45.096768
2.950000	-0.084160	-65.578389	-63.089135	152.500343	-63.089135	152.500343	-0.059931	-45.842936
3.000000	-0.085642	-66.621110	-62.618342	151.126262	-62.618342	151.126262	-0.061018	-46.587796
3.050000	-0.087135	-67.661181	-62.158658	149.736982	-62.158658	149.736982	-0.062114	-47.331339
3.100000	-0.088639	-68.698601	-61.709591	148.333853	-61.709591	148.333853	-0.063217	-48.073557
3.150000	-0.090155	-69.733370	-61.270683	146.918085	-61.270683	146.918085	-0.064329	-48.814438
3.200000	-0.091684	-70.765492	-60.841506	145.490765	-60.841506	145.490765	-0.065450	-49.553976
3.250000	-0.093225	-71.794968	-60.421662	144.052873	-60.421662	144.052873	-0.066580	-50.292162
3.300000	-0.094781	-72.821805	-60.010776	142.605293	-60.010776	142.605293	-0.067719	-51.028987
3.350000	-0.096351	-73.846006	-59.608498	141.148828	-59.608498	141.148828	-0.068869	-51.764444
3.400000	-0.097936	-74.867580	-59.214498	139.684207	-59.214498	139.684207	-0.070029	-52.498527
3.450000	-0.099537	-75.886532	-58.828468	138.212091	-58.828468	138.212091	-0.071200	-53.231227
3.500000	-0.101154	-76.902873	-58.450116	136.733085	-58.450116	136.733085	-0.072382	-53.962539
3.550000	-0.102789	-77.916612	-58.079167	135.247741	-58.079167	135.247741	-0.073575	-54.692457
3.600000	-0.104441	-78.927760	-57.715362	133.756566	-57.715362	133.756566	-0.074781	-55.420975
3.650000	-0.106111	-79.936330	-57.358455	132.260023	-57.358455	132.260023	-0.075999	-56.148088
3.700000	-0.107801	-80.942334	-57.008215	130.758539	-57.008215	130.758539	-0.077231	-56.873791
3.750000	-0.109510	-81.945787	-56.664422	129.252507	-56.664422	129.252507	-0.078475	-57.598080
3.800000	-0.111240	-82.946594	-56.326570	127.742122	-56.326570	127.742122	-0.079734	-58.320890
3.850000	-0.112991	-83.944885	-55.994782	126.227912	-55.994782	126.227912	-0.081007	-59.042277
3.900000	-0.114763	-84.940675	-55.668867	124.710183	-55.668867	124.710183	-0.082294	-59.762241
3.950000	-0.116557	-85.933984	-55.348644	123.189217	-55.348644	123.189217	-0.083596	-60.480777
4.000000	-0.118374	-86.924831	-55.033942	121.665277	-55.033942	121.665277	-0.084914	-61.197885
4.050000	-0.120214	-87.913238	-54.724596	120.138603	-54.724596	120.138603	-0.086247	-61.913564
4.100000	-0.122078	-88.899226	-54.420450	118.609421	-54.420450	118.609421	-0.087596	-62.627811
4.150000	-0.123966	-89.882817	-54.121353	117.077939	-54.121353	117.077939	-0.088962	-63.340628
4.200000	-0.125879	-90.864036	-53.827162	115.544349	-53.827162	115.544349	-0.090345	-64.052014
4.250000	-0.127818	-91.842908	-53.537740	114.008828	-53.537740	114.008828	-0.091745	-64.761971
4.300000	-0.129782	-92.819457	-53.252955	112.471541	-53.252955	112.471541	-0.093162	-65.470499
4.350000	-0.131773	-93.793711	-52.972681	110.932638	-52.972681	110.932638	-0.094598	-66.177602
4.400000	-0.133791	-94.765697	-52.696795	109.392256	-52.696795	109.392256	-0.096052	-66.883282
4.450000	-0.135837	-95.735444	-52.425182	107.850522	-52.425182	107.850522	-0.097526	-67.587543
4.500000	-0.137911	-96.702982	-52.157728	106.307550	-52.157728	106.307550	-0.099018	-68.290389
4.550000	-0.140013	-97.668339	-51.894326	104.763440	-51.894326	104.763440	-0.100530	-68.991825
4.600000	-0.142144	-98.631549	-51.634869	103.218283	-51.634869	103.218283	-0.102063	-69.691858
4.650000	-0.144305	-99.592642	-51.379257	101.672156	-51.379257	101.672156	-0.103616	-70.390494
4.700000	-0.146496	-100.551653	-51.127392	100.125125	-51.127392	100.125125	-0.105190	-71.087742
4.750000	-0.148718	-101.508613	-50.879177	98.577242	-50.879177	98.577242	-0.106786	-71.783611
4.800000	-0.150971	-102.463559	-50.634521	97.028546	-50.634521	97.028546	-0.108403	-72.478111
4.850000	-0.153255	-103.416526	-50.393334	95.479062	-50.393334	95.479062	-0.110043	-73.171255
4.900000	-0.155572	-104.367550	-50.155527	93.928797	-50.155527	93.928797	-0.111706	-73.863057
4.950000	-0.157920	-105.316668	-49.921014	92.377743	-49.921014	92.377743	-0.113392	-74.553531
5.000000	-0.160302	-106.263918	-49.689712	90.825872	-49.689712	90.825872	-0.115102	-75.242695
5.050000	-0.162730	-107.208638	-49.460413	89.272765	-49.460413	89.272765	-0.116846	-75.930074
5.100000	-0.165175	-108.152552	-49.235729	87.719186	-49.235729	87.719186	-0.118602	-76.616881
5.150000	-0.167663	-109.094215	-49.013221	86.164288	-49.013221	86.164288	-0.120391	-77.302094
5.200000	-0.170183	-110.034330	-48.793827	84.608209	-48.793827	84.608209	-0.122205	-77.986212
5.250000	-0.172732	-110.973060	-48.577704	83.051073	-48.577704	83.051073	-0.124040	-78.669353
5.300000	-0.175330	-111.909570	-48.363314	81.491614	-48.363314	81.491614	-0.125914	-79.350950
5.350000	-0.177944	-112.845348	-48.152940	79.931324	-48.152940	79.931324	-0.127802	-80.032043
5.400000	-0.180619	-113.778603	-47.943487	78.367278	-47.943487	78.367278	-0.129740	-80.711449
5.450000	-0.183314	-114.711047	-47.737594	76.801462	-47.737594	76.801462	-0.131696	-81.390356
5.500000	-0.186054	-115.641767	-47.533610	75.231877	-47.533610	75.231877	-0.133691	-82.068201
5.550000	-0.188832	-116.571089	-47.331817	73.657680	-47.331817	73.657680	-0.135723	-82.745321
5.600000	-0.191638	-117.499414	-47.132867	72.080188	-47.132867	72.080188	-0.137783	-83.421923
5.650000	-0.194501	-118.425832	-46.934699	70.492882	-46.934699	70.492882	-0.139907	-84.097867
5.700000	-0.197382	-119.351673	-46.739786	68.901857	-46.739786	68.901857	-0.142054	-84.773688
5.750000	-0.200325	-120.275646	-46.545111	67.295249	-46.545111	67.295249	-0.144286	-85.449465
5.800000	-0.203294	-121.198889	-46.352796	65.678258	-46.352796	65.678258	-0.146568	-86.125672
5.850000	-0.206308	-122.120914	-46.161536	64.043963	-46.161536	64.043963	-0.148935	-86.802597
5.900000	-0.209368	-123.041797	-45.970624	62.380020	-45.970624	62.380020	-0.151441	-87.481620
5.950000	-0.212456	-123.962033	-45.781731	60.699319	-45.781731	60.699319	-0.154026	-88.161829
6.000000	-0.215612	-124.880806	-45.590207	58.942059	-45.590207	58.942059	-0.156992	-88.848817
6.050000	-0.218787	-125.799237	-45.400937	57.157772	-45.400937	57.157772	-0.160106	-89.538341
6.100000	-0.222026	-126.716544	-45.208233	55.241185	-45.208233	55.241185	-0.163995	-90.240673
6.150000	-0.225318	-127.633104	-45.013120	53.144088	-45.013120	53.144088	-0.169146	-90.960677
6.200000	-0.228671	-128.548972	-44.816451	50.717554	-44.816451	50.717554	-0.177088	-91.711952
6.250000	-0.232099	-129.464202	-44.627866	47.655609	-44.627866	47.655609	-0.191838	-92.518648
6.300000	-0.235642	-130.378638	-44.525757	42.875086	-44.525757	42.875086	-0.232243	-93.440529
6.350000	-0.239330	-131.291724	-45.298696	34.161994	-45.298696	34.161994	-0.386251	-94.239693
6.400000	-0.242978	-132.202215	-47.395949	47.722674	-47.395949	47.722674	-0.420058	-93.019118
6.450000	-0.246202	-133.112386	-45.545916	52.569704	-45.545916	52.569704	-0.257581	-93.632550
6.500000	-0.249431	-134.024698	-44.796562	49.995563	-44.796562	49.995563	-0.215211	-94.529961
6.550000	-0.252877	-134.937341	-44.404197	47.587053	-44.404197	47.587053	-0.202338	-95.325615
6.600000	-0.256449	-135.849652	-44.123056	45.453301	-44.123056	45.453301	-0.197547	-96.066703
6.650000	-0.260112	-136.761554	-43.898792	43.529340	-43.898792	43.529340	-0.196525	-96.771834
6.700000	-0.263845	-137.673156	-43.702193	41.732670	-43.702193	41.732670	-0.197111	-97.456370
6.750000	-0.267618	-138.584630	-43.518224	39.992011	-43.518224	39.992011	-0.198292	-98.131912
6.800000	-0.271442	-139.495980	-43.346082	38.312093	-43.346082	38.312093	-0.200054	-98.797685
6.850000	-0.275326	-140.407312	-43.182302	36.678985	-43.182302	36.678985	-0.202199	-99.455715
6.900000	-0.279251	-141.318702	-43.023685	35.069424	-43.023685	35.069424	-0.204526	-100.109708
6.950000	-0.283217	-142.230180	-42.869585	33.480356	-42.869585	33.480356	-0.207006	-100.760115
7.000000	-0.287242	-143.141882	-42.719611	31.913679	-42.719611	31.913679	-0.209648	-101.406394
7.050000	-0.291315	-144.053862	-42.572795	30.360582	-42.572795	30.360582	-0.212390	-102.049993
7.100000	-0.295429	-144.966118	-42.428781	28.817580	-42.428781	28.817580	-0.215208	-102.691530
7.150000	-0.299588	-145.878717	-42.287369	27.284320	-42.287369	27.284320	-0.218100	-103.331003
7.200000	-0.303810	-146.791924	-42.148320	25.762162	-42.148320	25.762162	-0.221082	-103.967957
7.250000	-0.308073	-147.705595	-42.011427	24.246071	-42.011427	24.246071	-0.224117	-104.603451
7.300000	-0.312378	-148.619761	-41.876598	22.735692	-41.876598	22.735692	-0.227203	-105.237540
7.350000	-0.316739	-149.534681	-41.743682	21.232223	-41.743682	21.232223	-0.230354	-105.869856
7.400000	-0.321154	-150.450407	-41.612580	19.734368	-41.612580	19.734368	-0.233564	-106.500653
7.450000	-0.325611	-151.366819	-41.483267	18.240611	-41.483267	18.240611	-0.236818	-107.130315
7.500000	-0.330110	-152.283947	-41.355683	16.750773	-41.355683	16.750773	-0.240115	-107.758871
7.550000	-0.334678	-153.202380	-41.229653	15.266731	-41.229653	15.266731	-0.243482	-108.385737
7.600000	-0.339289	-154.121694	-41.105244	13.785942	-41.105244	13.785942	-0.246890	-109.011630
7.650000	-0.343942	-155.041920	-40.982413	12.308323	-40.982413	12.308323	-0.250339	-109.636569
7.700000	-0.348650	-155.963374	-40.861072	10.834556	-40.861072	10.834556	-0.253841	-110.260337
7.750000	-0.353416	-156.886261	-40.741173	9.364675	-40.741173	9.364675	-0.257398	-110.882913
7.800000	-0.358225	-157.810261	-40.622747	7.897543	-40.622747	7.897543	-0.260996	-111.504645
7.850000	-0.363078	-158.735404	-40.505758	6.433111	-40.505758	6.433111	-0.264634	-112.125548
7.900000	-0.367997	-159.662438	-40.390102	4.972700	-40.390102	4.972700	-0.268334	-112.745223
7.950000	-0.372964	-160.590901	-40.275824	3.515033	-40.275824	3.515033	-0.272078	-113.364069
8.000000	-0.377974	-161.520716	-40.162907	2.059853	-40.162907	2.059853	-0.275862	-113.982172
8.050000	-0.383035	-162.452184	-40.051305	0.607569	-40.051305	0.607569	-0.279694	-114.599416
8.100000	-0.388160	-163.385817	-39.940976	-0.841225	-39.940976	-0.841225	-0.283584	-115.215651
8.150000	-0.393328	-164.321013	-39.831945	-2.287649	-39.831945	-2.287649	-0.287515	-115.831216
8.200000	-0.398541	-165.257804	-39.724188	-3.731715	-39.724188	-3.731715	-0.291487	-116.446123
8.250000	-0.403816	-166.197025	-39.617655	-5.172382	-39.617655	-5.172382	-0.295517	-117.060108
8.300000	-0.409144	-167.138327	-39.512355	-6.610308	-39.512355	-6.610308	-0.299596	-117.673376
8.350000	-0.414512	-168.081313	-39.408277	-8.046077	-39.408277	-8.046077	-0.303712	-118.286093
8.400000	-0.419938	-169.026750	-39.305392	-9.478814	-39.305392	-9.478814	-0.307882	-118.898057
8.450000	-0.425415	-169.974474	-39.203689	-10.908837	-39.203689	-10.908837	-0.312100	-119.509373
8.500000	-0.430944	-170.924563	-39.103156	-12.336144	-39.103156	-12.336144	-0.316367	-120.120064
8.550000	-0.436524	-171.877098	-39.003777	-13.760729	-39.003777	-13.760729	-0.320681	-120.730153
8.600000	-0.442156	-172.832158	-38.905540	-15.182585	-38.905540	-15.182585	-0.325044	-121.339664
8.650000	-0.447839	-173.789826	-38.808432	-16.601701	-38.808432	-16.601701	-0.329456	-121.948620
8.700000	-0.453572	-174.750183	-38.712438	-18.018066	-38.712438	-18.018066	-0.333916	-122.557043
8.750000	-0.459357	-175.713310	-38.617548	-19.431663	-38.617548	-19.431663	-0.338425	-123.164956
8.800000	-0.465195	-176.679418	-38.523751	-20.842354	-38.523751	-20.842354	-0.342984	-123.772362
8.850000	-0.471084	-177.648470	-38.431034	-22.250242	-38.431034	-22.250242	-0.347593	-124.379307
8.900000	-0.477023	-178.620548	-38.339382	-23.655306	-38.339382	-23.655306	-0.352250	-124.985814
8.950000	-0.483012	-179.595737	-38.248786	-25.057525	-38.248786	-25.057525	-0.356956	-125.591906
9.000000	-0.489052	179.425880	-38.159231	-26.456877	-38.159231	-26.456877	-0.361711	-126.197605
9.050000	-0.495141	178.444218	-38.070707	-27.853338	-38.070707	-27.853338	-0.366516	-126.802937
9.100000	-0.501280	177.459192	-37.983202	-29.246885	-37.983202	-29.246885	-0.371369	-127.407923
9.150000	-0.507468	176.470718	-37.896703	-30.637492	-37.896703	-30.637492	-0.376271	-128.012588
9.200000	-0.513705	175.478710	-37.811199	-32.025134	-37.811199	-32.025134	-0.381222	-128.616956
9.250000	-0.519991	174.483082	-37.726678	-33.409786	-37.726678	-33.409786	-0.386223	-129.221050
9.300000	-0.526324	173.483749	-37.643128	-34.791421	-37.643128	-34.791421	-0.391272	-129.824895
9.350000	-0.532706	172.480624	-37.560538	-36.170014	-37.560538	-36.170014	-0.396370	-130.428515
9.400000	-0.539134	171.473622	-37.478895	-37.545538	-37.478895	-37.545538	-0.401517	-131.031935
9.450000	-0.545609	170.462655	-37.398187	-38.917967	-37.398187	-38.917967	-0.406713	-131.635179
9.500000	-0.552131	169.447638	-37.318403	-40.287276	-37.318403	-40.287276	-0.411957	-132.238271
9.550000	-0.558698	168.428484	-37.239531	-41.653438	-37.239531	-41.653438	-0.417250	-132.841238
9.600000	-0.565310	167.405106	-37.161558	-43.016428	-37.161558	-43.016428	-0.422591	-133.444105
9.650000	-0.571966	166.377417	-37.084473	-44.376223	-37.084473	-44.376223	-0.427981	-134.046896
9.700000	-0.578667	165.345331	-37.008264	-45.732797	-37.008264	-45.732797	-0.433419	-134.649638
9.750000	-0.585410	164.308761	-36.932918	-47.086127	-36.932918	-47.086127	-0.438905	-135.252357
9.800000	-0.592195	163.267621	-36.858423	-48.436191	-36.858423	-48.436191	-0.444438	-135.855079
9.850000	-0.599022	162.221825	-36.784767	-49.782966	-36.784767	-49.782966	-0.450019	-136.457831
9.900000	-0.605889	161.171286	-36.711938	-51.126433	-36.711938	-51.126433	-0.455647	-137.060639
9.950000	-0.612796	160.115920	-36.639923	-52.466571	-36.639923	-52.466571	-0.461323	-137.663530
10.000000	-0.619742	159.055640	-36.568711	-53.803363	-36.568711	-53.803363	-0.467045	-138.266532
