! freq	dB(S11)	phase(S11)	dB(S12)	phase(S12)	
!     	dB(S21)	phase(S21)	dB(S22)	phase(S22)	
!S-par simulation data
#  GHz  S  DB  R 50
0.000000	-88.787833	0.000000	-0.000316	0.000000	-0.000316	0.000000	-88.787833	0.000000
0.050000	-31.170062	-93.199636	-0.008867	-2.999434	-0.008867	-2.999434	-31.169956	-93.195865
0.100000	-25.223586	-96.404310	-0.022933	-5.959042	-0.022933	-5.959042	-25.222651	-96.423837
0.150000	-21.740794	-99.292228	-0.042861	-8.907058	-0.042861	-8.907058	-21.740363	-99.290023
0.200000	-19.282252	-102.258793	-0.069166	-11.839849	-0.069166	-11.839849	-19.280838	-102.259203
0.250000	-17.394807	-105.222095	-0.101509	-14.754099	-0.101509	-14.754099	-17.393457	-105.226560
0.300000	-15.871452	-108.160000	-0.139495	-17.647701	-0.139495	-17.647701	-15.870502	-108.166399
0.350000	-14.601123	-111.066088	-0.182759	-20.519097	-0.182759	-20.519097	-14.600601	-111.072624
0.400000	-13.517095	-113.938717	-0.230941	-23.367064	-0.230941	-23.367064	-13.516918	-113.944288
0.450000	-12.576776	-116.777015	-0.283801	-26.189788	-0.283801	-26.189788	-12.576833	-116.781073
0.500000	-11.750420	-119.581625	-0.340971	-28.986153	-0.340971	-28.986153	-11.750609	-119.584019
0.550000	-11.017056	-122.352828	-0.402135	-31.754740	-0.402135	-31.754740	-11.017297	-122.353637
0.600000	-10.361278	-125.090696	-0.466975	-34.494063	-0.466975	-34.494063	-10.361514	-125.090118
0.650000	-9.770928	-127.795917	-0.535094	-37.203422	-0.535094	-37.203422	-9.771123	-127.794192
0.700000	-9.237004	-130.468233	-0.606162	-39.881501	-0.606162	-39.881501	-9.237140	-130.465603
0.750000	-8.751925	-133.108076	-0.679784	-42.527869	-0.679784	-42.527869	-8.751994	-133.104753
0.800000	-8.309649	-135.715639	-0.755589	-45.142091	-0.755589	-45.142091	-8.309654	-135.711800
0.850000	-7.905421	-138.290695	-0.833221	-47.723475	-0.833221	-47.723475	-7.905369	-138.286477
0.900000	-7.534786	-140.834031	-0.912300	-50.272500	-0.912300	-50.272500	-7.534686	-140.829533
0.950000	-7.194376	-143.345648	-0.992483	-52.788958	-0.992483	-52.788958	-7.194239	-143.340937
1.000000	-6.881245	-145.825766	-1.073426	-55.272948	-1.073426	-55.272948	-6.881082	-145.820882
1.050000	-6.592658	-148.275118	-1.154804	-57.725161	-1.154804	-57.725161	-6.592479	-148.270078
1.100000	-6.326346	-150.694264	-1.236308	-60.146159	-1.236308	-60.146159	-6.326160	-150.689069
1.150000	-6.080318	-153.083846	-1.317647	-62.536626	-1.317647	-62.536626	-6.080133	-153.078485
1.200000	-5.852820	-155.444583	-1.398546	-64.897346	-1.398546	-64.897346	-5.852641	-155.439036
1.250000	-5.642296	-157.777267	-1.478749	-67.229195	-1.478749	-67.229195	-5.642128	-157.771508
1.300000	-5.447472	-160.082464	-1.557996	-69.532832	-1.557996	-69.532832	-5.447318	-160.076464
1.350000	-5.266985	-162.361388	-1.636082	-71.809585	-1.636082	-71.809585	-5.266847	-162.355118
1.400000	-5.099726	-164.614995	-1.712803	-74.060518	-1.712803	-74.060518	-5.099605	-164.608425
1.450000	-4.944695	-166.844276	-1.787971	-76.286735	-1.787971	-76.286735	-4.944590	-166.837379
1.500000	-4.801217	-169.049650	-1.861347	-78.488756	-1.861347	-78.488756	-4.801129	-169.042401
1.550000	-4.668058	-171.233293	-1.932893	-80.668877	-1.932893	-80.668877	-4.667984	-171.225670
1.600000	-4.544672	-173.395763	-2.002416	-82.827748	-2.002416	-82.827748	-4.544610	-173.387747
1.650000	-4.430389	-175.538139	-2.069788	-84.966547	-2.069788	-84.966547	-4.430337	-175.529715
1.700000	-4.324603	-177.661507	-2.134894	-87.086451	-2.134894	-87.086451	-4.324559	-177.652663
1.750000	-4.226762	-179.766957	-2.197630	-89.188634	-2.197630	-89.188634	-4.226722	-179.757684
1.800000	-4.136362	178.144420	-2.257907	-91.274264	-2.257907	-91.274264	-4.136324	178.154128
1.850000	-4.052946	176.071540	-2.315644	-93.344500	-2.315644	-93.344500	-4.052908	176.081684
1.900000	-3.976157	174.013469	-2.370739	-95.400346	-2.370739	-95.400346	-3.976116	174.024050
1.950000	-3.905606	171.969100	-2.423129	-97.442971	-2.423129	-97.442971	-3.905560	171.980117
2.000000	-3.840884	169.937215	-2.472795	-99.473642	-2.472795	-99.473642	-3.840830	169.948662
2.050000	-3.781674	167.916767	-2.519696	-101.493456	-2.519696	-101.493456	-3.781612	167.928638
2.100000	-3.727690	165.906720	-2.563796	-103.503489	-2.563796	-103.503489	-3.727617	165.919009
2.150000	-3.678670	163.906057	-2.605066	-105.504798	-2.605066	-105.504798	-3.678586	163.918755
2.200000	-3.634375	161.913773	-2.643485	-107.498421	-2.643485	-107.498421	-3.634278	161.926871
2.250000	-3.594589	159.928879	-2.679039	-109.485372	-2.679039	-109.485372	-3.594479	159.942368
2.300000	-3.559114	157.950404	-2.711718	-111.466649	-2.711718	-111.466649	-3.558991	157.964275
2.350000	-3.527773	155.977393	-2.741519	-113.443227	-2.741519	-113.443227	-3.527636	155.991637
2.400000	-3.500403	154.008905	-2.768443	-115.416060	-2.768443	-115.416060	-3.500253	154.023515
2.450000	-3.476859	152.044021	-2.792498	-117.386084	-2.792498	-117.386084	-3.476697	152.058988
2.500000	-3.457010	150.081835	-2.813696	-119.354212	-2.813696	-119.354212	-3.456838	150.097154
2.550000	-3.440815	148.121479	-2.831990	-121.321339	-2.831990	-121.321339	-3.440633	148.137145
2.600000	-3.428091	146.162025	-2.847466	-123.288378	-2.847466	-123.288378	-3.427900	146.178034
2.650000	-3.418746	144.202621	-2.860147	-125.256183	-2.860147	-125.256183	-3.418548	144.218973
2.700000	-3.412700	142.242434	-2.870063	-127.225589	-2.870063	-127.225589	-3.412497	142.259128
2.750000	-3.409883	140.280646	-2.877246	-129.197412	-2.877246	-129.197412	-3.409677	140.297684
2.800000	-3.410237	138.316458	-2.881734	-131.172447	-2.881734	-131.172447	-3.410030	138.333846
2.850000	-3.413709	136.349090	-2.883565	-133.151472	-2.883565	-133.151472	-3.413503	136.366834
2.900000	-3.420260	134.377779	-2.882785	-135.135245	-2.882785	-135.135245	-3.420057	134.395888
2.950000	-3.429856	132.401781	-2.879440	-137.124505	-2.879440	-137.124505	-3.429658	132.420265
3.000000	-3.442471	130.420370	-2.873581	-139.119974	-2.873581	-139.119974	-3.442281	130.439243
3.050000	-3.458089	128.432840	-2.865262	-141.122351	-2.865262	-141.122351	-3.457909	128.452118
3.100000	-3.476699	126.438506	-2.854540	-143.132318	-2.854540	-143.132318	-3.476530	126.458207
3.150000	-3.498329	124.436614	-2.841450	-145.150634	-2.841450	-145.150634	-3.498173	124.456758
3.200000	-3.522981	122.426499	-2.826059	-147.177961	-2.826059	-147.177961	-3.522840	122.447109
3.250000	-3.550631	120.407622	-2.808459	-149.214828	-2.808459	-149.214828	-3.550507	120.428724
3.300000	-3.581295	118.379388	-2.788720	-151.261833	-2.788720	-151.261833	-3.581188	118.401006
3.350000	-3.614990	116.341222	-2.766915	-153.319552	-2.766915	-153.319552	-3.614902	116.363385
3.400000	-3.651742	114.292578	-2.743121	-155.388537	-2.743121	-155.388537	-3.651672	114.315316
3.450000	-3.691578	112.232935	-2.717416	-157.469318	-2.717416	-157.469318	-3.691528	112.256279
3.500000	-3.734531	110.161799	-2.689882	-159.562401	-2.689882	-159.562401	-3.734501	110.185781
3.550000	-3.780638	108.078705	-2.660604	-161.668264	-2.660604	-161.668264	-3.780627	108.103359
3.600000	-3.829936	105.983218	-2.629669	-163.787363	-2.629669	-163.787363	-3.829944	106.008577
3.650000	-3.882468	103.874933	-2.597166	-165.920124	-2.597166	-165.920124	-3.882495	103.901033
3.700000	-3.938278	101.753478	-2.563188	-168.066945	-2.563188	-168.066945	-3.938322	101.780354
3.750000	-3.997411	99.618517	-2.527830	-170.228198	-2.527830	-170.228198	-3.997470	99.646203
3.800000	-4.059978	97.469437	-2.491158	-172.404548	-2.491158	-172.404548	-4.060050	97.497971
3.850000	-4.125961	95.306269	-2.453305	-174.595990	-2.453305	-174.595990	-4.126044	95.335684
3.900000	-4.195406	93.128783	-2.414370	-176.802798	-2.414370	-176.802798	-4.195499	93.159116
3.950000	-4.268360	90.936791	-2.374456	-179.025212	-2.374456	-179.025212	-4.268459	90.968074
4.000000	-4.344867	88.730140	-2.333666	178.736561	-2.333666	178.736561	-4.344969	88.762407
4.050000	-4.424967	86.508720	-2.292103	176.482347	-2.292103	176.482347	-4.425070	86.542002
4.100000	-4.508700	84.272458	-2.249874	174.212012	-2.249874	174.212012	-4.508800	84.306787
4.150000	-4.596099	82.021323	-2.207083	171.925454	-2.207083	171.925454	-4.596193	82.056729
4.200000	-4.687195	79.755324	-2.163835	169.622609	-2.163835	169.622609	-4.687280	79.791836
4.250000	-4.782012	77.474508	-2.120237	167.303451	-2.120237	167.303451	-4.782084	77.512155
4.300000	-4.880565	75.178966	-2.076392	164.967991	-2.076392	164.967991	-4.880622	75.217774
4.350000	-4.982865	72.868823	-2.032406	162.616276	-2.032406	162.616276	-4.982904	72.908819
4.400000	-5.088938	70.544089	-1.988380	160.248218	-1.988380	160.248218	-5.088957	70.585300
4.450000	-5.198772	68.204974	-1.944417	157.863944	-1.944417	157.863944	-5.198767	68.247425
4.500000	-5.312319	65.851874	-1.900621	155.463791	-1.900621	155.463791	-5.312288	65.895591
4.550000	-5.429546	63.485057	-1.857088	153.047955	-1.857088	153.047955	-5.429488	63.530066
4.600000	-5.550409	61.104824	-1.813913	150.616667	-1.813913	150.616667	-5.550321	61.151153
4.650000	-5.674847	58.711502	-1.771187	148.170191	-1.771187	148.170191	-5.674729	58.759179
4.700000	-5.802787	56.305444	-1.728997	145.708823	-1.728997	145.708823	-5.802638	56.354499
4.750000	-5.934139	53.887021	-1.687428	143.232888	-1.687428	143.232888	-5.933960	53.937487
4.800000	-6.068798	51.456623	-1.646561	140.742742	-1.646561	140.742742	-6.068588	51.508536
4.850000	-6.206638	49.014655	-1.606471	138.238763	-1.606471	138.238763	-6.206398	49.068053
4.900000	-6.347517	46.561529	-1.567229	135.721356	-1.567229	135.721356	-6.347248	46.616456
4.950000	-6.491273	44.097665	-1.528902	133.190947	-1.528902	133.190947	-6.490977	44.154169
5.000000	-6.637724	41.623486	-1.491552	130.647978	-1.491552	130.647978	-6.637402	41.681618
5.050000	-6.786661	39.139204	-1.455256	128.092658	-1.455256	128.092658	-6.786315	39.199025
5.100000	-6.937851	36.645458	-1.420047	125.525735	-1.420047	125.525735	-6.937485	36.707032
5.150000	-7.091050	34.142650	-1.385971	122.947692	-1.385971	122.947692	-7.090665	34.206046
5.200000	-7.245990	31.631167	-1.353068	120.359021	-1.353068	120.359021	-7.245589	31.696463
5.250000	-7.402380	29.111383	-1.321373	117.760218	-1.321373	117.760218	-7.401965	29.178661
5.300000	-7.559909	26.583646	-1.290917	115.151779	-1.290917	115.151779	-7.559483	26.652995
5.350000	-7.718244	24.048284	-1.261724	112.534201	-1.261724	112.534201	-7.717809	24.119799
5.400000	-7.877031	21.505598	-1.233814	109.907975	-1.233814	109.907975	-7.876588	21.579379
5.450000	-8.035895	18.955860	-1.207201	107.273586	-1.207201	107.273586	-8.035445	19.032013
5.500000	-8.194440	16.399314	-1.181896	104.631511	-1.181896	104.631511	-8.193985	16.477948
5.550000	-8.352254	13.836172	-1.157906	101.982215	-1.157906	101.982215	-8.351792	13.917399
5.600000	-8.508905	11.266613	-1.135231	99.326148	-1.135231	99.326148	-8.508437	11.350549
5.650000	-8.663894	8.690720	-1.113885	96.663685	-1.113885	96.663685	-8.663417	8.777481
5.700000	-8.816746	6.108613	-1.093861	93.995258	-1.093861	93.995258	-8.816259	6.198316
5.750000	-8.967037	3.520443	-1.075137	91.321337	-1.075137	91.321337	-8.966537	3.613200
5.800000	-9.114286	0.926265	-1.057702	88.642304	-1.057702	88.642304	-9.113768	1.022187
5.850000	-9.258005	-1.673895	-1.041541	85.958520	-1.041541	85.958520	-9.257464	-1.574704
5.900000	-9.397701	-4.280034	-1.026641	83.270326	-1.026641	83.270326	-9.397133	-4.177476
5.950000	-9.532884	-6.892174	-1.012981	80.578044	-1.012981	80.578044	-9.532282	-6.786161
6.000000	-9.663066	-9.510357	-1.000545	77.881972	-1.000545	77.881972	-9.662424	-9.400809
6.050000	-9.787766	-12.134641	-0.989312	75.182390	-0.989312	75.182390	-9.787078	-12.021490
6.100000	-9.906518	-14.765096	-0.979262	72.479557	-0.979262	72.479557	-9.905775	-14.648289
6.150000	-10.018867	-17.401806	-0.970373	69.773711	-0.970373	69.773711	-10.018063	-17.281301
6.200000	-10.124382	-20.044858	-0.962626	67.065074	-0.962626	67.065074	-10.123511	-19.920630
6.250000	-10.222655	-22.694342	-0.955998	64.353849	-0.955998	64.353849	-10.221710	-22.566380
6.300000	-10.313116	-25.350491	-0.950494	61.640172	-0.950494	61.640172	-10.312091	-25.218801
6.350000	-10.395605	-28.013250	-0.946070	58.924269	-0.946070	58.924269	-10.394495	-27.877856
6.400000	-10.469816	-30.682696	-0.942706	56.206297	-0.942706	56.206297	-10.468617	-30.543636
6.450000	-10.535483	-33.358896	-0.940386	53.486397	-0.940386	53.486397	-10.534193	-33.216221
6.500000	-10.592387	-36.041900	-0.939091	50.764702	-0.939091	50.764702	-10.591004	-35.895679
6.550000	-10.640354	-38.731744	-0.938807	48.041334	-0.938807	48.041334	-10.638877	-38.582058
6.600000	-10.679259	-41.428448	-0.939520	45.316405	-0.939520	45.316405	-10.677690	-41.275386
6.650000	-10.709028	-44.132007	-0.941217	42.590025	-0.941217	42.590025	-10.707370	-43.975671
6.700000	-10.729640	-46.842399	-0.943886	39.862295	-0.943886	39.862295	-10.727896	-46.682897
6.750000	-10.741125	-49.559576	-0.947517	37.133314	-0.947517	37.133314	-10.739301	-49.397023
6.800000	-10.743563	-52.283469	-0.952101	34.403179	-0.952101	34.403179	-10.741666	-52.117983
6.850000	-10.737087	-55.013984	-0.957630	31.671985	-0.957630	31.671985	-10.735125	-54.845684
6.900000	-10.721783	-57.751071	-0.964107	28.939819	-0.964107	28.939819	-10.719765	-57.580078
6.950000	-10.697885	-60.494584	-0.971527	26.206781	-0.971527	26.206781	-10.695820	-60.321015
7.000000	-10.665757	-63.244282	-0.979874	23.472983	-0.979874	23.472983	-10.663656	-63.068250
7.050000	-10.625708	-65.999974	-0.989145	20.738526	-0.989145	20.738526	-10.623581	-65.821587
7.100000	-10.578083	-68.761445	-0.999335	18.003520	-0.999335	18.003520	-10.575940	-68.580804
7.150000	-10.523254	-71.528459	-1.010442	15.268075	-1.010442	15.268075	-10.521106	-71.345657
7.200000	-10.461622	-74.300756	-1.022463	12.532309	-1.022463	12.532309	-10.459479	-74.115879
7.250000	-10.393608	-77.078058	-1.035394	9.796344	-1.035394	9.796344	-10.391479	-76.891184
7.300000	-10.319648	-79.860067	-1.049233	7.060307	-1.049233	7.060307	-10.317542	-79.671265
7.350000	-10.240192	-82.646468	-1.063975	4.324332	-1.063975	4.324332	-10.238116	-82.455800
7.400000	-10.155696	-85.436930	-1.079617	1.588555	-1.079617	1.588555	-10.153657	-85.244450
7.450000	-10.066618	-88.231108	-1.096154	-1.146879	-1.096154	-1.146879	-10.064621	-88.036864
7.500000	-9.973417	-91.028646	-1.113580	-3.881826	-1.113580	-3.881826	-9.971465	-90.832680
7.550000	-9.876450	-93.829234	-1.131907	-6.616116	-1.131907	-6.616116	-9.874547	-93.631582
7.600000	-9.776271	-96.632423	-1.151107	-9.349607	-1.151107	-9.349607	-9.774418	-96.433119
7.650000	-9.673312	-99.437837	-1.171172	-12.082145	-1.171172	-12.082145	-9.671510	-99.236910
7.700000	-9.567990	-102.245096	-1.192090	-14.813574	-1.192090	-14.813574	-9.566238	-102.042573
7.750000	-9.460704	-105.053822	-1.213849	-17.543739	-1.213849	-17.543739	-9.459001	-104.849730
7.800000	-9.351837	-107.863642	-1.236434	-20.272487	-1.236434	-20.272487	-9.350180	-107.658007
7.850000	-9.241749	-110.674190	-1.259830	-22.999667	-1.259830	-22.999667	-9.240135	-110.467039
7.900000	-9.130780	-113.485112	-1.284019	-25.725135	-1.284019	-25.725135	-9.129204	-113.276473
7.950000	-9.019246	-116.296068	-1.308982	-28.448749	-1.308982	-28.448749	-9.017706	-116.085969
8.000000	-8.907442	-119.106736	-1.334696	-31.170377	-1.334696	-31.170377	-8.905933	-118.895206
8.050000	-8.795638	-121.916811	-1.361139	-33.889896	-1.361139	-33.889896	-8.794157	-121.703882
8.100000	-8.684083	-124.726014	-1.388287	-36.607190	-1.388287	-36.607190	-8.682626	-124.511720
8.150000	-8.572993	-127.534076	-1.416118	-39.322132	-1.416118	-39.322132	-8.571557	-127.318452
8.200000	-8.462578	-130.340764	-1.444603	-42.034630	-1.444603	-42.034630	-8.461160	-130.123845
8.250000	-8.353028	-133.145896	-1.473708	-44.744635	-1.473708	-44.744635	-8.351625	-132.927717
8.300000	-8.244500	-135.949309	-1.503399	-47.452089	-1.503399	-47.452089	-8.243111	-135.729905
8.350000	-8.137133	-138.750876	-1.533647	-50.156951	-1.533647	-50.156951	-8.135759	-138.530281
8.400000	-8.031047	-141.550501	-1.564417	-52.859198	-1.564417	-52.859198	-8.029686	-141.328746
8.450000	-7.926341	-144.348126	-1.595676	-55.558827	-1.595676	-55.558827	-7.924996	-144.125240
8.500000	-7.823100	-147.143726	-1.627389	-58.255855	-1.627389	-58.255855	-7.821774	-146.919734
8.550000	-7.721393	-149.937314	-1.659523	-60.950319	-1.659523	-60.950319	-7.720088	-149.712236
8.600000	-7.621272	-152.728935	-1.692042	-63.642279	-1.692042	-63.642279	-7.619993	-152.502787
8.650000	-7.522779	-155.518671	-1.724912	-66.331818	-1.724912	-66.331818	-7.521531	-155.291461
8.700000	-7.425941	-158.306637	-1.758099	-69.019041	-1.758099	-69.019041	-7.424730	-158.078366
8.750000	-7.330776	-161.092977	-1.791569	-71.704076	-1.791569	-71.704076	-7.329607	-160.863640
8.800000	-7.237304	-163.877843	-1.825292	-74.387035	-1.825292	-74.387035	-7.236186	-163.647424
8.850000	-7.145512	-166.661476	-1.859234	-77.068145	-1.859234	-77.068145	-7.144451	-166.429949
8.900000	-7.055387	-169.444107	-1.893365	-79.747607	-1.893365	-79.747607	-7.054392	-169.211438
8.950000	-6.966915	-172.225993	-1.927658	-82.425645	-1.927658	-82.425645	-6.965993	-171.992137
9.000000	-6.880072	-175.007408	-1.962088	-85.102509	-1.962088	-85.102509	-6.879231	-174.772309
9.050000	-6.794832	-177.788646	-1.996632	-87.778470	-1.996632	-87.778470	-6.794079	-177.552239
9.100000	-6.711164	179.429985	-2.031272	-90.453821	-2.031272	-90.453821	-6.710506	179.667777
9.150000	-6.629033	176.648166	-2.065989	-93.128876	-2.065989	-93.128876	-6.628477	176.887432
9.200000	-6.548403	173.865569	-2.100772	-95.803971	-2.100772	-95.803971	-6.547954	174.106408
9.250000	-6.469237	171.081863	-2.135610	-98.479461	-2.135610	-98.479461	-6.468900	171.324384
9.300000	-6.391495	168.296715	-2.170500	-101.155717	-2.170500	-101.155717	-6.391274	168.541037
9.350000	-6.315140	165.509792	-2.205441	-103.833131	-2.205441	-103.833131	-6.315035	165.756046
9.400000	-6.240139	162.720745	-2.240435	-106.512126	-2.240435	-106.512126	-6.240152	162.969070
9.450000	-6.166455	159.929247	-2.275493	-109.193137	-2.275493	-109.193137	-6.166583	160.179794
9.500000	-6.094043	157.135019	-2.310630	-111.876576	-2.310630	-111.876576	-6.094283	157.387943
9.550000	-6.022869	154.337776	-2.345868	-114.562883	-2.345868	-114.562883	-6.023216	154.593241
9.600000	-5.952900	151.537255	-2.381232	-117.252502	-2.381232	-117.252502	-5.953345	151.795429
9.650000	-5.884108	148.733214	-2.416756	-119.945885	-2.416756	-119.945885	-5.884640	148.994271
9.700000	-5.816464	145.925441	-2.452479	-122.643481	-2.452479	-122.643481	-5.817071	146.189559
9.750000	-5.749945	143.113752	-2.488446	-125.345742	-2.488446	-125.345742	-5.750611	143.381113
9.800000	-5.684531	140.297999	-2.524711	-128.053111	-2.524711	-128.053111	-5.685236	140.568783
9.850000	-5.620205	137.478070	-2.561333	-130.766026	-2.561333	-130.766026	-5.620927	137.752459
9.900000	-5.556953	134.653891	-2.598378	-133.484911	-2.598378	-133.484911	-5.557668	134.932065
9.950000	-5.494767	131.825433	-2.635922	-136.210176	-2.635922	-136.210176	-5.495446	132.107570
10.000000	-5.433640	128.992710	-2.674046	-138.942208	-2.674046	-138.942208	-5.434252	129.278982
