! freq	dB(S11)	phase(S11)	dB(S12)	phase(S12)	
!     	dB(S21)	phase(S21)	dB(S22)	phase(S22)	
!S-par simulation data
#  GHz  S  DB  R 50
0.000000	-85.172312	0.000000	-0.000479	0.000000	-0.000479	0.000000	-85.172312	0.000000
0.050000	-35.336735	-93.063240	-0.004184	-3.119442	-0.004184	-3.119442	-35.336009	-92.946020
0.100000	-29.328136	-96.399883	-0.013899	-6.224053	-0.013899	-6.224053	-29.327388	-96.165423
0.150000	-25.825877	-99.664145	-0.027105	-9.310697	-0.027105	-9.310697	-25.825094	-99.312460
0.200000	-23.353164	-102.899232	-0.042174	-12.383890	-0.042174	-12.383890	-23.352336	-102.430333
0.250000	-21.447580	-106.111123	-0.058626	-15.447739	-0.058626	-15.447739	-21.446702	-105.525021
0.300000	-19.902706	-109.301223	-0.076484	-18.504705	-0.076484	-18.504705	-19.901778	-108.597916
0.350000	-18.607421	-112.471098	-0.095852	-21.555848	-0.095852	-21.555848	-18.606449	-111.650561
0.400000	-17.495786	-115.621536	-0.116870	-24.601085	-0.116870	-24.601085	-17.494782	-114.683710
0.450000	-16.525802	-118.752879	-0.139699	-27.639675	-0.139699	-27.639675	-16.524784	-117.697645
0.500000	-15.667387	-121.867374	-0.164275	-30.671363	-0.164275	-30.671363	-15.666376	-120.694565
0.550000	-14.899713	-124.966287	-0.190581	-33.695575	-0.190581	-33.695575	-14.898731	-123.675675
0.600000	-14.208032	-128.050192	-0.218639	-36.711372	-0.218639	-36.711372	-14.207102	-126.641478
0.650000	-13.580101	-131.120773	-0.248313	-39.718556	-0.248313	-39.718556	-13.579242	-129.593612
0.700000	-13.006691	-134.179138	-0.279495	-42.716825	-0.279495	-42.716825	-13.005920	-132.533142
0.750000	-12.480974	-137.225783	-0.312118	-45.705578	-0.312118	-45.705578	-12.480303	-135.460516
0.800000	-11.997064	-140.261492	-0.346057	-48.684602	-0.346057	-48.684602	-11.996502	-138.376492
0.850000	-11.550026	-143.287026	-0.381173	-51.653871	-0.381173	-51.653871	-11.549576	-141.281819
0.900000	-11.135860	-146.302938	-0.417337	-54.613352	-0.417337	-54.613352	-11.135520	-144.177045
0.950000	-10.751273	-149.309651	-0.454426	-57.563027	-0.454426	-57.563027	-10.751038	-147.062592
1.000000	-10.393422	-152.307585	-0.492311	-60.502998	-0.492311	-60.502998	-10.393285	-149.938889
1.050000	-10.059866	-155.297130	-0.530866	-63.433439	-0.530866	-63.433439	-10.059815	-152.806340
1.100000	-9.748487	-158.278662	-0.569966	-66.354601	-0.569966	-66.354601	-9.748510	-155.665342
1.150000	-9.457431	-161.252555	-0.609489	-69.266803	-0.609489	-69.266803	-9.457515	-158.516292
1.200000	-9.185065	-164.219192	-0.649319	-72.170428	-0.649319	-72.170428	-9.185197	-161.359598
1.250000	-8.929941	-167.178967	-0.689343	-75.065920	-0.689343	-75.065920	-8.930108	-164.195684
1.300000	-8.690949	-170.132166	-0.729451	-77.953629	-0.729451	-77.953629	-8.691140	-167.024858
1.350000	-8.466724	-173.079377	-0.769541	-80.834288	-0.769541	-80.834288	-8.466930	-169.847748
1.400000	-8.256215	-176.021068	-0.809521	-83.708503	-0.809521	-83.708503	-8.256430	-172.664854
1.450000	-8.058465	-178.957732	-0.849305	-86.576923	-0.849305	-86.576923	-8.058684	-175.476703
1.500000	-7.872603	178.110108	-0.888813	-89.440239	-0.888813	-89.440239	-7.872825	-178.283851
1.550000	-7.697826	175.181900	-0.927972	-92.299173	-0.927972	-92.299173	-7.698053	178.913113
1.600000	-7.533400	172.257063	-0.966720	-95.154485	-0.966720	-95.154485	-7.533635	176.113572
1.650000	-7.378641	169.334990	-1.004999	-98.006958	-1.004999	-98.006958	-7.378892	173.316876
1.700000	-7.232916	166.415044	-1.042761	-100.857406	-1.042761	-100.857406	-7.233193	170.522347
1.750000	-7.095637	163.496564	-1.079963	-103.706659	-1.079963	-103.706659	-7.095950	167.729275
1.800000	-6.966251	160.578864	-1.116574	-106.555572	-1.116574	-106.555572	-6.966613	164.936920
1.850000	-6.844241	157.661233	-1.152567	-109.405012	-1.152567	-109.405012	-6.844666	162.144513
1.900000	-6.729172	154.742924	-1.187916	-112.255889	-1.187916	-112.255889	-6.729676	159.351237
1.950000	-6.620575	151.823155	-1.222610	-115.109128	-1.222610	-115.109128	-6.621172	156.556236
2.000000	-6.517955	148.901161	-1.256656	-117.965619	-1.256656	-117.965619	-6.518660	153.758658
2.050000	-6.420897	145.976148	-1.290059	-120.826278	-1.290059	-120.826278	-6.421723	150.957619
2.100000	-6.329003	143.047307	-1.322832	-123.692023	-1.322832	-123.692023	-6.329963	148.152203
2.150000	-6.241893	140.113812	-1.354993	-126.563783	-1.354993	-126.563783	-6.242998	145.341467
2.200000	-6.159203	137.174824	-1.386570	-129.442489	-1.386570	-129.442489	-6.160461	142.524441
2.250000	-6.080580	134.229489	-1.417597	-132.329076	-1.417597	-132.329076	-6.081996	139.700127
2.300000	-6.005800	131.276574	-1.448091	-135.224924	-1.448091	-135.224924	-6.007379	136.867077
2.350000	-5.934261	128.315993	-1.478155	-138.130019	-1.478155	-138.130019	-5.936002	134.025155
2.400000	-5.865803	125.346452	-1.507812	-141.045805	-1.507812	-141.045805	-5.867704	131.172816
2.450000	-5.800112	122.367048	-1.537123	-143.973230	-1.537123	-143.973230	-5.802166	128.308956
2.500000	-5.736881	119.376873	-1.566157	-146.913251	-1.566157	-146.913251	-5.739079	125.432448
2.550000	-5.675870	116.374452	-1.594982	-149.867462	-1.594982	-149.867462	-5.678200	122.541481
2.600000	-5.616696	113.359322	-1.623697	-152.836283	-1.623697	-152.836283	-5.619143	119.635425
2.650000	-5.559066	110.330542	-1.652395	-155.820688	-1.652395	-155.820688	-5.561613	116.713074
2.700000	-5.502691	107.287156	-1.681175	-158.821659	-1.681175	-158.821659	-5.505318	113.773198
2.750000	-5.447284	104.228201	-1.710143	-161.840189	-1.710143	-161.840189	-5.449970	110.814545
2.800000	-5.392560	101.152698	-1.739417	-164.877281	-1.739417	-164.877281	-5.395285	107.835843
2.850000	-5.338236	98.059657	-1.769120	-167.933954	-1.769120	-167.933954	-5.340977	104.835795
2.900000	-5.284031	94.948069	-1.799386	-171.011241	-1.799386	-171.011241	-5.286767	101.813084
2.950000	-5.229665	91.816910	-1.830360	-174.110192	-1.830360	-174.110192	-5.232376	98.766374
3.000000	-5.174860	88.665134	-1.862194	-177.231879	-1.862194	-177.231879	-5.177526	95.694308
3.050000	-5.119339	85.491673	-1.895055	179.622605	-1.895055	179.622605	-5.121944	92.595511
3.100000	-5.062827	82.295433	-1.929121	176.452142	-1.929121	176.452142	-5.065357	89.468587
3.150000	-5.005304	79.078560	-1.964394	173.259145	-1.964394	173.259145	-5.007750	86.316168
3.200000	-4.946009	75.833229	-2.001448	170.035176	-2.001448	170.035176	-4.948363	83.128580
3.250000	-4.884907	72.561616	-2.040330	166.782708	-2.040330	166.782708	-4.887167	79.908540
3.300000	-4.821737	69.262476	-2.081281	163.500497	-2.081281	163.500497	-4.823905	76.654582
3.350000	-4.756241	65.934520	-2.124559	160.187261	-2.124559	160.187261	-4.758324	73.365216
3.400000	-4.688170	62.576399	-2.170448	156.841680	-2.170448	156.841680	-4.690180	70.038935
3.450000	-4.617286	59.186709	-2.219252	153.462394	-2.219252	153.462394	-4.619238	66.674213
3.500000	-4.543358	55.763975	-2.271303	150.047996	-2.271303	150.047996	-4.545271	63.269500
3.550000	-4.466171	52.306653	-2.326966	146.597041	-2.326966	146.597041	-4.468067	59.823224
3.600000	-4.385525	48.813122	-2.386634	143.108037	-2.386634	143.108037	-4.387426	56.333790
3.650000	-4.301237	45.281678	-2.450739	139.579454	-2.450739	139.579454	-4.303167	52.799576
3.700000	-4.213149	41.710533	-2.519756	136.009719	-2.519756	136.009719	-4.215129	49.218937
3.750000	-4.121124	38.097811	-2.594204	132.397224	-2.594204	132.397224	-4.123175	45.590199
3.800000	-4.024942	34.440553	-2.674781	128.739328	-2.674781	128.739328	-4.027078	41.910542
3.850000	-3.924638	30.737606	-2.762013	125.035297	-2.762013	125.035297	-3.926867	38.179286
3.900000	-3.820176	26.986828	-2.856598	121.283459	-2.856598	121.283459	-3.822499	34.394687
3.950000	-3.711565	23.186003	-2.959302	117.482143	-2.959302	117.482143	-3.713971	30.554988
4.000000	-3.598855	19.332852	-3.070976	113.629701	-3.070976	113.629701	-3.601325	26.658426
4.050000	-3.482151	15.425044	-3.192559	109.724525	-3.192559	109.724525	-3.484654	22.703247
4.100000	-3.361610	11.460220	-3.325094	105.765081	-3.325094	105.765081	-3.364103	18.687725
4.150000	-3.237449	7.436016	-3.469735	101.749936	-3.469735	101.749936	-3.239878	14.610177
4.200000	-3.109948	3.350095	-3.627767	97.677803	-3.627767	97.677803	-3.112247	10.469002
4.250000	-2.979452	-0.799817	-3.800616	93.547586	-3.800616	93.547586	-2.981548	6.262706
4.300000	-2.846375	-5.015884	-3.989870	89.358441	-3.989870	89.358441	-2.848188	1.989947
4.350000	-2.711202	-9.300117	-4.197302	85.109841	-4.197302	85.109841	-2.712645	-2.350415
4.400000	-2.574456	-13.655089	-4.425064	80.801014	-4.425064	80.801014	-2.575440	-6.760022
4.450000	-2.436785	-18.082362	-4.675407	76.432357	-4.675407	76.432357	-2.437221	-11.239461
4.500000	-2.298931	-22.582328	-4.950659	72.005530	-4.950659	72.005530	-2.298732	-15.788160
4.550000	-2.161656	-27.155723	-5.253620	67.522289	-5.253620	67.522289	-2.160740	-20.405853
4.600000	-2.025782	-31.802794	-5.587452	62.985286	-5.587452	62.985286	-2.024071	-25.091764
4.650000	-1.892176	-36.523235	-5.955753	58.398253	-5.955753	58.398253	-1.889598	-29.844549
4.700000	-1.761743	-41.316116	-6.362635	53.766227	-6.362635	53.766227	-1.758229	-34.662242
4.750000	-1.635409	-46.179831	-6.812846	49.095837	-6.812846	49.095837	-1.630896	-39.542211
4.800000	-1.514109	-51.112055	-7.311925	44.395672	-7.311925	44.395672	-1.508533	-44.481126
4.850000	-1.398765	-56.109709	-7.866419	39.676792	-7.866419	39.676792	-1.392063	-49.474945
4.900000	-1.290269	-61.168958	-8.484189	34.953450	-8.484189	34.953450	-1.282377	-54.518917
4.950000	-1.189463	-66.285222	-9.174853	30.244179	-9.174853	30.244179	-1.180314	-59.607609
5.000000	-1.097116	-71.453211	-9.950442	25.573495	-9.950442	25.573495	-1.086641	-64.734950
5.050000	-1.014075	-76.667688	-10.826752	20.976957	-10.826752	20.976957	-1.002200	-69.894745
5.100000	-0.940768	-81.921199	-11.823728	16.501976	-11.823728	16.501976	-0.927420	-75.079169
5.150000	-0.877636	-87.206792	-12.969247	12.220355	-12.969247	12.220355	-0.862743	-80.280750
5.200000	-0.824981	-92.517204	-14.303059	8.246405	-14.303059	8.246405	-0.808475	-85.491798
5.250000	-0.782965	-97.845013	-15.884643	4.777557	-15.884643	4.777557	-0.764784	-90.704547
5.300000	-0.751603	-103.182774	-17.808216	2.192099	-17.808216	2.192099	-0.731698	-95.911298
5.350000	-0.730768	-108.523174	-20.232647	1.320897	-20.232647	1.320897	-0.709100	-101.104564
5.400000	-0.720198	-113.859159	-23.434905	4.358287	-23.434905	4.358287	-0.696745	-106.277203
5.450000	-0.719595	-119.183890	-27.714262	18.878071	-27.714262	18.878071	-0.694351	-111.422214
5.500000	-0.728397	-124.491127	-30.566314	62.722916	-30.566314	62.722916	-0.701375	-116.533515
5.550000	-0.745956	-129.775331	-27.125544	101.012521	-27.125544	101.012521	-0.717188	-121.605811
5.600000	-0.771596	-135.031527	-23.231296	112.809390	-23.231296	112.809390	-0.741131	-126.634382
5.650000	-0.804582	-140.255383	-20.382603	115.147192	-20.382603	115.147192	-0.772487	-131.615243
5.700000	-0.844138	-145.443216	-18.247602	114.132051	-18.247602	114.132051	-0.810494	-136.545154
5.750000	-0.889464	-150.591973	-16.574573	111.641001	-16.574573	111.641001	-0.854371	-141.421602
5.800000	-0.939752	-155.699204	-15.218026	108.397117	-15.218026	108.397117	-0.903322	-146.242774
5.850000	-0.994303	-160.761493	-14.092056	104.724244	-14.092056	104.724244	-0.956667	-151.005582
5.900000	-1.052121	-165.779941	-13.137757	100.813542	-13.137757	100.813542	-1.013415	-155.712701
5.950000	-1.112539	-170.752608	-12.318536	96.752974	-12.318536	96.752974	-1.072913	-160.362827
6.000000	-1.174834	-175.678920	-11.607727	92.602073	-11.607727	92.602073	-1.134452	-164.956415
6.050000	-1.238324	179.441382	-10.985813	88.398837	-10.985813	88.398837	-1.197359	-169.494319
6.100000	-1.302371	174.608304	-10.438065	84.168401	-10.438065	84.168401	-1.261009	-173.977726
6.150000	-1.366386	169.821654	-9.953093	79.927829	-9.953093	79.927829	-1.324821	-178.408095
6.200000	-1.429827	165.081090	-9.521898	75.688911	-9.521898	75.688911	-1.388264	177.212907
6.250000	-1.492204	160.386167	-9.137245	71.459883	-9.137245	71.459883	-1.450856	172.883454
6.300000	-1.553026	155.737341	-8.793737	67.246951	-8.793737	67.246951	-1.512118	168.602602
6.350000	-1.611937	151.133072	-8.485908	63.053839	-8.485908	63.053839	-1.571695	164.367268
6.400000	-1.668600	146.572808	-8.209685	58.883275	-8.209685	58.883275	-1.629253	160.175428
6.450000	-1.722723	142.056011	-7.961626	54.737108	-7.961626	54.737108	-1.684500	156.025060
6.500000	-1.774058	137.582173	-7.738803	50.616545	-7.738803	50.616545	-1.737187	151.914178
6.550000	-1.822402	133.150826	-7.538700	46.522322	-7.538700	46.522322	-1.787107	147.840852
6.600000	-1.867593	128.761548	-7.359141	42.454831	-7.359141	42.454831	-1.834090	143.803222
6.650000	-1.909510	124.413968	-7.198230	38.414219	-7.198230	38.414219	-1.878003	139.799520
6.700000	-1.948067	120.107765	-7.054309	34.400453	-7.054309	34.400453	-1.918749	135.828071
6.750000	-1.983214	115.842663	-6.925914	30.413376	-6.925914	30.413376	-1.956262	131.887309
6.800000	-2.014936	111.618433	-6.811746	26.452751	-6.811746	26.452751	-1.990505	127.975778
6.850000	-2.043248	107.434879	-6.710648	22.518286	-6.710648	22.518286	-2.021474	124.092134
6.900000	-2.068155	103.292277	-6.621689	18.609933	-6.621689	18.609933	-2.049153	120.235424
6.950000	-2.089733	99.190479	-6.543908	14.727344	-6.543908	14.727344	-2.073591	116.404497
7.000000	-2.108114	95.128918	-6.476332	10.869896	-6.476332	10.869896	-2.094896	112.598065
7.050000	-2.123417	91.107468	-6.418178	7.037252	-6.418178	7.037252	-2.113161	108.815231
7.100000	-2.135780	87.126001	-6.368726	3.229080	-6.368726	3.229080	-2.128499	105.055201
7.150000	-2.145359	83.184373	-6.327303	-0.554941	-6.327303	-0.554941	-2.141043	101.317269
7.200000	-2.152327	79.282421	-6.293279	-4.315126	-6.293279	-4.315126	-2.150943	97.600818
7.250000	-2.156870	75.419949	-6.266058	-8.051786	-6.266058	-8.051786	-2.158365	93.905303
7.300000	-2.159104	71.598414	-6.245310	-11.764241	-6.245310	-11.764241	-2.163401	90.231112
7.350000	-2.159436	67.813724	-6.229934	-15.455049	-6.229934	-15.455049	-2.166450	86.575865
7.400000	-2.157968	64.067679	-6.219725	-19.123284	-6.219725	-19.123284	-2.167599	82.940287
7.450000	-2.154928	60.359890	-6.214163	-22.769302	-6.214163	-22.769302	-2.167062	79.324032
7.500000	-2.150551	56.689902	-6.212732	-26.393488	-6.212732	-26.393488	-2.165070	75.726772
7.550000	-2.145045	53.058778	-6.215053	-29.995369	-6.215053	-29.995369	-2.161817	72.148982
7.600000	-2.138715	49.464253	-6.220429	-33.576392	-6.220429	-33.576392	-2.157614	68.589504
7.650000	-2.131817	45.905615	-6.228337	-37.137132	-6.228337	-37.137132	-2.152718	65.047975
7.700000	-2.124613	42.382054	-6.238243	-40.678257	-6.238243	-40.678257	-2.147393	61.523985
7.750000	-2.117369	38.892654	-6.249596	-44.200548	-6.249596	-44.200548	-2.141915	58.017060
7.800000	-2.110364	35.436376	-6.261827	-47.704918	-6.261827	-47.704918	-2.136567	54.526637
7.850000	-2.103882	32.012055	-6.274343	-51.192442	-6.274343	-51.192442	-2.131646	51.052043
7.900000	-2.098220	28.618377	-6.286522	-54.664384	-6.286522	-54.664384	-2.127461	47.592466
7.950000	-2.093693	25.253867	-6.297710	-58.122231	-6.297710	-58.122231	-2.124339	44.146931
8.000000	-2.090632	21.916867	-6.307211	-61.567734	-6.307211	-61.567734	-2.122627	40.714260
8.050000	-2.089392	18.605513	-6.314288	-65.002953	-6.314288	-65.002953	-2.122698	37.293037
8.100000	-2.090362	15.317702	-6.318148	-68.430316	-6.318148	-68.430316	-2.124959	33.881566
8.150000	-2.093564	12.048652	-6.318594	-71.852903	-6.318594	-71.852903	-2.129448	30.477118
8.200000	-2.100252	8.801088	-6.313477	-75.273147	-6.313477	-75.273147	-2.137448	27.079077
8.250000	-2.110602	5.568948	-6.302371	-78.695784	-6.302371	-78.695784	-2.149159	23.683432
8.300000	-2.125239	2.348758	-6.284192	-82.125571	-6.284192	-82.125571	-2.165238	20.286722
8.350000	-2.144901	-0.863460	-6.257757	-85.568169	-6.257757	-85.568169	-2.186459	16.884825
8.400000	-2.170461	-4.072267	-6.221768	-89.030339	-6.221768	-89.030339	-2.213742	13.472820
8.450000	-2.202980	-7.282921	-6.174799	-92.520197	-6.174799	-92.520197	-2.248202	10.044836
8.500000	-2.243756	-10.501501	-6.115279	-96.047529	-6.115279	-96.047529	-2.291211	6.593852
8.550000	-2.294410	-13.735053	-6.041476	-99.624209	-6.041476	-99.624209	-2.344484	3.111457
8.600000	-2.356991	-16.991758	-5.951482	-103.264730	-5.951482	-103.264730	-2.410196	-0.412442
8.650000	-2.434133	-20.281106	-5.843201	-106.986909	-5.843201	-106.986909	-2.491153	-3.989976
8.700000	-2.529275	-23.614058	-5.714343	-110.812815	-5.714343	-110.812815	-2.591033	-7.635732
8.750000	-2.646986	-27.003133	-5.562435	-114.769996	-5.562435	-114.769996	-2.714746	-11.367220
8.800000	-2.794192	-30.464175	-5.384151	-118.897752	-5.384151	-118.897752	-2.869767	-15.208228
8.850000	-2.979122	-34.010807	-5.177363	-123.238059	-5.177363	-123.238059	-3.065078	-19.181759
8.900000	-3.214038	-37.656792	-4.939569	-127.848324	-4.939569	-127.848324	-3.314169	-23.316039
8.950000	-3.516632	-41.410297	-4.668845	-132.802509	-4.668845	-132.802509	-3.636765	-27.640669
9.000000	-3.913025	-45.263305	-4.364581	-138.196090	-4.364581	-138.196090	-4.062541	-32.180410
9.050000	-4.442657	-49.166812	-4.028804	-144.151703	-4.028804	-144.151703	-4.637603	-36.938188
9.100000	-5.160128	-52.984893	-3.669215	-150.796929	-3.669215	-150.796929	-5.429070	-41.851504
9.150000	-6.170738	-56.314274	-3.298910	-158.372672	-3.298910	-158.372672	-6.574863	-46.677415
9.200000	-7.605353	-58.150378	-2.948633	-167.052744	-2.948633	-167.052744	-8.285635	-50.603326
9.250000	-9.604483	-55.731771	-2.669183	-177.037592	-2.669183	-177.037592	-10.950938	-50.816956
9.300000	-11.823160	-42.727171	-2.535212	171.620241	-2.535212	171.620241	-14.829844	-36.588335
9.350000	-12.025559	-17.226251	-2.636761	159.117084	-2.636761	159.117084	-15.572003	7.221081
9.400000	-9.415858	-0.573791	-3.051446	145.997574	-3.051446	145.997574	-10.989055	28.735721
9.450000	-6.701417	1.847445	-3.802741	133.060432	-3.802741	133.060432	-7.403806	28.285847
9.500000	-4.744716	-2.033124	-4.846091	121.043226	-4.846091	121.043226	-5.113651	21.937746
9.550000	-3.437598	-7.908800	-6.097770	110.375926	-6.097770	110.375926	-3.655477	14.344317
9.600000	-2.579009	-14.058940	-7.471373	101.159205	-7.471373	101.159205	-2.717743	6.968157
9.650000	-2.013234	-19.861524	-8.900156	93.279937	-8.900156	93.279937	-2.105714	0.247779
9.700000	-1.635975	-25.144963	-10.341225	86.541336	-10.341225	86.541336	-1.699114	-5.753019
9.750000	-1.379182	-29.918824	-11.775111	80.726611	-11.775111	80.726611	-1.422410	-11.109617
9.800000	-1.202072	-34.238203	-13.190140	75.666573	-13.190140	75.666573	-1.231139	-15.915289
9.850000	-1.078266	-38.171750	-14.582953	71.220353	-14.582953	71.220353	-1.096869	-20.263935
9.900000	-0.991138	-41.779471	-15.951148	67.284194	-15.951148	67.284194	-1.001795	-24.231856
9.950000	-0.929584	-45.114688	-17.295488	63.776141	-17.295488	63.776141	-0.934079	-27.883908
10.000000	-0.884402	-48.246537	-18.646444	60.593574	-18.646444	60.593574	-0.883919	-31.301220
