! freq	dB(S11)	phase(S11)	dB(S12)	phase(S12)	
!     	dB(S21)	phase(S21)	dB(S22)	phase(S22)	
!S-par simulation data
#  GHz  S  DB  R 50
0.000000	-0.000000	-0.000000	-350.195088	180.000000	-350.195088	180.000000	-0.000000	-0.000000
0.050000	-0.000755	-1.242712	-101.733159	88.881950	-101.733159	88.881950	-0.001017	-1.589331
0.100000	-0.002613	-2.480214	-95.758972	87.374971	-95.758972	87.374971	-0.003451	-3.170990
0.150000	-0.004846	-3.711505	-92.295274	85.952063	-92.295274	85.952063	-0.006268	-4.743884
0.200000	-0.006993	-4.938239	-89.879170	84.578260	-89.879170	84.578260	-0.008895	-6.310553
0.250000	-0.008946	-6.162701	-88.041555	83.242672	-88.041555	83.242672	-0.011255	-7.874049
0.300000	-0.010702	-7.385880	-86.580999	81.949794	-86.580999	81.949794	-0.013385	-9.435535
0.350000	-0.012307	-8.608362	-85.388559	80.705227	-85.388559	80.705227	-0.015363	-10.995631
0.400000	-0.013807	-9.830347	-84.400458	79.517332	-84.400458	79.517332	-0.017254	-12.554479
0.450000	-0.015237	-11.051784	-83.581718	78.402763	-83.581718	78.402763	-0.019102	-14.111849
0.500000	-0.016630	-12.272614	-82.897592	77.367276	-82.897592	77.367276	-0.020937	-15.667654
0.550000	-0.018005	-13.492700	-82.328883	76.424979	-82.328883	76.424979	-0.022772	-17.221641
0.600000	-0.019372	-14.711900	-81.861938	75.592883	-81.861938	75.592883	-0.024613	-18.773540
0.650000	-0.020742	-15.930072	-81.486924	74.891610	-81.486924	74.891610	-0.026461	-20.323081
0.700000	-0.022118	-17.147085	-81.196741	74.346327	-81.196741	74.346327	-0.028318	-21.869996
0.750000	-0.023506	-18.362732	-80.990729	74.001893	-80.990729	74.001893	-0.030180	-23.413837
0.800000	-0.024908	-19.576891	-80.864686	73.902829	-80.864686	73.902829	-0.032047	-24.954343
0.850000	-0.026325	-20.789486	-80.813764	74.100334	-80.813764	74.100334	-0.033916	-26.491339
0.900000	-0.027755	-22.000541	-80.830179	74.634436	-80.830179	74.634436	-0.035784	-28.024872
0.950000	-0.029200	-23.209875	-80.915053	75.605192	-80.915053	75.605192	-0.037650	-29.554532
1.000000	-0.030657	-24.417408	-81.063558	77.117563	-81.063558	77.117563	-0.039514	-31.080126
1.050000	-0.032127	-25.623063	-81.267347	79.301415	-81.267347	79.301415	-0.041373	-32.601472
1.100000	-0.033607	-26.826769	-81.511727	82.311462	-81.511727	82.311462	-0.043226	-34.118405
1.150000	-0.035096	-28.028460	-81.771641	86.318121	-81.771641	86.318121	-0.045073	-35.630769
1.200000	-0.036592	-29.228074	-82.006833	91.479136	-82.006833	91.479136	-0.046913	-37.138421
1.250000	-0.038095	-30.425555	-82.158428	97.878773	-82.158428	97.878773	-0.048745	-38.641230
1.300000	-0.039602	-31.620750	-82.141885	105.462835	-82.141885	105.462835	-0.050568	-40.138850
1.350000	-0.041113	-32.813702	-81.890347	113.789410	-81.890347	113.789410	-0.052382	-41.631381
1.400000	-0.042625	-34.004363	-81.367547	122.240100	-81.367547	122.240100	-0.054186	-43.118717
1.450000	-0.044137	-35.192688	-80.589963	130.163240	-80.589963	130.163240	-0.055981	-44.600762
1.500000	-0.045649	-36.378635	-79.616678	137.089187	-79.616678	137.089187	-0.057765	-46.077424
1.550000	-0.047160	-37.562162	-78.521276	142.812477	-78.521276	142.812477	-0.059538	-47.548621
1.600000	-0.048668	-38.743233	-77.368451	147.341043	-77.368451	147.341043	-0.061301	-49.014273
1.650000	-0.050174	-39.921810	-76.204738	150.800592	-76.204738	150.800592	-0.063053	-50.474309
1.700000	-0.051676	-41.097859	-75.059341	153.357225	-75.059341	153.357225	-0.064793	-51.928662
1.750000	-0.053175	-42.271348	-73.948604	155.173776	-73.948604	155.173776	-0.066523	-53.377268
1.800000	-0.054670	-43.442245	-72.880495	156.391761	-72.880495	156.391761	-0.068242	-54.820071
1.850000	-0.056161	-44.610521	-71.857929	157.127329	-71.857929	157.127329	-0.069951	-56.257018
1.900000	-0.057648	-45.776148	-70.880945	157.473252	-70.880945	157.473252	-0.071648	-57.688061
1.950000	-0.059132	-46.939101	-69.948040	157.502802	-69.948040	157.502802	-0.073336	-59.113154
2.000000	-0.060612	-48.099353	-69.056955	157.273715	-69.056955	157.273715	-0.075015	-60.532260
2.050000	-0.062089	-49.256883	-68.205128	156.831599	-68.205128	156.831599	-0.076684	-61.945341
2.100000	-0.063563	-50.411668	-67.389939	156.212684	-67.389939	156.212684	-0.078345	-63.352366
2.150000	-0.065034	-51.563688	-66.608851	155.445940	-66.608851	155.445940	-0.079997	-64.753307
2.200000	-0.066504	-52.712924	-65.859472	154.554712	-65.859472	154.554712	-0.081643	-66.148140
2.250000	-0.067972	-53.859358	-65.139584	153.557959	-65.139584	153.557959	-0.083282	-67.536846
2.300000	-0.069440	-55.002974	-64.447151	152.471196	-64.447151	152.471196	-0.084915	-68.919407
2.350000	-0.070907	-56.143758	-63.780314	151.307217	-63.780314	151.307217	-0.086543	-70.295811
2.400000	-0.072376	-57.281696	-63.137378	150.076647	-63.137378	150.076647	-0.088167	-71.666049
2.450000	-0.073845	-58.416776	-62.516804	148.788376	-62.516804	148.788376	-0.089788	-73.030116
2.500000	-0.075317	-59.548989	-61.917190	147.449884	-61.917190	147.449884	-0.091407	-74.388009
2.550000	-0.076792	-60.678198	-61.336436	146.065856	-61.336436	146.065856	-0.093024	-75.739462
2.600000	-0.078271	-61.804523	-60.774313	144.643761	-60.774313	144.643761	-0.094641	-77.084750
2.650000	-0.079755	-62.927956	-60.229744	143.188137	-60.229744	143.188137	-0.096258	-78.423879
2.700000	-0.081244	-64.048494	-59.701747	141.702904	-59.701747	141.702904	-0.097876	-79.756864
2.750000	-0.082739	-65.166132	-59.189422	140.191460	-59.189422	140.191460	-0.099497	-81.083718
2.800000	-0.084241	-66.280870	-58.691942	138.656764	-58.691942	138.656764	-0.101122	-82.404460
2.850000	-0.085752	-67.392707	-58.208549	137.101407	-58.208549	137.101407	-0.102750	-83.719112
2.900000	-0.087271	-68.501644	-57.738542	135.527664	-57.738542	135.527664	-0.104384	-85.027699
2.950000	-0.088800	-69.607683	-57.281276	133.937542	-57.281276	133.937542	-0.106024	-86.330246
3.000000	-0.090339	-70.710828	-56.836153	132.332818	-56.836153	132.332818	-0.107671	-87.626786
3.050000	-0.091890	-71.811086	-56.402621	130.715068	-56.402621	130.715068	-0.109326	-88.917350
3.100000	-0.093452	-72.908461	-55.980164	129.085700	-55.980164	129.085700	-0.110990	-90.201975
3.150000	-0.095028	-74.002964	-55.568304	127.445971	-55.568304	127.445971	-0.112664	-91.480699
3.200000	-0.096617	-75.094602	-55.166596	125.797011	-55.166596	125.797011	-0.114348	-92.753563
3.250000	-0.098221	-76.183387	-54.774623	124.139835	-54.774623	124.139835	-0.116044	-94.020609
3.300000	-0.099840	-77.269330	-54.391995	122.475359	-54.391995	122.475359	-0.117752	-95.281885
3.350000	-0.101475	-78.352447	-54.018349	120.804412	-54.018349	120.804412	-0.119473	-96.537438
3.400000	-0.103126	-79.432750	-53.653341	119.127748	-53.653341	119.127748	-0.121209	-97.787318
3.450000	-0.104795	-80.510257	-53.296651	117.446049	-53.296651	117.446049	-0.122958	-99.031578
3.500000	-0.106483	-81.584985	-52.947974	115.759941	-52.947974	115.759941	-0.124723	-100.270272
3.550000	-0.108189	-82.656953	-52.607026	114.069992	-52.607026	114.069992	-0.126505	-101.503458
3.600000	-0.109915	-83.726181	-52.273537	112.376726	-52.273537	112.376726	-0.128303	-102.731193
3.650000	-0.111661	-84.792691	-51.947253	110.680622	-51.947253	110.680622	-0.130118	-103.953538
3.700000	-0.113428	-85.856504	-51.627932	108.982120	-51.627932	108.982120	-0.131952	-105.170555
3.750000	-0.115217	-86.917645	-51.315346	107.281626	-51.315346	107.281626	-0.133805	-106.382308
3.800000	-0.117029	-87.976024	-51.009092	105.579459	-51.009092	105.579459	-0.135678	-107.588640
3.850000	-0.118864	-89.031786	-50.709171	103.876049	-50.709171	103.876049	-0.137571	-108.789846
3.900000	-0.120723	-90.084957	-50.415383	102.171711	-50.415383	102.171711	-0.139485	-109.985996
3.950000	-0.122606	-91.135566	-50.127542	100.466739	-50.127542	100.466739	-0.141420	-111.177159
4.000000	-0.124514	-92.183643	-49.845466	98.761405	-49.845466	98.761405	-0.143377	-112.363407
4.050000	-0.126447	-93.229219	-49.568986	97.055961	-49.568986	97.055961	-0.145357	-113.544813
4.100000	-0.128406	-94.272326	-49.297936	95.350640	-49.297936	95.350640	-0.147359	-114.721451
4.150000	-0.130391	-95.312999	-49.032160	93.645661	-49.032160	93.645661	-0.149385	-115.893395
4.200000	-0.132404	-96.351271	-48.771508	91.941224	-48.771508	91.941224	-0.151434	-117.060722
4.250000	-0.134444	-97.387178	-48.515837	90.237518	-48.515837	90.237518	-0.153508	-118.223510
4.300000	-0.136512	-98.420756	-48.265008	88.534717	-48.265008	88.534717	-0.155606	-119.381836
4.350000	-0.138609	-99.452043	-48.018890	86.832981	-48.018890	86.832981	-0.157729	-120.535779
4.400000	-0.140736	-100.481078	-47.777354	85.132462	-47.777354	85.132462	-0.159878	-121.685419
4.450000	-0.142892	-101.507901	-47.540280	83.433297	-47.540280	83.433297	-0.162053	-122.830838
4.500000	-0.145078	-102.532552	-47.307549	81.735614	-47.307549	81.735614	-0.164254	-123.972116
4.550000	-0.147295	-103.555074	-47.079048	80.039533	-47.079048	80.039533	-0.166481	-125.109336
4.600000	-0.149543	-104.575508	-46.854668	78.345161	-46.854668	78.345161	-0.168736	-126.242581
4.650000	-0.151822	-105.593898	-46.634305	76.652601	-46.634305	76.652601	-0.171017	-127.371934
4.700000	-0.154134	-106.610290	-46.417856	74.961943	-46.417856	74.961943	-0.173326	-128.497479
4.750000	-0.156478	-107.624729	-46.205225	73.273271	-46.205225	73.273271	-0.175663	-129.619301
4.800000	-0.158856	-108.637260	-45.996317	71.586664	-45.996317	71.586664	-0.178028	-130.737484
4.850000	-0.161267	-109.647933	-45.791041	69.902189	-45.791041	69.902189	-0.180421	-131.852115
4.900000	-0.163711	-110.656795	-45.589309	68.219910	-45.589309	68.219910	-0.182842	-132.963280
4.950000	-0.166190	-111.663895	-45.391036	66.539884	-45.391036	66.539884	-0.185293	-134.071063
5.000000	-0.168704	-112.669283	-45.196142	64.862161	-45.196142	64.862161	-0.187772	-135.175553
5.050000	-0.171255	-113.672942	-45.004505	63.186889	-45.004505	63.186889	-0.190282	-136.276701
5.100000	-0.173841	-114.674997	-44.816096	61.514007	-44.816096	61.514007	-0.192820	-137.374737
5.150000	-0.176463	-115.675501	-44.630842	59.843550	-44.630842	59.843550	-0.195389	-138.469749
5.200000	-0.179122	-116.674509	-44.448669	58.175544	-44.448669	58.175544	-0.197987	-139.561824
5.250000	-0.181818	-117.672074	-44.269510	56.510016	-44.269510	56.510016	-0.200614	-140.651051
5.300000	-0.184551	-118.668253	-44.093297	54.846986	-44.093297	54.846986	-0.203272	-141.737516
5.350000	-0.187321	-119.663101	-43.919966	53.186470	-43.919966	53.186470	-0.205959	-142.821309
5.400000	-0.190130	-120.656676	-43.749456	51.528481	-43.749456	51.528481	-0.208677	-143.902518
5.450000	-0.192977	-121.649036	-43.581706	49.873029	-43.581706	49.873029	-0.211425	-144.981231
5.500000	-0.195863	-122.640240	-43.416659	48.220121	-43.416659	48.220121	-0.214202	-146.057535
5.550000	-0.198788	-123.630348	-43.254259	46.569762	-43.254259	46.569762	-0.217010	-147.131521
5.600000	-0.201753	-124.619419	-43.094454	44.921953	-43.094454	44.921953	-0.219849	-148.203275
5.650000	-0.204758	-125.607516	-42.937191	43.276696	-42.937191	43.276696	-0.222718	-149.272887
5.700000	-0.207803	-126.594701	-42.782422	41.633988	-42.782422	41.633988	-0.225617	-150.340445
5.750000	-0.210888	-127.581036	-42.630099	39.993826	-42.630099	39.993826	-0.228546	-151.406036
5.800000	-0.214015	-128.566586	-42.480178	38.356207	-42.480178	38.356207	-0.231506	-152.469750
5.850000	-0.217184	-129.551415	-42.332613	36.721126	-42.332613	36.721126	-0.234496	-153.531675
5.900000	-0.220394	-130.535588	-42.187364	35.088578	-42.187364	35.088578	-0.237516	-154.591898
5.950000	-0.223646	-131.519173	-42.044391	33.458557	-42.044391	33.458557	-0.240566	-155.650508
6.000000	-0.226941	-132.502236	-41.903657	31.831059	-41.903657	31.831059	-0.243647	-156.707592
6.050000	-0.230279	-133.484846	-41.765124	30.206080	-41.765124	30.206080	-0.246758	-157.763238
6.100000	-0.233660	-134.467070	-41.628758	28.583615	-41.628758	28.583615	-0.249899	-158.817533
6.150000	-0.237085	-135.448979	-41.494527	26.963663	-41.494527	26.963663	-0.253069	-159.870565
6.200000	-0.240554	-136.430644	-41.362399	25.346221	-41.362399	25.346221	-0.256270	-160.922422
6.250000	-0.244067	-137.412136	-41.232346	23.731292	-41.232346	23.731292	-0.259500	-161.973190
6.300000	-0.247627	-138.393526	-41.104345	22.118987	-41.104345	22.118987	-0.262760	-163.022915
6.350000	-0.251233	-139.374895	-40.978369	20.509202	-40.978369	20.509202	-0.266051	-164.071733
6.400000	-0.254884	-140.356317	-40.854390	18.901946	-40.854390	18.901946	-0.269370	-165.119730
6.450000	-0.258580	-141.337867	-40.732387	17.297231	-40.732387	17.297231	-0.272718	-166.166991
6.500000	-0.262324	-142.319622	-40.612338	15.695070	-40.612338	15.695070	-0.276095	-167.213602
6.550000	-0.266114	-143.301657	-40.494222	14.095481	-40.494222	14.095481	-0.279501	-168.259648
6.600000	-0.269951	-144.284051	-40.378020	12.498487	-40.378020	12.498487	-0.282935	-169.305216
6.650000	-0.273835	-145.266882	-40.263716	10.904113	-40.263716	10.904113	-0.286397	-170.350389
6.700000	-0.277768	-146.250231	-40.151294	9.312389	-40.151294	9.312389	-0.289888	-171.395252
6.750000	-0.281749	-147.234176	-40.040738	7.723351	-40.040738	7.723351	-0.293405	-172.439890
6.800000	-0.285779	-148.218801	-39.932035	6.137037	-39.932035	6.137037	-0.296950	-173.484386
6.850000	-0.289858	-149.204187	-39.825174	4.553492	-39.825174	4.553492	-0.300522	-174.528824
6.900000	-0.293987	-150.190417	-39.720142	2.972765	-39.720142	2.972765	-0.304121	-175.573287
6.950000	-0.298165	-151.177577	-39.616930	1.394911	-39.616930	1.394911	-0.307746	-176.617858
7.000000	-0.302395	-152.165751	-39.515529	-0.180010	-39.515529	-0.180010	-0.311398	-177.662619
7.050000	-0.306675	-153.155025	-39.415931	-1.751932	-39.415931	-1.751932	-0.315075	-178.707653
7.100000	-0.311007	-154.145488	-39.318130	-3.320784	-39.318130	-3.320784	-0.318777	-179.753040
7.150000	-0.315390	-155.137227	-39.222119	-4.886488	-39.222119	-4.886488	-0.322504	179.201138
7.200000	-0.319827	-156.130332	-39.127894	-6.448961	-39.127894	-6.448961	-0.326256	178.154801
7.250000	-0.324316	-157.124893	-39.035450	-8.008115	-39.035450	-8.008115	-0.330031	177.107867
7.300000	-0.328859	-158.121002	-38.944784	-9.563855	-38.944784	-9.563855	-0.333831	176.060258
7.350000	-0.333455	-159.118751	-38.855893	-11.116078	-38.855893	-11.116078	-0.337653	175.011895
7.400000	-0.338107	-160.118235	-38.768775	-12.664680	-38.768775	-12.664680	-0.341499	173.962698
7.450000	-0.342813	-161.119547	-38.683428	-14.209546	-38.683428	-14.209546	-0.345366	172.912589
7.500000	-0.347575	-162.122783	-38.599852	-15.750558	-38.599852	-15.750558	-0.349255	171.861491
7.550000	-0.352396	-163.128134	-38.518089	-17.287413	-38.518089	-17.287413	-0.353166	170.809277
7.600000	-0.357274	-164.135614	-38.438100	-18.820148	-38.438100	-18.820148	-0.357098	169.755913
7.650000	-0.362210	-165.145322	-38.359884	-20.348625	-38.359884	-20.348625	-0.361050	168.701324
7.700000	-0.367204	-166.157358	-38.283440	-21.872704	-38.283440	-21.872704	-0.365021	167.645435
7.750000	-0.372257	-167.171825	-38.208771	-23.392237	-38.208771	-23.392237	-0.369010	166.588170
7.800000	-0.377370	-168.188826	-38.135876	-24.907073	-38.135876	-24.907073	-0.373018	165.529458
7.850000	-0.382543	-169.208464	-38.064757	-26.417056	-38.064757	-26.417056	-0.377044	164.469223
7.900000	-0.387778	-170.230844	-37.995414	-27.922025	-37.995414	-27.922025	-0.381086	163.407395
7.950000	-0.393075	-171.256074	-37.927847	-29.421814	-37.927847	-29.421814	-0.385145	162.343901
8.000000	-0.398435	-172.284261	-37.862059	-30.916256	-37.862059	-30.916256	-0.389218	161.278672
8.050000	-0.403858	-173.315513	-37.798048	-32.405178	-37.798048	-32.405178	-0.393307	160.211636
8.100000	-0.409347	-174.349941	-37.735816	-33.888404	-37.735816	-33.888404	-0.397409	159.142725
8.150000	-0.414901	-175.387656	-37.675362	-35.365758	-37.675362	-35.365758	-0.401525	158.071872
8.200000	-0.420521	-176.428772	-37.616686	-36.837057	-37.616686	-36.837057	-0.405653	156.999007
8.250000	-0.426209	-177.473400	-37.559788	-38.302120	-37.559788	-38.302120	-0.409792	155.924066
8.300000	-0.431966	-178.521657	-37.504665	-39.760762	-37.504665	-39.760762	-0.413943	154.846982
8.350000	-0.437793	-179.573659	-37.451316	-41.212799	-37.451316	-41.212799	-0.418103	153.767692
8.400000	-0.443690	179.370477	-37.399740	-42.658044	-37.399740	-42.658044	-0.422272	152.686132
8.450000	-0.449660	178.310631	-37.349933	-44.096311	-37.349933	-44.096311	-0.426449	151.602241
8.500000	-0.455703	177.246685	-37.301892	-45.527413	-37.301892	-45.527413	-0.430634	150.515955
8.550000	-0.461820	176.178518	-37.255613	-46.951165	-37.255613	-46.951165	-0.434824	149.427217
8.600000	-0.468013	175.106005	-37.211092	-48.367383	-37.211092	-48.367383	-0.439020	148.335967
8.650000	-0.474284	174.029025	-37.168322	-49.775883	-37.168322	-49.775883	-0.443220	147.242148
8.700000	-0.480633	172.947453	-37.127298	-51.176484	-37.127298	-51.176484	-0.447424	146.145703
8.750000	-0.487062	171.861162	-37.088013	-52.569006	-37.088013	-52.569006	-0.451629	145.046577
8.800000	-0.493576	170.769809	-37.050528	-53.952907	-37.050528	-53.952907	-0.455836	143.944596
8.850000	-0.500174	169.673470	-37.014766	-55.328365	-37.014766	-55.328365	-0.460043	142.839824
8.900000	-0.506857	168.572018	-36.980718	-56.695212	-36.980718	-56.695212	-0.464248	141.732211
8.950000	-0.513626	167.465320	-36.948374	-58.053282	-36.948374	-58.053282	-0.468452	140.621707
9.000000	-0.520484	166.353246	-36.917724	-59.402415	-36.917724	-59.402415	-0.472652	139.508265
9.050000	-0.527433	165.235663	-36.888754	-60.742455	-36.888754	-60.742455	-0.476848	138.391840
9.100000	-0.534474	164.112438	-36.861453	-62.073252	-36.861453	-62.073252	-0.481038	137.272387
9.150000	-0.541610	162.983437	-36.835807	-63.394660	-36.835807	-63.394660	-0.485221	136.149864
9.200000	-0.548842	161.848524	-36.811803	-64.706540	-36.811803	-64.706540	-0.489397	135.024230
9.250000	-0.556173	160.707563	-36.789425	-66.008759	-36.789425	-66.008759	-0.493563	133.895446
9.300000	-0.563604	159.560419	-36.768658	-67.301189	-36.768658	-67.301189	-0.497719	132.763475
9.350000	-0.571139	158.406953	-36.749485	-68.583710	-36.749485	-68.583710	-0.501863	131.628282
9.400000	-0.578780	157.247028	-36.731890	-69.856207	-36.731890	-69.856207	-0.505994	130.489833
9.450000	-0.586529	156.080506	-36.715855	-71.118573	-36.715855	-71.118573	-0.510110	129.348098
9.500000	-0.594388	154.907246	-36.701361	-72.370708	-36.701361	-72.370708	-0.514211	128.203047
9.550000	-0.602361	153.727111	-36.688390	-73.612519	-36.688390	-73.612519	-0.518296	127.054654
9.600000	-0.610450	152.539961	-36.676921	-74.843919	-36.676921	-74.843919	-0.522362	125.902894
9.650000	-0.618658	151.345656	-36.666936	-76.064830	-36.666936	-76.064830	-0.526409	124.747743
9.700000	-0.626988	150.144056	-36.658413	-77.275181	-36.658413	-77.275181	-0.530434	123.589183
9.750000	-0.635443	148.935021	-36.651330	-78.474908	-36.651330	-78.474908	-0.534438	122.427194
9.800000	-0.644026	147.718413	-36.645667	-79.663953	-36.645667	-79.663953	-0.538418	121.261762
9.850000	-0.652740	146.494093	-36.641401	-80.842269	-36.641401	-80.842269	-0.542373	120.092873
9.900000	-0.661589	145.261920	-36.638510	-82.009813	-36.638510	-82.009813	-0.546302	118.920516
9.950000	-0.670576	144.021759	-36.636971	-83.166550	-36.636971	-83.166550	-0.550204	117.744684
10.000000	-0.679705	142.773471	-36.636761	-84.312453	-36.636761	-84.312453	-0.554076	116.565372
