! freq	dB(S11)	phase(S11)	dB(S12)	phase(S12)	
!     	dB(S21)	phase(S21)	dB(S22)	phase(S22)	
!S-par simulation data
#  GHz  S  DB  R 50
0.000000	-80.895316	0.000000	-0.000784	0.000000	-0.000784	0.000000	-80.895316	0.000000
0.050000	-66.637893	35.496164	-0.008667	-2.674486	-0.008667	-2.674486	-66.918553	39.287346
0.100000	-59.397280	55.268931	-0.012284	-5.305048	-0.012284	-5.305048	-59.353926	54.532774
0.150000	-55.430969	63.118282	-0.015194	-7.936772	-0.015194	-7.936772	-55.298332	60.836997
0.200000	-52.671439	66.697403	-0.018269	-10.566665	-0.018269	-10.566665	-52.531202	63.531260
0.250000	-50.505615	68.106410	-0.021491	-13.193510	-0.021491	-13.193510	-50.383268	64.298287
0.300000	-48.683715	68.382386	-0.024736	-15.817629	-0.024736	-15.817629	-48.583591	64.030080
0.350000	-47.084947	67.965607	-0.027938	-18.439807	-0.027938	-18.439807	-47.005234	63.124483
0.400000	-45.638907	67.063140	-0.031070	-21.060747	-0.031070	-21.060747	-45.576542	61.778847
0.450000	-44.293054	65.777859	-0.034128	-23.681096	-0.034128	-23.681096	-44.245123	60.101496
0.500000	-43.029273	64.221800	-0.037133	-26.301465	-0.037133	-26.301465	-42.993119	58.205335
0.550000	-41.831109	62.449815	-0.040100	-28.922246	-0.040100	-28.922246	-41.804566	56.147780
0.600000	-40.684705	60.498536	-0.043041	-31.543754	-0.043041	-31.543754	-40.666030	53.967722
0.650000	-39.577638	58.395608	-0.045963	-34.166257	-0.045963	-34.166257	-39.565420	51.694190
0.700000	-38.511881	56.177046	-0.048869	-36.789801	-0.048869	-36.789801	-38.504929	49.356205
0.750000	-37.483524	53.862252	-0.051764	-39.414419	-0.051764	-39.414419	-37.480851	46.969222
0.800000	-36.485558	51.464099	-0.054651	-42.040152	-0.054651	-42.040152	-36.486335	44.543514
0.850000	-35.518015	48.999229	-0.057543	-44.666926	-0.057543	-44.666926	-35.521533	42.089382
0.900000	-34.580504	46.480018	-0.060454	-47.294679	-0.060454	-47.294679	-34.586154	39.613666
0.950000	-33.671367	43.915732	-0.063404	-49.923378	-0.063404	-49.923378	-33.678626	37.121037
1.000000	-32.789590	41.314335	-0.066415	-52.553011	-0.066415	-52.553011	-32.798006	34.615038
1.050000	-31.934272	38.682409	-0.069509	-55.183587	-0.069509	-55.183587	-31.943457	32.098278
1.100000	-31.104589	36.025390	-0.072709	-57.815137	-0.072709	-57.815137	-31.114209	29.572683
1.150000	-30.299766	33.347764	-0.076034	-60.447707	-0.076034	-60.447707	-30.309535	27.039681
1.200000	-29.519066	30.653233	-0.079506	-63.081349	-0.079506	-63.081349	-29.528742	24.500340
1.250000	-28.761780	27.944850	-0.083143	-65.716118	-0.083143	-65.716118	-28.771159	21.955468
1.300000	-28.026395	25.224937	-0.086966	-68.352095	-0.086966	-68.352095	-28.035302	19.405591
1.350000	-27.313205	22.495846	-0.090991	-70.989303	-0.090991	-70.989303	-27.321502	16.851307
1.400000	-26.621557	19.759270	-0.095233	-73.627782	-0.095233	-73.627782	-26.629133	14.293004
1.450000	-25.950820	17.016611	-0.099710	-76.267563	-0.099710	-76.267563	-25.957589	11.731008
1.500000	-25.300385	14.269031	-0.104438	-78.908665	-0.104438	-78.908665	-25.306283	9.165600
1.550000	-24.669663	11.517494	-0.109435	-81.551098	-0.109435	-81.551098	-24.674645	6.597034
1.600000	-24.058091	8.762805	-0.114717	-84.194858	-0.114717	-84.194858	-24.062129	4.025547
1.650000	-23.465125	6.005639	-0.120302	-86.839928	-0.120302	-86.839928	-23.468205	1.451370
1.700000	-22.890245	3.246566	-0.126207	-89.486278	-0.126207	-89.486278	-22.892366	-1.125271
1.750000	-22.332952	0.486072	-0.132448	-92.133866	-0.132448	-92.133866	-22.334124	-3.704147
1.800000	-21.792770	-2.275426	-0.139043	-94.782632	-0.139043	-94.782632	-21.793009	-6.285023
1.850000	-21.269241	-5.037560	-0.146008	-97.432506	-0.146008	-97.432506	-21.268574	-8.867659
1.900000	-20.761791	-7.800007	-0.153362	-100.083410	-0.153362	-100.083410	-20.760247	-11.451818
1.950000	-20.270048	-10.562465	-0.161121	-102.735240	-0.161121	-102.735240	-20.267661	-14.037231
2.000000	-19.793765	-13.324662	-0.169295	-105.387870	-0.169295	-105.387870	-19.790573	-16.623613
2.050000	-19.332559	-16.086349	-0.177897	-108.041168	-0.177897	-108.041168	-19.328601	-19.210684
2.100000	-18.886061	-18.847288	-0.186936	-110.694991	-0.186936	-110.694991	-18.881378	-21.798155
2.150000	-18.453920	-21.607250	-0.196423	-113.349184	-0.196423	-113.349184	-18.448552	-24.385731
2.200000	-18.035802	-24.366014	-0.206365	-116.003578	-0.206365	-116.003578	-18.029788	-26.973106
2.250000	-17.631386	-27.123361	-0.216767	-118.657995	-0.216767	-118.657995	-17.624763	-29.559969
2.300000	-17.240364	-29.879078	-0.227633	-121.312243	-0.227633	-121.312243	-17.233169	-32.146003
2.350000	-16.862443	-32.632953	-0.238962	-123.966125	-0.238962	-123.966125	-16.854709	-34.730889
2.400000	-16.497341	-35.384777	-0.250754	-126.619436	-0.250754	-126.619436	-16.489098	-37.314303
2.450000	-16.144788	-38.134345	-0.263002	-129.271963	-0.263002	-129.271963	-16.136063	-39.895923
2.500000	-15.804524	-40.881455	-0.275698	-131.923490	-0.275698	-131.923490	-15.795342	-42.475425
2.550000	-15.476297	-43.625848	-0.288842	-134.573766	-0.288842	-134.573766	-15.466678	-45.052428
2.600000	-15.159898	-46.367386	-0.302408	-137.222594	-0.302408	-137.222594	-15.149860	-47.626662
2.650000	-14.855092	-49.105888	-0.316380	-139.869753	-0.316380	-139.869753	-14.844650	-50.197820
2.700000	-14.561657	-51.841181	-0.330737	-142.515027	-0.330737	-142.515027	-14.550821	-52.765597
2.750000	-14.279374	-54.573103	-0.345454	-145.158207	-0.345454	-145.158207	-14.268154	-55.329703
2.800000	-14.008035	-57.301505	-0.360506	-147.799086	-0.360506	-147.799086	-13.996437	-57.889857
2.850000	-13.747441	-60.026253	-0.375861	-150.437471	-0.375861	-150.437471	-13.735466	-60.445791
2.900000	-13.497397	-62.747230	-0.391485	-153.073175	-0.391485	-153.073175	-13.485046	-62.997250
2.950000	-13.257718	-65.464336	-0.407344	-155.706026	-0.407344	-155.706026	-13.244990	-65.543998
3.000000	-13.028224	-68.177493	-0.423398	-158.335867	-0.423398	-158.335867	-13.015115	-68.085813
3.050000	-12.808746	-70.886644	-0.439604	-160.962556	-0.439604	-160.962556	-12.795251	-70.622493
3.100000	-12.599118	-73.591755	-0.455919	-163.585967	-0.455919	-163.585967	-12.585229	-73.153854
3.150000	-12.399240	-76.292772	-0.472297	-166.205959	-0.472297	-166.205959	-12.384949	-75.679672
3.200000	-12.208971	-78.989713	-0.488687	-168.822444	-0.488687	-168.822444	-12.194268	-78.199800
3.250000	-12.028116	-81.682669	-0.505037	-171.435399	-0.505037	-171.435399	-12.012989	-80.714180
3.300000	-11.856537	-84.371713	-0.521298	-174.044784	-0.521298	-174.044784	-11.840976	-83.222713
3.350000	-11.694286	-87.056843	-0.537408	-176.650484	-0.537408	-176.650484	-11.678277	-85.725151
3.400000	-11.540606	-89.738563	-0.553339	-179.252873	-0.553339	-179.252873	-11.524136	-88.222056
3.450000	-11.396366	-92.416484	-0.568994	178.148563	-0.568994	178.148563	-11.379421	-90.712463
3.500000	-11.260592	-95.091264	-0.584359	175.553288	-0.584359	175.553288	-11.243157	-93.197177
3.550000	-11.133705	-97.762879	-0.599353	172.961480	-0.599353	172.961480	-11.115764	-95.675746
3.600000	-11.015485	-100.431646	-0.613928	170.372958	-0.613928	170.372958	-10.997022	-98.148319
3.650000	-10.905590	-103.097954	-0.628048	167.787459	-0.628048	167.787459	-10.886588	-100.615181
3.700000	-10.804642	-105.761900	-0.641609	165.205107	-0.641609	165.205107	-10.785082	-103.075837
3.750000	-10.711460	-108.424142	-0.654649	162.625272	-0.654649	162.625272	-10.691327	-105.531272
3.800000	-10.627583	-111.084723	-0.666984	160.048290	-0.666984	160.048290	-10.606852	-107.980387
3.850000	-10.551376	-113.744344	-0.678706	157.473393	-0.678706	157.473393	-10.530028	-110.424496
3.900000	-10.484004	-116.403313	-0.689658	154.900652	-0.689658	154.900652	-10.462016	-112.862891
3.950000	-10.424705	-119.062151	-0.699870	152.329591	-0.699870	152.329591	-10.402054	-115.296233
4.000000	-10.373792	-121.721367	-0.709269	149.759957	-0.709269	149.759957	-10.350452	-117.724480
4.050000	-10.331437	-124.381516	-0.717800	147.191438	-0.717800	147.191438	-10.307380	-120.147700
4.100000	-10.297043	-127.043068	-0.725497	144.623610	-0.725497	144.623610	-10.272242	-122.566433
4.150000	-10.271781	-129.706876	-0.732203	142.056165	-0.732203	142.056165	-10.246200	-124.980221
4.200000	-10.254253	-132.373148	-0.738053	139.488685	-0.738053	139.488685	-10.227862	-127.390012
4.250000	-10.246190	-135.043146	-0.742838	136.920707	-0.742838	136.920707	-10.218948	-129.795137
4.300000	-10.246193	-137.716928	-0.746706	134.351911	-0.746706	134.351911	-10.218061	-132.196475
4.350000	-10.255392	-140.395718	-0.749527	131.781743	-0.749527	131.781743	-10.226326	-134.593699
4.400000	-10.273413	-143.079969	-0.751347	129.209840	-0.751347	129.209840	-10.243365	-136.987155
4.450000	-10.300416	-145.770461	-0.752159	126.635751	-0.752159	126.635751	-10.269335	-139.376941
4.500000	-10.337113	-148.468401	-0.751901	124.058868	-0.751901	124.058868	-10.304940	-141.762909
4.550000	-10.382637	-151.173744	-0.750695	121.479068	-0.750695	121.479068	-10.349315	-144.145516
4.600000	-10.438858	-153.888862	-0.748371	118.895280	-0.748371	118.895280	-10.404312	-146.524118
4.650000	-10.504202	-156.612882	-0.745137	116.307769	-0.745137	116.307769	-10.468363	-148.899360
4.700000	-10.580638	-159.348551	-0.740838	113.715314	-0.740838	113.715314	-10.543420	-151.270463
4.750000	-10.666933	-162.095058	-0.735651	111.118221	-0.735651	111.118221	-10.628249	-153.637862
4.800000	-10.764641	-164.854895	-0.729489	108.515411	-0.729489	108.515411	-10.724389	-156.000787
4.850000	-10.873734	-167.628649	-0.722427	105.906655	-0.722427	105.906655	-10.831802	-158.359039
4.900000	-10.994658	-170.417480	-0.714504	103.291513	-0.714504	103.291513	-10.950922	-160.712130
4.950000	-11.127905	-173.222615	-0.705764	100.669562	-0.705764	100.669562	-11.082226	-163.059439
5.000000	-11.274018	-176.045361	-0.696254	98.040393	-0.696254	98.040393	-11.226240	-165.400196
5.050000	-11.433799	-178.887488	-0.686018	95.403473	-0.686018	95.403473	-11.383743	-167.733297
5.100000	-11.607723	178.249810	-0.675128	92.758566	-0.675128	92.758566	-11.555188	-170.057689
5.150000	-11.796530	175.364889	-0.663647	90.105333	-0.663647	90.105333	-11.741287	-172.371959
5.200000	-12.001043	172.455951	-0.651644	87.443461	-0.651644	87.443461	-11.942828	-174.674405
5.250000	-12.222177	169.521012	-0.639191	84.772668	-0.639191	84.772668	-12.160684	-176.962984
5.300000	-12.460953	166.557854	-0.626363	82.092705	-0.626363	82.092705	-12.395829	-179.235252
5.350000	-12.718516	163.563982	-0.613241	79.403358	-0.613241	79.403358	-12.649344	178.511721
5.400000	-12.996151	160.536552	-0.599907	76.704453	-0.599907	76.704453	-12.922439	176.281443
5.450000	-13.295305	157.472287	-0.586446	73.995855	-0.586446	73.995855	-13.216469	174.078126
5.500000	-13.617621	154.367369	-0.572947	71.277470	-0.572947	71.277470	-13.532958	171.906837
5.550000	-13.964966	151.217290	-0.559498	68.549252	-0.559498	68.549252	-13.873626	169.773702
5.600000	-14.339480	148.016671	-0.546191	65.811196	-0.546191	65.811196	-14.240423	167.686161
5.650000	-14.743759	144.758293	-0.533121	63.063244	-0.533121	63.063244	-14.635694	165.654027
5.700000	-15.180657	141.433835	-0.520381	60.305493	-0.520381	60.305493	-15.061965	163.688972
5.750000	-15.653375	138.033826	-0.508061	57.538195	-0.508061	57.538195	-15.522018	161.804545
5.800000	-16.165839	134.545506	-0.496249	54.761545	-0.496249	54.761545	-16.019201	160.018522
5.850000	-16.722712	130.952481	-0.485033	51.975787	-0.485033	51.975787	-16.557392	158.353504
5.900000	-17.329585	127.233329	-0.474498	49.181212	-0.474498	49.181212	-17.141082	156.838601
5.950000	-17.993226	123.359521	-0.464725	46.378159	-0.464725	46.378159	-17.775484	155.511838
6.000000	-18.721908	119.292270	-0.455790	43.567011	-0.455790	43.567011	-18.466613	154.423669
6.050000	-19.525836	114.977606	-0.447766	40.748196	-0.447766	40.748196	-19.221323	153.642166
6.100000	-20.417697	110.338439	-0.440719	37.922179	-0.440719	37.922179	-20.047207	153.260783
6.150000	-21.413289	105.261382	-0.434711	35.089465	-0.434711	35.089465	-20.952127	153.410026
6.200000	-22.532106	99.574112	-0.429795	32.250592	-0.429795	32.250592	-21.942929	154.274827
6.250000	-23.797242	93.005334	-0.426017	29.406125	-0.426017	29.406125	-23.022275	156.119232
6.300000	-25.230713	85.066939	-0.423444	26.556561	-0.423444	26.556561	-24.178822	159.358020
6.350000	-26.842217	75.006732	-0.422080	23.702635	-0.422080	23.702635	-25.375331	164.480875
6.400000	-28.581477	61.561771	-0.421949	20.844971	-0.421949	20.844971	-26.517154	172.054281
6.450000	-30.214291	43.080473	-0.423063	17.984206	-0.423063	17.984206	-27.422859	-177.625383
6.500000	-31.168045	19.182184	-0.425428	15.120977	-0.425428	15.120977	-27.851781	-165.170275
6.550000	-30.870794	-6.254844	-0.429040	12.255920	-0.429040	12.255920	-27.655233	-152.382242
6.600000	-29.545947	-27.684589	-0.433886	9.389663	-0.433886	9.389663	-26.917105	-141.279741
6.650000	-27.863520	-43.553852	-0.439946	6.522820	-0.439946	6.522820	-25.870121	-132.853490
6.700000	-26.222636	-55.213861	-0.447190	3.655985	-0.447190	3.655985	-24.721750	-127.016890
6.750000	-24.746181	-64.184952	-0.455582	0.789730	-0.455582	0.789730	-23.591222	-123.240550
6.800000	-23.446325	-71.469577	-0.465077	-2.075403	-0.465077	-2.075403	-22.530608	-120.983461
6.850000	-22.304345	-77.665952	-0.475624	-4.938904	-0.475624	-4.938904	-21.556375	-119.824131
6.900000	-21.296809	-83.127171	-0.487174	-7.800275	-0.487174	-7.800275	-20.669034	-119.467564
6.950000	-20.402628	-88.079772	-0.499663	-10.659073	-0.499663	-10.659073	-19.863090	-119.698428
7.000000	-19.604076	-92.670672	-0.513010	-13.514936	-0.513010	-13.514936	-19.130860	-120.363794
7.050000	-18.886924	-96.993179	-0.527141	-16.367529	-0.527141	-16.367529	-18.464559	-121.360729
7.100000	-18.239754	-101.111883	-0.541980	-19.216564	-0.541980	-19.216564	-17.857064	-122.614604
7.150000	-17.653353	-105.072769	-0.557447	-22.061805	-0.557447	-22.061805	-17.302093	-124.070366
7.200000	-17.120225	-108.909416	-0.573459	-24.903065	-0.573459	-24.903065	-16.794192	-125.686713
7.250000	-16.634207	-112.646912	-0.589933	-27.740212	-0.589933	-27.740212	-16.328658	-127.432165
7.300000	-16.190186	-116.304400	-0.606784	-30.573162	-0.606784	-30.573162	-15.901440	-129.282376
7.350000	-15.783877	-119.896775	-0.623928	-33.401885	-0.623928	-33.401885	-15.509039	-131.218261
7.400000	-15.411657	-123.435835	-0.641281	-36.226399	-0.641281	-36.226399	-15.148427	-133.224680
7.450000	-15.070436	-126.931092	-0.658761	-39.046772	-0.658761	-39.046772	-14.816970	-135.289492
7.500000	-14.757557	-130.390342	-0.676288	-41.863119	-0.676288	-41.863119	-14.512368	-137.402864
7.550000	-14.471054	-133.819560	-0.693779	-44.675520	-0.693779	-44.675520	-14.232925	-139.557491
7.600000	-14.208571	-137.224962	-0.711160	-47.484267	-0.711160	-47.484267	-13.976530	-141.745790
7.650000	-13.968346	-140.611217	-0.728359	-50.289606	-0.728359	-50.289606	-13.741607	-143.962343
7.700000	-13.748822	-143.982396	-0.745310	-53.091817	-0.745310	-53.091817	-13.526754	-146.202625
7.750000	-13.548619	-147.342098	-0.761950	-55.891218	-0.761950	-55.891218	-13.330722	-148.462839
7.800000	-13.366502	-150.693541	-0.778219	-58.688153	-0.778219	-58.688153	-13.152390	-150.739781
7.850000	-13.201361	-154.039641	-0.794065	-61.482997	-0.794065	-61.482997	-12.990748	-153.030739
7.900000	-13.052196	-157.383062	-0.809438	-64.276148	-0.809438	-64.276148	-12.844886	-155.333406
7.950000	-12.918097	-160.726266	-0.824296	-67.068027	-0.824296	-67.068027	-12.713979	-157.645815
8.000000	-12.798237	-164.071547	-0.838602	-69.859071	-0.838602	-69.859071	-12.597273	-159.966281
8.050000	-12.691852	-167.421052	-0.852322	-72.649731	-0.852322	-72.649731	-12.494082	-162.293360
8.100000	-12.598243	-170.776811	-0.865430	-75.440473	-0.865430	-75.440473	-12.403776	-164.625808
8.150000	-12.516873	-174.140853	-0.877899	-78.231778	-0.877899	-78.231778	-12.325895	-166.962588
8.200000	-12.447121	-177.515062	-0.889711	-81.024141	-0.889711	-81.024141	-12.259892	-169.302745
8.250000	-12.388293	179.098917	-0.900865	-83.818035	-0.900865	-83.818035	-12.205141	-171.645438
8.300000	-12.339845	175.699433	-0.911355	-86.613938	-0.911355	-86.613938	-12.161176	-173.989975
8.350000	-12.301260	172.284915	-0.921184	-89.412325	-0.921184	-89.412325	-12.127557	-176.335758
8.400000	-12.272043	168.853871	-0.930356	-92.213664	-0.930356	-92.213664	-12.103870	-178.682269
8.450000	-12.251713	165.404890	-0.938882	-95.018413	-0.938882	-95.018413	-12.089719	178.970943
8.500000	-12.239803	161.936647	-0.946778	-97.827023	-0.946778	-97.827023	-12.084725	176.624261
8.550000	-12.235854	158.447908	-0.954063	-100.639925	-0.954063	-100.639925	-12.088523	174.278012
8.600000	-12.239412	154.937538	-0.960761	-103.457540	-0.960761	-103.457540	-12.100757	171.932468
8.650000	-12.250029	151.404513	-0.966901	-106.280268	-0.966901	-106.280268	-12.121078	169.587849
8.700000	-12.267253	147.847929	-0.972512	-109.108492	-0.972512	-109.108492	-12.149142	167.244321
8.750000	-12.290634	144.267015	-0.977629	-111.942572	-0.977629	-111.942572	-12.184604	164.901999
8.800000	-12.319827	140.660598	-0.982281	-114.782988	-0.982281	-114.782988	-12.227260	162.560969
8.850000	-12.354239	137.028764	-0.986518	-117.629928	-0.986518	-117.629928	-12.276603	160.221202
8.900000	-12.393404	133.371257	-0.990383	-120.483680	-0.990383	-120.483680	-12.332276	157.882628
8.950000	-12.436848	129.688031	-0.993917	-123.344507	-0.993917	-123.344507	-12.393916	155.545109
9.000000	-12.484093	125.979262	-0.997167	-126.212649	-0.997167	-126.212649	-12.461148	153.208427
9.050000	-12.534653	122.245380	-1.000178	-129.088315	-1.000178	-129.088315	-12.533586	150.872276
9.100000	-12.588038	118.487084	-1.002996	-131.971694	-1.002996	-131.971694	-12.610827	148.536252
9.150000	-12.643754	114.705367	-1.005667	-134.862943	-1.005667	-134.862943	-12.692455	146.199843
9.200000	-12.701286	110.902000	-1.008238	-137.762013	-1.008238	-137.762013	-12.777975	143.862457
9.250000	-12.760193	107.077438	-1.010751	-140.669474	-1.010751	-140.669474	-12.867087	141.523228
9.300000	-12.819937	103.234424	-1.013252	-143.585140	-1.013252	-143.585140	-12.959212	139.181264
9.350000	-12.880031	99.375313	-1.015783	-146.509077	-1.015783	-146.509077	-13.053857	136.835470
9.400000	-12.940001	95.502823	-1.018386	-149.441328	-1.018386	-149.441328	-13.150508	134.484570
9.450000	-12.999355	91.619919	-1.021099	-152.382081	-1.021099	-152.382081	-13.248629	132.126921
9.500000	-13.057649	87.730226	-1.023959	-155.331263	-1.023959	-155.331263	-13.347652	129.760852
9.550000	-13.114622	83.837674	-1.026981	-158.288186	-1.026981	-158.288186	-13.447092	127.385338
9.600000	-13.169516	79.946300	-1.030229	-161.254282	-1.030229	-161.254282	-13.546171	124.996199
9.650000	-13.222412	76.059928	-1.033686	-164.227923	-1.033686	-164.227923	-13.644607	122.593618
9.700000	-13.272500	72.184547	-1.037415	-167.210521	-1.037415	-167.210521	-13.741422	120.172124
9.750000	-13.319876	68.323355	-1.041400	-170.200929	-1.041400	-170.200929	-13.836389	117.731322
9.800000	-13.364018	64.482613	-1.045676	-173.199757	-1.045676	-173.199757	-13.928668	115.266381
9.850000	-13.404756	60.666923	-1.050248	-176.206826	-1.050248	-176.206826	-14.017759	112.774400
9.900000	-13.442036	56.880215	-1.055110	-179.221809	-1.055110	-179.221809	-14.103281	110.252929
9.950000	-13.475325	53.130620	-1.060295	177.754500	-1.060295	177.754500	-14.184240	107.695057
10.000000	-13.505107	49.417072	-1.065754	174.723347	-1.065754	174.723347	-14.260973	105.102611
