! freq	dB(S11)	phase(S11)	dB(S12)	phase(S12)	
!     	dB(S21)	phase(S21)	dB(S22)	phase(S22)	
!S-par simulation data
#  GHz  S  DB  R 50
0.000000	-0.000000	-0.000000	-387.195099	180.000000	-387.195099	180.000000	-0.000000	-0.000000
0.050000	-0.000089	-0.775459	-114.080830	81.689402	-114.080830	81.689402	-0.000097	-0.813764
0.100000	-0.000352	-1.550722	-108.935275	80.580914	-108.935275	80.580914	-0.000385	-1.627305
0.150000	-0.000781	-2.325607	-105.898587	81.151336	-105.898587	81.151336	-0.000854	-2.440415
0.200000	-0.001361	-3.099956	-103.708460	81.662862	-103.708460	81.662862	-0.001486	-3.252920
0.250000	-0.002084	-3.873589	-102.023523	81.932009	-102.023523	81.932009	-0.002271	-4.064618
0.300000	-0.002919	-4.646459	-100.680698	82.049201	-100.680698	82.049201	-0.003175	-4.875463
0.350000	-0.003853	-5.418459	-99.595239	82.081116	-99.595239	82.081116	-0.004181	-5.685343
0.400000	-0.004867	-6.189536	-98.713625	82.092720	-98.713625	82.092720	-0.005268	-6.494205
0.450000	-0.005943	-6.959659	-98.001206	82.138530	-98.001206	82.138530	-0.006417	-7.302023
0.500000	-0.007064	-7.728819	-97.434894	82.268554	-97.434894	82.268554	-0.007609	-8.108795
0.550000	-0.008215	-8.497020	-96.999174	82.533765	-96.999174	82.533765	-0.008828	-8.914533
0.600000	-0.009385	-9.264281	-96.683736	82.991174	-96.683736	82.991174	-0.010062	-9.719261
0.650000	-0.010562	-10.030624	-96.481943	83.709208	-96.481943	83.709208	-0.011301	-10.523008
0.700000	-0.011740	-10.796076	-96.389640	84.774206	-96.389640	84.774206	-0.012537	-11.325807
0.750000	-0.012912	-11.560667	-96.403963	86.298823	-96.403963	86.298823	-0.013764	-12.127690
0.800000	-0.014074	-12.324424	-96.521673	88.433004	-96.521673	88.433004	-0.014977	-12.928685
0.850000	-0.015222	-13.087372	-96.736357	91.377324	-96.736357	91.377324	-0.016175	-13.728820
0.900000	-0.016354	-13.849531	-97.033331	95.395397	-97.033331	95.395397	-0.017356	-14.528114
0.950000	-0.017470	-14.610920	-97.380683	100.813433	-97.380683	100.813433	-0.018519	-15.326585
1.000000	-0.018569	-15.371553	-97.715558	107.976409	-97.715558	107.976409	-0.019664	-16.124244
1.050000	-0.019652	-16.131439	-97.930215	117.107856	-97.930215	117.107856	-0.020792	-16.921098
1.100000	-0.020718	-16.890583	-97.876645	128.042153	-97.876645	128.042153	-0.021905	-17.717150
1.150000	-0.021769	-17.648989	-97.418951	139.963697	-97.418951	139.963697	-0.023002	-18.512401
1.200000	-0.022807	-18.406655	-96.520871	151.540926	-96.520871	151.540926	-0.024085	-19.306844
1.250000	-0.023832	-19.163578	-95.275803	161.592220	-95.275803	161.592220	-0.025157	-20.100475
1.300000	-0.024844	-19.919718	-93.822211	169.531780	-93.822211	169.531780	-0.026216	-20.893246
1.350000	-0.025847	-20.675099	-92.309078	175.562006	-92.309078	175.562006	-0.027266	-21.685182
1.400000	-0.026840	-21.429711	-90.813205	-179.977434	-90.813205	-179.977434	-0.028308	-22.476270
1.450000	-0.027826	-22.183542	-89.372534	-176.738302	-89.372534	-176.738302	-0.029343	-23.266495
1.500000	-0.028805	-22.936580	-88.002130	-174.431154	-88.002130	-174.431154	-0.030371	-24.055841
1.550000	-0.029779	-23.688809	-86.705216	-172.833984	-86.705216	-172.833984	-0.031394	-24.844292
1.600000	-0.030748	-24.440216	-85.479433	-171.781655	-85.479433	-171.781655	-0.032413	-25.631831
1.650000	-0.031713	-25.190786	-84.320095	-171.152258	-84.320095	-171.152258	-0.033429	-26.418440
1.700000	-0.032675	-25.940197	-83.195236	-170.939952	-83.195236	-170.939952	-0.034442	-27.203763
1.750000	-0.033636	-26.689157	-82.164393	-170.876491	-82.164393	-170.876491	-0.035453	-27.988586
1.800000	-0.034595	-27.437030	-81.168085	-171.054159	-81.168085	-171.054159	-0.036464	-28.772202
1.850000	-0.035554	-28.184128	-80.226440	-171.404060	-80.226440	-171.404060	-0.037474	-29.554956
1.900000	-0.036512	-28.930257	-79.323340	-171.892101	-79.323340	-171.892101	-0.038484	-30.336637
1.950000	-0.037471	-29.675419	-78.456834	-172.518282	-78.456834	-172.518282	-0.039494	-31.117244
2.000000	-0.038431	-30.419745	-77.630925	-173.224807	-77.630925	-173.224807	-0.040505	-31.896924
2.050000	-0.039392	-31.162901	-76.828167	-174.043813	-76.828167	-174.043813	-0.041518	-32.675306
2.100000	-0.040355	-31.905365	-76.067054	-174.909308	-76.067054	-174.909308	-0.042533	-33.452921
2.150000	-0.041321	-32.646445	-75.318955	-175.867781	-75.318955	-175.867781	-0.043550	-34.229003
2.200000	-0.042289	-33.386989	-74.612962	-176.852226	-74.612962	-176.852226	-0.044569	-35.004493
2.250000	-0.043261	-34.125925	-73.912248	-177.914585	-73.912248	-177.914585	-0.045592	-35.778203
2.300000	-0.044234	-34.864494	-73.253723	-178.990159	-73.253723	-178.990159	-0.046616	-36.551506
2.350000	-0.045214	-35.601221	-72.594517	179.868197	-72.594517	179.868197	-0.047647	-37.322775
2.400000	-0.046194	-36.337760	-71.977322	178.721407	-71.977322	178.721407	-0.048678	-38.093834
2.450000	-0.047182	-37.072217	-71.354820	177.518022	-71.354820	177.518022	-0.049718	-38.862596
2.500000	-0.048171	-37.806673	-70.773963	176.314636	-70.773963	176.314636	-0.050757	-39.631357
2.550000	-0.049169	-38.538801	-70.184191	175.062362	-70.184191	175.062362	-0.051806	-40.397549
2.600000	-0.050168	-39.270928	-69.631930	173.810088	-69.631930	173.810088	-0.052856	-41.163741
2.650000	-0.051177	-40.000868	-69.075191	172.521834	-69.075191	172.521834	-0.053916	-41.927524
2.700000	-0.052186	-40.730610	-68.548796	171.230309	-68.548796	171.230309	-0.054976	-42.691087
2.750000	-0.053206	-41.458320	-68.021583	169.912221	-68.021583	169.912221	-0.056048	-43.452414
2.800000	-0.054229	-42.185624	-67.518722	168.588822	-67.518722	168.588822	-0.057121	-44.213294
2.850000	-0.055261	-42.911062	-67.018075	167.245828	-67.018075	167.245828	-0.058205	-44.972123
2.900000	-0.056297	-43.635879	-66.536745	165.896303	-66.536745	165.896303	-0.059293	-45.730267
2.950000	-0.057343	-44.359007	-66.060145	164.532398	-66.060145	164.532398	-0.060391	-46.486556
3.000000	-0.058393	-45.081291	-65.598604	163.161302	-65.598604	163.161302	-0.061494	-47.241918
3.050000	-0.059453	-45.802072	-65.143885	161.779758	-65.143885	161.779758	-0.062607	-47.995630
3.100000	-0.060520	-46.521781	-64.700614	160.390752	-64.700614	160.390752	-0.063728	-48.748164
3.150000	-0.061596	-47.240182	-64.265900	158.994281	-64.265900	158.994281	-0.064857	-49.499264
3.200000	-0.062680	-47.957276	-63.839561	157.590345	-63.839561	157.590345	-0.065996	-50.248930
3.250000	-0.063772	-48.673266	-63.423217	156.181211	-63.423217	156.181211	-0.067143	-50.997385
3.300000	-0.064875	-49.387710	-63.012623	154.764801	-63.012623	154.764801	-0.068302	-51.744146
3.350000	-0.065985	-50.101260	-62.613213	153.344915	-62.613213	153.344915	-0.069468	-52.489927
3.400000	-0.067108	-50.813022	-62.217310	151.918077	-62.217310	151.918077	-0.070648	-53.233749
3.450000	-0.068237	-51.524107	-61.833566	150.489061	-61.833566	150.489061	-0.071835	-53.976828
3.500000	-0.069382	-52.233157	-61.451406	149.053515	-61.451406	149.053515	-0.073038	-54.717682
3.550000	-0.070530	-52.941752	-61.082202	147.616762	-61.082202	147.616762	-0.074246	-55.458035
3.600000	-0.071698	-53.648066	-60.712937	146.173970	-60.712937	146.173970	-0.075475	-56.195893
3.650000	-0.072869	-54.354150	-60.357268	144.730679	-60.357268	144.730679	-0.076706	-56.933500
3.700000	-0.074061	-55.057705	-60.000128	143.281893	-60.000128	143.281893	-0.077962	-57.668339
3.750000	-0.075254	-55.761260	-59.657094	141.833106	-59.657094	141.833106	-0.079218	-58.403179
3.800000	-0.076473	-56.462038	-59.311381	140.379406	-59.311381	140.379406	-0.080502	-59.134981
3.850000	-0.077692	-57.162815	-58.978902	138.925706	-58.978902	138.925706	-0.081786	-59.866784
3.900000	-0.078937	-57.861032	-58.645249	137.468363	-58.645249	137.468363	-0.083098	-60.595787
3.950000	-0.080184	-58.559016	-58.322764	136.010689	-58.322764	136.010689	-0.084412	-61.324536
4.000000	-0.081456	-59.254663	-58.000419	134.550390	-58.000419	134.550390	-0.085753	-62.050730
4.050000	-0.082732	-59.949842	-57.687411	133.089567	-57.687411	133.089567	-0.087100	-62.776414
4.100000	-0.084033	-60.642911	-57.375694	131.626927	-57.375694	131.626927	-0.088472	-63.499791
4.150000	-0.085341	-61.335276	-57.071689	130.163682	-57.071689	130.163682	-0.089852	-64.222400
4.200000	-0.086671	-62.025762	-56.769979	128.699254	-56.769979	128.699254	-0.091257	-64.942955
4.250000	-0.088012	-62.715309	-56.474539	127.234235	-56.474539	127.234235	-0.092673	-65.662483
4.300000	-0.089373	-63.403210	-56.182270	125.768521	-56.182270	125.768521	-0.094111	-66.380213
4.350000	-0.090749	-64.089936	-55.894991	124.302309	-55.894991	124.302309	-0.095565	-67.096659
4.400000	-0.092144	-64.775253	-55.611644	122.835763	-55.611644	122.835763	-0.097039	-67.811564
4.450000	-0.093556	-65.459161	-55.332151	121.368884	-55.332151	121.368884	-0.098532	-68.524929
4.500000	-0.094985	-66.141897	-55.057250	119.901925	-55.057250	119.901925	-0.100043	-69.237011
4.550000	-0.096436	-66.822992	-54.785193	118.434856	-54.785193	118.434856	-0.101577	-69.947299
4.600000	-0.097900	-67.503153	-54.518302	116.967871	-54.518302	116.967871	-0.103126	-70.656563
4.650000	-0.099391	-68.181446	-54.253357	115.501053	-54.253357	115.501053	-0.104704	-71.363782
4.700000	-0.100893	-68.859041	-53.994071	114.034400	-53.994071	114.034400	-0.106294	-72.070236
4.750000	-0.102426	-69.534543	-53.735935	112.568242	-53.735935	112.568242	-0.107917	-72.774396
4.800000	-0.103966	-70.209584	-53.483880	111.102259	-53.483880	111.102259	-0.109548	-73.478049
4.850000	-0.105543	-70.882314	-53.232271	109.637145	-53.232271	109.637145	-0.111218	-74.179166
4.900000	-0.107124	-71.554815	-52.987101	108.172150	-52.987101	108.172150	-0.112892	-74.880030
4.950000	-0.108746	-72.224795	-52.741754	106.708446	-52.741754	106.708446	-0.114611	-75.578119
5.000000	-0.110369	-72.894774	-52.503148	105.244743	-52.503148	105.244743	-0.116330	-76.276209
5.050000	-0.112039	-73.562029	-52.263815	103.782800	-52.263815	103.782800	-0.118100	-76.971292
5.100000	-0.113709	-74.229284	-52.030900	102.320858	-52.030900	102.320858	-0.119870	-77.666375
5.150000	-0.115424	-74.894069	-51.797920	100.860845	-51.797920	100.860845	-0.121688	-78.358724
5.200000	-0.117144	-75.558629	-51.570483	99.401008	-51.570483	99.401008	-0.123510	-79.050825
5.250000	-0.118905	-76.220974	-51.343574	97.943207	-51.343574	97.943207	-0.125378	-79.740461
5.300000	-0.120676	-76.882875	-51.121413	96.485814	-51.121413	96.485814	-0.127255	-80.429605
5.350000	-0.122486	-77.542813	-50.900308	95.030511	-50.900308	95.030511	-0.129174	-81.116553
5.400000	-0.124309	-78.202097	-50.683234	93.575904	-50.683234	93.575904	-0.131107	-81.802770
5.450000	-0.126169	-78.859666	-50.467685	92.123388	-50.467685	92.123388	-0.133079	-82.487057
5.500000	-0.128047	-79.516377	-50.255518	90.671917	-50.255518	90.671917	-0.135071	-83.170379
5.550000	-0.129958	-80.171620	-50.045293	89.222486	-50.045293	89.222486	-0.137097	-83.852032
5.600000	-0.131893	-80.825813	-49.837862	87.774512	-49.837862	87.774512	-0.139148	-84.532494
5.650000	-0.133857	-81.478776	-49.632743	86.328478	-49.632743	86.328478	-0.141231	-85.211545
5.700000	-0.135850	-82.130509	-49.429886	84.884384	-49.429886	84.884384	-0.143344	-85.889185
5.750000	-0.137868	-82.781246	-49.229667	83.442077	-49.229667	83.442077	-0.145484	-86.565667
5.800000	-0.139922	-83.430588	-49.031231	82.002272	-49.031231	82.002272	-0.147661	-87.240526
5.850000	-0.141996	-84.079157	-48.835718	80.564044	-48.835718	80.564044	-0.149860	-87.914472
5.900000	-0.144112	-84.726183	-48.641557	79.128972	-48.641557	79.128972	-0.152102	-88.586593
5.950000	-0.146244	-85.372652	-48.450567	77.695205	-48.450567	77.695205	-0.154362	-89.258042
6.000000	-0.148424	-86.017449	-48.260538	76.265355	-48.260538	76.265355	-0.156671	-89.927471
6.050000	-0.150615	-86.661891	-48.073899	74.836468	-48.073899	74.836468	-0.158993	-90.596460
6.100000	-0.152862	-87.304557	-47.887867	73.412390	-47.887867	73.412390	-0.161372	-91.263246
6.150000	-0.155114	-87.947054	-47.705414	71.988845	-47.705414	71.988845	-0.163757	-91.929816
6.200000	-0.157429	-88.587702	-47.523247	70.571161	-47.523247	70.571161	-0.166206	-92.594011
6.250000	-0.159744	-89.228349	-47.344822	69.153477	-47.344822	69.153477	-0.168657	-93.258205
6.300000	-0.162130	-89.867107	-47.166393	67.742901	-47.166393	67.742901	-0.171179	-93.919861
6.350000	-0.164516	-90.505865	-46.991555	66.332325	-46.991555	66.332325	-0.173702	-94.581516
6.400000	-0.166969	-91.143028	-46.817027	64.929027	-46.817027	64.929027	-0.176293	-95.240897
6.450000	-0.169428	-91.780046	-46.645658	63.526392	-46.645658	63.526392	-0.178890	-95.900070
6.500000	-0.171950	-92.415759	-46.474879	62.131192	-46.474879	62.131192	-0.181551	-96.557224
6.550000	-0.174486	-93.051211	-46.306859	60.737479	-46.306859	60.737479	-0.184225	-97.213974
6.600000	-0.177081	-93.685644	-46.139679	59.351339	-46.139679	59.351339	-0.186957	-97.868952
6.650000	-0.179696	-94.319737	-45.974888	57.967723	-45.974888	57.967723	-0.189708	-98.523338
6.700000	-0.182367	-94.953087	-45.811157	56.591786	-45.811157	56.591786	-0.192513	-99.176192
6.750000	-0.185065	-95.586067	-45.649469	55.219690	-45.649469	55.219690	-0.195345	-99.828280
6.800000	-0.187815	-96.218571	-45.489033	53.855333	-45.489033	53.855333	-0.198225	-100.479064
6.850000	-0.190602	-96.850735	-45.330313	52.496505	-45.330313	52.496505	-0.201138	-101.128917
6.900000	-0.193436	-97.482675	-45.173015	51.145403	-45.173015	51.145403	-0.204094	-101.777686
6.950000	-0.196317	-98.114391	-45.017113	49.802027	-45.017113	49.802027	-0.207091	-102.425373
7.000000	-0.199240	-98.746110	-44.862782	48.466242	-44.862782	48.466242	-0.210124	-103.072186
7.050000	-0.202224	-99.377836	-44.709525	47.141086	-44.709525	47.141086	-0.213206	-103.717775
7.100000	-0.205245	-100.009759	-44.557972	45.823193	-44.557972	45.823193	-0.216318	-104.362690
7.150000	-0.208342	-100.642079	-44.407147	44.519828	-44.407147	44.519828	-0.219488	-105.006254
7.200000	-0.211472	-101.274738	-44.258154	43.223087	-44.258154	43.223087	-0.222681	-105.649331
7.250000	-0.214698	-101.908415	-44.109489	41.946213	-44.109489	41.946213	-0.225941	-106.290944
7.300000	-0.217951	-102.542488	-43.962793	40.674808	-43.962793	40.674808	-0.229216	-106.932244
7.350000	-0.221330	-103.178541	-43.815916	39.430742	-43.815916	39.430742	-0.232567	-107.571981
7.400000	-0.224726	-103.814908	-43.671181	38.190135	-43.671181	38.190135	-0.235927	-108.211567
7.450000	-0.228295	-104.454738	-43.525558	36.987572	-43.525558	36.987572	-0.239372	-108.849504
7.500000	-0.231865	-105.094567	-43.382337	35.785009	-43.382337	35.785009	-0.242819	-109.487441
7.550000	-0.235682	-105.740163	-43.237149	34.636247	-43.237149	34.636247	-0.246360	-110.123656
7.600000	-0.239501	-106.385759	-43.094349	33.487485	-43.094349	33.487485	-0.249903	-110.759870
7.650000	-0.243637	-107.039333	-42.948737	32.404488	-42.948737	32.404488	-0.253536	-111.394576
7.700000	-0.247804	-107.693632	-42.805067	31.327470	-42.805067	31.327470	-0.257178	-112.029145
7.750000	-0.252411	-108.358964	-42.657109	30.332831	-42.657109	30.332831	-0.260906	-112.662405
7.800000	-0.257108	-109.026502	-42.510327	29.354669	-42.510327	29.354669	-0.264652	-113.295403
7.850000	-0.262465	-109.709525	-42.356625	28.482604	-42.356625	28.482604	-0.268479	-113.927274
7.900000	-0.268043	-110.397709	-42.202532	27.645906	-42.202532	27.645906	-0.272334	-114.558769
7.950000	-0.274338	-111.101154	-42.041507	26.906936	-42.041507	26.906936	-0.276246	-115.189536
8.000000	-0.281687	-111.825616	-41.869632	26.297617	-41.869632	26.297617	-0.280225	-115.819489
8.050000	-0.290411	-112.574672	-41.683764	25.831311	-41.683764	25.831311	-0.284264	-116.448754
8.100000	-0.301176	-113.356396	-41.477031	25.543441	-41.477031	25.543441	-0.288368	-117.077321
8.150000	-0.314469	-114.174608	-41.245718	25.442670	-41.245718	25.442670	-0.292531	-117.705266
8.200000	-0.333167	-115.059979	-40.960955	25.650640	-40.960955	25.650640	-0.296780	-118.332335
8.250000	-0.360270	-116.031281	-40.599942	26.188590	-40.599942	26.188590	-0.301114	-118.958532
8.300000	-0.403162	-117.131221	-40.109853	27.093908	-40.109853	27.093908	-0.305546	-119.583610
8.350000	-0.477474	-118.419390	-39.403955	28.261771	-39.403955	28.261771	-0.310081	-120.207108
8.400000	-0.624080	-119.969616	-38.323424	29.109498	-38.323424	29.109498	-0.314690	-120.827903
8.450000	-0.947777	-121.652414	-36.684821	27.583476	-36.684821	27.583476	-0.319103	-121.443757
8.500000	-1.637821	-121.669241	-34.640101	18.391702	-34.640101	18.391702	-0.322019	-122.053753
8.550000	-2.054990	-115.660699	-33.797857	-1.288680	-33.797857	-1.288680	-0.322392	-122.679438
8.600000	-1.388479	-112.061403	-35.082699	-16.945017	-35.082699	-16.945017	-0.325601	-123.325003
8.650000	-0.891602	-112.894366	-36.638650	-22.495544	-36.638650	-22.495544	-0.330959	-123.960746
8.700000	-0.661157	-114.350891	-37.700303	-23.484728	-37.700303	-23.484728	-0.336381	-124.589048
8.750000	-0.549327	-115.658514	-38.341863	-23.188886	-38.341863	-23.188886	-0.341620	-125.214348
8.800000	-0.488789	-116.786355	-38.724749	-22.737789	-38.724749	-22.737789	-0.346741	-125.838358
8.850000	-0.454581	-117.773511	-38.941648	-22.460466	-38.941648	-22.460466	-0.351802	-126.461656
8.900000	-0.433585	-118.668747	-39.063241	-22.407082	-39.063241	-22.407082	-0.356845	-127.084546
8.950000	-0.420143	-119.501191	-39.125560	-22.553916	-39.125560	-22.553916	-0.361892	-127.707164
9.000000	-0.412294	-120.279483	-39.141270	-22.905332	-39.141270	-22.905332	-0.366959	-128.329543
9.050000	-0.407504	-121.024075	-39.130558	-23.399234	-39.130558	-23.399234	-0.372055	-128.951772
9.100000	-0.404954	-121.741491	-39.100199	-24.016272	-39.100199	-24.016272	-0.377186	-129.573880
9.150000	-0.404255	-122.434181	-39.053513	-24.751860	-39.053513	-24.751860	-0.382366	-130.195892
9.200000	-0.404404	-123.114872	-38.999547	-25.546760	-38.999547	-25.546760	-0.387577	-130.817864
9.250000	-0.405713	-123.777888	-38.935595	-26.431832	-38.935595	-26.431832	-0.392850	-131.439809
9.300000	-0.407545	-124.432482	-38.867488	-27.360804	-38.867488	-27.360804	-0.398162	-132.061766
9.350000	-0.409863	-125.079138	-38.795658	-28.331375	-38.795658	-28.331375	-0.403516	-132.683743
9.400000	-0.412813	-125.714909	-38.718936	-29.359892	-38.718936	-29.359892	-0.408941	-133.305812
9.450000	-0.416045	-126.345676	-38.640495	-30.415304	-38.640495	-30.415304	-0.414411	-133.927970
9.500000	-0.419535	-126.971845	-38.560590	-31.495456	-38.560590	-31.495456	-0.419925	-134.550223
9.550000	-0.423360	-127.591943	-38.478655	-32.608401	-38.478655	-32.608401	-0.425506	-135.172668
9.600000	-0.427398	-128.208208	-38.395797	-33.742104	-38.395797	-33.742104	-0.431142	-135.795304
9.650000	-0.431597	-128.821596	-38.312471	-34.891399	-38.312471	-34.891399	-0.436824	-136.418112
9.700000	-0.435995	-129.431451	-38.228425	-36.059867	-38.228425	-36.059867	-0.442568	-137.041186
9.750000	-0.440568	-130.038306	-38.143915	-37.244649	-38.143915	-37.244649	-0.448376	-137.664585
9.800000	-0.445254	-130.643271	-38.059423	-38.439742	-38.059423	-38.439742	-0.454230	-138.288234
9.850000	-0.450068	-131.246144	-37.974870	-39.646265	-37.974870	-39.646265	-0.460140	-138.912200
9.900000	-0.455036	-131.846649	-37.890131	-40.865836	-37.890131	-40.865836	-0.466124	-139.536654
9.950000	-0.460092	-132.445880	-37.805667	-42.092504	-37.805667	-42.092504	-0.472155	-140.161442
10.000000	-0.465236	-133.043884	-37.721493	-43.326033	-37.721493	-43.326033	-0.478235	-140.786571
