! freq	dB(S11)	phase(S11)	dB(S12)	phase(S12)	
!     	dB(S21)	phase(S21)	dB(S22)	phase(S22)	
!S-par simulation data
#  GHz  S  DB  R 50
0.000000	-0.000000	0.000000	-300.534527	0.000000	-300.534527	0.000000	0.000000	0.000000
0.050000	-0.012285	-2.828238	-67.449954	84.321543	-67.449954	84.321543	-0.016207	-2.822174
0.100000	-0.023620	-5.764926	-61.424313	82.779013	-61.424313	82.779013	-0.026847	-5.772773
0.150000	-0.028865	-8.713112	-57.919059	80.323096	-57.919059	80.323096	-0.030976	-8.722221
0.200000	-0.031835	-11.652003	-55.446244	77.647834	-55.446244	77.647834	-0.033290	-11.659423
0.250000	-0.033986	-14.579833	-53.542131	74.887858	-53.542131	74.887858	-0.035060	-14.585193
0.300000	-0.035878	-17.496388	-52.000278	72.092173	-52.000278	72.092173	-0.036710	-17.499869
0.350000	-0.037732	-20.401135	-50.710575	69.282811	-50.710575	69.282811	-0.038395	-20.403005
0.400000	-0.039640	-23.293225	-49.607262	66.471719	-49.607262	66.471719	-0.040177	-23.293740
0.450000	-0.041640	-26.171630	-48.647871	63.666338	-48.647871	63.666338	-0.042078	-26.171016
0.500000	-0.043748	-29.035243	-47.803356	60.871831	-47.803356	60.871831	-0.044102	-29.033703
0.550000	-0.045964	-31.882938	-47.052945	58.092078	-47.052945	58.092078	-0.046247	-31.880655
0.600000	-0.048281	-34.713604	-46.381246	55.330183	-46.381246	55.330183	-0.048502	-34.710746
0.650000	-0.050690	-37.525964	-45.776734	52.588986	-45.776734	52.588986	-0.050857	-37.522688
0.700000	-0.053179	-40.318970	-45.230219	49.870783	-45.230219	49.870783	-0.053298	-40.315425
0.750000	-0.055731	-43.091874	-44.734156	47.177301	-44.734156	47.177301	-0.055810	-43.088194
0.800000	-0.058335	-45.843797	-44.282595	44.510283	-44.282595	44.510283	-0.058378	-45.840114
0.850000	-0.060974	-48.573939	-43.870623	41.871298	-43.870623	41.871298	-0.060989	-48.570374
0.900000	-0.063637	-51.281570	-43.494126	39.261771	-43.494126	39.261771	-0.063629	-51.278239
0.950000	-0.066310	-53.966039	-43.149620	36.682999	-43.149620	36.682999	-0.066284	-53.963054
1.000000	-0.068981	-56.626771	-42.834114	34.136164	-42.834114	34.136164	-0.068943	-56.624235
1.050000	-0.071640	-59.263264	-42.545022	31.622345	-42.545022	31.622345	-0.071595	-59.261277
1.100000	-0.074276	-61.875090	-42.280080	29.142524	-42.280080	29.142524	-0.074229	-61.873747
1.150000	-0.076881	-64.461893	-42.037294	26.697596	-42.037294	26.697596	-0.076835	-64.461284
1.200000	-0.079447	-67.023384	-41.814888	24.288372	-41.814888	24.288372	-0.079407	-67.023594
1.250000	-0.081967	-69.559339	-41.611276	21.915585	-41.611276	21.915585	-0.081936	-69.560452
1.300000	-0.084435	-72.069039	-41.425295	19.580715	-41.425295	19.580715	-0.084416	-72.071135
1.350000	-0.086847	-74.552942	-41.255350	17.283554	-41.255350	17.283554	-0.086843	-74.556098
1.400000	-0.089200	-77.011009	-41.100256	15.024620	-41.100256	15.024620	-0.089213	-77.015299
1.450000	-0.091493	-79.443252	-40.958923	12.804366	-40.958923	12.804366	-0.091524	-79.448747
1.500000	-0.093722	-81.849733	-40.830347	10.623179	-40.830347	10.623179	-0.093773	-81.856504
1.550000	-0.095888	-84.230561	-40.713595	8.481388	-40.713595	8.481388	-0.095959	-84.238678
1.600000	-0.097990	-86.585889	-40.607796	6.379257	-40.607796	6.379257	-0.098082	-86.595417
1.650000	-0.100030	-88.915907	-40.512138	4.316988	-40.512138	4.316988	-0.100142	-88.926914
1.700000	-0.102008	-91.220844	-40.425853	2.294724	-40.425853	2.294724	-0.102140	-91.233396
1.750000	-0.103926	-93.500962	-40.348218	0.312540	-40.348218	0.312540	-0.104078	-93.515124
1.800000	-0.105786	-95.756553	-40.278547	-1.629550	-40.278547	-1.629550	-0.105957	-95.772390
1.850000	-0.107591	-97.987939	-40.216186	-3.531600	-40.216186	-3.531600	-0.107780	-98.005515
1.900000	-0.109343	-100.195212	-40.160575	-5.393303	-40.160575	-5.393303	-0.109549	-100.214590
1.950000	-0.111045	-102.378753	-40.111100	-7.214862	-40.111100	-7.214862	-0.111267	-102.399998
2.000000	-0.112701	-104.539214	-40.067121	-8.996985	-40.067121	-8.996985	-0.112938	-104.562389
2.050000	-0.114315	-106.677004	-40.028087	-10.740026	-40.028087	-10.740026	-0.114565	-106.702171
2.100000	-0.115889	-108.792549	-39.993470	-12.444417	-39.993470	-12.444417	-0.116152	-108.819769
2.150000	-0.117428	-110.886287	-39.962757	-14.110674	-39.962757	-14.110674	-0.117702	-110.915622
2.200000	-0.118935	-112.958672	-39.935456	-15.739401	-39.935456	-15.739401	-0.119219	-112.990182
2.250000	-0.120413	-115.010165	-39.911091	-17.331291	-39.911091	-17.331291	-0.120706	-115.043911
2.300000	-0.121866	-117.041237	-39.889202	-18.887128	-39.889202	-18.887128	-0.122167	-117.077277
2.350000	-0.123298	-119.052368	-39.869345	-20.407790	-39.869345	-20.407790	-0.123606	-119.090761
2.400000	-0.124712	-121.044041	-39.851093	-21.894251	-39.851093	-21.894251	-0.125026	-121.084845
2.450000	-0.126111	-123.016748	-39.834034	-23.347581	-39.834034	-23.347581	-0.126431	-123.060018
2.500000	-0.127499	-124.970981	-39.817775	-24.768944	-39.817775	-24.768944	-0.127824	-125.016774
2.550000	-0.128879	-126.906856	-39.801936	-26.158966	-39.801936	-26.158966	-0.129207	-126.955228
2.600000	-0.130253	-128.825275	-39.786143	-27.519704	-39.786143	-27.519704	-0.130585	-128.876280
2.650000	-0.131625	-130.726735	-39.770054	-28.852608	-39.770054	-28.852608	-0.131960	-130.780425
2.700000	-0.132998	-132.611735	-39.753346	-30.159217	-39.753346	-30.159217	-0.133336	-132.668162
2.750000	-0.134374	-134.480773	-39.735717	-31.441152	-39.735717	-31.441152	-0.134715	-134.539988
2.800000	-0.135755	-136.334346	-39.716884	-32.700108	-39.716884	-32.700108	-0.136099	-136.396399
2.850000	-0.137145	-138.172948	-39.696585	-33.937851	-39.696585	-33.937851	-0.137491	-138.237887
2.900000	-0.138544	-139.997072	-39.674579	-35.156209	-39.674579	-35.156209	-0.138893	-140.064944
2.950000	-0.139957	-141.807206	-39.650649	-36.357062	-39.650649	-36.357062	-0.140308	-141.878059
3.000000	-0.141383	-143.603837	-39.624596	-37.542332	-39.624596	-37.542332	-0.141738	-143.677717
3.050000	-0.142827	-145.387448	-39.596247	-38.713977	-39.596247	-38.713977	-0.143184	-145.464400
3.100000	-0.144288	-147.158517	-39.565450	-39.873977	-39.565450	-39.873977	-0.144649	-147.238585
3.150000	-0.145769	-148.917394	-39.532045	-41.024243	-39.532045	-41.024243	-0.146134	-149.000620
3.200000	-0.147272	-150.664563	-39.495922	-42.166837	-39.495922	-42.166837	-0.147641	-150.750992
3.250000	-0.148798	-152.400623	-39.457025	-43.303848	-39.457025	-43.303848	-0.149171	-152.490296
3.300000	-0.150349	-154.126032	-39.415291	-44.437241	-39.415291	-44.437241	-0.150725	-154.218991
3.350000	-0.151924	-155.841249	-39.370678	-45.568949	-39.370678	-45.568949	-0.152306	-155.937533
3.400000	-0.153527	-157.546723	-39.323162	-46.700865	-39.323162	-46.700865	-0.153913	-157.646373
3.450000	-0.155157	-159.242901	-39.272738	-47.834837	-39.272738	-47.834837	-0.155549	-159.345956
3.500000	-0.156816	-160.930225	-39.219417	-48.972653	-39.219417	-48.972653	-0.157214	-161.036724
3.550000	-0.158505	-162.609130	-39.163228	-50.116040	-39.163228	-50.116040	-0.158909	-162.719111
3.600000	-0.160225	-164.280048	-39.104212	-51.266656	-39.104212	-51.266656	-0.160635	-164.393550
3.650000	-0.161976	-165.943406	-39.042424	-52.426087	-39.042424	-52.426087	-0.162392	-166.060467
3.700000	-0.163759	-167.599626	-38.977930	-53.595840	-38.977930	-53.595840	-0.164182	-167.720283
3.750000	-0.165576	-169.249123	-38.910808	-54.777342	-38.910808	-54.777342	-0.166006	-169.373413
3.800000	-0.167426	-170.892182	-38.841076	-55.972254	-38.841076	-55.972254	-0.167864	-171.020145
3.850000	-0.169311	-172.529357	-38.768896	-57.181579	-38.768896	-57.181579	-0.169756	-172.661029
3.900000	-0.171231	-174.161050	-38.694365	-58.406495	-38.694365	-58.406495	-0.171683	-174.296467
3.950000	-0.173185	-175.787658	-38.617586	-59.648096	-38.617586	-59.648096	-0.173646	-175.926859
4.000000	-0.175178	-177.409335	-38.538515	-60.908398	-38.538515	-60.908398	-0.175646	-177.552357
4.050000	-0.177205	-179.026929	-38.457535	-62.186606	-38.457535	-62.186606	-0.177681	-179.173808
4.100000	-0.179269	179.359387	-38.374633	-63.484339	-38.374633	-63.484339	-0.179753	179.208613
4.150000	-0.181370	177.749230	-38.289915	-64.802394	-38.289915	-64.802394	-0.181862	177.594526
4.200000	-0.183509	176.142226	-38.203491	-66.141500	-38.203491	-66.141500	-0.184009	175.983553
4.250000	-0.185685	174.538002	-38.115466	-67.502325	-38.115466	-67.502325	-0.186193	174.375323
4.300000	-0.187899	172.936188	-38.025944	-68.885480	-38.025944	-68.885480	-0.188416	172.769467
4.350000	-0.190152	171.336420	-37.935025	-70.291523	-37.935025	-70.291523	-0.190677	171.165619
4.400000	-0.192444	169.738337	-37.842805	-71.720963	-37.842805	-71.720963	-0.192977	169.563418
4.450000	-0.194775	168.141580	-37.749379	-73.174266	-37.749379	-73.174266	-0.195316	167.962506
4.500000	-0.197145	166.545794	-37.654833	-74.651854	-37.654833	-74.651854	-0.197694	166.362528
4.550000	-0.199556	164.950629	-37.559253	-76.154118	-37.559253	-76.154118	-0.200112	164.763133
4.600000	-0.202006	163.355737	-37.462716	-77.681412	-37.462716	-77.681412	-0.202571	163.163973
4.650000	-0.204498	161.760771	-37.365298	-79.234067	-37.365298	-79.234067	-0.205069	161.564701
4.700000	-0.207030	160.165390	-37.267065	-80.812383	-37.267065	-80.812383	-0.207608	159.964977
4.750000	-0.209603	158.569255	-37.168083	-82.416644	-37.168083	-82.416644	-0.210189	158.364460
4.800000	-0.212218	156.972028	-37.068408	-84.047111	-37.068408	-84.047111	-0.212811	156.762814
4.850000	-0.214875	155.373375	-36.968092	-85.704033	-36.968092	-85.704033	-0.215475	155.159705
4.900000	-0.217575	153.772966	-36.867185	-87.387642	-36.867185	-87.387642	-0.218181	153.554802
4.950000	-0.220317	152.170470	-36.765726	-89.098162	-36.765726	-89.098162	-0.220930	151.947775
5.000000	-0.223104	150.565562	-36.663753	-90.835805	-36.663753	-90.835805	-0.223722	150.338299
5.050000	-0.225936	148.957783	-36.561224	-92.601976	-36.561224	-92.601976	-0.226559	148.725913
5.100000	-0.228813	147.346916	-36.458238	-94.395693	-36.458238	-94.395693	-0.229442	147.110403
5.150000	-0.231735	145.732641	-36.354817	-96.217151	-36.354817	-96.217151	-0.232369	145.491449
5.200000	-0.234702	144.114641	-36.250976	-98.066540	-36.250976	-98.066540	-0.235342	143.868735
5.250000	-0.237717	142.492601	-36.146724	-99.944046	-36.146724	-99.944046	-0.238361	142.241945
5.300000	-0.240779	140.866207	-36.042067	-101.849852	-36.042067	-101.849852	-0.241427	140.610767
5.350000	-0.243889	139.235148	-35.937007	-103.784140	-35.937007	-103.784140	-0.244541	138.974891
5.400000	-0.247048	137.599114	-35.831538	-105.747086	-35.831538	-105.747086	-0.247704	137.334007
5.450000	-0.250257	135.957798	-35.725653	-107.738865	-35.725653	-107.738865	-0.250916	135.687810
5.500000	-0.253517	134.310896	-35.619337	-109.759645	-35.619337	-109.759645	-0.254179	134.035995
5.550000	-0.256829	132.658102	-35.512574	-111.809592	-35.512574	-111.809592	-0.257494	132.378260
5.600000	-0.260195	130.999115	-35.405342	-113.888864	-35.405342	-113.888864	-0.260862	130.714304
5.650000	-0.263614	129.333637	-35.297613	-115.997615	-35.297613	-115.997615	-0.264283	129.043829
5.700000	-0.267089	127.661369	-35.189358	-118.135988	-35.189358	-118.135988	-0.267760	127.366539
5.750000	-0.270622	125.982015	-35.080541	-120.304117	-35.080541	-120.304117	-0.271294	125.682140
5.800000	-0.274213	124.295281	-34.971125	-122.502124	-34.971125	-122.502124	-0.274886	123.990340
5.850000	-0.277864	122.600877	-34.861066	-124.730120	-34.861066	-124.730120	-0.278538	122.290850
5.900000	-0.281577	120.898512	-34.750317	-126.988198	-34.750317	-126.988198	-0.282251	120.583381
5.950000	-0.285353	119.187900	-34.638828	-129.276436	-34.638828	-129.276436	-0.286027	118.867649
6.000000	-0.289195	117.468754	-34.526546	-131.594889	-34.526546	-131.594889	-0.289868	117.143372
6.050000	-0.293102	115.741194	-34.413519	-133.942278	-34.413519	-133.942278	-0.293774	115.410670
6.100000	-0.297081	114.004047	-34.299450	-136.321575	-34.299450	-136.321575	-0.297752	113.668374
6.150000	-0.301133	112.257520	-34.184403	-138.731118	-34.184403	-138.731118	-0.301802	111.916695
6.200000	-0.305259	110.501338	-34.068311	-141.170861	-34.068311	-141.170861	-0.305926	110.155360
6.250000	-0.309462	108.735230	-33.951105	-143.640724	-33.951105	-143.640724	-0.310127	108.384100
6.300000	-0.313747	106.958698	-33.832647	-146.141244	-33.832647	-146.141244	-0.314408	106.602424
6.350000	-0.318114	105.171691	-33.712923	-148.671611	-33.712923	-148.671611	-0.318772	104.810285
6.400000	-0.322567	103.373948	-33.591855	-151.231633	-33.591855	-151.231633	-0.323220	103.007423
6.450000	-0.327109	101.565210	-33.469365	-153.821074	-33.469365	-153.821074	-0.327757	101.193585
6.500000	-0.331743	99.745219	-33.345374	-156.439654	-33.345374	-156.439654	-0.332386	99.368519
6.550000	-0.336473	97.913726	-33.219801	-159.087046	-33.219801	-159.087046	-0.337110	97.531979
6.600000	-0.341302	96.070481	-33.092565	-161.762876	-33.092565	-161.762876	-0.341932	95.683722
6.650000	-0.346235	94.215242	-32.963585	-164.466720	-32.963585	-164.466720	-0.346858	93.823509
6.700000	-0.351275	92.347769	-32.832783	-167.198101	-32.832783	-167.198101	-0.351890	91.951108
6.750000	-0.356427	90.467827	-32.700079	-169.956492	-32.700079	-169.956492	-0.357033	90.066290
6.800000	-0.361695	88.575188	-32.565396	-172.741314	-32.565396	-172.741314	-0.362292	88.168831
6.850000	-0.367084	86.669626	-32.428658	-175.551935	-32.428658	-175.551935	-0.367671	86.258513
6.900000	-0.372600	84.750778	-32.289745	-178.387935	-32.289745	-178.387935	-0.373176	84.334981
6.950000	-0.378250	82.818423	-32.148583	178.751448	-32.148583	178.751448	-0.378814	82.398020
7.000000	-0.384036	80.872496	-32.005154	175.867275	-32.005154	175.867275	-0.384587	80.447573
7.050000	-0.389964	78.912797	-31.859398	172.960382	-31.859398	172.960382	-0.390501	78.483447
7.100000	-0.396040	76.939132	-31.711258	170.031651	-31.711258	170.031651	-0.396562	76.505456
7.150000	-0.402271	74.951313	-31.560686	167.082003	-31.560686	167.082003	-0.402777	74.513420
7.200000	-0.408662	72.949161	-31.407638	164.112401	-31.407638	164.112401	-0.409151	72.507167
7.250000	-0.415220	70.932501	-31.252076	161.123840	-31.252076	161.123840	-0.415690	70.486534
7.300000	-0.421952	68.901169	-31.093970	158.117346	-31.093970	158.117346	-0.422403	68.451363
7.350000	-0.428865	66.855007	-30.933299	155.093968	-30.933299	155.093968	-0.429294	66.401507
7.400000	-0.435966	64.793866	-30.770047	152.054776	-30.770047	152.054776	-0.436372	64.336825
7.450000	-0.443262	62.717607	-30.604207	149.000852	-30.604207	149.000852	-0.443644	62.257188
7.500000	-0.450762	60.626096	-30.435782	145.933287	-30.435782	145.933287	-0.451118	60.162473
7.550000	-0.458477	58.518875	-30.264651	142.852922	-30.264651	142.852922	-0.458805	58.052234
7.600000	-0.466412	56.396163	-30.090959	139.761141	-30.090959	139.761141	-0.466710	55.926697
7.650000	-0.474575	54.257856	-29.914734	136.659014	-29.914734	136.659014	-0.474841	53.785769
7.700000	-0.482974	52.103862	-29.736012	133.547593	-29.736012	133.547593	-0.483207	51.629368
7.750000	-0.491618	49.934097	-29.554838	130.427905	-29.554838	130.427905	-0.491815	49.457420
7.800000	-0.500516	47.748489	-29.371264	127.300943	-29.371264	127.300943	-0.500675	47.269864
7.850000	-0.509677	45.546976	-29.185351	124.167662	-29.185351	124.167662	-0.509795	45.066648
7.900000	-0.519110	43.329506	-28.997169	121.028973	-28.997169	121.028973	-0.519185	42.847730
7.950000	-0.528825	41.096039	-28.806793	117.885736	-28.806793	117.885736	-0.528854	40.613080
8.000000	-0.538830	38.846544	-28.614307	114.738757	-28.614307	114.738757	-0.538811	38.362679
8.050000	-0.549136	36.581003	-28.419802	111.588782	-28.419802	111.588782	-0.549065	36.096518
8.100000	-0.559752	34.299409	-28.223375	108.436491	-28.223375	108.436491	-0.559627	33.814599
8.150000	-0.570690	32.001589	-28.025060	105.282486	-28.025060	105.282486	-0.570507	31.516764
8.200000	-0.581961	29.687561	-27.824968	102.127326	-27.824968	102.127326	-0.581718	29.203039
8.250000	-0.593572	27.357524	-27.623285	98.971494	-27.623285	98.971494	-0.593263	26.873629
8.300000	-0.605530	25.011517	-27.420131	95.815378	-27.420131	95.815378	-0.605154	24.528582
8.350000	-0.617842	22.649817	-27.215720	92.659287	-27.215720	92.659287	-0.617394	22.168178
8.400000	-0.630521	20.272223	-27.010084	89.503455	-27.010084	89.503455	-0.629998	19.792228
8.450000	-0.643586	17.878392	-26.803206	86.348057	-26.803206	86.348057	-0.642984	17.400407
8.500000	-0.657031	15.469096	-26.595489	83.193155	-26.595489	83.193155	-0.656346	14.993476
8.550000	-0.670865	13.044419	-26.387074	80.038755	-26.387074	80.038755	-0.670092	12.571528
8.600000	-0.685115	10.603620	-26.177809	76.884811	-26.177809	76.884811	-0.684251	10.133843
8.650000	-0.699771	8.147606	-25.968143	73.731161	-25.968143	73.731161	-0.698811	7.681315
8.700000	-0.714840	5.676537	-25.758250	70.577602	-25.758250	70.577602	-0.713780	5.214107
8.750000	-0.730343	3.189968	-25.548102	67.423860	-25.548102	67.423860	-0.729179	2.731788
8.800000	-0.746280	0.688311	-25.337974	64.269598	-25.337974	64.269598	-0.745008	0.234767
8.850000	-0.762650	-1.827998	-25.128142	61.114452	-25.128142	61.114452	-0.761266	-2.276529
8.900000	-0.779468	-4.359124	-24.918694	57.957970	-24.918694	57.957970	-0.777966	-4.802257
8.950000	-0.796744	-6.905126	-24.709767	54.799640	-24.709767	54.799640	-0.795121	-7.342472
9.000000	-0.814468	-9.465313	-24.501723	51.639026	-24.501723	51.639026	-0.812721	-9.896501
9.050000	-0.832645	-12.039588	-24.294750	48.475604	-24.294750	48.475604	-0.830770	-12.464249
9.100000	-0.851301	-14.628456	-24.088897	45.308656	-24.088897	45.308656	-0.849293	-15.046210
9.150000	-0.870413	-17.230995	-23.884593	42.137809	-23.884593	42.137809	-0.868270	-17.641488
9.200000	-0.889984	-19.847030	-23.682065	38.962538	-23.682065	38.962538	-0.887702	-20.249917
9.250000	-0.910033	-22.476992	-23.481445	35.782087	-23.481445	35.782087	-0.907609	-22.871923
9.300000	-0.930546	-25.120241	-23.283092	32.596114	-23.283092	32.596114	-0.927977	-25.506888
9.350000	-0.951516	-27.776435	-23.087297	29.404245	-23.087297	29.404245	-0.948800	-28.154488
9.400000	-0.972952	-30.445759	-22.894294	26.205901	-22.894294	26.205901	-0.970088	-30.814914
9.450000	-0.994850	-33.128018	-22.704392	23.000745	-22.704392	23.000745	-0.991837	-33.487987
9.500000	-1.017194	-35.822660	-22.517919	19.788731	-22.517919	19.788731	-1.014030	-36.173183
9.550000	-1.039983	-38.529653	-22.335173	16.569637	-22.335173	16.569637	-1.036668	-38.870484
9.600000	-1.063222	-41.249213	-22.156493	13.343203	-22.156493	13.343203	-1.059757	-41.580122
9.650000	-1.086883	-43.980602	-21.982191	10.109860	-21.982191	10.109860	-1.083269	-44.301392
9.700000	-1.110959	-46.723646	-21.812580	6.869851	-21.812580	6.869851	-1.107197	-47.034143
9.750000	-1.135453	-49.478729	-21.648080	3.623283	-21.648080	3.623283	-1.131547	-49.778779
9.800000	-1.160339	-52.245177	-21.488958	0.371019	-21.488958	0.371019	-1.156291	-52.534661
9.850000	-1.185603	-55.022931	-21.335563	-2.886235	-21.335563	-2.886235	-1.181418	-55.301758
9.900000	-1.211231	-57.811822	-21.188225	-6.147521	-21.188225	-6.147521	-1.206913	-58.079934
9.950000	-1.237204	-60.611684	-21.047261	-9.411689	-21.047261	-9.411689	-1.232760	-60.869055
10.000000	-1.263503	-63.422355	-20.912979	-12.677387	-20.912979	-12.677387	-1.258940	-63.668994
