! freq	dB(S11)	phase(S11)	dB(S12)	phase(S12)	
!     	dB(S21)	phase(S21)	dB(S22)	phase(S22)	
!S-par simulation data
#  GHz  S  DB  R 50
0.000000	-82.610638	0.000000	-0.000643	0.000000	-0.000643	0.000000	-82.610638	0.000000
0.050000	-38.917746	-92.202479	-0.006701	-3.061309	-0.006701	-3.061309	-38.915911	-92.181051
0.100000	-32.973471	-95.445711	-0.014341	-6.076136	-0.014341	-6.076136	-32.973045	-95.427544
0.150000	-29.509661	-98.686949	-0.021529	-9.079860	-0.021529	-9.079860	-29.509192	-98.667810
0.200000	-27.063997	-101.881721	-0.029306	-12.077961	-0.029306	-12.077961	-27.063380	-101.857685
0.250000	-25.181824	-105.029464	-0.037882	-15.070427	-0.037882	-15.070427	-25.181136	-104.999022
0.300000	-23.661242	-108.138165	-0.047238	-18.057199	-0.047238	-18.057199	-23.660530	-108.100817
0.350000	-22.391766	-111.217699	-0.057259	-21.038938	-0.057259	-21.038938	-22.391041	-111.173347
0.400000	-21.308841	-114.272895	-0.067903	-24.015823	-0.067903	-24.015823	-21.308101	-114.221581
0.450000	-20.372911	-117.306507	-0.079162	-26.987635	-0.079162	-26.987635	-20.372144	-117.248328
0.500000	-19.552138	-120.324052	-0.090912	-29.955008	-0.090912	-29.955008	-19.551333	-120.259080
0.550000	-18.828792	-123.326486	-0.103127	-32.917537	-0.103127	-32.917537	-18.827939	-123.254756
0.600000	-18.186425	-126.316603	-0.115697	-35.875503	-0.115697	-35.875503	-18.185517	-126.238091
0.650000	-17.614369	-129.295705	-0.128529	-38.828860	-0.128529	-38.828860	-17.613403	-129.210325
0.700000	-17.103395	-132.265266	-0.141511	-41.777795	-0.141511	-41.777795	-17.102367	-132.172875
0.750000	-16.646872	-135.226289	-0.154523	-44.722436	-0.154523	-44.722436	-16.645781	-135.126684
0.800000	-16.239243	-138.179744	-0.167439	-47.663028	-0.167439	-47.663028	-16.238090	-138.072674
0.850000	-15.876643	-141.126377	-0.180121	-50.599798	-0.180121	-50.599798	-15.875427	-141.011531
0.900000	-15.554348	-144.067264	-0.192453	-53.533254	-0.192453	-53.533254	-15.553071	-143.944299
0.950000	-15.269939	-147.003068	-0.204303	-56.463743	-0.204303	-56.463743	-15.268601	-146.871587
1.000000	-15.021037	-149.934576	-0.215553	-59.391743	-0.215553	-59.391743	-15.019637	-149.794136
1.050000	-14.805722	-152.862589	-0.226092	-62.317795	-0.226092	-62.317795	-14.804258	-152.712696
1.100000	-14.622461	-155.787930	-0.235823	-65.242518	-0.235823	-65.242518	-14.620932	-155.628037
1.150000	-14.470067	-158.711453	-0.244661	-68.166616	-0.244661	-68.166616	-14.468469	-158.540953
1.200000	-14.347657	-161.634041	-0.252534	-71.090885	-0.252534	-71.090885	-14.345987	-161.452262
1.250000	-14.254633	-164.556611	-0.259384	-74.016220	-0.259384	-74.016220	-14.252886	-164.362804
1.300000	-14.191290	-167.480151	-0.265141	-76.943681	-0.265141	-76.943681	-14.189459	-167.273459
1.350000	-14.156956	-170.405632	-0.269794	-79.874330	-0.269794	-79.874330	-14.155032	-170.185116
1.400000	-14.151831	-173.334044	-0.273320	-82.809328	-0.273320	-82.809328	-14.149806	-173.098642
1.450000	-14.176392	-176.266385	-0.275707	-85.749896	-0.275707	-85.749896	-14.174254	-176.014896
1.500000	-14.231404	-179.203650	-0.276956	-88.697302	-0.276956	-88.697302	-14.229140	-178.934704
1.550000	-14.317953	177.853179	-0.277077	-91.652847	-0.277077	-91.652847	-14.315547	178.141156
1.600000	-14.437478	174.903156	-0.276097	-94.617851	-0.276097	-94.617851	-14.434913	175.211984
1.650000	-14.591833	171.945388	-0.274056	-97.593646	-0.274056	-97.593646	-14.589086	172.277187
1.700000	-14.783348	168.979064	-0.271008	-100.581564	-0.271008	-100.581564	-14.780393	169.336327
1.750000	-15.014933	166.003490	-0.267025	-103.582924	-0.267025	-103.582924	-15.011739	166.389175
1.800000	-15.290202	163.018133	-0.262197	-106.599028	-0.262197	-106.599028	-15.286730	163.435792
1.850000	-15.613651	160.022689	-0.256629	-109.631148	-0.256629	-109.631148	-15.609853	160.476631
1.900000	-15.991360	157.017064	-0.250439	-112.680719	-0.250439	-112.680719	-15.987174	157.512663
1.950000	-16.430506	154.001746	-0.243775	-115.748963	-0.243775	-115.748963	-16.425850	154.545764
2.000000	-16.939113	150.978090	-0.236807	-118.836533	-0.236807	-118.836533	-16.933882	151.578934
2.050000	-17.529960	147.948006	-0.229706	-121.944899	-0.229706	-121.944899	-17.524004	148.616843
2.100000	-18.218362	144.915150	-0.222671	-125.074866	-0.222671	-125.074866	-18.211471	145.666807
2.150000	-19.025693	141.885480	-0.215914	-128.227297	-0.215914	-128.227297	-19.017553	142.740388
2.200000	-19.982287	138.869063	-0.209664	-131.403010	-0.209664	-131.403010	-19.972406	139.856589
2.250000	-21.133068	135.883817	-0.204173	-134.602768	-0.204173	-134.602768	-21.120618	137.048633
2.300000	-22.547097	132.962447	-0.199691	-137.826868	-0.199691	-137.826868	-22.530565	134.376183
2.350000	-24.342106	130.172292	-0.196486	-141.075646	-0.196486	-141.075646	-24.318352	131.961538
2.400000	-26.742172	127.674961	-0.194834	-144.349273	-0.194834	-144.349273	-26.703329	130.096296
2.450000	-30.262878	125.975827	-0.195018	-147.647750	-0.195018	-147.647750	-30.181725	129.681890
2.500000	-36.629534	127.811009	-0.197324	-150.970891	-0.197324	-150.970891	-36.314772	135.398959
2.550000	-47.835074	-115.779005	-0.202084	-154.318709	-0.202084	-154.318709	-45.017730	-130.607576
2.600000	-34.105229	-76.478011	-0.209549	-157.690220	-0.209549	-157.690220	-33.952080	-82.824557
2.650000	-28.505933	-76.073178	-0.219998	-161.084641	-0.219998	-161.084641	-28.469253	-79.451763
2.700000	-25.035656	-78.165726	-0.233700	-164.500992	-0.233700	-164.500992	-25.021462	-80.466532
2.750000	-22.503074	-80.920984	-0.250912	-167.938096	-0.250912	-167.938096	-22.496421	-82.665581
2.800000	-20.502672	-83.958190	-0.271870	-171.394589	-0.271870	-171.394589	-20.499265	-85.362872
2.850000	-18.847480	-87.146133	-0.296793	-174.868928	-0.296793	-174.868928	-18.845682	-88.321150
2.900000	-17.435802	-90.426624	-0.325872	-178.359406	-0.325872	-178.359406	-17.434875	-91.435721
2.950000	-16.206165	-93.769253	-0.359271	178.135827	-0.359271	178.135827	-16.205736	-94.652573
3.000000	-15.118557	-97.156050	-0.397124	174.618748	-0.397124	174.618748	-15.118421	-97.940487
3.050000	-14.145459	-100.575290	-0.439529	171.091431	-0.439529	171.091431	-14.145499	-101.279722
3.100000	-13.267118	-104.018657	-0.486548	167.556023	-0.486548	167.556023	-13.267261	-104.656830
3.150000	-12.468874	-107.479974	-0.538255	164.014675	-0.538255	164.014675	-12.469074	-108.062280
3.200000	-11.739567	-110.954038	-0.594631	160.469665	-0.594631	160.469665	-11.739794	-111.488417
3.250000	-11.070378	-114.436471	-0.655575	156.923239	-0.655575	156.923239	-11.070613	-114.929070
3.300000	-10.454239	-117.923667	-0.720993	153.377526	-0.720993	153.377526	-10.454466	-118.379389
3.350000	-9.885382	-121.412471	-0.790756	149.834574	-0.790756	149.834574	-9.885591	-121.835278
3.400000	-9.359020	-124.900097	-0.864698	146.296323	-0.864698	146.296323	-9.359203	-125.293227
3.450000	-8.871119	-128.384085	-0.942622	142.764577	-0.942622	142.764577	-8.871269	-128.750209
3.500000	-8.418234	-131.862270	-1.024297	139.240980	-1.024297	139.240980	-8.418346	-132.203610
3.550000	-7.997386	-135.332775	-1.109469	135.727000	-1.109469	135.727000	-7.997455	-135.651189
3.600000	-7.605970	-138.793997	-1.197856	132.223912	-1.197856	132.223912	-7.605991	-139.091046
3.650000	-7.241686	-142.244602	-1.289158	128.732780	-1.289158	128.732780	-7.241654	-142.521602
3.700000	-6.902486	-145.683523	-1.383055	125.254456	-1.383055	125.254456	-6.902398	-145.941585
3.750000	-6.586534	-149.109955	-1.479215	121.789565	-1.479215	121.789565	-6.586385	-149.350016
3.800000	-6.292407	-152.523060	-1.577305	118.338813	-1.577305	118.338813	-6.292194	-152.745925
3.850000	-6.018360	-155.922831	-1.676946	114.902068	-1.676946	114.902068	-6.018078	-156.129155
3.900000	-5.763020	-159.309235	-1.777784	111.479262	-1.777784	111.479262	-5.762666	-159.499563
3.950000	-5.525131	-162.682474	-1.879463	108.070111	-1.879463	108.070111	-5.524701	-162.857250
4.000000	-5.303545	-166.042976	-1.981626	104.674115	-1.981626	104.674115	-5.303035	-166.202557
4.050000	-5.097207	-169.391390	-2.083919	101.290565	-2.083919	101.290565	-5.096613	-169.536051
4.100000	-4.905149	-172.728571	-2.185992	97.918552	-2.185992	97.918552	-4.904468	-172.858515
4.150000	-4.726481	-176.055576	-2.287499	94.556973	-2.287499	94.556973	-4.725709	-176.170935
4.200000	-4.560387	-179.373651	-2.388101	91.204537	-2.388101	91.204537	-4.559520	-179.474494
4.250000	-4.406119	177.315774	-2.487463	87.859772	-2.487463	87.859772	-4.405153	177.229444
4.300000	-4.262992	174.011094	-2.585258	84.521031	-2.585258	84.521031	-4.261923	173.939332
4.350000	-4.130379	170.710536	-2.681162	81.186491	-2.681162	81.186491	-4.129203	170.653455
4.400000	-4.007800	167.412157	-2.774820	77.854163	-2.774820	77.854163	-4.006512	167.369934
4.450000	-3.894734	164.113778	-2.865910	74.521804	-2.865910	74.521804	-3.893329	164.086649
4.500000	-3.790634	160.813096	-2.954156	71.187043	-2.954156	71.187043	-3.789107	160.801357
4.550000	-3.695096	157.507668	-3.039249	67.847355	-3.039249	67.847355	-3.693441	157.511676
4.600000	-3.607764	154.194880	-3.120877	64.500026	-3.120877	64.500026	-3.605975	154.215056
4.650000	-3.528339	150.871939	-3.198725	61.142144	-3.198725	61.142144	-3.526408	150.908774
4.700000	-3.456570	147.535862	-3.272472	57.770579	-3.272472	57.770579	-3.454489	147.589917
4.750000	-3.392263	144.183458	-3.341786	54.381962	-3.341786	54.381962	-3.390023	144.255375
4.800000	-3.335281	140.811311	-3.406320	50.972657	-3.406320	50.972657	-3.332873	140.901815
4.850000	-3.285552	137.415748	-3.465711	47.538726	-3.465711	47.538726	-3.282962	137.525658
4.900000	-3.243067	133.992813	-3.519572	44.075882	-3.519572	44.075882	-3.240283	134.123050
4.950000	-3.207898	130.538217	-3.567485	40.579434	-3.567485	40.579434	-3.204903	130.689820
5.000000	-3.180201	127.047295	-3.608997	37.044217	-3.608997	37.044217	-3.176977	127.221432
5.050000	-3.160813	123.511549	-3.643069	33.460839	-3.643069	33.460839	-3.157336	123.709647
5.100000	-3.148818	119.932784	-3.670360	29.830924	-3.670360	29.830924	-3.145065	120.156207
5.150000	-3.146043	116.297011	-3.689043	26.138846	-3.689043	26.138846	-3.141981	116.547575
5.200000	-3.152341	112.602633	-3.699231	22.382299	-3.699231	22.382299	-3.147935	112.882222
5.250000	-3.169047	108.839206	-3.699780	18.549014	-3.699780	18.549014	-3.164252	109.150079
5.300000	-3.197633	104.996197	-3.689590	14.626277	-3.689590	14.626277	-3.192392	105.341020
5.350000	-3.238772	101.069689	-3.668493	10.608451	-3.668493	10.608451	-3.233021	101.451349
5.400000	-3.296592	97.034581	-3.633640	6.465056	-3.633640	6.465056	-3.290238	97.456988
5.450000	-3.370981	92.896104	-3.586123	2.200061	-3.586123	2.200061	-3.363923	93.363164
5.500000	-3.468712	88.618937	-3.522100	-2.231362	-3.522100	-2.231362	-3.460798	89.136210
5.550000	-3.593951	84.190441	-3.440739	-6.849169	-3.440739	-6.849169	-3.584983	84.764479
5.600000	-3.753703	79.588583	-3.340302	-11.687053	-3.340302	-11.687053	-3.743412	80.227607
5.650000	-3.958786	74.783075	-3.218467	-16.793735	-3.218467	-16.793735	-3.946780	75.497901
5.700000	-4.224773	69.739918	-3.073031	-22.231064	-3.073031	-22.231064	-4.210463	70.545158
5.750000	-4.573172	64.428601	-2.902790	-28.070320	-2.902790	-28.070320	-4.555643	65.344208
5.800000	-5.038150	58.818541	-2.707147	-34.411214	-2.707147	-34.411214	-5.015886	59.873308
5.850000	-5.671601	52.904179	-2.488093	-41.373499	-2.488093	-41.373499	-5.641931	54.140911
5.900000	-6.572484	46.735407	-2.250663	-49.158985	-2.250663	-49.158985	-6.529942	48.226505
5.950000	-7.905872	40.616404	-2.010463	-57.980938	-2.010463	-57.980938	-7.837898	42.489026
6.000000	-10.003526	35.703444	-1.799255	-68.124065	-1.799255	-68.124065	-9.873551	38.207911
6.050000	-13.521760	36.834558	-1.674960	-79.848442	-1.674960	-79.848442	-13.184245	40.378318
6.100000	-18.203863	68.006673	-1.731736	-93.320554	-1.731736	-93.320554	-17.153208	69.763343
6.150000	-14.202567	115.525663	-2.099268	-108.395641	-2.099268	-108.395641	-13.708986	112.203616
6.200000	-8.947270	118.507088	-2.895048	-124.376283	-2.895048	-124.376283	-8.789685	116.297154
6.250000	-5.744670	109.281350	-4.164780	-140.170763	-4.164780	-140.170763	-5.671927	107.862698
6.300000	-3.818220	97.589999	-5.856133	-154.751317	-5.856133	-154.751317	-3.775945	96.633931
6.350000	-2.659729	86.064626	-7.861874	-167.575731	-7.861874	-167.575731	-2.631329	85.408910
6.400000	-1.962418	75.457620	-10.086181	-178.557457	-10.086181	-178.557457	-1.941319	75.014938
6.450000	-1.540209	65.861260	-12.470980	172.167774	-12.470980	172.167774	-1.523329	65.580135
6.500000	-1.281011	57.134166	-15.006456	164.426663	-15.006456	164.426663	-1.266742	56.982272
6.550000	-1.120579	49.099377	-17.715308	158.168453	-17.715308	158.168453	-1.108000	49.054990
6.600000	-1.021762	41.603273	-20.638603	153.587960	-20.638603	153.587960	-1.010309	41.650902
6.650000	-0.961324	34.510595	-23.858046	151.262180	-23.858046	151.262180	-0.950641	34.638977
6.700000	-0.925543	27.720593	-27.462479	152.638142	-27.462479	152.638142	-0.915398	27.921145
6.750000	-0.906098	21.159570	-31.389073	161.174529	-31.389073	161.174529	-0.896335	21.425427
6.800000	-0.897452	14.767743	-34.787727	-178.144574	-34.787727	-178.144574	-0.887968	15.093336
6.850000	-0.896171	8.502122	-35.692992	-151.201177	-35.692992	-151.201177	-0.886898	8.882720
6.900000	-0.900001	2.330367	-34.650275	-134.433402	-34.650275	-134.433402	-0.890898	2.761816
6.950000	-0.907441	-3.771722	-33.531507	-128.385090	-33.531507	-128.385090	-0.898486	-3.293185
7.000000	-0.917476	-9.822061	-32.871792	-128.092718	-32.871792	-128.092718	-0.908664	-9.299939
7.050000	-0.929412	-15.833653	-32.683392	-130.886020	-32.683392	-130.886020	-0.920747	-15.271285
7.100000	-0.942768	-21.815509	-32.921210	-135.667966	-32.921210	-135.667966	-0.934266	-21.216153
7.150000	-0.957196	-27.773619	-33.563713	-142.108599	-33.563713	-142.108599	-0.948881	-27.140497
7.200000	-0.972427	-33.711719	-34.618248	-150.381799	-34.618248	-150.381799	-0.964328	-33.048000
7.250000	-0.988264	-39.631289	-36.123563	-161.310196	-36.123563	-161.310196	-0.980415	-38.940139
7.300000	-1.004541	-45.532227	-38.096479	-176.900457	-38.096479	-176.900457	-0.996980	-44.816816
7.350000	-1.021115	-51.413178	-40.256529	158.786764	-40.256529	158.786764	-1.013881	-50.676671
7.400000	-1.037855	-57.271802	-41.241001	123.105267	-41.241001	123.105267	-1.030987	-56.517360
7.450000	-1.054633	-63.105023	-39.683695	87.697609	-39.683695	87.697609	-1.048170	-62.335781
7.500000	-1.071325	-68.909229	-37.023114	63.742884	-37.023114	63.742884	-1.065303	-68.128287
7.550000	-1.087804	-74.679918	-34.546606	48.169621	-34.546606	48.169621	-1.082257	-73.890364
7.600000	-1.103951	-80.413355	-32.484499	36.794536	-32.484499	36.794536	-1.098906	-79.618154
7.650000	-1.119646	-86.105337	-30.782140	27.640053	-30.782140	27.640053	-1.115128	-85.307361
7.700000	-1.134778	-91.751733	-29.363381	19.765066	-29.363381	19.765066	-1.130804	-90.953741
7.750000	-1.149238	-97.348575	-28.167563	12.691666	-28.167563	12.691666	-1.145819	-96.553198
7.800000	-1.162935	-102.892598	-27.149620	6.155592	-27.149620	6.155592	-1.160077	-102.102305
7.850000	-1.175754	-108.378801	-26.277860	0.014054	-26.277860	0.014054	-1.173458	-107.595966
7.900000	-1.187629	-113.804857	-25.527011	-5.833953	-25.527011	-5.833953	-1.185888	-113.031650
7.950000	-1.198503	-119.168593	-24.877784	-11.450630	-24.877784	-11.450630	-1.197307	-118.406993
8.000000	-1.208324	-124.467730	-24.315408	-16.875807	-24.315408	-16.875807	-1.207657	-123.719539
8.050000	-1.217052	-129.700376	-23.828112	-22.137326	-23.828112	-22.137326	-1.216895	-128.967216
8.100000	-1.224661	-134.865019	-23.406335	-27.255281	-23.406335	-27.255281	-1.224992	-134.148334
8.150000	-1.231116	-139.959313	-23.042844	-32.242611	-23.042844	-32.242611	-1.231910	-139.260388
8.200000	-1.236415	-144.982445	-22.730926	-37.111235	-22.730926	-37.111235	-1.237644	-144.302387
8.250000	-1.240586	-149.935179	-22.464292	-41.872281	-22.464292	-41.872281	-1.242220	-149.274905
8.300000	-1.243646	-154.817384	-22.238137	-46.533073	-22.238137	-46.533073	-1.245656	-154.177655
8.350000	-1.245620	-159.629206	-22.048297	-51.099804	-22.048297	-51.099804	-1.247977	-159.010633
8.400000	-1.246541	-164.371040	-21.891127	-55.577863	-21.891127	-55.577863	-1.249214	-163.774093
8.450000	-1.246440	-169.042905	-21.763623	-59.971393	-21.763623	-59.971393	-1.249398	-168.467930
8.500000	-1.245346	-173.644467	-21.663267	-64.283620	-21.663267	-64.283620	-1.248558	-173.091687
8.550000	-1.243333	-178.178507	-21.586790	-68.520846	-21.586790	-68.520846	-1.246769	-177.648032
8.600000	-1.240452	177.353846	-21.531857	-72.687055	-21.531857	-72.687055	-1.244083	177.862003
8.650000	-1.236757	172.951341	-21.496333	-76.786144	-21.496333	-76.786144	-1.240555	173.437250
8.700000	-1.232302	168.612626	-21.478244	-80.821997	-21.478244	-80.821997	-1.236241	169.076431
8.750000	-1.227145	164.336264	-21.475742	-84.798540	-21.475742	-84.798540	-1.231198	164.778174
8.800000	-1.221322	160.122793	-21.487501	-88.718032	-21.487501	-88.718032	-1.225463	160.543079
8.850000	-1.214915	155.968494	-21.511320	-92.586716	-21.511320	-92.586716	-1.219120	156.367462
8.900000	-1.207958	151.874609	-21.545997	-96.406945	-21.545997	-96.406945	-1.212204	152.252621
8.950000	-1.200552	147.834575	-21.589105	-100.187299	-21.589105	-100.187299	-1.204819	148.191982
9.000000	-1.192739	143.848636	-21.639364	-103.931406	-21.639364	-103.931406	-1.197007	144.185821
9.050000	-1.184578	139.915022	-21.695117	-107.644953	-21.695117	-107.644953	-1.188829	140.232375
9.100000	-1.176128	136.031905	-21.754633	-111.334261	-21.754633	-111.334261	-1.180347	136.329813
9.150000	-1.167451	132.197384	-21.816075	-115.006434	-21.816075	-115.006434	-1.171624	132.476228
9.200000	-1.158612	128.409469	-21.877452	-118.669546	-21.877452	-118.669546	-1.162728	128.669614
9.250000	-1.149679	124.666050	-21.936565	-122.332878	-21.936565	-122.332878	-1.153729	124.907835
9.300000	-1.140727	120.964310	-21.991026	-126.007017	-21.991026	-126.007017	-1.144707	121.188036
9.350000	-1.131843	117.304010	-22.037583	-129.705880	-22.037583	-129.705880	-1.135753	117.509948
9.400000	-1.123132	113.680674	-22.073048	-133.444562	-22.073048	-133.444562	-1.126975	113.869023
9.450000	-1.114718	110.091049	-22.093439	-137.241578	-22.093439	-137.241578	-1.118505	110.261933
9.500000	-1.106762	106.531310	-22.093950	-141.119469	-22.093950	-141.119469	-1.110510	106.684756
9.550000	-1.099481	102.996831	-22.068693	-145.106039	-22.068693	-145.106039	-1.103217	103.132739
9.600000	-1.093178	99.481853	-22.010323	-149.236098	-22.010323	-149.236098	-1.096939	99.599956
9.650000	-1.088298	95.979001	-21.909535	-153.554004	-21.909535	-153.554004	-1.092138	96.078801
9.700000	-1.085526	92.478539	-21.754318	-158.117494	-21.754318	-158.117494	-1.089516	92.559213
9.750000	-1.085956	88.967235	-21.528899	-163.003738	-21.528899	-163.003738	-1.090197	89.027476
9.800000	-1.091426	85.426597	-21.212160	-168.319402	-21.212160	-168.319402	-1.096060	85.464335
9.850000	-1.105301	81.829331	-20.773650	-174.225395	-20.773650	-174.225395	-1.110545	81.841169
9.900000	-1.133968	78.135533	-20.171149	179.033486	-20.171149	179.033486	-1.140184	78.115657
9.950000	-1.189576	74.292321	-19.351370	171.081613	-19.351370	171.081613	-1.197462	74.230409
10.000000	-1.298806	70.233217	-18.234515	161.210363	-18.234515	161.210363	-1.310086	70.109256
