! freq	dB(S11)	phase(S11)	dB(S12)	phase(S12)	
!     	dB(S21)	phase(S21)	dB(S22)	phase(S22)	
!S-par simulation data
#  GHz  S  DB  R 50
0.000000	-0.000000	0.000000	-391.884681	180.000000	-391.884681	180.000000	-0.000000	0.000000
0.050000	-0.000101	-0.764506	-117.226002	87.760067	-117.226002	87.760067	-0.000101	-0.764471
0.100000	-0.000398	-1.528763	-111.407471	86.044691	-111.407471	86.044691	-0.000398	-1.528693
0.150000	-0.000883	-2.292524	-108.141941	84.938632	-108.141941	84.938632	-0.000884	-2.292418
0.200000	-0.001525	-3.055646	-105.904149	84.226574	-105.904149	84.226574	-0.001527	-3.055501
0.250000	-0.002307	-3.817965	-104.234580	83.756196	-104.234580	83.756196	-0.002309	-3.817780
0.300000	-0.003213	-4.579283	-102.944114	83.442633	-102.944114	83.442633	-0.003217	-4.579057
0.350000	-0.004201	-5.339699	-101.912922	83.228814	-101.912922	83.228814	-0.004205	-5.339430
0.400000	-0.005261	-6.099045	-101.100014	83.132638	-101.100014	83.132638	-0.005266	-6.098733
0.450000	-0.006365	-6.857416	-100.460776	83.166276	-100.460776	83.166276	-0.006370	-6.857059
0.500000	-0.007499	-7.614791	-99.978357	83.373178	-99.978357	83.373178	-0.007504	-7.614389
0.550000	-0.008648	-8.371212	-99.638560	83.807206	-99.638560	83.807206	-0.008653	-8.370766
0.600000	-0.009801	-9.126721	-99.433666	84.543090	-99.433666	84.543090	-0.009806	-9.126231
0.650000	-0.010951	-9.881360	-99.359803	85.683028	-99.359803	85.683028	-0.010955	-9.880826
0.700000	-0.012092	-10.635169	-99.415333	87.368857	-99.415333	87.368857	-0.012095	-10.634593
0.750000	-0.013219	-11.388185	-99.598555	89.800172	-99.598555	89.800172	-0.013223	-11.387567
0.800000	-0.014333	-12.140437	-99.903384	93.258824	-99.903384	93.258824	-0.014335	-12.139778
0.850000	-0.015427	-12.891827	-100.304808	98.536164	-100.304808	98.536164	-0.015429	-12.891128
0.900000	-0.016506	-13.642465	-100.756794	105.826038	-100.756794	105.826038	-0.016507	-13.641726
0.950000	-0.017577	-14.392736	-101.120248	114.400527	-101.120248	114.400527	-0.017578	-14.391959
1.000000	-0.018625	-15.141908	-101.153640	126.828863	-101.153640	126.828863	-0.018625	-15.141092
1.050000	-0.019669	-15.890836	-100.978782	139.367932	-100.978782	139.367932	-0.019669	-15.889982
1.100000	-0.020691	-16.638549	-99.852466	152.460664	-99.852466	152.460664	-0.020691	-16.637657
1.150000	-0.021712	-17.386138	-98.764261	165.139489	-98.764261	165.139489	-0.021711	-17.385208
1.200000	-0.022715	-18.132369	-96.946444	173.265345	-96.946444	173.265345	-0.022714	-18.131402
1.250000	-0.023717	-18.878600	-95.444012	-178.608799	-95.444012	-178.608799	-0.023716	-18.877596
1.300000	-0.024708	-19.623693	-93.762719	-173.841250	-93.762719	-173.841250	-0.024706	-19.622653
1.350000	-0.025692	-20.368043	-92.166117	-170.501546	-92.166117	-170.501546	-0.025690	-20.366966
1.400000	-0.026671	-21.111636	-90.665883	-168.203698	-90.665883	-168.203698	-0.026669	-21.110523
1.450000	-0.027645	-21.854458	-89.260298	-166.671449	-89.260298	-166.671449	-0.027643	-21.853308
1.500000	-0.028616	-22.596493	-87.942511	-165.709976	-87.942511	-165.709976	-0.028613	-22.595307
1.550000	-0.029583	-23.337727	-86.704235	-165.181351	-86.704235	-165.181351	-0.029580	-23.336504
1.600000	-0.030548	-24.078142	-85.537295	-164.986732	-85.537295	-164.986732	-0.030545	-24.076883
1.650000	-0.031511	-24.817724	-84.434215	-165.054165	-84.434215	-165.054165	-0.031508	-24.816429
1.700000	-0.032471	-25.556154	-83.364522	-165.384500	-83.364522	-165.384500	-0.032469	-25.554822
1.750000	-0.033432	-26.294135	-82.380697	-165.809151	-82.380697	-165.809151	-0.033429	-26.292767
1.800000	-0.034391	-27.031035	-81.428686	-166.390226	-81.428686	-166.390226	-0.034388	-27.029631
1.850000	-0.035350	-27.767162	-80.526833	-167.083031	-80.526833	-167.083031	-0.035347	-27.765722
1.900000	-0.036310	-28.502329	-79.660126	-167.867931	-79.660126	-167.867931	-0.036307	-28.500852
1.950000	-0.037270	-29.236534	-78.826927	-168.744925	-78.826927	-168.744925	-0.037266	-29.235022
2.000000	-0.038230	-29.969910	-78.030975	-169.676784	-78.030975	-169.676784	-0.038227	-29.968362
2.050000	-0.039191	-30.702126	-77.256101	-170.685455	-77.256101	-170.685455	-0.039188	-30.700542
2.100000	-0.040154	-31.433657	-76.519801	-171.726541	-76.519801	-171.726541	-0.040151	-31.432037
2.150000	-0.041119	-32.163818	-75.795148	-172.832455	-75.795148	-172.832455	-0.041115	-32.162162
2.200000	-0.042084	-32.893449	-75.109863	-173.956806	-75.109863	-173.956806	-0.042081	-32.891758
2.250000	-0.043054	-33.621491	-74.428972	-175.136469	-74.428972	-175.136469	-0.043050	-33.619764
2.300000	-0.044024	-34.349170	-73.787857	-176.325660	-73.787857	-176.325660	-0.044020	-34.347408
2.350000	-0.044999	-35.075032	-73.145502	-177.562498	-73.145502	-177.562498	-0.044995	-35.073235
2.400000	-0.045974	-35.800707	-72.543045	-178.803097	-72.543045	-178.803097	-0.045970	-35.798875
2.450000	-0.046956	-36.524330	-71.934938	179.914922	-71.934938	179.914922	-0.046952	-36.522464
2.500000	-0.047938	-37.247953	-71.366632	178.632941	-71.366632	178.632941	-0.047934	-37.246052
2.550000	-0.048928	-37.969281	-70.789206	177.314765	-70.789206	177.314765	-0.048924	-37.967345
2.600000	-0.049918	-38.690608	-70.247784	175.996590	-70.247784	175.996590	-0.049914	-38.688637
2.650000	-0.050917	-39.409781	-69.701572	174.651470	-69.701572	174.651470	-0.050913	-39.407776
2.700000	-0.051917	-40.128758	-69.184559	173.303901	-69.184559	173.303901	-0.051913	-40.126719
2.750000	-0.052926	-40.845733	-68.666355	171.936225	-68.666355	171.936225	-0.052922	-40.843661
2.800000	-0.053937	-41.562308	-68.171629	170.564527	-68.171629	170.564527	-0.053933	-41.560202
2.850000	-0.054958	-42.277045	-67.678715	169.177840	-67.678715	169.177840	-0.054953	-42.274905
2.900000	-0.055981	-42.991168	-67.204441	167.786158	-67.204441	167.786158	-0.055977	-42.988996
2.950000	-0.057014	-43.703626	-66.734488	166.383358	-66.734488	166.383358	-0.057009	-43.701421
3.000000	-0.058052	-44.415252	-66.279066	164.975001	-66.279066	164.975001	-0.058047	-44.413013
3.050000	-0.059098	-45.125394	-65.830066	163.558478	-65.830066	163.558478	-0.059093	-45.123122
3.100000	-0.060151	-45.834476	-65.392092	162.136124	-65.392092	162.136124	-0.060146	-45.832172
3.150000	-0.061213	-46.542267	-64.962296	160.707868	-64.962296	160.707868	-0.061208	-46.539930
3.200000	-0.062283	-47.248765	-64.540530	159.273711	-64.540530	159.273711	-0.062278	-47.246397
3.250000	-0.063361	-47.954170	-64.128410	157.835392	-64.128410	157.835392	-0.063355	-47.951770
3.300000	-0.064450	-48.658045	-63.721748	156.391248	-63.721748	156.391248	-0.064444	-48.655614
3.350000	-0.065545	-49.361034	-63.325956	154.944280	-63.325956	154.944280	-0.065539	-49.358571
3.400000	-0.066654	-50.062250	-62.933414	153.491667	-62.933414	153.491667	-0.066648	-50.059755
3.450000	-0.067768	-50.762792	-62.552755	152.037257	-62.552755	152.037257	-0.067762	-50.760266
3.500000	-0.068899	-51.461315	-62.173449	150.577456	-62.173449	150.577456	-0.068892	-51.458758
3.550000	-0.070033	-52.159384	-61.806862	149.116638	-61.806862	149.116638	-0.070027	-52.156796
3.600000	-0.071187	-52.855183	-61.439993	147.650740	-61.439993	147.650740	-0.071180	-52.852565
3.650000	-0.072343	-53.550752	-61.086526	146.184412	-61.086526	146.184412	-0.072336	-53.548104
3.700000	-0.073522	-54.243800	-60.731373	144.713352	-60.731373	144.713352	-0.073515	-54.241122
3.750000	-0.074701	-54.936847	-60.390173	143.242292	-60.390173	143.242292	-0.074694	-54.934139
3.800000	-0.075906	-55.627118	-60.046078	141.766878	-60.046078	141.766878	-0.075899	-55.624380
3.850000	-0.077112	-56.317389	-59.715098	140.291464	-59.715098	140.291464	-0.077105	-56.314622
3.900000	-0.078343	-57.005095	-59.382739	138.812704	-59.382739	138.812704	-0.078336	-57.002298
3.950000	-0.079577	-57.692567	-59.061447	137.333641	-59.061447	137.333641	-0.079569	-57.689740
4.000000	-0.080835	-58.377690	-58.740110	135.852049	-58.740110	135.852049	-0.080828	-58.374835
4.050000	-0.082099	-59.062344	-58.428020	134.369952	-58.428020	134.369952	-0.082091	-59.059460
4.100000	-0.083386	-59.744872	-58.117054	132.885987	-58.117054	132.885987	-0.083378	-59.741959
4.150000	-0.084681	-60.426691	-57.813716	131.401400	-57.813716	131.401400	-0.084673	-60.423749
4.200000	-0.085998	-61.106611	-57.512530	129.915474	-57.512530	129.915474	-0.085990	-61.103641
4.250000	-0.087326	-61.785581	-57.217531	128.428879	-57.217531	128.428879	-0.087319	-61.782583
4.300000	-0.088675	-62.462884	-56.925581	126.941364	-56.925581	126.941364	-0.088667	-62.459858
4.350000	-0.090038	-63.138995	-56.638537	125.453192	-56.638537	125.453192	-0.090030	-63.135941
4.400000	-0.091419	-63.813672	-56.355328	123.964424	-56.355328	123.964424	-0.091411	-63.810590
4.450000	-0.092819	-64.486915	-56.075884	122.475060	-56.075884	122.475060	-0.092810	-64.483806
4.500000	-0.094234	-65.158962	-55.800959	120.985345	-55.800959	120.985345	-0.094226	-65.155825
4.550000	-0.095672	-65.829333	-55.528782	119.495138	-55.528782	119.495138	-0.095663	-65.826169
4.600000	-0.097123	-66.498745	-55.261720	118.004754	-55.261720	118.004754	-0.097114	-66.495554
4.650000	-0.098600	-67.166240	-54.996503	116.514019	-54.996503	116.514019	-0.098591	-67.163022
4.700000	-0.100088	-67.833016	-54.736916	115.023223	-54.736916	115.023223	-0.100079	-67.829771
4.750000	-0.101607	-68.497636	-54.478370	113.532245	-54.478370	113.532245	-0.101598	-68.494365
4.800000	-0.103133	-69.161777	-54.225898	112.041271	-54.225898	112.041271	-0.103124	-69.158479
4.850000	-0.104695	-69.823524	-53.973753	110.550314	-53.973753	110.550314	-0.104686	-69.820200
4.900000	-0.106261	-70.485033	-53.728062	109.059378	-53.728062	109.059378	-0.106252	-70.481682
4.950000	-0.107868	-71.143913	-53.482065	107.568681	-53.482065	107.568681	-0.107858	-71.140536
5.000000	-0.109475	-71.802793	-53.242844	106.077983	-53.242844	106.077983	-0.109465	-71.799390
5.050000	-0.111128	-72.458814	-53.002759	104.587766	-53.002759	104.587766	-0.111118	-72.455385
5.100000	-0.112781	-73.114835	-52.769131	103.097548	-52.769131	103.097548	-0.112772	-73.111380
5.150000	-0.114479	-73.768245	-52.535320	101.607957	-52.535320	101.607957	-0.114469	-73.764764
5.200000	-0.116180	-74.421417	-52.307081	100.118423	-52.307081	100.118423	-0.116171	-74.417911
5.250000	-0.117923	-75.072227	-52.079269	98.629614	-52.079269	98.629614	-0.117913	-75.068695
5.300000	-0.119675	-75.722564	-51.856225	97.140950	-51.856225	97.140950	-0.119665	-75.719007
5.350000	-0.121465	-76.370787	-51.634155	95.653068	-51.634155	95.653068	-0.121455	-76.367204
5.400000	-0.123268	-77.018304	-51.416123	94.165447	-51.416123	94.165447	-0.123258	-77.014696
5.450000	-0.125106	-77.663953	-51.199553	92.678628	-51.199553	92.678628	-0.125096	-77.660320
5.500000	-0.126962	-78.308669	-50.986361	91.192210	-50.986361	91.192210	-0.126952	-78.305011
5.550000	-0.128850	-78.951762	-50.775065	89.706580	-50.775065	89.706580	-0.128840	-78.948078
5.600000	-0.130761	-79.593695	-50.566548	88.221512	-50.566548	88.221512	-0.130751	-79.589987
5.650000	-0.132701	-80.234250	-50.360313	86.737188	-50.360313	86.737188	-0.132690	-80.230517
5.700000	-0.134668	-80.873425	-50.156315	85.253607	-50.156315	85.253607	-0.134658	-80.869667
5.750000	-0.136660	-81.511460	-49.954942	83.770698	-49.954942	83.770698	-0.136650	-81.507678
5.800000	-0.138686	-82.147901	-49.755316	82.288730	-49.755316	82.288730	-0.138675	-82.144094
5.850000	-0.140732	-82.783439	-49.558616	80.807337	-49.558616	80.807337	-0.140721	-82.779607
5.900000	-0.142818	-83.417173	-49.363221	79.327096	-49.363221	79.327096	-0.142807	-83.413316
5.950000	-0.144920	-84.050237	-49.171016	77.847313	-49.171016	77.847313	-0.144908	-84.046356
6.000000	-0.147067	-84.681293	-48.979719	76.368905	-48.979719	76.368905	-0.147056	-84.677387
6.050000	-0.149225	-85.311908	-48.791843	74.890818	-48.791843	74.890818	-0.149214	-85.307978
6.100000	-0.151436	-85.940317	-48.604516	73.414339	-48.604516	73.414339	-0.151425	-85.936362
6.150000	-0.153653	-86.568509	-48.420811	71.938027	-48.420811	71.938027	-0.153641	-86.564530
6.200000	-0.155929	-87.194305	-48.237331	70.463564	-48.237331	70.463564	-0.155917	-87.190301
6.250000	-0.158205	-87.820101	-48.057647	68.989100	-48.057647	68.989100	-0.158193	-87.816073
6.300000	-0.160547	-88.443319	-47.877901	67.516730	-47.877901	67.516730	-0.160535	-88.439267
6.350000	-0.162890	-89.066537	-47.701798	66.044361	-47.701798	66.044361	-0.162878	-89.062461
6.400000	-0.165296	-89.687427	-47.525972	64.573974	-47.525972	64.573974	-0.165283	-89.683326
6.450000	-0.167707	-90.308105	-47.353348	63.103767	-47.353348	63.103767	-0.167694	-90.303979
6.500000	-0.170176	-90.926698	-47.181307	61.635414	-47.181307	61.635414	-0.170164	-90.922548
6.550000	-0.172658	-91.544875	-47.012062	60.167431	-47.012062	60.167431	-0.172645	-91.540700
6.600000	-0.175192	-92.161206	-46.843678	58.701156	-46.843678	58.701156	-0.175179	-92.157007
6.650000	-0.177745	-92.776922	-46.677719	57.235450	-46.677719	57.235450	-0.177732	-92.772699
6.700000	-0.180347	-93.391027	-46.512869	55.771291	-46.512869	55.771291	-0.180334	-93.386779
6.750000	-0.182974	-94.004326	-46.350107	54.307906	-46.350107	54.307906	-0.182960	-94.000054
6.800000	-0.185644	-94.616241	-46.188676	52.845896	-46.188676	52.845896	-0.185630	-94.611944
6.850000	-0.188345	-95.227167	-46.029025	51.384869	-46.029025	51.384869	-0.188331	-95.222846
6.900000	-0.191085	-95.836931	-45.870904	49.925034	-45.870904	49.925034	-0.191071	-95.832584
6.950000	-0.193863	-96.445531	-45.714282	48.466392	-45.714282	48.466392	-0.193848	-96.441160
7.000000	-0.196673	-97.053182	-45.559367	47.008754	-45.559367	47.008754	-0.196659	-97.048786
7.050000	-0.199529	-97.659504	-45.405698	45.552519	-45.405698	45.552519	-0.199515	-97.655083
7.100000	-0.202412	-98.265083	-45.253892	44.097092	-45.253892	44.097092	-0.202398	-98.260637
7.150000	-0.205348	-98.869177	-45.103102	42.643279	-45.103102	42.643279	-0.205334	-98.864705
7.200000	-0.208305	-99.472727	-44.954310	41.190072	-44.954310	41.190072	-0.208290	-99.468230
7.250000	-0.211322	-100.074643	-44.806329	39.738687	-44.806329	39.738687	-0.211307	-100.070121
7.300000	-0.214354	-100.676206	-44.660465	38.287706	-44.660465	38.287706	-0.214339	-100.671658
7.350000	-0.217455	-101.275999	-44.515228	36.838749	-44.515228	36.838749	-0.217439	-101.271425
7.400000	-0.220563	-101.875620	-44.372207	35.389993	-44.372207	35.389993	-0.220547	-101.871020
7.450000	-0.223748	-102.473344	-44.229651	33.943457	-44.229651	33.943457	-0.223732	-102.468718
7.500000	-0.226934	-103.071067	-44.089396	32.496922	-44.089396	32.496922	-0.226917	-103.066415
7.550000	-0.230204	-103.666778	-43.949462	31.052795	-43.949462	31.052795	-0.230188	-103.662099
7.600000	-0.233476	-104.262488	-43.811746	29.608669	-43.811746	29.608669	-0.233460	-104.257783
7.650000	-0.236827	-104.856406	-43.674531	28.166735	-43.674531	28.166735	-0.236811	-104.851674
7.700000	-0.240187	-105.450162	-43.539302	26.725000	-43.539302	26.725000	-0.240170	-105.445402
7.750000	-0.243620	-106.042336	-43.404736	25.285239	-43.404736	25.285239	-0.243603	-106.037550
7.800000	-0.247069	-106.634195	-43.271946	23.845873	-43.271946	23.845873	-0.247052	-106.629381
7.850000	-0.250584	-107.224677	-43.139964	22.408263	-43.139964	22.408263	-0.250567	-107.219835
7.900000	-0.254123	-107.814701	-43.009567	20.971238	-43.009567	20.971238	-0.254106	-107.809830
7.950000	-0.257723	-108.403542	-42.880108	19.535753	-42.880108	19.535753	-0.257706	-108.398643
8.000000	-0.261354	-108.991792	-42.752062	18.101038	-42.752062	18.101038	-0.261337	-108.986864
8.050000	-0.265040	-109.579044	-42.625068	16.667650	-42.625068	16.667650	-0.265022	-109.574088
8.100000	-0.268764	-110.165584	-42.499335	15.235209	-42.499335	15.235209	-0.268747	-110.160598
8.150000	-0.272536	-110.751302	-42.374752	13.803888	-42.374752	13.803888	-0.272518	-110.746286
8.200000	-0.276355	-111.336198	-42.251296	12.373685	-42.251296	12.373685	-0.276337	-111.331152
8.250000	-0.280214	-111.920436	-42.129075	10.944399	-42.129075	10.944399	-0.280197	-111.915359
8.300000	-0.284129	-112.503753	-42.007865	9.516394	-42.007865	9.516394	-0.284112	-112.498646
8.350000	-0.288077	-113.086568	-41.887958	8.089109	-41.887958	8.089109	-0.288060	-113.081429
8.400000	-0.292090	-113.668375	-41.768964	6.663262	-41.768964	6.663262	-0.292072	-113.663204
8.450000	-0.296128	-114.249823	-41.651329	5.237945	-41.651329	5.237945	-0.296110	-114.244620
8.500000	-0.300238	-114.830190	-41.534527	3.814216	-41.534527	3.814216	-0.300221	-114.824954
8.550000	-0.304367	-115.410329	-41.419124	2.390833	-41.419124	2.390833	-0.304350	-115.405060
8.600000	-0.308578	-115.989326	-41.304491	0.969181	-41.304491	0.969181	-0.308561	-115.984023
8.650000	-0.312799	-116.568216	-41.191283	-0.452302	-41.191283	-0.452302	-0.312781	-116.562879
8.700000	-0.317110	-117.145917	-41.078800	-1.871915	-41.078800	-1.871915	-0.317093	-117.140544
8.750000	-0.321424	-117.723618	-40.967755	-3.291528	-40.967755	-3.291528	-0.321407	-117.718210
8.800000	-0.325837	-118.300095	-40.857406	-4.709139	-40.857406	-4.709139	-0.325821	-118.294651
8.850000	-0.330253	-118.876573	-40.748442	-6.126750	-40.748442	-6.126750	-0.330236	-118.871092
8.900000	-0.334761	-119.451999	-40.640266	-7.542554	-40.640266	-7.542554	-0.334745	-119.446480
8.950000	-0.339280	-120.027329	-40.533371	-8.958194	-40.533371	-8.958194	-0.339264	-120.021772
9.000000	-0.343884	-120.601768	-40.427343	-10.372215	-40.427343	-10.372215	-0.343868	-120.596171
9.050000	-0.348507	-121.176027	-40.322509	-11.785912	-40.322509	-11.785912	-0.348492	-121.170392
9.100000	-0.353207	-121.749543	-40.218606	-13.198168	-40.218606	-13.198168	-0.353193	-121.743867
9.150000	-0.357935	-122.322811	-40.115827	-14.609944	-40.115827	-14.609944	-0.357921	-122.317094
9.200000	-0.362733	-122.895471	-40.014029	-16.020450	-40.014029	-16.020450	-0.362719	-122.889711
9.250000	-0.367567	-123.467827	-39.913303	-17.430320	-39.913303	-17.430320	-0.367554	-123.462024
9.300000	-0.372463	-124.039699	-39.813594	-18.839082	-39.813594	-18.839082	-0.372450	-124.033852
9.350000	-0.377403	-124.611226	-39.714919	-20.247054	-39.714919	-20.247054	-0.377391	-124.605334
9.400000	-0.382398	-125.182379	-39.617284	-21.654075	-39.617284	-21.654075	-0.382386	-125.176441
9.450000	-0.387446	-125.753159	-39.520665	-23.060146	-39.520665	-23.060146	-0.387435	-125.747173
9.500000	-0.392540	-126.323663	-39.425091	-24.465420	-39.425091	-24.465420	-0.392530	-126.317630
9.550000	-0.397696	-126.893781	-39.330532	-25.869578	-39.330532	-25.869578	-0.397687	-126.887699
9.600000	-0.402890	-127.463708	-39.237010	-27.273091	-39.237010	-27.273091	-0.402881	-127.457576
9.650000	-0.408155	-128.033252	-39.144519	-28.675313	-39.144519	-28.675313	-0.408147	-128.027068
9.700000	-0.413449	-128.602674	-39.053041	-30.077042	-39.053041	-30.077042	-0.413442	-128.596438
9.750000	-0.418823	-129.171732	-38.962627	-31.477292	-38.962627	-31.477292	-0.418818	-129.165441
9.800000	-0.424218	-129.740724	-38.873187	-32.877206	-38.873187	-32.877206	-0.424213	-129.734378
9.850000	-0.429702	-130.309386	-38.784863	-34.275435	-38.784863	-34.275435	-0.429699	-130.302984
9.900000	-0.435198	-130.878024	-38.697456	-35.673490	-38.697456	-35.673490	-0.435196	-130.871563
9.950000	-0.440792	-131.446383	-38.611235	-37.069635	-38.611235	-37.069635	-0.440791	-131.439862
10.000000	-0.446389	-132.014742	-38.525861	-38.465779	-38.525861	-38.465779	-0.446390	-132.008162
