! freq	dB(S11)	phase(S11)	dB(S12)	phase(S12)	
!     	dB(S21)	phase(S21)	dB(S22)	phase(S22)	
!S-par simulation data
#  GHz  S  DB  R 50
0.000000	-0.000000	0.000000	-355.122845	180.000000	-355.122845	180.000000	0.000000	0.000000
0.050000	-0.005587	-1.321858	-104.573630	88.539230	-104.573630	88.539230	-0.005412	-1.322561
0.100000	-0.010555	-2.692982	-98.587243	87.099335	-98.587243	87.099335	-0.010401	-2.693333
0.150000	-0.012828	-4.069589	-95.124758	85.698512	-95.124758	85.698512	-0.012732	-4.070200
0.200000	-0.014144	-5.443552	-92.710875	84.348845	-92.710875	84.348845	-0.014084	-5.444606
0.250000	-0.015128	-6.814679	-90.889993	83.063790	-90.889993	83.063790	-0.015089	-6.816207
0.300000	-0.016037	-8.183685	-89.451210	81.844995	-89.451210	81.844995	-0.016012	-8.185685
0.350000	-0.016950	-9.550717	-88.289553	80.702949	-88.289553	80.702949	-0.016933	-9.553177
0.400000	-0.017906	-10.915887	-87.341306	79.647536	-87.341306	79.647536	-0.017896	-10.918797
0.450000	-0.018924	-12.279211	-86.566116	78.691837	-86.566116	78.691837	-0.018918	-12.282561
0.500000	-0.020009	-13.640648	-85.937235	77.853235	-85.937235	77.853235	-0.020008	-13.644428
0.550000	-0.021164	-15.000122	-85.436475	77.154574	-85.436475	77.154574	-0.021166	-15.004325
0.600000	-0.022386	-16.357542	-85.051371	76.625634	-85.051371	76.625634	-0.022391	-16.362162
0.650000	-0.023672	-17.712807	-84.773461	76.305161	-84.773461	76.305161	-0.023678	-17.717837
0.700000	-0.025016	-19.065811	-84.597142	76.243726	-84.597142	76.243726	-0.025025	-19.071245
0.750000	-0.026414	-20.416448	-84.518778	76.507744	-84.518778	76.507744	-0.026424	-20.422281
0.800000	-0.027860	-21.764613	-84.535804	77.185055	-84.535804	77.185055	-0.027872	-21.770839
0.850000	-0.029349	-23.110202	-84.645549	78.392399	-84.645549	78.392399	-0.029362	-23.116817
0.900000	-0.030875	-24.453117	-84.843331	80.284709	-84.843331	80.284709	-0.030890	-24.460115
0.950000	-0.032433	-25.793260	-85.119156	83.064593	-85.119156	83.064593	-0.032449	-25.800638
1.000000	-0.034018	-27.130538	-85.452021	86.986106	-85.452021	86.986106	-0.034035	-27.138292
1.050000	-0.035626	-28.464864	-85.800905	92.337361	-85.800905	92.337361	-0.035644	-28.472988
1.100000	-0.037251	-29.796152	-86.093499	99.371215	-86.093499	99.371215	-0.037270	-29.804643
1.150000	-0.038890	-31.124320	-86.220501	108.146635	-86.220501	108.146635	-0.038910	-31.133174
1.200000	-0.040539	-32.449290	-86.054198	118.297107	-86.054198	118.297107	-0.040559	-32.458504
1.250000	-0.042195	-33.770988	-85.505237	128.916081	-85.505237	128.916081	-0.042216	-33.780557
1.300000	-0.043855	-35.089193	-84.564944	138.781503	-84.564944	138.781503	-0.043876	-35.099114
1.350000	-0.045515	-36.403980	-83.358330	147.096418	-83.358330	147.096418	-0.045537	-36.414249
1.400000	-0.047175	-37.715283	-82.012356	153.638325	-82.012356	153.638325	-0.047197	-37.725897
1.450000	-0.048831	-39.023040	-80.624812	158.548556	-80.624812	158.548556	-0.048853	-39.033996
1.500000	-0.050482	-40.327192	-79.255186	162.104863	-79.255186	162.104863	-0.050505	-40.338485
1.550000	-0.052128	-41.627680	-77.934051	164.590773	-77.934051	164.590773	-0.052151	-41.639309
1.600000	-0.053766	-42.924451	-76.674376	166.246289	-76.674376	166.246289	-0.053790	-42.936411
1.650000	-0.055397	-44.217452	-75.479567	167.259557	-75.479567	167.259557	-0.055420	-44.229740
1.700000	-0.057019	-45.506632	-74.348255	167.773509	-74.348255	167.773509	-0.057043	-45.519245
1.750000	-0.058632	-46.791944	-73.276905	167.895697	-73.276905	167.895697	-0.058656	-46.804879
1.800000	-0.060236	-48.073341	-72.261175	167.707173	-72.261175	167.707173	-0.060261	-48.086597
1.850000	-0.061832	-49.350782	-71.296597	167.269460	-71.296597	167.269460	-0.061856	-49.364353
1.900000	-0.063418	-50.624224	-70.378896	166.629721	-70.378896	166.629721	-0.063443	-50.638108
1.950000	-0.064996	-51.893628	-69.504129	165.824505	-69.504129	165.824505	-0.065022	-51.907823
2.000000	-0.066566	-53.158958	-68.668721	164.882461	-68.668721	164.882461	-0.066592	-53.173459
2.050000	-0.068129	-54.420179	-67.869465	163.826292	-67.869465	163.826292	-0.068154	-54.434984
2.100000	-0.069684	-55.677257	-67.103495	162.674179	-67.103495	162.674179	-0.069710	-55.692363
2.150000	-0.071233	-56.930163	-66.368254	161.440833	-66.368254	161.440833	-0.071259	-56.945568
2.200000	-0.072776	-58.178869	-65.661460	160.138263	-65.661460	160.138263	-0.072803	-58.194568
2.250000	-0.074315	-59.423348	-64.981073	158.776366	-64.981073	158.776366	-0.074342	-59.439339
2.300000	-0.075849	-60.663577	-64.325264	157.363361	-64.325264	157.363361	-0.075876	-60.679856
2.350000	-0.077380	-61.899533	-63.692391	155.906126	-63.692391	155.906126	-0.077408	-61.916099
2.400000	-0.078909	-63.131198	-63.080974	154.410460	-63.080974	154.410460	-0.078938	-63.148046
2.450000	-0.080437	-64.358553	-62.489677	152.881282	-62.489677	152.881282	-0.080466	-64.375681
2.500000	-0.081964	-65.581584	-61.917289	151.322794	-61.917289	151.322794	-0.081993	-65.598989
2.550000	-0.083492	-66.800089	-61.361945	149.737629	-61.361945	149.737629	-0.083521	-66.817767
2.600000	-0.085021	-68.014246	-60.823502	148.130114	-60.823502	148.130114	-0.085051	-68.032194
2.650000	-0.086553	-69.224045	-60.301030	146.502902	-60.301030	146.502902	-0.086583	-69.242261
2.700000	-0.088088	-70.429481	-59.793679	144.858307	-59.793679	144.858307	-0.088118	-70.447961
2.750000	-0.089627	-71.630550	-59.300667	143.198362	-59.300667	143.198362	-0.089658	-71.649291
2.800000	-0.091171	-72.827250	-58.821276	141.524851	-58.821276	141.524851	-0.091203	-72.846249
2.850000	-0.092722	-74.019581	-58.354842	139.839353	-58.354842	139.839353	-0.092754	-74.038835
2.900000	-0.094280	-75.207545	-57.900752	138.143265	-57.900752	138.143265	-0.094312	-75.227051
2.950000	-0.095845	-76.391148	-57.458437	136.437832	-57.458437	136.437832	-0.095878	-76.410902
3.000000	-0.097420	-77.570394	-57.027369	134.724161	-57.027369	134.724161	-0.097453	-77.590395
3.050000	-0.099003	-78.745294	-56.607056	133.003243	-56.607056	133.003243	-0.099038	-78.765537
3.100000	-0.100598	-79.915857	-56.197040	131.275965	-56.197040	131.275965	-0.100632	-79.936340
3.150000	-0.102203	-81.082096	-55.796893	129.543127	-55.796893	129.543127	-0.102238	-81.102815
3.200000	-0.103821	-82.244025	-55.406215	127.805446	-55.406215	127.805446	-0.103856	-82.264977
3.250000	-0.105451	-83.401660	-55.024629	126.063571	-55.024629	126.063571	-0.105487	-83.422843
3.300000	-0.107095	-84.555020	-54.651783	124.318089	-54.651783	124.318089	-0.107132	-84.576430
3.350000	-0.108754	-85.704124	-54.287347	122.569531	-54.287347	122.569531	-0.108790	-85.725759
3.400000	-0.110427	-86.848995	-53.931007	120.818379	-53.931007	120.818379	-0.110464	-86.870851
3.450000	-0.112116	-87.989656	-53.582472	119.065071	-53.582472	119.065071	-0.112154	-88.011730
3.500000	-0.113822	-89.126131	-53.241462	117.310008	-53.241462	117.310008	-0.113860	-89.148422
3.550000	-0.115544	-90.258449	-52.907716	115.553551	-52.907716	115.553551	-0.115583	-90.280952
3.600000	-0.117284	-91.386638	-52.580986	113.796035	-52.580986	113.796035	-0.117323	-91.409350
3.650000	-0.119043	-92.510727	-52.261037	112.037762	-52.261037	112.037762	-0.119082	-92.533647
3.700000	-0.120821	-93.630749	-51.947647	110.279010	-51.947647	110.279010	-0.120860	-93.653873
3.750000	-0.122618	-94.746736	-51.640603	108.520034	-51.640603	108.520034	-0.122658	-94.770062
3.800000	-0.124436	-95.858553	-51.339520	106.761079	-51.339520	106.761079	-0.124476	-95.882077
3.850000	-0.126275	-96.966410	-51.044412	105.002366	-51.044412	105.002366	-0.126315	-96.990130
3.900000	-0.128135	-98.070345	-50.755095	103.244089	-50.755095	103.244089	-0.128176	-98.094258
3.950000	-0.130017	-99.170398	-50.471394	101.486429	-50.471394	101.486429	-0.130058	-99.194502
4.000000	-0.131921	-100.266608	-50.193143	99.729550	-50.193143	99.729550	-0.131962	-100.290901
4.050000	-0.133848	-101.359019	-49.920185	97.973605	-49.920185	97.973605	-0.133890	-101.383497
4.100000	-0.135799	-102.447672	-49.652366	96.218735	-49.652366	96.218735	-0.135841	-102.472334
4.150000	-0.137773	-103.532613	-49.389543	94.465068	-49.389543	94.465068	-0.137815	-103.557456
4.200000	-0.139772	-104.613887	-49.131578	92.712726	-49.131578	92.712726	-0.139814	-104.638908
4.250000	-0.141795	-105.691540	-48.878337	90.961819	-48.878337	90.961819	-0.141837	-105.716737
4.300000	-0.143843	-106.765620	-48.629695	89.212449	-48.629695	89.212449	-0.143885	-106.790991
4.350000	-0.145917	-107.836175	-48.385530	87.464711	-48.385530	87.464711	-0.145959	-107.861719
4.400000	-0.148017	-108.903256	-48.145725	85.718693	-48.145725	85.718693	-0.148059	-108.928970
4.450000	-0.150143	-109.966914	-47.910169	83.974476	-47.910169	83.974476	-0.150186	-109.992795
4.500000	-0.152295	-111.027199	-47.678755	82.232135	-47.678755	82.232135	-0.152339	-111.053247
4.550000	-0.154475	-112.084165	-47.451379	80.491741	-47.451379	80.491741	-0.154519	-112.110377
4.600000	-0.156683	-113.137865	-47.227944	78.753358	-47.227944	78.753358	-0.156726	-113.164239
4.650000	-0.158918	-114.188354	-47.008353	77.017045	-47.008353	77.017045	-0.158962	-114.214888
4.700000	-0.161181	-115.235686	-46.792516	75.282859	-46.792516	75.282859	-0.161225	-115.262380
4.750000	-0.163473	-116.279918	-46.580344	73.550850	-46.580344	73.550850	-0.163517	-116.306769
4.800000	-0.165794	-117.321107	-46.371753	71.821067	-46.371753	71.821067	-0.165838	-117.348113
4.850000	-0.168143	-118.359310	-46.166661	70.093553	-46.166661	70.093553	-0.168188	-118.386470
4.900000	-0.170522	-119.394585	-45.964989	68.368349	-45.964989	68.368349	-0.170567	-119.421898
4.950000	-0.172931	-120.426991	-45.766662	66.645493	-45.766662	66.645493	-0.172976	-120.454456
5.000000	-0.175370	-121.456588	-45.571605	64.925020	-45.571605	64.925020	-0.175415	-121.484202
5.050000	-0.177841	-122.483318	-45.379705	63.207068	-45.379705	63.207068	-0.177886	-122.511082
5.100000	-0.180342	-123.507367	-45.190943	61.491563	-45.190943	61.491563	-0.180387	-123.535278
5.150000	-0.182874	-124.528793	-45.005253	59.778531	-45.005253	59.778531	-0.182919	-124.556851
5.200000	-0.185437	-125.547661	-44.822571	58.067996	-44.822571	58.067996	-0.185483	-125.575864
5.250000	-0.188031	-126.564031	-44.642835	56.359982	-44.642835	56.359982	-0.188077	-126.592379
5.300000	-0.190657	-127.577968	-44.465986	54.654508	-44.465986	54.654508	-0.190703	-127.606460
5.350000	-0.193315	-128.589534	-44.291966	52.951592	-44.291966	52.951592	-0.193361	-128.618169
5.400000	-0.196004	-129.598793	-44.120718	51.251252	-44.120718	51.251252	-0.196051	-129.627571
5.450000	-0.198726	-130.605811	-43.952189	49.553500	-43.952189	49.553500	-0.198773	-130.634730
5.500000	-0.201480	-131.610651	-43.786327	47.858351	-43.786327	47.858351	-0.201527	-131.639711
5.550000	-0.204267	-132.613379	-43.623080	46.165815	-43.623080	46.165815	-0.204314	-132.642579
5.600000	-0.207086	-133.614060	-43.462400	44.475902	-43.462400	44.475902	-0.207134	-133.643401
5.650000	-0.209939	-134.612762	-43.304238	42.788620	-43.304238	42.788620	-0.209987	-134.642242
5.700000	-0.212824	-135.609548	-43.148550	41.103975	-43.148550	41.103975	-0.212873	-135.639168
5.750000	-0.215743	-136.604488	-42.995291	39.421972	-42.995291	39.421972	-0.215792	-136.634246
5.800000	-0.218695	-137.597647	-42.844417	37.742616	-42.844417	37.742616	-0.218744	-137.627544
5.850000	-0.221681	-138.589092	-42.695886	36.065907	-42.695886	36.065907	-0.221730	-138.619128
5.900000	-0.224700	-139.578892	-42.549659	34.391847	-42.549659	34.391847	-0.224749	-139.609066
5.950000	-0.227753	-140.567114	-42.405696	32.720437	-42.405696	32.720437	-0.227803	-140.597426
6.000000	-0.230840	-141.553826	-42.263959	31.051673	-42.263959	31.051673	-0.230890	-141.584277
6.050000	-0.233961	-142.539097	-42.124411	29.385553	-42.124411	29.385553	-0.234011	-142.569686
6.100000	-0.237116	-143.522996	-41.987017	27.722073	-41.987017	27.722073	-0.237166	-143.553723
6.150000	-0.240304	-144.505590	-41.851743	26.061228	-41.851743	26.061228	-0.240355	-144.536456
6.200000	-0.243528	-145.486950	-41.718555	24.403013	-41.718555	24.403013	-0.243579	-145.517954
6.250000	-0.246785	-146.467144	-41.587422	22.747418	-41.587422	22.747418	-0.246836	-146.498287
6.300000	-0.250078	-147.446197	-41.458315	21.094550	-41.458315	21.094550	-0.250130	-147.477480
6.350000	-0.253405	-148.424231	-41.331205	19.444286	-41.331205	19.444286	-0.253457	-148.455653
6.400000	-0.256767	-149.401314	-41.206061	17.796614	-41.206061	17.796614	-0.256820	-149.432876
6.450000	-0.260163	-150.377517	-41.082855	16.151525	-41.082855	16.151525	-0.260216	-150.409219
6.500000	-0.263593	-151.352910	-40.961560	14.509006	-40.961560	14.509006	-0.263647	-151.384753
6.550000	-0.267058	-152.327562	-40.842150	12.869044	-40.842150	12.869044	-0.267112	-152.359547
6.600000	-0.270557	-153.301546	-40.724600	11.231627	-40.724600	11.231627	-0.270611	-153.333672
6.650000	-0.274090	-154.274931	-40.608886	9.596742	-40.608886	9.596742	-0.274145	-154.307198
6.700000	-0.277658	-155.247788	-40.494985	7.964373	-40.494985	7.964373	-0.277712	-155.280197
6.750000	-0.281259	-156.220187	-40.382873	6.334506	-40.382873	6.334506	-0.281314	-156.252740
6.800000	-0.284895	-157.192200	-40.272530	4.707127	-40.272530	4.707127	-0.284950	-157.224896
6.850000	-0.288564	-158.163897	-40.163934	3.082219	-40.163934	3.082219	-0.288620	-158.196738
6.900000	-0.292268	-159.135350	-40.057067	1.459769	-40.057067	1.459769	-0.292324	-159.168335
6.950000	-0.296005	-160.106630	-39.951909	-0.160241	-39.951909	-0.160241	-0.296061	-160.139760
7.000000	-0.299775	-161.077808	-39.848443	-1.777824	-39.848443	-1.777824	-0.299833	-161.111084
7.050000	-0.303579	-162.048956	-39.746651	-3.392998	-39.746651	-3.392998	-0.303637	-162.082377
7.100000	-0.307417	-163.020144	-39.646517	-5.005776	-39.646517	-5.005776	-0.307475	-163.053711
7.150000	-0.311287	-163.991444	-39.548025	-6.616173	-39.548025	-6.616173	-0.311346	-164.025159
7.200000	-0.315191	-164.962927	-39.451162	-8.224205	-39.451162	-8.224205	-0.315250	-164.996789
7.250000	-0.319127	-165.934665	-39.355912	-9.829884	-39.355912	-9.829884	-0.319186	-165.968676
7.300000	-0.323095	-166.906730	-39.262263	-11.433224	-39.262263	-11.433224	-0.323155	-166.940889
7.350000	-0.327095	-167.879193	-39.170202	-13.034237	-39.170202	-13.034237	-0.327156	-167.913500
7.400000	-0.331128	-168.852125	-39.079719	-14.632935	-39.079719	-14.632935	-0.331189	-168.886582
7.450000	-0.335192	-169.825598	-38.990801	-16.229328	-38.990801	-16.229328	-0.335253	-169.860204
7.500000	-0.339287	-170.799683	-38.903440	-17.823426	-38.903440	-17.823426	-0.339349	-170.834439
7.550000	-0.343414	-171.774485	-38.817656	-19.415136	-38.817656	-19.415136	-0.343477	-171.809391
7.600000	-0.347572	-172.750049	-38.733413	-21.004567	-38.733413	-21.004567	-0.347635	-172.785105
7.650000	-0.351761	-173.726447	-38.650702	-22.591721	-38.650702	-22.591721	-0.351824	-173.761652
7.700000	-0.355978	-174.703748	-38.569515	-24.176603	-38.569515	-24.176603	-0.356042	-174.739104
7.750000	-0.360226	-175.682025	-38.489847	-25.759213	-38.489847	-25.759213	-0.360290	-175.717531
7.800000	-0.364502	-176.661349	-38.411692	-27.339551	-38.411692	-27.339551	-0.364566	-176.697005
7.850000	-0.368806	-177.641791	-38.335043	-28.917613	-38.335043	-28.917613	-0.368871	-177.677596
7.900000	-0.373139	-178.623422	-38.259897	-30.493395	-38.259897	-30.493395	-0.373204	-178.659376
7.950000	-0.377498	-179.606312	-38.186249	-32.066889	-38.186249	-32.066889	-0.377565	-179.642415
8.000000	-0.381885	179.409467	-38.114095	-33.638085	-38.114095	-33.638085	-0.381952	179.373216
8.050000	-0.386298	178.423845	-38.043433	-35.206970	-38.043433	-35.206970	-0.386365	178.387446
8.100000	-0.390736	177.436751	-37.974260	-36.773528	-37.974260	-36.773528	-0.390804	177.400206
8.150000	-0.395200	176.448116	-37.906574	-38.337741	-37.906574	-38.337741	-0.395268	176.411425
8.200000	-0.399688	175.457868	-37.840374	-39.899588	-37.840374	-39.899588	-0.399757	175.421033
8.250000	-0.404200	174.465940	-37.775657	-41.459044	-37.775657	-41.459044	-0.404269	174.428961
8.300000	-0.408734	173.472259	-37.712424	-43.016081	-37.712424	-43.016081	-0.408804	173.435139
8.350000	-0.413291	172.476758	-37.650674	-44.570668	-37.650674	-44.570668	-0.413362	172.439498
8.400000	-0.417870	171.479367	-37.590407	-46.122770	-37.590407	-46.122770	-0.417940	171.441968
8.450000	-0.422469	170.480017	-37.531623	-47.672350	-37.531623	-47.672350	-0.422540	170.442482
8.500000	-0.427088	169.478640	-37.474323	-49.219364	-37.474323	-49.219364	-0.427159	169.440970
8.550000	-0.431726	168.475168	-37.418508	-50.763769	-37.418508	-50.763769	-0.431798	168.437366
8.600000	-0.436381	167.469531	-37.364179	-52.305515	-37.364179	-52.305515	-0.436454	167.431600
8.650000	-0.441054	166.461664	-37.311337	-53.844548	-37.311337	-53.844548	-0.441128	166.423606
8.700000	-0.445744	165.451498	-37.259984	-55.380812	-37.259984	-55.380812	-0.445817	165.413316
8.750000	-0.450448	164.438968	-37.210120	-56.914247	-37.210120	-56.914247	-0.450522	164.400665
8.800000	-0.455167	163.423897	-37.161802	-58.444658	-37.161802	-58.444658	-0.455241	163.385477
8.850000	-0.459898	162.406323	-37.114979	-59.972099	-37.114979	-59.972099	-0.459973	162.367790
8.900000	-0.464642	161.386181	-37.069652	-61.496497	-37.069652	-61.496497	-0.464717	161.347539
8.950000	-0.469396	160.363406	-37.025823	-63.017776	-37.025823	-63.017776	-0.469472	160.324659
9.000000	-0.474160	159.337933	-36.983493	-64.535854	-36.983493	-64.535854	-0.474236	159.299087
9.050000	-0.478932	158.309700	-36.942665	-66.050647	-36.942665	-66.050647	-0.479008	158.270758
9.100000	-0.483710	157.278643	-36.903338	-67.562066	-36.903338	-67.562066	-0.483787	157.239611
9.150000	-0.488495	156.244700	-36.865514	-69.070020	-36.865514	-69.070020	-0.488572	156.205584
9.200000	-0.493283	155.207810	-36.829193	-70.574412	-36.829193	-70.574412	-0.493361	155.168615
9.250000	-0.498075	154.167911	-36.794377	-72.075143	-36.794377	-72.075143	-0.498153	154.128643
9.300000	-0.502868	153.124943	-36.761066	-73.572111	-36.761066	-73.572111	-0.502947	153.085610
9.350000	-0.507661	152.078848	-36.729258	-75.065209	-36.729258	-75.065209	-0.507740	152.039456
9.400000	-0.512452	151.029566	-36.698955	-76.554328	-36.698955	-76.554328	-0.512532	150.990123
9.450000	-0.517241	149.977040	-36.670154	-78.039356	-36.670154	-78.039356	-0.517320	149.937554
9.500000	-0.522025	148.921214	-36.642855	-79.520178	-36.642855	-79.520178	-0.522104	148.881693
9.550000	-0.526802	147.862033	-36.617055	-80.996676	-36.617055	-80.996676	-0.526882	147.822484
9.600000	-0.531571	146.799440	-36.592753	-82.468730	-36.592753	-82.468730	-0.531651	146.759874
9.650000	-0.536331	145.733384	-36.569946	-83.936216	-36.569946	-83.936216	-0.536411	145.693809
9.700000	-0.541079	144.663811	-36.548631	-85.399010	-36.548631	-85.399010	-0.541159	144.624238
9.750000	-0.545814	143.590670	-36.528803	-86.856985	-36.528803	-86.856985	-0.545894	143.551110
9.800000	-0.550534	142.513912	-36.510458	-88.310013	-36.510458	-88.310013	-0.550614	142.474375
9.850000	-0.555237	141.433488	-36.493591	-89.757964	-36.493591	-89.757964	-0.555317	141.393984
9.900000	-0.559921	140.349349	-36.478197	-91.200706	-36.478197	-91.200706	-0.560001	140.309892
9.950000	-0.564584	139.261451	-36.464269	-92.638108	-36.464269	-92.638108	-0.564663	139.222053
10.000000	-0.569224	138.169749	-36.451800	-94.070036	-36.451800	-94.070036	-0.569303	138.130423
