! freq	dB(S11)	phase(S11)	dB(S12)	phase(S12)	
!     	dB(S21)	phase(S21)	dB(S22)	phase(S22)	
!S-par simulation data
#  GHz  S  DB  R 50
0.000000	-0.000000	0.000000	-362.124560	0.000000	-362.124560	0.000000	-0.000000	0.000000
0.050000	-0.000110	-0.853438	-114.917931	87.672628	-114.917931	87.672628	-0.000109	-0.853262
0.100000	-0.000435	-1.706604	-109.107910	85.979916	-109.107910	85.979916	-0.000433	-1.706254
0.150000	-0.000961	-2.559249	-105.831040	84.923675	-105.831040	84.923675	-0.000958	-2.558728
0.200000	-0.001667	-3.411166	-103.577984	84.241765	-103.577984	84.241765	-0.001661	-3.410481
0.250000	-0.002537	-4.262129	-101.894948	83.757391	-101.894948	83.757391	-0.002528	-4.261284
0.300000	-0.003530	-5.112099	-100.576014	83.371162	-100.576014	83.371162	-0.003518	-5.111100
0.350000	-0.004625	-5.960962	-99.526092	83.069330	-99.526092	83.069330	-0.004611	-5.959813
0.400000	-0.005798	-6.808677	-98.687940	82.859997	-98.687940	82.859997	-0.005782	-6.807383
0.450000	-0.007026	-7.655237	-98.026383	82.768722	-98.026383	82.768722	-0.007009	-7.653799
0.500000	-0.008289	-8.500655	-97.519075	82.833698	-97.519075	82.833698	-0.008271	-8.499074
0.550000	-0.009572	-9.344959	-97.151844	83.105995	-97.151844	83.105995	-0.009553	-9.343238
0.600000	-0.010862	-10.188188	-96.916086	83.653061	-96.916086	83.653061	-0.010844	-10.186325
0.650000	-0.012150	-11.030380	-96.807071	84.565197	-96.807071	84.565197	-0.012132	-11.028375
0.700000	-0.013430	-11.871575	-96.822477	85.965628	-96.822477	85.965628	-0.013412	-11.869427
0.750000	-0.014696	-12.711807	-96.960515	88.025282	-96.960515	88.025282	-0.014680	-12.709514
0.800000	-0.015946	-13.551105	-97.216640	90.982968	-97.216640	90.982968	-0.015931	-13.548666
0.850000	-0.017180	-14.389493	-97.577063	95.168081	-97.577063	95.168081	-0.017166	-14.386907
0.900000	-0.018395	-15.226986	-98.006138	101.009882	-98.006138	101.009882	-0.018382	-15.224253
0.950000	-0.019594	-16.063596	-98.425006	108.983422	-98.425006	108.983422	-0.019582	-16.060715
1.000000	-0.020775	-16.899329	-98.687932	119.394103	-98.687932	119.394103	-0.020765	-16.896299
1.050000	-0.021942	-17.734183	-98.591150	131.944990	-98.591150	131.944990	-0.021932	-17.731005
1.100000	-0.023094	-18.568157	-97.967418	145.367460	-97.967418	145.367460	-0.023085	-18.564831
1.150000	-0.024233	-19.401242	-96.821185	157.817523	-96.821185	157.817523	-0.024224	-19.397768
1.200000	-0.025361	-20.233428	-95.326555	167.999972	-95.326555	167.999972	-0.025352	-20.229806
1.250000	-0.026478	-21.064701	-93.685729	175.667935	-93.685729	175.667935	-0.026470	-21.060934
1.300000	-0.027586	-21.895006	-92.024373	-178.873484	-92.024373	-178.873484	-0.027578	-21.891094
1.350000	-0.028686	-22.724366	-90.425483	-175.010620	-90.425483	-175.010620	-0.028678	-22.720310
1.400000	-0.029779	-23.552763	-88.913050	-172.327280	-88.913050	-172.327280	-0.029771	-23.548565
1.450000	-0.030866	-24.380178	-87.491624	-170.514142	-87.491624	-170.514142	-0.030858	-24.375839
1.500000	-0.031947	-25.206592	-86.157379	-169.349306	-86.157379	-169.349306	-0.031939	-25.202113
1.550000	-0.033025	-26.031985	-84.903408	-168.674620	-84.903408	-168.674620	-0.033017	-26.027368
1.600000	-0.034099	-26.856336	-83.722111	-168.376591	-83.722111	-168.376591	-0.034091	-26.851583
1.650000	-0.035170	-27.679625	-82.606188	-168.372726	-82.606188	-168.372726	-0.035162	-27.674739
1.700000	-0.036238	-28.501447	-81.524802	-168.662213	-81.524802	-168.662213	-0.036229	-28.496428
1.750000	-0.037306	-29.322697	-80.531234	-169.056754	-80.531234	-169.056754	-0.037296	-29.317547
1.800000	-0.038371	-30.142570	-79.570635	-169.624238	-79.570635	-169.624238	-0.038362	-30.137292
1.850000	-0.039436	-30.961460	-78.661378	-170.315254	-78.661378	-170.315254	-0.039426	-30.956055
1.900000	-0.040501	-31.779128	-77.788332	-171.107226	-77.788332	-171.107226	-0.040490	-31.773597
1.950000	-0.041565	-32.595572	-76.949676	-172.000153	-76.949676	-172.000153	-0.041555	-32.589918
2.000000	-0.042630	-33.410962	-76.149150	-172.952760	-76.149150	-172.952760	-0.042619	-33.405186
2.050000	-0.043696	-34.224876	-75.370415	-173.988918	-75.370415	-173.988918	-0.043685	-34.218981
2.100000	-0.044763	-35.038141	-74.637246	-175.052557	-74.637246	-175.052557	-0.044751	-35.032128
2.150000	-0.045831	-35.849721	-73.916795	-176.184322	-73.916795	-176.184322	-0.045819	-35.843591
2.200000	-0.046901	-36.660026	-73.220530	-177.357884	-73.220530	-177.357884	-0.046889	-36.653782
2.250000	-0.047973	-37.469039	-72.546817	-178.568099	-72.546817	-178.568099	-0.047961	-37.462683
2.300000	-0.049048	-38.276743	-71.894193	-179.810613	-71.894193	-179.810613	-0.049036	-38.270276
2.350000	-0.050126	-39.083122	-71.261337	178.918284	-71.261337	178.918284	-0.050113	-39.076546
2.400000	-0.051207	-39.888158	-70.647057	177.621773	-70.647057	177.621773	-0.051194	-39.881475
2.450000	-0.052292	-40.691836	-70.050268	176.302595	-70.050268	176.302595	-0.052279	-40.685048
2.500000	-0.053381	-41.494140	-69.469987	174.963131	-69.469987	174.963131	-0.053368	-41.487249
2.550000	-0.054474	-42.294995	-68.904401	173.604745	-68.904401	173.604745	-0.054461	-42.288002
2.600000	-0.055573	-43.094446	-68.353692	172.230104	-68.353692	172.230104	-0.055559	-43.087353
2.650000	-0.056676	-43.892478	-67.817093	170.840779	-67.817093	170.840779	-0.056662	-43.885287
2.700000	-0.057785	-44.689077	-67.293901	169.438161	-67.293901	169.438161	-0.057771	-44.681790
2.750000	-0.058899	-45.484231	-66.783464	168.023483	-66.783464	168.023483	-0.058886	-45.476850
2.800000	-0.060020	-46.277926	-66.285184	166.597846	-66.285184	166.597846	-0.060007	-46.270452
2.850000	-0.061148	-47.070150	-65.798502	165.162236	-65.798502	165.162236	-0.061134	-47.062586
2.900000	-0.062283	-47.860890	-65.322902	163.717535	-65.322902	163.717535	-0.062269	-47.853238
2.950000	-0.063425	-48.650137	-64.857904	162.264539	-64.857904	162.264539	-0.063411	-48.642397
3.000000	-0.064575	-49.437877	-64.403059	160.803965	-64.403059	160.803965	-0.064561	-49.430052
3.050000	-0.065733	-50.224100	-63.957949	159.336462	-63.957949	159.336462	-0.065720	-50.216193
3.100000	-0.066900	-51.008797	-63.522181	157.862622	-63.522181	157.862622	-0.066887	-51.000808
3.150000	-0.068076	-51.791957	-63.095389	156.382980	-63.095389	156.382980	-0.068063	-51.783889
3.200000	-0.069262	-52.573571	-62.677228	154.898025	-62.677228	154.898025	-0.069248	-52.565426
3.250000	-0.070457	-53.353630	-62.267374	153.408205	-62.267374	153.408205	-0.070443	-53.345409
3.300000	-0.071662	-54.132126	-61.865522	151.913930	-61.865522	151.913930	-0.071649	-54.123831
3.350000	-0.072881	-54.908774	-61.469622	150.414968	-61.469622	150.414968	-0.072867	-54.900407
3.400000	-0.074111	-55.683774	-61.080898	148.912120	-61.080898	148.912120	-0.074097	-55.675338
3.450000	-0.075347	-56.457944	-60.703964	147.407608	-60.703964	147.407608	-0.075334	-56.449440
3.500000	-0.076602	-57.229624	-60.328723	145.898104	-60.328723	145.898104	-0.076588	-57.221053
3.550000	-0.077861	-58.000745	-59.966020	144.387685	-59.966020	144.387685	-0.077848	-57.992109
3.600000	-0.079142	-58.769076	-59.603446	142.872686	-59.603446	142.872686	-0.079129	-58.760379
3.650000	-0.080426	-59.537126	-59.254009	141.357312	-59.254009	141.357312	-0.080413	-59.528368
3.700000	-0.081736	-60.302087	-58.903361	139.837808	-58.903361	139.837808	-0.081723	-60.293271
3.750000	-0.083046	-61.067048	-58.566320	138.318304	-58.566320	138.318304	-0.083032	-61.058175
3.800000	-0.084386	-61.828621	-58.226926	136.795148	-58.226926	136.795148	-0.084372	-61.819693
3.850000	-0.085726	-62.590193	-57.900296	135.271992	-57.900296	135.271992	-0.085713	-62.581212
3.900000	-0.087095	-63.348646	-57.572744	133.746162	-57.572744	133.746162	-0.087082	-63.339614
3.950000	-0.088468	-64.106815	-57.255980	132.220089	-57.255980	132.220089	-0.088455	-64.097734
4.000000	-0.089868	-64.862140	-56.939545	130.692120	-56.939545	130.692120	-0.089855	-64.853012
4.050000	-0.091275	-65.616896	-56.632146	129.163772	-56.632146	129.163772	-0.091262	-65.607723
4.100000	-0.092708	-66.369088	-56.326166	127.634136	-56.326166	127.634136	-0.092695	-66.359871
4.150000	-0.094150	-67.120425	-56.027673	126.104072	-56.027673	126.104072	-0.094137	-67.111166
4.200000	-0.095618	-67.869481	-55.731547	124.573190	-55.731547	124.573190	-0.095604	-67.860182
4.250000	-0.097098	-68.617396	-55.441534	123.041900	-55.441534	123.041900	-0.097084	-68.608059
4.300000	-0.098601	-69.363316	-55.154711	121.510149	-55.154711	121.510149	-0.098587	-69.353943
4.350000	-0.100120	-70.107812	-54.872784	119.978067	-54.872784	119.978067	-0.100107	-70.098404
4.400000	-0.101661	-70.850600	-54.594759	118.445781	-54.594759	118.445781	-0.101647	-70.841159
4.450000	-0.103222	-71.591681	-54.320553	116.913291	-54.320553	116.913291	-0.103208	-71.582210
4.500000	-0.104801	-72.331343	-54.050864	115.380773	-54.050864	115.380773	-0.104787	-72.321843
4.550000	-0.106405	-73.069020	-53.784037	113.848216	-53.784037	113.848216	-0.106392	-73.059492
4.600000	-0.108025	-73.805565	-53.522257	112.315737	-53.522257	112.315737	-0.108011	-73.796011
4.650000	-0.109674	-74.539850	-53.262494	110.783416	-53.262494	110.783416	-0.109660	-74.530272
4.700000	-0.111335	-75.273291	-53.008229	109.251223	-53.008229	109.251223	-0.111322	-75.263690
4.750000	-0.113032	-76.004201	-52.755233	107.719411	-52.755233	107.719411	-0.113018	-75.994580
4.800000	-0.114737	-76.734552	-52.508117	106.187725	-52.508117	106.187725	-0.114723	-76.724911
4.850000	-0.116482	-77.462107	-52.261611	104.656667	-52.261611	104.656667	-0.116468	-77.452449
4.900000	-0.118231	-78.189385	-52.021307	103.125690	-52.021307	103.125690	-0.118218	-78.179711
4.950000	-0.120027	-78.913611	-51.781032	101.595607	-51.781032	101.595607	-0.120013	-78.903922
5.000000	-0.121823	-79.637836	-51.547226	100.065524	-51.547226	100.065524	-0.121810	-79.628134
5.050000	-0.123672	-80.358758	-51.312939	98.536615	-51.312939	98.536615	-0.123658	-80.349046
5.100000	-0.125520	-81.079681	-51.084805	97.007706	-51.084805	97.007706	-0.125507	-81.069958
5.150000	-0.127419	-81.797604	-50.856809	95.480041	-50.856809	95.480041	-0.127405	-81.787873
5.200000	-0.129322	-82.515255	-50.634139	93.952488	-50.634139	93.952488	-0.129308	-82.505516
5.250000	-0.131271	-83.230207	-50.412155	92.426204	-50.412155	92.426204	-0.131257	-83.220463
5.300000	-0.133230	-83.944620	-50.194751	90.900173	-50.194751	90.900173	-0.133216	-83.934871
5.350000	-0.135232	-84.656632	-49.978519	89.375396	-49.978519	89.375396	-0.135218	-84.646881
5.400000	-0.137250	-85.367844	-49.766195	87.851038	-49.766195	87.851038	-0.137236	-85.358091
5.450000	-0.139306	-86.076950	-49.555473	86.327888	-49.555473	86.327888	-0.139292	-86.067197
5.500000	-0.141383	-86.785003	-49.348051	84.805341	-49.348051	84.805341	-0.141369	-86.775250
5.550000	-0.143496	-87.491237	-49.142611	83.283926	-49.142611	83.283926	-0.143482	-87.481487
5.600000	-0.145634	-88.196173	-48.939924	81.763318	-48.939924	81.763318	-0.145620	-88.186426
5.650000	-0.147804	-88.899574	-48.739552	80.243740	-48.739552	80.243740	-0.147790	-88.889832
5.700000	-0.150006	-89.601440	-48.541443	78.725189	-48.541443	78.725189	-0.149992	-89.591704
5.750000	-0.152235	-90.302048	-48.345939	77.207541	-48.345939	77.207541	-0.152221	-90.292318
5.800000	-0.154502	-91.000894	-48.152257	75.691156	-48.152257	75.691156	-0.154488	-90.991172
5.850000	-0.156791	-91.698750	-47.961432	74.175527	-47.961432	74.175527	-0.156777	-91.689037
5.900000	-0.159125	-92.394627	-47.772034	72.661408	-47.772034	72.661408	-0.159111	-92.384924
5.950000	-0.161476	-93.089776	-47.585711	71.147879	-47.585711	71.147879	-0.161462	-93.080084
6.000000	-0.163878	-93.782740	-47.400460	69.636120	-47.400460	69.636120	-0.163865	-93.773060
6.050000	-0.166293	-94.475228	-47.218471	68.124769	-47.218471	68.124769	-0.166279	-94.465561
6.100000	-0.168766	-95.165337	-47.037239	66.615456	-47.037239	66.615456	-0.168752	-95.155683
6.150000	-0.171245	-95.855212	-46.859425	65.106353	-46.859425	65.106353	-0.171232	-95.845572
6.200000	-0.173790	-96.542525	-46.682089	63.599566	-46.682089	63.599566	-0.173777	-96.532901
6.250000	-0.176336	-97.229838	-46.508301	62.092779	-46.508301	62.092779	-0.176323	-97.220229
6.300000	-0.178955	-97.914417	-46.334742	60.588593	-46.334742	60.588593	-0.178942	-97.904827
6.350000	-0.181575	-98.598997	-46.164583	59.084406	-46.164583	59.084406	-0.181562	-98.589424
6.400000	-0.184263	-99.281132	-45.994943	57.582665	-45.994943	57.582665	-0.184250	-99.271577
6.450000	-0.186959	-99.963044	-45.828309	56.081147	-45.828309	56.081147	-0.186946	-99.953508
6.500000	-0.189718	-100.642789	-45.662452	54.581905	-45.662452	54.581905	-0.189705	-100.633273
6.550000	-0.192491	-101.322101	-45.499241	53.083117	-45.499241	53.083117	-0.192478	-101.312604
6.600000	-0.195323	-101.999514	-45.337037	51.586422	-45.337037	51.586422	-0.195310	-101.990039
6.650000	-0.198175	-102.676296	-45.177152	50.090423	-45.177152	50.090423	-0.198162	-102.666842
6.700000	-0.201080	-103.351438	-45.018479	48.596317	-45.018479	48.596317	-0.201068	-103.342006
6.750000	-0.204013	-104.025761	-44.861828	47.103158	-44.861828	47.103158	-0.204000	-104.016351
6.800000	-0.206993	-104.698693	-44.706567	45.611683	-44.706567	45.611683	-0.206981	-104.689306
6.850000	-0.210008	-105.370632	-44.553061	44.121410	-44.553061	44.121410	-0.209996	-105.361268
6.900000	-0.213066	-106.041416	-44.401101	42.632601	-44.401101	42.632601	-0.213053	-106.032076
6.950000	-0.216165	-106.711047	-44.250654	41.145254	-44.250654	41.145254	-0.216153	-106.701731
7.000000	-0.219300	-107.379749	-44.101890	39.659142	-44.101890	39.659142	-0.219288	-107.370457
7.050000	-0.222484	-108.047151	-43.954420	38.174757	-43.954420	38.174757	-0.222472	-108.037883
7.100000	-0.225699	-108.713836	-43.808749	36.691368	-43.808749	36.691368	-0.225687	-108.704593
7.150000	-0.228971	-109.379089	-43.664177	35.209972	-43.664177	35.209972	-0.228959	-109.369871
7.200000	-0.232265	-110.043826	-43.521503	33.729330	-43.521503	33.729330	-0.232254	-110.034633
7.250000	-0.235626	-110.707012	-43.379753	32.250947	-43.379753	32.250947	-0.235614	-110.697845
7.300000	-0.239003	-111.369869	-43.239984	30.773068	-43.239984	30.773068	-0.238991	-111.360727
7.350000	-0.242454	-112.031074	-43.100982	29.297713	-43.100982	29.297713	-0.242442	-112.021958
7.400000	-0.245914	-112.692121	-42.964030	27.822611	-42.964030	27.822611	-0.245902	-112.683030
7.450000	-0.249456	-113.351431	-42.827705	26.350294	-42.827705	26.350294	-0.249445	-113.342366
7.500000	-0.253001	-114.010741	-42.693487	24.877976	-42.693487	24.877976	-0.252989	-114.001702
7.550000	-0.256637	-114.668245	-42.559772	23.408699	-42.559772	23.408699	-0.256625	-114.659231
7.600000	-0.260274	-115.325748	-42.428084	21.939422	-42.428084	21.939422	-0.260262	-115.316760
7.650000	-0.263997	-115.981678	-42.297035	20.472927	-42.297035	20.472927	-0.263985	-115.972716
7.700000	-0.267729	-116.637465	-42.167815	19.006686	-42.167815	19.006686	-0.267718	-116.628529
7.750000	-0.271541	-117.291899	-42.039356	17.542964	-42.039356	17.542964	-0.271529	-117.282988
7.800000	-0.275369	-117.946062	-41.912545	16.079746	-41.912545	16.079746	-0.275357	-117.937176
7.850000	-0.279269	-118.599077	-41.786600	14.618781	-41.786600	14.618781	-0.279257	-118.590217
7.900000	-0.283195	-119.251710	-41.662140	13.158567	-41.662140	13.158567	-0.283183	-119.242875
7.950000	-0.287186	-119.903386	-41.538640	11.700338	-41.538640	11.700338	-0.287174	-119.894576
8.000000	-0.291210	-120.554585	-41.416477	10.243101	-41.416477	10.243101	-0.291198	-120.545800
8.050000	-0.295293	-121.205004	-41.295353	8.787580	-41.295353	8.787580	-0.295280	-121.196243
8.100000	-0.299417	-121.854866	-41.175433	7.333285	-41.175433	7.333285	-0.299404	-121.846129
8.150000	-0.303592	-122.504110	-41.056622	5.880438	-41.056622	5.880438	-0.303579	-122.495397
8.200000	-0.307817	-123.152736	-40.938896	4.429041	-40.938896	4.429041	-0.307804	-123.144046
8.250000	-0.312085	-123.800888	-40.822336	2.978830	-40.822336	2.978830	-0.312072	-123.792222
8.300000	-0.316413	-124.448378	-40.706755	1.530280	-40.706755	1.530280	-0.316399	-124.439735
8.350000	-0.320776	-125.095524	-40.592388	0.082658	-40.592388	0.082658	-0.320762	-125.086903
8.400000	-0.325206	-125.741982	-40.478907	-1.363105	-40.478907	-1.363105	-0.325192	-125.733384
8.450000	-0.329664	-126.388209	-40.366678	-2.808189	-40.366678	-2.808189	-0.329650	-126.379632
8.500000	-0.334199	-127.033740	-40.255254	-4.251233	-40.255254	-4.251233	-0.334185	-127.025184
8.550000	-0.338754	-127.679135	-40.145111	-5.693836	-40.145111	-5.693836	-0.338739	-127.670600
8.600000	-0.343394	-128.323846	-40.035703	-7.134237	-40.035703	-7.134237	-0.343378	-128.315332
8.650000	-0.348045	-128.968498	-39.927596	-8.574424	-39.927596	-8.574424	-0.348029	-128.960004
8.700000	-0.352791	-129.612499	-39.820166	-10.012265	-39.820166	-10.012265	-0.352775	-129.604024
8.750000	-0.357540	-130.256500	-39.714049	-11.450106	-39.714049	-11.450106	-0.357523	-130.248044
8.800000	-0.362392	-130.899900	-39.608562	-12.885479	-39.608562	-12.885479	-0.362376	-130.891463
8.850000	-0.367248	-131.543301	-39.504340	-14.320851	-39.504340	-14.320851	-0.367231	-131.534882
8.900000	-0.372200	-132.186255	-39.400813	-15.754052	-39.400813	-15.754052	-0.372182	-132.177853
8.950000	-0.377163	-132.829169	-39.298457	-17.187055	-39.298457	-17.187055	-0.377145	-132.820784
9.000000	-0.382214	-133.471772	-39.196849	-18.618172	-39.196849	-18.618172	-0.382196	-133.463403
9.050000	-0.387285	-134.114313	-39.096329	-20.048911	-39.096329	-20.048911	-0.387266	-134.105960
9.100000	-0.392436	-134.756663	-38.996605	-21.478037	-38.996605	-21.478037	-0.392417	-134.748325
9.150000	-0.397616	-135.398949	-38.897897	-22.906625	-38.897897	-22.906625	-0.397596	-135.390626
9.200000	-0.402867	-136.041144	-38.800022	-24.333857	-38.800022	-24.333857	-0.402847	-136.032834
9.250000	-0.408155	-136.683293	-38.703102	-25.760411	-38.703102	-25.760411	-0.408135	-136.674997
9.300000	-0.413507	-137.325433	-38.607045	-27.185851	-38.607045	-27.185851	-0.413486	-137.317150
9.350000	-0.418905	-137.967567	-38.511894	-28.610495	-38.511894	-28.610495	-0.418884	-137.959296
9.400000	-0.424357	-138.609754	-38.417628	-30.034248	-38.417628	-30.034248	-0.424335	-138.601495
9.450000	-0.429864	-139.251995	-38.324230	-31.457110	-38.324230	-31.457110	-0.429842	-139.243748
9.500000	-0.435417	-139.894334	-38.231729	-32.879283	-38.231729	-32.879283	-0.435395	-139.886096
9.550000	-0.441033	-140.536808	-38.140070	-34.300494	-38.140070	-34.300494	-0.441010	-140.528580
9.600000	-0.446687	-141.179402	-38.049313	-35.721198	-38.049313	-35.721198	-0.446664	-141.171184
9.650000	-0.452412	-141.822237	-37.959384	-37.140890	-37.959384	-37.140890	-0.452389	-141.814027
9.700000	-0.458167	-142.465194	-37.870351	-38.560237	-37.870351	-38.560237	-0.458143	-142.456992
9.750000	-0.464001	-143.108519	-37.782145	-39.978547	-37.782145	-39.978547	-0.463977	-143.100325
9.800000	-0.469856	-143.751948	-37.694820	-41.396649	-37.694820	-41.396649	-0.469832	-143.743761
9.850000	-0.475799	-144.395896	-37.608334	-42.813711	-37.608334	-42.813711	-0.475774	-144.387715
9.900000	-0.481754	-145.039907	-37.522704	-44.230681	-37.522704	-44.230681	-0.481729	-145.031731
9.950000	-0.487805	-145.684612	-37.437940	-45.646629	-37.437940	-45.646629	-0.487780	-145.676442
10.000000	-0.493859	-146.329317	-37.353995	-47.062578	-37.353995	-47.062578	-0.493834	-146.321152
