! freq	dB(S11)	phase(S11)	dB(S12)	phase(S12)	
!     	dB(S21)	phase(S21)	dB(S22)	phase(S22)	
!S-par simulation data
#  GHz  S  DB  R 50
0.000000	-0.000000	0.000000	-362.014892	0.000000	-362.014892	0.000000	-0.000000	0.000000
0.050000	-0.006685	-1.172760	-109.018612	83.912674	-109.018612	83.912674	-0.001561	-0.781733
0.100000	-0.010815	-2.292862	-103.530818	83.821357	-103.530818	83.821357	-0.004198	-1.548368
0.150000	-0.012363	-3.412671	-100.246491	83.996567	-100.246491	83.996567	-0.006160	-2.306277
0.200000	-0.013217	-4.535214	-97.903455	83.874189	-97.903455	83.874189	-0.007459	-3.061908
0.250000	-0.013863	-5.659349	-96.108607	83.546662	-96.108607	83.546662	-0.008354	-3.817328
0.300000	-0.014474	-6.784083	-94.672919	83.125876	-94.672919	83.125876	-0.009069	-4.572990
0.350000	-0.015100	-7.908979	-93.497842	82.662256	-93.497842	82.662256	-0.009688	-5.328882
0.400000	-0.015768	-9.033703	-92.522489	82.196927	-92.522489	82.196927	-0.010268	-6.084899
0.450000	-0.016491	-10.158021	-91.707504	81.760838	-91.707504	81.760838	-0.010840	-6.840919
0.500000	-0.017271	-11.281756	-91.026249	81.380343	-91.026249	81.380343	-0.011422	-7.596835
0.550000	-0.018111	-12.404766	-90.460102	81.080560	-90.460102	81.080560	-0.012024	-8.352557
0.600000	-0.019011	-13.526928	-89.995758	80.887661	-89.995758	80.887661	-0.012652	-9.108007
0.650000	-0.019969	-14.648137	-89.623580	80.830734	-89.623580	80.830734	-0.013309	-9.863118
0.700000	-0.020983	-15.768294	-89.336508	80.943583	-89.336508	80.943583	-0.013997	-10.617831
0.750000	-0.022049	-16.887311	-89.129288	81.266694	-89.129288	81.266694	-0.014716	-11.372096
0.800000	-0.023166	-18.005106	-88.997827	81.849550	-88.997827	81.849550	-0.015465	-12.125866
0.850000	-0.024330	-19.121601	-88.938563	82.753403	-88.938563	82.753403	-0.016244	-12.879099
0.900000	-0.025537	-20.236723	-88.947706	84.054512	-88.947706	84.054512	-0.017052	-13.631756
0.950000	-0.026784	-21.350406	-89.020179	85.847615	-89.020179	85.847615	-0.017887	-14.383802
1.000000	-0.028068	-22.462582	-89.148054	88.248775	-89.148054	88.248775	-0.018747	-15.135203
1.050000	-0.029385	-23.573193	-89.318210	91.395559	-89.318210	91.395559	-0.019631	-15.885929
1.100000	-0.030732	-24.682180	-89.509040	95.440210	-89.509040	95.440210	-0.020537	-16.635952
1.150000	-0.032105	-25.789488	-89.686430	100.528223	-89.686430	100.528223	-0.021463	-17.385243
1.200000	-0.033501	-26.895067	-89.800523	106.752260	-89.800523	106.752260	-0.022408	-18.133778
1.250000	-0.034917	-27.998867	-89.787001	114.076421	-89.787001	114.076421	-0.023369	-18.881533
1.300000	-0.036350	-29.100762	-89.566973	122.264893	-89.566973	122.264893	-0.024345	-19.628451
1.350000	-0.037797	-30.200786	-89.101032	130.761189	-89.101032	130.761189	-0.025334	-20.374543
1.400000	-0.039254	-31.298898	-88.387638	138.961897	-88.387638	138.961897	-0.026334	-21.119791
1.450000	-0.040720	-32.395062	-87.468457	146.365992	-87.468457	146.365992	-0.027344	-21.864177
1.500000	-0.042192	-33.489241	-86.407709	152.693914	-86.407709	152.693914	-0.028361	-22.607682
1.550000	-0.043667	-34.581401	-85.268874	157.880703	-85.268874	157.880703	-0.029385	-23.350291
1.600000	-0.045144	-35.671512	-84.101729	162.001280	-84.101729	162.001280	-0.030414	-24.091988
1.650000	-0.046621	-36.759544	-82.939897	165.194038	-82.939897	165.194038	-0.031447	-24.832758
1.700000	-0.048096	-37.845468	-81.803678	167.610339	-81.803678	167.610339	-0.032482	-25.572589
1.750000	-0.049568	-38.929260	-80.704051	169.389418	-80.704051	169.389418	-0.033518	-26.311466
1.800000	-0.051036	-40.010893	-79.646058	170.649522	-79.646058	170.649522	-0.034554	-27.049378
1.850000	-0.052498	-41.090346	-78.631176	171.487187	-78.631176	171.487187	-0.035590	-27.786313
1.900000	-0.053954	-42.167597	-77.658861	171.979762	-77.658861	171.979762	-0.036624	-28.522260
1.950000	-0.055404	-43.242624	-76.727481	172.188791	-76.727481	172.188791	-0.037656	-29.257208
2.000000	-0.056847	-44.315410	-75.834884	172.163214	-75.834884	172.163214	-0.038685	-29.991146
2.050000	-0.058283	-45.385935	-74.978717	171.942081	-74.978717	171.942081	-0.039710	-30.724066
2.100000	-0.059711	-46.454183	-74.156613	171.556718	-74.156613	171.556718	-0.040732	-31.455958
2.150000	-0.061132	-47.520137	-73.366289	171.032428	-73.366289	171.032428	-0.041750	-32.186812
2.200000	-0.062546	-48.583783	-72.605593	170.389789	-72.605593	170.389789	-0.042763	-32.916621
2.250000	-0.063954	-49.645106	-71.872529	169.645665	-71.872529	169.645665	-0.043771	-33.645375
2.300000	-0.065356	-50.704093	-71.165259	168.813976	-71.165259	168.813976	-0.044775	-34.373067
2.350000	-0.066752	-51.760730	-70.482099	167.906294	-70.482099	167.906294	-0.045774	-35.099688
2.400000	-0.068144	-52.815005	-69.821509	166.932305	-69.821509	166.932305	-0.046769	-35.825230
2.450000	-0.069532	-53.866908	-69.182084	165.900171	-69.182084	165.900171	-0.047759	-36.549687
2.500000	-0.070917	-54.916428	-68.562541	164.816813	-68.562541	164.816813	-0.048746	-37.273049
2.550000	-0.072300	-55.963450	-67.960720	163.686399	-67.960720	163.686399	-0.049728	-37.995262
2.600000	-0.073683	-57.008068	-67.376651	162.516116	-67.376651	162.516116	-0.050707	-38.716366
2.650000	-0.075066	-58.050274	-66.809336	161.310249	-66.809336	161.310249	-0.051683	-39.436354
2.700000	-0.076451	-59.090060	-66.257864	160.072518	-66.257864	160.072518	-0.052657	-40.155217
2.750000	-0.077838	-60.127419	-65.721395	158.806169	-65.721395	158.806169	-0.053630	-40.872950
2.800000	-0.079230	-61.162345	-65.199157	157.514044	-65.199157	157.514044	-0.054601	-41.589544
2.850000	-0.080627	-62.194831	-64.690438	156.198643	-64.690438	156.198643	-0.055571	-42.304992
2.900000	-0.082030	-63.224872	-64.194580	154.862173	-64.194580	154.862173	-0.056543	-43.019289
2.950000	-0.083441	-64.252463	-63.710975	153.506587	-63.710975	153.506587	-0.057515	-43.732425
3.000000	-0.084861	-65.277602	-63.239058	152.133623	-63.239058	152.133623	-0.058489	-44.444395
3.050000	-0.086291	-66.300286	-62.778303	150.744830	-62.778303	150.744830	-0.059466	-45.155191
3.100000	-0.087732	-67.320511	-62.328223	149.341591	-62.328223	149.341591	-0.060446	-45.864805
3.150000	-0.089186	-68.338277	-61.888362	147.925148	-61.888362	147.925148	-0.061431	-46.573232
3.200000	-0.090653	-69.353584	-61.458294	146.496613	-61.458294	146.496613	-0.062422	-47.280463
3.250000	-0.092135	-70.366432	-61.037621	145.056991	-61.037621	145.056991	-0.063419	-47.986491
3.300000	-0.093632	-71.376821	-60.625969	143.607183	-60.625969	143.607183	-0.064423	-48.691310
3.350000	-0.095146	-72.384756	-60.222988	142.148007	-60.222988	142.148007	-0.065436	-49.394912
3.400000	-0.096677	-73.390238	-59.828349	140.680197	-59.828349	140.680197	-0.066457	-50.097290
3.450000	-0.098227	-74.393272	-59.441741	139.204419	-59.441741	139.204419	-0.067489	-50.798437
3.500000	-0.099797	-75.393862	-59.062873	137.721274	-59.062873	137.721274	-0.068533	-51.498346
3.550000	-0.101386	-76.392017	-58.691467	136.231302	-58.691467	136.231302	-0.069589	-52.197010
3.600000	-0.102997	-77.387741	-58.327263	134.734993	-58.327263	134.734993	-0.070658	-52.894421
3.650000	-0.104629	-78.381045	-57.970015	133.232781	-57.970015	133.232781	-0.071741	-53.590573
3.700000	-0.106284	-79.371936	-57.619487	131.725057	-57.619487	131.725057	-0.072840	-54.285459
3.750000	-0.107962	-80.360426	-57.275458	130.212165	-57.275458	130.212165	-0.073954	-54.979072
3.800000	-0.109664	-81.346423	-56.937421	128.694208	-56.937421	128.694208	-0.075087	-55.671348
3.850000	-0.111391	-82.330043	-56.605495	127.171663	-56.605495	127.171663	-0.076239	-56.362337
3.900000	-0.113143	-83.311302	-56.279486	125.644741	-56.279486	125.644741	-0.077409	-57.052031
3.950000	-0.114920	-84.290213	-55.959210	124.113611	-55.959210	124.113611	-0.078600	-57.740424
4.000000	-0.116723	-85.266793	-55.644492	122.578396	-55.644492	122.578396	-0.079812	-58.427509
4.050000	-0.118552	-86.241059	-55.335163	121.039173	-55.335163	121.039173	-0.081047	-59.113279
4.100000	-0.120408	-87.213029	-55.031062	119.495965	-55.031062	119.495965	-0.082304	-59.797727
4.150000	-0.122291	-88.182723	-54.732033	117.948741	-54.732033	117.948741	-0.083586	-60.480848
4.200000	-0.124201	-89.150162	-54.437925	116.397400	-54.437925	116.397400	-0.084892	-61.162634
4.250000	-0.126139	-90.115366	-54.148593	114.841769	-54.148593	114.841769	-0.086224	-61.843079
4.300000	-0.128105	-91.078359	-53.863893	113.281580	-53.863893	113.281580	-0.087582	-62.522176
4.350000	-0.130100	-92.039165	-53.583684	111.716456	-53.583684	111.716456	-0.088968	-63.199920
4.400000	-0.132123	-92.997808	-53.307822	110.145884	-53.307822	110.145884	-0.090382	-63.876303
4.450000	-0.134175	-93.954315	-53.036162	108.569178	-53.036162	108.569178	-0.091825	-64.551319
4.500000	-0.136256	-94.908712	-52.768549	106.985429	-52.768549	106.985429	-0.093297	-65.224962
4.550000	-0.138367	-95.861028	-52.504813	105.393443	-52.504813	105.393443	-0.094800	-65.897225
4.600000	-0.140508	-96.811291	-52.244759	103.791642	-52.244759	103.791642	-0.096334	-66.568102
4.650000	-0.142678	-97.759531	-51.988150	102.177938	-51.988150	102.177938	-0.097899	-67.237587
4.700000	-0.144879	-98.705780	-51.734678	100.549541	-51.734678	100.549541	-0.099497	-67.905672
4.750000	-0.147111	-99.650070	-51.483917	98.902701	-51.483917	98.902701	-0.101127	-68.572351
4.800000	-0.149373	-100.592433	-51.235238	97.232334	-51.235238	97.232334	-0.102790	-69.237617
4.850000	-0.151666	-101.532903	-50.987663	95.531522	-50.987663	95.531522	-0.104487	-69.901464
4.900000	-0.153991	-102.471516	-50.739571	93.790918	-50.739571	93.790918	-0.106217	-70.563883
4.950000	-0.156348	-103.408306	-50.488160	91.998301	-50.488160	91.998301	-0.107982	-71.224868
5.000000	-0.158736	-104.343311	-50.228361	90.139356	-50.228361	90.139356	-0.109780	-71.884410
5.050000	-0.161158	-105.276493	-49.948597	88.201524	-49.948597	88.201524	-0.111613	-72.542439
5.100000	-0.163613	-106.207969	-49.630143	86.220725	-49.630143	86.220725	-0.113480	-73.199010
5.150000	-0.166101	-107.137778	-49.244475	84.388194	-49.244475	84.388194	-0.115380	-73.854113
5.200000	-0.168622	-108.065959	-48.792794	83.245660	-48.792794	83.245660	-0.117313	-74.507741
5.250000	-0.171177	-108.992554	-48.403367	83.233864	-48.403367	83.233864	-0.119277	-75.159885
5.300000	-0.173766	-109.917604	-48.206480	83.506709	-48.206480	83.506709	-0.121272	-75.810536
5.350000	-0.176389	-110.841151	-48.128882	83.107339	-48.128882	83.107339	-0.123295	-76.459688
5.400000	-0.179047	-111.763239	-48.061540	82.014735	-48.061540	82.014735	-0.125344	-77.107332
5.450000	-0.181740	-112.683911	-47.963229	80.557281	-47.963229	80.557281	-0.127418	-77.753462
5.500000	-0.184469	-113.603211	-47.835171	78.962011	-47.835171	78.962011	-0.129512	-78.398075
5.550000	-0.187234	-114.521186	-47.686906	77.327721	-47.686906	77.327721	-0.131624	-79.041169
5.600000	-0.190035	-115.437880	-47.526091	75.691082	-47.526091	75.691082	-0.133750	-79.682745
5.650000	-0.192873	-116.353340	-47.357718	74.064358	-47.357718	74.064358	-0.135885	-80.322809
5.700000	-0.195749	-117.267613	-47.184924	72.450719	-47.184924	72.450719	-0.138024	-80.961374
5.750000	-0.198662	-118.180748	-47.009692	70.850067	-47.009692	70.850067	-0.140161	-81.598458
5.800000	-0.201614	-119.092793	-46.833301	69.261243	-46.833301	69.261243	-0.142292	-82.234087
5.850000	-0.204611	-120.003632	-46.656063	67.684286	-46.656063	67.684286	-0.144406	-82.868068
5.900000	-0.207649	-120.913437	-46.478967	66.116796	-46.478967	66.116796	-0.146503	-83.500620
5.950000	-0.210709	-121.822773	-46.304004	64.553061	-46.304004	64.553061	-0.148588	-84.132512
6.000000	-0.213831	-122.730700	-46.128364	63.000588	-46.128364	63.000588	-0.150636	-84.762426
6.050000	-0.216968	-123.638351	-45.955421	61.450043	-45.955421	61.450043	-0.152677	-85.391953
6.100000	-0.220176	-124.544625	-45.782012	59.909138	-45.782012	59.909138	-0.154676	-86.019549
6.150000	-0.223393	-125.450781	-45.611652	58.368999	-45.611652	58.368999	-0.156673	-86.646979
6.200000	-0.226689	-126.355638	-45.440840	56.837281	-45.440840	56.837281	-0.158643	-87.272582
6.250000	-0.229987	-127.260494	-45.273322	55.305563	-45.273322	55.305563	-0.160614	-87.898186
6.300000	-0.233373	-128.164173	-45.105260	53.781351	-45.105260	53.781351	-0.162593	-88.522047
6.350000	-0.236762	-129.067852	-44.940388	52.257140	-44.940388	52.257140	-0.164572	-89.145909
6.400000	-0.240234	-129.970678	-44.775404	50.738682	-44.775404	50.738682	-0.166604	-89.768282
6.450000	-0.243715	-130.873427	-44.613212	49.220748	-44.613212	49.220748	-0.168640	-90.390520
6.500000	-0.247275	-131.775614	-44.451238	47.707254	-44.451238	47.707254	-0.170759	-91.011389
6.550000	-0.250852	-132.677688	-44.291689	46.194648	-44.291689	46.194648	-0.172895	-91.631985
6.600000	-0.254501	-133.579453	-44.132621	44.685453	-44.132621	44.685453	-0.175129	-92.251270
6.650000	-0.258175	-134.481116	-43.975629	43.177395	-43.975629	43.177395	-0.177395	-92.870117
6.700000	-0.261916	-135.382686	-43.819334	41.671903	-43.819334	41.671903	-0.179756	-93.487718
6.750000	-0.265691	-136.284209	-43.664776	40.167693	-43.664776	40.167693	-0.182165	-94.104694
6.800000	-0.269525	-137.185816	-43.511097	38.665329	-43.511097	38.665329	-0.184657	-94.720527
6.850000	-0.273402	-138.087483	-43.358811	37.164281	-43.358811	37.164281	-0.187208	-95.335542
6.900000	-0.277332	-138.989370	-43.207566	35.664443	-43.207566	35.664443	-0.189827	-95.949564
6.950000	-0.281314	-139.891475	-43.057354	34.165813	-43.057354	34.165813	-0.192512	-96.562593
7.000000	-0.285342	-140.793892	-42.908332	32.667823	-42.908332	32.667823	-0.195248	-97.174811
7.050000	-0.289432	-141.696745	-42.759947	31.170730	-42.759947	31.170730	-0.198056	-97.785896
7.100000	-0.293551	-142.599853	-42.613206	29.673796	-42.613206	29.673796	-0.200891	-98.396517
7.150000	-0.297740	-143.503649	-42.466710	28.177143	-42.466710	28.177143	-0.203797	-99.005955
7.200000	-0.301984	-144.408063	-42.320931	26.680269	-42.320931	26.680269	-0.206751	-99.614565
7.250000	-0.306283	-145.313175	-42.175770	25.182786	-42.175770	25.182786	-0.209752	-100.222395
7.300000	-0.310637	-146.219070	-42.031118	23.684240	-42.031118	23.684240	-0.212796	-100.829499
7.350000	-0.315049	-147.125834	-41.886849	22.184089	-41.886849	22.184089	-0.215882	-101.435941
7.400000	-0.319517	-148.033559	-41.742823	20.681683	-41.742823	20.681683	-0.219009	-102.041795
7.450000	-0.324045	-148.942339	-41.598875	19.176240	-41.598875	19.176240	-0.222174	-102.647143
7.500000	-0.328633	-149.852274	-41.454819	17.666808	-41.454819	17.666808	-0.225377	-103.252083
7.550000	-0.333285	-150.763529	-41.310303	16.151925	-41.310303	16.151925	-0.228618	-103.856720
7.600000	-0.338001	-151.676166	-41.165173	14.630280	-41.165173	14.630280	-0.231895	-104.461204
7.650000	-0.342783	-152.590304	-41.019114	13.100013	-41.019114	13.100013	-0.235209	-105.065694
7.700000	-0.347632	-153.506072	-40.871755	11.558783	-40.871755	11.558783	-0.238560	-105.670376
7.750000	-0.352552	-154.423607	-40.722642	10.003606	-40.722642	10.003606	-0.241949	-106.275478
7.800000	-0.357547	-155.343061	-40.571226	8.430643	-40.571226	8.430643	-0.245380	-106.881276
7.850000	-0.362620	-156.264600	-40.416831	6.834897	-40.416831	6.834897	-0.248856	-107.488114
7.900000	-0.367778	-157.188409	-40.258615	5.209771	-40.258615	5.209771	-0.252386	-108.096426
7.950000	-0.373028	-158.114697	-40.095516	3.546430	-40.095516	3.546430	-0.255981	-108.706767
8.000000	-0.378378	-159.043701	-39.926182	1.832837	-39.926182	1.832837	-0.259658	-109.319865
8.050000	-0.383840	-159.975699	-39.748859	0.052267	-39.748859	0.052267	-0.263449	-109.936693
8.100000	-0.389433	-160.911020	-39.561248	-1.819050	-39.561248	-1.819050	-0.267402	-110.558585
8.150000	-0.395156	-161.849513	-39.363185	-3.793190	-39.363185	-3.793190	-0.271553	-111.186179
8.200000	-0.401088	-162.792735	-39.145280	-5.959692	-39.145280	-5.959692	-0.276117	-111.824269
8.250000	-0.407264	-163.740795	-38.904296	-8.381721	-38.904296	-8.381721	-0.281326	-112.475923
8.300000	-0.413775	-164.694524	-38.632357	-11.190705	-38.632357	-11.190705	-0.287694	-113.147389
8.350000	-0.420771	-165.654835	-38.320459	-14.589894	-38.320459	-14.589894	-0.296192	-113.847610
8.400000	-0.428607	-166.623613	-37.952284	-19.037043	-37.952284	-19.037043	-0.309396	-114.594959
8.450000	-0.437968	-167.602196	-37.521316	-25.336766	-37.521316	-25.336766	-0.333236	-115.413784
8.500000	-0.450629	-168.589927	-37.066595	-35.437075	-37.066595	-35.437075	-0.385461	-116.330571
8.550000	-0.470160	-169.564693	-36.958668	-53.800344	-36.958668	-53.800344	-0.513746	-117.206554
8.600000	-0.491489	-170.435543	-39.263989	-86.777963	-39.263989	-86.777963	-0.721105	-116.991353
8.650000	-0.487546	-171.293273	-49.931761	-122.584769	-49.931761	-122.584769	-0.679559	-115.894080
8.700000	-0.481609	-172.295918	-52.727229	35.143138	-52.727229	35.143138	-0.537623	-116.087907
8.750000	-0.484672	-173.344163	-45.633364	24.584067	-45.633364	24.584067	-0.461590	-116.766847
8.800000	-0.492999	-174.408701	-43.154050	18.808947	-43.154050	18.808947	-0.425407	-117.489618
8.850000	-0.505285	-175.494270	-41.755686	15.719849	-41.755686	15.719849	-0.407913	-118.186445
8.900000	-0.521946	-176.610108	-40.715068	14.264041	-40.715068	14.264041	-0.399458	-118.856229
8.950000	-0.545264	-177.770287	-39.763323	14.021605	-39.763323	14.021605	-0.396423	-119.503638
9.000000	-0.580744	-178.995752	-38.707256	14.660783	-38.707256	14.660783	-0.397139	-120.131970
9.050000	-0.640242	179.693656	-37.357196	15.527164	-37.357196	15.527164	-0.400812	-120.741649
9.100000	-0.752411	178.316395	-35.501939	15.026671	-35.501939	15.026671	-0.407119	-121.324964
9.150000	-0.978628	177.197773	-33.054279	9.263030	-33.054279	9.263030	-0.413919	-121.858077
9.200000	-1.289972	177.829149	-30.798252	-7.793934	-30.798252	-7.793934	-0.409320	-122.333076
9.250000	-1.194901	179.890539	-30.702988	-31.403952	-30.702988	-31.403952	-0.388564	-122.907033
9.300000	-0.890157	179.599750	-32.254353	-45.983460	-32.254353	-45.983460	-0.380443	-123.585341
9.350000	-0.725412	178.254891	-33.749022	-51.884591	-33.749022	-51.884591	-0.383133	-124.241480
9.400000	-0.650406	176.853876	-34.811617	-54.007273	-34.811617	-54.007273	-0.388604	-124.868071
9.450000	-0.614717	175.540344	-35.526479	-54.766539	-35.526479	-54.766539	-0.394565	-125.477765
9.500000	-0.597268	174.304540	-36.004339	-55.098606	-36.004339	-55.098606	-0.400545	-126.077911
9.550000	-0.589148	173.124200	-36.323571	-55.363523	-36.323571	-55.363523	-0.406480	-126.672223
9.600000	-0.586060	171.980628	-36.539657	-55.690388	-36.539657	-55.690388	-0.412390	-127.262828
9.650000	-0.585973	170.862092	-36.685229	-56.117685	-36.685229	-56.117685	-0.418308	-127.850866
9.700000	-0.587862	169.761396	-36.779362	-56.656130	-36.779362	-56.656130	-0.424261	-128.436962
9.750000	-0.591028	168.672530	-36.837763	-57.296042	-36.837763	-57.296042	-0.430275	-129.021639
9.800000	-0.595049	167.591302	-36.871133	-58.022238	-36.871133	-58.022238	-0.436362	-129.605272
9.850000	-0.599691	166.515055	-36.885842	-58.823174	-36.885842	-58.823174	-0.442536	-130.188093
9.900000	-0.604801	165.441794	-36.886484	-59.688191	-36.886484	-59.688191	-0.448806	-130.770282
9.950000	-0.610271	164.369992	-36.876424	-60.607894	-36.876424	-60.607894	-0.455183	-131.351986
10.000000	-0.616026	163.298452	-36.858162	-61.574186	-36.858162	-61.574186	-0.461673	-131.933323
