! freq	dB(S11)	phase(S11)	dB(S12)	phase(S12)	
!     	dB(S21)	phase(S21)	dB(S22)	phase(S22)	
!S-par simulation data
#  GHz  S  DB  R 50
0.000000	-0.000000	0.000000	-344.333150	0.000000	-344.333150	0.000000	-0.000000	0.000000
0.050000	-0.000127	-1.046924	-110.367332	89.009237	-110.367332	89.009237	-0.000125	-1.046334
0.100000	-0.000502	-2.093534	-104.393610	88.027974	-104.393610	88.027974	-0.000494	-2.092364
0.150000	-0.001111	-3.139540	-100.950002	87.065927	-100.950002	87.065927	-0.001095	-3.137805
0.200000	-0.001933	-4.184694	-98.560337	86.133000	-98.560337	86.133000	-0.001905	-4.182413
0.250000	-0.002953	-5.228709	-96.768514	85.243192	-96.768514	85.243192	-0.002913	-5.225907
0.300000	-0.004125	-6.271516	-95.361591	84.405540	-95.361591	84.405540	-0.004073	-6.268217
0.350000	-0.005428	-7.312951	-94.234818	83.636404	-94.234818	83.636404	-0.005365	-7.309173
0.400000	-0.006835	-8.352928	-93.324591	82.953439	-93.324591	82.953439	-0.006762	-8.348690
0.450000	-0.008319	-9.391400	-92.591004	82.378055	-92.591004	82.378055	-0.008238	-9.386715
0.500000	-0.009856	-10.428348	-92.008022	81.936728	-92.008022	81.936728	-0.009770	-10.423224
0.550000	-0.011427	-11.463773	-91.558384	81.662799	-91.558384	81.662799	-0.011338	-11.458214
0.600000	-0.013015	-12.497691	-91.230722	81.598989	-91.230722	81.598989	-0.012926	-12.491696
0.650000	-0.014608	-13.530125	-91.017793	81.800958	-91.017793	81.800958	-0.014520	-13.523691
0.700000	-0.016195	-14.561099	-90.915227	82.342364	-90.915227	82.342364	-0.016110	-14.554221
0.750000	-0.017769	-15.590638	-90.920405	83.322045	-90.920405	83.322045	-0.017688	-15.583309
0.800000	-0.019325	-16.618764	-91.031046	84.874001	-91.031046	84.874001	-0.019249	-16.610977
0.850000	-0.020860	-17.645493	-91.242905	87.180464	-91.242905	87.180464	-0.020790	-17.637240
0.900000	-0.022372	-18.670836	-91.545576	90.486349	-91.545576	90.486349	-0.022308	-18.662109
0.950000	-0.023861	-19.694797	-91.914815	95.107068	-91.914815	95.107068	-0.023803	-19.685590
1.000000	-0.025327	-20.717375	-92.299747	101.405947	-92.299747	101.405947	-0.025274	-20.707681
1.050000	-0.026770	-21.738562	-92.606546	109.691294	-92.606546	109.691294	-0.026722	-21.728379
1.100000	-0.028192	-22.758349	-92.692191	119.976316	-92.692191	119.976316	-0.028148	-22.747672
1.150000	-0.029593	-23.776718	-92.399737	131.656415	-92.399737	131.656415	-0.029554	-23.765544
1.200000	-0.030977	-24.793650	-91.647652	143.452857	-91.647652	143.452857	-0.030941	-24.781979
1.250000	-0.032344	-25.809122	-90.495270	153.987114	-90.495270	153.987114	-0.032311	-25.796952
1.300000	-0.033695	-26.823043	-89.080100	162.412439	-89.080100	162.412439	-0.033664	-26.810375
1.350000	-0.035033	-27.835447	-87.572030	168.801159	-87.572030	168.801159	-0.035003	-27.822283
1.400000	-0.036359	-28.846307	-86.065305	173.477385	-86.065305	173.477385	-0.036330	-28.832648
1.450000	-0.037674	-29.855591	-84.608329	176.813516	-84.608329	176.813516	-0.037645	-29.841440
1.500000	-0.038980	-30.863268	-83.221361	179.129507	-83.221361	179.129507	-0.038951	-30.848628
1.550000	-0.040278	-31.869307	-81.909853	-179.327003	-81.909853	-179.327003	-0.040249	-31.854181
1.600000	-0.041570	-32.873675	-80.672214	-178.371930	-80.672214	-178.371930	-0.041540	-32.858067
1.650000	-0.042855	-33.876341	-79.503856	-177.870030	-79.503856	-177.870030	-0.042824	-33.860253
1.700000	-0.044136	-34.877272	-78.399185	-177.721726	-78.399185	-177.721726	-0.044104	-34.860709
1.750000	-0.045413	-35.876437	-77.352542	-177.853054	-77.352542	-177.853054	-0.045379	-35.859402
1.800000	-0.046686	-36.873804	-76.358603	-178.208419	-76.358603	-178.208419	-0.046651	-36.856302
1.850000	-0.047957	-37.869343	-75.412534	-178.745488	-75.412534	-178.745488	-0.047920	-37.851378
1.900000	-0.049227	-38.863024	-74.510017	-179.431604	-74.510017	-179.431604	-0.049188	-38.844599
1.950000	-0.050495	-39.854818	-73.647229	179.758749	-73.647229	179.758749	-0.050455	-39.835937
2.000000	-0.051763	-40.844695	-72.820795	178.845748	-72.820795	178.845748	-0.051721	-40.825361
2.050000	-0.053031	-41.832628	-72.027733	177.845532	-72.027733	177.845532	-0.052987	-41.812846
2.100000	-0.054300	-42.818591	-71.265407	176.771140	-71.265407	176.771140	-0.054254	-42.798363
2.150000	-0.055570	-43.802556	-70.531482	175.633220	-70.531482	175.633220	-0.055523	-43.781886
2.200000	-0.056841	-44.784499	-69.823881	174.440537	-69.823881	174.440537	-0.056793	-44.763390
2.250000	-0.058115	-45.764395	-69.140751	173.200375	-69.140751	173.200375	-0.058066	-45.742851
2.300000	-0.059392	-46.742222	-68.480435	171.918830	-68.480435	171.918830	-0.059341	-46.720244
2.350000	-0.060671	-47.717956	-67.841443	170.601043	-67.841443	170.601043	-0.060620	-47.695549
2.400000	-0.061955	-48.691576	-67.222433	169.251379	-67.222433	169.251379	-0.061902	-48.668742
2.450000	-0.063242	-49.663062	-66.622191	167.873566	-66.622191	167.873566	-0.063189	-49.639803
2.500000	-0.064534	-50.632395	-66.039618	166.470809	-66.039618	166.470809	-0.064480	-50.608713
2.550000	-0.065831	-51.599460	-65.472837	165.045027	-65.472837	165.045027	-0.065777	-51.575359
2.600000	-0.067134	-52.564334	-64.921904	163.599663	-64.921904	163.599663	-0.067079	-52.539815
2.650000	-0.068443	-53.527001	-64.385971	162.136783	-64.385971	162.136783	-0.068387	-53.502066
2.700000	-0.069758	-54.487444	-63.864262	160.658199	-63.864262	160.658199	-0.069702	-54.462097
2.750000	-0.071081	-55.445650	-63.356062	159.165510	-63.356062	159.165510	-0.071024	-55.419892
2.800000	-0.072410	-56.401605	-62.860712	157.660130	-62.860712	157.660130	-0.072353	-56.375438
2.850000	-0.073748	-57.355297	-62.377604	156.143318	-62.377604	156.143318	-0.073691	-57.328722
2.900000	-0.075094	-58.306714	-61.906175	154.616196	-61.906175	154.616196	-0.075036	-58.279734
2.950000	-0.076448	-59.255845	-61.445901	153.079766	-61.445901	153.079766	-0.076391	-59.228461
3.000000	-0.077813	-60.202682	-60.996296	151.534928	-60.996296	151.534928	-0.077755	-60.174896
3.050000	-0.079186	-61.147214	-60.556907	149.982493	-60.556907	149.982493	-0.079129	-61.119029
3.100000	-0.080571	-62.089435	-60.127311	148.423193	-60.127311	148.423193	-0.080513	-62.060852
3.150000	-0.081966	-63.029338	-59.707112	146.857689	-59.707112	146.857689	-0.081908	-63.000358
3.200000	-0.083372	-63.966917	-59.295939	145.286581	-59.295939	145.286581	-0.083314	-63.937543
3.250000	-0.084791	-64.902167	-58.893445	143.710417	-58.893445	143.710417	-0.084732	-64.872400
3.300000	-0.086221	-65.835084	-58.499303	142.129694	-58.499303	142.129694	-0.086163	-65.804926
3.350000	-0.087665	-66.765665	-58.113206	140.544866	-58.113206	140.544866	-0.087606	-66.735117
3.400000	-0.089122	-67.693907	-57.734864	138.956352	-57.734864	138.956352	-0.089063	-67.662972
3.450000	-0.090592	-68.619811	-57.364004	137.364531	-57.364004	137.364531	-0.090533	-68.588490
3.500000	-0.092078	-69.543374	-57.000366	135.769756	-57.000366	135.769756	-0.092018	-69.511669
3.550000	-0.093578	-70.464599	-56.643707	134.172351	-56.643707	134.172351	-0.093518	-70.432511
3.600000	-0.095094	-71.383485	-56.293796	132.572612	-56.293796	132.572612	-0.095034	-71.351017
3.650000	-0.096625	-72.300036	-55.950412	130.970816	-55.950412	130.970816	-0.096565	-72.267189
3.700000	-0.098173	-73.214255	-55.613348	129.367218	-55.613348	129.367218	-0.098112	-73.181030
3.750000	-0.099739	-74.126145	-55.282405	127.762054	-55.282405	127.762054	-0.099677	-74.092544
3.800000	-0.101322	-75.035610	-54.957126	126.155494	-54.957126	126.155494	-0.101260	-75.001636
3.850000	-0.102924	-75.942759	-54.637622	124.547808	-54.637622	124.547808	-0.102861	-75.908411
3.900000	-0.104544	-76.847596	-54.323722	122.939184	-54.323722	122.939184	-0.104481	-76.812878
3.950000	-0.106184	-77.750130	-54.015259	121.329796	-54.015259	121.329796	-0.106119	-77.715043
4.000000	-0.107843	-78.650368	-53.712079	119.719809	-53.712079	119.719809	-0.107778	-78.614914
4.050000	-0.109522	-79.548320	-53.414030	118.109374	-53.414030	118.109374	-0.109456	-79.512500
4.100000	-0.111223	-80.443996	-53.120969	116.498634	-53.120969	116.498634	-0.111155	-80.407811
4.150000	-0.112944	-81.337406	-52.832761	114.887723	-52.832761	114.887723	-0.112876	-81.300858
4.200000	-0.114687	-82.228561	-52.549272	113.276766	-52.549272	113.276766	-0.114618	-82.191651
4.250000	-0.116452	-83.117473	-52.270378	111.665879	-52.270378	111.665879	-0.116382	-83.080204
4.300000	-0.118241	-84.004155	-51.995957	110.055174	-51.995957	110.055174	-0.118169	-83.966527
4.350000	-0.120052	-84.888621	-51.725895	108.444754	-51.725895	108.444754	-0.119979	-84.850636
4.400000	-0.121887	-85.770885	-51.460080	106.834715	-51.460080	106.834715	-0.121813	-85.732544
4.450000	-0.123747	-86.650962	-51.198405	105.225150	-51.198405	105.225150	-0.123672	-86.612266
4.500000	-0.125631	-87.528867	-50.940768	103.616144	-50.940768	103.616144	-0.125554	-87.489818
4.550000	-0.127541	-88.404617	-50.687071	102.007778	-50.687071	102.007778	-0.127463	-88.365216
4.600000	-0.129476	-89.278228	-50.437217	100.400130	-50.437217	100.400130	-0.129397	-89.238477
4.650000	-0.131438	-90.149719	-50.191117	98.793270	-50.191117	98.793270	-0.131357	-90.109618
4.700000	-0.133426	-91.019108	-49.948681	97.187267	-49.948681	97.187267	-0.133344	-90.978658
4.750000	-0.135442	-91.886414	-49.709824	95.582185	-49.709824	95.582185	-0.135358	-91.845616
4.800000	-0.137485	-92.751656	-49.474466	93.978085	-49.474466	93.978085	-0.137400	-92.710511
4.850000	-0.139557	-93.614855	-49.242526	92.375024	-49.242526	92.375024	-0.139470	-93.573364
4.900000	-0.141657	-94.476031	-49.013929	90.773056	-49.013929	90.773056	-0.141568	-94.434195
4.950000	-0.143786	-95.335206	-48.788601	89.172232	-48.788601	89.172232	-0.143696	-95.293026
5.000000	-0.145945	-96.192403	-48.566470	87.572601	-48.566470	87.572601	-0.145853	-96.149878
5.050000	-0.148135	-97.047559	-48.347364	85.974264	-48.347364	85.974264	-0.148042	-97.004691
5.100000	-0.150356	-97.900784	-48.131328	84.377212	-48.131328	84.377212	-0.150261	-97.857574
5.150000	-0.152607	-98.752103	-47.918297	82.781487	-47.918297	82.781487	-0.152511	-98.708550
5.200000	-0.154890	-99.601539	-47.708208	81.187126	-47.708208	81.187126	-0.154793	-99.557644
5.250000	-0.157206	-100.449118	-47.501000	79.594165	-47.501000	79.594165	-0.157106	-100.404881
5.300000	-0.159553	-101.294864	-47.296616	78.002640	-47.296616	78.002640	-0.159452	-101.250286
5.350000	-0.161933	-102.138805	-47.094996	76.412583	-47.094996	76.412583	-0.161831	-102.093885
5.400000	-0.164346	-102.980967	-46.896088	74.824025	-46.896088	74.824025	-0.164242	-102.935706
5.450000	-0.166805	-103.820780	-46.699223	73.237539	-46.699223	73.237539	-0.166700	-103.775177
5.500000	-0.169282	-104.659688	-46.505815	71.651859	-46.505815	71.651859	-0.169175	-104.613745
5.550000	-0.171800	-105.496546	-46.314600	70.068117	-46.314600	70.068117	-0.171692	-105.450260
5.600000	-0.174349	-106.331939	-46.126094	68.485758	-46.126094	68.485758	-0.174239	-106.285311
5.650000	-0.176935	-107.165637	-45.939988	66.905111	-45.939988	66.905111	-0.176824	-107.118667
5.700000	-0.179558	-107.997641	-45.756216	65.326175	-45.756216	65.326175	-0.179445	-107.950328
5.750000	-0.182213	-108.828287	-45.575013	63.748702	-45.575013	63.748702	-0.182099	-108.780631
5.800000	-0.184912	-109.657033	-45.395816	62.173277	-45.395816	62.173277	-0.184796	-109.609033
5.850000	-0.187637	-110.484739	-45.219325	60.599049	-45.219325	60.599049	-0.187520	-110.436394
5.900000	-0.190413	-111.310362	-45.044552	59.027215	-45.044552	59.027215	-0.190295	-111.261672
5.950000	-0.193210	-112.135240	-44.872591	57.456295	-44.872591	57.456295	-0.193090	-112.086204
6.000000	-0.196066	-112.957881	-44.702099	55.888119	-44.702099	55.888119	-0.195944	-112.908497
6.050000	-0.198936	-113.780048	-44.534497	54.320562	-44.534497	54.320562	-0.198812	-113.730317
6.100000	-0.201872	-114.599849	-44.368149	52.756103	-44.368149	52.756103	-0.201748	-114.549768
6.150000	-0.204816	-115.419425	-44.204746	51.191958	-44.204746	51.191958	-0.204691	-115.368995
6.200000	-0.207836	-116.236533	-44.042412	49.631267	-44.042412	49.631267	-0.207708	-116.185751
6.250000	-0.210856	-117.053641	-43.883056	48.070576	-43.883056	48.070576	-0.210727	-117.002507
6.300000	-0.213959	-117.868207	-43.724613	46.513693	-43.724613	46.513693	-0.213829	-117.816718
6.350000	-0.217063	-118.682774	-43.569008	44.956811	-43.569008	44.956811	-0.216932	-118.630929
6.400000	-0.220245	-119.495151	-43.414491	43.403452	-43.414491	43.403452	-0.220112	-119.442949
6.450000	-0.223435	-120.307330	-43.262527	41.850413	-43.262527	41.850413	-0.223301	-120.254770
6.500000	-0.226697	-121.117651	-43.111800	40.300599	-43.111800	40.300599	-0.226561	-121.064730
6.550000	-0.229974	-121.927600	-42.963372	38.751431	-42.963372	38.751431	-0.229837	-121.874318
6.600000	-0.233317	-122.735998	-42.816304	37.205179	-42.816304	37.205179	-0.233178	-122.682351
6.650000	-0.236683	-123.543880	-42.671313	35.659900	-42.671313	35.659900	-0.236543	-123.489867
6.700000	-0.240109	-124.350492	-42.527782	34.117223	-42.527782	34.117223	-0.239967	-124.296111
6.750000	-0.243564	-125.156469	-42.386132	32.575847	-42.386132	32.575847	-0.243421	-125.101720
6.800000	-0.247073	-125.961435	-42.246023	31.036751	-42.246023	31.036751	-0.246928	-125.906313
6.850000	-0.250621	-126.765677	-42.107623	29.499285	-42.107623	29.499285	-0.250474	-126.710182
6.900000	-0.254214	-127.569137	-41.970826	27.963773	-41.970826	27.963773	-0.254066	-127.513267
6.950000	-0.257854	-128.371815	-41.835590	26.430216	-41.835590	26.430216	-0.257704	-128.315567
7.000000	-0.261533	-129.173914	-41.702000	24.898286	-41.702000	24.898286	-0.261382	-129.117286
7.050000	-0.265267	-129.975202	-41.569846	23.368634	-41.569846	23.368634	-0.265114	-129.918191
7.100000	-0.269033	-130.776087	-41.439367	21.840280	-41.439367	21.840280	-0.268879	-130.718691
7.150000	-0.272863	-131.576163	-41.310217	20.314522	-41.310217	20.314522	-0.272706	-131.518380
7.200000	-0.276716	-132.375981	-41.182755	18.789733	-41.182755	18.789733	-0.276558	-132.317809
7.250000	-0.280642	-133.175026	-41.056533	17.267852	-41.056533	17.267852	-0.280481	-133.116462
7.300000	-0.284585	-133.973929	-40.932001	15.746614	-40.932001	15.746614	-0.284422	-133.914971
7.350000	-0.288607	-134.772126	-40.808639	14.228589	-40.808639	14.228589	-0.288443	-134.712771
7.400000	-0.292640	-135.570268	-40.686952	12.710884	-40.686952	12.710884	-0.292474	-135.510514
7.450000	-0.296761	-136.367804	-40.566382	11.196690	-40.566382	11.196690	-0.296593	-136.307647
7.500000	-0.300884	-137.165340	-40.447463	9.682495	-40.447463	9.682495	-0.300714	-137.104780
7.550000	-0.305104	-137.962405	-40.329623	8.172101	-40.329623	8.172101	-0.304932	-137.901436
7.600000	-0.309327	-138.759470	-40.213360	6.661707	-40.213360	6.661707	-0.309152	-138.698093
7.650000	-0.313640	-139.556280	-40.098227	5.154764	-40.098227	5.154764	-0.313463	-139.494489
7.700000	-0.317963	-140.353067	-39.984564	3.648136	-39.984564	3.648136	-0.317784	-140.290862
7.750000	-0.322368	-141.149786	-39.872068	2.144613	-39.872068	2.144613	-0.322187	-141.087161
7.800000	-0.326793	-141.946490	-39.760952	0.641712	-39.760952	0.641712	-0.326609	-141.883446
7.850000	-0.331292	-142.743282	-39.651028	-0.858424	-39.651028	-0.858424	-0.331106	-142.679814
7.900000	-0.335818	-143.540104	-39.542409	-2.357639	-39.542409	-2.357639	-0.335629	-143.476210
7.950000	-0.340411	-144.337138	-39.434996	-3.854425	-39.434996	-3.854425	-0.340220	-144.272815
8.000000	-0.345040	-145.134278	-39.328828	-5.349997	-39.328828	-5.349997	-0.344846	-145.069524
8.050000	-0.349728	-145.931723	-39.223867	-6.843472	-39.223867	-6.843472	-0.349532	-145.866535
8.100000	-0.354460	-146.729387	-39.120106	-8.335448	-39.120106	-8.335448	-0.354261	-146.663762
8.150000	-0.359244	-147.527417	-39.017543	-9.825650	-39.017543	-9.825650	-0.359042	-147.461351
8.200000	-0.364079	-148.325812	-38.916150	-11.314078	-38.916150	-11.314078	-0.363875	-148.259304
8.250000	-0.368958	-149.124600	-38.815935	-12.801047	-38.815935	-12.801047	-0.368751	-149.057647
8.300000	-0.373898	-149.923938	-38.716874	-14.285976	-38.716874	-14.285976	-0.373688	-149.856537
8.350000	-0.378873	-150.723662	-38.618959	-15.769754	-38.618959	-15.769754	-0.378660	-150.655811
8.400000	-0.383916	-151.524157	-38.522194	-17.251233	-38.522194	-17.251233	-0.383701	-151.455852
8.450000	-0.388988	-152.324995	-38.426536	-18.731861	-38.426536	-18.731861	-0.388770	-152.256235
8.500000	-0.394136	-153.126864	-38.332039	-20.209938	-38.332039	-20.209938	-0.393915	-153.057645
8.550000	-0.399303	-153.928999	-38.238596	-21.687456	-38.238596	-21.687456	-0.399080	-153.859319
8.600000	-0.404556	-154.732462	-38.146338	-23.162181	-38.146338	-23.162181	-0.404330	-154.662317
8.650000	-0.409820	-155.536076	-38.055075	-24.636629	-38.055075	-24.636629	-0.409591	-155.465467
8.700000	-0.415177	-156.341357	-37.965032	-26.108047	-37.965032	-26.108047	-0.414945	-156.270277
8.750000	-0.420537	-157.146638	-37.875912	-27.579464	-37.875912	-27.579464	-0.420303	-157.075088
8.800000	-0.425998	-157.953962	-37.788063	-29.047618	-37.788063	-29.047618	-0.425761	-157.881938
8.850000	-0.431462	-158.761287	-37.701093	-30.515772	-37.701093	-30.515772	-0.431223	-158.688787
8.900000	-0.437019	-159.570696	-37.615382	-31.980971	-37.615382	-31.980971	-0.436777	-159.497717
8.950000	-0.442587	-160.380294	-37.530544	-33.445902	-37.530544	-33.445902	-0.442343	-160.306835
9.000000	-0.448239	-161.191980	-37.446944	-34.908175	-37.446944	-34.908175	-0.447992	-161.118038
9.050000	-0.453911	-162.004085	-37.364224	-36.369917	-37.364224	-36.369917	-0.453661	-161.929657
9.100000	-0.459657	-162.818245	-37.282712	-37.829290	-37.282712	-37.829290	-0.459406	-162.743330
9.150000	-0.465431	-163.633091	-37.202099	-39.287874	-37.202099	-39.287874	-0.465178	-163.557687
9.200000	-0.471272	-164.449925	-37.122653	-40.744368	-37.122653	-40.744368	-0.471016	-164.374029
9.250000	-0.477147	-165.267751	-37.044137	-42.199816	-37.044137	-42.199816	-0.476890	-165.191363
9.300000	-0.483081	-166.087458	-36.966737	-43.653445	-36.966737	-43.653445	-0.482822	-166.010574
9.350000	-0.489057	-166.908507	-36.890313	-45.105775	-36.890313	-45.105775	-0.488797	-166.831127
9.400000	-0.495083	-167.731291	-36.814944	-46.556548	-36.814944	-46.556548	-0.494821	-167.653411
9.450000	-0.501158	-168.555807	-36.740608	-48.005766	-36.740608	-48.005766	-0.500895	-168.477428
9.500000	-0.507275	-169.381872	-36.667254	-49.453686	-36.667254	-49.453686	-0.507011	-169.302991
9.550000	-0.513448	-170.210105	-36.595005	-50.899790	-36.595005	-50.899790	-0.513184	-170.130720
9.600000	-0.519647	-171.039318	-36.523576	-52.345112	-36.523576	-52.345112	-0.519382	-170.959429
9.650000	-0.525907	-171.871090	-36.453315	-53.788416	-36.453315	-53.788416	-0.525642	-171.790696
9.700000	-0.532212	-172.704840	-36.384075	-55.230215	-36.384075	-55.230215	-0.531947	-172.623938
9.750000	-0.538562	-173.540624	-36.315855	-56.670503	-36.315855	-56.670503	-0.538298	-173.459215
9.800000	-0.544957	-174.378503	-36.248654	-58.109272	-36.248654	-58.109272	-0.544694	-174.296584
9.850000	-0.551396	-175.218534	-36.182474	-59.546512	-36.182474	-59.546512	-0.551134	-175.136106
9.900000	-0.557878	-176.060778	-36.117313	-60.982213	-36.117313	-60.982213	-0.557617	-175.977840
9.950000	-0.564403	-176.905294	-36.053173	-62.416362	-36.053173	-62.416362	-0.564144	-176.821845
10.000000	-0.570970	-177.752142	-35.990054	-63.848945	-35.990054	-63.848945	-0.570713	-177.668181
