! freq	dB(S11)	phase(S11)	dB(S12)	phase(S12)	
!     	dB(S21)	phase(S21)	dB(S22)	phase(S22)	
!S-par simulation data
#  GHz  S  DB  R 50
0.000000	-0.000000	0.000000	-393.602540	0.000000	-393.602540	0.000000	-0.000000	0.000000
0.050000	-0.000117	-1.345439	-95.882871	177.492604	-95.882871	177.492604	-0.000246	-0.815330
0.100000	-0.000466	-2.690642	-94.800436	155.200226	-94.800436	155.200226	-0.000926	-1.629406
0.150000	-0.001039	-4.035381	-93.642751	140.660131	-93.642751	140.660131	-0.001902	-2.441477
0.200000	-0.001825	-5.379449	-92.470355	129.996296	-92.470355	129.996296	-0.003028	-3.251418
0.250000	-0.002824	-6.722588	-91.366051	121.995936	-91.366051	121.995936	-0.004202	-4.059351
0.300000	-0.003999	-8.064699	-90.372842	115.627813	-90.372842	115.627813	-0.005359	-4.865829
0.350000	-0.005344	-9.405588	-89.495561	110.499582	-89.495561	110.499582	-0.006481	-5.671108
0.400000	-0.006840	-10.745113	-88.731541	106.278190	-88.731541	106.278190	-0.007562	-6.475445
0.450000	-0.008467	-12.083154	-88.074096	102.745693	-88.074096	102.745693	-0.008610	-7.279013
0.500000	-0.010207	-13.419613	-87.515900	99.759036	-87.515900	99.759036	-0.009633	-8.081912
0.550000	-0.012040	-14.754408	-87.050321	97.225246	-87.050321	97.225246	-0.010640	-8.884193
0.600000	-0.013951	-16.087477	-86.671877	95.086278	-86.671877	95.086278	-0.011640	-9.685873
0.650000	-0.015921	-17.418773	-86.376307	93.309939	-86.376307	93.309939	-0.012638	-10.486951
0.700000	-0.017936	-18.748259	-86.160485	91.884739	-86.160485	91.884739	-0.013638	-11.287411
0.750000	-0.019982	-20.075912	-86.022253	90.817460	-86.022253	90.817460	-0.014643	-12.087232
0.800000	-0.022048	-21.401713	-85.960176	90.132778	-85.960176	90.132778	-0.015654	-12.886391
0.850000	-0.024123	-22.725652	-85.973190	89.874618	-85.973190	89.874618	-0.016673	-13.684861
0.900000	-0.026199	-24.047723	-86.060032	90.109121	-86.060032	90.109121	-0.017698	-14.482619
0.950000	-0.028268	-25.367920	-86.218296	90.929025	-86.218296	90.929025	-0.018729	-15.279639
1.000000	-0.030325	-26.686241	-86.442817	92.458814	-86.442817	92.458814	-0.019767	-16.075900
1.050000	-0.032364	-28.002684	-86.722958	94.858666	-86.722958	94.858666	-0.020809	-16.871380
1.100000	-0.034383	-29.317246	-87.038257	98.322084	-87.038257	98.322084	-0.021855	-17.666058
1.150000	-0.036379	-30.629923	-87.352230	103.056287	-87.352230	103.056287	-0.022904	-18.459915
1.200000	-0.038350	-31.940710	-87.605635	109.226595	-87.605635	109.226595	-0.023954	-19.252934
1.250000	-0.040294	-33.249601	-87.714638	116.845604	-87.714638	116.845604	-0.025006	-20.045097
1.300000	-0.042212	-34.556505	-87.570425	125.641729	-87.570425	125.641729	-0.026057	-20.836349
1.350000	-0.044102	-35.861496	-87.114759	134.856086	-87.114759	134.856086	-0.027109	-21.626711
1.400000	-0.045967	-37.164561	-86.349587	143.649046	-86.349587	143.649046	-0.028158	-22.416169
1.450000	-0.047807	-38.465691	-85.340777	151.368811	-85.340777	151.368811	-0.029207	-23.204707
1.500000	-0.049623	-39.764871	-84.180333	157.716728	-84.180333	157.716728	-0.030253	-23.992311
1.550000	-0.051416	-41.062088	-82.950453	162.691369	-82.950453	162.691369	-0.031297	-24.778965
1.600000	-0.053188	-42.357328	-81.708975	166.451051	-81.708975	166.451051	-0.032338	-25.564656
1.650000	-0.054940	-43.650578	-80.490661	169.203567	-80.490661	169.203567	-0.033377	-26.349369
1.700000	-0.056674	-44.941823	-79.313816	171.147578	-79.313816	171.147578	-0.034413	-27.133089
1.750000	-0.058390	-46.231048	-78.186526	172.450988	-78.186526	172.450988	-0.035447	-27.915803
1.800000	-0.060092	-47.518241	-77.111051	173.247969	-77.111051	173.247969	-0.036478	-28.697495
1.850000	-0.061780	-48.803389	-76.086536	173.643112	-76.086536	173.643112	-0.037507	-29.478151
1.900000	-0.063457	-50.086478	-75.110584	173.717247	-75.110584	173.717247	-0.038535	-30.257757
1.950000	-0.065123	-51.367500	-74.180138	173.532844	-74.180138	173.532844	-0.039560	-31.036299
2.000000	-0.066781	-52.646442	-73.291952	173.138412	-73.291952	173.138412	-0.040585	-31.813761
2.050000	-0.068431	-53.923298	-72.442843	172.571883	-72.442843	172.571883	-0.041608	-32.590129
2.100000	-0.070077	-55.198060	-71.629802	171.863168	-71.629802	171.863168	-0.042631	-33.365389
2.150000	-0.071718	-56.470722	-70.850055	171.036053	-70.850055	171.036053	-0.043654	-34.139526
2.200000	-0.073358	-57.741282	-70.101067	170.109621	-70.101067	170.109621	-0.044677	-34.912526
2.250000	-0.074996	-59.009736	-69.380543	169.099307	-69.380543	169.099307	-0.045701	-35.684375
2.300000	-0.076634	-60.276085	-68.686406	168.017698	-68.686406	168.017698	-0.046726	-36.455058
2.350000	-0.078275	-61.540332	-68.016783	166.875135	-68.016783	166.875135	-0.047753	-37.224561
2.400000	-0.079919	-62.802479	-67.369984	165.680173	-67.369984	165.680173	-0.048781	-37.992871
2.450000	-0.081567	-64.062534	-66.744480	164.439937	-66.744480	164.439937	-0.049813	-38.759973
2.500000	-0.083221	-65.320504	-66.138891	163.160398	-66.138891	163.160398	-0.050847	-39.525854
2.550000	-0.084882	-66.576312	-65.551050	161.845298	-65.551050	161.845298	-0.051885	-40.290447
2.600000	-0.086551	-67.830059	-64.980835	160.500515	-64.980835	160.500515	-0.052927	-41.053791
2.650000	-0.088230	-69.081763	-64.427196	159.129606	-64.427196	159.129606	-0.053974	-41.815873
2.700000	-0.089920	-70.331440	-63.889178	157.735621	-63.889178	157.735621	-0.055026	-42.576680
2.750000	-0.091621	-71.579111	-63.365906	156.321185	-63.365906	156.321185	-0.056083	-43.336202
2.800000	-0.093335	-72.824798	-62.856580	154.888566	-62.856580	154.888566	-0.057145	-44.094424
2.850000	-0.095063	-74.068527	-62.360468	153.439730	-62.360468	153.439730	-0.058215	-44.851335
2.900000	-0.096806	-75.310324	-61.876893	151.976388	-61.876893	151.976388	-0.059291	-45.606925
2.950000	-0.098564	-76.550219	-61.405236	150.500033	-61.405236	150.500033	-0.060374	-46.361181
3.000000	-0.100339	-77.788245	-60.944921	149.011975	-60.944921	149.011975	-0.061464	-47.114094
3.050000	-0.102133	-79.024435	-60.495419	147.513361	-60.495419	147.513361	-0.062563	-47.865651
3.100000	-0.103945	-80.258827	-60.056238	146.005205	-60.056238	146.005205	-0.063671	-48.615844
3.150000	-0.105776	-81.491460	-59.626922	144.488401	-59.626922	144.488401	-0.064787	-49.364662
3.200000	-0.107628	-82.722375	-59.207047	142.963742	-59.207047	142.963742	-0.065913	-50.112097
3.250000	-0.109502	-83.951617	-58.796219	141.431933	-58.796219	141.431933	-0.067048	-50.858138
3.300000	-0.111398	-85.179231	-58.394069	139.893601	-58.394069	139.893601	-0.068193	-51.602777
3.350000	-0.113317	-86.405268	-58.000255	138.349309	-58.000255	138.349309	-0.069350	-52.346007
3.400000	-0.115261	-87.629777	-57.614456	136.799560	-57.614456	136.799560	-0.070517	-53.087818
3.450000	-0.117229	-88.852813	-57.236371	135.244807	-57.236371	135.244807	-0.071695	-53.828204
3.500000	-0.119223	-90.074432	-56.865718	133.685459	-56.865718	133.685459	-0.072885	-54.567157
3.550000	-0.121243	-91.294690	-56.502234	132.121887	-56.502234	132.121887	-0.074088	-55.304671
3.600000	-0.123291	-92.513650	-56.145669	130.554427	-56.145669	130.554427	-0.075303	-56.040739
3.650000	-0.125367	-93.731374	-55.795790	128.983387	-55.795790	128.983387	-0.076531	-56.775356
3.700000	-0.127472	-94.947926	-55.452378	127.409048	-55.452378	127.409048	-0.077772	-57.508515
3.750000	-0.129606	-96.163375	-55.115224	125.831668	-55.115224	125.831668	-0.079027	-58.240211
3.800000	-0.131773	-97.377748	-54.783849	124.251375	-54.783849	124.251375	-0.080297	-58.970377
3.850000	-0.133970	-98.591166	-54.458374	122.668521	-54.458374	122.668521	-0.081581	-59.699070
3.900000	-0.136200	-99.803704	-54.138623	121.083310	-54.138623	121.083310	-0.082880	-60.426287
3.950000	-0.138462	-101.015438	-53.824428	119.495932	-53.824428	119.495932	-0.084195	-61.152025
4.000000	-0.140758	-102.226446	-53.515631	117.906568	-53.515631	117.906568	-0.085525	-61.876281
4.050000	-0.143088	-103.436812	-53.212081	116.315387	-53.212081	116.315387	-0.086871	-62.599051
4.100000	-0.145453	-104.646617	-52.913634	114.722550	-52.913634	114.722550	-0.088234	-63.320333
4.150000	-0.147854	-105.855948	-52.620156	113.128208	-52.620156	113.128208	-0.089614	-64.040126
4.200000	-0.150290	-107.064892	-52.331515	111.532508	-52.331515	111.532508	-0.091010	-64.758428
4.250000	-0.152764	-108.273541	-52.047590	109.935590	-52.047590	109.935590	-0.092425	-65.475237
4.300000	-0.155276	-109.481986	-51.768261	108.337586	-51.768261	108.337586	-0.093857	-66.190553
4.350000	-0.157826	-110.690321	-51.493416	106.738626	-51.493416	106.738626	-0.095308	-66.904376
4.400000	-0.160415	-111.898644	-51.222946	105.138835	-51.222946	105.138835	-0.096777	-67.616705
4.450000	-0.163044	-113.107054	-50.956749	103.538331	-50.956749	103.538331	-0.098266	-68.327541
4.500000	-0.165714	-114.315652	-50.694726	101.937233	-50.694726	101.937233	-0.099774	-69.036884
4.550000	-0.168425	-115.524542	-50.436780	100.335652	-50.436780	100.335652	-0.101302	-69.744736
4.600000	-0.171177	-116.733829	-50.182822	98.733700	-50.182822	98.733700	-0.102850	-70.451098
4.650000	-0.173972	-117.943620	-49.932761	97.131481	-49.932761	97.131481	-0.104420	-71.155972
4.700000	-0.176811	-119.154028	-49.686515	95.529101	-49.686515	95.529101	-0.106010	-71.859359
4.750000	-0.179693	-120.365162	-49.444001	93.926659	-49.444001	93.926659	-0.107621	-72.561264
4.800000	-0.182619	-121.577140	-49.205141	92.324255	-49.205141	92.324255	-0.109255	-73.261687
4.850000	-0.185591	-122.790077	-48.969858	90.721983	-48.969858	90.721983	-0.110911	-73.960633
4.900000	-0.188608	-124.004092	-48.738078	89.119937	-48.738078	89.119937	-0.112589	-74.658105
4.950000	-0.191672	-125.219308	-48.509731	87.518206	-48.509731	87.518206	-0.114291	-75.354107
5.000000	-0.194783	-126.435847	-48.284747	85.916877	-48.284747	85.916877	-0.116016	-76.048644
5.050000	-0.197944	-127.653906	-48.062959	84.316061	-48.062959	84.316061	-0.117766	-76.741656
5.100000	-0.201153	-128.873556	-47.844411	82.715820	-47.844411	82.715820	-0.119541	-77.433212
5.150000	-0.204412	-130.094926	-47.629040	81.116234	-47.629040	81.116234	-0.121340	-78.123318
5.200000	-0.207720	-131.318153	-47.416785	79.517379	-47.416785	79.517379	-0.123164	-78.811978
5.250000	-0.211078	-132.543370	-47.207586	77.919326	-47.207586	77.919326	-0.125014	-79.499200
5.300000	-0.214487	-133.770716	-47.001385	76.322147	-47.001385	76.322147	-0.126890	-80.184988
5.350000	-0.217948	-135.000333	-46.798126	74.725908	-46.798126	74.725908	-0.128792	-80.869351
5.400000	-0.221461	-136.232362	-46.597754	73.130672	-46.597754	73.130672	-0.130721	-81.552293
5.450000	-0.225026	-137.466951	-46.400217	71.536502	-46.400217	71.536502	-0.132677	-82.233824
5.500000	-0.228645	-138.704246	-46.205461	69.943454	-46.205461	69.943454	-0.134661	-82.913949
5.550000	-0.232318	-139.944399	-46.013437	68.351585	-46.013437	68.351585	-0.136672	-83.592677
5.600000	-0.236045	-141.187563	-45.824097	66.760946	-45.824097	66.760946	-0.138713	-84.270016
5.650000	-0.239828	-142.433893	-45.637392	65.171587	-45.637392	65.171587	-0.140782	-84.945974
5.700000	-0.243665	-143.683547	-45.453277	63.583553	-45.453277	63.583553	-0.142880	-85.620559
5.750000	-0.247559	-144.936687	-45.271707	61.996889	-45.271707	61.996889	-0.145008	-86.293781
5.800000	-0.251510	-146.193476	-45.092638	60.411634	-45.092638	60.411634	-0.147166	-86.965648
5.850000	-0.255518	-147.454079	-44.916028	58.827828	-44.916028	58.827828	-0.149355	-87.636170
5.900000	-0.259584	-148.718666	-44.741836	57.245507	-44.741836	57.245507	-0.151574	-88.305356
5.950000	-0.263707	-149.987407	-44.570024	55.664703	-44.570024	55.664703	-0.153825	-88.973217
6.000000	-0.267890	-151.260477	-44.400551	54.085447	-44.400551	54.085447	-0.156108	-89.639763
6.050000	-0.272132	-152.538052	-44.233381	52.507769	-44.233381	52.507769	-0.158423	-90.305003
6.100000	-0.276433	-153.820312	-44.068479	50.931697	-44.068479	50.931697	-0.160770	-90.968949
6.150000	-0.280794	-155.107439	-43.905809	49.357255	-43.905809	49.357255	-0.163151	-91.631612
6.200000	-0.285216	-156.399617	-43.745338	47.784468	-43.745338	47.784468	-0.165565	-92.293003
6.250000	-0.289699	-157.697034	-43.587034	46.213359	-43.587034	46.213359	-0.168013	-92.953133
6.300000	-0.294245	-159.000126	-43.430837	44.644025	-43.430837	44.644025	-0.170496	-93.611960
6.350000	-0.298853	-160.308857	-43.276749	43.076414	-43.276749	43.076414	-0.173015	-94.269551
6.400000	-0.303523	-161.623425	-43.124743	41.510548	-43.124743	41.510548	-0.175568	-94.925918
6.450000	-0.308256	-162.944027	-42.974790	39.946447	-42.974790	39.946447	-0.178157	-95.581073
6.500000	-0.313051	-164.270865	-42.826863	38.384132	-42.826863	38.384132	-0.180782	-96.235030
6.550000	-0.317909	-165.604143	-42.680938	36.823626	-42.680938	36.823626	-0.183444	-96.887801
6.600000	-0.322830	-166.944067	-42.536991	35.264951	-42.536991	35.264951	-0.186142	-97.539398
6.650000	-0.327815	-168.290848	-42.394997	33.708131	-42.394997	33.708131	-0.188877	-98.189837
6.700000	-0.332863	-169.644696	-42.254935	32.153192	-42.254935	32.153192	-0.191650	-98.839129
6.750000	-0.337974	-171.005827	-42.116783	30.600162	-42.116783	30.600162	-0.194461	-99.487289
6.800000	-0.343150	-172.374457	-41.980523	29.049069	-41.980523	29.049069	-0.197311	-100.134330
6.850000	-0.348389	-173.750804	-41.846134	27.499947	-41.846134	27.499947	-0.200199	-100.780268
6.900000	-0.353693	-175.135092	-41.713599	25.952832	-41.713599	25.952832	-0.203126	-101.425116
6.950000	-0.359060	-176.527543	-41.582901	24.407762	-41.582901	24.407762	-0.206093	-102.068889
7.000000	-0.364492	-177.928384	-41.454022	22.864781	-41.454022	22.864781	-0.209100	-102.711601
7.050000	-0.369987	-179.337842	-41.326948	21.323934	-41.326948	21.323934	-0.212148	-103.353269
7.100000	-0.375546	179.243853	-41.201664	19.785274	-41.201664	19.785274	-0.215236	-103.993907
7.150000	-0.381169	177.816469	-41.078156	18.248856	-41.078156	18.248856	-0.218365	-104.633530
7.200000	-0.386855	176.379773	-40.956410	16.714742	-40.956410	16.714742	-0.221536	-105.272154
7.250000	-0.392605	174.933529	-40.836414	15.182998	-40.836414	15.182998	-0.224749	-105.909796
7.300000	-0.398418	173.477502	-40.718155	13.653697	-40.718155	13.653697	-0.228004	-106.546471
7.350000	-0.404294	172.011455	-40.601623	12.126917	-40.601623	12.126917	-0.231301	-107.182195
7.400000	-0.410232	170.535149	-40.486806	10.602742	-40.486806	10.602742	-0.234642	-107.816986
7.450000	-0.416232	169.048346	-40.373692	9.081265	-40.373692	9.081265	-0.238026	-108.450859
7.500000	-0.422293	167.550807	-40.262271	7.562584	-40.262271	7.562584	-0.241454	-109.083832
7.550000	-0.428418	166.041803	-40.152547	6.046934	-40.152547	6.046934	-0.244928	-109.715884
7.600000	-0.434604	164.521562	-40.044498	4.534308	-40.044498	4.534308	-0.248446	-110.347072
7.650000	-0.440849	162.989845	-39.938114	3.024827	-39.938114	3.024827	-0.252009	-110.977413
7.700000	-0.447154	161.446416	-39.833384	1.518620	-39.833384	1.518620	-0.255617	-111.606925
7.750000	-0.453517	159.891037	-39.730298	0.015821	-39.730298	0.015821	-0.259271	-112.235626
7.800000	-0.459937	158.323474	-39.628846	-1.483424	-39.628846	-1.483424	-0.262971	-112.863534
7.850000	-0.466415	156.743493	-39.529015	-2.978965	-39.529015	-2.978965	-0.266716	-113.490668
7.900000	-0.472948	155.150865	-39.430796	-4.470641	-39.430796	-4.470641	-0.270509	-114.117046
7.950000	-0.479536	153.545364	-39.334174	-5.958287	-39.334174	-5.958287	-0.274348	-114.742687
8.000000	-0.486179	151.926764	-39.239139	-7.441726	-39.239139	-7.441726	-0.278234	-115.367609
8.050000	-0.492874	150.294848	-39.145676	-8.920776	-39.145676	-8.920776	-0.282167	-115.991833
8.100000	-0.499622	148.649401	-39.053772	-10.395247	-39.053772	-10.395247	-0.286149	-116.615378
8.150000	-0.506420	146.990212	-38.963412	-11.864942	-38.963412	-11.864942	-0.290178	-117.238262
8.200000	-0.513267	145.317080	-38.874581	-13.329656	-38.874581	-13.329656	-0.294256	-117.860507
8.250000	-0.520163	143.629808	-38.787261	-14.789176	-38.787261	-14.789176	-0.298382	-118.482131
8.300000	-0.527106	141.928206	-38.701435	-16.243284	-38.701435	-16.243284	-0.302557	-119.103157
8.350000	-0.534094	140.212094	-38.617084	-17.691755	-38.617084	-17.691755	-0.306781	-119.723602
8.400000	-0.541126	138.481300	-38.534187	-19.134356	-38.534187	-19.134356	-0.311055	-120.343490
8.450000	-0.548202	136.735662	-38.452723	-20.570850	-38.452723	-20.570850	-0.315378	-120.962840
8.500000	-0.555318	134.975029	-38.372670	-22.000995	-38.372670	-22.000995	-0.319752	-121.581674
8.550000	-0.562475	133.199261	-38.294003	-23.424540	-38.294003	-23.424540	-0.324175	-122.200013
8.600000	-0.569670	131.408230	-38.216697	-24.841232	-38.216697	-24.841232	-0.328649	-122.817878
8.650000	-0.576902	129.601823	-38.140723	-26.250812	-38.140723	-26.250812	-0.333173	-123.435293
8.700000	-0.584169	127.779941	-38.066054	-27.653018	-38.066054	-27.653018	-0.337749	-124.052278
8.750000	-0.591469	125.942499	-37.992658	-29.047583	-37.992658	-29.047583	-0.342375	-124.668856
8.800000	-0.598803	124.088748	-37.920530	-30.433880	-37.920530	-30.433880	-0.347055	-125.285034
8.850000	-0.606167	122.219318	-37.849609	-31.811967	-37.849609	-31.811967	-0.351787	-125.900852
8.900000	-0.613561	120.334179	-37.779857	-33.181566	-37.779857	-33.181566	-0.356570	-126.516335
8.950000	-0.620981	118.433324	-37.711238	-34.542400	-37.711238	-34.542400	-0.361405	-127.131504
9.000000	-0.628427	116.517615	-37.643681	-35.894689	-37.643681	-35.894689	-0.366289	-127.746399
9.050000	-0.635898	114.585550	-37.577201	-37.237266	-37.577201	-37.237266	-0.371228	-128.361015
9.100000	-0.643392	112.637868	-37.511730	-38.570236	-37.511730	-38.570236	-0.376219	-128.975389
9.150000	-0.650909	110.674648	-37.447222	-39.893314	-37.447222	-39.893314	-0.381262	-129.589546
9.200000	-0.658445	108.695995	-37.383631	-41.206213	-37.383631	-41.206213	-0.386359	-130.203509
9.250000	-0.666002	106.702040	-37.320908	-42.508647	-37.320908	-42.508647	-0.391508	-130.817305
9.300000	-0.673577	104.692939	-37.259002	-43.800328	-37.259002	-43.800328	-0.396710	-131.430959
9.350000	-0.681169	102.668880	-37.197862	-45.080969	-37.197862	-45.080969	-0.401965	-132.044495
9.400000	-0.688778	100.629916	-37.137435	-46.350156	-37.137435	-46.350156	-0.407273	-132.657940
9.450000	-0.696404	98.576301	-37.077664	-47.607592	-37.077664	-47.607592	-0.412636	-133.271319
9.500000	-0.704045	96.508470	-37.018489	-48.853111	-37.018489	-48.853111	-0.418052	-133.884661
9.550000	-0.711701	94.426727	-36.959848	-50.086426	-36.959848	-50.086426	-0.423521	-134.497993
9.600000	-0.719372	92.331410	-36.901682	-51.307248	-36.901682	-51.307248	-0.429044	-135.111340
9.650000	-0.727058	90.222886	-36.843926	-52.515290	-36.843926	-52.515290	-0.434620	-135.724732
9.700000	-0.734760	88.101553	-36.786516	-53.710261	-36.786516	-53.710261	-0.440250	-136.338195
9.750000	-0.742477	85.967844	-36.729385	-54.891871	-36.729385	-54.891871	-0.445933	-136.951757
9.800000	-0.750210	83.822220	-36.672465	-56.059830	-36.672465	-56.059830	-0.451670	-137.565447
9.850000	-0.757960	81.665176	-36.615685	-57.213844	-36.615685	-57.213844	-0.457460	-138.179294
9.900000	-0.765729	79.497236	-36.558975	-58.353619	-36.558975	-58.353619	-0.463304	-138.793326
9.950000	-0.773517	77.318957	-36.502261	-59.478857	-36.502261	-59.478857	-0.469202	-139.407573
10.000000	-0.781325	75.130925	-36.445467	-60.589256	-36.445467	-60.589256	-0.475153	-140.022066
