! freq	dB(S11)	phase(S11)	dB(S12)	phase(S12)	
!     	dB(S21)	phase(S21)	dB(S22)	phase(S22)	
!S-par simulation data
#  GHz  S  DB  R 50
0.000000	-0.000000	0.000000	-367.119582	0.000000	-367.119582	0.000000	-0.000000	0.000000
0.050000	-0.000503	-0.898713	-104.385651	22.951839	-104.385651	22.951839	-0.000110	-0.804480
0.100000	-0.001468	-1.801543	-103.593509	30.519608	-103.593509	30.519608	-0.000434	-1.608673
0.150000	-0.002379	-2.706804	-102.639252	38.676555	-102.639252	38.676555	-0.000956	-2.412319
0.200000	-0.003201	-3.612521	-101.641324	45.343395	-101.641324	45.343395	-0.001650	-3.215214
0.250000	-0.004001	-4.517834	-100.691824	50.437117	-100.691824	50.437117	-0.002497	-4.017142
0.300000	-0.004830	-5.422487	-99.841959	54.420815	-99.841959	54.420815	-0.003456	-4.818087
0.350000	-0.005712	-6.326343	-99.106647	57.539402	-99.106647	57.539402	-0.004503	-5.617961
0.400000	-0.006656	-7.229334	-98.491145	60.049353	-98.491145	60.049353	-0.005614	-6.416751
0.450000	-0.007664	-8.131410	-97.995516	62.152889	-97.995516	62.152889	-0.006767	-7.214473
0.500000	-0.008732	-9.032531	-97.618579	64.013543	-97.618579	64.013543	-0.007945	-8.011161
0.550000	-0.009855	-9.932664	-97.359788	65.772613	-97.359788	65.772613	-0.009136	-8.806858
0.600000	-0.011025	-10.831779	-97.220073	67.564405	-97.220073	67.564405	-0.010328	-9.601612
0.650000	-0.012234	-11.729853	-97.202125	69.531472	-97.202125	69.531472	-0.011516	-10.395464
0.700000	-0.013476	-12.626868	-97.310189	71.842224	-97.310189	71.842224	-0.012696	-11.188455
0.750000	-0.014744	-13.522809	-97.549027	74.714043	-97.549027	74.714043	-0.013864	-11.980614
0.800000	-0.016030	-14.417664	-97.921033	78.445366	-97.921033	78.445366	-0.015019	-12.771967
0.850000	-0.017330	-15.311427	-98.419059	83.457275	-98.419059	83.457275	-0.016161	-13.562532
0.900000	-0.018637	-16.204091	-99.009924	90.328494	-99.009924	90.328494	-0.017290	-14.352320
0.950000	-0.019948	-17.095652	-99.601678	99.750180	-99.601678	99.750180	-0.018406	-15.141337
1.000000	-0.021258	-17.986106	-100.000044	112.217742	-100.000044	112.217742	-0.019511	-15.929584
1.050000	-0.022565	-18.875450	-99.915893	127.312459	-99.915893	127.312459	-0.020605	-16.717060
1.100000	-0.023866	-19.763681	-99.133051	143.092167	-99.133051	143.092167	-0.021688	-17.503757
1.150000	-0.025159	-20.650794	-97.726609	156.979877	-97.726609	156.979877	-0.022763	-18.289668
1.200000	-0.026442	-21.536786	-95.984779	167.654678	-95.984779	167.654678	-0.023829	-19.074782
1.250000	-0.027715	-22.421650	-94.160518	175.292891	-94.160518	175.292891	-0.024888	-19.859088
1.300000	-0.028976	-23.305330	-92.376441	-179.458662	-92.376441	-179.458662	-0.025940	-20.642535
1.350000	-0.030225	-24.187867	-90.697632	-175.819697	-90.697632	-175.819697	-0.026985	-21.425144
1.400000	-0.031462	-25.069252	-89.132724	-173.323926	-89.132724	-173.323926	-0.028025	-22.206900
1.450000	-0.032688	-25.949474	-87.676038	-171.651236	-87.676038	-171.651236	-0.029060	-22.987788
1.500000	-0.033903	-26.828522	-86.317357	-170.583181	-86.317357	-170.583181	-0.030091	-23.767792
1.550000	-0.035107	-27.706383	-85.045830	-169.969042	-85.045830	-169.969042	-0.031118	-24.546895
1.600000	-0.036300	-28.583044	-83.851408	-169.702942	-83.851408	-169.702942	-0.032141	-25.325081
1.650000	-0.037485	-29.458491	-82.725251	-169.708982	-82.725251	-169.708982	-0.033161	-26.102333
1.700000	-0.038660	-30.332708	-81.659749	-169.931636	-81.659749	-169.931636	-0.034179	-26.878635
1.750000	-0.039827	-31.205680	-80.648398	-170.329489	-80.648398	-170.329489	-0.035194	-27.653971
1.800000	-0.040987	-32.077391	-79.685646	-170.871090	-79.685646	-170.871090	-0.036208	-28.428323
1.850000	-0.042141	-32.947822	-78.766741	-171.532154	-78.766741	-171.532154	-0.037220	-29.201676
1.900000	-0.043290	-33.816958	-77.887600	-172.293645	-77.887600	-172.293645	-0.038231	-29.974012
1.950000	-0.044434	-34.684781	-77.044694	-173.140431	-77.044694	-173.140431	-0.039242	-30.745316
2.000000	-0.045574	-35.551272	-76.234959	-174.060331	-76.234959	-174.060331	-0.040252	-31.515571
2.050000	-0.046712	-36.416415	-75.455721	-175.043427	-75.455721	-175.043427	-0.041263	-32.284761
2.100000	-0.047847	-37.280191	-74.704629	-176.081553	-74.704629	-176.081553	-0.042274	-33.052871
2.150000	-0.048981	-38.142582	-73.979612	-177.167924	-73.979612	-177.167924	-0.043286	-33.819885
2.200000	-0.050115	-39.003570	-73.278832	-178.296847	-73.278832	-178.296847	-0.044299	-34.585786
2.250000	-0.051250	-39.863139	-72.600649	-179.463509	-72.600649	-179.463509	-0.045315	-35.350560
2.300000	-0.052385	-40.721270	-71.943599	179.336193	-71.943599	179.336193	-0.046332	-36.114192
2.350000	-0.053522	-41.577946	-71.306364	178.105782	-71.306364	178.105782	-0.047352	-36.876667
2.400000	-0.054662	-42.433150	-70.687755	176.848304	-70.687755	176.848304	-0.048374	-37.637970
2.450000	-0.055805	-43.286865	-70.086695	175.566405	-70.086695	175.566405	-0.049401	-38.398086
2.500000	-0.056952	-44.139076	-69.502207	174.262405	-69.502207	174.262405	-0.050430	-39.157002
2.550000	-0.058104	-44.989699	-68.932466	172.937554	-68.932466	172.937554	-0.051465	-39.914651
2.600000	-0.059261	-45.838785	-68.377683	171.594587	-68.377683	171.594587	-0.052503	-40.671070
2.650000	-0.060423	-46.686319	-67.837099	170.235083	-67.837099	170.235083	-0.053547	-41.426247
2.700000	-0.061592	-47.532286	-67.310018	168.860455	-67.310018	168.860455	-0.054596	-42.180168
2.750000	-0.062768	-48.376673	-66.795795	167.471970	-66.795795	167.471970	-0.055650	-42.932821
2.800000	-0.063951	-49.219465	-66.293837	166.070773	-66.293837	166.070773	-0.056711	-43.684194
2.850000	-0.065141	-50.060651	-65.803593	164.657897	-65.803593	164.657897	-0.057778	-44.434275
2.900000	-0.066341	-50.900218	-65.324551	163.234284	-65.324551	163.234284	-0.058852	-45.183052
2.950000	-0.067549	-51.738153	-64.856235	161.800790	-64.856235	161.800790	-0.059933	-45.930513
3.000000	-0.068766	-52.574447	-64.398201	160.358197	-64.398201	160.358197	-0.061021	-46.676648
3.050000	-0.069993	-53.409088	-63.950034	158.907222	-63.950034	158.907222	-0.062118	-47.421446
3.100000	-0.071231	-54.242067	-63.511346	157.448527	-63.511346	157.448527	-0.063223	-48.164897
3.150000	-0.072479	-55.073374	-63.081770	155.982718	-63.081770	155.982718	-0.064337	-48.906990
3.200000	-0.073738	-55.903000	-62.660965	154.510358	-62.660965	154.510358	-0.065460	-49.647717
3.250000	-0.075008	-56.730937	-62.248608	153.031966	-62.248608	153.031966	-0.066592	-50.387067
3.300000	-0.076291	-57.557178	-61.844394	151.548025	-61.844394	151.548025	-0.067734	-51.125033
3.350000	-0.077586	-58.381716	-61.448037	150.058982	-61.448037	150.058982	-0.068887	-51.861606
3.400000	-0.078893	-59.204544	-61.059263	148.565254	-61.059263	148.565254	-0.070049	-52.596777
3.450000	-0.080214	-60.025656	-60.677816	147.067231	-60.677816	147.067231	-0.071223	-53.330540
3.500000	-0.081548	-60.845049	-60.303452	145.565275	-60.303452	145.565275	-0.072409	-54.062886
3.550000	-0.082896	-61.662716	-59.935938	144.059725	-59.935938	144.059725	-0.073605	-54.793809
3.600000	-0.084259	-62.478655	-59.575055	142.550897	-59.575055	142.550897	-0.074814	-55.523302
3.650000	-0.085636	-63.292863	-59.220591	141.039089	-59.220591	141.039089	-0.076036	-56.251360
3.700000	-0.087029	-64.105335	-58.872349	139.524577	-58.872349	139.524577	-0.077270	-56.977976
3.750000	-0.088436	-64.916072	-58.530135	138.007623	-58.530135	138.007623	-0.078517	-57.703144
3.800000	-0.089861	-65.724994	-58.193459	136.488385	-58.193459	136.488385	-0.079779	-58.426798
3.850000	-0.091302	-66.532178	-57.862478	134.967196	-57.862478	134.967196	-0.081054	-59.148994
3.900000	-0.092759	-67.337624	-57.537025	133.444269	-57.537025	133.444269	-0.082344	-59.869730
3.950000	-0.094234	-68.141331	-57.216938	131.919801	-57.216938	131.919801	-0.083649	-60.589000
4.000000	-0.095726	-68.943301	-56.902064	130.393981	-56.902064	130.393981	-0.084968	-61.306803
4.050000	-0.097236	-69.743535	-56.592254	128.866982	-56.592254	128.866982	-0.086303	-62.023134
4.100000	-0.098765	-70.542036	-56.287367	127.338969	-56.287367	127.338969	-0.087654	-62.737991
4.150000	-0.100312	-71.338806	-55.987266	125.810094	-55.987266	125.810094	-0.089021	-63.451371
4.200000	-0.101885	-72.133250	-55.689956	124.280315	-55.689956	124.280315	-0.090411	-64.162759
4.250000	-0.103469	-72.926795	-55.399779	122.750208	-55.399779	122.750208	-0.091810	-64.873375
4.300000	-0.105077	-73.718249	-55.112874	121.219600	-55.112874	121.219600	-0.093230	-65.582188
4.350000	-0.106702	-74.508211	-54.830921	119.688634	-54.830921	119.688634	-0.094665	-66.289713
4.400000	-0.108350	-75.296394	-54.552931	118.157476	-54.552931	118.157476	-0.096119	-66.995692
4.450000	-0.110020	-76.082797	-54.278812	116.626125	-54.278812	116.626125	-0.097593	-67.700125
4.500000	-0.111709	-76.867730	-54.009250	115.094785	-54.009250	115.094785	-0.099083	-68.403269
4.550000	-0.113424	-77.650604	-53.742602	113.563459	-53.742602	113.563459	-0.100596	-69.104610
4.600000	-0.115156	-78.432313	-53.481020	112.032256	-53.481020	112.032256	-0.102124	-69.804922
4.650000	-0.116919	-79.211691	-53.221503	110.501301	-53.221503	110.501301	-0.103679	-70.503176
4.700000	-0.118695	-79.990205	-52.967487	108.970513	-52.967487	108.970513	-0.105245	-71.200660
4.750000	-0.120509	-80.766126	-52.714782	107.440223	-52.714782	107.440223	-0.106844	-71.895835
4.800000	-0.122331	-81.541478	-52.467949	105.910086	-52.467949	105.910086	-0.108451	-72.590499
4.850000	-0.124196	-82.313985	-52.221758	104.380708	-52.221758	104.380708	-0.110095	-73.282606
4.900000	-0.126066	-83.086211	-51.981754	102.851424	-51.981754	102.851424	-0.111743	-73.974459
4.950000	-0.127986	-83.855351	-51.741797	101.323165	-51.741797	101.323165	-0.113435	-74.663512
5.000000	-0.129905	-84.624491	-51.508292	99.794906	-51.508292	99.794906	-0.115126	-75.352565
5.050000	-0.131881	-85.390315	-51.274310	98.267934	-51.274310	98.267934	-0.116867	-76.038581
5.100000	-0.133857	-86.156139	-51.046466	96.740962	-51.046466	96.740962	-0.118607	-76.724596
5.150000	-0.135885	-86.918975	-50.818747	95.215299	-50.818747	95.215299	-0.120394	-77.407846
5.200000	-0.137920	-87.681539	-50.596341	93.689755	-50.596341	93.689755	-0.122185	-78.090845
5.250000	-0.140004	-88.441436	-50.374598	92.165496	-50.374598	92.165496	-0.124020	-78.771348
5.300000	-0.142098	-89.200799	-50.157421	90.641494	-50.157421	90.641494	-0.125864	-79.451351
5.350000	-0.144240	-89.957809	-49.941385	89.118719	-49.941385	89.118719	-0.127749	-80.129128
5.400000	-0.146397	-90.714036	-49.729241	87.596354	-49.729241	87.596354	-0.129647	-80.806162
5.450000	-0.148597	-91.468215	-49.518667	86.075132	-49.518667	86.075132	-0.131583	-81.481236
5.500000	-0.150819	-92.221371	-49.311374	84.554482	-49.311374	84.554482	-0.133537	-82.155329
5.550000	-0.153080	-92.972777	-49.106031	83.034873	-49.106031	83.034873	-0.135526	-82.827724
5.600000	-0.155370	-93.722933	-48.903419	81.516007	-48.903419	81.516007	-0.137538	-83.498907
5.650000	-0.157694	-94.471627	-48.703093	79.998064	-48.703093	79.998064	-0.139581	-84.168651
5.700000	-0.160052	-95.218858	-48.505003	78.481044	-48.505003	78.481044	-0.141654	-84.836956
5.750000	-0.162441	-95.964902	-48.309496	76.964817	-48.309496	76.964817	-0.143752	-85.504077
5.800000	-0.164871	-96.709285	-48.115782	75.449702	-48.115782	75.449702	-0.145886	-86.169541
5.850000	-0.167326	-97.452745	-47.924910	73.935242	-47.924910	73.935242	-0.148042	-86.834071
5.900000	-0.169830	-98.194361	-47.735433	72.422092	-47.735433	72.422092	-0.150240	-87.496731
5.950000	-0.172353	-98.935306	-47.549024	70.909450	-47.549024	70.909450	-0.152455	-88.158701
6.000000	-0.174933	-99.674238	-47.363658	69.398332	-47.363658	69.398332	-0.154718	-88.818598
6.050000	-0.177527	-100.412738	-47.181552	67.887564	-47.181552	67.887564	-0.156993	-89.478043
6.100000	-0.180185	-101.149075	-47.000178	66.378551	-47.000178	66.378551	-0.159324	-90.135220
6.150000	-0.182851	-101.885202	-46.822226	64.869720	-46.822226	64.869720	-0.161660	-90.792175
6.200000	-0.185589	-102.619033	-46.644734	63.362896	-46.644734	63.362896	-0.164060	-91.446678
6.250000	-0.188329	-103.352863	-46.470797	61.856072	-46.470797	61.856072	-0.166460	-92.101181
6.300000	-0.191150	-104.084281	-46.297083	60.351536	-46.297083	60.351536	-0.168930	-92.753056
6.350000	-0.193972	-104.815698	-46.126776	58.847001	-46.126776	58.847001	-0.171401	-93.404931
6.400000	-0.196871	-105.544992	-45.956999	57.344668	-45.956999	57.344668	-0.173938	-94.054443
6.450000	-0.199777	-106.274092	-45.790233	55.842535	-45.790233	55.842535	-0.176481	-94.703740
6.500000	-0.202756	-107.001344	-45.624271	54.342515	-45.624271	54.342515	-0.179085	-95.350932
6.550000	-0.205749	-107.728226	-45.460961	52.842917	-45.460961	52.842917	-0.181703	-95.997702
6.600000	-0.208808	-108.453520	-45.298697	51.345334	-45.298697	51.345334	-0.184377	-96.642618
6.650000	-0.211890	-109.178285	-45.138764	49.848423	-45.138764	49.848423	-0.187070	-97.286916
6.700000	-0.215032	-109.901708	-44.980089	48.353418	-44.980089	48.353418	-0.189814	-97.929602
6.750000	-0.218204	-110.624460	-44.823458	46.859365	-44.823458	46.859365	-0.192584	-98.571483
6.800000	-0.221430	-111.346101	-44.668269	45.367092	-44.668269	45.367092	-0.195401	-99.211987
6.850000	-0.224694	-112.066947	-44.514867	43.876091	-44.514867	43.876091	-0.198250	-99.851508
6.900000	-0.228005	-112.786895	-44.363064	42.386722	-44.363064	42.386722	-0.201139	-100.489879
6.950000	-0.231363	-113.505945	-44.212823	40.898985	-44.212823	40.898985	-0.204069	-101.127100
7.000000	-0.234761	-114.224293	-44.064311	39.412707	-44.064311	39.412707	-0.207033	-101.763389
7.050000	-0.238215	-114.941658	-43.917161	37.928470	-43.917161	37.928470	-0.210044	-102.398373
7.100000	-0.241701	-115.658500	-43.771850	36.445485	-43.771850	36.445485	-0.213083	-103.032631
7.150000	-0.245250	-116.374296	-43.627724	34.965002	-43.627724	34.965002	-0.216178	-103.665440
7.200000	-0.248825	-117.089729	-43.485525	33.485527	-43.485525	33.485527	-0.219293	-104.297721
7.250000	-0.252473	-117.804072	-43.344358	32.009073	-43.344358	32.009073	-0.222472	-104.928421
7.300000	-0.256138	-118.518194	-43.205184	30.533339	-43.205184	30.533339	-0.225666	-105.558781
7.350000	-0.259884	-119.231205	-43.066908	29.061205	-43.066908	29.061205	-0.228930	-106.187440
7.400000	-0.263640	-119.944115	-42.930675	27.589457	-42.930675	27.589457	-0.232202	-106.815934
7.450000	-0.267486	-120.655916	-42.795222	26.121949	-42.795222	26.121949	-0.235552	-107.442621
7.500000	-0.271333	-121.367717	-42.661848	24.654441	-42.661848	24.654441	-0.238904	-108.069307
7.550000	-0.275279	-122.078434	-42.529147	23.191880	-42.529147	23.191880	-0.242342	-108.694094
7.600000	-0.279226	-122.789151	-42.398443	21.729319	-42.398443	21.729319	-0.245782	-109.318880
7.650000	-0.283264	-123.498990	-42.268530	20.271596	-42.268530	20.271596	-0.249301	-109.941991
7.700000	-0.287312	-124.208750	-42.140428	18.814312	-42.140428	18.814312	-0.252829	-110.564950
7.750000	-0.291442	-124.917822	-42.013213	17.361708	-42.013213	17.361708	-0.256430	-111.186449
7.800000	-0.295591	-125.626755	-41.887643	15.910040	-41.887643	15.910040	-0.260048	-111.807656
7.850000	-0.299813	-126.335170	-41.763038	14.462841	-41.763038	14.462841	-0.263731	-112.427608
7.900000	-0.304062	-127.043411	-41.639925	13.017131	-41.639925	13.017131	-0.267438	-113.047140
7.950000	-0.308376	-127.751281	-41.517841	11.575623	-41.517841	11.575623	-0.271205	-113.665610
8.000000	-0.312724	-128.458965	-41.397109	10.136216	-41.397109	10.136216	-0.275003	-114.283547
8.050000	-0.317129	-129.166407	-41.277456	8.700684	-41.277456	8.700684	-0.278853	-114.900602
8.100000	-0.321576	-129.873674	-41.159022	7.267921	-41.159022	7.267921	-0.282741	-115.517025
8.150000	-0.326072	-130.580804	-41.041708	5.838647	-41.041708	5.838647	-0.286675	-116.132734
8.200000	-0.330616	-131.287796	-40.925490	4.412864	-40.925490	4.412864	-0.290654	-116.747727
8.250000	-0.335201	-131.994734	-40.810422	2.990123	-40.810422	2.990123	-0.294672	-117.362161
8.300000	-0.339841	-132.701597	-40.696329	1.571645	-40.696329	1.571645	-0.298743	-117.975810
8.350000	-0.344513	-133.408465	-40.583414	0.155705	-40.583414	0.155705	-0.302844	-118.589040
8.400000	-0.349247	-134.115346	-40.471353	-1.255157	-40.471353	-1.255157	-0.307006	-119.201432
8.450000	-0.354005	-134.822270	-40.360495	-2.664040	-40.360495	-2.664040	-0.311191	-119.813532
8.500000	-0.358830	-135.529321	-40.250369	-4.066989	-40.250369	-4.066989	-0.315444	-120.424758
8.550000	-0.363672	-136.236426	-40.141471	-5.468573	-40.141471	-5.468573	-0.319713	-121.035805
8.600000	-0.368585	-136.943803	-40.033178	-6.863335	-40.033178	-6.863335	-0.324056	-121.645956
8.650000	-0.373507	-137.651219	-39.926141	-8.257393	-39.926141	-8.257393	-0.328408	-122.256026
8.700000	-0.378504	-138.359080	-39.819575	-9.643717	-39.819575	-9.643717	-0.332841	-122.865198
8.750000	-0.383505	-139.066940	-39.714301	-11.030041	-39.714301	-11.030041	-0.337276	-123.474370
8.800000	-0.388582	-139.775447	-39.609351	-12.407704	-39.609351	-12.407704	-0.341799	-124.082660
8.850000	-0.393663	-140.483953	-39.505655	-13.785367	-39.505655	-13.785367	-0.346323	-124.690951
8.900000	-0.398810	-141.193205	-39.402291	-15.154913	-39.402291	-15.154913	-0.350926	-125.298524
8.950000	-0.403966	-141.902523	-39.300063	-16.523722	-39.300063	-16.523722	-0.355539	-125.906032
9.000000	-0.409178	-142.612661	-39.198174	-17.885019	-39.198174	-17.885019	-0.360222	-126.512974
9.050000	-0.414404	-143.322962	-39.097299	-19.244814	-39.097299	-19.244814	-0.364922	-127.119802
9.100000	-0.419676	-144.034131	-38.996776	-20.597755	-38.996776	-20.597755	-0.369684	-127.726200
9.150000	-0.424966	-144.745588	-38.897137	-21.948412	-38.897137	-21.948412	-0.374469	-128.332455
9.200000	-0.430292	-145.457936	-38.797866	-23.292920	-38.797866	-23.292920	-0.379309	-128.938398
9.250000	-0.435639	-146.170729	-38.699342	-24.634353	-38.699342	-24.634353	-0.384178	-129.544187
9.300000	-0.441013	-146.884407	-38.601213	-25.970379	-38.601213	-25.970379	-0.389095	-130.149768
9.350000	-0.446408	-147.598717	-38.503679	-27.302544	-38.503679	-27.302544	-0.394045	-130.755201
9.400000	-0.451823	-148.313880	-38.406579	-28.630072	-38.406579	-28.630072	-0.399036	-131.360515
9.450000	-0.457259	-149.029896	-38.309910	-29.952965	-38.309910	-29.952965	-0.404067	-131.965708
9.500000	-0.462708	-149.746702	-38.213724	-31.272012	-38.213724	-31.272012	-0.409130	-132.570850
9.550000	-0.468173	-150.464615	-38.117790	-32.585675	-38.117790	-32.585675	-0.414237	-133.175920
9.600000	-0.473647	-151.183227	-38.022407	-33.896291	-38.022407	-33.896291	-0.419370	-133.780989
9.650000	-0.479133	-151.903235	-37.927077	-35.200812	-37.927077	-35.200812	-0.424552	-134.386057
9.700000	-0.484622	-152.623818	-37.832382	-36.503081	-37.832382	-36.503081	-0.429753	-134.991155
9.750000	-0.490116	-153.346123	-37.737522	-37.798595	-37.737522	-37.798595	-0.435006	-135.596346
9.800000	-0.495611	-154.068846	-37.643402	-39.092638	-37.643402	-39.092638	-0.440272	-136.201578
9.850000	-0.501099	-154.793657	-37.548879	-40.379329	-37.548879	-40.379329	-0.445593	-136.807019
9.900000	-0.506589	-155.518695	-37.455221	-41.665305	-37.455221	-41.665305	-0.450921	-137.412492
9.950000	-0.512058	-156.246225	-37.360898	-42.943409	-37.360898	-42.943409	-0.456305	-138.018316
10.000000	-0.517531	-156.973755	-37.267589	-44.221513	-37.267589	-44.221513	-0.461693	-138.624139
