! freq	dB(S11)	phase(S11)	dB(S12)	phase(S12)	
!     	dB(S21)	phase(S21)	dB(S22)	phase(S22)	
!S-par simulation data
#  GHz  S  DB  R 50
0.000000	-6153.053111	0.000000	-0.000000	0.000000	-0.000000	0.000000	-6153.053111	0.000000
0.050000	-37.482918	-92.788132	-0.004112	-2.727007	-0.004112	-2.727007	-37.487519	-92.779734
0.100000	-31.479546	-95.556416	-0.012518	-5.421865	-0.012518	-5.421865	-31.482632	-95.545534
0.150000	-27.983308	-98.296357	-0.021357	-8.094487	-0.021357	-8.094487	-27.984901	-98.289802
0.200000	-25.516531	-101.009803	-0.030248	-10.757939	-0.030248	-10.757939	-25.517153	-101.011664
0.250000	-23.615642	-103.702988	-0.039688	-13.417244	-0.039688	-13.417244	-23.615872	-103.714277
0.300000	-22.074100	-106.381924	-0.050048	-16.073351	-0.050048	-16.073351	-22.074355	-106.401855
0.350000	-20.782890	-109.050245	-0.061573	-18.725680	-0.061573	-18.725680	-20.783410	-109.077340
0.400000	-19.675632	-111.710686	-0.074274	-21.373667	-0.074274	-21.373667	-19.676506	-111.743561
0.450000	-18.710222	-114.364246	-0.088148	-24.016579	-0.088148	-24.016579	-18.711461	-114.401764
0.500000	-17.858754	-117.010952	-0.103199	-26.653457	-0.103199	-26.653457	-17.860326	-117.052231
0.550000	-17.100093	-119.650964	-0.119313	-29.283879	-0.119313	-29.283879	-17.101948	-119.695407
0.600000	-16.418881	-122.284121	-0.136387	-31.907430	-0.136387	-31.907430	-16.420961	-122.331332
0.650000	-15.804119	-124.909905	-0.154342	-34.523487	-0.154342	-34.523487	-15.806367	-124.959622
0.700000	-15.246823	-127.527988	-0.173057	-37.131712	-0.173057	-37.131712	-15.249188	-127.580059
0.750000	-14.739371	-130.138314	-0.192393	-39.732092	-0.192393	-39.732092	-14.741807	-130.192665
0.800000	-14.276234	-132.740572	-0.212232	-42.324382	-0.212232	-42.324382	-14.278700	-132.797179
0.850000	-13.853261	-135.334336	-0.232453	-44.908240	-0.232453	-44.908240	-13.855721	-135.393212
0.900000	-13.465777	-137.919904	-0.252911	-47.484052	-0.252911	-47.484052	-13.468203	-137.981087
0.950000	-13.110526	-140.497279	-0.273479	-50.051907	-0.273479	-50.051907	-13.112893	-140.560825
1.000000	-12.785613	-143.066107	-0.294022	-52.611562	-0.294022	-52.611562	-12.787898	-143.132086
1.050000	-12.487891	-145.626943	-0.314410	-55.163648	-0.314410	-55.163648	-12.490076	-145.695432
1.100000	-12.215285	-148.180047	-0.334523	-57.708510	-0.334523	-57.708510	-12.217358	-148.251126
1.150000	-11.966643	-150.725443	-0.354220	-60.246284	-0.354220	-60.246284	-11.968593	-150.799201
1.200000	-11.740231	-153.263627	-0.373384	-62.777544	-0.373384	-62.777544	-11.742049	-153.340153
1.250000	-11.534435	-155.795176	-0.391914	-65.302939	-0.391914	-65.302939	-11.536117	-155.874559
1.300000	-11.348453	-158.320452	-0.409686	-67.822933	-0.409686	-67.822933	-11.349995	-158.402787
1.350000	-11.182441	-160.839633	-0.426519	-70.337867	-0.426519	-70.337867	-11.183843	-160.925023
1.400000	-11.032891	-163.354282	-0.442485	-72.849212	-0.442485	-72.849212	-11.034155	-163.442818
1.450000	-10.900486	-165.864525	-0.457410	-75.357265	-0.457410	-75.357265	-10.901615	-165.956308
1.500000	-10.786168	-168.370735	-0.471083	-77.862621	-0.471083	-77.862621	-10.787169	-168.465885
1.550000	-10.687833	-170.874109	-0.483548	-80.366439	-0.483548	-80.366439	-10.688713	-170.972741
1.600000	-10.605103	-173.375410	-0.494735	-82.869574	-0.494735	-82.869574	-10.605872	-173.477649
1.650000	-10.537688	-175.875438	-0.504583	-85.372919	-0.504583	-85.372919	-10.538357	-175.981416
1.700000	-10.484792	-178.375014	-0.513096	-87.877329	-0.513096	-87.877329	-10.485372	-178.484872
1.750000	-10.447994	179.124984	-0.520061	-90.383982	-0.520061	-90.383982	-10.448501	179.011074
1.800000	-10.426403	176.623600	-0.525520	-92.893861	-0.525520	-92.893861	-10.426853	176.505456
1.850000	-10.420081	174.119890	-0.529441	-95.408047	-0.529441	-95.408047	-10.420489	173.997308
1.900000	-10.429348	171.612841	-0.531785	-97.927727	-0.531785	-97.927727	-10.429732	171.485592
1.950000	-10.454458	169.101442	-0.532538	-100.454099	-0.532538	-100.454099	-10.454835	168.969267
2.000000	-10.495591	166.584737	-0.531713	-102.988301	-0.531713	-102.988301	-10.495978	166.447354
2.050000	-10.553201	164.061733	-0.529320	-105.531576	-0.529320	-105.531576	-10.553615	163.918824
2.100000	-10.627859	161.531439	-0.525384	-108.085214	-0.525384	-108.085214	-10.628314	161.382650
2.150000	-10.720261	158.992871	-0.519947	-110.650543	-0.519947	-110.650543	-10.720774	158.837811
2.200000	-10.831250	156.445064	-0.513079	-113.228898	-0.513079	-113.228898	-10.831832	156.283298
2.250000	-10.961826	153.887080	-0.504877	-115.821549	-0.504877	-115.821549	-10.962488	153.718130
2.300000	-11.113174	151.318024	-0.495460	-118.429596	-0.495460	-118.429596	-11.113926	151.141358
2.350000	-11.286694	148.737055	-0.484952	-121.053888	-0.484952	-121.053888	-11.287541	148.552088
2.400000	-11.484030	146.143412	-0.473446	-123.695100	-0.473446	-123.695100	-11.484977	145.949493
2.450000	-11.707124	143.536437	-0.460996	-126.353968	-0.460996	-126.353968	-11.708173	143.332841
2.500000	-11.958266	140.915611	-0.447638	-129.031519	-0.447638	-129.031519	-11.959420	140.701524
2.550000	-12.240694	138.280286	-0.433415	-131.729542	-0.433415	-131.729542	-12.241951	138.054759
2.600000	-12.557191	135.630692	-0.418453	-134.449088	-0.418453	-134.449088	-12.558553	135.392655
2.650000	-12.911668	132.967094	-0.402900	-137.191579	-0.402900	-137.191579	-12.913137	132.715291
2.700000	-13.308869	130.290214	-0.386931	-139.958335	-0.386931	-139.958335	-13.310450	130.023148
2.750000	-13.754613	127.601399	-0.370745	-142.750566	-0.370745	-142.750566	-13.756317	127.317254
2.800000	-14.256129	124.902881	-0.354555	-145.569377	-0.354555	-145.569377	-14.257974	124.599400
2.850000	-14.822549	122.198158	-0.338587	-148.415785	-0.338587	-148.415785	-14.824564	121.872480
2.900000	-15.465620	119.492614	-0.323081	-151.290725	-0.323081	-151.290725	-15.467850	119.141021
2.950000	-16.200805	116.794528	-0.308290	-154.195042	-0.308290	-154.195042	-16.203322	116.412060
3.000000	-17.049033	114.116845	-0.294479	-157.129496	-0.294479	-157.129496	-17.051947	113.696670
3.050000	-18.039616	111.480422	-0.281927	-160.094747	-0.281927	-160.094747	-18.043108	111.012776
3.100000	-19.215432	108.920464	-0.270926	-163.091351	-0.270926	-163.091351	-19.219811	108.390719
3.150000	-20.643563	106.503332	-0.261805	-166.120095	-0.261805	-166.120095	-20.649408	105.887766
3.200000	-22.435292	104.364470	-0.254889	-169.181295	-0.254889	-169.181295	-22.443824	103.621103
3.250000	-24.797022	102.818843	-0.250486	-172.274767	-0.250486	-172.274767	-24.811326	101.863909
3.300000	-28.185849	102.843596	-0.248929	-175.400521	-0.248929	-175.400521	-28.216614	101.467633
3.350000	-33.944373	109.680560	-0.250561	-178.558409	-0.250561	-178.558409	-34.064080	107.095775
3.400000	-41.583725	-175.627801	-0.255728	178.251889	-0.255728	178.251889	-42.286163	-175.178907
3.450000	-32.832374	-113.313707	-0.264777	175.030867	-0.264777	175.030867	-32.924802	-111.192602
3.500000	-27.194475	-107.916062	-0.278058	171.779204	-0.278058	171.779204	-27.218957	-106.870090
3.550000	-23.685122	-108.295033	-0.295916	168.497764	-0.295916	168.497764	-23.696281	-107.639776
3.600000	-21.132662	-110.142851	-0.318688	165.187600	-0.318688	165.187600	-21.139154	-109.688313
3.650000	-19.122307	-112.596476	-0.346704	161.849949	-0.346704	161.849949	-19.126672	-112.264770
3.700000	-17.462105	-115.366215	-0.380282	158.486233	-0.380282	158.486233	-17.465346	-115.117972
3.750000	-16.047796	-118.326474	-0.419723	155.098047	-0.419723	155.098047	-16.050382	-118.139073
3.800000	-14.816243	-121.415196	-0.465441	151.686702	-0.465441	151.686702	-14.818426	-121.274268
3.850000	-13.727086	-124.592928	-0.517572	148.254651	-0.517572	148.254651	-13.729009	-124.489143
3.900000	-12.752283	-127.837265	-0.576347	144.803947	-0.576347	144.803947	-12.754032	-127.764075
3.950000	-11.871766	-131.132967	-0.641974	141.336754	-0.641974	141.336754	-11.873398	-131.085611
4.000000	-11.070660	-134.468130	-0.714451	137.855653	-0.714451	137.855653	-11.072211	-134.443123
4.050000	-10.337584	-137.836133	-0.794243	134.362294	-0.794243	134.362294	-10.339079	-137.830671
4.100000	-9.663764	-141.229506	-0.881378	130.859291	-0.881378	130.859291	-9.665222	-141.241451
4.150000	-9.042146	-144.642466	-0.975903	127.349102	-0.975903	127.349102	-9.043578	-144.670138
4.200000	-8.466972	-148.070206	-1.077850	123.834112	-1.077850	123.834112	-8.468387	-148.112259
4.250000	-7.933487	-151.508595	-1.187240	120.316637	-1.187240	120.316637	-7.934892	-151.563935
4.300000	-7.437698	-154.953980	-1.304064	116.798928	-1.304064	116.798928	-7.439097	-155.021710
4.350000	-6.976204	-158.403108	-1.428285	113.283147	-1.428285	113.283147	-6.977601	-158.482483
4.400000	-6.546121	-161.853060	-1.559872	109.771376	-1.559872	109.771376	-6.547517	-161.943458
4.450000	-6.144893	-165.301198	-1.698735	106.265569	-1.698735	106.265569	-6.146291	-165.402096
4.500000	-5.770214	-168.745214	-1.844742	102.767477	-1.844742	102.767477	-5.771616	-168.856173
4.550000	-5.420072	-172.183073	-1.997777	99.278714	-1.997777	99.278714	-5.421480	-172.303718
4.600000	-5.092897	-175.612765	-2.157800	95.801023	-2.157800	95.801023	-5.094311	-175.742770
4.650000	-4.786642	-179.033120	-2.324501	92.335195	-2.324501	92.335195	-4.788064	-179.172215
4.700000	-4.500004	177.557310	-2.497816	88.882534	-2.497816	88.882534	-4.501436	177.409363
4.750000	-4.231630	174.159604	-2.677602	85.443966	-2.677602	85.443966	-4.233072	174.003012
4.800000	-3.980274	170.774631	-2.863720	82.020248	-2.863720	82.020248	-3.981728	170.609575
4.850000	-3.744793	167.403062	-3.056035	78.611974	-3.056035	78.611974	-3.746259	167.229703
4.900000	-3.524129	164.045385	-3.254421	75.219578	-3.254421	75.219578	-3.525609	163.863864
4.950000	-3.317303	160.701915	-3.458765	71.843347	-3.458765	71.843347	-3.318798	160.512358
5.000000	-3.123409	157.372809	-3.668966	68.483432	-3.668966	68.483432	-3.124919	157.175330
5.050000	-2.941772	154.058394	-3.884943	65.140209	-3.884943	65.140209	-2.943299	153.853098
5.100000	-2.771430	150.758233	-4.106613	61.813227	-4.106613	61.813227	-2.772975	150.545214
5.150000	-2.611655	147.472091	-4.333930	58.502289	-4.333930	58.502289	-2.613218	147.251435
5.200000	-2.461771	144.199633	-4.566873	55.207112	-4.566873	55.207112	-2.463354	143.971421
5.250000	-2.321152	140.940436	-4.805441	51.927338	-4.805441	51.927338	-2.322755	140.704743
5.300000	-2.189212	137.694005	-5.049660	48.662549	-5.049660	48.662549	-2.190836	137.450904
5.350000	-2.065412	134.459782	-5.299580	45.412277	-5.299580	45.412277	-2.067057	134.209342
5.400000	-1.949245	131.237161	-5.555278	42.176018	-5.555278	42.176018	-1.950913	130.979448
5.450000	-1.840246	128.025493	-5.816858	38.953241	-5.816858	38.953241	-1.841936	127.760575
5.500000	-1.737980	124.824102	-6.084454	35.743403	-6.084454	35.743403	-1.739693	124.552042
5.550000	-1.642044	121.632288	-6.358228	32.545954	-6.358228	32.545954	-1.643780	121.353153
5.600000	-1.552064	118.449341	-6.638371	29.360351	-6.638371	29.360351	-1.553824	118.163196
5.650000	-1.468333	115.275587	-6.924706	26.187593	-6.924706	26.187593	-1.470117	114.982508
5.700000	-1.389271	112.108185	-7.218235	23.024168	-7.218235	23.024168	-1.391079	111.808233
5.750000	-1.315199	108.947489	-7.518900	19.871085	-7.518900	19.871085	-1.317031	108.640733
5.800000	-1.245841	105.792797	-7.827027	16.727920	-7.827027	16.727920	-1.247698	105.479312
5.850000	-1.180619	102.643034	-8.143289	13.593498	-8.143289	13.593498	-1.182500	102.322888
5.900000	-1.120000	99.498418	-8.467439	10.469214	-8.467439	10.469214	-1.121906	99.171698
5.950000	-1.063383	96.357794	-8.800249	7.353888	-8.800249	7.353888	-1.065314	96.024585
6.000000	-1.010569	93.220543	-9.142205	4.247344	-9.142205	4.247344	-1.012524	92.880930
6.050000	-0.961369	90.086066	-9.493835	1.149488	-9.493835	1.149488	-0.963350	89.740143
6.100000	-0.915613	86.953792	-9.855719	-1.939684	-9.855719	-1.939684	-0.917618	86.601656
6.150000	-0.873140	83.823177	-10.228489	-5.020073	-10.228489	-5.020073	-0.875171	83.464929
6.200000	-0.833804	80.693700	-10.612836	-8.091471	-10.612836	-8.091471	-0.835861	80.329448
6.250000	-0.797468	77.564865	-11.009512	-11.153549	-11.009512	-11.153549	-0.799550	77.194724
6.300000	-0.764062	74.436194	-11.419209	-14.205614	-11.419209	-14.205614	-0.766171	74.060285
6.350000	-0.733409	71.307221	-11.842934	-17.247244	-11.842934	-17.247244	-0.735545	70.925671
6.400000	-0.705401	68.177514	-12.281663	-20.277644	-12.281663	-20.277644	-0.707563	67.790457
6.450000	-0.679936	65.046655	-12.736462	-23.295834	-12.736462	-23.295834	-0.682126	64.654231
6.500000	-0.657051	61.914137	-13.208061	-26.299844	-13.208061	-26.299844	-0.659268	61.516500
6.550000	-0.636424	58.779709	-13.698478	-29.289536	-13.698478	-29.289536	-0.638670	58.377009
6.600000	-0.618082	55.642908	-14.208790	-32.262637	-14.208790	-32.262637	-0.620357	55.235307
6.650000	-0.601951	52.503324	-14.740534	-35.217126	-14.740534	-35.217126	-0.604255	52.090991
6.700000	-0.587962	49.360533	-15.295397	-38.150630	-15.295397	-38.150630	-0.590297	48.943646
6.750000	-0.576054	46.214086	-15.875237	-41.060371	-15.875237	-41.060371	-0.578420	45.792831
6.800000	-0.566169	43.063502	-16.482093	-43.943112	-16.482093	-43.943112	-0.568566	42.638074
6.850000	-0.558254	39.908256	-17.118207	-46.795095	-17.118207	-46.795095	-0.560684	39.478856
6.900000	-0.552264	36.747763	-17.786033	-49.611980	-17.786033	-49.611980	-0.554726	36.314602
6.950000	-0.548156	33.581362	-18.488247	-52.388794	-18.488247	-52.388794	-0.550652	33.144661
7.000000	-0.545897	30.408303	-19.227747	-55.119905	-19.227747	-55.119905	-0.548428	29.968289
7.050000	-0.545458	27.227721	-20.007632	-57.799060	-20.007632	-57.799060	-0.548024	26.784632
7.100000	-0.546819	24.038609	-20.831148	-60.419533	-20.831148	-60.419533	-0.549421	23.592693
7.150000	-0.549969	20.839794	-21.701588	-62.974522	-21.701588	-62.974522	-0.552608	20.391308
7.200000	-0.554910	17.629895	-22.622103	-65.457948	-22.622103	-65.457948	-0.557586	17.179108
7.250000	-0.561654	14.407284	-23.595368	-67.866033	-23.595368	-67.866033	-0.564369	13.954474
7.300000	-0.570152	11.170806	-24.626335	-70.202657	-24.626335	-70.202657	-0.572906	10.716252
7.350000	-0.580639	7.916513	-25.707845	-72.472826	-25.707845	-72.472826	-0.583433	7.460535
7.400000	-0.593099	4.642475	-26.839476	-74.712450	-26.839476	-74.712450	-0.595932	4.185393
7.450000	-0.607652	1.345377	-28.011638	-76.989171	-28.011638	-76.989171	-0.610525	0.887527
7.500000	-0.624468	-1.978781	-29.205327	-79.431181	-29.205327	-79.431181	-0.627381	-2.437042
7.550000	-0.643956	-5.337212	-30.372825	-82.312878	-30.372825	-82.312878	-0.646909	-5.795483
7.600000	-0.666273	-8.733573	-31.467196	-85.979000	-31.467196	-85.979000	-0.669265	-9.191451
7.650000	-0.691874	-12.174976	-32.395135	-90.906912	-32.395135	-90.906912	-0.694903	-12.632031
7.700000	-0.721041	-15.665384	-33.054147	-97.416616	-33.054147	-97.416616	-0.724107	-16.121182
7.750000	-0.755409	-19.226350	-33.184861	-106.057002	-33.184861	-106.057002	-0.758507	-19.680324
7.800000	-0.795805	-22.865740	-32.670350	-116.133623	-32.670350	-116.133623	-0.798931	-23.317308
7.850000	-0.844205	-26.603196	-31.459946	-126.517324	-31.459946	-126.517324	-0.847349	-27.051682
7.900000	-0.903428	-30.462761	-29.676334	-136.112734	-29.676334	-136.112734	-0.906579	-30.907371
7.950000	-0.977028	-34.468468	-27.548717	-144.567942	-27.548717	-144.567942	-0.980166	-34.908292
8.000000	-1.070889	-38.656257	-25.239819	-152.063960	-25.239819	-152.063960	-1.073984	-39.090182
8.050000	-1.195527	-43.081122	-22.828348	-159.007468	-22.828348	-159.007468	-1.198529	-43.507694
8.100000	-1.364133	-47.785471	-20.408477	-165.870833	-20.408477	-165.870833	-1.366960	-48.202899
8.150000	-1.599320	-52.825149	-18.007714	-173.048144	-18.007714	-173.048144	-1.601834	-53.231071
8.200000	-1.943815	-58.261353	-15.617795	179.037423	-15.617795	179.037423	-1.945752	-58.652368
8.250000	-2.458145	-64.054026	-13.287663	170.010186	-13.287663	170.010186	-2.459016	-64.425501
8.300000	-3.245547	-69.959850	-11.056394	159.462931	-11.056394	159.462931	-3.244336	-70.305246
8.350000	-4.457279	-75.095502	-9.003509	147.054286	-9.003509	147.054286	-4.451698	-75.406633
8.400000	-6.213160	-77.050304	-7.261150	132.784300	-7.261150	132.784300	-6.197971	-77.325303
8.450000	-8.214412	-71.224456	-5.966210	117.263188	-5.966210	117.263188	-8.180917	-71.509784
8.500000	-9.081788	-56.390407	-5.180847	101.678805	-5.180847	101.678805	-9.034750	-56.815457
8.550000	-8.078400	-44.023497	-4.843711	87.260620	-4.843711	87.260620	-8.041087	-44.581193
8.600000	-6.575625	-40.264539	-4.812889	74.699443	-4.812889	74.699443	-6.551642	-40.853038
8.650000	-5.371268	-41.488397	-4.945809	64.048487	-4.945809	64.048487	-5.355646	-42.068828
8.700000	-4.521599	-44.710515	-5.146148	55.050271	-5.146148	55.050271	-4.510854	-45.275373
8.750000	-3.931892	-48.601495	-5.359552	47.351856	-5.359552	47.351856	-3.924135	-49.151040
8.800000	-3.521496	-52.644935	-5.559111	40.671162	-5.559111	40.671162	-3.515668	-53.180870
8.850000	-3.230204	-56.643068	-5.734036	34.751170	-5.734036	34.751170	-3.225691	-57.167025
8.900000	-3.021477	-60.530648	-5.880934	29.418658	-5.880934	29.418658	-3.017895	-61.043967
8.950000	-2.869433	-64.297603	-6.001304	24.527455	-6.001304	24.527455	-2.866537	-64.801293
9.000000	-2.758979	-67.947804	-6.096930	19.986854	-6.096930	19.986854	-2.756595	-68.442650
9.050000	-2.679289	-71.493164	-6.170515	15.723869	-6.170515	15.723869	-2.677295	-71.979767
9.100000	-2.624990	-74.937509	-6.222755	11.705079	-6.222755	11.705079	-2.623289	-75.416376
9.150000	-2.586328	-78.312729	-6.260342	7.843627	-6.260342	7.843627	-2.584859	-78.784173
9.200000	-2.561778	-81.620766	-6.283540	4.129596	-6.283540	4.129596	-2.560488	-82.085069
9.250000	-2.548517	-84.871525	-6.294364	0.537398	-6.294364	0.537398	-2.547364	-85.328910
9.300000	-2.544428	-88.073558	-6.294558	-2.953305	-6.294558	-2.953305	-2.543376	-88.524203
9.350000	-2.547898	-91.234230	-6.285632	-6.358860	-6.285632	-6.358860	-2.546921	-91.678280
9.400000	-2.557865	-94.358883	-6.268648	-9.690474	-6.268648	-9.690474	-2.556939	-94.796463
9.450000	-2.573279	-97.453485	-6.244812	-12.959948	-6.244812	-12.959948	-2.572384	-97.884698
9.500000	-2.593182	-100.523909	-6.215324	-16.178522	-6.215324	-16.178522	-2.592301	-100.948844
9.550000	-2.616973	-103.574281	-6.180992	-19.353611	-6.180992	-19.353611	-2.616092	-103.993019
9.600000	-2.644163	-106.608259	-6.142519	-22.491518	-6.142519	-22.491518	-2.643271	-107.020874
9.650000	-2.674349	-109.629109	-6.100515	-25.597653	-6.100515	-25.597653	-2.673436	-110.035674
9.700000	-2.707196	-112.639770	-6.055518	-28.676699	-6.055518	-28.676699	-2.706253	-113.040360
9.750000	-2.742420	-115.642906	-6.008000	-31.732745	-6.008000	-31.732745	-2.741440	-116.037598
9.800000	-2.779779	-118.640949	-5.958383	-34.769390	-5.958383	-34.769390	-2.778756	-119.029824
9.850000	-2.819065	-121.636130	-5.907043	-37.789829	-5.907043	-37.789829	-2.817994	-122.019278
9.900000	-2.860095	-124.630513	-5.854321	-40.796915	-5.854321	-40.796915	-2.858973	-125.008028
9.950000	-2.902707	-127.626010	-5.800527	-43.793217	-5.800527	-43.793217	-2.901532	-127.997998
10.000000	-2.946755	-130.624406	-5.745949	-46.781058	-5.745949	-46.781058	-2.945525	-130.990983
