! freq	dB(S11)	phase(S11)	dB(S12)	phase(S12)	
!     	dB(S21)	phase(S21)	dB(S22)	phase(S22)	
!S-par simulation data
#  GHz  S  DB  R 50
0.000000	-82.643498	0.000000	-0.000641	0.000000	-0.000641	0.000000	-82.643498	0.000000
0.050000	-54.973295	-78.171682	-0.004624	-2.503885	-0.004624	-2.503885	-54.971472	-77.734723
0.100000	-49.337421	-87.951357	-0.010003	-4.971971	-0.010003	-4.971971	-49.322515	-87.137088
0.150000	-45.929988	-93.205721	-0.013912	-7.428590	-0.013912	-7.428590	-45.912946	-91.975261
0.200000	-43.514819	-97.283749	-0.017192	-9.883393	-0.017192	-9.883393	-43.497727	-95.630726
0.250000	-41.664172	-100.850719	-0.020292	-12.337511	-0.020292	-12.337511	-41.647893	-98.768356
0.300000	-40.182978	-104.153712	-0.023371	-14.790747	-0.023371	-14.790747	-40.168072	-101.632739
0.350000	-38.958475	-107.329536	-0.026449	-17.243059	-0.026449	-17.243059	-38.945267	-104.359633
0.400000	-37.929039	-110.422043	-0.029508	-19.694394	-0.029508	-19.694394	-37.917840	-106.990092
0.450000	-37.053444	-113.462768	-0.032520	-22.144853	-0.032520	-22.144853	-37.044539	-109.553003
0.500000	-36.308375	-116.469519	-0.035456	-24.594544	-0.035456	-24.594544	-36.302097	-112.061135
0.550000	-35.670782	-119.458288	-0.038309	-27.043718	-0.038309	-27.043718	-35.667415	-114.527832
0.600000	-35.125310	-122.438429	-0.041075	-29.492569	-0.041075	-29.492569	-35.125138	-116.958828
0.650000	-34.661654	-125.416770	-0.043759	-31.941259	-0.043759	-31.941259	-34.664997	-119.356212
0.700000	-34.272275	-128.399226	-0.046364	-34.389934	-0.046364	-34.389934	-34.279516	-121.720391
0.750000	-33.951741	-131.391451	-0.048899	-36.838721	-0.048899	-36.838721	-33.963344	-124.050572
0.800000	-33.697676	-134.399909	-0.051372	-39.287740	-0.051372	-39.287740	-33.714245	-126.344109
0.850000	-33.511708	-137.433742	-0.053789	-41.737124	-0.053789	-41.737124	-33.534073	-128.595527
0.900000	-33.387547	-140.499577	-0.056165	-44.186936	-0.056165	-44.186936	-33.416643	-130.804662
0.950000	-33.325144	-143.607338	-0.058508	-46.637255	-0.058508	-46.637255	-33.362143	-132.967034
1.000000	-33.325505	-146.769263	-0.060826	-49.088157	-0.060826	-49.088157	-33.371888	-135.076804
1.050000	-33.390730	-150.000639	-0.063128	-51.539712	-0.063128	-51.539712	-33.448391	-137.126237
1.100000	-33.524122	-153.320824	-0.065420	-53.991988	-0.065420	-53.991988	-33.595523	-139.104917
1.150000	-33.734357	-156.762578	-0.067710	-56.445101	-0.067710	-56.445101	-33.822949	-140.993003
1.200000	-34.026592	-160.360750	-0.070004	-58.899104	-0.070004	-58.899104	-34.137058	-142.769772
1.250000	-34.407198	-164.158854	-0.072309	-61.354041	-0.072309	-61.354041	-34.546004	-144.407930
1.300000	-34.889133	-168.229768	-0.074634	-63.809997	-0.074634	-63.809997	-35.065830	-145.858972
1.350000	-35.489002	-172.684125	-0.076985	-66.267064	-0.076985	-66.267064	-35.718293	-147.046319
1.400000	-36.223150	-177.660972	-0.079370	-68.725268	-0.079370	-68.725268	-36.527848	-147.868630
1.450000	-37.116490	176.603308	-0.081797	-71.184679	-0.081797	-71.184679	-37.534513	-148.144606
1.500000	-38.201698	169.637791	-0.084276	-73.645430	-0.084276	-73.645430	-38.802443	-147.485593
1.550000	-39.499411	160.798157	-0.086816	-76.107515	-0.086816	-76.107515	-40.411780	-145.265228
1.600000	-41.000825	148.905243	-0.089426	-78.570994	-0.089426	-78.570994	-42.480777	-140.080017
1.650000	-42.532412	131.813500	-0.092121	-81.035989	-0.092121	-81.035989	-45.063103	-128.101419
1.700000	-43.526983	108.153704	-0.094911	-83.502516	-0.094911	-83.502516	-47.413073	-102.369598
1.750000	-43.195667	81.108200	-0.097806	-85.970598	-0.097806	-85.970598	-46.980287	-66.345945
1.800000	-41.550244	57.784596	-0.100823	-88.440299	-0.100823	-88.440299	-43.917325	-41.992903
1.850000	-39.419696	41.063565	-0.103974	-90.911655	-0.103974	-90.911655	-40.782346	-30.886085
1.900000	-37.335960	29.354419	-0.107277	-93.384712	-0.107277	-93.384712	-38.164633	-26.022583
1.950000	-35.453349	20.688342	-0.110748	-95.859488	-0.110748	-95.859488	-35.992498	-24.018229
2.000000	-33.780803	13.841057	-0.114402	-98.335975	-0.114402	-98.335975	-34.151528	-23.487867
2.050000	-32.290554	8.141863	-0.118255	-100.814169	-0.118255	-100.814169	-32.556578	-23.813658
2.100000	-30.952509	3.199961	-0.122323	-103.294058	-0.122323	-103.294058	-31.149697	-24.676075
2.150000	-29.741038	-1.221430	-0.126625	-105.775618	-0.126625	-105.775618	-29.890837	-25.895413
2.200000	-28.635616	-5.271954	-0.131177	-108.258811	-0.131177	-108.258811	-28.751533	-27.363519
2.250000	-27.620043	-9.049972	-0.135995	-110.743588	-0.135995	-110.743588	-27.710963	-29.011638
2.300000	-26.681507	-12.622429	-0.141096	-113.229887	-0.141096	-113.229887	-26.753493	-30.794049
2.350000	-25.809787	-16.036289	-0.146496	-115.717633	-0.146496	-115.717633	-25.867107	-32.679195
2.400000	-24.996644	-19.325384	-0.152208	-118.206739	-0.152208	-118.206739	-25.042383	-34.644591
2.450000	-24.235360	-22.514650	-0.158248	-120.697105	-0.158248	-120.697105	-24.271801	-36.673778
2.500000	-23.520399	-25.622837	-0.164627	-123.188617	-0.164627	-123.188617	-23.549264	-38.754419
2.550000	-22.846904	-28.663098	-0.171364	-125.681171	-0.171364	-125.681171	-22.869520	-40.877816
2.600000	-22.211336	-31.648164	-0.178462	-128.174606	-0.178462	-128.174606	-22.228731	-43.035605
2.650000	-21.610391	-34.586691	-0.185927	-130.668775	-0.185927	-130.668775	-21.623378	-45.222028
2.700000	-21.041245	-37.485597	-0.193767	-133.163522	-0.193767	-133.163522	-21.050473	-47.432436
2.750000	-20.501466	-40.350462	-0.201983	-135.658684	-0.201983	-135.658684	-20.507461	-49.663026
2.800000	-19.988942	-43.185834	-0.210576	-138.154090	-0.210576	-138.154090	-19.992132	-51.910650
2.850000	-19.501832	-45.995448	-0.219546	-140.649563	-0.219546	-140.649563	-19.502568	-54.172668
2.900000	-19.038518	-48.782394	-0.228889	-143.144922	-0.228889	-143.144922	-19.037091	-56.446841
2.950000	-18.597572	-51.549249	-0.238596	-145.639985	-0.238596	-145.639985	-18.594223	-58.731257
3.000000	-18.177724	-54.298176	-0.248660	-148.134566	-0.248660	-148.134566	-18.172655	-61.024263
3.050000	-17.777846	-57.031001	-0.259068	-150.628481	-0.259068	-150.628481	-17.771225	-63.324417
3.100000	-17.396924	-59.749278	-0.269805	-153.121550	-0.269805	-153.121550	-17.388894	-65.630459
3.150000	-17.034079	-62.454204	-0.280855	-155.613580	-0.280855	-155.613580	-17.024758	-67.941312
3.200000	-16.688509	-65.146957	-0.292199	-158.104395	-0.292199	-158.104395	-16.677999	-70.255955
3.250000	-16.359447	-67.828667	-0.303807	-160.593841	-0.303807	-160.593841	-16.347830	-72.573461
3.300000	-16.046212	-70.500196	-0.315656	-163.081763	-0.315656	-163.081763	-16.033559	-74.893041
3.350000	-15.748189	-73.162308	-0.327716	-165.568017	-0.327716	-165.568017	-15.734558	-77.213989
3.400000	-15.464814	-75.815685	-0.339956	-168.052472	-0.339956	-168.052472	-15.450253	-79.535666
3.450000	-15.195573	-78.460943	-0.352343	-170.535009	-0.352343	-170.535009	-15.180122	-81.857499
3.500000	-14.939995	-81.098644	-0.364841	-173.015525	-0.364841	-173.015525	-14.923684	-84.178968
3.550000	-14.697648	-83.729310	-0.377414	-175.493934	-0.377414	-175.493934	-14.680502	-86.499607
3.600000	-14.468137	-86.353429	-0.390023	-177.970167	-0.390023	-177.970167	-14.450174	-88.818994
3.650000	-14.251098	-88.971467	-0.402628	179.555827	-0.402628	179.555827	-14.232330	-91.136754
3.700000	-14.046199	-91.583872	-0.415187	177.084079	-0.415187	177.084079	-14.026634	-93.452547
3.750000	-13.853134	-94.191081	-0.427657	174.614599	-0.427657	174.614599	-13.832776	-95.766073
3.800000	-13.671794	-96.793432	-0.439993	172.147427	-0.439993	172.147427	-13.650640	-98.077007
3.850000	-13.501765	-99.391472	-0.452152	169.682480	-0.452152	169.682480	-13.479811	-100.385164
3.900000	-13.342814	-101.985636	-0.464092	167.219705	-0.464092	167.219705	-13.320052	-102.690342
3.950000	-13.194732	-104.576367	-0.475768	164.759026	-0.475768	164.759026	-13.171151	-104.992366
4.000000	-13.057330	-107.164119	-0.487138	162.300345	-0.487138	162.300345	-13.032915	-107.291085
4.050000	-12.930440	-109.749358	-0.498160	159.843544	-0.498160	159.843544	-12.905173	-109.586373
4.100000	-12.813913	-112.332568	-0.508791	157.388483	-0.508791	157.388483	-12.787775	-111.878123
4.150000	-12.707621	-114.914247	-0.518992	154.935001	-0.518992	154.935001	-12.680589	-114.166246
4.200000	-12.611454	-117.494917	-0.528724	152.482917	-0.528724	152.482917	-12.583503	-116.450670
4.250000	-12.525322	-120.075117	-0.537951	150.032030	-0.537951	150.032030	-12.496423	-118.731335
4.300000	-12.449155	-122.655413	-0.546636	147.582120	-0.546636	147.582120	-12.419277	-121.008193
4.350000	-12.382898	-125.236392	-0.554747	145.132950	-0.554747	145.132950	-12.352009	-123.281202
4.400000	-12.326625	-127.818691	-0.562246	142.684267	-0.562246	142.684267	-12.294686	-125.550282
4.450000	-12.280325	-130.402975	-0.569105	140.235791	-0.569105	140.235791	-12.247297	-127.815396
4.500000	-12.243901	-132.989903	-0.575305	137.787230	-0.575305	137.787230	-12.209742	-130.076545
4.550000	-12.217382	-135.580177	-0.580824	135.338283	-0.580824	135.338283	-12.182044	-132.333683
4.600000	-12.200814	-138.174535	-0.585644	132.888641	-0.585644	132.888641	-12.164249	-134.586750
4.650000	-12.194268	-140.773746	-0.589748	130.437979	-0.589748	130.437979	-12.156421	-136.835671
4.700000	-12.197835	-143.378617	-0.593124	127.985967	-0.593124	127.985967	-12.158650	-139.080347
4.750000	-12.211631	-145.989994	-0.595764	125.532266	-0.595764	125.532266	-12.171045	-141.320653
4.800000	-12.235798	-148.608764	-0.597664	123.076531	-0.597664	123.076531	-12.193742	-143.556428
4.850000	-12.270501	-151.235862	-0.598821	120.618412	-0.598821	120.618412	-12.226903	-145.787469
4.900000	-12.315935	-153.872269	-0.599238	118.157560	-0.599238	118.157560	-12.270714	-148.013523
4.950000	-12.372323	-156.519024	-0.598923	115.693622	-0.598923	115.693622	-12.325392	-150.234279
5.000000	-12.439919	-159.177225	-0.597886	113.226247	-0.597886	113.226247	-12.391184	-152.449356
5.050000	-12.519250	-161.848340	-0.596126	110.754998	-0.596126	110.754998	-12.468605	-154.658146
5.100000	-12.610406	-164.533371	-0.593677	108.279608	-0.593677	108.279608	-12.557735	-156.860207
5.150000	-12.713748	-167.233652	-0.590564	105.799742	-0.590564	105.799742	-12.658927	-159.054867
5.200000	-12.829679	-169.950622	-0.586812	103.315075	-0.586812	103.315075	-12.772570	-161.241320
5.250000	-12.958651	-172.685833	-0.582451	100.825294	-0.582451	100.825294	-12.899099	-163.418614
5.300000	-13.101161	-175.440973	-0.577517	98.330098	-0.577517	98.330098	-13.038996	-165.585623
5.350000	-13.257766	-178.217889	-0.572047	95.829202	-0.572047	95.829202	-13.192797	-167.741019
5.400000	-13.429078	178.981388	-0.566082	93.322338	-0.566082	93.322338	-13.361095	-169.883238
5.450000	-13.615783	176.154605	-0.559668	90.809260	-0.559668	90.809260	-13.544545	-172.010441
5.500000	-13.818636	173.299250	-0.552852	88.289738	-0.552852	88.289738	-13.743875	-174.120465
5.550000	-14.038480	170.412493	-0.545685	85.763570	-0.545685	85.763570	-13.959892	-176.210767
5.600000	-14.276253	167.491129	-0.538220	83.230577	-0.538220	83.230577	-14.193492	-178.278351
5.650000	-14.533129	164.531027	-0.530512	80.690530	-0.530512	80.690530	-14.445797	179.680650
5.700000	-14.810276	161.527791	-0.522621	78.143302	-0.522621	78.143302	-14.717915	177.670589
5.750000	-15.108868	158.476862	-0.514608	75.588876	-0.514608	75.588876	-15.010953	175.696210
5.800000	-15.430373	155.372392	-0.506536	73.027191	-0.506536	73.027191	-15.326289	173.763511
5.850000	-15.776441	152.207443	-0.498467	70.458221	-0.498467	70.458221	-15.665471	171.879684
5.900000	-16.148938	148.973704	-0.490463	67.881968	-0.490463	67.881968	-16.030235	170.053402
5.950000	-16.549981	145.661121	-0.482587	65.298471	-0.482587	65.298471	-16.422534	168.295185
6.000000	-16.981972	142.257402	-0.474902	62.707804	-0.474902	62.707804	-16.844573	166.617896
6.050000	-17.447656	138.747358	-0.467469	60.110072	-0.467469	60.110072	-17.298837	165.037381
6.100000	-17.950164	135.112004	-0.460350	57.505418	-0.460350	57.505418	-17.788133	163.573344
6.150000	-18.493079	131.327331	-0.453602	54.894015	-0.453602	54.894015	-18.315619	162.250517
6.200000	-19.080492	127.362585	-0.447282	52.276073	-0.447282	52.276073	-18.884834	161.100275
6.250000	-19.717045	123.177859	-0.441444	49.651829	-0.441444	49.651829	-19.499690	160.162855
6.300000	-20.407942	118.713105	-0.436151	47.021432	-0.436151	47.021432	-20.164396	159.497794
6.350000	-21.158628	113.901403	-0.431439	44.385319	-0.431439	44.385319	-20.883108	159.170435
6.400000	-21.974772	108.645464	-0.427351	41.743817	-0.427351	41.743817	-21.659762	159.273726
6.450000	-22.861311	102.811674	-0.423923	39.097278	-0.423923	39.097278	-22.497025	159.932054
6.500000	-23.820604	96.215423	-0.421190	36.446073	-0.421190	36.446073	-23.394443	161.311829
6.550000	-24.848541	88.603249	-0.419178	33.790595	-0.419178	33.790595	-24.344888	163.632409
6.600000	-25.926765	79.638671	-0.417909	31.131248	-0.417909	31.131248	-25.328119	167.170209
6.650000	-27.008659	68.916145	-0.417400	28.468450	-0.417400	28.468450	-26.300408	172.236334
6.700000	-27.999503	56.064045	-0.417659	25.802624	-0.417659	25.802624	-27.181907	179.087819
6.750000	-28.745402	41.022416	-0.418691	23.134199	-0.418691	23.134199	-27.852580	-172.270233
6.800000	-29.070900	24.442492	-0.420492	20.463602	-0.420492	20.463602	-28.180050	-162.339039
6.850000	-28.885308	7.751483	-0.423054	17.791257	-0.423054	17.791257	-28.088224	-152.168391
6.900000	-28.256507	-7.518901	-0.426370	15.117569	-0.426370	15.117569	-27.609193	-142.957671
6.950000	-27.361915	-20.590888	-0.430415	12.442952	-0.430415	12.442952	-26.867300	-135.459667
7.000000	-26.366059	-31.508220	-0.435156	9.767805	-0.435156	9.767805	-25.997659	-129.800149
7.050000	-25.368888	-40.636142	-0.440556	7.092490	-0.440556	7.092490	-25.094928	-125.775637
7.100000	-24.420413	-48.384312	-0.446578	4.417346	-0.446578	4.417346	-24.214103	-123.077357
7.150000	-23.540894	-55.096095	-0.453176	1.742682	-0.453176	1.742682	-23.382316	-121.412211
7.200000	-22.735457	-61.031421	-0.460301	-0.931225	-0.460301	-0.931225	-22.610495	-120.541209
7.250000	-22.002297	-66.380082	-0.467900	-3.604132	-0.467900	-3.604132	-21.901078	-120.281024
7.300000	-21.336814	-71.279596	-0.475915	-6.275832	-0.475915	-6.275832	-21.252410	-120.494172
7.350000	-20.733577	-75.830140	-0.484286	-8.946162	-0.484286	-8.946162	-20.661078	-121.077984
7.400000	-20.187215	-80.105524	-0.492948	-11.614998	-0.492948	-11.614998	-20.123089	-121.955434
7.450000	-19.692787	-84.160889	-0.501837	-14.282260	-0.501837	-14.282260	-19.634450	-123.068209
7.500000	-19.245900	-88.038034	-0.510886	-16.947914	-0.510886	-16.947914	-19.191434	-124.371678
7.550000	-18.843239	-91.766520	-0.520026	-19.611940	-0.520026	-19.611940	-18.791173	-125.834058
7.600000	-18.481008	-95.374903	-0.529185	-22.274434	-0.529185	-22.274434	-18.430233	-127.424583
7.650000	-18.156374	-98.882754	-0.538297	-24.935507	-0.538297	-24.935507	-18.106019	-129.122139
7.700000	-17.866926	-102.305791	-0.547295	-27.595314	-0.547295	-27.595314	-17.816295	-130.909810
7.750000	-17.610631	-105.656793	-0.556112	-30.254060	-0.556112	-30.254060	-17.559155	-132.773918
7.800000	-17.385783	-108.946272	-0.564687	-32.911993	-0.564687	-32.911993	-17.332989	-134.703313
7.850000	-17.190972	-112.182977	-0.572959	-35.569406	-0.572959	-35.569406	-17.136454	-136.688831
7.900000	-17.025051	-115.374270	-0.580873	-38.226636	-0.580873	-38.226636	-16.968452	-138.722887
7.950000	-16.887111	-118.526417	-0.588376	-40.884061	-0.588376	-40.884061	-16.828112	-140.799154
8.000000	-16.776469	-121.644808	-0.595420	-43.542098	-0.595420	-43.542098	-16.714772	-142.912319
8.050000	-16.692650	-124.734126	-0.601963	-46.201199	-0.601963	-46.201199	-16.627972	-145.057887
8.100000	-16.635382	-127.798488	-0.607968	-48.861854	-0.607968	-48.861854	-16.567446	-147.232023
8.150000	-16.604880	-130.841353	-0.613399	-51.524609	-0.613399	-51.524609	-16.533405	-149.431662
8.200000	-16.601287	-133.866097	-0.618230	-54.190034	-0.618230	-54.190034	-16.525984	-151.653838
8.250000	-16.624657	-136.875898	-0.622451	-56.858678	-0.622451	-56.858678	-16.545226	-153.895741
8.300000	-16.675552	-139.873453	-0.626053	-59.531138	-0.626053	-59.531138	-16.591671	-156.155077
8.350000	-16.754771	-142.861255	-0.629034	-62.208025	-0.629034	-62.208025	-16.666091	-158.429716
8.400000	-16.863380	-145.841627	-0.631401	-64.889966	-0.631401	-64.889966	-16.769514	-160.717618
8.450000	-17.002744	-148.816756	-0.633169	-67.577597	-0.633169	-67.577597	-16.903259	-163.016755
8.500000	-17.174576	-151.788722	-0.634361	-70.271556	-0.634361	-70.271556	-17.068977	-165.325028
8.550000	-17.380995	-154.759523	-0.635008	-72.972485	-0.635008	-72.972485	-17.268711	-167.640169
8.600000	-17.624607	-157.731102	-0.635151	-75.681020	-0.635151	-75.681020	-17.504972	-169.959623
8.650000	-17.908618	-160.705373	-0.634839	-78.397789	-0.634839	-78.397789	-17.780838	-172.280395
8.700000	-18.236972	-163.684257	-0.634131	-81.123408	-0.634131	-81.123408	-18.100094	-174.598853
8.750000	-18.614556	-166.669719	-0.633093	-83.858470	-0.633093	-83.858470	-18.467410	-176.910443
8.800000	-19.048300	-169.664068	-0.631797	-86.603780	-0.631797	-86.603780	-18.889419	-179.208843
8.850000	-19.545178	-172.669433	-0.630334	-89.359674	-0.630334	-89.359674	-19.372702	178.513746
8.900000	-20.115103	-175.688408	-0.628797	-92.126660	-0.628797	-92.126660	-19.926610	176.268193
8.950000	-20.771042	-178.724122	-0.627287	-94.905207	-0.627287	-94.905207	-20.563285	174.069808
9.000000	-21.530349	178.219401	-0.625910	-97.695740	-0.625910	-97.695740	-21.298837	171.940905
9.050000	-22.416954	175.136600	-0.624781	-100.498636	-0.624781	-100.498636	-22.155221	169.915311
9.100000	-23.465112	172.019130	-0.624022	-103.314221	-0.624022	-103.314221	-23.163372	168.046864
9.150000	-24.726288	168.853277	-0.623759	-106.142762	-0.623759	-106.142762	-24.368758	166.426648
9.200000	-26.281169	165.616861	-0.624106	-108.984160	-0.624106	-108.984160	-25.840364	165.203906
9.250000	-28.278862	162.251757	-0.625241	-111.839314	-0.625241	-111.839314	-27.699431	164.751447
9.300000	-31.008928	158.623718	-0.627281	-114.707852	-0.627281	-114.707852	-30.158352	165.878924
9.350000	-35.215685	154.228639	-0.630369	-117.589779	-0.630369	-117.589779	-33.651711	171.133036
9.400000	-44.167469	143.976594	-0.634648	-120.485027	-0.634648	-120.485027	-38.896025	-167.935928
9.450000	-45.021428	-17.185403	-0.640261	-123.393459	-0.640261	-123.393459	-40.829425	-103.114325
9.500000	-35.135872	-28.392431	-0.647352	-126.314862	-0.647352	-126.314862	-34.987784	-67.306868
9.550000	-30.513833	-32.918356	-0.656062	-129.248955	-0.656062	-129.248955	-30.638523	-58.860508
9.600000	-27.445684	-36.648633	-0.666538	-132.195441	-0.666538	-132.195441	-27.584170	-56.813855
9.650000	-25.135864	-40.130529	-0.678928	-135.153946	-0.678928	-135.153946	-25.254504	-56.960372
9.700000	-23.279022	-43.508594	-0.693344	-138.123861	-0.693344	-138.123861	-23.374602	-58.096491
9.750000	-21.724723	-46.836110	-0.709911	-141.104635	-0.709911	-141.104635	-21.799255	-59.769212
9.800000	-20.387855	-50.137597	-0.728747	-144.095662	-0.728747	-144.095662	-20.444020	-61.765839
9.850000	-19.215556	-53.425619	-0.749961	-147.096282	-0.749961	-147.096282	-19.255749	-63.973443
9.900000	-18.172738	-56.707021	-0.773657	-150.105794	-0.773657	-150.105794	-18.198917	-66.326323
9.950000	-17.234914	-59.985612	-0.799929	-153.123456	-0.799929	-153.123456	-17.248636	-68.783419
10.000000	-16.384313	-63.263453	-0.828860	-156.148495	-0.828860	-156.148495	-16.386805	-71.317524
