! freq	dB(S11)	phase(S11)	dB(S12)	phase(S12)	
!     	dB(S21)	phase(S21)	dB(S22)	phase(S22)	
!S-par simulation data
#  GHz  S  DB  R 50
0.000000	-0.000000	0.000000	-359.373949	180.000000	-359.373949	180.000000	-0.000000	0.000000
0.050000	-0.004662	-0.782524	-114.517097	79.940586	-114.517097	79.940586	-0.004652	-0.782558
0.100000	-0.006075	-1.538360	-108.014343	83.105715	-108.014343	83.105715	-0.006072	-1.538401
0.150000	-0.006584	-2.297381	-104.430851	84.205194	-104.430851	84.205194	-0.006583	-2.297414
0.200000	-0.006960	-3.057835	-101.964717	84.547582	-101.964717	84.547582	-0.006960	-3.057861
0.250000	-0.007339	-3.818845	-100.104788	84.561909	-100.104788	84.561909	-0.007339	-3.818867
0.300000	-0.007764	-4.579989	-98.643238	84.413446	-98.643238	84.413446	-0.007765	-4.580008
0.350000	-0.008224	-5.341092	-97.431310	84.219397	-97.431310	84.219397	-0.008224	-5.341109
0.400000	-0.008754	-6.101915	-96.446344	84.008475	-96.446344	84.008475	-0.008754	-6.101931
0.450000	-0.009333	-6.862419	-95.620843	83.830637	-95.620843	83.830637	-0.009333	-6.862434
0.500000	-0.009957	-7.622593	-94.920124	83.697898	-94.920124	83.697898	-0.009957	-7.622608
0.550000	-0.010630	-8.382327	-94.334510	83.639409	-94.334510	83.639409	-0.010630	-8.382342
0.600000	-0.011360	-9.141428	-93.866918	83.719089	-93.866918	83.719089	-0.011360	-9.141443
0.650000	-0.012126	-9.900051	-93.480044	83.923828	-93.480044	83.923828	-0.012126	-9.900067
0.700000	-0.012926	-10.658181	-93.165723	84.268589	-93.165723	84.268589	-0.012925	-10.658197
0.750000	-0.013770	-11.415540	-92.944929	84.871212	-92.944929	84.871212	-0.013769	-11.415558
0.800000	-0.014644	-12.172231	-92.796431	85.752973	-92.796431	85.752973	-0.014644	-12.172250
0.850000	-0.015543	-12.928339	-92.705212	86.913269	-92.705212	86.913269	-0.015542	-12.928359
0.900000	-0.016466	-13.683796	-92.673383	88.415912	-92.673383	88.415912	-0.016465	-13.683817
0.950000	-0.017416	-14.438289	-92.714448	90.560777	-92.714448	90.560777	-0.017415	-14.438311
1.000000	-0.018381	-15.192137	-92.790830	93.237589	-92.790830	93.237589	-0.018381	-15.192160
1.050000	-0.019360	-15.945332	-92.895505	96.497182	-92.895505	96.497182	-0.019360	-15.945357
1.100000	-0.020354	-16.697619	-93.015013	100.693999	-93.015013	100.693999	-0.020354	-16.697644
1.150000	-0.021358	-17.449034	-93.097892	105.913171	-93.097892	105.913171	-0.021358	-17.449060
1.200000	-0.022369	-18.199755	-93.115043	111.929675	-93.115043	111.929675	-0.022369	-18.199782
1.250000	-0.023386	-18.949776	-93.045537	118.740114	-93.045537	118.740114	-0.023385	-18.949804
1.300000	-0.024408	-19.698629	-92.731757	126.432463	-92.731757	126.432463	-0.024407	-19.698658
1.350000	-0.025431	-20.446755	-92.233074	134.163693	-92.233074	134.163693	-0.025430	-20.446785
1.400000	-0.026455	-21.194150	-91.569292	141.743439	-91.569292	141.743439	-0.026455	-21.194181
1.450000	-0.027479	-21.940604	-90.708653	148.706387	-90.708653	148.706387	-0.027479	-21.940636
1.500000	-0.028501	-22.686036	-89.686500	154.598575	-89.686500	154.598575	-0.028501	-22.686068
1.550000	-0.029521	-23.430709	-88.621553	159.674924	-88.621553	159.674924	-0.029521	-23.430741
1.600000	-0.030539	-24.174620	-87.542136	163.933348	-87.542136	163.933348	-0.030539	-24.174652
1.650000	-0.031553	-24.917336	-86.412440	167.072915	-86.412440	167.072915	-0.031553	-24.917369
1.700000	-0.032562	-25.658980	-85.288133	169.450364	-85.288133	169.450364	-0.032562	-25.659013
1.750000	-0.033569	-26.400089	-84.237760	171.446752	-84.237760	171.446752	-0.033569	-26.400122
1.800000	-0.034571	-27.140051	-83.201215	172.874196	-83.201215	172.874196	-0.034571	-27.140083
1.850000	-0.035569	-27.879193	-82.211932	173.895251	-82.211932	173.895251	-0.035569	-27.879225
1.900000	-0.036563	-28.617329	-81.256447	174.587232	-81.256447	174.587232	-0.036564	-28.617362
1.950000	-0.037554	-29.354461	-80.335098	174.950138	-80.335098	174.950138	-0.037554	-29.354493
2.000000	-0.038541	-30.090736	-79.456146	175.124409	-79.456146	175.124409	-0.038541	-30.090767
2.050000	-0.039524	-30.825811	-78.599592	175.034591	-78.599592	175.034591	-0.039524	-30.825842
2.100000	-0.040505	-31.560186	-77.789030	174.838043	-77.789030	174.838043	-0.040506	-31.560216
2.150000	-0.041483	-32.293158	-76.991153	174.428037	-76.991153	174.428037	-0.041483	-32.293188
2.200000	-0.042460	-33.025593	-76.240567	173.959779	-76.240567	173.959779	-0.042460	-33.025622
2.250000	-0.043434	-33.756414	-75.494887	173.316770	-75.494887	173.316770	-0.043435	-33.756443
2.300000	-0.044409	-34.486868	-74.796686	172.644737	-74.796686	172.644737	-0.044409	-34.486896
2.350000	-0.045382	-35.215489	-74.097246	171.827589	-74.097246	171.827589	-0.045382	-35.215516
2.400000	-0.046356	-35.943921	-73.444903	170.999330	-73.444903	170.999330	-0.046356	-35.943948
2.450000	-0.047331	-36.670290	-72.786493	170.048850	-72.786493	170.048850	-0.047331	-36.670316
2.500000	-0.048306	-37.396659	-72.174495	169.098371	-72.174495	169.098371	-0.048306	-37.396684
2.550000	-0.049285	-38.120727	-71.552646	168.043540	-71.552646	168.043540	-0.049285	-38.120751
2.600000	-0.050264	-38.844795	-70.972358	166.988709	-70.972358	166.988709	-0.050264	-38.844817
2.650000	-0.051249	-39.566707	-70.387249	165.857482	-70.387249	165.857482	-0.051249	-39.566729
2.700000	-0.052234	-40.288423	-69.835575	164.719310	-69.835575	164.719310	-0.052234	-40.288444
2.750000	-0.053228	-41.008139	-69.283129	163.524590	-69.283129	163.524590	-0.053228	-41.008159
2.800000	-0.054223	-41.727454	-68.757390	162.318559	-68.757390	162.318559	-0.054223	-41.727473
2.850000	-0.055226	-42.444934	-68.234168	161.070281	-68.234168	161.070281	-0.055226	-42.444951
2.900000	-0.056233	-43.161801	-67.732041	159.807921	-67.732041	159.807921	-0.056233	-43.161817
2.950000	-0.057248	-43.877005	-67.235116	158.513746	-67.235116	158.513746	-0.057248	-43.877020
3.000000	-0.058269	-44.591377	-66.754572	157.203663	-66.754572	157.203663	-0.058269	-44.591391
3.050000	-0.059299	-45.304269	-66.281432	155.869453	-66.281432	155.869453	-0.059299	-45.304281
3.100000	-0.060336	-46.016103	-65.820690	154.518011	-65.820690	154.518011	-0.060336	-46.016114
3.150000	-0.061382	-46.726647	-65.369162	153.148167	-65.369162	153.148167	-0.061382	-46.726656
3.200000	-0.062437	-47.435901	-64.926646	151.759920	-64.926646	151.759920	-0.062437	-47.435908
3.250000	-0.063501	-48.144063	-64.494833	150.357591	-64.494833	150.357591	-0.063501	-48.144070
3.300000	-0.064576	-48.850699	-64.069136	148.935546	-64.069136	148.935546	-0.064576	-48.850704
3.350000	-0.065659	-49.556525	-63.656040	147.503643	-63.656040	147.503643	-0.065659	-49.556528
3.400000	-0.066755	-50.260730	-63.247784	146.052026	-63.247784	146.052026	-0.066755	-50.260731
3.450000	-0.067863	-50.963603	-62.846844	144.584484	-62.846844	144.584484	-0.067863	-50.963602
3.500000	-0.068979	-51.665576	-62.456496	143.106203	-62.456496	143.106203	-0.068979	-51.665574
3.550000	-0.070113	-52.365612	-62.068158	141.604306	-62.068158	141.604306	-0.070113	-52.365608
3.600000	-0.071253	-53.065052	-61.692067	140.094941	-61.692067	140.094941	-0.071252	-53.065046
3.650000	-0.072412	-53.762510	-61.317546	138.559958	-61.317546	138.559958	-0.072412	-53.762501
3.700000	-0.073580	-54.459083	-60.952398	137.012332	-60.952398	137.012332	-0.073580	-54.459072
3.750000	-0.074763	-55.154265	-60.592768	135.444838	-60.592768	135.444838	-0.074762	-55.154251
3.800000	-0.075961	-55.847957	-60.237749	133.852806	-60.237749	133.852806	-0.075961	-55.847941
3.850000	-0.077168	-56.540857	-59.891721	132.247721	-59.891721	132.247721	-0.077168	-56.540839
3.900000	-0.078399	-57.231666	-59.545991	130.601115	-59.545991	130.601115	-0.078398	-57.231645
3.950000	-0.079636	-57.921876	-59.209812	128.940459	-59.209812	128.940459	-0.079636	-57.921852
4.000000	-0.080895	-58.610225	-58.875007	127.233162	-58.875007	127.233162	-0.080895	-58.610199
4.050000	-0.082167	-59.297577	-58.546492	125.492657	-58.546492	125.492657	-0.082166	-59.297549
4.100000	-0.083454	-59.983683	-58.222556	123.710642	-58.222556	123.710642	-0.083453	-59.983651
4.150000	-0.084762	-60.668232	-57.900484	121.855787	-57.900484	121.855787	-0.084761	-60.668198
4.200000	-0.086079	-61.352141	-57.586044	119.970938	-57.586044	119.970938	-0.086078	-61.352104
4.250000	-0.087426	-62.034000	-57.268662	117.940865	-57.268662	117.940865	-0.087426	-62.033960
4.300000	-0.088784	-62.715342	-56.958232	115.851945	-56.958232	115.851945	-0.088783	-62.715299
4.350000	-0.090168	-63.395197	-56.646481	113.586069	-56.646481	113.586069	-0.090167	-63.395152
4.400000	-0.091569	-64.074415	-56.338561	111.188692	-56.338561	111.188692	-0.091568	-64.074366
4.450000	-0.093003	-64.752561	-56.027359	108.497847	-56.027359	108.497847	-0.093002	-64.752509
4.500000	-0.094473	-65.430090	-55.712563	105.439952	-55.712563	105.439952	-0.094472	-65.430036
4.550000	-0.095998	-66.107383	-55.389608	101.817953	-55.389608	101.817953	-0.095997	-66.107326
4.600000	-0.097624	-66.785226	-55.048622	97.213890	-55.048622	97.213890	-0.097623	-66.785166
4.650000	-0.099457	-67.465121	-54.674126	90.925131	-54.674126	90.925131	-0.099456	-67.465060
4.700000	-0.101844	-68.150391	-54.226934	81.209824	-54.226934	81.209824	-0.101843	-68.150330
4.750000	-0.106541	-68.850289	-53.580804	62.091414	-53.580804	62.091414	-0.106541	-68.850230
4.800000	-0.125022	-69.557220	-52.511417	8.262556	-52.511417	8.262556	-0.125024	-69.557162
4.850000	-0.131286	-69.984079	-53.996076	-130.755562	-53.996076	-130.755562	-0.131290	-69.983985
4.900000	-0.114353	-70.660545	-54.430328	160.861182	-54.430328	160.861182	-0.114354	-70.660441
4.950000	-0.111778	-71.349744	-54.069138	138.440850	-54.069138	138.440850	-0.111778	-71.349640
5.000000	-0.111934	-72.025500	-53.720677	127.322521	-53.720677	127.322521	-0.111933	-72.025394
5.050000	-0.113098	-72.691171	-53.414980	121.570383	-53.414980	121.570383	-0.113097	-72.691062
5.100000	-0.114262	-73.356842	-53.119677	115.818246	-53.119677	115.818246	-0.114261	-73.356730
5.150000	-0.115768	-74.016273	-52.847792	112.207382	-52.847792	112.207382	-0.115767	-74.016158
5.200000	-0.117306	-74.675137	-52.585369	108.791179	-52.585369	108.791179	-0.117305	-74.675018
5.250000	-0.118961	-75.330360	-52.332601	106.075410	-52.332601	106.075410	-0.118960	-75.330237
5.300000	-0.120639	-75.984853	-52.087362	103.499728	-52.087362	103.499728	-0.120638	-75.984727
5.350000	-0.122383	-76.636669	-51.847377	101.220587	-51.847377	101.220587	-0.122382	-76.636538
5.400000	-0.124149	-77.287591	-51.613365	99.040294	-51.613365	99.040294	-0.124148	-77.287456
5.450000	-0.125962	-77.936362	-51.383089	97.004677	-51.383089	97.004677	-0.125961	-77.936222
5.500000	-0.127798	-78.584057	-51.157592	95.041399	-51.157592	95.041399	-0.127797	-78.583913
5.550000	-0.129672	-79.229975	-50.935341	93.154995	-50.935341	93.154995	-0.129671	-79.229827
5.600000	-0.131573	-79.874625	-50.716922	91.323503	-50.716922	91.323503	-0.131571	-79.874471
5.650000	-0.133504	-80.517806	-50.501664	89.535015	-50.501664	89.535015	-0.133503	-80.517648
5.700000	-0.135467	-81.159520	-50.289469	87.789530	-50.289469	87.789530	-0.135465	-81.159358
5.750000	-0.137455	-81.800044	-50.080516	86.068745	-50.080516	86.068745	-0.137453	-81.799877
5.800000	-0.139479	-82.438902	-49.873985	84.382540	-49.873985	84.382540	-0.139478	-82.438729
5.850000	-0.141524	-83.076827	-49.670840	82.710559	-49.670840	82.710559	-0.141523	-83.076650
5.900000	-0.143611	-83.712889	-49.469578	81.067030	-49.469578	81.067030	-0.143609	-83.712706
5.950000	-0.145714	-84.348265	-49.271860	79.431466	-49.271860	79.431466	-0.145712	-84.348077
6.000000	-0.147863	-84.981583	-49.075570	77.819800	-49.075570	77.819800	-0.147861	-84.981390
6.050000	-0.150024	-85.614452	-48.882975	76.212228	-48.882975	76.212228	-0.150022	-85.614254
6.100000	-0.152239	-86.245074	-48.691419	74.625126	-48.691419	74.625126	-0.152237	-86.244871
6.150000	-0.154459	-86.875475	-48.503692	73.039649	-48.503692	73.039649	-0.154458	-86.875266
6.200000	-0.156740	-87.503446	-48.316671	71.472044	-48.316671	71.472044	-0.156738	-87.503231
6.250000	-0.159022	-88.131416	-48.133592	69.904439	-48.133592	69.904439	-0.159020	-88.131196
6.300000	-0.161371	-88.756779	-47.950934	68.352739	-47.950934	68.352739	-0.161369	-88.756554
6.350000	-0.163720	-89.382142	-47.772037	66.801039	-47.772037	66.801039	-0.163718	-89.381911
6.400000	-0.166133	-90.005154	-47.593854	65.261552	-47.593854	65.261552	-0.166131	-90.004917
6.450000	-0.168552	-90.627952	-47.418994	63.723175	-47.418994	63.723175	-0.168550	-90.627709
6.500000	-0.171030	-91.248649	-47.245107	62.194335	-47.245107	62.194335	-0.171028	-91.248400
6.550000	-0.173521	-91.868926	-47.074146	60.667404	-47.074146	60.667404	-0.173519	-91.868671
6.600000	-0.176066	-92.487345	-46.904386	59.148027	-46.904386	59.148027	-0.176064	-92.487084
6.650000	-0.178631	-93.105145	-46.737194	57.631169	-46.737194	57.631169	-0.178629	-93.104877
6.700000	-0.181244	-93.721322	-46.571397	56.120357	-46.571397	56.120357	-0.181242	-93.721049
6.750000	-0.183884	-94.336688	-46.407842	54.612568	-46.407842	54.612568	-0.183882	-94.336409
6.800000	-0.186568	-94.950662	-46.245852	53.109637	-46.245852	53.109637	-0.186566	-94.950375
6.850000	-0.189284	-95.563640	-46.085804	51.610177	-46.085804	51.610177	-0.189282	-95.563347
6.900000	-0.192039	-96.175447	-45.927462	50.114610	-45.927462	50.114610	-0.192037	-96.175148
6.950000	-0.194834	-96.786083	-45.770788	48.622935	-45.770788	48.622935	-0.194832	-96.785777
7.000000	-0.197663	-97.395762	-45.615942	47.134334	-45.615942	47.134334	-0.197661	-97.395449
7.050000	-0.200538	-98.004102	-45.462504	45.650038	-45.462504	45.650038	-0.200536	-98.003783
7.100000	-0.203441	-98.611693	-45.310999	44.168098	-45.310999	44.168098	-0.203439	-98.611367
7.150000	-0.206399	-99.217785	-45.160655	42.690870	-45.160655	42.690870	-0.206397	-99.217452
7.200000	-0.209377	-99.823326	-45.012337	41.215346	-45.012337	41.215346	-0.209375	-99.822986
7.250000	-0.212419	-100.427218	-44.864939	39.744934	-44.864939	39.744934	-0.212417	-100.426871
7.300000	-0.215475	-101.030751	-44.719653	38.275622	-44.719653	38.275622	-0.215473	-101.030397
7.350000	-0.218602	-101.632492	-44.575045	36.811807	-44.575045	36.811807	-0.218600	-101.632130
7.400000	-0.221737	-102.234057	-44.432634	35.348524	-44.432634	35.348524	-0.221735	-102.233688
7.450000	-0.224950	-102.833696	-44.290657	33.891092	-44.290657	33.891092	-0.224948	-102.833320
7.500000	-0.228165	-103.433336	-44.150962	32.433660	-44.150962	32.433660	-0.228163	-103.432952
7.550000	-0.231467	-104.030924	-44.011446	30.982381	-44.011446	30.982381	-0.231465	-104.030532
7.600000	-0.234770	-104.628512	-43.874136	29.531103	-43.874136	29.531103	-0.234768	-104.628113
7.650000	-0.238154	-105.224268	-43.737080	28.085224	-43.737080	28.085224	-0.238152	-105.223861
7.700000	-0.241547	-105.819857	-43.601986	26.639837	-43.601986	26.639837	-0.241545	-105.819442
7.750000	-0.245015	-106.413822	-43.467217	25.199097	-43.467217	25.199097	-0.245012	-106.413400
7.800000	-0.248498	-107.007464	-43.334164	23.759287	-43.334164	23.759287	-0.248496	-107.007034
7.850000	-0.252050	-107.599684	-43.201506	22.323375	-43.201506	22.323375	-0.252047	-107.599247
7.900000	-0.255625	-108.191431	-43.070316	20.888762	-43.070316	20.888762	-0.255623	-108.190985
7.950000	-0.259262	-108.781950	-42.939594	19.457306	-42.939594	19.457306	-0.259260	-108.781497
8.000000	-0.262930	-109.371855	-42.810081	18.027430	-42.810081	18.027430	-0.262928	-109.371394
8.050000	-0.266653	-109.960718	-42.681120	16.599993	-42.681120	16.599993	-0.266650	-109.960250
8.100000	-0.270415	-110.548837	-42.553096	15.174300	-42.553096	15.174300	-0.270412	-110.548360
8.150000	-0.274224	-111.136089	-42.425721	13.750367	-42.425721	13.750367	-0.274221	-111.135605
8.200000	-0.278080	-111.722476	-42.298994	12.328195	-42.298994	12.328195	-0.278077	-111.721984
8.250000	-0.281976	-112.308164	-42.173031	10.907166	-42.173031	10.907166	-0.281973	-112.307664
8.300000	-0.285927	-112.892874	-42.047409	9.487738	-42.047409	9.487738	-0.285923	-112.892366
8.350000	-0.289910	-113.477044	-41.922688	8.068922	-41.922688	8.068922	-0.289906	-113.476528
8.400000	-0.293956	-114.060134	-41.797977	6.651328	-41.797977	6.651328	-0.293952	-114.059611
8.450000	-0.298026	-114.642833	-41.674328	5.233932	-41.674328	5.233932	-0.298022	-114.642302
8.500000	-0.302167	-115.224360	-41.550337	3.817124	-41.550337	3.817124	-0.302163	-115.223822
8.550000	-0.306325	-115.805635	-41.427597	2.400247	-41.427597	2.400247	-0.306320	-115.805090
8.600000	-0.310560	-116.385657	-41.304136	0.983024	-41.304136	0.983024	-0.310556	-116.385105
8.650000	-0.314806	-116.965558	-41.182146	-0.434349	-41.182146	-0.434349	-0.314801	-116.964998
8.700000	-0.319136	-117.544133	-41.059031	-1.853354	-41.059031	-1.853354	-0.319131	-117.543566
8.750000	-0.323468	-118.122707	-40.937638	-3.272359	-40.937638	-3.272359	-0.323463	-118.122134
8.800000	-0.327892	-118.699894	-40.814694	-4.694687	-40.814694	-4.694687	-0.327887	-118.699314
8.850000	-0.332319	-119.277081	-40.693467	-6.117015	-40.693467	-6.117015	-0.332313	-119.276495
8.900000	-0.336829	-119.853051	-40.570814	-7.543972	-40.570814	-7.543972	-0.336822	-119.852458
8.950000	-0.341348	-120.428910	-40.449591	-8.971349	-40.449591	-8.971349	-0.341342	-120.428312
9.000000	-0.345943	-121.003714	-40.327102	-10.404540	-40.327102	-10.404540	-0.345936	-121.003109
9.050000	-0.350555	-121.578306	-40.205736	-11.838894	-40.205736	-11.838894	-0.350548	-121.577696
9.100000	-0.355233	-122.151994	-40.083297	-13.280083	-40.083297	-13.280083	-0.355226	-122.151379
9.150000	-0.359936	-122.725381	-39.961658	-14.723549	-39.961658	-14.723549	-0.359928	-122.724761
9.200000	-0.364697	-123.298006	-39.839174	-16.174664	-39.839174	-16.174664	-0.364689	-123.297381
9.250000	-0.369489	-123.870250	-39.717150	-17.629602	-39.717150	-17.629602	-0.369481	-123.869620
9.300000	-0.374331	-124.441863	-39.594548	-19.092744	-39.594548	-19.092744	-0.374323	-124.441230
9.350000	-0.379210	-125.013027	-39.472056	-20.561745	-39.472056	-20.561745	-0.379201	-125.012390
9.400000	-0.384131	-125.583682	-39.349284	-22.039196	-39.349284	-22.039196	-0.384122	-125.583042
9.450000	-0.389095	-126.153829	-39.226271	-23.525095	-39.226271	-23.525095	-0.389086	-126.153186
9.500000	-0.394094	-126.723580	-39.103307	-25.019321	-39.103307	-25.019321	-0.394084	-126.722935
9.550000	-0.399140	-127.292776	-38.979759	-26.525203	-38.979759	-26.525203	-0.399131	-127.292129
9.600000	-0.404214	-127.861677	-38.856613	-28.038858	-38.856613	-28.038858	-0.404204	-127.861028
9.650000	-0.409340	-128.429987	-38.732566	-29.568061	-38.732566	-29.568061	-0.409330	-128.429338
9.700000	-0.414486	-128.998093	-38.609284	-31.103991	-38.609284	-31.103991	-0.414476	-128.997443
9.750000	-0.419688	-129.565584	-38.484827	-32.660103	-38.484827	-32.660103	-0.419678	-129.564935
9.800000	-0.424905	-130.132950	-38.361499	-34.221339	-38.361499	-34.221339	-0.424894	-130.132301
9.850000	-0.430179	-130.699690	-38.236794	-35.808193	-38.236794	-35.808193	-0.430168	-130.699043
9.900000	-0.435462	-131.266373	-38.113559	-37.397945	-38.113559	-37.397945	-0.435451	-131.265728
9.950000	-0.440805	-131.832430	-37.988846	-39.019589	-37.988846	-39.019589	-0.440794	-131.831788
10.000000	-0.446152	-132.398486	-37.865900	-40.641233	-37.865900	-40.641233	-0.446140	-132.397848
