! freq	dB(S11)	phase(S11)	dB(S12)	phase(S12)	
!     	dB(S21)	phase(S21)	dB(S22)	phase(S22)	
!S-par simulation data
#  GHz  S  DB  R 50
0.000000	-0.000000	0.000000	-364.484773	0.000000	-364.484773	0.000000	-0.000000	0.000000
0.050000	-0.005775	-1.962746	-95.253535	100.055967	-95.253535	100.055967	-0.003103	-1.407421
0.100000	-0.013184	-3.980102	-90.616648	100.364244	-90.616648	100.364244	-0.007930	-2.844482
0.150000	-0.017524	-6.014076	-87.963608	97.033779	-87.963608	97.033779	-0.011283	-4.295584
0.200000	-0.020158	-8.047094	-85.996083	93.311900	-85.996083	93.311900	-0.013470	-5.748672
0.250000	-0.022040	-10.075936	-84.430911	89.873798	-84.430911	89.873798	-0.015046	-7.200427
0.300000	-0.023628	-12.100141	-83.152123	86.794752	-83.152123	86.794752	-0.016346	-8.650097
0.350000	-0.025126	-14.119626	-82.094351	84.030285	-82.094351	84.030285	-0.017537	-10.097571
0.400000	-0.026628	-16.134250	-81.215301	81.530380	-81.215301	81.530380	-0.018704	-11.542840
0.450000	-0.028181	-18.143779	-80.485950	79.259709	-80.485950	79.259709	-0.019891	-12.985878
0.500000	-0.029804	-20.147913	-79.885800	77.198264	-79.885800	77.198264	-0.021119	-14.426627
0.550000	-0.031505	-22.146314	-79.400166	75.338966	-79.400166	75.338966	-0.022400	-15.865003
0.600000	-0.033286	-24.138620	-79.018506	73.685749	-79.018506	73.685749	-0.023738	-17.300904
0.650000	-0.035143	-26.124387	-78.734264	72.255368	-78.734264	72.255368	-0.025132	-18.734187
0.700000	-0.037070	-28.103236	-78.542298	71.073545	-78.542298	71.073545	-0.026580	-20.164730
0.750000	-0.039060	-30.074876	-78.438246	70.174982	-78.438246	70.174982	-0.028078	-21.592439
0.800000	-0.041104	-32.038957	-78.419885	69.611177	-78.419885	69.611177	-0.029623	-23.017195
0.850000	-0.043194	-33.995141	-78.485650	69.451937	-78.485650	69.451937	-0.031208	-24.438878
0.900000	-0.045321	-35.943106	-78.633814	69.790826	-78.633814	69.790826	-0.032828	-25.857373
0.950000	-0.047477	-37.882545	-78.861161	70.752145	-78.861161	70.752145	-0.034479	-27.272567
1.000000	-0.049656	-39.813167	-79.160685	72.498576	-79.160685	72.498576	-0.036156	-28.684353
1.050000	-0.051848	-41.734697	-79.517653	75.236193	-79.517653	75.236193	-0.037854	-30.092625
1.100000	-0.054048	-43.646878	-79.903251	79.207800	-79.903251	79.207800	-0.039568	-31.497284
1.150000	-0.056249	-45.549469	-80.265881	84.654969	-80.265881	84.654969	-0.041295	-32.898234
1.200000	-0.058446	-47.442247	-80.523645	91.718764	-80.523645	91.718764	-0.043031	-34.295384
1.250000	-0.060633	-49.325003	-80.569039	100.267009	-80.569039	100.267009	-0.044771	-35.688645
1.300000	-0.062806	-51.197318	-80.292539	109.730875	-80.292539	109.730875	-0.046514	-37.077845
1.350000	-0.064960	-53.059237	-79.661114	119.133011	-79.661114	119.133011	-0.048256	-38.462990
1.400000	-0.067094	-54.910598	-78.723715	127.573955	-78.723715	127.573955	-0.049995	-39.844003
1.450000	-0.069204	-56.751258	-77.582554	134.541561	-77.582554	134.541561	-0.051729	-41.220811
1.500000	-0.071287	-58.581087	-76.340810	139.942421	-76.340810	139.942421	-0.053456	-42.593345
1.550000	-0.073343	-60.399967	-75.074145	143.935073	-75.074145	143.935073	-0.055176	-43.961539
1.600000	-0.075370	-62.207799	-73.828211	146.764742	-73.828211	146.764742	-0.056886	-45.325330
1.650000	-0.077366	-64.004492	-72.626703	148.671775	-72.626703	148.671775	-0.058587	-46.684657
1.700000	-0.079333	-65.789971	-71.479865	149.858256	-71.479865	149.858256	-0.060277	-48.039465
1.750000	-0.081269	-67.564173	-70.390465	150.483410	-70.390465	150.483410	-0.061956	-49.389700
1.800000	-0.083176	-69.327048	-69.357420	150.669359	-69.357420	150.669359	-0.063624	-50.735309
1.850000	-0.085052	-71.078557	-68.377825	150.508994	-68.377825	150.508994	-0.065282	-52.076247
1.900000	-0.086899	-72.818549	-67.447518	150.070677	-67.447518	150.070677	-0.066928	-53.412415
1.950000	-0.088718	-74.547007	-66.562879	149.409995	-66.562879	149.409995	-0.068564	-54.743769
2.000000	-0.090510	-76.264050	-65.720773	148.571130	-65.720773	148.571130	-0.070189	-56.070323
2.050000	-0.092276	-77.969685	-64.917736	147.586286	-64.917736	147.586286	-0.071806	-57.392039
2.100000	-0.094018	-79.663926	-64.150608	146.480872	-64.150608	146.480872	-0.073413	-58.708883
2.150000	-0.095738	-81.346799	-63.416542	145.275117	-63.416542	145.275117	-0.075012	-60.020826
2.200000	-0.097436	-83.018339	-62.712985	143.985267	-62.712985	143.985267	-0.076604	-61.327837
2.250000	-0.099114	-84.678587	-62.037647	142.624480	-62.037647	142.624480	-0.078190	-62.629893
2.300000	-0.100774	-86.327112	-61.387514	141.201383	-61.387514	141.201383	-0.079770	-63.926753
2.350000	-0.102419	-87.965065	-60.762990	139.729770	-60.762990	139.729770	-0.081345	-65.218886
2.400000	-0.104049	-89.591905	-60.161120	138.213897	-60.161120	138.213897	-0.082917	-66.506003
2.450000	-0.105667	-91.207705	-59.580433	136.659884	-59.580433	136.659884	-0.084486	-67.788091
2.500000	-0.107273	-92.812547	-59.019604	135.072855	-59.019604	135.072855	-0.086053	-69.065137
2.550000	-0.108870	-94.406050	-58.476777	133.456040	-58.476777	133.456040	-0.087619	-70.336912
2.600000	-0.110459	-95.988787	-57.951621	131.814441	-57.951621	131.814441	-0.089186	-71.603630
2.650000	-0.112043	-97.560858	-57.443141	130.151094	-57.443141	130.151094	-0.090754	-72.865286
2.700000	-0.113622	-99.122370	-56.950433	128.468599	-56.950433	128.468599	-0.092324	-74.121881
2.750000	-0.115199	-100.673434	-56.472671	126.769192	-56.472671	126.769192	-0.093898	-75.373414
2.800000	-0.116775	-102.214167	-56.009103	125.054802	-56.009103	125.054802	-0.095476	-76.619891
2.850000	-0.118351	-103.744691	-55.559037	123.327105	-55.559037	123.327105	-0.097059	-77.861319
2.900000	-0.119929	-105.265131	-55.121838	121.587560	-55.121838	121.587560	-0.098649	-79.097706
2.950000	-0.121510	-106.775617	-54.696923	119.837442	-54.696923	119.837442	-0.100246	-80.329064
3.000000	-0.123096	-108.276282	-54.283751	118.077876	-54.283751	118.077876	-0.101851	-81.555407
3.050000	-0.124688	-109.767263	-53.881823	116.309855	-53.881823	116.309855	-0.103464	-82.776751
3.100000	-0.126286	-111.248700	-53.490674	114.534260	-53.490674	114.534260	-0.105088	-83.993115
3.150000	-0.127894	-112.720735	-53.109874	112.751881	-53.109874	112.751881	-0.106723	-85.204520
3.200000	-0.129511	-114.183515	-52.739020	110.963424	-52.739020	110.963424	-0.108369	-86.410988
3.250000	-0.131138	-115.637188	-52.377736	109.169532	-52.377736	109.169532	-0.110027	-87.612546
3.300000	-0.132777	-117.081903	-52.025669	107.370787	-52.025669	107.370787	-0.111699	-88.809220
3.350000	-0.134428	-118.517814	-51.682488	105.567721	-51.682488	105.567721	-0.113385	-90.001040
3.400000	-0.136093	-119.945075	-51.347882	103.760828	-51.347882	103.760828	-0.115085	-91.188037
3.450000	-0.137772	-121.363840	-51.021556	101.950563	-51.021556	101.950563	-0.116801	-92.370244
3.500000	-0.139467	-122.774268	-50.703231	100.137351	-50.703231	100.137351	-0.118534	-93.547698
3.550000	-0.141177	-124.176516	-50.392644	98.321592	-50.392644	98.321592	-0.120283	-94.720434
3.600000	-0.142904	-125.570745	-50.089544	96.503664	-50.089544	96.503664	-0.122050	-95.888492
3.650000	-0.144648	-126.957115	-49.793692	94.683926	-49.793692	94.683926	-0.123835	-97.051912
3.700000	-0.146411	-128.335786	-49.504860	92.862719	-49.504860	92.862719	-0.125638	-98.210738
3.750000	-0.148192	-129.706921	-49.222831	91.040371	-49.222831	91.040371	-0.127462	-99.365011
3.800000	-0.149993	-131.070368	-48.947303	89.217176	-48.947303	89.217176	-0.129306	-100.514586
3.850000	-0.151814	-132.426619	-48.678187	87.393487	-48.678187	87.393487	-0.131172	-101.659706
3.900000	-0.153655	-133.775835	-48.415289	85.569597	-48.415289	85.569597	-0.133058	-102.800421
3.950000	-0.155516	-135.118180	-48.158423	83.745788	-48.158423	83.745788	-0.134966	-103.936781
4.000000	-0.157399	-136.453817	-47.907408	81.922337	-47.907408	81.922337	-0.136897	-105.068837
4.050000	-0.159303	-137.782908	-47.662073	80.099512	-47.662073	80.099512	-0.138851	-106.196643
4.100000	-0.161229	-139.105615	-47.422249	78.277570	-47.422249	78.277570	-0.140828	-107.320251
4.150000	-0.163177	-140.422101	-47.187775	76.456765	-47.187775	76.456765	-0.142829	-108.439719
4.200000	-0.165147	-141.732527	-46.958497	74.637340	-46.958497	74.637340	-0.144854	-109.555101
4.250000	-0.167140	-143.037054	-46.734261	72.819531	-46.734261	72.819531	-0.146904	-110.666457
4.300000	-0.169155	-144.335844	-46.514924	71.003566	-46.514924	71.003566	-0.148980	-111.773844
4.350000	-0.171194	-145.629057	-46.300343	69.189665	-46.300343	69.189665	-0.151081	-112.877323
4.400000	-0.173256	-146.916851	-46.090381	67.378038	-46.090381	67.378038	-0.153208	-113.976953
4.450000	-0.175341	-148.199386	-45.884906	65.568889	-45.884906	65.568889	-0.155362	-115.072798
4.500000	-0.177449	-149.476818	-45.683789	63.762410	-45.683789	63.762410	-0.157542	-116.164919
4.550000	-0.179581	-150.749306	-45.486906	61.958785	-45.486906	61.958785	-0.159750	-117.253380
4.600000	-0.181736	-152.017006	-45.294137	60.158189	-45.294137	60.158189	-0.161985	-118.338246
4.650000	-0.183915	-153.280072	-45.105366	58.360785	-45.105366	58.360785	-0.164248	-119.419580
4.700000	-0.186117	-154.538660	-44.920478	56.566728	-44.920478	56.566728	-0.166539	-120.497450
4.750000	-0.188343	-155.792921	-44.739365	54.776160	-44.739365	54.776160	-0.168859	-121.571922
4.800000	-0.190593	-157.043009	-44.561923	52.989216	-44.561923	52.989216	-0.171208	-122.643063
4.850000	-0.192866	-158.289075	-44.388048	51.206017	-44.388048	51.206017	-0.173586	-123.710941
4.900000	-0.195162	-159.531268	-44.217643	49.426674	-44.217643	49.426674	-0.175994	-124.775624
4.950000	-0.197482	-160.769739	-44.050614	47.651289	-44.050614	47.651289	-0.178431	-125.837182
5.000000	-0.199825	-162.004633	-43.886867	45.879951	-43.886867	45.879951	-0.180898	-126.895684
5.050000	-0.202192	-163.235958	-43.726326	44.112921	-43.726326	44.112921	-0.183397	-127.951074
5.100000	-0.204582	-164.464012	-43.568899	42.350090	-43.568899	42.350090	-0.185926	-129.003555
5.150000	-0.206995	-165.688940	-43.414504	40.591514	-43.414504	40.591514	-0.188487	-130.053199
5.200000	-0.209430	-166.910886	-43.263065	38.837238	-43.263065	38.837238	-0.191078	-131.100077
5.250000	-0.211888	-168.129990	-43.114507	37.087300	-43.114507	37.087300	-0.193700	-132.144261
5.300000	-0.214368	-169.346394	-42.968758	35.341724	-42.968758	35.341724	-0.196354	-133.185823
5.350000	-0.216870	-170.560237	-42.825750	33.600528	-42.825750	33.600528	-0.199039	-134.224837
5.400000	-0.219393	-171.771656	-42.685419	31.863718	-42.685419	31.863718	-0.201756	-135.261374
5.450000	-0.221938	-172.980790	-42.547704	30.131293	-42.547704	30.131293	-0.204506	-136.295510
5.500000	-0.224504	-174.187772	-42.412546	28.403245	-42.412546	28.403245	-0.207287	-137.327316
5.550000	-0.227091	-175.392738	-42.279891	26.679557	-42.279891	26.679557	-0.210100	-138.356868
5.600000	-0.229699	-176.595820	-42.149686	24.960203	-42.149686	24.960203	-0.212946	-139.384239
5.650000	-0.232327	-177.797150	-42.021883	23.245154	-42.021883	23.245154	-0.215825	-140.409504
5.700000	-0.234974	-178.996859	-41.896435	21.534373	-41.896435	21.534373	-0.218736	-141.432737
5.750000	-0.237641	179.804926	-41.773300	19.827817	-41.773300	19.827817	-0.221680	-142.454014
5.800000	-0.240327	178.608075	-41.652439	18.125440	-41.652439	18.125440	-0.224657	-143.473408
5.850000	-0.243032	177.412462	-41.533813	16.427191	-41.533813	16.427191	-0.227667	-144.490995
5.900000	-0.245756	176.217963	-41.417389	14.733015	-41.417389	14.733015	-0.230711	-145.506851
5.950000	-0.248497	175.024454	-41.303136	13.042855	-41.303136	13.042855	-0.233787	-146.521051
6.000000	-0.251255	173.831812	-41.191025	11.356650	-41.191025	11.356650	-0.236896	-147.533670
6.050000	-0.254031	172.639916	-41.081029	9.674341	-41.081029	9.674341	-0.240039	-148.544784
6.100000	-0.256823	171.448647	-40.973126	7.995866	-40.973126	7.995866	-0.243215	-149.554468
6.150000	-0.259632	170.257886	-40.867294	6.321161	-40.867294	6.321161	-0.246425	-150.562799
6.200000	-0.262456	169.067517	-40.763514	4.650167	-40.763514	4.650167	-0.249668	-151.569852
6.250000	-0.265295	167.877424	-40.661772	2.982823	-40.661772	2.982823	-0.252944	-152.575703
6.300000	-0.268149	166.687494	-40.562091	1.319225	-40.562091	1.319225	-0.256255	-153.580383
6.350000	-0.271018	165.497603	-40.464424	-0.340842	-40.464424	-0.340842	-0.259600	-154.584019
6.400000	-0.273900	164.307641	-40.368763	-1.997427	-40.368763	-1.997427	-0.262978	-155.586688
6.450000	-0.276795	163.117496	-40.275100	-3.650579	-40.275100	-3.650579	-0.266389	-156.588466
6.500000	-0.279702	161.927063	-40.183429	-5.300340	-40.183429	-5.300340	-0.269834	-157.589428
6.550000	-0.282621	160.736233	-40.093747	-6.946748	-40.093747	-6.946748	-0.273311	-158.589650
6.600000	-0.285552	159.544902	-40.006052	-8.589833	-40.006052	-8.589833	-0.276822	-159.589209
6.650000	-0.288493	158.352966	-39.920344	-10.229620	-39.920344	-10.229620	-0.280366	-160.588180
6.700000	-0.291444	157.160323	-39.836624	-11.866127	-39.836624	-11.866127	-0.283943	-161.586639
6.750000	-0.294405	155.966872	-39.754895	-13.499364	-39.754895	-13.499364	-0.287552	-162.584661
6.800000	-0.297374	154.772516	-39.675162	-15.129334	-39.675162	-15.129334	-0.291195	-163.582323
6.850000	-0.300352	153.577156	-39.597429	-16.756028	-39.597429	-16.756028	-0.294870	-164.579699
6.900000	-0.303337	152.380696	-39.521702	-18.379432	-39.521702	-18.379432	-0.298577	-165.576865
6.950000	-0.306329	151.183044	-39.447990	-19.999521	-39.447990	-19.999521	-0.302317	-166.573897
7.000000	-0.309327	149.984107	-39.376299	-21.616261	-39.376299	-21.616261	-0.306088	-167.570869
7.050000	-0.312331	148.783793	-39.306640	-23.229607	-39.306640	-23.229607	-0.309891	-168.567858
7.100000	-0.315340	147.582015	-39.239020	-24.839504	-39.239020	-24.839504	-0.313726	-169.564937
7.150000	-0.318353	146.378685	-39.173451	-26.445888	-39.173451	-26.445888	-0.317593	-170.562182
7.200000	-0.321370	145.173718	-39.109942	-28.048682	-39.109942	-28.048682	-0.321490	-171.559667
7.250000	-0.324390	143.967031	-39.048503	-29.647802	-39.048503	-29.647802	-0.325418	-172.557467
7.300000	-0.327411	142.758543	-38.989144	-31.243149	-38.989144	-31.243149	-0.329377	-173.555656
7.350000	-0.330435	141.548173	-38.931876	-32.834617	-38.931876	-32.834617	-0.333366	-174.554308
7.400000	-0.333459	140.335844	-38.876709	-34.422088	-38.876709	-34.422088	-0.337385	-175.553498
7.450000	-0.336483	139.121482	-38.823653	-36.005433	-38.823653	-36.005433	-0.341433	-176.553298
7.500000	-0.339507	137.905011	-38.772716	-37.584513	-38.772716	-37.584513	-0.345511	-177.553783
7.550000	-0.342530	136.686264	-38.723988	-39.158981	-38.723988	-39.158981	-0.349618	-178.555062
7.600000	-0.345550	135.465262	-38.677400	-40.728862	-38.677400	-40.728862	-0.353754	-179.557178
7.650000	-0.348568	134.241939	-38.632956	-42.293986	-38.632956	-42.293986	-0.357918	179.439796
7.700000	-0.351582	133.016230	-38.590664	-43.854177	-38.590664	-43.854177	-0.362109	178.435788
7.750000	-0.354593	131.788073	-38.550527	-45.409246	-38.550527	-45.409246	-0.366327	177.430725
7.800000	-0.357599	130.557408	-38.512550	-46.959001	-38.512550	-46.959001	-0.370572	176.424536
7.850000	-0.360599	129.324178	-38.476734	-48.503240	-38.476734	-48.503240	-0.374843	175.417150
7.900000	-0.363594	128.088327	-38.443079	-50.041754	-38.443079	-50.041754	-0.379139	174.408494
7.950000	-0.366582	126.849803	-38.411587	-51.574329	-38.411587	-51.574329	-0.383460	173.398499
8.000000	-0.369563	125.608557	-38.382253	-53.100744	-38.382253	-53.100744	-0.387805	172.387094
8.050000	-0.372536	124.364539	-38.355075	-54.620776	-38.355075	-54.620776	-0.392173	171.374208
8.100000	-0.375501	123.117706	-38.330048	-56.134195	-38.330048	-56.134195	-0.396565	170.359774
8.150000	-0.378457	121.868016	-38.307163	-57.640770	-38.307163	-57.640770	-0.400979	169.343720
8.200000	-0.381403	120.615428	-38.286413	-59.140267	-38.286413	-59.140267	-0.405415	168.325980
8.250000	-0.384339	119.359907	-38.267786	-60.632450	-38.267786	-60.632450	-0.409871	167.306483
8.300000	-0.387265	118.101419	-38.251271	-62.117081	-38.251271	-62.117081	-0.414347	166.285164
8.350000	-0.390179	116.839933	-38.236854	-63.593925	-38.236854	-63.593925	-0.418843	165.261954
8.400000	-0.393082	115.575422	-38.224518	-65.062744	-38.224518	-65.062744	-0.423358	164.236788
8.450000	-0.395973	114.307860	-38.214246	-66.523305	-38.214246	-66.523305	-0.427890	163.209599
8.500000	-0.398852	113.037226	-38.206018	-67.975375	-38.206018	-67.975375	-0.432438	162.180321
8.550000	-0.401718	111.763501	-38.199814	-69.418725	-38.199814	-69.418725	-0.437003	161.148890
8.600000	-0.404571	110.486670	-38.195612	-70.853128	-38.195612	-70.853128	-0.441583	160.115242
8.650000	-0.407411	109.206722	-38.193385	-72.278365	-38.193385	-72.278365	-0.446176	159.079313
8.700000	-0.410237	107.923646	-38.193109	-73.694218	-38.193109	-73.694218	-0.450783	158.041041
8.750000	-0.413049	106.637438	-38.194757	-75.100478	-38.194757	-75.100478	-0.455402	157.000364
8.800000	-0.415846	105.347960	-38.198379	-76.496505	-38.198379	-76.496505	-0.460032	155.957110
8.850000	-0.418629	104.055350	-38.203861	-77.882520	-38.203861	-77.882520	-0.464671	154.911324
8.900000	-0.421397	102.759612	-38.211172	-79.258336	-38.211172	-79.258336	-0.469319	153.862946
8.950000	-0.424151	101.460757	-38.220279	-80.623771	-38.220279	-80.623771	-0.473975	152.811918
9.000000	-0.426891	100.158796	-38.231147	-81.978653	-38.231147	-81.978653	-0.478637	151.758183
9.050000	-0.429616	98.853746	-38.243740	-83.322820	-38.243740	-83.322820	-0.483303	150.701683
9.100000	-0.432327	97.545627	-38.258023	-84.656117	-38.258023	-84.656117	-0.487974	149.642362
9.150000	-0.435023	96.234462	-38.273957	-85.978400	-38.273957	-85.978400	-0.492647	148.580168
9.200000	-0.437705	94.920278	-38.291506	-87.289532	-38.291506	-87.289532	-0.497321	147.515045
9.250000	-0.440374	93.603107	-38.310630	-88.589390	-38.310630	-88.589390	-0.501995	146.446942
9.300000	-0.443029	92.282984	-38.331291	-89.877856	-38.331291	-89.877856	-0.506667	145.375808
9.350000	-0.445670	90.959946	-38.353447	-91.154827	-38.353447	-91.154827	-0.511336	144.301591
9.400000	-0.448299	89.634037	-38.377060	-92.420206	-38.377060	-92.420206	-0.516000	143.224245
9.450000	-0.450915	88.305302	-38.402089	-93.673908	-38.402089	-93.673908	-0.520659	142.143721
9.500000	-0.453520	86.973793	-38.428492	-94.915857	-38.428492	-94.915857	-0.525310	141.059973
9.550000	-0.456113	85.639562	-38.456229	-96.145989	-38.456229	-96.145989	-0.529951	139.972956
9.600000	-0.458695	84.302668	-38.485259	-97.364248	-38.485259	-97.364248	-0.534582	138.882628
9.650000	-0.461268	82.963173	-38.515542	-98.570587	-38.515542	-98.570587	-0.539200	137.788947
9.700000	-0.463831	81.621141	-38.547035	-99.764971	-38.547035	-99.764971	-0.543804	136.691872
9.750000	-0.466386	80.276643	-38.579698	-100.947372	-38.579698	-100.947372	-0.548393	135.591365
9.800000	-0.468933	78.929751	-38.613492	-102.117773	-38.613492	-102.117773	-0.552964	134.487389
9.850000	-0.471474	77.580543	-38.648374	-103.276165	-38.648374	-103.276165	-0.557515	133.379908
9.900000	-0.474009	76.229099	-38.684307	-104.422548	-38.684307	-104.422548	-0.562045	132.268890
9.950000	-0.476540	74.875503	-38.721250	-105.556929	-38.721250	-105.556929	-0.566553	131.154302
10.000000	-0.479067	73.519844	-38.759164	-106.679325	-38.759164	-106.679325	-0.571035	130.036115
