! freq	dB(S11)	phase(S11)	dB(S12)	phase(S12)	
!     	dB(S21)	phase(S21)	dB(S22)	phase(S22)	
!S-par simulation data
#  GHz  S  DB  R 50
0.000000	-0.000000	0.000000	-381.148751	0.000000	-381.148751	0.000000	-0.000000	0.000000
0.050000	-0.002032	-0.889005	-113.483388	88.858170	-113.483388	88.858170	-0.002781	-0.752496
0.100000	-0.003665	-1.761146	-107.463269	88.130440	-107.463269	88.130440	-0.003471	-1.517554
0.150000	-0.004503	-2.632051	-103.992950	87.460058	-103.992950	87.460058	-0.003914	-2.280270
0.200000	-0.005146	-3.503469	-101.575890	86.795866	-101.575890	86.795866	-0.004404	-3.041869
0.250000	-0.005775	-4.375123	-99.749918	86.149757	-99.749918	86.149757	-0.004983	-3.802608
0.300000	-0.006452	-5.246671	-98.311363	85.539673	-98.311363	85.539673	-0.005657	-4.562519
0.350000	-0.007191	-6.117899	-97.143002	84.977237	-97.143002	84.977237	-0.006408	-5.321679
0.400000	-0.008018	-6.988470	-96.206334	84.503484	-96.206334	84.503484	-0.007247	-6.079802
0.450000	-0.008870	-7.858826	-95.387548	84.058439	-95.387548	84.058439	-0.008111	-6.837609
0.500000	-0.009824	-8.728010	-94.765929	83.787776	-94.765929	83.787776	-0.009054	-7.593989
0.550000	-0.010801	-9.596832	-94.222758	83.582803	-94.222758	83.582803	-0.010012	-8.349979
0.600000	-0.011842	-10.464586	-93.814581	83.574236	-93.814581	83.574236	-0.011009	-9.104836
0.650000	-0.012915	-11.331578	-93.496682	83.750204	-93.496682	83.750204	-0.012018	-9.858961
0.700000	-0.014018	-12.197810	-93.260036	84.110706	-93.260036	84.110706	-0.013041	-10.612353
0.750000	-0.015154	-13.062814	-93.140269	84.881707	-93.140269	84.881707	-0.014068	-11.364653
0.800000	-0.016301	-13.927393	-93.060038	85.801736	-93.060038	85.801736	-0.015097	-12.116577
0.850000	-0.017473	-14.790359	-93.116851	87.496878	-93.116851	87.496878	-0.016120	-12.867151
0.900000	-0.018649	-15.652829	-93.208364	89.541243	-93.208364	89.541243	-0.017140	-13.617331
0.950000	-0.019834	-16.514097	-93.385687	92.433721	-93.385687	92.433721	-0.018150	-14.366552
1.000000	-0.021021	-17.374406	-93.597802	96.306444	-93.597802	96.306444	-0.019152	-15.115038
1.050000	-0.022209	-18.233948	-93.840817	100.963363	-93.840817	100.963363	-0.020146	-15.862933
1.100000	-0.023394	-19.092056	-94.019120	107.527513	-94.019120	107.527513	-0.021127	-16.609754
1.150000	-0.024577	-19.949700	-94.157479	114.691218	-94.157479	114.691218	-0.022103	-17.356230
1.200000	-0.025752	-20.805716	-93.995040	123.827436	-93.995040	123.827436	-0.023065	-18.101505
1.250000	-0.026923	-21.661106	-93.640852	133.108024	-93.640852	133.108024	-0.024022	-18.846322
1.300000	-0.028086	-22.515318	-92.959227	142.660029	-92.959227	142.660029	-0.024971	-19.590278
1.350000	-0.029242	-23.368409	-91.983534	151.158992	-91.983534	151.158992	-0.025913	-20.333416
1.400000	-0.030392	-24.220785	-90.914744	158.987838	-90.914744	158.987838	-0.026850	-21.076035
1.450000	-0.031532	-25.071524	-89.603630	164.698450	-89.603630	164.698450	-0.027781	-21.817459
1.500000	-0.032668	-25.921763	-88.376811	169.828481	-88.376811	169.828481	-0.028710	-22.558519
1.550000	-0.033794	-26.770354	-87.065458	173.235056	-87.065458	173.235056	-0.029634	-23.298374
1.600000	-0.034916	-27.618158	-85.838349	176.079327	-85.838349	176.079327	-0.030558	-24.037651
1.650000	-0.036032	-28.464792	-84.649354	178.089836	-84.649354	178.089836	-0.031480	-24.776070
1.700000	-0.037140	-29.309955	-83.486143	179.429399	-83.486143	179.429399	-0.032402	-25.513403
1.750000	-0.038246	-30.154381	-82.408748	-179.566512	-82.408748	-179.566512	-0.033325	-26.250193
1.800000	-0.039347	-30.997361	-81.363440	-178.977021	-81.363440	-178.977021	-0.034249	-26.985912
1.850000	-0.040445	-31.839310	-80.375213	-178.683672	-80.375213	-178.683672	-0.035174	-27.720865
1.900000	-0.041540	-32.679983	-79.427809	-178.621987	-79.427809	-178.621987	-0.036103	-28.454866
1.950000	-0.042633	-33.519379	-78.519441	-178.791967	-78.519441	-178.791967	-0.037034	-29.187916
2.000000	-0.043725	-34.357681	-77.655354	-179.092960	-77.655354	-179.092960	-0.037968	-29.920145
2.050000	-0.044815	-35.194450	-76.816358	-179.577374	-76.816358	-179.577374	-0.038907	-30.651226
2.100000	-0.045906	-36.030547	-76.030083	179.879964	-76.030083	179.879964	-0.039848	-31.381800
2.150000	-0.046997	-36.864898	-75.258636	179.193600	-75.258636	179.193600	-0.040795	-32.111060
2.200000	-0.048089	-37.697932	-74.515177	178.421210	-74.515177	178.421210	-0.041747	-32.839325
2.250000	-0.049182	-38.529630	-73.797733	177.574581	-73.797733	177.574581	-0.042704	-33.566580
2.300000	-0.050278	-39.359977	-73.104521	176.663497	-73.104521	176.663497	-0.043667	-34.292811
2.350000	-0.051376	-40.188957	-72.433928	175.696135	-72.433928	175.696135	-0.044635	-35.018003
2.400000	-0.052478	-41.016552	-71.784499	174.679384	-71.784499	174.679384	-0.045609	-35.742141
2.450000	-0.053584	-41.842747	-71.154911	173.619076	-71.154911	173.619076	-0.046590	-36.465213
2.500000	-0.054694	-42.667527	-70.543965	172.520187	-70.543965	172.520187	-0.047577	-37.187204
2.550000	-0.055809	-43.490814	-69.949574	171.385664	-69.949574	171.385664	-0.048570	-37.908054
2.600000	-0.056930	-44.312655	-69.371843	170.220789	-69.371843	170.220789	-0.049570	-38.627795
2.650000	-0.058056	-45.133036	-68.809847	169.028693	-68.809847	169.028693	-0.050577	-39.346416
2.700000	-0.059189	-45.951943	-68.262741	167.812109	-68.262741	167.812109	-0.051591	-40.063905
2.750000	-0.060328	-46.769363	-67.729749	166.573431	-67.729749	166.573431	-0.052612	-40.780249
2.800000	-0.061475	-47.585283	-67.210158	165.314765	-67.210158	165.314765	-0.053639	-41.495436
2.850000	-0.062629	-48.399691	-66.703308	164.037972	-66.703308	164.037972	-0.054675	-42.209457
2.900000	-0.063791	-49.212576	-66.208592	162.744705	-66.208592	162.744705	-0.055717	-42.922298
2.950000	-0.064962	-50.023927	-65.725447	161.436433	-65.725447	161.436433	-0.056768	-43.633951
3.000000	-0.066141	-50.833732	-65.253349	160.114469	-65.253349	160.114469	-0.057825	-44.344405
3.050000	-0.067329	-51.641982	-64.791814	158.779990	-64.791814	158.779990	-0.058891	-45.053649
3.100000	-0.068527	-52.448666	-64.340389	157.434054	-64.340389	157.434054	-0.059965	-45.761675
3.150000	-0.069735	-53.253777	-63.898651	156.077616	-63.898651	156.077616	-0.061047	-46.468473
3.200000	-0.070954	-54.057306	-63.466208	154.711540	-63.466208	154.711540	-0.062137	-47.174035
3.250000	-0.072183	-54.859244	-63.042690	153.336611	-63.042690	153.336611	-0.063235	-47.878351
3.300000	-0.073423	-55.659585	-62.627750	151.953540	-62.627750	151.953540	-0.064343	-48.581414
3.350000	-0.074677	-56.458040	-62.219194	150.561851	-62.219194	150.561851	-0.065461	-49.282994
3.400000	-0.075943	-57.254814	-61.818309	149.162985	-61.818309	149.162985	-0.066588	-49.983251
3.450000	-0.077216	-58.050743	-61.429960	147.761007	-61.429960	147.761007	-0.067720	-50.682839
3.500000	-0.078508	-58.844135	-61.043443	146.349693	-61.043443	146.349693	-0.068867	-51.380422
3.550000	-0.079805	-59.636960	-60.670221	144.936634	-60.670221	144.936634	-0.070018	-52.077554
3.600000	-0.081125	-60.426951	-60.297159	143.514844	-60.297159	143.514844	-0.071185	-52.772436
3.650000	-0.082448	-61.216657	-59.937993	142.092321	-59.937993	142.092321	-0.072355	-53.467091
3.700000	-0.083798	-62.003231	-59.577565	140.661730	-59.577565	140.661730	-0.073545	-54.159246
3.750000	-0.085148	-62.789805	-59.231500	139.231139	-59.231500	139.231139	-0.074735	-54.851402
3.800000	-0.086529	-63.572953	-58.882962	137.793183	-58.882962	137.793183	-0.075948	-55.540810
3.850000	-0.087910	-64.356100	-58.547873	136.355228	-58.547873	136.355228	-0.077162	-56.230217
3.900000	-0.089322	-65.136102	-58.211818	134.911660	-58.211818	134.911660	-0.078398	-56.917088
3.950000	-0.090736	-65.915819	-57.887109	133.467582	-57.887109	133.467582	-0.079636	-57.603728
4.000000	-0.092180	-66.692675	-57.562744	132.019303	-57.562744	132.019303	-0.080896	-58.288048
4.050000	-0.093629	-67.468959	-57.247869	130.570184	-57.247869	130.570184	-0.082160	-58.971904
4.100000	-0.095106	-68.242673	-56.934477	129.117995	-56.934477	129.117995	-0.083446	-59.653662
4.150000	-0.096592	-69.015529	-56.628934	127.664782	-56.628934	127.664782	-0.084738	-60.334720
4.200000	-0.098104	-69.786106	-56.325863	126.209396	-56.325863	126.209396	-0.086051	-61.013905
4.250000	-0.099629	-70.555544	-56.029190	124.752924	-56.029190	124.752924	-0.087373	-61.692155
4.300000	-0.101177	-71.322994	-55.735845	123.294980	-55.735845	123.294980	-0.088713	-62.368760
4.350000	-0.102743	-72.089025	-55.447614	121.835986	-55.447614	121.835986	-0.090067	-63.044191
4.400000	-0.104330	-72.853362	-55.163450	120.376058	-55.163450	120.376058	-0.091437	-63.718211
4.450000	-0.105938	-73.616004	-54.883264	118.915196	-54.883264	118.915196	-0.092825	-64.390818
4.500000	-0.107564	-74.377244	-54.607782	117.453798	-54.607782	117.453798	-0.094226	-65.062247
4.550000	-0.109217	-75.136519	-54.335271	115.991649	-54.335271	115.991649	-0.095649	-65.732026
4.600000	-0.110885	-75.894681	-54.068010	114.529245	-54.068010	114.529245	-0.097084	-66.400862
4.650000	-0.112584	-76.650616	-53.802829	113.066329	-53.802829	113.066329	-0.098544	-67.067812
4.700000	-0.114295	-77.405722	-53.543365	111.603336	-53.543365	111.603336	-0.100014	-67.734055
4.750000	-0.116043	-78.158345	-53.285193	110.140112	-53.285193	110.140112	-0.101514	-68.398176
4.800000	-0.117799	-78.910422	-53.033134	108.676907	-53.033134	108.676907	-0.103021	-69.061827
4.850000	-0.119598	-79.659769	-52.781668	107.213788	-52.781668	107.213788	-0.104562	-69.723123
4.900000	-0.121400	-80.408845	-52.536649	105.750709	-52.536649	105.750709	-0.106108	-70.384184
4.950000	-0.123252	-81.154952	-52.291608	104.288061	-52.291608	104.288061	-0.107693	-71.042660
5.000000	-0.125103	-81.901059	-52.053290	102.825414	-52.053290	102.825414	-0.109278	-71.701136
5.050000	-0.127009	-82.643969	-51.814408	101.363564	-51.814408	101.363564	-0.110910	-72.356800
5.100000	-0.128915	-83.386879	-51.581919	99.901715	-51.581919	99.901715	-0.112541	-73.012464
5.150000	-0.130873	-84.126901	-51.349505	98.440865	-51.349505	98.440865	-0.114217	-73.665559
5.200000	-0.132836	-84.866659	-51.122617	96.980106	-51.122617	96.980106	-0.115897	-74.318421
5.250000	-0.134848	-85.603834	-50.896372	95.520473	-50.896372	95.520473	-0.117619	-74.968958
5.300000	-0.136870	-86.340491	-50.674870	94.061065	-50.674870	94.061065	-0.119349	-75.619031
5.350000	-0.138938	-87.074862	-50.454516	92.602847	-50.454516	92.602847	-0.121119	-76.267022
5.400000	-0.141021	-87.808472	-50.238197	91.145025	-50.238197	91.145025	-0.122902	-76.914319
5.450000	-0.143146	-88.540087	-50.023475	89.688401	-50.023475	89.688401	-0.124721	-77.559777
5.500000	-0.145292	-89.270706	-49.812149	88.232377	-49.812149	88.232377	-0.126558	-78.204317
5.550000	-0.147476	-89.999616	-49.602818	86.777515	-49.602818	86.777515	-0.128429	-78.847258
5.600000	-0.149688	-90.727306	-49.396304	85.323483	-49.396304	85.323483	-0.130323	-79.489059
5.650000	-0.151933	-91.453563	-49.192137	83.870536	-49.192137	83.870536	-0.132247	-80.129502
5.700000	-0.154211	-92.178388	-48.990267	82.418675	-48.990267	82.418675	-0.134200	-80.768586
5.750000	-0.156519	-92.902048	-48.791055	80.967789	-48.791055	80.967789	-0.136178	-81.406549
5.800000	-0.158866	-93.624078	-48.593670	79.518268	-48.593670	79.518268	-0.138192	-82.042941
5.850000	-0.161238	-94.345200	-48.399214	78.069582	-48.399214	78.069582	-0.140226	-82.678445
5.900000	-0.163657	-95.064506	-48.206165	76.622566	-48.206165	76.622566	-0.142302	-83.312173
5.950000	-0.166095	-95.783152	-48.016282	75.176217	-48.016282	75.176217	-0.144395	-83.945241
6.000000	-0.168587	-96.499812	-47.827429	73.731867	-47.827429	73.731867	-0.146535	-84.576334
6.050000	-0.171092	-97.216045	-47.641944	72.287989	-47.641944	72.287989	-0.148686	-85.206993
6.100000	-0.173659	-97.930140	-47.457155	70.846471	-47.457155	70.846471	-0.150892	-85.835483
6.150000	-0.176233	-98.644028	-47.275908	69.405202	-47.275908	69.405202	-0.153105	-86.463760
6.200000	-0.178877	-99.355642	-47.095059	67.966686	-47.095059	67.966686	-0.155378	-87.089684
6.250000	-0.181522	-100.067256	-46.917898	66.528169	-46.917898	66.528169	-0.157652	-87.715609
6.300000	-0.184245	-100.776478	-46.740870	65.092837	-46.740870	65.092837	-0.159995	-88.339006
6.350000	-0.186968	-101.485700	-46.567378	63.657504	-46.567378	63.657504	-0.162338	-88.962403
6.400000	-0.189765	-102.192814	-46.394335	62.225270	-46.394335	62.225270	-0.164744	-89.583522
6.450000	-0.192569	-102.899736	-46.224410	60.793318	-46.224410	60.793318	-0.167158	-90.204435
6.500000	-0.195442	-103.604824	-46.055215	59.364361	-46.055215	59.364361	-0.169630	-90.823315
6.550000	-0.198328	-104.309545	-45.888758	57.936003	-45.888758	57.936003	-0.172114	-91.441789
6.600000	-0.201277	-105.012691	-45.723282	56.510519	-45.723282	56.510519	-0.174653	-92.058471
6.650000	-0.204248	-105.715311	-45.560198	55.085992	-45.560198	55.085992	-0.177210	-92.674555
6.700000	-0.207276	-106.416603	-45.398319	53.664192	-45.398319	53.664192	-0.179816	-93.289083
6.750000	-0.210332	-107.117230	-45.238518	52.243756	-45.238518	52.243756	-0.182447	-93.902833
6.800000	-0.213440	-107.816759	-45.080117	50.825874	-45.080117	50.825874	-0.185121	-94.515254
6.850000	-0.216584	-108.515504	-44.923511	49.409816	-44.923511	49.409816	-0.187826	-95.126727
6.900000	-0.219772	-109.213366	-44.768477	47.996105	-44.768477	47.996105	-0.190568	-95.737092
6.950000	-0.223005	-109.910345	-44.614980	46.584742	-44.614980	46.584742	-0.193349	-96.346350
7.000000	-0.226277	-110.606638	-44.463201	45.175480	-44.463201	45.175480	-0.196160	-96.954714
7.050000	-0.229601	-111.301973	-44.312727	43.769160	-44.312727	43.769160	-0.199017	-97.561826
7.100000	-0.232956	-111.996801	-44.164099	42.364646	-44.164099	42.364646	-0.201898	-98.168246
7.150000	-0.236372	-112.690617	-44.016562	40.963747	-44.016562	40.963747	-0.204831	-98.773285
7.200000	-0.239813	-113.384087	-43.870979	39.564305	-43.870979	39.564305	-0.207783	-99.377824
7.250000	-0.243324	-114.076519	-43.726292	38.169239	-43.726292	38.169239	-0.210793	-99.980867
7.300000	-0.246851	-114.768742	-43.583651	36.775219	-43.583651	36.775219	-0.213816	-100.583592
7.350000	-0.250457	-115.459926	-43.441723	35.386429	-43.441723	35.386429	-0.216904	-101.184725
7.400000	-0.254073	-116.151019	-43.301922	33.998201	-43.301922	33.998201	-0.219998	-101.785706
7.450000	-0.257777	-116.841101	-43.162660	32.616162	-43.162660	32.616162	-0.223164	-102.385020
7.500000	-0.261482	-117.531183	-43.025595	31.234124	-43.025595	31.234124	-0.226330	-102.984334
7.550000	-0.265285	-118.220315	-42.888900	29.859341	-42.888900	29.859341	-0.229574	-103.581927
7.600000	-0.269090	-118.909446	-42.754323	28.484559	-42.754323	28.484559	-0.232819	-104.179520
7.650000	-0.272985	-119.597851	-42.620235	27.116915	-42.620235	27.116915	-0.236136	-104.775633
7.700000	-0.276891	-120.286190	-42.488045	25.749921	-42.488045	25.749921	-0.239461	-105.371612
7.750000	-0.280881	-120.974005	-42.356447	24.389882	-42.356447	24.389882	-0.242851	-105.966340
7.800000	-0.284890	-121.661717	-42.226539	23.031234	-42.226539	23.031234	-0.246256	-106.560817
7.850000	-0.288976	-122.349087	-42.097309	21.679280	-42.097309	21.679280	-0.249721	-107.154262
7.900000	-0.293089	-123.036345	-41.969567	20.329557	-41.969567	20.329557	-0.253206	-107.747361
7.950000	-0.297274	-123.723420	-41.842580	18.986183	-41.842580	18.986183	-0.256746	-108.339631
8.000000	-0.301494	-124.410404	-41.716882	17.645983	-41.716882	17.645983	-0.260314	-108.931485
8.050000	-0.305778	-125.097340	-41.592008	16.311695	-41.592008	16.311695	-0.263930	-109.522697
8.100000	-0.310108	-125.784240	-41.468220	14.981629	-41.468220	14.981629	-0.267582	-110.113448
8.150000	-0.314493	-126.471199	-41.345323	13.656942	-41.345323	13.656942	-0.271276	-110.703725
8.200000	-0.318935	-127.158216	-41.223302	12.337633	-41.223302	12.337633	-0.275013	-111.293528
8.250000	-0.323424	-127.845368	-41.102240	11.023067	-41.102240	11.023067	-0.278787	-111.883004
8.300000	-0.327980	-128.532709	-40.981832	9.715141	-40.981832	9.715141	-0.282611	-112.472023
8.350000	-0.332575	-129.220231	-40.862458	8.411218	-40.862458	8.411218	-0.286467	-113.060840
8.400000	-0.337249	-129.908115	-40.743495	7.115302	-40.743495	7.115302	-0.290382	-113.649254
8.450000	-0.341953	-130.596193	-40.625654	5.822544	-40.625654	5.822544	-0.294322	-114.237565
8.500000	-0.346747	-131.284850	-40.507956	4.539262	-40.507956	4.539262	-0.298332	-114.825567
8.550000	-0.351563	-131.973676	-40.391487	3.258187	-40.391487	3.258187	-0.302360	-115.413534
8.600000	-0.356481	-132.663347	-40.274861	1.988152	-40.274861	1.988152	-0.306470	-116.001331
8.650000	-0.361412	-133.353124	-40.159595	0.719271	-40.159595	0.719271	-0.310589	-116.589130
8.700000	-0.366458	-134.044063	-40.043833	-0.536914	-40.043833	-0.536914	-0.314803	-117.176946
8.750000	-0.371507	-134.735002	-39.929593	-1.793099	-39.929593	-1.793099	-0.319020	-117.764761
8.800000	-0.376686	-135.427476	-39.814473	-3.034850	-39.814473	-3.034850	-0.323346	-118.352838
8.850000	-0.381868	-136.119950	-39.700859	-4.276601	-39.700859	-4.276601	-0.327675	-118.940914
8.900000	-0.387173	-136.814088	-39.586360	-5.504602	-39.586360	-5.504602	-0.332112	-119.529467
8.950000	-0.392493	-137.508377	-39.473139	-6.731354	-39.473139	-6.731354	-0.336562	-120.118064
9.000000	-0.397930	-138.204426	-39.359046	-7.945155	-39.359046	-7.945155	-0.341119	-120.707328
9.050000	-0.403393	-138.900826	-39.245972	-9.156365	-39.245972	-9.156365	-0.345701	-121.296726
9.100000	-0.408967	-139.599043	-39.132059	-10.355534	-39.132059	-10.355534	-0.350389	-121.886952
9.150000	-0.414581	-140.297866	-39.018867	-11.550688	-39.018867	-11.550688	-0.355115	-122.477453
9.200000	-0.420298	-140.998524	-38.904900	-12.734812	-38.904900	-12.734812	-0.359946	-123.068908
9.250000	-0.426068	-141.700098	-38.791308	-13.913422	-38.791308	-13.913422	-0.364832	-123.660839
9.300000	-0.431934	-142.403480	-38.677042	-15.082111	-38.677042	-15.082111	-0.369821	-124.253809
9.350000	-0.437870	-143.108152	-38.562750	-16.243715	-38.562750	-16.243715	-0.374886	-124.847521
9.400000	-0.443893	-143.814557	-38.447928	-17.396600	-38.447928	-17.396600	-0.380051	-125.442312
9.450000	-0.450003	-144.522694	-38.332615	-18.540766	-38.332615	-18.540766	-0.385316	-126.038183
9.500000	-0.456191	-145.232436	-38.216969	-19.677498	-38.216969	-19.677498	-0.390677	-126.635123
9.550000	-0.462486	-145.944424	-38.100294	-20.803823	-38.100294	-20.803823	-0.396171	-127.233560
9.600000	-0.468848	-146.657832	-37.983543	-21.924075	-37.983543	-21.924075	-0.401752	-127.832997
9.650000	-0.475340	-147.374081	-37.865140	-23.032181	-37.865140	-23.032181	-0.407504	-128.434437
9.700000	-0.481886	-148.091504	-37.746991	-24.135643	-37.746991	-24.135643	-0.413333	-129.036745
9.750000	-0.488587	-148.812446	-37.626468	-25.225176	-37.626468	-25.225176	-0.419384	-129.641656
9.800000	-0.495329	-149.534247	-37.506612	-26.311557	-37.506612	-26.311557	-0.425493	-130.247231
9.850000	-0.502255	-150.260342	-37.383548	-27.382183	-37.383548	-27.382183	-0.431885	-130.856117
9.900000	-0.509205	-150.986906	-37.261663	-28.451207	-37.261663	-28.451207	-0.438314	-131.465380
9.950000	-0.516372	-151.718638	-37.135604	-29.502609	-37.135604	-29.502609	-0.445100	-132.078778
10.000000	-0.523545	-152.450370	-37.011349	-30.554011	-37.011349	-30.554011	-0.451892	-132.692177
