! freq	dB(S11)	phase(S11)	dB(S12)	phase(S12)	
!     	dB(S21)	phase(S21)	dB(S22)	phase(S22)	
!S-par simulation data
#  GHz  S  DB  R 50
0.000000	0.000000	0.000000	-302.939596	0.000000	-302.939596	0.000000	-0.000000	0.000000
0.050000	-0.000264	-2.465574	-71.245903	-49.110656	-71.245903	-49.110656	-0.000111	-0.812883
0.100000	-0.001047	-4.930087	-68.888986	-30.454985	-68.888986	-30.454985	-0.000439	-1.625484
0.150000	-0.002334	-7.392473	-68.323262	-22.034604	-68.323262	-22.034604	-0.000971	-2.437534
0.200000	-0.004081	-9.851806	-68.167009	-17.522759	-68.167009	-17.522759	-0.001680	-3.248829
0.250000	-0.006251	-12.307150	-68.168414	-14.873026	-68.168414	-14.873026	-0.002542	-4.059195
0.300000	-0.008797	-14.757659	-68.252007	-13.219491	-68.252007	-13.219491	-0.003527	-4.868518
0.350000	-0.011665	-17.202570	-68.391111	-12.160414	-68.391111	-12.160414	-0.004608	-5.676730
0.400000	-0.014802	-19.641197	-68.575100	-11.486952	-68.575100	-11.486952	-0.005757	-6.483807
0.450000	-0.018154	-22.072938	-68.799804	-11.080920	-68.799804	-11.080920	-0.006951	-7.289758
0.500000	-0.021668	-24.497261	-69.064149	-10.871028	-69.064149	-10.871028	-0.008172	-8.094613
0.550000	-0.025299	-26.913699	-69.368855	-10.812157	-69.368855	-10.812157	-0.009405	-8.898415
0.600000	-0.029003	-29.321844	-69.715922	-10.874733	-69.715922	-10.874733	-0.010637	-9.701214
0.650000	-0.032743	-31.721238	-70.108801	-11.039877	-70.108801	-11.039877	-0.011862	-10.503048
0.700000	-0.036487	-34.111547	-70.551797	-11.293904	-70.551797	-11.293904	-0.013074	-11.303962
0.750000	-0.040210	-36.492580	-71.050273	-11.627065	-71.050273	-11.627065	-0.014269	-12.104005
0.800000	-0.043891	-38.864074	-71.611637	-12.034050	-71.611637	-12.034050	-0.015446	-12.903209
0.850000	-0.047514	-41.225788	-72.245583	-12.512390	-72.245583	-12.512390	-0.016605	-13.701596
0.900000	-0.051068	-43.577499	-72.964963	-13.062420	-72.964963	-13.062420	-0.017747	-14.499183
0.950000	-0.054544	-45.919000	-73.787164	-13.687777	-73.787164	-13.687777	-0.018872	-15.295981
1.000000	-0.057937	-48.250097	-74.736369	-14.396698	-74.736369	-14.396698	-0.019981	-16.091992
1.050000	-0.061243	-50.570610	-75.847452	-15.204844	-75.847452	-15.204844	-0.021076	-16.887217
1.100000	-0.064463	-52.880372	-77.173176	-16.141460	-77.173176	-16.141460	-0.022159	-17.681651
1.150000	-0.067596	-55.179228	-78.798718	-17.263968	-78.798718	-17.263968	-0.023231	-18.475286
1.200000	-0.070644	-57.467039	-80.874781	-18.697589	-80.874781	-18.697589	-0.024293	-19.268112
1.250000	-0.073610	-59.743678	-83.707793	-20.767549	-83.707793	-20.767549	-0.025346	-20.060113
1.300000	-0.076495	-62.008787	-88.091195	-24.784714	-88.091195	-24.784714	-0.026392	-20.851259
1.350000	-0.079306	-64.262514	-97.379331	-43.871817	-97.379331	-43.871817	-0.027432	-21.641549
1.400000	-0.082045	-66.504780	-95.615871	-173.353221	-95.615871	-173.353221	-0.028467	-22.430967
1.450000	-0.084717	-68.735525	-87.137541	168.279688	-87.137541	168.279688	-0.029498	-23.219494
1.500000	-0.087327	-70.954703	-82.749203	164.362098	-82.749203	164.362098	-0.030525	-24.007113
1.550000	-0.089879	-73.162287	-79.776106	162.153569	-79.776106	162.153569	-0.031549	-24.793804
1.600000	-0.092377	-75.358267	-77.513701	160.489467	-77.513701	160.489467	-0.032571	-25.579548
1.650000	-0.094825	-77.542652	-75.679246	159.057461	-75.679246	159.057461	-0.033592	-26.364326
1.700000	-0.097227	-79.715466	-74.130918	157.738032	-74.130918	157.738032	-0.034610	-27.148120
1.750000	-0.099588	-81.876753	-72.787429	156.475694	-72.787429	156.475694	-0.035629	-27.930909
1.800000	-0.101910	-84.026574	-71.597835	155.241314	-71.597835	155.241314	-0.036646	-28.712676
1.850000	-0.104197	-86.165007	-70.528085	154.018237	-70.528085	154.018237	-0.037664	-29.493402
1.900000	-0.106453	-88.292024	-69.554050	152.796282	-69.554050	152.796282	-0.038681	-30.273056
1.950000	-0.108681	-90.407742	-68.658371	151.568873	-68.658371	151.568873	-0.039700	-31.051621
2.000000	-0.110885	-92.512413	-67.828204	150.331871	-67.828204	150.331871	-0.040719	-31.829089
2.050000	-0.113067	-94.606181	-67.053450	149.082479	-67.053450	149.082479	-0.041739	-32.605443
2.100000	-0.115230	-96.689205	-66.326164	147.818775	-66.326164	147.818775	-0.042761	-33.380667
2.150000	-0.117377	-98.761660	-65.639984	146.539423	-65.639984	146.539423	-0.043784	-34.154743
2.200000	-0.119511	-100.823736	-64.989738	145.243494	-64.989738	145.243494	-0.044809	-34.927655
2.250000	-0.121634	-102.875635	-64.371164	143.930345	-64.371164	143.930345	-0.045837	-35.699387
2.300000	-0.123749	-104.917572	-63.780714	142.599537	-63.780714	142.599537	-0.046867	-36.469923
2.350000	-0.125858	-106.949777	-63.215400	141.250777	-63.215400	141.250777	-0.047900	-37.239247
2.400000	-0.127963	-108.972490	-62.672689	139.883883	-62.672689	139.883883	-0.048936	-38.007345
2.450000	-0.130066	-110.985965	-62.150414	138.498751	-62.150414	138.498751	-0.049976	-38.774201
2.500000	-0.132170	-112.990464	-61.646709	137.095333	-61.646709	137.095333	-0.051019	-39.539802
2.550000	-0.134276	-114.986081	-61.159724	135.673233	-61.159724	135.673233	-0.052066	-40.304105
2.600000	-0.136387	-116.973295	-60.688304	134.232881	-60.688304	134.232881	-0.053118	-41.067124
2.650000	-0.138505	-118.952404	-60.231221	132.774334	-60.231221	132.774334	-0.054174	-41.828845
2.700000	-0.140630	-120.923711	-59.787395	131.297667	-59.787395	131.297667	-0.055235	-42.589257
2.750000	-0.142765	-122.887530	-59.355875	129.802972	-59.355875	129.802972	-0.056302	-43.348345
2.800000	-0.144912	-124.844184	-58.935823	128.290349	-58.935823	128.290349	-0.057375	-44.106098
2.850000	-0.147073	-126.794003	-58.526496	126.759909	-58.526496	126.759909	-0.058453	-44.862504
2.900000	-0.149248	-128.737326	-58.127235	125.211771	-58.127235	125.211771	-0.059538	-45.617551
2.950000	-0.151440	-130.674499	-57.737456	123.646062	-57.737456	123.646062	-0.060630	-46.371229
3.000000	-0.153650	-132.605875	-57.356639	122.062916	-57.356639	122.062916	-0.061729	-47.123526
3.050000	-0.155879	-134.531814	-56.984322	120.462474	-56.984322	120.462474	-0.062836	-47.874432
3.100000	-0.158130	-136.452683	-56.620093	118.844888	-56.620093	118.844888	-0.063950	-48.623937
3.150000	-0.160403	-138.368809	-56.263512	117.210132	-56.263512	117.210132	-0.065073	-49.372016
3.200000	-0.162700	-140.280584	-55.914264	115.558381	-55.914264	115.558381	-0.066204	-50.118659
3.250000	-0.165023	-142.188446	-55.572137	113.890001	-55.572137	113.890001	-0.067345	-50.863873
3.300000	-0.167372	-144.092787	-55.236878	112.205183	-55.236878	112.205183	-0.068495	-51.607648
3.350000	-0.169748	-145.994005	-54.908260	110.504134	-54.908260	110.504134	-0.069656	-52.349978
3.400000	-0.172154	-147.892502	-54.586083	108.787076	-54.586083	108.787076	-0.070826	-53.090854
3.450000	-0.174589	-149.788688	-54.270173	107.054244	-54.270173	107.054244	-0.072007	-53.830268
3.500000	-0.177056	-151.682978	-53.960377	105.305893	-53.960377	105.305893	-0.073200	-54.568214
3.550000	-0.179556	-153.575790	-53.656561	103.542297	-53.656561	103.542297	-0.074403	-55.304685
3.600000	-0.182088	-155.467551	-53.358609	101.763749	-53.358609	101.763749	-0.075619	-56.039675
3.650000	-0.184656	-157.358690	-53.066421	99.970563	-53.066421	99.970563	-0.076847	-56.773177
3.700000	-0.187259	-159.249644	-52.779912	98.163077	-52.779912	98.163077	-0.078088	-57.505187
3.750000	-0.189898	-161.140853	-52.499009	96.341651	-52.499009	96.341651	-0.079342	-58.235698
3.800000	-0.192576	-163.032789	-52.223586	94.506383	-52.223586	94.506383	-0.080610	-58.964675
3.850000	-0.195292	-164.925899	-51.953672	92.657986	-51.953672	92.657986	-0.081892	-59.692144
3.900000	-0.198047	-166.820642	-51.689225	90.796897	-51.689225	90.796897	-0.083189	-60.418102
3.950000	-0.200843	-168.717479	-51.430211	88.923576	-51.430211	88.923576	-0.084500	-61.142545
4.000000	-0.203679	-170.616879	-51.176604	87.038509	-51.176604	87.038509	-0.085826	-61.865470
4.050000	-0.206558	-172.519317	-50.928383	85.142207	-50.928383	85.142207	-0.087169	-62.586875
4.100000	-0.209479	-174.425273	-50.685532	83.235204	-50.685532	83.235204	-0.088527	-63.306756
4.150000	-0.212443	-176.335233	-50.448040	81.318061	-50.448040	81.318061	-0.089902	-64.025111
4.200000	-0.215452	-178.249687	-50.215897	79.391357	-50.215897	79.391357	-0.091294	-64.741940
4.250000	-0.218505	179.830865	-49.989097	77.455698	-49.989097	77.455698	-0.092703	-65.457240
4.300000	-0.221604	177.905919	-49.767637	75.511704	-49.767637	75.511704	-0.094130	-66.171010
4.350000	-0.224749	175.974965	-49.551512	73.560018	-49.551512	73.560018	-0.095575	-66.883250
4.400000	-0.227941	174.037409	-49.340726	71.601229	-49.340726	71.601229	-0.097039	-67.593943
4.450000	-0.231181	172.092709	-49.135283	69.636030	-49.135283	69.636030	-0.098522	-68.303090
4.500000	-0.234469	170.140405	-48.935181	67.665183	-48.935181	67.665183	-0.100025	-69.010706
4.550000	-0.237807	168.179958	-48.740414	65.689380	-48.740414	65.689380	-0.101547	-69.716794
4.600000	-0.241193	166.210825	-48.550979	63.709320	-48.550979	63.709320	-0.103090	-70.421354
4.650000	-0.244629	164.232451	-48.366868	61.725706	-48.366868	61.725706	-0.104653	-71.124388
4.700000	-0.248117	162.244277	-48.188076	59.739243	-48.188076	59.739243	-0.106238	-71.825898
4.750000	-0.251655	160.245736	-48.014592	57.750630	-48.014592	57.750630	-0.107844	-72.525886
4.800000	-0.255245	158.236252	-47.846407	55.760567	-47.846407	55.760567	-0.109472	-73.224355
4.850000	-0.258888	156.215242	-47.683508	53.769741	-47.683508	53.769741	-0.111122	-73.921307
4.900000	-0.262585	154.182115	-47.525883	51.778834	-47.525883	51.778834	-0.112795	-74.616747
4.950000	-0.266335	152.136271	-47.373517	49.788513	-47.373517	49.788513	-0.114492	-75.310677
5.000000	-0.270140	150.077104	-47.226395	47.799430	-47.226395	47.799430	-0.116211	-76.003101
5.050000	-0.274003	148.003680	-47.084568	45.812278	-47.084568	45.812278	-0.117956	-76.693992
5.100000	-0.277922	145.915664	-46.947960	43.827646	-46.947960	43.827646	-0.119724	-77.383387
5.150000	-0.281898	143.812422	-46.816557	41.846132	-46.816557	41.846132	-0.121518	-78.071291
5.200000	-0.285934	141.693313	-46.690343	39.868313	-46.690343	39.868313	-0.123337	-78.757708
5.250000	-0.290029	139.557688	-46.569306	37.894744	-46.569306	37.894744	-0.125181	-79.442645
5.300000	-0.294186	137.404887	-46.453434	35.925959	-46.453434	35.925959	-0.127051	-80.126108
5.350000	-0.298405	135.234245	-46.342719	33.962471	-46.342719	33.962471	-0.128948	-80.808103
5.400000	-0.302688	133.045087	-46.237155	32.004773	-46.237155	32.004773	-0.130871	-81.488636
5.450000	-0.307036	130.836729	-46.136743	30.053339	-46.136743	30.053339	-0.132822	-82.167714
5.500000	-0.311452	128.608482	-46.041485	28.108625	-46.041485	28.108625	-0.134801	-82.845345
5.550000	-0.315938	126.359646	-45.951392	26.171075	-45.951392	26.171075	-0.136807	-83.521536
5.600000	-0.320495	124.089518	-45.866481	24.241118	-45.866481	24.241118	-0.138842	-84.196294
5.650000	-0.325127	121.797135	-45.786823	22.319271	-45.786823	22.319271	-0.140906	-84.869613
5.700000	-0.329836	119.481756	-45.712458	20.405967	-45.712458	20.405967	-0.142999	-85.541500
5.750000	-0.334625	117.142894	-45.643376	18.501541	-45.643376	18.501541	-0.145122	-86.211981
5.800000	-0.339497	114.779818	-45.579631	16.606426	-45.579631	16.606426	-0.147275	-86.881064
5.850000	-0.344455	112.391793	-45.521286	14.721070	-45.521286	14.721070	-0.149459	-87.548758
5.900000	-0.349503	109.978078	-45.468414	12.845944	-45.468414	12.845944	-0.151673	-88.215072
5.950000	-0.354646	107.537932	-45.421104	10.981554	-45.421104	10.981554	-0.153918	-88.880017
6.000000	-0.359887	105.070609	-45.379458	9.128449	-45.379458	9.128449	-0.156195	-89.543603
6.050000	-0.365232	102.575365	-45.343592	7.287238	-45.343592	7.287238	-0.158504	-90.205839
6.100000	-0.370686	100.051451	-45.313639	5.458595	-45.313639	5.458595	-0.160845	-90.866737
6.150000	-0.376255	97.498125	-45.289749	3.643283	-45.289749	3.643283	-0.163219	-91.526307
6.200000	-0.381945	94.914643	-45.272089	1.842166	-45.272089	1.842166	-0.165626	-92.184559
6.250000	-0.387763	92.300269	-45.260844	0.056232	-45.260844	0.056232	-0.168067	-92.841507
6.300000	-0.393720	89.653564	-45.256368	-1.713002	-45.256368	-1.713002	-0.170542	-93.497133
6.350000	-0.399820	86.974478	-45.258748	-3.464548	-45.258748	-3.464548	-0.173052	-94.151477
6.400000	-0.406073	84.262296	-45.268231	-5.196886	-45.268231	-5.196886	-0.175596	-94.804552
6.450000	-0.412488	81.516315	-45.285082	-6.908259	-45.285082	-6.908259	-0.178175	-95.456370
6.500000	-0.419074	78.735849	-45.309588	-8.596637	-45.309588	-8.596637	-0.180789	-96.106943
6.550000	-0.425842	75.920225	-45.342058	-10.259667	-45.342058	-10.259667	-0.183439	-96.756285
6.600000	-0.432804	73.068790	-45.382815	-11.894634	-45.382815	-11.894634	-0.186126	-97.404408
6.650000	-0.439971	70.180915	-45.432204	-13.498394	-45.432204	-13.498394	-0.188849	-98.051326
6.700000	-0.447356	67.255993	-45.490582	-15.067314	-45.490582	-15.067314	-0.191608	-98.697052
6.750000	-0.454973	64.293445	-45.558315	-16.597202	-45.558315	-16.597202	-0.194405	-99.341600
6.800000	-0.462835	61.292723	-45.635776	-18.083219	-45.635776	-18.083219	-0.197240	-99.984984
6.850000	-0.470957	58.253312	-45.723333	-19.519789	-45.723333	-19.519789	-0.200113	-100.627218
6.900000	-0.479358	55.174304	-45.821445	-20.899803	-45.821445	-20.899803	-0.203024	-101.268304
6.950000	-0.488055	52.055248	-45.930436	-22.215594	-45.930436	-22.215594	-0.205974	-101.908258
7.000000	-0.497061	48.896181	-46.050475	-23.459227	-46.050475	-23.459227	-0.208964	-102.547106
7.050000	-0.506394	45.696757	-46.181756	-24.620925	-46.181756	-24.620925	-0.211993	-103.184865
7.100000	-0.516071	42.456687	-46.324364	-25.689547	-46.324364	-25.689547	-0.215062	-103.821548
7.150000	-0.526111	39.175732	-46.478229	-26.652446	-46.478229	-26.652446	-0.218171	-104.457172
7.200000	-0.536532	35.853711	-46.643073	-27.495362	-46.643073	-27.495362	-0.221320	-105.091753
7.250000	-0.547353	32.490505	-46.818333	-28.202340	-46.818333	-28.202340	-0.224510	-105.725306
7.300000	-0.558594	29.086058	-47.003078	-28.755731	-47.003078	-28.755731	-0.227742	-106.357848
7.350000	-0.570271	25.640381	-47.195899	-29.136303	-47.195899	-29.136303	-0.231015	-106.989394
7.400000	-0.582400	22.154000	-47.394797	-29.325922	-47.394797	-29.325922	-0.234329	-107.619972
7.450000	-0.595010	18.625953	-47.596969	-29.297539	-47.596969	-29.297539	-0.237687	-108.249573
7.500000	-0.608113	15.057138	-47.798697	-29.033368	-47.798697	-29.033368	-0.241087	-108.878229
7.550000	-0.621730	11.447421	-47.995055	-28.511186	-47.995055	-28.511186	-0.244530	-109.505948
7.600000	-0.635872	7.797630	-48.180146	-27.718244	-48.180146	-27.718244	-0.248017	-110.132757
7.650000	-0.650553	4.108224	-48.346836	-26.645839	-48.346836	-26.645839	-0.251547	-110.758674
7.700000	-0.665786	0.379743	-48.486950	-25.295077	-48.486950	-25.295077	-0.255121	-111.383717
7.750000	-0.681584	-3.387196	-48.591619	-23.680197	-48.591619	-23.680197	-0.258739	-112.007903
7.800000	-0.697955	-7.191900	-48.651882	-21.831345	-48.651882	-21.831345	-0.262402	-112.631252
7.850000	-0.714910	-11.033891	-48.659036	-19.794909	-48.659036	-19.794909	-0.266111	-113.253774
7.900000	-0.732452	-14.912110	-48.606805	-17.636639	-48.606805	-17.636639	-0.269864	-113.875494
7.950000	-0.750581	-18.825535	-48.491517	-15.433123	-48.491517	-15.433123	-0.273663	-114.496432
8.000000	-0.769295	-22.773179	-48.312589	-13.265908	-48.312589	-13.265908	-0.277508	-115.116607
8.050000	-0.788591	-26.753984	-48.072776	-11.214252	-48.072776	-11.214252	-0.281400	-115.736038
8.100000	-0.808461	-30.766834	-47.777779	-9.347849	-47.777779	-9.347849	-0.285337	-116.354745
8.150000	-0.828895	-34.810713	-47.435157	-7.723113	-47.435157	-7.723113	-0.289322	-116.972744
8.200000	-0.849879	-38.884370	-47.054046	-6.378025	-47.054046	-6.378025	-0.293354	-117.590055
8.250000	-0.871391	-42.986359	-46.644066	-5.331397	-46.644066	-5.331397	-0.297434	-118.206702
8.300000	-0.893407	-47.115356	-46.214029	-4.588721	-46.214029	-4.588721	-0.301561	-118.822704
8.350000	-0.915901	-51.270000	-45.771805	-4.144057	-45.771805	-4.144057	-0.305737	-119.438083
8.400000	-0.938841	-55.448900	-45.324096	-3.983382	-45.324096	-3.983382	-0.309961	-120.052858
8.450000	-0.962192	-59.650691	-44.876338	-4.088231	-44.876338	-4.088231	-0.314233	-120.667050
8.500000	-0.985916	-63.874027	-44.432834	-4.437764	-44.432834	-4.437764	-0.318555	-121.280676
8.550000	-1.009967	-68.117262	-43.997086	-5.007046	-43.997086	-5.007046	-0.322926	-121.893763
8.600000	-1.034296	-72.378922	-43.571558	-5.773622	-43.571558	-5.773622	-0.327346	-122.506332
8.650000	-1.058853	-76.657528	-43.158016	-6.716097	-43.158016	-6.716097	-0.331817	-123.118404
8.700000	-1.083584	-80.951595	-42.757667	-7.814568	-42.757667	-7.814568	-0.336337	-123.730001
8.750000	-1.108429	-85.259640	-42.371283	-9.050827	-42.371283	-9.050827	-0.340908	-124.341146
8.800000	-1.133327	-89.580299	-41.999290	-10.409563	-41.999290	-10.409563	-0.345530	-124.951857
8.850000	-1.158214	-93.911944	-41.641900	-11.874583	-41.641900	-11.874583	-0.350202	-125.562159
8.900000	-1.183024	-98.253104	-41.299094	-13.432802	-41.299094	-13.432802	-0.354926	-126.172078
8.950000	-1.207688	-102.602319	-40.970715	-15.072624	-40.970715	-15.072624	-0.359701	-126.781634
9.000000	-1.232136	-106.958135	-40.656508	-16.783796	-40.656508	-16.783796	-0.364528	-127.390852
9.050000	-1.256298	-111.319111	-40.356153	-18.557278	-40.356153	-18.557278	-0.369407	-127.999755
9.100000	-1.280098	-115.683828	-40.069316	-20.385486	-40.069316	-20.385486	-0.374338	-128.608364
9.150000	-1.303465	-120.050820	-39.795594	-22.261033	-39.795594	-22.261033	-0.379322	-129.216704
9.200000	-1.326328	-124.418658	-39.534574	-24.177619	-39.534574	-24.177619	-0.384359	-129.824801
9.250000	-1.348618	-128.785926	-39.285849	-26.129824	-39.285849	-26.129824	-0.389448	-130.432680
9.300000	-1.370262	-133.151215	-39.049024	-28.112860	-39.049024	-28.112860	-0.394590	-131.040363
9.350000	-1.391195	-137.513115	-38.823710	-30.122489	-38.823710	-30.122489	-0.399786	-131.647877
9.400000	-1.411344	-141.870183	-38.609569	-32.155057	-38.609569	-32.155057	-0.405036	-132.255245
9.450000	-1.430647	-146.220985	-38.406251	-34.207160	-38.406251	-34.207160	-0.410339	-132.862493
9.500000	-1.449046	-150.564132	-38.213391	-36.275686	-38.213391	-36.275686	-0.415697	-133.469647
9.550000	-1.466487	-154.898205	-38.030673	-38.357942	-38.030673	-38.357942	-0.421109	-134.076733
9.600000	-1.482916	-159.221779	-37.857803	-40.451491	-37.857803	-40.451491	-0.426575	-134.683777
9.650000	-1.498288	-163.533421	-37.694504	-42.554104	-37.694504	-42.554104	-0.432095	-135.290805
9.700000	-1.512555	-167.831652	-37.540535	-44.663750	-37.540535	-44.663750	-0.437671	-135.897843
9.750000	-1.525674	-172.114923	-37.395690	-46.778533	-37.395690	-46.778533	-0.443302	-136.504919
9.800000	-1.537623	-176.381891	-37.259689	-48.896627	-37.259689	-48.896627	-0.448988	-137.112059
9.850000	-1.548377	179.368903	-37.132320	-51.016366	-37.132320	-51.016366	-0.454729	-137.719291
9.900000	-1.557916	175.138920	-37.013379	-53.136166	-37.013379	-53.136166	-0.460526	-138.326643
9.950000	-1.566228	170.929623	-36.902677	-55.254515	-36.902677	-55.254515	-0.466379	-138.934141
10.000000	-1.573305	166.742473	-36.800029	-57.369958	-36.800029	-57.369958	-0.472287	-139.541815
