! freq	dB(S11)	phase(S11)	dB(S12)	phase(S12)	
!     	dB(S21)	phase(S21)	dB(S22)	phase(S22)	
!S-par simulation data
#  GHz  S  DB  R 50
0.000000	-0.000000	-0.000000	-315.117316	180.000000	-315.117316	180.000000	-0.000000	0.000000
0.050000	-0.000105	-0.776458	-90.347266	8.772078	-90.347266	8.772078	-0.000108	-0.993933
0.100000	-0.000414	-1.552659	-90.265463	10.791525	-90.265463	10.791525	-0.000430	-1.987628
0.150000	-0.000915	-2.328367	-90.163243	14.174800	-90.163243	14.174800	-0.000956	-2.980859
0.200000	-0.001587	-3.103387	-90.033123	17.769349	-90.033123	17.769349	-0.001669	-3.973432
0.250000	-0.002416	-3.877500	-89.879218	21.316016	-89.879218	21.316016	-0.002563	-4.965112
0.300000	-0.003361	-4.650668	-89.711459	24.728859	-89.711459	24.728859	-0.003601	-5.955830
0.350000	-0.004404	-5.422780	-89.536555	27.970277	-89.536555	27.970277	-0.004769	-6.945436
0.400000	-0.005520	-6.193799	-89.362080	31.030653	-89.362080	31.030653	-0.006044	-7.933842
0.450000	-0.006685	-6.963715	-89.195025	33.917109	-89.195025	33.917109	-0.007405	-8.920987
0.500000	-0.007880	-7.732547	-89.041644	36.647924	-89.041644	36.647924	-0.008832	-9.906835
0.550000	-0.009089	-8.500328	-88.907432	39.249364	-88.907432	39.249364	-0.010306	-10.891369
0.600000	-0.010299	-9.267101	-88.797155	41.753853	-88.797155	41.753853	-0.011812	-11.874589
0.650000	-0.011500	-10.032915	-88.714908	44.199088	-88.714908	44.199088	-0.013336	-12.856504
0.700000	-0.012686	-10.797817	-88.664166	46.627895	-88.664166	46.627895	-0.014866	-13.837131
0.750000	-0.013851	-11.561852	-88.647800	49.088720	-88.647800	49.088720	-0.016395	-14.816492
0.800000	-0.014992	-12.325063	-88.668013	51.636680	-88.668013	51.636680	-0.017913	-15.794609
0.850000	-0.016109	-13.087482	-88.726177	54.335120	-88.726177	54.335120	-0.019417	-16.771502
0.900000	-0.017201	-13.849138	-88.822493	57.257527	-88.822493	57.257527	-0.020903	-17.747191
0.950000	-0.018270	-14.610053	-88.955403	60.489560	-88.955403	60.489560	-0.022368	-18.721692
1.000000	-0.019316	-15.370244	-89.120646	64.130560	-89.120646	64.130560	-0.023812	-19.695016
1.050000	-0.020341	-16.129721	-89.309818	68.293248	-89.309818	68.293248	-0.025232	-20.667172
1.100000	-0.021347	-16.888489	-89.508381	73.099183	-89.508381	73.099183	-0.026631	-21.638163
1.150000	-0.022336	-17.646550	-89.693241	78.665950	-89.693241	78.665950	-0.028007	-22.607988
1.200000	-0.023311	-18.403901	-89.830638	85.080834	-89.830638	85.080834	-0.029364	-23.576645
1.250000	-0.024273	-19.160536	-89.876101	92.357438	-89.876101	92.357438	-0.030700	-24.544126
1.300000	-0.025224	-19.916416	-89.770752	100.400226	-89.770752	100.400226	-0.032019	-25.510367
1.350000	-0.026166	-20.671560	-89.475360	108.872815	-89.475360	108.872815	-0.033321	-26.475409
1.400000	-0.027101	-21.425956	-88.969759	117.353470	-88.969759	117.353470	-0.034608	-27.439234
1.450000	-0.028031	-22.179590	-88.265180	125.407384	-88.265180	125.407384	-0.035883	-28.401826
1.500000	-0.028957	-22.932447	-87.398970	132.700906	-87.398970	132.700906	-0.037146	-29.363166
1.550000	-0.029880	-23.684510	-86.420199	139.055400	-86.420199	139.055400	-0.038399	-30.323234
1.600000	-0.030802	-24.435764	-85.375956	144.433320	-85.375956	144.433320	-0.039644	-31.282009
1.650000	-0.031723	-25.186190	-84.303894	148.890809	-84.303894	148.890809	-0.040881	-32.239469
1.700000	-0.032645	-25.935772	-83.230647	152.530046	-83.230647	152.530046	-0.042113	-33.195593
1.750000	-0.033568	-26.684492	-82.173397	155.465991	-82.173397	155.465991	-0.043340	-34.150358
1.800000	-0.034494	-27.432331	-81.142329	157.808154	-81.142329	157.808154	-0.044564	-35.103740
1.850000	-0.035422	-28.179273	-80.142878	159.652851	-80.142878	159.652851	-0.045785	-36.055719
1.900000	-0.036354	-28.925299	-79.177429	161.081335	-79.177429	161.081335	-0.047005	-37.006271
1.950000	-0.037289	-29.670392	-78.246490	162.160697	-78.246490	162.160697	-0.048224	-37.955374
2.000000	-0.038229	-30.414534	-77.349465	162.945784	-77.349465	162.945784	-0.049444	-38.903006
2.050000	-0.039173	-31.157709	-76.485137	163.481294	-76.485137	163.481294	-0.050664	-39.849146
2.100000	-0.040122	-31.899899	-75.651975	163.803695	-75.651975	163.803695	-0.051887	-40.793773
2.150000	-0.041077	-32.641088	-74.848322	163.942846	-74.848322	163.942846	-0.053112	-41.736867
2.200000	-0.042037	-33.381259	-74.072499	163.923321	-74.072499	163.923321	-0.054341	-42.678408
2.250000	-0.043002	-34.120396	-73.322874	163.765466	-73.322874	163.765466	-0.055573	-43.618378
2.300000	-0.043974	-34.858485	-72.597892	163.486233	-72.597892	163.486233	-0.056809	-44.556757
2.350000	-0.044952	-35.595509	-71.896096	163.099843	-71.896096	163.099843	-0.058050	-45.493528
2.400000	-0.045936	-36.331453	-71.216128	162.618301	-71.216128	162.618301	-0.059297	-46.428675
2.450000	-0.046926	-37.066304	-70.556734	162.051815	-70.556734	162.051815	-0.060549	-47.362181
2.500000	-0.047923	-37.800047	-69.916756	161.409116	-69.916756	161.409116	-0.061808	-48.294032
2.550000	-0.048927	-38.532619	-69.294004	160.695040	-69.294004	160.695040	-0.063074	-49.224140
2.600000	-0.049937	-39.264056	-68.688747	159.919288	-68.688747	159.919288	-0.064347	-50.152564
2.650000	-0.050954	-39.994343	-68.100069	159.087439	-68.100069	159.087439	-0.065628	-51.079291
2.700000	-0.051978	-40.723469	-67.527127	158.204391	-67.527127	158.204391	-0.066916	-52.004310
2.750000	-0.053009	-41.451422	-66.969145	157.274469	-66.969145	157.274469	-0.068213	-52.927610
2.800000	-0.054048	-42.178190	-66.425407	156.301510	-66.425407	156.301510	-0.069519	-53.849181
2.850000	-0.055093	-42.903762	-65.895251	155.288939	-65.895251	155.288939	-0.070834	-54.769014
2.900000	-0.056146	-43.628127	-65.378064	154.239823	-65.378064	154.239823	-0.072159	-55.687102
2.950000	-0.057206	-44.351274	-64.873280	153.156927	-64.873280	153.156927	-0.073494	-56.603436
3.000000	-0.058274	-45.073193	-64.380369	152.042750	-64.380369	152.042750	-0.074839	-57.518012
3.050000	-0.059349	-45.793876	-63.898841	150.899564	-63.898841	150.899564	-0.076195	-58.430823
3.100000	-0.060433	-46.513312	-63.428238	149.729441	-63.428238	149.729441	-0.077562	-59.341865
3.150000	-0.061524	-47.231492	-62.968131	148.534279	-62.968131	148.534279	-0.078940	-60.251135
3.200000	-0.062624	-47.948408	-62.518119	147.315825	-62.518119	147.315825	-0.080331	-61.158630
3.250000	-0.063732	-48.664052	-62.077825	146.075687	-62.077825	146.075687	-0.081734	-62.064347
3.300000	-0.064849	-49.378416	-61.646894	144.815358	-61.646894	144.815358	-0.083150	-62.968286
3.350000	-0.065975	-50.091493	-61.224993	143.536221	-61.224993	143.536221	-0.084579	-63.870447
3.400000	-0.067110	-50.803275	-60.811805	142.239567	-60.811805	142.239567	-0.086022	-64.770831
3.450000	-0.068255	-51.513755	-60.407032	140.926598	-60.407032	140.926598	-0.087479	-65.669439
3.500000	-0.069409	-52.222927	-60.010391	139.598442	-60.010391	139.598442	-0.088951	-66.566273
3.550000	-0.070572	-52.930786	-59.621612	138.256157	-59.621612	138.256157	-0.090438	-67.461338
3.600000	-0.071746	-53.637324	-59.240438	136.900735	-59.240438	136.900735	-0.091941	-68.354637
3.650000	-0.072931	-54.342538	-58.866626	135.533113	-58.866626	135.533113	-0.093459	-69.246175
3.700000	-0.074126	-55.046421	-58.499942	134.154172	-58.499942	134.154172	-0.094994	-70.135959
3.750000	-0.075333	-55.748970	-58.140162	132.764745	-58.140162	132.764745	-0.096547	-71.023994
3.800000	-0.076552	-56.450121	-57.786741	131.365232	-57.786741	131.365232	-0.098117	-71.910214
3.850000	-0.077782	-57.149927	-57.439830	129.956828	-57.439830	129.956828	-0.099706	-72.794702
3.900000	-0.079025	-57.848387	-57.099231	128.540232	-57.099231	128.540232	-0.101313	-73.677468
3.950000	-0.080280	-58.545495	-56.764750	127.116104	-56.764750	127.116104	-0.102940	-74.558523
4.000000	-0.081548	-59.241249	-56.436201	125.685073	-56.436201	125.685073	-0.104586	-75.437877
4.050000	-0.082830	-59.935646	-56.113405	124.247730	-56.113405	124.247730	-0.106253	-76.315541
4.100000	-0.084125	-60.628683	-55.796189	122.804639	-55.796189	122.804639	-0.107940	-77.191530
4.150000	-0.085435	-61.320359	-55.484385	121.356330	-55.484385	121.356330	-0.109648	-78.065856
4.200000	-0.086760	-62.010670	-55.177832	119.903307	-55.177832	119.903307	-0.111379	-78.938534
4.250000	-0.088099	-62.699617	-54.876373	118.446044	-54.876373	118.446044	-0.113132	-79.809579
4.300000	-0.089454	-63.387196	-54.579855	116.984990	-54.579855	116.984990	-0.114908	-80.679006
4.350000	-0.090825	-64.073408	-54.288132	115.520568	-54.288132	115.520568	-0.116707	-81.546833
4.400000	-0.092213	-64.758251	-54.001059	114.053178	-54.001059	114.053178	-0.118530	-82.413078
4.450000	-0.093617	-65.441725	-53.718498	112.583193	-53.718498	112.583193	-0.120379	-83.277758
4.500000	-0.095039	-66.123830	-53.440315	111.110967	-53.440315	111.110967	-0.122252	-84.140894
4.550000	-0.096479	-66.804565	-53.166377	109.636830	-53.166377	109.636830	-0.124151	-85.002506
4.600000	-0.097937	-67.483932	-52.896558	108.161090	-52.896558	108.161090	-0.126077	-85.862614
4.650000	-0.099413	-68.161930	-52.630734	106.684037	-52.630734	106.684037	-0.128029	-86.721241
4.700000	-0.100909	-68.838560	-52.368785	105.205940	-52.368785	105.205940	-0.130010	-87.578411
4.750000	-0.102425	-69.513825	-52.110593	103.727049	-52.110593	103.727049	-0.132018	-88.434145
4.800000	-0.103961	-70.187725	-51.856046	102.247595	-51.856046	102.247595	-0.134055	-89.288471
4.850000	-0.105518	-70.860261	-51.605033	100.767793	-51.605033	100.767793	-0.136121	-90.141413
4.900000	-0.107096	-71.531437	-51.357446	99.287840	-51.357446	99.287840	-0.138217	-90.992997
4.950000	-0.108696	-72.201254	-51.113182	97.807918	-51.113182	97.807918	-0.140343	-91.843253
5.000000	-0.110318	-72.869715	-50.872139	96.328192	-50.872139	96.328192	-0.142501	-92.692207
5.050000	-0.111963	-73.536764	-50.634071	94.848835	-50.634071	94.848835	-0.144691	-93.539837
5.100000	-0.113632	-74.202463	-50.399036	93.369973	-50.399036	93.369973	-0.146914	-94.386230
5.150000	-0.115324	-74.866816	-50.166941	91.891727	-50.166941	91.891727	-0.149170	-95.231417
5.200000	-0.117041	-75.529827	-49.937696	90.414206	-49.937696	90.414206	-0.151459	-96.075433
5.250000	-0.118782	-76.191499	-49.711212	88.937506	-49.711212	88.937506	-0.153781	-96.918310
5.300000	-0.120548	-76.851837	-49.487405	87.461713	-49.487405	87.461713	-0.156139	-97.760086
5.350000	-0.122340	-77.510845	-49.266191	85.986901	-49.266191	85.986901	-0.158532	-98.600797
5.400000	-0.124157	-78.168529	-49.047490	84.513135	-49.047490	84.513135	-0.160960	-99.440480
5.450000	-0.126002	-78.824893	-48.831225	83.040468	-48.831225	83.040468	-0.163425	-100.279176
5.500000	-0.127873	-79.479943	-48.617319	81.568948	-48.617319	81.568948	-0.165927	-101.116925
5.550000	-0.129771	-80.133686	-48.405700	80.098611	-48.405700	80.098611	-0.168466	-101.953770
5.600000	-0.131697	-80.786126	-48.196295	78.629488	-48.196295	78.629488	-0.171044	-102.789756
5.650000	-0.133651	-81.437271	-47.989035	77.161603	-47.989035	77.161603	-0.173660	-103.624927
5.700000	-0.135634	-82.087127	-47.783853	75.694971	-47.783853	75.694971	-0.176316	-104.459332
5.750000	-0.137646	-82.735702	-47.580683	74.229604	-47.580683	74.229604	-0.179012	-105.293019
5.800000	-0.139687	-83.383002	-47.379460	72.765507	-47.379460	72.765507	-0.181749	-106.126042
5.850000	-0.141763	-84.028818	-47.179646	71.302901	-47.179646	71.302901	-0.184534	-106.958363
5.900000	-0.143870	-84.673321	-46.981560	69.841619	-46.981560	69.841619	-0.187364	-107.790106
5.950000	-0.145994	-85.317175	-46.786502	68.380990	-46.786502	68.380990	-0.190216	-108.621614
6.000000	-0.148166	-85.959083	-46.591655	66.922324	-46.591655	66.922324	-0.193137	-109.452418
6.050000	-0.150349	-86.600565	-46.400167	65.464085	-46.400167	65.464085	-0.196073	-110.283113
6.100000	-0.152586	-87.239918	-46.208326	64.007979	-46.208326	64.007979	-0.199088	-111.113263
6.150000	-0.154830	-87.879062	-46.020174	62.552081	-46.020174	62.552081	-0.202111	-111.943384
6.200000	-0.157134	-88.515904	-45.831103	61.098463	-45.831103	61.098463	-0.205224	-112.773194
6.250000	-0.159439	-89.152746	-45.646060	59.644845	-45.646060	59.644845	-0.208338	-113.603004
6.300000	-0.161812	-89.787123	-45.459517	58.193635	-45.459517	58.193635	-0.211553	-114.432827
6.350000	-0.164186	-90.421500	-45.276896	56.742425	-45.276896	56.742425	-0.214769	-115.262651
6.400000	-0.166623	-91.053664	-45.093085	55.293347	-45.093085	55.293347	-0.218084	-116.092850
6.450000	-0.169066	-91.685627	-44.912643	53.844463	-44.912643	53.844463	-0.221408	-116.923084
6.500000	-0.171568	-92.315622	-44.731298	52.397449	-44.731298	52.397449	-0.224826	-117.754039
6.550000	-0.174082	-92.945225	-44.552767	50.950810	-44.552767	50.950810	-0.228265	-118.585139
6.600000	-0.176650	-93.573100	-44.373604	49.505794	-44.373604	49.505794	-0.231794	-119.417281
6.650000	-0.179236	-94.200400	-44.196682	48.061319	-44.196682	48.061319	-0.235355	-120.249770
6.700000	-0.181870	-94.826206	-44.019385	46.618231	-44.019385	46.618231	-0.239003	-121.083597
6.750000	-0.184529	-95.451265	-43.843721	45.175836	-43.843721	45.175836	-0.242696	-121.918093
6.800000	-0.187230	-96.075057	-43.667929	43.734594	-43.667929	43.734594	-0.246472	-122.754188
6.850000	-0.189963	-96.697942	-43.493098	42.294175	-43.493098	42.294175	-0.250310	-123.591424
6.900000	-0.192732	-97.319775	-43.318390	40.854669	-43.318390	40.854669	-0.254229	-124.430476
6.950000	-0.195538	-97.940557	-43.143867	39.416077	-43.143867	39.416077	-0.258229	-125.271342
7.000000	-0.198376	-98.560494	-42.969739	37.978144	-42.969739	37.978144	-0.262307	-126.114181
7.050000	-0.201257	-99.179248	-42.794858	36.541134	-42.794858	36.541134	-0.266494	-126.959781
7.100000	-0.204158	-99.797511	-42.621435	35.104438	-42.621435	35.104438	-0.270736	-127.806844
7.150000	-0.207106	-100.414517	-42.446225	33.668498	-42.446225	33.668498	-0.275119	-128.657848
7.200000	-0.210091	-101.030615	-42.270258	32.232920	-42.270258	32.232920	-0.279623	-129.512297
7.250000	-0.213111	-101.645826	-42.093249	30.797498	-42.093249	30.797498	-0.284259	-130.370647
7.300000	-0.216168	-102.260171	-41.914867	29.361961	-41.914867	29.361961	-0.289045	-131.233421
7.350000	-0.219260	-102.873672	-41.734727	27.925955	-41.734727	27.925955	-0.294000	-132.101221
7.400000	-0.222388	-103.486351	-41.552381	26.489012	-41.552381	26.489012	-0.299150	-132.974753
7.450000	-0.225552	-104.098232	-41.367303	25.050515	-41.367303	25.050515	-0.304524	-133.854839
7.500000	-0.228752	-104.709339	-41.178871	23.609653	-41.178871	23.609653	-0.310162	-134.742456
7.550000	-0.231988	-105.319665	-40.985933	22.165127	-40.985933	22.165127	-0.316130	-135.639210
7.600000	-0.235258	-105.929271	-40.787894	20.715544	-40.787894	20.715544	-0.322485	-136.546216
7.650000	-0.238563	-106.538186	-40.583642	19.258883	-40.583642	19.258883	-0.329314	-137.465231
7.700000	-0.241900	-107.146437	-40.371822	17.792404	-40.371822	17.792404	-0.336736	-138.398427
7.750000	-0.245270	-107.754057	-40.150760	16.312346	-40.150760	16.312346	-0.344910	-139.348518
7.800000	-0.248671	-108.361080	-39.918373	14.813493	-39.918373	14.813493	-0.354058	-140.318943
7.850000	-0.252101	-108.967543	-39.672036	13.288501	-39.672036	13.288501	-0.364492	-141.314122
7.900000	-0.255557	-109.573487	-39.408404	11.726870	-39.408404	11.726870	-0.376663	-142.339827
7.950000	-0.259035	-110.179004	-39.126638	10.119991	-39.126638	10.119991	-0.390937	-143.399226
8.000000	-0.262534	-110.784065	-38.815560	8.435952	-38.815560	8.435952	-0.408748	-144.509683
8.050000	-0.266047	-111.388785	-38.470387	6.645233	-38.470387	6.645233	-0.431460	-145.682013
8.100000	-0.269565	-111.993262	-38.081442	4.695240	-38.081442	4.695240	-0.461606	-146.935712
8.150000	-0.273079	-112.597640	-37.634890	2.497635	-37.634890	2.497635	-0.503676	-148.299675
8.200000	-0.276572	-113.202148	-37.112524	-0.097231	-37.112524	-0.097231	-0.565852	-149.814633
8.250000	-0.280030	-113.807180	-36.492221	-3.348514	-36.492221	-3.348514	-0.663681	-151.534127
8.300000	-0.283446	-114.413437	-35.750934	-7.725467	-35.750934	-7.725467	-0.828665	-153.514778
8.350000	-0.286871	-115.022332	-34.877879	-14.176416	-34.877879	-14.176416	-1.132918	-155.741819
8.400000	-0.290622	-115.636234	-33.967670	-24.414952	-33.967670	-24.414952	-1.723234	-157.649437
8.450000	-0.295823	-116.255859	-33.477270	-40.586400	-33.477270	-40.586400	-2.710089	-156.408726
8.500000	-0.303739	-116.867196	-34.433078	-60.914984	-34.433078	-60.914984	-3.216755	-148.245665
8.550000	-0.311301	-117.454916	-37.156218	-75.528131	-37.156218	-75.528131	-2.419225	-142.324611
8.600000	-0.316226	-118.038432	-40.432395	-78.042868	-40.432395	-78.042868	-1.618832	-142.405666
8.650000	-0.320066	-118.628557	-43.042508	-70.380377	-43.042508	-70.380377	-1.170176	-144.220875
8.700000	-0.323788	-119.223624	-44.398341	-58.273156	-44.398341	-58.273156	-0.928475	-146.148317
8.750000	-0.327631	-119.821386	-44.690649	-47.342017	-44.690649	-47.342017	-0.790383	-147.894689
8.800000	-0.331626	-120.420684	-44.441550	-39.696533	-44.441550	-39.696533	-0.707173	-149.451201
8.850000	-0.335754	-121.020900	-44.023511	-34.771458	-44.023511	-34.771458	-0.653402	-150.864473
8.900000	-0.340006	-121.621830	-43.582934	-31.851190	-43.582934	-31.851190	-0.618560	-152.162025
8.950000	-0.344363	-122.223313	-43.174381	-30.147535	-43.174381	-30.147535	-0.594902	-153.378302
9.000000	-0.348815	-122.825312	-42.809225	-29.250139	-42.809225	-29.250139	-0.578778	-154.532407
9.050000	-0.353360	-123.427845	-42.487340	-28.904831	-42.487340	-28.904831	-0.567992	-155.637535
9.100000	-0.357990	-124.030927	-42.203008	-28.929131	-42.203008	-28.929131	-0.560925	-156.705590
9.150000	-0.362702	-124.634575	-41.949973	-29.205339	-41.949973	-29.205339	-0.556506	-157.745510
9.200000	-0.367494	-125.238834	-41.723428	-29.664545	-41.723428	-29.664545	-0.554096	-158.763046
9.250000	-0.372365	-125.843755	-41.519315	-30.258950	-41.519315	-30.258950	-0.553244	-159.762658
9.300000	-0.377316	-126.449392	-41.334279	-30.954641	-41.334279	-30.954641	-0.553621	-160.747852
9.350000	-0.382349	-127.055821	-41.165774	-31.728099	-41.165774	-31.728099	-0.554999	-161.721251
9.400000	-0.387472	-127.663179	-41.012253	-32.564127	-41.012253	-32.564127	-0.557241	-162.684595
9.450000	-0.392679	-128.271455	-40.870718	-33.442957	-40.870718	-33.442957	-0.560127	-163.640715
9.500000	-0.397972	-128.880720	-40.739695	-34.354835	-40.739695	-34.354835	-0.563553	-164.591056
9.550000	-0.403355	-129.491044	-40.617955	-35.292142	-40.617955	-35.292142	-0.567441	-165.536828
9.600000	-0.408830	-130.102502	-40.504466	-36.248853	-40.504466	-36.248853	-0.571727	-166.479052
9.650000	-0.414400	-130.715171	-40.398359	-37.220150	-40.398359	-37.220150	-0.576361	-167.418604
9.700000	-0.420110	-131.329706	-40.300944	-38.205219	-40.300944	-38.205219	-0.581410	-168.355714
9.750000	-0.425869	-131.944873	-40.206658	-39.192863	-40.206658	-39.192863	-0.586573	-169.292431
9.800000	-0.431776	-132.562073	-40.119675	-40.187714	-40.119675	-40.187714	-0.592079	-170.228102
9.850000	-0.437780	-133.180619	-40.036815	-41.183810	-40.036815	-41.183810	-0.597758	-171.163872
9.900000	-0.443892	-133.800668	-39.958350	-42.181298	-39.958350	-42.181298	-0.603629	-172.099754
9.950000	-0.450165	-134.423033	-39.885017	-43.177255	-39.885017	-43.177255	-0.609731	-173.036710
10.000000	-0.456499	-135.046229	-39.813872	-44.172662	-39.813872	-44.172662	-0.615917	-173.974051
