! freq	dB(S11)	phase(S11)	dB(S12)	phase(S12)	
!     	dB(S21)	phase(S21)	dB(S22)	phase(S22)	
!S-par simulation data
#  GHz  S  DB  R 50
0.000000	-0.000000	0.000000	-350.665162	0.000000	-350.665162	0.000000	0.000000	0.000000
0.050000	-0.005191	-1.999523	-102.757804	84.311299	-102.757804	84.311299	-0.001590	-0.935518
0.100000	-0.012572	-4.048489	-97.066899	84.316298	-97.066899	84.316298	-0.004407	-1.885952
0.150000	-0.017283	-6.116418	-93.688077	83.683549	-93.688077	83.683549	-0.006639	-2.845658
0.200000	-0.020231	-8.184951	-91.313082	82.727625	-91.313082	82.727625	-0.008203	-3.807806
0.250000	-0.022328	-10.249788	-89.511960	81.633260	-89.511960	81.633260	-0.009361	-4.769881
0.300000	-0.024063	-12.310021	-88.088313	80.489516	-88.088313	80.489516	-0.010311	-5.731123
0.350000	-0.025665	-14.365412	-86.936465	79.345039	-86.936465	79.345039	-0.011169	-6.691359
0.400000	-0.027246	-16.415767	-85.993474	78.232373	-85.993474	78.232373	-0.011996	-7.650569
0.450000	-0.028862	-18.460830	-85.219246	77.177821	-85.219246	77.177821	-0.012826	-8.608762
0.500000	-0.030539	-20.500289	-84.587084	76.206183	-84.587084	76.206183	-0.013678	-9.565942
0.550000	-0.032289	-22.533794	-84.078725	75.343582	-84.078725	75.343582	-0.014559	-10.522102
0.600000	-0.034114	-24.560976	-83.681540	74.619654	-83.681540	74.619654	-0.015475	-11.477227
0.650000	-0.036013	-26.581379	-83.387803	74.072078	-83.387803	74.072078	-0.016428	-12.431285
0.700000	-0.037982	-28.594612	-83.191661	73.746213	-83.191661	73.746213	-0.017415	-13.384247
0.750000	-0.040013	-30.600378	-83.088244	73.696048	-83.088244	73.696048	-0.018435	-14.336099
0.800000	-0.042099	-32.598316	-83.074895	73.993500	-83.074895	73.993500	-0.019487	-15.286811
0.850000	-0.044230	-34.588081	-83.149332	74.732260	-83.149332	74.732260	-0.020566	-16.236355
0.900000	-0.046399	-36.569339	-83.308367	76.035095	-83.308367	76.035095	-0.021670	-17.184703
0.950000	-0.048599	-38.541776	-83.545766	78.062190	-83.545766	78.062190	-0.022796	-18.131828
1.000000	-0.050820	-40.505093	-83.848581	81.017979	-83.848581	81.017979	-0.023941	-19.077705
1.050000	-0.053056	-42.459010	-84.191105	85.148730	-84.191105	85.148730	-0.025102	-20.022308
1.100000	-0.055300	-44.403261	-84.526114	90.712888	-84.526114	90.712888	-0.026277	-20.965613
1.150000	-0.057545	-46.337601	-84.775954	97.893387	-84.775954	97.893387	-0.027463	-21.907598
1.200000	-0.059786	-48.261802	-84.833329	106.629759	-84.833329	106.629759	-0.028659	-22.848241
1.250000	-0.062017	-50.175653	-84.588379	116.431961	-84.588379	116.431961	-0.029861	-23.787520
1.300000	-0.064233	-52.078724	-83.974053	126.365048	-83.974053	126.365048	-0.031069	-24.725385
1.350000	-0.066431	-53.971065	-83.032840	135.428959	-83.032840	135.428959	-0.032280	-25.661845
1.400000	-0.068607	-55.852514	-81.865741	143.016383	-81.865741	143.016383	-0.033493	-26.596882
1.450000	-0.070759	-57.722928	-80.582461	148.975263	-80.582461	148.975263	-0.034708	-27.530476
1.500000	-0.072884	-59.582177	-79.266138	153.446559	-79.266138	153.446559	-0.035923	-28.462608
1.550000	-0.074980	-61.430145	-77.967751	156.680755	-77.967751	156.680755	-0.037137	-29.393259
1.600000	-0.077046	-63.266734	-76.714036	158.930926	-76.714036	158.930926	-0.038350	-30.322412
1.650000	-0.079081	-65.091858	-75.516725	160.411960	-75.516725	160.411960	-0.039561	-31.250048
1.700000	-0.081085	-66.905445	-74.379204	161.293606	-74.379204	161.293606	-0.040771	-32.176149
1.750000	-0.083057	-68.707435	-73.300557	161.706017	-73.300557	161.706017	-0.041978	-33.100696
1.800000	-0.084998	-70.497782	-72.277832	161.748062	-72.277832	161.748062	-0.043183	-34.023672
1.850000	-0.086908	-72.276454	-71.307259	161.494929	-71.307259	161.494929	-0.044386	-34.945059
1.900000	-0.088787	-74.043301	-70.384346	161.002084	-70.384346	161.002084	-0.045586	-35.864820
1.950000	-0.090637	-75.798312	-69.505409	160.315119	-69.505409	160.315119	-0.046785	-36.782939
2.000000	-0.092459	-77.541617	-68.667406	159.470736	-68.667406	159.470736	-0.047982	-37.699413
2.050000	-0.094253	-79.273228	-67.867020	158.495900	-67.867020	158.495900	-0.049178	-38.614226
2.100000	-0.096023	-80.993167	-67.101256	157.412127	-67.101256	157.412127	-0.050372	-39.527360
2.150000	-0.097768	-82.701467	-66.367429	156.236750	-66.367429	156.236750	-0.051567	-40.438797
2.200000	-0.099492	-84.398169	-65.663131	154.983860	-65.663131	154.983860	-0.052760	-41.348521
2.250000	-0.101195	-86.083324	-64.986205	153.665010	-64.986205	153.665010	-0.053955	-42.256515
2.300000	-0.102878	-87.756992	-64.334717	152.289750	-64.334717	152.289750	-0.055150	-43.162762
2.350000	-0.104545	-89.419239	-63.706928	150.866031	-63.706928	150.866031	-0.056346	-44.067245
2.400000	-0.106197	-91.070142	-63.101274	149.400523	-63.101274	149.400523	-0.057544	-44.969949
2.450000	-0.107835	-92.709782	-62.516339	147.898855	-62.516339	147.898855	-0.058745	-45.870857
2.500000	-0.109462	-94.338250	-61.950845	146.365806	-61.950845	146.365806	-0.059948	-46.769955
2.550000	-0.111078	-95.955284	-61.403101	144.804673	-61.403101	144.804673	-0.061156	-47.667167
2.600000	-0.112687	-97.561351	-60.872650	143.219958	-60.872650	143.219958	-0.062367	-48.562538
2.650000	-0.114289	-99.156561	-60.358517	141.614640	-60.358517	141.614640	-0.063583	-49.456054
2.700000	-0.115886	-100.741030	-59.859812	139.991308	-59.859812	139.991308	-0.064804	-50.347701
2.750000	-0.117481	-102.314876	-59.375719	138.352219	-59.375719	138.352219	-0.066032	-51.237467
2.800000	-0.119075	-103.878224	-58.905487	136.699345	-58.905487	136.699345	-0.067265	-52.125338
2.850000	-0.120668	-105.431205	-58.448425	135.034421	-58.448425	135.034421	-0.068506	-53.011303
2.900000	-0.122264	-106.973952	-58.003895	133.358974	-58.003895	133.358974	-0.069754	-53.895349
2.950000	-0.123862	-108.506601	-57.571307	131.674357	-57.571307	131.674357	-0.071010	-54.777468
3.000000	-0.125465	-110.029295	-57.150112	129.981765	-57.150112	129.981765	-0.072276	-55.657647
3.050000	-0.127075	-111.542178	-56.739803	128.282265	-56.739803	128.282265	-0.073550	-56.535877
3.100000	-0.128691	-113.045397	-56.339906	126.576807	-56.339906	126.576807	-0.074834	-57.412149
3.150000	-0.130316	-114.539104	-55.949979	124.866240	-55.949979	124.866240	-0.076128	-58.286455
3.200000	-0.131950	-116.023450	-55.569609	123.151326	-55.569609	123.151326	-0.077434	-59.158786
3.250000	-0.133595	-117.498592	-55.198410	121.432747	-55.198410	121.432747	-0.078750	-60.029136
3.300000	-0.135252	-118.964687	-54.836021	119.711120	-54.836021	119.711120	-0.080079	-60.897498
3.350000	-0.136921	-120.421894	-54.482101	117.986999	-54.482101	117.986999	-0.081420	-61.763865
3.400000	-0.138605	-121.870375	-54.136331	116.260886	-54.136331	116.260886	-0.082774	-62.628233
3.450000	-0.140302	-123.310292	-53.798411	114.533234	-53.798411	114.533234	-0.084142	-63.490597
3.500000	-0.142015	-124.741808	-53.468057	112.804455	-53.468057	112.804455	-0.085523	-64.350953
3.550000	-0.143745	-126.165089	-53.145000	111.074922	-53.145000	111.074922	-0.086919	-65.209298
3.600000	-0.145491	-127.580300	-52.828989	109.344975	-52.828989	109.344975	-0.088330	-66.065628
3.650000	-0.147255	-128.987608	-52.519784	107.614922	-52.519784	107.614922	-0.089756	-66.919942
3.700000	-0.149037	-130.387180	-52.217158	105.885046	-52.217158	105.885046	-0.091199	-67.772239
3.750000	-0.150838	-131.779184	-51.920896	104.155603	-51.920896	104.155603	-0.092657	-68.622518
3.800000	-0.152659	-133.163474	-51.630641	102.426867	-51.630641	102.426867	-0.094134	-69.470690
3.850000	-0.154499	-134.540547	-51.346369	100.699030	-51.346369	100.699030	-0.095628	-70.316846
3.900000	-0.156361	-135.910571	-51.067894	98.972286	-51.067894	98.972286	-0.097139	-71.160985
3.950000	-0.158243	-137.273715	-50.795040	97.246812	-50.795040	97.246812	-0.098670	-72.003110
4.000000	-0.160146	-138.630145	-50.527637	95.522770	-50.527637	95.522770	-0.100218	-72.843223
4.050000	-0.162070	-139.980031	-50.265525	93.800308	-50.265525	93.800308	-0.101787	-73.681329
4.100000	-0.164017	-141.323539	-50.008549	92.079562	-50.008549	92.079562	-0.103375	-74.517431
4.150000	-0.165985	-142.660835	-49.756563	90.360655	-49.756563	90.360655	-0.104983	-75.351533
4.200000	-0.167976	-143.992087	-49.509427	88.643701	-49.509427	88.643701	-0.106612	-76.183640
4.250000	-0.169989	-145.317460	-49.267007	86.928804	-49.267007	86.928804	-0.108262	-77.013760
4.300000	-0.172025	-146.637118	-49.029173	85.216059	-49.029173	85.216059	-0.109933	-77.841897
4.350000	-0.174083	-147.951225	-48.795803	83.505551	-48.795803	83.505551	-0.111626	-78.668059
4.400000	-0.176164	-149.259946	-48.566780	81.797359	-48.566780	81.797359	-0.113342	-79.492254
4.450000	-0.178269	-150.563442	-48.341989	80.091555	-48.341989	80.091555	-0.115081	-80.314490
4.500000	-0.180396	-151.861875	-48.121323	78.388203	-48.121323	78.388203	-0.116843	-81.134775
4.550000	-0.182547	-153.155406	-47.904676	76.687363	-47.904676	76.687363	-0.118629	-81.953120
4.600000	-0.184720	-154.444193	-47.691950	74.989086	-47.691950	74.989086	-0.120439	-82.769534
4.650000	-0.186917	-155.728396	-47.483048	73.293422	-47.483048	73.293422	-0.122274	-83.584028
4.700000	-0.189136	-157.008171	-47.277877	71.600412	-47.277877	71.600412	-0.124134	-84.396613
4.750000	-0.191379	-158.283675	-47.076349	69.910096	-47.076349	69.910096	-0.126019	-85.207301
4.800000	-0.193644	-159.555063	-46.878378	68.222507	-46.878378	68.222507	-0.127931	-86.016103
4.850000	-0.195932	-160.822488	-46.683882	66.537677	-46.683882	66.537677	-0.129868	-86.823034
4.900000	-0.198243	-162.086103	-46.492782	64.855631	-46.492782	64.855631	-0.131833	-87.628105
4.950000	-0.200576	-163.346059	-46.305002	63.176394	-46.305002	63.176394	-0.133825	-88.431331
5.000000	-0.202931	-164.602506	-46.120468	61.499987	-46.120468	61.499987	-0.135844	-89.232727
5.050000	-0.205309	-165.855454	-45.939084	59.826551	-45.939084	59.826551	-0.137893	-90.032228
5.100000	-0.207709	-167.105202	-45.760814	58.155979	-45.760814	58.155979	-0.139970	-90.829931
5.150000	-0.210131	-168.351897	-45.585592	56.488285	-45.585592	56.488285	-0.142077	-91.625850
5.200000	-0.212574	-169.595682	-45.413354	54.823478	-45.413354	54.823478	-0.144213	-92.420003
5.250000	-0.215038	-170.836701	-45.244041	53.161570	-45.244041	53.161570	-0.146379	-93.212406
5.300000	-0.217523	-172.075095	-45.077593	51.502568	-45.077593	51.502568	-0.148575	-94.003077
5.350000	-0.220029	-173.311005	-44.913955	49.846478	-44.913955	49.846478	-0.150802	-94.792033
5.400000	-0.222554	-174.544569	-44.753072	48.193307	-44.753072	48.193307	-0.153060	-95.579293
5.450000	-0.225100	-175.775925	-44.594891	46.543059	-44.594891	46.543059	-0.155350	-96.364876
5.500000	-0.227665	-177.005209	-44.439364	44.895739	-44.439364	44.895739	-0.157672	-97.148801
5.550000	-0.230249	-178.232556	-44.286441	43.251352	-44.286441	43.251352	-0.160026	-97.931087
5.600000	-0.232851	-179.458097	-44.136076	41.609900	-44.136076	41.609900	-0.162413	-98.711755
5.650000	-0.235472	179.318034	-43.988225	39.971388	-43.988225	39.971388	-0.164833	-99.490825
5.700000	-0.238111	178.095708	-43.842846	38.335821	-43.842846	38.335821	-0.167288	-100.268318
5.750000	-0.240767	176.874796	-43.699896	36.703202	-43.699896	36.703202	-0.169776	-101.044255
5.800000	-0.243440	175.655171	-43.559337	35.073537	-43.559337	35.073537	-0.172299	-101.818658
5.850000	-0.246130	174.436708	-43.421130	33.446832	-43.421130	33.446832	-0.174857	-102.591550
5.900000	-0.248836	173.219282	-43.285240	31.823094	-43.285240	31.823094	-0.177450	-103.362952
5.950000	-0.251558	172.002771	-43.151631	30.202332	-43.151631	30.202332	-0.180079	-104.132889
6.000000	-0.254294	170.787054	-43.020271	28.584554	-43.020271	28.584554	-0.182745	-104.901382
6.050000	-0.257045	169.572012	-42.891127	26.969772	-42.891127	26.969772	-0.185447	-105.668456
6.100000	-0.259810	168.357526	-42.764168	25.358000	-42.764168	25.358000	-0.188186	-106.434135
6.150000	-0.262589	167.143480	-42.639365	23.749251	-42.639365	23.749251	-0.190963	-107.198443
6.200000	-0.265380	165.929760	-42.516690	22.143542	-42.516690	22.143542	-0.193778	-107.961405
6.250000	-0.268184	164.716253	-42.396117	20.540892	-42.396117	20.540892	-0.196631	-108.723047
6.300000	-0.271000	163.502846	-42.277639	18.941459	-42.277639	18.941459	-0.199524	-109.483338
6.350000	-0.273827	162.289421	-42.161215	17.345132	-42.161215	17.345132	-0.202457	-110.242362
6.400000	-0.276664	161.075870	-42.046821	15.751939	-42.046821	15.751939	-0.205429	-111.000145
6.450000	-0.279512	159.862087	-41.934435	14.161909	-41.934435	14.161909	-0.208441	-111.756714
6.500000	-0.282368	158.647966	-41.824035	12.575076	-41.824035	12.575076	-0.211494	-112.512096
6.550000	-0.285233	157.433406	-41.715600	10.991473	-41.715600	10.991473	-0.214587	-113.266318
6.600000	-0.288107	156.218306	-41.609111	9.411141	-41.609111	9.411141	-0.217722	-114.019407
6.650000	-0.290987	155.002566	-41.504550	7.834121	-41.504550	7.834121	-0.220898	-114.771392
6.700000	-0.293875	153.786089	-41.401897	6.260458	-41.401897	6.260458	-0.224116	-115.522301
6.750000	-0.296768	152.568779	-41.301136	4.690200	-41.301136	4.690200	-0.227376	-116.272162
6.800000	-0.299666	151.350543	-41.202250	3.123400	-41.202250	3.123400	-0.230679	-117.021004
6.850000	-0.302569	150.131289	-41.105224	1.560114	-41.105224	1.560114	-0.234026	-117.768857
6.900000	-0.305476	148.910928	-41.010042	0.000399	-41.010042	0.000399	-0.237415	-118.515750
6.950000	-0.308387	147.689370	-40.916690	-1.555680	-40.916690	-1.555680	-0.240849	-119.261712
7.000000	-0.311299	146.466530	-40.825154	-3.108059	-40.825154	-3.108059	-0.244326	-120.006774
7.050000	-0.314214	145.242324	-40.735420	-4.656666	-40.735420	-4.656666	-0.247849	-120.750967
7.100000	-0.317129	144.016671	-40.647476	-6.201429	-40.647476	-6.201429	-0.251416	-121.494320
7.150000	-0.320045	142.789490	-40.561308	-7.742271	-40.561308	-7.742271	-0.255028	-122.236866
7.200000	-0.322961	141.560703	-40.476905	-9.279111	-40.476905	-9.279111	-0.258686	-122.978635
7.250000	-0.325876	140.330236	-40.394254	-10.811865	-40.394254	-10.811865	-0.262390	-123.719659
7.300000	-0.328788	139.098014	-40.313345	-12.340444	-40.313345	-12.340444	-0.266140	-124.459970
7.350000	-0.331699	137.863966	-40.234166	-13.864760	-40.234166	-13.864760	-0.269937	-125.199600
7.400000	-0.334606	136.628025	-40.156706	-15.384716	-40.156706	-15.384716	-0.273781	-125.938582
7.450000	-0.337509	135.390122	-40.080953	-16.900215	-40.080953	-16.900215	-0.277672	-126.676949
7.500000	-0.340407	134.150194	-40.006898	-18.411158	-40.006898	-18.411158	-0.281610	-127.414733
7.550000	-0.343300	132.908086	-39.934578	-19.917231	-39.934578	-19.917231	-0.285599	-128.151946
7.600000	-0.346187	131.663826	-39.863935	-21.418527	-39.863935	-21.418527	-0.289635	-128.888648
7.650000	-0.349067	130.417358	-39.794959	-22.914936	-39.794959	-22.914936	-0.293720	-129.624871
7.700000	-0.351940	129.168628	-39.727640	-24.406344	-39.727640	-24.406344	-0.297854	-130.360651
7.750000	-0.354804	127.917585	-39.661967	-25.892639	-39.661967	-25.892639	-0.302037	-131.096021
7.800000	-0.357659	126.664179	-39.597929	-27.373702	-39.597929	-27.373702	-0.306269	-131.831018
7.850000	-0.360506	125.408366	-39.535515	-28.849414	-39.535515	-28.849414	-0.310550	-132.565677
7.900000	-0.363342	124.150101	-39.474716	-30.319655	-39.474716	-30.319655	-0.314881	-133.300032
7.950000	-0.366167	122.889344	-39.415518	-31.784302	-39.415518	-31.784302	-0.319263	-134.034120
8.000000	-0.368981	121.626058	-39.357913	-33.243230	-39.357913	-33.243230	-0.323694	-134.767977
8.050000	-0.371783	120.360207	-39.301887	-34.696316	-39.301887	-34.696316	-0.328176	-135.501639
8.100000	-0.374573	119.091759	-39.247429	-36.143431	-39.247429	-36.143431	-0.332708	-136.235144
8.150000	-0.377350	117.820687	-39.194528	-37.584449	-39.194528	-37.584449	-0.337292	-136.968528
8.200000	-0.380113	116.546964	-39.143171	-39.019243	-39.143171	-39.019243	-0.341926	-137.701829
8.250000	-0.382862	115.270567	-39.093347	-40.447683	-39.093347	-40.447683	-0.346612	-138.435084
8.300000	-0.385597	113.991476	-39.045041	-41.869642	-39.045041	-41.869642	-0.351348	-139.168333
8.350000	-0.388317	112.709676	-38.998242	-43.284992	-38.998242	-43.284992	-0.356137	-139.901612
8.400000	-0.391022	111.425152	-38.952936	-44.693604	-38.952936	-44.693604	-0.360976	-140.634961
8.450000	-0.393711	110.137895	-38.909110	-46.095351	-38.909110	-46.095351	-0.365868	-141.368418
8.500000	-0.396384	108.847898	-38.866750	-47.490108	-38.866750	-47.490108	-0.370811	-142.102024
8.550000	-0.399040	107.555158	-38.825841	-48.877748	-38.825841	-48.877748	-0.375807	-142.835818
8.600000	-0.401681	106.259675	-38.786369	-50.258147	-38.786369	-50.258147	-0.380854	-143.569839
8.650000	-0.404304	104.961452	-38.748319	-51.631183	-38.748319	-51.631183	-0.385953	-144.304128
8.700000	-0.406910	103.660496	-38.711676	-52.996734	-38.711676	-52.996734	-0.391105	-145.038727
8.750000	-0.409499	102.356818	-38.676425	-54.354682	-38.676425	-54.354682	-0.396308	-145.773675
8.800000	-0.412070	101.050314	-38.642603	-55.704569	-38.642603	-55.704569	-0.401566	-146.509034
8.850000	-0.414624	99.741122	-38.610140	-57.046611	-38.610140	-57.046611	-0.406876	-147.244830
8.900000	-0.417160	98.429262	-38.579020	-58.380697	-38.579020	-58.380697	-0.412237	-147.981105
8.950000	-0.419679	97.114760	-38.549226	-59.706717	-38.549226	-59.706717	-0.417651	-148.717902
9.000000	-0.422181	95.797644	-38.520740	-61.024565	-38.520740	-61.024565	-0.423117	-149.455263
9.050000	-0.424666	94.477948	-38.493546	-62.334139	-38.493546	-62.334139	-0.428635	-150.193232
9.100000	-0.427133	93.155707	-38.467626	-63.635339	-38.467626	-63.635339	-0.434204	-150.931853
9.150000	-0.429584	91.830961	-38.442962	-64.928070	-38.442962	-64.928070	-0.439825	-151.671169
9.200000	-0.432019	90.503755	-38.419536	-66.212237	-38.419536	-66.212237	-0.445497	-152.411225
9.250000	-0.434438	89.174134	-38.397329	-67.487752	-38.397329	-67.487752	-0.451221	-153.152066
9.300000	-0.436841	87.842150	-38.376325	-68.754531	-38.376325	-68.754531	-0.456996	-153.893737
9.350000	-0.439228	86.507858	-38.356503	-70.012491	-38.356503	-70.012491	-0.462821	-154.636283
9.400000	-0.441602	85.171315	-38.337845	-71.261556	-38.337845	-71.261556	-0.468697	-155.379751
9.450000	-0.443961	83.832585	-38.320332	-72.501651	-38.320332	-72.501651	-0.474624	-156.124187
9.500000	-0.446306	82.491731	-38.303945	-73.732708	-38.303945	-73.732708	-0.480600	-156.869638
9.550000	-0.448639	81.148825	-38.288666	-74.954662	-38.288666	-74.954662	-0.486626	-157.616151
9.600000	-0.450960	79.803937	-38.274475	-76.167452	-38.274475	-76.167452	-0.492701	-158.363774
9.650000	-0.453270	78.457146	-38.261352	-77.371022	-38.261352	-77.371022	-0.498825	-159.112554
9.700000	-0.455569	77.108530	-38.249279	-78.565318	-38.249279	-78.565318	-0.504998	-159.862541
9.750000	-0.457859	75.758172	-38.238236	-79.750295	-38.238236	-79.750295	-0.511218	-160.613784
9.800000	-0.460140	74.406161	-38.228204	-80.925907	-38.228204	-80.925907	-0.517486	-161.366331
9.850000	-0.462415	73.052585	-38.219164	-82.092116	-38.219164	-82.092116	-0.523801	-162.120233
9.900000	-0.464683	71.697539	-38.211096	-83.248888	-38.211096	-83.248888	-0.530163	-162.875540
9.950000	-0.466946	70.341119	-38.203981	-84.396190	-38.203981	-84.396190	-0.536570	-163.632302
10.000000	-0.469205	68.983424	-38.197800	-85.533998	-38.197800	-85.533998	-0.543022	-164.390572
