! freq	dB(S11)	phase(S11)	dB(S12)	phase(S12)	
!     	dB(S21)	phase(S21)	dB(S22)	phase(S22)	
!S-par simulation data
#  GHz  S  DB  R 50
0.000000	0.000000	0.000000	-339.166895	0.000000	-339.166895	0.000000	-0.000000	0.000000
0.050000	-0.001502	-2.396974	-83.112579	87.656904	-83.112579	87.656904	-0.001499	-2.396544
0.100000	-0.005185	-4.783006	-77.109702	85.316575	-77.109702	85.316575	-0.005180	-4.782194
0.150000	-0.009590	-7.155694	-73.617425	82.981790	-73.617425	82.981790	-0.009589	-7.154531
0.200000	-0.013839	-9.518420	-71.159071	80.655044	-71.159071	80.655044	-0.013847	-9.516904
0.250000	-0.017657	-11.874428	-69.273178	78.339329	-69.273178	78.339329	-0.017675	-11.872547
0.300000	-0.021065	-14.225784	-67.754132	76.037695	-67.754132	76.037695	-0.021091	-14.223529
0.350000	-0.024178	-16.573392	-66.490898	73.752495	-66.490898	73.752495	-0.024208	-16.570760
0.400000	-0.027086	-18.917215	-65.418149	71.486659	-65.418149	71.486659	-0.027118	-18.914207
0.450000	-0.029854	-21.256646	-64.495139	69.244222	-64.495139	69.244222	-0.029886	-21.253267
0.500000	-0.032539	-23.591320	-63.691271	67.027069	-63.691271	67.027069	-0.032568	-23.587575
0.550000	-0.035171	-25.920618	-62.986016	64.838133	-62.986016	64.838133	-0.035195	-25.916512
0.600000	-0.037769	-28.243603	-62.365782	62.681918	-62.365782	62.681918	-0.037788	-28.239144
0.650000	-0.040350	-30.559857	-61.817867	60.560118	-61.817867	60.560118	-0.040362	-30.555051
0.700000	-0.042921	-32.868874	-61.333105	58.474440	-61.333105	58.474440	-0.042927	-32.863729
0.750000	-0.045488	-35.169863	-60.905789	56.426479	-60.905789	56.426479	-0.045488	-35.164387
0.800000	-0.048052	-37.462314	-60.531767	54.414182	-60.531767	54.414182	-0.048047	-37.456516
0.850000	-0.050616	-39.745847	-60.211718	52.456574	-60.211718	52.456574	-0.050605	-39.739736
0.900000	-0.053177	-42.020047	-59.936743	50.654965	-59.936743	50.654965	-0.053161	-42.013632
0.950000	-0.055734	-44.284473	-59.685755	48.936345	-59.685755	48.936345	-0.055715	-44.277764
1.000000	-0.058285	-46.538751	-59.468625	47.233888	-59.468625	47.233888	-0.058263	-46.531757
1.050000	-0.060827	-48.782542	-59.287883	45.591770	-59.287883	45.591770	-0.060802	-48.775273
1.100000	-0.063356	-51.015537	-59.140695	44.032637	-59.140695	44.032637	-0.063330	-51.008002
1.150000	-0.065870	-53.237456	-59.024585	42.568457	-59.024585	42.568457	-0.065844	-53.229665
1.200000	-0.068366	-55.448049	-58.937541	41.209491	-58.937541	41.209491	-0.068340	-55.440011
1.250000	-0.070841	-57.647094	-58.877796	39.966367	-58.877796	39.966367	-0.070816	-57.638818
1.300000	-0.073291	-59.834136	-58.844189	38.853698	-58.844189	38.853698	-0.073268	-59.825632
1.350000	-0.075715	-62.009256	-58.834436	37.881724	-58.834436	37.881724	-0.075693	-62.000533
1.400000	-0.078110	-64.172311	-58.846729	37.064387	-58.846729	37.064387	-0.078091	-64.163379
1.450000	-0.080475	-66.323181	-58.879060	36.416814	-58.879060	36.416814	-0.080459	-66.314048
1.500000	-0.082808	-68.461767	-58.929127	35.955207	-58.929127	35.955207	-0.082795	-68.452443
1.550000	-0.085108	-70.587995	-58.994224	35.696600	-58.994224	35.696600	-0.085099	-70.578489
1.600000	-0.087375	-72.701810	-59.071127	35.658424	-59.071127	35.658424	-0.087369	-72.692130
1.650000	-0.089608	-74.803176	-59.155972	35.857819	-59.155972	35.857819	-0.089606	-74.793333
1.700000	-0.091806	-76.892079	-59.244144	36.310602	-59.244144	36.310602	-0.091808	-76.882081
1.750000	-0.093971	-78.968523	-59.330188	37.029848	-59.330188	37.029848	-0.093977	-78.958380
1.800000	-0.096102	-81.032527	-59.407776	38.024034	-59.407776	38.024034	-0.096112	-81.022248
1.850000	-0.098201	-83.084131	-59.469765	39.294815	-59.469765	39.294815	-0.098214	-83.073726
1.900000	-0.100268	-85.123255	-59.508034	40.837301	-59.508034	40.837301	-0.100285	-85.112733
1.950000	-0.102304	-87.149972	-59.514269	42.631215	-59.514269	42.631215	-0.102324	-87.139343
2.000000	-0.104311	-89.164501	-59.480959	44.640369	-59.480959	44.640369	-0.104335	-89.153774
2.050000	-0.106291	-91.166942	-59.401303	46.818160	-59.401303	46.818160	-0.106318	-91.156128
2.100000	-0.108245	-93.157407	-59.270165	49.106362	-59.270165	49.106362	-0.108275	-93.146515
2.150000	-0.110175	-95.136022	-59.084668	51.438781	-59.084668	51.438781	-0.110208	-95.125061
2.200000	-0.112083	-97.102922	-58.844541	53.746385	-58.844541	53.746385	-0.112118	-97.091903
2.250000	-0.113972	-99.058258	-58.552104	55.962983	-58.552104	55.962983	-0.114008	-99.047190
2.300000	-0.115842	-101.002187	-58.211931	58.030343	-58.211931	58.030343	-0.115880	-100.991079
2.350000	-0.117696	-102.934878	-57.830246	59.901823	-57.830246	59.901823	-0.117736	-102.923741
2.400000	-0.119536	-104.856509	-57.414223	61.544079	-57.414223	61.544079	-0.119578	-104.845352
2.450000	-0.121364	-106.767268	-56.971306	62.936957	-56.971306	62.936957	-0.121408	-106.756100
2.500000	-0.123183	-108.667350	-56.508674	64.072009	-56.508674	64.072009	-0.123228	-108.656179
2.550000	-0.124993	-110.556735	-56.032132	64.944871	-56.032132	64.944871	-0.125040	-110.545571
2.600000	-0.126799	-112.435865	-55.548302	65.569614	-55.548302	65.569614	-0.126846	-112.424718
2.650000	-0.128601	-114.304958	-55.061947	65.959257	-55.061947	65.959257	-0.128649	-114.293836
2.700000	-0.130401	-116.164238	-54.576940	66.129540	-54.576940	66.129540	-0.130450	-116.153150
2.750000	-0.132202	-118.013422	-54.095268	66.087147	-54.095268	66.087147	-0.132252	-118.002375
2.800000	-0.134005	-119.853682	-53.621435	65.869186	-53.621435	65.869186	-0.134056	-119.842685
2.850000	-0.135812	-121.684838	-53.156213	65.483421	-53.156213	65.483421	-0.135864	-121.673899
2.900000	-0.137625	-123.507133	-52.700900	64.945830	-52.700900	64.945830	-0.137677	-123.496259
2.950000	-0.139446	-125.320816	-52.256409	64.271295	-52.256409	64.271295	-0.139499	-125.310014
3.000000	-0.141276	-127.126138	-51.823349	63.473495	-51.823349	63.473495	-0.141329	-127.115416
3.050000	-0.143117	-128.923354	-51.402089	62.564881	-51.402089	62.564881	-0.143171	-128.912718
3.100000	-0.144969	-130.712722	-50.992817	61.556712	-50.992817	61.556712	-0.145024	-130.702179
3.150000	-0.146836	-132.494502	-50.595580	60.459119	-50.595580	60.459119	-0.146892	-132.484058
3.200000	-0.148717	-134.268958	-50.210319	59.281191	-50.210319	59.281191	-0.148774	-134.258619
3.250000	-0.150615	-136.036354	-49.836897	58.031062	-49.836897	58.031062	-0.150672	-136.026126
3.300000	-0.152529	-137.796957	-49.475122	56.716004	-49.475122	56.716004	-0.152588	-137.786846
3.350000	-0.154463	-139.551035	-49.124760	55.342514	-49.124760	55.342514	-0.154522	-139.541046
3.400000	-0.156415	-141.298858	-48.785550	53.916397	-48.785550	53.916397	-0.156476	-141.288997
3.450000	-0.158388	-143.040696	-48.457215	52.442838	-48.457215	52.442838	-0.158451	-143.030967
3.500000	-0.160383	-144.776821	-48.139467	50.926472	-48.139467	50.926472	-0.160446	-144.767229
3.550000	-0.162398	-146.507724	-47.832031	49.372906	-47.832031	49.372906	-0.162463	-146.498273
3.600000	-0.164438	-148.233173	-47.534566	47.782460	-47.534566	47.782460	-0.164505	-148.223868
3.650000	-0.166501	-149.953731	-47.246828	46.160472	-47.246828	46.160472	-0.166570	-149.944576
3.700000	-0.168589	-151.669670	-46.968534	44.509913	-46.968534	44.509913	-0.168659	-151.660669
3.750000	-0.170701	-153.381262	-46.699409	42.833447	-46.699409	42.833447	-0.170773	-153.372419
3.800000	-0.172839	-155.088697	-46.439214	41.133008	-46.439214	41.133008	-0.172913	-155.080015
3.850000	-0.175003	-156.792341	-46.187679	39.411298	-46.187679	39.411298	-0.175079	-156.783824
3.900000	-0.177193	-158.492464	-45.944560	37.670238	-45.944560	37.670238	-0.177271	-158.484115
3.950000	-0.179409	-160.189335	-45.709623	35.911560	-45.709623	35.911560	-0.179490	-160.181157
4.000000	-0.181652	-161.883223	-45.482644	34.136824	-45.482644	34.136824	-0.181735	-161.875219
4.050000	-0.183922	-163.574395	-45.263412	32.347433	-45.263412	32.347433	-0.184007	-163.566569
4.100000	-0.186219	-165.263117	-45.051729	30.544654	-45.051729	30.544654	-0.186307	-165.255471
4.150000	-0.188543	-166.949655	-44.847404	28.729629	-44.847404	28.729629	-0.188633	-166.942192
4.200000	-0.190895	-168.634270	-44.650261	26.903386	-44.650261	26.903386	-0.190987	-168.626993
4.250000	-0.193273	-170.317225	-44.460134	25.066852	-44.460134	25.066852	-0.193369	-170.310136
4.300000	-0.195679	-171.998779	-44.276868	23.220863	-44.276868	23.220863	-0.195777	-171.991880
4.350000	-0.198112	-173.679189	-44.100316	21.366173	-44.100316	21.366173	-0.198212	-173.672484
4.400000	-0.200572	-175.358705	-43.930381	19.503380	-43.930381	19.503380	-0.200675	-175.352195
4.450000	-0.203059	-177.037588	-43.766944	17.633114	-43.766944	17.633114	-0.203165	-177.031277
4.500000	-0.205573	-178.716100	-43.609855	15.756008	-43.609855	15.756008	-0.205681	-178.709989
4.550000	-0.208113	179.605512	-43.459010	13.872555	-43.459010	13.872555	-0.208224	179.611420
4.600000	-0.210679	177.927001	-43.314315	11.983200	-43.314315	11.983200	-0.210793	177.932705
4.650000	-0.213270	176.248125	-43.175686	10.088343	-43.175686	10.088343	-0.213387	176.253621
4.700000	-0.215887	174.568641	-43.043047	8.188345	-43.043047	8.188345	-0.216007	174.573928
4.750000	-0.218529	172.888314	-42.916331	6.283533	-42.916331	6.283533	-0.218651	172.893389
4.800000	-0.221195	171.206908	-42.795484	4.374204	-42.795484	4.374204	-0.221320	171.211770
4.850000	-0.223885	169.524192	-42.680456	2.460627	-42.680456	2.460627	-0.224013	169.528838
4.900000	-0.226599	167.839938	-42.571212	0.543049	-42.571212	0.543049	-0.226729	167.844367
4.950000	-0.229336	166.153922	-42.467721	-1.378304	-42.467721	-1.378304	-0.229469	166.158131
5.000000	-0.232094	164.465922	-42.369964	-3.303222	-42.369964	-3.303222	-0.232230	164.469909
5.050000	-0.234876	162.775669	-42.278035	-5.231578	-42.278035	-5.231578	-0.235014	162.779433
5.100000	-0.237678	161.082993	-42.191835	-7.163107	-42.191835	-7.163107	-0.237819	161.086531
5.150000	-0.240501	159.387686	-42.111371	-9.097633	-42.111371	-9.097633	-0.240644	159.390996
5.200000	-0.243343	157.689542	-42.036661	-11.034980	-42.036661	-11.034980	-0.243489	157.692622
5.250000	-0.246206	155.988189	-41.968018	-12.975115	-41.968018	-12.975115	-0.246353	155.991038
5.300000	-0.249086	154.283729	-41.904972	-14.917604	-41.904972	-14.917604	-0.249236	154.286346
5.350000	-0.251983	152.575843	-41.847794	-16.862387	-41.847794	-16.862387	-0.252136	152.578225
5.400000	-0.254898	150.864345	-41.796539	-18.809279	-41.796539	-18.809279	-0.255052	150.866490
5.450000	-0.257828	149.149055	-41.751274	-20.758086	-41.751274	-20.758086	-0.257985	149.150962
5.500000	-0.260774	147.429798	-41.712076	-22.708601	-41.712076	-22.708601	-0.260933	147.431466
5.550000	-0.263734	145.706405	-41.679032	-24.660601	-41.679032	-24.660601	-0.263895	145.707832
5.600000	-0.266708	143.978712	-41.652240	-26.613844	-41.652240	-26.613844	-0.266871	143.979896
5.650000	-0.269695	142.246562	-41.631811	-28.568068	-41.631811	-28.568068	-0.269859	142.247502
5.700000	-0.272694	140.509803	-41.617865	-30.522985	-41.617865	-30.522985	-0.272860	140.510498
5.750000	-0.275703	138.768291	-41.610537	-32.478278	-41.610537	-32.478278	-0.275871	138.768740
5.800000	-0.278724	137.021887	-41.609973	-34.433599	-41.609973	-34.433599	-0.278893	137.022089
5.850000	-0.281753	135.270460	-41.616334	-36.388563	-41.616334	-36.388563	-0.281924	135.270415
5.900000	-0.284792	133.513886	-41.629792	-38.342746	-41.629792	-38.342746	-0.284963	133.513593
5.950000	-0.287838	131.752048	-41.650537	-40.295678	-41.650537	-40.295678	-0.288011	131.751507
6.000000	-0.290891	129.984837	-41.678774	-42.246841	-41.678774	-42.246841	-0.291065	129.984047
6.050000	-0.293950	128.212152	-41.714724	-44.195659	-41.714724	-44.195659	-0.294126	128.211112
6.100000	-0.297015	126.433899	-41.758627	-46.141499	-41.758627	-46.141499	-0.297191	126.432610
6.150000	-0.300084	124.649993	-41.810741	-48.083658	-41.810741	-48.083658	-0.300262	124.648456
6.200000	-0.303157	122.860358	-41.871347	-50.021357	-41.871347	-50.021357	-0.303336	122.858573
6.250000	-0.306233	121.064926	-41.940746	-51.953735	-41.940746	-51.953735	-0.306413	121.062894
6.300000	-0.309312	119.263446	-42.019550	-53.879586	-42.019550	-53.879586	-0.309492	119.261167
6.350000	-0.312393	117.456059	-42.107840	-55.798018	-42.107840	-55.798018	-0.312573	117.453535
6.400000	-0.315474	115.642726	-42.206001	-57.707837	-42.206001	-57.707837	-0.315656	115.639958
6.450000	-0.318557	113.823417	-42.314448	-59.607714	-42.314448	-59.607714	-0.318739	113.820408
6.500000	-0.321639	111.998115	-42.433633	-61.496168	-42.433633	-61.496168	-0.321821	111.994866
6.550000	-0.324721	110.166809	-42.564048	-63.371541	-42.564048	-63.371541	-0.324903	110.163323
6.600000	-0.327802	108.329501	-42.706229	-65.231973	-42.706229	-65.231973	-0.327985	108.325781
6.650000	-0.330882	106.486204	-42.860763	-67.075370	-42.860763	-67.075370	-0.331065	106.482253
6.700000	-0.333960	104.636940	-43.028293	-68.899372	-43.028293	-68.899372	-0.334143	104.632761
6.750000	-0.337037	102.781742	-43.209525	-70.701299	-43.209525	-70.701299	-0.337220	102.777339
6.800000	-0.340111	100.920656	-43.405237	-72.478100	-43.405237	-72.478100	-0.340294	100.916033
6.850000	-0.343184	99.053737	-43.616289	-74.226284	-43.616289	-74.226284	-0.343367	99.048899
6.900000	-0.346255	97.180990	-43.843754	-75.941430	-43.843754	-75.941430	-0.346438	97.175941
6.950000	-0.349324	95.302498	-44.088698	-77.618701	-44.088698	-77.618701	-0.349506	95.297243
7.000000	-0.352391	93.418412	-44.352186	-79.252973	-44.352186	-79.252973	-0.352573	93.412958
7.050000	-0.355457	91.528837	-44.635542	-80.837812	-44.635542	-80.837812	-0.355639	91.523190
7.100000	-0.358522	89.633885	-44.940250	-82.365604	-44.940250	-82.365604	-0.358704	89.628051
7.150000	-0.361586	87.733683	-45.267984	-83.827265	-45.267984	-83.827265	-0.361768	87.727668
7.200000	-0.364651	85.828367	-45.620634	-85.211865	-45.620634	-85.211865	-0.364832	85.822178
7.250000	-0.367717	83.918085	-46.000335	-86.506128	-46.000335	-86.506128	-0.367897	83.911731
7.300000	-0.370784	82.002999	-46.409511	-87.693772	-46.409511	-87.693772	-0.370964	81.996487
7.350000	-0.373854	80.083278	-46.850905	-88.754616	-46.850905	-88.754616	-0.374033	80.076617
7.400000	-0.376928	78.159106	-47.327619	-89.663371	-47.327619	-89.663371	-0.377106	78.152303
7.450000	-0.380007	76.230676	-47.843136	-90.387978	-47.843136	-90.387978	-0.380184	76.223742
7.500000	-0.383092	74.298192	-48.401325	-90.887313	-48.401325	-90.887313	-0.383268	74.291136
7.550000	-0.386185	72.361792	-49.006488	-91.100296	-49.006488	-91.100296	-0.386360	72.354623
7.600000	-0.389287	70.421790	-49.662655	-90.960111	-49.662655	-90.960111	-0.389461	70.414519
7.650000	-0.392401	68.478423	-50.373700	-90.371289	-50.373700	-90.371289	-0.392574	68.471059
7.700000	-0.395527	66.531936	-51.142152	-89.205782	-51.142152	-89.205782	-0.395699	66.524491
7.750000	-0.398668	64.582585	-51.967239	-87.291918	-51.967239	-87.291918	-0.398839	64.575070
7.800000	-0.401826	62.630636	-52.841105	-84.403153	-52.841105	-84.403153	-0.401996	62.623061
7.850000	-0.405003	60.676361	-53.741976	-80.254470	-53.741976	-80.254470	-0.405172	60.668739
7.900000	-0.408202	58.720042	-54.623193	-74.527970	-54.623193	-74.527970	-0.408370	58.712384
7.950000	-0.411425	56.761970	-55.400215	-66.970690	-55.400215	-66.970690	-0.411591	56.754287
8.000000	-0.414674	54.802440	-55.947832	-57.607222	-55.947832	-57.607222	-0.414839	54.794745
8.050000	-0.417953	52.841757	-56.132412	-46.998763	-56.132412	-46.998763	-0.418116	52.834062
8.100000	-0.421263	50.880231	-55.884760	-36.252812	-55.884760	-36.252812	-0.421426	50.872547
8.150000	-0.424614	48.918151	-55.205827	-26.809677	-55.205827	-26.809677	-0.424775	48.910493
8.200000	-0.427998	46.955941	-54.326616	-18.893970	-54.326616	-18.893970	-0.428158	46.948319
8.250000	-0.431424	44.993860	-53.320348	-12.790565	-53.320348	-12.790565	-0.431582	44.986286
8.300000	-0.434894	43.032235	-52.279144	-8.305912	-52.279144	-8.305912	-0.435050	43.024723
8.350000	-0.438408	41.071331	-51.260079	-5.079859	-51.260079	-5.079859	-0.438563	41.063891
8.400000	-0.441974	39.111553	-50.282012	-2.917184	-50.282012	-2.917184	-0.442127	39.104198
8.450000	-0.445599	37.153369	-49.355088	-1.591688	-49.355088	-1.591688	-0.445751	37.146112
8.500000	-0.449279	35.196904	-48.487015	-0.827619	-48.487015	-0.827619	-0.449429	35.189755
8.550000	-0.453022	33.242647	-47.672830	-0.533678	-47.672830	-0.533678	-0.453170	33.235619
8.600000	-0.456830	31.290897	-46.909257	-0.601963	-46.909257	-0.601963	-0.456976	31.284001
8.650000	-0.460705	29.341889	-46.192624	-0.945610	-46.192624	-0.945610	-0.460849	29.335136
8.700000	-0.464656	27.396256	-45.517254	-1.532791	-45.517254	-1.532791	-0.464799	27.389657
8.750000	-0.468676	25.453812	-44.881042	-2.288959	-44.881042	-2.288959	-0.468817	25.447377
8.800000	-0.472786	23.515688	-44.278192	-3.215873	-44.278192	-3.215873	-0.472925	23.509427
8.850000	-0.476971	21.581372	-43.707436	-4.256975	-43.707436	-4.256975	-0.477109	21.575296
8.900000	-0.481250	19.651861	-43.164660	-5.410409	-43.164660	-5.410409	-0.481385	19.645977
8.950000	-0.485615	17.727029	-42.648012	-6.650255	-42.648012	-6.650255	-0.485749	17.721347
9.000000	-0.490076	15.807389	-42.155002	-7.966691	-42.155002	-7.966691	-0.490209	15.801917
9.050000	-0.494638	13.893359	-41.683566	-9.350420	-41.683566	-9.350420	-0.494768	13.888105
9.100000	-0.499296	11.984812	-41.232316	-10.788049	-41.232316	-10.788049	-0.499424	11.979782
9.150000	-0.504067	10.082859	-40.799128	-12.279539	-40.799128	-12.279539	-0.504194	10.078061
9.200000	-0.508938	8.186710	-40.383306	-13.810807	-40.383306	-13.810807	-0.509063	8.182149
9.250000	-0.513933	6.297924	-39.982947	-15.384857	-39.982947	-15.384857	-0.514056	6.293605
9.300000	-0.519035	4.415603	-39.597528	-16.991063	-39.597528	-16.991063	-0.519156	4.411530
9.350000	-0.524261	2.540840	-39.225729	-18.629865	-39.225729	-18.629865	-0.524380	2.537019
9.400000	-0.529608	0.673476	-38.866835	-20.296609	-38.866835	-20.296609	-0.529726	0.669909
9.450000	-0.535079	-1.186232	-38.520060	-21.988847	-38.520060	-21.988847	-0.535195	-1.189544
9.500000	-0.540684	-3.037578	-38.184582	-23.705925	-38.184582	-23.705925	-0.540798	-3.040632
9.550000	-0.546412	-4.881267	-37.859988	-25.443435	-37.859988	-25.443435	-0.546524	-4.884062
9.600000	-0.552288	-6.715608	-37.545425	-27.203530	-37.545425	-27.203530	-0.552399	-6.718143
9.650000	-0.558289	-8.542036	-37.240671	-28.981058	-37.240671	-28.981058	-0.558399	-8.544313
9.700000	-0.564443	-10.358808	-36.945049	-30.778164	-36.945049	-30.778164	-0.564550	-10.360828
9.750000	-0.570731	-12.166939	-36.658294	-32.591496	-36.658294	-32.591496	-0.570838	-12.168703
9.800000	-0.577170	-13.965525	-36.379970	-34.421533	-36.379970	-34.421533	-0.577274	-13.967037
9.850000	-0.583757	-15.754566	-36.109760	-36.267248	-36.109760	-36.267248	-0.583860	-15.755829
9.900000	-0.590490	-17.534260	-35.847385	-38.127421	-35.847385	-38.127421	-0.590592	-17.535279
9.950000	-0.597385	-19.303502	-35.592558	-40.002908	-35.592558	-40.002908	-0.597485	-19.304281
10.000000	-0.604421	-21.063673	-35.345048	-41.891027	-35.345048	-41.891027	-0.604521	-21.064219
