! freq	dB(S11)	phase(S11)	dB(S12)	phase(S12)	
!     	dB(S21)	phase(S21)	dB(S22)	phase(S22)	
!S-par simulation data
#  GHz  S  DB  R 50
0.000000	-80.106444	0.000000	-0.000858	0.000000	-0.000858	0.000000	-80.106444	0.000000
0.050000	-64.206374	-27.993919	-0.005074	-2.741660	-0.005074	-2.741660	-64.197486	-27.967072
0.100000	-60.069183	-58.022434	-0.013055	-5.463391	-0.013055	-5.463391	-60.054120	-57.920255
0.150000	-57.119682	-72.621369	-0.019960	-8.166647	-0.019960	-8.166647	-57.102316	-72.436699
0.200000	-54.905707	-81.706237	-0.024911	-10.860936	-0.024911	-10.860936	-54.887178	-81.439748
0.250000	-53.174084	-88.527786	-0.028588	-13.552748	-0.028588	-13.552748	-53.154762	-88.178887
0.300000	-51.777588	-94.119334	-0.031500	-16.244275	-0.031500	-16.244275	-51.757606	-93.686051
0.350000	-50.631367	-98.975124	-0.033983	-18.936329	-0.033983	-18.936329	-50.610770	-98.454094
0.400000	-49.682197	-103.379069	-0.036263	-21.629112	-0.036263	-21.629112	-49.661000	-102.765495
0.450000	-48.889554	-107.507347	-0.038470	-24.322551	-0.038470	-24.322551	-48.867784	-106.795421
0.500000	-48.228131	-111.449975	-0.040670	-27.016577	-0.040670	-27.016577	-48.205833	-110.632590
0.550000	-47.684963	-115.264616	-0.042908	-29.711147	-0.042908	-29.711147	-47.662223	-114.332507
0.600000	-47.245320	-119.004878	-0.045208	-32.406183	-0.045208	-32.406183	-47.222296	-117.947024
0.650000	-46.897642	-122.706025	-0.047578	-35.101639	-0.047578	-35.101639	-46.874571	-121.509666
0.700000	-46.636211	-126.396241	-0.050026	-37.797499	-0.050026	-37.797499	-46.613460	-125.045913
0.750000	-46.461247	-130.100808	-0.052556	-40.493791	-0.052556	-40.493791	-46.439388	-128.576824
0.800000	-46.361381	-133.839744	-0.055158	-43.190482	-0.055158	-43.190482	-46.341148	-132.121011
0.850000	-46.349659	-137.645100	-0.057839	-45.887681	-0.057839	-45.887681	-46.332305	-135.701181
0.900000	-46.411532	-141.527369	-0.060583	-48.585338	-0.060583	-48.585338	-46.398518	-139.327656
0.950000	-46.563910	-145.530775	-0.063394	-51.283602	-0.063394	-51.283602	-46.557663	-143.030330
1.000000	-46.800481	-149.670944	-0.066257	-53.982454	-0.066257	-53.982454	-46.804018	-146.820834
1.050000	-47.135360	-154.002908	-0.069172	-56.682018	-0.069172	-56.682018	-47.153257	-150.735822
1.100000	-47.578146	-158.582011	-0.072130	-59.382357	-0.072130	-59.382357	-47.616936	-154.812480
1.150000	-48.140904	-163.485613	-0.075126	-62.083522	-0.075126	-62.083522	-48.210171	-159.103693
1.200000	-48.855059	-168.897390	-0.078158	-64.785692	-0.078158	-64.785692	-48.971130	-163.736803
1.250000	-49.734481	-174.951142	-0.081216	-67.488803	-0.081216	-67.488803	-49.922536	-168.813135
1.300000	-50.837049	177.723129	-0.084302	-70.193186	-0.084302	-70.193186	-51.150278	-174.809116
1.350000	-52.182421	168.678732	-0.087409	-72.898691	-0.087409	-72.898691	-52.717296	177.862839
1.400000	-53.778808	156.114258	-0.090536	-75.605615	-0.090536	-75.605615	-54.761705	167.399071
1.450000	-55.470820	138.091029	-0.093681	-78.313924	-0.093681	-78.313924	-57.364057	150.692324
1.500000	-56.574392	112.478048	-0.096843	-81.023776	-0.096843	-81.023776	-59.846410	120.256362
1.550000	-56.057769	83.200042	-0.100023	-83.735302	-0.100023	-83.735302	-59.486638	78.359318
1.600000	-54.193845	58.825297	-0.103218	-86.448468	-0.103218	-86.448468	-56.490578	47.285768
1.650000	-51.863085	42.550394	-0.106433	-89.163614	-0.106433	-89.163614	-53.270176	31.068077
1.700000	-49.723171	31.014396	-0.109666	-91.880542	-0.109666	-91.880542	-50.649591	20.762269
1.750000	-47.831986	22.630767	-0.112920	-94.599538	-0.112920	-94.599538	-48.491865	13.604374
1.800000	-46.184234	16.004664	-0.116198	-97.320635	-0.116198	-97.320635	-46.684816	7.964163
1.850000	-44.740816	10.462563	-0.119501	-100.043917	-0.119501	-100.043917	-45.139444	3.189595
1.900000	-43.465575	5.630787	-0.122832	-102.769488	-0.122832	-102.769488	-43.795236	-1.045299
1.950000	-42.330221	1.280457	-0.126194	-105.497428	-0.126194	-105.497428	-42.611103	-4.926793
2.000000	-41.312813	-2.731885	-0.129590	-108.227786	-0.129590	-108.227786	-41.557953	-8.566372
2.050000	-40.396106	-6.495106	-0.133020	-110.960630	-0.133020	-110.960630	-40.614344	-12.031179
2.100000	-39.566713	-10.069317	-0.136488	-113.696028	-0.136488	-113.696028	-39.764283	-15.365651
2.150000	-38.814123	-13.496356	-0.139996	-116.434043	-0.139996	-116.434043	-38.995576	-18.600212
2.200000	-38.130000	-16.806047	-0.143544	-119.174735	-0.143544	-119.174735	-38.298762	-21.756286
2.250000	-37.507667	-20.020067	-0.147134	-121.918165	-0.147134	-121.918165	-37.666391	-24.849309
2.300000	-36.941742	-23.154421	-0.150766	-124.664390	-0.150766	-124.664390	-37.092538	-27.890615
2.350000	-36.427861	-26.221061	-0.154441	-127.413466	-0.154441	-127.413466	-36.572454	-30.888657
2.400000	-35.962483	-29.228973	-0.158158	-130.165451	-0.158158	-130.165451	-36.102318	-33.849813
2.450000	-35.542738	-32.184915	-0.161915	-132.920401	-0.161915	-132.920401	-35.679060	-36.778932
2.500000	-35.166321	-35.093937	-0.165712	-135.678374	-0.165712	-135.678374	-35.300231	-39.679710
2.550000	-34.832030	-37.958853	-0.169547	-138.439499	-0.169547	-138.439499	-34.964551	-42.554449
2.600000	-34.537905	-40.783199	-0.173416	-141.203771	-0.173416	-141.203771	-34.669981	-45.405827
2.650000	-34.282904	-43.568559	-0.177316	-143.971255	-0.177316	-143.971255	-34.415448	-48.235334
2.700000	-34.066331	-46.315688	-0.181245	-146.742020	-0.181245	-146.742020	-34.200253	-51.043977
2.750000	-33.887815	-49.024555	-0.185197	-149.516137	-0.185197	-149.516137	-34.024050	-53.832325
2.800000	-33.747300	-51.694359	-0.189169	-152.293681	-0.189169	-152.293681	-33.886836	-56.600536
2.850000	-33.645050	-54.323485	-0.193157	-155.074734	-0.193157	-155.074734	-33.788959	-59.348354
2.900000	-33.581654	-56.909433	-0.197156	-157.859381	-0.197156	-157.859381	-33.731131	-62.075088
2.950000	-33.558055	-59.448686	-0.201162	-160.647712	-0.201162	-160.647712	-33.714457	-64.779560
3.000000	-33.575576	-61.936517	-0.205171	-163.439822	-0.205171	-163.439822	-33.740483	-67.460021
3.050000	-33.635971	-64.366718	-0.209179	-166.235811	-0.209179	-166.235811	-33.811260	-70.114030
3.100000	-33.741489	-66.731216	-0.213181	-169.035784	-0.213181	-169.035784	-33.929429	-72.738275
3.150000	-33.895479	-69.018551	-0.217175	-171.839897	-0.217175	-171.839897	-34.098902	-75.327879
3.200000	-34.101523	-71.214458	-0.221156	-174.648267	-0.221156	-174.648267	-34.324001	-77.876621
3.250000	-34.363494	-73.301455	-0.225124	-177.460968	-0.225124	-177.460968	-34.609583	-80.376687
3.300000	-34.686800	-75.255160	-0.229075	179.721877	-0.229075	179.721877	-34.962486	-82.816902
3.350000	-35.078150	-77.042602	-0.233008	176.900144	-0.233008	176.900144	-35.391480	-85.181756
3.400000	-35.545881	-78.618362	-0.236923	174.073704	-0.236923	174.073704	-35.907970	-87.449241
3.450000	-36.100376	-79.918497	-0.240820	171.242426	-0.240820	171.242426	-36.527052	-89.587239
3.500000	-36.754563	-80.850654	-0.244698	168.406179	-0.244698	168.406179	-37.269165	-91.547208
3.550000	-37.524385	-81.277543	-0.248560	165.564829	-0.248560	165.564829	-38.162782	-93.252494
3.600000	-38.428895	-80.988457	-0.252407	162.718241	-0.252407	162.718241	-39.248970	-94.575138
3.650000	-39.488826	-79.649306	-0.256242	159.866282	-0.256242	159.866282	-40.589520	-95.285772
3.700000	-40.720063	-76.715959	-0.260066	157.008816	-0.260066	157.008816	-42.282098	-94.933055
3.750000	-42.111418	-71.299677	-0.263884	154.145708	-0.263884	154.145708	-44.488345	-92.511902
3.800000	-43.548594	-61.938514	-0.267699	151.276698	-0.267699	151.276698	-47.460280	-85.106212
3.850000	-44.682292	-47.408138	-0.271515	148.401772	-0.271515	148.401772	-51.195691	-63.762834
3.900000	-44.909696	-28.876295	-0.275335	145.520800	-0.275335	145.520800	-52.365353	-18.388739
3.950000	-43.966668	-11.241761	-0.279165	142.633649	-0.279165	142.633649	-48.693600	14.751298
4.000000	-42.314656	1.631817	-0.283006	139.740186	-0.283006	139.740186	-44.927887	27.190125
4.050000	-40.500832	9.667922	-0.286864	136.840282	-0.286864	136.840282	-42.019831	31.536017
4.100000	-38.783498	14.273218	-0.290741	133.933802	-0.290741	133.933802	-39.731373	32.734951
4.150000	-37.233116	16.668238	-0.294640	131.020614	-0.294640	131.020614	-37.861593	32.455489
4.200000	-35.850811	17.639339	-0.298562	128.100580	-0.298562	128.100580	-36.287764	31.374215
4.250000	-34.618776	17.665359	-0.302509	125.173562	-0.302509	125.173562	-34.933814	29.811800
4.300000	-33.516844	17.041213	-0.306481	122.239416	-0.306481	122.239416	-33.750340	27.938691
4.350000	-32.527138	15.954206	-0.310477	119.297991	-0.310477	119.297991	-32.703813	25.853602
4.400000	-31.634963	14.524726	-0.314496	116.349048	-0.314496	116.349048	-31.770690	23.616459
4.450000	-30.828687	12.838359	-0.318533	113.392414	-0.318533	113.392414	-30.934003	21.268065
4.500000	-30.098891	10.956129	-0.322586	110.427990	-0.322586	110.427990	-30.181002	18.836715
4.550000	-29.438098	8.919501	-0.326647	107.455584	-0.326647	107.455584	-29.502080	16.341459
4.600000	-28.840421	6.759157	-0.330711	104.474986	-0.330711	104.474986	-28.889925	13.796382
4.650000	-28.301263	4.498305	-0.334768	101.485969	-0.334768	101.485969	-28.338956	11.212251
4.700000	-27.817087	2.154866	-0.338810	98.488282	-0.338810	98.488282	-27.844936	8.597597
4.750000	-27.385258	-0.257040	-0.342826	95.481654	-0.342826	95.481654	-27.404718	5.959430
4.800000	-27.003919	-2.726043	-0.346806	92.465781	-0.346806	92.465781	-27.016062	3.303763
4.850000	-26.671923	-5.242780	-0.350737	89.440332	-0.350737	89.440332	-26.677519	0.635996
4.900000	-26.388786	-7.799335	-0.354606	86.404940	-0.354606	86.404940	-26.388360	-2.038766
4.950000	-26.154675	-10.388796	-0.358402	83.359200	-0.358402	83.359200	-26.148546	-4.715432
5.000000	-25.970431	-13.004902	-0.362113	80.302667	-0.362113	80.302667	-25.958726	-7.388644
5.050000	-25.838767	-15.642021	-0.365725	77.234591	-0.365725	77.234591	-25.821417	-10.052105
5.100000	-25.761117	-18.293609	-0.369231	74.154662	-0.369231	74.154662	-25.737857	-12.698910
5.150000	-25.740853	-20.953303	-0.372623	71.062285	-0.372623	71.062285	-25.711187	-15.320589
5.200000	-25.782529	-23.613884	-0.375896	67.956805	-0.375896	67.956805	-25.745676	-17.906472
5.250000	-25.892192	-26.266660	-0.379051	64.837508	-0.379051	64.837508	-25.846994	-20.442669
5.300000	-26.077835	-28.900561	-0.382092	61.703617	-0.382092	61.703617	-26.022610	-22.910536
5.350000	-26.350080	-31.500750	-0.385030	58.554289	-0.385030	58.554289	-26.282378	-25.284251
5.400000	-26.723220	-34.046333	-0.387881	55.388610	-0.387881	55.388610	-26.639411	-27.526868
5.450000	-27.214743	-36.509049	-0.390674	52.205951	-0.390674	52.205951	-27.109392	-29.588867
5.500000	-27.856933	-38.835979	-0.393444	49.004467	-0.393444	49.004467	-27.721135	-31.375352
5.550000	-28.687835	-40.949413	-0.396241	45.783455	-0.396241	45.783455	-28.506751	-32.752354
5.600000	-29.769542	-42.706830	-0.399130	42.541716	-0.399130	42.541716	-29.516263	-33.479368
5.650000	-31.204726	-43.821013	-0.402192	39.277851	-0.402192	39.277851	-30.825053	-33.093933
5.700000	-33.174860	-43.631832	-0.405527	35.990504	-0.405527	35.990504	-32.543496	-30.623451
5.750000	-36.035750	-40.274452	-0.409254	32.678394	-0.409254	32.678394	-34.804869	-23.787852
5.800000	-40.476461	-26.239292	-0.413516	29.340074	-0.413516	29.340074	-37.503425	-6.891845
5.850000	-44.309708	28.259210	-0.418482	25.974050	-0.418482	25.974050	-38.818275	26.938375
5.900000	-38.851474	76.297988	-0.424350	22.578803	-0.424350	22.578803	-36.360837	59.524501
5.950000	-33.783474	87.686199	-0.431351	19.152711	-0.431351	19.152711	-32.791492	75.014450
6.000000	-30.196010	90.194735	-0.439761	15.694048	-0.439761	15.694048	-29.706098	81.078968
6.050000	-27.437395	89.896834	-0.449870	12.201570	-0.449870	12.201570	-27.155713	83.062537
6.100000	-25.181419	88.360342	-0.462017	8.673838	-0.462017	8.673838	-25.002364	83.035788
6.150000	-23.260685	86.161709	-0.476581	5.109506	-0.476581	5.109506	-23.138713	81.889316
6.200000	-21.579899	83.559205	-0.493982	1.507354	-0.493982	1.507354	-21.492544	80.053797
6.250000	-20.080156	80.685033	-0.514684	-2.133671	-0.514684	-2.133671	-20.015184	77.759333
6.300000	-18.721862	77.612057	-0.539241	-5.814848	-0.539241	-5.814848	-18.672082	75.136434
6.350000	-17.479383	74.387704	-0.568164	-9.536325	-0.568164	-9.536325	-17.440329	72.270911
6.400000	-16.333534	71.040796	-0.602042	-13.298358	-0.602042	-13.298358	-16.302292	69.215576
6.450000	-15.270486	67.591584	-0.641462	-17.100591	-0.641462	-17.100591	-15.245080	66.007319
6.500000	-14.278675	64.052679	-0.687187	-20.943228	-0.687187	-20.943228	-14.257723	62.669606
6.550000	-13.350822	60.436553	-0.739783	-24.824537	-0.739783	-24.824537	-13.333331	59.223989
6.600000	-12.479990	56.750969	-0.800043	-28.743536	-0.800043	-28.743536	-12.465231	55.684029
6.650000	-11.661389	53.003960	-0.868630	-32.697912	-0.868630	-32.697912	-11.648814	52.062617
6.700000	-10.891047	49.202583	-0.946212	-36.684892	-0.946212	-36.684892	-10.880242	48.370446
6.750000	-10.165663	45.353395	-1.033453	-40.701204	-1.033453	-40.701204	-10.156304	44.616861
6.800000	-9.482515	41.462873	-1.130981	-44.742982	-1.130981	-44.742982	-9.474350	40.810546
6.850000	-8.839327	37.537559	-1.239376	-48.805779	-1.239376	-48.805779	-8.832155	36.959812
6.900000	-8.234136	33.584028	-1.359203	-52.884662	-1.359203	-52.884662	-8.227797	33.072627
6.950000	-7.665297	29.609262	-1.490893	-56.974062	-1.490893	-56.974062	-7.659661	29.157162
7.000000	-7.131315	25.620444	-1.634728	-61.068000	-1.634728	-61.068000	-7.126274	25.221604
7.050000	-6.630776	21.624715	-1.790938	-65.160282	-1.790938	-65.160282	-6.626243	21.273894
7.100000	-6.162346	17.629260	-1.959644	-69.244510	-1.959644	-69.244510	-6.158248	17.321886
7.150000	-5.724735	13.641218	-2.140850	-73.314207	-2.140850	-73.314207	-5.721011	13.373284
7.200000	-5.316701	9.667640	-2.334465	-77.362858	-2.334465	-77.362858	-5.313301	9.435610
7.250000	-4.937051	5.715480	-2.540291	-81.383949	-2.540291	-81.383949	-4.933931	5.516216
7.300000	-4.584429	1.791005	-2.757922	-85.371651	-2.757922	-85.371651	-4.581552	1.621748
7.350000	-4.257542	-2.099836	-2.986923	-89.320348	-2.986923	-89.320348	-4.254877	-2.241544
7.400000	-3.955085	-5.951615	-3.226772	-93.224882	-3.226772	-93.224882	-3.952606	-6.067970
7.450000	-3.675751	-9.759477	-3.476874	-97.080629	-3.476874	-97.080629	-3.673434	-9.852448
7.500000	-3.418231	-13.519186	-3.736574	-100.883543	-3.736574	-100.883543	-3.416057	-13.590542
7.550000	-3.181441	-17.226257	-4.005169	-104.629222	-4.005169	-104.629222	-3.179393	-17.277616
7.600000	-2.963872	-20.878555	-4.281897	-108.315731	-4.281897	-108.315731	-2.961936	-20.911352
7.650000	-2.764261	-24.473805	-4.566016	-111.940892	-4.566016	-111.940892	-2.762424	-24.489341
7.700000	-2.581381	-28.010341	-4.856787	-115.503111	-4.856787	-115.503111	-2.579632	-28.009797
7.750000	-2.414047	-31.487077	-5.153478	-119.001346	-5.153478	-119.001346	-2.412378	-31.471525
7.800000	-2.261125	-34.903455	-5.455378	-122.435069	-5.455378	-122.435069	-2.259527	-34.873875
7.850000	-2.121532	-38.259404	-5.761802	-125.804215	-5.761802	-125.804215	-2.119999	-38.216690
7.900000	-1.994243	-41.555285	-6.072099	-129.109129	-6.072099	-129.109129	-1.992769	-41.500254
7.950000	-1.878293	-44.791840	-6.385655	-132.350522	-6.385655	-132.350522	-1.876873	-44.725241
8.000000	-1.772774	-47.970137	-6.701900	-135.529411	-6.701900	-135.529411	-1.771404	-47.892657
8.050000	-1.676841	-51.091525	-7.020304	-138.647077	-7.020304	-138.647077	-1.675517	-51.003799
8.100000	-1.589707	-54.157588	-7.340382	-141.705018	-7.340382	-141.705018	-1.588426	-54.060197
8.150000	-1.510716	-57.169539	-7.661575	-144.704292	-7.661575	-144.704292	-1.509475	-57.063026
8.200000	-1.439176	-60.129373	-7.983470	-147.646773	-7.983470	-147.646773	-1.437973	-60.014240
8.250000	-1.374390	-63.039726	-8.305835	-150.535005	-8.305835	-150.535005	-1.373223	-62.916433
8.300000	-1.315789	-65.902736	-8.628358	-153.370973	-8.628358	-153.370973	-1.314657	-65.771710
8.350000	-1.262853	-68.720605	-8.950768	-156.156709	-8.950768	-156.156709	-1.261754	-68.582243
8.400000	-1.215105	-71.495576	-9.272830	-158.894267	-9.272830	-158.894267	-1.214037	-71.350248
8.450000	-1.172108	-74.229912	-9.594341	-161.585709	-9.594341	-161.585709	-1.171071	-74.077966
8.500000	-1.133465	-76.925889	-9.915132	-164.233088	-9.915132	-164.233088	-1.132459	-76.767649
8.550000	-1.098815	-79.585777	-10.235063	-166.838438	-10.235063	-166.838438	-1.097838	-79.421548
8.600000	-1.067825	-82.211833	-10.554022	-169.403762	-10.554022	-169.403762	-1.066878	-82.041904
8.650000	-1.040197	-84.806296	-10.871923	-171.931028	-10.871923	-171.931028	-1.039279	-84.630940
8.700000	-1.015657	-87.371378	-11.188703	-174.422160	-11.188703	-174.422160	-1.014768	-87.190855
8.750000	-0.993957	-89.909263	-11.504324	-176.879034	-11.504324	-176.879034	-0.993097	-89.723820
8.800000	-0.974922	-92.421607	-11.818496	-179.302814	-11.818496	-179.302814	-0.974092	-92.231487
8.850000	-0.958289	-94.911121	-12.131496	178.303982	-12.131496	178.303982	-0.957489	-94.716551
8.900000	-0.943873	-97.379888	-12.443346	175.939637	-12.443346	175.939637	-0.943103	-97.181087
8.950000	-0.931507	-99.829958	-12.754085	173.602485	-12.754085	173.602485	-0.930768	-99.627142
9.000000	-0.921039	-102.263350	-13.063766	171.290913	-13.063766	171.290913	-0.920331	-102.056728
9.050000	-0.912331	-104.682053	-13.372462	169.003362	-13.372462	169.003362	-0.911656	-104.471831
9.100000	-0.905258	-107.088027	-13.680257	166.738323	-13.680257	166.738323	-0.904618	-106.874407
9.150000	-0.899709	-109.483204	-13.987253	164.494338	-13.987253	164.494338	-0.899104	-109.266390
9.200000	-0.895581	-111.869495	-14.293566	162.270001	-14.293566	162.270001	-0.895014	-111.649688
9.250000	-0.892782	-114.248788	-14.599325	160.063951	-14.599325	160.063951	-0.892254	-114.026191
9.300000	-0.891230	-116.622951	-14.904676	157.874875	-14.904676	157.874875	-0.890745	-116.397770
9.350000	-0.890851	-118.993838	-15.209779	155.701509	-15.209779	155.701509	-0.890409	-118.766280
9.400000	-0.891724	-121.363354	-15.513313	153.544505	-15.513313	153.544505	-0.891331	-121.133664
9.450000	-0.893498	-123.733488	-15.818375	151.398908	-15.818375	151.398908	-0.893157	-123.501856
9.500000	-0.896265	-126.105873	-16.123763	149.265476	-16.123763	149.265476	-0.895979	-125.872525
9.550000	-0.899978	-128.482321	-16.429700	147.143130	-16.429700	147.143130	-0.899752	-128.247491
9.600000	-0.904595	-130.864644	-16.736427	145.030830	-16.736427	145.030830	-0.904434	-130.628574
9.650000	-0.910080	-133.254649	-17.044201	142.927587	-17.044201	142.927587	-0.909990	-133.017594
9.700000	-0.916402	-135.654145	-17.353301	140.832460	-17.353301	140.832460	-0.916388	-135.416369
9.750000	-0.923534	-138.064944	-17.664026	138.744558	-17.664026	138.744558	-0.923604	-137.826725
9.800000	-0.931420	-140.488179	-17.977082	136.662814	-17.977082	136.662814	-0.931583	-140.249796
9.850000	-0.940118	-142.927138	-18.291943	134.586993	-18.291943	134.586993	-0.940381	-142.688916
9.900000	-0.949570	-145.382898	-18.609473	132.516050	-18.609473	132.516050	-0.949943	-145.145162
9.950000	-0.959766	-147.857289	-18.930074	130.449341	-18.930074	130.449341	-0.960259	-147.620383
10.000000	-0.970697	-150.352148	-19.254177	128.386298	-19.254177	128.386298	-0.971323	-150.116438
