! freq	dB(S11)	phase(S11)	dB(S12)	phase(S12)	
!     	dB(S21)	phase(S21)	dB(S22)	phase(S22)	
!S-par simulation data
#  GHz  S  DB  R 50
0.000000	-86.020033	0.000000	-0.000434	0.000000	-0.000434	0.000000	-86.020033	0.000000
0.050000	-42.492256	-93.559081	-0.006550	-2.540993	-0.006550	-2.540993	-42.309644	-91.914990
0.100000	-36.358784	-96.737390	-0.015568	-5.025002	-0.015568	-5.025002	-36.285276	-94.360632
0.150000	-32.786250	-99.497853	-0.022090	-7.486179	-0.022090	-7.486179	-32.762039	-96.633549
0.200000	-30.274192	-102.218081	-0.027072	-9.943792	-0.027072	-9.943792	-30.267759	-98.832623
0.250000	-28.343168	-104.960596	-0.031581	-12.401850	-0.031581	-12.401850	-28.341694	-100.989112
0.300000	-26.779574	-107.728460	-0.036147	-14.860396	-0.036147	-14.860396	-26.778256	-103.120234
0.350000	-25.470090	-110.516267	-0.041009	-17.318795	-0.041009	-17.318795	-25.467349	-105.235982
0.400000	-24.347456	-113.318869	-0.046271	-19.776411	-0.046271	-19.776411	-24.342979	-107.341855
0.450000	-23.368650	-116.132541	-0.051976	-22.232701	-0.051976	-22.232701	-23.362600	-109.440602
0.500000	-22.504212	-118.954540	-0.058124	-24.687238	-0.058124	-24.687238	-22.496906	-111.533514
0.550000	-21.733166	-121.783008	-0.064699	-27.139692	-0.064699	-27.139692	-21.724948	-113.620998
0.600000	-21.040118	-124.616706	-0.071674	-29.589790	-0.071674	-29.589790	-21.031310	-115.702975
0.650000	-20.413401	-127.454796	-0.079015	-32.037316	-0.079015	-32.037316	-20.404290	-117.779120
0.700000	-19.843957	-130.296732	-0.086683	-34.482100	-0.086683	-34.482100	-19.834794	-119.848986
0.750000	-19.324618	-133.142189	-0.094634	-36.924015	-0.094634	-36.924015	-19.315622	-121.912064
0.800000	-18.849614	-135.991010	-0.102823	-39.362971	-0.102823	-39.362971	-18.840974	-123.967824
0.850000	-18.414308	-138.843192	-0.111205	-41.798902	-0.111205	-41.798902	-18.406191	-126.015691
0.900000	-18.014880	-141.698850	-0.119730	-44.231775	-0.119730	-44.231775	-18.007433	-128.055085
0.950000	-17.647921	-144.558148	-0.128349	-46.661633	-0.128349	-46.661633	-17.641274	-130.085563
1.000000	-17.310686	-147.421369	-0.137013	-49.088523	-0.137013	-49.088523	-17.304954	-132.106618
1.050000	-17.000843	-150.288877	-0.145674	-51.512522	-0.145674	-51.512522	-16.996128	-134.117750
1.100000	-16.716392	-153.161111	-0.154286	-53.933735	-0.154286	-53.933735	-16.712788	-136.118470
1.150000	-16.455616	-156.038580	-0.162802	-56.352292	-0.162802	-56.352292	-16.453207	-138.108290
1.200000	-16.217025	-158.921863	-0.171178	-58.768353	-0.171178	-58.768353	-16.215889	-140.086723
1.250000	-15.999329	-161.811610	-0.179372	-61.182098	-0.179372	-61.182098	-15.999538	-142.053278
1.300000	-15.801616	-164.708656	-0.187340	-63.593706	-0.187340	-63.593706	-15.803237	-144.007266
1.350000	-15.622688	-167.613700	-0.195047	-66.003435	-0.195047	-66.003435	-15.625784	-145.948342
1.400000	-15.461689	-170.527605	-0.202457	-68.411531	-0.202457	-68.411531	-15.466318	-147.875969
1.450000	-15.317871	-173.451311	-0.209540	-70.818258	-0.209540	-70.818258	-15.324088	-149.789580
1.500000	-15.190583	-176.385834	-0.216265	-73.223894	-0.216265	-73.223894	-15.198441	-151.688574
1.550000	-15.079257	-179.332272	-0.222607	-75.628732	-0.222607	-75.628732	-15.088809	-153.572307
1.600000	-14.983406	177.708191	-0.228543	-78.033075	-0.228543	-78.033075	-14.994703	-155.440081
1.650000	-14.902610	174.734278	-0.234054	-80.437238	-0.234054	-80.437238	-14.915702	-157.291138
1.700000	-14.836970	171.744050	-0.239109	-82.841561	-0.239109	-82.841561	-14.851911	-159.124039
1.750000	-14.785324	168.737034	-0.243723	-85.246353	-0.243723	-85.246353	-14.802165	-160.938972
1.800000	-14.747837	165.711174	-0.247875	-87.651952	-0.247875	-87.651952	-14.766633	-162.734408
1.850000	-14.724319	162.664745	-0.251561	-90.058695	-0.251561	-90.058695	-14.745126	-164.509213
1.900000	-14.714774	159.595618	-0.254772	-92.466938	-0.254772	-92.466938	-14.737655	-166.261868
1.950000	-14.719103	156.501700	-0.257512	-94.877027	-0.257512	-94.877027	-14.744125	-167.990900
2.000000	-14.737102	153.381033	-0.259792	-97.289278	-0.259792	-97.289278	-14.764335	-169.694942
2.050000	-14.768759	150.231222	-0.261620	-99.704020	-0.261620	-99.704020	-14.798280	-171.372186
2.100000	-14.814103	147.049653	-0.263009	-102.121574	-0.263009	-102.121574	-14.845995	-173.020592
2.150000	-14.873202	143.833468	-0.263974	-104.542252	-0.263974	-104.542252	-14.907557	-174.637854
2.200000	-14.946162	140.579531	-0.264536	-106.966359	-0.264536	-106.966359	-14.983080	-176.221362
2.250000	-15.033127	137.284389	-0.264715	-109.394187	-0.264715	-109.394187	-15.072717	-177.768156
2.300000	-15.134276	133.944226	-0.264536	-111.826018	-0.264536	-111.826018	-15.176657	-179.274873
2.350000	-15.249824	130.554811	-0.264028	-114.262118	-0.264028	-114.262118	-15.295124	179.262311
2.400000	-15.380016	127.111438	-0.263219	-116.702740	-0.263219	-116.702740	-15.428375	177.847753
2.450000	-15.525131	123.608848	-0.262142	-119.148118	-0.262142	-119.148118	-15.576697	176.486427
2.500000	-15.685470	120.041149	-0.260833	-121.598473	-0.260833	-121.598473	-15.740400	175.184015
2.550000	-15.861618	116.399975	-0.259323	-124.054121	-0.259323	-124.054121	-15.920076	173.948618
2.600000	-16.053636	112.679184	-0.257657	-126.515135	-0.257657	-126.515135	-16.115790	172.786494
2.650000	-16.261862	108.870211	-0.255875	-128.981675	-0.255875	-128.981675	-16.327877	171.706296
2.700000	-16.486622	104.963318	-0.254017	-131.453882	-0.254017	-131.453882	-16.556655	170.717979
2.750000	-16.727938	100.950685	-0.252126	-133.931715	-0.252126	-133.931715	-16.802131	169.829863
2.800000	-16.986564	96.814215	-0.250245	-136.415556	-0.250245	-136.415556	-17.065021	169.060277
2.850000	-17.262707	92.535961	-0.248420	-138.905585	-0.248420	-138.905585	-17.345472	168.427834
2.900000	-17.555747	88.109332	-0.246692	-141.401433	-0.246692	-141.401433	-17.642797	167.940285
2.950000	-17.865749	83.510939	-0.245106	-143.903324	-0.245106	-143.903324	-17.956935	167.621915
3.000000	-18.192170	78.719186	-0.243705	-146.411270	-0.243705	-146.411270	-18.287173	167.495528
3.050000	-18.534027	73.709628	-0.242535	-148.925258	-0.242535	-148.925258	-18.632288	167.586914
3.100000	-18.889732	68.454860	-0.241636	-151.445254	-0.241636	-151.445254	-18.990364	167.924869
3.150000	-19.256790	62.921272	-0.241056	-153.971267	-0.241056	-153.971267	-19.358442	168.544340
3.200000	-19.631526	57.075119	-0.240836	-156.503220	-0.240836	-156.503220	-19.732249	169.480041
3.250000	-20.009007	50.885621	-0.241012	-159.040949	-0.241012	-159.040949	-20.106130	170.762883
3.300000	-20.382514	44.320137	-0.241622	-161.584341	-0.241622	-161.584341	-20.472476	172.424356
3.350000	-20.743281	37.350650	-0.242701	-164.133261	-0.242701	-164.133261	-20.821521	174.489304
3.400000	-21.080331	29.958831	-0.244283	-166.687558	-0.244283	-166.687558	-21.141289	176.970144
3.450000	-21.380610	22.142553	-0.246400	-169.247067	-0.246400	-169.247067	-21.417919	179.859828
3.500000	-21.629600	13.923106	-0.249081	-171.811607	-0.249081	-171.811607	-21.636541	-176.875234
3.550000	-21.812549	5.351394	-0.252351	-174.380981	-0.252351	-174.380981	-21.782807	-173.300168
3.600000	-21.916296	-3.489425	-0.256236	-176.954986	-0.256236	-176.954986	-21.844907	-169.511811
3.650000	-21.931371	-12.487383	-0.260756	-179.533403	-0.260756	-179.533403	-21.815623	-165.632028
3.700000	-21.853777	-21.512207	-0.265929	177.883993	-0.265929	177.883993	-21.693757	-161.794363
3.750000	-21.685812	-30.431076	-0.271770	175.297435	-0.271770	175.297435	-21.484383	-158.127167
3.800000	-21.433871	-39.118214	-0.278307	172.707086	-0.278307	172.707086	-21.196187	-154.746044
3.850000	-21.112481	-47.486017	-0.285533	170.113276	-0.285533	170.113276	-20.844911	-151.722491
3.900000	-20.736172	-55.476925	-0.293453	167.516250	-0.293453	167.516250	-20.445413	-149.099266
3.950000	-20.319566	-63.063954	-0.302071	164.916254	-0.302071	164.916254	-20.011933	-146.890698
4.000000	-19.876010	-70.244897	-0.311386	162.313532	-0.311386	162.313532	-19.557016	-145.089480
4.050000	-19.416847	-77.035129	-0.321394	159.708328	-0.321394	159.708328	-19.091040	-143.673885
4.100000	-18.951921	-83.470788	-0.332069	157.100938	-0.332069	157.100938	-18.622821	-142.604375
4.150000	-18.486537	-89.561091	-0.343443	154.491459	-0.343443	154.491459	-18.156992	-141.869254
4.200000	-18.026972	-95.352452	-0.355483	151.880196	-0.355483	151.880196	-17.699016	-141.421958
4.250000	-17.576915	-100.877597	-0.368171	149.267365	-0.368171	149.267365	-17.252027	-141.230063
4.300000	-17.138896	-106.167122	-0.381490	146.653174	-0.381490	146.653174	-16.818122	-141.263683
4.350000	-16.714555	-111.248844	-0.395421	144.037818	-0.395421	144.037818	-16.398623	-141.495895
4.400000	-16.304853	-116.146731	-0.409944	141.421478	-0.409944	141.421478	-15.994260	-141.903628
4.450000	-15.910314	-120.883016	-0.425033	138.804326	-0.425033	138.804326	-15.605383	-142.465567
4.500000	-15.531104	-125.477787	-0.440660	136.186524	-0.440660	136.186524	-15.232035	-143.162497
4.550000	-15.167115	-129.947682	-0.456797	133.568215	-0.456797	133.568215	-14.874030	-143.978526
4.600000	-14.818073	-134.307161	-0.473414	130.949524	-0.473414	130.949524	-14.531038	-144.899850
4.650000	-14.483589	-138.568779	-0.490480	128.330563	-0.490480	128.330563	-14.202637	-145.914496
4.700000	-14.163204	-142.743222	-0.507964	125.711425	-0.507964	125.711425	-13.888355	-147.012283
4.750000	-13.856429	-146.839644	-0.525836	123.092190	-0.525836	123.092190	-13.587697	-148.184498
4.800000	-13.562717	-150.866934	-0.544058	120.472918	-0.544058	120.472918	-13.300112	-149.422695
4.850000	-13.281522	-154.832209	-0.562598	117.853655	-0.562598	117.853655	-13.025064	-150.720130
4.900000	-13.012306	-158.741663	-0.581420	115.234430	-0.581420	115.234430	-12.762024	-152.070953
4.950000	-12.754536	-162.600695	-0.600490	112.615254	-0.600490	112.615254	-12.510475	-153.470087
5.000000	-12.507696	-166.414013	-0.619776	109.996124	-0.619776	109.996124	-12.269915	-154.913132
5.050000	-12.271349	-170.185103	-0.639244	107.377021	-0.639244	107.377021	-12.039932	-156.396878
5.100000	-12.044955	-173.918274	-0.658859	104.757911	-0.658859	104.757911	-11.819997	-157.917331
5.150000	-11.828053	-177.616623	-0.678588	102.138746	-0.678588	102.138746	-11.609668	-159.471674
5.200000	-11.620207	178.717151	-0.698399	99.519464	-0.698399	99.519464	-11.408524	-161.057485
5.250000	-11.421000	175.080707	-0.718261	96.899994	-0.718261	96.899994	-11.216166	-162.672697
5.300000	-11.230036	171.472021	-0.738144	94.280250	-0.738144	94.280250	-11.032216	-164.315556
5.350000	-11.046942	167.889347	-0.758017	91.660137	-0.758017	91.660137	-10.856315	-165.984587
5.400000	-10.871366	164.331197	-0.777853	89.039548	-0.777853	89.039548	-10.688126	-167.678570
5.450000	-10.702973	160.796306	-0.797624	86.418371	-0.797624	86.418371	-10.527328	-169.396510
5.500000	-10.541452	157.283618	-0.817303	83.796480	-0.817303	83.796480	-10.373622	-171.137616
5.550000	-10.386506	153.792264	-0.836866	81.173746	-0.836866	81.173746	-10.226722	-172.901286
5.600000	-10.237858	150.321545	-0.856288	78.550031	-0.856288	78.550031	-10.086362	-174.687087
5.650000	-10.095289	146.871134	-0.875542	75.925175	-0.875542	75.925175	-9.952335	-176.494981
5.700000	-9.958554	143.440624	-0.894605	73.299022	-0.894605	73.299022	-9.824402	-178.324837
5.750000	-9.827387	140.029542	-0.913457	70.671427	-0.913457	70.671427	-9.702298	179.823572
5.800000	-9.701576	136.637752	-0.932078	68.042227	-0.932078	68.042227	-9.585814	177.950107
5.850000	-9.580926	133.265234	-0.950446	65.411253	-0.950446	65.411253	-9.474756	176.054515
5.900000	-9.465253	129.912074	-0.968542	62.778331	-0.968542	62.778331	-9.368941	174.136434
5.950000	-9.354390	126.578454	-0.986346	60.143278	-0.986346	60.143278	-9.268199	172.195394
6.000000	-9.248180	123.264649	-1.003840	57.505910	-1.003840	57.505910	-9.172370	170.230828
6.050000	-9.146480	119.971019	-1.021006	54.866031	-1.021006	54.866031	-9.081308	168.242070
6.100000	-9.049157	116.698005	-1.037824	52.223442	-1.037824	52.223442	-8.994873	166.228364
6.150000	-8.956090	113.446123	-1.054278	49.577933	-1.054278	49.577933	-8.912938	164.188862
6.200000	-8.867168	110.215958	-1.070350	46.929287	-1.070350	46.929287	-8.835383	162.122627
6.250000	-8.782290	107.008166	-1.086024	44.277278	-1.086024	44.277278	-8.762099	160.028637
6.300000	-8.701433	103.823979	-1.101272	41.621584	-1.101272	41.621584	-8.693060	157.905127
6.350000	-8.624444	100.663691	-1.116088	38.962031	-1.116088	38.962031	-8.628095	155.751501
6.400000	-8.551246	97.528136	-1.130457	36.298359	-1.130457	36.298359	-8.567114	153.566474
6.450000	-8.481770	94.418200	-1.144362	33.630293	-1.144362	33.630293	-8.510039	151.348675
6.500000	-8.415953	91.334820	-1.157791	30.957546	-1.157791	30.957546	-8.456793	149.096650
6.550000	-8.353736	88.278980	-1.170729	28.279817	-1.170729	28.279817	-8.407308	146.808855
6.600000	-8.295066	85.251712	-1.183164	25.596788	-1.183164	25.596788	-8.361519	144.483664
6.650000	-8.239890	82.254090	-1.195085	22.908125	-1.195085	22.908125	-8.319366	142.119358
6.700000	-8.188162	79.287234	-1.206480	20.213477	-1.206480	20.213477	-8.280789	139.714133
6.750000	-8.139834	76.352304	-1.217343	17.512473	-1.217343	17.512473	-8.245735	137.266091
6.800000	-8.094858	73.450503	-1.227665	14.804726	-1.227665	14.804726	-8.214149	134.773245
6.850000	-8.053187	70.583076	-1.237443	12.089829	-1.237443	12.089829	-8.185977	132.233515
6.900000	-8.014803	67.751709	-1.246667	9.367267	-1.246667	9.367267	-8.161199	129.644169
6.950000	-7.979650	64.957775	-1.255339	6.636578	-1.255339	6.636578	-8.139757	127.002858
7.000000	-7.947635	62.202252	-1.263468	3.897375	-1.263468	3.897375	-8.121553	124.307750
7.050000	-7.918689	59.486548	-1.271061	1.149170	-1.271061	1.149170	-8.106522	121.556386
7.100000	-7.892735	56.812107	-1.278128	-1.608544	-1.278128	-1.608544	-8.094587	118.746214
7.150000	-7.869685	54.180409	-1.284684	-4.376294	-1.284684	-4.376294	-8.085666	115.874597
7.200000	-7.849436	51.592969	-1.290749	-7.154625	-1.290749	-7.154625	-8.079663	112.938813
7.250000	-7.831871	49.051330	-1.296347	-9.944100	-1.296347	-9.944100	-8.076467	109.936064
7.300000	-7.816853	46.557061	-1.301509	-12.745297	-1.301509	-12.745297	-8.075952	106.863482
7.350000	-7.804225	44.111747	-1.306269	-15.558807	-1.306269	-15.558807	-8.077971	103.718139
7.400000	-7.793804	41.716982	-1.310670	-18.385235	-1.310670	-18.385235	-8.082353	100.497066
7.450000	-7.785382	39.374354	-1.314760	-21.225195	-1.314760	-21.225195	-8.088901	97.197263
7.500000	-7.778720	37.085431	-1.318597	-24.079306	-1.318597	-24.079306	-8.097388	93.815727
7.550000	-7.773570	34.852974	-1.322241	-26.948528	-1.322241	-26.948528	-8.107580	90.347565
7.600000	-7.769581	32.677271	-1.325771	-29.833175	-1.325771	-29.833175	-8.119135	86.791628
7.650000	-7.766403	30.559678	-1.329267	-32.733864	-1.329267	-32.733864	-8.131706	83.145085
7.700000	-7.763640	28.501416	-1.332820	-35.651199	-1.332820	-35.651199	-8.144903	79.405247
7.750000	-7.760854	26.503530	-1.336529	-38.585771	-1.336529	-38.585771	-8.158289	75.569618
7.800000	-7.757564	24.566835	-1.340503	-41.538146	-1.340503	-41.538146	-8.171374	71.635952
7.850000	-7.753239	22.691868	-1.344859	-44.508860	-1.344859	-44.508860	-8.183616	67.602325
7.900000	-7.747308	20.878824	-1.349726	-47.498413	-1.349726	-47.498413	-8.194421	63.467204
7.950000	-7.739157	19.127492	-1.355240	-50.507263	-1.355240	-50.507263	-8.203144	59.229531
8.000000	-7.728137	17.437189	-1.361549	-53.535810	-1.361549	-53.535810	-8.209094	54.888800
8.050000	-7.713571	15.806690	-1.368808	-56.584397	-1.368808	-56.584397	-8.211538	50.445147
8.100000	-7.694761	14.234169	-1.377181	-59.653293	-1.377181	-59.653293	-8.209711	45.899428
8.150000	-7.670944	12.717706	-1.386855	-62.742914	-1.386855	-62.742914	-8.202766	41.252234
8.200000	-7.641401	11.253972	-1.398014	-65.853359	-1.398014	-65.853359	-8.189888	36.506202
8.250000	-7.605521	9.838385	-1.410830	-68.984403	-1.410830	-68.984403	-8.170364	31.665926
8.300000	-7.562686	8.466227	-1.425490	-72.135931	-1.425490	-72.135931	-8.143464	26.735857
8.350000	-7.512585	7.131130	-1.442121	-75.307137	-1.442121	-75.307137	-8.108782	21.723678
8.400000	-7.454260	5.829162	-1.461044	-78.498910	-1.461044	-78.498910	-8.065228	16.630727
8.450000	-7.387610	4.552376	-1.482384	-81.710105	-1.482384	-81.710105	-8.012624	11.467082
8.500000	-7.312407	3.293615	-1.506325	-84.940104	-1.506325	-84.940104	-7.950678	6.240940
8.550000	-7.228565	2.045397	-1.533044	-88.188152	-1.533044	-88.188152	-7.879267	0.961352
8.600000	-7.136150	0.800071	-1.562711	-91.453357	-1.562711	-91.453357	-7.798437	-4.361846
8.650000	-7.035377	-0.450008	-1.595480	-94.734691	-1.595480	-94.734691	-7.708399	-9.718144
8.700000	-6.926617	-1.712302	-1.631490	-98.030992	-1.631490	-98.030992	-7.609508	-15.096547
8.750000	-6.810385	-2.993918	-1.670863	-101.340974	-1.670863	-101.340974	-7.502231	-20.485873
8.800000	-6.687213	-4.301921	-1.713743	-104.663390	-1.713743	-104.663390	-7.387000	-25.874957
8.850000	-6.557999	-5.641953	-1.760156	-107.996533	-1.760156	-107.996533	-7.264593	-31.253246
8.900000	-6.423601	-7.019184	-1.810143	-111.338809	-1.810143	-111.338809	-7.135729	-36.611245
8.950000	-6.284951	-8.437970	-1.863716	-114.688560	-1.863716	-114.688560	-7.001210	-41.940542
9.000000	-6.143025	-9.901820	-1.920851	-118.044081	-1.920851	-118.044081	-6.861919	-47.233845
9.050000	-5.998823	-11.413401	-1.981488	-121.403650	-1.981488	-121.403650	-6.718814	-52.484940
9.100000	-5.853349	-12.974568	-2.045531	-124.765551	-2.045531	-124.765551	-6.572906	-57.688603
9.150000	-5.707589	-14.586423	-2.112841	-128.128104	-2.112841	-128.128104	-6.425237	-62.840494
9.200000	-5.562491	-16.249884	-2.183263	-131.489671	-2.183263	-131.489671	-6.276835	-67.936503
9.250000	-5.418997	-17.964529	-2.256559	-134.848712	-2.256559	-134.848712	-6.128767	-72.974019
9.300000	-5.277974	-19.729443	-2.332455	-138.203850	-2.332455	-138.203850	-5.982038	-77.951123
9.350000	-5.140228	-21.543579	-2.410646	-141.553867	-2.410646	-141.553867	-5.837589	-82.866184
9.400000	-5.006506	-23.405607	-2.490789	-144.897740	-2.490789	-144.897740	-5.696293	-87.718049
9.450000	-4.877503	-25.314006	-2.572501	-148.234672	-2.572501	-148.234672	-5.558955	-92.505976
9.500000	-4.753861	-27.267145	-2.655360	-151.564125	-2.655360	-151.564125	-5.426305	-97.229574
9.550000	-4.636182	-29.263361	-2.738907	-154.885850	-2.738907	-154.885850	-5.298997	-101.888733
9.600000	-4.525060	-31.301204	-2.822642	-158.199886	-2.822642	-158.199886	-5.177635	-106.483268
9.650000	-4.421080	-33.379266	-2.906021	-161.506641	-2.906021	-161.506641	-5.062759	-111.013179
9.700000	-4.324725	-35.495686	-2.988485	-164.807025	-2.988485	-164.807025	-4.954764	-115.479528
9.750000	-4.236530	-37.649124	-3.069444	-168.102298	-3.069444	-168.102298	-4.854015	-119.882852
9.800000	-4.157041	-39.838360	-3.148275	-171.394186	-3.148275	-171.394186	-4.760816	-124.223750
9.850000	-4.086839	-42.062281	-3.224327	-174.684921	-3.224327	-174.684921	-4.675411	-128.502857
9.900000	-4.026548	-44.319843	-3.296923	-177.977296	-3.296923	-177.977296	-4.597991	-132.720828
9.950000	-3.976853	-46.610020	-3.365359	178.725283	-3.365359	178.725283	-4.528694	-136.878317
10.000000	-3.938516	-48.931721	-3.428909	175.418724	-3.428909	175.418724	-4.467613	-140.975967
