! freq	dB(S11)	phase(S11)	dB(S12)	phase(S12)	
!     	dB(S21)	phase(S21)	dB(S22)	phase(S22)	
!S-par simulation data
#  GHz  S  DB  R 50
0.000000	-0.000000	0.000000	-324.739581	180.000000	-324.739581	180.000000	0.000000	0.000000
0.050000	-0.000905	-0.836028	-111.817960	88.782410	-111.817960	88.782410	-0.001144	-1.142095
0.100000	-0.002850	-1.679796	-105.828109	87.617679	-105.828109	87.617679	-0.003686	-2.293632
0.150000	-0.004780	-2.530568	-102.363840	86.537368	-102.363840	86.537368	-0.006322	-3.454322
0.200000	-0.006350	-3.384716	-99.954096	85.549570	-99.954096	85.549570	-0.008539	-4.619819
0.250000	-0.007580	-4.239901	-98.145663	84.658304	-98.145663	84.658304	-0.010309	-5.786973
0.300000	-0.008611	-5.094944	-96.727419	83.853173	-96.727419	83.853173	-0.011800	-6.954007
0.350000	-0.009520	-5.949440	-95.594691	83.141558	-95.594691	83.141558	-0.013107	-8.120250
0.400000	-0.010366	-6.803201	-94.683792	82.533857	-94.683792	82.533857	-0.014316	-9.285349
0.450000	-0.011187	-7.656155	-93.954627	82.047904	-93.954627	82.047904	-0.015479	-10.449138
0.500000	-0.012007	-8.508268	-93.381030	81.709598	-93.381030	81.709598	-0.016630	-11.611521
0.550000	-0.012838	-9.359522	-92.945742	81.554274	-92.945742	81.554274	-0.017790	-12.772432
0.600000	-0.013689	-10.209902	-92.637545	81.629202	-92.637545	81.629202	-0.018971	-13.931815
0.650000	-0.014563	-11.059394	-92.449472	81.997597	-92.449472	81.997597	-0.020180	-15.089616
0.700000	-0.015462	-11.907982	-92.377494	82.744699	-92.377494	82.744699	-0.021418	-16.245785
0.750000	-0.016386	-12.755650	-92.419232	83.986686	-92.419232	83.986686	-0.022688	-17.400268
0.800000	-0.017334	-13.602384	-92.572174	85.883230	-92.572174	85.883230	-0.023989	-18.553016
0.850000	-0.018305	-14.448168	-92.830564	88.653733	-92.830564	88.653733	-0.025317	-19.703977
0.900000	-0.019296	-15.292986	-93.179505	92.593742	-93.179505	92.593742	-0.026671	-20.853105
0.950000	-0.020305	-16.136826	-93.584139	98.077041	-93.584139	98.077041	-0.028048	-22.000350
1.000000	-0.021331	-16.979673	-93.972425	105.503530	-93.972425	105.503530	-0.029445	-23.145669
1.050000	-0.022370	-17.821515	-94.217436	115.120824	-94.217436	115.120824	-0.030859	-24.289018
1.100000	-0.023422	-18.662340	-94.145442	126.680344	-94.145442	126.680344	-0.032288	-25.430355
1.150000	-0.024483	-19.502137	-93.608689	139.132804	-93.608689	139.132804	-0.033728	-26.569640
1.200000	-0.025553	-20.340893	-92.593849	150.899605	-92.593849	150.899605	-0.035178	-27.706834
1.250000	-0.026629	-21.178600	-91.235131	160.759827	-91.235131	160.759827	-0.036634	-28.841900
1.300000	-0.027711	-22.015198	-89.695752	168.267123	-89.695752	168.267123	-0.038094	-29.974707
1.350000	-0.028796	-22.850725	-88.127221	173.785902	-88.127221	173.785902	-0.039558	-31.105313
1.400000	-0.029884	-23.685168	-86.599159	177.735240	-86.599159	177.735240	-0.041022	-32.233685
1.450000	-0.030973	-24.518519	-85.142002	-179.504533	-85.142002	-179.504533	-0.042487	-33.359789
1.500000	-0.032063	-25.350766	-83.765257	-177.635766	-83.765257	-177.635766	-0.043949	-34.483595
1.550000	-0.033153	-26.181898	-82.468480	-176.438130	-82.468480	-176.438130	-0.045410	-35.605071
1.600000	-0.034243	-27.011905	-81.246987	-175.751375	-81.246987	-175.751375	-0.046867	-36.724188
1.650000	-0.035332	-27.840776	-80.094637	-175.458932	-80.094637	-175.458932	-0.048321	-37.840915
1.700000	-0.036421	-28.668498	-79.005097	-175.475272	-79.005097	-175.475272	-0.049770	-38.955226
1.750000	-0.037508	-29.495061	-77.972395	-175.736858	-77.972395	-175.736858	-0.051215	-40.067090
1.800000	-0.038593	-30.320452	-76.991117	-176.195832	-76.991117	-176.195832	-0.052656	-41.176481
1.850000	-0.039678	-31.144660	-76.056449	-176.815636	-76.056449	-176.815636	-0.054092	-42.283372
1.900000	-0.040761	-31.967671	-75.164147	-177.567960	-75.164147	-177.567960	-0.055524	-43.387736
1.950000	-0.041843	-32.789474	-74.310484	-178.430598	-74.310484	-178.430598	-0.056952	-44.489549
2.000000	-0.042925	-33.610055	-73.492182	-179.385916	-73.492182	-179.385916	-0.058376	-45.588785
2.050000	-0.044006	-34.429402	-72.706360	179.580243	-72.706360	179.580243	-0.059797	-46.685420
2.100000	-0.045086	-35.247502	-71.950471	178.479370	-71.950471	178.479370	-0.061215	-47.779430
2.150000	-0.046167	-36.064341	-71.222263	177.320878	-71.222263	177.320878	-0.062630	-48.870794
2.200000	-0.047248	-36.879907	-70.519733	176.112549	-70.519733	176.112549	-0.064044	-49.959489
2.250000	-0.048331	-37.694186	-69.841095	174.860869	-69.841095	174.860869	-0.065456	-51.045494
2.300000	-0.049414	-38.507166	-69.184750	173.571290	-69.184750	173.571290	-0.066867	-52.128789
2.350000	-0.050499	-39.318832	-68.549260	172.248421	-68.549260	172.248421	-0.068279	-53.209355
2.400000	-0.051587	-40.129172	-67.933330	170.896191	-67.933330	170.896191	-0.069691	-54.287174
2.450000	-0.052677	-40.938173	-67.335786	169.517966	-67.335786	169.517966	-0.071105	-55.362228
2.500000	-0.053770	-41.745823	-66.755564	168.116647	-66.755564	168.116647	-0.072521	-56.434501
2.550000	-0.054867	-42.552048	-66.190818	166.693956	-66.190818	166.693956	-0.073940	-57.503856
2.600000	-0.055969	-43.356895	-65.641633	165.253049	-65.641633	165.253049	-0.075363	-58.570398
2.650000	-0.057075	-44.160352	-65.107187	163.795811	-65.107187	163.795811	-0.076791	-59.634117
2.700000	-0.058186	-44.962406	-64.586726	162.323903	-64.586726	162.323903	-0.078223	-60.694999
2.750000	-0.059303	-45.763047	-64.079555	160.838792	-64.079555	160.838792	-0.079662	-61.753033
2.800000	-0.060426	-46.562262	-63.585034	159.341781	-63.585034	159.341781	-0.081107	-62.808211
2.850000	-0.061555	-47.360041	-63.102570	157.834031	-63.102570	157.834031	-0.082560	-63.860524
2.900000	-0.062692	-48.156372	-62.631615	156.316580	-62.631615	156.316580	-0.084021	-64.909965
2.950000	-0.063836	-48.951246	-62.171658	154.790357	-62.171658	154.790357	-0.085490	-65.956527
3.000000	-0.064988	-49.744651	-61.722224	153.256200	-61.722224	153.256200	-0.086970	-67.000205
3.050000	-0.066149	-50.536578	-61.282872	151.714861	-61.282872	151.714861	-0.088460	-68.040997
3.100000	-0.067319	-51.327018	-60.853188	150.167025	-60.853188	150.167025	-0.089961	-69.078899
3.150000	-0.068499	-52.115962	-60.432783	148.613309	-60.432783	148.613309	-0.091473	-70.113910
3.200000	-0.069688	-52.903401	-60.021296	147.054276	-60.021296	147.054276	-0.092999	-71.146030
3.250000	-0.070888	-53.689326	-59.618387	145.490438	-59.618387	145.490438	-0.094537	-72.175261
3.300000	-0.072099	-54.473730	-59.223733	143.922264	-59.223733	143.922264	-0.096089	-73.201604
3.350000	-0.073321	-55.256606	-58.837035	142.350181	-58.837035	142.350181	-0.097655	-74.225064
3.400000	-0.074555	-56.037947	-58.458007	140.774582	-58.458007	140.774582	-0.099237	-75.245644
3.450000	-0.075801	-56.817745	-58.086380	139.195827	-58.086380	139.195827	-0.100834	-76.263351
3.500000	-0.077060	-57.595996	-57.721902	137.614248	-57.721902	137.614248	-0.102448	-77.278193
3.550000	-0.078331	-58.372692	-57.364330	136.030152	-57.364330	136.030152	-0.104079	-78.290176
3.600000	-0.079617	-59.147830	-57.013438	134.443819	-57.013438	134.443819	-0.105727	-79.299312
3.650000	-0.080916	-59.921404	-56.669010	132.855512	-56.669010	132.855512	-0.107394	-80.305609
3.700000	-0.082230	-60.693410	-56.330839	131.265473	-56.330839	131.265473	-0.109079	-81.309081
3.750000	-0.083559	-61.463844	-55.998732	129.673924	-55.998732	129.673924	-0.110783	-82.309739
3.800000	-0.084904	-62.232634	-55.672226	128.081028	-55.672226	128.081028	-0.112509	-83.307477
3.850000	-0.086264	-62.999846	-55.351441	126.487040	-55.351441	126.487040	-0.114255	-84.302433
3.900000	-0.087640	-63.765477	-55.036208	124.892140	-55.036208	124.892140	-0.116022	-85.294622
3.950000	-0.089034	-64.529525	-54.726364	123.296494	-54.726364	123.296494	-0.117810	-86.284062
4.000000	-0.090444	-65.291989	-54.421755	121.700257	-54.421755	121.700257	-0.119621	-87.270772
4.050000	-0.091871	-66.052867	-54.122231	120.103574	-54.122231	120.103574	-0.121455	-88.254771
4.100000	-0.093316	-66.812160	-53.827652	118.506579	-53.827652	118.506579	-0.123311	-89.236080
4.150000	-0.094780	-67.569866	-53.537882	116.909401	-53.537882	116.909401	-0.125192	-90.214719
4.200000	-0.096262	-68.325987	-53.252791	115.312158	-53.252791	115.312158	-0.127096	-91.190712
4.250000	-0.097763	-69.080523	-52.972254	113.714961	-52.972254	113.714961	-0.129026	-92.164082
4.300000	-0.099284	-69.833475	-52.696153	112.117915	-52.696153	112.117915	-0.130980	-93.134853
4.350000	-0.100824	-70.584845	-52.424373	110.521118	-52.424373	110.521118	-0.132960	-94.103050
4.400000	-0.102385	-71.334635	-52.156804	108.924661	-52.156804	108.924661	-0.134967	-95.068701
4.450000	-0.103967	-72.082847	-51.893340	107.328632	-51.893340	107.328632	-0.137000	-96.031831
4.500000	-0.105569	-72.829485	-51.633880	105.733112	-51.633880	105.733112	-0.139060	-96.992470
4.550000	-0.107193	-73.574553	-51.378326	104.138177	-51.378326	104.138177	-0.141148	-97.950646
4.600000	-0.108839	-74.318053	-51.126584	102.543901	-51.126584	102.543901	-0.143264	-98.906389
4.650000	-0.110508	-75.059990	-50.878564	100.950350	-50.878564	100.950350	-0.145408	-99.859729
4.700000	-0.112199	-75.800369	-50.634178	99.357589	-50.634178	99.357589	-0.147581	-100.810697
4.750000	-0.113913	-76.539195	-50.393342	97.765679	-50.393342	97.765679	-0.149784	-101.759327
4.800000	-0.115651	-77.276473	-50.155975	96.174676	-50.155975	96.174676	-0.152016	-102.705651
4.850000	-0.117413	-78.012210	-49.921998	94.584636	-49.921998	94.584636	-0.154279	-103.649703
4.900000	-0.119199	-78.746412	-49.691337	92.995608	-49.691337	92.995608	-0.156572	-104.591518
4.950000	-0.121010	-79.479085	-49.463919	91.407641	-49.463919	91.407641	-0.158897	-105.531130
5.000000	-0.122846	-80.210237	-49.239672	89.820780	-49.239672	89.820780	-0.161253	-106.468576
5.050000	-0.124709	-80.939809	-49.018419	88.235122	-49.018419	88.235122	-0.163642	-107.403801
5.100000	-0.126599	-81.667877	-48.800212	86.650657	-48.800212	86.650657	-0.166064	-108.336938
5.150000	-0.128514	-82.394448	-48.584987	85.067424	-48.584987	85.067424	-0.168518	-109.268024
5.200000	-0.130457	-83.119531	-48.372680	83.485460	-48.372680	83.485460	-0.171006	-110.197098
5.250000	-0.132427	-83.843135	-48.163233	81.904799	-48.163233	81.904799	-0.173527	-111.124200
5.300000	-0.134425	-84.565270	-47.956587	80.325473	-47.956587	80.325473	-0.176082	-112.049370
5.350000	-0.136451	-85.285945	-47.752686	78.747514	-47.752686	78.747514	-0.178672	-112.972648
5.400000	-0.138505	-86.005171	-47.551476	77.170951	-47.551476	77.170951	-0.181296	-113.894077
5.450000	-0.140589	-86.722959	-47.352902	75.595811	-47.352902	75.595811	-0.183955	-114.813697
5.500000	-0.142702	-87.439319	-47.156915	74.022121	-47.156915	74.022121	-0.186650	-115.731551
5.550000	-0.144845	-88.154263	-46.963464	72.449906	-46.963464	72.449906	-0.189381	-116.647683
5.600000	-0.147018	-88.867802	-46.772502	70.879189	-46.772502	70.879189	-0.192148	-117.562136
5.650000	-0.149222	-89.579948	-46.583981	69.309993	-46.583981	69.309993	-0.194952	-118.474954
5.700000	-0.151458	-90.290714	-46.397855	67.742340	-46.397855	67.742340	-0.197793	-119.386182
5.750000	-0.153725	-91.000112	-46.214082	66.176249	-46.214082	66.176249	-0.200671	-120.295865
5.800000	-0.156023	-91.708156	-46.032618	64.611739	-46.032618	64.611739	-0.203586	-121.204049
5.850000	-0.158360	-92.414628	-45.853176	63.049113	-45.853176	63.049113	-0.206547	-122.110541
5.900000	-0.160732	-93.119716	-45.675911	61.488174	-45.675911	61.488174	-0.209547	-123.015568
5.950000	-0.163121	-93.824124	-45.501498	59.928094	-45.501498	59.928094	-0.212568	-123.919905
6.000000	-0.165562	-94.526493	-45.328478	58.370588	-45.328478	58.370588	-0.215650	-124.822173
6.050000	-0.168016	-95.228420	-45.158409	56.813664	-45.158409	56.813664	-0.218746	-125.724016
6.100000	-0.170529	-95.928134	-44.989501	55.259653	-44.989501	55.259653	-0.221910	-126.623735
6.150000	-0.173050	-96.627632	-44.823617	53.705938	-44.823617	53.705938	-0.225082	-127.523260
6.200000	-0.175637	-97.324758	-44.658694	52.155478	-44.658694	52.155478	-0.228331	-128.420647
6.250000	-0.178225	-98.021884	-44.496845	50.605017	-44.496845	50.605017	-0.231580	-129.318033
6.300000	-0.180888	-98.716492	-44.335786	49.058154	-44.335786	49.058154	-0.234914	-130.213305
6.350000	-0.183552	-99.411100	-44.177660	47.511292	-44.177660	47.511292	-0.238249	-131.108577
6.400000	-0.186286	-100.103465	-44.020521	45.967767	-44.020521	45.967767	-0.241663	-132.002115
6.450000	-0.189027	-100.795626	-43.866010	44.424545	-43.866010	44.424545	-0.245084	-132.895495
6.500000	-0.191834	-101.485811	-43.712656	42.884387	-43.712656	42.884387	-0.248579	-133.787488
6.550000	-0.194655	-102.175601	-43.561658	41.344842	-43.561658	41.344842	-0.252089	-134.679203
6.600000	-0.197536	-102.863670	-43.411959	39.808077	-43.411959	39.808077	-0.255665	-135.569841
6.650000	-0.200438	-103.551166	-43.264377	38.272239	-43.264377	38.272239	-0.259264	-136.460121
6.700000	-0.203395	-104.237185	-43.118213	36.738890	-43.118213	36.738890	-0.262923	-137.349600
6.750000	-0.206380	-104.922467	-42.973953	35.206785	-42.973953	35.206785	-0.266613	-138.238679
6.800000	-0.209415	-105.606504	-42.831209	33.676870	-42.831209	33.676870	-0.270355	-139.127194
6.850000	-0.212485	-106.289653	-42.690182	32.148518	-42.690182	32.148518	-0.274136	-140.015308
6.900000	-0.215598	-106.971779	-42.550750	30.622051	-42.550750	30.622051	-0.277964	-140.903059
6.950000	-0.218755	-107.652880	-42.412872	29.097468	-42.412872	29.097468	-0.281837	-141.790448
7.000000	-0.221948	-108.333165	-42.276648	27.574460	-42.276648	27.574460	-0.285750	-142.677637
7.050000	-0.225193	-109.012306	-42.141839	26.053656	-42.141839	26.053656	-0.289717	-143.564545
7.100000	-0.228461	-109.690975	-42.008814	24.533799	-42.008814	24.533799	-0.293708	-144.451384
7.150000	-0.231787	-110.368436	-41.877102	23.016386	-41.877102	23.016386	-0.297760	-145.338069
7.200000	-0.235157	-111.045027	-41.746873	21.500789	-41.746873	21.500789	-0.301858	-146.224716
7.250000	-0.238571	-111.720770	-41.618107	19.987006	-41.618107	19.987006	-0.306000	-147.111384
7.300000	-0.242029	-112.395686	-41.490785	18.475038	-41.490785	18.475038	-0.310189	-147.998130
7.350000	-0.245532	-113.069798	-41.364889	16.964883	-41.364889	16.964883	-0.314424	-148.885013
7.400000	-0.249081	-113.743127	-41.240399	15.456541	-41.240399	15.456541	-0.318705	-149.772090
7.450000	-0.252675	-114.415696	-41.117298	13.950009	-41.117298	13.950009	-0.323032	-150.659420
7.500000	-0.256315	-115.087526	-40.995568	12.445286	-40.995568	12.445286	-0.327405	-151.547063
7.550000	-0.260004	-115.758611	-40.875179	10.942446	-40.875179	10.942446	-0.331827	-152.435097
7.600000	-0.263739	-116.429006	-40.756130	9.441409	-40.756130	9.441409	-0.336296	-153.323567
7.650000	-0.267522	-117.098733	-40.638404	7.942171	-40.638404	7.942171	-0.340811	-154.212535
7.700000	-0.271352	-117.767817	-40.521986	6.444728	-40.521986	6.444728	-0.345372	-155.102061
7.750000	-0.275230	-118.436280	-40.406860	4.949076	-40.406860	4.949076	-0.349981	-155.992204
7.800000	-0.279156	-119.104148	-40.293012	3.455210	-40.293012	3.455210	-0.354636	-156.883027
7.850000	-0.283130	-119.771444	-40.180428	1.963125	-40.180428	1.963125	-0.359338	-157.774590
7.900000	-0.287153	-120.438192	-40.069093	0.472816	-40.069093	0.472816	-0.364087	-158.666955
7.950000	-0.291226	-121.104418	-39.958993	-1.015723	-39.958993	-1.015723	-0.368882	-159.560183
8.000000	-0.295347	-121.770146	-39.850116	-2.502497	-39.850116	-2.502497	-0.373725	-160.454338
8.050000	-0.299519	-122.435402	-39.742449	-3.987513	-39.742449	-3.987513	-0.378614	-161.349480
8.100000	-0.303740	-123.100211	-39.635978	-5.470777	-39.635978	-5.470777	-0.383549	-162.245674
8.150000	-0.308012	-123.764599	-39.530694	-6.952297	-39.530694	-6.952297	-0.388531	-163.142982
8.200000	-0.312334	-124.428591	-39.426582	-8.432078	-39.426582	-8.432078	-0.393560	-164.041466
8.250000	-0.316708	-125.092215	-39.323634	-9.910129	-39.323634	-9.910129	-0.398634	-164.941192
8.300000	-0.321132	-125.755496	-39.221836	-11.386456	-39.221836	-11.386456	-0.403755	-165.842221
8.350000	-0.325608	-126.418461	-39.121180	-12.861068	-39.121180	-12.861068	-0.408922	-166.744619
8.400000	-0.330135	-127.081137	-39.021654	-14.333971	-39.021654	-14.333971	-0.414134	-167.648450
8.450000	-0.334714	-127.743553	-38.923250	-15.805173	-38.923250	-15.805173	-0.419392	-168.553777
8.500000	-0.339345	-128.405734	-38.825957	-17.274683	-38.825957	-17.274683	-0.424695	-169.460666
8.550000	-0.344029	-129.067710	-38.729767	-18.742508	-38.729767	-18.742508	-0.430043	-170.369182
8.600000	-0.348764	-129.729507	-38.634671	-20.208657	-38.634671	-20.208657	-0.435436	-171.279389
8.650000	-0.353553	-130.391156	-38.540660	-21.673136	-38.540660	-21.673136	-0.440873	-172.191354
8.700000	-0.358394	-131.052683	-38.447727	-23.135955	-38.447727	-23.135955	-0.446354	-173.105142
8.750000	-0.363289	-131.714119	-38.355863	-24.597120	-38.355863	-24.597120	-0.451879	-174.020818
8.800000	-0.368238	-132.375491	-38.265068	-26.056569	-38.265068	-26.056569	-0.457448	-174.938536
8.850000	-0.373241	-133.036832	-38.175329	-27.514381	-38.175329	-27.514381	-0.463060	-175.858281
8.900000	-0.378297	-133.698174	-38.086640	-28.970563	-38.086640	-28.970563	-0.468714	-176.780120
8.950000	-0.383407	-134.359545	-37.998996	-30.425123	-37.998996	-30.425123	-0.474410	-177.704117
9.000000	-0.388571	-135.020976	-37.912389	-31.878067	-37.912389	-31.878067	-0.480147	-178.630341
9.050000	-0.393788	-135.682498	-37.826815	-33.329402	-37.826815	-33.329402	-0.485924	-179.558857
9.100000	-0.399059	-136.344142	-37.742267	-34.779134	-37.742267	-34.779134	-0.491741	179.510267
9.150000	-0.404383	-137.005940	-37.658742	-36.227269	-37.658742	-36.227269	-0.497597	178.576965
9.200000	-0.409762	-137.667923	-37.576233	-37.673813	-37.576233	-37.673813	-0.503492	177.641169
9.250000	-0.415194	-138.330123	-37.494737	-39.118770	-37.494737	-39.118770	-0.509424	176.702812
9.300000	-0.420680	-138.992573	-37.414250	-40.562146	-37.414250	-40.562146	-0.515393	175.761828
9.350000	-0.426220	-139.655305	-37.334768	-42.003943	-37.334768	-42.003943	-0.521399	174.818148
9.400000	-0.431814	-140.318353	-37.256287	-43.444166	-37.256287	-43.444166	-0.527439	173.871706
9.450000	-0.437461	-140.981749	-37.178804	-44.882817	-37.178804	-44.882817	-0.533514	172.922435
9.500000	-0.443162	-141.645528	-37.102316	-46.319897	-37.102316	-46.319897	-0.539621	171.970267
9.550000	-0.448917	-142.309723	-37.026821	-47.755409	-37.026821	-47.755409	-0.545762	171.015135
9.600000	-0.454725	-142.974370	-36.952315	-49.189353	-36.952315	-49.189353	-0.551933	170.056972
9.650000	-0.460586	-143.639502	-36.878798	-50.621728	-36.878798	-50.621728	-0.558134	169.095711
9.700000	-0.466501	-144.305155	-36.806267	-52.052532	-36.806267	-52.052532	-0.564364	168.131286
9.750000	-0.472468	-144.971365	-36.734721	-53.481765	-36.734721	-53.481765	-0.570622	167.163629
9.800000	-0.478488	-145.638167	-36.664157	-54.909422	-36.664157	-54.909422	-0.576905	166.192674
9.850000	-0.484560	-146.305598	-36.594576	-56.335499	-36.594576	-56.335499	-0.583214	165.218354
9.900000	-0.490685	-146.973695	-36.525976	-57.759992	-36.525976	-57.759992	-0.589547	164.240604
9.950000	-0.496862	-147.642494	-36.458357	-59.182893	-36.458357	-59.182893	-0.595901	163.259358
10.000000	-0.503090	-148.312034	-36.391718	-60.604195	-36.391718	-60.604195	-0.602276	162.274550
