! freq	dB(S11)	phase(S11)	dB(S12)	phase(S12)	
!     	dB(S21)	phase(S21)	dB(S22)	phase(S22)	
!S-par simulation data
#  GHz  S  DB  R 50
0.000000	-0.000000	-0.000000	-367.872454	180.000000	-367.872454	180.000000	-0.000000	-0.000000
0.050000	-0.000566	-0.856057	-106.055841	88.818864	-106.055841	88.818864	-0.001196	-1.785028
0.100000	-0.001869	-1.707632	-100.077057	87.488669	-100.077057	87.488669	-0.003968	-3.560555
0.150000	-0.003304	-2.554522	-96.624670	86.209867	-96.624670	86.209867	-0.007047	-5.325896
0.200000	-0.004591	-3.398487	-94.228327	84.967199	-94.228327	84.967199	-0.009834	-7.084476
0.250000	-0.005733	-4.241190	-92.415603	83.760425	-92.415603	83.760425	-0.012316	-8.839706
0.300000	-0.006768	-5.083262	-90.985870	82.599403	-90.985870	82.599403	-0.014567	-10.592724
0.350000	-0.007752	-5.925035	-89.830423	81.494604	-89.830423	81.494604	-0.016690	-12.344051
0.400000	-0.008721	-6.766623	-88.886143	80.459608	-88.886143	80.459608	-0.018760	-14.093723
0.450000	-0.009704	-7.608035	-88.120281	79.519234	-88.120281	79.519234	-0.020827	-15.841383
0.500000	-0.010710	-8.449264	-87.497205	78.684910	-87.497205	78.684910	-0.022917	-17.586942
0.550000	-0.011745	-9.290273	-86.998765	77.979653	-86.998765	77.979653	-0.025038	-19.330112
0.600000	-0.012804	-10.131015	-86.612540	77.431918	-86.612540	77.431918	-0.027192	-21.070600
0.650000	-0.013884	-10.971431	-86.330124	77.077333	-86.330124	77.077333	-0.029374	-22.808113
0.700000	-0.014977	-11.811455	-86.146011	76.961079	-86.146011	76.961079	-0.031578	-24.542365
0.750000	-0.016075	-12.650972	-86.062464	77.164159	-86.062464	77.164159	-0.033796	-26.272845
0.800000	-0.017171	-13.489890	-86.076627	77.775279	-86.076627	77.775279	-0.036019	-27.999266
0.850000	-0.018262	-14.328192	-86.176289	78.846082	-86.176289	78.846082	-0.038238	-29.721830
0.900000	-0.019344	-15.165714	-86.368220	80.582295	-86.368220	80.582295	-0.040445	-31.439800
0.950000	-0.020416	-16.002404	-86.640978	83.154041	-86.640978	83.154041	-0.042636	-33.153103
1.000000	-0.021479	-16.838196	-86.977355	86.806283	-86.977355	86.806283	-0.044804	-34.861513
1.050000	-0.022536	-17.673035	-87.342418	91.828659	-87.342418	91.828659	-0.046946	-36.564814
1.100000	-0.023587	-18.506879	-87.672032	98.501692	-87.672032	98.501692	-0.049060	-38.262808
1.150000	-0.024635	-19.339695	-87.864063	106.955145	-87.864063	106.955145	-0.051143	-39.955308
1.200000	-0.025683	-20.171459	-87.789571	116.934774	-87.789571	116.934774	-0.053196	-41.642144
1.250000	-0.026730	-21.002153	-87.342859	127.637536	-87.342859	127.637536	-0.055219	-43.323157
1.300000	-0.027779	-21.831738	-86.498552	137.882757	-86.498552	137.882757	-0.057212	-44.998070
1.350000	-0.028829	-22.660228	-85.354100	146.733097	-85.354100	146.733097	-0.059176	-46.666880
1.400000	-0.029882	-23.487612	-84.037620	153.816297	-84.037620	153.816297	-0.061114	-48.329465
1.450000	-0.030938	-24.313881	-82.657275	159.198668	-82.657275	159.198668	-0.063027	-49.985719
1.500000	-0.031995	-25.139026	-81.282442	163.143371	-81.282442	163.143371	-0.064917	-51.635543
1.550000	-0.033055	-25.963039	-79.950208	165.944999	-79.950208	165.944999	-0.066787	-53.278850
1.600000	-0.034117	-26.785910	-78.677182	167.860092	-78.677182	167.860092	-0.068637	-54.915561
1.650000	-0.035181	-27.607629	-77.468622	169.091472	-77.468622	169.091472	-0.070472	-56.545604
1.700000	-0.036246	-28.428072	-76.315999	169.751779	-76.315999	169.751779	-0.072289	-58.168256
1.750000	-0.037312	-29.247441	-75.232422	170.045424	-75.232422	170.045424	-0.074096	-59.784708
1.800000	-0.038379	-30.065626	-74.205356	170.011471	-74.205356	170.011471	-0.075891	-61.394329
1.850000	-0.039448	-30.882614	-73.230316	169.715729	-73.230316	169.715729	-0.077676	-62.997078
1.900000	-0.040516	-31.698393	-72.302955	169.208472	-72.302955	169.208472	-0.079453	-64.592921
1.950000	-0.041586	-32.512950	-71.419237	168.528523	-71.419237	168.528523	-0.081223	-66.181831
2.000000	-0.042657	-33.326272	-70.575493	167.706203	-70.575493	167.706203	-0.082987	-67.763785
2.050000	-0.043728	-34.138346	-69.768426	166.765450	-69.768426	166.765450	-0.084748	-69.338768
2.100000	-0.044800	-34.949159	-68.995090	165.725371	-68.995090	165.725371	-0.086504	-70.906769
2.150000	-0.045874	-35.758696	-68.252854	164.601365	-68.252854	164.601365	-0.088259	-72.467784
2.200000	-0.046948	-36.566945	-67.539374	163.405967	-67.539374	163.405967	-0.090011	-74.021813
2.250000	-0.048025	-37.373891	-66.852556	162.149465	-66.852556	162.149465	-0.091764	-75.568862
2.300000	-0.049103	-38.179520	-66.190523	160.840377	-66.190523	160.840377	-0.093517	-77.108942
2.350000	-0.050184	-38.983820	-65.551594	159.485810	-65.551594	159.485810	-0.095270	-78.642069
2.400000	-0.051267	-39.786776	-64.934254	158.091733	-64.934254	158.091733	-0.097026	-80.168263
2.450000	-0.052353	-40.588375	-64.337139	156.663197	-64.337139	156.663197	-0.098784	-81.687550
2.500000	-0.053443	-41.388603	-63.759010	155.204499	-63.759010	155.204499	-0.100545	-83.199961
2.550000	-0.054536	-42.187386	-63.197956	153.718316	-63.197956	153.718316	-0.102311	-84.705234
2.600000	-0.055633	-42.984771	-62.653844	152.209060	-62.653844	152.209060	-0.104080	-86.203710
2.650000	-0.056735	-43.780744	-62.125730	150.679423	-62.125730	150.679423	-0.105856	-87.695432
2.700000	-0.057842	-44.575294	-61.612750	149.131745	-61.612750	149.131745	-0.107636	-89.180449
2.750000	-0.058955	-45.368407	-61.114115	147.568076	-61.114115	147.568076	-0.109424	-90.658814
2.800000	-0.060073	-46.160072	-60.629096	145.990215	-60.629096	145.990215	-0.111218	-92.130584
2.850000	-0.061197	-46.950277	-60.157025	144.399745	-60.157025	144.399745	-0.113020	-93.595819
2.900000	-0.062329	-47.739010	-59.697281	142.798072	-59.697281	142.798072	-0.114830	-95.054585
2.950000	-0.063467	-48.526260	-59.249293	141.186439	-59.249293	141.186439	-0.116650	-96.506949
3.000000	-0.064613	-49.312016	-58.812530	139.565956	-58.812530	139.565956	-0.118478	-97.952984
3.050000	-0.065767	-50.096269	-58.386498	137.937614	-58.386498	137.937614	-0.120317	-99.392764
3.100000	-0.066930	-50.879006	-57.970737	136.302303	-57.970737	136.302303	-0.122167	-100.826368
3.150000	-0.068102	-51.660220	-57.564820	134.660821	-57.564820	134.660821	-0.124027	-102.253879
3.200000	-0.069283	-52.439900	-57.168345	133.013889	-57.168345	133.013889	-0.125900	-103.675381
3.250000	-0.070474	-53.218038	-56.780937	131.362156	-56.780937	131.362156	-0.127786	-105.090962
3.300000	-0.071676	-53.994625	-56.402246	129.706215	-56.402246	129.706215	-0.129684	-106.500713
3.350000	-0.072888	-54.769653	-56.031941	128.046599	-56.031941	128.046599	-0.131597	-107.904727
3.400000	-0.074111	-55.543114	-55.669711	126.383799	-55.669711	126.383799	-0.133524	-109.303101
3.450000	-0.075346	-56.315002	-55.315265	124.718259	-55.315265	124.718259	-0.135466	-110.695933
3.500000	-0.076593	-57.085308	-54.968327	123.050387	-54.968327	123.050387	-0.137424	-112.083324
3.550000	-0.077853	-57.854026	-54.628637	121.380557	-54.628637	121.380557	-0.139398	-113.465378
3.600000	-0.079125	-58.621152	-54.295948	119.709112	-54.295948	119.709112	-0.141390	-114.842200
3.650000	-0.080411	-59.386678	-53.970028	118.036369	-53.970028	118.036369	-0.143399	-116.213899
3.700000	-0.081711	-60.150601	-53.650655	116.362619	-53.650655	116.362619	-0.145427	-117.580583
3.750000	-0.083025	-60.912914	-53.337621	114.688131	-53.337621	114.688131	-0.147473	-118.942364
3.800000	-0.084354	-61.673545	-53.030522	113.013143	-53.030522	113.013143	-0.149541	-120.299153
3.850000	-0.085699	-62.432558	-52.729394	111.337916	-52.729394	111.337916	-0.151628	-121.651279
3.900000	-0.087058	-63.189951	-52.434054	109.662661	-52.434054	109.662661	-0.153737	-122.998858
3.950000	-0.088434	-63.945721	-52.144329	107.987576	-52.144329	107.987576	-0.155867	-124.342008
4.000000	-0.089826	-64.699865	-51.860054	106.312843	-51.860054	106.312843	-0.158019	-125.680850
4.050000	-0.091235	-65.452381	-51.581072	104.638632	-51.581072	104.638632	-0.160195	-127.015505
4.100000	-0.092661	-66.203269	-51.307232	102.965104	-51.307232	102.965104	-0.162393	-128.346095
4.150000	-0.094105	-66.952526	-51.038391	101.292405	-51.038391	101.292405	-0.164616	-129.672744
4.200000	-0.095567	-67.700153	-50.774411	99.620673	-50.774411	99.620673	-0.166864	-130.995577
4.250000	-0.097047	-68.446149	-50.515159	97.950038	-50.515159	97.950038	-0.169137	-132.314720
4.300000	-0.098546	-69.190514	-50.260511	96.280620	-50.260511	96.280620	-0.171435	-133.630300
4.350000	-0.100064	-69.933249	-50.010344	94.612531	-50.010344	94.612531	-0.173760	-134.942444
4.400000	-0.101602	-70.674355	-49.764543	92.945876	-49.764543	92.945876	-0.176112	-136.251281
4.450000	-0.103160	-71.413833	-49.522996	91.280752	-49.522996	91.280752	-0.178492	-137.556942
4.500000	-0.104739	-72.151686	-49.285596	89.617250	-49.285596	89.617250	-0.180899	-138.859555
4.550000	-0.106338	-72.887916	-49.052240	87.955456	-49.052240	87.955456	-0.183335	-140.159254
4.600000	-0.107959	-73.622525	-48.822829	86.295450	-48.822829	86.295450	-0.185799	-141.456168
4.650000	-0.109601	-74.355517	-48.597268	84.637304	-48.597268	84.637304	-0.188294	-142.750431
4.700000	-0.111266	-75.086896	-48.375465	82.981087	-48.375465	82.981087	-0.190817	-144.042176
4.750000	-0.112953	-75.816664	-48.157331	81.326864	-48.157331	81.326864	-0.193372	-145.331536
4.800000	-0.114663	-76.544827	-47.942783	79.674693	-47.942783	79.674693	-0.195957	-146.618645
4.850000	-0.116396	-77.271390	-47.731737	78.024630	-47.731737	78.024630	-0.198573	-147.903639
4.900000	-0.118154	-77.996357	-47.524115	76.376726	-47.524115	76.376726	-0.201220	-149.186651
4.950000	-0.119935	-78.719735	-47.319841	74.731028	-47.319841	74.731028	-0.203899	-150.467817
5.000000	-0.121741	-79.441528	-47.118842	73.087580	-47.118842	73.087580	-0.206610	-151.747274
5.050000	-0.123573	-80.161675	-46.920991	71.446524	-46.920991	71.446524	-0.209355	-153.025094
5.100000	-0.125431	-80.880252	-46.726282	69.807799	-46.726282	69.807799	-0.212133	-154.301490
5.150000	-0.127314	-81.597266	-46.534650	68.171440	-46.534650	68.171440	-0.214944	-155.576597
5.200000	-0.129224	-82.312724	-46.346031	66.537478	-46.346031	66.537478	-0.217787	-156.850553
5.250000	-0.131160	-83.026634	-46.160364	64.905943	-46.160364	64.905943	-0.220664	-158.123495
5.300000	-0.133124	-83.739004	-45.977589	63.276862	-45.977589	63.276862	-0.223575	-159.395560
5.350000	-0.135115	-84.449842	-45.797649	61.650262	-45.797649	61.650262	-0.226519	-160.666886
5.400000	-0.137134	-85.159158	-45.620491	60.026165	-45.620491	60.026165	-0.229496	-161.937610
5.450000	-0.139181	-85.866961	-45.446060	58.404594	-45.446060	58.404594	-0.232508	-163.207871
5.500000	-0.141258	-86.573260	-45.274306	56.785571	-45.274306	56.785571	-0.235553	-164.477806
5.550000	-0.143363	-87.278065	-45.105181	55.169115	-45.105181	55.169115	-0.238633	-165.747554
5.600000	-0.145498	-87.981386	-44.938636	53.555247	-44.938636	53.555247	-0.241746	-167.017252
5.650000	-0.147663	-88.683233	-44.774626	51.943984	-44.774626	51.943984	-0.244892	-168.287039
5.700000	-0.149859	-89.383618	-44.613107	50.335346	-44.613107	50.335346	-0.248073	-169.557053
5.750000	-0.152085	-90.082552	-44.454039	48.729351	-44.454039	48.729351	-0.251287	-170.827432
5.800000	-0.154343	-90.780045	-44.297379	47.126017	-44.297379	47.126017	-0.254535	-172.098314
5.850000	-0.156632	-91.476111	-44.143089	45.525364	-44.143089	45.525364	-0.257816	-173.369837
5.900000	-0.158954	-92.170760	-43.991132	43.927410	-43.991132	43.927410	-0.261130	-174.642139
5.950000	-0.161308	-92.864005	-43.841471	42.332176	-43.841471	42.332176	-0.264477	-175.915358
6.000000	-0.163695	-93.555858	-43.694073	40.739684	-43.694073	40.739684	-0.267857	-177.189631
6.050000	-0.166115	-94.246333	-43.548903	39.149955	-43.548903	39.149955	-0.271269	-178.465097
6.100000	-0.168569	-94.935443	-43.405930	37.563012	-43.405930	37.563012	-0.274714	-179.741892
6.150000	-0.171057	-95.623201	-43.265124	35.978883	-43.265124	35.978883	-0.278190	178.979846
6.200000	-0.173580	-96.309621	-43.126454	34.397592	-43.126454	34.397592	-0.281697	177.699980
6.250000	-0.176138	-96.994717	-42.989893	32.819170	-42.989893	32.819170	-0.285235	176.418374
6.300000	-0.178733	-97.678447	-42.855413	31.243776	-42.855413	31.243776	-0.288805	175.134804
6.350000	-0.181364	-98.360882	-42.722992	29.671319	-42.722992	29.671319	-0.292405	173.849209
6.400000	-0.184031	-99.042039	-42.592604	28.101835	-42.592604	28.101835	-0.296035	172.561454
6.450000	-0.186735	-99.721931	-42.464225	26.535363	-42.464225	26.535363	-0.299693	171.271404
6.500000	-0.189475	-100.400575	-42.337832	24.971946	-42.337832	24.971946	-0.303380	169.978924
6.550000	-0.192254	-101.077985	-42.213402	23.411630	-42.213402	23.411630	-0.307095	168.683882
6.600000	-0.195070	-101.754179	-42.090914	21.854462	-42.090914	21.854462	-0.310836	167.386142
6.650000	-0.197924	-102.429170	-41.970346	20.300494	-41.970346	20.300494	-0.314605	166.085573
6.700000	-0.200818	-103.102977	-41.851678	18.749781	-41.851678	18.749781	-0.318399	164.782043
6.750000	-0.203750	-103.775616	-41.734892	17.202383	-41.734892	17.202383	-0.322218	163.475420
6.800000	-0.206722	-104.447103	-41.619967	15.658361	-41.619967	15.658361	-0.326062	162.165574
6.850000	-0.209733	-105.117455	-41.506885	14.117781	-41.506885	14.117781	-0.329930	160.852375
6.900000	-0.212785	-105.786690	-41.395629	12.580714	-41.395629	12.580714	-0.333821	159.535696
6.950000	-0.215878	-106.454825	-41.286180	11.047232	-41.286180	11.047232	-0.337734	158.215409
7.000000	-0.219011	-107.121878	-41.178523	9.517414	-41.178523	9.517414	-0.341668	156.891387
7.050000	-0.222186	-107.787866	-41.072639	7.991340	-41.072639	7.991340	-0.345623	155.563505
7.100000	-0.225403	-108.452809	-40.968513	6.469096	-40.968513	6.469096	-0.349598	154.231640
7.150000	-0.228662	-109.116724	-40.866128	4.950770	-40.866128	4.950770	-0.353591	152.895668
7.200000	-0.231963	-109.779629	-40.765469	3.436456	-40.765469	3.436456	-0.357603	151.555470
7.250000	-0.235308	-110.441545	-40.666518	1.926251	-40.666518	1.926251	-0.361632	150.210925
7.300000	-0.238695	-111.102488	-40.569260	0.420254	-40.569260	0.420254	-0.365678	148.861915
7.350000	-0.242126	-111.762480	-40.473680	-1.081430	-40.473680	-1.081430	-0.369739	147.508326
7.400000	-0.245602	-112.421539	-40.379761	-2.578693	-40.379761	-2.578693	-0.373814	146.150042
7.450000	-0.249121	-113.079685	-40.287488	-4.071423	-40.287488	-4.071423	-0.377904	144.786953
7.500000	-0.252685	-113.736938	-40.196844	-5.559508	-40.196844	-5.559508	-0.382006	143.418947
7.550000	-0.256296	-114.393281	-40.107844	-7.042615	-40.107844	-7.042615	-0.386121	142.045693
7.600000	-0.259952	-115.048773	-40.020442	-8.520825	-40.020442	-8.520825	-0.390247	140.667302
7.650000	-0.263654	-115.703435	-39.934621	-9.994014	-39.934621	-9.994014	-0.394382	139.283669
7.700000	-0.267402	-116.357286	-39.850364	-11.462056	-39.850364	-11.462056	-0.398528	137.894696
7.750000	-0.271196	-117.010349	-39.767654	-12.924819	-39.767654	-12.924819	-0.402682	136.500287
7.800000	-0.275037	-117.662645	-39.686472	-14.382173	-39.686472	-14.382173	-0.406843	135.100346
7.850000	-0.278925	-118.314194	-39.606801	-15.833984	-39.606801	-15.833984	-0.411012	133.694783
7.900000	-0.282860	-118.965018	-39.528623	-17.280114	-39.528623	-17.280114	-0.415187	132.283512
7.950000	-0.286842	-119.615139	-39.451917	-18.720428	-39.451917	-18.720428	-0.419368	130.866448
8.000000	-0.290872	-120.264579	-39.376665	-20.154784	-39.376665	-20.154784	-0.423553	129.443512
8.050000	-0.294950	-120.913361	-39.302846	-21.583044	-39.302846	-21.583044	-0.427743	128.014626
8.100000	-0.299077	-121.561505	-39.230440	-23.005065	-39.230440	-23.005065	-0.431936	126.579720
8.150000	-0.303252	-122.209036	-39.159426	-24.420706	-39.159426	-24.420706	-0.436132	125.138723
8.200000	-0.307476	-122.855976	-39.089782	-25.829823	-39.089782	-25.829823	-0.440331	123.691574
8.250000	-0.311749	-123.502347	-39.021486	-27.232273	-39.021486	-27.232273	-0.444532	122.238213
8.300000	-0.316071	-124.148174	-38.954516	-28.627915	-38.954516	-28.627915	-0.448735	120.778585
8.350000	-0.320443	-124.793479	-38.888848	-30.016604	-38.888848	-30.016604	-0.452939	119.312642
8.400000	-0.324864	-125.438286	-38.824458	-31.398199	-38.824458	-31.398199	-0.457145	117.840338
8.450000	-0.329335	-126.082618	-38.761322	-32.772559	-38.761322	-32.772559	-0.461351	116.361636
8.500000	-0.333857	-126.726501	-38.699415	-34.139542	-38.699415	-34.139542	-0.465559	114.876502
8.550000	-0.338429	-127.369958	-38.638711	-35.499010	-38.638711	-35.499010	-0.469767	113.384909
8.600000	-0.343051	-128.013014	-38.579185	-36.850824	-38.579185	-36.850824	-0.473977	111.886835
8.650000	-0.347724	-128.655693	-38.520808	-38.194849	-38.520808	-38.194849	-0.478187	110.382266
8.700000	-0.352448	-129.298020	-38.463556	-39.530950	-38.463556	-39.530950	-0.482399	108.871191
8.750000	-0.357222	-129.940021	-38.407398	-40.858994	-38.407398	-40.858994	-0.486613	107.353609
8.800000	-0.362050	-130.581709	-38.352338	-42.178490	-38.352338	-42.178490	-0.490830	105.829243
8.850000	-0.366929	-131.223123	-38.298316	-43.489661	-38.298316	-43.489661	-0.495049	104.298387
8.900000	-0.371860	-131.864290	-38.245300	-44.792383	-38.245300	-44.792383	-0.499272	102.761062
8.950000	-0.376841	-132.505236	-38.193263	-46.086532	-38.193263	-46.086532	-0.503499	101.217294
9.000000	-0.381875	-133.145987	-38.142173	-47.371991	-38.142173	-47.371991	-0.507732	99.667119
9.050000	-0.386959	-133.786569	-38.091999	-48.648644	-38.091999	-48.648644	-0.511972	98.110578
9.100000	-0.392096	-134.427010	-38.042712	-49.916378	-38.042712	-49.916378	-0.516219	96.547722
9.150000	-0.397284	-135.067336	-37.994278	-51.175083	-37.994278	-51.175083	-0.520476	94.978610
9.200000	-0.402523	-135.707575	-37.946667	-52.424654	-37.946667	-52.424654	-0.524743	93.403308
9.250000	-0.407814	-136.347755	-37.899846	-53.664989	-37.899846	-53.664989	-0.529022	91.821891
9.300000	-0.413157	-136.987902	-37.853782	-54.895987	-37.853782	-54.895987	-0.533315	90.234443
9.350000	-0.418551	-137.628046	-37.808444	-56.117554	-37.808444	-56.117554	-0.537624	88.641055
9.400000	-0.423997	-138.268214	-37.763798	-57.329597	-37.763798	-57.329597	-0.541951	87.041829
9.450000	-0.429495	-138.908435	-37.719811	-58.532029	-37.719811	-58.532029	-0.546298	85.436874
9.500000	-0.435044	-139.548737	-37.676449	-59.724764	-37.676449	-59.724764	-0.550668	83.826308
9.550000	-0.440644	-140.189151	-37.633680	-60.907721	-37.633680	-60.907721	-0.555062	82.210258
9.600000	-0.446295	-140.829706	-37.591469	-62.080822	-37.591469	-62.080822	-0.559483	80.588862
9.650000	-0.451997	-141.470430	-37.549783	-63.243994	-37.549783	-63.243994	-0.563935	78.962263
9.700000	-0.457751	-142.111354	-37.508587	-64.397166	-37.508587	-64.397166	-0.568420	77.330617
9.750000	-0.463555	-142.752509	-37.467849	-65.540269	-37.467849	-65.540269	-0.572941	75.694085
9.800000	-0.469409	-143.393924	-37.427534	-66.673242	-37.427534	-66.673242	-0.577500	74.052841
9.850000	-0.475314	-144.035631	-37.387607	-67.796022	-37.387607	-67.796022	-0.582103	72.407064
9.900000	-0.481269	-144.677661	-37.348035	-68.908553	-37.348035	-68.908553	-0.586750	70.756945
9.950000	-0.487273	-145.320045	-37.308785	-70.010780	-37.308785	-70.010780	-0.591447	69.102680
10.000000	-0.493327	-145.962815	-37.269821	-71.102652	-37.269821	-71.102652	-0.596197	67.444478
