! freq	dB(S11)	phase(S11)	dB(S12)	phase(S12)	
!     	dB(S21)	phase(S21)	dB(S22)	phase(S22)	
!S-par simulation data
#  GHz  S  DB  R 50
0.000000	-82.845114	0.000000	-0.000626	0.000000	-0.000626	0.000000	-82.845114	0.000000
0.050000	-37.877964	-92.690360	-0.005495	-3.160467	-0.005495	-3.160467	-37.886187	-92.724760
0.100000	-31.900038	-95.978246	-0.014011	-6.282287	-0.014011	-6.282287	-31.903437	-96.011781
0.150000	-28.427601	-99.226728	-0.022513	-9.386201	-0.022513	-9.386201	-28.429340	-99.252240
0.200000	-25.982679	-102.457989	-0.031442	-12.483599	-0.031442	-12.483599	-25.984537	-102.486725
0.250000	-24.103714	-105.661456	-0.041292	-15.576477	-0.041292	-15.576477	-24.106136	-105.704977
0.300000	-22.586717	-108.834212	-0.052230	-18.664382	-0.052230	-18.664382	-22.589707	-108.900944
0.350000	-21.320541	-111.980263	-0.064149	-21.747177	-0.064149	-21.747177	-21.324029	-112.076157
0.400000	-20.240547	-115.101892	-0.076970	-24.824472	-0.076970	-24.824472	-20.244489	-115.232461
0.450000	-19.307212	-118.199993	-0.090635	-27.895569	-0.090635	-27.895569	-19.311595	-118.371690
0.500000	-18.488730	-121.279135	-0.104926	-30.961045	-0.104926	-30.961045	-18.493552	-121.498731
0.550000	-17.767459	-124.338916	-0.119770	-34.020314	-0.119770	-34.020314	-17.772734	-124.615318
0.600000	-17.127000	-127.381326	-0.135001	-37.073738	-0.135001	-37.073738	-17.132747	-127.724653
0.650000	-16.556735	-130.406533	-0.150487	-40.121303	-0.150487	-40.121303	-16.562981	-130.828962
0.700000	-16.047466	-133.415111	-0.166085	-43.163315	-0.166085	-43.163315	-16.054243	-133.930524
0.750000	-15.592590	-136.406962	-0.181651	-46.200024	-0.181651	-46.200024	-15.599940	-137.031419
0.800000	-15.186567	-139.381997	-0.197042	-49.231843	-0.197042	-49.231843	-15.194543	-140.133732
0.850000	-14.825549	-142.339585	-0.212104	-52.259203	-0.212104	-52.259203	-14.834216	-143.239708
0.900000	-14.504822	-145.280028	-0.226712	-55.282896	-0.226712	-55.282896	-14.514253	-146.351395
0.950000	-14.221980	-148.202470	-0.240723	-58.303564	-0.240723	-58.303564	-14.232265	-149.471227
1.000000	-13.974660	-151.106225	-0.254004	-61.322044	-0.254004	-61.322044	-13.985906	-152.601787
1.050000	-13.760957	-153.990439	-0.266429	-64.339283	-0.266429	-64.339283	-13.773289	-155.745917
1.100000	-13.579363	-156.854056	-0.277878	-67.356335	-0.277878	-67.356335	-13.592927	-158.906771
1.150000	-13.428715	-159.695777	-0.288242	-70.374362	-0.288242	-70.374362	-13.443681	-162.087872
1.200000	-13.308162	-162.513989	-0.297422	-73.394629	-0.297422	-73.394629	-13.324731	-165.293181
1.250000	-13.217146	-165.306701	-0.305332	-76.418501	-0.305332	-76.418501	-13.235549	-168.527166
1.300000	-13.156009	-168.070759	-0.311865	-79.447584	-0.311865	-79.447584	-13.176528	-171.795773
1.350000	-13.124125	-170.803585	-0.316993	-82.483361	-0.316993	-82.483361	-13.147084	-175.104234
1.400000	-13.121751	-173.501274	-0.320673	-85.527476	-0.320673	-85.527476	-13.147533	-178.459282
1.450000	-13.149416	-176.158934	-0.322881	-88.581656	-0.322881	-88.581656	-13.178479	178.131282
1.500000	-13.207938	-178.770429	-0.323610	-91.647703	-0.323610	-91.647703	-13.240834	174.658345
1.550000	-13.298440	178.671968	-0.322875	-94.727489	-0.322875	-94.727489	-13.335839	171.111163
1.600000	-13.422378	176.178023	-0.320711	-97.822949	-0.320711	-97.822949	-13.465101	167.476942
1.650000	-13.581569	173.760138	-0.317180	-100.936071	-0.317180	-100.936071	-13.630634	163.740270
1.700000	-13.778227	171.434148	-0.312364	-104.068888	-0.312364	-104.068888	-13.834910	159.882357
1.750000	-14.015002	169.220400	-0.306377	-107.223470	-0.306377	-107.223470	-14.080920	155.879980
1.800000	-14.295011	167.145232	-0.299359	-110.401908	-0.299359	-110.401908	-14.372243	151.704022
1.850000	-14.621862	165.243022	-0.291482	-113.606306	-0.291482	-113.606306	-14.713116	147.317413
1.900000	-14.999931	163.561372	-0.282949	-116.839014	-0.282949	-116.839014	-15.108801	142.669482
1.950000	-15.433628	162.162616	-0.274010	-120.102176	-0.274010	-120.102176	-15.564944	137.694821
2.000000	-15.927102	161.127204	-0.264954	-123.397625	-0.264954	-123.397625	-16.087393	132.309370
2.050000	-16.484164	160.566601	-0.256101	-126.727387	-0.256101	-126.727387	-16.682399	126.395398
2.100000	-17.106566	160.632314	-0.247814	-130.093433	-0.247814	-130.093433	-17.355138	119.789908
2.150000	-17.791153	161.528868	-0.240492	-133.497656	-0.240492	-133.497656	-18.107083	112.265812
2.200000	-18.524267	163.528749	-0.234577	-136.941945	-0.234577	-136.941945	-18.930237	103.505367
2.250000	-19.271195	166.972477	-0.230560	-140.428161	-0.230560	-140.428161	-19.794721	93.080081
2.300000	-19.963139	172.178326	-0.228936	-143.957369	-0.228936	-143.957369	-20.629511	80.528300
2.350000	-20.485094	179.296012	-0.230251	-147.530691	-0.230251	-147.530691	-21.298270	65.524593
2.400000	-20.690506	-171.998250	-0.235082	-151.148932	-0.235082	-151.148932	-21.605164	48.333041
2.450000	-20.466765	-162.684685	-0.244038	-154.812541	-0.244038	-154.812541	-21.385381	30.193104
2.500000	-19.814571	-154.081226	-0.257760	-158.521574	-0.257760	-158.521574	-20.638044	12.897617
2.550000	-18.844266	-147.197562	-0.276988	-162.276217	-0.276988	-162.276217	-19.523721	-2.260211
2.600000	-17.709655	-142.323792	-0.302342	-166.075044	-0.302342	-166.075044	-18.247106	-15.043808
2.650000	-16.524072	-139.311323	-0.334581	-169.917113	-0.334581	-169.917113	-16.943366	-25.767247
2.700000	-15.360025	-137.784901	-0.374171	-173.799359	-0.374171	-173.799359	-15.687830	-34.943077
2.750000	-14.247853	-137.455068	-0.421983	-177.720539	-0.421983	-177.720539	-14.506457	-42.938052
2.800000	-13.201737	-138.052619	-0.478784	178.321877	-0.478784	178.321877	-13.408117	-50.060451
2.850000	-12.227778	-139.331736	-0.544762	174.332857	-0.544762	174.332857	-12.394327	-56.566552
2.900000	-11.322606	-141.165223	-0.620870	170.314885	-0.620870	170.314885	-11.458406	-62.587206
2.950000	-10.483204	-143.428882	-0.707578	166.272542	-0.707578	166.272542	-10.594900	-68.240353
3.000000	-9.705554	-146.028461	-0.805196	162.210856	-0.805196	162.210856	-9.798056	-73.610199
3.050000	-8.985186	-148.897228	-0.914095	158.134773	-0.914095	158.134773	-9.062180	-78.752684
3.100000	-8.317915	-151.983579	-1.034616	154.049503	-1.034616	154.049503	-8.382206	-83.707731
3.150000	-7.699859	-155.242842	-1.166795	149.960522	-1.166795	149.960522	-7.753606	-88.507498
3.200000	-7.127503	-158.643146	-1.310839	145.873254	-1.310839	145.873254	-7.172396	-93.171793
3.250000	-6.597563	-162.155283	-1.466642	141.793086	-1.466642	141.793086	-6.634933	-97.717754
3.300000	-6.107026	-165.756161	-1.634085	137.725189	-1.634085	137.725189	-6.137937	-102.157066
3.350000	-5.653292	-169.427179	-1.813071	133.674790	-1.813071	133.674790	-5.678605	-106.497016
3.400000	-5.233616	-173.150866	-2.003194	129.646226	-2.003194	129.646226	-5.254030	-110.745516
3.450000	-4.845744	-176.913888	-2.204190	125.643978	-2.204190	125.643978	-4.861834	-114.906318
3.500000	-4.487541	179.295544	-2.415686	121.672106	-2.415686	121.672106	-4.499784	-118.982530
3.550000	-4.157123	175.487536	-2.637275	117.734565	-2.637275	117.734565	-4.165919	-122.975901
3.600000	-3.851852	171.671023	-2.868302	113.832484	-2.868302	113.832484	-3.857532	-126.892576
3.650000	-3.570271	167.852662	-3.108411	109.969181	-3.108411	109.969181	-3.573117	-130.732341
3.700000	-3.310653	164.038378	-3.357116	106.146576	-3.357116	106.146576	-3.310906	-134.497030
3.750000	-3.071378	160.233052	-3.613931	102.366118	-3.613931	102.366118	-3.069244	-138.188429
3.800000	-2.851187	156.441001	-3.878359	98.629768	-3.878359	98.629768	-2.846844	-141.806832
3.850000	-2.648363	152.665134	-4.149937	94.937183	-4.149937	94.937183	-2.641964	-145.355705
3.900000	-2.461567	148.907856	-4.428246	91.288566	-4.428246	91.288566	-2.453246	-148.837003
3.950000	-2.289553	145.170966	-4.712901	87.683792	-4.712901	87.683792	-2.279426	-152.252775
4.000000	-2.131160	141.455742	-5.003555	84.122448	-5.003555	84.122448	-2.119330	-155.605160
4.050000	-1.985310	137.763014	-5.299906	80.603877	-5.299906	80.603877	-1.971866	-158.896382
4.100000	-1.851006	134.093234	-5.601693	77.127212	-5.601693	77.127212	-1.836026	-162.128732
4.150000	-1.727324	130.446538	-5.908705	73.691415	-5.908705	73.691415	-1.710879	-165.304557
4.200000	-1.613413	126.822799	-6.220776	70.295318	-6.220776	70.295318	-1.595565	-168.426248
4.250000	-1.508489	123.221677	-6.537791	66.937643	-6.537791	66.937643	-1.489290	-171.496215
4.300000	-1.411830	119.642664	-6.859682	63.617042	-6.859682	63.617042	-1.391329	-174.516881
4.350000	-1.322773	116.085116	-7.186434	60.332117	-7.186434	60.332117	-1.301012	-177.490667
4.400000	-1.240775	112.548508	-7.517991	57.081798	-7.517991	57.081798	-1.217788	179.580481
4.450000	-1.165263	109.031997	-7.854430	53.864607	-7.854430	53.864607	-1.141082	176.694101
4.500000	-1.095666	105.534493	-8.195969	50.678752	-8.195969	50.678752	-1.070315	173.847368
4.550000	-1.031518	102.055104	-8.542794	47.522843	-8.542794	47.522843	-1.005020	171.037976
4.600000	-0.972398	98.592928	-8.895145	44.395528	-8.895145	44.395528	-0.944767	168.263668
4.650000	-0.917918	95.147067	-9.253315	41.295508	-9.253315	41.295508	-0.889168	165.522233
4.700000	-0.867726	91.716637	-9.617655	38.221543	-9.617655	38.221543	-0.837864	162.811509
4.750000	-0.821500	88.300774	-9.988571	35.172466	-9.988571	35.172466	-0.790531	160.129387
4.800000	-0.778948	84.898644	-10.366536	32.147185	-10.366536	32.147185	-0.746872	157.473805
4.850000	-0.739803	81.509449	-10.752088	29.144696	-10.752088	29.144696	-0.706617	154.842753
4.900000	-0.703821	78.132425	-11.145839	26.164089	-11.145839	26.164089	-0.669519	152.234263
4.950000	-0.670781	74.766849	-11.548481	23.204558	-11.548481	23.204558	-0.635353	149.646413
5.000000	-0.640481	71.412037	-11.960795	20.265408	-11.960795	20.265408	-0.603916	147.077315
5.050000	-0.612876	68.067914	-12.383088	17.347235	-12.383088	17.347235	-0.575158	144.526002
5.100000	-0.587612	64.733105	-12.817067	14.448118	-12.817067	14.448118	-0.548724	141.989354
5.150000	-0.564544	61.407074	-13.263860	11.567814	-13.263860	11.567814	-0.524469	139.465640
5.200000	-0.543541	58.089315	-13.724744	8.706252	-13.724744	8.706252	-0.502261	136.953143
5.250000	-0.524483	54.779352	-14.201170	5.863555	-14.201170	5.863555	-0.481980	134.450146
5.300000	-0.507261	51.476737	-14.694795	3.040077	-14.694795	3.040077	-0.463518	131.954922
5.350000	-0.491855	48.181365	-15.207016	0.237469	-15.207016	0.237469	-0.446857	129.465935
5.400000	-0.478193	44.892894	-15.739792	-2.542713	-15.739792	-2.542713	-0.431928	126.981219
5.450000	-0.466082	41.610477	-16.296319	-5.300299	-16.296319	-5.300299	-0.418545	124.498556
5.500000	-0.455450	38.333741	-16.879549	-8.033206	-16.879549	-8.033206	-0.406643	122.016052
5.550000	-0.446230	35.062322	-17.492954	-10.738626	-17.492954	-10.738626	-0.396169	119.531727
5.600000	-0.438366	31.795853	-18.140661	-13.412795	-18.140661	-13.412795	-0.387076	117.043499
5.650000	-0.431803	28.533968	-18.827627	-16.050687	-18.827627	-16.050687	-0.379329	114.549150
5.700000	-0.426614	25.276665	-19.558547	-18.640419	-19.558547	-18.640419	-0.373033	112.045208
5.750000	-0.422652	22.023171	-20.341665	-21.174627	-20.341665	-21.174627	-0.368069	109.529433
5.800000	-0.419859	18.772993	-21.186362	-23.640275	-21.186362	-23.640275	-0.364416	106.999070
5.850000	-0.418202	15.525685	-22.104255	-26.017854	-22.104255	-26.017854	-0.362091	104.450877
5.900000	-0.417652	12.280766	-23.110389	-28.279257	-23.110389	-28.279257	-0.361128	101.881206
5.950000	-0.418186	9.037709	-24.224724	-30.382845	-24.224724	-30.382845	-0.361583	99.285912
6.000000	-0.419813	5.795952	-25.473560	-32.254636	-25.473560	-32.254636	-0.363585	96.659117
6.050000	-0.422569	2.554788	-26.892342	-33.751047	-26.892342	-33.751047	-0.367356	93.992412
6.100000	-0.426347	-0.686629	-28.538157	-34.685131	-28.538157	-34.685131	-0.372930	91.281647
6.150000	-0.431134	-3.929145	-30.494589	-34.662237	-30.494589	-34.662237	-0.380530	88.518648
6.200000	-0.436917	-7.173724	-32.893627	-32.845813	-32.893627	-32.845813	-0.390459	85.693522
6.250000	-0.443685	-10.421478	-35.938547	-27.206665	-35.938547	-27.206665	-0.403122	82.794141
6.300000	-0.451426	-13.673701	-39.789052	-12.169815	-39.789052	-12.169815	-0.419073	79.805435
6.350000	-0.460207	-16.932548	-42.559965	24.401759	-42.559965	24.401759	-0.439484	76.697775
6.400000	-0.469960	-20.199673	-40.675584	62.973189	-40.675584	62.973189	-0.465325	73.450581
6.450000	-0.480656	-23.477201	-37.468722	80.436986	-37.468722	80.436986	-0.498124	70.033664
6.500000	-0.492332	-26.768554	-35.033927	86.802450	-35.033927	86.802450	-0.540731	66.393683
6.550000	-0.504993	-30.077060	-33.360412	88.873372	-33.360412	88.873372	-0.596601	62.475586
6.600000	-0.518771	-33.408981	-32.343672	89.199321	-32.343672	89.199321	-0.672902	58.170619
6.650000	-0.533859	-36.771162	-31.961556	89.126305	-31.961556	89.126305	-0.779971	53.349930
6.700000	-0.550816	-40.175047	-32.383785	90.194696	-32.383785	90.194696	-0.938116	47.786981
6.750000	-0.570743	-43.633705	-33.980617	96.364695	-33.980617	96.364695	-1.180357	41.190153
6.800000	-0.596534	-47.169945	-36.730021	125.254292	-36.730021	125.254292	-1.580874	32.990297
6.850000	-0.634711	-50.807972	-32.735205	179.376337	-32.735205	179.376337	-2.296333	22.284194
6.900000	-0.699783	-54.552941	-25.186332	-168.780320	-25.186332	-168.780320	-3.711355	7.446656
6.950000	-0.814760	-58.295409	-19.364235	-177.430028	-19.364235	-177.430028	-6.866204	-14.634833
7.000000	-0.981183	-61.685873	-15.240266	164.744548	-15.240266	164.744548	-15.423550	-60.362197
7.050000	-1.125717	-64.496769	-12.843613	143.961671	-12.843613	143.961671	-13.142304	156.762014
7.100000	-1.188542	-67.169693	-11.759469	125.749303	-11.759469	125.749303	-6.597406	122.074056
7.150000	-1.203475	-70.107051	-11.318547	111.825288	-11.318547	111.825288	-4.060788	103.571427
7.200000	-1.211175	-73.316665	-11.098472	101.354894	-11.098472	101.354894	-2.861665	90.958846
7.250000	-1.226650	-76.707110	-10.925655	93.176339	-10.925655	93.176339	-2.225352	81.616565
7.300000	-1.252670	-80.216268	-10.742807	86.465946	-10.742807	86.465946	-1.861329	74.266205
7.350000	-1.288571	-83.811743	-10.535731	80.693524	-10.535731	80.693524	-1.641975	68.178169
7.400000	-1.333493	-87.480901	-10.303610	75.550285	-10.303610	75.550285	-1.508527	62.947909
7.450000	-1.386759	-91.219722	-10.049783	70.834331	-10.049783	70.834331	-1.429477	58.317423
7.500000	-1.447973	-95.028826	-9.778478	66.411036	-9.778478	66.411036	-1.387027	54.117231
7.550000	-1.516976	-98.911100	-9.493660	62.189618	-9.493660	62.189618	-1.370779	50.234226
7.600000	-1.593531	-102.867873	-9.199404	58.101874	-9.199404	58.101874	-1.373675	46.581873
7.650000	-1.678032	-106.906086	-8.897750	54.109560	-8.897750	54.109560	-1.392576	43.115932
7.700000	-1.771449	-111.039656	-8.589668	50.182152	-8.589668	50.182152	-1.425934	39.806921
7.750000	-1.873648	-115.268578	-8.278315	46.288556	-8.278315	46.288556	-1.471058	36.613672
7.800000	-1.985203	-119.600488	-7.965065	42.410506	-7.965065	42.410506	-1.527141	33.517398
7.850000	-2.107085	-124.047973	-7.650720	38.532532	-7.650720	38.532532	-1.594073	30.506505
7.900000	-2.240286	-128.624107	-7.336249	34.640368	-7.336249	34.640368	-1.671854	27.571181
7.950000	-2.385110	-133.332260	-7.023319	30.724207	-7.023319	30.724207	-1.759954	24.700375
8.000000	-2.542400	-138.182888	-6.712853	26.775710	-6.712853	26.775710	-1.858543	21.890173
8.050000	-2.713737	-143.198312	-6.405338	22.784676	-6.405338	22.784676	-1.968507	19.142688
8.100000	-2.899657	-148.386543	-6.102146	18.745994	-6.102146	18.745994	-2.089787	16.456322
8.150000	-3.100734	-153.756444	-5.804416	14.656123	-5.804416	14.656123	-2.222432	13.832140
8.200000	-3.317808	-159.322533	-5.513090	10.511204	-5.513090	10.511204	-2.366744	11.274707
8.250000	-3.552492	-165.120135	-5.229140	6.303202	-5.229140	6.303202	-2.523691	8.797444
8.300000	-3.804233	-171.147636	-4.953929	2.035690	-4.953929	2.035690	-2.692422	6.402638
8.350000	-4.073208	-177.421727	-4.688485	-2.291702	-4.688485	-2.291702	-2.872753	4.099970
8.400000	-4.359421	176.030942	-4.434006	-6.680171	-4.434006	-6.680171	-3.064429	1.904265
8.450000	-4.661929	169.182273	-4.191917	-11.128988	-4.191917	-11.128988	-3.266573	-0.167249
8.500000	-4.978588	162.031037	-3.963025	-15.631196	-3.963025	-15.631196	-3.477425	-2.108012
8.550000	-5.306874	154.561340	-3.748251	-20.182309	-3.748251	-20.182309	-3.695189	-3.905399
8.600000	-5.642484	146.737882	-3.549189	-24.778953	-3.549189	-24.778953	-3.917233	-5.536996
8.650000	-5.979746	138.562013	-3.366430	-29.411850	-3.366430	-29.411850	-4.140150	-6.996998
8.700000	-6.312331	130.043380	-3.200206	-34.071833	-3.200206	-34.071833	-4.360417	-8.284248
8.750000	-6.632516	121.191076	-3.050896	-38.750329	-3.050896	-38.750329	-4.574036	-9.397115
8.800000	-6.928566	112.008432	-2.919805	-43.437917	-2.919805	-43.437917	-4.775219	-10.328330
8.850000	-7.192671	102.558218	-2.806009	-48.123692	-2.806009	-48.123692	-4.960305	-11.100677
8.900000	-7.413376	92.894320	-2.709995	-52.796741	-2.709995	-52.796741	-5.123867	-11.727745
8.950000	-7.586391	83.106922	-2.630280	-57.448223	-2.630280	-57.448223	-5.263916	-12.244155
9.000000	-7.703016	73.286709	-2.567240	-62.066520	-2.567240	-62.066520	-5.375876	-12.676615
9.050000	-7.765470	63.533944	-2.518997	-66.645001	-2.518997	-66.645001	-5.460231	-13.066065
9.100000	-7.775737	53.936417	-2.484527	-71.176575	-2.484527	-71.176575	-5.516958	-13.446616
9.150000	-7.736207	44.590890	-2.463365	-75.651521	-2.463365	-75.651521	-5.545731	-13.854634
9.200000	-7.656276	35.559515	-2.453737	-80.065699	-2.453737	-80.065699	-5.549908	-14.322338
9.250000	-7.545712	26.873497	-2.453917	-84.417307	-2.453917	-84.417307	-5.533429	-14.871696
9.300000	-7.412853	18.555383	-2.462565	-88.703854	-2.462565	-88.703854	-5.499779	-15.520136
9.350000	-7.264869	10.646461	-2.478809	-92.917840	-2.478809	-92.917840	-5.451822	-16.290501
9.400000	-7.110757	3.106651	-2.500545	-97.064918	-2.500545	-97.064918	-5.394763	-17.179448
9.450000	-6.956227	-4.082283	-2.526442	-101.146537	-2.526442	-101.146537	-5.332044	-18.187198
9.500000	-6.806265	-10.921382	-2.555344	-105.160580	-2.555344	-105.160580	-5.266737	-19.318927
9.550000	-6.664838	-17.447971	-2.585828	-109.112063	-2.585828	-109.112063	-5.201953	-20.565754
9.600000	-6.534928	-23.688431	-2.616679	-113.004480	-2.616679	-113.004480	-5.140216	-21.921358
9.650000	-6.418821	-29.669180	-2.646751	-116.842000	-2.646751	-116.842000	-5.083704	-23.378579
9.700000	-6.318417	-35.414047	-2.674941	-120.629013	-2.674941	-120.629013	-5.034388	-24.930741
9.750000	-6.235441	-40.944705	-2.700155	-124.370298	-2.700155	-124.370298	-4.994161	-26.571781
9.800000	-6.170655	-46.289815	-2.721507	-128.073005	-2.721507	-128.073005	-4.964371	-28.292454
9.850000	-6.125068	-51.470364	-2.738118	-131.743467	-2.738118	-131.743467	-4.946496	-30.086484
9.900000	-6.099656	-56.505616	-2.749166	-135.388486	-2.749166	-135.388486	-4.942039	-31.948158
9.950000	-6.095437	-61.413118	-2.753879	-139.015341	-2.753879	-139.015341	-4.952618	-33.872240
10.000000	-6.113526	-66.208702	-2.751531	-142.631818	-2.751531	-142.631818	-4.980056	-35.853771
