! freq	dB(S11)	phase(S11)	dB(S12)	phase(S12)	
!     	dB(S21)	phase(S21)	dB(S22)	phase(S22)	
!S-par simulation data
#  GHz  S  DB  R 50
0.000000	-151.587098	0.000000	-0.000000	0.000000	0.000000	0.000000	-6153.053111	0.000000
0.050000	-36.347895	-92.596923	-0.007089	-3.154592	-0.007089	-3.154592	-36.352595	-93.129338
0.100000	-30.415744	-95.668259	-0.014883	-6.268891	-0.014883	-6.268891	-30.419932	-96.720309
0.150000	-26.955917	-98.690869	-0.024171	-9.373974	-0.024171	-9.373974	-26.961778	-100.266405
0.200000	-24.511250	-101.648911	-0.035053	-12.470520	-0.035053	-12.470520	-24.518283	-103.744511
0.250000	-22.629649	-104.560958	-0.047486	-15.558783	-0.047486	-15.558783	-22.637224	-107.174901
0.300000	-21.107479	-107.442911	-0.061359	-18.639879	-0.061359	-18.639879	-21.115253	-110.574555
0.350000	-19.835034	-110.303596	-0.076579	-21.714394	-0.076579	-21.714394	-19.842876	-113.952019
0.400000	-18.747376	-113.147729	-0.093096	-24.782261	-0.093096	-24.782261	-18.755242	-117.311438
0.450000	-17.804685	-115.977509	-0.110922	-27.842591	-0.110922	-27.842591	-17.812556	-120.654250
0.500000	-16.976485	-118.796069	-0.129843	-30.895551	-0.129843	-30.895551	-16.984340	-123.983281
0.550000	-16.242205	-121.604701	-0.149717	-33.940908	-0.149717	-33.940908	-16.250016	-127.299507
0.600000	-15.587337	-124.404035	-0.170408	-36.978267	-0.170408	-36.978267	-15.595069	-130.603172
0.650000	-15.001645	-127.194311	-0.191759	-40.007108	-0.191759	-40.007108	-15.009253	-133.893982
0.700000	-14.474631	-129.976653	-0.213546	-43.028009	-0.213546	-43.028009	-14.482072	-137.172940
0.750000	-13.999318	-132.751541	-0.235595	-46.041096	-0.235595	-46.041096	-14.006546	-140.440136
0.800000	-13.571288	-135.519190	-0.257721	-49.046233	-0.257721	-49.046233	-13.578254	-143.695057
0.850000	-13.185531	-138.280490	-0.279722	-52.043998	-0.279722	-52.043998	-13.192185	-146.938092
0.900000	-12.838010	-141.036371	-0.301413	-55.035019	-0.301413	-55.035019	-12.844302	-150.169597
0.950000	-12.525791	-143.787821	-0.322608	-58.019914	-0.322608	-58.019914	-12.531666	-153.389770
1.000000	-12.246334	-146.536046	-0.343123	-60.999473	-0.343123	-60.999473	-12.251735	-156.598947
1.050000	-11.997538	-149.282440	-0.362783	-63.974608	-0.362783	-63.974608	-12.002405	-159.797528
1.100000	-11.777675	-152.028594	-0.381416	-66.946356	-0.381416	-66.946356	-11.781938	-162.985962
1.150000	-11.585333	-154.776301	-0.398859	-69.915877	-0.398859	-69.915877	-11.588919	-166.164735
1.200000	-11.419383	-157.527561	-0.414957	-72.884452	-0.414957	-72.884452	-11.422210	-169.334348
1.250000	-11.278954	-160.284593	-0.429565	-75.853479	-0.429565	-75.853479	-11.280928	-172.495296
1.300000	-11.164163	-163.050196	-0.442490	-78.824591	-0.442490	-78.824591	-11.165175	-175.647785
1.350000	-11.073868	-165.826926	-0.453656	-81.799432	-0.453656	-81.799432	-11.073795	-178.792488
1.400000	-11.007887	-168.617792	-0.462954	-84.779773	-0.462954	-84.779773	-11.006589	178.070313
1.450000	-10.966262	-171.426122	-0.470286	-87.767501	-0.470286	-87.767501	-10.963574	174.940490
1.500000	-10.949268	-174.255598	-0.475570	-90.764623	-0.475570	-90.764623	-10.944995	171.818122
1.550000	-10.957423	-177.110325	-0.478740	-93.773266	-0.478740	-93.773266	-10.951336	168.703569
1.600000	-10.991510	-179.994892	-0.479748	-96.795676	-0.479748	-96.795676	-10.983334	165.597563
1.650000	-11.052607	177.085522	-0.478567	-99.834220	-0.478567	-99.834220	-11.042012	162.501321
1.700000	-11.139310	174.129560	-0.475404	-102.889352	-0.475404	-102.889352	-11.125935	159.415371
1.750000	-11.258576	171.122768	-0.469868	-105.967213	-0.469868	-105.967213	-11.241905	156.344538
1.800000	-11.410245	168.060796	-0.462195	-109.068954	-0.462195	-109.068954	-11.389675	153.291611
1.850000	-11.597088	164.934494	-0.452457	-112.197418	-0.452457	-112.197418	-11.571871	150.261807
1.900000	-11.822922	161.731975	-0.440742	-115.355925	-0.440742	-115.355925	-11.792101	147.262758
1.950000	-12.092063	158.439410	-0.427198	-118.547661	-0.427198	-118.547661	-12.054409	144.304813
2.000000	-12.409419	155.040892	-0.412036	-121.775503	-0.412036	-121.775503	-12.363339	141.401588
2.050000	-12.781571	151.515146	-0.395487	-125.042758	-0.395487	-125.042758	-12.724951	138.572440
2.100000	-13.216801	147.834391	-0.377837	-128.352839	-0.377837	-128.352839	-13.146772	135.844516
2.150000	-13.725654	143.961239	-0.359423	-131.709246	-0.359423	-131.709246	-13.638228	133.256436
2.200000	-14.321741	139.843632	-0.340641	-135.115552	-0.340641	-135.115552	-14.211208	130.864184
2.250000	-15.022921	135.406209	-0.321949	-138.575363	-0.321949	-138.575363	-14.880824	128.750856
2.300000	-15.853039	130.534866	-0.303873	-142.092274	-0.303873	-142.092274	-15.666349	127.043417
2.350000	-16.844485	125.047593	-0.287010	-145.669806	-0.287010	-145.669806	-16.592168	125.942656
2.400000	-18.041709	118.635885	-0.272034	-149.311340	-0.272034	-149.311340	-17.687944	125.778802
2.450000	-19.504664	110.738865	-0.259708	-153.020038	-0.259708	-153.020038	-18.984874	127.117078
2.500000	-21.304347	100.257233	-0.250879	-156.798760	-0.250879	-156.798760	-20.496757	130.951475
2.550000	-23.454216	84.701840	-0.246614	-160.651603	-0.246614	-160.651603	-22.136865	139.122120
2.600000	-25.561047	59.781528	-0.247881	-164.578987	-0.247881	-164.578987	-23.510758	153.669083
2.650000	-26.106058	24.762410	-0.255815	-168.582245	-0.255815	-168.582245	-23.775428	173.616188
2.700000	-24.233836	-7.139458	-0.271634	-172.661980	-0.271634	-172.661980	-22.540351	-167.940116
2.750000	-21.529503	-28.214883	-0.296629	-176.817941	-0.296629	-176.817941	-20.520086	-155.986438
2.800000	-19.025839	-41.938582	-0.332147	178.951098	-0.332147	178.951098	-18.424845	-149.870634
2.850000	-16.886711	-51.870680	-0.379573	174.647444	-0.379573	174.647444	-16.510746	-147.507913
2.900000	-15.064085	-59.809923	-0.440301	170.274580	-0.440301	170.274580	-14.817283	-147.427257
2.950000	-13.493284	-66.635951	-0.515418	165.838322	-0.515418	165.838322	-13.325350	-148.760065
3.000000	-12.119969	-72.763939	-0.606906	161.342025	-0.606906	161.342025	-12.002738	-151.058701
3.050000	-10.907773	-78.459963	-0.715657	156.794491	-0.715657	156.794491	-10.824825	-154.000756
3.100000	-9.828946	-83.863927	-0.842792	152.204106	-0.842792	152.204106	-9.770101	-157.402652
3.150000	-8.863006	-89.059185	-0.989371	147.580158	-0.989371	147.580158	-8.821661	-161.142947
3.200000	-7.994577	-94.097774	-1.156171	142.933080	-1.156171	142.933080	-7.966288	-165.134177
3.250000	-7.211640	-99.011820	-1.343664	138.273916	-1.343664	138.273916	-7.193321	-169.311366
3.300000	-6.504578	-103.819834	-1.552191	133.613847	-1.552191	133.613847	-6.494022	-173.625922
3.350000	-5.865961	-108.530023	-1.782224	128.964576	-1.782224	128.964576	-5.861540	-178.040907
3.400000	-5.288411	-113.151560	-2.032980	124.336470	-2.032980	124.336470	-5.288924	177.478926
3.450000	-4.766479	-117.684490	-2.304448	119.740066	-2.304448	119.740066	-4.771004	172.957588
3.500000	-4.295105	-122.128733	-2.596141	115.184932	-2.596141	115.184932	-4.302927	168.416712
3.550000	-3.869749	-126.483188	-2.907427	110.679647	-2.907427	110.679647	-3.880305	163.874334
3.600000	-3.486289	-130.746393	-3.237565	106.231654	-3.237565	106.231654	-3.499134	159.345406
3.650000	-3.140948	-134.916972	-3.585748	101.847180	-3.585748	101.847180	-3.155722	154.842162
3.700000	-2.830248	-138.993933	-3.951142	97.531205	-3.951142	97.531205	-2.846663	150.374429
3.750000	-2.550980	-142.976840	-4.332926	93.287481	-4.332926	93.287481	-2.568799	145.949888
3.800000	-2.300597	-146.863878	-4.730240	89.120253	-4.730240	89.120253	-2.319629	141.575477
3.850000	-2.075900	-150.658009	-5.142394	85.029389	-5.142394	85.029389	-2.095991	137.254246
3.900000	-1.874377	-154.360780	-5.568825	81.015378	-5.568825	81.015378	-1.895405	132.988740
3.950000	-1.693732	-157.974312	-6.009111	77.077883	-6.009111	77.077883	-1.715603	128.780251
4.000000	-1.532659	-161.496626	-6.462418	73.219920	-6.462418	73.219920	-1.555301	124.632096
4.050000	-1.387758	-164.939267	-6.929630	69.432474	-6.929630	69.432474	-1.411127	120.537934
4.100000	-1.257996	-168.301806	-7.410515	65.716802	-7.410515	65.716802	-1.282065	116.498785
4.150000	-1.141818	-171.587888	-7.905475	62.070538	-7.905475	62.070538	-1.166585	112.512533
4.200000	-1.037827	-174.801350	-8.415186	58.491104	-8.415186	58.491104	-1.063310	108.576519
4.250000	-0.944770	-177.946162	-8.940644	54.975821	-8.940644	54.975821	-0.971009	104.687612
4.300000	-0.861523	178.973616	-9.483211	51.522010	-9.483211	51.522010	-0.888583	100.842272
4.350000	-0.787083	175.953877	-10.044689	48.127101	-10.044689	48.127101	-0.815057	97.036578
4.400000	-0.720557	172.990487	-10.627407	44.788763	-10.627407	44.788763	-0.749568	93.266247
4.450000	-0.661152	170.079307	-11.234356	41.505058	-11.234356	41.505058	-0.691358	89.526623
4.500000	-0.608165	167.216193	-11.869357	38.274650	-11.869357	38.274650	-0.639765	85.812643
4.550000	-0.560980	164.396992	-12.537315	35.097106	-12.537315	35.097106	-0.594221	82.118780
4.600000	-0.519055	161.617530	-13.244573	31.973359	-13.244573	31.973359	-0.554246	78.438951
4.650000	-0.481924	158.873579	-13.999443	28.906442	-13.999443	28.906442	-0.519443	74.766384
4.700000	-0.449187	156.160812	-14.813000	25.902720	-14.813000	25.902720	-0.489507	71.093439
4.750000	-0.420517	153.474748	-15.700333	22.974026	-15.700333	22.974026	-0.464226	67.411356
4.800000	-0.395654	150.810661	-16.682584	20.141595	-16.682584	20.141595	-0.443491	63.709912
4.850000	-0.374416	148.163461	-17.790437	17.443689	-17.790437	17.443689	-0.427318	59.976944
4.900000	-0.356710	145.527534	-19.070472	14.951529	-19.070472	14.951529	-0.415884	56.197682
4.950000	-0.342551	142.896512	-20.597673	12.805630	-20.597673	12.805630	-0.409571	52.353794
5.000000	-0.332102	140.262944	-22.502723	11.308041	-22.502723	11.308041	-0.409061	48.421996
5.050000	-0.326133	137.615779	-25.048735	11.556464	-25.048735	11.556464	-0.416222	44.358256
5.100000	-0.324570	134.946905	-28.789103	15.991758	-28.789103	15.991758	-0.431524	40.146339
5.150000	-0.329527	132.236589	-34.321852	45.577444	-34.321852	45.577444	-0.459715	35.698551
5.200000	-0.342505	129.469201	-33.616660	113.663607	-33.616660	113.663607	-0.504671	30.955680
5.250000	-0.367790	126.613997	-27.055145	140.017202	-27.055145	140.017202	-0.576519	25.777126
5.300000	-0.411495	123.637624	-22.341839	143.044455	-22.341839	143.044455	-0.690114	19.994982
5.350000	-0.488955	120.476916	-18.660675	140.376381	-18.660675	140.376381	-0.883173	13.235304
5.400000	-0.626840	117.078784	-15.468028	134.686050	-15.468028	134.686050	-1.226451	4.983472
5.450000	-0.888605	113.430950	-12.465019	125.718513	-12.465019	125.718513	-1.908691	-5.816463
5.500000	-1.406240	109.947391	-9.580178	111.958016	-9.580178	111.958016	-3.469398	-21.002564
5.550000	-2.324191	108.973841	-7.114085	90.861641	-7.114085	90.861641	-7.900588	-43.118312
5.600000	-2.970089	114.760463	-6.019177	62.662225	-6.019177	62.662225	-30.071937	72.758918
5.650000	-2.290962	119.939685	-6.871206	35.667917	-6.871206	35.667917	-7.280645	78.037143
5.700000	-1.464312	118.892913	-8.766576	16.360218	-8.766576	16.360218	-3.500594	57.742153
5.750000	-0.988918	115.752406	-10.845842	3.538685	-10.845842	3.538685	-2.099535	43.675544
5.800000	-0.729914	112.411414	-12.872287	-5.437060	-12.872287	-5.437060	-1.453629	33.270081
5.850000	-0.583693	109.234179	-14.830193	-12.032845	-14.830193	-12.032845	-1.122399	25.000181
5.900000	-0.494712	106.237670	-16.800098	-17.088094	-16.800098	-17.088094	-0.936255	17.922381
5.950000	-0.439136	103.390160	-18.860695	-20.852356	-18.860695	-20.852356	-0.831501	11.563382
6.000000	-0.403118	100.648946	-21.149954	-23.280593	-21.149954	-23.280593	-0.774454	5.591835
6.050000	-0.380483	97.988112	-23.844826	-23.547336	-23.844826	-23.547336	-0.751460	-0.190082
6.100000	-0.366786	95.381587	-27.274455	-19.263158	-27.274455	-19.263158	-0.753276	-5.944959
6.150000	-0.360090	92.814546	-31.741025	-2.075202	-31.741025	-2.075202	-0.777000	-11.791605
6.200000	-0.359546	90.276432	-34.062406	45.864378	-34.062406	45.864378	-0.823168	-17.857545
6.250000	-0.364721	87.757779	-29.961945	81.086213	-29.961945	81.086213	-0.894045	-24.282877
6.300000	-0.375462	85.251696	-25.900407	91.585962	-25.900407	91.585962	-0.992795	-31.194786
6.350000	-0.392253	82.754859	-22.829731	92.984090	-22.829731	92.984090	-1.125694	-38.753157
6.400000	-0.416585	80.267608	-20.385643	90.716259	-20.385643	90.716259	-1.305837	-47.243079
6.450000	-0.449512	77.794149	-18.343031	86.545622	-18.343031	86.545622	-1.545470	-56.914494
6.500000	-0.493057	75.347781	-16.570134	80.895744	-16.570134	80.895744	-1.865997	-68.214306
6.550000	-0.548255	72.951045	-15.011079	73.946096	-15.011079	73.946096	-2.286723	-81.601631
6.600000	-0.615369	70.644751	-13.647207	65.652153	-13.647207	65.652153	-2.826950	-97.831079
6.650000	-0.690341	68.475431	-12.497159	56.054449	-12.497159	56.054449	-3.471045	-117.577837
6.700000	-0.763466	66.489685	-11.605675	45.241188	-11.605675	45.241188	-4.127862	-141.523116
6.750000	-0.819211	64.684961	-11.023666	33.562252	-11.023666	33.562252	-4.585572	-169.285294
6.800000	-0.843317	62.985407	-10.781176	21.582104	-10.781176	21.582104	-4.616255	161.337804
6.850000	-0.832281	61.266437	-10.863164	9.944082	-10.863164	9.944082	-4.213845	133.657795
6.900000	-0.794552	59.423308	-11.217481	-0.825046	-11.217481	-0.825046	-3.592539	109.909719
6.950000	-0.744157	57.416526	-11.769115	-10.446832	-11.769115	-10.446832	-2.965532	90.450975
7.000000	-0.692506	55.262353	-12.447475	-18.884422	-12.447475	-18.884422	-2.430224	74.637659
7.050000	-0.645898	52.996201	-13.200217	-26.222252	-13.200217	-26.222252	-2.004938	61.706487
7.100000	-0.606723	50.653624	-13.991758	-32.604955	-13.991758	-32.604955	-1.676516	50.983330
7.150000	-0.575092	48.262063	-14.801110	-38.190074	-14.801110	-38.190074	-1.424186	41.933277
7.200000	-0.550145	45.839893	-15.618031	-43.119853	-15.618031	-43.119853	-1.228979	34.154020
7.250000	-0.531027	43.397773	-16.435281	-47.486344	-16.435281	-47.486344	-1.077772	27.392514
7.300000	-0.516592	40.943152	-17.253701	-51.390510	-17.253701	-51.390510	-0.958675	21.408860
7.350000	-0.506037	38.479892	-18.073774	-54.891975	-18.073774	-54.891975	-0.864143	16.053490
7.400000	-0.498708	36.010217	-18.897052	-58.032532	-18.897052	-58.032532	-0.788601	11.212549
7.450000	-0.494060	33.535337	-19.726360	-60.840947	-19.726360	-60.840947	-0.727830	6.795636
7.500000	-0.491415	31.056369	-20.573927	-63.370134	-20.573927	-63.370134	-0.677488	2.693484
7.550000	-0.491078	28.572061	-21.420968	-65.518980	-21.420968	-65.518980	-0.638288	-1.049075
7.600000	-0.492019	26.084145	-22.300663	-67.398005	-22.300663	-67.398005	-0.604836	-4.595396
7.650000	-0.494158	23.592575	-23.217341	-68.993722	-23.217341	-68.993722	-0.576586	-7.959069
7.700000	-0.497646	21.096245	-24.162030	-70.198823	-24.162030	-70.198823	-0.553804	-11.120552
7.750000	-0.502365	18.594570	-25.136742	-70.889229	-25.136742	-70.889229	-0.535548	-14.103885
7.800000	-0.507905	16.088841	-26.168061	-71.114739	-26.168061	-71.114739	-0.520103	-16.972345
7.850000	-0.514228	13.578992	-27.264371	-70.824608	-27.264371	-70.824608	-0.507221	-19.733387
7.900000	-0.521642	11.062541	-28.389082	-69.460192	-28.389082	-69.460192	-0.497562	-22.352216
7.950000	-0.529764	8.541274	-29.565870	-66.996371	-29.565870	-66.996371	-0.489762	-24.885306
8.000000	-0.538516	6.015536	-30.792186	-63.323013	-30.792186	-63.323013	-0.483531	-27.344707
8.050000	-0.547986	3.484434	-32.014202	-57.934084	-32.014202	-57.934084	-0.478965	-29.723974
8.100000	-0.558293	0.946575	-33.044587	-49.831731	-33.044587	-49.831731	-0.476124	-32.017391
8.150000	-0.569164	-1.596008	-33.837935	-40.061095	-33.837935	-40.061095	-0.474328	-34.257705
8.200000	-0.580594	-4.143351	-34.286687	-28.932227	-34.286687	-28.932227	-0.473522	-36.447327
8.250000	-0.592817	-6.697729	-34.092746	-17.570344	-34.092746	-17.570344	-0.473998	-38.570388
8.300000	-0.605682	-9.257946	-33.487961	-7.905553	-33.487961	-7.905553	-0.475392	-40.645365
8.350000	-0.619093	-11.823166	-32.666698	0.100568	-32.666698	0.100568	-0.477519	-42.682010
8.400000	-0.633100	-14.393903	-31.716392	6.094802	-31.716392	6.094802	-0.480406	-44.678982
8.450000	-0.647948	-16.972674	-30.716428	9.814285	-30.716428	9.814285	-0.484272	-46.625482
8.500000	-0.663356	-19.556803	-29.770527	12.481458	-29.770527	12.481458	-0.488727	-48.542254
8.550000	-0.679331	-22.146366	-28.881007	14.230500	-28.881007	14.230500	-0.493760	-50.430358
8.600000	-0.696081	-24.743558	-28.044816	15.062894	-28.044816	15.062894	-0.499541	-52.282172
8.650000	-0.713576	-27.348217	-27.266587	15.319080	-27.266587	15.319080	-0.505988	-54.103294
8.700000	-0.731678	-29.958961	-26.543266	15.211472	-26.543266	15.211472	-0.512949	-55.901724
8.750000	-0.750397	-32.575912	-25.868246	14.790894	-25.868246	14.790894	-0.520419	-57.678274
8.800000	-0.770137	-35.203703	-25.232575	14.005846	-25.232575	14.005846	-0.528701	-59.422324
8.850000	-0.790549	-37.838628	-24.635003	13.057722	-24.635003	13.057722	-0.537480	-61.148356
8.900000	-0.811646	-40.480909	-24.070784	11.961227	-24.070784	11.961227	-0.546761	-62.856990
8.950000	-0.833633	-43.133051	-23.534461	10.708652	-23.534461	10.708652	-0.556681	-64.544858
9.000000	-0.856625	-45.796761	-23.021601	9.327154	-23.021601	9.327154	-0.567304	-66.212647
9.050000	-0.880407	-48.469590	-22.531207	7.865633	-22.531207	7.865633	-0.578461	-67.866805
9.100000	-0.905004	-51.151872	-22.060825	6.330853	-22.060825	6.330853	-0.590161	-69.507872
9.150000	-0.930906	-53.850214	-21.603873	4.703232	-21.603873	4.703232	-0.602735	-71.130735
9.200000	-0.957832	-56.561218	-21.161150	3.021790	-21.161150	3.021790	-0.615972	-72.742274
9.250000	-0.985747	-59.284473	-20.731764	1.294649	-20.731764	1.294649	-0.629845	-74.344060
9.300000	-1.014878	-62.023121	-20.312596	-0.481336	-20.312596	-0.481336	-0.644496	-75.935208
9.350000	-1.045643	-64.783114	-19.898987	-2.308935	-19.898987	-2.308935	-0.660193	-77.515269
9.400000	-1.077675	-67.559343	-19.494004	-4.168786	-19.494004	-4.168786	-0.676681	-79.088852
9.450000	-1.110994	-70.351946	-19.097198	-6.058904	-19.097198	-6.058904	-0.693969	-80.656592
9.500000	-1.146339	-73.171119	-18.702231	-7.990566	-18.702231	-7.990566	-0.712524	-82.217570
9.550000	-1.183585	-76.014722	-18.310696	-9.955997	-18.310696	-9.955997	-0.732253	-83.774397
9.600000	-1.222937	-78.885071	-17.921548	-11.955658	-17.921548	-11.955658	-0.753275	-85.328383
9.650000	-1.264635	-81.784707	-17.533766	-13.990834	-17.533766	-13.990834	-0.775728	-86.880903
9.700000	-1.308960	-84.716414	-17.146345	-16.063555	-17.146345	-16.063555	-0.799775	-88.433406
9.750000	-1.356239	-87.683230	-16.758288	-18.176556	-16.758288	-18.176556	-0.825607	-89.987440
9.800000	-1.406857	-90.688465	-16.368597	-20.333253	-16.368597	-20.333253	-0.853449	-91.544659
9.850000	-1.461263	-93.735707	-15.976279	-22.537770	-15.976279	-22.537770	-0.883567	-93.106845
9.900000	-1.519983	-96.828834	-15.580345	-24.794998	-15.580345	-24.794998	-0.916276	-94.675931
9.950000	-1.583634	-99.972015	-15.179813	-27.110689	-15.179813	-27.110689	-0.951954	-96.254020
10.000000	-1.652936	-103.169705	-14.773712	-29.491587	-14.773712	-29.491587	-0.991050	-97.843410
