! freq	dB(S11)	phase(S11)	dB(S12)	phase(S12)	
!     	dB(S21)	phase(S21)	dB(S22)	phase(S22)	
!S-par simulation data
#  GHz  S  DB  R 50
0.000000	-87.440652	0.000000	-0.000369	0.000000	-0.000369	0.000000	-87.440652	0.000000
0.050000	-45.403208	-91.687582	-0.002337	-2.115213	-0.002337	-2.115213	-45.402970	-91.687744
0.100000	-39.393175	-94.059338	-0.006478	-4.214361	-0.006478	-4.214361	-39.392981	-94.059657
0.150000	-35.888298	-96.278878	-0.010727	-6.300580	-0.010727	-6.300580	-35.888170	-96.279393
0.200000	-33.412803	-98.459996	-0.014625	-8.380778	-0.014625	-8.380778	-33.412754	-98.460760
0.250000	-31.503867	-100.626355	-0.018330	-10.458529	-0.018330	-10.458529	-31.503897	-100.627433
0.300000	-29.954979	-102.786160	-0.022031	-12.535046	-0.022031	-12.535046	-29.955077	-102.787606
0.350000	-28.655651	-104.942777	-0.025837	-14.610610	-0.025837	-14.610610	-28.655796	-104.944612
0.400000	-27.540112	-107.096959	-0.029802	-16.685178	-0.029802	-16.685178	-27.540278	-107.099144
0.450000	-26.564985	-109.247814	-0.033935	-18.758699	-0.033935	-18.758699	-26.565151	-109.250261
0.500000	-25.701552	-111.393157	-0.038236	-20.831054	-0.038236	-20.831054	-25.701705	-111.395758
0.550000	-24.928870	-113.530920	-0.042689	-22.902195	-0.042689	-22.902195	-24.929010	-113.533590
0.600000	-24.232122	-115.659417	-0.047281	-24.972047	-0.047281	-24.972047	-24.232253	-115.662120
0.650000	-23.599946	-117.778151	-0.051993	-27.040574	-0.051993	-27.040574	-23.600074	-117.780894
0.700000	-23.023670	-119.887472	-0.056808	-29.107741	-0.056808	-29.107741	-23.023800	-119.890292
0.750000	-22.496768	-121.988149	-0.061711	-31.173485	-0.061711	-31.173485	-22.496904	-121.991093
0.800000	-22.013139	-124.081710	-0.066680	-33.237840	-0.066680	-33.237840	-22.013281	-124.084821
0.850000	-21.568214	-126.169322	-0.071702	-35.300793	-0.071702	-35.300793	-21.568363	-126.172632
0.900000	-21.158734	-128.251879	-0.076760	-37.362285	-0.076760	-37.362285	-21.158889	-128.255411
0.950000	-20.781309	-130.330409	-0.081838	-39.422335	-0.081838	-39.422335	-20.781470	-130.334173
1.000000	-20.433334	-132.405654	-0.086919	-41.480944	-0.086919	-41.480944	-20.433501	-132.409654
1.050000	-20.112412	-134.478240	-0.091986	-43.538143	-0.091986	-43.538143	-20.112586	-134.482473
1.100000	-19.816591	-136.548634	-0.097023	-45.593956	-0.097023	-45.593956	-19.816772	-136.553092
1.150000	-19.544195	-138.617200	-0.102013	-47.648423	-0.102013	-47.648423	-19.544384	-138.621872
1.200000	-19.293779	-140.684227	-0.106941	-49.701591	-0.106941	-49.701591	-19.293976	-140.689102
1.250000	-19.064095	-142.749945	-0.111791	-51.753518	-0.111791	-51.753518	-19.064300	-142.755011
1.300000	-18.854213	-144.814533	-0.116544	-53.804260	-0.116544	-53.804260	-18.854427	-144.819777
1.350000	-18.663045	-146.878162	-0.121188	-55.853911	-0.121188	-55.853911	-18.663266	-146.883574
1.400000	-18.490005	-148.940957	-0.125704	-57.902543	-0.125704	-57.902543	-18.490236	-148.946527
1.450000	-18.334013	-151.003065	-0.130083	-59.950284	-0.130083	-59.950284	-18.334251	-151.008784
1.500000	-18.194615	-153.064591	-0.134310	-61.997229	-0.134310	-61.997229	-18.194861	-153.070454
1.550000	-18.071295	-155.125651	-0.138372	-64.043495	-0.138372	-64.043495	-18.071547	-155.131653
1.600000	-17.963614	-157.186355	-0.142258	-66.089207	-0.142258	-66.089207	-17.963872	-157.192494
1.650000	-17.871206	-159.246820	-0.145957	-68.134496	-0.145957	-68.134496	-17.871470	-159.253097
1.700000	-17.793771	-161.307167	-0.149460	-70.179501	-0.149460	-70.179501	-17.794040	-161.313584
1.750000	-17.731074	-163.367522	-0.152760	-72.224366	-0.152760	-72.224366	-17.731347	-163.374083
1.800000	-17.682936	-165.428020	-0.155850	-74.269243	-0.155850	-74.269243	-17.683212	-165.434730
1.850000	-17.649237	-167.488802	-0.158724	-76.314284	-0.158724	-76.314284	-17.649516	-167.495671
1.900000	-17.630069	-169.550029	-0.161376	-78.359655	-0.161376	-78.359655	-17.630351	-169.557065
1.950000	-17.625424	-171.611866	-0.163803	-80.405522	-0.163803	-80.405522	-17.625710	-171.619082
2.000000	-17.635195	-173.674482	-0.166008	-82.452045	-0.166008	-82.452045	-17.635483	-173.681890
2.050000	-17.659485	-175.738062	-0.167992	-84.499390	-0.167992	-84.499390	-17.659776	-175.745676
2.100000	-17.698454	-177.802800	-0.169756	-86.547722	-0.169756	-86.547722	-17.698749	-177.810635
2.150000	-17.752326	-179.868904	-0.171305	-88.597206	-0.171305	-88.597206	-17.752626	-179.876975
2.200000	-17.821387	178.063408	-0.172644	-90.648006	-0.172644	-90.648006	-17.821692	178.055083
2.250000	-17.905993	175.993902	-0.173780	-92.700285	-0.173780	-92.700285	-17.906305	175.985306
2.300000	-18.006576	173.922330	-0.174723	-94.754201	-0.174723	-94.754201	-18.006897	173.913447
2.350000	-18.123648	171.848431	-0.175483	-96.809910	-0.175483	-96.809910	-18.123979	171.839241
2.400000	-18.257814	169.771923	-0.176071	-98.867563	-0.176071	-98.867563	-18.258158	169.762407
2.450000	-18.409780	167.692506	-0.176501	-100.927306	-0.176501	-100.927306	-18.410139	167.682645
2.500000	-18.580368	165.609858	-0.176788	-102.989280	-0.176788	-102.989280	-18.580744	165.599632
2.550000	-18.770880	163.523541	-0.176945	-105.053671	-0.176945	-105.053671	-18.771276	163.512929
2.600000	-18.982083	161.433242	-0.176994	-107.120557	-0.176994	-107.120557	-18.982502	161.422221
2.650000	-19.214990	159.338613	-0.176954	-109.190010	-0.176954	-109.190010	-19.215435	159.327160
2.700000	-19.471536	157.239062	-0.176843	-111.262211	-0.176843	-111.262211	-19.472011	157.227150
2.750000	-19.753281	155.134100	-0.176682	-113.337230	-0.176682	-113.337230	-19.753791	155.121701
2.800000	-20.062259	153.023111	-0.176495	-115.415157	-0.176495	-115.415157	-20.062808	153.010192
2.850000	-20.401009	150.905314	-0.176304	-117.496096	-0.176304	-117.496096	-20.401602	150.891839
2.900000	-20.772274	148.779878	-0.176134	-119.580098	-0.176134	-119.580098	-20.772916	148.765803
2.950000	-21.179388	146.645777	-0.176008	-121.667212	-0.176008	-121.667212	-21.180085	146.631051
3.000000	-21.626422	144.501724	-0.175952	-123.757483	-0.175952	-123.757483	-21.627181	144.486285
3.050000	-22.118331	142.346089	-0.175992	-125.850942	-0.175992	-125.850942	-22.119161	142.329861
3.100000	-22.661218	140.176766	-0.176152	-127.947610	-0.176152	-127.947610	-22.662128	140.159654
3.150000	-23.262832	137.990855	-0.176461	-130.047512	-0.176461	-130.047512	-23.263834	137.972738
3.200000	-23.932889	135.784468	-0.176944	-132.150642	-0.176944	-132.150642	-23.933999	135.765189
3.250000	-24.683869	133.552295	-0.177626	-134.256964	-0.177626	-134.256964	-24.685106	133.531644
3.300000	-25.532514	131.286470	-0.178534	-136.366449	-0.178534	-136.366449	-25.533903	131.264165
3.350000	-26.501751	128.975058	-0.179693	-138.479052	-0.179693	-138.479052	-26.503328	128.950701
3.400000	-27.624158	126.599017	-0.181127	-140.594717	-0.181127	-140.594717	-27.625972	126.572024
3.450000	-28.948337	124.125582	-0.182861	-142.713385	-0.182861	-142.713385	-28.950462	124.095047
3.500000	-30.551384	121.492577	-0.184922	-144.834989	-0.184922	-144.834989	-30.553937	121.456979
3.550000	-32.565738	118.572892	-0.187329	-146.959413	-0.187329	-146.959413	-32.568920	118.529426
3.600000	-35.251175	115.046282	-0.190103	-149.086554	-0.190103	-149.086554	-35.255369	114.988841
3.650000	-39.233181	109.733548	-0.193271	-151.216324	-0.193271	-151.216324	-39.239191	109.643375
3.700000	-46.728710	94.232409	-0.196838	-153.348532	-0.196838	-153.348532	-46.735869	94.005551
3.750000	-51.075915	-31.734084	-0.200831	-155.483087	-0.200831	-155.483087	-51.025903	-31.616895
3.800000	-40.773177	-58.243590	-0.205272	-157.619879	-0.205272	-157.619879	-40.761609	-58.174800
3.850000	-35.982839	-64.645275	-0.210170	-159.758720	-0.210170	-159.758720	-35.976679	-64.606117
3.900000	-32.869505	-68.512226	-0.215537	-161.899451	-0.215537	-161.899451	-32.865349	-68.486667
3.950000	-30.558504	-71.585155	-0.221384	-164.041909	-0.221384	-164.041909	-30.555381	-71.567334
4.000000	-28.719035	-74.309356	-0.227722	-166.185923	-0.227722	-166.185923	-28.716540	-74.296538
4.050000	-27.190634	-76.850065	-0.234558	-168.331317	-0.234558	-168.331317	-27.188560	-76.840762
4.100000	-25.883271	-79.282029	-0.241901	-170.477923	-0.241901	-170.477923	-25.881499	-79.275340
4.150000	-24.741502	-81.645170	-0.249753	-172.625549	-0.249753	-172.625549	-24.739956	-81.640516
4.200000	-23.728661	-83.961783	-0.258115	-174.774008	-0.258115	-174.774008	-23.727291	-83.958770
4.250000	-22.819239	-86.245360	-0.266985	-176.923117	-0.266985	-176.923117	-22.818009	-86.243706
4.300000	-21.994782	-88.504592	-0.276363	-179.072691	-0.276363	-179.072691	-21.993665	-88.504091
4.350000	-21.241499	-90.745309	-0.286244	178.777454	-0.286244	178.777454	-21.240478	-90.745804
4.400000	-20.548824	-92.971482	-0.296625	176.627498	-0.296625	176.627498	-20.547882	-92.972852
4.450000	-19.908473	-95.186010	-0.307498	174.477624	-0.307498	174.477624	-19.907599	-95.188159
4.500000	-19.313814	-97.391028	-0.318850	172.328005	-0.318850	172.328005	-19.313000	-97.393881
4.550000	-18.759466	-99.588058	-0.330670	170.178813	-0.330670	170.178813	-18.758704	-99.591552
4.600000	-18.240996	-101.778242	-0.342944	168.030211	-0.342944	168.030211	-18.240280	-101.782325
4.650000	-17.754708	-103.962446	-0.355659	165.882357	-0.355659	165.882357	-17.754033	-103.967076
4.700000	-17.297617	-106.141169	-0.368811	163.735440	-0.368811	163.735440	-17.296979	-106.146307
4.750000	-16.866837	-108.315258	-0.382355	161.589540	-0.382355	161.589540	-16.866233	-108.320874
4.800000	-16.460191	-110.484962	-0.396286	159.444818	-0.396286	159.444818	-16.459618	-110.491027
4.850000	-16.075703	-112.650605	-0.410582	157.301402	-0.410582	157.301402	-16.075159	-112.657094
4.900000	-15.711601	-114.812491	-0.425219	155.159389	-0.425219	155.159389	-15.711085	-114.819380
4.950000	-15.366493	-116.970737	-0.440182	153.018929	-0.440182	153.018929	-15.366004	-116.978004
5.000000	-15.038970	-119.125588	-0.455442	150.880095	-0.455442	150.880095	-15.038505	-119.133213
5.050000	-14.727892	-121.277166	-0.470976	148.742991	-0.470976	148.742991	-14.727451	-121.285129
5.100000	-14.432145	-123.425647	-0.486757	146.607674	-0.486757	146.607674	-14.431727	-123.433930
5.150000	-14.150772	-125.571156	-0.502760	144.474208	-0.502760	144.474208	-14.150376	-125.579740
5.200000	-13.882910	-127.713811	-0.518957	142.342645	-0.518957	142.342645	-13.882535	-127.722679
5.250000	-13.627777	-129.853726	-0.535322	140.213025	-0.535322	140.213025	-13.627422	-129.862860
5.300000	-13.384659	-131.991012	-0.551828	138.085379	-0.551828	138.085379	-13.384324	-132.000395
5.350000	-13.152946	-134.125760	-0.568449	135.959741	-0.568449	135.959741	-13.152629	-134.135374
5.400000	-12.932013	-136.258096	-0.585157	133.836107	-0.585157	133.836107	-12.931715	-136.267925
5.450000	-12.721299	-138.388144	-0.601926	131.714467	-0.601926	131.714467	-12.721018	-138.398171
5.500000	-12.520295	-140.516020	-0.618729	129.594807	-0.618729	129.594807	-12.520030	-140.526228
5.550000	-12.328533	-142.641847	-0.635539	127.477102	-0.635539	127.477102	-12.328283	-142.652219
5.600000	-12.145575	-144.765750	-0.652332	125.361314	-0.652332	125.361314	-12.145339	-144.776269
5.650000	-11.971040	-146.887850	-0.669081	123.247409	-0.669081	123.247409	-11.970818	-146.898500
5.700000	-11.804548	-149.008283	-0.685761	121.135329	-0.685761	121.135329	-11.804338	-149.019047
5.750000	-11.645719	-151.127197	-0.702350	119.024999	-0.702350	119.024999	-11.645520	-151.138060
5.800000	-11.494218	-153.244736	-0.718824	116.916345	-0.718824	116.916345	-11.494028	-153.255681
5.850000	-11.349838	-155.361017	-0.735157	114.809322	-0.735157	114.809322	-11.349658	-155.372029
5.900000	-11.212091	-157.476243	-0.751335	112.703771	-0.751335	112.703771	-11.211917	-157.487306
5.950000	-11.080779	-159.590542	-0.767335	110.599623	-0.767335	110.599623	-11.080612	-159.601640
6.000000	-10.955638	-161.704068	-0.783138	108.496774	-0.783138	108.496774	-10.955476	-161.715186
6.050000	-10.836416	-163.816978	-0.798727	106.395113	-0.798727	106.395113	-10.836257	-163.828101
6.100000	-10.722870	-165.929432	-0.814083	104.294523	-0.814083	104.294523	-10.722714	-165.940543
6.150000	-10.614773	-168.041587	-0.829193	102.194879	-0.829193	102.194879	-10.614618	-168.052672
6.200000	-10.511903	-170.153606	-0.844041	100.096055	-0.844041	100.096055	-10.511748	-170.164648
6.250000	-10.414051	-172.265647	-0.858614	97.997918	-0.858614	97.997918	-10.413895	-172.276632
6.300000	-10.321093	-174.377881	-0.872895	95.900342	-0.872895	95.900342	-10.320934	-174.388792
6.350000	-10.232749	-176.490466	-0.886878	93.803171	-0.886878	93.803171	-10.232587	-176.501286
6.400000	-10.148830	-178.603562	-0.900556	91.706262	-0.900556	91.706262	-10.148664	-178.614274
6.450000	-10.069154	179.282675	-0.913921	89.609472	-0.913921	89.609472	-10.068983	179.272087
6.500000	-9.993543	177.168088	-0.926966	87.512655	-0.926966	87.512655	-9.993366	177.157642
6.550000	-9.921824	175.052524	-0.939686	85.415662	-0.939686	85.415662	-9.921641	175.042240
6.600000	-9.853828	172.935832	-0.952079	83.318346	-0.952079	83.318346	-9.853638	172.925728
6.650000	-9.789392	170.817864	-0.964142	81.220558	-0.964142	81.220558	-9.789194	170.807961
6.700000	-9.728352	168.698475	-0.975873	79.122150	-0.975873	79.122150	-9.728147	168.688795
6.750000	-9.670553	166.577524	-0.987274	77.022975	-0.987274	77.022975	-9.670339	166.568090
6.800000	-9.615837	164.454875	-0.998347	74.922886	-0.998347	74.922886	-9.615615	164.445710
6.850000	-9.564052	162.330395	-1.009094	72.821741	-1.009094	72.821741	-9.563822	162.321525
6.900000	-9.515072	160.203934	-1.019517	70.719381	-1.019517	70.719381	-9.514834	160.195387
6.950000	-9.468744	158.075366	-1.029621	68.615662	-1.029621	68.615662	-9.468498	158.067169
7.000000	-9.424893	155.944595	-1.039418	66.510461	-1.039418	66.510461	-9.424640	155.936779
7.050000	-9.383372	153.811510	-1.048914	64.403644	-1.048914	64.403644	-9.383112	153.804107
7.100000	-9.344037	151.676008	-1.058121	62.295084	-1.058121	62.295084	-9.343770	151.669051
7.150000	-9.306742	149.537991	-1.067048	60.184653	-1.067048	60.184653	-9.306468	149.531516
7.200000	-9.271345	147.397368	-1.075706	58.072232	-1.075706	58.072232	-9.271065	147.391413
7.250000	-9.237701	145.254057	-1.084109	55.957704	-1.084109	55.957704	-9.237417	145.248661
7.300000	-9.205671	143.107984	-1.092270	53.840959	-1.092270	53.840959	-9.205382	143.103186
7.350000	-9.175112	140.959081	-1.100203	51.721891	-1.100203	51.721891	-9.174819	140.954925
7.400000	-9.145884	138.807291	-1.107925	49.600401	-1.107925	49.600401	-9.145587	138.803822
7.450000	-9.117846	136.652565	-1.115452	47.476394	-1.115452	47.476394	-9.117547	136.649830
7.500000	-9.090859	134.494866	-1.122801	45.349783	-1.122801	45.349783	-9.090558	134.492911
7.550000	-9.064801	132.334098	-1.129987	43.220426	-1.129987	43.220426	-9.064498	132.332976
7.600000	-9.039511	130.170310	-1.137033	41.088306	-1.137033	41.088306	-9.039208	130.170070
7.650000	-9.014853	128.003493	-1.143958	38.953354	-1.143958	38.953354	-9.014551	128.004190
7.700000	-8.990692	125.833655	-1.150783	36.815509	-1.150783	36.815509	-8.990390	125.835341
7.750000	-8.966892	123.660810	-1.157528	34.674719	-1.157528	34.674719	-8.966591	123.663541
7.800000	-8.943320	121.484987	-1.164215	32.530936	-1.164215	32.530936	-8.943021	121.488820
7.850000	-8.919844	119.306227	-1.170865	30.384120	-1.170865	30.384120	-8.919548	119.311218
7.900000	-8.896335	117.124583	-1.177502	28.234238	-1.177502	28.234238	-8.896041	117.130790
7.950000	-8.872664	114.940119	-1.184146	26.081267	-1.184146	26.081267	-8.872372	114.947600
8.000000	-8.848705	112.752913	-1.190823	23.925187	-1.190823	23.925187	-8.848416	112.761726
8.050000	-8.824334	110.563056	-1.197554	21.765987	-1.197554	21.765987	-8.824049	110.573259
8.100000	-8.799432	108.370650	-1.204363	19.603665	-1.204363	19.603665	-8.799150	108.382301
8.150000	-8.773870	106.175783	-1.211275	17.438190	-1.211275	17.438190	-8.773591	106.188941
8.200000	-8.747531	103.978588	-1.218316	15.269573	-1.218316	15.269573	-8.747255	103.993309
8.250000	-8.720311	101.779228	-1.225507	13.097866	-1.225507	13.097866	-8.720038	101.795568
8.300000	-8.692104	99.577853	-1.232873	10.923095	-1.232873	10.923095	-8.691834	99.595867
8.350000	-8.662769	97.374573	-1.240445	8.745205	-1.240445	8.745205	-8.662502	97.394315
8.400000	-8.632344	95.169725	-1.248224	6.564539	-1.248224	6.564539	-8.632079	95.191243
8.450000	-8.600524	92.963242	-1.256269	4.380683	-1.256269	4.380683	-8.600259	92.986590
8.500000	-8.567413	90.755504	-1.264572	2.194082	-1.264572	2.194082	-8.567149	90.780725
8.550000	-8.532810	88.546603	-1.273178	0.004572	-1.273178	0.004572	-8.532547	88.573743
8.600000	-8.496671	86.336757	-1.282104	-2.187728	-1.282104	-2.187728	-8.496407	86.365857
8.650000	-8.458991	84.126194	-1.291361	-4.382645	-1.291361	-4.382645	-8.458725	84.157292
8.700000	-8.419531	81.915057	-1.301007	-6.580361	-1.301007	-6.580361	-8.419262	81.948191
8.750000	-8.378523	79.703611	-1.311008	-8.780397	-1.311008	-8.780397	-8.378251	79.738810
8.800000	-8.335502	77.492014	-1.321471	-10.983199	-1.321471	-10.983199	-8.335225	77.529310
8.850000	-8.290848	75.280480	-1.332331	-13.188158	-1.332331	-13.188158	-8.290565	75.319895
8.900000	-8.244205	73.069223	-1.343678	-15.395542	-1.343678	-15.395542	-8.243915	73.110779
8.950000	-8.195749	70.858401	-1.355491	-17.605034	-1.355491	-17.605034	-8.195451	70.902114
9.000000	-8.145373	68.648215	-1.367810	-19.816615	-1.367810	-19.816615	-8.145065	68.694097
9.050000	-8.093022	66.438852	-1.380668	-22.030215	-1.380668	-22.030215	-8.092703	66.486912
9.100000	-8.038861	64.230404	-1.394045	-24.245575	-1.394045	-24.245575	-8.038530	64.280645
9.150000	-7.982585	62.023166	-1.408037	-26.462823	-1.408037	-26.462823	-7.982240	62.075587
9.200000	-7.924600	59.817068	-1.422568	-28.681546	-1.422568	-28.681546	-7.924241	59.871664
9.250000	-7.864481	57.612490	-1.437772	-30.901922	-1.437772	-30.901922	-7.864106	57.669250
9.300000	-7.802652	55.409292	-1.453566	-33.123572	-1.453566	-33.123572	-7.802260	55.468202
9.350000	-7.738881	53.207741	-1.470042	-35.346520	-1.470042	-35.346520	-7.738470	53.268781
9.400000	-7.673342	51.007817	-1.487186	-37.570566	-1.487186	-37.570566	-7.672911	51.070964
9.450000	-7.606084	48.809576	-1.505017	-39.795574	-1.505017	-39.795574	-7.605632	48.874803
9.500000	-7.537035	46.613156	-1.523595	-42.021459	-1.523595	-42.021459	-7.536561	46.680428
9.550000	-7.466514	44.418373	-1.542861	-44.247991	-1.542861	-44.247991	-7.466019	44.487658
9.600000	-7.394220	42.225537	-1.562960	-46.475132	-1.562960	-46.475132	-7.393702	42.296790
9.650000	-7.320643	40.034294	-1.583771	-48.702640	-1.583771	-48.702640	-7.320101	40.107474
9.700000	-7.245514	37.844912	-1.605444	-50.930420	-1.605444	-50.930420	-7.244948	37.919968
9.750000	-7.169198	35.657114	-1.627898	-53.158294	-1.627898	-53.158294	-7.168609	35.733998
9.800000	-7.091650	33.470968	-1.651212	-55.386107	-1.651212	-55.386107	-7.091038	33.549624
9.850000	-7.013016	31.286368	-1.675393	-57.613701	-1.675393	-57.613701	-7.012381	31.366739
9.900000	-6.933479	29.103174	-1.700429	-59.840924	-1.700429	-59.840924	-6.932823	29.185203
9.950000	-6.853008	26.921429	-1.726420	-62.067563	-1.726420	-62.067563	-6.852332	27.005050
10.000000	-6.771965	24.740833	-1.753258	-64.293549	-1.753258	-64.293549	-6.771270	24.825990
