! freq	dB(S11)	phase(S11)	dB(S12)	phase(S12)	
!     	dB(S21)	phase(S21)	dB(S22)	phase(S22)	
!S-par simulation data
#  GHz  S  DB  R 50
0.000000	-0.000000	0.000000	-370.582686	180.000000	-370.582686	180.000000	-0.000000	0.000000
0.050000	-0.000163	-0.829408	-111.756584	82.388734	-111.756584	82.388734	-0.000138	-0.828867
0.100000	-0.000630	-1.658195	-106.495808	81.783335	-106.495808	81.783335	-0.000540	-1.657289
0.150000	-0.001347	-2.485891	-103.355799	82.299825	-103.355799	82.299825	-0.001174	-2.484896
0.200000	-0.002245	-3.312250	-101.093094	82.614420	-101.093094	82.614420	-0.001993	-3.311439
0.250000	-0.003267	-4.137119	-99.349503	82.674470	-99.349503	82.674470	-0.002960	-4.136701
0.300000	-0.004350	-4.960697	-97.952645	82.592360	-97.952645	82.592360	-0.004018	-4.960759
0.350000	-0.005466	-5.783046	-96.811493	82.430664	-96.811493	82.430664	-0.005137	-5.783591
0.400000	-0.006594	-6.604300	-95.869049	82.244623	-95.869049	82.244623	-0.006290	-6.605264
0.450000	-0.007722	-7.424578	-95.088197	82.077031	-95.088197	82.077031	-0.007459	-7.425863
0.500000	-0.008845	-8.243972	-94.443774	81.964413	-94.443774	81.964413	-0.008632	-8.245469
0.550000	-0.009962	-9.062548	-93.918273	81.941417	-93.918273	81.941417	-0.009801	-9.064152
0.600000	-0.011074	-9.880346	-93.499338	82.044113	-93.499338	82.044113	-0.010962	-9.881969
0.650000	-0.012182	-10.697391	-93.178196	82.312848	-93.178196	82.312848	-0.012115	-10.698962
0.700000	-0.013288	-11.513690	-92.948586	82.795152	-92.948586	82.795152	-0.013259	-11.515159
0.750000	-0.014392	-12.329246	-92.805935	83.549027	-92.805935	83.549027	-0.014394	-12.330579
0.800000	-0.015495	-13.144051	-92.746561	84.646921	-92.746561	84.646921	-0.015521	-13.145228
0.850000	-0.016597	-13.958095	-92.766738	86.180539	-92.766738	86.180539	-0.016641	-13.959109
0.900000	-0.017699	-14.771367	-92.861346	88.266311	-92.861346	88.266311	-0.017754	-14.772218
0.950000	-0.018800	-15.583852	-93.021756	91.050481	-93.021756	91.050481	-0.018862	-15.584547
1.000000	-0.019899	-16.395535	-93.232496	94.710769	-93.232496	94.710769	-0.019964	-16.396086
1.050000	-0.020996	-17.206404	-93.466284	99.447473	-93.466284	99.447473	-0.021061	-17.206823
1.100000	-0.022091	-18.016442	-93.677774	105.450596	-93.677774	105.450596	-0.022154	-18.016744
1.150000	-0.023183	-18.825635	-93.798782	112.825071	-93.798782	112.825071	-0.023241	-18.825836
1.200000	-0.024271	-19.633969	-93.742208	121.468727	-93.742208	121.468727	-0.024324	-19.634084
1.250000	-0.025356	-20.441430	-93.424110	130.953870	-93.424110	130.953870	-0.025403	-20.441473
1.300000	-0.026436	-21.247965	-92.786046	140.515553	-92.786046	140.515553	-0.026476	-21.247949
1.350000	-0.027513	-22.053596	-91.868823	149.348468	-91.868823	149.348468	-0.027546	-22.053533
1.400000	-0.028584	-22.858310	-90.750347	156.956670	-90.750347	156.956670	-0.028611	-22.858210
1.450000	-0.029651	-23.662093	-89.518203	163.180558	-89.518203	163.180558	-0.029672	-23.661964
1.500000	-0.030714	-24.464930	-88.243045	168.094021	-88.243045	168.094021	-0.030728	-24.464781
1.550000	-0.031772	-25.266806	-86.971764	171.876815	-86.971764	171.876815	-0.031782	-25.266643
1.600000	-0.032827	-26.067708	-85.731470	174.729878	-85.731470	174.729878	-0.032831	-26.067535
1.650000	-0.033877	-26.867621	-84.535884	176.835472	-84.535884	176.835472	-0.033877	-26.867441
1.700000	-0.034923	-27.666172	-83.358511	178.193032	-83.358511	178.193032	-0.034920	-27.665991
1.750000	-0.035967	-28.464194	-82.279003	179.283006	-82.279003	179.283006	-0.035960	-28.464012
1.800000	-0.037007	-29.260949	-81.230779	179.943533	-81.230779	179.943533	-0.036999	-29.260768
1.850000	-0.038045	-30.056799	-80.239459	-179.702689	-80.239459	-179.702689	-0.038035	-30.056620
1.900000	-0.039082	-30.851530	-79.288834	-179.589168	-79.288834	-179.589168	-0.039070	-30.851354
1.950000	-0.040116	-31.645141	-78.377210	-179.715904	-78.377210	-179.715904	-0.040103	-31.644968
2.000000	-0.041150	-32.437793	-77.510016	-179.978573	-77.510016	-179.978573	-0.041136	-32.437622
2.050000	-0.042183	-33.229099	-76.667909	179.568450	-76.667909	179.568450	-0.042169	-33.228931
2.100000	-0.043216	-34.019816	-75.878849	179.055028	-75.878849	179.055028	-0.043202	-34.019650
2.150000	-0.044249	-34.809002	-75.104605	178.392490	-75.104605	178.392490	-0.044235	-34.808837
2.200000	-0.045283	-35.597033	-74.358493	177.640684	-74.358493	177.640684	-0.045269	-35.596868
2.250000	-0.046318	-36.383893	-73.638537	176.811848	-73.638537	176.811848	-0.046305	-36.383727
2.300000	-0.047355	-37.169569	-72.942950	175.916141	-72.942950	175.916141	-0.047343	-37.169401
2.350000	-0.048395	-37.954045	-72.270116	174.962061	-72.270116	174.962061	-0.048383	-37.953875
2.400000	-0.049437	-38.737307	-71.618572	173.956764	-71.618572	173.956764	-0.049427	-38.737134
2.450000	-0.050483	-39.519342	-70.986989	172.906318	-70.986989	172.906318	-0.050473	-39.519166
2.500000	-0.051533	-40.300137	-70.374161	171.815900	-70.374161	171.815900	-0.051523	-40.299956
2.550000	-0.052589	-41.078961	-69.765995	170.672206	-69.765995	170.672206	-0.052581	-41.078775
2.600000	-0.053645	-41.857785	-69.197640	169.528513	-69.197640	169.528513	-0.053638	-41.857594
2.650000	-0.054712	-42.634159	-68.625129	168.331069	-68.625129	168.331069	-0.054705	-42.633962
2.700000	-0.055779	-43.410311	-68.084700	167.128739	-68.084700	167.128739	-0.055773	-43.410107
2.750000	-0.056857	-44.184192	-67.543885	165.887245	-67.543885	165.887245	-0.056852	-44.183982
2.800000	-0.057938	-44.957619	-67.028747	164.637919	-67.028747	164.637919	-0.057933	-44.957402
2.850000	-0.059029	-45.728967	-66.516308	163.360035	-66.516308	163.360035	-0.059024	-45.728744
2.900000	-0.060124	-46.499622	-66.024196	162.072631	-66.024196	162.072631	-0.060120	-46.499393
2.950000	-0.061227	-47.268872	-65.542652	160.769171	-65.542652	160.769171	-0.061223	-47.268637
3.000000	-0.062339	-48.036535	-65.069435	159.448891	-65.069435	159.448891	-0.062336	-48.036294
3.050000	-0.063460	-48.802833	-64.606823	158.115889	-64.606823	158.115889	-0.063457	-48.802587
3.100000	-0.064590	-49.567759	-64.154356	156.771282	-64.154356	156.771282	-0.064588	-49.567508
3.150000	-0.065730	-50.331305	-63.711607	155.416079	-63.711607	155.416079	-0.065727	-50.331049
3.200000	-0.066879	-51.093463	-63.278177	154.051195	-63.278177	154.051195	-0.066877	-51.093203
3.250000	-0.068038	-51.854228	-62.853689	152.677459	-62.853689	152.677459	-0.068036	-51.853964
3.300000	-0.069208	-52.613592	-62.437792	151.295630	-62.437792	151.295630	-0.069206	-52.613325
3.350000	-0.070391	-53.371305	-62.028269	149.905300	-62.028269	149.905300	-0.070389	-53.371035
3.400000	-0.071586	-54.127546	-61.626416	148.507930	-61.626416	148.507930	-0.071584	-54.127275
3.450000	-0.072787	-54.883048	-61.237134	147.107550	-61.237134	147.107550	-0.072785	-54.882775
3.500000	-0.074007	-55.636331	-60.849623	145.698140	-60.849623	145.698140	-0.074005	-55.636058
3.550000	-0.075231	-56.389120	-60.475454	144.287077	-60.475454	144.287077	-0.075229	-56.388847
3.600000	-0.076478	-57.139434	-60.101349	142.867750	-60.101349	142.867750	-0.076476	-57.139162
3.650000	-0.077728	-57.889501	-59.741203	141.447749	-59.741203	141.447749	-0.077725	-57.889230
3.700000	-0.079003	-58.636841	-59.379656	140.020328	-59.379656	140.020328	-0.079001	-58.636573
3.750000	-0.080279	-59.384181	-59.032559	138.592906	-59.032559	138.592906	-0.080276	-59.383916
3.800000	-0.081585	-60.128550	-58.682803	137.158972	-58.682803	137.158972	-0.081582	-60.128289
3.850000	-0.082891	-60.872918	-58.346588	135.725038	-58.346588	135.725038	-0.082888	-60.872662
3.900000	-0.084226	-61.614572	-58.009214	134.286410	-58.009214	134.286410	-0.084224	-61.614321
3.950000	-0.085565	-62.355979	-57.683259	132.847355	-57.683259	132.847355	-0.085562	-62.355734
4.000000	-0.086932	-63.094933	-57.357455	131.405070	-57.357455	131.405070	-0.086929	-63.094696
4.050000	-0.088304	-63.833396	-57.041189	129.962138	-57.041189	129.962138	-0.088302	-63.833167
4.100000	-0.089704	-64.569674	-56.726217	128.517143	-56.726217	128.517143	-0.089702	-64.569454
4.150000	-0.091113	-65.305223	-56.419110	127.071460	-56.419110	127.071460	-0.091111	-65.305013
4.200000	-0.092548	-66.038855	-56.114293	125.624634	-56.114293	125.624634	-0.092545	-66.038657
4.250000	-0.093995	-66.771529	-55.815853	124.177235	-55.815853	124.177235	-0.093993	-66.771343
4.300000	-0.095467	-67.502557	-55.520571	122.729400	-55.520571	122.729400	-0.095465	-67.502384
4.350000	-0.096955	-68.232409	-55.230333	121.281252	-55.230333	121.281252	-0.096953	-68.232251
4.400000	-0.098465	-68.960885	-54.944012	119.833187	-54.944012	119.833187	-0.098463	-68.960743
4.450000	-0.099997	-69.687985	-54.661535	118.385205	-54.661535	118.385205	-0.099995	-69.687860
4.500000	-0.101548	-70.413974	-54.383637	116.937655	-54.383637	116.937655	-0.101547	-70.413869
4.550000	-0.103126	-71.138410	-54.108496	115.490712	-54.108496	115.490712	-0.103125	-71.138327
4.600000	-0.104721	-71.861996	-53.838516	114.044392	-53.838516	114.044392	-0.104720	-71.861937
4.650000	-0.106348	-72.583882	-53.570295	112.599321	-53.570295	112.599321	-0.106347	-72.583851
4.700000	-0.107989	-73.305169	-53.307748	111.154914	-53.307748	111.154914	-0.107989	-73.305166
4.750000	-0.109670	-74.024654	-53.046027	109.712495	-53.046027	109.712495	-0.109670	-74.024687
4.800000	-0.111361	-74.743772	-52.790443	108.270633	-52.790443	108.270633	-0.111361	-74.743841
4.850000	-0.113100	-75.461049	-52.534783	106.831551	-52.534783	106.831551	-0.113100	-75.461163
4.900000	-0.114845	-76.178164	-52.285692	105.392788	-52.285692	105.392788	-0.114846	-76.178325
4.950000	-0.116648	-76.893490	-52.035613	103.957528	-52.035613	103.957528	-0.116650	-76.893711
5.000000	-0.118452	-77.608815	-51.792534	102.522268	-51.792534	102.522268	-0.118454	-77.609097
5.050000	-0.120316	-78.322764	-51.548962	101.090288	-51.548962	101.090288	-0.120318	-78.323125
5.100000	-0.122211	-79.036180	-51.308480	99.659758	-51.308480	99.659758	-0.122214	-79.036631
5.150000	-0.124141	-79.749119	-51.070943	98.230530	-51.070943	98.230530	-0.124145	-79.749674
5.200000	-0.126118	-80.461577	-50.835192	96.802634	-50.835192	96.802634	-0.126123	-80.462256
5.250000	-0.128151	-81.173793	-50.600572	95.375039	-50.600572	95.375039	-0.128158	-81.174626
5.300000	-0.130231	-81.886022	-50.368216	93.946544	-50.368216	93.946544	-0.130241	-81.887038
5.350000	-0.132361	-82.598369	-50.137964	92.516474	-50.137964	92.516474	-0.132374	-82.599597
5.400000	-0.134583	-83.311390	-49.907010	91.080055	-49.907010	91.080055	-0.134601	-83.312898
5.450000	-0.136886	-84.025416	-49.676689	89.633701	-49.676689	89.633701	-0.136911	-84.027273
5.500000	-0.139276	-84.740676	-49.447069	88.174114	-49.447069	88.174114	-0.139310	-84.742958
5.550000	-0.141782	-85.457837	-49.216667	86.693039	-49.216667	86.693039	-0.141829	-85.460656
5.600000	-0.144489	-86.178811	-48.981989	85.160943	-48.981989	85.160943	-0.144556	-86.182379
5.650000	-0.147388	-86.903678	-48.744736	83.566994	-48.744736	83.566994	-0.147486	-86.908216
5.700000	-0.150516	-87.633180	-48.504201	81.893049	-48.504201	81.893049	-0.150656	-87.638959
5.750000	-0.154123	-88.372425	-48.252348	80.022946	-48.252348	80.022946	-0.154337	-88.380045
5.800000	-0.158419	-89.124767	-47.986746	77.817975	-47.986746	77.817975	-0.158763	-89.135133
5.850000	-0.163391	-89.889231	-47.711241	75.261453	-47.711241	75.261453	-0.163926	-89.903245
5.900000	-0.170048	-90.681281	-47.407803	71.753663	-47.407803	71.753663	-0.170956	-90.701218
5.950000	-0.180058	-91.519173	-47.060621	66.177448	-47.060621	66.177448	-0.181795	-91.549490
6.000000	-0.195814	-92.421479	-46.647278	56.878941	-46.647278	56.878941	-0.199334	-92.469385
6.050000	-0.228178	-93.460708	-45.939072	36.715619	-45.939072	36.715619	-0.236974	-93.543494
6.100000	-0.317339	-94.751641	-43.074026	-12.301634	-43.074026	-12.301634	-0.346674	-94.892310
6.150000	-0.640120	-95.625642	-33.402102	-103.544603	-33.402102	-103.544603	-0.744728	-95.403128
6.200000	-0.795031	-93.648036	-28.534638	146.032484	-28.534638	146.032484	-0.727496	-92.840468
6.250000	-0.531781	-92.275092	-31.840188	73.827268	-31.840188	73.827268	-0.464954	-92.387309
6.300000	-0.309251	-93.377655	-36.678013	47.483202	-36.678013	47.483202	-0.289038	-93.519654
6.350000	-0.240251	-94.550662	-39.766759	40.496427	-39.766759	40.496427	-0.232531	-94.641622
6.400000	-0.214979	-95.538455	-41.567375	39.214618	-41.567375	39.214618	-0.211295	-95.599301
6.450000	-0.204265	-96.414780	-42.609184	39.458104	-42.609184	39.458104	-0.202221	-96.458432
6.500000	-0.199511	-97.227191	-43.215478	39.910164	-43.215478	39.910164	-0.198260	-97.260289
6.550000	-0.197672	-98.000033	-43.560795	40.191088	-43.560795	40.191088	-0.196849	-98.026235
6.600000	-0.197492	-98.745414	-43.737293	40.194064	-43.737293	40.194064	-0.196913	-98.766969
6.650000	-0.198208	-99.473506	-43.816347	39.956882	-43.816347	39.956882	-0.197785	-99.491686
6.700000	-0.199662	-100.184960	-43.811606	39.441064	-43.811606	39.441064	-0.199332	-100.200843
6.750000	-0.201330	-100.891350	-43.782485	38.836352	-43.782485	38.836352	-0.201074	-100.905249
6.800000	-0.203315	-101.589104	-43.716610	38.066503	-43.716610	38.066503	-0.203112	-101.601484
6.850000	-0.205528	-102.280690	-43.625202	37.178700	-43.625202	37.178700	-0.205362	-102.291883
6.900000	-0.207895	-102.967537	-43.516043	36.194385	-43.516043	36.194385	-0.207758	-102.977756
6.950000	-0.210416	-103.649643	-43.389807	35.113561	-43.389807	35.113561	-0.210300	-103.659104
7.000000	-0.213022	-104.329049	-43.253900	33.973213	-43.253900	33.973213	-0.212923	-104.337859
7.050000	-0.215746	-105.004677	-43.104287	32.749534	-43.104287	32.749534	-0.215660	-105.012983
7.100000	-0.218519	-105.678795	-42.948815	31.485803	-42.948815	31.485803	-0.218445	-105.686653
7.150000	-0.221390	-106.349895	-42.779608	30.141968	-42.779608	30.141968	-0.221326	-106.357414
7.200000	-0.224292	-107.020243	-42.606660	28.767998	-42.606660	28.767998	-0.224236	-107.027453
7.250000	-0.227282	-107.688335	-42.416602	27.303621	-42.416602	27.303621	-0.227235	-107.695321
7.300000	-0.230291	-108.356179	-42.224575	25.814287	-42.224575	25.814287	-0.230252	-108.362956
7.350000	-0.233391	-109.022782	-42.007205	24.200171	-42.007205	24.200171	-0.233360	-109.029423
7.400000	-0.236504	-109.689435	-41.790654	22.566608	-41.790654	22.566608	-0.236481	-109.695945
7.450000	-0.239739	-110.356627	-41.531326	20.719124	-41.531326	20.719124	-0.239726	-110.363075
7.500000	-0.242975	-111.023819	-41.279517	18.871640	-41.279517	18.871640	-0.242973	-111.030204
7.550000	-0.246383	-111.693577	-40.977071	16.733232	-40.977071	16.733232	-0.246394	-111.699950
7.600000	-0.250012	-112.366919	-40.630315	14.281103	-40.630315	14.281103	-0.250039	-112.373315
7.650000	-0.254079	-113.046344	-40.222610	11.327904	-40.222610	11.327904	-0.254130	-113.052797
7.700000	-0.259126	-113.735997	-39.730972	7.509544	-39.730972	7.509544	-0.259211	-113.742541
7.750000	-0.266480	-114.441730	-39.136179	2.134717	-39.136179	2.134717	-0.266615	-114.448378
7.800000	-0.280424	-115.169851	-38.452666	-6.595081	-38.452666	-6.595081	-0.280637	-115.176542
7.850000	-0.311816	-115.879264	-38.064919	-22.483578	-38.064919	-22.483578	-0.312141	-115.885756
7.900000	-0.354118	-116.345109	-39.839660	-46.838111	-39.839660	-46.838111	-0.354586	-116.350753
7.950000	-0.347804	-116.696364	-45.505422	-54.674315	-45.505422	-54.674315	-0.348205	-116.700270
8.000000	-0.326955	-117.265669	-49.056262	-23.253213	-49.056262	-23.253213	-0.327164	-117.269292
8.050000	-0.316100	-117.918201	-47.512504	-1.386471	-47.512504	-1.386471	-0.316208	-117.922175
8.100000	-0.311796	-118.583553	-45.885875	4.744327	-45.885875	4.744327	-0.311860	-118.587901
8.150000	-0.310883	-119.247499	-44.793433	5.970011	-44.793433	5.970011	-0.310929	-119.252162
8.200000	-0.311769	-119.907952	-44.033590	5.625130	-44.033590	5.625130	-0.311808	-119.912880
8.250000	-0.313692	-120.565248	-43.468743	4.678436	-43.468743	4.678436	-0.313730	-120.570407
8.300000	-0.316270	-121.220008	-43.025407	3.466544	-43.025407	3.466544	-0.316310	-121.225379
8.350000	-0.319331	-121.872590	-42.667614	2.120736	-42.667614	2.120736	-0.319375	-121.878159
8.400000	-0.322629	-122.524042	-42.354283	0.725318	-42.354283	0.725318	-0.322676	-122.529806
8.450000	-0.326237	-123.173965	-42.089828	-0.712977	-42.089828	-0.712977	-0.326288	-123.179922
8.500000	-0.329995	-123.823183	-41.850251	-2.164140	-41.850251	-2.164140	-0.330050	-123.829334
8.550000	-0.333892	-124.471790	-41.631828	-3.624837	-41.631828	-3.624837	-0.333950	-124.478138
8.600000	-0.337943	-125.119798	-41.433939	-5.091816	-41.433939	-5.091816	-0.338004	-125.126349
8.650000	-0.342115	-125.767492	-41.250700	-6.561079	-41.250700	-6.561079	-0.342177	-125.774254
8.700000	-0.346373	-126.415043	-41.077940	-8.031470	-41.077940	-8.031470	-0.346436	-126.422022
8.750000	-0.350714	-127.062510	-40.914449	-9.502607	-40.914449	-9.502607	-0.350776	-127.069714
8.800000	-0.355177	-127.710081	-40.761422	-10.974606	-40.761422	-10.974606	-0.355234	-127.717525
8.850000	-0.359708	-128.357856	-40.614664	-12.447320	-40.614664	-12.447320	-0.359760	-128.365549
8.900000	-0.364309	-129.005886	-40.473690	-13.920897	-40.473690	-13.920897	-0.364352	-129.013838
8.950000	-0.368994	-129.654351	-40.338691	-15.395898	-40.338691	-15.395898	-0.369026	-129.662577
9.000000	-0.373766	-130.303476	-40.209154	-16.873139	-40.209154	-16.873139	-0.373783	-130.311992
9.050000	-0.378604	-130.953194	-40.083790	-18.352460	-40.083790	-18.352460	-0.378602	-130.962014
9.100000	-0.383505	-131.603561	-39.962366	-19.834085	-39.962366	-19.834085	-0.383482	-131.612698
9.150000	-0.388505	-132.255157	-39.845705	-21.320193	-39.845705	-21.320193	-0.388455	-132.264635
9.200000	-0.393576	-132.907817	-39.732687	-22.810234	-39.732687	-22.810234	-0.393493	-132.917653
9.250000	-0.398712	-133.561542	-39.623032	-24.304220	-39.623032	-24.304220	-0.398593	-133.571754
9.300000	-0.403925	-134.216657	-39.516996	-25.803350	-39.516996	-25.803350	-0.403765	-134.227267
9.350000	-0.409234	-134.873816	-39.415134	-27.309954	-39.415134	-27.309954	-0.409027	-134.884856
9.400000	-0.414610	-135.532601	-39.316575	-28.822362	-39.316575	-28.822362	-0.414352	-135.544095
9.450000	-0.420053	-136.193117	-39.221305	-30.340870	-39.221305	-30.340870	-0.419741	-136.205092
9.500000	-0.425592	-136.856527	-39.130538	-31.869231	-39.130538	-31.869231	-0.425221	-136.869027
9.550000	-0.431206	-137.522734	-39.043943	-33.406539	-39.043943	-33.406539	-0.430777	-137.535807
9.600000	-0.436881	-138.191559	-38.961180	-34.951805	-38.961180	-34.951805	-0.436397	-138.205252
9.650000	-0.442619	-138.863466	-38.882659	-36.506106	-38.882659	-36.506106	-0.442085	-138.877840
9.700000	-0.448429	-139.540609	-38.810676	-38.074010	-38.810676	-38.074010	-0.447861	-139.555787
9.750000	-0.454266	-140.221775	-38.743757	-39.650861	-38.743757	-39.650861	-0.453689	-140.237879
9.800000	-0.460120	-140.907267	-38.682139	-41.236546	-38.682139	-41.236546	-0.459561	-140.924443
9.850000	-0.465959	-141.599528	-38.628436	-42.833801	-38.628436	-42.833801	-0.465475	-141.618058
9.900000	-0.471703	-142.299519	-38.583592	-44.439870	-38.583592	-44.439870	-0.471387	-142.319852
9.950000	-0.477305	-143.006478	-38.546621	-46.050731	-38.546621	-46.050731	-0.477259	-143.029144
10.000000	-0.482728	-143.720916	-38.517976	-47.665166	-38.517976	-47.665166	-0.483069	-143.746547
