! freq	dB(S11)	phase(S11)	dB(S12)	phase(S12)	
!     	dB(S21)	phase(S21)	dB(S22)	phase(S22)	
!S-par simulation data
#  GHz  S  DB  R 50
0.000000	-81.114564	0.000000	-0.000764	0.000000	-0.000764	0.000000	-81.114564	0.000000
0.050000	-74.239662	-53.896499	-0.010079	-2.825153	-0.010079	-2.825153	-74.244609	-53.976684
0.100000	-68.116275	-63.286006	-0.016573	-5.576044	-0.016573	-5.576044	-68.128041	-63.418410
0.150000	-63.845357	-68.171757	-0.019600	-8.324861	-0.019600	-8.324861	-63.862052	-68.332713
0.200000	-60.740722	-73.065627	-0.021814	-11.076888	-0.021814	-11.076888	-60.760133	-73.250791
0.250000	-58.426108	-78.204940	-0.023909	-13.830723	-0.023909	-13.830723	-58.446955	-78.418561
0.300000	-56.702863	-83.387059	-0.026112	-16.585131	-0.026112	-16.585131	-56.724564	-83.637031
0.350000	-55.418767	-88.472066	-0.028469	-19.339359	-0.028469	-19.339359	-55.441156	-88.766701
0.400000	-54.493678	-93.400841	-0.030989	-22.093033	-0.030989	-22.093033	-54.516812	-93.750276
0.450000	-53.875509	-98.161777	-0.033657	-24.845939	-0.033657	-24.845939	-53.899586	-98.578462
0.500000	-53.561920	-102.759019	-0.036460	-27.597896	-0.036460	-27.597896	-53.587275	-103.261262
0.550000	-53.532747	-107.239673	-0.039359	-30.348959	-0.039359	-30.348959	-53.559783	-107.852321
0.600000	-53.800592	-111.655625	-0.042328	-33.099202	-0.042328	-33.099202	-53.829787	-112.415362
0.650000	-54.415043	-116.078261	-0.045344	-35.848717	-0.045344	-35.848717	-54.446938	-117.044117
0.700000	-55.476867	-120.630731	-0.048389	-38.597621	-0.048389	-38.597621	-55.511875	-121.906651
0.750000	-57.192248	-125.574889	-0.051447	-41.346048	-0.051447	-41.346048	-57.229589	-127.368898
0.800000	-60.062741	-131.759238	-0.054505	-44.094138	-0.054505	-44.094138	-60.092132	-134.626467
0.850000	-65.659764	-148.827314	-0.057555	-46.842045	-0.057555	-46.842045	-65.474690	-155.114874
0.900000	-71.089191	137.417920	-0.060592	-49.589947	-0.060592	-49.589947	-69.854253	132.110786
0.950000	-62.109995	58.981120	-0.063613	-52.337985	-0.063613	-52.337985	-61.775131	63.915765
1.000000	-56.203097	48.530010	-0.066618	-55.086298	-0.066618	-55.086298	-56.071029	51.296460
1.050000	-52.338697	42.984263	-0.069611	-57.835015	-0.069611	-57.835015	-52.260935	44.918840
1.100000	-49.413790	38.624617	-0.072594	-60.584256	-0.072594	-60.584256	-49.359922	40.130173
1.150000	-47.019244	34.772302	-0.075573	-63.334187	-0.075573	-63.334187	-46.978594	36.022583
1.200000	-44.983223	31.174257	-0.078555	-66.084904	-0.078555	-66.084904	-44.950886	32.252315
1.250000	-43.209869	27.728648	-0.081548	-68.836466	-0.081548	-68.836466	-43.183198	28.680879
1.300000	-41.634347	24.390097	-0.084559	-71.588955	-0.084559	-71.588955	-41.611765	25.246569
1.350000	-40.214200	21.131530	-0.087597	-74.342439	-0.087597	-74.342439	-40.194697	21.912808
1.400000	-38.920018	17.935544	-0.090669	-77.096981	-0.090669	-77.096981	-38.902911	18.656302
1.450000	-37.730149	14.790502	-0.093785	-79.852640	-0.093785	-79.852640	-37.714954	15.461624
1.500000	-36.624887	11.690469	-0.096957	-82.609550	-0.096957	-82.609550	-36.611256	12.320698
1.550000	-35.597273	8.625443	-0.100190	-85.367659	-0.100190	-85.367659	-35.584935	9.220978
1.600000	-34.637448	5.590618	-0.103491	-88.126993	-0.103491	-88.126993	-34.626195	6.156399
1.650000	-33.735914	2.583193	-0.106873	-90.887629	-0.106873	-90.887629	-33.725583	3.123381
1.700000	-32.888114	-0.401243	-0.110338	-93.649528	-0.110338	-93.649528	-32.878572	0.116612
1.750000	-32.086670	-3.363982	-0.113901	-96.412794	-0.113901	-96.412794	-32.077812	-2.865568
1.800000	-31.330737	-6.309790	-0.117555	-99.177262	-0.117555	-99.177262	-31.322470	-5.828670
1.850000	-30.613632	-9.238651	-0.121318	-101.943079	-0.121318	-101.943079	-30.605884	-8.772768
1.900000	-29.933476	-12.153239	-0.125188	-104.710164	-0.125188	-104.710164	-29.926183	-11.700923
1.950000	-29.287452	-15.055116	-0.129169	-107.478505	-0.129169	-107.478505	-29.280560	-14.614920
2.000000	-28.672330	-17.944977	-0.133271	-110.248163	-0.133271	-110.248163	-28.665794	-17.515559
2.050000	-28.087493	-20.825318	-0.137483	-113.018973	-0.137483	-113.018973	-28.081272	-20.405631
2.100000	-27.529255	-23.695605	-0.141828	-115.791130	-0.141828	-115.791130	-27.523315	-23.284542
2.150000	-26.997782	-26.558534	-0.146282	-118.564375	-0.146282	-118.564375	-26.992093	-26.155284
2.200000	-26.490349	-29.413684	-0.150867	-121.338892	-0.150867	-121.338892	-26.484883	-29.017376
2.250000	-26.006484	-32.262811	-0.155566	-124.114497	-0.155566	-124.114497	-26.001218	-31.872754
2.300000	-25.544688	-35.106188	-0.160384	-126.891253	-0.160384	-126.891253	-25.539599	-34.721703
2.350000	-25.103996	-37.944589	-0.165318	-129.669113	-0.165318	-129.669113	-25.099068	-37.565064
2.400000	-24.683542	-40.778796	-0.170358	-132.448010	-0.170358	-132.448010	-24.678758	-40.403688
2.450000	-24.282438	-43.608962	-0.175512	-135.228022	-0.175512	-135.228022	-24.277783	-43.237716
2.500000	-23.899841	-46.436112	-0.180756	-138.008969	-0.180756	-138.008969	-23.895301	-46.068287
2.550000	-23.535387	-49.260036	-0.186105	-140.791046	-0.186105	-140.791046	-23.530951	-48.895120
2.600000	-23.187992	-52.081702	-0.191533	-143.574025	-0.191533	-143.574025	-23.183649	-51.719304
2.650000	-22.857543	-54.901084	-0.197043	-146.358044	-0.197043	-146.358044	-22.853283	-54.540768
2.700000	-22.543141	-57.718678	-0.202621	-149.143001	-0.202621	-149.143001	-22.538957	-57.360064
2.750000	-22.244481	-60.534681	-0.208258	-151.928929	-0.208258	-151.928929	-22.240364	-60.177391
2.800000	-21.961208	-63.349297	-0.213947	-154.715846	-0.213947	-154.715846	-21.957151	-62.992958
2.850000	-21.692464	-66.162827	-0.219674	-157.503684	-0.219674	-157.503684	-21.688461	-65.807102
2.900000	-21.438723	-68.975311	-0.225430	-160.292586	-0.225430	-160.292586	-21.434769	-68.619826
2.950000	-21.198442	-71.787063	-0.231202	-163.082396	-0.231202	-163.082396	-21.194531	-71.431509
3.000000	-20.972702	-74.598090	-0.236980	-165.873334	-0.236980	-165.873334	-20.968829	-74.242097
3.050000	-20.759853	-77.408628	-0.242751	-168.665250	-0.242751	-168.665250	-20.756015	-77.051887
3.100000	-20.560538	-80.218746	-0.248503	-171.458305	-0.248503	-171.458305	-20.556729	-79.860912
3.150000	-20.373982	-83.028583	-0.254225	-174.252477	-0.254225	-174.252477	-20.370199	-82.669328
3.200000	-20.199924	-85.838254	-0.259904	-177.047816	-0.259904	-177.047816	-20.196163	-85.477253
3.250000	-20.038627	-88.647875	-0.265527	-179.844449	-0.265527	-179.844449	-20.034884	-88.284777
3.300000	-19.888780	-91.457567	-0.271088	177.357708	-0.271088	177.357708	-19.885052	-91.092061
3.350000	-19.751507	-94.267483	-0.276568	174.558392	-0.276568	174.558392	-19.747790	-93.899201
3.400000	-19.625728	-97.077756	-0.281961	171.757648	-0.281961	171.757648	-19.622020	-96.706360
3.450000	-19.511393	-99.888553	-0.287257	168.955368	-0.287257	168.955368	-19.507690	-99.513690
3.500000	-19.408283	-102.700053	-0.292446	166.151462	-0.292446	166.151462	-19.404581	-102.321365
3.550000	-19.316183	-105.512456	-0.297519	163.345836	-0.297519	163.345836	-19.312480	-105.129578
3.600000	-19.234881	-108.325984	-0.302468	160.538389	-0.302468	160.538389	-19.231173	-107.938544
3.650000	-19.164163	-111.140886	-0.307287	157.729016	-0.307287	157.729016	-19.160447	-110.748502
3.700000	-19.103814	-113.957433	-0.311969	154.917608	-0.311969	154.917608	-19.100087	-113.559716
3.750000	-19.053616	-116.775929	-0.316510	152.104049	-0.316510	152.104049	-19.049875	-116.372479
3.800000	-19.013554	-119.596759	-0.320901	149.288171	-0.320901	149.288171	-19.009796	-119.187161
3.850000	-18.983182	-122.420246	-0.325144	146.469899	-0.325144	146.469899	-18.979404	-122.004081
3.900000	-18.962258	-125.246783	-0.329236	143.649111	-0.329236	143.649111	-18.958458	-124.823624
3.950000	-18.950529	-128.076792	-0.333177	140.825681	-0.333177	140.825681	-18.946705	-127.646204
4.000000	-18.947728	-130.910732	-0.336968	137.999482	-0.336968	137.999482	-18.943877	-130.472267
4.050000	-18.953570	-133.749086	-0.340609	135.170387	-0.340609	135.170387	-18.949692	-133.302292
4.100000	-18.967752	-136.592373	-0.344105	132.338268	-0.344105	132.338268	-18.963845	-136.136788
4.150000	-18.989944	-139.441138	-0.347457	129.502998	-0.347457	129.502998	-18.986009	-138.976294
4.200000	-19.019794	-142.295954	-0.350673	126.664449	-0.350673	126.664449	-19.015831	-141.821377
4.250000	-19.056916	-145.157421	-0.353758	123.822496	-0.353758	123.822496	-19.052926	-144.672634
4.300000	-19.100888	-148.026159	-0.356719	120.977014	-0.356719	120.977014	-19.096873	-147.530687
4.350000	-19.151250	-150.902813	-0.359563	118.127881	-0.359563	118.127881	-19.147215	-150.396180
4.400000	-19.207549	-153.788139	-0.362301	115.274934	-0.362301	115.274934	-19.203500	-153.269872
4.450000	-19.269208	-156.682832	-0.364940	112.418051	-0.364940	112.418051	-19.265150	-156.152468
4.500000	-19.335551	-159.587471	-0.367494	109.557157	-0.367494	109.557157	-19.331494	-159.044570
4.550000	-19.405904	-162.502730	-0.369975	106.692139	-0.369975	106.692139	-19.401857	-161.946873
4.600000	-19.479524	-165.429268	-0.372394	103.822888	-0.372394	103.822888	-19.475500	-164.860068
4.650000	-19.555600	-168.367728	-0.374764	100.949296	-0.374764	100.949296	-19.551614	-167.784834
4.700000	-19.633243	-171.318715	-0.377099	98.071256	-0.377099	98.071256	-19.629312	-170.721830
4.750000	-19.711485	-174.282794	-0.379412	95.188666	-0.379412	95.188666	-19.707628	-173.671676
4.800000	-19.789274	-177.260467	-0.381719	92.301424	-0.381719	92.301424	-19.785514	-176.634947
4.850000	-19.865474	179.747842	-0.384034	89.409428	-0.384034	89.409428	-19.861834	-179.612154
4.900000	-19.938864	176.741803	-0.386373	86.512580	-0.386373	86.512580	-19.935372	177.396274
4.950000	-20.008140	173.721198	-0.388750	83.610779	-0.388750	83.610779	-20.004824	174.390006
5.000000	-20.071920	170.685945	-0.391183	80.703927	-0.391183	80.703927	-20.068810	171.368831
5.050000	-20.128559	167.635806	-0.393689	77.791806	-0.393689	77.791806	-20.125687	168.332352
5.100000	-20.176671	164.571355	-0.396285	74.874424	-0.396285	74.874424	-20.174071	165.280994
5.150000	-20.214699	161.493038	-0.398987	71.951676	-0.398987	71.951676	-20.212403	162.215030
5.200000	-20.241062	158.401503	-0.401815	69.023452	-0.401815	69.023452	-20.239100	159.134931
5.250000	-20.254176	155.297605	-0.404786	66.089640	-0.404786	66.089640	-20.252578	156.041365
5.300000	-20.252484	152.182405	-0.407921	63.150122	-0.407921	63.150122	-20.251277	152.935208
5.350000	-20.234485	149.057159	-0.411239	60.204776	-0.411239	60.204776	-20.233691	149.817535
5.400000	-20.198767	145.923302	-0.414764	57.253474	-0.414764	57.253474	-20.198402	146.689610
5.450000	-20.144036	142.782415	-0.418518	54.296081	-0.418518	54.296081	-20.144112	143.552861
5.500000	-20.069157	139.636190	-0.422526	51.332458	-0.422526	51.332458	-20.069677	140.408848
5.550000	-19.973176	136.486380	-0.426815	48.362457	-0.426815	48.362457	-19.974138	137.259221
5.600000	-19.855354	133.334746	-0.431413	45.385926	-0.431413	45.385926	-19.856746	134.105674
5.650000	-19.714912	130.183018	-0.436357	42.402632	-0.436357	42.402632	-19.716717	130.949884
5.700000	-19.551569	127.032855	-0.441682	39.412405	-0.441682	39.412405	-19.553760	127.793518
5.750000	-19.365603	123.885691	-0.447421	36.415152	-0.447421	36.415152	-19.368150	124.638088
5.800000	-19.157293	120.742756	-0.453614	33.410702	-0.453614	33.410702	-19.160158	121.484915
5.850000	-18.927169	117.605037	-0.460308	30.398883	-0.460308	30.398883	-18.930312	118.335111
5.900000	-18.675996	114.473257	-0.467551	27.379524	-0.467551	27.379524	-18.679374	115.189555
5.950000	-18.404758	111.347868	-0.475394	24.352460	-0.475394	24.352460	-18.408327	112.048879
6.000000	-18.114624	108.229058	-0.483898	21.317528	-0.483898	21.317528	-18.118341	108.913467
6.050000	-17.806923	105.116761	-0.493123	18.274577	-0.493123	18.274577	-17.810745	105.783461
6.100000	-17.483105	102.010690	-0.503137	15.223468	-0.503137	15.223468	-17.486993	102.658787
6.150000	-17.144717	98.910368	-0.514015	12.164078	-0.514015	12.164078	-17.148633	99.539173
6.200000	-16.793362	95.815165	-0.525834	9.096305	-0.525834	9.096305	-16.797273	96.424192
6.250000	-16.430674	92.724341	-0.538678	6.020072	-0.538678	6.020072	-16.434551	93.313292
6.300000	-16.057893	89.637123	-0.552657	2.935195	-0.552657	2.935195	-16.061712	90.205876
6.350000	-15.677066	86.552596	-0.567849	-0.158196	-0.567849	-0.158196	-15.680805	87.101188
6.400000	-15.289775	83.469918	-0.584355	-3.260069	-0.584355	-3.260069	-15.293418	83.998521
6.450000	-14.897546	80.388280	-0.602279	-6.370343	-0.602279	-6.370343	-14.901079	80.897186
6.500000	-14.501837	77.306934	-0.621731	-9.488888	-0.621731	-9.488888	-14.505250	77.796534
6.550000	-14.104027	74.225214	-0.642826	-12.615511	-0.642826	-12.615511	-14.107314	74.695979
6.600000	-13.705271	71.142540	-0.665693	-15.750021	-0.665693	-15.750021	-13.708426	71.595011
6.650000	-13.306899	68.058457	-0.690445	-18.892047	-0.690445	-18.892047	-13.309921	68.493222
6.700000	-12.909799	64.972599	-0.717236	-22.041293	-0.717236	-22.041293	-12.912686	65.390294
6.750000	-12.515692	61.884850	-0.746100	-25.196991	-0.746100	-25.196991	-12.518447	62.286105
6.800000	-12.125126	58.795092	-0.777205	-28.358757	-0.777205	-28.358757	-12.127750	59.180570
6.850000	-11.738972	55.703388	-0.810669	-31.525951	-0.810669	-31.525951	-11.741469	56.073756
6.900000	-11.357908	52.609919	-0.846633	-34.697889	-0.846633	-34.697889	-11.360280	52.965850
6.950000	-10.982689	49.515030	-0.885210	-37.873728	-0.885210	-37.873728	-10.984941	49.857188
7.000000	-10.614199	46.419214	-0.926442	-41.052481	-0.926442	-41.052481	-10.616336	46.748237
7.050000	-10.252810	43.323041	-0.970480	-44.233226	-0.970480	-44.233226	-10.254837	43.639565
7.100000	-9.899111	40.227232	-1.017388	-47.414867	-1.017388	-47.414867	-9.901033	40.531867
7.150000	-9.553552	37.132610	-1.067242	-50.596256	-1.067242	-50.596256	-9.555373	37.425949
7.200000	-9.216514	34.040116	-1.120109	-53.776167	-1.120109	-53.776167	-9.218240	34.322729
7.250000	-8.888329	30.950811	-1.176053	-56.953279	-1.176053	-56.953279	-8.889964	31.223249
7.300000	-8.569321	27.865797	-1.235084	-60.126261	-1.235084	-60.126261	-8.570871	28.128582
7.350000	-8.259728	24.786265	-1.297216	-63.293725	-1.297216	-63.293725	-8.261197	25.039897
7.400000	-7.959740	21.713475	-1.362448	-66.454243	-1.362448	-66.454243	-7.961132	21.958430
7.450000	-7.669501	18.648734	-1.430759	-69.606366	-1.430759	-69.606366	-7.670822	18.885465
7.500000	-7.389119	15.593387	-1.502108	-72.748629	-1.502108	-72.748629	-7.390371	15.822327
7.550000	-7.118677	12.548937	-1.576463	-75.879429	-1.576463	-75.879429	-7.119866	12.770500
7.600000	-6.858198	9.516661	-1.653717	-78.997422	-1.653717	-78.997422	-6.859327	9.731236
7.650000	-6.607673	6.497932	-1.733772	-82.101182	-1.733772	-82.101182	-6.608746	6.705889
7.700000	-6.367061	3.494100	-1.816511	-85.189321	-1.816511	-85.189321	-6.368082	3.695792
7.750000	-6.136395	0.506958	-1.901842	-88.260007	-1.901842	-88.260007	-6.137366	0.702726
7.800000	-5.915399	-2.463035	-1.989528	-91.312813	-1.989528	-91.312813	-5.916324	-2.272881
7.850000	-5.704020	-5.414322	-2.079438	-94.346166	-2.079438	-94.346166	-5.704903	-5.229481
7.900000	-5.502110	-8.345768	-2.171389	-97.358945	-2.171389	-97.358945	-5.502953	-8.165954
7.950000	-5.309496	-11.256319	-2.265181	-100.350114	-2.265181	-100.350114	-5.310303	-11.081259
8.000000	-5.125991	-14.145017	-2.360603	-103.318735	-2.360603	-103.318735	-5.126763	-13.974452
8.050000	-4.951389	-17.011001	-2.457432	-106.263968	-2.457432	-106.263968	-4.952129	-16.844685
8.100000	-4.785472	-19.853519	-2.555437	-109.185083	-2.555437	-109.185083	-4.786181	-19.691217
8.150000	-4.628070	-22.671662	-2.654371	-112.081179	-2.654371	-112.081179	-4.628751	-22.513147
8.200000	-4.478945	-25.464892	-2.753978	-114.951730	-2.753978	-114.951730	-4.479600	-25.309950
8.250000	-4.337793	-28.233075	-2.854008	-117.796611	-2.854008	-117.796611	-4.338423	-28.081500
8.300000	-4.204362	-30.975931	-2.954202	-120.615537	-2.954202	-120.615537	-4.204969	-30.827530
8.350000	-4.078401	-33.693301	-3.054303	-123.408335	-3.054303	-123.408335	-4.078986	-33.547887
8.400000	-3.959657	-36.385144	-3.154049	-126.174936	-3.154049	-126.174936	-3.960221	-36.242539
8.450000	-3.847881	-39.051534	-3.253179	-128.915378	-3.253179	-128.915378	-3.848426	-38.911567
8.500000	-3.742827	-41.692657	-3.351433	-131.629800	-3.351433	-131.629800	-3.743353	-41.555164
8.550000	-3.644255	-44.308808	-3.448549	-134.318437	-3.448549	-134.318437	-3.644762	-44.173631
8.600000	-3.551932	-46.900385	-3.544273	-136.981620	-3.544273	-136.981620	-3.552421	-46.767374
8.650000	-3.465631	-49.467886	-3.638347	-139.619769	-3.638347	-139.619769	-3.466103	-49.336896
8.700000	-3.385138	-52.011905	-3.730521	-142.233390	-3.730521	-142.233390	-3.385592	-51.882795
8.750000	-3.310247	-54.533121	-3.820545	-144.823069	-3.820545	-144.823069	-3.310684	-54.405755
8.800000	-3.240867	-57.031839	-3.908100	-147.388984	-3.908100	-147.388984	-3.241287	-56.906084
8.850000	-3.176710	-59.509402	-3.993011	-149.932403	-3.993011	-149.932403	-3.177112	-59.385132
8.900000	-3.117608	-61.966729	-4.075043	-152.454142	-4.075043	-152.454142	-3.117993	-61.843820
8.950000	-3.063408	-64.404805	-4.153960	-154.955087	-4.153960	-154.955087	-3.063775	-64.283137
9.000000	-3.013970	-66.824674	-4.229535	-157.436193	-4.229535	-157.436193	-3.014320	-66.704131
9.050000	-2.969170	-69.227437	-4.301541	-159.898477	-4.301541	-159.898477	-2.969502	-69.107906
9.100000	-2.928901	-71.614247	-4.369754	-162.343023	-4.369754	-162.343023	-2.929214	-71.495614
9.150000	-2.893069	-73.986300	-4.433953	-164.770979	-4.433953	-164.770979	-2.893364	-73.868455
9.200000	-2.861600	-76.344834	-4.493922	-167.183555	-4.493922	-167.183555	-2.861876	-76.227669
9.250000	-2.834435	-78.691123	-4.549443	-169.582030	-4.549443	-169.582030	-2.834692	-78.574529
9.300000	-2.811534	-81.026473	-4.600302	-171.967751	-4.600302	-171.967751	-2.811772	-80.910342
9.350000	-2.792875	-83.352216	-4.646286	-174.342134	-4.646286	-174.342134	-2.793093	-83.236440
9.400000	-2.778500	-85.669634	-4.687123	-176.706583	-4.687123	-176.706583	-2.778698	-85.554103
9.450000	-2.768427	-87.980146	-4.722595	-179.062726	-4.722595	-179.062726	-2.768605	-87.864749
9.500000	-2.762646	-90.285229	-4.752546	178.587663	-4.752546	178.587663	-2.762804	-90.169855
9.550000	-2.761214	-92.586277	-4.776763	176.242827	-4.776763	176.242827	-2.761352	-92.470812
9.600000	-2.764210	-94.884687	-4.795031	173.900903	-4.795031	173.900903	-2.764328	-94.769015
9.650000	-2.771735	-97.181854	-4.807134	171.559915	-4.807134	171.559915	-2.771832	-97.065853
9.700000	-2.783910	-99.479162	-4.812854	169.217761	-4.812854	169.217761	-2.783986	-99.362707
9.750000	-2.800882	-101.777981	-4.811971	166.872201	-4.811971	166.872201	-2.800937	-101.660941
9.800000	-2.822821	-104.079657	-4.804263	164.520839	-4.804263	164.520839	-2.822855	-103.961897
9.850000	-2.849923	-106.385507	-4.789507	162.161105	-4.789507	162.161105	-2.849934	-106.266884
9.900000	-2.882407	-108.696811	-4.767479	159.790236	-4.767479	159.790236	-2.882395	-108.577174
9.950000	-2.920523	-111.014797	-4.737951	157.405249	-4.737951	157.405249	-2.920485	-110.893986
10.000000	-2.964544	-113.340639	-4.700697	155.002917	-4.700697	155.002917	-2.964480	-113.218485
