! freq	dB(S11)	phase(S11)	dB(S12)	phase(S12)	
!     	dB(S21)	phase(S21)	dB(S22)	phase(S22)	
!S-par simulation data
#  GHz  S  DB  R 50
0.000000	-0.000000	0.000000	-314.887366	0.000000	-314.887366	0.000000	-0.000000	0.000000
0.050000	-0.001735	-2.694232	-63.807447	87.235728	-63.807447	87.235728	-0.001733	-2.693039
0.100000	-0.005907	-5.375660	-57.798525	84.491368	-57.798525	84.491368	-0.005902	-5.373282
0.150000	-0.010768	-8.042429	-54.293396	81.777673	-54.293396	81.777673	-0.010760	-8.038875
0.200000	-0.015367	-10.699364	-51.813632	79.093955	-51.813632	79.093955	-0.015355	-10.694639
0.250000	-0.019472	-13.350801	-49.895618	76.434865	-49.895618	76.434865	-0.019457	-13.344906
0.300000	-0.023165	-15.999511	-48.332697	73.792679	-48.332697	73.792679	-0.023147	-15.992443
0.350000	-0.026601	-18.646803	-47.014643	71.160482	-47.014643	71.160482	-0.026579	-18.638560
0.400000	-0.029888	-21.293057	-45.876168	68.534216	-45.876168	68.534216	-0.029863	-21.283635
0.450000	-0.033100	-23.938214	-44.875568	65.911708	-44.875568	65.911708	-0.033071	-23.927610
0.500000	-0.036287	-26.582127	-43.983937	63.291864	-43.983937	63.291864	-0.036254	-26.570337
0.550000	-0.039473	-29.224529	-43.180915	60.674662	-43.180915	60.674662	-0.039436	-29.211548
0.600000	-0.042672	-31.865027	-42.451739	58.060713	-42.451739	58.060713	-0.042630	-31.850850
0.650000	-0.045887	-34.503382	-41.784727	55.450616	-41.784727	55.450616	-0.045841	-34.488004
0.700000	-0.049120	-37.139340	-41.170878	52.845087	-41.170878	52.845087	-0.049069	-37.122756
0.750000	-0.052369	-39.772566	-40.603252	50.245052	-40.603252	50.245052	-0.052313	-39.754769
0.800000	-0.055631	-42.402832	-40.076050	47.651231	-40.076050	47.651231	-0.055569	-42.383815
0.850000	-0.058901	-45.029977	-39.584443	45.064186	-39.584443	45.064186	-0.058834	-45.009735
0.900000	-0.062178	-47.653852	-39.124450	42.484436	-39.124450	42.484436	-0.062104	-47.632376
0.950000	-0.065456	-50.274318	-38.692746	39.912459	-38.692746	39.912459	-0.065376	-50.251601
1.000000	-0.068734	-52.891282	-38.286475	37.348621	-38.286475	37.348621	-0.068647	-52.867315
1.050000	-0.072009	-55.504686	-37.903180	34.793206	-37.903180	34.793206	-0.071915	-55.479460
1.100000	-0.075278	-58.114502	-37.540726	32.246421	-37.540726	32.246421	-0.075177	-58.088008
1.150000	-0.078539	-60.720735	-37.197248	29.708402	-37.197248	29.708402	-0.078430	-60.692964
1.200000	-0.081791	-63.323421	-36.871103	27.179220	-36.871103	27.179220	-0.081673	-63.294360
1.250000	-0.085031	-65.922621	-36.560832	24.658884	-36.560832	24.658884	-0.084905	-65.892260
1.300000	-0.088259	-68.518356	-36.265219	22.147536	-36.265219	22.147536	-0.088124	-68.486683
1.350000	-0.091473	-71.110820	-35.983008	19.644878	-35.983008	19.644878	-0.091329	-71.077822
1.400000	-0.094674	-73.700156	-35.713150	17.150756	-35.713150	17.150756	-0.094519	-73.665820
1.450000	-0.097859	-76.286529	-35.454696	14.664968	-35.454696	14.664968	-0.097695	-76.250842
1.500000	-0.101031	-78.870130	-35.206785	12.187269	-35.206785	12.187269	-0.100856	-78.833076
1.550000	-0.104187	-81.451166	-34.968629	9.717372	-34.968629	9.717372	-0.104002	-81.412732
1.600000	-0.107330	-84.029869	-34.739509	7.254948	-34.739509	7.254948	-0.107134	-83.990037
1.650000	-0.110460	-86.606484	-34.518765	4.799631	-34.518765	4.799631	-0.110252	-86.565240
1.700000	-0.113578	-89.181315	-34.305738	2.350879	-34.305738	2.350879	-0.113358	-89.138641
1.750000	-0.116684	-91.754552	-34.099993	-0.091388	-34.099993	-0.091388	-0.116451	-91.710431
1.800000	-0.119781	-94.326558	-33.900928	-2.527867	-33.900928	-2.527867	-0.119535	-94.280971
1.850000	-0.122870	-96.897647	-33.708063	-4.959061	-33.708063	-4.959061	-0.122611	-96.850574
1.900000	-0.125953	-99.468146	-33.520949	-7.385506	-33.520949	-7.385506	-0.125681	-99.419569
1.950000	-0.129032	-102.038398	-33.339169	-9.807767	-33.339169	-9.807767	-0.128746	-101.988296
2.000000	-0.132109	-104.608758	-33.162334	-12.226438	-33.162334	-12.226438	-0.131809	-104.557109
2.050000	-0.135187	-107.179592	-32.990081	-14.642142	-32.990081	-14.642142	-0.134872	-107.126376
2.100000	-0.138268	-109.751284	-32.822075	-17.055521	-32.822075	-17.055521	-0.137937	-109.696477
2.150000	-0.141355	-112.324236	-32.657998	-19.467261	-32.657998	-19.467261	-0.141008	-112.267815
2.200000	-0.144449	-114.898838	-32.497546	-21.878089	-32.497546	-21.878089	-0.144086	-114.840780
2.250000	-0.147555	-117.475556	-32.340450	-24.288746	-32.340450	-24.288746	-0.147175	-117.415835
2.300000	-0.150673	-120.054718	-32.186430	-26.700002	-32.186430	-26.700002	-0.150276	-119.993310
2.350000	-0.153806	-122.636789	-32.035258	-29.112616	-32.035258	-29.112616	-0.153392	-122.573668
2.400000	-0.156957	-125.222077	-31.886705	-31.527321	-31.886705	-31.527321	-0.156524	-125.157218
2.450000	-0.160129	-127.811367	-31.740556	-33.945202	-31.740556	-33.945202	-0.159678	-127.744741
2.500000	-0.163321	-130.404473	-31.596641	-36.366559	-31.596641	-36.366559	-0.162851	-130.336055
2.550000	-0.166540	-133.002802	-31.454720	-38.793206	-31.454720	-38.793206	-0.166050	-132.932562
2.600000	-0.169782	-135.605781	-31.314699	-41.224965	-31.314699	-41.224965	-0.169273	-135.533693
2.650000	-0.173054	-138.214682	-31.176355	-43.663663	-31.176355	-43.663663	-0.172524	-138.140715
2.700000	-0.176354	-140.829403	-31.039601	-46.109557	-31.039601	-46.109557	-0.175803	-140.753530
2.750000	-0.179685	-143.450641	-30.904285	-48.563888	-30.904285	-48.563888	-0.179113	-143.372831
2.800000	-0.183047	-146.078983	-30.770280	-51.027779	-30.770280	-51.027779	-0.182454	-145.999207
2.850000	-0.186441	-148.714327	-30.637545	-53.501423	-30.637545	-53.501423	-0.185825	-148.632557
2.900000	-0.189870	-151.358165	-30.505876	-55.987259	-30.505876	-55.987259	-0.189231	-151.274367
2.950000	-0.193329	-154.009497	-30.375358	-58.484146	-30.375358	-58.484146	-0.192667	-153.923646
3.000000	-0.196824	-156.670104	-30.245781	-60.995029	-30.245781	-60.995029	-0.196139	-156.582167
3.050000	-0.200352	-159.339902	-30.117151	-63.520100	-30.117151	-63.520100	-0.199643	-159.249849
3.100000	-0.203914	-162.019319	-29.989431	-66.060312	-29.989431	-66.060312	-0.203181	-161.927121
3.150000	-0.207509	-164.708776	-29.862596	-68.616604	-29.862596	-68.616604	-0.206750	-164.614404
3.200000	-0.211135	-167.408681	-29.736630	-71.189896	-29.736630	-71.189896	-0.210352	-167.312107
3.250000	-0.214793	-170.119431	-29.611533	-73.781084	-29.611533	-73.781084	-0.213984	-170.020625
3.300000	-0.218480	-172.841405	-29.487314	-76.391034	-29.487314	-76.391034	-0.217645	-172.740342
3.350000	-0.222196	-175.575373	-29.363967	-79.021269	-29.363967	-79.021269	-0.221335	-175.472024
3.400000	-0.225938	-178.321018	-29.241571	-81.671459	-29.241571	-81.671459	-0.225051	-178.215358
3.450000	-0.229705	178.921069	-29.120150	-84.342798	-29.120150	-84.342798	-0.228791	179.029064
3.500000	-0.233495	176.150587	-28.999754	-87.035981	-28.999754	-87.035981	-0.232554	176.260941
3.550000	-0.237304	173.367259	-28.880443	-89.751647	-28.880443	-89.751647	-0.236336	173.479993
3.600000	-0.241131	170.570835	-28.762287	-92.490377	-28.762287	-92.490377	-0.240136	170.685968
3.650000	-0.244973	167.761093	-28.645360	-95.252688	-28.645360	-95.252688	-0.243950	167.878645
3.700000	-0.248826	164.937844	-28.529745	-98.039030	-28.529745	-98.039030	-0.247775	165.057832
3.750000	-0.252688	162.100934	-28.415530	-100.849783	-28.415530	-100.849783	-0.251609	162.223371
3.800000	-0.256554	159.249940	-28.302811	-103.685797	-28.302811	-103.685797	-0.255448	159.374839
3.850000	-0.260421	156.385080	-28.191686	-106.546773	-28.191686	-106.546773	-0.259287	156.512451
3.900000	-0.264286	153.506318	-28.082256	-109.432866	-28.082256	-109.432866	-0.263124	153.636166
3.950000	-0.268144	150.613657	-27.974620	-112.344156	-27.974620	-112.344156	-0.266954	150.745987
4.000000	-0.271991	147.707146	-27.868882	-115.280650	-27.868882	-115.280650	-0.270774	147.841960
4.050000	-0.275822	144.786883	-27.765144	-118.242282	-27.765144	-118.242282	-0.274578	144.924177
4.100000	-0.279634	141.853010	-27.663508	-121.228912	-27.663508	-121.228912	-0.278362	141.992779
4.150000	-0.283421	138.905723	-27.564076	-124.240332	-27.564076	-124.240332	-0.282123	139.047957
4.200000	-0.287179	135.945267	-27.466948	-127.276263	-27.466948	-127.276263	-0.285854	136.089954
4.250000	-0.290902	132.971942	-27.372222	-130.336358	-27.372222	-130.336358	-0.289552	133.119064
4.300000	-0.294587	129.986100	-27.279994	-133.420207	-27.279994	-133.420207	-0.293211	130.135636
4.350000	-0.298228	126.988147	-27.190357	-136.527332	-27.190357	-136.527332	-0.296827	127.140074
4.400000	-0.301820	123.978427	-27.103423	-139.657434	-27.103423	-139.657434	-0.300394	124.132713
4.450000	-0.305358	120.957476	-27.019284	-142.809887	-27.019284	-142.809887	-0.303908	121.114088
4.500000	-0.308838	117.925998	-26.938005	-145.983775	-26.938005	-145.983775	-0.307364	118.084898
4.550000	-0.312254	114.884623	-26.859668	-149.178367	-26.859668	-149.178367	-0.310758	115.045769
4.600000	-0.315603	111.834039	-26.784348	-152.392868	-26.784348	-152.392868	-0.314084	111.997384
4.650000	-0.318879	108.774981	-26.712121	-155.626423	-26.712121	-155.626423	-0.317340	108.940474
4.700000	-0.322080	105.708240	-26.643056	-158.878112	-26.643056	-158.878112	-0.320521	105.875826
4.750000	-0.325202	102.634653	-26.577216	-162.146951	-26.577216	-162.146951	-0.323622	102.804273
4.800000	-0.328239	99.555105	-26.514662	-165.431891	-26.514662	-165.431891	-0.326641	99.726695
4.850000	-0.331191	96.470525	-26.455449	-168.731818	-26.455449	-168.731818	-0.329574	96.644017
4.900000	-0.334053	93.381882	-26.399624	-172.045554	-26.399624	-172.045554	-0.332420	93.557205
4.950000	-0.336824	90.290183	-26.347231	-175.371856	-26.347231	-175.371856	-0.335174	90.467263
5.000000	-0.339501	87.196469	-26.298303	-178.709417	-26.298303	-178.709417	-0.337836	87.375228
5.050000	-0.342081	84.101816	-26.252938	177.942949	-26.252938	177.942949	-0.340402	84.282171
5.100000	-0.344566	81.007365	-26.211084	174.586920	-26.211084	174.586920	-0.342874	81.189233
5.150000	-0.346955	77.914235	-26.172749	171.223982	-26.172749	171.223982	-0.345250	78.097529
5.200000	-0.349248	74.823559	-26.137930	167.855671	-26.137930	167.855671	-0.347532	75.008192
5.250000	-0.351447	71.736482	-26.106612	164.483570	-26.106612	164.483570	-0.349720	71.922363
5.300000	-0.353552	68.654155	-26.078769	161.109298	-26.078769	161.109298	-0.351816	68.841193
5.350000	-0.355566	65.577728	-26.054364	157.734506	-26.054364	157.734506	-0.353821	65.765831
5.400000	-0.357492	62.508349	-26.033347	154.360869	-26.033347	154.360869	-0.355739	62.697424
5.450000	-0.359333	59.447155	-26.015654	150.990075	-26.015654	150.990075	-0.357573	59.637111
5.500000	-0.361093	56.395272	-26.001211	147.623818	-26.001211	147.623818	-0.359326	56.586014
5.550000	-0.362776	53.353802	-25.989928	144.263786	-25.989928	144.263786	-0.361004	53.545240
5.600000	-0.364387	50.323828	-25.981705	140.911654	-25.981705	140.911654	-0.362611	50.515870
5.650000	-0.365931	47.306552	-25.976460	137.569196	-25.976460	137.569196	-0.364151	47.499108
5.700000	-0.367415	44.303029	-25.974063	134.238081	-25.974063	134.238081	-0.365632	44.496010
5.750000	-0.368846	41.314105	-25.974347	130.919778	-25.974347	130.919778	-0.367060	41.507426
5.800000	-0.370230	38.340724	-25.977165	127.615805	-25.977165	127.615805	-0.368442	38.534302
5.850000	-0.371576	35.383787	-25.982363	124.327618	-25.982363	124.327618	-0.369786	35.577540
5.900000	-0.372889	32.444147	-25.989777	121.056609	-25.989777	121.056609	-0.371099	32.638000
5.950000	-0.374180	29.522613	-25.999239	117.804092	-25.999239	117.804092	-0.372389	29.716490
6.000000	-0.375455	26.619940	-26.010572	114.571302	-26.010572	114.571302	-0.373664	26.813772
6.050000	-0.376722	23.736833	-26.023598	111.359389	-26.023598	111.359389	-0.374933	23.930552
6.100000	-0.377992	20.873943	-26.038133	108.169414	-26.038133	108.169414	-0.376203	21.067487
6.150000	-0.379272	18.031867	-26.053993	105.002348	-26.053993	105.002348	-0.377484	18.225176
6.200000	-0.380570	15.211146	-26.070992	101.859065	-26.070992	101.859065	-0.378784	15.404166
6.250000	-0.381896	12.412267	-26.088945	98.740348	-26.088945	98.740348	-0.380111	12.604947
6.300000	-0.383259	9.636153	-26.107679	95.647444	-26.107679	95.647444	-0.381476	9.828446
6.350000	-0.384667	6.882702	-26.126992	92.580407	-26.126992	92.580407	-0.382886	7.074566
6.400000	-0.386129	4.152230	-26.146705	89.539727	-26.146705	89.539727	-0.384351	4.343629
6.450000	-0.387653	1.445001	-26.166642	86.525807	-26.166642	86.525807	-0.385877	1.635901
6.500000	-0.389247	-1.238776	-26.186633	83.538960	-26.186633	83.538960	-0.387473	-1.048402
6.550000	-0.390920	-3.898940	-26.206512	80.579414	-26.206512	80.579414	-0.389148	-3.709118
6.600000	-0.392679	-6.535384	-26.226117	77.647317	-26.226117	77.647317	-0.390910	-6.346133
6.650000	-0.394532	-9.148048	-26.245292	74.742738	-26.245292	74.742738	-0.392765	-8.959383
6.700000	-0.396485	-11.736919	-26.263889	71.865672	-26.263889	71.865672	-0.394721	-11.548852
6.750000	-0.398548	-14.302031	-26.281762	69.016049	-26.281762	69.016049	-0.396785	-14.114568
6.800000	-0.400725	-16.843459	-26.298774	66.193731	-26.298774	66.193731	-0.398964	-16.656605
6.850000	-0.403024	-19.361323	-26.314792	63.398523	-26.314792	63.398523	-0.401265	-19.175077
6.900000	-0.405453	-21.855528	-26.329676	60.630465	-26.329676	60.630465	-0.403695	-21.669885
6.950000	-0.408017	-24.326280	-26.343302	57.889246	-26.343302	57.889246	-0.406261	-24.141231
7.000000	-0.410721	-26.774067	-26.355567	55.174227	-26.355567	55.174227	-0.408967	-26.589601
7.050000	-0.413571	-29.199159	-26.366362	52.485025	-26.366362	52.485025	-0.411818	-29.015261
7.100000	-0.416572	-31.601858	-26.375584	49.821221	-26.375584	49.821221	-0.414819	-31.418510
7.150000	-0.419729	-33.982497	-26.383134	47.182364	-26.383134	47.182364	-0.417976	-33.799676
7.200000	-0.423045	-36.341437	-26.388918	44.567981	-26.388918	44.567981	-0.421292	-36.159118
7.250000	-0.426526	-38.679067	-26.392849	41.977574	-26.392849	41.977574	-0.424773	-38.497222
7.300000	-0.430176	-40.995800	-26.394844	39.410626	-26.394844	39.410626	-0.428422	-40.814399
7.350000	-0.433999	-43.292077	-26.394823	36.866608	-26.394823	36.866608	-0.432243	-43.111086
7.400000	-0.437998	-45.568358	-26.392714	34.344975	-26.392714	34.344975	-0.436240	-45.387740
7.450000	-0.442176	-47.825127	-26.388446	31.845172	-26.388446	31.845172	-0.440417	-47.644843
7.500000	-0.446538	-50.062887	-26.381956	29.366638	-26.381956	29.366638	-0.444776	-49.882895
7.550000	-0.451090	-52.281771	-26.373133	26.909239	-26.373133	26.909239	-0.449324	-52.102026
7.600000	-0.455831	-54.482735	-26.361969	24.471937	-26.361969	24.471937	-0.454061	-54.303190
7.650000	-0.460763	-56.666337	-26.348415	22.054153	-26.348415	22.054153	-0.458989	-56.486944
7.700000	-0.465890	-58.833154	-26.332422	19.655303	-26.332422	19.655303	-0.464111	-58.653861
7.750000	-0.471214	-60.983776	-26.313949	17.274799	-26.313949	17.274799	-0.469429	-60.804529
7.800000	-0.476737	-63.118810	-26.292958	14.912049	-26.292958	14.912049	-0.474946	-62.939552
7.850000	-0.482461	-65.238875	-26.269415	12.566458	-26.269415	12.566458	-0.480663	-65.059548
7.900000	-0.488389	-67.344607	-26.243289	10.237425	-26.243289	10.237425	-0.486584	-67.165150
7.950000	-0.494522	-69.436653	-26.214553	7.924345	-26.214553	7.924345	-0.492709	-69.257003
8.000000	-0.500863	-71.515674	-26.183187	5.626606	-26.183187	5.626606	-0.499041	-71.335767
8.050000	-0.507414	-73.582347	-26.149169	3.343591	-26.149169	3.343591	-0.505582	-73.402113
8.100000	-0.514176	-75.637357	-26.112485	1.074673	-26.112485	1.074673	-0.512333	-75.456729
8.150000	-0.521155	-77.681297	-26.073092	-1.180644	-26.073092	-1.180644	-0.519300	-77.500200
8.200000	-0.528351	-79.714905	-26.030979	-3.423026	-26.030979	-3.423026	-0.526484	-79.533264
8.250000	-0.535765	-81.739030	-25.986173	-5.653275	-25.986173	-5.653275	-0.533886	-81.556768
8.300000	-0.543399	-83.754415	-25.938669	-7.872060	-25.938669	-7.872060	-0.541506	-83.571453
8.350000	-0.551262	-85.761611	-25.888383	-10.079770	-25.888383	-10.079770	-0.549354	-85.577862
8.400000	-0.559333	-87.762110	-25.835626	-12.278120	-25.835626	-12.278120	-0.557409	-87.577497
8.450000	-0.567650	-89.755663	-25.779933	-14.466325	-25.779933	-14.466325	-0.565708	-89.570091
8.500000	-0.576184	-91.743900	-25.721726	-16.646344	-25.721726	-16.646344	-0.574225	-91.557284
8.550000	-0.584956	-93.727236	-25.660777	-18.818275	-25.660777	-18.818275	-0.582978	-93.539478
8.600000	-0.593965	-95.706596	-25.597164	-20.983028	-25.597164	-20.983028	-0.591967	-95.517599
8.650000	-0.603204	-97.682969	-25.531022	-23.141645	-25.531022	-23.141645	-0.601185	-97.492637
8.700000	-0.612701	-99.656986	-25.462069	-25.294359	-25.462069	-25.294359	-0.610659	-99.465209
8.750000	-0.622421	-101.629798	-25.390816	-27.442772	-25.390816	-27.442772	-0.620357	-101.436479
8.800000	-0.632420	-103.602179	-25.316616	-29.586847	-25.316616	-29.586847	-0.630331	-103.407192
8.850000	-0.642652	-105.575087	-25.240174	-31.728214	-25.240174	-31.728214	-0.640537	-105.378329
8.900000	-0.653158	-107.549634	-25.161030	-33.867358	-25.161030	-33.867358	-0.651016	-107.350978
8.950000	-0.663921	-109.526630	-25.079529	-36.005362	-25.079529	-36.005362	-0.661750	-109.325957
9.000000	-0.674954	-111.507211	-24.995588	-38.143143	-24.995588	-38.143143	-0.672754	-111.304392
9.050000	-0.686270	-113.492513	-24.909191	-40.281677	-24.909191	-40.281677	-0.684040	-113.287412
9.100000	-0.697856	-115.483214	-24.820634	-42.421860	-24.820634	-42.421860	-0.695592	-115.275699
9.150000	-0.709753	-117.481298	-24.729539	-44.565039	-24.729539	-44.565039	-0.707456	-117.271216
9.200000	-0.721924	-119.486629	-24.636521	-46.711691	-24.636521	-46.711691	-0.719591	-119.273843
9.250000	-0.734430	-121.502081	-24.541031	-48.863763	-24.541031	-48.863763	-0.732061	-121.286421
9.300000	-0.747232	-123.527212	-24.443693	-51.021439	-24.443693	-51.021439	-0.744824	-123.308528
9.350000	-0.760374	-125.564562	-24.344222	-53.186606	-24.344222	-53.186606	-0.757925	-125.342678
9.400000	-0.773848	-127.614740	-24.242886	-55.359984	-24.242886	-55.359984	-0.771358	-127.389485
9.450000	-0.787668	-129.679110	-24.139780	-57.542758	-24.139780	-57.542758	-0.785134	-129.450304
9.500000	-0.801865	-131.759969	-24.034837	-59.736734	-24.034837	-59.736734	-0.799286	-131.527415
9.550000	-0.816414	-133.856848	-23.928509	-61.941814	-23.928509	-61.941814	-0.813787	-133.620362
9.600000	-0.831392	-135.974448	-23.820432	-64.161477	-23.820432	-64.161477	-0.828715	-135.733804
9.650000	-0.846743	-138.110589	-23.711277	-66.394336	-23.711277	-66.394336	-0.844016	-137.865592
9.700000	-0.862554	-140.270606	-23.600737	-68.644309	-23.600737	-68.644309	-0.859774	-140.021014
9.750000	-0.878789	-142.453135	-23.489319	-70.910484	-23.489319	-70.910484	-0.875953	-142.198727
9.800000	-0.895501	-144.661841	-23.377022	-73.195514	-23.377022	-73.195514	-0.892609	-144.402369
9.850000	-0.912705	-146.898062	-23.264087	-75.500324	-23.264087	-75.500324	-0.909753	-146.633271
9.900000	-0.930406	-149.162605	-23.150803	-77.825395	-23.150803	-77.825395	-0.927392	-148.892242
9.950000	-0.948677	-151.460409	-23.037235	-80.174076	-23.037235	-80.174076	-0.945600	-151.184182
10.000000	-0.967466	-153.788490	-22.923866	-82.544028	-22.923866	-82.544028	-0.964324	-153.506142
