! freq	dB(S11)	phase(S11)	dB(S12)	phase(S12)	
!     	dB(S21)	phase(S21)	dB(S22)	phase(S22)	
!S-par simulation data
#  GHz  S  DB  R 50
0.000000	-81.731036	0.000000	-0.000712	0.000000	-0.000712	0.000000	-81.731036	0.000000
0.050000	-62.075171	42.648638	-0.004157	-2.594623	-0.004157	-2.594623	-67.210194	28.021788
0.100000	-57.785462	32.959632	-0.009714	-5.200856	-0.009714	-5.200856	-62.872798	80.374533
0.150000	-54.193342	25.947885	-0.015170	-7.799063	-0.015170	-7.799063	-57.730015	108.055086
0.200000	-50.957445	19.616095	-0.020210	-10.385885	-0.020210	-10.385885	-53.233819	121.194241
0.250000	-48.137947	13.900772	-0.024719	-12.965412	-0.024719	-12.965412	-49.618368	128.217461
0.300000	-45.636633	8.810440	-0.028642	-15.540259	-0.028642	-15.540259	-46.600705	131.796277
0.350000	-43.411269	4.241345	-0.032061	-18.112872	-0.032061	-18.112872	-44.033474	133.448181
0.400000	-41.393790	0.128206	-0.035057	-20.684805	-0.035057	-20.684805	-41.780384	133.809451
0.450000	-39.559387	-3.638121	-0.037774	-23.257227	-0.037774	-23.257227	-39.780376	133.361123
0.500000	-37.890795	-7.148015	-0.040335	-25.830720	-0.040335	-25.830720	-37.993148	132.382058
0.550000	-36.362456	-10.454969	-0.042828	-28.405633	-0.042828	-28.405633	-36.377835	131.016346
0.600000	-34.948879	-13.593963	-0.045326	-30.982270	-0.045326	-30.982270	-34.899143	129.350715
0.650000	-33.639293	-16.603960	-0.047892	-33.560714	-0.047892	-33.560714	-33.540184	127.465973
0.700000	-32.421176	-19.510585	-0.050576	-36.141032	-0.050576	-36.141032	-32.284180	125.412048
0.750000	-31.281063	-22.330512	-0.053426	-38.723340	-0.053426	-38.723340	-31.114725	123.220348
0.800000	-30.210548	-25.079820	-0.056481	-41.307669	-0.056481	-41.307669	-30.021393	120.919020
0.850000	-29.202961	-27.771681	-0.059775	-43.894015	-0.059775	-43.894015	-28.996059	118.530097
0.900000	-28.251934	-30.415906	-0.063339	-46.482377	-0.063339	-46.482377	-28.031283	116.069517
0.950000	-27.351720	-33.020130	-0.067203	-49.072761	-0.067203	-49.072761	-27.120532	113.549381
1.000000	-26.497603	-35.590793	-0.071395	-51.665152	-0.071395	-51.665152	-26.258485	110.979668
1.050000	-25.685517	-38.133205	-0.075941	-54.259528	-0.075941	-54.259528	-25.440611	108.368454
1.100000	-24.911937	-40.651783	-0.080866	-56.855856	-0.080866	-56.855856	-24.663016	105.722352
1.150000	-24.173795	-43.150246	-0.086193	-59.454095	-0.086193	-59.454095	-23.922330	103.046840
1.200000	-23.468405	-45.631750	-0.091946	-62.054196	-0.091946	-62.054196	-23.215619	100.346499
1.250000	-22.793407	-48.099016	-0.098145	-64.656103	-0.098145	-64.656103	-22.540314	97.625202
1.300000	-22.146289	-50.554196	-0.104822	-67.259784	-0.104822	-67.259784	-21.893744	94.885938
1.350000	-21.525719	-52.999662	-0.111986	-69.865127	-0.111986	-69.865127	-21.274401	92.131979
1.400000	-20.930033	-55.437241	-0.119656	-72.472049	-0.119656	-72.472049	-20.680495	89.365776
1.450000	-20.357747	-57.868562	-0.127851	-75.080461	-0.127851	-75.080461	-20.110426	86.589479
1.500000	-19.807524	-60.295085	-0.136586	-77.690264	-0.136586	-77.690264	-19.562764	83.804989
1.550000	-19.278154	-62.718112	-0.145879	-80.301352	-0.145879	-80.301352	-19.036222	81.013998
1.600000	-18.768543	-65.138808	-0.155743	-82.913610	-0.155743	-82.913610	-18.529637	78.218027
1.650000	-18.277695	-67.558206	-0.166194	-85.526916	-0.166194	-85.526916	-18.041961	75.418450
1.700000	-17.804699	-69.977218	-0.177245	-88.141137	-0.177245	-88.141137	-17.572239	72.616517
1.750000	-17.348721	-72.396643	-0.188906	-90.756133	-0.188906	-90.756133	-17.119602	69.813373
1.800000	-16.908997	-74.817174	-0.201191	-93.371754	-0.201191	-93.371754	-16.683257	67.010072
1.850000	-16.484821	-77.239407	-0.214107	-95.987840	-0.214107	-95.987840	-16.262477	64.207591
1.900000	-16.075510	-79.663869	-0.227669	-98.604222	-0.227669	-98.604222	-15.856563	61.406859
1.950000	-15.680482	-82.090995	-0.241883	-101.220718	-0.241883	-101.220718	-15.464917	58.608747
2.000000	-15.299219	-84.521111	-0.256749	-103.837137	-0.256749	-103.837137	-15.087007	55.814033
2.050000	-14.931203	-86.954498	-0.272269	-106.453280	-0.272269	-106.453280	-14.722307	53.023464
2.100000	-14.575952	-89.391378	-0.288444	-109.068943	-0.288444	-109.068943	-14.370326	50.237745
2.150000	-14.233019	-91.831921	-0.305273	-111.683913	-0.305273	-111.683913	-14.030609	47.457543
2.200000	-13.901961	-94.276389	-0.322772	-114.297929	-0.322772	-114.297929	-13.702714	44.683727
2.250000	-13.582449	-96.724615	-0.340895	-116.910831	-0.340895	-116.910831	-13.386294	41.916480
2.300000	-13.274080	-99.176763	-0.359649	-119.522362	-0.359649	-119.522362	-13.080947	39.156551
2.350000	-12.976510	-101.632856	-0.379023	-122.132292	-0.379023	-122.132292	-12.786323	36.404478
2.400000	-12.689411	-104.092893	-0.399000	-124.740387	-0.399000	-124.740387	-12.502092	33.660770
2.450000	-12.412478	-106.556852	-0.419561	-127.346417	-0.419561	-127.346417	-12.227943	30.925909
2.500000	-12.145420	-109.024698	-0.440683	-129.950154	-0.440683	-129.950154	-11.963583	28.200350
2.550000	-11.888004	-111.496466	-0.462352	-132.551314	-0.462352	-132.551314	-11.708777	25.484741
2.600000	-11.639937	-113.972016	-0.484527	-135.149729	-0.484527	-135.149729	-11.463228	22.779281
2.650000	-11.400970	-116.451289	-0.507176	-137.745194	-0.507176	-137.745194	-11.226683	20.084345
2.700000	-11.170861	-118.934222	-0.530264	-140.337509	-0.530264	-140.337509	-10.998902	17.400280
2.750000	-10.949382	-121.420756	-0.553754	-142.926492	-0.553754	-142.926492	-10.779654	14.727409
2.800000	-10.736315	-123.910836	-0.577604	-145.511969	-0.577604	-145.511969	-10.568721	12.066028
2.850000	-10.531448	-126.404412	-0.601771	-148.093786	-0.601771	-148.093786	-10.365892	9.416407
2.900000	-10.334581	-128.901442	-0.626210	-150.671804	-0.626210	-150.671804	-10.170967	6.778789
2.950000	-10.145519	-131.401896	-0.650873	-153.245901	-0.650873	-153.245901	-9.983753	4.153391
3.000000	-9.964076	-133.905754	-0.675710	-155.815975	-0.675710	-155.815975	-9.804067	1.540402
3.050000	-9.790072	-136.413010	-0.700669	-158.381944	-0.700669	-158.381944	-9.631730	-1.060014
3.100000	-9.623334	-138.923672	-0.725698	-160.943748	-0.725698	-160.943748	-9.466573	-3.647721
3.150000	-9.463741	-141.437804	-0.750741	-163.501301	-0.750741	-163.501301	-9.308479	-6.222470
3.200000	-9.311136	-143.955447	-0.775739	-166.054584	-0.775739	-166.054584	-9.157294	-8.784177
3.250000	-9.165319	-146.476623	-0.800639	-168.603650	-0.800639	-168.603650	-9.012824	-11.332929
3.300000	-9.026142	-149.001411	-0.825382	-171.148528	-0.825382	-171.148528	-8.874925	-13.868700
3.350000	-8.893460	-151.529906	-0.849911	-173.689269	-0.849911	-173.689269	-8.743459	-16.391492
3.400000	-8.767137	-154.062222	-0.874171	-176.225947	-0.874171	-176.225947	-8.618295	-18.901334
3.450000	-8.647039	-156.598492	-0.898102	-178.758658	-0.898102	-178.758658	-8.499306	-21.398280
3.500000	-8.533041	-159.138868	-0.921649	178.712478	-0.921649	178.712478	-8.386373	-23.882413
3.550000	-8.425021	-161.683517	-0.944756	176.187322	-0.944756	176.187322	-8.279381	-26.353841
3.600000	-8.322865	-164.232628	-0.967366	173.665709	-0.967366	173.665709	-8.178222	-28.812701
3.650000	-8.226463	-166.786404	-0.989426	171.147458	-0.989426	171.147458	-8.082794	-31.259152
3.700000	-8.135711	-169.345066	-1.010883	168.632363	-1.010883	168.632363	-7.993001	-33.693382
3.750000	-8.050510	-171.908850	-1.031683	166.120201	-1.031683	166.120201	-7.908752	-36.115604
3.800000	-7.970872	-174.478129	-1.051760	163.610779	-1.051760	163.610779	-7.830065	-38.525807
3.850000	-7.896607	-177.053059	-1.071079	161.103771	-1.071079	161.103771	-7.756760	-40.924516
3.900000	-7.827635	-179.633916	-1.089594	158.598895	-1.089594	158.598895	-7.688764	-43.312023
3.950000	-7.763883	177.779010	-1.107260	156.095852	-1.107260	156.095852	-7.626011	-45.688642
4.000000	-7.705281	175.185420	-1.124032	153.594325	-1.124032	153.594325	-7.568442	-48.054712
4.050000	-7.651769	172.585009	-1.139871	151.093984	-1.139871	151.093984	-7.516002	-50.410599
4.100000	-7.603292	169.977462	-1.154736	148.594481	-1.154736	148.594481	-7.468646	-52.756690
4.150000	-7.559800	167.362461	-1.168593	146.095457	-1.168593	146.095457	-7.426334	-55.093397
4.200000	-7.521252	164.739685	-1.181405	143.596536	-1.181405	143.596536	-7.389032	-57.421158
4.250000	-7.487614	162.108810	-1.193143	141.097331	-1.193143	141.097331	-7.356714	-59.740433
4.300000	-7.458859	159.469514	-1.203776	138.597444	-1.203776	138.597444	-7.329364	-62.051708
4.350000	-7.434966	156.821479	-1.213278	136.096463	-1.213278	136.096463	-7.306969	-64.355493
4.400000	-7.415974	154.164287	-1.221613	133.593947	-1.221613	133.593947	-7.289581	-66.652252
4.450000	-7.401882	151.497621	-1.228759	131.089449	-1.228759	131.089449	-7.277206	-68.942565
4.500000	-7.392639	148.821284	-1.234709	128.582546	-1.234709	128.582546	-7.269805	-71.227096
4.550000	-7.388259	146.134991	-1.239450	126.072789	-1.239450	126.072789	-7.267401	-73.506457
4.600000	-7.388762	143.438474	-1.242968	123.559722	-1.242968	123.559722	-7.270025	-75.781288
4.650000	-7.394179	140.731482	-1.245255	121.042881	-1.245255	121.042881	-7.277720	-78.052257
4.700000	-7.404550	138.013788	-1.246302	118.521798	-1.246302	118.521798	-7.290538	-80.320062
4.750000	-7.419924	135.285188	-1.246107	115.995997	-1.246107	115.995997	-7.308541	-82.585429
4.800000	-7.440362	132.545506	-1.244670	113.464999	-1.244670	113.464999	-7.331803	-84.849116
4.850000	-7.465935	129.794599	-1.241992	110.928319	-1.241992	110.928319	-7.360410	-87.111915
4.900000	-7.496727	127.032362	-1.238079	108.385470	-1.238079	108.385470	-7.394460	-89.374654
4.950000	-7.532833	124.258729	-1.232940	105.835962	-1.232940	105.835962	-7.434063	-91.638195
5.000000	-7.574361	121.473680	-1.226585	103.279300	-1.226585	103.279300	-7.479346	-93.903444
5.050000	-7.621552	118.677003	-1.219006	100.714812	-1.219006	100.714812	-7.530571	-96.171429
5.100000	-7.674428	115.869040	-1.210245	98.142157	-1.210245	98.142157	-7.587777	-98.443111
5.150000	-7.733144	113.049950	-1.200324	95.560837	-1.200324	95.560837	-7.651138	-100.719539
5.200000	-7.797870	110.219964	-1.189268	92.970355	-1.189268	92.970355	-7.720847	-103.001817
5.250000	-7.868794	107.379393	-1.177104	90.370215	-1.177104	90.370215	-7.797116	-105.291113
5.300000	-7.946126	104.528637	-1.163864	87.759919	-1.163864	87.759919	-7.880180	-107.588660
5.350000	-8.030094	101.668199	-1.149582	85.138975	-1.149582	85.138975	-7.970297	-109.895768
5.400000	-8.120952	98.798691	-1.134296	82.506889	-1.134296	82.506889	-8.067751	-112.213830
5.450000	-8.218976	95.920852	-1.118046	79.863172	-1.118046	79.863172	-8.172853	-114.544333
5.500000	-8.324471	93.035561	-1.100878	77.207338	-1.100878	77.207338	-8.285944	-116.888869
5.550000	-8.437771	90.143856	-1.082839	74.538904	-1.082839	74.538904	-8.407400	-119.249152
5.600000	-8.559240	87.246956	-1.063980	71.857393	-1.063980	71.857393	-8.537633	-121.627027
5.650000	-8.689356	84.346260	-1.044349	69.162180	-1.044349	69.162180	-8.677175	-124.024736
5.700000	-8.828563	81.443487	-1.024006	66.452783	-1.024006	66.452783	-8.826531	-126.444537
5.750000	-8.977269	78.540617	-1.003023	63.728890	-1.003023	63.728890	-8.986171	-128.888619
5.800000	-9.136000	75.639900	-0.981465	60.990051	-0.981465	60.990051	-9.156699	-131.359620
5.850000	-9.305335	72.743938	-0.959404	58.235822	-0.959404	58.235822	-9.338782	-133.860460
5.900000	-9.485907	69.855750	-0.936913	55.465773	-0.936913	55.465773	-9.533153	-136.394387
5.950000	-9.678409	66.978834	-0.914071	52.679482	-0.914071	52.679482	-9.740629	-138.965034
6.000000	-9.883601	64.117255	-0.890959	49.876540	-0.890959	49.876540	-9.962109	-141.576496
6.050000	-10.102318	61.275743	-0.867664	47.056553	-0.867664	47.056553	-10.198597	-144.233417
6.100000	-10.335472	58.459819	-0.844276	44.219141	-0.844276	44.219141	-10.451206	-146.941101
6.150000	-10.584066	55.675943	-0.820891	41.363944	-0.820891	41.363944	-10.721179	-149.705655
6.200000	-10.849194	52.931707	-0.797607	38.490619	-0.797607	38.490619	-11.009905	-152.534165
6.250000	-11.132053	50.236067	-0.774527	35.598845	-0.774527	35.598845	-11.318938	-155.434922
6.300000	-11.434146	47.601215	-0.751769	32.687911	-0.751769	32.687911	-11.650249	-158.419770
6.350000	-11.756680	45.038907	-0.729440	29.757950	-0.729440	29.757950	-12.005576	-161.498971
6.400000	-12.101164	42.564496	-0.707658	26.808723	-0.707658	26.808723	-12.387118	-164.686787
6.450000	-12.469196	40.196484	-0.686543	23.840025	-0.686543	23.840025	-12.797342	-168.000600
6.500000	-12.862441	37.957299	-0.666222	20.851684	-0.666222	20.851684	-13.239017	-171.461827
6.550000	-13.282571	35.874274	-0.646822	17.843571	-0.646822	17.843571	-13.715228	-175.097161
6.600000	-13.731182	33.980874	-0.628477	14.815597	-0.628477	14.815597	-14.229386	-178.940263
6.650000	-14.209630	32.318236	-0.611322	11.767722	-0.611322	11.767722	-14.785190	176.965919
6.700000	-14.718811	30.930522	-0.595470	8.700315	-0.595470	8.700315	-15.386457	172.573106
6.750000	-15.258339	29.914730	-0.581200	5.611650	-0.581200	5.611650	-16.037174	167.770347
6.800000	-15.827171	29.290348	-0.568432	2.504713	-0.568432	2.504713	-16.740288	162.525604
6.850000	-16.420683	29.181207	-0.557439	-0.621931	-0.557439	-0.621931	-17.497410	156.676900
6.900000	-17.029912	29.702151	-0.548385	-3.768211	-0.548385	-3.768211	-18.305845	150.047624
6.950000	-17.640140	30.960663	-0.541384	-6.933425	-0.541384	-6.933425	-19.155662	142.433770
7.000000	-18.227466	33.069092	-0.536577	-10.117176	-0.536577	-10.117176	-20.022700	133.574487
7.050000	-18.756916	36.105925	-0.534107	-13.318992	-0.534107	-13.318992	-20.859029	123.194986
7.100000	-19.181900	40.072745	-0.534121	-16.538406	-0.534121	-16.538406	-21.581757	111.096120
7.150000	-19.450082	44.829332	-0.536766	-19.774858	-0.536766	-19.774858	-22.074092	97.363975
7.200000	-19.520162	50.056467	-0.542142	-23.027471	-0.542142	-23.027471	-22.225657	82.598130
7.250000	-19.373363	55.321102	-0.550366	-26.295457	-0.550366	-26.295457	-21.987371	67.803298
7.300000	-19.022809	60.178373	-0.561542	-29.577959	-0.561542	-29.577959	-21.407235	53.984965
7.350000	-18.507845	64.289406	-0.575766	-32.874042	-0.575766	-32.874042	-20.596934	41.731039
7.400000	-17.879151	67.477794	-0.593118	-36.182712	-0.593118	-36.182712	-19.671142	31.150099
7.450000	-17.184751	69.713646	-0.613664	-39.502909	-0.613664	-39.502909	-18.713461	22.062754
7.500000	-16.462650	71.061733	-0.637453	-42.833526	-0.637453	-42.833526	-17.773603	14.195950
7.550000	-15.738903	71.621388	-0.664560	-46.173527	-0.664560	-46.173527	-16.876513	7.297680
7.600000	-15.031634	71.524326	-0.694951	-49.521579	-0.694951	-49.521579	-16.033924	1.135581
7.650000	-14.350832	70.881237	-0.728612	-52.876483	-0.728612	-52.876483	-15.248646	-4.456788
7.700000	-13.701867	69.788352	-0.765509	-56.237036	-0.765509	-56.237036	-14.519636	-9.605661
7.750000	-13.087166	68.326394	-0.805583	-59.602051	-0.805583	-59.602051	-13.844095	-14.406248
7.800000	-12.507357	66.561892	-0.848752	-62.970368	-0.848752	-62.970368	-13.218562	-18.930588
7.850000	-11.962004	64.549270	-0.894907	-66.340878	-0.894907	-66.340878	-12.639472	-23.233607
7.900000	-11.450083	62.333004	-0.943912	-69.712538	-0.943912	-69.712538	-12.103416	-27.357607
7.950000	-10.970320	59.948216	-0.995630	-73.084386	-0.995630	-73.084386	-11.607368	-31.334401
8.000000	-10.521274	57.426163	-1.049857	-76.455560	-1.049857	-76.455560	-11.148490	-35.191069
8.050000	-10.101435	54.792277	-1.106368	-79.825347	-1.106368	-79.825347	-10.724220	-38.948905
8.100000	-9.709358	52.067098	-1.164926	-83.193188	-1.164926	-83.193188	-10.332340	-42.624627
8.150000	-9.343676	49.267867	-1.225268	-86.558696	-1.225268	-86.558696	-9.970909	-46.232021
8.200000	-9.003115	46.409151	-1.287108	-89.921681	-1.287108	-89.921681	-9.638235	-49.782653
8.250000	-8.686509	43.503337	-1.350140	-93.282170	-1.350140	-93.282170	-9.332853	-53.286413
8.300000	-8.392792	40.561016	-1.414034	-96.640432	-1.414034	-96.640432	-9.053506	-56.751941
8.350000	-8.121074	37.591213	-1.478443	-99.996995	-1.478443	-99.996995	-8.799217	-60.186852
8.400000	-7.870577	34.601866	-1.542992	-103.352701	-1.542992	-103.352701	-8.569201	-63.598255
8.450000	-7.640431	31.600083	-1.607300	-106.708719	-1.607300	-106.708719	-8.362590	-66.993109
8.500000	-7.429992	28.591881	-1.670975	-110.066547	-1.670975	-110.066547	-8.178858	-70.377870
8.550000	-7.238727	25.582610	-1.733611	-113.428056	-1.733611	-113.428056	-8.017649	-73.758955
8.600000	-7.066205	22.577085	-1.794797	-116.795523	-1.794797	-116.795523	-7.878794	-77.142898
8.650000	-6.912110	19.579721	-1.854114	-120.171667	-1.854114	-120.171667	-7.762318	-80.536502
8.700000	-6.776242	16.594660	-1.911146	-123.559691	-1.911146	-123.559691	-7.668458	-83.946989
8.750000	-6.658523	13.625904	-1.965474	-126.963324	-1.965474	-126.963324	-7.597688	-87.382160
8.800000	-6.559258	10.677828	-2.016636	-130.387238	-2.016636	-130.387238	-7.551112	-90.851197
8.850000	-6.478414	7.754404	-2.064281	-133.836185	-2.064281	-133.836185	-7.529477	-94.363310
8.900000	-6.416343	4.860235	-2.108039	-137.315847	-2.108039	-137.315847	-7.534225	-97.929270
8.950000	-6.373571	2.000575	-2.147569	-140.832685	-2.147569	-140.832685	-7.567250	-101.561360
9.000000	-6.350805	-0.818357	-2.182575	-144.394024	-2.182575	-144.394024	-7.630996	-105.273739
9.050000	-6.348955	-3.588961	-2.212820	-148.008140	-2.212820	-148.008140	-7.728584	-109.082935
9.100000	-6.369139	-6.301732	-2.238146	-151.684361	-2.238146	-151.684361	-7.863996	-113.008486
9.150000	-6.412696	-8.944557	-2.258502	-155.433166	-2.258502	-155.433166	-8.042300	-117.073832
9.200000	-6.481422	-11.500776	-2.273924	-159.267239	-2.273924	-159.267239	-8.270464	-121.309555
9.250000	-6.576942	-13.949874	-2.284709	-163.199561	-2.284709	-163.199561	-8.556757	-125.751431
9.300000	-6.700941	-16.265252	-2.291377	-167.244303	-2.291377	-167.244303	-8.911857	-130.444744
9.350000	-6.855128	-18.411467	-2.294722	-171.417493	-2.294722	-171.417493	-9.350081	-135.450379
9.400000	-7.040447	-20.345813	-2.295911	-175.734370	-2.295911	-175.734370	-9.889364	-140.845122
9.450000	-7.258178	-21.999469	-2.296532	179.781034	-2.296532	179.781034	-10.558360	-146.765411
9.500000	-7.506074	-23.302325	-2.298799	175.113277	-2.298799	175.113277	-11.390674	-153.383272
9.550000	-7.779414	-24.156449	-2.305597	170.240995	-2.305597	170.240995	-12.437329	-161.009427
9.600000	-8.067575	-24.447677	-2.320672	165.143967	-2.320672	165.143967	-13.769464	-170.207069
9.650000	-8.351491	-24.067259	-2.348505	159.807787	-2.348505	159.807787	-15.478013	177.940748
9.700000	-8.600800	-22.920917	-2.394678	154.218927	-2.394678	154.218927	-17.632540	161.018132
9.750000	-8.771936	-20.983037	-2.465970	148.369511	-2.465970	148.369511	-19.928516	133.883835
9.800000	-8.816245	-18.381931	-2.569457	142.267187	-2.569457	142.267187	-20.659327	93.871330
9.850000	-8.690489	-15.410975	-2.713155	135.928521	-2.713155	135.928521	-18.521504	56.739430
9.900000	-8.373983	-12.513420	-2.905761	129.383499	-2.905761	129.383499	-15.532117	32.690449
9.950000	-7.885183	-10.155607	-3.154895	122.680920	-3.154895	122.680920	-12.910477	16.468428
10.000000	-7.271695	-8.673896	-3.467180	115.881022	-3.467180	115.881022	-10.771206	3.997129
