! freq	dB(S11)	phase(S11)	dB(S12)	phase(S12)	
!     	dB(S21)	phase(S21)	dB(S22)	phase(S22)	
!S-par simulation data
#  GHz  S  DB  R 50
0.000000	-0.000000	0.000000	-325.344916	0.000000	-325.344916	0.000000	0.000000	0.000000
0.050000	-0.002606	-1.942723	-92.379933	88.328624	-92.379933	88.328624	-0.002300	-1.738856
0.100000	-0.006283	-3.862367	-86.402351	86.594768	-86.402351	86.594768	-0.005321	-3.457430
0.150000	-0.008911	-5.774271	-82.942035	84.798626	-82.942035	84.798626	-0.007512	-5.170340
0.200000	-0.010976	-7.685128	-80.515643	82.975159	-80.515643	82.975159	-0.009392	-6.882713
0.250000	-0.012821	-9.595470	-78.661270	81.150395	-78.661270	81.150395	-0.011226	-8.594875
0.300000	-0.014629	-11.504407	-77.180779	79.346518	-77.180779	79.346518	-0.013124	-10.306231
0.350000	-0.016479	-13.411510	-75.954750	77.569882	-75.954750	77.569882	-0.015093	-12.016476
0.400000	-0.018405	-15.316054	-74.922485	75.829901	-74.922485	75.829901	-0.017134	-13.725164
0.450000	-0.020418	-17.217519	-74.042370	74.133171	-74.042370	74.133171	-0.019235	-15.431995
0.500000	-0.022529	-19.115103	-73.290392	72.491186	-73.290392	72.491186	-0.021383	-17.136535
0.550000	-0.024724	-21.008628	-72.643190	70.908012	-72.643190	70.908012	-0.023560	-18.838745
0.600000	-0.026992	-22.897855	-72.084889	69.389663	-72.084889	69.389663	-0.025754	-20.538559
0.650000	-0.029321	-24.782492	-71.604416	67.944166	-71.604416	67.944166	-0.027956	-22.235884
0.700000	-0.031700	-26.662273	-71.193264	66.580508	-71.193264	66.580508	-0.030158	-23.930644
0.750000	-0.034115	-28.536957	-70.844788	65.308835	-70.844788	65.308835	-0.032354	-25.622775
0.800000	-0.036557	-30.406184	-70.554828	64.143567	-70.554828	64.143567	-0.034542	-27.312148
0.850000	-0.039014	-32.269351	-70.322094	63.107769	-70.322094	63.107769	-0.036716	-28.998516
0.900000	-0.041475	-34.126765	-70.138881	62.207500	-70.138881	62.207500	-0.038877	-30.682071
0.950000	-0.043932	-35.978248	-70.002238	61.461022	-70.002238	61.461022	-0.041023	-32.362760
1.000000	-0.046378	-37.823639	-69.909560	60.889512	-69.909560	60.889512	-0.043155	-34.040528
1.050000	-0.048808	-39.662781	-69.858410	60.517553	-69.858410	60.517553	-0.045272	-35.715318
1.100000	-0.051216	-41.495529	-69.846307	60.373649	-69.846307	60.373649	-0.047375	-37.387076
1.150000	-0.053596	-43.321256	-69.872897	60.512803	-69.872897	60.512803	-0.049464	-39.055516
1.200000	-0.055947	-45.140014	-69.933057	60.970776	-69.933057	60.970776	-0.051539	-40.720673
1.250000	-0.058266	-46.951965	-70.020562	61.779976	-70.020562	61.779976	-0.053603	-42.382627
1.300000	-0.060553	-48.756996	-70.129156	62.988160	-70.129156	62.988160	-0.055655	-44.041331
1.350000	-0.062807	-50.554999	-70.250422	64.644974	-70.250422	64.644974	-0.057696	-45.696735
1.400000	-0.065028	-52.345875	-70.373141	66.798020	-70.373141	66.798020	-0.059728	-47.348798
1.450000	-0.067215	-54.129486	-70.482531	69.489707	-70.482531	69.489707	-0.061750	-48.997457
1.500000	-0.069366	-55.904973	-70.554599	72.797450	-70.554599	72.797450	-0.063762	-50.642313
1.550000	-0.071486	-57.673057	-70.569491	76.639667	-70.569491	76.639667	-0.065767	-52.283709
1.600000	-0.073575	-59.433668	-70.504624	80.947529	-70.504624	80.947529	-0.067764	-53.921617
1.650000	-0.075634	-61.186741	-70.339942	85.599461	-70.339942	85.599461	-0.069753	-55.556010
1.700000	-0.077667	-62.932528	-70.066990	90.425954	-70.066990	90.425954	-0.071737	-57.187014
1.750000	-0.079671	-64.670099	-69.666832	95.236443	-69.666832	95.236443	-0.073715	-58.814202
1.800000	-0.081650	-66.399856	-69.153285	99.819532	-69.153285	99.819532	-0.075687	-60.437771
1.850000	-0.083606	-68.121762	-68.542464	104.012295	-68.542464	104.012295	-0.077654	-62.057713
1.900000	-0.085540	-69.835701	-67.854558	107.700790	-67.854558	107.700790	-0.079617	-63.673988
1.950000	-0.087455	-71.541653	-67.112523	110.833786	-67.112523	110.833786	-0.081577	-65.286598
2.000000	-0.089351	-73.239688	-66.338202	113.414287	-66.338202	113.414287	-0.083534	-66.895591
2.050000	-0.091231	-74.929801	-65.548427	115.469987	-65.548427	115.469987	-0.085489	-68.500978
2.100000	-0.093097	-76.611994	-64.756078	117.045244	-64.756078	117.045244	-0.087443	-70.102778
2.150000	-0.094951	-78.286275	-63.970467	118.191135	-63.970467	118.191135	-0.089397	-71.701013
2.200000	-0.096793	-79.952662	-63.198000	118.959100	-63.198000	118.959100	-0.091351	-73.295710
2.250000	-0.098626	-81.611178	-62.442856	119.397403	-62.442856	119.397403	-0.093307	-74.886901
2.300000	-0.100452	-83.261852	-61.707586	119.549487	-61.707586	119.549487	-0.095264	-76.474623
2.350000	-0.102271	-84.904724	-60.993587	119.453497	-60.993587	119.453497	-0.097225	-78.058917
2.400000	-0.104086	-86.539837	-60.301455	119.142417	-60.301455	119.142417	-0.099190	-79.639829
2.450000	-0.105898	-88.167243	-59.631248	118.644529	-59.631248	118.644529	-0.101160	-81.217409
2.500000	-0.107708	-89.786998	-58.982673	117.983975	-58.982673	117.983975	-0.103136	-82.791712
2.550000	-0.109518	-91.398921	-58.354448	117.177217	-58.354448	117.177217	-0.105119	-84.362695
2.600000	-0.111329	-93.003333	-57.746824	116.246958	-57.746824	116.246958	-0.107110	-85.930529
2.650000	-0.113143	-94.600309	-57.159058	115.207970	-57.159058	115.207970	-0.109111	-87.495282
2.700000	-0.114961	-96.189932	-56.590377	114.072938	-56.590377	114.072938	-0.111122	-89.057028
2.750000	-0.116783	-97.772290	-56.040014	112.852796	-56.040014	112.852796	-0.113145	-90.615843
2.800000	-0.118612	-99.347474	-55.507214	111.557012	-55.507214	111.557012	-0.115180	-92.171809
2.850000	-0.120447	-100.915583	-54.991252	110.193820	-54.991252	110.193820	-0.117228	-93.725011
2.900000	-0.122292	-102.476719	-54.491434	108.770423	-54.491434	108.770423	-0.119291	-95.275537
2.950000	-0.124145	-104.030990	-54.007102	107.293150	-54.007102	107.293150	-0.121370	-96.823482
3.000000	-0.126009	-105.578507	-53.537634	105.767594	-53.537634	105.767594	-0.123466	-98.368943
3.050000	-0.127885	-107.119388	-53.082444	104.198725	-53.082444	104.198725	-0.125580	-99.912019
3.100000	-0.129773	-108.653751	-52.640979	102.590983	-52.640979	102.590983	-0.127712	-101.452817
3.150000	-0.131675	-110.181722	-52.212719	100.948354	-52.212719	100.948354	-0.129865	-102.991444
3.200000	-0.133591	-111.703429	-51.797172	99.274438	-51.797172	99.274438	-0.132038	-104.528012
3.250000	-0.135522	-113.219003	-51.393874	97.572496	-51.393874	97.572496	-0.134234	-106.062637
3.300000	-0.137469	-114.728579	-51.002386	95.845503	-51.002386	95.845503	-0.136453	-107.595437
3.350000	-0.139434	-116.232295	-50.622291	94.096176	-50.622291	94.096176	-0.138696	-109.126536
3.400000	-0.141416	-117.730294	-50.253194	92.327010	-50.253194	92.327010	-0.140964	-110.656059
3.450000	-0.143416	-119.222718	-49.894716	90.540302	-49.894716	90.540302	-0.143258	-112.184135
3.500000	-0.145436	-120.709716	-49.546495	88.738171	-49.546495	88.738171	-0.145579	-113.710898
3.550000	-0.147476	-122.191437	-49.208183	86.922574	-49.208183	86.922574	-0.147928	-115.236482
3.600000	-0.149537	-123.668032	-48.879448	85.095324	-48.879448	85.095324	-0.150305	-116.761026
3.650000	-0.151619	-125.139658	-48.559966	83.258097	-48.559966	83.258097	-0.152713	-118.284672
3.700000	-0.153723	-126.606469	-48.249426	81.412443	-48.249426	81.412443	-0.155150	-119.807566
3.750000	-0.155850	-128.068626	-47.947526	79.559796	-47.947526	79.559796	-0.157619	-121.329854
3.800000	-0.158002	-129.526102	-47.653904	77.701288	-47.653904	77.701288	-0.160122	-122.851676
3.850000	-0.160177	-130.979261	-47.368366	75.838420	-47.368366	75.838420	-0.162657	-124.373211
3.900000	-0.162377	-132.428269	-47.090629	73.972293	-47.090629	73.972293	-0.165226	-125.894617
3.950000	-0.164603	-133.873292	-46.820421	72.103905	-46.820421	72.103905	-0.167829	-127.416053
4.000000	-0.166854	-135.314498	-46.557475	70.234162	-46.557475	70.234162	-0.170467	-128.937681
4.050000	-0.169132	-136.752055	-46.301532	68.363874	-46.301532	68.363874	-0.173141	-130.459667
4.100000	-0.171436	-138.186136	-46.052339	66.493762	-46.052339	66.493762	-0.175851	-131.982176
4.150000	-0.173768	-139.616911	-45.809651	64.624461	-45.809651	64.624461	-0.178598	-133.505380
4.200000	-0.176127	-141.044555	-45.573229	62.756515	-45.573229	62.756515	-0.181382	-135.029450
4.250000	-0.178515	-142.469240	-45.342841	60.890387	-45.342841	60.890387	-0.184204	-136.554561
4.300000	-0.180931	-143.891143	-45.118264	59.026456	-45.118264	59.026456	-0.187064	-138.080890
4.350000	-0.183376	-145.310440	-44.899280	57.165023	-44.899280	57.165023	-0.189963	-139.608616
4.400000	-0.185851	-146.727309	-44.685680	55.306307	-44.685680	55.306307	-0.192901	-141.137920
4.450000	-0.188355	-148.141926	-44.477265	53.450455	-44.477265	53.450455	-0.195878	-142.668986
4.500000	-0.190889	-149.554472	-44.273842	51.597539	-44.273842	51.597539	-0.198895	-144.202000
4.550000	-0.193454	-150.965125	-44.075227	49.747559	-44.075227	49.747559	-0.201952	-145.737148
4.600000	-0.196049	-152.374067	-43.881248	47.900448	-43.881248	47.900448	-0.205050	-147.274619
4.650000	-0.198676	-153.781477	-43.691739	46.056074	-43.691739	46.056074	-0.208188	-148.814606
4.700000	-0.201333	-155.187539	-43.506547	44.214243	-43.506547	44.214243	-0.211367	-150.357301
4.750000	-0.204021	-156.592434	-43.325529	42.374701	-43.325529	42.374701	-0.214587	-151.902897
4.800000	-0.206741	-157.996344	-43.148553	40.537140	-43.148553	40.537140	-0.217847	-153.451592
4.850000	-0.209493	-159.399453	-42.975499	38.701201	-42.975499	38.701201	-0.221149	-155.003583
4.900000	-0.212277	-160.801945	-42.806258	36.866477	-42.806258	36.866477	-0.224491	-156.559068
4.950000	-0.215092	-162.204003	-42.640735	35.032518	-42.640735	35.032518	-0.227875	-158.118248
5.000000	-0.217940	-163.605813	-42.478848	33.198839	-42.478848	33.198839	-0.231299	-159.681323
5.050000	-0.220820	-165.007565	-42.320560	31.364885	-42.320560	31.364885	-0.234766	-161.248685
5.100000	-0.223733	-166.409454	-42.165794	29.530096	-42.165794	29.530096	-0.238273	-162.820367
5.150000	-0.226678	-167.811667	-42.014513	27.693907	-42.014513	27.693907	-0.241821	-164.396573
5.200000	-0.229655	-169.214388	-41.866695	25.855742	-41.866695	25.855742	-0.245408	-165.977508
5.250000	-0.232664	-170.617805	-41.722335	24.015025	-41.722335	24.015025	-0.249035	-167.563377
5.300000	-0.235704	-172.022102	-41.581444	22.171183	-41.581444	22.171183	-0.252702	-169.154387
5.350000	-0.238777	-173.427466	-41.444050	20.323665	-41.444050	20.323665	-0.256407	-170.750741
5.400000	-0.241881	-174.834084	-41.310198	18.471944	-41.310198	18.471944	-0.260151	-172.352648
5.450000	-0.245016	-176.242141	-41.179950	16.615537	-41.179950	16.615537	-0.263933	-173.960311
5.500000	-0.248182	-177.651825	-41.053387	14.754012	-41.053387	14.754012	-0.267752	-175.573937
5.550000	-0.251380	-179.063321	-40.930605	12.887007	-40.930605	12.887007	-0.271607	-177.193731
5.600000	-0.254608	179.523184	-40.811716	11.014244	-40.811716	11.014244	-0.275498	-178.819896
5.650000	-0.257863	178.107813	-40.696497	9.136329	-40.696497	9.136329	-0.279420	179.548250
5.700000	-0.261152	176.689759	-40.585792	7.251554	-40.585792	7.251554	-0.283381	177.908685
5.750000	-0.264471	175.269142	-40.479414	5.360835	-40.479414	5.360835	-0.287375	176.262139
5.800000	-0.267819	173.845778	-40.377528	3.464400	-40.377528	3.464400	-0.291402	174.608413
5.850000	-0.271195	172.419481	-40.280311	1.562647	-40.280311	1.562647	-0.295460	172.947309
5.900000	-0.274601	170.990066	-40.187942	-0.343843	-40.187942	-0.343843	-0.299548	171.278635
5.950000	-0.278034	169.557347	-40.100600	-2.254288	-40.100600	-2.254288	-0.303665	169.602197
6.000000	-0.281495	168.121141	-40.018462	-4.167701	-40.018462	-4.167701	-0.307810	167.917806
6.050000	-0.284982	166.681263	-39.941693	-6.082878	-39.941693	-6.082878	-0.311981	166.225278
6.100000	-0.288496	165.237530	-39.870446	-7.998403	-39.870446	-7.998403	-0.316178	164.524429
6.150000	-0.292035	163.789759	-39.804849	-9.912654	-39.804849	-9.912654	-0.320398	162.815082
6.200000	-0.295600	162.337769	-39.745003	-11.823818	-39.745003	-11.823818	-0.324641	161.097063
6.250000	-0.299189	160.881378	-39.690977	-13.729919	-39.690977	-13.729919	-0.328905	159.370202
6.300000	-0.302802	159.420302	-39.642917	-15.628643	-39.642917	-15.628643	-0.333187	157.634136
6.350000	-0.306439	157.954458	-39.600680	-17.517910	-39.600680	-17.517910	-0.337488	155.888898
6.400000	-0.310097	156.483667	-39.564190	-19.395512	-39.564190	-19.395512	-0.341803	154.134337
6.450000	-0.313777	155.007754	-39.533317	-21.259294	-39.533317	-21.259294	-0.346133	152.370306
6.500000	-0.317478	153.526541	-39.507878	-23.107233	-39.507878	-23.107233	-0.350474	150.596667
6.550000	-0.321198	152.039856	-39.487636	-24.937512	-39.487636	-24.937512	-0.354826	148.813289
6.600000	-0.324937	150.547526	-39.472310	-26.748612	-39.472310	-26.748612	-0.359185	147.020048
6.650000	-0.328695	149.049380	-39.461579	-28.539383	-39.461579	-28.539383	-0.363550	145.216829
6.700000	-0.332470	147.545249	-39.455096	-30.309117	-39.455096	-30.309117	-0.367919	143.403526
6.750000	-0.336261	146.034967	-39.452500	-32.057597	-39.452500	-32.057597	-0.372290	141.580042
6.800000	-0.340068	144.518368	-39.453438	-33.785137	-39.453438	-33.785137	-0.376661	139.746291
6.850000	-0.343889	142.995292	-39.457576	-35.492583	-39.457576	-35.492583	-0.381028	137.902196
6.900000	-0.347726	141.464616	-39.465001	-37.178915	-39.465001	-37.178915	-0.385390	136.046214
6.950000	-0.351573	139.928008	-39.474735	-38.850889	-39.474735	-38.850889	-0.389745	134.181130
7.000000	-0.355432	138.384448	-39.487013	-40.508254	-39.487013	-40.508254	-0.394091	132.305544
7.050000	-0.359302	136.833785	-39.501781	-42.153470	-39.501781	-42.153470	-0.398424	130.419430
7.100000	-0.363182	135.275873	-39.519090	-43.789131	-39.519090	-43.789131	-0.402744	128.522772
7.150000	-0.367071	133.710566	-39.539099	-45.417817	-39.539099	-45.417817	-0.407048	126.615572
7.200000	-0.370967	132.137726	-39.562078	-47.041943	-39.562078	-47.041943	-0.411332	124.697843
7.250000	-0.374871	130.557216	-39.588404	-48.663602	-39.588404	-48.663602	-0.415596	122.769614
7.300000	-0.378780	128.969252	-39.618355	-50.284403	-39.618355	-50.284403	-0.419838	120.831382
7.350000	-0.382694	127.372930	-39.652907	-51.905435	-39.652907	-51.905435	-0.424053	118.882190
7.400000	-0.386613	125.768554	-39.692475	-53.527024	-39.692475	-53.527024	-0.428240	116.922683
7.450000	-0.390535	124.156008	-39.737736	-55.148697	-39.737736	-55.148697	-0.432398	114.952957
7.500000	-0.394460	122.535181	-39.789390	-56.769135	-39.789390	-56.769135	-0.436525	112.973124
7.550000	-0.398386	120.905782	-39.848302	-58.386011	-39.848302	-58.386011	-0.440617	110.983102
7.600000	-0.402313	119.267891	-39.915024	-59.996241	-39.915024	-59.996241	-0.444674	108.983260
7.650000	-0.406240	117.621416	-39.990198	-61.595883	-39.990198	-61.595883	-0.448694	106.973768
7.700000	-0.410166	115.966271	-40.074413	-63.180209	-40.074413	-63.180209	-0.452675	104.954812
7.750000	-0.414092	114.302377	-40.168179	-64.743770	-40.168179	-64.743770	-0.456617	102.926600
7.800000	-0.418015	112.629662	-40.271923	-66.280469	-40.271923	-66.280469	-0.460517	100.889357
7.850000	-0.421937	110.948061	-40.385972	-67.783640	-40.385972	-67.783640	-0.464375	98.843330
7.900000	-0.425855	109.257520	-40.510550	-69.246136	-40.510550	-69.246136	-0.468190	96.788782
7.950000	-0.429771	107.557989	-40.645768	-70.660401	-40.645768	-70.660401	-0.471961	94.725999
8.000000	-0.433683	105.849431	-40.791620	-72.018549	-40.791620	-72.018549	-0.475688	92.655284
8.050000	-0.437591	104.131815	-40.947982	-73.312426	-40.947982	-73.312426	-0.479370	90.576960
8.100000	-0.441496	102.405121	-41.114610	-74.533668	-41.114610	-74.533668	-0.483007	88.491370
8.150000	-0.445397	100.669240	-41.291194	-75.672766	-41.291194	-75.672766	-0.486599	86.398804
8.200000	-0.449295	98.924170	-41.477201	-76.720765	-41.477201	-76.720765	-0.490147	84.299654
8.250000	-0.453189	97.170023	-41.671924	-77.669789	-41.671924	-77.669789	-0.493651	82.194395
8.300000	-0.457080	95.406819	-41.874583	-78.511018	-41.874583	-78.511018	-0.497112	80.083443
8.350000	-0.460968	93.634590	-42.084252	-79.235594	-42.084252	-79.235594	-0.500532	77.967230
8.400000	-0.464854	91.853381	-42.299842	-79.834670	-42.299842	-79.834670	-0.503913	75.846206
8.450000	-0.468739	90.063248	-42.520084	-80.299465	-42.520084	-80.299465	-0.507255	73.720836
8.500000	-0.472623	88.264257	-42.743510	-80.621359	-42.743510	-80.621359	-0.510561	71.591599
8.550000	-0.476508	86.456490	-42.968432	-80.792017	-42.968432	-80.792017	-0.513834	69.458989
8.600000	-0.480394	84.640040	-43.192918	-80.803577	-43.192918	-80.803577	-0.517075	67.323511
8.650000	-0.484283	82.815010	-43.414766	-80.648897	-43.414766	-80.648897	-0.520288	65.185683
8.700000	-0.488176	80.981520	-43.631488	-80.321883	-43.631488	-80.321883	-0.523476	63.046034
8.750000	-0.492074	79.139701	-43.840297	-79.817899	-43.840297	-79.817899	-0.526642	60.905103
8.800000	-0.495980	77.289525	-44.037699	-79.130357	-44.037699	-79.130357	-0.529790	58.763432
8.850000	-0.499895	75.431331	-44.220604	-78.263168	-44.220604	-78.263168	-0.532924	56.621605
8.900000	-0.503821	73.565292	-44.385407	-77.219605	-44.385407	-77.219605	-0.536048	54.480182
8.950000	-0.507761	71.691595	-44.528351	-76.006759	-44.528351	-76.006759	-0.539166	52.339728
9.000000	-0.511716	69.810441	-44.645646	-74.636060	-44.645646	-74.636060	-0.542284	50.200811
9.050000	-0.515690	67.922043	-44.733608	-73.123628	-44.733608	-73.123628	-0.545405	48.064002
9.100000	-0.519684	66.026629	-44.788843	-71.490349	-44.788843	-71.490349	-0.548535	45.929871
9.150000	-0.523702	64.124441	-44.808427	-69.761599	-44.808427	-69.761599	-0.551680	43.798989
9.200000	-0.527746	62.215733	-44.790087	-67.966578	-44.790087	-67.966578	-0.554844	41.671923
9.250000	-0.531820	60.300773	-44.732351	-66.137267	-44.732351	-66.137267	-0.558032	39.549238
9.300000	-0.535926	58.379842	-44.634640	-64.307084	-44.634640	-64.307084	-0.561251	37.431495
9.350000	-0.540069	56.453234	-44.497296	-62.509403	-44.497296	-62.509403	-0.564506	35.319248
9.400000	-0.544250	54.521201	-44.321089	-60.777106	-44.321089	-60.777106	-0.567803	33.213115
9.450000	-0.548476	52.584074	-44.108025	-59.140110	-44.108025	-59.140110	-0.571148	31.113654
9.500000	-0.552747	50.642241	-43.861151	-57.622732	-43.861151	-57.622732	-0.574546	29.021328
9.550000	-0.557069	48.696047	-43.583476	-56.245689	-43.583476	-56.245689	-0.578004	26.936653
9.600000	-0.561445	46.745844	-43.278234	-55.025282	-43.278234	-55.025282	-0.581526	24.860137
9.650000	-0.565879	44.791997	-42.948719	-53.973612	-42.948719	-53.973612	-0.585120	22.792274
9.700000	-0.570375	42.834880	-42.598151	-53.099039	-42.598151	-53.099039	-0.588789	20.733542
9.750000	-0.574936	40.874876	-42.229581	-52.406778	-42.229581	-52.406778	-0.592541	18.684408
9.800000	-0.579567	38.912378	-41.845829	-51.899556	-41.845829	-51.899556	-0.596381	16.645323
9.850000	-0.584271	36.947786	-41.449449	-51.578265	-41.449449	-51.578265	-0.600314	14.616721
9.900000	-0.589053	34.981506	-41.042730	-51.442548	-41.042730	-51.442548	-0.604345	12.599019
9.950000	-0.593917	33.013953	-40.627707	-51.491327	-40.627707	-51.491327	-0.608480	10.592621
10.000000	-0.598866	31.045547	-40.206189	-51.723223	-40.206189	-51.723223	-0.612724	8.597909
