! freq	dB(S11)	phase(S11)	dB(S12)	phase(S12)	
!     	dB(S21)	phase(S21)	dB(S22)	phase(S22)	
!S-par simulation data
#  GHz  S  DB  R 50
0.000000	-0.000000	-0.000000	-377.429168	180.000000	-377.429168	180.000000	-0.000000	0.000000
0.050000	-0.000086	-0.874138	-92.742510	-168.375117	-92.742510	-168.375117	-0.000111	-1.161753
0.100000	-0.000341	-1.748104	-92.058212	172.084896	-92.058212	172.084896	-0.000441	-2.323269
0.150000	-0.000759	-2.621733	-91.621054	159.801686	-91.621054	159.801686	-0.000982	-3.484323
0.200000	-0.001329	-3.494879	-91.165915	150.088210	-91.165915	150.088210	-0.001722	-4.644710
0.250000	-0.002049	-4.367363	-90.687955	142.023844	-90.687955	142.023844	-0.002656	-5.804182
0.300000	-0.002892	-5.239124	-90.213651	135.077463	-90.213651	135.077463	-0.003752	-6.962647
0.350000	-0.003849	-6.110039	-89.761330	129.096976	-89.761330	129.096976	-0.004997	-8.119925
0.400000	-0.004904	-6.980023	-89.346659	123.927291	-89.346659	123.927291	-0.006374	-9.275891
0.450000	-0.006042	-7.849016	-88.980701	119.452950	-88.980701	119.452950	-0.007861	-10.430444
0.500000	-0.007247	-8.716971	-88.671084	115.588025	-88.671084	115.588025	-0.009439	-11.583505
0.550000	-0.008506	-9.583857	-88.423158	112.271599	-88.423158	112.271599	-0.011090	-12.735016
0.600000	-0.009804	-10.449658	-88.240888	109.465268	-88.240888	109.465268	-0.012797	-13.884934
0.650000	-0.011131	-11.314365	-88.127470	107.151996	-88.127470	107.151996	-0.014544	-15.033231
0.700000	-0.012476	-12.177981	-88.085684	105.336292	-88.085684	105.336292	-0.016318	-16.179890
0.750000	-0.013830	-13.040511	-88.117997	104.045942	-88.117997	104.045942	-0.018106	-17.324903
0.800000	-0.015185	-13.901965	-88.226347	103.335564	-88.226347	103.335564	-0.019900	-18.468265
0.850000	-0.016536	-14.762356	-88.411466	103.292229	-88.411466	103.292229	-0.021689	-19.609979
0.900000	-0.017877	-15.621696	-88.671410	104.042988	-88.671410	104.042988	-0.023469	-20.750045
0.950000	-0.019206	-16.479998	-88.998736	105.762800	-88.998736	105.762800	-0.025233	-21.888467
1.000000	-0.020520	-17.337271	-89.375454	108.677618	-89.375454	108.677618	-0.026978	-23.025246
1.050000	-0.021816	-18.193524	-89.764953	113.049117	-89.764953	113.049117	-0.028701	-24.160382
1.100000	-0.023095	-19.048763	-90.101667	119.114081	-90.101667	119.114081	-0.030401	-25.293873
1.150000	-0.024354	-19.902993	-90.284998	126.944095	-90.284998	126.944095	-0.032076	-26.425715
1.200000	-0.025595	-20.756215	-90.193711	136.232559	-90.193711	136.232559	-0.033726	-27.555900
1.250000	-0.026818	-21.608425	-89.735371	146.163148	-89.735371	146.163148	-0.035351	-28.684418
1.300000	-0.028023	-22.459578	-88.887908	155.571280	-88.887908	155.571280	-0.036950	-29.811184
1.350000	-0.029211	-23.309709	-87.761557	163.610715	-87.761557	163.610715	-0.038527	-30.936256
1.400000	-0.030383	-24.158810	-86.478357	169.985950	-86.478357	169.985950	-0.040082	-32.059616
1.450000	-0.031541	-25.006871	-85.137946	174.782216	-85.137946	174.782216	-0.041616	-33.181247
1.500000	-0.032686	-25.853879	-83.803761	178.247248	-83.803761	178.247248	-0.043132	-34.301127
1.550000	-0.033819	-26.699820	-82.509929	-179.347629	-82.509929	-179.347629	-0.044629	-35.419235
1.600000	-0.034941	-27.544680	-81.271956	-177.765672	-81.271956	-177.765672	-0.046111	-36.535549
1.650000	-0.036054	-28.388443	-80.094912	-176.818428	-80.094912	-176.818428	-0.047579	-37.650046
1.700000	-0.037159	-29.231091	-78.978472	-176.361646	-78.978472	-176.361646	-0.049034	-38.762702
1.750000	-0.038258	-30.072606	-77.919754	-176.286460	-77.919754	-176.286460	-0.050479	-39.873493
1.800000	-0.039350	-30.912971	-76.914824	-176.510836	-76.914824	-176.510836	-0.051913	-40.982394
1.850000	-0.040438	-31.752166	-75.959475	-176.972652	-75.959475	-176.972652	-0.053340	-42.089381
1.900000	-0.041523	-32.590173	-75.049598	-177.624475	-75.049598	-177.624475	-0.054760	-43.194432
1.950000	-0.042605	-33.426971	-74.181356	-178.429740	-74.181356	-178.429740	-0.056175	-44.297521
2.000000	-0.043685	-34.262542	-73.351248	-179.359977	-73.351248	-179.359977	-0.057586	-45.398627
2.050000	-0.044765	-35.096865	-72.556116	179.607200	-72.556116	179.607200	-0.058994	-46.497726
2.100000	-0.045845	-35.929921	-71.793127	178.489566	-71.793127	178.489566	-0.060401	-47.594798
2.150000	-0.046926	-36.761692	-71.059750	177.301354	-71.059750	177.301354	-0.061807	-48.689822
2.200000	-0.048009	-37.592156	-70.353720	176.054063	-70.353720	176.054063	-0.063214	-49.782778
2.250000	-0.049094	-38.421297	-69.673011	174.757051	-69.673011	174.757051	-0.064623	-50.873647
2.300000	-0.050183	-39.249093	-69.015809	173.417988	-69.015809	173.417988	-0.066035	-51.962412
2.350000	-0.051276	-40.075529	-68.380481	172.043200	-68.380481	172.043200	-0.067450	-53.049056
2.400000	-0.052372	-40.900584	-67.765559	170.637940	-67.765559	170.637940	-0.068870	-54.133564
2.450000	-0.053474	-41.724242	-67.169717	169.206587	-67.169717	169.206587	-0.070295	-55.215923
2.500000	-0.054582	-42.546485	-66.591754	167.752814	-66.591754	167.752814	-0.071726	-56.296119
2.550000	-0.055695	-43.367234	-66.029735	166.278995	-66.029735	166.278995	-0.073164	-57.374046
2.600000	-0.056815	-44.186533	-65.483602	164.788660	-65.483602	164.788660	-0.074611	-58.449789
2.650000	-0.057942	-45.004368	-64.952442	163.283981	-64.952442	163.283981	-0.076065	-59.523338
2.700000	-0.059077	-45.820722	-64.435417	161.766810	-64.435417	161.766810	-0.077529	-60.594688
2.750000	-0.060219	-46.635581	-63.931762	160.238730	-63.931762	160.238730	-0.079002	-61.663832
2.800000	-0.061369	-47.448931	-63.440775	158.701100	-63.440775	158.701100	-0.080485	-62.730767
2.850000	-0.062528	-48.260758	-62.961810	157.155084	-62.961810	157.155084	-0.081980	-63.795489
2.900000	-0.063696	-49.071050	-62.494272	155.601686	-62.494272	155.601686	-0.083486	-64.857998
2.950000	-0.064872	-49.879793	-62.037610	154.041771	-62.037610	154.041771	-0.085004	-65.918293
3.000000	-0.066059	-50.686976	-61.591316	152.476085	-61.591316	152.476085	-0.086535	-66.976377
3.050000	-0.067255	-51.492587	-61.154918	150.905276	-61.154918	150.905276	-0.088079	-68.032252
3.100000	-0.068461	-52.296616	-60.727981	149.329901	-60.727981	149.329901	-0.089637	-69.085923
3.150000	-0.069678	-53.099053	-60.310096	147.750447	-60.310096	147.750447	-0.091209	-70.137396
3.200000	-0.070905	-53.899888	-59.900887	146.167335	-59.900887	146.167335	-0.092796	-71.186678
3.250000	-0.072143	-54.699111	-59.500000	144.580931	-59.500000	144.580931	-0.094399	-72.233779
3.300000	-0.073393	-55.496715	-59.107107	142.991556	-59.107107	142.991556	-0.096017	-73.278708
3.350000	-0.074654	-56.292692	-58.721899	141.399488	-58.721899	141.399488	-0.097652	-74.321479
3.400000	-0.075928	-57.087034	-58.344091	139.804971	-58.344091	139.804971	-0.099304	-75.362103
3.450000	-0.077213	-57.879735	-57.973411	138.208221	-57.973411	138.208221	-0.100973	-76.400595
3.500000	-0.078511	-58.670789	-57.609609	136.609426	-57.609609	136.609426	-0.102661	-77.436972
3.550000	-0.079821	-59.460190	-57.252446	135.008754	-57.252446	135.008754	-0.104367	-78.471251
3.600000	-0.081145	-60.247933	-56.901700	133.406352	-56.901700	133.406352	-0.106093	-79.503451
3.650000	-0.082482	-61.034014	-56.557161	131.802354	-56.557161	131.802354	-0.107838	-80.533593
3.700000	-0.083832	-61.818430	-56.218633	130.196879	-56.218633	130.196879	-0.109603	-81.561696
3.750000	-0.085196	-62.601176	-55.885928	128.590036	-55.885928	128.590036	-0.111390	-82.587786
3.800000	-0.086576	-63.382178	-55.558584	126.981874	-55.558584	126.981874	-0.113198	-83.611800
3.850000	-0.087969	-64.161507	-55.236745	125.372541	-55.236745	125.372541	-0.115029	-84.633853
3.900000	-0.089378	-64.939160	-54.920252	123.762124	-54.920252	123.762124	-0.116882	-85.653970
3.950000	-0.090802	-65.715137	-54.608955	122.150702	-54.608955	122.150702	-0.118759	-86.672182
4.000000	-0.092241	-66.489437	-54.302714	120.538351	-54.302714	120.538351	-0.120659	-87.688517
4.050000	-0.093696	-67.262062	-54.001394	118.925145	-54.001394	118.925145	-0.122584	-88.703007
4.100000	-0.095167	-68.033010	-53.704867	117.311156	-53.704867	117.311156	-0.124533	-89.715684
4.150000	-0.096655	-68.802285	-53.413013	115.696454	-53.413013	115.696454	-0.126508	-90.726582
4.200000	-0.098160	-69.569886	-53.125716	114.081107	-53.125716	114.081107	-0.128509	-91.735736
4.250000	-0.099681	-70.335818	-52.842866	112.465184	-52.842866	112.465184	-0.130537	-92.743181
4.300000	-0.101220	-71.100082	-52.564358	110.848755	-52.564358	110.848755	-0.132592	-93.748956
4.350000	-0.102778	-71.862683	-52.290092	109.231889	-52.290092	109.231889	-0.134675	-94.753099
4.400000	-0.104353	-72.623623	-52.019972	107.614654	-52.019972	107.614654	-0.136787	-95.755649
4.450000	-0.105947	-73.382907	-51.753906	105.997121	-51.753906	105.997121	-0.138928	-96.756649
4.500000	-0.107560	-74.140540	-51.491806	104.379361	-51.491806	104.379361	-0.141098	-97.756140
4.550000	-0.109192	-74.896528	-51.233588	102.761445	-51.233588	102.761445	-0.143300	-98.754166
4.600000	-0.110844	-75.650877	-50.979170	101.143446	-50.979170	101.143446	-0.145532	-99.750771
4.650000	-0.112516	-76.403592	-50.728474	99.525436	-50.728474	99.525436	-0.147796	-100.746002
4.700000	-0.114209	-77.154681	-50.481424	97.907491	-50.481424	97.907491	-0.150092	-101.739905
4.750000	-0.115923	-77.904150	-50.237946	96.289684	-50.237946	96.289684	-0.152421	-102.732529
4.800000	-0.117658	-78.652009	-49.997971	94.672090	-49.997971	94.672090	-0.154783	-103.723923
4.850000	-0.119415	-79.398266	-49.761429	93.054784	-49.761429	93.054784	-0.157180	-104.714137
4.900000	-0.121194	-80.142929	-49.528254	91.437841	-49.528254	91.437841	-0.159612	-105.703224
4.950000	-0.122995	-80.886008	-49.298382	89.821337	-49.298382	89.821337	-0.162079	-106.691236
5.000000	-0.124820	-81.627514	-49.071749	88.205346	-49.071749	88.205346	-0.164581	-107.678227
5.050000	-0.126669	-82.367389	-48.848184	86.589971	-48.848184	86.589971	-0.167123	-108.664214
5.100000	-0.128543	-83.105714	-48.627747	84.975264	-48.627747	84.975264	-0.169701	-109.649296
5.150000	-0.130440	-83.842501	-48.410378	83.361296	-48.410378	83.361296	-0.172317	-110.633531
5.200000	-0.132363	-84.577762	-48.196020	81.748138	-48.196020	81.748138	-0.174971	-111.616978
5.250000	-0.134311	-85.311512	-47.984618	80.135859	-47.984618	80.135859	-0.177665	-112.599696
5.300000	-0.136286	-86.043766	-47.776116	78.524526	-47.776116	78.524526	-0.180398	-113.581748
5.350000	-0.138287	-86.774538	-47.570460	76.914204	-47.570460	76.914204	-0.183171	-114.563193
5.400000	-0.140317	-87.503847	-47.367598	75.304955	-47.367598	75.304955	-0.185985	-115.544096
5.450000	-0.142375	-88.231708	-47.167478	73.696840	-47.167478	73.696840	-0.188839	-116.524520
5.500000	-0.144463	-88.958142	-46.970049	72.089916	-46.970049	72.089916	-0.191736	-117.504531
5.550000	-0.146583	-89.683168	-46.775262	70.484235	-46.775262	70.484235	-0.194675	-118.484196
5.600000	-0.148736	-90.406806	-46.583067	68.879850	-46.583067	68.879850	-0.197656	-119.463580
5.650000	-0.150926	-91.129075	-46.393416	67.276806	-46.393416	67.276806	-0.200680	-120.442754
5.700000	-0.153157	-91.849992	-46.206262	65.675147	-46.206262	65.675147	-0.203748	-121.421787
5.750000	-0.155432	-92.569571	-46.021559	64.074913	-46.021559	64.074913	-0.206860	-122.400748
5.800000	-0.157757	-93.287812	-45.839261	62.476138	-45.839261	62.476138	-0.210017	-123.379711
5.850000	-0.160137	-94.004706	-45.659324	60.878854	-45.659324	60.878854	-0.213218	-124.358747
5.900000	-0.162578	-94.720224	-45.481704	59.283088	-45.481704	59.283088	-0.216465	-125.337932
5.950000	-0.165080	-95.434317	-45.306358	57.688862	-45.306358	57.688862	-0.219757	-126.317339
6.000000	-0.167643	-96.146928	-45.133243	56.096194	-45.133243	56.096194	-0.223096	-127.297046
6.050000	-0.170257	-96.858006	-44.962319	54.505099	-44.962319	54.505099	-0.226481	-128.277129
6.100000	-0.172911	-97.567530	-44.793545	52.915584	-44.793545	52.915584	-0.229913	-129.257667
6.150000	-0.175590	-98.275524	-44.626882	51.327655	-44.626882	51.327655	-0.233393	-130.238739
6.200000	-0.178282	-98.982058	-44.462291	49.741311	-44.462291	49.741311	-0.236920	-131.220427
6.250000	-0.180982	-99.687227	-44.299733	48.156549	-44.299733	48.156549	-0.240495	-132.202811
6.300000	-0.183689	-100.391073	-44.139132	46.573428	-44.139132	46.573428	-0.244120	-133.186014
6.350000	-0.186407	-101.093732	-43.980495	44.991864	-43.980495	44.991864	-0.247794	-134.170088
6.400000	-0.189143	-101.795258	-43.823787	43.411840	-43.823787	43.411840	-0.251518	-135.155120
6.450000	-0.191902	-102.495687	-43.668976	41.833335	-43.668976	41.833335	-0.255290	-136.141197
6.500000	-0.194689	-103.195044	-43.516028	40.256323	-43.516028	40.256323	-0.259113	-137.128407
6.550000	-0.197509	-103.893346	-43.364911	38.680775	-43.364911	38.680775	-0.262985	-138.116839
6.600000	-0.200365	-104.590606	-43.215593	37.106657	-43.215593	37.106657	-0.266908	-139.106583
6.650000	-0.203260	-105.286836	-43.068047	35.533934	-43.068047	35.533934	-0.270882	-140.097732
6.700000	-0.206195	-105.982049	-42.922242	33.962567	-42.922242	33.962567	-0.274907	-141.090380
6.750000	-0.209171	-106.676258	-42.778151	32.392514	-42.778151	32.392514	-0.278983	-142.084620
6.800000	-0.212190	-107.369477	-42.635747	30.823730	-42.635747	30.823730	-0.283111	-143.080550
6.850000	-0.215253	-108.061722	-42.495007	29.256171	-42.495007	29.256171	-0.287291	-144.078266
6.900000	-0.218360	-108.753009	-42.355905	27.689787	-42.355905	27.689787	-0.291524	-145.077868
6.950000	-0.221512	-109.443356	-42.218418	26.124528	-42.218418	26.124528	-0.295809	-146.079457
7.000000	-0.224709	-110.132781	-42.082524	24.560345	-42.082524	24.560345	-0.300147	-147.083134
7.050000	-0.227952	-110.821304	-41.948204	22.997185	-41.948204	22.997185	-0.304539	-148.089003
7.100000	-0.231241	-111.508944	-41.815437	21.434996	-41.815437	21.434996	-0.308984	-149.097170
7.150000	-0.234576	-112.195722	-41.684205	19.873727	-41.684205	19.873727	-0.313484	-150.107741
7.200000	-0.237959	-112.881660	-41.554491	18.313324	-41.554491	18.313324	-0.318038	-151.120826
7.250000	-0.241389	-113.566778	-41.426279	16.753738	-41.426279	16.753738	-0.322647	-152.136534
7.300000	-0.244867	-114.251099	-41.299554	15.194919	-41.299554	15.194919	-0.327311	-153.154977
7.350000	-0.248393	-114.934645	-41.174302	13.636817	-41.174302	13.636817	-0.332031	-154.176270
7.400000	-0.251967	-115.617440	-41.050511	12.079388	-41.050511	12.079388	-0.336806	-155.200527
7.450000	-0.255589	-116.299507	-40.928169	10.522587	-40.928169	10.522587	-0.341638	-156.227867
7.500000	-0.259261	-116.980869	-40.807265	8.966373	-40.807265	8.966373	-0.346525	-157.258409
7.550000	-0.262984	-117.661522	-40.687781	7.410730	-40.687781	7.410730	-0.351472	-158.292424
7.600000	-0.266756	-118.341522	-40.569720	5.855600	-40.569720	5.855600	-0.356476	-159.329897
7.650000	-0.270578	-119.020893	-40.453074	4.300953	-40.453074	4.300953	-0.361537	-160.370952
7.700000	-0.274450	-119.699660	-40.337837	2.746765	-40.337837	2.746765	-0.366656	-161.415717
7.750000	-0.278373	-120.377849	-40.224003	1.193017	-40.224003	1.193017	-0.371832	-162.464322
7.800000	-0.282345	-121.055485	-40.111566	-0.360306	-40.111566	-0.360306	-0.377066	-163.516898
7.850000	-0.286369	-121.732595	-40.000522	-1.913213	-40.000522	-1.913213	-0.382359	-164.573579
7.900000	-0.290443	-122.409204	-39.890867	-3.465704	-39.890867	-3.465704	-0.387710	-165.634499
7.950000	-0.294568	-123.085340	-39.782598	-5.017776	-39.782598	-5.017776	-0.393119	-166.699797
8.000000	-0.298745	-123.761030	-39.675713	-6.569416	-39.675713	-6.569416	-0.398587	-167.769613
8.050000	-0.302972	-124.436301	-39.570209	-8.120607	-39.570209	-8.120607	-0.404114	-168.844087
8.100000	-0.307251	-125.111181	-39.466083	-9.671322	-39.466083	-9.671322	-0.409699	-169.923365
8.150000	-0.311582	-125.785698	-39.363336	-11.221527	-39.363336	-11.221527	-0.415343	-171.007593
8.200000	-0.315964	-126.459879	-39.261964	-12.771180	-39.261964	-12.771180	-0.421046	-172.096919
8.250000	-0.320397	-127.133755	-39.161966	-14.320231	-39.161966	-14.320231	-0.426808	-173.191493
8.300000	-0.324882	-127.807353	-39.063341	-15.868619	-39.063341	-15.868619	-0.432629	-174.291469
8.350000	-0.329419	-128.480703	-38.966088	-17.416279	-38.966088	-17.416279	-0.438508	-175.397000
8.400000	-0.334008	-129.153835	-38.870204	-18.963133	-38.870204	-18.963133	-0.444446	-176.508246
8.450000	-0.338647	-129.826779	-38.775688	-20.509097	-38.775688	-20.509097	-0.450442	-177.625364
8.500000	-0.343339	-130.499565	-38.682536	-22.054076	-38.682536	-22.054076	-0.456497	-178.748517
8.550000	-0.348081	-131.172224	-38.590746	-23.597967	-38.590746	-23.597967	-0.462609	-179.877868
8.600000	-0.352875	-131.844787	-38.500314	-25.140660	-38.500314	-25.140660	-0.468779	178.986417
8.650000	-0.357720	-132.517286	-38.411235	-26.682033	-38.411235	-26.682033	-0.475005	177.844170
8.700000	-0.362616	-133.189753	-38.323503	-28.221957	-38.323503	-28.221957	-0.481289	176.695220
8.750000	-0.367562	-133.862219	-38.237113	-29.760294	-38.237113	-29.760294	-0.487629	175.539396
8.800000	-0.372561	-134.534721	-38.152077	-31.296817	-38.152077	-31.296817	-0.494027	174.376208
8.850000	-0.377610	-135.207292	-38.068368	-32.831439	-38.068368	-32.831439	-0.500481	173.205779
8.900000	-0.382709	-135.879965	-37.985973	-34.363997	-37.985973	-34.363997	-0.506989	172.027930
8.950000	-0.387857	-136.552774	-37.904882	-35.894322	-37.904882	-35.894322	-0.513551	170.842480
9.000000	-0.393054	-137.225754	-37.825080	-37.422236	-37.825080	-37.422236	-0.520166	169.649247
9.050000	-0.398299	-137.898940	-37.746552	-38.947558	-37.746552	-38.947558	-0.526834	168.448047
9.100000	-0.403593	-138.572367	-37.669280	-40.470097	-37.669280	-40.470097	-0.533553	167.238694
9.150000	-0.408934	-139.246070	-37.593246	-41.989660	-37.593246	-41.989660	-0.540323	166.021001
9.200000	-0.414322	-139.920087	-37.518428	-43.506047	-37.518428	-43.506047	-0.547142	164.794778
9.250000	-0.419757	-140.594453	-37.444803	-45.019054	-37.444803	-45.019054	-0.554010	163.559835
9.300000	-0.425238	-141.269206	-37.372344	-46.528475	-37.372344	-46.528475	-0.560926	162.315981
9.350000	-0.430763	-141.944384	-37.301025	-48.034098	-37.301025	-48.034098	-0.567888	161.063022
9.400000	-0.436333	-142.620025	-37.230815	-49.535713	-37.230815	-49.535713	-0.574896	159.800765
9.450000	-0.441947	-143.296168	-37.161681	-51.033104	-37.161681	-51.033104	-0.581947	158.529014
9.500000	-0.447603	-143.972851	-37.093588	-52.526056	-37.093588	-52.526056	-0.589040	157.247574
9.550000	-0.453301	-144.650116	-37.026497	-54.014356	-37.026497	-54.014356	-0.596175	155.956249
9.600000	-0.459041	-145.328002	-36.960369	-55.497787	-36.960369	-55.497787	-0.603348	154.654842
9.650000	-0.464820	-146.006551	-36.895160	-56.976137	-36.895160	-56.976137	-0.610560	153.343157
9.700000	-0.470638	-146.685804	-36.830824	-58.449194	-36.830824	-58.449194	-0.617808	152.020998
9.750000	-0.476495	-147.365803	-36.767311	-59.916750	-36.767311	-59.916750	-0.625090	150.688167
9.800000	-0.482388	-148.046591	-36.704571	-61.378601	-36.704571	-61.378601	-0.632404	149.344470
9.850000	-0.488316	-148.728211	-36.642548	-62.834544	-36.642548	-62.834544	-0.639749	147.989712
9.900000	-0.494279	-149.410708	-36.581184	-64.284386	-36.581184	-64.284386	-0.647122	146.623699
9.950000	-0.500275	-150.094126	-36.520418	-65.727936	-36.520418	-65.727936	-0.654522	145.246239
10.000000	-0.506303	-150.778511	-36.460187	-67.165009	-36.460187	-67.165009	-0.661946	143.857142
