! freq	dB(S11)	phase(S11)	dB(S12)	phase(S12)	
!     	dB(S21)	phase(S21)	dB(S22)	phase(S22)	
!S-par simulation data
#  GHz  S  DB  R 50
0.000000	-0.000000	0.000000	-310.402027	0.000000	-310.402027	0.000000	-0.000000	0.000000
0.050000	-0.002756	-3.621826	-47.170864	85.168375	-47.170864	85.168375	-0.004268	-5.624995
0.100000	-0.008749	-7.219235	-41.200890	80.507340	-41.200890	80.507340	-0.013572	-11.204871
0.150000	-0.015032	-10.792379	-37.737603	75.953662	-37.737603	75.953662	-0.023256	-16.732090
0.200000	-0.020792	-14.349861	-35.301823	71.443542	-35.301823	71.443542	-0.031953	-22.215351
0.250000	-0.026103	-17.894096	-33.437404	66.963581	-33.437404	66.963581	-0.039711	-27.651209
0.300000	-0.031246	-21.425549	-31.939135	62.514311	-31.939135	62.514311	-0.046968	-33.035319
0.350000	-0.036386	-24.943424	-30.696025	58.099859	-30.696025	58.099859	-0.053998	-38.363111
0.400000	-0.041595	-28.446086	-29.642463	53.725616	-29.642463	53.725616	-0.060922	-43.628201
0.450000	-0.046899	-31.930201	-28.738873	49.400802	-28.738873	49.400802	-0.067773	-48.818172
0.500000	-0.052274	-35.395263	-27.952913	45.126439	-27.952913	45.126439	-0.074538	-53.932590
0.550000	-0.057689	-38.839926	-27.263094	40.905368	-27.263094	40.905368	-0.081177	-58.967775
0.600000	-0.063108	-42.262324	-26.654261	36.741427	-26.654261	36.741427	-0.087639	-63.918348
0.650000	-0.068489	-45.659930	-26.115529	32.639609	-26.115529	32.639609	-0.093862	-68.777066
0.700000	-0.073798	-49.033238	-25.635016	28.597107	-25.635016	28.597107	-0.099820	-73.548074
0.750000	-0.079009	-52.381310	-25.204988	24.614628	-25.204988	24.614628	-0.105485	-78.230251
0.800000	-0.084091	-55.701913	-24.820325	20.695593	-24.820325	20.695593	-0.110818	-82.818397
0.850000	-0.089027	-58.994793	-24.475033	16.838564	-24.475033	16.838564	-0.115812	-87.314488
0.900000	-0.093805	-62.259699	-24.164243	13.042185	-24.164243	13.042185	-0.120470	-91.720408
0.950000	-0.098416	-65.495962	-23.884184	9.305999	-23.884184	9.305999	-0.124794	-96.036781
1.000000	-0.102856	-68.703189	-23.631473	5.628995	-23.631473	5.628995	-0.128795	-100.265173
1.050000	-0.107123	-71.881100	-23.403156	2.010045	-23.403156	2.010045	-0.132489	-104.407498
1.100000	-0.111220	-75.029520	-23.196639	-1.552034	-23.196639	-1.552034	-0.135892	-108.465965
1.150000	-0.115150	-78.148380	-23.009634	-5.058445	-23.009634	-5.058445	-0.139028	-112.443021
1.200000	-0.118919	-81.237710	-22.840122	-8.510396	-22.840122	-8.510396	-0.141918	-116.341303
1.250000	-0.122534	-84.297634	-22.686315	-11.909126	-22.686315	-11.909126	-0.144586	-120.163596
1.300000	-0.126001	-87.327740	-22.546865	-15.254836	-22.546865	-15.254836	-0.147050	-123.911276
1.350000	-0.129331	-90.328976	-22.420096	-18.550084	-22.420096	-18.550084	-0.149338	-127.588972
1.400000	-0.132534	-93.301730	-22.304761	-21.796385	-22.304761	-21.796385	-0.151473	-131.199706
1.450000	-0.135620	-96.246466	-22.199744	-24.995373	-22.199744	-24.995373	-0.153473	-134.746521
1.500000	-0.138598	-99.163722	-22.104033	-28.148785	-22.104033	-28.148785	-0.155360	-138.232463
1.550000	-0.141478	-102.054101	-22.016712	-31.258447	-22.016712	-31.258447	-0.157151	-141.660562
1.600000	-0.144268	-104.918267	-21.936945	-34.326246	-21.936945	-34.326246	-0.158863	-145.033820
1.650000	-0.146979	-107.756945	-21.863968	-37.354113	-21.863968	-37.354113	-0.160511	-148.355200
1.700000	-0.149612	-110.568562	-21.797569	-40.340456	-21.797569	-40.340456	-0.162107	-151.623071
1.750000	-0.152189	-113.358481	-21.736116	-43.294172	-21.736116	-43.294172	-0.163672	-154.849201
1.800000	-0.154713	-116.125412	-21.679504	-46.213903	-21.679504	-46.213903	-0.165213	-158.032086
1.850000	-0.157191	-118.870271	-21.627190	-49.101616	-21.627190	-49.101616	-0.166741	-161.174464
1.900000	-0.159632	-121.594012	-21.578671	-51.959278	-21.578671	-51.959278	-0.168267	-164.279007
1.950000	-0.162042	-124.297624	-21.533489	-54.788840	-21.533489	-54.788840	-0.169800	-167.348324
2.000000	-0.164428	-126.982130	-21.491220	-57.592247	-21.491220	-57.592247	-0.171348	-170.384958
2.050000	-0.166799	-129.648583	-21.451477	-60.371429	-21.451477	-60.371429	-0.172919	-173.391391
2.100000	-0.169160	-132.298063	-21.413904	-63.128306	-21.413904	-63.128306	-0.174521	-176.370040
2.150000	-0.171518	-134.931677	-21.378177	-65.864783	-21.378177	-65.864783	-0.176160	-179.323264
2.200000	-0.173880	-137.550557	-21.343998	-68.582757	-21.343998	-68.582757	-0.177844	177.746633
2.250000	-0.176251	-140.155857	-21.311097	-71.284111	-21.311097	-71.284111	-0.179579	174.837403
2.300000	-0.178638	-142.748753	-21.279228	-73.970718	-21.279228	-73.970718	-0.181369	171.946848
2.350000	-0.181046	-145.330441	-21.248169	-76.644441	-21.248169	-76.644441	-0.183223	169.072816
2.400000	-0.183482	-147.902139	-21.217720	-79.307134	-21.217720	-79.307134	-0.185144	166.213198
2.450000	-0.185950	-150.465081	-21.187701	-81.960646	-21.187701	-81.960646	-0.187139	163.365926
2.500000	-0.188456	-153.020525	-21.157953	-84.606816	-21.157953	-84.606816	-0.189213	160.528962
2.550000	-0.191008	-155.569535	-21.128330	-87.247330	-21.128330	-87.247330	-0.191377	157.700571
2.600000	-0.193610	-158.113733	-21.098707	-89.884339	-21.098707	-89.884339	-0.193632	154.878325
2.650000	-0.196268	-160.654437	-21.068980	-92.519677	-21.068980	-92.519677	-0.195985	152.060271
2.700000	-0.198985	-163.192981	-21.039065	-95.155178	-21.039065	-95.155178	-0.198442	149.244466
2.750000	-0.201769	-165.730723	-21.008892	-97.792680	-21.008892	-97.792680	-0.201010	146.428980
2.800000	-0.204624	-168.269041	-20.978409	-100.434027	-20.978409	-100.434027	-0.203695	143.611888
2.850000	-0.207556	-170.809336	-20.947580	-103.081074	-20.947580	-103.081074	-0.206504	140.791263
2.900000	-0.210571	-173.353032	-20.916384	-105.735684	-20.916384	-105.735684	-0.209445	137.965174
2.950000	-0.213673	-175.901579	-20.884819	-108.399738	-20.884819	-108.399738	-0.212526	135.131680
3.000000	-0.216868	-178.456452	-20.852896	-111.075132	-20.852896	-111.075132	-0.215756	132.288820
3.050000	-0.220163	178.980847	-20.820645	-113.763785	-20.820645	-113.763785	-0.219143	129.434611
3.100000	-0.223562	176.408785	-20.788113	-116.467640	-20.788113	-116.467640	-0.222696	126.567039
3.150000	-0.227071	173.825800	-20.755364	-119.188667	-20.755364	-119.188667	-0.226427	123.684055
3.200000	-0.230696	171.230296	-20.722481	-121.928871	-20.722481	-121.928871	-0.230346	120.783565
3.250000	-0.234443	168.620645	-20.689568	-124.690291	-20.689568	-124.690291	-0.234464	117.863423
3.300000	-0.238317	165.995182	-20.656749	-127.475008	-20.656749	-127.475008	-0.238795	114.921425
3.350000	-0.242315	163.353595	-20.624147	-130.283156	-20.624147	-130.283156	-0.243334	111.957210
3.400000	-0.246458	160.691755	-20.591958	-133.120350	-20.591958	-133.120350	-0.248125	108.965146
3.450000	-0.250750	158.008240	-20.560386	-135.988268	-20.560386	-135.988268	-0.253179	105.943300
3.500000	-0.255194	155.301575	-20.529663	-138.888683	-20.529663	-138.888683	-0.258508	102.889615
3.550000	-0.259784	152.571506	-20.499969	-141.821707	-20.499969	-141.821707	-0.264111	99.803685
3.600000	-0.264547	149.812473	-20.471766	-144.794809	-20.471766	-144.794809	-0.270049	96.677713
3.650000	-0.269468	147.025963	-20.445216	-147.805712	-20.445216	-147.805712	-0.276304	93.513574
3.700000	-0.274558	144.209025	-20.420721	-150.858301	-20.420721	-150.858301	-0.282909	90.306946
3.750000	-0.279828	141.357718	-20.398850	-153.957799	-20.398850	-153.957799	-0.289909	87.051971
3.800000	-0.285266	138.473321	-20.379797	-157.102345	-20.379797	-157.102345	-0.297292	83.750072
3.850000	-0.290891	135.550120	-20.364394	-160.299627	-20.364394	-160.299627	-0.305128	80.392635
3.900000	-0.296696	132.587740	-20.353082	-163.550102	-20.353082	-163.550102	-0.313426	76.978485
3.950000	-0.302676	129.585673	-20.346291	-166.854458	-20.346291	-166.854458	-0.322198	73.506251
4.000000	-0.308854	126.535846	-20.345492	-170.223701	-20.345492	-170.223701	-0.331551	69.963144
4.050000	-0.315204	123.441955	-20.350763	-173.652902	-20.350763	-173.652902	-0.341449	66.353657
4.100000	-0.321735	120.298855	-20.363399	-177.149200	-20.363399	-177.149200	-0.351970	62.668938
4.150000	-0.328448	117.102690	-20.384755	179.281926	-20.384755	179.281926	-0.363176	58.901616
4.200000	-0.335323	113.855468	-20.415253	175.642980	-20.415253	175.642980	-0.375061	55.053403
4.250000	-0.342373	110.548258	-20.457483	171.921364	-20.457483	171.921364	-0.387760	51.108271
4.300000	-0.349577	107.183106	-20.512183	168.119495	-20.512183	168.119495	-0.401272	47.067444
4.350000	-0.356926	103.758107	-20.580919	164.234343	-20.580919	164.234343	-0.415646	42.925767
4.400000	-0.364422	100.264142	-20.667431	160.252655	-20.667431	160.252655	-0.431042	38.665013
4.450000	-0.372040	96.706541	-20.772128	156.181377	-20.772128	156.181377	-0.447414	34.291667
4.500000	-0.379777	93.077603	-20.899169	152.009113	-20.899169	152.009113	-0.464909	29.789058
4.550000	-0.387623	89.375050	-21.051898	147.732033	-21.051898	147.732033	-0.483600	25.149349
4.600000	-0.395561	85.601591	-21.232297	143.353522	-21.232297	143.353522	-0.503477	20.374240
4.650000	-0.403595	81.744782	-21.448643	138.855299	-21.448643	138.855299	-0.524778	15.435480
4.700000	-0.411712	77.813315	-21.702113	134.249591	-21.702113	134.249591	-0.547392	10.345966
4.750000	-0.419921	73.797574	-22.002308	129.522586	-22.002308	129.522586	-0.571508	5.081743
4.800000	-0.428227	69.697843	-22.356338	124.675183	-22.356338	124.675183	-0.597139	-0.361593
4.850000	-0.436652	65.509557	-22.775839	119.702160	-22.775839	119.702160	-0.624371	-5.999103
4.900000	-0.445216	61.236401	-23.270482	114.611107	-23.270482	114.611107	-0.653127	-11.827661
4.950000	-0.453960	56.875374	-23.857401	109.401934	-23.857401	109.401934	-0.683419	-17.858849
5.000000	-0.462933	52.425880	-24.557834	104.080840	-24.557834	104.080840	-0.715188	-24.098761
5.050000	-0.472206	47.884797	-25.403702	98.656711	-25.403702	98.656711	-0.748359	-30.559349
5.100000	-0.481843	43.255736	-26.434361	93.155463	-26.434361	93.155463	-0.782708	-37.235637
5.150000	-0.491922	38.539927	-27.712694	87.617296	-27.712694	87.617296	-0.817987	-44.127256
5.200000	-0.502514	33.740925	-29.338680	82.117049	-29.338680	82.117049	-0.853869	-51.226721
5.250000	-0.513726	28.857541	-31.503610	76.832554	-31.503610	76.832554	-0.889956	-58.536771
5.300000	-0.525614	23.895741	-34.601178	72.243329	-34.601178	72.243329	-0.925745	-66.040198
5.350000	-0.538246	18.859059	-39.771342	70.533602	-39.771342	70.533602	-0.960655	-73.723417
5.400000	-0.551650	13.753511	-52.402202	113.032714	-52.402202	113.032714	-0.994066	-81.564231
5.450000	-0.565830	8.585486	-41.983492	-146.169292	-41.983492	-146.169292	-1.025335	-89.537127
5.500000	-0.580767	3.361248	-35.337577	-145.581210	-35.337577	-145.581210	-1.053778	-97.614102
5.550000	-0.596395	-1.911382	-31.557101	-150.096883	-31.557101	-150.096883	-1.078789	-105.761764
5.600000	-0.612617	-7.224474	-28.927977	-155.776322	-28.927977	-155.776322	-1.099806	-113.944696
5.650000	-0.629297	-12.569109	-26.931306	-161.894592	-26.931306	-161.894592	-1.116468	-122.126122
5.700000	-0.646283	-17.936922	-25.341186	-168.214359	-25.341186	-168.214359	-1.128465	-130.269762
5.750000	-0.663400	-23.319189	-24.038511	-174.622797	-24.038511	-174.622797	-1.135666	-138.340271
5.800000	-0.680462	-28.707226	-22.952334	178.944184	-22.952334	178.944184	-1.138096	-146.304657
5.850000	-0.697277	-34.092464	-22.036853	172.528658	-22.036853	172.528658	-1.135899	-154.132467
5.900000	-0.713659	-39.466458	-21.260374	166.161091	-21.260374	166.161091	-1.129353	-161.796878
5.950000	-0.729443	-44.821408	-20.598961	159.863305	-20.598961	159.863305	-1.118890	-169.278287
6.000000	-0.744482	-50.149961	-20.034792	153.652073	-20.034792	153.652073	-1.104962	-176.560406
6.050000	-0.758652	-55.445309	-19.553836	147.540162	-19.553836	147.540162	-1.088053	176.368537
6.100000	-0.771859	-60.701239	-19.144740	141.537116	-19.144740	141.537116	-1.068658	169.516110
6.150000	-0.784035	-65.912176	-18.798128	135.649815	-18.798128	135.649815	-1.047254	162.886117
6.200000	-0.795140	-71.073203	-18.506121	129.882920	-18.506121	129.882920	-1.024294	156.479112
6.250000	-0.805162	-76.180081	-18.262018	124.239250	-18.262018	124.239250	-1.000188	150.292952
6.300000	-0.814097	-81.228361	-18.060538	118.721901	-18.060538	118.721901	-0.975297	144.326372
6.350000	-0.821995	-86.215961	-17.896123	113.329080	-17.896123	113.329080	-0.949955	138.570122
6.400000	-0.828909	-91.140659	-17.764431	108.059781	-17.764431	108.059781	-0.924434	133.016961
6.450000	-0.834905	-96.000857	-17.661665	102.912209	-17.661665	102.912209	-0.898962	127.658823
6.500000	-0.840062	-100.795544	-17.584489	97.883947	-17.584489	97.883947	-0.873728	122.487135
6.550000	-0.844466	-105.524262	-17.529964	92.972101	-17.529964	92.972101	-0.848885	117.493073
6.600000	-0.848210	-110.187066	-17.495491	88.173422	-17.495491	88.173422	-0.824556	112.667759
6.650000	-0.851389	-114.784479	-17.478772	83.484406	-17.478772	83.484406	-0.800834	108.002418
6.700000	-0.854084	-119.315395	-17.478214	78.904690	-17.478214	78.904690	-0.777816	103.493130
6.750000	-0.856415	-123.785087	-17.491100	74.424071	-17.491100	74.424071	-0.755514	99.122576
6.800000	-0.858455	-128.193351	-17.516272	70.041771	-17.516272	70.041771	-0.733983	94.887228
6.850000	-0.860287	-132.542140	-17.552300	65.753934	-17.552300	65.753934	-0.713247	90.779576
6.900000	-0.861987	-136.833060	-17.597997	61.557664	-17.597997	61.557664	-0.693328	86.793747
6.950000	-0.863625	-141.068606	-17.652189	57.449043	-17.652189	57.449043	-0.674230	82.922835
7.000000	-0.865264	-145.251983	-17.713771	53.423370	-17.713771	53.423370	-0.655943	79.159271
7.050000	-0.866959	-149.385905	-17.781852	49.477005	-17.781852	49.477005	-0.638456	75.497196
7.100000	-0.868755	-153.473185	-17.855635	45.606407	-17.855635	45.606407	-0.621759	71.931129
7.150000	-0.870694	-157.516708	-17.934416	41.808132	-17.934416	41.808132	-0.605835	68.455955
7.200000	-0.872813	-161.519412	-18.017567	38.078842	-18.017567	38.078842	-0.590665	65.066902
7.250000	-0.875143	-165.484265	-18.104533	34.415310	-18.104533	34.415310	-0.576230	61.759522
7.300000	-0.877715	-169.414256	-18.194825	30.814417	-18.194825	30.814417	-0.562509	58.529672
7.350000	-0.880554	-173.312380	-18.288012	27.273159	-18.288012	27.273159	-0.549479	55.373488
7.400000	-0.883687	-177.181632	-18.383717	23.788638	-18.383717	23.788638	-0.537118	52.287372
7.450000	-0.887139	178.974998	-18.481611	20.358067	-18.481611	20.358067	-0.525404	49.267968
7.500000	-0.890934	175.154531	-18.581411	16.978770	-18.581411	16.978770	-0.514315	46.312149
7.550000	-0.895106	171.354366	-18.682880	13.649173	-18.682880	13.649173	-0.503842	43.418249
7.600000	-0.899673	167.571051	-18.785801	10.365699	-18.785801	10.365699	-0.493949	40.582171
7.650000	-0.904661	163.801648	-18.890009	7.125987	-18.890009	7.125987	-0.484617	37.801379
7.700000	-0.910098	160.043233	-18.995371	3.927776	-18.995371	3.927776	-0.475825	35.073498
7.750000	-0.916011	156.292896	-19.101786	0.768904	-19.101786	0.768904	-0.467554	32.396305
7.800000	-0.922429	152.547740	-19.209182	-2.352700	-19.209182	-2.352700	-0.459786	29.767714
7.850000	-0.929382	148.804877	-19.317513	-5.439006	-19.317513	-5.439006	-0.452503	27.185768
7.900000	-0.936902	145.061432	-19.426764	-8.491895	-19.426764	-8.491895	-0.445688	24.648628
7.950000	-0.945083	141.313957	-19.536897	-11.510202	-19.536897	-11.510202	-0.439367	22.158635
8.000000	-0.953847	137.560360	-19.648033	-14.501374	-19.648033	-14.501374	-0.433443	19.706285
8.050000	-0.963281	133.797530	-19.760190	-17.464225	-19.760190	-17.464225	-0.427940	17.293811
8.100000	-0.973422	130.022611	-19.873449	-20.400253	-19.873449	-20.400253	-0.422845	14.919760
8.150000	-0.984209	126.235079	-19.987941	-23.313996	-19.987941	-23.313996	-0.418095	12.578097
8.200000	-0.995888	122.427582	-20.103728	-26.200057	-20.103728	-26.200057	-0.413780	10.277371
8.250000	-1.008397	118.599365	-20.221006	-29.063214	-20.221006	-29.063214	-0.409835	8.011108
8.300000	-1.021782	114.747565	-20.339950	-31.904540	-20.339950	-31.904540	-0.406247	5.778128
8.350000	-1.036118	110.868457	-20.460776	-34.724408	-20.460776	-34.724408	-0.403014	3.578207
8.400000	-1.051355	106.962247	-20.583664	-37.525684	-20.583664	-37.525684	-0.400093	1.407105
8.450000	-1.067698	103.021174	-20.708946	-40.306005	-20.708946	-40.306005	-0.397524	-0.731477
8.500000	-1.085065	99.046855	-20.836813	-43.068504	-20.836813	-43.068504	-0.395254	-2.842540
8.550000	-1.103592	95.033596	-20.967637	-45.812113	-20.967637	-45.812113	-0.393299	-4.924819
8.600000	-1.123318	90.979253	-21.101729	-48.537384	-21.101729	-48.537384	-0.391643	-6.979767
8.650000	-1.144256	86.882587	-21.239398	-51.245029	-21.239398	-51.245029	-0.390266	-9.009301
8.700000	-1.166587	82.736308	-21.381198	-53.933050	-21.381198	-53.933050	-0.389190	-11.011790
8.750000	-1.190174	78.545045	-21.527251	-56.603901	-21.527251	-56.603901	-0.388362	-12.991923
8.800000	-1.215369	74.295001	-21.678499	-59.252713	-21.678499	-59.252713	-0.387834	-14.945403
8.850000	-1.241939	69.994702	-21.834911	-61.882706	-21.834911	-61.882706	-0.387543	-16.878028
8.900000	-1.270171	65.632669	-21.997454	-64.489195	-21.997454	-64.489195	-0.387524	-18.787078
8.950000	-1.299981	61.211900	-22.166398	-67.072604	-22.166398	-67.072604	-0.387745	-20.675441
9.000000	-1.331486	56.727364	-22.342493	-69.629736	-22.342493	-69.629736	-0.388213	-22.543072
9.050000	-1.364771	52.175258	-22.526478	-72.157295	-22.526478	-72.157295	-0.388928	-24.390346
9.100000	-1.399758	47.558370	-22.718730	-74.654332	-22.718730	-74.654332	-0.389870	-26.219530
9.150000	-1.436711	42.864978	-22.920641	-77.112083	-22.920641	-77.112083	-0.391068	-28.028873
9.200000	-1.475368	38.105461	-23.132158	-79.532466	-23.132158	-79.532466	-0.392483	-29.822271
9.250000	-1.516074	33.263656	-23.355191	-81.900994	-23.355191	-81.900994	-0.394161	-31.597209
9.300000	-1.558536	28.351020	-23.589690	-84.219345	-23.589690	-84.219345	-0.396064	-33.357356
9.350000	-1.602933	23.357312	-23.837332	-86.472515	-23.837332	-86.472515	-0.398229	-35.101725
9.400000	-1.649135	18.286056	-24.098805	-88.654410	-24.098805	-88.654410	-0.400649	-36.832020
9.450000	-1.697064	13.137659	-24.375111	-90.754468	-24.375111	-90.754468	-0.403333	-38.549277
9.500000	-1.746731	7.906817	-24.667827	-92.752632	-24.667827	-92.752632	-0.406319	-40.253571
9.550000	-1.797957	2.597067	-24.977835	-94.635100	-24.977835	-94.635100	-0.409618	-41.946406
9.600000	-1.850599	-2.790768	-25.306272	-96.381155	-25.306272	-96.381155	-0.413260	-43.628783
9.650000	-1.904478	-8.255296	-25.654196	-97.965688	-25.654196	-97.965688	-0.417285	-45.301760
9.700000	-1.959384	-13.795133	-26.022524	-99.356197	-26.022524	-99.356197	-0.421745	-46.966399
9.750000	-2.015065	-19.408730	-26.411797	-100.509723	-26.411797	-100.509723	-0.426713	-48.623825
9.800000	-2.071221	-25.090753	-26.821729	-101.385150	-26.821729	-101.385150	-0.432257	-50.275534
9.850000	-2.127533	-30.837087	-27.251137	-101.926460	-27.251137	-101.926460	-0.438475	-51.922901
9.900000	-2.183656	-36.642889	-27.697162	-102.066332	-27.697162	-102.066332	-0.445487	-53.567399
9.950000	-2.239218	-42.502598	-28.154325	-101.725479	-28.154325	-101.725479	-0.453445	-55.210605
10.000000	-2.293827	-48.409940	-28.613190	-100.813981	-28.613190	-100.813981	-0.462536	-56.854206
