! freq	dB(S11)	phase(S11)	dB(S12)	phase(S12)	
!     	dB(S21)	phase(S21)	dB(S22)	phase(S22)	
!S-par simulation data
#  GHz  S  DB  R 50
0.000000	-84.125728	0.000000	-0.000540	0.000000	-0.000540	0.000000	-84.125728	0.000000
0.050000	-32.692515	-93.415219	-0.008291	-3.533668	-0.008291	-3.533668	-32.692470	-93.417889
0.100000	-26.709334	-97.061387	-0.021958	-7.017088	-0.021958	-7.017088	-26.709281	-97.066784
0.150000	-23.239299	-100.643804	-0.038271	-10.481851	-0.038271	-10.481851	-23.239233	-100.652002
0.200000	-20.802161	-104.187992	-0.058334	-13.934982	-0.058334	-13.934982	-20.802080	-104.199046
0.250000	-18.931272	-107.696628	-0.082310	-17.375349	-0.082310	-17.375349	-18.931175	-107.710571
0.300000	-17.421201	-111.170782	-0.110152	-20.800501	-0.110152	-20.800501	-17.421090	-111.187632
0.350000	-16.162228	-114.613811	-0.141540	-24.208921	-0.141540	-24.208921	-16.162104	-114.633583
0.400000	-15.089930	-118.028111	-0.176191	-27.599022	-0.176191	-27.599022	-15.089795	-118.050819
0.450000	-14.161291	-121.416838	-0.213640	-30.970584	-0.213640	-30.970584	-14.161146	-121.442499
0.500000	-13.347792	-124.781217	-0.253560	-34.322845	-0.253560	-34.322845	-13.347637	-124.809852
0.550000	-12.630819	-128.120503	-0.295709	-37.653847	-0.295709	-37.653847	-12.630655	-128.152138
0.600000	-11.994339	-131.435954	-0.339607	-40.963740	-0.339607	-40.963740	-11.994166	-131.470617
0.650000	-11.424912	-134.729514	-0.384801	-44.253770	-0.384801	-44.253770	-11.424731	-134.767235
0.700000	-10.917080	-137.998439	-0.430985	-47.521087	-0.430985	-47.521087	-10.916892	-138.039257
0.750000	-10.459519	-141.246780	-0.477670	-50.769266	-0.477670	-50.769266	-10.459323	-141.290732
0.800000	-10.050510	-144.471546	-0.524446	-53.995460	-0.524446	-53.995460	-10.050307	-144.518679
0.850000	-9.681700	-147.676688	-0.570927	-57.203363	-0.570927	-57.203363	-9.681489	-147.727050
0.900000	-9.351498	-150.861181	-0.616646	-60.392091	-0.616646	-60.392091	-9.351280	-150.914826
0.950000	-9.055356	-154.027393	-0.661235	-63.563971	-0.661235	-63.563971	-9.055132	-154.084381
1.000000	-8.790695	-157.176591	-0.704309	-66.720334	-0.704309	-66.720334	-8.790465	-157.236989
1.050000	-8.556072	-160.309987	-0.745386	-69.862534	-0.745386	-69.862534	-8.555836	-160.373871
1.100000	-8.347734	-163.430618	-0.784310	-72.993561	-0.784310	-72.993561	-8.347492	-163.498065
1.150000	-8.166919	-166.539165	-0.820362	-76.114446	-0.820362	-76.114446	-8.166672	-166.610277
1.200000	-8.009001	-169.639554	-0.853673	-79.228959	-0.853673	-79.228959	-8.008750	-169.714425
1.250000	-7.876514	-172.733140	-0.883377	-82.338957	-0.883377	-82.338957	-7.876259	-172.811897
1.300000	-7.765621	-175.823589	-0.909678	-85.447986	-0.909678	-85.447986	-7.765364	-175.906355
1.350000	-7.677993	-178.913562	-0.931917	-88.559173	-0.931917	-88.559173	-7.677734	-179.000493
1.400000	-7.612240	177.993556	-0.950038	-91.676046	-0.950038	-91.676046	-7.611980	177.902292
1.450000	-7.568582	174.894484	-0.963768	-94.802223	-0.963768	-94.802223	-7.568324	174.798694
1.500000	-7.548156	171.784995	-0.972707	-97.942468	-0.972707	-97.942468	-7.547900	171.684446
1.550000	-7.549653	168.662389	-0.977056	-101.099613	-0.977056	-101.099613	-7.549400	168.556837
1.600000	-7.577038	165.520246	-0.976008	-104.281228	-0.976008	-104.281228	-7.576792	165.409364
1.650000	-7.627743	162.357419	-0.970220	-107.488370	-0.970220	-107.488370	-7.627506	162.240882
1.700000	-7.707804	159.165111	-0.958719	-110.731647	-0.958719	-110.731647	-7.707579	159.042464
1.750000	-7.815408	155.942672	-0.942238	-114.011826	-0.942238	-114.011826	-7.815200	155.813445
1.800000	-7.956324	152.681758	-0.920213	-117.339321	-0.920213	-117.339321	-7.956137	152.545329
1.850000	-8.132433	149.379173	-0.893011	-120.718583	-0.893011	-120.718583	-8.132274	149.234823
1.900000	-8.348517	146.029471	-0.860685	-124.157242	-0.860685	-124.157242	-8.348395	145.876314
1.950000	-8.611768	142.625537	-0.823289	-127.665930	-0.823289	-127.665930	-8.611695	142.462422
2.000000	-8.925998	139.167235	-0.781515	-131.247018	-0.781515	-131.247018	-8.925988	138.992834
2.050000	-9.306684	135.642998	-0.735264	-134.920355	-0.735264	-134.920355	-9.306762	135.455358
2.100000	-9.757908	132.060192	-0.685769	-138.681380	-0.685769	-138.681380	-9.758104	131.857133
2.150000	-10.303939	128.410333	-0.633323	-142.553987	-0.633323	-142.553987	-10.304302	128.188502
2.200000	-10.964403	124.702326	-0.579165	-146.544033	-0.579165	-146.544033	-10.965007	124.457233
2.250000	-11.771242	120.950899	-0.524596	-150.663023	-0.524596	-150.663023	-11.772211	120.676044
2.300000	-12.771510	117.188728	-0.471238	-154.922717	-0.471238	-154.922717	-12.773061	116.874212
2.350000	-14.038570	113.485803	-0.421083	-159.334848	-0.421083	-159.334848	-14.041122	113.115507
2.400000	-15.696208	109.999275	-0.376543	-163.910716	-0.376543	-163.910716	-15.700683	109.544367
2.450000	-17.978814	107.130236	-0.340496	-168.660639	-0.340496	-168.660639	-17.987683	106.531401
2.500000	-21.418263	106.204872	-0.316318	-173.593240	-0.316318	-173.593240	-21.440861	105.308596
2.550000	-27.632245	115.073843	-0.307890	-178.714567	-0.307890	-178.714567	-27.742787	113.308487
2.600000	-32.764417	-156.188254	-0.319574	175.972934	-0.319574	175.972934	-33.156978	-154.812482
2.650000	-23.517763	-116.900068	-0.356134	170.471523	-0.356134	170.471523	-23.566527	-115.773094
2.700000	-18.312936	-115.375174	-0.422598	164.789252	-0.422598	164.789252	-18.328019	-114.753383
2.750000	-14.918955	-118.502721	-0.524125	158.940576	-0.524125	158.940576	-14.925961	-118.085306
2.800000	-12.406655	-123.071024	-0.665964	152.946498	-0.665964	152.946498	-12.410527	-122.762219
2.850000	-10.426893	-128.297622	-0.852091	146.837932	-0.852091	146.837932	-10.429217	-128.056139
2.900000	-8.811846	-133.885783	-1.085720	140.650496	-1.085720	140.650496	-8.813284	-133.689829
2.950000	-7.468827	-139.682076	-1.370004	134.423388	-1.370004	134.423388	-7.469706	-139.518479
3.000000	-6.339143	-145.579567	-1.704741	128.199075	-1.704741	128.199075	-6.339640	-145.440064
3.050000	-5.385124	-151.504442	-2.090907	122.020173	-2.090907	122.020173	-5.385347	-151.383131
3.100000	-4.576395	-157.396831	-2.525869	115.923627	-2.525869	115.923627	-4.576408	-157.289568
3.150000	-3.891883	-163.208599	-3.007653	109.945354	-3.007653	109.945354	-3.891728	-163.112159
3.200000	-3.312207	-168.905276	-3.532591	104.110345	-3.532591	104.110345	-3.311914	-168.817157
3.250000	-2.822945	-174.458155	-4.097009	98.441629	-4.097009	98.441629	-2.822532	-174.376274
3.300000	-2.409703	-179.853266	-4.697117	92.948516	-4.697117	92.948516	-2.409183	-179.775896
3.350000	-2.061601	174.920633	-5.329137	87.639376	-5.329137	87.639376	-2.060983	174.995019
3.400000	-1.768168	169.863906	-5.990207	82.512243	-5.990207	82.512243	-1.767458	169.936664
3.450000	-1.521213	164.975222	-6.677707	77.564325	-6.677707	77.564325	-1.520412	165.047613
3.500000	-1.313503	160.248474	-7.389741	72.788448	-7.389741	72.788448	-1.312612	160.321699
3.550000	-1.138893	155.674829	-8.125123	68.175094	-8.125123	68.175094	-1.137910	155.750055
3.600000	-0.992188	151.243608	-8.883398	63.713216	-8.883398	63.713216	-0.991110	151.321997
3.650000	-0.869017	146.942972	-9.664868	59.390893	-9.664868	59.390893	-0.867838	147.025704
3.700000	-0.765713	142.760431	-10.470608	55.195819	-10.470608	55.195819	-0.764427	142.848729
3.750000	-0.679213	138.683201	-11.302504	51.115661	-11.302504	51.115661	-0.677812	138.778348
3.800000	-0.607350	134.701063	-12.161473	47.141297	-12.161473	47.141297	-0.605821	134.804479
3.850000	-0.547505	130.797699	-13.052906	43.257159	-13.052906	43.257159	-0.545836	130.910874
3.900000	-0.497948	126.960384	-13.981586	39.451923	-13.981586	39.451923	-0.496121	127.084951
3.950000	-0.457248	123.176428	-14.953547	35.714666	-14.953547	35.714666	-0.455244	123.314195
4.000000	-0.424231	119.433063	-15.976339	32.034783	-15.976339	32.034783	-0.422025	119.586053
4.050000	-0.397940	115.717290	-17.059382	28.401811	-17.059382	28.401811	-0.395502	115.887788
4.100000	-0.377606	112.015651	-18.214455	24.805088	-18.214455	24.805088	-0.374900	112.206262
4.150000	-0.362628	108.313949	-19.456342	21.233076	-19.456342	21.233076	-0.359607	108.527671
4.200000	-0.352556	104.596874	-20.803693	17.671995	-20.803693	17.671995	-0.349163	104.837194
4.250000	-0.347085	100.847521	-22.280100	14.102878	-22.280100	14.102878	-0.343249	101.118529
4.300000	-0.346055	97.046755	-23.915313	10.494918	-23.915313	10.494918	-0.341684	97.353306
4.350000	-0.349466	93.172354	-25.746074	6.789660	-25.746074	6.789660	-0.344440	93.520268
4.400000	-0.356852	89.215005	-27.851089	2.920611	-27.851089	2.920611	-0.351044	89.610224
4.450000	-0.369904	85.111574	-30.211058	-1.448820	-30.211058	-1.448820	-0.363088	85.563747
4.500000	-0.388732	80.835365	-32.852037	-6.944962	-32.852037	-6.944962	-0.380630	81.355309
4.550000	-0.414593	76.333973	-35.584545	-15.067336	-35.584545	-15.067336	-0.404822	76.935423
4.600000	-0.449557	71.537805	-37.622419	-27.946542	-37.622419	-27.946542	-0.437572	72.238528
4.650000	-0.497094	66.351682	-37.398144	-43.800107	-37.398144	-43.800107	-0.482098	67.175167
4.700000	-0.563243	60.641401	-34.428005	-55.646286	-34.428005	-55.646286	-0.544036	61.619492
4.750000	-0.659062	54.211861	-30.012431	-62.622098	-30.012431	-62.622098	-0.633754	55.389020
4.800000	-0.804021	46.803886	-25.283448	-68.610060	-25.283448	-68.610060	-0.769602	48.242266
4.850000	-1.045452	37.915124	-20.527107	-76.281552	-20.527107	-76.281552	-0.996380	39.713399
4.900000	-1.479030	26.917956	-15.952529	-86.962046	-15.952529	-86.962046	-1.404937	29.230152
4.950000	-2.321017	12.994889	-11.659379	-101.760468	-11.659379	-101.760468	-2.200196	16.080113
5.000000	-4.043039	-4.291748	-7.868729	-121.625099	-7.868729	-121.625099	-3.822606	0.040963
5.050000	-7.451126	-22.810013	-5.005599	-145.825135	-5.005599	-145.825135	-6.975390	-16.323029
5.100000	-13.461171	-34.252787	-3.305491	-170.856384	-3.305491	-170.856384	-12.152533	-24.434990
5.150000	-21.927198	-14.137821	-2.479822	166.644828	-2.479822	166.644828	-18.097415	-10.200047
5.200000	-24.211081	36.948456	-2.083395	147.265032	-2.083395	147.265032	-21.251140	15.574730
5.250000	-26.027642	65.640225	-1.869435	130.008669	-1.869435	130.008669	-25.774267	32.335503
5.300000	-24.750824	135.250051	-1.780129	113.836349	-1.780129	113.836349	-28.714121	138.265135
5.350000	-16.650537	157.910197	-1.842912	98.189098	-1.842912	98.189098	-17.318882	162.391427
5.400000	-11.423373	153.916652	-2.113775	83.029848	-2.113775	83.029848	-11.633435	155.520020
5.450000	-8.057591	144.843364	-2.608560	68.607996	-2.608560	68.607996	-8.145846	145.278666
5.500000	-5.804854	134.643081	-3.313657	55.307462	-3.313657	55.307462	-5.848043	134.543067
5.550000	-4.270822	124.717818	-4.175666	43.342413	-4.175666	43.342413	-4.293742	124.339767
5.600000	-3.218221	115.592068	-5.136436	32.784670	-5.136436	32.784670	-3.230940	115.060723
5.650000	-2.485521	107.394463	-6.145581	23.530121	-6.145581	23.530121	-2.492664	106.774539
5.700000	-1.967219	100.083805	-7.167646	15.412867	-7.167646	15.412867	-1.971135	99.411537
5.750000	-1.596889	93.575605	-8.176156	8.278941	-8.176156	8.278941	-1.598882	92.872791
5.800000	-1.320847	87.688888	-9.171710	1.888771	-9.171710	1.888771	-1.321621	86.967814
5.850000	-1.117449	82.379523	-10.134213	-3.819669	-10.134213	-3.819669	-1.117471	81.648829
5.900000	-0.962172	77.516066	-11.070900	-9.005459	-11.070900	-9.005459	-0.961713	76.780832
5.950000	-0.841567	73.018531	-11.984472	-13.763299	-11.984472	-13.763299	-0.840801	72.282047
6.000000	-0.747040	68.831459	-12.875123	-18.157656	-12.875123	-18.157656	-0.746084	68.095909
6.050000	-0.672926	64.918194	-13.739265	-22.229853	-13.739265	-22.229853	-0.671862	64.185029
6.100000	-0.613105	61.217354	-14.588748	-26.049903	-14.588748	-26.049903	-0.611984	60.487397
6.150000	-0.564468	57.698540	-15.426353	-29.651310	-15.426353	-29.651310	-0.563326	56.972291
6.200000	-0.524957	54.342316	-16.251431	-33.054051	-16.251431	-33.054051	-0.523821	53.620050
6.250000	-0.493020	51.134027	-17.061759	-36.271354	-17.061759	-36.271354	-0.491908	50.415841
6.300000	-0.466305	48.036499	-17.872779	-39.344927	-17.872779	-39.344927	-0.465230	47.322361
6.350000	-0.444027	45.039473	-18.685458	-42.283221	-18.685458	-42.283221	-0.442998	44.329288
6.400000	-0.425428	42.131492	-19.502931	-45.095810	-19.502931	-45.095810	-0.424453	41.425111
6.450000	-0.409901	39.302746	-20.328576	-47.789718	-20.328576	-47.789718	-0.408985	38.599984
6.500000	-0.396957	36.544812	-21.166074	-50.369576	-21.166074	-50.369576	-0.396103	35.845457
6.550000	-0.386238	33.851663	-22.018092	-52.835207	-22.018092	-52.835207	-0.385450	33.155479
6.600000	-0.377620	31.223716	-22.880482	-55.169285	-22.880482	-55.169285	-0.376902	30.530416
6.650000	-0.370520	28.645638	-23.769040	-57.384903	-23.769040	-57.384903	-0.369875	27.954966
6.700000	-0.364703	26.111464	-24.691975	-59.478570	-24.691975	-59.478570	-0.364133	25.423166
6.750000	-0.360112	23.620969	-25.650896	-61.426001	-25.650896	-61.426001	-0.359619	22.934765
6.800000	-0.356575	21.169516	-26.655386	-63.208096	-26.655386	-63.208096	-0.356161	20.485125
6.850000	-0.353970	18.753845	-27.715562	-64.793068	-27.715562	-64.793068	-0.353640	18.070982
6.900000	-0.352200	16.371063	-28.844013	-66.133871	-28.844013	-66.133871	-0.351955	15.689437
6.950000	-0.351181	14.018587	-30.056693	-67.159801	-30.056693	-67.159801	-0.351025	13.337902
7.000000	-0.350844	11.694098	-31.374161	-67.761742	-31.374161	-67.761742	-0.350780	11.014051
7.050000	-0.351131	9.395502	-32.823196	-67.765021	-32.823196	-67.765021	-0.351163	8.715781
7.100000	-0.352083	7.124553	-34.414223	-66.535864	-34.414223	-66.535864	-0.352216	6.444781
7.150000	-0.353592	4.876763	-36.195446	-63.812762	-36.195446	-63.812762	-0.353831	4.196595
7.200000	-0.355353	2.639142	-38.278565	-59.085204	-38.278565	-59.085204	-0.355699	1.958395
7.250000	-0.357867	0.432030	-40.394636	-48.344277	-40.394636	-48.344277	-0.358329	-0.249845
7.300000	-0.360534	-1.769300	-42.746291	-35.346075	-42.746291	-35.346075	-0.361114	-2.452436
7.350000	-0.363959	-3.941725	-43.260194	-11.061494	-43.260194	-11.061494	-0.364669	-4.626787
7.400000	-0.367458	-6.111706	-43.562413	12.315201	-43.562413	12.315201	-0.368297	-6.798768
7.450000	-0.371739	-8.254819	-41.491018	25.705154	-41.491018	25.705154	-0.372723	-8.944691
7.500000	-0.376023	-10.397932	-39.819719	39.095106	-39.819719	39.095106	-0.377150	-11.090613
7.550000	-0.381132	-12.516743	-38.091660	42.760770	-38.091660	42.760770	-0.382422	-13.213222
7.600000	-0.386244	-14.635554	-36.651008	46.426433	-36.651008	46.426433	-0.387697	-15.335831
7.650000	-0.392110	-16.736533	-35.434998	47.245606	-35.434998	47.245606	-0.393746	-17.441636
7.700000	-0.398049	-18.835891	-34.370065	47.806006	-34.370065	47.806006	-0.399869	-19.545913
7.750000	-0.404689	-20.923106	-33.469150	47.362069	-33.469150	47.362069	-0.406716	-21.639119
7.800000	-0.411474	-23.007893	-32.661655	46.717263	-32.661655	46.717263	-0.413713	-23.730111
7.850000	-0.418923	-25.085572	-31.965689	45.638934	-31.965689	45.638934	-0.421398	-25.815113
7.900000	-0.426598	-27.160882	-31.334666	44.416098	-31.334666	44.416098	-0.429317	-27.898120
7.950000	-0.434909	-29.233547	-30.782071	42.977944	-30.782071	42.977944	-0.437900	-29.979647
8.000000	-0.443544	-31.304889	-30.279391	41.432132	-30.279391	41.432132	-0.446819	-32.060434
8.050000	-0.452793	-33.377499	-29.834299	39.767583	-29.834299	39.767583	-0.456384	-34.143700
8.100000	-0.462487	-35.451016	-29.431430	38.018222	-29.431430	38.018222	-0.466413	-36.228736
8.150000	-0.472778	-37.529147	-29.072572	36.197481	-29.072572	36.197481	-0.477072	-38.319632
8.200000	-0.483669	-39.611891	-28.753161	34.305361	-28.753161	34.305361	-0.488363	-40.416388
8.250000	-0.495140	-41.701947	-28.468522	32.367025	-28.468522	32.367025	-0.500269	-42.521715
8.300000	-0.507420	-43.802236	-28.224809	30.363986	-28.224809	30.363986	-0.513032	-44.639044
8.350000	-0.520255	-45.911726	-28.009173	28.329272	-28.009173	28.329272	-0.526385	-46.766817
8.400000	-0.534186	-48.039618	-27.840737	26.231209	-27.840737	26.231209	-0.540907	-48.915482
8.450000	-0.548632	-50.177527	-27.694979	24.110982	-27.694979	24.110982	-0.555980	-51.075333
8.500000	-0.564581	-52.345490	-27.609346	21.924268	-27.609346	21.924268	-0.572665	-53.268744
8.550000	-0.580973	-54.522774	-27.541214	19.722928	-27.541214	19.722928	-0.589826	-55.472471
8.600000	-0.599466	-56.746670	-27.556767	17.448468	-27.556767	17.448468	-0.609250	-57.727773
8.650000	-0.618267	-58.976954	-27.583687	15.166719	-27.583687	15.166719	-0.629009	-59.990109
8.700000	-0.640077	-61.277516	-27.736802	12.804782	-27.736802	12.804782	-0.652025	-62.329820
8.750000	-0.661941	-63.578079	-27.892665	10.442846	-27.892665	10.442846	-0.675102	-64.669532
8.800000	-0.686968	-65.952855	-28.194054	8.020346	-28.194054	8.020346	-0.701617	-67.090780
8.850000	-0.714535	-68.385859	-28.627410	5.569358	-28.627410	5.569358	-0.730903	-69.575958
8.900000	-0.745129	-70.886681	-29.238764	3.109923	-29.238764	3.109923	-0.763495	-72.135596
8.950000	-0.779375	-73.466745	-30.102489	0.687540	-30.102489	0.687540	-0.800086	-74.782269
9.000000	-0.818098	-76.139789	-31.348939	-1.587327	-31.348939	-1.587327	-0.841583	-77.531141
9.050000	-0.862395	-78.922489	-33.236399	-3.402489	-33.236399	-3.402489	-0.889194	-80.400672
9.100000	-0.913758	-81.835285	-36.391621	-3.535617	-36.391621	-3.535617	-0.944563	-83.413560
9.150000	-0.974258	-84.903468	-42.956612	10.643229	-42.956612	10.643229	-1.009964	-86.597992
9.200000	-1.045325	-88.136037	-46.552412	121.451552	-46.552412	121.451552	-1.086972	-89.964285
9.250000	-1.133427	-91.609863	-35.241784	146.533622	-35.241784	146.533622	-1.182674	-93.598222
9.300000	-1.244583	-95.367405	-29.350188	146.264743	-29.350188	146.264743	-1.303658	-97.548274
9.350000	-1.387063	-99.456094	-25.138382	142.901979	-25.138382	142.901979	-1.458977	-101.869310
9.400000	-1.574434	-103.946797	-21.696976	138.119818	-21.696976	138.119818	-1.663498	-106.644002
9.450000	-1.834255	-108.965045	-18.639293	132.141774	-18.639293	132.141774	-1.947441	-112.021261
9.500000	-2.203223	-114.584385	-15.853712	124.965023	-15.853712	124.965023	-2.351361	-118.100409
9.550000	-2.734051	-120.831498	-13.298108	116.472267	-13.298108	116.472267	-2.934464	-124.941689
9.600000	-3.534717	-127.678003	-10.921227	106.340267	-10.921227	106.340267	-3.820159	-132.589438
9.650000	-4.755770	-134.632879	-8.777195	94.415030	-8.777195	94.415030	-5.191883	-140.644776
9.700000	-6.572611	-140.297964	-6.957754	80.864246	-6.957754	80.864246	-7.303193	-147.757655
9.750000	-9.087342	-141.254979	-5.548003	66.226085	-5.548003	66.226085	-10.459218	-149.984342
9.800000	-11.793467	-131.914927	-4.575890	51.469621	-4.575890	51.469621	-14.378493	-137.500110
9.850000	-12.878663	-112.614659	-3.985875	37.543600	-3.985875	37.543600	-15.617649	-105.744542
9.900000	-11.897034	-98.350192	-3.663042	24.998525	-3.663042	24.998525	-13.341568	-87.032202
9.950000	-10.579684	-93.619130	-3.489931	13.905709	-3.489931	13.905709	-11.283967	-83.612650
10.000000	-9.644929	-94.014453	-3.382695	4.086567	-3.382695	4.086567	-10.020127	-85.639266
