! freq	dB(S11)	phase(S11)	dB(S12)	phase(S12)	
!     	dB(S21)	phase(S21)	dB(S22)	phase(S22)	
!S-par simulation data
#  GHz  S  DB  R 50
0.000000	-155.669497	0.000000	-0.000000	0.000000	-0.000000	0.000000	-155.669497	0.000000
0.050000	-42.826103	-91.384851	-0.005934	-3.297402	-0.005934	-3.297402	-42.798993	-88.366427
0.100000	-37.002523	-97.244975	-0.014121	-6.543858	-0.014121	-6.543858	-36.951912	-91.967913
0.150000	-33.528500	-102.469709	-0.020559	-9.775793	-0.020559	-9.775793	-33.467779	-94.647124
0.200000	-31.048256	-107.426921	-0.026484	-13.007088	-0.026484	-13.007088	-30.982938	-97.021383
0.250000	-29.119028	-112.247335	-0.032609	-16.239662	-0.032609	-16.239662	-29.051187	-99.247261
0.300000	-27.540262	-116.999220	-0.039175	-19.473340	-0.039175	-19.473340	-27.470942	-101.398246
0.350000	-26.203749	-121.709519	-0.046215	-22.708012	-0.046215	-22.708012	-26.133681	-103.501055
0.400000	-25.044495	-126.394426	-0.053688	-25.943826	-0.053688	-25.943826	-24.974299	-105.570568
0.450000	-24.020304	-131.063445	-0.061548	-29.181272	-0.061548	-29.181272	-23.950568	-107.614183
0.500000	-23.102287	-135.723786	-0.069743	-32.420989	-0.069743	-32.420989	-23.033551	-109.637374
0.550000	-22.269738	-140.380439	-0.078248	-35.663755	-0.078248	-35.663755	-22.202490	-111.643452
0.600000	-21.507283	-145.037255	-0.087060	-38.910428	-0.087060	-38.910428	-21.441950	-113.634811
0.650000	-20.803102	-149.697437	-0.096202	-42.162003	-0.096202	-42.162003	-20.740057	-115.613235
0.700000	-20.147991	-154.363547	-0.105712	-45.419378	-0.105712	-45.419378	-20.087528	-117.580668
0.750000	-19.534638	-159.037490	-0.115635	-48.683341	-0.115635	-48.683341	-19.476965	-119.539023
0.800000	-18.957053	-163.720780	-0.126031	-51.954702	-0.126031	-51.954702	-18.902304	-121.490103
0.850000	-18.410202	-168.414688	-0.136977	-55.234339	-0.136977	-55.234339	-18.358447	-123.435779
0.900000	-17.889950	-173.119930	-0.148542	-58.522943	-0.148542	-58.522943	-17.841190	-125.378204
0.950000	-17.392502	-177.837361	-0.160828	-61.821586	-0.160828	-61.821586	-17.346689	-127.319709
1.000000	-16.915273	177.433676	-0.173866	-65.130311	-0.173866	-65.130311	-16.872294	-129.262777
1.050000	-16.455437	172.692989	-0.187752	-68.450095	-0.187752	-68.450095	-16.415148	-131.210048
1.100000	-16.010708	167.941004	-0.202565	-71.781635	-0.202565	-71.781635	-15.972935	-133.164388
1.150000	-15.579086	163.178381	-0.218386	-75.125649	-0.218386	-75.125649	-15.543634	-135.128855
1.200000	-15.158816	158.405993	-0.235295	-78.482888	-0.235295	-78.482888	-15.125476	-137.106680
1.250000	-14.748352	153.624898	-0.253381	-81.854145	-0.253381	-81.854145	-14.716912	-139.101260
1.300000	-14.346097	148.836176	-0.272766	-85.240599	-0.272766	-85.240599	-14.316344	-141.116652
1.350000	-13.951082	144.041366	-0.293527	-88.642839	-0.293527	-88.642839	-13.922810	-143.156151
1.400000	-13.562267	139.241904	-0.315777	-92.061807	-0.315777	-92.061807	-13.535286	-145.223500
1.450000	-13.178754	134.439284	-0.339640	-95.498498	-0.339640	-95.498498	-13.152886	-147.322502
1.500000	-12.799767	129.635025	-0.365256	-98.953953	-0.365256	-98.953953	-12.774856	-149.456986
1.550000	-12.424647	124.830636	-0.392780	-102.429260	-0.392780	-102.429260	-12.400556	-151.630783
1.600000	-12.053230	120.027498	-0.422319	-105.924886	-0.422319	-105.924886	-12.029843	-153.846290
1.650000	-11.684223	115.227152	-0.454203	-109.443411	-0.454203	-109.443411	-11.661441	-156.110221
1.700000	-11.317716	110.430835	-0.488576	-112.985291	-0.488576	-112.985291	-11.295460	-158.424713
1.750000	-10.953436	105.639698	-0.525675	-116.551746	-0.525675	-116.551746	-10.931643	-160.793312
1.800000	-10.591188	100.854737	-0.565762	-120.144012	-0.565762	-120.144012	-10.569808	-163.219435
1.850000	-10.230849	96.076769	-0.609125	-123.763337	-0.609125	-123.763337	-10.209844	-165.706343
1.900000	-9.872294	91.306463	-0.656101	-127.411136	-0.656101	-127.411136	-9.851635	-168.257492
1.950000	-9.515530	86.544242	-0.707042	-131.088678	-0.707042	-131.088678	-9.495193	-170.875833
2.000000	-9.160694	81.790261	-0.762308	-134.797049	-0.762308	-134.797049	-9.140657	-173.563716
2.050000	-8.807898	77.044504	-0.822313	-138.537468	-0.822313	-138.537468	-8.788140	-176.323629
2.100000	-8.457304	72.306739	-0.887508	-142.311129	-0.887508	-142.311129	-8.437801	-179.157837
2.150000	-8.109114	67.576524	-0.958380	-146.119191	-0.958380	-146.119191	-8.089839	177.931624
2.200000	-7.763539	62.853237	-1.035479	-149.962866	-1.035479	-149.962866	-7.744460	174.942740
2.250000	-7.420806	58.136070	-1.119419	-153.843424	-1.119419	-153.843424	-7.401882	171.873506
2.300000	-7.081314	53.423969	-1.210781	-157.761564	-1.210781	-157.761564	-7.062498	168.723266
2.350000	-6.745402	48.715786	-1.310244	-161.718193	-1.310244	-161.718193	-6.726638	165.490989
2.400000	-6.413348	44.010262	-1.418631	-165.714557	-1.418631	-165.714557	-6.394572	162.175006
2.450000	-6.085766	39.305991	-1.536520	-169.750270	-1.536520	-169.750270	-6.066906	158.777094
2.500000	-5.762922	34.601574	-1.664898	-173.826544	-1.664898	-173.826544	-5.743898	155.295701
2.550000	-5.445123	29.895458	-1.804921	-177.944700	-1.804921	-177.944700	-5.425845	151.729118
2.600000	-5.132986	25.186149	-1.957417	177.895904	-1.957417	177.895904	-5.113357	148.079591
2.650000	-4.826981	20.472175	-2.123491	173.695226	-2.123491	173.695226	-4.806899	144.347874
2.700000	-4.527594	15.752115	-2.304349	169.453445	-2.304349	169.453445	-4.506947	140.535060
2.750000	-4.235320	11.024630	-2.501300	165.170988	-2.501300	165.170988	-4.213994	136.642594
2.800000	-3.950667	6.288499	-2.715777	160.848564	-2.715777	160.848564	-3.928539	132.672282
2.850000	-3.674146	1.542638	-2.949347	156.487185	-2.949347	156.487185	-3.651087	128.626307
2.900000	-3.406272	-3.213866	-3.203733	152.088206	-3.203733	152.088206	-3.382148	124.507233
2.950000	-3.147556	-7.981742	-3.480837	147.653357	-3.480837	147.653357	-3.122226	120.318012
3.000000	-2.898506	-12.761507	-3.782767	143.184777	-3.782767	143.184777	-2.871822	116.061987
3.050000	-2.659614	-17.553465	-4.111876	138.685055	-4.111876	138.685055	-2.631420	111.742886
3.100000	-2.431358	-22.357693	-4.470813	134.157273	-4.470813	134.157273	-2.401491	107.364817
3.150000	-2.214263	-27.174175	-4.862766	129.604847	-4.862766	129.604847	-2.182544	102.931709
3.200000	-2.008787	-32.002533	-5.291188	125.032193	-5.291188	125.032193	-1.975027	98.448550
3.250000	-1.815262	-36.842069	-5.759890	120.444592	-5.759890	120.444592	-1.779260	93.921075
3.300000	-1.634035	-41.692047	-6.273568	115.847911	-6.273568	115.847911	-1.595577	89.354700
3.350000	-1.465411	-46.551600	-6.837833	111.249075	-6.837833	111.249075	-1.424264	84.755074
3.400000	-1.309644	-51.419767	-7.459509	106.656372	-7.459509	106.656372	-1.265559	80.128026
3.450000	-1.166939	-56.295545	-8.147050	102.079946	-8.147050	102.079946	-1.119645	75.479520
3.500000	-1.037444	-61.177938	-8.911166	97.532591	-8.911166	97.532591	-0.986650	70.815595
3.550000	-0.921255	-66.066015	-9.765758	93.031084	-9.765758	93.031084	-0.866648	66.142311
3.600000	-0.818416	-70.958970	-10.729384	88.598507	-10.729384	88.598507	-0.759657	61.465693
3.650000	-0.728915	-75.856178	-11.827660	84.268494	-11.827660	84.268494	-0.665646	56.791679
3.700000	-0.652697	-80.757250	-13.097398	80.093481	-13.097398	80.093481	-0.584531	52.126069
3.750000	-0.589661	-85.662090	-14.594245	76.162000	-14.594245	76.162000	-0.516188	47.474487
3.800000	-0.539942	-90.571039	-16.407938	72.655613	-16.407938	72.655613	-0.460715	42.842879
3.850000	-0.503090	-95.484666	-18.696480	69.947117	-18.696480	69.947117	-0.417646	38.236088
3.900000	-0.478904	-100.404036	-21.776027	69.061633	-21.776027	69.061633	-0.386755	33.658998
3.950000	-0.467166	-105.330658	-26.391636	74.033603	-26.391636	74.033603	-0.367795	29.116223
4.000000	-0.467646	-110.266499	-33.312610	113.158883	-33.312610	113.158883	-0.360509	24.612107
4.050000	-0.480110	-115.213997	-30.073708	-175.589247	-30.073708	-175.589247	-0.364633	20.150741
4.100000	-0.504326	-120.176063	-24.128607	-159.656761	-24.128607	-159.656761	-0.379904	15.735976
4.150000	-0.540069	-125.156078	-20.439363	-158.254207	-20.439363	-158.254207	-0.406061	11.371456
4.200000	-0.587123	-130.157879	-17.854910	-160.084263	-17.854910	-160.084263	-0.442853	7.060651
4.250000	-0.645284	-135.185745	-15.883476	-163.106093	-15.883476	-163.106093	-0.490039	2.806893
4.300000	-0.714367	-140.244380	-14.298968	-166.691167	-14.298968	-166.691167	-0.547388	-1.386571
4.350000	-0.794195	-145.338878	-12.980668	-170.583288	-12.980668	-170.583288	-0.614682	-5.516536
4.400000	-0.884707	-150.475218	-11.857124	-174.660208	-11.857124	-174.660208	-0.691805	-9.579025
4.450000	-0.985736	-155.659401	-10.882348	-178.854171	-10.882348	-178.854171	-0.778539	-13.570651
4.500000	-1.097017	-160.897079	-10.024924	176.874405	-10.024924	176.874405	-0.874578	-17.488743
4.550000	-1.218384	-166.194595	-9.262784	172.548957	-9.262784	172.548957	-0.979706	-21.329751
4.600000	-1.349651	-171.558481	-8.579759	168.184730	-8.579759	168.184730	-1.093687	-25.089930
4.650000	-1.490597	-176.995398	-7.963675	163.792017	-7.963675	163.792017	-1.216256	-28.765306
4.700000	-1.640946	177.487937	-7.405167	159.378035	-7.405167	159.378035	-1.347103	-32.351671
4.750000	-1.800355	171.884837	-6.896901	154.948054	-6.896901	154.948054	-1.485859	-35.844573
4.800000	-1.968383	166.188741	-6.433047	150.506127	-6.433047	150.506127	-1.632077	-39.239345
4.850000	-2.144472	160.393345	-6.008914	146.055558	-6.008914	146.055558	-1.785213	-42.531145
4.900000	-2.327919	154.492748	-5.620683	141.599233	-5.620683	141.599233	-1.944610	-45.715040
4.950000	-2.517849	148.481631	-5.265216	137.139839	-5.265216	137.139839	-2.109478	-48.786112
5.000000	-2.713192	142.355475	-4.939906	132.680024	-4.939906	132.680024	-2.278876	-51.739608
5.050000	-2.912613	136.108629	-4.642873	128.222599	-4.642873	128.222599	-2.451672	-54.568843
5.100000	-3.114554	129.741167	-4.371951	123.770431	-4.371951	123.770431	-2.626560	-57.272182
5.150000	-3.317232	123.252792	-4.125540	119.326554	-4.125540	119.326554	-2.802085	-59.846732
5.200000	-3.518624	116.645291	-3.902234	114.894196	-3.902234	114.894196	-2.976629	-62.290760
5.250000	-3.716493	109.922910	-3.700784	110.476765	-3.700784	110.476765	-3.148435	-64.604002
5.300000	-3.908428	103.092710	-3.520050	106.077832	-3.520050	106.077832	-3.315638	-66.787948
5.350000	-4.091906	96.164871	-3.358974	101.701088	-3.358974	101.701088	-3.476315	-68.846094
5.400000	-4.264386	89.152880	-3.216556	97.350301	-3.216556	97.350301	-3.628550	-70.784125
5.450000	-4.423228	82.073131	-3.091977	93.029579	-3.091977	93.029579	-3.770361	-72.609011
5.500000	-4.566229	74.946471	-2.984206	88.742594	-2.984206	88.742594	-3.900105	-74.331731
5.550000	-4.691553	67.796179	-2.892228	84.492833	-2.892228	84.492833	-4.016402	-75.965120
5.600000	-4.797001	60.648419	-2.815557	80.285260	-2.815557	80.285260	-4.117561	-77.521185
5.650000	-4.883048	53.528053	-2.752338	76.120176	-2.752338	76.120176	-4.203915	-79.019389
5.700000	-4.949315	46.459887	-2.701687	72.000333	-2.701687	72.000333	-4.275093	-80.474432
5.750000	-4.994557	39.473982	-2.663502	67.931587	-2.663502	67.931587	-4.329999	-81.899400
5.800000	-5.020244	32.592967	-2.636409	63.914658	-2.636409	63.914658	-4.369606	-83.311224
5.850000	-5.027041	25.843605	-2.619779	59.953330	-2.619779	59.953330	-4.394218	-84.724668
5.900000	-5.017608	19.237097	-2.612115	56.046049	-2.612115	56.046049	-4.405729	-86.152296
5.950000	-4.993421	12.791424	-2.612729	52.195163	-2.612729	52.195163	-4.405087	-87.605098
6.000000	-4.956539	6.518089	-2.620719	48.401400	-2.620719	48.401400	-4.393736	-89.092156
6.050000	-4.909083	0.425073	-2.635205	44.665107	-2.635205	44.665107	-4.373202	-90.620619
6.100000	-4.853143	-5.482909	-2.655333	40.986269	-2.655333	40.986269	-4.345033	-92.195790
6.150000	-4.790711	-11.204046	-2.680278	37.364527	-2.680278	37.364527	-4.310747	-93.821291
6.200000	-4.723633	-16.739007	-2.709250	33.799204	-2.709250	33.799204	-4.271791	-95.499278
6.250000	-4.653578	-22.090503	-2.741491	30.289330	-2.741491	30.289330	-4.229514	-97.230683
6.300000	-4.582011	-27.259094	-2.776320	26.834818	-2.776320	26.834818	-4.185119	-99.016602
6.350000	-4.510281	-32.254393	-2.812987	23.432975	-2.812987	23.432975	-4.139779	-100.855046
6.400000	-4.439480	-37.082876	-2.850856	20.082110	-2.850856	20.082110	-4.094464	-102.744682
6.450000	-4.370526	-41.751590	-2.889323	16.780350	-2.889323	16.780350	-4.050020	-104.683853
6.500000	-4.304188	-46.267926	-2.927827	13.525663	-2.927827	13.525663	-4.007179	-106.670734
6.550000	-4.241095	-50.639428	-2.965843	10.315886	-2.965843	10.315886	-3.966569	-108.703462
6.600000	-4.181766	-54.873652	-3.002881	7.148735	-3.002881	7.148735	-3.928728	-110.780231
6.650000	-4.126617	-58.978055	-3.038488	4.021832	-3.038488	4.021832	-3.894114	-112.899376
6.700000	-4.075903	-62.961977	-3.072287	0.932085	-3.072287	0.932085	-3.863046	-115.058713
6.750000	-4.030321	-66.822337	-3.103660	-2.119975	-3.103660	-2.119975	-3.836226	-117.260561
6.800000	-3.989408	-70.581985	-3.132625	-5.141808	-3.132625	-5.141808	-3.813354	-119.498311
6.850000	-3.953913	-74.235052	-3.158528	-8.132399	-3.158528	-8.132399	-3.795182	-121.775785
6.900000	-3.923691	-77.793445	-3.181252	-11.096114	-3.181252	-11.096114	-3.781677	-124.090443
6.950000	-3.898876	-81.262939	-3.200524	-14.035676	-3.200524	-14.035676	-3.773052	-126.442269
7.000000	-3.879909	-84.643952	-3.215885	-16.952530	-3.215885	-16.952530	-3.769805	-128.833777
7.050000	-3.866257	-87.951082	-3.227564	-19.851800	-3.227564	-19.851800	-3.771526	-131.261150
7.100000	-3.859047	-91.175814	-3.234647	-22.733356	-3.234647	-22.733356	-3.779376	-133.732225
7.150000	-3.857272	-94.336727	-3.237778	-25.602952	-3.237778	-25.602952	-3.792481	-136.240560
7.200000	-3.862129	-97.426078	-3.236035	-28.461463	-3.236035	-28.461463	-3.812094	-138.795146
7.250000	-3.872944	-100.456439	-3.229900	-31.313079	-3.229900	-31.313079	-3.837646	-141.392159
7.300000	-3.890392	-103.426578	-3.218901	-34.160327	-3.218901	-34.160327	-3.869902	-144.037595
7.350000	-3.914558	-106.340765	-3.203044	-37.006318	-3.203044	-37.006318	-3.909046	-146.733371
7.400000	-3.945422	-109.203893	-3.182450	-39.854121	-3.182450	-39.854121	-3.955154	-149.480741
7.450000	-3.983934	-112.013443	-3.156596	-42.707254	-3.156596	-42.707254	-4.009307	-152.288809
7.500000	-4.029288	-114.779084	-3.126241	-45.567832	-3.126241	-45.567832	-4.070773	-155.152518
7.550000	-4.083432	-117.492424	-3.090316	-48.441354	-3.090316	-48.441354	-4.141713	-158.090342
7.600000	-4.145131	-120.164508	-3.049934	-51.328467	-3.049934	-51.328467	-4.220939	-161.093161
7.650000	-4.216067	-122.789025	-3.004375	-54.235082	-3.004375	-54.235082	-4.310379	-164.178361
7.700000	-4.295932	-125.370438	-2.954225	-57.162772	-2.954225	-57.162772	-4.409840	-167.344884
7.750000	-4.385609	-127.906499	-2.899421	-60.115976	-2.899421	-60.115976	-4.520438	-170.603606
7.800000	-4.485884	-130.395073	-2.840040	-63.098842	-2.840040	-63.098842	-4.643208	-173.964834
7.850000	-4.596668	-132.837757	-2.776659	-66.112621	-2.776659	-66.112621	-4.778238	-177.429839
7.900000	-4.720029	-135.224605	-2.708921	-69.165753	-2.708921	-69.165753	-4.928076	178.974940
7.950000	-4.854918	-137.560729	-2.637890	-72.255319	-2.637890	-72.255319	-5.091768	175.259463
8.000000	-5.004215	-139.828943	-2.563151	-75.393249	-2.563151	-75.393249	-5.272927	171.382738
8.050000	-5.166810	-142.033123	-2.485789	-78.575403	-2.485789	-78.575403	-5.470593	167.355534
8.100000	-5.344826	-144.155529	-2.405905	-81.811130	-2.405905	-81.811130	-5.687678	163.140186
8.150000	-5.538366	-146.189446	-2.324231	-85.100932	-2.324231	-85.100932	-5.924783	158.726923
8.200000	-5.748090	-148.120743	-2.241402	-88.448197	-2.241402	-88.448197	-6.183284	154.091863
8.250000	-5.975163	-149.925534	-2.158048	-91.859582	-2.158048	-91.859582	-6.465348	149.193142
8.300000	-6.218528	-151.598790	-2.075055	-95.330628	-2.075055	-95.330628	-6.770432	144.030134
8.350000	-6.479667	-153.088459	-1.993329	-98.875256	-1.993329	-98.875256	-7.101596	138.511048
8.400000	-6.756033	-154.400585	-1.913669	-102.482375	-1.913669	-102.482375	-7.456548	132.658048
8.450000	-7.046867	-155.465744	-1.837470	-106.165380	-1.837470	-106.165380	-7.835938	126.351769
8.500000	-7.348678	-156.280826	-1.765442	-109.915371	-1.765442	-109.915371	-8.236305	119.594149
8.550000	-7.656627	-156.786599	-1.699090	-113.737538	-1.699090	-113.737538	-8.652662	112.282679
8.600000	-7.964046	-156.952418	-1.639529	-117.629306	-1.639529	-117.629306	-9.076756	104.361844
8.650000	-8.262899	-156.766584	-1.587593	-121.584857	-1.587593	-121.584857	-9.497326	95.804795
8.700000	-8.539545	-156.177032	-1.545200	-125.606555	-1.545200	-125.606555	-9.893891	86.505694
8.750000	-8.780606	-155.198704	-1.513276	-129.687125	-1.513276	-129.687125	-10.243611	76.477340
8.800000	-8.969582	-153.856998	-1.493151	-133.821326	-1.493151	-133.821326	-10.516897	65.755488
8.850000	-9.092067	-152.224371	-1.485719	-138.001144	-1.485719	-138.001144	-10.686340	54.475677
8.900000	-9.134804	-150.402745	-1.492072	-142.218668	-1.492072	-142.218668	-10.727703	42.843555
8.950000	-9.093454	-148.524749	-1.512533	-146.463770	-1.512533	-146.463770	-10.634745	31.128857
9.000000	-8.967039	-146.727257	-1.547806	-150.726987	-1.547806	-150.726987	-10.411035	19.601370
9.050000	-8.762463	-145.140251	-1.598211	-154.997873	-1.598211	-154.997873	-10.075606	8.495925
9.100000	-8.490520	-143.877684	-1.664213	-159.265355	-1.664213	-159.265355	-9.653901	-2.007833
9.150000	-8.168491	-143.003293	-1.745382	-163.518358	-1.745382	-163.518358	-9.178013	-11.837744
9.200000	-7.813143	-142.543452	-1.841192	-167.746514	-1.841192	-167.746514	-8.675137	-20.986342
9.250000	-7.439299	-142.497269	-1.951032	-171.939994	-1.951032	-171.939994	-8.166206	-29.482600
9.300000	-7.059424	-142.842356	-2.074096	-176.089751	-2.074096	-176.089751	-7.666450	-37.377420
9.350000	-6.683289	-143.543241	-2.209417	179.812293	-2.209417	179.812293	-7.186116	-44.729726
9.400000	-6.318101	-144.562874	-2.356018	175.774237	-2.356018	175.774237	-6.731657	-51.590757
9.450000	-5.969033	-145.856157	-2.512621	171.802118	-2.512621	171.802118	-6.306737	-58.017013
9.500000	-5.639182	-147.376648	-2.677804	167.899424	-2.677804	167.899424	-5.912623	-64.064277
9.550000	-5.330209	-149.086846	-2.850262	164.069489	-2.850262	164.069489	-5.549286	-69.773822
9.600000	-5.042770	-150.953526	-3.028685	160.314534	-3.028685	160.314534	-5.215845	-75.181208
9.650000	-4.776808	-152.947884	-3.211777	156.635752	-3.211777	156.635752	-4.910902	-80.317029
9.700000	-4.531892	-155.046064	-3.398263	153.034063	-3.398263	153.034063	-4.632907	-85.205766
9.750000	-4.307384	-157.228110	-3.586843	149.510177	-3.586843	149.510177	-4.380295	-89.867289
9.800000	-4.101848	-159.474475	-3.776385	146.060813	-3.776385	146.060813	-4.150735	-94.327633
9.850000	-3.914101	-161.771188	-3.965799	142.684095	-3.965799	142.684095	-3.942378	-98.604190
9.900000	-3.742926	-164.106822	-4.154055	139.377678	-4.154055	139.377678	-3.753453	-102.712372
9.950000	-3.587116	-166.472112	-4.340184	136.138844	-4.340184	136.138844	-3.582292	-106.665933
10.000000	-3.445504	-168.859607	-4.523271	132.964585	-4.523271	132.964585	-3.427342	-110.477215
