! freq	dB(S11)	phase(S11)	dB(S12)	phase(S12)	
!     	dB(S21)	phase(S21)	dB(S22)	phase(S22)	
!S-par simulation data
#  GHz  S  DB  R 50
0.000000	-0.000000	0.000000	-335.588851	0.000000	-335.588851	0.000000	-0.000000	0.000000
0.050000	-0.000100	-0.816245	-113.897138	89.134857	-113.897138	89.134857	-0.000100	-0.816249
0.100000	-0.000395	-1.632257	-107.920884	88.279791	-107.920884	88.279791	-0.000397	-1.632262
0.150000	-0.000875	-2.447819	-104.472921	87.444972	-104.472921	87.444972	-0.000878	-2.447822
0.200000	-0.001520	-3.262749	-102.076916	86.640506	-102.076916	86.640506	-0.001526	-3.262746
0.250000	-0.002321	-4.076841	-100.276105	85.880324	-100.276105	85.880324	-0.002328	-4.076827
0.300000	-0.003239	-4.890054	-98.857656	85.172741	-98.857656	85.172741	-0.003249	-4.890025
0.350000	-0.004259	-5.702275	-97.716114	84.532958	-97.716114	84.532958	-0.004271	-5.702227
0.400000	-0.005358	-6.513457	-96.787285	83.976639	-96.787285	83.976639	-0.005371	-6.513386
0.450000	-0.006515	-7.323581	-96.030568	83.522190	-96.030568	83.522190	-0.006529	-7.323486
0.500000	-0.007713	-8.132649	-95.419120	83.191728	-95.419120	83.191728	-0.007727	-8.132529
0.550000	-0.008935	-8.940679	-94.934738	83.012382	-94.934738	83.012382	-0.008949	-8.940534
0.600000	-0.010169	-9.747701	-94.564968	83.018051	-94.564968	83.018051	-0.010183	-9.747532
0.650000	-0.011405	-10.553748	-94.301348	83.251801	-94.301348	83.251801	-0.011418	-10.553556
0.700000	-0.012637	-11.358855	-94.138197	83.769159	-94.138197	83.769159	-0.012648	-11.358641
0.750000	-0.013858	-12.163054	-94.071654	84.642613	-94.071654	84.642613	-0.013868	-12.162822
0.800000	-0.015065	-12.966377	-94.098646	85.967690	-94.098646	85.967690	-0.015074	-12.966127
0.850000	-0.016256	-13.768848	-94.215475	87.870806	-94.215475	87.870806	-0.016263	-13.768583
0.900000	-0.017430	-14.570488	-94.415527	90.518368	-94.415527	90.518368	-0.017435	-14.570209
0.950000	-0.018586	-15.371313	-94.685339	94.124396	-94.685339	94.124396	-0.018590	-15.371022
1.000000	-0.019725	-16.171332	-94.998076	98.948353	-94.998076	98.948353	-0.019728	-16.171030
1.050000	-0.020848	-16.970551	-95.303967	105.263824	-95.303967	105.263824	-0.020850	-16.970240
1.100000	-0.021956	-17.768973	-95.520441	113.265266	-95.520441	113.265266	-0.021957	-17.768653
1.150000	-0.023049	-18.566594	-95.532760	122.887877	-95.532760	122.887877	-0.023049	-18.566265
1.200000	-0.024130	-19.363409	-95.223876	133.601714	-95.223876	133.601714	-0.024130	-19.363072
1.250000	-0.025199	-20.159410	-94.534862	144.412246	-94.534862	144.412246	-0.025198	-20.159065
1.300000	-0.026258	-20.954551	-93.489556	154.185793	-93.489556	154.185793	-0.026257	-20.954197
1.350000	-0.027308	-21.748853	-92.221839	162.335973	-92.221839	162.335973	-0.027307	-21.748491
1.400000	-0.028351	-22.542304	-90.848377	168.774724	-90.848377	168.774724	-0.028349	-22.541932
1.450000	-0.029386	-23.334887	-89.452637	173.691825	-89.452637	173.691825	-0.029384	-23.334505
1.500000	-0.030416	-24.126587	-88.083369	177.362969	-88.083369	177.362969	-0.030415	-24.126195
1.550000	-0.031442	-24.917387	-86.764853	-179.948408	-86.764853	-179.948408	-0.031440	-24.916983
1.600000	-0.032464	-25.707269	-85.506861	-178.024244	-85.506861	-178.024244	-0.032462	-25.706854
1.650000	-0.033482	-26.496216	-84.311381	-176.694677	-84.311381	-176.694677	-0.033481	-26.495788
1.700000	-0.034498	-27.283870	-83.147468	-175.947463	-83.147468	-175.947463	-0.034498	-27.283428
1.750000	-0.035513	-28.071020	-82.082686	-175.407518	-82.082686	-175.407518	-0.035513	-28.070564
1.800000	-0.036527	-28.856956	-81.053471	-175.197942	-81.053471	-175.197942	-0.036527	-28.856486
1.850000	-0.037540	-29.642026	-80.081856	-175.224345	-80.081856	-175.224345	-0.037541	-29.641541
1.900000	-0.038554	-30.426017	-79.151235	-175.435983	-79.151235	-175.435983	-0.038554	-30.425515
1.950000	-0.039567	-31.208928	-78.259466	-175.832856	-78.259466	-175.832856	-0.039568	-31.208410
2.000000	-0.040582	-31.990909	-77.410932	-176.335329	-77.410932	-176.335329	-0.040583	-31.990374
2.050000	-0.041598	-32.771586	-76.587183	-176.985643	-76.587183	-176.985643	-0.041599	-32.771033
2.100000	-0.042615	-33.551493	-75.807519	-177.696005	-75.807519	-177.696005	-0.042617	-33.550922
2.150000	-0.043635	-34.329861	-75.042023	-178.526464	-75.042023	-178.526464	-0.043637	-34.329271
2.200000	-0.044657	-35.107634	-74.320773	-179.389979	-74.320773	-179.389979	-0.044658	-35.107025
2.250000	-0.045682	-35.883622	-73.605611	179.647338	-73.605611	179.647338	-0.045684	-35.882993
2.300000	-0.046709	-36.659202	-72.934473	178.668039	-72.934473	178.668039	-0.046711	-36.658554
2.350000	-0.047741	-37.432742	-72.263225	177.605661	-72.263225	177.605661	-0.047743	-37.432073
2.400000	-0.048774	-38.206073	-71.635545	176.536877	-71.635545	176.536877	-0.048776	-38.205383
2.450000	-0.049815	-38.977100	-71.002966	175.397622	-71.002966	175.397622	-0.049817	-38.976390
2.500000	-0.050856	-39.748127	-70.413345	174.258367	-70.413345	174.258367	-0.050858	-39.747396
2.550000	-0.051906	-40.516580	-69.815113	173.058702	-69.815113	173.058702	-0.051908	-40.515827
2.600000	-0.052957	-41.285032	-69.255442	171.859036	-69.255442	171.859036	-0.052958	-41.284259
2.650000	-0.054017	-42.051072	-68.691636	170.615160	-68.691636	170.615160	-0.054018	-42.050277
2.700000	-0.055079	-42.816892	-68.158963	169.367264	-68.158963	169.367264	-0.055080	-42.816075
2.750000	-0.056151	-43.580473	-67.625827	168.086852	-67.625827	168.086852	-0.056152	-43.579635
2.800000	-0.057225	-44.343607	-67.117645	166.799936	-67.117645	166.799936	-0.057225	-44.342746
2.850000	-0.058309	-45.104687	-66.612026	165.489078	-66.612026	165.489078	-0.058310	-45.103804
2.900000	-0.059398	-45.865082	-66.126187	164.170240	-66.126187	164.170240	-0.059397	-45.864177
2.950000	-0.060496	-46.623621	-65.645411	162.833832	-65.645411	162.833832	-0.060495	-46.622694
3.000000	-0.061599	-47.381231	-65.180061	161.488638	-65.180061	161.488638	-0.061599	-47.380282
3.050000	-0.062713	-48.137191	-64.721838	160.130655	-64.721838	160.130655	-0.062712	-48.136220
3.100000	-0.063833	-48.891973	-64.275363	158.763537	-64.275363	158.763537	-0.063832	-48.890978
3.150000	-0.064963	-49.645319	-63.837720	157.387246	-63.837720	157.387246	-0.064961	-49.644302
3.200000	-0.066102	-50.397231	-63.408704	156.001781	-63.408704	156.001781	-0.066100	-50.396192
3.250000	-0.067250	-51.147932	-62.989927	154.609891	-62.989927	154.609891	-0.067247	-51.146870
3.300000	-0.068409	-51.896938	-62.577120	153.209004	-62.577120	153.209004	-0.068406	-51.895853
3.350000	-0.069575	-52.644965	-62.175707	151.803783	-62.175707	151.803783	-0.069573	-52.643856
3.400000	-0.070757	-53.391032	-61.778002	150.389892	-61.778002	150.389892	-0.070753	-53.389900
3.450000	-0.071944	-54.136356	-61.392631	148.973255	-61.392631	148.973255	-0.071940	-54.135202
3.500000	-0.073148	-54.879454	-61.009039	147.548379	-61.009039	147.548379	-0.073145	-54.878277
3.550000	-0.074357	-55.622054	-60.638540	146.121956	-60.638540	146.121956	-0.074353	-55.620852
3.600000	-0.075587	-56.362157	-60.268175	144.687799	-60.268175	144.687799	-0.075583	-56.360932
3.650000	-0.076819	-57.102010	-59.911506	143.252988	-59.911506	143.252988	-0.076815	-57.100761
3.700000	-0.078076	-57.839097	-59.553567	141.810997	-59.553567	141.810997	-0.078072	-57.837824
3.750000	-0.079333	-58.576183	-59.209796	140.369005	-59.209796	140.369005	-0.079328	-58.574887
3.800000	-0.080619	-59.310235	-58.863560	138.920422	-58.863560	138.920422	-0.080614	-59.308914
3.850000	-0.081904	-60.044286	-58.530599	137.471838	-58.530599	137.471838	-0.081899	-60.042941
3.900000	-0.083218	-60.775541	-58.196662	136.018195	-58.196662	136.018195	-0.083213	-60.774171
3.950000	-0.084534	-61.506541	-57.873927	134.564091	-57.873927	134.564091	-0.084529	-61.505146
4.000000	-0.085877	-62.234989	-57.551516	133.106164	-57.551516	133.106164	-0.085872	-62.233570
4.050000	-0.087226	-62.962927	-57.238477	131.647473	-57.238477	131.647473	-0.087220	-62.961483
4.100000	-0.088600	-63.688562	-56.926890	130.185951	-56.926890	130.185951	-0.088594	-63.687092
4.150000	-0.089983	-64.413430	-56.623058	128.723487	-56.623058	128.723487	-0.089977	-64.411934
4.200000	-0.091389	-65.136247	-56.321660	127.258986	-56.321660	127.258986	-0.091383	-65.134726
4.250000	-0.092808	-65.858039	-56.026585	125.793466	-56.026585	125.793466	-0.092802	-65.856492
4.300000	-0.094248	-66.578037	-55.734796	124.326533	-55.734796	124.326533	-0.094243	-66.576464
4.350000	-0.095705	-67.296753	-55.448062	122.858592	-55.448062	122.858592	-0.095699	-67.295154
4.400000	-0.097181	-68.013932	-55.165351	121.389722	-55.165351	121.389722	-0.097175	-68.012307
4.450000	-0.098677	-68.729574	-54.886574	119.919923	-54.886574	119.919923	-0.098671	-68.727922
4.500000	-0.100190	-69.443937	-54.612454	118.449559	-54.612454	118.449559	-0.100184	-69.442259
4.550000	-0.101728	-70.156511	-54.341277	116.978405	-54.341277	116.978405	-0.101722	-70.154806
4.600000	-0.103280	-70.868065	-54.075301	115.506949	-54.075301	115.506949	-0.103274	-70.866333
4.650000	-0.104860	-71.577580	-53.811391	114.034891	-53.811391	114.034891	-0.104855	-71.575820
4.700000	-0.106452	-72.286333	-53.553147	112.562708	-53.553147	112.562708	-0.106447	-72.284546
4.750000	-0.108078	-72.992801	-53.296194	111.090151	-53.296194	111.090151	-0.108072	-72.990987
4.800000	-0.109712	-73.698764	-53.045301	109.617573	-53.045301	109.617573	-0.109706	-73.696922
4.850000	-0.111384	-74.402201	-52.795017	108.144883	-52.795017	108.144883	-0.111379	-74.400332
4.900000	-0.113061	-75.105388	-52.551121	106.672211	-52.551121	106.672211	-0.113056	-75.103491
4.950000	-0.114783	-75.805813	-52.307235	105.199721	-52.307235	105.199721	-0.114777	-75.803888
5.000000	-0.116505	-76.506239	-52.070010	103.727231	-52.070010	103.727231	-0.116499	-76.504286
5.050000	-0.118277	-77.203675	-51.832267	102.255242	-51.832267	102.255242	-0.118271	-77.201694
5.100000	-0.120049	-77.901111	-51.600859	100.783253	-51.600859	100.783253	-0.120043	-77.899101
5.150000	-0.121869	-78.595830	-51.369572	99.311974	-51.369572	99.311974	-0.121863	-78.593792
5.200000	-0.123694	-79.290302	-51.143763	97.840760	-51.143763	97.840760	-0.123688	-79.288236
5.250000	-0.125563	-79.982327	-50.918641	96.370401	-50.918641	96.370401	-0.125558	-79.980233
5.300000	-0.127442	-80.673864	-50.698226	94.900214	-50.698226	94.900214	-0.127437	-80.671741
5.350000	-0.129363	-81.363222	-50.479001	93.430968	-50.479001	93.430968	-0.129357	-81.361071
5.400000	-0.131298	-82.051854	-50.263786	91.962036	-50.263786	91.962036	-0.131292	-82.049674
5.450000	-0.133271	-82.738574	-50.050204	90.494081	-50.050204	90.494081	-0.133266	-82.736365
5.500000	-0.135264	-83.424337	-49.840007	89.026616	-49.840007	89.026616	-0.135258	-83.422100
5.550000	-0.137292	-84.108448	-49.631834	87.560120	-49.631834	87.560120	-0.137286	-84.106182
5.600000	-0.139344	-84.791379	-49.426481	86.094315	-49.426481	86.094315	-0.139338	-84.789085
5.650000	-0.141427	-85.472914	-49.223496	84.629431	-49.223496	84.629431	-0.141421	-85.470592
5.700000	-0.143541	-86.153054	-49.022825	83.165466	-49.022825	83.165466	-0.143535	-86.150703
5.750000	-0.145681	-86.832049	-48.824820	81.702337	-48.824820	81.702337	-0.145675	-86.829670
5.800000	-0.147858	-87.509440	-48.628676	80.240378	-48.628676	80.240378	-0.147852	-87.507033
5.850000	-0.150057	-88.185932	-48.435457	78.779138	-48.435457	78.779138	-0.150051	-88.183496
5.900000	-0.152299	-88.860622	-48.243693	77.319337	-48.243693	77.319337	-0.152293	-88.858157
5.950000	-0.154558	-89.534648	-48.055078	75.860112	-48.055078	75.860112	-0.154551	-89.532156
6.000000	-0.156867	-90.206685	-47.867555	74.402611	-47.867555	74.402611	-0.156860	-90.204165
6.050000	-0.159188	-90.878289	-47.683371	72.945516	-47.683371	72.945516	-0.159180	-90.875741
6.100000	-0.161565	-91.547725	-47.499957	71.490448	-47.499957	71.490448	-0.161557	-91.545149
6.150000	-0.163948	-92.216949	-47.320043	70.035593	-47.320043	70.035593	-0.163941	-92.214344
6.200000	-0.166396	-92.883838	-47.140613	68.583081	-47.140613	68.583081	-0.166388	-92.881206
6.250000	-0.168844	-93.550727	-46.964815	67.130569	-46.964815	67.130569	-0.168836	-93.548067
6.300000	-0.171363	-94.215126	-46.789250	65.680727	-46.789250	65.680727	-0.171355	-94.212439
6.350000	-0.173884	-94.879525	-46.617164	64.230885	-46.617164	64.230885	-0.173875	-94.876811
6.400000	-0.176471	-95.541697	-46.445612	62.783590	-46.445612	62.783590	-0.176462	-95.538955
6.450000	-0.179064	-96.203666	-46.277132	61.336526	-46.277132	61.336526	-0.179056	-96.200897
6.500000	-0.181721	-96.863662	-46.109454	59.891860	-46.109454	59.891860	-0.181712	-96.860865
6.550000	-0.184390	-97.523263	-45.944480	58.447675	-45.944480	58.447675	-0.184381	-97.520439
6.600000	-0.187116	-98.181137	-45.780546	57.005719	-45.780546	57.005719	-0.187107	-98.178286
6.650000	-0.189863	-98.838435	-45.618982	55.564507	-45.618982	55.564507	-0.189853	-98.835557
6.700000	-0.192661	-99.494243	-45.458668	54.125336	-45.458668	54.125336	-0.192651	-99.491338
6.750000	-0.195486	-100.149305	-45.300424	52.687185	-45.300424	52.687185	-0.195476	-100.146373
6.800000	-0.198358	-100.803104	-45.143613	51.250870	-45.143613	51.250870	-0.198348	-100.800145
6.850000	-0.201264	-101.456000	-44.988602	49.815865	-44.988602	49.815865	-0.201253	-101.453014
6.900000	-0.204211	-102.107849	-44.835183	48.382473	-44.835183	48.382473	-0.204200	-102.104837
6.950000	-0.207198	-102.758651	-44.683322	46.950694	-44.683322	46.950694	-0.207187	-102.755613
7.000000	-0.210221	-103.408613	-44.533191	45.520290	-44.533191	45.520290	-0.210210	-103.405547
7.050000	-0.213293	-104.057396	-44.384401	44.091811	-44.384401	44.091811	-0.213281	-104.054303
7.100000	-0.216393	-104.705532	-44.237458	42.664456	-44.237458	42.664456	-0.216381	-104.702413
7.150000	-0.219550	-105.352373	-44.091664	41.239349	-44.091664	41.239349	-0.219538	-105.349227
7.200000	-0.222729	-105.998749	-43.947816	39.815101	-43.947816	39.815101	-0.222717	-105.995576
7.250000	-0.225973	-106.643728	-43.804947	38.393434	-43.804947	38.393434	-0.225960	-106.640528
7.300000	-0.229232	-107.288411	-43.664103	36.972350	-43.664103	36.972350	-0.229220	-107.285183
7.350000	-0.232564	-107.931610	-43.524091	35.554187	-43.524091	35.554187	-0.232552	-107.928355
7.400000	-0.235905	-108.574668	-43.386167	34.136322	-43.386167	34.136322	-0.235892	-108.571385
7.450000	-0.239328	-109.216171	-43.248947	32.721726	-43.248947	32.721726	-0.239315	-109.212860
7.500000	-0.242751	-109.857675	-43.113861	31.307129	-43.113861	31.307129	-0.242738	-109.854336
7.550000	-0.246266	-110.497569	-42.979372	29.896160	-42.979372	29.896160	-0.246252	-110.494202
7.600000	-0.249781	-111.137464	-42.846933	28.485190	-42.846933	28.485190	-0.249768	-111.134068
7.650000	-0.253381	-111.775966	-42.715230	27.077597	-42.715230	27.077597	-0.253367	-111.772541
7.700000	-0.256990	-112.414342	-42.585382	25.670311	-42.585382	25.670311	-0.256976	-112.410887
7.750000	-0.260676	-113.051528	-42.456393	24.266141	-42.456393	24.266141	-0.260662	-113.048043
7.800000	-0.264380	-113.688476	-42.329084	22.862594	-42.329084	22.862594	-0.264366	-113.684960
7.850000	-0.268155	-114.324424	-42.202738	21.461892	-42.202738	21.461892	-0.268141	-114.320877
7.900000	-0.271954	-114.960039	-42.077917	20.062139	-42.077917	20.062139	-0.271940	-114.956461
7.950000	-0.275819	-115.594830	-41.954149	18.664948	-41.954149	18.664948	-0.275804	-115.591219
8.000000	-0.279716	-116.229210	-41.831767	17.269039	-41.831767	17.269039	-0.279702	-116.225565
8.050000	-0.283671	-116.862926	-41.710513	15.875403	-41.710513	15.875403	-0.283656	-116.859247
8.100000	-0.287668	-117.496168	-41.590526	14.483390	-41.590526	14.483390	-0.287653	-117.492455
8.150000	-0.291714	-118.128893	-41.471727	13.093350	-41.471727	13.093350	-0.291699	-118.125144
8.200000	-0.295811	-118.761101	-41.354090	11.705283	-41.354090	11.705283	-0.295796	-118.757315
8.250000	-0.299951	-119.392922	-41.237688	10.318879	-41.237688	10.318879	-0.299936	-119.389098
8.300000	-0.304150	-120.024200	-41.122361	8.934806	-41.122361	8.934806	-0.304135	-120.020337
8.350000	-0.308384	-120.655204	-41.008302	7.552080	-41.008302	7.552080	-0.308368	-120.651301
8.400000	-0.312686	-121.285660	-40.895244	6.172049	-40.895244	6.172049	-0.312670	-121.281715
8.450000	-0.317015	-121.915937	-40.783477	4.793041	-40.783477	4.793041	-0.316999	-121.911950
8.500000	-0.321422	-122.545680	-40.672652	3.417099	-40.672652	3.417099	-0.321406	-122.541648
8.550000	-0.325848	-123.175324	-40.563127	2.041847	-40.563127	2.041847	-0.325831	-123.171246
8.600000	-0.330360	-123.804468	-40.454498	0.670041	-40.454498	0.670041	-0.330343	-123.800342
8.650000	-0.334883	-124.433571	-40.347169	-0.701416	-40.347169	-0.701416	-0.334866	-124.429397
8.700000	-0.339502	-125.062232	-40.240703	-2.069039	-40.240703	-2.069039	-0.339485	-125.058006
8.750000	-0.344124	-125.690892	-40.135525	-3.436661	-40.135525	-3.436661	-0.344106	-125.686614
8.800000	-0.348852	-126.319188	-40.031189	-4.800055	-40.031189	-4.800055	-0.348833	-126.314853
8.850000	-0.353582	-126.947483	-39.928091	-6.163449	-39.928091	-6.163449	-0.353562	-126.943092
8.900000	-0.358410	-127.575556	-39.825884	-7.522923	-39.825884	-7.522923	-0.358390	-127.571104
8.950000	-0.363249	-128.203608	-39.724837	-8.882041	-39.724837	-8.882041	-0.363228	-128.199096
9.000000	-0.368179	-128.831562	-39.624719	-10.237558	-39.624719	-10.237558	-0.368157	-128.826984
9.050000	-0.373129	-129.459497	-39.525695	-11.592354	-39.525695	-11.592354	-0.373106	-129.454852
9.100000	-0.378161	-130.087438	-39.427626	-12.943874	-39.427626	-12.943874	-0.378137	-130.082723
9.150000	-0.383222	-130.715383	-39.330600	-14.294301	-39.330600	-14.294301	-0.383197	-130.710595
9.200000	-0.388357	-131.343421	-39.234545	-15.641785	-39.234545	-15.641785	-0.388331	-131.338557
9.250000	-0.393531	-131.971507	-39.139491	-16.987797	-39.139491	-16.987797	-0.393504	-131.966564
9.300000	-0.398771	-132.599753	-39.045414	-18.331205	-39.045414	-18.331205	-0.398742	-132.594728
9.350000	-0.404058	-133.228115	-38.952309	-19.672753	-38.952309	-19.672753	-0.404027	-133.223004
9.400000	-0.409403	-133.856684	-38.860178	-21.012045	-38.860178	-21.012045	-0.409370	-133.851483
9.450000	-0.414804	-134.485461	-38.769000	-22.349081	-38.769000	-22.349081	-0.414770	-134.480166
9.500000	-0.420254	-135.114469	-38.678782	-23.684217	-38.678782	-23.684217	-0.420218	-135.109077
9.550000	-0.425771	-135.743802	-38.589509	-25.016692	-38.589509	-25.016692	-0.425732	-135.738308
9.600000	-0.431328	-136.373370	-38.501175	-26.347630	-38.501175	-26.347630	-0.431286	-136.367770
9.650000	-0.436960	-137.003406	-38.413788	-27.675494	-38.413788	-27.675494	-0.436915	-136.997695
9.700000	-0.442624	-137.633654	-38.327308	-29.002193	-38.327308	-29.002193	-0.442576	-137.627830
9.750000	-0.448373	-138.264543	-38.241788	-30.325394	-38.241788	-30.325394	-0.448321	-138.258597
9.800000	-0.454144	-138.895599	-38.157135	-31.647810	-38.157135	-31.647810	-0.454089	-138.889529
9.850000	-0.460010	-139.527494	-38.073464	-32.966297	-38.073464	-32.966297	-0.459951	-139.521292
9.900000	-0.465889	-140.159485	-37.990612	-34.284387	-37.990612	-34.284387	-0.465826	-140.153150
9.950000	-0.471872	-140.792545	-37.908773	-35.598106	-37.908773	-35.598106	-0.471805	-140.786065
10.000000	-0.477860	-141.425604	-37.827697	-36.911825	-37.827697	-36.911825	-0.477788	-141.418980
