! freq	dB(S11)	phase(S11)	dB(S12)	phase(S12)	
!     	dB(S21)	phase(S21)	dB(S22)	phase(S22)	
!S-par simulation data
#  GHz  S  DB  R 50
0.000000	-0.000000	0.000000	-248.920840	0.000000	-248.920840	0.000000	-0.000000	0.000000
0.050000	-0.000116	-1.062264	-107.606256	68.192724	-107.606256	68.192724	-0.000105	-0.762479
0.100000	-0.000459	-2.124269	-103.937786	62.249737	-103.937786	62.249737	-0.000414	-1.524688
0.150000	-0.001021	-3.185767	-101.994645	62.833356	-101.994645	62.833356	-0.000911	-2.286384
0.200000	-0.001782	-4.246545	-100.504566	64.810622	-100.504566	64.810622	-0.001575	-3.047372
0.250000	-0.002736	-5.306348	-99.264347	66.742326	-99.264347	66.742326	-0.002386	-3.807445
0.300000	-0.003843	-6.365099	-98.217744	68.350240	-98.217744	68.350240	-0.003303	-4.566586
0.350000	-0.005088	-7.422633	-97.339166	69.639193	-97.339166	69.639193	-0.004307	-5.324708
0.400000	-0.006446	-8.478854	-96.610373	70.688128	-96.610373	70.688128	-0.005372	-6.081796
0.450000	-0.007895	-9.533693	-96.017747	71.587606	-96.017747	71.587606	-0.006479	-6.837865
0.500000	-0.009414	-10.587108	-95.551310	72.424639	-95.551310	72.424639	-0.007608	-7.592949
0.550000	-0.010982	-11.639079	-95.204230	73.283185	-95.204230	73.283185	-0.008748	-8.347093
0.600000	-0.012583	-12.689603	-94.972407	74.249475	-94.972407	74.249475	-0.009888	-9.100344
0.650000	-0.014201	-13.738686	-94.854058	75.419488	-94.854058	75.419488	-0.011021	-9.852749
0.700000	-0.015826	-14.786344	-94.849190	76.908597	-94.849190	76.908597	-0.012144	-10.604350
0.750000	-0.017448	-15.832597	-94.958721	78.864397	-94.958721	78.864397	-0.013252	-11.355183
0.800000	-0.019059	-16.877463	-95.182736	81.484123	-95.182736	81.484123	-0.014346	-12.105276
0.850000	-0.020654	-17.920963	-95.516837	85.037093	-95.516837	85.037093	-0.015425	-12.854652
0.900000	-0.022229	-18.963113	-95.944537	89.887504	-95.944537	89.887504	-0.016489	-13.603327
0.950000	-0.023782	-20.003926	-96.422526	96.495675	-96.422526	96.495675	-0.017539	-14.351309
1.000000	-0.025311	-21.043411	-96.857032	105.335201	-96.857032	105.335201	-0.018577	-15.098603
1.050000	-0.026816	-22.081574	-97.082796	116.619262	-97.082796	116.619262	-0.019602	-15.845210
1.100000	-0.028297	-23.118415	-96.889421	129.821003	-96.889421	129.821003	-0.020618	-16.591126
1.150000	-0.029755	-24.153930	-96.141175	143.411215	-96.141175	143.411215	-0.021624	-17.336344
1.200000	-0.031191	-25.188112	-94.897531	155.545441	-94.897531	155.545441	-0.022622	-18.080857
1.250000	-0.032606	-26.220949	-93.359055	165.203012	-93.359055	165.203012	-0.023613	-18.824652
1.300000	-0.034002	-27.252369	-91.704980	172.290287	-91.704980	172.290287	-0.024598	-19.567686
1.350000	-0.035380	-28.282413	-90.070854	177.397496	-90.070854	177.397496	-0.025577	-20.309977
1.400000	-0.036743	-29.311061	-88.507716	-178.985256	-88.507716	-178.985256	-0.026552	-21.051510
1.450000	-0.038092	-30.338293	-87.032913	-176.467677	-87.032913	-176.467677	-0.027523	-21.792271
1.500000	-0.039428	-31.364087	-85.648011	-174.763484	-85.648011	-174.763484	-0.028491	-22.532244
1.550000	-0.040755	-32.388418	-84.348018	-173.668148	-84.348018	-173.668148	-0.029456	-23.271414
1.600000	-0.042072	-33.411263	-83.125702	-173.035845	-83.125702	-173.035845	-0.030419	-24.009765
1.650000	-0.043381	-34.432597	-81.973503	-172.761643	-81.973503	-172.761643	-0.031380	-24.747281
1.700000	-0.044684	-35.452394	-80.884312	-172.768970	-80.884312	-172.768970	-0.032340	-25.483947
1.750000	-0.045982	-36.470630	-79.851735	-173.001055	-79.851735	-173.001055	-0.033299	-26.219747
1.800000	-0.047277	-37.487278	-78.870142	-173.415131	-78.870142	-173.415131	-0.034257	-26.954665
1.850000	-0.048569	-38.502314	-77.934620	-173.978477	-77.934620	-173.978477	-0.035214	-27.688686
1.900000	-0.049859	-39.515712	-77.040889	-174.665691	-77.040889	-174.665691	-0.036172	-28.421794
1.950000	-0.051148	-40.527449	-76.185225	-175.456783	-76.185225	-175.456783	-0.037129	-29.153974
2.000000	-0.052437	-41.537500	-75.364371	-176.335820	-75.364371	-176.335820	-0.038088	-29.885210
2.050000	-0.053728	-42.545841	-74.575478	-177.289959	-74.575478	-177.289959	-0.039046	-30.615489
2.100000	-0.055021	-43.552452	-73.816038	-178.308732	-73.816038	-178.308732	-0.040006	-31.344795
2.150000	-0.056315	-44.557309	-73.083835	-179.383524	-73.083835	-179.383524	-0.040968	-32.073114
2.200000	-0.057614	-45.560392	-72.376905	179.492819	-72.376905	179.492819	-0.041931	-32.800430
2.250000	-0.058916	-46.561680	-71.693496	178.326292	-71.693496	178.326292	-0.042896	-33.526731
2.300000	-0.060222	-47.561155	-71.032043	177.121953	-71.032043	177.121953	-0.043863	-34.252003
2.350000	-0.061534	-48.558798	-70.391139	175.884104	-70.391139	175.884104	-0.044833	-34.976231
2.400000	-0.062851	-49.554592	-69.769518	174.616431	-69.769518	174.616431	-0.045806	-35.699402
2.450000	-0.064174	-50.548521	-69.166033	173.322106	-69.166033	173.322106	-0.046782	-36.421502
2.500000	-0.065504	-51.540569	-68.579642	172.003880	-68.579642	172.003880	-0.047761	-37.142520
2.550000	-0.066841	-52.530639	-68.008478	170.663314	-68.008478	170.663314	-0.048745	-37.862393
2.600000	-0.068186	-53.518800	-67.452692	169.303511	-67.452692	169.303511	-0.049732	-38.581157
2.650000	-0.069539	-54.505040	-66.911479	167.926289	-66.911479	167.926289	-0.050724	-39.298798
2.700000	-0.070901	-55.489348	-66.384103	166.533261	-66.384103	166.533261	-0.051721	-40.015306
2.750000	-0.072271	-56.471714	-65.869884	165.125859	-65.869884	165.125859	-0.052723	-40.730668
2.800000	-0.073651	-57.452129	-65.368196	163.705363	-65.368196	163.705363	-0.053731	-41.444872
2.850000	-0.075040	-58.430586	-64.878459	162.272922	-64.878459	162.272922	-0.054744	-42.157908
2.900000	-0.076440	-59.407077	-64.400135	160.829567	-64.400135	160.829567	-0.055764	-42.869765
2.950000	-0.077851	-60.381598	-63.932725	159.376230	-63.932725	159.376230	-0.056790	-43.580431
3.000000	-0.079273	-61.354143	-63.475764	157.913754	-63.475764	157.913754	-0.057823	-44.289896
3.050000	-0.080706	-62.324708	-63.028817	156.442905	-63.028817	156.442905	-0.058863	-44.998150
3.100000	-0.082152	-63.293293	-62.591480	154.964380	-62.591480	154.964380	-0.059911	-45.705184
3.150000	-0.083610	-64.259893	-62.163372	153.478816	-62.163372	153.478816	-0.060967	-46.410986
3.200000	-0.085081	-65.224511	-61.744137	151.986797	-61.744137	151.986797	-0.062032	-47.115549
3.250000	-0.086565	-66.187145	-61.333439	150.488858	-61.333439	150.488858	-0.063105	-47.818864
3.300000	-0.088064	-67.147797	-60.930965	148.985489	-60.930965	148.985489	-0.064187	-48.520920
3.350000	-0.089577	-68.106470	-60.536416	147.477146	-60.536416	147.477146	-0.065278	-49.221710
3.400000	-0.091105	-69.063168	-60.149512	145.964247	-60.149512	145.964247	-0.066380	-49.921226
3.450000	-0.092648	-70.017894	-59.769990	144.447179	-59.769990	144.447179	-0.067491	-50.619460
3.500000	-0.094207	-70.970655	-59.397597	142.926301	-59.397597	142.926301	-0.068613	-51.316404
3.550000	-0.095783	-71.921457	-59.032097	141.401948	-59.032097	141.401948	-0.069746	-52.012050
3.600000	-0.097376	-72.870306	-58.673264	139.874428	-58.673264	139.874428	-0.070890	-52.706393
3.650000	-0.098986	-73.817212	-58.320883	138.344031	-58.320883	138.344031	-0.072046	-53.399425
3.700000	-0.100614	-74.762183	-57.974753	136.811025	-57.974753	136.811025	-0.073213	-54.091140
3.750000	-0.102261	-75.705231	-57.634678	135.275663	-57.634678	135.275663	-0.074393	-54.781531
3.800000	-0.103928	-76.646282	-57.300173	133.738095	-57.300173	133.738095	-0.075587	-55.470536
3.850000	-0.105614	-77.585434	-56.971386	132.198643	-56.971386	132.198643	-0.076793	-56.158206
3.900000	-0.107321	-78.522698	-56.648146	130.657510	-56.648146	130.657510	-0.078013	-56.844536
3.950000	-0.109049	-79.458089	-56.330294	129.114887	-56.330294	129.114887	-0.079247	-57.529522
4.000000	-0.110798	-80.391622	-56.017673	127.570953	-56.017673	127.570953	-0.080495	-58.213158
4.050000	-0.112569	-81.323312	-55.710136	126.025875	-55.710136	126.025875	-0.081757	-58.895441
4.100000	-0.114363	-82.253176	-55.407540	124.479812	-55.407540	124.479812	-0.083035	-59.576367
4.150000	-0.116180	-83.181230	-55.109751	122.932912	-55.109751	122.932912	-0.084328	-60.255932
4.200000	-0.118020	-84.107494	-54.816638	121.385313	-54.816638	121.385313	-0.085636	-60.934134
4.250000	-0.119885	-85.031986	-54.528076	119.837148	-54.528076	119.837148	-0.086961	-61.610968
4.300000	-0.121775	-85.954725	-54.243945	118.288538	-54.243945	118.288538	-0.088302	-62.286434
4.350000	-0.123690	-86.875734	-53.964130	116.739599	-53.964130	116.739599	-0.089660	-62.960527
4.400000	-0.125632	-87.795032	-53.688520	115.190441	-53.688520	115.190441	-0.091035	-63.633247
4.450000	-0.127599	-88.712642	-53.417009	113.641166	-53.417009	113.641166	-0.092428	-64.304591
4.500000	-0.129594	-89.628588	-53.149494	112.091871	-53.149494	112.091871	-0.093839	-64.974559
4.550000	-0.131617	-90.542892	-52.885876	110.542645	-52.885876	110.542645	-0.095268	-65.643149
4.600000	-0.133669	-91.455580	-52.626061	108.993574	-52.626061	108.993574	-0.096716	-66.310360
4.650000	-0.135749	-92.366677	-52.369957	107.444739	-52.369957	107.444739	-0.098182	-66.976192
4.700000	-0.137858	-93.276210	-52.117475	105.896215	-52.117475	105.896215	-0.099669	-67.640644
4.750000	-0.139998	-94.184204	-51.868531	104.348073	-51.868531	104.348073	-0.101175	-68.303717
4.800000	-0.142168	-95.090688	-51.623042	102.800380	-51.623042	102.800380	-0.102701	-68.965411
4.850000	-0.144370	-95.995689	-51.380930	101.253198	-51.380930	101.253198	-0.104248	-69.625726
4.900000	-0.146603	-96.899238	-51.142117	99.706587	-51.142117	99.706587	-0.105816	-70.284665
4.950000	-0.148869	-97.801365	-50.906530	98.160603	-50.906530	98.160603	-0.107405	-70.942227
5.000000	-0.151168	-98.702098	-50.674098	96.615298	-50.674098	96.615298	-0.109016	-71.598414
5.050000	-0.153501	-99.601413	-50.444622	95.070755	-50.444622	95.070755	-0.110650	-72.253169
5.100000	-0.155869	-100.499403	-50.218173	93.526990	-50.218173	93.526990	-0.112307	-72.906553
5.150000	-0.158271	-101.396099	-49.994687	91.984046	-49.994687	91.984046	-0.113987	-73.558568
5.200000	-0.160708	-102.291536	-49.774099	90.441965	-49.774099	90.441965	-0.115690	-74.209218
5.250000	-0.163181	-103.185748	-49.556350	88.900785	-49.556350	88.900785	-0.117416	-74.858506
5.300000	-0.165690	-104.078770	-49.341382	87.360542	-49.341382	87.360542	-0.119167	-75.506433
5.350000	-0.168235	-104.970638	-49.129137	85.821270	-49.129137	85.821270	-0.120942	-76.153004
5.400000	-0.170818	-105.861388	-48.919560	84.283001	-48.919560	84.283001	-0.122742	-76.798223
5.450000	-0.173439	-106.751058	-48.712599	82.745767	-48.712599	82.745767	-0.124567	-77.442093
5.500000	-0.176097	-107.639685	-48.508202	81.209595	-48.508202	81.209595	-0.126418	-78.084619
5.550000	-0.178795	-108.527308	-48.306320	79.674514	-48.306320	79.674514	-0.128295	-78.725804
5.600000	-0.181531	-109.413966	-48.106904	78.140549	-48.106904	78.140549	-0.130198	-79.365654
5.650000	-0.184307	-110.299699	-47.909907	76.607725	-47.909907	76.607725	-0.132128	-80.004173
5.700000	-0.187124	-111.184549	-47.715285	75.076066	-47.715285	75.076066	-0.134086	-80.641367
5.750000	-0.189981	-112.068556	-47.522994	73.545595	-47.522994	73.545595	-0.136071	-81.277241
5.800000	-0.192879	-112.951762	-47.332991	72.016333	-47.332991	72.016333	-0.138083	-81.911801
5.850000	-0.195818	-113.834211	-47.145236	70.488301	-47.145236	70.488301	-0.140125	-82.545052
5.900000	-0.198800	-114.715945	-46.959689	68.961519	-46.959689	68.961519	-0.142195	-83.177001
5.950000	-0.201823	-115.597009	-46.776310	67.436008	-46.776310	67.436008	-0.144294	-83.807653
6.000000	-0.204890	-116.477448	-46.595064	65.911786	-46.595064	65.911786	-0.146423	-84.437016
6.050000	-0.208000	-117.357307	-46.415913	64.388872	-46.415913	64.388872	-0.148581	-85.065095
6.100000	-0.211154	-118.236633	-46.238823	62.867283	-46.238823	62.867283	-0.150770	-85.691899
6.150000	-0.214352	-119.115472	-46.063759	61.347039	-46.063759	61.347039	-0.152990	-86.317434
6.200000	-0.217594	-119.993873	-45.890690	59.828156	-45.890690	59.828156	-0.155241	-86.941707
6.250000	-0.220881	-120.871883	-45.719581	58.310653	-45.719581	58.310653	-0.157523	-87.564727
6.300000	-0.224239	-121.749390	-45.549637	56.795348	-45.549637	56.795348	-0.159855	-88.185800
6.350000	-0.227598	-122.626897	-45.382955	55.280043	-45.382955	55.280043	-0.162188	-88.806874
6.400000	-0.231045	-123.503956	-45.216949	53.767482	-45.216949	53.767482	-0.164582	-89.425597
6.450000	-0.234500	-124.380975	-45.053836	52.255170	-45.053836	52.255170	-0.166983	-90.044107
6.500000	-0.238037	-125.257775	-44.891637	50.745419	-44.891637	50.745419	-0.169442	-90.660510
6.550000	-0.241590	-126.134532	-44.732001	49.236179	-44.732001	49.236179	-0.171913	-91.276492
6.600000	-0.245218	-127.011266	-44.573486	47.729303	-44.573486	47.729303	-0.174437	-91.890607
6.650000	-0.248871	-127.887993	-44.417236	46.223216	-44.417236	46.223216	-0.176980	-92.504101
6.700000	-0.252591	-128.764859	-44.262289	44.719284	-44.262289	44.719284	-0.179571	-93.115962
6.750000	-0.256345	-129.641794	-44.109341	43.216430	-44.109341	43.216430	-0.182187	-93.727008
6.800000	-0.260160	-130.518995	-43.957852	41.715513	-43.957852	41.715513	-0.184846	-94.336650
6.850000	-0.264017	-131.396385	-43.808126	40.215979	-43.808126	40.215979	-0.187537	-94.945290
6.900000	-0.267926	-132.274128	-43.659992	38.718150	-43.659992	38.718150	-0.190266	-95.552748
6.950000	-0.271888	-133.152225	-43.513412	37.222026	-43.513412	37.222026	-0.193033	-96.159026
7.000000	-0.275894	-134.030725	-43.368535	35.727361	-43.368535	35.727361	-0.195833	-96.764338
7.050000	-0.279961	-134.909788	-43.225029	34.234740	-43.225029	34.234740	-0.198679	-97.368299
7.100000	-0.284065	-135.789262	-43.083316	32.743320	-43.083316	32.743320	-0.201552	-97.971503
7.150000	-0.288239	-136.669557	-42.942815	31.254300	-42.942815	31.254300	-0.204477	-98.573194
7.200000	-0.292442	-137.550229	-42.804177	29.766207	-42.804177	29.766207	-0.207423	-99.174329
7.250000	-0.296726	-138.432029	-42.666615	28.280891	-42.666615	28.280891	-0.210430	-99.773798
7.300000	-0.301029	-139.314128	-42.530969	26.796211	-42.530969	26.796211	-0.213451	-100.372905
7.350000	-0.305422	-140.197714	-42.396283	25.314707	-42.396283	25.314707	-0.216541	-100.970203
7.400000	-0.309826	-141.081473	-42.263549	23.833529	-42.263549	23.833529	-0.219639	-101.567323
7.450000	-0.314331	-141.967133	-42.131678	22.355947	-42.131678	22.355947	-0.222814	-102.162499
7.500000	-0.318838	-142.852793	-42.001780	20.878365	-42.001780	20.878365	-0.225989	-102.757676
7.550000	-0.323456	-143.740821	-41.872666	19.404819	-41.872666	19.404819	-0.229250	-103.350784
7.600000	-0.328076	-144.628849	-41.745444	17.931274	-41.745444	17.931274	-0.232511	-103.943892
7.650000	-0.332799	-145.519325	-41.619117	16.461538	-41.619117	16.461538	-0.235852	-104.535153
7.700000	-0.337533	-146.410024	-41.494517	14.992148	-41.494517	14.992148	-0.239201	-105.126246
7.750000	-0.342362	-147.303206	-41.370906	13.526322	-41.370906	13.526322	-0.242624	-105.715707
7.800000	-0.347211	-148.196885	-41.248877	12.061208	-41.248877	12.061208	-0.246062	-106.304841
7.850000	-0.352147	-149.093037	-41.127912	10.599395	-41.127912	10.599395	-0.249568	-106.892548
7.900000	-0.357114	-149.990014	-41.008404	9.138682	-41.008404	9.138682	-0.253096	-107.479779
7.950000	-0.362140	-150.888775	-40.890138	7.680222	-40.890138	7.680222	-0.256671	-108.066082
8.000000	-0.367232	-151.789612	-40.773055	6.224321	-40.773055	6.224321	-0.260297	-108.651354
8.050000	-0.372381	-152.692312	-40.657205	4.770637	-40.657205	4.770637	-0.263968	-109.235765
8.100000	-0.377587	-153.596955	-40.542576	3.319199	-40.542576	3.319199	-0.267684	-109.819328
8.150000	-0.382852	-154.503616	-40.429153	1.870036	-40.429153	1.870036	-0.271444	-110.402057
8.200000	-0.388174	-155.412377	-40.316923	0.423177	-40.316923	0.423177	-0.275251	-110.983965
8.250000	-0.393555	-156.323315	-40.205873	-1.021350	-40.205873	-1.021350	-0.279103	-111.565068
8.300000	-0.398994	-157.236513	-40.095989	-2.463516	-40.095989	-2.463516	-0.283001	-112.145379
8.350000	-0.404492	-158.152052	-39.987259	-3.903293	-39.987259	-3.903293	-0.286945	-112.724912
8.400000	-0.410050	-159.070015	-39.879669	-5.340652	-39.879669	-5.340652	-0.290936	-113.303683
8.450000	-0.415667	-159.990485	-39.773207	-6.775566	-39.773207	-6.775566	-0.294974	-113.881704
8.500000	-0.421343	-160.913545	-39.667861	-8.208007	-39.667861	-8.208007	-0.299059	-114.458993
8.550000	-0.427080	-161.839283	-39.563617	-9.637949	-39.563617	-9.637949	-0.303191	-115.035562
8.600000	-0.432877	-162.767783	-39.460462	-11.065364	-39.460462	-11.065364	-0.307371	-115.611428
8.650000	-0.438734	-163.699132	-39.358386	-12.490227	-39.358386	-12.490227	-0.311599	-116.186605
8.700000	-0.444652	-164.633419	-39.257375	-13.912512	-39.257375	-13.912512	-0.315874	-116.761109
8.750000	-0.450631	-165.570732	-39.157417	-15.332194	-39.157417	-15.332194	-0.320198	-117.334954
8.800000	-0.456674	-166.511301	-39.058497	-16.749133	-39.058497	-16.749133	-0.324573	-117.908131
8.850000	-0.462778	-167.455084	-38.960607	-18.163419	-38.960607	-18.163419	-0.328996	-118.480681
8.900000	-0.468944	-168.402173	-38.863735	-19.575030	-38.863735	-19.575030	-0.333469	-119.052623
8.950000	-0.475171	-169.352660	-38.767869	-20.983943	-38.767869	-20.983943	-0.337990	-119.623971
9.000000	-0.481461	-170.306639	-38.672997	-22.390136	-38.672997	-22.390136	-0.342560	-120.194741
9.050000	-0.487813	-171.264204	-38.579109	-23.793591	-38.579109	-23.793591	-0.347180	-120.764950
9.100000	-0.494227	-172.225449	-38.486191	-25.194286	-38.486191	-25.194286	-0.351850	-121.334615
9.150000	-0.500705	-173.190470	-38.394232	-26.592204	-38.394232	-26.592204	-0.356570	-121.903751
9.200000	-0.507244	-174.159363	-38.303221	-27.987327	-38.303221	-27.987327	-0.361339	-122.472375
9.250000	-0.513847	-175.132226	-38.213147	-29.379638	-38.213147	-29.379638	-0.366158	-123.040505
9.300000	-0.520513	-176.109157	-38.123998	-30.769123	-38.123998	-30.769123	-0.371028	-123.608157
9.350000	-0.527242	-177.090254	-38.035763	-32.155766	-38.035763	-32.155766	-0.375948	-124.175348
9.400000	-0.534034	-178.075618	-37.948431	-33.539553	-37.948431	-33.539553	-0.380918	-124.742095
9.450000	-0.540889	-179.065347	-37.861991	-34.920474	-37.861991	-34.920474	-0.385939	-125.308416
9.500000	-0.547808	179.940456	-37.776432	-36.298517	-37.776432	-36.298517	-0.391011	-125.874328
9.550000	-0.554791	178.941690	-37.691743	-37.673672	-37.691743	-37.673672	-0.396133	-126.439850
9.600000	-0.561837	177.938254	-37.607913	-39.045929	-37.607913	-39.045929	-0.401305	-127.004997
9.650000	-0.568946	176.930043	-37.524932	-40.415283	-37.524932	-40.415283	-0.406529	-127.569790
9.700000	-0.576119	175.916956	-37.442789	-41.781725	-37.442789	-41.781725	-0.411803	-128.134245
9.750000	-0.583355	174.898887	-37.361475	-43.145252	-37.361475	-43.145252	-0.417128	-128.698381
9.800000	-0.590655	173.875733	-37.280978	-44.505859	-37.280978	-44.505859	-0.422504	-129.262217
9.850000	-0.598018	172.847389	-37.201288	-45.863544	-37.201288	-45.863544	-0.427931	-129.825770
9.900000	-0.605444	171.813748	-37.122396	-47.218306	-37.122396	-47.218306	-0.433409	-130.389061
9.950000	-0.612933	170.774707	-37.044292	-48.570144	-37.044292	-48.570144	-0.438937	-130.952107
10.000000	-0.620485	169.730159	-36.966966	-49.919060	-36.966966	-49.919060	-0.444516	-131.514927
