! freq	dB(S11)	phase(S11)	dB(S12)	phase(S12)	
!     	dB(S21)	phase(S21)	dB(S22)	phase(S22)	
!S-par simulation data
#  GHz  S  DB  R 50
0.000000	-82.677844	0.000000	-0.000638	0.000000	-0.000638	0.000000	-82.677844	0.000000
0.050000	-38.451440	-92.376465	-0.005997	-3.175592	-0.005997	-3.175592	-38.451695	-92.379623
0.100000	-32.504232	-95.776660	-0.014366	-6.307786	-0.014366	-6.307786	-32.504294	-95.779425
0.150000	-29.035993	-99.143131	-0.022269	-9.424062	-0.022269	-9.424062	-29.036054	-99.146213
0.200000	-26.586366	-102.445837	-0.030525	-12.535057	-0.030525	-12.535057	-26.586439	-102.449759
0.250000	-24.699661	-105.695018	-0.039640	-15.641939	-0.039640	-15.641939	-24.699743	-105.699972
0.300000	-23.173043	-108.903422	-0.049746	-18.744218	-0.049746	-18.744218	-23.173130	-108.909472
0.350000	-21.895904	-112.083398	-0.060739	-21.841949	-0.060739	-21.841949	-21.895998	-112.090552
0.400000	-20.803548	-115.240988	-0.072558	-24.934991	-0.072558	-24.934991	-20.803648	-115.249238
0.450000	-19.856037	-118.379719	-0.085171	-28.022965	-0.085171	-28.022965	-19.856143	-118.389052
0.500000	-19.022062	-121.504828	-0.098403	-31.106478	-0.098403	-31.106478	-19.022175	-121.515236
0.550000	-18.283516	-124.617228	-0.112219	-34.185146	-0.112219	-34.185146	-18.283636	-124.628708
0.600000	-17.624201	-127.719168	-0.126491	-37.259280	-0.126491	-37.259280	-17.624327	-127.731727
0.650000	-17.033347	-130.811536	-0.141124	-40.328848	-0.141124	-40.328848	-17.033479	-130.825188
0.700000	-16.501782	-133.895350	-0.156008	-43.394027	-0.156008	-43.394027	-16.501921	-133.910118
0.750000	-16.022803	-136.971240	-0.171031	-46.454915	-0.171031	-46.454915	-16.022947	-136.987152
0.800000	-15.590812	-140.039851	-0.186080	-49.511710	-0.186080	-49.511710	-15.590961	-140.056940
0.850000	-15.201785	-143.101656	-0.201034	-52.564591	-0.201034	-52.564591	-15.201940	-143.119966
0.900000	-14.851094	-146.157523	-0.215782	-55.614037	-0.215782	-55.614037	-14.851255	-146.177099
0.950000	-14.536134	-149.207948	-0.230208	-58.660374	-0.230208	-58.660374	-14.536302	-149.228843
1.000000	-14.254406	-152.253590	-0.244198	-61.704081	-0.244198	-61.704081	-14.254580	-152.275861
1.050000	-14.003846	-155.295150	-0.257642	-64.745726	-0.257642	-64.745726	-14.004025	-155.318861
1.100000	-13.782755	-158.333381	-0.270433	-67.785962	-0.270433	-67.785962	-13.782941	-158.358602
1.150000	-13.589756	-161.369088	-0.282469	-70.825533	-0.282469	-70.825533	-13.589949	-161.395896
1.200000	-13.423749	-164.403127	-0.293655	-73.865271	-0.293655	-73.865271	-13.423948	-164.431607
1.250000	-13.283883	-167.436408	-0.303898	-76.906096	-0.303898	-76.906096	-13.284089	-167.466653
1.300000	-13.170063	-170.469916	-0.313092	-79.949085	-0.313092	-79.949085	-13.170278	-170.502032
1.350000	-13.081387	-173.504677	-0.321182	-82.995312	-0.321182	-82.995312	-13.081610	-173.538780
1.400000	-13.017675	-176.541739	-0.328103	-86.045955	-0.328103	-86.045955	-13.017907	-176.577960
1.450000	-12.978962	-179.582189	-0.333797	-89.102271	-0.333797	-89.102271	-12.979204	-179.620673
1.500000	-12.965502	177.372860	-0.338218	-92.165591	-0.338218	-92.165591	-12.965755	177.331947
1.550000	-12.977779	174.322271	-0.341331	-95.237321	-0.341331	-95.237321	-12.978045	174.278744
1.600000	-13.016526	171.264904	-0.343113	-98.318937	-0.343113	-98.318937	-13.016806	171.218547
1.650000	-13.082750	168.199619	-0.343555	-101.411979	-0.343555	-101.411979	-13.083045	168.150189
1.700000	-13.177769	165.125306	-0.342662	-104.518054	-0.342662	-104.518054	-13.178081	165.072518
1.750000	-13.303256	162.040901	-0.340453	-107.638825	-0.340453	-107.638825	-13.303587	161.984425
1.800000	-13.461301	158.945421	-0.336967	-110.776013	-0.336967	-110.776013	-13.461655	158.884871
1.850000	-13.654498	155.838009	-0.332257	-113.931393	-0.332257	-113.931393	-13.654877	155.772927
1.900000	-13.886428	152.717849	-0.326386	-117.107021	-0.326386	-117.107021	-13.886837	152.647681
1.950000	-14.161123	149.584534	-0.319453	-120.304825	-0.319453	-120.304825	-14.161567	149.508608
2.000000	-14.482629	146.438388	-0.311600	-123.526140	-0.311600	-123.526140	-14.483115	146.355901
2.050000	-14.857932	143.279703	-0.302947	-126.773408	-0.302947	-126.773408	-14.858469	143.189640
2.100000	-15.294556	140.110005	-0.293668	-130.048383	-0.293668	-130.048383	-15.295156	140.011094
2.150000	-15.802546	136.931968	-0.283956	-133.353020	-0.283956	-133.353020	-15.803228	136.822573
2.200000	-16.395197	133.750202	-0.274034	-136.689362	-0.274034	-136.689362	-16.395985	133.628167
2.250000	-17.090488	130.572567	-0.264156	-140.059554	-0.264156	-140.059554	-17.091420	130.434950
2.300000	-17.912335	127.412102	-0.254609	-143.465242	-0.254609	-143.465242	-17.913469	127.254809
2.350000	-18.895550	124.291014	-0.245710	-146.908279	-0.245710	-146.908279	-18.896985	124.108067
2.400000	-20.092431	121.249026	-0.237810	-150.390443	-0.237810	-150.390443	-20.094343	121.031204
2.450000	-21.586786	118.362623	-0.231297	-153.913422	-0.231297	-153.913422	-21.589520	118.094619
2.500000	-23.525576	115.796631	-0.226594	-157.478780	-0.226594	-157.478780	-23.529926	115.450272
2.550000	-26.205578	113.996964	-0.224193	-161.088422	-0.224193	-161.088422	-26.213849	113.509931
2.600000	-30.366627	114.578755	-0.224571	-164.743115	-0.224571	-164.743115	-30.388986	113.770648
2.650000	-38.798521	131.450689	-0.228264	-168.443865	-0.228264	-168.443865	-38.969245	129.470491
2.700000	-38.030326	-112.086907	-0.235841	-172.191428	-0.235841	-172.191428	-38.178296	-110.170107
2.750000	-29.474212	-97.426570	-0.247903	-175.986264	-0.247903	-175.986264	-29.495025	-96.628111
2.800000	-24.971632	-97.224327	-0.265080	-179.828506	-0.265080	-179.828506	-24.979436	-96.733166
2.850000	-21.899997	-99.360271	-0.288081	176.281705	-0.288081	176.281705	-21.904114	-99.005312
2.900000	-19.553457	-102.311832	-0.317558	172.345285	-0.317558	172.345285	-19.556041	-102.033793
2.950000	-17.647267	-105.661579	-0.354183	168.363458	-0.354183	168.363458	-17.649070	-105.432963
3.000000	-16.038700	-109.246382	-0.398647	164.337787	-0.398647	164.337787	-16.040054	-109.052199
3.050000	-14.646281	-112.988020	-0.451636	160.270320	-0.451636	160.270320	-14.647353	-112.819215
3.100000	-13.419206	-116.843395	-0.513824	156.163604	-0.513824	156.163604	-13.420089	-116.694086
3.150000	-12.323632	-120.786278	-0.585911	152.020505	-0.585911	152.020505	-12.324383	-120.652415
3.200000	-11.336117	-124.798303	-0.668513	147.844622	-0.668513	147.844622	-11.336772	-124.676997
3.250000	-10.439708	-128.865565	-0.762141	143.640161	-0.762141	143.640161	-10.440291	-128.754689
3.300000	-9.621631	-132.977201	-0.867296	139.411550	-0.867296	139.411550	-9.622159	-132.875135
3.350000	-8.872070	-137.123875	-0.984413	135.163582	-0.984413	135.163582	-8.872555	-137.029359
3.400000	-8.183291	-141.297197	-1.113849	130.901358	-1.113849	130.901358	-8.183741	-141.209228
3.450000	-7.549080	-145.489430	-1.255904	126.630191	-1.255904	126.630191	-7.549503	-145.407197
3.500000	-6.964372	-149.693217	-1.410816	122.355610	-1.410816	122.355610	-6.964774	-149.616056
3.550000	-6.424809	-153.901471	-1.578589	118.083208	-1.578589	118.083208	-6.425193	-153.828834
3.600000	-5.926683	-158.107608	-1.759222	113.818465	-1.759222	113.818465	-5.927052	-158.039036
3.650000	-5.466759	-162.305405	-1.952627	109.566731	-1.952627	109.566731	-5.467116	-162.240509
3.700000	-5.042166	-166.489028	-2.158635	105.333142	-2.158635	105.333142	-5.042514	-166.427477
3.750000	-4.650322	-170.653071	-2.377000	101.122549	-2.377000	101.122549	-4.650662	-170.594577
3.800000	-4.289029	-174.792264	-2.607462	96.939799	-2.607462	96.939799	-4.289363	-174.736579
3.850000	-3.955967	-178.902378	-2.849571	92.788726	-2.849571	92.788726	-3.956296	-178.849286
3.900000	-3.649354	177.021107	-3.102958	88.673595	-3.102958	88.673595	-3.649679	177.071797
3.950000	-3.366921	172.980687	-3.367053	84.596611	-3.367053	84.596611	-3.367242	173.029139
4.000000	-3.107065	168.979593	-3.641424	80.560844	-3.641424	80.560844	-3.107383	169.025953
4.050000	-2.868140	165.020190	-3.925573	76.568517	-3.925573	76.568517	-2.868457	165.064588
4.100000	-2.648603	161.104349	-4.218998	72.621385	-4.218998	72.621385	-2.648918	161.146900
4.150000	-2.447008	157.233468	-4.521195	68.720761	-4.521195	68.720761	-2.447321	157.274274
4.200000	-2.261999	153.408507	-4.831672	64.867536	-4.831672	64.867536	-2.262311	153.447659
4.250000	-2.092310	149.630019	-5.149948	61.062213	-5.149948	61.062213	-2.092622	149.667597
4.300000	-1.936761	145.898186	-5.475557	57.304932	-5.475557	57.304932	-1.937073	145.934261
4.350000	-1.794251	142.212853	-5.808053	53.595502	-5.808053	53.595502	-1.794563	142.247488
4.400000	-1.663860	138.574058	-6.146924	49.933941	-6.146924	49.933941	-1.664172	138.607309
4.450000	-1.544622	134.981046	-6.491728	46.319449	-6.491728	46.319449	-1.544934	135.012961
4.500000	-1.435558	131.432339	-6.842134	42.750477	-6.842134	42.750477	-1.435870	131.462958
4.550000	-1.335865	127.926746	-7.197747	39.225751	-7.197747	39.225751	-1.336179	127.956103
4.600000	-1.244808	124.462884	-7.558164	35.743767	-7.558164	35.743767	-1.245122	124.491006
4.650000	-1.161714	121.039185	-7.922963	32.302778	-7.922963	32.302778	-1.162030	121.066091
4.700000	-1.085972	117.653901	-8.291687	28.900779	-8.291687	28.900779	-1.086290	117.679605
4.750000	-1.017030	114.305103	-8.663814	25.535463	-8.663814	25.535463	-1.017350	114.329609
4.800000	-0.954393	110.990654	-9.038733	22.204153	-9.038733	22.204153	-0.954717	111.013960
4.850000	-0.897625	107.708185	-9.415691	18.903699	-9.415691	18.903699	-0.897954	107.730278
4.900000	-0.846350	104.455034	-9.793740	15.630317	-9.793740	15.630317	-0.846684	104.475890
4.950000	-0.800251	101.228166	-10.171650	12.379354	-10.171650	12.379354	-0.800594	101.247749
5.000000	-0.759087	98.024050	-10.547791	9.144922	-10.547791	9.144922	-0.759439	98.042305
5.050000	-0.723034	94.839410	-10.918283	5.919166	-10.918283	5.919166	-0.723399	94.856256
5.100000	-0.691368	91.666715	-11.283265	2.691176	-11.283265	2.691176	-0.691750	91.682057
5.150000	-0.664553	88.500448	-11.636827	-0.553566	-11.636827	-0.553566	-0.664957	88.514146
5.200000	-0.643168	85.331447	-11.971317	-3.838537	-11.971317	-3.838537	-0.643603	85.343300
5.250000	-0.627217	82.148857	-12.282452	-7.188189	-12.282452	-7.188189	-0.627693	82.158619
5.300000	-0.619111	78.930728	-12.550082	-10.669692	-12.550082	-10.669692	-0.619650	78.937990
5.350000	-0.620621	75.653957	-12.759776	-14.353113	-12.759776	-14.353113	-0.621252	75.658175
5.400000	-0.636276	72.279964	-12.883750	-18.371031	-12.883750	-18.371031	-0.637051	72.280331
5.450000	-0.677718	68.730244	-12.865589	-23.021537	-12.865589	-23.021537	-0.678745	68.725376
5.500000	-0.771805	64.874720	-12.619949	-28.904086	-12.619949	-28.904086	-0.773326	64.862185
5.550000	-0.987704	60.528651	-12.025221	-37.292978	-12.025221	-37.292978	-0.990343	60.504093
5.600000	-1.576918	55.715487	-10.919941	-51.944413	-10.919941	-51.944413	-1.582935	55.671215
5.650000	-3.148578	56.043395	-9.898367	-82.624803	-9.898367	-82.624803	-3.166913	56.003575
5.700000	-2.629982	69.703270	-12.779698	-128.613532	-12.779698	-128.613532	-2.645400	69.794129
5.750000	-1.152038	66.536591	-19.243356	-156.159680	-19.243356	-156.159680	-1.157093	66.617780
5.800000	-0.686698	61.181324	-25.796826	-167.768218	-25.796826	-167.768218	-0.688998	61.243942
5.850000	-0.521558	56.817689	-31.933615	-173.333146	-31.933615	-173.333146	-0.522913	56.869266
5.900000	-0.445029	53.073264	-37.943429	-179.551963	-37.943429	-179.551963	-0.445947	53.117708
5.950000	-0.405330	49.706802	-42.836375	164.515158	-42.836375	164.515158	-0.406016	49.746343
6.000000	-0.382573	46.573037	-43.864654	138.706614	-43.864654	138.706614	-0.383122	46.608980
6.050000	-0.368774	43.592819	-41.336588	122.139558	-41.336588	122.139558	-0.369236	43.625987
6.100000	-0.360282	40.720381	-38.268540	115.901897	-38.268540	115.901897	-0.360684	40.751322
6.150000	-0.355251	37.927612	-35.555489	113.310546	-35.555489	113.310546	-0.355610	37.956711
6.200000	-0.352675	35.196291	-33.252420	111.654221	-33.252420	111.654221	-0.353001	35.223828
6.250000	-0.351971	32.514036	-31.292636	110.131017	-31.292636	110.131017	-0.352271	32.540219
6.300000	-0.352827	29.873196	-29.603896	108.520906	-29.603896	108.520906	-0.353106	29.898190
6.350000	-0.354968	27.265850	-28.133356	106.785798	-28.133356	106.785798	-0.355230	27.289778
6.400000	-0.358257	24.687186	-26.836509	104.934121	-26.836509	104.934121	-0.358505	24.710149
6.450000	-0.362608	22.133394	-25.679686	102.984271	-25.679686	102.984271	-0.362842	22.155471
6.500000	-0.367965	19.601357	-24.637157	100.954760	-24.637157	100.954760	-0.368188	19.622613
6.550000	-0.374300	17.088453	-23.688988	98.861405	-23.688988	98.861405	-0.374513	17.108944
6.600000	-0.381602	14.592414	-22.819512	96.716923	-22.819512	96.716923	-0.381804	14.612184
6.650000	-0.389873	12.111224	-22.016243	94.531256	-22.016243	94.531256	-0.390066	12.130309
6.700000	-0.399130	9.643041	-21.269098	92.312058	-21.269098	92.312058	-0.399315	9.661473
6.750000	-0.409403	7.186146	-20.569827	90.065154	-20.569827	90.065154	-0.409580	7.203951
6.800000	-0.420730	4.738898	-19.911606	87.794918	-19.911606	87.794918	-0.420899	4.756097
6.850000	-0.433162	2.299697	-19.288725	85.504571	-19.288725	85.504571	-0.433324	2.316306
6.900000	-0.446761	-0.133042	-18.696358	83.196408	-18.696358	83.196408	-0.446916	-0.117009
6.950000	-0.461602	-2.560915	-18.130385	80.871970	-18.130385	80.871970	-0.461750	-2.545448
7.000000	-0.477773	-4.985550	-17.587260	78.532171	-17.587260	78.532171	-0.477914	-4.970642
7.050000	-0.495375	-7.408626	-17.063901	76.177397	-17.063901	76.177397	-0.495510	-7.394274
7.100000	-0.514528	-9.831896	-16.557609	73.807571	-16.557609	73.807571	-0.514656	-9.818097
7.150000	-0.535368	-12.257200	-16.066003	71.422207	-16.066003	71.422207	-0.535491	-12.243955
7.200000	-0.558054	-14.686488	-15.586962	69.020439	-15.586962	69.020439	-0.558171	-14.673802
7.250000	-0.582769	-17.121839	-15.118590	66.601046	-15.118590	66.601046	-0.582881	-17.109717
7.300000	-0.609723	-19.565478	-14.659174	64.162460	-14.659174	64.162460	-0.609830	-19.553930
7.350000	-0.639159	-22.019803	-14.207163	61.702767	-14.207163	61.702767	-0.639262	-22.008842
7.400000	-0.671358	-24.487406	-13.761139	59.219700	-13.761139	59.219700	-0.671456	-24.477046
7.450000	-0.706644	-26.971099	-13.319802	56.710623	-13.319802	56.710623	-0.706739	-26.961359
7.500000	-0.745396	-29.473941	-12.881954	54.172513	-12.881954	54.172513	-0.745488	-29.464844
7.550000	-0.788237	-32.000426	-12.445592	51.600324	-12.445592	51.600324	-0.788328	-31.991999
7.600000	-0.835548	-34.553421	-12.010500	48.991351	-12.010500	48.991351	-0.835637	-34.545695
7.650000	-0.887945	-37.136984	-11.575725	46.341112	-11.575725	46.341112	-0.888033	-37.129996
7.700000	-0.946150	-39.755568	-11.140385	43.644566	-11.140385	43.644566	-0.946240	-39.749361
7.750000	-1.011022	-42.414066	-10.703670	40.896043	-10.703670	40.896043	-1.011114	-42.408688
7.800000	-1.083578	-45.117848	-10.264845	38.089179	-10.264845	38.089179	-1.083673	-45.113356
7.850000	-1.165031	-47.872803	-9.823258	35.216835	-9.823258	35.216835	-1.165131	-47.869265
7.900000	-1.256833	-50.685376	-9.378348	32.271012	-9.378348	32.271012	-1.256940	-50.682869
7.950000	-1.359514	-53.555655	-8.932320	29.251619	-8.932320	29.251619	-1.359631	-53.554258
8.000000	-1.477252	-56.503421	-8.479909	26.133174	-8.479909	26.133174	-1.477381	-56.503248
8.050000	-1.611666	-59.531332	-8.023228	22.911587	-8.023228	22.911587	-1.611811	-59.532508
8.100000	-1.765862	-62.648010	-7.562291	19.574568	-7.562291	19.574568	-1.766027	-62.650681
8.150000	-1.943912	-65.863557	-7.097041	16.106986	-7.097041	16.106986	-1.944103	-65.867902
8.200000	-2.150663	-69.187229	-6.628044	12.493444	-6.628044	12.493444	-2.150887	-69.193464
8.250000	-2.391777	-72.626387	-6.156568	8.719185	-6.156568	8.719185	-2.392042	-72.634774
8.300000	-2.674591	-76.188086	-5.684036	4.767014	-5.684036	4.767014	-2.674910	-76.198947
8.350000	-3.006951	-79.872981	-5.213084	0.625216	-5.213084	0.625216	-3.007340	-79.886703
8.400000	-3.403139	-83.688660	-4.744923	-3.736858	-4.744923	-3.736858	-3.403620	-83.705767
8.450000	-3.876663	-87.622425	-4.283842	-8.330099	-4.283842	-8.330099	-3.877267	-87.643577
8.500000	-4.446512	-91.652314	-3.834206	-13.169633	-3.834206	-13.169633	-4.447285	-91.678384
8.550000	-5.137367	-95.734352	-3.401324	-18.266752	-3.401324	-18.266752	-5.138382	-95.766523
8.600000	-5.981853	-99.787885	-2.991431	-23.626745	-2.991431	-23.626745	-5.983224	-99.827805
8.650000	-7.024102	-103.668888	-2.611542	-29.246425	-2.611542	-29.246425	-7.026027	-103.718936
8.700000	-8.325683	-107.116800	-2.269168	-35.111643	-2.269168	-35.111643	-8.328526	-107.180531
8.750000	-9.975524	-109.636126	-1.971836	-41.195275	-1.971836	-41.195275	-9.980031	-109.719023
8.800000	-12.103839	-110.133743	-1.727231	-47.458044	-1.727231	-47.458044	-12.111748	-110.244339
8.850000	-14.867656	-106.055752	-1.540350	-53.842091	-1.540350	-53.842091	-14.883558	-106.202939
8.900000	-18.139044	-90.825500	-1.414584	-60.282767	-1.414584	-60.282767	-18.174572	-90.976868
8.950000	-19.733062	-57.609018	-1.350781	-66.710251	-1.350781	-66.710251	-19.786048	-57.568842
9.000000	-17.432563	-28.598929	-1.347099	-73.055401	-1.347099	-73.055401	-17.464503	-28.410148
9.050000	-14.367068	-17.134586	-1.399234	-79.255443	-1.399234	-79.255443	-14.382937	-16.957102
9.100000	-11.922087	-14.344459	-1.500946	-85.258441	-1.500946	-85.258441	-11.931081	-14.196573
9.150000	-10.059186	-15.088607	-1.644754	-91.025833	-1.644754	-91.025833	-10.064953	-14.963496
9.200000	-8.620752	-17.400361	-1.822862	-96.530318	-1.822862	-96.530318	-8.624790	-17.291560
9.250000	-7.488940	-20.430479	-2.027045	-101.761339	-2.027045	-101.761339	-7.491946	-20.333646
9.300000	-6.583721	-23.782343	-2.249838	-106.719344	-2.249838	-106.719344	-6.586058	-23.694600
9.350000	-5.850467	-27.253172	-2.484745	-111.411506	-2.484745	-111.411506	-5.852344	-27.172559
9.400000	-5.250410	-30.733135	-2.726198	-115.850564	-2.726198	-115.850564	-5.251954	-30.658280
9.450000	-4.756368	-34.160620	-2.969366	-120.048609	-2.969366	-120.048609	-4.757665	-34.090527
9.500000	-4.346296	-37.504391	-3.210454	-124.026436	-3.210454	-124.026436	-4.347402	-37.438342
9.550000	-4.000235	-40.757853	-3.447463	-127.818682	-3.447463	-127.818682	-4.001190	-40.695357
9.600000	-3.713842	-43.898270	-3.675768	-131.411244	-3.675768	-131.411244	-3.714678	-43.838894
9.650000	-3.469473	-46.945784	-3.896217	-134.855648	-3.896217	-134.855648	-3.470214	-46.889271
9.700000	-3.265614	-49.886887	-4.104683	-138.141834	-4.104683	-138.141834	-3.266280	-49.833016
9.750000	-3.092073	-52.740278	-4.302222	-141.304588	-4.302222	-141.304588	-3.092681	-52.688918
9.800000	-2.946082	-55.505649	-4.486695	-144.348906	-4.486695	-144.348906	-2.946647	-55.456717
9.850000	-2.823297	-58.191622	-4.657743	-147.290487	-4.657743	-147.290487	-2.823833	-58.145082
9.900000	-2.719839	-60.808101	-4.815507	-150.145515	-4.815507	-150.145515	-2.720361	-60.763961
9.950000	-2.634829	-63.355371	-4.957919	-152.917616	-4.957919	-152.917616	-2.635352	-63.313681
10.000000	-2.563836	-65.849399	-5.087230	-155.628633	-5.087230	-155.628633	-2.564377	-65.810236
