! freq	dB(S11)	phase(S11)	dB(S12)	phase(S12)	
!     	dB(S21)	phase(S21)	dB(S22)	phase(S22)	
!S-par simulation data
#  GHz  S  DB  R 50
0.000000	-87.110734	0.000000	-0.000383	0.000000	-0.000383	0.000000	-87.110734	0.000000
0.050000	-32.658990	-93.000601	-0.007146	-2.986258	-0.007146	-2.986258	-32.658781	-93.001503
0.100000	-26.664237	-96.133820	-0.019664	-5.932074	-0.019664	-5.932074	-26.664306	-96.135146
0.150000	-23.180331	-99.182514	-0.035425	-8.861804	-0.035425	-8.861804	-23.180702	-99.183884
0.200000	-20.729043	-102.172833	-0.055234	-11.780080	-0.055234	-11.780080	-20.729644	-102.174314
0.250000	-18.844218	-105.120879	-0.079102	-14.686068	-0.079102	-14.686068	-18.844933	-105.122868
0.300000	-17.319374	-108.037111	-0.107016	-17.577939	-0.107016	-17.577939	-17.320084	-108.040029
0.350000	-16.043624	-110.929614	-0.138732	-20.454646	-0.138732	-20.454646	-16.044240	-110.933669
0.400000	-14.951509	-113.801906	-0.174105	-23.314791	-0.174105	-23.314791	-14.951976	-113.807067
0.450000	-14.000659	-116.655080	-0.212922	-26.157207	-0.212922	-26.157207	-14.000964	-116.661172
0.500000	-13.162198	-119.488654	-0.254956	-28.980775	-0.254956	-28.980775	-13.162362	-119.495485
0.550000	-12.415844	-122.301182	-0.300003	-31.784134	-0.300003	-31.784134	-12.415904	-122.308622
0.600000	-11.746192	-125.091668	-0.347774	-34.566522	-0.347774	-34.566522	-11.746189	-125.099673
0.650000	-11.141880	-127.858841	-0.398021	-37.326852	-0.398021	-37.326852	-11.141849	-127.867436
0.700000	-10.594057	-130.601656	-0.450479	-40.064124	-0.450479	-40.064124	-10.594024	-130.610901
0.750000	-10.095205	-133.319984	-0.504827	-42.778116	-0.504827	-42.778116	-10.095186	-133.329944
0.800000	-9.639459	-136.013502	-0.560782	-45.468374	-0.560782	-45.468374	-9.639463	-136.024237
0.850000	-9.221959	-138.682063	-0.618057	-48.134597	-0.618057	-48.134597	-9.221989	-138.693614
0.900000	-8.838627	-141.325656	-0.676371	-50.776630	-0.676371	-50.776630	-8.838683	-141.338053
0.950000	-8.486124	-143.944184	-0.735447	-53.394248	-0.735447	-53.394248	-8.486203	-143.957441
1.000000	-8.161705	-146.537461	-0.795009	-55.987161	-0.795009	-55.987161	-8.161804	-146.551584
1.050000	-7.862412	-149.106464	-0.854788	-58.556246	-0.854788	-58.556246	-7.862527	-149.121452
1.100000	-7.586009	-151.651622	-0.914539	-61.101865	-0.914539	-61.101865	-7.586137	-151.667474
1.150000	-7.330535	-154.173452	-0.974026	-63.624486	-0.974026	-63.624486	-7.330672	-154.190164
1.200000	-7.094263	-156.672551	-1.033026	-66.124672	-1.033026	-66.124672	-7.094405	-156.690121
1.250000	-6.875663	-159.149587	-1.091329	-68.603068	-1.091329	-68.603068	-6.875808	-159.168018
1.300000	-6.673743	-161.604588	-1.148688	-71.059698	-1.148688	-71.059698	-6.673888	-161.623882
1.350000	-6.486889	-164.039110	-1.204958	-73.496106	-1.204958	-73.496106	-6.487031	-164.059276
1.400000	-6.314014	-166.454001	-1.259969	-75.913144	-1.259969	-75.913144	-6.314152	-166.475051
1.450000	-6.154143	-168.850153	-1.313562	-78.311712	-1.313562	-78.311712	-6.154276	-168.872103
1.500000	-6.007175	-171.227051	-1.365419	-80.691331	-1.365419	-80.691331	-6.007303	-171.249922
1.550000	-5.870889	-173.588347	-1.415707	-83.055626	-1.415707	-83.055626	-5.871011	-173.612162
1.600000	-5.745219	-175.933807	-1.464172	-85.404400	-1.464172	-85.404400	-5.745334	-175.958593
1.650000	-5.629520	-178.264433	-1.510702	-87.738674	-1.510702	-87.738674	-5.629630	-178.290223
1.700000	-5.522614	179.417757	-1.555378	-90.060458	-1.555378	-90.060458	-5.522721	179.390930
1.750000	-5.425683	177.114596	-1.597588	-92.368023	-1.597588	-92.368023	-5.425789	177.086686
1.800000	-5.336615	174.822335	-1.637752	-94.665060	-1.637752	-94.665060	-5.336722	174.793297
1.850000	-5.255828	172.541243	-1.675515	-96.951369	-1.675515	-96.951369	-5.255940	172.511021
1.900000	-5.182522	170.269680	-1.710956	-99.228589	-1.710956	-99.228589	-5.182643	170.238211
1.950000	-5.116411	168.006675	-1.743998	-101.497718	-1.743998	-101.497718	-5.116544	167.973886
2.000000	-5.057483	165.751553	-1.774470	-103.759476	-1.774470	-103.759476	-5.057631	165.717357
2.050000	-5.005077	163.502827	-1.802484	-106.015346	-1.802484	-106.015346	-5.005243	163.467124
2.100000	-4.958950	161.259518	-1.828009	-108.266325	-1.828009	-108.266325	-4.959134	161.222196
2.150000	-4.918882	159.020655	-1.851021	-110.513405	-1.851021	-110.513405	-4.919082	158.981587
2.200000	-4.884681	156.785272	-1.871502	-112.757564	-1.871502	-112.757564	-4.884890	156.744324
2.250000	-4.856345	154.552453	-1.889363	-114.999741	-1.889363	-114.999741	-4.856549	154.509490
2.300000	-4.834013	152.321191	-1.904457	-117.240967	-1.904457	-117.240967	-4.834191	152.276100
2.350000	-4.817083	150.090317	-1.917008	-119.482333	-1.917008	-119.482333	-4.817204	150.043053
2.400000	-4.805442	147.858854	-1.927024	-121.724767	-1.927024	-121.724767	-4.805478	147.809463
2.450000	-4.798991	145.625829	-1.934517	-123.969179	-1.934517	-123.969179	-4.798915	145.574468
2.500000	-4.797636	143.390304	-1.939505	-126.216470	-1.939505	-126.216470	-4.797439	143.337228
2.550000	-4.801293	141.151425	-1.942011	-128.467522	-1.942011	-128.467522	-4.800991	141.096920
2.600000	-4.810282	138.908093	-1.941872	-130.723642	-1.941872	-130.723642	-4.809924	138.852357
2.650000	-4.824348	136.659790	-1.939231	-132.985593	-1.939231	-132.985593	-4.823993	136.602802
2.700000	-4.843310	134.406059	-1.934216	-135.254032	-1.934216	-135.254032	-4.843006	134.347615
2.750000	-4.867191	132.146222	-1.926872	-137.529774	-1.926872	-137.529774	-4.866966	132.086023
2.800000	-4.896026	129.879530	-1.917245	-139.813615	-1.917245	-139.813615	-4.895892	129.817266
2.850000	-4.929858	127.605207	-1.905390	-142.106334	-1.905390	-142.106334	-4.929812	127.540603
2.900000	-4.968795	125.322369	-1.891337	-144.408820	-1.891337	-144.408820	-4.968829	125.255196
2.950000	-5.013347	123.029345	-1.874957	-146.722857	-1.874957	-146.722857	-5.013449	122.959401
3.000000	-5.063072	120.726330	-1.856544	-149.048140	-1.856544	-149.048140	-5.063232	120.653463
3.050000	-5.118050	118.412666	-1.836169	-151.385361	-1.836169	-151.385361	-5.118259	118.336734
3.100000	-5.178371	116.087725	-1.813906	-153.735190	-1.813906	-153.735190	-5.178623	116.008594
3.150000	-5.244140	113.750916	-1.789834	-156.098277	-1.789834	-156.098277	-5.244430	113.668449
3.200000	-5.315474	111.401677	-1.764034	-158.475245	-1.764034	-158.475245	-5.315798	111.315734
3.250000	-5.392818	109.038655	-1.736491	-160.867616	-1.736491	-160.867616	-5.393172	108.949076
3.300000	-5.476290	106.661362	-1.707318	-163.275959	-1.707318	-163.275959	-5.476674	106.567977
3.350000	-5.565924	104.269639	-1.676659	-165.700487	-1.676659	-165.700487	-5.566336	104.172269
3.400000	-5.661516	101.864111	-1.644719	-168.140540	-1.644719	-168.140540	-5.661956	101.762576
3.450000	-5.763560	99.443554	-1.611508	-170.597543	-1.611508	-170.597543	-5.764026	99.337650
3.500000	-5.872257	97.007612	-1.577134	-173.071965	-1.577134	-173.071965	-5.872752	96.897118
3.550000	-5.987830	94.555972	-1.541704	-175.564239	-1.541704	-175.564239	-5.988352	94.440650
3.600000	-6.110513	92.088366	-1.505330	-178.074765	-1.505330	-178.074765	-6.111065	91.967958
3.650000	-6.240560	89.604574	-1.468124	179.396096	-1.468124	179.396096	-6.241144	89.478803
3.700000	-6.378242	87.104425	-1.430203	176.848019	-1.430203	176.848019	-6.378859	86.972992
3.750000	-6.523850	84.587803	-1.391682	174.280716	-1.391682	174.280716	-6.524503	84.450386
3.800000	-6.677942	82.053927	-1.352656	171.693084	-1.352656	171.693084	-6.678633	81.910160
3.850000	-6.840606	79.503515	-1.313277	169.085753	-1.313277	169.085753	-6.841339	79.353022
3.900000	-7.012198	76.936635	-1.273664	166.458562	-1.273664	166.458562	-7.012977	76.779004
3.950000	-7.193100	74.353415	-1.233936	163.811383	-1.233936	163.811383	-7.193930	74.188205
4.000000	-7.383722	71.754055	-1.194209	161.144132	-1.194209	161.144132	-7.384608	71.580784
4.050000	-7.584507	69.138824	-1.154602	158.456759	-1.154602	158.456759	-7.585455	68.956970
4.100000	-7.795932	66.508069	-1.115229	155.749255	-1.115229	155.749255	-7.796949	66.317065
4.150000	-8.018513	63.862218	-1.076204	153.021645	-1.076204	153.021645	-8.019607	63.661446
4.200000	-8.252811	61.201789	-1.037638	150.273987	-1.037638	150.273987	-8.253990	60.990573
4.250000	-8.499439	58.527393	-0.999637	147.506373	-0.999637	147.506373	-8.500713	58.304992
4.300000	-8.759064	55.839746	-0.962307	144.718924	-0.962307	144.718924	-8.760446	55.605347
4.350000	-9.032423	53.139680	-0.925749	141.911787	-0.925749	141.911787	-9.033926	52.892388
4.400000	-9.320329	50.428157	-0.890058	139.085135	-0.890058	139.085135	-9.321970	50.166980
4.450000	-9.623685	47.706284	-0.855327	136.239159	-0.855327	136.239159	-9.625481	47.430123
4.500000	-9.943499	44.975338	-0.821643	133.374064	-0.821643	133.374064	-9.945471	44.682971
4.550000	-10.280903	42.236796	-0.789087	130.490070	-0.789087	130.490070	-10.283076	41.926853
4.600000	-10.637175	39.492369	-0.757737	127.587400	-0.757737	127.587400	-10.639580	39.163310
4.650000	-11.013771	36.744053	-0.727662	124.666281	-0.727662	124.666281	-11.016444	36.394140
4.700000	-11.412357	33.994192	-0.698928	121.726934	-0.698928	121.726934	-11.415342	33.621450
4.750000	-11.834858	31.245565	-0.671594	118.769571	-0.671594	118.769571	-11.838205	30.847736
4.800000	-12.283509	28.501501	-0.645714	115.794385	-0.645714	115.794385	-12.287285	28.075986
4.850000	-12.760933	25.766034	-0.621336	112.801551	-0.621336	112.801551	-12.765218	25.309817
4.900000	-13.270236	23.044120	-0.598503	109.791210	-0.598503	109.791210	-13.275132	22.553676
4.950000	-13.815128	20.341938	-0.577251	106.763467	-0.577251	106.763467	-13.820763	19.813102
5.000000	-14.400091	17.667314	-0.557613	103.718385	-0.557613	103.718385	-14.406633	17.095118
5.050000	-15.030721	15.032632	-0.539690	100.655215	-0.539690	100.655215	-15.038396	14.410752
5.100000	-15.713657	12.450592	-0.523435	97.574647	-0.523435	97.574647	-15.722765	11.771516
5.150000	-16.457425	9.940086	-0.508871	94.476545	-0.508871	94.476545	-16.468379	9.194426
5.200000	-17.272928	7.527509	-0.496016	91.360685	-0.496016	91.360685	-17.286313	6.703303
5.250000	-18.174332	5.241830	-0.484795	88.227740	-0.484795	88.227740	-18.190985	4.324499
5.300000	-19.180730	3.151394	-0.475392	85.075516	-0.475392	85.075516	-19.201954	2.119741
5.350000	-20.317988	1.337810	-0.467752	81.904225	-0.467752	81.904225	-20.345843	0.163536
5.400000	-21.622654	-0.056616	-0.461897	78.713142	-0.461897	78.713142	-21.660618	-1.413745
5.450000	-23.147928	-0.782476	-0.457852	75.501352	-0.457852	75.501352	-23.202328	-2.381825
5.500000	-24.973567	-0.364563	-0.455653	72.267704	-0.455653	72.267704	-25.057092	-2.296542
5.550000	-27.219358	2.203253	-0.455342	69.010749	-0.455342	69.010749	-27.360813	-0.197145
5.600000	-30.037073	9.326888	-0.456981	65.728645	-0.456981	65.728645	-30.311885	6.313482
5.650000	-33.305842	27.375409	-0.460676	62.418684	-0.460676	62.418684	-33.911401	24.243888
5.700000	-34.859976	63.455846	-0.466559	59.077576	-0.466559	59.077576	-35.752585	63.701092
5.750000	-32.529978	95.233571	-0.474806	55.701194	-0.474806	55.701194	-33.034059	97.776830
5.800000	-29.370168	109.882523	-0.485750	52.283138	-0.485750	52.283138	-29.609328	112.046226
5.850000	-26.772553	115.560999	-0.500140	48.811591	-0.500140	48.811591	-26.907691	117.085505
5.900000	-24.744937	117.693615	-0.518758	45.277713	-0.518758	45.277713	-24.836997	118.678898
5.950000	-23.182980	118.101830	-0.545953	41.638030	-0.545953	41.638030	-23.264622	118.608028
6.000000	-22.016929	118.333701	-0.588821	37.858644	-0.588821	37.858644	-22.116607	118.329600
6.050000	-21.258148	120.920375	-0.682261	33.841263	-0.682261	33.841263	-21.453401	120.332329
6.100000	-19.808269	132.503866	-0.957509	30.014671	-0.957509	30.014671	-20.272169	132.664951
6.150000	-15.759689	129.502740	-1.148324	29.156440	-1.148324	29.156440	-16.048717	131.663495
6.200000	-14.457454	115.592188	-0.910203	26.413105	-0.910203	26.413105	-14.579267	117.453869
6.250000	-13.885461	108.198810	-0.827080	22.467703	-0.827080	22.467703	-13.950782	109.678962
6.300000	-13.300135	103.260152	-0.822976	18.492289	-0.822976	18.492289	-13.342300	104.478601
6.350000	-12.683384	99.058330	-0.848622	14.541705	-0.848622	14.541705	-12.713543	100.089849
6.400000	-12.056387	95.105772	-0.890684	10.584852	-0.890684	10.584852	-12.079424	95.995774
6.450000	-11.431531	91.219942	-0.944847	6.597516	-0.944847	6.597516	-11.449933	91.997505
6.500000	-10.814700	87.320864	-1.009908	2.562867	-1.009908	2.562867	-10.829878	88.005664
6.550000	-10.208358	83.368077	-1.085998	-1.531687	-1.085998	-1.531687	-10.221184	83.974065
6.600000	-9.613300	79.337977	-1.173974	-5.696471	-1.173974	-5.696471	-9.624347	79.875427
6.650000	-9.029563	75.214657	-1.275203	-9.940605	-1.275203	-9.940605	-9.039227	75.691368
6.700000	-8.456906	70.985854	-1.391494	-14.272544	-1.391494	-14.272544	-8.465473	71.407895
6.750000	-7.895080	66.641048	-1.525103	-18.700330	-1.525103	-18.700330	-7.902763	67.013241
6.800000	-7.343984	62.170557	-1.678775	-23.231643	-1.678775	-23.231643	-7.350945	62.496804
6.850000	-6.803763	57.565151	-1.855808	-27.873713	-1.855808	-27.873713	-6.810130	57.848653
6.900000	-6.274666	52.814294	-2.060440	-32.634436	-2.060440	-32.634436	-6.280542	53.057741
6.950000	-5.757610	47.909309	-2.297510	-37.519461	-2.297510	-37.519461	-5.763077	48.114956
7.000000	-5.254278	42.846398	-2.571951	-42.529560	-2.571951	-42.529560	-5.259405	43.016122
7.050000	-4.765989	37.615630	-2.891134	-47.668965	-2.891134	-47.668965	-4.770834	37.751081
7.100000	-4.294994	32.213548	-3.262827	-52.934770	-3.262827	-52.934770	-4.299606	32.316146
7.150000	-3.843821	26.637767	-3.696604	-58.320467	-3.696604	-58.320467	-3.848243	26.708753
7.200000	-3.415388	20.888532	-4.204114	-63.813452	-4.204114	-63.813452	-3.419656	20.929003
7.250000	-3.013002	14.969593	-4.799637	-69.392301	-4.799637	-69.392301	-3.017147	14.980527
7.300000	-2.640025	8.891589	-5.499882	-75.022462	-5.499882	-75.022462	-2.644075	8.873852
7.350000	-2.299812	2.668774	-6.326290	-80.653569	-6.326290	-80.653569	-2.303792	2.623144
7.400000	-1.995512	-3.679375	-7.306580	-86.210631	-7.306580	-86.210631	-1.999443	-3.752195
7.450000	-1.729843	-10.128380	-8.478092	-91.579481	-8.478092	-91.579481	-1.733745	-10.227754
7.500000	-1.504880	-16.649463	-9.893834	-96.577016	-9.893834	-96.577016	-1.508770	-16.774811
7.550000	-1.322305	-23.210758	-11.634096	-100.868826	-11.634096	-100.868826	-1.326197	-23.361547
7.600000	-1.182005	-29.777947	-13.827493	-103.802522	-13.827493	-103.802522	-1.185913	-29.953697
7.650000	-1.083246	-36.317756	-16.694265	-103.798748	-16.694265	-103.798748	-1.087181	-36.518029
7.700000	-1.024358	-42.798886	-20.556958	-96.073526	-20.556958	-96.073526	-1.028330	-43.023283
7.750000	-1.002862	-49.193493	-24.677424	-65.681963	-24.677424	-65.681963	-1.006880	-49.441651
7.800000	-1.015658	-55.478270	-23.291756	-19.638760	-23.291756	-19.638760	-1.019728	-55.749864
7.850000	-1.059446	-61.633902	-19.222082	-1.990350	-19.222082	-1.990350	-1.063575	-61.928636
7.900000	-1.130285	-67.648130	-16.143266	1.709370	-16.143266	1.709370	-1.134476	-67.965742
7.950000	-1.224365	-73.513602	-13.896958	0.802002	-13.896958	0.802002	-1.228622	-73.853866
8.000000	-1.338108	-79.227069	-12.188082	-1.958018	-12.188082	-1.958018	-1.342433	-79.589788
8.050000	-1.468273	-84.787829	-10.840903	-5.577285	-10.840903	-5.577285	-1.472667	-85.172835
8.100000	-1.611620	-90.202590	-9.748160	-9.614953	-9.748160	-9.614953	-1.616083	-90.609748
8.150000	-1.765736	-95.473552	-8.845165	-13.866048	-8.845165	-13.866048	-1.770268	-95.902754
8.200000	-1.928243	-100.608357	-8.086995	-18.213507	-8.086995	-18.213507	-1.932841	-101.059523
8.250000	-2.097122	-105.617018	-7.441653	-22.592626	-7.441653	-22.592626	-2.101784	-106.090095
8.300000	-2.270756	-110.508581	-6.886499	-26.967179	-6.886499	-26.967179	-2.275478	-111.003546
8.350000	-2.447771	-115.289497	-6.405673	-31.315119	-6.405673	-31.315119	-2.452548	-115.806350
8.400000	-2.627240	-119.978931	-5.982550	-35.628806	-5.982550	-35.628806	-2.632068	-120.517695
8.450000	-2.807981	-124.571583	-5.612299	-39.895945	-5.612299	-39.895945	-2.812850	-125.132309
8.500000	-2.989635	-129.087869	-5.282732	-44.120185	-5.282732	-44.120185	-2.994539	-129.670624
8.550000	-3.171405	-133.530156	-4.989543	-48.298160	-4.989543	-48.298160	-3.176333	-134.135031
8.600000	-3.352926	-137.907701	-4.727035	-52.432300	-4.727035	-52.432300	-3.357867	-138.534804
8.650000	-3.534026	-142.230262	-4.490191	-56.526707	-4.490191	-56.526707	-3.538967	-142.879715
8.700000	-3.714001	-146.499722	-4.277207	-60.580616	-4.277207	-60.580616	-3.718925	-147.171671
8.750000	-3.893366	-150.729697	-4.082725	-64.602904	-4.082725	-64.602904	-3.898258	-151.424277
8.800000	-4.070916	-154.917912	-3.907293	-68.590132	-3.907293	-68.590132	-4.075753	-155.635303
8.850000	-4.247545	-159.077568	-3.746095	-72.552177	-3.746095	-72.552177	-4.252307	-159.817920
8.900000	-4.422342	-163.209363	-3.599227	-76.488350	-3.599227	-76.488350	-4.427003	-163.972851
8.950000	-4.595657	-167.320579	-3.464214	-80.404200	-3.464214	-80.404200	-4.600189	-168.107361
9.000000	-4.767149	-171.415063	-3.340202	-84.302147	-3.340202	-84.302147	-4.771521	-172.225294
9.050000	-4.936550	-175.496850	-3.226303	-88.184935	-3.226303	-88.184935	-4.940728	-176.330673
9.100000	-5.104096	-179.570734	-3.121020	-92.056468	-3.121020	-92.056468	-5.108044	179.571740
9.150000	-5.268829	176.360336	-3.024580	-95.918112	-3.024580	-95.918112	-5.272506	175.479015
9.200000	-5.431485	172.292352	-2.935144	-99.773826	-2.935144	-99.773826	-5.434850	171.387194
9.250000	-5.590660	168.221846	-2.853392	-103.625085	-2.853392	-103.625085	-5.593666	167.292860
9.300000	-5.747066	164.146323	-2.777793	-107.474776	-2.777793	-107.474776	-5.749669	163.193582
9.350000	-5.899626	160.062164	-2.708615	-111.325009	-2.708615	-111.325009	-5.901777	159.085835
9.400000	-6.048300	155.967231	-2.645193	-115.177816	-2.645193	-115.177816	-6.049949	154.967573
9.450000	-6.192544	151.858835	-2.587300	-119.035315	-2.587300	-119.035315	-6.193644	150.836237
9.500000	-6.331643	147.734252	-2.534837	-122.899642	-2.534837	-122.899642	-6.332143	146.689265
9.550000	-6.465277	143.591826	-2.487428	-126.772568	-2.487428	-126.772568	-6.465130	142.525167
9.600000	-6.592864	139.429684	-2.444900	-130.655979	-2.444900	-130.655979	-6.592027	138.342272
9.650000	-6.713788	135.246142	-2.407106	-134.551766	-2.407106	-134.551766	-6.712218	134.139136
9.700000	-6.827401	131.039711	-2.373930	-138.461852	-2.373930	-138.461852	-6.825060	129.914542
9.750000	-6.933028	126.809091	-2.345282	-142.388221	-2.345282	-142.388221	-6.929881	125.667505
9.800000	-7.029977	122.553173	-2.321101	-146.332936	-2.321101	-146.332936	-7.025993	121.397271
9.850000	-7.117549	118.271029	-2.301355	-150.298174	-2.301355	-150.298174	-7.112700	117.103311
9.900000	-7.195047	113.961899	-2.286045	-154.286244	-2.286045	-154.286244	-7.189305	112.785314
9.950000	-7.261789	109.625172	-2.275209	-158.299614	-2.275209	-158.299614	-7.255126	108.443162
10.000000	-7.317126	105.260357	-2.268931	-162.340927	-2.268931	-162.340927	-7.309507	104.076909
