! freq	dB(S11)	phase(S11)	dB(S12)	phase(S12)	
!     	dB(S21)	phase(S21)	dB(S22)	phase(S22)	
!S-par simulation data
#  GHz  S  DB  R 50
0.000000	-0.000000	-0.000000	-367.789821	180.000000	-367.789821	180.000000	-0.000000	-0.000000
0.050000	-0.000117	-1.066472	-110.905467	77.217924	-110.905467	77.217924	-0.000099	-0.766686
0.100000	-0.000467	-2.132669	-106.278651	72.897091	-106.278651	72.897091	-0.000393	-1.533128
0.150000	-0.001036	-3.198330	-103.757525	72.775844	-103.757525	72.775844	-0.000869	-2.299104
0.200000	-0.001809	-4.263229	-101.927546	73.649927	-101.927546	73.649927	-0.001506	-3.064432
0.250000	-0.002777	-5.327093	-100.484852	74.542510	-100.484852	74.542510	-0.002290	-3.828911
0.300000	-0.003900	-6.389841	-99.313497	75.263822	-99.313497	75.263822	-0.003184	-4.592512
0.350000	-0.005161	-7.451295	-98.359444	75.825691	-98.359444	75.825691	-0.004170	-5.355137
0.400000	-0.006536	-8.511347	-97.587640	76.289304	-97.587640	76.289304	-0.005224	-6.116757
0.450000	-0.008003	-9.569922	-96.974945	76.725779	-96.974945	76.725779	-0.006325	-6.877371
0.500000	-0.009538	-10.626969	-96.505958	77.207652	-96.505958	77.207652	-0.007458	-7.636998
0.550000	-0.011122	-11.682461	-96.170825	77.811211	-96.170825	77.811211	-0.008607	-8.395669
0.600000	-0.012738	-12.736384	-95.963887	78.622688	-95.963887	78.622688	-0.009762	-9.153423
0.650000	-0.014371	-13.788740	-95.882666	79.747105	-95.882666	79.747105	-0.010915	-9.910302
0.700000	-0.016010	-14.839536	-95.926818	81.320504	-95.926818	81.320504	-0.012059	-10.666343
0.750000	-0.017644	-15.888782	-96.096522	83.527190	-96.096522	83.527190	-0.013191	-11.421583
0.800000	-0.019267	-16.936491	-96.389314	86.623397	-96.389314	86.623397	-0.014308	-12.176051
0.850000	-0.020872	-17.982673	-96.793382	90.965426	-96.793382	90.965426	-0.015411	-12.929772
0.900000	-0.022457	-19.027337	-97.273843	97.026066	-97.273843	97.026066	-0.016497	-13.682763
0.950000	-0.024019	-20.070488	-97.748233	105.342876	-97.748233	105.342876	-0.017569	-14.435038
1.000000	-0.025556	-21.112125	-98.057461	116.278270	-98.057461	116.278270	-0.018625	-15.186605
1.050000	-0.027068	-22.152245	-97.973796	129.511436	-97.973796	129.511436	-0.019669	-15.937466
1.100000	-0.028556	-23.190840	-97.313471	143.598027	-97.313471	143.598027	-0.020700	-16.687621
1.150000	-0.030020	-24.227896	-96.095982	156.474840	-96.095982	156.474840	-0.021720	-17.437067
1.200000	-0.031462	-25.263399	-94.527643	166.801320	-94.527643	166.801320	-0.022731	-18.185796
1.250000	-0.032882	-26.297328	-92.829072	174.434128	-92.829072	174.434128	-0.023732	-18.933800
1.300000	-0.034282	-27.329590	-91.127949	179.782196	-91.127949	179.782196	-0.024726	-19.681035
1.350000	-0.035663	-28.360229	-89.503070	-176.481325	-89.503070	-176.481325	-0.025713	-20.427520
1.400000	-0.037029	-29.389216	-87.973958	-173.919189	-87.973958	-173.919189	-0.026694	-21.173243
1.450000	-0.038380	-30.416523	-86.541944	-172.215384	-86.541944	-172.215384	-0.027670	-21.918189
1.500000	-0.039718	-31.442119	-85.201090	-171.147230	-85.201090	-171.147230	-0.028643	-22.662342
1.550000	-0.041045	-32.465973	-83.943146	-170.557894	-83.943146	-170.557894	-0.029612	-23.405688
1.600000	-0.042362	-33.488051	-82.759648	-170.335737	-82.759648	-170.335737	-0.030578	-24.148210
1.650000	-0.043670	-34.508323	-81.642742	-170.400060	-81.642742	-170.400060	-0.031542	-24.889893
1.700000	-0.044971	-35.526754	-80.585440	-170.691526	-80.585440	-170.691526	-0.032505	-25.630721
1.750000	-0.046266	-36.543311	-79.581634	-171.165762	-79.581634	-171.165762	-0.033466	-26.370677
1.800000	-0.047557	-37.557963	-78.626030	-171.789038	-78.626030	-171.789038	-0.034426	-27.109745
1.850000	-0.048843	-38.570676	-77.714041	-172.535319	-77.714041	-172.535319	-0.035386	-27.847910
1.900000	-0.050127	-39.581418	-76.841692	-173.384225	-76.841692	-173.384225	-0.036347	-28.585155
1.950000	-0.051409	-40.590158	-76.005526	-174.319592	-76.005526	-174.319592	-0.037307	-29.321465
2.000000	-0.052690	-41.596865	-75.202523	-175.328444	-75.202523	-175.328444	-0.038268	-30.056824
2.050000	-0.053971	-42.601509	-74.430034	-176.400251	-74.430034	-176.400251	-0.039230	-30.791217
2.100000	-0.055253	-43.604060	-73.685726	-177.526376	-73.685726	-177.526376	-0.040193	-31.524628
2.150000	-0.056536	-44.604491	-72.967532	-178.699676	-72.967532	-178.699676	-0.041158	-32.257042
2.200000	-0.057821	-45.602773	-72.273616	-179.914186	-72.273616	-179.914186	-0.042125	-32.988446
2.250000	-0.059108	-46.598881	-71.602338	178.835116	-71.602338	178.835116	-0.043094	-33.718823
2.300000	-0.060398	-47.592788	-70.952226	177.552482	-70.952226	177.552482	-0.044066	-34.448160
2.350000	-0.061692	-48.584470	-70.321958	176.241545	-70.321958	176.241545	-0.045040	-35.176443
2.400000	-0.062991	-49.573905	-69.710337	174.905424	-69.710337	174.905424	-0.046017	-35.903657
2.450000	-0.064294	-50.561068	-69.116278	173.546817	-69.116278	173.546817	-0.046998	-36.629791
2.500000	-0.065602	-51.545940	-68.538795	172.168064	-68.538795	172.168064	-0.047983	-37.354829
2.550000	-0.066915	-52.528399	-67.976094	170.770510	-67.976094	170.770510	-0.048972	-38.078711
2.600000	-0.068235	-53.508524	-67.428336	169.356797	-67.428336	169.356797	-0.049965	-38.801470
2.650000	-0.069562	-54.486300	-66.894754	167.928482	-66.894754	167.928482	-0.050963	-39.523096
2.700000	-0.070895	-55.461709	-66.374643	166.486949	-66.374643	166.486949	-0.051966	-40.243575
2.750000	-0.072236	-56.434735	-65.867354	165.033428	-65.867354	165.033428	-0.052974	-40.962896
2.800000	-0.073585	-57.405364	-65.372284	163.569022	-65.372284	163.569022	-0.053988	-41.681047
2.850000	-0.074942	-58.373584	-64.888878	162.094715	-64.888878	162.094715	-0.055007	-42.398016
2.900000	-0.076307	-59.339381	-64.416617	160.611398	-64.416617	160.611398	-0.056033	-43.113793
2.950000	-0.077682	-60.302744	-63.955021	159.119870	-63.955021	159.119870	-0.057066	-43.828367
3.000000	-0.079066	-61.263664	-63.503641	157.620859	-63.503641	157.620859	-0.058106	-44.541727
3.050000	-0.080460	-62.222132	-63.062056	156.115023	-63.062056	156.115023	-0.059153	-45.253864
3.100000	-0.081865	-63.178139	-62.629876	154.602961	-62.629876	154.602961	-0.060208	-45.964767
3.150000	-0.083280	-64.131680	-62.206732	153.085221	-62.206732	153.085221	-0.061270	-46.674426
3.200000	-0.084707	-65.082748	-61.792279	151.562304	-61.792279	151.562304	-0.062341	-47.382833
3.250000	-0.086146	-66.031338	-61.386191	150.034669	-61.386191	150.034669	-0.063421	-48.089978
3.300000	-0.087596	-66.977447	-60.988164	148.502736	-60.988164	148.502736	-0.064510	-48.795852
3.350000	-0.089060	-67.921072	-60.597908	146.966895	-60.597908	146.966895	-0.065608	-49.500448
3.400000	-0.090536	-68.862212	-60.215150	145.427503	-60.215150	145.427503	-0.066716	-50.203757
3.450000	-0.092026	-69.800865	-59.839634	143.884890	-59.839634	143.884890	-0.067835	-50.905771
3.500000	-0.093531	-70.737032	-59.471115	142.339364	-59.471115	142.339364	-0.068964	-51.606483
3.550000	-0.095049	-71.670715	-59.109361	140.791207	-59.109361	140.791207	-0.070103	-52.305886
3.600000	-0.096583	-72.601915	-58.754154	139.240682	-58.754154	139.240682	-0.071254	-53.003972
3.650000	-0.098133	-73.530636	-58.405285	137.688036	-58.405285	137.688036	-0.072417	-53.700735
3.700000	-0.099698	-74.456881	-58.062555	136.133494	-58.062555	136.133494	-0.073591	-54.396170
3.750000	-0.101280	-75.380656	-57.725775	134.577270	-57.725775	134.577270	-0.074778	-55.090269
3.800000	-0.102880	-76.301859	-57.394471	133.019505	-57.394471	133.019505	-0.075979	-55.782970
3.850000	-0.104498	-77.220605	-57.068787	131.460457	-57.068787	131.460457	-0.077192	-56.474324
3.900000	-0.106133	-78.136902	-56.748558	129.900296	-56.748558	129.900296	-0.078419	-57.164326
3.950000	-0.107788	-79.050757	-56.433627	128.339182	-56.433627	128.339182	-0.079660	-57.852973
4.000000	-0.109461	-79.962181	-56.123843	126.777266	-56.123843	126.777266	-0.080915	-58.540260
4.050000	-0.111154	-80.871184	-55.819061	125.214688	-55.819061	125.214688	-0.082184	-59.226182
4.100000	-0.112868	-81.777776	-55.519143	123.651581	-55.519143	123.651581	-0.083469	-59.910736
4.150000	-0.114602	-82.681969	-55.223956	122.088068	-55.223956	122.088068	-0.084769	-60.593919
4.200000	-0.116357	-83.583776	-54.933374	120.524266	-54.933374	120.524266	-0.086085	-61.275727
4.250000	-0.118135	-84.483211	-54.647275	118.960284	-54.647275	118.960284	-0.087417	-61.956159
4.300000	-0.119934	-85.380287	-54.365542	117.396226	-54.365542	117.396226	-0.088766	-62.635210
4.350000	-0.121756	-86.275020	-54.088062	115.832187	-54.088062	115.832187	-0.090132	-63.312880
4.400000	-0.123602	-87.167424	-53.814728	114.268259	-53.814728	114.268259	-0.091514	-63.989166
4.450000	-0.125472	-88.057517	-53.545435	112.704527	-53.545435	112.704527	-0.092915	-64.664067
4.500000	-0.127365	-88.945315	-53.280085	111.141073	-53.280085	111.141073	-0.094334	-65.337582
4.550000	-0.129284	-89.830836	-53.018580	109.577973	-53.018580	109.577973	-0.095771	-66.009709
4.600000	-0.131228	-90.714098	-52.760828	108.015297	-52.760828	108.015297	-0.097227	-66.680449
4.650000	-0.133198	-91.595121	-52.506740	106.453114	-52.506740	106.453114	-0.098702	-67.349800
4.700000	-0.135195	-92.473924	-52.256230	104.891487	-52.256230	104.891487	-0.100197	-68.017763
4.750000	-0.137218	-93.350528	-52.009214	103.330477	-52.009214	103.330477	-0.101711	-68.684337
4.800000	-0.139269	-94.224954	-51.765614	101.770140	-51.765614	101.770140	-0.103247	-69.349524
4.850000	-0.141348	-95.097223	-51.525350	100.210529	-51.525350	100.210529	-0.104803	-70.013325
4.900000	-0.143455	-95.967358	-51.288350	98.651697	-51.288350	98.651697	-0.106380	-70.675740
4.950000	-0.145590	-96.835381	-51.054540	97.093689	-51.054540	97.093689	-0.107979	-71.336771
5.000000	-0.147756	-97.701317	-50.823851	95.536552	-50.823851	95.536552	-0.109599	-71.996419
5.050000	-0.149952	-98.565101	-50.596089	93.980370	-50.596089	93.980370	-0.111243	-72.654627
5.100000	-0.152178	-99.426848	-50.371324	92.425145	-50.371324	92.425145	-0.112910	-73.311457
5.150000	-0.154436	-100.286583	-50.149492	90.870915	-50.149492	90.870915	-0.114600	-73.966911
5.200000	-0.156724	-101.144334	-49.930532	89.317717	-49.930532	89.317717	-0.116313	-74.620993
5.250000	-0.159044	-102.000125	-49.714384	87.765584	-49.714384	87.765584	-0.118051	-75.273706
5.300000	-0.161396	-102.853985	-49.500990	86.214548	-49.500990	86.214548	-0.119813	-75.925052
5.350000	-0.163781	-103.705940	-49.290296	84.664641	-49.290296	84.664641	-0.121599	-76.575036
5.400000	-0.166198	-104.556020	-49.082247	83.115893	-49.082247	83.115893	-0.123411	-77.223661
5.450000	-0.168661	-105.403623	-48.876008	81.568755	-48.876008	81.568755	-0.125257	-77.870463
5.500000	-0.171141	-106.250272	-48.673399	80.022245	-48.673399	80.022245	-0.127117	-78.516560
5.550000	-0.173663	-107.094758	-48.472813	78.477254	-48.472813	78.477254	-0.129008	-79.161021
5.600000	-0.176215	-107.937700	-48.274943	76.933348	-48.274943	76.933348	-0.130923	-79.804314
5.650000	-0.178804	-108.778855	-48.079389	75.390794	-48.079389	75.390794	-0.132867	-80.446216
5.700000	-0.181429	-109.618223	-47.886095	73.849593	-47.886095	73.849593	-0.134839	-81.086728
5.750000	-0.184085	-110.456160	-47.695372	72.309558	-47.695372	72.309558	-0.136835	-81.726092
5.800000	-0.186786	-111.292093	-47.506502	70.771155	-47.506502	70.771155	-0.138865	-82.363848
5.850000	-0.189512	-112.126927	-47.320421	69.233713	-47.320421	69.233713	-0.140916	-83.000693
5.900000	-0.192288	-112.959567	-47.135831	67.698193	-47.135831	67.698193	-0.143007	-83.635719
5.950000	-0.195085	-113.791419	-46.954214	66.163414	-46.954214	66.163414	-0.145114	-84.270070
6.000000	-0.197940	-114.620912	-46.773767	64.630858	-46.773767	64.630858	-0.147267	-84.902395
6.050000	-0.200808	-115.449905	-46.596448	63.098807	-46.596448	63.098807	-0.149430	-85.534276
6.100000	-0.203743	-116.276401	-46.420013	61.569288	-46.420013	61.569288	-0.151647	-86.163931
6.150000	-0.206685	-117.102661	-46.246836	60.040027	-46.246836	60.040027	-0.153870	-86.793367
6.200000	-0.209700	-117.926315	-46.074290	58.513615	-46.074290	58.513615	-0.156152	-87.420386
6.250000	-0.212716	-118.749970	-45.905105	56.987203	-45.905105	56.987203	-0.158435	-88.047404
6.300000	-0.215814	-119.570942	-45.736331	55.463966	-45.736331	55.463966	-0.160784	-88.671821
6.350000	-0.218913	-120.391913	-45.570775	53.940728	-45.570775	53.940728	-0.163134	-89.296238
6.400000	-0.222087	-121.210574	-45.405887	52.420459	-45.405887	52.420459	-0.165547	-89.918303
6.450000	-0.225270	-122.029025	-45.243854	50.900459	-45.243854	50.900459	-0.167966	-90.540155
6.500000	-0.228522	-122.845513	-45.082718	49.383209	-45.082718	49.383209	-0.170443	-91.159902
6.550000	-0.231789	-123.661610	-44.924110	47.866509	-44.924110	47.866509	-0.172933	-91.779227
6.600000	-0.235121	-124.476067	-44.766599	46.352328	-44.766599	46.352328	-0.175476	-92.396688
6.650000	-0.238474	-125.289978	-44.611322	44.838988	-44.611322	44.838988	-0.178038	-93.013527
6.700000	-0.241886	-126.102548	-44.457316	43.327925	-44.457316	43.327925	-0.180649	-93.628737
6.750000	-0.245326	-126.914448	-44.305278	41.818001	-44.305278	41.818001	-0.183285	-94.243132
6.800000	-0.248819	-127.725277	-44.154664	40.310104	-44.154664	40.310104	-0.185964	-94.856128
6.850000	-0.252348	-128.535342	-44.005780	38.803654	-44.005780	38.803654	-0.188676	-95.468123
6.900000	-0.255922	-129.344580	-43.858449	37.298969	-43.858449	37.298969	-0.191426	-96.078942
6.950000	-0.259541	-130.152991	-43.712635	35.796047	-43.712635	35.796047	-0.194214	-96.688583
7.000000	-0.263197	-130.960789	-43.568485	34.294619	-43.568485	34.294619	-0.197036	-97.297262
7.050000	-0.266907	-131.767730	-43.425664	32.795280	-43.425664	32.795280	-0.199903	-97.904596
7.100000	-0.270647	-132.574244	-43.284597	31.297152	-43.284597	31.297152	-0.202798	-98.511177
7.150000	-0.274448	-133.379902	-43.144691	29.801448	-43.144691	29.801448	-0.205746	-99.116253
7.200000	-0.278273	-134.185288	-43.006614	28.306664	-43.006614	28.306664	-0.208715	-99.720776
7.250000	-0.282166	-134.989854	-42.869550	26.814645	-42.869550	26.814645	-0.211745	-100.323644
7.300000	-0.286076	-135.794272	-42.734375	25.323247	-42.734375	25.323247	-0.214789	-100.926152
7.350000	-0.290063	-136.597941	-42.600084	23.834962	-42.600084	23.834962	-0.217903	-101.526863
7.400000	-0.294059	-137.401553	-42.467726	22.346991	-42.467726	22.346991	-0.221024	-102.127399
7.450000	-0.298140	-138.204523	-42.336140	20.862485	-42.336140	20.862485	-0.224223	-102.726007
7.500000	-0.302223	-139.007494	-42.206517	19.377979	-42.206517	19.377979	-0.227423	-103.324615
7.550000	-0.306399	-139.809966	-42.077571	17.897298	-42.077571	17.897298	-0.230708	-103.921175
7.600000	-0.310577	-140.612438	-41.950510	16.416616	-41.950510	16.416616	-0.233995	-104.517735
7.650000	-0.314842	-141.414642	-41.824237	14.939479	-41.824237	14.939479	-0.237361	-105.112469
7.700000	-0.319116	-142.216821	-41.699679	13.462663	-41.699679	13.462663	-0.240735	-105.707037
7.750000	-0.323469	-143.018929	-41.576004	11.989100	-41.576004	11.989100	-0.244184	-106.299993
7.800000	-0.327840	-143.821023	-41.453891	10.516188	-41.453891	10.516188	-0.247648	-106.892627
7.850000	-0.332283	-144.623212	-41.332742	9.046229	-41.332742	9.046229	-0.251179	-107.483855
7.900000	-0.336752	-145.425433	-41.213018	7.577255	-41.213018	7.577255	-0.254735	-108.074613
7.950000	-0.341285	-146.227881	-41.094325	6.110927	-41.094325	6.110927	-0.258351	-108.664162
8.000000	-0.345852	-147.030444	-40.976938	4.645921	-40.976938	4.645921	-0.261998	-109.253106
8.050000	-0.350477	-147.833332	-40.860635	3.183246	-40.860635	3.183246	-0.265700	-109.841027
8.100000	-0.355143	-148.636455	-40.745531	1.722235	-40.745531	1.722235	-0.269441	-110.428218
8.150000	-0.359859	-149.439968	-40.631555	0.263231	-40.631555	0.263231	-0.273230	-111.014564
8.200000	-0.364624	-150.243873	-40.518684	-1.193764	-40.518684	-1.193764	-0.277066	-111.600065
8.250000	-0.369432	-151.048197	-40.406974	-2.649080	-40.406974	-2.649080	-0.280942	-112.184889
8.300000	-0.374298	-151.853110	-40.296287	-4.102045	-40.296287	-4.102045	-0.284874	-112.768765
8.350000	-0.379199	-152.658434	-40.186784	-5.553663	-40.186784	-5.553663	-0.288839	-113.352121
8.400000	-0.384166	-153.464584	-40.078234	-7.002586	-40.078234	-7.002586	-0.292869	-113.934437
8.450000	-0.389159	-154.271100	-39.970882	-8.450499	-39.970882	-8.450499	-0.296924	-114.516380
8.500000	-0.394228	-155.078719	-39.864423	-9.895378	-39.864423	-9.895378	-0.301052	-115.097204
8.550000	-0.399315	-155.886622	-39.759169	-11.339583	-39.759169	-11.339583	-0.305197	-115.677791
8.600000	-0.404486	-156.695947	-39.654757	-12.780420	-39.654757	-12.780420	-0.309425	-116.257192
8.650000	-0.409667	-157.505434	-39.551548	-14.220921	-39.551548	-14.220921	-0.313662	-116.836479
8.700000	-0.414940	-158.316704	-39.449142	-15.657725	-39.449142	-15.657725	-0.317990	-117.414526
8.750000	-0.420216	-159.127975	-39.347929	-17.094529	-39.347929	-17.094529	-0.322320	-117.992573
8.800000	-0.425592	-159.941434	-39.247487	-18.527317	-39.247487	-18.527317	-0.326750	-118.569337
8.850000	-0.430972	-160.754893	-39.148193	-19.960105	-39.148193	-19.960105	-0.331181	-119.146101
8.900000	-0.436443	-161.570586	-39.049706	-21.389233	-39.049706	-21.389233	-0.335705	-119.721757
8.950000	-0.441926	-162.386482	-38.952295	-22.818028	-38.952295	-22.818028	-0.340239	-120.297311
9.000000	-0.447493	-163.204617	-38.855717	-24.243522	-38.855717	-24.243522	-0.344857	-120.871920
9.050000	-0.453079	-164.023199	-38.760152	-25.668355	-38.760152	-25.668355	-0.349495	-121.446338
9.100000	-0.458742	-164.843988	-38.665440	-27.090246	-38.665440	-27.090246	-0.354209	-122.019962
9.150000	-0.464433	-165.665512	-38.571688	-28.511155	-38.571688	-28.511155	-0.358950	-122.593321
9.200000	-0.470192	-166.489168	-38.478802	-29.929480	-38.478802	-29.929480	-0.363760	-123.166024
9.250000	-0.475987	-167.313891	-38.386831	-31.346511	-38.386831	-31.346511	-0.368606	-123.738399
9.300000	-0.481843	-168.140633	-38.295731	-32.761312	-38.295731	-32.761312	-0.373513	-124.310247
9.350000	-0.487743	-168.968817	-38.205511	-34.174518	-38.205511	-34.174518	-0.378464	-124.881717
9.400000	-0.493695	-169.798864	-38.116161	-35.585842	-38.116161	-35.585842	-0.383467	-125.452775
9.450000	-0.499699	-170.630774	-38.027664	-36.995282	-38.027664	-36.995282	-0.388524	-126.023421
9.500000	-0.505748	-171.464348	-37.940029	-38.403182	-37.940029	-38.403182	-0.393625	-126.593756
9.550000	-0.511857	-172.300253	-37.853229	-39.808924	-37.853229	-39.808924	-0.398788	-127.163658
9.600000	-0.517995	-173.137213	-37.767279	-41.213756	-37.767279	-41.213756	-0.403979	-127.733391
9.650000	-0.524199	-173.976926	-37.682152	-42.616245	-37.682152	-42.616245	-0.409237	-128.302697
9.700000	-0.530453	-174.818766	-37.597851	-44.017021	-37.597851	-44.017021	-0.414547	-128.871711
9.750000	-0.536757	-175.662797	-37.514369	-45.416101	-37.514369	-45.416101	-0.419908	-129.440454
9.800000	-0.543112	-176.509083	-37.431702	-46.813505	-37.431702	-46.813505	-0.425320	-130.008945
9.850000	-0.549517	-177.357688	-37.349843	-48.209252	-37.349843	-48.209252	-0.430783	-130.577204
9.900000	-0.555971	-178.208677	-37.268787	-49.603363	-37.268787	-49.603363	-0.436298	-131.145250
9.950000	-0.562476	-179.062114	-37.188529	-50.995859	-37.188529	-50.995859	-0.441864	-131.713105
10.000000	-0.569031	-179.918064	-37.109066	-52.386760	-37.109066	-52.386760	-0.447481	-132.280789
