! freq	dB(S11)	phase(S11)	dB(S12)	phase(S12)	
!     	dB(S21)	phase(S21)	dB(S22)	phase(S22)	
!S-par simulation data
#  GHz  S  DB  R 50
0.000000	0.000000	0.000000	-327.338996	180.000000	-327.338996	180.000000	-0.000000	0.000000
0.050000	-0.002220	-3.268939	-95.037437	88.148496	-95.037437	88.148496	-0.000451	-0.772510
0.100000	-0.007338	-6.519571	-89.041630	86.117251	-89.041630	86.117251	-0.001592	-1.542282
0.150000	-0.012995	-9.750265	-85.561342	84.135546	-85.561342	84.135546	-0.003019	-2.308597
0.200000	-0.018164	-12.967411	-83.119515	82.176559	-83.119515	82.176559	-0.004444	-3.072324
0.250000	-0.022730	-16.175344	-81.255195	80.239141	-81.255195	80.239141	-0.005745	-3.834472
0.300000	-0.026876	-19.375938	-79.763073	78.326258	-79.763073	78.326258	-0.006900	-4.595813
0.350000	-0.030797	-22.569612	-78.531801	76.441094	-78.531801	76.441094	-0.007937	-5.356774
0.400000	-0.034612	-25.755705	-77.496366	74.588494	-77.496366	74.588494	-0.008884	-6.117512
0.450000	-0.038388	-28.932856	-76.616940	72.775687	-76.616940	72.775687	-0.009768	-6.878055
0.500000	-0.042162	-32.100446	-75.862465	71.006743	-75.862465	71.006743	-0.010612	-7.638390
0.550000	-0.045941	-35.257456	-75.212743	69.288057	-75.212743	69.288057	-0.011435	-8.398471
0.600000	-0.049724	-38.402314	-74.655270	67.629818	-74.655270	67.629818	-0.012247	-9.158227
0.650000	-0.053501	-41.534475	-74.177179	66.038396	-74.177179	66.038396	-0.013059	-9.917612
0.700000	-0.057258	-44.653216	-73.769505	64.522233	-73.769505	64.522233	-0.013875	-10.676577
0.750000	-0.060983	-47.757298	-73.427138	63.094568	-73.427138	63.094568	-0.014702	-11.435059
0.800000	-0.064661	-50.846006	-73.144735	61.767860	-73.144735	61.767860	-0.015541	-12.193013
0.850000	-0.068282	-53.918861	-72.917557	60.555288	-72.917557	60.555288	-0.016395	-12.950403
0.900000	-0.071835	-56.975320	-72.742123	59.473045	-72.742123	59.473045	-0.017265	-13.707192
0.950000	-0.075314	-60.014802	-72.615820	58.540860	-72.615820	58.540860	-0.018149	-14.463344
1.000000	-0.078712	-63.036853	-72.536214	57.781338	-72.536214	57.781338	-0.019049	-15.218824
1.050000	-0.082024	-66.041081	-72.501037	57.220984	-72.501037	57.220984	-0.019964	-15.973604
1.100000	-0.085248	-69.027159	-72.507969	56.890876	-72.507969	56.890876	-0.020893	-16.727654
1.150000	-0.088382	-71.994816	-72.554375	56.827335	-72.554375	56.827335	-0.021834	-17.480950
1.200000	-0.091428	-74.943837	-72.636967	57.072495	-72.636967	57.072495	-0.022788	-18.233465
1.250000	-0.094385	-77.874061	-72.751359	57.674551	-72.751359	57.674551	-0.023752	-18.985178
1.300000	-0.097254	-80.784965	-72.891806	58.697576	-72.891806	58.697576	-0.024725	-19.736049
1.350000	-0.100040	-83.676897	-73.049002	60.191560	-73.049002	60.191560	-0.025707	-20.486075
1.400000	-0.102747	-86.549843	-73.211048	62.213384	-73.211048	62.213384	-0.026695	-21.235237
1.450000	-0.105377	-89.403832	-73.362016	64.811142	-73.362016	64.811142	-0.027690	-21.983518
1.500000	-0.107936	-92.238934	-73.481568	68.011725	-73.481568	68.011725	-0.028688	-22.730901
1.550000	-0.110427	-95.055257	-73.545508	71.804448	-73.545508	71.804448	-0.029691	-23.477370
1.600000	-0.112856	-97.852943	-73.527864	76.124106	-73.527864	76.124106	-0.030696	-24.222910
1.650000	-0.115226	-100.632172	-73.404774	80.840709	-73.404774	80.840709	-0.031703	-24.967506
1.700000	-0.117544	-103.393153	-73.159464	85.764681	-73.159464	85.764681	-0.032711	-25.711144
1.750000	-0.119812	-106.136125	-72.786495	90.671898	-72.786495	90.671898	-0.033719	-26.453813
1.800000	-0.122036	-108.861356	-72.293175	95.342417	-72.293175	95.342417	-0.034727	-27.195497
1.850000	-0.124220	-111.569138	-71.697352	99.597699	-71.697352	99.597699	-0.035733	-27.936187
1.900000	-0.126367	-114.259605	-71.021564	103.315621	-71.021564	103.315621	-0.036739	-28.675858
1.950000	-0.128483	-116.933107	-70.291066	106.444721	-70.291066	106.444721	-0.037743	-29.414498
2.000000	-0.130571	-119.590190	-69.529407	108.993103	-69.529407	108.993103	-0.038745	-30.152108
2.050000	-0.132635	-122.231231	-68.754494	110.995253	-68.754494	110.995253	-0.039745	-30.888677
2.100000	-0.134676	-124.855305	-67.974737	112.465396	-67.974737	112.465396	-0.040742	-31.624100
2.150000	-0.136702	-127.465654	-67.210956	113.544170	-67.210956	113.544170	-0.041737	-32.358564
2.200000	-0.138713	-130.061174	-66.462911	114.240231	-66.462911	114.240231	-0.042731	-33.091956
2.250000	-0.140712	-132.642295	-65.734666	114.605896	-65.734666	114.605896	-0.043722	-33.824263
2.300000	-0.142702	-135.210039	-65.029952	114.697722	-65.029952	114.697722	-0.044712	-34.555526
2.350000	-0.144684	-137.763535	-64.346736	114.532814	-64.346736	114.532814	-0.045700	-35.285625
2.400000	-0.146661	-140.303990	-63.687325	114.160317	-63.687325	114.160317	-0.046687	-36.014610
2.450000	-0.148636	-142.831867	-63.051532	113.609627	-63.051532	113.609627	-0.047673	-36.742473
2.500000	-0.150609	-145.347631	-62.438833	112.905654	-62.438833	112.905654	-0.048659	-37.469201
2.550000	-0.152582	-147.851512	-61.848130	112.067031	-61.848130	112.067031	-0.049644	-38.194762
2.600000	-0.154557	-150.344245	-61.279035	111.114760	-61.279035	111.114760	-0.050630	-38.919169
2.650000	-0.156535	-152.826302	-60.730634	110.063851	-60.730634	110.063851	-0.051618	-39.642413
2.700000	-0.158518	-155.298158	-60.202003	108.927092	-60.202003	108.927092	-0.052606	-40.364485
2.750000	-0.160505	-157.760283	-59.692232	107.715414	-59.692232	107.715414	-0.053597	-41.085375
2.800000	-0.162497	-160.213148	-59.200437	106.438193	-59.200437	106.438193	-0.054591	-41.805073
2.850000	-0.164497	-162.657220	-58.725773	105.103501	-58.725773	105.103501	-0.055588	-42.523570
2.900000	-0.166503	-165.092962	-58.267441	103.718314	-58.267441	103.718314	-0.056589	-43.240858
2.950000	-0.168516	-167.520833	-57.824681	102.288687	-57.824681	102.288687	-0.057595	-43.956925
3.000000	-0.170538	-169.941289	-57.396785	100.819893	-57.396785	100.819893	-0.058606	-44.671764
3.050000	-0.172567	-172.354776	-56.983085	99.316545	-56.983085	99.316545	-0.059623	-45.385366
3.100000	-0.174604	-174.761737	-56.582957	97.782696	-56.582957	97.782696	-0.060647	-46.097721
3.150000	-0.176650	-177.162544	-56.195774	96.221661	-56.195774	96.221661	-0.061677	-46.808806
3.200000	-0.178703	-179.557641	-55.821010	94.636700	-55.821010	94.636700	-0.062716	-47.518613
3.250000	-0.180765	178.052490	-55.458206	93.030897	-55.458206	93.030897	-0.063764	-48.227148
3.300000	-0.182835	175.667437	-55.106885	91.406747	-55.106885	91.406747	-0.064821	-48.934400
3.350000	-0.184913	173.286801	-54.766605	89.766488	-54.766605	89.766488	-0.065887	-49.640363
3.400000	-0.186998	170.910190	-54.436948	88.112142	-54.436948	88.112142	-0.066964	-50.345028
3.450000	-0.189091	168.537223	-54.117528	86.445537	-54.117528	86.445537	-0.068053	-51.048388
3.500000	-0.191191	166.167530	-53.807982	84.768337	-53.807982	84.768337	-0.069152	-51.750434
3.550000	-0.193297	163.800856	-53.507940	83.081752	-53.507940	83.081752	-0.070265	-52.451101
3.600000	-0.195410	161.436603	-53.217165	81.387929	-53.217165	81.387929	-0.071390	-53.150512
3.650000	-0.197530	159.074585	-52.935303	79.687697	-52.935303	79.687697	-0.072528	-53.848588
3.700000	-0.199655	156.714475	-52.662077	77.982263	-52.662077	77.982263	-0.073680	-54.545322
3.750000	-0.201785	154.355958	-52.397224	76.272756	-52.397224	76.272756	-0.074847	-55.240708
3.800000	-0.203921	151.998775	-52.140525	74.560151	-52.140525	74.560151	-0.076029	-55.934680
3.850000	-0.206062	149.642568	-51.891745	72.845622	-51.891745	72.845622	-0.077227	-56.627290
3.900000	-0.208207	147.287061	-51.650666	71.130122	-51.650666	71.130122	-0.078441	-57.318534
3.950000	-0.210358	144.931989	-51.417081	69.414561	-51.417081	69.414561	-0.079671	-58.008405
4.000000	-0.212512	142.577102	-51.190795	67.699822	-51.190795	67.699822	-0.080918	-58.696899
4.050000	-0.214670	140.222162	-50.971624	65.986761	-50.971624	65.986761	-0.082182	-59.384010
4.100000	-0.216833	137.866942	-50.759393	64.276218	-50.759393	64.276218	-0.083464	-60.069735
4.150000	-0.218999	135.511229	-50.553936	62.569019	-50.553936	62.569019	-0.084764	-60.754068
4.200000	-0.221170	133.154824	-50.355096	60.865981	-50.355096	60.865981	-0.086083	-61.437006
4.250000	-0.223345	130.797536	-50.162720	59.167919	-50.162720	59.167919	-0.087420	-62.118546
4.300000	-0.225525	128.439192	-49.976665	57.475648	-49.976665	57.475648	-0.088777	-62.798683
4.350000	-0.227709	126.079625	-49.796790	55.789989	-49.796790	55.789989	-0.090153	-63.477416
4.400000	-0.229899	123.718685	-49.622961	54.111772	-49.622961	54.111772	-0.091549	-64.154742
4.450000	-0.232095	121.356230	-49.455048	52.441837	-49.455048	52.441837	-0.092965	-64.830658
4.500000	-0.234297	118.992131	-49.292921	50.781042	-49.292921	50.781042	-0.094401	-65.505162
4.550000	-0.236507	116.626269	-49.136456	49.130262	-49.136456	49.130262	-0.095858	-66.178254
4.600000	-0.238725	114.258533	-48.985528	47.490393	-48.985528	47.490393	-0.097336	-66.849931
4.650000	-0.240953	111.888825	-48.840012	45.862355	-48.840012	45.862355	-0.098835	-67.520194
4.700000	-0.243192	109.517054	-48.699786	44.247095	-48.699786	44.247095	-0.100355	-68.189041
4.750000	-0.245443	107.143137	-48.564722	42.645587	-48.564722	42.645587	-0.101897	-68.856472
4.800000	-0.247708	104.767099	-48.434561	41.058130	-48.434561	41.058130	-0.103460	-69.522550
4.850000	-0.249990	102.388646	-48.309469	39.487306	-48.309469	39.487306	-0.105047	-70.187136
4.900000	-0.252291	100.007838	-48.189145	37.933363	-48.189145	37.933363	-0.106655	-70.850308
4.950000	-0.254612	97.624614	-48.073446	36.397401	-48.073446	36.397401	-0.108286	-71.512068
5.000000	-0.256957	95.238918	-47.962224	34.880553	-47.962224	34.880553	-0.109940	-72.172417
5.050000	-0.259329	92.850639	-47.855384	33.384452	-47.855384	33.384452	-0.111617	-72.831327
5.100000	-0.261732	90.459775	-47.752692	31.909881	-47.752692	31.909881	-0.113317	-73.488831
5.150000	-0.264168	88.066270	-47.653970	30.458067	-47.653970	30.458067	-0.115040	-74.144931
5.200000	-0.266642	85.670064	-47.559025	29.030262	-47.559025	29.030262	-0.116787	-74.799631
5.250000	-0.269159	83.271090	-47.467651	27.627741	-47.467651	27.627741	-0.118557	-75.452935
5.300000	-0.271723	80.869275	-47.379627	26.251794	-47.379627	26.251794	-0.120351	-76.104845
5.350000	-0.274340	78.464537	-47.294712	24.903722	-47.294712	24.903722	-0.122169	-76.755367
5.400000	-0.277015	76.056780	-47.212647	23.584831	-47.212647	23.584831	-0.124010	-77.404505
5.450000	-0.279755	73.645893	-47.133153	22.296418	-47.133153	22.296418	-0.125877	-78.052263
5.500000	-0.282567	71.231747	-47.055927	21.039765	-47.055927	21.039765	-0.127767	-78.698648
5.550000	-0.285458	68.814192	-46.980640	19.816121	-46.980640	19.816121	-0.129682	-79.343664
5.600000	-0.288438	66.393052	-46.906940	18.626693	-46.906940	18.626693	-0.131622	-79.987318
5.650000	-0.291529	63.967552	-46.834468	17.477777	-46.834468	17.477777	-0.133590	-80.629426
5.700000	-0.294715	61.538507	-46.762695	16.360675	-46.762695	16.360675	-0.135579	-81.270362
5.750000	-0.298020	59.105144	-46.691253	15.280946	-46.691253	15.280946	-0.137594	-81.909956
5.800000	-0.301455	56.667141	-46.619666	14.239411	-46.619666	14.239411	-0.139634	-82.548215
5.850000	-0.305034	54.224124	-46.547425	13.236727	-46.547425	13.236727	-0.141700	-83.185149
5.900000	-0.308772	51.775664	-46.473985	12.273368	-46.473985	12.273368	-0.143791	-83.820766
5.950000	-0.312684	49.321267	-46.398770	11.349588	-46.398770	11.349588	-0.145908	-84.455074
6.000000	-0.316789	46.860366	-46.321171	10.465383	-46.321171	10.465383	-0.148051	-85.088084
6.050000	-0.321107	44.392312	-46.240546	9.620465	-46.240546	9.620465	-0.150220	-85.719806
6.100000	-0.325659	41.916364	-46.156226	8.814216	-46.156226	8.814216	-0.152415	-86.350251
6.150000	-0.330471	39.431673	-46.067511	8.045656	-46.067511	8.045656	-0.154637	-86.979431
6.200000	-0.335569	36.937273	-45.973681	7.313406	-45.973681	7.313406	-0.156885	-87.607361
6.250000	-0.340986	34.432063	-45.873994	6.615648	-45.873994	6.615648	-0.159160	-88.234054
6.300000	-0.346772	31.914190	-45.767308	5.951364	-45.767308	5.951364	-0.161463	-88.859476
6.350000	-0.352956	29.382667	-45.653152	5.316192	-45.653152	5.316192	-0.163795	-89.483699
6.400000	-0.359582	26.835826	-45.530754	4.706740	-45.530754	4.706740	-0.166155	-90.106745
6.450000	-0.366702	24.271764	-45.399342	4.119064	-45.399342	4.119064	-0.168546	-90.728638
6.500000	-0.374346	21.689444	-45.258834	3.547885	-45.258834	3.547885	-0.170967	-91.349466
6.550000	-0.382635	19.084508	-45.107333	2.989850	-45.107333	2.989850	-0.173427	-91.969148
6.600000	-0.391627	16.454919	-44.944608	2.438452	-44.944608	2.438452	-0.175928	-92.587762
6.650000	-0.401414	13.797411	-44.769959	1.887408	-44.769959	1.887408	-0.178480	-93.205327
6.700000	-0.412100	11.108426	-44.582811	1.329884	-44.582811	1.329884	-0.181094	-93.821850
6.750000	-0.423824	8.383197	-44.382300	0.758222	-44.382300	0.758222	-0.183782	-94.437282
6.800000	-0.436774	5.615541	-44.167344	0.163205	-44.167344	0.163205	-0.186558	-95.051502
6.850000	-0.451067	2.801767	-43.938327	-0.462940	-43.938327	-0.462940	-0.189421	-95.664428
6.900000	-0.466907	-0.064468	-43.694767	-1.129466	-43.694767	-1.129466	-0.192359	-96.275919
6.950000	-0.484684	-2.995552	-43.434457	-1.851287	-43.434457	-1.851287	-0.195351	-96.885772
7.000000	-0.504654	-5.998599	-43.157766	-2.639491	-43.157766	-2.639491	-0.198364	-97.494090
7.050000	-0.527149	-9.082878	-42.864566	-3.507246	-42.864566	-3.507246	-0.201375	-98.101029
7.100000	-0.552650	-12.261725	-42.553805	-4.472969	-42.553805	-4.472969	-0.204378	-98.706729
7.150000	-0.582068	-15.560572	-42.221390	-5.572364	-42.221390	-5.572364	-0.207376	-99.311253
7.200000	-0.615902	-18.990340	-41.866414	-6.832160	-41.866414	-6.832160	-0.210379	-99.914786
7.250000	-0.654989	-22.570972	-41.481912	-8.295946	-41.481912	-8.295946	-0.213397	-100.517389
7.300000	-0.701007	-26.343939	-41.039335	-10.014537	-41.039335	-10.014537	-0.216440	-101.119019
7.350000	-0.755504	-30.342655	-40.489168	-11.661158	-40.489168	-11.661158	-0.219516	-101.719710
7.400000	-0.820708	-34.614439	-39.940022	-12.375695	-39.940022	-12.375695	-0.222629	-102.319463
7.450000	-0.899516	-39.217503	-39.545690	-13.448297	-39.545690	-13.448297	-0.225786	-102.918279
7.500000	-0.996199	-44.235424	-39.135868	-15.483250	-39.135868	-15.483250	-0.228989	-103.516137
7.550000	-1.115878	-49.760069	-38.669363	-18.044991	-38.669363	-18.044991	-0.232242	-104.113048
7.600000	-1.267051	-55.944779	-38.156323	-21.049076	-38.156323	-21.049076	-0.235548	-104.708968
7.650000	-1.459392	-62.947544	-37.609120	-24.530006	-37.609120	-24.530006	-0.238909	-105.303908
7.700000	-1.709715	-71.054310	-37.033554	-28.611319	-37.033554	-28.611319	-0.242329	-105.897794
7.750000	-2.036835	-80.568753	-36.442213	-33.407976	-36.442213	-33.407976	-0.245806	-106.490606
7.800000	-2.469934	-92.016904	-35.850834	-39.106227	-35.850834	-39.106227	-0.249335	-107.082236
7.850000	-3.039003	-106.071072	-35.289008	-45.882990	-35.289008	-45.882990	-0.252903	-107.672594
7.900000	-3.761264	-123.662288	-34.803456	-53.901317	-34.803456	-53.901317	-0.256479	-108.261605
7.950000	-4.590182	-145.896718	-34.461926	-63.227348	-34.461926	-63.227348	-0.260014	-108.849327
8.000000	-5.321665	-173.452764	-34.346843	-73.715939	-34.346843	-73.715939	-0.263461	-109.436088
8.050000	-5.581730	155.003254	-34.535468	-84.929791	-34.535468	-84.929791	-0.266813	-110.022469
8.100000	-5.175645	123.723511	-35.064298	-96.181995	-35.064298	-96.181995	-0.270134	-110.608962
8.150000	-4.365673	96.682791	-35.913421	-106.771914	-35.913421	-106.771914	-0.273518	-111.195609
8.200000	-3.518339	74.908405	-37.021170	-116.220740	-37.021170	-116.220740	-0.277020	-111.782103
8.250000	-2.809519	57.651101	-38.316796	-124.342167	-38.316796	-124.342167	-0.280654	-112.368093
8.300000	-2.265927	43.820415	-39.746245	-131.179424	-39.746245	-131.179424	-0.284404	-112.953361
8.350000	-1.862352	32.553995	-41.278970	-136.856782	-41.278970	-136.856782	-0.288252	-113.537805
8.400000	-1.564296	23.189721	-42.908601	-141.521623	-42.908601	-141.521623	-0.292182	-114.121403
8.450000	-1.343033	15.256949	-44.649192	-145.280906	-44.649192	-145.280906	-0.296184	-114.704167
8.500000	-1.177296	8.418640	-46.534923	-148.169944	-46.534923	-148.169944	-0.300249	-115.286122
8.550000	-1.051565	2.421622	-48.628891	-150.120593	-48.628891	-150.120593	-0.304374	-115.867302
8.600000	-0.955214	-2.913978	-51.034759	-150.849859	-51.034759	-150.849859	-0.308555	-116.447737
8.650000	-0.880908	-7.717920	-53.929246	-149.524083	-53.929246	-149.524083	-0.312790	-117.027449
8.700000	-0.822873	-12.103212	-57.652349	-143.873422	-57.652349	-143.873422	-0.317078	-117.606481
8.750000	-0.777569	-16.139768	-62.627902	-125.280492	-62.627902	-125.280492	-0.321419	-118.184847
8.800000	-0.742341	-19.883155	-65.396402	-71.847338	-65.396402	-71.847338	-0.325813	-118.762557
8.850000	-0.714876	-23.387942	-61.327229	-33.017374	-61.327229	-33.017374	-0.330258	-119.339647
8.900000	-0.693644	-26.691599	-57.542003	-20.548770	-57.542003	-20.548770	-0.334755	-119.916140
8.950000	-0.677486	-29.824340	-54.864655	-16.257904	-54.864655	-16.257904	-0.339302	-120.492054
9.000000	-0.665512	-32.810779	-52.871684	-14.813712	-52.871684	-14.813712	-0.343901	-121.067412
9.050000	-0.657037	-35.671166	-51.306513	-14.623389	-51.306513	-14.623389	-0.348551	-121.642234
9.100000	-0.651525	-38.422315	-50.027244	-15.078576	-50.027244	-15.078576	-0.353250	-122.216540
9.150000	-0.648557	-41.078311	-48.950158	-15.902417	-48.950158	-15.902417	-0.358000	-122.790351
9.200000	-0.647766	-43.652334	-48.022017	-16.950478	-48.022017	-16.950478	-0.362798	-123.363696
9.250000	-0.649056	-46.148346	-47.209948	-18.153911	-47.209948	-18.153911	-0.367649	-123.936555
9.300000	-0.651955	-48.584781	-46.486077	-19.449137	-46.486077	-19.449137	-0.372544	-124.509015
9.350000	-0.656493	-50.961980	-45.835325	-20.817342	-45.835325	-20.817342	-0.377489	-125.081048
9.400000	-0.662449	-53.289618	-45.243670	-22.235693	-45.243670	-22.235693	-0.382480	-125.652700
9.450000	-0.669721	-55.573403	-44.701299	-23.691360	-44.701299	-23.691360	-0.387517	-126.223994
9.500000	-0.678301	-57.815985	-44.201211	-25.177394	-44.201211	-25.177394	-0.392600	-126.794935
9.550000	-0.687985	-60.026130	-43.736284	-26.684575	-43.736284	-26.684575	-0.397725	-127.365583
9.600000	-0.698927	-62.202241	-43.303141	-28.211920	-43.303141	-28.211920	-0.402896	-127.935913
9.650000	-0.710875	-64.353641	-42.896458	-29.752862	-42.896458	-29.752862	-0.408104	-128.506006
9.700000	-0.723996	-66.479166	-42.514173	-31.307415	-42.514173	-31.307415	-0.413355	-129.075846
9.750000	-0.738131	-68.584917	-42.152865	-32.872140	-42.152865	-32.872140	-0.418643	-129.645492
9.800000	-0.753358	-70.672132	-41.810742	-34.446433	-41.810742	-34.446433	-0.423968	-130.214958
9.850000	-0.769660	-72.743717	-41.485859	-36.029029	-41.485859	-36.029029	-0.429327	-130.784280
9.900000	-0.787005	-74.802614	-41.176492	-37.618753	-41.176492	-37.618753	-0.434717	-131.353495
9.950000	-0.805511	-76.849931	-40.881683	-39.215565	-40.881683	-39.215565	-0.440139	-131.922629
10.000000	-0.825035	-78.889271	-40.599719	-40.817891	-40.599719	-40.817891	-0.445587	-132.491726
