! freq	dB(S11)	phase(S11)	dB(S12)	phase(S12)	
!     	dB(S21)	phase(S21)	dB(S22)	phase(S22)	
!S-par simulation data
#  GHz  S  DB  R 50
0.000000	0.000000	0.000000	-316.870259	0.000000	-316.870259	0.000000	0.000000	0.000000
0.050000	-0.001407	-2.300868	-85.154430	87.736125	-85.154430	87.736125	-0.001407	-2.300733
0.100000	-0.004953	-4.592184	-79.153393	85.478271	-79.153393	85.478271	-0.004952	-4.591916
0.150000	-0.009353	-6.871099	-75.664011	83.226678	-75.664011	83.226678	-0.009352	-6.870698
0.200000	-0.013722	-9.139987	-73.209595	80.984538	-73.209595	80.984538	-0.013720	-9.139455
0.250000	-0.017694	-11.401540	-71.328799	78.755541	-71.328799	78.755541	-0.017693	-11.400878
0.300000	-0.021218	-13.657656	-69.816060	76.543424	-69.816060	76.543424	-0.021216	-13.656866
0.350000	-0.024377	-15.909251	-68.560243	74.351093	-68.560243	74.351093	-0.024374	-15.908332
0.400000	-0.027254	-18.156263	-67.496061	72.182184	-67.496061	72.182184	-0.027251	-18.155216
0.450000	-0.029920	-20.398015	-66.582933	70.041750	-66.582933	70.041750	-0.029917	-20.396842
0.500000	-0.032447	-22.634133	-65.790114	67.932319	-65.790114	67.932319	-0.032443	-22.632834
0.550000	-0.034878	-24.863945	-65.097101	65.857849	-65.097101	65.857849	-0.034875	-24.862521
0.600000	-0.037246	-27.086407	-64.490473	63.824576	-64.490473	63.824576	-0.037243	-27.084860
0.650000	-0.039578	-29.301077	-63.957414	61.835782	-63.957414	61.835782	-0.039574	-29.299408
0.700000	-0.041890	-31.507401	-63.488673	59.895820	-63.488673	59.895820	-0.041886	-31.505611
0.750000	-0.044195	-33.704490	-63.078302	58.011645	-63.078302	58.011645	-0.044191	-33.702581
0.800000	-0.046501	-35.891770	-62.720516	56.189096	-62.720516	56.189096	-0.046496	-35.889743
0.850000	-0.048812	-38.068811	-62.410250	54.433827	-62.410250	54.433827	-0.048807	-38.066669
0.900000	-0.051131	-40.235135	-62.143586	52.752579	-62.143586	52.752579	-0.051125	-40.232879
0.950000	-0.053458	-42.390226	-61.917436	51.153248	-61.917436	51.153248	-0.053452	-42.387859
1.000000	-0.055792	-44.533645	-61.729036	49.644266	-61.729036	49.644266	-0.055786	-44.531168
1.050000	-0.058131	-46.664982	-61.575972	48.234963	-61.575972	48.234963	-0.058126	-46.662397
1.100000	-0.060474	-48.783861	-61.456081	46.935679	-61.456081	46.935679	-0.060468	-48.781171
1.150000	-0.062815	-50.889937	-61.367357	45.757880	-61.367357	45.757880	-0.062809	-50.887143
1.200000	-0.065153	-52.982894	-61.307876	44.714270	-61.307876	44.714270	-0.065147	-52.979999
1.250000	-0.067483	-55.062448	-61.275704	43.818897	-61.275704	43.818897	-0.067477	-55.059453
1.300000	-0.069802	-57.128039	-61.269308	43.091161	-61.269308	43.091161	-0.069795	-57.124947
1.350000	-0.072105	-59.179733	-61.285840	42.544818	-61.285840	42.544818	-0.072097	-59.176545
1.400000	-0.074389	-61.217329	-61.322724	42.198152	-61.322724	42.198152	-0.074382	-61.214049
1.450000	-0.076651	-63.240655	-61.376932	42.070508	-61.376932	42.070508	-0.076644	-63.237284
1.500000	-0.078888	-65.249562	-61.444853	42.181806	-61.444853	42.181806	-0.078880	-65.246103
1.550000	-0.081097	-67.243928	-61.522134	42.551734	-61.522134	42.551734	-0.081089	-67.240383
1.600000	-0.083275	-69.223653	-61.603545	43.198527	-61.603545	43.198527	-0.083268	-69.220023
1.650000	-0.085421	-71.188660	-61.682866	44.137228	-61.682866	44.137228	-0.085413	-71.184948
1.700000	-0.087532	-73.138893	-61.752845	45.377406	-61.752845	45.377406	-0.087525	-73.135101
1.750000	-0.089608	-75.074318	-61.805269	46.920389	-61.805269	46.920389	-0.089600	-75.070448
1.800000	-0.091647	-76.994919	-61.831213	48.756264	-61.831213	48.756264	-0.091639	-76.990975
1.850000	-0.093648	-78.900702	-61.821495	50.861129	-61.821495	50.861129	-0.093640	-78.896684
1.900000	-0.095610	-80.791526	-61.766785	53.197185	-61.766785	53.197185	-0.095602	-80.787437
1.950000	-0.097534	-82.667433	-61.659369	55.706637	-61.659369	55.706637	-0.097526	-82.663274
2.000000	-0.099419	-84.528638	-61.494508	58.317622	-61.494508	58.317622	-0.099411	-84.524413
2.050000	-0.101267	-86.375213	-61.269826	60.953042	-61.269826	60.953042	-0.101259	-86.370922
2.100000	-0.103079	-88.207241	-60.986087	63.534800	-60.986087	63.534800	-0.103071	-88.202887
2.150000	-0.104855	-90.024820	-60.647025	65.990738	-60.647025	65.990738	-0.104847	-90.020406
2.200000	-0.106596	-91.828060	-60.258763	68.260290	-60.258763	68.260290	-0.106588	-91.823586
2.250000	-0.108305	-93.617081	-59.828993	70.297892	-59.828993	70.297892	-0.108297	-93.612550
2.300000	-0.109982	-95.392016	-59.366103	72.073896	-59.366103	72.073896	-0.109974	-95.387430
2.350000	-0.111630	-97.153005	-58.878419	73.573425	-58.878419	73.573425	-0.111622	-97.148365
2.400000	-0.113250	-98.900198	-58.373663	74.793918	-58.373663	74.793918	-0.113242	-98.895508
2.450000	-0.114846	-100.633756	-57.858622	75.742154	-57.858622	75.742154	-0.114838	-100.629015
2.500000	-0.116418	-102.353843	-57.339017	76.431347	-57.339017	76.431347	-0.116410	-102.349055
2.550000	-0.117969	-104.060205	-56.818613	76.871320	-56.818613	76.871320	-0.117961	-104.055371
2.600000	-0.119501	-105.753463	-56.302205	77.089895	-56.302205	77.089895	-0.119493	-105.748585
2.650000	-0.121018	-107.433802	-55.792565	77.106758	-55.792565	77.106758	-0.121010	-107.428881
2.700000	-0.122521	-109.101414	-55.291756	76.941133	-55.291756	76.941133	-0.122513	-109.096452
2.750000	-0.124013	-110.756493	-54.801259	76.611239	-54.801259	76.611239	-0.124005	-110.751493
2.800000	-0.125496	-112.399241	-54.322096	76.133990	-54.322096	76.133990	-0.125488	-112.394204
2.850000	-0.126974	-114.029861	-53.854927	75.524866	-53.854927	75.524866	-0.126966	-114.024788
2.900000	-0.128447	-115.648558	-53.400134	74.797888	-53.400134	74.797888	-0.128439	-115.643451
2.950000	-0.129919	-117.255543	-52.957887	73.965668	-52.957887	73.965668	-0.129911	-117.250404
3.000000	-0.131392	-118.851028	-52.528193	73.039492	-52.528193	73.039492	-0.131384	-118.845858
3.050000	-0.132868	-120.435226	-52.110945	72.029431	-52.110945	72.029431	-0.132860	-120.430026
3.100000	-0.134349	-122.008352	-51.705945	70.944446	-51.705945	70.944446	-0.134342	-122.003125
3.150000	-0.135838	-123.570625	-51.312939	69.792510	-51.312939	69.792510	-0.135830	-123.565371
3.200000	-0.137336	-125.122261	-50.931626	68.580707	-50.931626	68.580707	-0.137328	-125.116983
3.250000	-0.138845	-126.663480	-50.561680	67.315336	-50.561680	67.315336	-0.138837	-126.658179
3.300000	-0.140367	-128.194502	-50.202756	66.001995	-50.202756	66.001995	-0.140359	-128.189179
3.350000	-0.141903	-129.715546	-49.854503	64.645671	-49.854503	64.645671	-0.141896	-129.710203
3.400000	-0.143456	-131.226833	-49.516566	63.250802	-49.516566	63.250802	-0.143449	-131.221471
3.450000	-0.145027	-132.728582	-49.188593	61.821347	-49.188593	61.821347	-0.145020	-132.723203
3.500000	-0.146617	-134.221013	-48.870238	60.360840	-48.870238	60.360840	-0.146610	-134.215618
3.550000	-0.148228	-135.704345	-48.561161	58.872439	-48.561161	58.872439	-0.148221	-135.698936
3.600000	-0.149861	-137.178798	-48.261035	57.358969	-48.261035	57.358969	-0.149854	-137.173375
3.650000	-0.151516	-138.644588	-47.969541	55.822961	-47.969541	55.822961	-0.151509	-138.639154
3.700000	-0.153195	-140.101934	-47.686373	54.266686	-47.686373	54.266686	-0.153188	-140.096490
3.750000	-0.154899	-141.551052	-47.411237	52.692180	-47.411237	52.692180	-0.154892	-141.545599
3.800000	-0.156630	-142.991819	-47.143828	51.100639	-47.143828	51.100639	-0.156623	-142.986358
3.850000	-0.158386	-144.424805	-46.883914	49.494478	-46.883914	49.494478	-0.158380	-144.419339
3.900000	-0.160170	-145.850225	-46.631234	47.875158	-46.631234	47.875158	-0.160164	-145.844753
3.950000	-0.161981	-147.268288	-46.385541	46.243997	-46.385541	46.243997	-0.161975	-147.262813
4.000000	-0.163820	-148.679205	-46.146597	44.602183	-46.146597	44.602183	-0.163814	-148.673728
4.050000	-0.165687	-150.083184	-45.914176	42.950789	-45.914176	42.950789	-0.165681	-150.077707
4.100000	-0.167583	-151.480432	-45.688064	41.290782	-45.688064	41.290782	-0.167577	-151.474956
4.150000	-0.169507	-152.871154	-45.468057	39.623038	-45.468057	39.623038	-0.169501	-152.865679
4.200000	-0.171459	-154.255553	-45.253960	37.948345	-45.253960	37.948345	-0.171454	-154.250082
4.250000	-0.173441	-155.633830	-45.045589	36.267417	-45.045589	36.267417	-0.173435	-155.628364
4.300000	-0.175450	-157.006187	-44.842768	34.580899	-44.842768	34.580899	-0.175445	-157.000728
4.350000	-0.177489	-158.372822	-44.645330	32.889372	-44.645330	32.889372	-0.177484	-158.367369
4.400000	-0.179555	-159.733929	-44.453119	31.193364	-44.453119	31.193364	-0.179550	-159.728486
4.450000	-0.181650	-161.089705	-44.265984	29.493347	-44.265984	29.493347	-0.181645	-161.084272
4.500000	-0.183772	-162.440342	-44.083782	27.789750	-44.083782	27.789750	-0.183768	-162.434921
4.550000	-0.185922	-163.786031	-43.906380	26.082960	-43.906380	26.082960	-0.185918	-163.780623
4.600000	-0.188099	-165.126960	-43.733650	24.373326	-43.733650	24.373326	-0.188095	-165.121566
4.650000	-0.190303	-166.463316	-43.565471	22.661159	-43.565471	22.661159	-0.190299	-166.457938
4.700000	-0.192533	-167.795285	-43.401730	20.946744	-43.401730	20.946744	-0.192529	-167.789924
4.750000	-0.194788	-169.123049	-43.242318	19.230333	-43.242318	19.230333	-0.194785	-169.117707
4.800000	-0.197069	-170.446790	-43.087133	17.512154	-43.087133	17.512154	-0.197066	-170.441468
4.850000	-0.199375	-171.766686	-42.936080	15.792413	-42.936080	15.792413	-0.199372	-171.761386
4.900000	-0.201705	-173.082914	-42.789068	14.071291	-42.789068	14.071291	-0.201702	-173.077637
4.950000	-0.204058	-174.395650	-42.646012	12.348953	-42.646012	12.348953	-0.204056	-174.390397
5.000000	-0.206434	-175.705066	-42.506831	10.625545	-42.506831	10.625545	-0.206432	-175.699839
5.050000	-0.208834	-177.011204	-42.371524	8.901162	-42.371524	8.901162	-0.208832	-177.006005
5.100000	-0.211255	-178.314378	-42.239950	7.175963	-42.239950	7.175963	-0.211253	-178.309208
5.150000	-0.213697	-179.614753	-42.112043	5.450051	-42.112043	5.450051	-0.213696	-179.609614
5.200000	-0.216160	179.087506	-41.987741	3.723514	-41.987741	3.723514	-0.216159	179.092613
5.250000	-0.218642	177.792236	-41.866986	1.996431	-41.866986	1.996431	-0.218642	177.797309
5.300000	-0.221144	176.499278	-41.749724	0.268870	-41.749724	0.268870	-0.221144	176.504316
5.350000	-0.223664	175.208474	-41.635904	-1.459109	-41.635904	-1.459109	-0.223664	175.213475
5.400000	-0.226202	173.919667	-41.525479	-3.187454	-41.525479	-3.187454	-0.226202	173.924629
5.450000	-0.228757	172.632704	-41.418406	-4.916120	-41.418406	-4.916120	-0.228758	172.637626
5.500000	-0.231329	171.347433	-41.314644	-6.645071	-41.314644	-6.645071	-0.231330	171.352313
5.550000	-0.233917	170.063704	-41.214156	-8.374276	-41.214156	-8.374276	-0.233919	170.068541
5.600000	-0.236521	168.781372	-41.116909	-10.103711	-41.116909	-10.103711	-0.236523	168.786163
5.650000	-0.239139	167.500289	-41.022870	-11.833356	-41.022870	-11.833356	-0.239142	167.505034
5.700000	-0.241772	166.220314	-40.932010	-13.563199	-40.932010	-13.563199	-0.241775	166.225010
5.750000	-0.244419	164.941306	-40.844304	-15.293232	-40.844304	-15.293232	-0.244422	164.945952
5.800000	-0.247080	163.663127	-40.759728	-17.023453	-40.759728	-17.023453	-0.247083	163.667720
5.850000	-0.249753	162.385640	-40.678259	-18.753865	-40.678259	-18.753865	-0.249757	162.390180
5.900000	-0.252439	161.108711	-40.599879	-20.484478	-40.599879	-20.484478	-0.252444	161.113196
5.950000	-0.255137	159.832210	-40.524570	-22.215306	-40.524570	-22.215306	-0.255142	159.836637
6.000000	-0.257847	158.556007	-40.452317	-23.946370	-40.452317	-23.946370	-0.257853	158.560375
6.050000	-0.260569	157.279976	-40.383107	-25.677698	-40.383107	-25.677698	-0.260575	157.284282
6.100000	-0.263301	156.003991	-40.316927	-27.409324	-40.316927	-27.409324	-0.263308	156.008235
6.150000	-0.266045	154.727932	-40.253767	-29.141291	-40.253767	-29.141291	-0.266052	154.732110
6.200000	-0.268799	153.451678	-40.193620	-30.873647	-40.193620	-30.873647	-0.268806	153.455790
6.250000	-0.271563	152.175112	-40.136477	-32.606453	-40.136477	-32.606453	-0.271571	152.179155
6.300000	-0.274339	150.898097	-40.082451	-34.339802	-40.082451	-34.339802	-0.274347	150.902069
6.350000	-0.277124	149.620533	-40.031423	-36.073758	-40.031423	-36.073758	-0.277133	149.624433
6.400000	-0.279919	148.342313	-39.983391	-37.808414	-39.983391	-37.808414	-0.279928	148.346138
6.450000	-0.282725	147.063329	-39.938352	-39.543875	-39.938352	-39.543875	-0.282734	147.067077
6.500000	-0.285540	145.783477	-39.896307	-41.280263	-39.896307	-41.280263	-0.285550	145.787146
6.550000	-0.288365	144.502657	-39.857257	-43.017715	-39.857257	-43.017715	-0.288376	144.506245
6.600000	-0.291201	143.220769	-39.821202	-44.756387	-39.821202	-44.756387	-0.291213	143.224275
6.650000	-0.294047	141.937719	-39.788148	-46.496454	-39.788148	-46.496454	-0.294059	141.941139
6.700000	-0.296904	140.653412	-39.758098	-48.238111	-39.758098	-48.238111	-0.296916	140.656745
6.750000	-0.299771	139.367759	-39.731057	-49.981580	-39.731057	-49.981580	-0.299784	139.371003
6.800000	-0.302649	138.080672	-39.707033	-51.727106	-39.707033	-51.727106	-0.302663	138.083825
6.850000	-0.305539	136.792067	-39.686033	-53.474964	-39.686033	-53.474964	-0.305553	136.795126
6.900000	-0.308440	135.501862	-39.668068	-55.225461	-39.668068	-55.225461	-0.308455	135.504825
6.950000	-0.311354	134.209978	-39.653146	-56.978940	-39.653146	-56.978940	-0.311370	134.212843
7.000000	-0.314280	132.916339	-39.641281	-58.735779	-39.641281	-58.735779	-0.314297	132.919104
7.050000	-0.317220	131.620872	-39.632486	-60.496400	-39.632486	-60.496400	-0.317237	131.623535
7.100000	-0.320174	130.323508	-39.626776	-62.261272	-39.626776	-62.261272	-0.320192	130.326066
7.150000	-0.323142	129.024180	-39.624166	-64.030912	-39.624166	-64.030912	-0.323160	129.026630
7.200000	-0.326125	127.722823	-39.624675	-65.805895	-39.624675	-65.805895	-0.326144	127.725164
7.250000	-0.329124	126.419377	-39.628323	-67.586857	-39.628323	-67.586857	-0.329145	126.421606
7.300000	-0.332140	125.113784	-39.635132	-69.374502	-39.635132	-69.374502	-0.332162	125.115899
7.350000	-0.335174	123.805990	-39.645123	-71.169606	-39.645123	-71.169606	-0.335196	123.807988
7.400000	-0.338227	122.495942	-39.658324	-72.973031	-39.658324	-72.973031	-0.338250	122.497821
7.450000	-0.341299	121.183593	-39.674761	-74.785725	-39.674761	-74.785725	-0.341323	121.185351
7.500000	-0.344392	119.868897	-39.694464	-76.608742	-39.694464	-76.608742	-0.344417	119.870530
7.550000	-0.347508	118.551705	-39.717605	-78.443802	-39.717605	-78.443802	-0.347535	118.553212
7.600000	-0.350648	117.232081	-39.744079	-80.291762	-39.744079	-80.291762	-0.350675	117.233459
7.650000	-0.353812	115.909988	-39.773919	-82.154066	-39.773919	-82.154066	-0.353840	115.911234
7.700000	-0.357002	114.585394	-39.807164	-84.032311	-39.807164	-84.032311	-0.357032	114.586506
7.750000	-0.360220	113.258268	-39.843852	-85.928272	-39.843852	-85.928272	-0.360251	113.259242
7.800000	-0.363467	111.928582	-39.884024	-87.843913	-39.884024	-87.843913	-0.363500	111.929417
7.850000	-0.366745	110.596312	-39.927718	-89.781419	-39.927718	-89.781419	-0.366779	110.597004
7.900000	-0.370056	109.261435	-39.974978	-91.743216	-39.974978	-91.743216	-0.370091	109.261982
7.950000	-0.373401	107.923932	-40.025840	-93.732004	-40.025840	-93.732004	-0.373439	107.924330
8.000000	-0.376783	106.583784	-40.080344	-95.750791	-40.080344	-95.750791	-0.376823	106.584031
8.050000	-0.380205	105.240976	-40.138522	-97.802931	-40.138522	-97.802931	-0.380246	105.241068
8.100000	-0.383667	103.895493	-40.200401	-99.892171	-40.200401	-99.892171	-0.383710	103.895428
8.150000	-0.387174	102.547324	-40.265997	-102.022704	-40.265997	-102.022704	-0.387219	102.547098
8.200000	-0.390727	101.196456	-40.335313	-104.199222	-40.335313	-104.199222	-0.390775	101.196066
8.250000	-0.394330	99.842880	-40.408335	-106.426992	-40.408335	-106.426992	-0.394380	99.842323
8.300000	-0.397986	98.486585	-40.485020	-108.711926	-40.485020	-108.711926	-0.398040	98.485857
8.350000	-0.401698	97.127640	-40.565216	-111.058539	-40.565216	-111.058539	-0.401754	97.126738
8.400000	-0.405473	95.765840	-40.648996	-113.479304	-40.648996	-113.479304	-0.405533	95.764758
8.450000	-0.409313	94.401329	-40.736019	-115.978622	-40.736019	-115.978622	-0.409376	94.400065
8.500000	-0.413222	93.034093	-40.826033	-118.565596	-40.826033	-118.565596	-0.413289	93.032642
8.550000	-0.417206	91.664116	-40.918693	-121.250447	-40.918693	-121.250447	-0.417278	91.662474
8.600000	-0.421282	90.291067	-41.013579	-124.058144	-41.013579	-124.058144	-0.421358	90.289229
8.650000	-0.425448	88.915204	-41.109829	-126.991710	-41.109829	-126.991710	-0.425530	88.913165
8.700000	-0.429714	87.536508	-41.206526	-130.065302	-41.206526	-130.065302	-0.429801	87.534262
8.750000	-0.434088	86.154935	-41.302470	-133.295434	-41.302470	-133.295434	-0.434182	86.152477
8.800000	-0.438583	84.770429	-41.396099	-136.700370	-41.396099	-136.700370	-0.438684	84.767753
8.850000	-0.443213	83.382922	-41.485389	-140.300135	-41.485389	-140.300135	-0.443321	83.380021
8.900000	-0.448001	81.992191	-41.567265	-144.126769	-41.567265	-144.126769	-0.448118	81.989058
8.950000	-0.452976	80.598017	-41.637508	-148.214173	-41.637508	-148.214173	-0.453103	80.594644
9.000000	-0.458152	79.200493	-41.692296	-152.570126	-41.692296	-152.570126	-0.458290	79.196871
9.050000	-0.463560	77.799455	-41.726132	-157.218226	-41.726132	-157.218226	-0.463710	77.795576
9.100000	-0.469239	76.394706	-41.732316	-162.180195	-41.732316	-162.180195	-0.469402	76.390559
9.150000	-0.475236	74.986006	-41.702859	-167.473862	-41.702859	-167.473862	-0.475414	74.981579
9.200000	-0.481610	73.573068	-41.628507	-173.110643	-41.628507	-173.110643	-0.481806	73.568349
9.250000	-0.488489	72.155092	-41.492504	-179.123528	-41.492504	-179.123528	-0.488705	72.150065
9.300000	-0.495956	70.731922	-41.285866	174.524546	-41.285866	174.524546	-0.496194	70.726571
9.350000	-0.504135	69.303182	-40.998646	167.870248	-40.998646	167.870248	-0.504398	69.297486
9.400000	-0.513115	67.868857	-40.630123	160.972946	-40.630123	160.972946	-0.513407	67.862797
9.450000	-0.523327	66.427080	-40.149577	153.842726	-40.149577	153.842726	-0.523653	66.420624
9.500000	-0.534993	64.977892	-39.562539	146.567247	-39.562539	146.567247	-0.535358	64.971009
9.550000	-0.548573	63.520623	-38.863719	139.201253	-38.863719	139.201253	-0.548984	63.513270
9.600000	-0.564783	62.054667	-38.045677	131.786436	-38.045677	131.786436	-0.565249	62.046790
9.650000	-0.584360	60.580767	-37.117399	124.341540	-37.117399	124.341540	-0.584893	60.572295
9.700000	-0.608419	59.100642	-36.081439	116.848461	-36.081439	116.848461	-0.609037	59.091482
9.750000	-0.638794	57.618919	-34.927652	109.237631	-34.927652	109.237631	-0.639525	57.608943
9.800000	-0.677031	56.145700	-33.671904	101.396709	-33.671904	101.396709	-0.677918	56.134758
9.850000	-0.725526	54.701562	-32.303749	93.118313	-32.303749	93.118313	-0.726646	54.689507
9.900000	-0.785324	53.321471	-30.833342	84.111748	-30.833342	84.111748	-0.786803	53.308309
9.950000	-0.854590	52.056850	-29.278322	73.955763	-29.278322	73.955763	-0.856612	52.043086
10.000000	-0.925259	50.963359	-27.683584	62.070423	-27.683584	62.070423	-0.928013	50.950574
