! freq	dB(S11)	phase(S11)	dB(S12)	phase(S12)	
!     	dB(S21)	phase(S21)	dB(S22)	phase(S22)	
!S-par simulation data
#  GHz  S  DB  R 50
0.000000	-0.000000	0.000000	-309.481063	180.000000	-309.481063	180.000000	-0.000000	-0.000000
0.050000	-0.000116	-1.075231	-94.797640	85.799990	-94.797640	85.799990	-0.000098	-0.803927
0.100000	-0.000462	-2.150194	-89.156796	84.109402	-89.156796	84.109402	-0.000389	-1.607627
0.150000	-0.001032	-3.224613	-85.879253	83.538410	-85.879253	83.538410	-0.000866	-2.410868
0.200000	-0.001796	-4.298308	-83.522191	83.148775	-83.522191	83.148775	-0.001501	-3.213511
0.250000	-0.002744	-5.371066	-81.672686	82.717832	-81.672686	82.717832	-0.002280	-4.015392
0.300000	-0.003866	-6.442599	-80.150987	82.203188	-80.150987	82.203188	-0.003193	-4.816305
0.350000	-0.005114	-7.512969	-78.859836	81.629198	-78.859836	81.629198	-0.004196	-5.616326
0.400000	-0.006484	-8.581893	-77.740897	81.003308	-77.740897	81.003308	-0.005284	-6.415272
0.450000	-0.007963	-9.648892	-76.757467	80.338479	-76.757467	80.338479	-0.006439	-7.212853
0.500000	-0.009484	-10.715106	-75.877094	79.659824	-75.877094	79.659824	-0.007619	-8.009883
0.550000	-0.011057	-11.779459	-75.085667	78.968192	-75.085667	78.968192	-0.008824	-8.805685
0.600000	-0.012668	-12.842483	-74.365542	78.267291	-74.365542	78.267291	-0.010046	-9.600610
0.650000	-0.014292	-13.903910	-73.707469	77.567697	-73.707469	77.567697	-0.011268	-10.394551
0.700000	-0.015929	-14.963739	-73.102191	76.869410	-73.102191	76.869410	-0.012489	-11.187508
0.750000	-0.017560	-16.022259	-72.541979	76.179158	-72.541979	76.179158	-0.013700	-11.979703
0.800000	-0.019182	-17.078945	-72.023133	75.500156	-72.023133	75.500156	-0.014896	-12.770834
0.850000	-0.020790	-18.134602	-71.537809	74.831758	-71.537809	74.831758	-0.016081	-13.561391
0.900000	-0.022372	-19.188199	-71.086276	74.184570	-71.086276	74.184570	-0.017243	-14.350804
0.950000	-0.023942	-20.241031	-70.660008	73.547910	-70.660008	73.547910	-0.018396	-15.139802
1.000000	-0.025475	-21.291567	-70.262131	72.942837	-70.262131	72.942837	-0.019523	-15.927561
1.050000	-0.026999	-22.341592	-69.883429	72.346277	-69.883429	72.346277	-0.020644	-16.715047
1.100000	-0.028481	-23.389060	-69.528923	71.792286	-69.528923	71.792286	-0.021739	-17.501174
1.150000	-0.029959	-24.436268	-69.189057	71.243219	-69.189057	71.243219	-0.022831	-18.287163
1.200000	-0.031394	-25.480623	-68.869783	70.748321	-68.869783	70.748321	-0.023899	-19.071647
1.250000	-0.032829	-26.524979	-68.561830	70.253424	-68.561830	70.253424	-0.024968	-19.856130
1.300000	-0.034222	-27.566149	-68.271027	69.824743	-68.271027	69.824743	-0.026014	-20.638934
1.350000	-0.035616	-28.607319	-67.989645	69.396062	-67.989645	69.396062	-0.027061	-21.421737
1.400000	-0.036978	-29.645483	-67.721065	69.033662	-67.721065	69.033662	-0.028093	-22.202951
1.450000	-0.038338	-30.683374	-67.460890	68.677288	-67.460890	68.677288	-0.029124	-22.984021
1.500000	-0.039675	-31.718441	-67.209668	68.385123	-67.209668	68.385123	-0.030145	-23.763592
1.550000	-0.041008	-32.752943	-66.965777	68.105800	-66.965777	68.105800	-0.031164	-24.542863
1.600000	-0.042325	-33.784816	-66.727486	67.886476	-66.727486	67.886476	-0.032178	-25.320731
1.650000	-0.043638	-34.815814	-66.495213	67.687151	-66.495213	67.687151	-0.033189	-26.098132
1.700000	-0.044941	-35.844395	-66.265728	67.541554	-66.265728	67.541554	-0.034198	-26.874236
1.750000	-0.046240	-36.871769	-66.040560	67.422819	-66.040560	67.422819	-0.035205	-27.649691
1.800000	-0.047534	-37.896961	-65.815983	67.349714	-65.815983	67.349714	-0.036210	-28.423968
1.850000	-0.048824	-38.920595	-65.593516	67.309200	-65.593516	67.309200	-0.037215	-29.197403
1.900000	-0.050111	-39.942304	-65.370157	67.304844	-65.370157	67.304844	-0.038220	-29.969790
1.950000	-0.051397	-40.962088	-65.146115	67.336646	-65.146115	67.336646	-0.039226	-30.741129
2.000000	-0.052683	-41.980226	-64.920517	67.394468	-64.920517	67.394468	-0.040232	-31.511564
2.050000	-0.053968	-42.996059	-64.690825	67.488720	-64.690825	67.488720	-0.041239	-32.280733
2.100000	-0.055255	-44.010545	-64.459820	67.599131	-64.459820	67.599131	-0.042248	-33.049156
2.150000	-0.056544	-45.022336	-64.220725	67.741859	-64.220725	67.741859	-0.043259	-33.816086
2.200000	-0.057834	-46.033097	-63.981523	67.892247	-63.981523	67.892247	-0.044271	-34.582438
2.250000	-0.059130	-47.040768	-63.729737	68.065613	-63.729737	68.065613	-0.045288	-35.347059
2.300000	-0.060426	-48.047743	-63.480015	68.240584	-63.480015	68.240584	-0.046305	-36.111285
2.350000	-0.061731	-49.051233	-63.212859	68.423580	-63.212859	68.423580	-0.047328	-36.873534
2.400000	-0.063036	-50.054370	-62.950850	68.605457	-62.950850	68.605457	-0.048352	-37.635580
2.450000	-0.064352	-51.053632	-62.666371	68.775025	-62.666371	68.775025	-0.049383	-38.395395
2.500000	-0.065668	-52.052893	-62.390916	68.944593	-62.390916	68.944593	-0.050414	-39.155210
2.550000	-0.066998	-53.047899	-62.087937	69.077023	-62.087937	69.077023	-0.051455	-39.912534
2.600000	-0.068329	-54.042904	-61.795172	69.209453	-61.795172	69.209453	-0.052495	-40.669858
2.650000	-0.069674	-55.034002	-61.476597	69.286858	-61.476597	69.286858	-0.053545	-41.424850
2.700000	-0.071021	-56.024744	-61.166199	69.359260	-61.166199	69.359260	-0.054597	-42.179630
2.750000	-0.072384	-57.011946	-60.832631	69.364332	-60.832631	69.364332	-0.055658	-42.932249
2.800000	-0.073750	-57.998440	-60.504885	69.355939	-60.504885	69.355939	-0.056721	-43.684436
2.850000	-0.075132	-58.981778	-60.157304	69.273673	-60.157304	69.273673	-0.057794	-44.434645
2.900000	-0.076519	-59.964065	-59.812940	69.166782	-59.812940	69.166782	-0.058871	-45.184194
2.950000	-0.077923	-60.943594	-59.452553	68.984795	-59.452553	68.984795	-0.059958	-45.931959
3.000000	-0.079334	-61.921744	-59.092550	68.765260	-59.092550	68.765260	-0.061049	-46.678831
3.050000	-0.080762	-62.897542	-58.720621	68.473858	-58.720621	68.473858	-0.062150	-47.424121
3.100000	-0.082201	-63.871660	-58.346012	68.131122	-58.346012	68.131122	-0.063258	-48.168281
3.150000	-0.083655	-64.843836	-57.963726	67.723139	-57.963726	67.723139	-0.064375	-48.911072
3.200000	-0.085124	-65.814068	-57.575405	67.249907	-57.575405	67.249907	-0.065501	-49.652491
3.250000	-0.086608	-66.782764	-57.183747	66.720382	-57.183747	66.720382	-0.066635	-50.392760
3.300000	-0.088112	-67.749308	-56.782303	66.112046	-56.782303	66.112046	-0.067781	-51.131417
3.350000	-0.089629	-68.714708	-56.381967	65.457799	-56.381967	65.457799	-0.068933	-51.869148
3.400000	-0.091172	-69.677822	-55.967539	64.711733	-55.967539	64.711733	-0.070100	-52.605027
3.450000	-0.092726	-70.640163	-55.558859	63.930889	-55.558859	63.930889	-0.071273	-53.340209
3.500000	-0.094313	-71.600187	-55.131003	63.045717	-55.131003	63.045717	-0.072462	-54.073304
3.550000	-0.095910	-72.559770	-54.713899	62.137221	-54.713899	62.137221	-0.073656	-54.805936
3.600000	-0.097548	-73.517150	-54.271451	61.112108	-54.271451	61.112108	-0.074870	-55.536250
3.650000	-0.099193	-74.474358	-53.845391	60.075255	-53.845391	60.075255	-0.076086	-56.266335
3.700000	-0.100892	-75.429682	-53.386305	58.909253	-53.386305	58.909253	-0.077327	-56.993888
3.750000	-0.102592	-76.385007	-52.950270	57.743250	-52.950270	57.743250	-0.078568	-57.721441
3.800000	-0.104364	-77.339066	-52.471402	56.434664	-52.471402	56.434664	-0.079837	-58.446267
3.850000	-0.106137	-78.293124	-52.017561	55.126079	-52.017561	55.126079	-0.081106	-59.171094
3.900000	-0.107993	-79.247010	-51.520652	53.683990	-51.520652	53.683990	-0.082404	-59.893476
3.950000	-0.109857	-80.200879	-51.045011	52.229765	-51.045011	52.229765	-0.083704	-60.615637
4.000000	-0.111818	-81.155846	-50.525535	50.649898	-50.525535	50.649898	-0.085032	-61.335654
4.050000	-0.113799	-82.111033	-50.022487	49.044903	-50.022487	49.044903	-0.086366	-62.055243
4.100000	-0.115899	-83.068835	-49.474352	47.320735	-49.474352	47.320735	-0.087728	-62.773015
4.150000	-0.118040	-84.027510	-48.936072	45.556843	-48.936072	45.556843	-0.089099	-63.490180
4.200000	-0.120287	-84.989205	-48.374014	43.708578	-48.374014	43.708578	-0.090491	-64.206225
4.250000	-0.122673	-85.955174	-47.779921	41.762016	-47.779921	41.762016	-0.091908	-64.921072
4.300000	-0.125213	-86.926202	-47.159013	39.726307	-47.159013	39.726307	-0.093348	-65.635003
4.350000	-0.127946	-87.903794	-46.507061	37.595810	-46.507061	37.595810	-0.094814	-66.348129
4.400000	-0.130926	-88.889886	-45.818946	35.363408	-45.818946	35.363408	-0.096310	-67.060594
4.450000	-0.134230	-89.887012	-45.088410	33.019989	-45.088410	33.019989	-0.097840	-67.772588
4.500000	-0.137972	-90.898554	-44.307696	30.553645	-44.307696	30.553645	-0.099414	-68.484365
4.550000	-0.142319	-91.929129	-43.467041	27.948434	-43.467041	27.948434	-0.101042	-69.196270
4.600000	-0.147416	-92.982047	-42.571608	25.199524	-42.571608	25.199524	-0.102732	-69.908666
4.650000	-0.153872	-94.072188	-41.571412	22.243020	-41.571412	22.243020	-0.104532	-70.622430
4.700000	-0.162306	-95.210911	-40.460688	19.048446	-40.460688	19.048446	-0.106483	-71.338541
4.750000	-0.173984	-96.420017	-39.208935	15.543059	-39.208935	15.543059	-0.108681	-72.058627
4.800000	-0.191129	-97.731759	-37.784052	11.619902	-37.784052	11.619902	-0.111292	-72.785111
4.850000	-0.219320	-99.215972	-36.096891	7.035570	-36.096891	7.035570	-0.114745	-73.523070
4.900000	-0.270855	-100.988232	-34.057745	1.375815	-34.057745	1.375815	-0.119996	-74.280854
4.950000	-0.383597	-103.307222	-31.471657	-6.387269	-31.471657	-6.387269	-0.129989	-75.076163
5.000000	-0.701164	-106.693640	-28.032995	-19.088334	-28.032995	-19.088334	-0.155508	-75.938555
5.050000	-1.964018	-110.319206	-23.551669	-46.827807	-23.551669	-46.827807	-0.242598	-76.759990
5.100000	-3.038166	-92.891754	-22.094352	-104.704987	-22.094352	-104.704987	-0.312751	-76.400242
5.150000	-1.057370	-91.490649	-26.291303	-143.715325	-26.291303	-143.715325	-0.199973	-76.780552
5.200000	-0.524795	-95.227341	-29.996225	-160.288175	-29.996225	-160.288175	-0.158899	-77.610545
5.250000	-0.355866	-97.798784	-32.695900	-169.763765	-32.695900	-169.763765	-0.145347	-78.400784
5.300000	-0.284254	-99.701313	-34.761760	-176.611273	-34.761760	-176.611273	-0.140160	-79.151333
5.350000	-0.248817	-101.243356	-36.395933	177.772740	-36.395933	177.772740	-0.138290	-79.877421
5.400000	-0.229283	-102.580490	-37.732098	172.798172	-37.732098	172.798172	-0.137948	-80.588388
5.450000	-0.217618	-103.795108	-38.863785	168.181440	-38.863785	168.181440	-0.138398	-81.289643
5.500000	-0.210757	-104.922174	-39.814430	163.805079	-39.814430	163.805079	-0.139353	-81.983407
5.550000	-0.206649	-105.991809	-40.633096	159.578976	-40.633096	159.578976	-0.140614	-82.671820
5.600000	-0.204306	-107.020247	-41.345427	155.458657	-41.345427	155.458657	-0.142085	-83.356045
5.650000	-0.203348	-108.012624	-41.943599	151.434362	-41.943599	151.434362	-0.143733	-84.036166
5.700000	-0.203001	-108.988139	-42.498284	147.456589	-42.498284	147.456589	-0.145464	-84.714254
5.750000	-0.203460	-109.939033	-42.957094	143.560139	-42.957094	143.560139	-0.147318	-85.388907
5.800000	-0.204186	-110.881691	-43.394740	139.691677	-43.394740	139.691677	-0.149213	-86.062394
5.850000	-0.205556	-111.802380	-43.727600	135.923031	-43.727600	135.923031	-0.151226	-86.732201
5.900000	-0.207058	-112.718221	-44.045211	132.185910	-44.045211	132.185910	-0.153269	-87.401037
5.950000	-0.208879	-113.622284	-44.303361	128.525349	-44.303361	128.525349	-0.155381	-88.067512
6.000000	-0.210882	-114.519285	-44.526626	124.929404	-44.526626	124.929404	-0.157542	-88.732305
6.050000	-0.213031	-115.410636	-44.720790	121.385152	-44.720790	121.385152	-0.159741	-89.395754
6.100000	-0.215386	-116.293775	-44.869194	117.942522	-44.869194	117.942522	-0.162006	-90.056903
6.150000	-0.217803	-117.174429	-45.004934	114.533084	-45.004934	114.533084	-0.164291	-90.717325
6.200000	-0.220406	-118.047662	-45.097910	111.242457	-45.097910	111.242457	-0.166644	-91.375326
6.250000	-0.223068	-118.918581	-45.178334	107.997855	-45.178334	107.997855	-0.169023	-92.032454
6.300000	-0.225842	-119.785150	-45.233837	104.839781	-45.233837	104.839781	-0.171449	-92.687943
6.350000	-0.228707	-120.648318	-45.270402	101.762925	-45.270402	101.762925	-0.173918	-93.341964
6.400000	-0.231631	-121.509322	-45.294813	98.737755	-45.294813	98.737755	-0.176415	-93.995050
6.450000	-0.234672	-122.366217	-45.296948	95.827269	-45.296948	95.827269	-0.178973	-94.646113
6.500000	-0.237748	-123.221971	-45.293027	92.950886	-45.293027	92.950886	-0.181549	-95.296578
6.550000	-0.240930	-124.074294	-45.271345	90.184366	-45.271345	90.184366	-0.184186	-95.945123
6.600000	-0.244159	-124.925251	-45.242996	87.467388	-45.242996	87.467388	-0.186852	-96.592800
6.650000	-0.247458	-125.774184	-45.204813	84.823872	-45.204813	84.823872	-0.189559	-97.239190
6.700000	-0.250840	-126.621029	-45.157087	82.266512	-45.157087	82.266512	-0.192319	-97.884054
6.750000	-0.254262	-127.466830	-45.104798	79.752229	-45.104798	79.752229	-0.195105	-98.528156
6.800000	-0.257761	-128.310993	-45.045637	77.315983	-45.045637	77.315983	-0.197940	-99.170854
6.850000	-0.261314	-129.153985	-44.981781	74.935479	-44.981781	74.935479	-0.200812	-99.812551
6.900000	-0.264931	-129.995863	-44.913768	72.618266	-44.913768	72.618266	-0.203728	-100.453091
6.950000	-0.268612	-130.836624	-44.841699	70.364346	-44.841699	70.364346	-0.206688	-101.092475
7.000000	-0.272347	-131.676679	-44.767420	68.160576	-44.767420	68.160576	-0.209685	-101.730935
7.050000	-0.276156	-132.515745	-44.689881	66.027017	-44.689881	66.027017	-0.212734	-102.368101
7.100000	-0.280009	-133.354414	-44.611487	63.931967	-44.611487	63.931967	-0.215814	-103.004558
7.150000	-0.283948	-134.192292	-44.530741	61.913936	-44.530741	61.913936	-0.218955	-103.639600
7.200000	-0.287920	-135.029998	-44.450034	59.924018	-44.450034	59.924018	-0.222120	-104.274134
7.250000	-0.291990	-135.867188	-44.367970	58.018439	-44.367970	58.018439	-0.225354	-104.907147
7.300000	-0.296084	-136.704349	-44.286464	56.131442	-44.286464	56.131442	-0.228605	-105.539840
7.350000	-0.300291	-137.541360	-44.204679	54.337355	-44.204679	54.337355	-0.231936	-106.170926
7.400000	-0.304511	-138.378399	-44.123667	52.552692	-44.123667	52.552692	-0.235276	-106.801861
7.450000	-0.308859	-139.215757	-44.043530	50.871685	-44.043530	50.871685	-0.238705	-107.431126
7.500000	-0.313211	-140.053115	-43.964125	49.190678	-43.964125	49.190678	-0.242136	-108.060391
7.550000	-0.317710	-140.891385	-43.886824	47.627450	-43.886824	47.627450	-0.245668	-108.687949
7.600000	-0.322212	-141.729655	-43.810205	46.064222	-43.810205	46.064222	-0.249202	-109.315506
7.650000	-0.326861	-142.569331	-43.736559	44.616848	-43.736559	44.616848	-0.252832	-109.941611
7.700000	-0.331526	-143.409135	-43.663740	43.180007	-43.663740	43.180007	-0.256472	-110.567584
7.750000	-0.336337	-144.250804	-43.594445	41.859880	-43.594445	41.859880	-0.260204	-111.192351
7.800000	-0.341180	-145.092846	-43.526277	40.563096	-43.526277	40.563096	-0.263955	-111.816875
7.850000	-0.346171	-145.937185	-43.461851	39.386685	-43.461851	39.386685	-0.267793	-112.440430
7.900000	-0.351214	-146.782288	-43.398962	38.250398	-43.398962	38.250398	-0.271661	-113.063660
7.950000	-0.356408	-147.630094	-43.339647	37.240938	-43.339647	37.240938	-0.275612	-113.686146
8.000000	-0.361679	-148.479250	-43.282285	36.294891	-43.282285	36.294891	-0.279605	-114.308261
8.050000	-0.367109	-149.331493	-43.227844	35.484794	-43.227844	35.484794	-0.283677	-114.929847
8.100000	-0.372652	-150.185939	-43.175549	34.771805	-43.175549	34.771805	-0.287805	-115.551057
8.150000	-0.378363	-151.043830	-43.124871	34.206060	-43.124871	34.206060	-0.292007	-116.171945
8.200000	-0.384240	-151.905166	-43.075784	33.787559	-43.075784	33.787559	-0.296284	-116.792512
8.250000	-0.390297	-152.770270	-43.026134	33.528365	-43.026134	33.528365	-0.300631	-117.412951
8.300000	-0.396603	-153.640648	-42.975599	33.492198	-42.975599	33.492198	-0.305077	-118.033209
8.350000	-0.403048	-154.513887	-42.922927	33.576320	-42.922927	33.576320	-0.309571	-118.653481
8.400000	-0.409863	-155.394881	-42.862754	33.985829	-42.862754	33.985829	-0.314194	-119.273838
8.450000	-0.417020	-156.282869	-42.791628	34.685198	-42.791628	34.685198	-0.318925	-119.894439
8.500000	-0.424589	-157.179028	-42.703341	35.716478	-42.703341	35.716478	-0.323778	-120.515447
8.550000	-0.432657	-158.084817	-42.589241	37.125528	-42.589241	37.125528	-0.328771	-121.137065
8.600000	-0.441346	-159.002065	-42.437415	38.959480	-42.437415	38.959480	-0.333925	-121.759541
8.650000	-0.450818	-159.933107	-42.231766	41.261724	-42.231766	41.261724	-0.339271	-122.383186
8.700000	-0.461300	-160.880970	-41.951106	44.063235	-41.951106	44.063235	-0.344850	-123.008399
8.750000	-0.473114	-161.849652	-41.568581	47.369258	-41.568581	47.369258	-0.350722	-123.635694
8.800000	-0.486824	-162.845725	-41.044192	51.151840	-41.044192	51.151840	-0.356987	-124.265885
8.850000	-0.503143	-163.876248	-40.343977	55.283927	-40.343977	55.283927	-0.363767	-124.899860
8.900000	-0.523281	-164.952325	-39.428485	59.573993	-39.428485	59.573993	-0.371271	-125.538958
8.950000	-0.549279	-166.090313	-38.259756	63.746104	-38.259756	63.746104	-0.379839	-126.185082
9.000000	-0.584374	-167.311791	-36.818683	67.468432	-36.818683	67.468432	-0.389995	-126.840618
9.050000	-0.635898	-168.659395	-35.045099	70.275030	-35.045099	70.275030	-0.402908	-127.509979
9.100000	-0.718564	-170.193212	-32.894635	71.570235	-32.894635	71.570235	-0.420804	-128.198334
9.150000	-0.866878	-171.995064	-30.304216	70.407177	-30.304216	70.407177	-0.448587	-128.909214
9.200000	-1.174641	-174.077123	-27.181985	64.807551	-27.181985	64.807551	-0.498179	-129.623115
9.250000	-1.888059	-175.377749	-23.603862	50.159861	-23.603862	50.159861	-0.592950	-130.157173
9.300000	-2.818600	-169.324054	-20.902126	19.679557	-20.902126	19.679557	-0.683911	-129.845607
9.350000	-1.932033	-162.016786	-21.590787	-14.692802	-21.590787	-14.692802	-0.577186	-129.537320
9.400000	-1.102586	-163.574631	-23.914114	-34.288534	-23.914114	-34.288534	-0.475979	-130.232283
9.450000	-0.785116	-166.114276	-25.972921	-43.914407	-25.972921	-43.914407	-0.438292	-131.069873
9.500000	-0.656485	-168.194367	-27.551033	-49.141236	-27.551033	-49.141236	-0.426115	-131.848340
9.550000	-0.597839	-169.895460	-28.754392	-52.351740	-28.754392	-52.351740	-0.423509	-132.573612
9.600000	-0.569155	-171.354316	-29.686233	-54.554854	-29.686233	-54.554854	-0.424949	-133.264000
9.650000	-0.554529	-172.664236	-30.431252	-56.239863	-30.431252	-56.239863	-0.428251	-133.932666
9.700000	-0.547826	-173.870685	-31.027472	-57.622158	-31.027472	-57.622158	-0.432586	-134.586098
9.750000	-0.545592	-175.007485	-31.512763	-58.837572	-31.512763	-58.837572	-0.437498	-135.229177
9.800000	-0.546027	-176.096252	-31.914479	-59.962034	-31.914479	-59.962034	-0.442758	-135.865041
9.850000	-0.548314	-177.147285	-32.242857	-61.034809	-32.242857	-61.034809	-0.448265	-136.495164
9.900000	-0.551638	-178.174979	-32.523719	-62.087347	-32.523719	-62.087347	-0.453919	-137.121684
9.950000	-0.555771	-179.183190	-32.760825	-63.131868	-32.760825	-63.131868	-0.459696	-137.745151
10.000000	-0.560484	179.823406	-32.961739	-64.178000	-32.961739	-64.178000	-0.465571	-138.366252
