! freq	dB(S11)	phase(S11)	dB(S12)	phase(S12)	
!     	dB(S21)	phase(S21)	dB(S22)	phase(S22)	
!S-par simulation data
#  GHz  S  DB  R 50
0.000000	-81.996560	0.000000	-0.000690	0.000000	-0.000690	0.000000	-81.996560	0.000000
0.050000	-47.582576	-87.931041	-0.004254	-2.749743	-0.004254	-2.749743	-47.581282	-87.955762
0.100000	-41.861571	-92.519817	-0.010573	-5.468154	-0.010573	-5.468154	-41.861088	-92.521055
0.150000	-38.451396	-96.231626	-0.015940	-8.169056	-0.015940	-8.169056	-38.451558	-96.228987
0.200000	-36.032509	-99.549317	-0.020347	-10.865692	-0.020347	-10.865692	-36.032874	-99.545478
0.250000	-34.176320	-102.658092	-0.024237	-13.561991	-0.024237	-13.561991	-34.176690	-102.653446
0.300000	-32.685645	-105.656924	-0.027974	-16.258630	-0.027974	-16.258630	-32.685936	-105.651392
0.350000	-31.452432	-108.589050	-0.031718	-18.955259	-0.031718	-18.955259	-31.452617	-108.582497
0.400000	-30.412885	-111.475081	-0.035528	-21.651438	-0.035528	-21.651438	-30.412962	-111.467391
0.450000	-29.529991	-114.325449	-0.039428	-24.346680	-0.039428	-24.346680	-29.529973	-114.316531
0.500000	-28.772387	-117.150984	-0.043392	-27.040758	-0.043392	-27.040758	-28.772299	-117.140784
0.550000	-28.119952	-119.956878	-0.047385	-29.733540	-0.047385	-29.733540	-28.119823	-119.945352
0.600000	-27.559462	-122.746486	-0.051359	-32.424959	-0.051359	-32.424959	-27.559325	-122.733588
0.650000	-27.082939	-125.522224	-0.055245	-35.115058	-0.055245	-35.115058	-27.082830	-125.507880
0.700000	-26.679048	-128.287252	-0.058987	-37.804164	-0.058987	-37.804164	-26.678999	-128.271354
0.750000	-26.341923	-131.043241	-0.062527	-40.492639	-0.062527	-40.492639	-26.341967	-131.025635
0.800000	-26.070058	-133.791311	-0.065799	-43.181000	-0.065799	-43.181000	-26.070226	-133.771768
0.850000	-25.859569	-136.533045	-0.068775	-45.869967	-0.068775	-45.869967	-25.859885	-136.511266
0.900000	-25.707965	-139.269755	-0.071457	-48.560282	-0.071457	-48.560282	-25.708448	-139.245367
0.950000	-25.614851	-142.002600	-0.073878	-51.252693	-0.073878	-51.252693	-25.615510	-141.975152
1.000000	-25.580525	-144.732772	-0.076104	-53.947805	-0.076104	-53.947805	-25.581359	-144.701735
1.050000	-25.606326	-147.461501	-0.078222	-56.645990	-0.078222	-56.645990	-25.607324	-147.426274
1.100000	-25.694736	-150.190090	-0.080314	-59.347358	-0.080314	-59.347358	-25.695875	-150.150003
1.150000	-25.849557	-152.919951	-0.082441	-62.051822	-0.082441	-62.051822	-25.850804	-152.874262
1.200000	-26.076203	-155.652643	-0.084631	-64.759221	-0.084631	-64.759221	-26.077517	-155.600528
1.250000	-26.382139	-158.389929	-0.086881	-67.469444	-0.086881	-67.469444	-26.383473	-158.330453
1.300000	-26.779296	-161.134056	-0.089174	-70.182580	-0.089174	-70.182580	-26.780603	-161.066080
1.350000	-27.280159	-163.887438	-0.091482	-72.898753	-0.091482	-72.898753	-27.281402	-163.809543
1.400000	-27.904236	-166.653303	-0.093789	-75.618279	-0.093789	-75.618279	-27.905394	-166.563559
1.450000	-28.679357	-169.436119	-0.096090	-78.341563	-0.096090	-78.341563	-28.680433	-169.331710
1.500000	-29.646720	-172.242669	-0.098398	-81.069055	-0.098398	-81.069055	-29.647758	-172.119219
1.550000	-30.870588	-175.084468	-0.100736	-83.801220	-0.100736	-83.801220	-30.871690	-174.934705
1.600000	-32.458880	-177.983846	-0.103146	-86.538512	-0.103146	-86.538512	-32.460251	-177.794638
1.650000	-34.613765	179.007550	-0.105680	-89.281355	-0.105680	-89.281355	-34.615843	179.263088
1.700000	-37.787077	175.732846	-0.108399	-92.030133	-0.108399	-92.030133	-37.791048	176.123447
1.750000	-43.400745	171.331301	-0.111376	-94.785182	-0.111376	-94.785182	-43.412710	172.153795
1.800000	-61.687172	108.357569	-0.114686	-97.546729	-0.114686	-97.546729	-62.157996	112.720621
1.850000	-43.212395	-7.945128	-0.118424	-100.315150	-0.118424	-100.315150	-43.209139	-8.806730
1.900000	-36.830862	-12.319538	-0.122679	-103.090557	-0.122679	-103.090557	-36.827148	-12.758511
1.950000	-33.017676	-15.634511	-0.127547	-105.873053	-0.127547	-105.873053	-33.014575	-15.936593
2.000000	-30.254159	-18.696084	-0.133124	-108.662635	-0.133124	-108.662635	-30.251574	-18.930721
2.050000	-28.068007	-21.660152	-0.139511	-111.459272	-0.139511	-111.459272	-28.065848	-21.854854
2.100000	-26.249756	-24.578272	-0.146809	-114.262864	-0.146809	-114.262864	-26.247960	-24.746621
2.150000	-24.687915	-27.472224	-0.155120	-117.073240	-0.155120	-117.073240	-24.686435	-27.621870
2.200000	-23.315876	-30.352626	-0.164549	-119.890177	-0.164549	-119.890177	-23.314672	-30.488286
2.250000	-22.090628	-33.225164	-0.175202	-122.713394	-0.175202	-122.713394	-22.089664	-33.349953
2.300000	-20.983299	-36.093096	-0.187167	-125.542453	-0.187167	-125.542453	-20.982540	-36.209158
2.350000	-19.972952	-38.958237	-0.200538	-128.376903	-0.200538	-128.376903	-19.972366	-39.067137
2.400000	-19.044117	-41.821606	-0.215401	-131.216224	-0.215401	-131.216224	-19.043674	-41.924531
2.450000	-18.185033	-44.683715	-0.231838	-134.059832	-0.231838	-134.059832	-18.184704	-44.781599
2.500000	-17.386541	-47.544737	-0.249925	-136.907080	-0.249925	-136.907080	-17.386303	-47.638337
2.550000	-16.641238	-50.404590	-0.269745	-139.757286	-0.269745	-139.757286	-16.641068	-50.494542
2.600000	-15.943433	-53.263036	-0.291339	-142.609653	-0.291339	-142.609653	-15.943313	-53.349873
2.650000	-15.288299	-56.119689	-0.314754	-145.463372	-0.314754	-145.463372	-15.288213	-56.203873
2.700000	-14.671821	-58.974061	-0.340028	-148.317595	-0.340028	-148.317595	-14.671757	-59.055995
2.750000	-14.090624	-61.825574	-0.367184	-151.171438	-0.367184	-151.171438	-14.090571	-61.905617
2.800000	-13.541836	-64.673589	-0.396238	-154.023988	-0.396238	-154.023988	-13.541788	-64.752055
2.850000	-13.022979	-67.517367	-0.427203	-156.874287	-0.427203	-156.874287	-13.022931	-67.594542
2.900000	-12.531946	-70.356184	-0.460059	-159.721388	-0.460059	-159.721388	-12.531895	-70.432319
2.950000	-12.066870	-73.189285	-0.494775	-162.564348	-0.494775	-162.564348	-12.066816	-73.264604
3.000000	-11.626099	-76.015883	-0.531312	-165.402221	-0.531312	-165.402221	-11.626041	-76.090588
3.050000	-11.208164	-78.835187	-0.569621	-168.234073	-0.569621	-168.234073	-11.208104	-78.909455
3.100000	-10.811750	-81.646403	-0.609636	-171.058992	-0.609636	-171.058992	-10.811689	-81.720395
3.150000	-10.435692	-84.448700	-0.651290	-173.876046	-0.651290	-173.876046	-10.435634	-84.522558
3.200000	-10.078925	-87.241303	-0.694491	-176.684372	-0.694491	-176.684372	-10.078873	-87.315156
3.250000	-9.740448	-90.023529	-0.739132	-179.483206	-0.739132	-179.483206	-9.740404	-90.097490
3.300000	-9.419357	-92.794683	-0.785102	177.728206	-0.785102	177.728206	-9.419324	-92.868855
3.350000	-9.114956	-95.553813	-0.832302	174.950847	-0.832302	174.950847	-9.114937	-95.628291
3.400000	-8.826239	-98.300835	-0.880560	172.184876	-0.880560	172.184876	-8.826237	-98.375699
3.450000	-8.552585	-101.034980	-0.929757	169.431071	-0.929757	169.431071	-8.552602	-101.110310
3.500000	-8.293323	-103.755766	-0.979748	166.689941	-0.979748	166.689941	-8.293361	-103.831632
3.550000	-8.047824	-106.462771	-1.030381	163.961918	-1.030381	163.961918	-8.047885	-106.539241
3.600000	-7.815497	-109.155646	-1.081501	161.247364	-1.081501	161.247364	-7.815581	-109.232785
3.650000	-7.595787	-111.834108	-1.132944	158.546564	-1.132944	158.546564	-7.595895	-111.911980
3.700000	-7.388170	-114.497951	-1.184547	155.859726	-1.184547	155.859726	-7.388302	-114.576617
3.750000	-7.192152	-117.147041	-1.236143	153.186983	-1.236143	153.186983	-7.192309	-117.226562
3.800000	-7.007421	-119.780995	-1.287548	150.528698	-1.287548	150.528698	-7.007601	-119.861438
3.850000	-6.833386	-122.400157	-1.338599	147.884537	-1.338599	147.884537	-6.833588	-122.481585
3.900000	-6.669632	-125.004620	-1.389128	145.254400	-1.389128	145.254400	-6.669855	-125.087100
3.950000	-6.515768	-127.594551	-1.438965	142.638112	-1.438965	142.638112	-6.516011	-127.678154
4.000000	-6.371427	-130.170190	-1.487944	140.035430	-1.487944	140.035430	-6.371689	-130.254989
4.050000	-6.236265	-132.731845	-1.535900	137.446036	-1.535900	137.446036	-6.236544	-132.817917
4.100000	-6.109960	-135.279892	-1.582671	134.869549	-1.582671	134.869549	-6.110254	-135.367318
4.150000	-5.992213	-137.814772	-1.628096	132.305521	-1.628096	132.305521	-5.992520	-137.903638
4.200000	-5.882743	-140.336990	-1.672022	129.753441	-1.672022	129.753441	-5.883062	-140.427387
4.250000	-5.781295	-142.847111	-1.714297	127.212738	-1.714297	127.212738	-5.781623	-142.939135
4.300000	-5.687631	-145.345759	-1.754773	124.682783	-1.754773	124.682783	-5.687967	-145.439512
4.350000	-5.601536	-147.833613	-1.793309	122.162889	-1.793309	122.162889	-5.601879	-147.929201
4.400000	-5.522887	-150.311303	-1.829741	119.652408	-1.829741	119.652408	-5.523236	-150.408844
4.450000	-5.451511	-152.779644	-1.863934	117.150519	-1.863934	117.150519	-5.451863	-152.879257
4.500000	-5.387183	-155.239578	-1.895786	114.656275	-1.895786	114.656275	-5.387539	-155.341393
4.550000	-5.329774	-157.691988	-1.925176	112.168779	-1.925176	112.168779	-5.330132	-157.796140
4.600000	-5.279176	-160.137801	-1.951989	109.687088	-1.951989	109.687088	-5.279537	-160.244432
4.650000	-5.235304	-162.577986	-1.976117	107.210212	-1.976117	107.210212	-5.235667	-162.687248
4.700000	-5.198095	-165.013552	-1.997456	104.737116	-1.997456	104.737116	-5.198460	-165.125605
4.750000	-5.167511	-167.445550	-2.015910	102.266717	-2.015910	102.266717	-5.167879	-167.560565
4.800000	-5.143538	-169.875067	-2.031388	99.797890	-2.031388	99.797890	-5.143909	-169.993225
4.850000	-5.126187	-172.303229	-2.043807	97.329465	-2.043807	97.329465	-5.126563	-172.424722
4.900000	-5.115497	-174.731194	-2.053091	94.860225	-2.053091	94.860225	-5.115880	-174.856228
4.950000	-5.111534	-177.160160	-2.059170	92.388911	-2.059170	92.388911	-5.111925	-177.288951
5.000000	-5.114396	-179.591353	-2.061982	89.914215	-2.061982	89.914215	-5.114797	-179.724136
5.050000	-5.124365	177.973859	-2.061398	87.434651	-2.061398	87.434651	-5.124779	177.836830
5.100000	-5.141457	175.534232	-2.057445	84.948890	-2.057445	84.948890	-5.141887	175.392687
5.150000	-5.165874	173.088442	-2.050084	82.455480	-2.050084	82.455480	-5.166323	172.942092
5.200000	-5.197857	170.635139	-2.039288	79.952922	-2.039288	79.952922	-5.198330	170.483673
5.250000	-5.237692	168.172948	-2.025038	77.439669	-2.025038	77.439669	-5.238192	168.016029
5.300000	-5.285710	165.700472	-2.007325	74.914120	-2.007325	74.914120	-5.286243	165.537734
5.350000	-5.342299	163.216295	-1.986153	72.374624	-1.986153	72.374624	-5.342870	163.047340
5.400000	-5.407901	160.718985	-1.961537	69.819479	-1.961537	69.819479	-5.408516	160.543379
5.450000	-5.483025	158.207105	-1.933504	67.246928	-1.933504	67.246928	-5.483692	158.024373
5.500000	-5.568251	155.679215	-1.902097	64.655162	-1.902097	64.655162	-5.568978	155.488834
5.550000	-5.664242	153.133884	-1.867373	62.042322	-1.867373	62.042322	-5.665037	152.935279
5.600000	-5.771751	150.569702	-1.829406	59.406493	-1.829406	59.406493	-5.772623	150.362234
5.650000	-5.891759	147.985059	-1.788252	56.745422	-1.788252	56.745422	-5.892722	147.768011
5.700000	-6.025267	145.378594	-1.744029	54.057029	-1.744029	54.057029	-6.026332	145.151162
5.750000	-6.173271	142.749295	-1.696905	51.339533	-1.696905	51.339533	-6.174454	142.510586
5.800000	-6.337044	140.096045	-1.647042	48.590842	-1.647042	48.590842	-6.338363	139.845049
5.850000	-6.518041	137.417882	-1.594622	45.808838	-1.594622	45.808838	-6.519516	137.153455
5.900000	-6.717931	134.714054	-1.539860	42.991381	-1.539860	42.991381	-6.719586	134.434891
5.950000	-6.938630	131.984084	-1.482997	40.136324	-1.482997	40.136324	-6.940495	131.688685
6.000000	-7.182354	129.227858	-1.424308	37.241527	-1.424308	37.241527	-7.184464	128.914489
6.050000	-7.451672	126.445742	-1.364104	34.304872	-1.364104	34.304872	-7.454071	126.112385
6.100000	-7.749582	123.638729	-1.302731	31.324288	-1.302731	31.324288	-7.752323	123.283015
6.150000	-8.079607	120.808649	-1.240575	28.297773	-1.240575	28.297773	-8.082758	120.427769
6.200000	-8.445917	117.958437	-1.178062	25.223424	-1.178062	25.223424	-8.449565	117.549033
6.250000	-8.853498	115.092526	-1.115661	22.099469	-1.115661	22.099469	-8.857754	114.650536
6.300000	-9.308827	112.217410	-1.053899	18.923444	-1.053899	18.923444	-9.313842	111.737755
6.350000	-9.818885	109.342847	-0.993337	15.694782	-0.993337	15.694782	-9.824860	108.819290
6.400000	-10.393358	106.482985	-0.934610	12.411477	-0.934610	12.411477	-10.400576	105.907475
6.450000	-11.042995	103.657384	-0.878323	9.074189	-0.878323	9.074189	-11.051853	103.019780
6.500000	-11.783061	100.895496	-0.825171	5.681896	-0.825171	5.681896	-11.794145	100.182297
6.550000	-12.633322	98.241617	-0.775867	2.234575	-0.775867	2.234575	-12.647530	97.434508
6.600000	-13.620721	95.765096	-0.731156	-1.267328	-0.731156	-1.267328	-13.639495	94.838409
6.650000	-14.783315	93.579947	-0.691799	-4.822854	-0.691799	-4.822854	-14.809113	92.496291
6.700000	-16.176248	91.865759	-0.658409	-8.429336	-0.658409	-8.429336	-16.213518	90.570222
6.750000	-17.888894	91.044717	-0.632139	-12.087517	-0.632139	-12.087517	-17.946947	89.443067
6.800000	-20.060569	91.938536	-0.613543	-15.792871	-0.613543	-15.792871	-20.161206	89.873530
6.850000	-22.917377	96.698585	-0.603347	-19.542001	-0.603347	-19.542001	-23.122950	93.912998
6.900000	-26.634784	111.913041	-0.602236	-23.330883	-0.602236	-23.330883	-27.158258	108.429201
6.950000	-29.253261	151.075426	-0.610834	-27.154894	-0.610834	-27.154894	-30.298100	150.992910
7.000000	-26.479770	-169.669441	-0.629690	-31.008858	-0.629690	-31.008858	-27.022531	-166.168041
7.050000	-22.614099	-154.708301	-0.659265	-34.887114	-0.659265	-34.887114	-22.835358	-151.853314
7.100000	-19.618683	-150.196681	-0.699972	-38.783655	-0.699972	-38.783655	-19.731557	-148.033687
7.150000	-17.311618	-149.560679	-0.752112	-42.692044	-0.752112	-42.692044	-17.379470	-147.846479
7.200000	-15.466910	-150.659738	-0.815701	-46.605555	-0.815701	-46.605555	-15.512243	-149.244887
7.250000	-13.944133	-152.675657	-0.890739	-50.517588	-0.890739	-50.517588	-13.976689	-151.471152
7.300000	-12.657129	-155.224997	-0.977103	-54.421618	-0.977103	-54.421618	-12.681754	-154.175275
7.350000	-11.550345	-158.104657	-1.074554	-58.311313	-1.074554	-58.311313	-11.569711	-157.173173
7.400000	-10.586119	-161.196429	-1.182740	-62.180655	-1.182740	-62.180655	-10.601818	-160.358021
7.450000	-9.737772	-164.426239	-1.301210	-66.024034	-1.301210	-66.024034	-9.750810	-163.662911
7.500000	-8.985677	-167.744887	-1.429423	-69.836333	-1.429423	-69.836333	-8.996722	-167.043349
7.550000	-8.315261	-171.118577	-1.566853	-73.612416	-1.566853	-73.612416	-8.324776	-170.468639
7.600000	-7.714531	-174.521735	-1.712709	-77.348802	-1.712709	-77.348802	-7.722845	-173.915626
7.650000	-7.174161	-177.936376	-1.866272	-81.042190	-1.866272	-81.042190	-7.181514	-177.367943
7.700000	-6.686539	178.651032	-2.026795	-84.689904	-2.026795	-84.689904	-6.693113	179.186744
7.750000	-6.245347	175.250756	-2.193518	-88.289886	-2.193518	-88.289886	-6.251279	175.757794
7.800000	-5.845261	171.870595	-2.365677	-91.840671	-2.365677	-91.840671	-5.850660	172.352305
7.850000	-5.481743	168.516433	-2.542518	-95.341341	-2.542518	-95.341341	-5.486694	168.975613
7.900000	-5.150883	165.192641	-2.723302	-98.791493	-2.723302	-98.791493	-5.155453	165.631655
7.950000	-4.849445	161.902724	-2.907303	-102.190696	-2.907303	-102.190696	-4.853690	162.323601
8.000000	-4.574353	158.648717	-3.093824	-105.539676	-3.093824	-105.539676	-4.578317	159.053189
8.050000	-4.322908	155.431805	-3.282221	-108.839508	-3.282221	-108.839508	-4.326629	155.821362
8.100000	-4.092805	152.252693	-3.471882	-112.091330	-3.471882	-112.091330	-4.096312	152.628632
8.150000	-3.881999	149.111563	-3.662231	-115.296532	-3.662231	-115.296532	-3.885318	149.475019
8.200000	-3.688674	146.008170	-3.852729	-118.456718	-3.852729	-118.456718	-3.691825	146.360142
8.250000	-3.511211	142.941928	-4.042872	-121.573667	-4.042872	-121.573667	-3.514211	143.283297
8.300000	-3.348165	139.911972	-4.232187	-124.649294	-4.232187	-124.649294	-3.351029	140.243522
8.350000	-3.198291	136.917385	-4.420208	-127.685448	-4.420208	-127.685448	-3.201030	137.239814
8.400000	-3.060467	133.957044	-4.606487	-130.684104	-4.606487	-130.684104	-3.063090	134.270980
8.450000	-2.933559	131.029213	-4.790691	-133.647822	-4.790691	-133.647822	-2.936075	131.335208
8.500000	-2.816833	128.133107	-4.972297	-136.578081	-4.972297	-136.578081	-2.819248	128.431672
8.550000	-2.709101	125.265786	-5.151232	-139.478584	-5.151232	-139.478584	-2.711420	125.557356
8.600000	-2.609830	122.426388	-5.327011	-142.350785	-5.327011	-142.350785	-2.612057	122.711368
8.650000	-2.518092	119.612188	-5.499577	-145.198037	-5.499577	-145.198037	-2.520232	119.890928
8.700000	-2.433918	116.823869	-5.667924	-148.020328	-5.667924	-148.020328	-2.435972	117.096718
8.750000	-2.355847	114.056075	-5.832854	-150.823427	-5.832854	-150.823427	-2.357819	114.323302
8.800000	-2.284612	111.311540	-5.992469	-153.605611	-5.992469	-153.605611	-2.286503	111.573444
8.850000	-2.218646	108.584142	-6.148033	-156.373130	-6.148033	-156.373130	-2.220457	108.840942
8.900000	-2.158257	105.874431	-6.298222	-159.126423	-6.298222	-159.126423	-2.159992	106.126357
8.950000	-2.102935	103.179783	-6.442969	-161.868662	-6.442969	-161.868662	-2.104595	103.427036
9.000000	-2.052401	100.498173	-6.581906	-164.602567	-6.581906	-164.602567	-2.053988	100.740936
9.050000	-2.006431	97.827549	-6.714617	-167.330940	-6.714617	-167.330940	-2.007948	98.065992
9.100000	-1.964950	95.165929	-6.840422	-170.056757	-6.840422	-170.056757	-1.966400	95.400215
9.150000	-1.927748	92.510793	-6.958959	-172.783364	-6.958959	-172.783364	-1.929135	92.741076
9.200000	-1.894700	89.859630	-7.069752	-175.514216	-7.069752	-175.514216	-1.896030	90.086058
9.250000	-1.865769	87.209818	-7.172187	-178.253065	-7.172187	-178.253065	-1.867047	87.432540
9.300000	-1.840969	84.558507	-7.265577	178.995956	-7.265577	178.995956	-1.842202	84.777678
9.350000	-1.820377	81.902566	-7.349150	176.228238	-7.349150	176.228238	-1.821573	82.118355
9.400000	-1.804215	79.238321	-7.421824	173.438105	-7.421824	173.438105	-1.805386	79.450919
9.450000	-1.792732	76.561679	-7.482564	170.619314	-7.482564	170.619314	-1.793889	76.771313
9.500000	-1.786195	73.868352	-7.530423	167.765338	-7.530423	167.765338	-1.787352	74.075293
9.550000	-1.785076	71.153296	-7.564096	164.868119	-7.564096	164.868119	-1.786247	71.357878
9.600000	-1.790014	68.410723	-7.582084	161.918161	-7.582084	161.918161	-1.791213	68.613373
9.650000	-1.801861	65.633957	-7.582659	158.904143	-7.582659	158.904143	-1.803102	65.835225
9.700000	-1.821829	62.814822	-7.563642	155.811607	-7.563642	155.811607	-1.823122	63.015434
9.750000	-1.851665	59.943028	-7.522234	152.621457	-7.522234	152.621457	-1.853013	60.143967
9.800000	-1.893227	57.009086	-7.456222	149.314749	-7.456222	149.314749	-1.894613	57.211638
9.850000	-1.949302	54.000762	-7.362451	145.865176	-7.362451	145.865176	-1.950682	54.206651
9.900000	-2.023683	50.904113	-7.237272	142.239298	-7.237272	142.239298	-2.024959	51.115655
9.950000	-2.121594	47.703679	-7.076498	138.393992	-7.076498	138.393992	-2.122576	47.923992
10.000000	-2.250309	44.383281	-6.875392	134.272804	-6.875392	134.272804	-2.250647	44.616547
