! freq	dB(S11)	phase(S11)	dB(S12)	phase(S12)	
!     	dB(S21)	phase(S21)	dB(S22)	phase(S22)	
!S-par simulation data
#  GHz  S  DB  R 50
0.000000	-78.962582	0.000000	-0.000979	0.000000	-0.000979	0.000000	-78.962582	0.000000
0.050000	-57.862755	58.370156	-0.007680	-2.987174	-0.007680	-2.987174	-57.861121	58.341582
0.100000	-53.703777	63.763979	-0.013809	-5.922563	-0.013809	-5.922563	-53.702096	63.704239
0.150000	-50.575468	65.740424	-0.018301	-8.851400	-0.018301	-8.851400	-50.573733	65.649403
0.200000	-47.959135	65.736673	-0.022568	-11.777632	-0.022568	-11.777632	-47.956297	65.612399
0.250000	-45.665207	66.048076	-0.026788	-14.701251	-0.026788	-14.701251	-45.658435	65.906311
0.300000	-43.922694	67.864506	-0.030905	-17.622409	-0.030905	-17.622409	-43.917599	67.750352
0.350000	-42.777473	67.921853	-0.034856	-20.541788	-0.034856	-20.541788	-42.780941	67.786749
0.400000	-41.701643	65.532016	-0.038609	-23.460134	-0.038609	-23.460134	-41.707605	65.342873
0.450000	-40.563215	62.584677	-0.042155	-26.378130	-0.042155	-26.378130	-40.568481	62.359699
0.500000	-39.443275	59.665624	-0.045544	-29.296346	-0.045544	-29.296346	-39.447779	59.416209
0.550000	-38.362777	56.797314	-0.048810	-32.215129	-0.048810	-32.215129	-38.366744	56.529516
0.600000	-37.325063	53.960665	-0.051991	-35.134735	-0.051991	-35.134735	-37.328682	53.678287
0.650000	-36.328081	51.139412	-0.055124	-38.055347	-0.055124	-38.055347	-36.331481	50.845257
0.700000	-35.368538	48.323374	-0.058241	-40.977100	-0.058241	-40.977100	-35.371802	48.019724
0.750000	-34.439282	45.506329	-0.061378	-43.900177	-0.061378	-43.900177	-34.442468	45.195247
0.800000	-33.538640	42.684585	-0.064564	-46.824663	-0.064564	-46.824663	-33.541783	42.367853
0.850000	-32.666265	39.856322	-0.067826	-49.750594	-0.067826	-49.750594	-32.669388	39.535463
0.900000	-31.824320	37.021115	-0.071180	-52.677920	-0.071180	-52.677920	-31.827434	36.697387
0.950000	-31.007787	34.178026	-0.074651	-55.606774	-0.074651	-55.606774	-31.010901	33.852613
1.000000	-30.215460	31.326787	-0.078261	-58.537199	-0.078261	-58.537199	-30.218577	31.000726
1.050000	-29.446334	28.467315	-0.082028	-61.469235	-0.082028	-61.469235	-29.449452	28.141507
1.100000	-28.699559	25.599638	-0.085971	-64.402916	-0.085971	-64.402916	-28.702677	25.274863
1.150000	-27.974405	22.723865	-0.090108	-67.338268	-0.090108	-67.338268	-27.977519	22.400792
1.200000	-27.270233	19.840158	-0.094456	-70.275314	-0.094456	-70.275314	-27.273338	19.519354
1.250000	-26.586478	16.948721	-0.099032	-73.214066	-0.099032	-73.214066	-26.589569	16.630664
1.300000	-25.921656	14.049559	-0.103862	-76.154586	-0.103862	-76.154586	-25.924727	13.734658
1.350000	-25.276432	11.143193	-0.108956	-79.096814	-0.108956	-79.096814	-25.279478	10.831773
1.400000	-24.650360	8.229921	-0.114329	-82.040737	-0.114329	-82.040737	-24.653375	7.922244
1.450000	-24.043024	5.310065	-0.119998	-84.986330	-0.119998	-84.986330	-24.046003	5.006339
1.500000	-23.454032	2.383972	-0.125979	-87.933556	-0.125979	-87.933556	-23.456971	2.084359
1.550000	-22.883010	-0.547990	-0.132285	-90.882369	-0.132285	-90.882369	-22.885904	-0.843370
1.600000	-22.329602	-3.485434	-0.138932	-93.832709	-0.138932	-93.832709	-22.332449	-3.776495
1.650000	-21.793467	-6.427952	-0.145932	-96.784505	-0.145932	-96.784505	-21.796263	-6.714639
1.700000	-21.274277	-9.375120	-0.153298	-99.737672	-0.153298	-99.737672	-21.277019	-9.657402
1.750000	-20.771715	-12.326498	-0.161041	-102.692112	-0.161041	-102.692112	-20.774401	-12.604369
1.800000	-20.285476	-15.281633	-0.169171	-105.647718	-0.169171	-105.647718	-20.288105	-15.555105
1.850000	-19.815264	-18.240065	-0.177694	-108.604367	-0.177694	-108.604367	-19.817834	-18.509163
1.900000	-19.360711	-21.201349	-0.186621	-111.561936	-0.186621	-111.561936	-19.363223	-21.466113
1.950000	-18.921584	-24.164993	-0.195956	-114.520276	-0.195956	-114.520276	-18.924037	-24.425474
2.000000	-18.497704	-27.130491	-0.205694	-117.479225	-0.205694	-117.479225	-18.500099	-27.386747
2.050000	-18.088807	-30.097369	-0.215835	-120.438620	-0.215835	-120.438620	-18.091144	-30.349465
2.100000	-17.694636	-33.065157	-0.226374	-123.398294	-0.226374	-123.398294	-17.696916	-33.313162
2.150000	-17.314940	-36.033392	-0.237303	-126.358071	-0.237303	-126.358071	-17.317165	-36.277381
2.200000	-16.949479	-39.001624	-0.248613	-129.317774	-0.248613	-129.317774	-16.951650	-39.241674
2.250000	-16.598018	-41.969416	-0.260288	-132.277224	-0.260288	-132.277224	-16.600137	-42.205604
2.300000	-16.260332	-44.936348	-0.272312	-135.236239	-0.272312	-135.236239	-16.262402	-45.168755
2.350000	-15.936203	-47.902021	-0.284664	-138.194642	-0.284664	-138.194642	-15.938226	-48.130726
2.400000	-15.625421	-50.866058	-0.297320	-141.152259	-0.297320	-141.152259	-15.627399	-51.091141
2.450000	-15.327785	-53.828107	-0.310251	-144.108924	-0.310251	-144.108924	-15.329720	-54.049647
2.500000	-15.043102	-56.787844	-0.323427	-147.064478	-0.323427	-147.064478	-15.044996	-57.005919
2.550000	-14.771285	-59.744913	-0.336816	-150.018744	-0.336816	-150.018744	-14.773141	-59.959603
2.600000	-14.512088	-62.699105	-0.350374	-152.971613	-0.350374	-152.971613	-14.513909	-62.910486
2.650000	-14.265344	-65.650196	-0.364060	-155.922971	-0.364060	-155.922971	-14.267132	-65.858342
2.700000	-14.030896	-68.597995	-0.377828	-158.872718	-0.377828	-158.872718	-14.032654	-68.802980
2.750000	-13.808598	-71.542351	-0.391630	-161.820779	-0.391630	-161.820779	-13.810327	-71.744246
2.800000	-13.598316	-74.483149	-0.405417	-164.767101	-0.405417	-164.767101	-13.600019	-74.682025
2.850000	-13.399928	-77.420312	-0.419135	-167.711655	-0.419135	-167.711655	-13.401607	-77.616238
2.900000	-13.213325	-80.353805	-0.432728	-170.654440	-0.432728	-170.654440	-13.214982	-80.546849
2.950000	-13.038413	-83.283631	-0.446141	-173.595484	-0.446141	-173.595484	-13.040050	-83.473859
3.000000	-12.875111	-86.209832	-0.459314	-176.534844	-0.459314	-176.534844	-12.876731	-86.397310
3.050000	-12.723358	-89.132491	-0.472187	-179.472610	-0.472187	-179.472610	-12.724960	-89.317283
3.100000	-12.583104	-92.051729	-0.484702	177.591094	-0.484702	177.591094	-12.584692	-92.233898
3.150000	-12.454428	-94.967671	-0.496790	174.656124	-0.496790	174.656124	-12.456003	-95.147282
3.200000	-12.337333	-97.880523	-0.508391	171.722278	-0.508391	171.722278	-12.338896	-98.057638
3.250000	-12.231726	-100.790556	-0.519448	168.789312	-0.519448	168.789312	-12.233279	-100.965237
3.300000	-12.137643	-103.698039	-0.529904	165.856959	-0.529904	165.856959	-12.139187	-103.870348
3.350000	-12.055142	-106.603275	-0.539701	162.924916	-0.539701	162.924916	-12.056678	-106.773274
3.400000	-11.984307	-109.506599	-0.548784	159.992844	-0.548784	159.992844	-11.985837	-109.674350
3.450000	-11.925254	-112.408373	-0.557101	157.060368	-0.557101	157.060368	-11.926778	-112.573937
3.500000	-11.878125	-115.308984	-0.564601	154.127078	-0.564601	154.127078	-11.879645	-115.472425
3.550000	-11.843100	-118.208846	-0.571240	151.192528	-0.571240	151.192528	-11.844617	-118.370227
3.600000	-11.820394	-121.108389	-0.576973	148.256242	-0.576973	148.256242	-11.821909	-121.267774
3.650000	-11.810262	-124.008062	-0.581765	145.317708	-0.581765	145.317708	-11.811777	-124.165517
3.700000	-11.813004	-126.908324	-0.585582	142.376387	-0.585582	142.376387	-11.814520	-127.063916
3.750000	-11.828969	-129.809643	-0.588397	139.431710	-0.588397	139.431710	-11.830486	-129.963441
3.800000	-11.858862	-132.712533	-0.590166	136.482979	-0.590166	136.482979	-11.860383	-132.864610
3.850000	-11.902860	-135.617435	-0.590896	133.529646	-0.590896	133.529646	-11.904386	-135.767864
3.900000	-11.961494	-138.524802	-0.590578	130.571067	-0.590578	130.571067	-11.963027	-138.673660
3.950000	-12.035371	-141.435066	-0.589213	127.606581	-0.589213	127.606581	-12.036913	-141.582433
4.000000	-12.125182	-144.348629	-0.586806	124.635510	-0.586806	124.635510	-12.126735	-144.494590
4.050000	-12.231717	-147.265851	-0.583373	121.657164	-0.583373	121.657164	-12.233283	-147.410496
4.100000	-12.355874	-150.187038	-0.578937	118.670846	-0.578937	118.670846	-12.357456	-150.330463
4.150000	-12.498680	-153.112423	-0.573528	115.675852	-0.573528	115.675852	-12.500280	-153.254729
4.200000	-12.661306	-156.042146	-0.567188	112.671480	-0.567188	112.671480	-12.662928	-156.183444
4.250000	-12.845096	-158.976231	-0.559966	109.657033	-0.559966	109.657033	-12.846745	-159.116643
4.300000	-13.051596	-161.914556	-0.551921	106.631820	-0.551921	106.631820	-13.053275	-162.054213
4.350000	-13.282588	-164.856811	-0.543120	103.595168	-0.543120	103.595168	-13.284302	-164.995861
4.400000	-13.540360	-167.802478	-0.533636	100.546284	-0.533636	100.546284	-13.542116	-167.941087
4.450000	-13.827351	-170.750669	-0.523559	97.484517	-0.523559	97.484517	-13.829155	-170.889027
4.500000	-14.146182	-173.700082	-0.512994	94.409405	-0.512994	94.409405	-14.148042	-173.838403
4.550000	-14.500205	-176.648936	-0.502047	91.320391	-0.502047	91.320391	-14.502132	-176.787468
4.600000	-14.893426	-179.594770	-0.490834	88.216962	-0.490834	88.216962	-14.895432	-179.733805
4.650000	-15.330674	177.465792	-0.479481	85.098658	-0.479481	85.098658	-15.332774	177.325906
4.700000	-15.817851	174.537379	-0.468120	81.965074	-0.468120	81.965074	-15.820064	174.396223
4.750000	-16.362261	171.626380	-0.456891	78.815871	-0.456891	78.815871	-16.364612	171.483438
4.800000	-16.973104	168.741717	-0.445942	75.650779	-0.445942	75.650779	-16.975624	168.596340
4.850000	-17.662185	165.896083	-0.435427	72.469607	-0.435427	72.469607	-17.664918	165.747441
4.900000	-18.445009	163.107988	-0.425505	69.272242	-0.425505	69.272242	-18.448016	162.954988
4.950000	-19.342508	160.405317	-0.416340	66.058664	-0.416340	66.058664	-19.345878	160.246477
5.000000	-20.383905	157.831862	-0.408097	62.828941	-0.408097	62.828941	-20.387772	157.665101
5.050000	-21.612656	155.467517	-0.400974	59.582900	-0.400974	59.582900	-21.617242	155.289672
5.100000	-23.093342	153.445753	-0.395117	56.321167	-0.395117	56.321167	-23.099037	153.251937
5.150000	-24.933547	152.040742	-0.390695	53.044119	-0.390695	53.044119	-24.941126	151.822682
5.200000	-27.327574	151.896253	-0.387870	49.752238	-0.387870	49.752238	-27.338854	151.638489
5.250000	-30.670254	154.941002	-0.386803	46.446110	-0.386803	46.446110	-30.690810	154.611675
5.300000	-35.763939	169.906243	-0.387646	43.126423	-0.387646	43.126423	-35.819444	169.477992
5.350000	-39.711572	-131.490875	-0.390543	39.793964	-0.390543	39.793964	-39.819796	-131.355205
5.400000	-34.173590	-83.980418	-0.395629	36.449619	-0.395629	36.449619	-34.196908	-83.652055
5.450000	-29.412707	-73.833058	-0.403025	33.094359	-0.403025	33.094359	-29.418127	-73.661794
5.500000	-26.187100	-71.966579	-0.412843	29.729242	-0.412843	29.729242	-26.188751	-71.869595
5.550000	-23.788255	-72.606674	-0.425175	26.355397	-0.425175	26.355397	-23.788760	-72.549580
5.600000	-21.885995	-74.316732	-0.440101	22.974018	-0.440101	22.974018	-21.886093	-74.283955
5.650000	-20.313147	-76.584534	-0.457709	19.586299	-0.457709	19.586299	-20.313099	-76.567836
5.700000	-18.975138	-79.176366	-0.478043	16.193572	-0.478043	16.193572	-18.975050	-79.170958
5.750000	-17.813450	-81.972088	-0.501096	12.797222	-0.501096	12.797222	-17.813367	-81.974970
5.800000	-16.789376	-84.905819	-0.526870	9.398579	-0.526870	9.398579	-16.789320	-84.914973
5.850000	-15.876061	-87.936763	-0.555346	5.998970	-0.555346	5.998970	-15.876042	-87.950772
5.900000	-15.054111	-91.038150	-0.586488	2.599708	-0.586488	2.599708	-15.054131	-91.055986
5.950000	-14.309052	-94.191544	-0.620237	-0.797923	-0.620237	-0.797923	-14.309114	-94.212443
6.000000	-13.629789	-97.383730	-0.656518	-4.192683	-0.656518	-4.192683	-13.629890	-97.407110
6.050000	-13.007614	-100.604902	-0.695236	-7.583385	-0.695236	-7.583385	-13.007753	-100.630317
6.100000	-12.435557	-103.847576	-0.736278	-10.968911	-0.736278	-10.968911	-12.435733	-103.874677
6.150000	-11.907941	-107.105903	-0.779518	-14.348219	-0.779518	-14.348219	-11.908153	-107.134415
6.200000	-11.420072	-110.375226	-0.824812	-17.720356	-0.824812	-17.720356	-11.420318	-110.404932
6.250000	-10.968014	-113.651781	-0.872004	-21.084463	-0.872004	-21.084463	-10.968292	-113.682511
6.300000	-10.548658	-116.932532	-0.920955	-24.439579	-0.920955	-24.439579	-10.548969	-116.964147
6.350000	-10.158908	-120.214835	-0.971451	-27.785236	-0.971451	-27.785236	-10.159249	-120.247233
6.400000	-9.796274	-123.496648	-1.023304	-31.120905	-1.023304	-31.120905	-9.796645	-123.529750
6.450000	-9.458581	-126.776299	-1.076324	-34.446171	-1.076324	-34.446171	-9.458980	-126.810046
6.500000	-9.143912	-130.052432	-1.130311	-37.760734	-1.130311	-37.760734	-9.144340	-130.086784
6.550000	-8.850569	-133.323966	-1.185066	-41.064408	-1.185066	-41.064408	-8.851025	-133.358898
6.600000	-8.577033	-136.590061	-1.240385	-44.357122	-1.240385	-44.357122	-8.577517	-136.625562
6.650000	-8.321945	-139.850091	-1.296065	-47.638916	-1.296065	-47.638916	-8.322457	-139.886162
6.700000	-8.084021	-143.103661	-1.351906	-50.909998	-1.351906	-50.909998	-8.084561	-143.140314
6.750000	-7.862286	-146.350422	-1.407704	-54.170479	-1.407704	-54.170479	-7.862854	-146.387681
6.800000	-7.655927	-149.590128	-1.463238	-57.420526	-1.463238	-57.420526	-7.656523	-149.628027
6.850000	-7.463531	-152.823174	-1.518349	-60.661106	-1.518349	-60.661106	-7.464155	-152.861754
6.900000	-7.284280	-156.049716	-1.572862	-63.892717	-1.572862	-63.892717	-7.284933	-156.089028
6.950000	-7.118055	-159.269597	-1.626511	-67.115396	-1.626511	-67.115396	-7.118737	-159.309702
7.000000	-6.963709	-162.483541	-1.679166	-70.330307	-1.679166	-70.330307	-6.964421	-162.524510
7.050000	-6.820431	-165.692146	-1.730691	-73.538366	-1.730691	-73.538366	-6.821173	-165.734056
7.100000	-6.687727	-168.895910	-1.780915	-76.740327	-1.780915	-76.740327	-6.688500	-168.938847
7.150000	-6.565693	-172.095204	-1.829541	-79.936760	-1.829541	-79.936760	-6.566497	-172.139269
7.200000	-6.453162	-175.291128	-1.876560	-83.129117	-1.876560	-83.129117	-6.453998	-175.336425
7.250000	-6.349722	-178.484426	-1.921835	-86.318372	-1.921835	-86.318372	-6.350591	-178.531068
7.300000	-6.255287	178.324142	-1.965148	-89.505520	-1.965148	-89.505520	-6.256189	178.276026
7.350000	-6.169631	175.133601	-2.006319	-92.691802	-2.006319	-92.691802	-6.170569	175.083870
7.400000	-6.092052	171.942947	-2.045343	-95.878468	-2.045343	-95.878468	-6.093025	171.891454
7.450000	-6.022299	168.751235	-2.082103	-99.066694	-2.082103	-99.066694	-6.023309	168.697824
7.500000	-5.960644	165.557253	-2.116308	-102.258007	-2.116308	-102.258007	-5.961691	165.501742
7.550000	-5.906593	162.359915	-2.147949	-105.453742	-2.147949	-105.453742	-5.907680	162.302114
7.600000	-5.859839	159.158201	-2.176985	-108.655161	-2.176985	-108.655161	-5.860967	159.097911
7.650000	-5.820323	155.950966	-2.203301	-111.863687	-2.203301	-111.863687	-5.821493	155.887971
7.700000	-5.788569	152.736364	-2.226554	-115.081645	-2.226554	-115.081645	-5.789783	152.670410
7.750000	-5.763953	149.513668	-2.246897	-118.309933	-2.246897	-118.309933	-5.765213	149.444503
7.800000	-5.746507	146.281645	-2.264237	-121.550113	-2.264237	-121.550113	-5.747814	146.208994
7.850000	-5.736568	143.038582	-2.278373	-124.804370	-2.278373	-124.804370	-5.737926	142.962138
7.900000	-5.734451	139.782672	-2.289135	-128.075030	-2.289135	-128.075030	-5.735862	139.702093
7.950000	-5.739924	136.513141	-2.296619	-131.363128	-2.296619	-131.363128	-5.741392	136.428074
8.000000	-5.753231	133.228554	-2.300744	-134.670563	-2.300744	-134.670563	-5.754759	133.138615
8.050000	-5.775236	129.926200	-2.301195	-138.000920	-2.301195	-138.000920	-5.776828	129.830940
8.100000	-5.806064	126.604928	-2.298017	-141.355832	-2.298017	-141.355832	-5.807726	126.503869
8.150000	-5.845968	123.263562	-2.291228	-144.736998	-2.291228	-144.736998	-5.847704	123.156195
8.200000	-5.895539	119.900344	-2.280749	-148.146936	-2.280749	-148.146936	-5.897357	119.786103
8.250000	-5.956405	116.511204	-2.266172	-151.591346	-2.266172	-151.591346	-5.958314	116.389405
8.300000	-6.028544	113.096246	-2.247773	-155.070501	-2.247773	-155.070501	-6.030554	112.966185
8.350000	-6.112928	109.653557	-2.225503	-158.587452	-2.225503	-158.587452	-6.115050	109.514447
8.400000	-6.211147	106.180107	-2.199190	-162.146972	-2.199190	-162.146972	-6.213395	106.031037
8.450000	-6.325102	102.672688	-2.168693	-165.754443	-2.168693	-165.754443	-6.327494	102.512586
8.500000	-6.455692	99.131063	-2.134251	-169.411321	-2.134251	-169.411321	-6.458248	98.958771
8.550000	-6.604865	95.553238	-2.095890	-173.121853	-2.095890	-173.121853	-6.607613	95.367434
8.600000	-6.776219	91.934768	-2.053411	-176.894706	-2.053411	-176.894706	-6.779191	91.733817
8.650000	-6.972264	88.275004	-2.007059	179.266221	-2.007059	179.266221	-6.975504	88.057030
8.700000	-7.195906	84.573872	-1.957114	175.357157	-1.957114	175.357157	-7.199466	84.336727
8.750000	-7.451317	80.830740	-1.903798	171.372131	-1.903798	171.372131	-7.455264	80.571877
8.800000	-7.746656	77.042211	-1.847130	167.296141	-1.847130	167.296141	-7.751087	76.758216
8.850000	-8.086105	73.214626	-1.787885	163.129117	-1.787885	163.129117	-8.091143	72.901608
8.900000	-8.477801	69.352911	-1.726611	158.863502	-1.726611	158.863502	-8.483614	69.006052
8.950000	-8.933541	65.465437	-1.663970	154.487780	-1.663970	154.487780	-8.940368	65.078445
9.000000	-9.469291	61.570091	-1.600956	149.988378	-1.600956	149.988378	-9.477492	61.134359
9.050000	-10.100451	57.696847	-1.538826	145.363230	-1.538826	145.363230	-10.110553	57.201458
9.100000	-10.850810	53.890190	-1.478923	140.604667	-1.478923	140.604667	-10.863626	53.320510
9.150000	-11.760439	50.243527	-1.423286	135.693288	-1.423286	135.693288	-11.777383	49.577033
9.200000	-12.877042	46.906411	-1.373988	130.626483	-1.373988	130.626483	-12.900606	46.110499
9.250000	-14.280008	44.189839	-1.333820	125.393031	-1.333820	125.393031	-14.315157	43.211821
9.300000	-16.089508	42.696350	-1.305531	119.991566	-1.305531	119.991566	-16.147177	41.451016
9.350000	-18.509874	44.064154	-1.293117	114.412462	-1.293117	114.412462	-18.619713	42.402792
9.400000	-21.799687	52.637078	-1.299825	108.662139	-1.299825	108.662139	-22.057048	50.425718
9.450000	-25.165816	81.654173	-1.330441	102.740126	-1.330441	102.740126	-25.795775	80.381966
9.500000	-23.751039	124.598447	-1.388901	96.659341	-1.388901	96.659341	-24.234093	126.694265
9.550000	-19.601036	143.188528	-1.479739	90.434637	-1.479739	90.434637	-19.794299	145.236861
9.600000	-16.212410	147.353600	-1.607208	84.088157	-1.607208	84.088157	-16.306183	148.906115
9.650000	-13.623360	146.354931	-1.774472	77.649850	-1.774472	77.649850	-13.678027	147.567913
9.700000	-11.582734	143.109205	-1.984468	71.153374	-1.984468	71.153374	-11.618693	144.097186
9.750000	-9.929066	138.736205	-2.239367	64.637300	-2.239367	64.637300	-9.954723	139.568155
9.800000	-8.563514	133.774072	-2.539573	58.143618	-2.539573	58.143618	-8.582954	134.492157
9.850000	-7.423748	128.511397	-2.885345	51.718706	-2.885345	51.718706	-7.439392	129.142593
9.900000	-6.471088	123.118869	-3.276005	45.430596	-3.276005	45.430596	-6.484416	123.678302
9.950000	-5.675617	117.673744	-3.697556	39.383895	-3.697556	39.383895	-5.686742	118.170431
10.000000	-5.007925	112.215386	-4.118650	33.422687	-4.118650	33.422687	-5.016511	112.661984
