! freq	dB(S11)	phase(S11)	dB(S12)	phase(S12)	
!     	dB(S21)	phase(S21)	dB(S22)	phase(S22)	
!S-par simulation data
#  GHz  S  DB  R 50
0.000000	0.000000	0.000000	-333.866646	0.000000	-333.866646	0.000000	-0.000000	0.000000
0.050000	-0.000998	-0.771673	-116.888390	65.977455	-116.888390	65.977455	-0.000154	-0.764037
0.100000	-0.002701	-1.533889	-111.889792	75.504815	-111.889792	75.504815	-0.000597	-1.527509
0.150000	-0.004022	-2.290663	-108.675585	78.912469	-108.675585	78.912469	-0.001288	-2.289935
0.200000	-0.004991	-3.045965	-106.386289	80.465924	-106.386289	80.465924	-0.002151	-3.051140
0.250000	-0.005763	-3.800966	-104.655546	81.210023	-104.655546	81.210023	-0.003135	-3.810998
0.300000	-0.006448	-4.555924	-103.314263	81.558919	-103.314263	81.558919	-0.004193	-4.569416
0.350000	-0.007117	-5.310810	-102.245377	81.767191	-102.245377	81.767191	-0.005277	-5.326724
0.400000	-0.007797	-6.065515	-101.405948	81.927545	-101.405948	81.927545	-0.006368	-6.082879
0.450000	-0.008514	-6.819821	-100.793979	82.181054	-100.793979	82.181054	-0.007447	-6.837830
0.500000	-0.009249	-7.573951	-100.282659	82.483174	-100.282659	82.483174	-0.008519	-7.592313
0.550000	-0.010027	-8.327526	-99.953156	83.065587	-99.953156	83.065587	-0.009571	-8.345900
0.600000	-0.010836	-9.080702	-99.742923	83.848208	-99.742923	83.848208	-0.010610	-9.098847
0.650000	-0.011679	-9.833288	-99.676518	85.124946	-99.676518	85.124946	-0.011636	-9.851118
0.700000	-0.012555	-10.585282	-99.750657	86.895800	-99.750657	86.895800	-0.012650	-10.602714
0.750000	-0.013454	-11.336717	-99.933865	89.488833	-99.933865	89.488833	-0.013659	-11.353768
0.800000	-0.014385	-12.087370	-100.278521	93.232917	-100.278521	93.232917	-0.014658	-12.104064
0.850000	-0.015329	-12.837537	-100.670787	98.272859	-100.670787	98.272859	-0.015656	-12.853920
0.900000	-0.016299	-13.586736	-101.151996	105.904519	-101.151996	105.904519	-0.016650	-13.602895
0.950000	-0.017275	-14.335550	-101.533141	114.886779	-101.533141	114.886779	-0.017643	-14.351526
1.000000	-0.018271	-15.083212	-101.540717	127.920844	-101.540717	127.920844	-0.018634	-15.099126
1.050000	-0.019270	-15.830609	-101.324008	140.993435	-101.324008	140.993435	-0.019624	-15.846485
1.100000	-0.020281	-16.576675	-100.094199	154.258666	-100.094199	154.258666	-0.020614	-16.592643
1.150000	-0.021292	-17.322603	-98.925149	167.075333	-98.925149	167.075333	-0.021604	-17.338675
1.200000	-0.022309	-18.067024	-97.044255	174.957797	-97.044255	174.957797	-0.022593	-18.083323
1.250000	-0.023326	-18.811444	-95.499046	-177.159739	-95.499046	-177.159739	-0.023582	-18.827971
1.300000	-0.024344	-19.554603	-93.796373	-172.638598	-93.796373	-172.638598	-0.024570	-19.571444
1.350000	-0.025360	-20.296943	-92.189067	-169.505703	-92.189067	-169.505703	-0.025556	-20.314146
1.400000	-0.026374	-21.038455	-90.684206	-167.376855	-90.684206	-167.376855	-0.026542	-21.056061
1.450000	-0.027386	-21.779131	-89.277414	-165.982075	-89.277414	-165.982075	-0.027525	-21.797176
1.500000	-0.028393	-22.518960	-87.960338	-165.132985	-87.960338	-165.132985	-0.028507	-22.537475
1.550000	-0.029397	-23.257933	-86.723838	-164.697079	-86.723838	-164.697079	-0.029488	-23.276945
1.600000	-0.030398	-23.996041	-85.559254	-164.579756	-85.559254	-164.579756	-0.030466	-24.015572
1.650000	-0.031394	-24.733273	-84.458825	-164.712305	-84.458825	-164.712305	-0.031443	-24.753341
1.700000	-0.032384	-25.469306	-83.392156	-165.095529	-83.392156	-165.095529	-0.032417	-25.489931
1.750000	-0.033373	-26.204873	-82.411039	-165.568684	-82.411039	-165.568684	-0.033391	-26.226061
1.800000	-0.034357	-26.939329	-81.461860	-166.191022	-81.461860	-166.191022	-0.034362	-26.961092
1.850000	-0.035338	-27.672993	-80.562707	-166.919921	-80.562707	-166.919921	-0.035332	-27.695336
1.900000	-0.036316	-28.405680	-79.698661	-167.736676	-79.698661	-167.736676	-0.036302	-28.428608
1.950000	-0.037290	-29.137390	-78.868050	-168.641288	-78.868050	-168.641288	-0.037269	-29.160908
2.000000	-0.038263	-29.868265	-78.074557	-169.598248	-78.074557	-169.598248	-0.038237	-29.892373
2.050000	-0.039233	-30.597970	-77.302125	-170.628495	-77.302125	-170.628495	-0.039204	-30.622669
2.100000	-0.040202	-31.326989	-76.568086	-171.689669	-76.568086	-171.689669	-0.040170	-31.352278
2.150000	-0.041169	-32.054635	-75.845716	-172.812695	-75.845716	-172.812695	-0.041137	-32.080512
2.200000	-0.042136	-32.781753	-75.162503	-173.953310	-75.162503	-173.953310	-0.042104	-32.808217
2.250000	-0.043102	-33.507286	-74.483736	-175.146692	-74.483736	-175.146692	-0.043073	-33.534332
2.300000	-0.044069	-34.232458	-73.844519	-176.349163	-73.844519	-176.349163	-0.044042	-34.260084
2.350000	-0.045038	-34.955823	-73.204130	-177.597083	-73.204130	-177.597083	-0.045014	-34.984023
2.400000	-0.046006	-35.679002	-72.603408	-178.848591	-72.603408	-178.848591	-0.045986	-35.707775
2.450000	-0.046978	-36.400144	-71.997110	179.860425	-71.997110	179.860425	-0.046963	-36.429482
2.500000	-0.047950	-37.121285	-71.430386	178.569441	-71.430386	178.569441	-0.047939	-37.151188
2.550000	-0.048928	-37.840149	-70.854615	177.243918	-70.854615	177.243918	-0.048923	-37.870608
2.600000	-0.049906	-38.559012	-70.314649	175.918395	-70.314649	175.918395	-0.049907	-38.590027
2.650000	-0.050892	-39.275739	-69.769920	174.567137	-69.769920	174.567137	-0.050898	-39.307301
2.700000	-0.051878	-39.992272	-69.254236	173.213540	-69.254236	173.213540	-0.051890	-40.024380
2.750000	-0.052873	-40.706818	-68.737352	171.840707	-68.737352	171.840707	-0.052891	-40.739466
2.800000	-0.053869	-41.420968	-68.243826	170.464028	-68.243826	170.464028	-0.053894	-41.454153
2.850000	-0.054875	-42.133292	-67.752077	169.072973	-67.752077	169.072973	-0.054906	-42.167009
2.900000	-0.055884	-42.845008	-67.278874	167.677127	-67.278874	167.677127	-0.055920	-42.879254
2.950000	-0.056902	-43.555070	-66.809939	166.270580	-66.809939	166.270580	-0.056945	-43.589840
3.000000	-0.057925	-44.264304	-66.355458	164.858683	-66.355458	164.858683	-0.057973	-44.299596
3.050000	-0.058957	-44.972063	-65.907336	163.438886	-65.907336	163.438886	-0.059011	-45.007874
3.100000	-0.059996	-45.678769	-65.470174	162.013446	-65.470174	162.013446	-0.060056	-45.715095
3.150000	-0.061043	-46.384189	-65.041123	160.582257	-65.041123	160.582257	-0.061109	-46.421028
3.200000	-0.062100	-47.088324	-64.620040	159.145320	-64.620040	159.145320	-0.062171	-47.125672
3.250000	-0.063165	-47.791370	-64.208538	157.704293	-64.208538	157.704293	-0.063241	-47.829225
3.300000	-0.064241	-48.492891	-63.802434	156.257542	-63.802434	156.257542	-0.064322	-48.531251
3.350000	-0.065325	-49.193529	-63.407139	154.807986	-63.407139	154.807986	-0.065410	-49.232391
3.400000	-0.066422	-49.892400	-63.015031	153.352822	-63.015031	153.352822	-0.066511	-49.931761
3.450000	-0.067526	-50.590598	-62.634757	151.895848	-62.634757	151.895848	-0.067619	-50.630459
3.500000	-0.068646	-51.286782	-62.255766	150.433446	-62.255766	150.433446	-0.068743	-51.327138
3.550000	-0.069771	-51.982512	-61.889456	148.970005	-61.889456	148.970005	-0.069871	-52.023364
3.600000	-0.070916	-52.675976	-61.522787	147.501363	-61.522787	147.501363	-0.071020	-52.717320
3.650000	-0.072063	-53.369211	-61.169498	146.032272	-61.169498	146.032272	-0.072170	-53.411047
3.700000	-0.073235	-54.059925	-60.814437	144.558243	-60.814437	144.558243	-0.073344	-54.102252
3.750000	-0.074406	-54.750640	-60.473321	143.084214	-60.473321	143.084214	-0.074518	-54.793456
3.800000	-0.075605	-55.438578	-60.129216	141.605535	-60.129216	141.605535	-0.075719	-55.481881
3.850000	-0.076804	-56.126516	-59.798225	140.126855	-59.798225	140.126855	-0.076920	-56.170307
3.900000	-0.078029	-56.811887	-59.465770	138.644501	-59.465770	138.644501	-0.078148	-56.856164
3.950000	-0.079258	-57.497025	-59.144381	137.161814	-59.144381	137.161814	-0.079378	-57.541787
4.000000	-0.080511	-58.179812	-58.822870	135.676256	-58.822870	135.676256	-0.080633	-58.225059
4.050000	-0.081770	-58.862129	-58.510601	134.190126	-58.510601	134.190126	-0.081893	-58.907859
4.100000	-0.083053	-59.542316	-58.199393	132.701789	-58.199393	132.701789	-0.083177	-59.588530
4.150000	-0.084344	-60.221794	-57.895804	131.212717	-57.895804	131.212717	-0.084469	-60.268490
4.200000	-0.085658	-60.899370	-57.594314	129.721986	-57.594314	129.721986	-0.085784	-60.946547
4.250000	-0.086983	-61.575994	-57.299000	128.230424	-57.299000	128.230424	-0.087110	-61.623652
4.300000	-0.088329	-62.250946	-57.006696	126.737648	-57.006696	126.737648	-0.088456	-62.299085
4.350000	-0.089689	-62.924705	-56.719281	125.244005	-56.719281	125.244005	-0.089816	-62.973323
4.400000	-0.091067	-63.597026	-56.435675	123.749508	-56.435675	123.749508	-0.091195	-63.646124
4.450000	-0.092464	-64.267910	-56.155812	122.254157	-56.155812	122.254157	-0.092593	-64.317486
4.500000	-0.093877	-64.937593	-55.880455	120.758239	-55.880455	120.758239	-0.094006	-64.987648
4.550000	-0.095312	-65.605596	-55.607821	119.261525	-55.607821	119.261525	-0.095441	-65.656128
4.600000	-0.096761	-66.272638	-55.340301	117.764465	-55.340301	117.764465	-0.096890	-66.323647
4.650000	-0.098236	-66.937757	-55.074598	116.266711	-55.074598	116.266711	-0.098365	-66.989242
4.700000	-0.099722	-67.602154	-54.814533	114.768771	-54.814533	114.768771	-0.099851	-67.654116
4.750000	-0.101238	-68.264389	-54.555480	113.270277	-54.555480	113.270277	-0.101367	-68.316826
4.800000	-0.102762	-68.926143	-54.302518	111.771707	-54.302518	111.771707	-0.102891	-68.979055
4.850000	-0.104321	-69.585495	-54.049854	110.272758	-54.049854	110.272758	-0.104451	-69.638881
4.900000	-0.105884	-70.244607	-53.803666	108.773794	-53.803666	108.773794	-0.106014	-70.298467
4.950000	-0.107488	-70.901082	-53.557146	107.274661	-53.557146	107.274661	-0.107618	-70.955414
5.000000	-0.109092	-71.557557	-53.317430	105.775528	-53.317430	105.775528	-0.109222	-71.612361
5.050000	-0.110742	-72.211162	-53.076823	104.276469	-53.076823	104.276469	-0.110872	-72.266437
5.100000	-0.112392	-72.864767	-52.842702	102.777410	-52.842702	102.777410	-0.112522	-72.920512
5.150000	-0.114085	-73.515750	-52.608384	101.278647	-52.608384	101.278647	-0.114216	-73.571965
5.200000	-0.115783	-74.166496	-52.379659	99.779909	-52.379659	99.779909	-0.115914	-74.223180
5.250000	-0.117521	-74.814869	-52.151358	98.281638	-52.151358	98.281638	-0.117653	-74.872020
5.300000	-0.119268	-75.462768	-51.927843	96.783461	-51.927843	96.783461	-0.119400	-75.520386
5.350000	-0.121053	-76.108542	-51.705304	95.285873	-51.705304	95.285873	-0.121186	-76.166626
5.400000	-0.122851	-76.753609	-51.486820	93.788483	-51.486820	93.788483	-0.122984	-76.812158
5.450000	-0.124684	-77.396800	-51.269806	92.291764	-51.269806	92.291764	-0.124817	-77.455812
5.500000	-0.126534	-78.039052	-51.056183	90.795381	-51.056183	90.795381	-0.126668	-78.098527
5.550000	-0.128416	-78.679675	-50.844469	89.299708	-50.844469	89.299708	-0.128551	-78.739610
5.600000	-0.130321	-79.319133	-50.635547	87.804542	-50.635547	87.804542	-0.130456	-79.379528
5.650000	-0.132253	-79.957204	-50.428920	86.310086	-50.428920	86.310086	-0.132390	-80.018059
5.700000	-0.134213	-80.593890	-50.224545	84.816339	-50.224545	84.816339	-0.134351	-80.655201
5.750000	-0.136198	-81.229430	-50.022807	83.323264	-50.022807	83.323264	-0.136337	-81.291198
5.800000	-0.138216	-81.863368	-49.822830	81.831129	-49.822830	81.831129	-0.138356	-81.925590
5.850000	-0.140253	-82.496398	-49.625793	80.339592	-49.625793	80.339592	-0.140395	-82.559073
5.900000	-0.142330	-83.127613	-49.430074	78.849251	-49.430074	78.849251	-0.142474	-83.190739
5.950000	-0.144423	-83.758155	-49.237558	77.359401	-49.237558	77.359401	-0.144568	-83.821732
6.000000	-0.146561	-84.386677	-49.045961	75.871027	-49.045961	75.871027	-0.146708	-84.450701
6.050000	-0.148710	-85.014754	-48.857797	74.383007	-48.857797	74.383007	-0.148858	-85.079227
6.100000	-0.150910	-85.640613	-48.670191	72.896761	-48.670191	72.896761	-0.151061	-85.705530
6.150000	-0.153117	-86.266252	-48.486219	71.410705	-48.486219	71.410705	-0.153269	-86.331613
6.200000	-0.155382	-86.889480	-48.302478	69.926738	-48.302478	69.926738	-0.155536	-86.955282
6.250000	-0.157647	-87.512708	-48.122544	68.442770	-48.122544	68.442770	-0.157803	-87.578950
6.300000	-0.159978	-88.133338	-47.942548	66.961220	-47.942548	66.961220	-0.160137	-88.200018
6.350000	-0.162310	-88.753969	-47.766207	65.479669	-47.766207	65.479669	-0.162471	-88.821086
6.400000	-0.164703	-89.372253	-47.590139	64.000449	-47.590139	64.000449	-0.164866	-89.439804
6.450000	-0.167102	-89.990323	-47.417280	62.521441	-47.417280	62.521441	-0.167268	-90.058307
6.500000	-0.169559	-90.606290	-47.244998	61.044645	-47.244998	61.044645	-0.169728	-90.674705
6.550000	-0.172028	-91.221837	-47.075518	59.568291	-47.075518	59.568291	-0.172199	-91.290681
6.600000	-0.174550	-91.835521	-46.906886	58.094002	-46.906886	58.094002	-0.174724	-91.904792
6.650000	-0.177091	-92.448584	-46.740682	56.620401	-46.740682	56.620401	-0.177267	-92.518280
6.700000	-0.179679	-93.060019	-46.575571	55.148690	-46.575571	55.148690	-0.179858	-93.130138
6.750000	-0.182292	-93.670640	-46.412545	53.677925	-46.412545	53.677925	-0.182474	-93.741180
6.800000	-0.184949	-94.279860	-46.250832	52.208855	-46.250832	52.208855	-0.185134	-94.350819
6.850000	-0.187637	-94.888080	-46.090889	50.740994	-46.090889	50.740994	-0.187824	-94.959457
6.900000	-0.190363	-95.495123	-45.932456	49.274613	-45.932456	49.274613	-0.190553	-95.566915
6.950000	-0.193127	-96.100987	-45.775505	47.809711	-45.775505	47.809711	-0.193320	-96.173193
7.000000	-0.195924	-96.705889	-45.620241	46.346057	-45.620241	46.346057	-0.196120	-96.778507
7.050000	-0.198766	-97.309443	-45.466194	44.884151	-45.466194	44.884151	-0.198965	-97.382471
7.100000	-0.201635	-97.912242	-45.313993	43.423250	-45.313993	43.423250	-0.201838	-97.985679
7.150000	-0.204557	-98.513533	-45.162765	41.964361	-45.162765	41.964361	-0.204763	-98.587376
7.200000	-0.207500	-99.114270	-45.013524	40.506228	-45.013524	40.506228	-0.207708	-99.188518
7.250000	-0.210503	-99.713346	-44.865035	39.050363	-44.865035	39.050363	-0.210715	-99.787997
7.300000	-0.213521	-100.312061	-44.718659	37.594999	-44.718659	37.594999	-0.213735	-100.387114
7.350000	-0.216607	-100.908972	-44.572831	36.142148	-44.572831	36.142148	-0.216825	-100.984424
7.400000	-0.219701	-101.505707	-44.429229	34.689545	-44.429229	34.689545	-0.219922	-101.581558
7.450000	-0.222872	-102.100504	-44.285989	33.239681	-44.285989	33.239681	-0.223095	-102.176751
7.500000	-0.226044	-102.695302	-44.145073	31.789817	-44.145073	31.789817	-0.226270	-102.771945
7.550000	-0.229301	-103.288038	-44.004351	30.342901	-44.004351	30.342901	-0.229530	-103.365074
7.600000	-0.232559	-103.880774	-43.865873	28.895984	-43.865873	28.895984	-0.232791	-103.958203
7.650000	-0.235896	-104.471669	-43.727770	27.451719	-43.727770	27.451719	-0.236131	-104.549490
7.700000	-0.239241	-105.062398	-43.591668	26.007694	-43.591668	26.007694	-0.239479	-105.140610
7.750000	-0.242661	-105.651499	-43.456107	24.566020	-43.456107	24.566020	-0.242901	-105.730100
7.800000	-0.246095	-106.240275	-43.322322	23.124817	-43.322322	23.124817	-0.246338	-106.319265
7.850000	-0.249597	-106.827628	-43.189230	21.685668	-43.189230	21.685668	-0.249842	-106.907007
7.900000	-0.253123	-107.414508	-43.057709	20.247203	-43.057709	20.247203	-0.253370	-107.494274
7.950000	-0.256709	-108.000161	-42.927020	18.810500	-42.927020	18.810500	-0.256959	-108.080314
8.000000	-0.260326	-108.585202	-42.797712	17.374677	-42.797712	17.374677	-0.260578	-108.665741
8.050000	-0.263997	-109.169203	-42.669362	15.940333	-42.669362	15.940333	-0.264252	-109.250129
8.100000	-0.267708	-109.752463	-42.542221	14.507045	-42.542221	14.507045	-0.267964	-109.833776
8.150000	-0.271466	-110.334863	-42.416153	13.074965	-42.416153	13.074965	-0.271724	-110.416562
8.200000	-0.275271	-110.916402	-42.291138	11.644093	-42.291138	11.644093	-0.275531	-110.998487
8.250000	-0.279116	-111.497250	-42.167298	10.214174	-42.167298	10.214174	-0.279378	-111.579722
8.300000	-0.283017	-112.077129	-42.044372	8.785591	-42.044372	8.785591	-0.283281	-112.159989
8.350000	-0.286950	-112.656476	-41.922711	7.357726	-41.922711	7.357726	-0.287216	-112.739724
8.400000	-0.290948	-113.234757	-41.801842	5.931296	-41.801842	5.931296	-0.291215	-113.318395
8.450000	-0.294971	-113.812655	-41.682316	4.505369	-41.682316	4.505369	-0.295239	-113.896683
8.500000	-0.299067	-114.389401	-41.563477	3.080951	-41.563477	3.080951	-0.299336	-114.473822
8.550000	-0.303180	-114.965903	-41.446046	1.656845	-41.446046	1.656845	-0.303451	-115.050717
8.600000	-0.307374	-115.541179	-41.329213	0.234293	-41.329213	0.234293	-0.307647	-115.626389
8.650000	-0.311579	-116.116338	-41.213842	-1.188115	-41.213842	-1.188115	-0.311852	-116.201944
8.700000	-0.315873	-116.690209	-41.098999	-2.608949	-41.098999	-2.608949	-0.316147	-116.776216
8.750000	-0.320170	-117.264080	-40.985656	-4.029783	-40.985656	-4.029783	-0.320445	-117.350488
8.800000	-0.324564	-117.836612	-40.872791	-5.449048	-40.872791	-5.449048	-0.324841	-117.923427
8.850000	-0.328962	-118.409145	-40.761374	-6.868313	-40.761374	-6.868313	-0.329238	-118.496366
8.900000	-0.333450	-118.980512	-40.650554	-8.286276	-40.650554	-8.286276	-0.333727	-119.068147
8.950000	-0.337948	-119.551773	-40.541057	-9.704121	-40.541057	-9.704121	-0.338227	-119.639822
9.000000	-0.342530	-120.122033	-40.432264	-11.120902	-40.432264	-11.120902	-0.342809	-120.210503
9.050000	-0.347131	-120.692092	-40.324687	-12.537470	-40.324687	-12.537470	-0.347410	-120.780984
9.100000	-0.351807	-121.261302	-40.217907	-13.953184	-40.217907	-13.953184	-0.352087	-121.350624
9.150000	-0.356510	-121.830229	-40.112252	-15.368614	-40.112252	-15.368614	-0.356791	-121.919983
9.200000	-0.361281	-122.398448	-40.007475	-16.783372	-40.007475	-16.783372	-0.361563	-122.488642
9.250000	-0.366087	-122.966314	-39.903753	-18.197793	-39.903753	-18.197793	-0.366369	-123.056952
9.300000	-0.370953	-123.533603	-39.800972	-19.611696	-39.800972	-19.611696	-0.371236	-123.624692
9.350000	-0.375862	-124.100480	-39.699196	-21.025228	-39.699196	-21.025228	-0.376146	-124.192025
9.400000	-0.380823	-124.666899	-39.598411	-22.438368	-39.598411	-22.438368	-0.381108	-124.758908
9.450000	-0.385835	-125.232861	-39.498598	-23.851116	-39.498598	-23.851116	-0.386122	-125.325341
9.500000	-0.390891	-125.798472	-39.399812	-25.263575	-39.399812	-25.263575	-0.391179	-125.891430
9.550000	-0.396007	-126.363593	-39.301986	-26.675629	-39.301986	-26.675629	-0.396296	-126.457039
9.600000	-0.401158	-126.928459	-39.205203	-28.087475	-39.205203	-28.087475	-0.401449	-127.022399
9.650000	-0.406377	-127.492816	-39.109393	-29.498905	-39.109393	-29.498905	-0.406670	-127.587261
9.700000	-0.411623	-128.057001	-39.014623	-30.910192	-39.014623	-30.910192	-0.411918	-128.151957
9.750000	-0.416945	-128.620670	-38.920860	-32.321049	-38.920860	-32.321049	-0.417243	-128.716152
9.800000	-0.422286	-129.184238	-38.828116	-33.731814	-38.828116	-33.731814	-0.422586	-129.280250
9.850000	-0.427711	-129.747299	-38.736437	-35.142122	-38.736437	-35.142122	-0.428014	-129.843860
9.900000	-0.433146	-130.310315	-38.645734	-36.552385	-38.645734	-36.552385	-0.433453	-130.407427
9.950000	-0.438672	-130.872848	-38.556178	-37.962144	-38.556178	-37.962144	-0.438983	-130.970533
10.000000	-0.444202	-131.435380	-38.467536	-39.371903	-38.467536	-39.371903	-0.444516	-131.533639
