! freq	dB(S11)	phase(S11)	dB(S12)	phase(S12)	
!     	dB(S21)	phase(S21)	dB(S22)	phase(S22)	
!S-par simulation data
#  GHz  S  DB  R 50
0.000000	-0.000000	0.000000	-313.888999	180.000000	-313.888999	180.000000	-0.000000	0.000000
0.050000	-0.026286	-2.743448	-64.175567	87.383542	-64.175567	87.383542	-0.020909	-2.766884
0.100000	-0.030091	-5.379556	-58.155652	84.754024	-58.155652	84.754024	-0.028323	-5.402463
0.150000	-0.031360	-8.033031	-54.637099	82.106051	-54.637099	82.106051	-0.030714	-8.049817
0.200000	-0.032356	-10.690483	-52.145623	79.442860	-52.145623	79.442860	-0.032153	-10.702919
0.250000	-0.033402	-13.347711	-50.219632	76.770554	-50.219632	76.770554	-0.033399	-13.357097
0.300000	-0.034579	-16.002654	-48.653382	74.095535	-48.653382	74.095535	-0.034675	-16.009795
0.350000	-0.035913	-18.654016	-47.336905	71.422904	-47.336905	71.422904	-0.036055	-18.659429
0.400000	-0.037408	-21.300812	-46.204382	68.756359	-46.204382	68.756359	-0.037568	-21.304849
0.450000	-0.039061	-23.942209	-45.213239	66.098529	-45.213239	66.098529	-0.039223	-23.945128
0.500000	-0.040867	-26.577470	-44.334327	63.451323	-44.334327	63.451323	-0.041018	-26.579465
0.550000	-0.042816	-29.205917	-43.546801	60.816186	-43.546801	60.816186	-0.042951	-29.207144
0.600000	-0.044900	-31.826925	-42.835221	58.194269	-42.835221	58.194269	-0.045013	-31.827512
0.650000	-0.047108	-34.439817	-42.187944	55.586687	-42.187944	55.586687	-0.047197	-34.439874
0.700000	-0.049429	-37.044034	-41.595784	52.994278	-41.595784	52.994278	-0.049493	-37.043655
0.750000	-0.051851	-39.639161	-41.051312	50.417587	-41.051312	50.417587	-0.051889	-39.638428
0.800000	-0.054362	-42.224735	-40.548606	47.857230	-40.548606	47.857230	-0.054375	-42.223719
0.850000	-0.056950	-44.800327	-40.082793	45.313747	-40.082793	45.313747	-0.056941	-44.799095
0.900000	-0.059605	-47.365550	-39.649809	42.787608	-39.649809	42.787608	-0.059575	-47.364158
0.950000	-0.062315	-49.920050	-39.246224	40.279219	-39.246224	40.279219	-0.062267	-49.918549
1.000000	-0.065071	-52.463511	-38.869112	37.788923	-38.869112	37.788923	-0.065007	-52.461946
1.050000	-0.067861	-54.995653	-38.515952	35.317005	-38.515952	35.317005	-0.067785	-54.994065
1.100000	-0.070676	-57.516234	-38.184555	32.863691	-38.184555	32.863691	-0.070592	-57.514656
1.150000	-0.073508	-60.025044	-37.873002	30.429152	-37.873002	30.429152	-0.073418	-60.023507
1.200000	-0.076348	-62.521910	-37.579601	28.013508	-37.579601	28.013508	-0.076255	-62.520441
1.250000	-0.079189	-65.006693	-37.302851	25.616826	-37.302851	25.616826	-0.079097	-65.005313
1.300000	-0.082023	-67.479021	-37.041553	23.239540	-37.041553	23.239540	-0.081934	-67.477750
1.350000	-0.084844	-69.939084	-36.794345	20.881208	-36.794345	20.881208	-0.084762	-69.937938
1.400000	-0.087647	-72.386844	-36.560138	18.541760	-36.560138	18.541760	-0.087574	-72.385836
1.450000	-0.090428	-74.822292	-36.337949	16.221084	-36.337949	16.221084	-0.090366	-74.821432
1.500000	-0.093181	-77.245448	-36.126877	13.919030	-36.126877	13.919030	-0.093133	-77.244745
1.550000	-0.095905	-79.656360	-35.926103	11.635414	-35.926103	11.635414	-0.095871	-79.655823
1.600000	-0.098596	-82.055106	-35.734872	9.370016	-35.734872	9.370016	-0.098578	-82.054741
1.650000	-0.101252	-84.441789	-35.552492	7.122586	-35.552492	7.122586	-0.101251	-84.441601
1.700000	-0.103872	-86.816535	-35.378319	4.892842	-35.378319	4.892842	-0.103888	-86.816531
1.750000	-0.106456	-89.179498	-35.211761	2.680477	-35.211761	2.680477	-0.106489	-89.179681
1.800000	-0.109002	-91.530852	-35.052265	0.485154	-35.052265	0.485154	-0.109053	-91.531229
1.850000	-0.111511	-93.870796	-34.899314	-1.693488	-34.899314	-1.693488	-0.111579	-93.871372
1.900000	-0.113984	-96.199427	-34.752463	-3.855663	-34.752463	-3.855663	-0.114069	-96.200209
1.950000	-0.116421	-98.516993	-34.611251	-6.001796	-34.611251	-6.001796	-0.116521	-98.517989
2.000000	-0.118824	-100.823876	-34.475218	-8.132501	-34.475218	-8.132501	-0.118939	-100.825093
2.050000	-0.121195	-103.120350	-34.343963	-10.248237	-34.343963	-10.248237	-0.121323	-103.121799
2.100000	-0.123536	-105.406710	-34.217111	-12.349485	-34.217111	-12.349485	-0.123676	-105.408400
2.150000	-0.125849	-107.683265	-34.094304	-14.436750	-34.094304	-14.436750	-0.126000	-107.685209
2.200000	-0.128137	-109.950340	-33.975207	-16.510563	-33.975207	-16.510563	-0.128296	-109.952552
2.250000	-0.130403	-112.208274	-33.859498	-18.571477	-33.859498	-18.571477	-0.130569	-112.210768
2.300000	-0.132649	-114.457421	-33.746873	-20.620068	-33.746873	-20.620068	-0.132821	-114.460213
2.350000	-0.134878	-116.698146	-33.637042	-22.656940	-33.637042	-22.656940	-0.135054	-116.701253
2.400000	-0.137094	-118.930827	-33.529729	-24.682723	-33.529729	-24.682723	-0.137272	-118.934268
2.450000	-0.139299	-121.155853	-33.424671	-26.698073	-33.424671	-26.698073	-0.139478	-121.159648
2.500000	-0.141497	-123.373624	-33.321615	-28.703675	-33.321615	-28.703675	-0.141675	-123.377794
2.550000	-0.143690	-125.584411	-33.220330	-30.700062	-33.220330	-30.700062	-0.143866	-125.588979
2.600000	-0.145883	-127.788792	-33.120570	-32.688193	-33.120570	-32.688193	-0.146056	-127.793782
2.650000	-0.148079	-129.987197	-33.022116	-34.668843	-33.022116	-34.668843	-0.148247	-129.992632
2.700000	-0.150280	-132.180062	-32.924761	-36.642820	-32.924761	-36.642820	-0.150442	-132.185968
2.750000	-0.152491	-134.367833	-32.828305	-38.610962	-32.828305	-38.610962	-0.152645	-134.374236
2.800000	-0.154713	-136.550961	-32.732561	-40.574140	-32.732561	-40.574140	-0.154860	-136.557887
2.850000	-0.156950	-138.729906	-32.637350	-42.533257	-32.637350	-42.533257	-0.157088	-138.737383
2.900000	-0.159205	-140.905133	-32.542502	-44.489248	-32.542502	-44.489248	-0.159334	-140.913188
2.950000	-0.161480	-143.077113	-32.447860	-46.443079	-32.447860	-46.443079	-0.161600	-143.085774
3.000000	-0.163779	-145.246321	-32.353274	-48.395744	-32.353274	-48.395744	-0.163890	-145.255617
3.050000	-0.166104	-147.413240	-32.258606	-50.348270	-32.258606	-50.348270	-0.166205	-147.423200
3.100000	-0.168458	-149.578355	-32.163728	-52.301706	-32.163728	-52.301706	-0.168549	-149.589007
3.150000	-0.170843	-151.742146	-32.068506	-54.257164	-32.068506	-54.257164	-0.170925	-151.753520
3.200000	-0.173262	-153.905125	-31.972830	-56.215778	-31.972830	-56.215778	-0.173334	-153.917250
3.250000	-0.175717	-156.067802	-31.876619	-58.178644	-31.876619	-58.178644	-0.175780	-156.080708
3.300000	-0.178209	-158.230676	-31.779790	-60.146895	-31.779790	-60.146895	-0.178264	-158.244392
3.350000	-0.180741	-160.394251	-31.682270	-62.121673	-31.682270	-62.121673	-0.180788	-160.408806
3.400000	-0.183314	-162.559029	-31.583999	-64.104128	-31.583999	-64.104128	-0.183354	-162.574452
3.450000	-0.185931	-164.725516	-31.484926	-66.095408	-31.484926	-66.095408	-0.185964	-164.741837
3.500000	-0.188592	-166.894219	-31.385014	-68.096661	-31.385014	-68.096661	-0.188620	-166.911466
3.550000	-0.191300	-169.065645	-31.284236	-70.109025	-31.284236	-70.109025	-0.191322	-169.083848
3.600000	-0.194054	-171.240301	-31.182577	-72.133624	-31.182577	-72.133624	-0.194073	-171.259488
3.650000	-0.196857	-173.418694	-31.080031	-74.171562	-31.080031	-74.171562	-0.196873	-173.438895
3.700000	-0.199710	-175.601330	-30.976605	-76.223918	-30.976605	-76.223918	-0.199723	-175.622574
3.750000	-0.202613	-177.788715	-30.872314	-78.291745	-30.872314	-78.291745	-0.202625	-177.811031
3.800000	-0.205568	-179.981477	-30.767138	-80.376437	-30.767138	-80.376437	-0.205580	179.995106
3.850000	-0.208575	177.819987	-30.661159	-82.478634	-30.661159	-82.478634	-0.208587	177.795439
3.900000	-0.211633	175.615179	-30.554420	-84.599266	-30.554420	-84.599266	-0.211647	175.589471
3.950000	-0.214745	173.403607	-30.446971	-86.739215	-30.446971	-86.739215	-0.214761	173.376709
4.000000	-0.217908	171.184781	-30.338870	-88.899317	-30.338870	-88.899317	-0.217928	171.156664
4.050000	-0.221124	168.958218	-30.230181	-91.080351	-30.230181	-91.080351	-0.221148	168.928851
4.100000	-0.224393	166.723442	-30.120972	-93.283045	-30.120972	-93.283045	-0.224421	166.692794
4.150000	-0.227713	164.479981	-30.011317	-95.508069	-30.011317	-95.508069	-0.227747	164.448022
4.200000	-0.231086	162.227372	-29.901292	-97.756040	-29.901292	-97.756040	-0.231126	162.194070
4.250000	-0.234509	159.965162	-29.790977	-100.027515	-29.790977	-100.027515	-0.234556	159.930485
4.300000	-0.237982	157.692907	-29.680452	-102.323000	-29.680452	-102.323000	-0.238037	157.656823
4.350000	-0.241506	155.410173	-29.569802	-104.642942	-29.569802	-104.642942	-0.241567	155.372647
4.400000	-0.245078	153.116415	-29.459092	-106.988012	-29.459092	-106.988012	-0.245147	153.077414
4.450000	-0.248698	150.811211	-29.348412	-109.358564	-29.348412	-109.358564	-0.248775	150.770699
4.500000	-0.252364	148.494285	-29.237858	-111.754620	-29.237858	-111.754620	-0.252450	148.452228
4.550000	-0.256074	146.165260	-29.127513	-114.176426	-29.127513	-114.176426	-0.256169	146.121621
4.600000	-0.259828	143.823775	-29.017458	-116.624184	-29.017458	-116.624184	-0.259931	143.778516
4.650000	-0.263623	141.469486	-28.907773	-119.098054	-28.907773	-119.098054	-0.263734	141.422570
4.700000	-0.267457	139.102070	-28.798535	-121.598158	-28.798535	-121.598158	-0.267576	139.053459
4.750000	-0.271328	136.721225	-28.689821	-124.124582	-28.689821	-124.124582	-0.271456	136.670878
4.800000	-0.275235	134.326670	-28.581705	-126.677376	-28.581705	-126.677376	-0.275370	134.274548
4.850000	-0.279175	131.918151	-28.474259	-129.256561	-28.474259	-129.256561	-0.279318	131.864213
4.900000	-0.283146	129.495437	-28.367556	-131.862125	-28.367556	-131.862125	-0.283295	129.439640
4.950000	-0.287144	127.058326	-28.261664	-134.494030	-28.261664	-134.494030	-0.287301	127.000628
5.000000	-0.291169	124.606643	-28.156651	-137.152207	-28.156651	-137.152207	-0.291331	124.547001
5.050000	-0.295217	122.139923	-28.052582	-139.837130	-28.052582	-139.837130	-0.295385	122.078292
5.100000	-0.299284	119.658373	-27.949531	-142.548105	-27.949531	-142.548105	-0.299458	119.594710
5.150000	-0.303369	117.161919	-27.847565	-145.284982	-27.847565	-145.284982	-0.303547	117.096179
5.200000	-0.307468	114.650521	-27.746750	-148.047585	-27.746750	-148.047585	-0.307650	114.582659
5.250000	-0.311579	112.124176	-27.647153	-150.835709	-27.647153	-150.835709	-0.311764	112.054148
5.300000	-0.315697	109.582921	-27.548839	-153.649120	-27.548839	-153.649120	-0.315886	109.510682
5.350000	-0.319821	107.026830	-27.451876	-156.487552	-27.451876	-156.487552	-0.320013	106.952337
5.400000	-0.323948	104.456021	-27.356333	-159.350704	-27.356333	-159.350704	-0.324141	104.379230
5.450000	-0.328073	101.870654	-27.262277	-162.238242	-27.262277	-162.238242	-0.328268	101.791521
5.500000	-0.332194	99.270930	-27.169779	-165.149792	-27.169779	-165.149792	-0.332390	99.189414
5.550000	-0.336309	96.657099	-27.078909	-168.084939	-27.078909	-168.084939	-0.336506	96.573158
5.600000	-0.340414	94.029451	-26.989740	-171.043225	-26.989740	-171.043225	-0.340611	93.943047
5.650000	-0.344506	91.388185	-26.902355	-174.024382	-26.902355	-174.024382	-0.344703	91.299278
5.700000	-0.348583	88.733699	-26.816831	-177.027836	-26.816831	-177.027836	-0.348780	88.642254
5.750000	-0.352641	86.066576	-26.733232	179.947273	-26.733232	179.947273	-0.352839	85.972559
5.800000	-0.356680	83.387297	-26.651633	176.901611	-26.651633	176.901611	-0.356878	83.290676
5.850000	-0.360696	80.696390	-26.572108	173.835905	-26.572108	173.835905	-0.360894	80.597137
5.900000	-0.364688	77.994430	-26.494730	170.750939	-26.494730	170.750939	-0.364885	77.892519
5.950000	-0.368653	75.282036	-26.419571	167.647561	-26.419571	167.647561	-0.368851	75.177444
6.000000	-0.372591	72.559871	-26.346701	164.526680	-26.346701	164.526680	-0.372789	72.452579
6.050000	-0.376499	69.828642	-26.276189	161.389269	-26.276189	161.389269	-0.376699	69.718633
6.100000	-0.380377	67.089095	-26.208099	158.236365	-26.208099	158.236365	-0.380578	66.976359
6.150000	-0.384225	64.342019	-26.142493	155.069067	-26.142493	155.069067	-0.384428	64.226548
6.200000	-0.388042	61.588237	-26.079427	151.888536	-26.079427	151.888536	-0.388247	61.470027
6.250000	-0.391827	58.828609	-26.018953	148.695992	-26.018953	148.695992	-0.392035	58.707661
6.300000	-0.395580	56.063940	-25.961166	145.492509	-25.961166	145.492509	-0.395793	55.940260
6.350000	-0.399304	53.295280	-25.906059	142.279683	-25.906059	142.279683	-0.399521	53.168879
6.400000	-0.402998	50.523578	-25.853662	139.058895	-25.853662	139.058895	-0.403220	50.394471
6.450000	-0.406664	47.749807	-25.803998	135.831571	-25.803998	135.831571	-0.406893	47.618013
6.500000	-0.410304	44.974956	-25.757081	132.599173	-25.757081	132.599173	-0.410540	44.840500
6.550000	-0.413920	42.200031	-25.712918	129.363195	-25.712918	129.363195	-0.414163	42.062944
6.600000	-0.417514	39.426052	-25.671504	126.125157	-25.671504	126.125157	-0.417766	39.286366
6.650000	-0.421089	36.654043	-25.632826	122.886592	-25.632826	122.886592	-0.421350	36.511799
6.700000	-0.424648	33.885034	-25.596861	119.649048	-25.596861	119.649048	-0.424919	33.740275
6.750000	-0.428194	31.120056	-25.563574	116.414070	-25.563574	116.414070	-0.428475	30.972828
6.800000	-0.431731	28.360133	-25.532923	113.183201	-25.532923	113.183201	-0.432024	28.210490
6.850000	-0.435262	25.606283	-25.504855	109.957968	-25.504855	109.957968	-0.435567	25.454281
6.900000	-0.438793	22.859601	-25.479334	106.739970	-25.479334	106.739970	-0.439110	22.705300
6.950000	-0.442327	20.121112	-25.456285	103.530733	-25.456285	103.530733	-0.442656	19.964576
7.000000	-0.445869	17.391707	-25.435602	100.331618	-25.435602	100.331618	-0.446211	17.233003
7.050000	-0.449423	14.672335	-25.417196	97.144015	-25.417196	97.144015	-0.449778	14.511532
7.100000	-0.452994	11.963917	-25.400971	93.969271	-25.400971	93.969271	-0.453362	11.801088
7.150000	-0.456588	9.267345	-25.386824	90.808670	-25.386824	90.808670	-0.456968	9.102564
7.200000	-0.460208	6.583481	-25.374647	87.663442	-25.374647	87.663442	-0.460601	6.416824
7.250000	-0.463861	3.913152	-25.364327	84.534748	-25.364327	84.534748	-0.464265	3.744695
7.300000	-0.467551	1.257147	-25.355746	81.423683	-25.355746	81.423683	-0.467966	1.086970
7.350000	-0.471283	-1.383781	-25.348783	78.331268	-25.348783	78.331268	-0.471709	-1.555599
7.400000	-0.475061	-4.008920	-25.343315	75.258454	-25.343315	75.258454	-0.475497	-4.182300
7.450000	-0.478892	-6.617601	-25.339217	72.206114	-25.339217	72.206114	-0.479337	-6.792464
7.500000	-0.482780	-9.209196	-25.336363	69.175048	-25.336363	69.175048	-0.483232	-9.385462
7.550000	-0.486730	-11.782723	-25.334650	66.166470	-25.334650	66.166470	-0.487189	-11.960313
7.600000	-0.490746	-14.338019	-25.333924	63.180561	-25.333924	63.180561	-0.491210	-14.516856
7.650000	-0.494833	-16.874590	-25.334063	60.217887	-25.334063	60.217887	-0.495301	-17.054598
7.700000	-0.498995	-19.391990	-25.334945	57.278942	-25.334945	57.278942	-0.499465	-19.573096
7.750000	-0.503236	-21.889815	-25.336451	54.364150	-25.336451	54.364150	-0.503707	-22.071948
7.800000	-0.507560	-24.367708	-25.338465	51.473863	-25.338465	51.473863	-0.508030	-24.550797
7.850000	-0.511970	-26.825352	-25.340877	48.608368	-25.340877	48.608368	-0.512437	-27.009332
7.900000	-0.516471	-29.262476	-25.343579	45.767889	-25.343579	45.767889	-0.516933	-29.447284
7.950000	-0.521065	-31.678849	-25.346466	42.952586	-25.346466	42.952586	-0.521521	-31.864424
8.000000	-0.525756	-34.074282	-25.349440	40.162563	-25.349440	40.162563	-0.526204	-34.260567
8.050000	-0.530546	-36.448626	-25.352407	37.397870	-25.352407	37.397870	-0.530985	-36.635568
8.100000	-0.535438	-38.801770	-25.355279	34.658502	-25.355279	34.658502	-0.535867	-38.989319
8.150000	-0.540436	-41.133407	-25.357969	31.944682	-25.357969	31.944682	-0.540853	-41.321516
8.200000	-0.545543	-43.443499	-25.360395	29.256308	-25.360395	29.256308	-0.545945	-43.632127
8.250000	-0.550759	-45.732276	-25.362488	26.592963	-25.362488	26.592963	-0.551146	-45.921385
8.300000	-0.556086	-47.999768	-25.364180	23.954467	-25.364180	23.954467	-0.556457	-48.189325
8.350000	-0.561529	-50.245423	-25.365393	21.341308	-25.365393	21.341308	-0.561884	-50.435399
8.400000	-0.567078	-52.471500	-25.366125	18.750741	-25.366125	18.750741	-0.567415	-52.661870
8.450000	-0.572752	-54.674836	-25.366238	16.186253	-25.366238	16.186253	-0.573072	-54.865579
8.500000	-0.578537	-56.858411	-25.365763	13.644294	-25.365763	13.644294	-0.578839	-57.049512
8.550000	-0.584442	-59.020785	-25.364611	11.126359	-25.364611	11.126359	-0.584727	-59.212231
8.600000	-0.590467	-61.162548	-25.362755	8.631642	-25.362755	8.631642	-0.590735	-61.354332
8.650000	-0.596608	-63.284700	-25.360192	6.158884	-25.360192	6.158884	-0.596860	-63.476820
8.700000	-0.602876	-65.385525	-25.356821	3.709863	-25.356821	3.709863	-0.603113	-65.577982
8.750000	-0.609254	-67.468352	-25.352736	1.280759	-25.352736	1.280759	-0.609478	-67.661150
8.800000	-0.615767	-69.529273	-25.347749	-1.124253	-25.347749	-1.124253	-0.615980	-69.722424
8.850000	-0.622390	-71.572705	-25.342015	-3.510147	-25.342015	-3.510147	-0.622596	-71.766223
8.900000	-0.629142	-73.595986	-25.335394	-5.874141	-25.335394	-5.874141	-0.629343	-73.789889
8.950000	-0.636010	-75.601244	-25.327959	-8.218665	-25.327959	-8.218665	-0.636211	-75.795555
9.000000	-0.643001	-77.588086	-25.319670	-10.543410	-25.319670	-10.543410	-0.643204	-77.782831
9.050000	-0.650115	-79.556492	-25.310510	-12.848471	-25.310510	-12.848471	-0.650327	-79.751702
9.100000	-0.657344	-81.508179	-25.300545	-15.135786	-25.300545	-15.135786	-0.657569	-81.703886
9.150000	-0.664702	-83.441137	-25.289663	-17.403340	-25.289663	-17.403340	-0.664948	-83.637382
9.200000	-0.672169	-85.358700	-25.278019	-19.654747	-25.278019	-19.654747	-0.672442	-85.555521
9.250000	-0.679768	-87.257997	-25.265459	-21.887111	-25.265459	-21.887111	-0.680076	-87.455444
9.300000	-0.687477	-89.142260	-25.252141	-24.103891	-25.252141	-24.103891	-0.687828	-89.340376
9.350000	-0.695308	-91.009996	-25.237983	-26.303645	-25.237983	-26.303645	-0.695713	-91.208837
9.400000	-0.703256	-92.862492	-25.223048	-28.487791	-25.223048	-28.487791	-0.703723	-93.062112
9.450000	-0.711319	-94.700126	-25.207355	-30.656806	-25.207355	-30.656806	-0.711859	-94.900582
9.500000	-0.719502	-96.522421	-25.190880	-32.810296	-25.190880	-32.810296	-0.720129	-96.723777
9.550000	-0.727792	-98.331437	-25.173734	-34.950426	-25.173734	-34.950426	-0.728517	-98.533751
9.600000	-0.736208	-100.125114	-25.155812	-37.075216	-25.155812	-37.075216	-0.737045	-100.328461
9.650000	-0.744727	-101.906499	-25.137281	-39.187788	-25.137281	-39.187788	-0.745691	-102.110941
9.700000	-0.753367	-103.673659	-25.118047	-41.286302	-25.118047	-41.286302	-0.754474	-103.879273
9.750000	-0.762112	-105.428738	-25.098233	-43.372948	-25.098233	-43.372948	-0.763379	-105.635596
9.800000	-0.770971	-107.171149	-25.077819	-45.447221	-25.077819	-45.447221	-0.772415	-107.379328
9.850000	-0.779938	-108.901514	-25.056851	-47.509796	-25.056851	-47.509796	-0.781579	-109.111095
9.900000	-0.789011	-110.620673	-25.035385	-49.561547	-25.035385	-49.561547	-0.790868	-110.831732
9.950000	-0.798196	-112.327909	-25.013405	-51.601846	-25.013405	-51.601846	-0.800293	-112.540534
10.000000	-0.807478	-114.025300	-24.991027	-53.632737	-24.991027	-53.632737	-0.809835	-114.239569
