! freq	dB(S11)	phase(S11)	dB(S12)	phase(S12)	
!     	dB(S21)	phase(S21)	dB(S22)	phase(S22)	
!S-par simulation data
#  GHz  S  DB  R 50
0.000000	-0.000000	0.000000	-330.263406	180.000000	-330.263406	180.000000	-0.000000	0.000000
0.050000	-0.004326	-2.060133	-94.237576	90.910088	-94.237576	90.910088	-0.001809	-1.771163
0.100000	-0.008492	-4.081618	-88.218293	87.524811	-88.218293	87.524811	-0.005132	-3.525335
0.150000	-0.010717	-6.096659	-84.746398	85.104097	-84.746398	85.104097	-0.007902	-5.267983
0.200000	-0.012319	-8.111339	-82.319162	82.933361	-82.319162	82.933361	-0.010005	-7.006585
0.250000	-0.013780	-10.125125	-80.475643	80.888894	-80.475643	80.888894	-0.011686	-8.743685
0.300000	-0.015283	-12.137095	-79.006739	78.926404	-79.006739	78.926404	-0.013174	-10.479971
0.350000	-0.016909	-14.146074	-77.808314	77.037575	-77.808314	77.037575	-0.014604	-12.215298
0.400000	-0.018670	-16.151502	-76.810389	75.215242	-76.810389	75.215242	-0.016055	-13.949450
0.450000	-0.020568	-18.152755	-75.971078	73.462561	-75.971078	73.462561	-0.017562	-15.682130
0.500000	-0.022604	-20.148913	-75.266231	71.791505	-75.266231	71.791505	-0.019152	-17.412908
0.550000	-0.024759	-22.139673	-74.672595	70.207543	-74.672595	70.207543	-0.020829	-19.141587
0.600000	-0.027016	-24.124670	-74.174494	68.719971	-74.174494	68.719971	-0.022596	-20.867957
0.650000	-0.029361	-26.103478	-73.761122	67.341588	-73.761122	67.341588	-0.024450	-22.591794
0.700000	-0.031779	-28.075704	-73.424300	66.087541	-73.424300	66.087541	-0.026388	-24.312889
0.750000	-0.034254	-30.040980	-73.157755	64.975737	-73.157755	64.975737	-0.028406	-26.031048
0.800000	-0.036775	-31.998824	-72.957670	64.030832	-72.957670	64.030832	-0.030498	-27.746029
0.850000	-0.039327	-33.948503	-72.822987	63.290329	-72.822987	63.290329	-0.032661	-29.457481
0.900000	-0.041897	-35.890225	-72.746353	62.774248	-72.746353	62.774248	-0.034882	-31.165466
0.950000	-0.044472	-37.823715	-72.724802	62.520177	-72.724802	62.520177	-0.037154	-32.869838
1.000000	-0.047043	-39.747644	-72.761254	62.617112	-72.761254	62.617112	-0.039474	-34.569991
1.050000	-0.049602	-41.663627	-72.840970	63.050105	-72.840970	63.050105	-0.041826	-36.266619
1.100000	-0.052141	-43.570644	-72.963909	63.912642	-72.963909	63.912642	-0.044206	-37.959258
1.150000	-0.054652	-45.467968	-73.124416	65.311350	-73.124416	65.311350	-0.046609	-39.647572
1.200000	-0.057130	-47.355596	-73.309735	67.327589	-73.309735	67.327589	-0.049026	-41.331551
1.250000	-0.059572	-49.233647	-73.502597	70.031823	-73.502597	70.031823	-0.051451	-43.011241
1.300000	-0.061973	-51.101755	-73.679239	73.516000	-73.679239	73.516000	-0.053877	-44.686478
1.350000	-0.064328	-52.959007	-73.801403	77.882309	-73.801403	77.882309	-0.056298	-46.356852
1.400000	-0.066643	-54.807065	-73.842929	82.952690	-73.842929	82.952690	-0.058711	-48.023110
1.450000	-0.068913	-56.644886	-73.759999	88.674720	-73.759999	88.674720	-0.061109	-49.684789
1.500000	-0.071132	-58.471268	-73.500957	94.819293	-73.500957	94.819293	-0.063487	-51.341360
1.550000	-0.073305	-60.287232	-73.068481	100.986515	-73.068481	100.986515	-0.065843	-52.993288
1.600000	-0.075434	-62.092687	-72.472679	106.844821	-72.472679	106.844821	-0.068174	-54.640543
1.650000	-0.077518	-63.887552	-71.741668	112.131182	-71.741668	112.131182	-0.070477	-56.283099
1.700000	-0.079561	-65.672188	-70.918528	116.719792	-70.918528	116.719792	-0.072752	-57.921130
1.750000	-0.081560	-67.445300	-70.022825	120.464427	-70.022825	120.464427	-0.074994	-59.554076
1.800000	-0.083517	-69.207462	-69.096583	123.436051	-69.096583	123.436051	-0.077203	-61.182206
1.850000	-0.085436	-70.958633	-68.163648	125.706903	-68.163648	125.706903	-0.079379	-62.805518
1.900000	-0.087319	-72.698662	-67.239476	127.360487	-67.239476	127.360487	-0.081521	-64.423962
1.950000	-0.089166	-74.427527	-66.334742	128.488886	-66.334742	128.488886	-0.083629	-66.037546
2.000000	-0.090981	-76.145337	-65.456306	129.179331	-65.456306	129.179331	-0.085705	-67.646334
2.050000	-0.092765	-77.852092	-64.607198	129.501444	-64.607198	129.501444	-0.087749	-69.250344
2.100000	-0.094522	-79.547800	-63.788594	129.513848	-63.788594	129.513848	-0.089763	-70.849596
2.150000	-0.096254	-81.232478	-63.000515	129.265230	-63.000515	129.265230	-0.091749	-72.444116
2.200000	-0.097962	-82.906155	-62.242286	128.795763	-62.242286	128.795763	-0.093708	-74.033934
2.250000	-0.099649	-84.568864	-61.512840	128.138535	-61.512840	128.138535	-0.095643	-75.619082
2.300000	-0.101317	-86.220178	-60.809678	127.315161	-60.809678	127.315161	-0.097555	-77.199399
2.350000	-0.102969	-87.861211	-60.134300	126.361553	-60.134300	126.361553	-0.099448	-78.775374
2.400000	-0.104606	-89.491431	-59.483667	125.288315	-59.483667	125.288315	-0.101325	-80.346800
2.450000	-0.106231	-91.110904	-58.856471	124.111203	-58.856471	124.111203	-0.103187	-81.913725
2.500000	-0.107845	-92.719703	-58.251467	122.843442	-58.251467	122.843442	-0.105038	-83.476200
2.550000	-0.109450	-94.317451	-57.666700	121.493187	-57.666700	121.493187	-0.106879	-85.034091
2.600000	-0.111049	-95.904702	-57.101990	120.073667	-57.101990	120.073667	-0.108716	-86.587650
2.650000	-0.112643	-97.481549	-56.556304	118.592848	-56.556304	118.592848	-0.110550	-88.136939
2.700000	-0.114234	-99.048091	-56.028690	117.057613	-56.028690	117.057613	-0.112384	-89.682022
2.750000	-0.115823	-100.604434	-55.518268	115.473947	-55.518268	115.473947	-0.114222	-91.222967
2.800000	-0.117413	-102.150688	-55.024229	113.847092	-55.024229	113.847092	-0.116065	-92.759848
2.850000	-0.119004	-103.686969	-54.545826	112.181670	-54.545826	112.181670	-0.117917	-94.292738
2.900000	-0.120599	-105.213396	-54.082368	110.481786	-54.082368	110.481786	-0.119780	-95.821716
2.950000	-0.122198	-106.730095	-53.633217	108.751110	-53.633217	108.751110	-0.121657	-97.346864
3.000000	-0.123803	-108.237192	-53.197780	106.992945	-53.197780	106.992945	-0.123550	-98.868268
3.050000	-0.125416	-109.734821	-52.775505	105.210281	-52.775505	105.210281	-0.125462	-100.386016
3.100000	-0.127036	-111.223117	-52.365875	103.405844	-52.365875	103.405844	-0.127393	-101.900200
3.150000	-0.128666	-112.702220	-51.968410	101.582128	-51.968410	101.582128	-0.129348	-103.410916
3.200000	-0.130307	-114.172270	-51.582652	99.741431	-51.582652	99.741431	-0.131326	-104.918264
3.250000	-0.131960	-115.633414	-51.208174	97.885872	-51.208174	97.885872	-0.133330	-106.422346
3.300000	-0.133625	-117.085798	-50.844569	96.017420	-50.844569	96.017420	-0.135362	-107.923268
3.350000	-0.135303	-118.529572	-50.491447	94.137903	-50.491447	94.137903	-0.137422	-109.421142
3.400000	-0.136996	-119.964888	-50.148440	92.249022	-50.148440	92.249022	-0.139512	-110.916079
3.450000	-0.138705	-121.391900	-49.815190	90.352364	-49.815190	90.352364	-0.141634	-112.408198
3.500000	-0.140429	-122.810763	-49.491356	88.449407	-49.491356	88.449407	-0.143788	-113.897619
3.550000	-0.142170	-124.221634	-49.176606	86.541528	-49.176606	86.541528	-0.145975	-115.384468
3.600000	-0.143929	-125.624673	-48.870621	84.630006	-48.870621	84.630006	-0.148195	-116.868871
3.650000	-0.145706	-127.020037	-48.573087	82.716024	-48.573087	82.716024	-0.150450	-118.350961
3.700000	-0.147501	-128.407888	-48.283703	80.800678	-48.283703	80.800678	-0.152740	-119.830874
3.750000	-0.149316	-129.788388	-48.002172	78.884971	-48.002172	78.884971	-0.155064	-121.308748
3.800000	-0.151151	-131.161394	-47.728158	76.969881	-47.728158	76.969881	-0.157426	-122.784650
3.850000	-0.153007	-132.527388	-47.461441	75.056242	-47.461441	75.056242	-0.159824	-124.258817
3.900000	-0.154884	-133.886535	-47.201742	73.144781	-47.201742	73.144781	-0.162257	-125.731399
3.950000	-0.156782	-135.238996	-46.948791	71.236141	-46.948791	71.236141	-0.164726	-127.202549
4.000000	-0.158701	-136.584937	-46.702321	69.330880	-46.702321	69.330880	-0.167231	-128.672425
4.050000	-0.160643	-137.924521	-46.462073	67.429469	-46.462073	67.429469	-0.169772	-130.141189
4.100000	-0.162607	-139.257913	-46.227796	65.532296	-46.227796	65.532296	-0.172348	-131.609004
4.150000	-0.164594	-140.585275	-45.999246	63.639663	-45.999246	63.639663	-0.174960	-133.076038
4.200000	-0.166604	-141.906773	-45.776184	61.751790	-45.776184	61.751790	-0.177607	-134.542463
4.250000	-0.168637	-143.222568	-45.558381	59.868816	-45.558381	59.868816	-0.180289	-136.008452
4.300000	-0.170693	-144.532825	-45.345618	57.990796	-45.345618	57.990796	-0.183007	-137.474185
4.350000	-0.172773	-145.837706	-45.137682	56.117711	-45.137682	56.117711	-0.185758	-138.939841
4.400000	-0.174877	-147.137372	-44.934370	54.249462	-44.934370	54.249462	-0.188545	-140.405604
4.450000	-0.177005	-148.431986	-44.735491	52.385877	-44.735491	52.385877	-0.191366	-141.871662
4.500000	-0.179158	-149.721708	-44.540863	50.526713	-44.540863	50.526713	-0.194220	-143.338205
4.550000	-0.181334	-151.006699	-44.350316	48.671660	-44.350316	48.671660	-0.197109	-144.805426
4.600000	-0.183535	-152.287118	-44.163692	46.820344	-44.163692	46.820344	-0.200032	-146.273520
4.650000	-0.185761	-153.563123	-43.980848	44.972331	-43.980848	44.972331	-0.202988	-147.742687
4.700000	-0.188010	-154.834873	-43.801652	43.127134	-43.801652	43.127134	-0.205978	-149.213126
4.750000	-0.190285	-156.102525	-43.625988	41.284221	-43.625988	41.284221	-0.209002	-150.685043
4.800000	-0.192584	-157.366235	-43.453754	39.443017	-43.453754	39.443017	-0.212059	-152.158644
4.850000	-0.194908	-158.626157	-43.284867	37.602916	-43.284867	37.602916	-0.215149	-153.634138
4.900000	-0.197256	-159.882447	-43.119256	35.763290	-43.119256	35.763290	-0.218273	-155.111735
4.950000	-0.199629	-161.135257	-42.956872	33.923497	-42.956872	33.923497	-0.221431	-156.591649
5.000000	-0.202027	-162.384739	-42.797680	32.082895	-42.797680	32.082895	-0.224623	-158.074097
5.050000	-0.204450	-163.630914	-42.641685	30.240762	-42.641685	30.240762	-0.227850	-159.559425
5.100000	-0.206897	-164.874076	-42.488881	28.396534	-42.488881	28.396534	-0.231112	-161.047745
5.150000	-0.209368	-166.114375	-42.339293	26.549656	-42.339293	26.549656	-0.234407	-162.539276
5.200000	-0.211864	-167.351956	-42.192959	24.699632	-42.192959	24.699632	-0.237738	-164.034244
5.250000	-0.214384	-168.586968	-42.049937	22.846043	-42.049937	22.846043	-0.241103	-165.532874
5.300000	-0.216927	-169.819556	-41.910298	20.988563	-41.910298	20.988563	-0.244503	-167.035392
5.350000	-0.219495	-171.049863	-41.774126	19.126976	-41.774126	19.126976	-0.247939	-168.542027
5.400000	-0.222085	-172.278033	-41.641515	17.261188	-41.641515	17.261188	-0.251411	-170.053009
5.450000	-0.224700	-173.504207	-41.512569	15.391246	-41.512569	15.391246	-0.254918	-171.568568
5.500000	-0.227337	-174.728526	-41.387394	13.517341	-41.387394	13.517341	-0.258462	-173.088937
5.550000	-0.229997	-175.951130	-41.266096	11.639819	-41.266096	11.639819	-0.262042	-174.614348
5.600000	-0.232680	-177.172156	-41.148779	9.759183	-41.148779	9.759183	-0.265659	-176.145036
5.650000	-0.235385	-178.391742	-41.035537	7.876086	-41.035537	7.876086	-0.269313	-177.681236
5.700000	-0.238112	-179.610022	-40.926450	5.991323	-40.926450	5.991323	-0.273005	-179.223182
5.750000	-0.240862	179.172868	-40.821584	4.105817	-40.821584	4.105817	-0.276733	179.228889
5.800000	-0.243632	177.956795	-40.720981	2.220594	-40.720981	2.220594	-0.280498	177.674741
5.850000	-0.246424	176.741628	-40.624660	0.336756	-40.624660	0.336756	-0.284301	176.114138
5.900000	-0.249237	175.527236	-40.532613	-1.544551	-40.532613	-1.544551	-0.288141	174.546844
5.950000	-0.252071	174.313491	-40.444805	-3.422175	-40.444805	-3.422175	-0.292018	172.972623
6.000000	-0.254924	173.100263	-40.361172	-5.294996	-40.361172	-5.294996	-0.295932	171.391237
6.050000	-0.257798	171.887426	-40.281623	-7.161966	-40.281623	-7.161966	-0.299882	169.802453
6.100000	-0.260691	170.674855	-40.206044	-9.022142	-40.206044	-9.022142	-0.303868	168.206034
6.150000	-0.263603	169.462427	-40.134298	-10.874722	-40.134298	-10.874722	-0.307890	166.601748
6.200000	-0.266534	168.250017	-40.066233	-12.719071	-40.066233	-12.719071	-0.311946	164.989360
6.250000	-0.269483	167.037506	-40.001686	-14.554740	-40.001686	-14.554740	-0.316036	163.368639
6.300000	-0.272450	165.824757	-39.940610	-16.381089	-39.940610	-16.381089	-0.320160	161.738972
6.350000	-0.275435	164.611656	-39.882707	-18.198475	-39.882707	-18.198475	-0.324317	160.100492
6.400000	-0.278436	163.398087	-39.827819	-20.007071	-39.827819	-20.007071	-0.328504	158.452973
6.450000	-0.281454	162.183933	-39.775800	-21.807230	-39.775800	-21.807230	-0.332720	156.796190
6.500000	-0.284488	160.969080	-39.726525	-23.599463	-39.726525	-23.599463	-0.336964	155.129922
6.550000	-0.287538	159.753416	-39.679888	-25.384412	-39.679888	-25.384412	-0.341235	153.453949
6.600000	-0.290602	158.536827	-39.635812	-27.162824	-39.635812	-27.162824	-0.345530	151.768054
6.650000	-0.293680	157.319205	-39.594245	-28.935519	-39.594245	-28.935519	-0.349848	150.072026
6.700000	-0.296771	156.100560	-39.554935	-30.703759	-39.554935	-30.703759	-0.354185	148.366682
6.750000	-0.299877	154.880569	-39.518310	-32.467555	-39.518310	-32.467555	-0.358543	146.649897
6.800000	-0.302995	153.659223	-39.484203	-34.228197	-39.484203	-34.228197	-0.362918	144.922365
6.850000	-0.306126	152.436417	-39.452672	-35.986495	-39.452672	-35.986495	-0.367308	143.183887
6.900000	-0.309270	151.211812	-39.424178	-37.743056	-39.424178	-37.743056	-0.371711	141.432668
6.950000	-0.312423	149.985743	-39.398123	-39.498864	-39.398123	-39.498864	-0.376123	139.671573
7.000000	-0.315587	148.757906	-39.374964	-41.254245	-39.374964	-41.254245	-0.380543	137.898965
7.050000	-0.318761	147.528201	-39.354845	-43.009612	-39.354845	-43.009612	-0.384968	136.114667
7.100000	-0.321944	146.296529	-39.337921	-44.765247	-39.337921	-44.765247	-0.389397	134.318508
7.150000	-0.325136	145.062795	-39.324362	-46.521296	-39.324362	-46.521296	-0.393827	132.510321
7.200000	-0.328336	143.826902	-39.314342	-48.277766	-39.314342	-48.277766	-0.398257	130.689946
7.250000	-0.331544	142.588757	-39.308042	-50.034527	-39.308042	-50.034527	-0.402684	128.857232
7.300000	-0.334759	141.348267	-39.305646	-51.791312	-39.305646	-51.791312	-0.407107	127.012029
7.350000	-0.337981	140.105340	-39.307335	-53.547733	-39.307335	-53.547733	-0.411525	125.154198
7.400000	-0.341209	138.859885	-39.313290	-55.303283	-39.313290	-55.303283	-0.415938	123.283604
7.450000	-0.344442	137.611815	-39.323686	-57.057359	-39.323686	-57.057359	-0.420344	121.400117
7.500000	-0.347680	136.361040	-39.338691	-58.809275	-39.338691	-58.809275	-0.424744	119.503615
7.550000	-0.350922	135.107379	-39.358623	-60.558167	-39.358623	-60.558167	-0.429139	117.593546
7.600000	-0.354169	133.850835	-39.383481	-62.303345	-39.383481	-62.303345	-0.433531	115.670220
7.650000	-0.357418	132.591324	-39.413404	-64.044065	-39.413404	-64.044065	-0.437924	113.733524
7.700000	-0.360671	131.328762	-39.448520	-65.779652	-39.448520	-65.779652	-0.442322	111.783345
7.750000	-0.363927	130.063066	-39.488951	-67.509567	-39.488951	-67.509567	-0.446733	109.819566
7.800000	-0.367184	128.794154	-39.534811	-69.233487	-39.534811	-69.233487	-0.451166	107.842063
7.850000	-0.370444	127.521943	-39.586215	-70.951422	-39.586215	-70.951422	-0.455633	105.850695
7.900000	-0.373705	126.246352	-39.643284	-72.663868	-39.643284	-72.663868	-0.460153	103.845301
7.950000	-0.376968	124.967300	-39.706158	-74.372027	-39.706158	-74.372027	-0.464748	101.825681
8.000000	-0.380232	123.684704	-39.775016	-76.078129	-39.775016	-76.078129	-0.469454	99.791580
8.050000	-0.383498	122.398481	-39.850109	-77.785912	-39.850109	-77.785912	-0.474316	97.742660
8.100000	-0.386765	121.108545	-39.931819	-79.501371	-39.931819	-79.501371	-0.479405	95.678451
8.150000	-0.390034	119.814765	-40.020838	-81.234314	-40.020838	-81.234314	-0.484828	93.598104
8.200000	-0.393306	118.517041	-40.118261	-83.000516	-40.118261	-83.000516	-0.490755	91.500593
8.250000	-0.396582	117.215307	-40.225963	-84.824840	-40.225963	-84.824840	-0.497461	89.384573
8.300000	-0.399866	115.909435	-40.347689	-86.749171	-40.347689	-86.749171	-0.505437	87.247682
8.350000	-0.403165	114.599257	-40.491274	-88.846796	-40.491274	-88.846796	-0.515629	85.086193
8.400000	-0.406498	113.284526	-40.675092	-91.253153	-40.675092	-91.253153	-0.530060	82.894429
8.450000	-0.409912	111.965020	-40.942907	-94.195825	-40.942907	-94.195825	-0.553006	80.667284
8.500000	-0.413603	110.639784	-41.467395	-98.169271	-41.467395	-98.169271	-0.598634	78.414690
8.550000	-0.418264	109.310563	-42.919868	-102.220697	-42.919868	-102.220697	-0.698182	76.366003
8.600000	-0.423232	107.993953	-45.051648	-85.526126	-45.051648	-85.526126	-0.749713	75.401054
8.650000	-0.424960	106.668715	-42.598312	-76.987504	-42.598312	-76.987504	-0.597564	73.628055
8.700000	-0.427301	105.328020	-41.717207	-81.668444	-41.717207	-81.668444	-0.535085	71.150792
8.750000	-0.430226	103.981922	-41.529072	-85.210858	-41.529072	-85.210858	-0.519167	68.737876
8.800000	-0.433376	102.631399	-41.528018	-87.654340	-41.528018	-87.654340	-0.516136	66.397054
8.850000	-0.436628	101.276360	-41.590320	-89.475540	-41.590320	-89.475540	-0.517165	64.092429
8.900000	-0.439940	99.916598	-41.679617	-90.906862	-41.679617	-90.906862	-0.519772	61.805390
8.950000	-0.443298	98.551945	-41.781462	-92.068605	-41.781462	-92.068605	-0.523066	59.526267
9.000000	-0.446696	97.182253	-41.888973	-93.026721	-41.888973	-93.026721	-0.526688	57.249878
9.050000	-0.450133	95.807389	-41.998260	-93.819521	-41.998260	-93.819521	-0.530480	54.973371
9.100000	-0.453610	94.427224	-42.106729	-94.470449	-42.106729	-94.470449	-0.534368	52.695177
9.150000	-0.457132	93.041632	-42.212369	-94.994596	-42.212369	-94.994596	-0.538321	50.414481
9.200000	-0.460702	91.650484	-42.313425	-95.402267	-42.313425	-95.402267	-0.542321	48.130931
9.250000	-0.464326	90.253644	-42.408234	-95.701075	-42.408234	-95.701075	-0.546365	45.844480
9.300000	-0.468012	88.850975	-42.495139	-95.897274	-42.495139	-95.897274	-0.550453	43.555285
9.350000	-0.471765	87.442331	-42.572451	-95.996666	-42.572451	-95.996666	-0.554587	41.263653
9.400000	-0.475596	86.027487	-42.638285	-96.004369	-42.638285	-96.004369	-0.558774	38.969981
9.450000	-0.479515	84.606276	-42.690800	-95.927442	-42.690800	-95.927442	-0.563020	36.674784
9.500000	-0.483532	83.178589	-42.728312	-95.774958	-42.728312	-95.774958	-0.567332	34.378649
9.550000	-0.487657	81.744239	-42.749018	-95.556580	-42.749018	-95.556580	-0.571720	32.082191
9.600000	-0.491905	80.303027	-42.751172	-95.283819	-42.751172	-95.283819	-0.576193	29.786064
9.650000	-0.496291	78.854740	-42.733149	-94.970217	-42.733149	-94.970217	-0.580761	27.490957
9.700000	-0.500830	77.399148	-42.693509	-94.631424	-42.693509	-94.631424	-0.585437	25.197584
9.750000	-0.505542	75.936006	-42.631079	-94.285152	-42.631079	-94.285152	-0.590231	22.906680
9.800000	-0.510446	74.465050	-42.545027	-93.950999	-42.545027	-93.950999	-0.595158	20.618996
9.850000	-0.515565	72.985995	-42.434938	-93.650136	-42.434938	-93.650136	-0.600231	18.335295
9.900000	-0.520925	71.498536	-42.300876	-93.404861	-42.300876	-93.404861	-0.605465	16.056346
9.950000	-0.526552	70.002342	-42.143435	-93.238049	-42.143435	-93.238049	-0.610876	13.782925
10.000000	-0.532479	68.497058	-41.963766	-93.172511	-41.963766	-93.172511	-0.616481	11.515804
