! freq	dB(S11)	phase(S11)	dB(S12)	phase(S12)	
!     	dB(S21)	phase(S21)	dB(S22)	phase(S22)	
!S-par simulation data
#  GHz  S  DB  R 50
0.000000	-0.000000	0.000000	-342.739575	0.000000	-342.739575	0.000000	-0.000000	0.000000
0.050000	-0.006894	-2.346568	-98.883781	87.518133	-98.883781	87.518133	-0.002485	-1.143660
0.100000	-0.010960	-4.641281	-92.977373	86.023157	-92.977373	86.023157	-0.004695	-2.265910
0.150000	-0.012857	-6.935516	-89.540371	84.574277	-89.540371	84.574277	-0.005862	-3.385719
0.200000	-0.014340	-9.230323	-87.132635	83.090107	-87.132635	83.090107	-0.006713	-4.506081
0.250000	-0.015851	-11.523616	-85.302550	81.594782	-85.302550	81.594782	-0.007520	-5.626742
0.300000	-0.017508	-13.813901	-83.847377	80.109958	-83.847377	80.109958	-0.008373	-6.747292
0.350000	-0.019354	-16.099831	-82.662107	78.653654	-82.662107	78.653654	-0.009304	-7.867405
0.400000	-0.021381	-18.380668	-81.679235	77.238621	-81.679235	77.238621	-0.010318	-8.986879
0.450000	-0.023578	-20.655630	-80.857696	75.877790	-80.857696	75.877790	-0.011416	-10.105554
0.500000	-0.025935	-22.923677	-80.172993	74.588385	-80.172993	74.588385	-0.012594	-11.223255
0.550000	-0.028428	-25.184353	-79.603544	73.383962	-79.603544	73.383962	-0.013843	-12.339905
0.600000	-0.031034	-27.437148	-79.134766	72.280835	-79.134766	72.280835	-0.015155	-13.455433
0.650000	-0.033735	-29.681255	-78.758762	71.303291	-78.758762	71.303291	-0.016523	-14.569732
0.700000	-0.036511	-31.916131	-78.468285	70.477434	-78.468285	70.477434	-0.017937	-15.682739
0.750000	-0.039341	-34.141558	-78.255993	69.829294	-78.255993	69.829294	-0.019388	-16.794441
0.800000	-0.042207	-36.356977	-78.118856	69.398259	-78.118856	69.398259	-0.020870	-17.904779
0.850000	-0.045093	-38.561617	-78.056195	69.241179	-78.056195	69.241179	-0.022377	-19.013670
0.900000	-0.047984	-40.755569	-78.062121	69.405100	-78.062121	69.405100	-0.023901	-20.121147
0.950000	-0.050867	-42.938496	-78.133779	69.961113	-78.133779	69.961113	-0.025436	-21.227183
1.000000	-0.053730	-45.109460	-78.270068	71.028684	-78.270068	71.028684	-0.026979	-22.331677
1.050000	-0.056564	-47.268720	-78.460792	72.700316	-78.460792	72.700316	-0.028524	-23.434677
1.100000	-0.059361	-49.416069	-78.693975	75.105841	-78.693975	75.105841	-0.030069	-24.536173
1.150000	-0.062113	-51.550813	-78.949650	78.430701	-78.949650	78.430701	-0.031610	-25.636090
1.200000	-0.064816	-53.672911	-79.193375	82.814370	-79.193375	82.814370	-0.033145	-26.734432
1.250000	-0.067466	-55.782434	-79.377156	88.329953	-79.377156	88.329953	-0.034673	-27.831216
1.300000	-0.070060	-57.878952	-79.435585	94.968303	-79.435585	94.968303	-0.036192	-28.926393
1.350000	-0.072594	-59.962069	-79.295663	102.492948	-79.295663	102.492948	-0.037700	-30.019917
1.400000	-0.075071	-62.032144	-78.916470	110.394161	-78.916470	110.394161	-0.039198	-31.111829
1.450000	-0.077489	-64.089025	-78.290736	118.089492	-78.290736	118.089492	-0.040685	-32.202109
1.500000	-0.079846	-66.131923	-77.441768	125.003870	-77.441768	125.003870	-0.042160	-33.290652
1.550000	-0.082146	-68.161491	-76.448404	130.863534	-76.448404	130.863534	-0.043625	-34.377530
1.600000	-0.084390	-70.177674	-75.374077	135.589197	-75.374077	135.589197	-0.045079	-35.462724
1.650000	-0.086579	-72.179833	-74.263105	139.203412	-74.263105	139.203412	-0.046524	-36.546141
1.700000	-0.088715	-74.168302	-73.156127	141.879590	-73.156127	141.879590	-0.047958	-37.627805
1.750000	-0.090802	-76.143298	-72.075936	143.784476	-72.075936	143.784476	-0.049385	-38.707727
1.800000	-0.092841	-78.104631	-71.032182	145.047678	-71.032182	145.047678	-0.050803	-39.785860
1.850000	-0.094836	-80.052328	-70.030268	145.790642	-70.030268	145.790642	-0.052215	-40.862187
1.900000	-0.096789	-81.986283	-69.071231	146.108595	-69.071231	146.108595	-0.053620	-41.936668
1.950000	-0.098702	-83.906552	-68.154848	146.082680	-68.154848	146.082680	-0.055020	-43.009283
2.000000	-0.100579	-85.813357	-67.280150	145.779265	-67.280150	145.779265	-0.056416	-44.080033
2.050000	-0.102424	-87.706781	-66.444917	145.247475	-66.444917	145.247475	-0.057809	-45.148901
2.100000	-0.104239	-89.586923	-65.646736	144.526495	-65.646736	144.526495	-0.059199	-46.215869
2.150000	-0.106026	-91.453893	-64.883180	143.647757	-64.883180	143.647757	-0.060588	-47.280919
2.200000	-0.107789	-93.307816	-64.151914	142.636632	-64.151914	142.636632	-0.061977	-48.344035
2.250000	-0.109530	-95.148826	-63.450737	141.513749	-63.450737	141.513749	-0.063367	-49.405202
2.300000	-0.111253	-96.977069	-62.777611	140.295996	-62.777611	140.295996	-0.064757	-50.464404
2.350000	-0.112959	-98.792702	-62.130656	138.997294	-62.130656	138.997294	-0.066151	-51.521628
2.400000	-0.114652	-100.595890	-61.508152	137.629202	-61.508152	137.629202	-0.067547	-52.576861
2.450000	-0.116334	-102.386811	-60.908527	136.201376	-60.908527	136.201376	-0.068948	-53.630090
2.500000	-0.118006	-104.165649	-60.330344	134.721933	-60.330344	134.721933	-0.070354	-54.681304
2.550000	-0.119672	-105.932344	-59.771951	133.196900	-59.771951	133.196900	-0.071765	-55.730449
2.600000	-0.121334	-107.687361	-59.232542	131.633170	-59.232542	131.633170	-0.073183	-56.777559
2.650000	-0.122993	-109.430909	-58.711014	130.035680	-58.711014	130.035680	-0.074608	-57.822626
2.700000	-0.124652	-111.163206	-58.206354	128.408673	-58.206354	128.408673	-0.076042	-58.865644
2.750000	-0.126313	-112.883882	-57.717005	126.754526	-57.717005	126.754526	-0.077485	-59.906495
2.800000	-0.127978	-114.594248	-57.243304	125.078915	-57.243304	125.078915	-0.078937	-60.945375
2.850000	-0.129648	-116.294056	-56.783920	123.383411	-56.783920	123.383411	-0.080399	-61.982193
2.900000	-0.131325	-117.983545	-56.338128	121.670413	-56.338128	121.670413	-0.081872	-63.016945
2.950000	-0.133010	-119.662962	-55.905257	119.942020	-55.905257	119.942020	-0.083357	-64.049632
3.000000	-0.134705	-121.332557	-55.484687	118.200075	-55.484687	118.200075	-0.084854	-65.080252
3.050000	-0.136412	-122.992584	-55.075841	116.446198	-55.075841	116.446198	-0.086363	-66.108809
3.100000	-0.138132	-124.643303	-54.678185	114.681820	-54.678185	114.681820	-0.087886	-67.135304
3.150000	-0.139866	-126.284974	-54.291222	112.908205	-54.291222	112.908205	-0.089423	-68.159742
3.200000	-0.141615	-127.917866	-53.914489	111.126469	-53.914489	111.126469	-0.090975	-69.182128
3.250000	-0.143381	-129.542245	-53.547552	109.337604	-53.547552	109.337604	-0.092542	-70.202469
3.300000	-0.145165	-131.158384	-53.190008	107.542489	-53.190008	107.542489	-0.094125	-71.220772
3.350000	-0.146968	-132.766559	-52.841478	105.741905	-52.841478	105.741905	-0.095725	-72.237046
3.400000	-0.148790	-134.367045	-52.501608	103.936545	-52.501608	103.936545	-0.097341	-73.251301
3.450000	-0.150633	-135.960124	-52.170066	102.127026	-52.170066	102.127026	-0.098975	-74.263550
3.500000	-0.152498	-137.546076	-51.846540	100.313896	-51.846540	100.313896	-0.100627	-75.273804
3.550000	-0.154385	-139.125187	-51.530736	98.497644	-51.530736	98.497644	-0.102297	-76.282077
3.600000	-0.156296	-140.697742	-51.222378	96.678701	-51.222378	96.678701	-0.103987	-77.288386
3.650000	-0.158231	-142.264029	-50.921207	94.857453	-50.921207	94.857453	-0.105697	-78.292745
3.700000	-0.160191	-143.824338	-50.626977	93.034239	-50.626977	93.034239	-0.107427	-79.295172
3.750000	-0.162177	-145.378960	-50.339458	91.209361	-50.339458	91.209361	-0.109178	-80.295687
3.800000	-0.164190	-146.927969	-50.058318	89.383036	-50.058318	89.383036	-0.110951	-81.294228
3.850000	-0.166231	-148.471906	-49.783483	87.555565	-49.783483	87.555565	-0.112747	-82.290899
3.900000	-0.168299	-150.011068	-49.514756	85.727151	-49.514756	85.727151	-0.114565	-83.285722
3.950000	-0.170396	-151.545753	-49.251953	83.897971	-49.251953	83.897971	-0.116407	-84.278721
4.000000	-0.172521	-153.076261	-48.994899	82.068176	-48.994899	82.068176	-0.118272	-85.269921
4.050000	-0.174677	-154.602894	-48.743427	80.237900	-48.743427	80.237900	-0.120162	-86.259348
4.100000	-0.176862	-156.125954	-48.497382	78.407255	-48.497382	78.407255	-0.122076	-87.247027
4.150000	-0.179078	-157.645746	-48.256617	76.576337	-48.256617	76.576337	-0.124016	-88.232988
4.200000	-0.181325	-159.162577	-48.020990	74.745226	-48.020990	74.745226	-0.125982	-89.217260
4.250000	-0.183604	-160.676754	-47.790370	72.913987	-47.790370	72.913987	-0.127975	-90.199871
4.300000	-0.185915	-162.188588	-47.564631	71.082673	-47.564631	71.082673	-0.129995	-91.180855
4.350000	-0.188259	-163.698391	-47.343654	69.251323	-47.343654	69.251323	-0.132043	-92.160242
4.400000	-0.190635	-165.206476	-47.127329	67.419967	-47.127329	67.419967	-0.134120	-93.138067
4.450000	-0.193046	-166.713161	-46.915549	65.588624	-46.915549	65.588624	-0.136225	-94.114363
4.500000	-0.195490	-168.218763	-46.708213	63.757304	-46.708213	63.757304	-0.138361	-95.089166
4.550000	-0.197969	-169.723605	-46.505229	61.926008	-46.505229	61.926008	-0.140526	-96.062513
4.600000	-0.200483	-171.228009	-46.306506	60.094730	-46.306506	60.094730	-0.142722	-97.034440
4.650000	-0.203033	-172.732301	-46.111961	58.263456	-46.111961	58.263456	-0.144950	-98.004987
4.700000	-0.205619	-174.236812	-45.921515	56.432166	-45.921515	56.432166	-0.147209	-98.974192
4.750000	-0.208241	-175.741874	-45.735094	54.600834	-45.735094	54.600834	-0.149501	-99.942096
4.800000	-0.210900	-177.247822	-45.552629	52.769429	-45.552629	52.769429	-0.151827	-100.908740
4.850000	-0.213597	-178.754996	-45.374054	50.937914	-45.374054	50.937914	-0.154186	-101.874167
4.900000	-0.216332	179.736260	-45.199309	49.106247	-45.199309	49.106247	-0.156580	-102.838420
4.950000	-0.219105	178.225600	-45.028337	47.274382	-45.028337	47.274382	-0.159008	-103.801544
5.000000	-0.221918	176.712673	-44.861085	45.442270	-44.861085	45.442270	-0.161473	-104.763582
5.050000	-0.224772	175.196991	-44.697532	43.609841	-44.697532	43.609841	-0.163975	-105.724539
5.100000	-0.227666	173.678290	-44.537615	41.777048	-44.537615	41.777048	-0.166514	-106.684509
5.150000	-0.230602	172.156205	-44.381292	39.943830	-44.381292	39.943830	-0.169090	-107.643541
5.200000	-0.233580	170.630364	-44.228527	38.110124	-44.228527	38.110124	-0.171705	-108.601682
5.250000	-0.236600	169.100387	-44.079286	36.275863	-44.079286	36.275863	-0.174358	-109.558984
5.300000	-0.239664	167.565891	-43.933538	34.440978	-43.933538	34.440978	-0.177050	-110.515497
5.350000	-0.242772	166.026485	-43.791258	32.605396	-43.791258	32.605396	-0.179783	-111.471272
5.400000	-0.245925	164.481771	-43.652423	30.769044	-43.652423	30.769044	-0.182555	-112.426364
5.450000	-0.249124	162.931345	-43.517014	28.931846	-43.517014	28.931846	-0.185369	-113.380825
5.500000	-0.252370	161.374792	-43.385015	27.093723	-43.385015	27.093723	-0.188224	-114.334711
5.550000	-0.255665	159.811692	-43.256414	25.254595	-43.256414	25.254595	-0.191122	-115.288076
5.600000	-0.259009	158.241615	-43.131204	23.414379	-43.131204	23.414379	-0.194061	-116.240977
5.650000	-0.262404	156.664121	-43.009379	21.572991	-43.009379	21.572991	-0.197045	-117.193472
5.700000	-0.265851	155.078762	-42.890938	19.730346	-42.890938	19.730346	-0.200072	-118.145619
5.750000	-0.269352	153.485078	-42.775886	17.886355	-42.775886	17.886355	-0.203143	-119.097477
5.800000	-0.272908	151.882598	-42.664227	16.040930	-42.664227	16.040930	-0.206259	-120.049107
5.850000	-0.276521	150.270842	-42.555974	14.193980	-42.555974	14.193980	-0.209421	-121.000569
5.900000	-0.280193	148.649315	-42.451141	12.345412	-42.451141	12.345412	-0.212628	-121.951926
5.950000	-0.283926	147.017510	-42.349747	10.495134	-42.349747	10.495134	-0.215882	-122.903240
6.000000	-0.287722	145.374906	-42.251815	8.643051	-42.251815	8.643051	-0.219183	-123.854577
6.050000	-0.291583	143.720969	-42.157373	6.789067	-42.157373	6.789067	-0.222531	-124.806000
6.100000	-0.295513	142.055150	-42.066455	4.933085	-42.066455	4.933085	-0.225928	-125.757576
6.150000	-0.299513	140.376880	-41.979098	3.075008	-41.979098	3.075008	-0.229372	-126.709371
6.200000	-0.303587	138.685579	-41.895344	1.214739	-41.895344	1.214739	-0.232866	-127.661453
6.250000	-0.307739	136.980646	-41.815243	-0.647823	-41.815243	-0.647823	-0.236409	-128.613892
6.300000	-0.311974	135.260810	-41.738984	-2.512882	-41.738984	-2.512882	-0.240003	-129.566779
6.350000	-0.316295	133.526022	-41.666505	-4.380439	-41.666505	-4.380439	-0.243648	-130.520169
6.400000	-0.320705	131.775620	-41.597871	-6.250589	-41.597871	-6.250589	-0.247344	-131.474134
6.450000	-0.325208	130.008916	-41.533159	-8.123430	-41.533159	-8.123430	-0.251091	-132.428748
6.500000	-0.329810	128.225203	-41.472450	-9.999054	-41.472450	-9.999054	-0.254890	-133.384085
6.550000	-0.334517	126.423746	-41.415834	-11.877554	-41.415834	-11.877554	-0.258740	-134.340219
6.600000	-0.339333	124.603785	-41.363411	-13.759016	-41.363411	-13.759016	-0.262643	-135.297227
6.650000	-0.344265	122.764532	-41.315288	-15.643525	-41.315288	-15.643525	-0.266598	-136.255186
6.700000	-0.349320	120.905170	-41.271584	-17.531156	-41.271584	-17.531156	-0.270607	-137.214174
6.750000	-0.354506	119.024851	-41.232429	-19.421981	-41.232429	-19.421981	-0.274669	-138.174270
6.800000	-0.359831	117.122696	-41.197962	-21.316060	-41.197962	-21.316060	-0.278785	-139.135556
6.850000	-0.365303	115.197791	-41.168338	-23.213442	-41.168338	-23.213442	-0.282956	-140.098112
6.900000	-0.370910	113.252408	-41.143055	-25.113725	-41.143055	-25.113725	-0.287174	-141.061834
6.950000	-0.376706	111.278976	-41.123663	-27.017841	-41.123663	-27.017841	-0.291454	-142.027186
7.000000	-0.382681	109.279809	-41.109669	-28.925318	-41.109669	-28.925318	-0.295790	-142.994062
7.050000	-0.388846	107.253839	-41.101290	-30.836129	-41.101290	-30.836129	-0.300181	-143.962547
7.100000	-0.395216	105.199950	-41.098765	-32.750221	-41.098765	-32.750221	-0.304628	-144.932730
7.150000	-0.401802	103.116981	-41.102354	-34.667503	-41.102354	-34.667503	-0.309131	-145.904699
7.200000	-0.408623	101.003723	-41.112342	-36.587843	-41.112342	-36.587843	-0.313690	-146.878544
7.250000	-0.415693	98.858914	-41.129041	-38.511059	-41.129041	-38.511059	-0.318307	-147.854355
7.300000	-0.423032	96.681241	-41.152791	-40.436907	-41.152791	-40.436907	-0.322980	-148.832224
7.350000	-0.430658	94.469334	-41.183967	-42.365073	-41.183967	-42.365073	-0.327710	-149.812246
7.400000	-0.438592	92.221763	-41.222980	-44.295154	-41.222980	-44.295154	-0.332498	-150.794513
7.450000	-0.446859	89.937038	-41.270283	-46.226645	-41.270283	-46.226645	-0.337344	-151.779123
7.500000	-0.455481	87.613606	-41.326371	-48.158917	-41.326371	-48.158917	-0.342248	-152.766173
7.550000	-0.464495	85.248930	-41.392000	-50.091169	-41.392000	-50.091169	-0.347211	-153.755818
7.600000	-0.473922	82.842156	-41.467591	-52.022410	-41.467591	-52.022410	-0.352232	-154.748104
7.650000	-0.483793	80.391519	-41.553819	-53.951448	-41.553819	-53.951448	-0.357312	-155.743134
7.700000	-0.494142	77.895180	-41.651428	-55.876823	-41.651428	-55.876823	-0.362451	-156.741009
7.750000	-0.505003	75.351221	-41.761248	-57.796752	-41.761248	-57.796752	-0.367649	-157.741833
7.800000	-0.516416	72.757652	-41.884201	-59.709058	-41.884201	-59.709058	-0.372906	-158.745712
7.850000	-0.528422	70.112398	-42.021316	-61.611083	-42.021316	-61.611083	-0.378223	-159.752750
7.900000	-0.541064	67.413309	-42.173742	-63.499578	-42.173742	-63.499578	-0.383599	-160.763056
7.950000	-0.554391	64.658151	-42.342769	-65.370565	-42.342769	-65.370565	-0.389035	-161.776739
8.000000	-0.568451	61.844613	-42.529845	-67.219161	-42.529845	-67.219161	-0.394530	-162.793909
8.050000	-0.583298	58.970302	-42.736600	-69.039355	-42.736600	-69.039355	-0.400086	-163.814679
8.100000	-0.598987	56.032751	-42.964877	-70.823720	-42.964877	-70.823720	-0.405702	-164.839159
8.150000	-0.615588	53.028673	-43.216951	-72.562415	-43.216951	-72.562415	-0.411379	-165.867509
8.200000	-0.633165	49.955369	-43.495216	-74.243427	-43.495216	-74.243427	-0.417117	-166.899848
8.250000	-0.651772	46.810879	-43.802165	-75.852520	-43.802165	-75.852520	-0.422916	-167.936251
8.300000	-0.671476	43.592477	-44.140832	-77.371027	-44.140832	-77.371027	-0.428775	-168.976837
8.350000	-0.692346	40.297397	-44.514653	-78.775081	-44.514653	-78.775081	-0.434696	-170.021726
8.400000	-0.714451	36.922847	-44.927493	-80.033896	-44.927493	-80.033896	-0.440677	-171.071039
8.450000	-0.737862	33.466027	-45.383652	-81.107369	-45.383652	-81.107369	-0.446719	-172.124897
8.500000	-0.762648	29.924148	-45.887816	-81.942708	-45.887816	-81.942708	-0.452823	-173.183426
8.550000	-0.788847	26.296432	-46.444494	-82.478623	-46.444494	-82.478623	-0.458987	-174.246643
8.600000	-0.816592	22.575797	-47.059327	-82.603031	-47.059327	-82.603031	-0.465213	-175.314914
8.650000	-0.845906	18.762050	-47.735283	-82.196524	-47.735283	-82.196524	-0.471502	-176.388234
8.700000	-0.876843	14.852744	-48.472826	-81.086142	-48.472826	-81.086142	-0.477851	-177.466735
8.750000	-0.909448	10.845618	-49.265605	-79.040937	-49.265605	-79.040937	-0.484263	-178.550545
8.800000	-0.943770	6.737535	-50.092495	-75.747796	-50.092495	-75.747796	-0.490736	-179.639856
8.850000	-0.979810	2.527828	-50.907158	-70.876730	-50.907158	-70.876730	-0.497272	179.265257
8.900000	-1.017570	-1.784885	-51.622748	-64.146208	-51.622748	-64.146208	-0.503870	178.164660
8.950000	-1.057027	-6.201571	-52.107711	-55.564934	-52.107711	-55.564934	-0.510529	177.058219
9.000000	-1.098138	-10.722713	-52.220123	-45.724141	-52.220123	-45.724141	-0.517251	175.945798
9.050000	-1.140829	-15.348241	-51.888051	-35.806808	-51.888051	-35.806808	-0.524034	174.827260
9.100000	-1.185005	-20.078294	-51.162310	-27.075583	-51.162310	-27.075583	-0.530880	173.702417
9.150000	-1.230520	-24.910880	-50.184688	-20.229682	-50.184688	-20.229682	-0.537789	172.571161
9.200000	-1.277196	-29.843530	-49.094230	-15.338253	-49.094230	-15.338253	-0.544760	171.433371
9.250000	-1.324820	-34.873231	-47.985660	-12.141369	-47.985660	-12.141369	-0.551793	170.288906
9.300000	-1.373144	-39.996092	-46.911396	-10.296019	-46.911396	-10.296019	-0.558889	169.137627
9.350000	-1.421880	-45.207303	-45.895892	-9.492099	-45.895892	-9.492099	-0.566047	167.979392
9.400000	-1.470707	-50.501529	-44.947903	-9.486131	-44.947903	-9.486131	-0.573268	166.814020
9.450000	-1.519267	-55.871952	-44.068668	-10.088674	-44.068668	-10.088674	-0.580551	165.641368
9.500000	-1.567186	-61.310488	-43.255724	-11.156718	-43.255724	-11.156718	-0.587897	164.461331
9.550000	-1.614074	-66.808632	-42.504939	-12.586030	-42.504939	-12.586030	-0.595306	163.273768
9.600000	-1.659532	-72.357084	-41.811772	-14.297426	-41.811772	-14.297426	-0.602777	162.078536
9.650000	-1.703165	-77.945852	-41.171751	-16.229891	-41.171751	-16.229891	-0.610310	160.875494
9.700000	-1.744583	-83.564422	-40.580697	-18.336044	-40.580697	-18.336044	-0.617907	159.664476
9.750000	-1.783406	-89.201745	-40.034817	-20.578251	-40.034817	-20.578251	-0.625566	158.445297
9.800000	-1.819332	-94.846322	-39.530527	-22.924749	-39.530527	-22.924749	-0.633288	157.217879
9.850000	-1.852079	-100.486819	-39.064610	-25.350759	-39.064610	-25.350759	-0.641072	155.982083
9.900000	-1.881417	-106.112002	-38.634138	-27.835845	-38.634138	-27.835845	-0.648919	154.737769
9.950000	-1.907172	-111.710909	-38.236434	-30.363025	-38.236434	-30.363025	-0.656828	153.484799
10.000000	-1.929225	-117.273020	-37.869048	-32.918103	-37.869048	-32.918103	-0.664800	152.223037
