! freq	dB(S11)	phase(S11)	dB(S12)	phase(S12)	
!     	dB(S21)	phase(S21)	dB(S22)	phase(S22)	
!S-par simulation data
#  GHz  S  DB  R 50
0.000000	-84.261208	0.000000	-0.000532	0.000000	-0.000532	0.000000	-84.261208	0.000000
0.050000	-36.381796	-92.756777	-0.005267	-2.971426	-0.005267	-2.971426	-36.375998	-92.751012
0.100000	-30.371308	-95.851840	-0.014345	-5.908095	-0.014345	-5.908095	-30.368252	-95.843515
0.150000	-26.866702	-98.848794	-0.024207	-8.826768	-0.024207	-8.826768	-26.867499	-98.848766
0.200000	-24.395007	-101.805131	-0.035106	-11.738802	-0.035106	-11.738802	-24.398077	-101.831483
0.250000	-22.495323	-104.772174	-0.047550	-14.646720	-0.047550	-14.646720	-22.495203	-104.817705
0.300000	-20.951681	-107.791662	-0.061736	-17.550386	-0.061736	-17.550386	-20.948488	-107.812709
0.350000	-19.646968	-110.803486	-0.077725	-20.449132	-0.077725	-20.449132	-19.645702	-110.799131
0.400000	-18.520760	-113.772238	-0.095442	-23.342527	-0.095442	-23.342527	-18.521857	-113.761750
0.450000	-17.534682	-116.707146	-0.114892	-26.229883	-0.114892	-26.229883	-17.536797	-116.697691
0.500000	-16.659824	-119.621301	-0.135918	-29.111142	-0.135918	-29.111142	-16.662069	-119.612891
0.550000	-15.875347	-122.520456	-0.158439	-31.986079	-0.158439	-31.986079	-15.877304	-122.511888
0.600000	-15.166080	-125.407372	-0.182415	-34.854293	-0.182415	-34.854293	-15.167592	-125.397614
0.650000	-14.520807	-128.283297	-0.207835	-37.715181	-0.207835	-37.715181	-14.521852	-128.271763
0.700000	-13.929672	-131.149863	-0.234537	-40.568994	-0.234537	-40.568994	-13.930286	-131.136338
0.750000	-13.385473	-134.007538	-0.262455	-43.415529	-0.262455	-43.415529	-13.385713	-133.991993
0.800000	-12.882889	-136.856161	-0.291574	-46.254202	-0.291574	-46.254202	-12.882818	-136.838677
0.850000	-12.416937	-139.696070	-0.321796	-49.084984	-0.321796	-49.084984	-12.416617	-139.676782
0.900000	-11.983519	-142.527452	-0.353033	-51.907837	-0.353033	-51.907837	-11.983007	-142.506506
0.950000	-11.579351	-145.350292	-0.385216	-54.722600	-0.385216	-54.722600	-11.578697	-145.327831
1.000000	-11.201590	-148.164608	-0.418270	-57.529196	-0.418270	-57.529196	-11.200839	-148.140765
1.050000	-10.847796	-150.970417	-0.452119	-60.327577	-0.452119	-60.327577	-10.846986	-150.945310
1.100000	-10.515852	-153.767749	-0.486685	-63.117735	-0.486685	-63.117735	-10.515015	-153.741478
1.150000	-10.203909	-156.556651	-0.521894	-65.899696	-0.521894	-65.899696	-10.203070	-156.529301
1.200000	-9.910338	-159.337193	-0.557672	-68.673520	-0.557672	-68.673520	-9.909519	-159.308833
1.250000	-9.633698	-162.109473	-0.593944	-71.439302	-0.593944	-71.439302	-9.632913	-162.080157
1.300000	-9.372855	-164.873440	-0.630644	-74.197001	-0.630644	-74.197001	-9.372116	-164.843213
1.350000	-9.126492	-167.629427	-0.667695	-76.946952	-0.667695	-76.946952	-9.125806	-167.598322
1.400000	-8.893567	-170.377614	-0.705030	-79.689345	-0.705030	-79.689345	-8.892940	-170.345653
1.450000	-8.673141	-173.118208	-0.742586	-82.424397	-0.742586	-82.424397	-8.672573	-173.085407
1.500000	-8.464357	-175.851441	-0.780302	-85.152348	-0.780302	-85.152348	-8.463847	-175.817806
1.550000	-8.266433	-178.577566	-0.818121	-87.873462	-0.818121	-87.873462	-8.265978	-178.543100
1.600000	-8.078652	178.703142	-0.855989	-90.588024	-0.855989	-90.588024	-8.078249	178.738443
1.650000	-7.900355	175.990389	-0.893856	-93.296336	-0.893856	-93.296336	-7.899998	176.026532
1.700000	-7.731442	173.284447	-0.931653	-95.998163	-0.931653	-95.998163	-7.731124	173.321444
1.750000	-7.570367	170.583853	-0.969377	-98.694919	-0.969377	-98.694919	-7.570082	170.621717
1.800000	-7.417078	167.888816	-1.006975	-101.386427	-1.006975	-101.386427	-7.416819	167.927563
1.850000	-7.271091	165.198992	-1.044411	-104.073038	-1.044411	-104.073038	-7.270851	165.238638
1.900000	-7.131952	162.514026	-1.081656	-106.755112	-1.081656	-106.755112	-7.131725	162.554589
1.950000	-6.999240	159.833561	-1.118684	-109.433010	-1.118684	-109.433010	-6.999018	159.875057
2.000000	-6.872557	157.157234	-1.155475	-112.107099	-1.155475	-112.107099	-6.872334	157.199680
2.050000	-6.751532	154.484685	-1.192009	-114.777746	-1.192009	-114.777746	-6.751304	154.528095
2.100000	-6.635817	151.815555	-1.228275	-117.445315	-1.228275	-117.445315	-6.635579	151.859940
2.150000	-6.525084	149.149486	-1.264261	-120.110168	-1.264261	-120.110168	-6.524831	149.194857
2.200000	-6.419024	146.486128	-1.299964	-122.772659	-1.299964	-122.772659	-6.418753	146.532491
2.250000	-6.317344	143.825138	-1.335380	-125.433140	-1.335380	-125.433140	-6.317054	143.872497
2.300000	-6.219771	141.166183	-1.370512	-128.091949	-1.370512	-128.091949	-6.219459	141.214535
2.350000	-6.126044	138.508938	-1.405365	-130.749415	-1.405365	-130.749415	-6.125709	138.558278
2.400000	-6.035917	135.853094	-1.439947	-133.405857	-1.439947	-133.405857	-6.035560	135.903411
2.450000	-5.949159	133.198353	-1.474271	-136.061577	-1.474271	-136.061577	-5.948780	133.249633
2.500000	-5.865549	130.544432	-1.508350	-138.716861	-1.508350	-138.716861	-5.865149	130.596655
2.550000	-5.784967	127.891079	-1.542190	-141.371986	-1.542190	-141.371986	-5.784547	127.944218
2.600000	-5.707115	125.238012	-1.575826	-144.027219	-1.575826	-144.027219	-5.706678	125.292038
2.650000	-5.631809	122.585004	-1.609282	-146.682787	-1.609282	-146.682787	-5.631358	122.639882
2.700000	-5.558873	119.931847	-1.642584	-149.338895	-1.642584	-149.338895	-5.558410	119.987538
2.750000	-5.488141	117.278353	-1.675757	-151.995726	-1.675757	-151.995726	-5.487669	117.334814
2.800000	-5.419458	114.624354	-1.708832	-154.653435	-1.708832	-154.653435	-5.418979	114.681539
2.850000	-5.352674	111.969705	-1.741838	-157.312152	-1.741838	-157.312152	-5.352192	112.027564
2.900000	-5.287652	109.314281	-1.774804	-159.971978	-1.774804	-159.971978	-5.287170	109.372762
2.950000	-5.224261	106.657980	-1.807763	-162.632985	-1.807763	-162.632985	-5.223781	106.717028
3.000000	-5.162377	104.000721	-1.840745	-165.295214	-1.840745	-165.295214	-5.161903	104.060280
3.050000	-5.101886	101.342445	-1.873778	-167.958675	-1.873778	-167.958675	-5.101420	101.402458
3.100000	-5.042681	98.683118	-1.906890	-170.623349	-1.906890	-170.623349	-5.042225	98.743524
3.150000	-4.984662	96.022723	-1.940107	-173.289186	-1.940107	-173.289186	-4.984217	96.083464
3.200000	-4.927735	93.361269	-1.973449	-175.956112	-1.973449	-175.956112	-4.927303	93.422286
3.250000	-4.871815	90.698784	-2.006934	-178.624031	-2.006934	-178.624031	-4.871398	90.760018
3.300000	-4.816823	88.035318	-2.040572	178.707169	-2.040572	178.707169	-4.816421	88.096711
3.350000	-4.762686	85.370941	-2.074369	176.037601	-2.074369	176.037601	-4.762301	85.432436
3.400000	-4.709338	82.705742	-2.108325	173.367370	-2.108325	173.367370	-4.708970	82.767285
3.450000	-4.656721	80.039831	-2.142433	170.696558	-2.142433	170.696558	-4.656370	80.101368
3.500000	-4.604780	77.373335	-2.176684	168.025212	-2.176684	168.025212	-4.604446	77.434814
3.550000	-4.553468	74.706398	-2.211066	165.353330	-2.211066	165.353330	-4.553151	74.767770
3.600000	-4.502745	72.039181	-2.245569	162.680859	-2.245569	162.680859	-4.502444	72.100400
3.650000	-4.452574	69.371861	-2.280188	160.007700	-2.280188	160.007700	-4.452289	69.432881
3.700000	-4.402926	66.704629	-2.314930	157.333726	-2.314930	157.333726	-4.402656	66.765407
3.750000	-4.353776	64.037689	-2.349809	154.658805	-2.349809	154.658805	-4.353521	64.098184
3.800000	-4.305115	61.371289	-2.384856	151.982790	-2.384856	151.982790	-4.304873	61.431461
3.850000	-4.256918	58.705646	-2.420110	149.305695	-2.420110	149.305695	-4.256689	58.765459
3.900000	-4.209179	56.040996	-2.455613	146.627583	-2.455613	146.627583	-4.208961	56.100416
3.950000	-4.161894	53.377585	-2.491409	143.948610	-2.491409	143.948610	-4.161686	53.436579
4.000000	-4.115063	50.715664	-2.527536	141.269025	-2.527536	141.269025	-4.114864	50.774201
4.050000	-4.068693	48.055491	-2.564025	138.589150	-2.564025	138.589150	-4.068503	48.113541
4.100000	-4.022794	45.397325	-2.600896	135.909364	-2.600896	135.909364	-4.022610	45.454860
4.150000	-3.977379	42.741429	-2.638156	133.230078	-2.638156	133.230078	-3.977202	42.798421
4.200000	-3.932466	40.088065	-2.675804	130.551718	-2.675804	130.551718	-3.932295	40.144488
4.250000	-3.888077	37.437497	-2.713826	127.874712	-2.713826	127.874712	-3.887910	37.493323
4.300000	-3.844237	34.789984	-2.752198	125.199473	-2.752198	125.199473	-3.844074	34.845189
4.350000	-3.800973	32.145783	-2.790891	122.526398	-2.790891	122.526398	-3.800814	32.200339
4.400000	-3.758318	29.505144	-2.829865	119.855860	-2.829865	119.855860	-3.758162	29.559026
4.450000	-3.716305	26.868311	-2.869076	117.188209	-2.869076	117.188209	-3.716152	26.921494
4.500000	-3.674972	24.235521	-2.908475	114.523768	-2.908475	114.523768	-3.674820	24.287977
4.550000	-3.634357	21.606999	-2.948008	111.862836	-2.948008	111.862836	-3.634207	21.658702
4.600000	-3.594502	18.982961	-2.987615	109.205686	-2.987615	109.205686	-3.594354	19.033883
4.650000	-3.555451	16.363609	-3.027236	106.552566	-3.027236	106.552566	-3.555306	16.413722
4.700000	-3.517251	13.749131	-3.066804	103.903702	-3.066804	103.903702	-3.517107	13.798405
4.750000	-3.479949	11.139700	-3.106251	101.259293	-3.106251	101.259293	-3.479806	11.188105
4.800000	-3.443594	8.535472	-3.145502	98.619515	-3.145502	98.619515	-3.443453	8.582977
4.850000	-3.408238	5.936584	-3.184484	95.984521	-3.184484	95.984521	-3.408099	5.983156
4.900000	-3.373933	3.343153	-3.223117	93.354436	-3.223117	93.354436	-3.373797	3.388759
4.950000	-3.340734	0.755275	-3.261319	90.729360	-3.261319	90.729360	-3.340601	0.799881
5.000000	-3.308697	-1.826976	-3.299005	88.109367	-3.299005	88.109367	-3.308566	-1.783407
5.050000	-3.277929	-4.403303	-3.336051	85.494726	-3.336051	85.494726	-3.277802	-4.360809
5.100000	-3.248445	-6.973933	-3.372395	82.885229	-3.372395	82.885229	-3.248322	-6.932551
5.150000	-3.220304	-9.538872	-3.407943	80.280859	-3.407943	80.280859	-3.220186	-9.498643
5.200000	-3.193569	-12.098158	-3.442600	77.681564	-3.442600	77.681564	-3.193455	-12.059122
5.250000	-3.168302	-14.651859	-3.476265	75.087261	-3.476265	75.087261	-3.168194	-14.614058
5.300000	-3.144569	-17.200076	-3.508837	72.497833	-3.508837	72.497833	-3.144467	-17.163551
5.350000	-3.122436	-19.742941	-3.540213	69.913124	-3.540213	69.913124	-3.122340	-19.707737
5.400000	-3.101972	-22.280626	-3.570285	67.332940	-3.570285	67.332940	-3.101884	-22.246787
5.450000	-3.083248	-24.813338	-3.598945	64.757047	-3.598945	64.757047	-3.083169	-24.780910
5.500000	-3.066339	-27.341323	-3.626082	62.185169	-3.626082	62.185169	-3.066269	-27.310354
5.550000	-3.051321	-29.864872	-3.651582	59.616984	-3.651582	59.616984	-3.051261	-29.835408
5.600000	-3.038275	-32.384316	-3.675332	57.052124	-3.675332	57.052124	-3.038225	-32.356406
5.650000	-3.027283	-34.900034	-3.697213	54.490170	-3.697213	54.490170	-3.027246	-34.873729
5.700000	-3.018436	-37.412454	-3.717109	51.930651	-3.717109	51.930651	-3.018411	-37.387804
5.750000	-3.011825	-39.922055	-3.734898	49.373041	-3.734898	49.373041	-3.011814	-39.899111
5.800000	-3.007550	-42.429370	-3.750460	46.816756	-3.750460	46.816756	-3.007554	-42.408186
5.850000	-3.005715	-44.934990	-3.763674	44.261149	-3.763674	44.261149	-3.005735	-44.915620
5.900000	-3.006433	-47.439568	-3.774417	41.705508	-3.774417	41.705508	-3.006470	-47.422067
5.950000	-3.009824	-49.943821	-3.782565	39.149049	-3.782565	39.149049	-3.009879	-49.928245
6.000000	-3.016017	-52.448536	-3.787997	36.590915	-3.787997	36.590915	-3.016092	-52.434943
6.050000	-3.025151	-54.954574	-3.790588	34.030171	-3.790588	34.030171	-3.025247	-54.943024
6.100000	-3.037378	-57.462875	-3.790218	31.465794	-3.790218	31.465794	-3.037496	-57.453428
6.150000	-3.052862	-59.974466	-3.786767	28.896673	-3.786767	28.896673	-3.053002	-59.967184
6.200000	-3.071781	-62.490466	-3.780116	26.321598	-3.780116	26.321598	-3.071946	-62.485413
6.250000	-3.094330	-65.012094	-3.770150	23.739253	-3.770150	23.739253	-3.094521	-65.009336
6.300000	-3.120898	-67.541049	-3.756602	21.147759	-3.756602	21.147759	-3.121116	-67.540656
6.350000	-3.151566	-70.078552	-3.739511	18.545862	-3.739511	18.545862	-3.151811	-70.080594
6.400000	-3.186594	-72.626204	-3.718777	15.931860	-3.718777	15.931860	-3.186869	-72.630752
6.450000	-3.226272	-75.185751	-3.694309	13.303901	-3.694309	13.303901	-3.226576	-75.192878
6.500000	-3.270915	-77.759110	-3.666026	10.659974	-3.666026	10.659974	-3.271250	-77.768890
6.550000	-3.320875	-80.348380	-3.633859	7.997891	-3.633859	7.997891	-3.321241	-80.360890
6.600000	-3.376542	-82.955878	-3.597756	5.315269	-3.597756	5.315269	-3.376937	-82.971193
6.650000	-3.438344	-85.584164	-3.557684	2.609511	-3.557684	2.609511	-3.438769	-85.602359
6.700000	-3.506006	-88.233025	-3.514123	-0.118895	-3.514123	-0.118895	-3.506459	-88.254165
6.750000	-3.581813	-90.912684	-3.465936	-2.880735	-3.465936	-2.880735	-3.582291	-90.936849
6.800000	-3.664836	-93.620523	-3.414156	-5.672690	-3.414156	-5.672690	-3.665335	-93.647770
6.850000	-3.756550	-96.364354	-3.358411	-8.502460	-3.358411	-8.502460	-3.757063	-96.394734
6.900000	-3.857222	-99.146794	-3.299111	-11.372006	-3.299111	-11.372006	-3.857741	-99.180335
6.950000	-3.967624	-101.973381	-3.236509	-14.285948	-3.236509	-14.285948	-3.968136	-102.010084
7.000000	-4.089124	-104.853607	-3.170766	-17.252283	-3.170766	-17.252283	-4.089610	-104.893425
7.050000	-4.221527	-107.789036	-3.102760	-20.270625	-3.102760	-20.270625	-4.221961	-107.831868
7.100000	-4.367562	-110.801572	-3.032780	-23.358248	-3.032780	-23.358248	-4.367904	-110.847187
7.150000	-4.526186	-113.889999	-2.962206	-26.510139	-2.962206	-26.510139	-4.526382	-113.938071
7.200000	-4.700316	-117.089038	-2.892447	-29.748606	-2.892447	-29.748606	-4.700276	-117.138929
7.250000	-4.888945	-120.404446	-2.825375	-33.069861	-2.825375	-33.069861	-4.888550	-120.455315
7.300000	-5.094791	-123.899913	-2.765031	-36.503159	-2.765031	-36.503159	-5.093826	-123.950177
7.350000	-5.317191	-127.622767	-2.716431	-40.053659	-2.716431	-40.053659	-5.315327	-127.670098
7.400000	-5.556718	-131.670644	-2.688125	-43.736486	-2.688125	-43.736486	-5.553410	-131.711410
7.450000	-5.815578	-136.245405	-2.697627	-47.568084	-2.697627	-47.568084	-5.809812	-136.273499
7.500000	-6.102320	-141.700532	-2.776918	-51.514934	-2.776918	-51.514934	-6.092164	-141.706119
7.550000	-6.461455	-148.825709	-2.996000	-55.347937	-2.996000	-55.347937	-6.442706	-148.792550
7.600000	-7.093781	-159.071175	-3.458748	-57.921712	-3.458748	-57.921712	-7.056515	-158.977784
7.650000	-8.846296	-173.402665	-3.911459	-55.473801	-3.911459	-55.473801	-8.763321	-173.262036
7.700000	-12.974376	-179.208996	-3.010979	-51.757204	-3.010979	-51.757204	-12.796414	-179.445330
7.750000	-15.811369	-161.774645	-1.927163	-56.482873	-1.927163	-56.482873	-15.664568	-163.118356
7.800000	-16.032534	-150.893518	-1.455472	-63.071187	-1.455472	-63.071187	-15.996239	-152.456901
7.850000	-16.489658	-148.288668	-1.247098	-69.088397	-1.247098	-69.088397	-16.509157	-149.850573
7.900000	-17.621243	-147.292979	-1.134477	-74.603916	-1.134477	-74.603916	-17.683145	-148.960442
7.950000	-19.434386	-144.686855	-1.063799	-79.847640	-1.063799	-79.847640	-19.557281	-146.595060
8.000000	-21.992623	-136.712646	-1.019024	-84.951629	-1.019024	-84.951629	-22.244515	-138.923786
8.050000	-24.871913	-115.439087	-0.995002	-89.990109	-0.995002	-89.990109	-25.401503	-117.107287
8.100000	-25.205596	-78.157739	-0.990602	-95.001740	-0.990602	-95.001740	-25.790037	-76.880165
8.150000	-22.035852	-52.206055	-1.006484	-100.004263	-1.006484	-100.004263	-22.308194	-50.055822
8.200000	-18.730088	-42.469591	-1.043390	-105.002594	-1.043390	-105.002594	-18.853392	-40.732430
8.250000	-16.090734	-39.779145	-1.101626	-109.993365	-1.101626	-109.993365	-16.155495	-38.421422
8.300000	-13.993121	-40.188462	-1.181566	-114.968197	-1.181566	-114.968197	-14.031316	-39.092149
8.350000	-12.288461	-42.139392	-1.283207	-119.915768	-1.283207	-119.915768	-12.312870	-41.223465
8.400000	-10.874507	-44.934528	-1.406135	-124.823266	-1.406135	-124.823266	-10.891004	-44.147589
8.450000	-9.683600	-48.221596	-1.549661	-129.676949	-1.549661	-129.676949	-9.695207	-47.530086
8.500000	-8.669935	-51.800456	-1.712774	-134.462570	-1.712774	-134.462570	-8.678347	-51.181570
8.550000	-7.798252	-55.539538	-1.893176	-139.172246	-1.893176	-139.172246	-7.804464	-54.978045
8.600000	-7.045946	-59.366686	-2.089701	-143.791926	-2.089701	-143.791926	-7.050602	-58.850970
8.650000	-6.393787	-63.225352	-2.300117	-148.313708	-2.300117	-148.313708	-6.397309	-62.746892
8.700000	-5.824099	-67.079816	-2.521959	-152.738410	-2.521959	-152.738410	-5.826766	-66.632448
8.750000	-5.328235	-70.902667	-2.753460	-157.053342	-2.753460	-157.053342	-5.330254	-70.481164
8.800000	-4.892395	-74.680600	-2.992343	-161.267380	-2.992343	-161.267380	-4.893908	-74.281184
8.850000	-4.511800	-78.396767	-3.236613	-165.369981	-3.236613	-165.369981	-4.512917	-78.016057
8.900000	-4.177435	-82.046553	-3.484310	-169.368457	-3.484310	-169.368457	-4.178234	-81.681953
8.950000	-3.882376	-85.628884	-3.734011	-173.269233	-3.734011	-173.269233	-3.882917	-85.278292
9.000000	-3.624956	-89.132679	-3.983134	-177.063265	-3.983134	-177.063265	-3.625287	-88.794115
9.050000	-3.397171	-92.568152	-4.231194	179.231495	-4.231194	179.231495	-3.397326	-92.240161
9.100000	-3.196846	-95.932433	-4.476378	175.616038	-4.476378	175.616038	-3.196853	-95.613680
9.150000	-3.021056	-99.226789	-4.717149	172.086475	-4.717149	172.086475	-3.020936	-98.916114
9.200000	-2.865496	-102.459992	-4.953400	168.630655	-4.953400	168.630655	-2.865265	-102.156468
9.250000	-2.729704	-105.628763	-5.182760	165.251337	-5.182760	165.251337	-2.729376	-105.331492
9.300000	-2.610184	-108.742547	-5.405379	161.936455	-5.405379	161.936455	-2.609769	-108.450813
9.350000	-2.505170	-111.805702	-5.620596	158.680333	-5.620596	158.680333	-2.504675	-111.518878
9.400000	-2.414298	-114.818121	-5.826335	155.482524	-5.826335	155.482524	-2.413731	-114.535610
9.450000	-2.334790	-117.789952	-6.023612	152.330957	-6.023612	152.330957	-2.334155	-117.511291
9.500000	-2.266370	-120.722304	-6.210758	149.223987	-6.210758	149.223987	-2.265673	-120.447056
9.550000	-2.207915	-123.620254	-6.387307	146.155454	-6.387307	146.155454	-2.207159	-123.348046
9.600000	-2.158013	-126.490004	-6.553702	143.118034	-6.553702	143.118034	-2.157202	-126.220533
9.650000	-2.117006	-129.332375	-6.707556	140.110240	-6.707556	140.110240	-2.116145	-129.065348
9.700000	-2.083356	-132.154459	-6.850013	137.123718	-6.850013	137.123718	-2.082450	-131.889659
9.750000	-2.056762	-134.959404	-6.980241	134.154357	-6.980241	134.154357	-2.055815	-134.696646
9.800000	-2.037233	-137.750353	-7.096723	131.197679	-7.096723	131.197679	-2.036253	-137.489480
9.850000	-2.023723	-140.532268	-7.200523	128.247582	-7.200523	128.247582	-2.022716	-140.273176
9.900000	-2.016520	-143.307968	-7.289746	125.299454	-7.289746	125.299454	-2.015497	-143.050577
9.950000	-2.015153	-146.081442	-7.364402	122.347560	-7.364402	122.347560	-2.014125	-145.825713
10.000000	-2.019158	-148.855813	-7.424773	119.387269	-7.424773	119.387269	-2.018138	-148.601740
