! freq	dB(S11)	phase(S11)	dB(S12)	phase(S12)	
!     	dB(S21)	phase(S21)	dB(S22)	phase(S22)	
!S-par simulation data
#  GHz  S  DB  R 50
0.000000	-83.153776	0.000000	-0.000604	0.000000	-0.000604	0.000000	-83.153776	0.000000
0.050000	-41.726285	-92.204856	-0.003339	-2.835312	-0.003339	-2.835312	-41.726512	-92.205084
0.100000	-35.710924	-95.141720	-0.010017	-5.666535	-0.010017	-5.666535	-35.711082	-95.142425
0.150000	-32.192023	-97.923840	-0.018178	-8.487855	-0.018178	-8.487855	-32.192083	-97.925711
0.200000	-29.685850	-100.734234	-0.026409	-11.297986	-0.026409	-11.297986	-29.685925	-100.738712
0.250000	-27.730172	-103.805392	-0.034205	-14.098735	-0.034205	-14.098735	-27.730882	-103.812806
0.300000	-26.183693	-107.347815	-0.041516	-16.892861	-0.041516	-16.892861	-26.185301	-107.349473
0.350000	-24.994565	-110.714638	-0.048467	-19.682498	-0.048467	-19.682498	-24.995288	-110.710284
0.400000	-24.000984	-113.584275	-0.055214	-22.469056	-0.055214	-22.469056	-24.000930	-113.582372
0.450000	-23.125301	-116.264279	-0.061861	-25.252995	-0.061861	-25.252995	-23.125117	-116.265591
0.500000	-22.348936	-118.932752	-0.068485	-28.034748	-0.068485	-28.034748	-22.348812	-118.936058
0.550000	-21.661676	-121.620923	-0.075120	-30.814428	-0.075120	-30.814428	-21.661640	-121.625440
0.600000	-21.055306	-124.329940	-0.081771	-33.591982	-0.081771	-33.591982	-21.055347	-124.335266
0.650000	-20.519981	-127.054052	-0.088421	-36.367517	-0.088421	-36.367517	-20.520083	-127.060005
0.700000	-20.047994	-129.788785	-0.095035	-39.141109	-0.095035	-39.141109	-20.048143	-129.795279
0.750000	-19.634430	-132.531158	-0.101564	-41.912803	-0.101564	-41.912803	-19.634615	-132.538158
0.800000	-19.274378	-135.278844	-0.107953	-44.682773	-0.107953	-44.682773	-19.274593	-135.286342
0.850000	-18.962673	-138.030203	-0.114149	-47.451304	-0.114149	-47.451304	-18.962913	-138.038206
0.900000	-18.697790	-140.784418	-0.120081	-50.218637	-0.120081	-50.218637	-18.698051	-140.792942
0.950000	-18.478205	-143.540909	-0.125677	-52.985153	-0.125677	-52.985153	-18.478485	-143.549980
1.000000	-18.299785	-146.299237	-0.130899	-55.751341	-0.130899	-55.751341	-18.300083	-146.308885
1.050000	-18.162484	-149.059361	-0.135683	-58.517689	-0.135683	-58.517689	-18.162798	-149.069619
1.100000	-18.065642	-151.821325	-0.139977	-61.284774	-0.139977	-61.284774	-18.065972	-151.832233
1.150000	-18.008640	-154.585262	-0.143746	-64.053211	-0.143746	-64.053211	-18.008987	-154.596865
1.200000	-17.992875	-157.351471	-0.146939	-66.823750	-0.146939	-66.823750	-17.993239	-157.363822
1.250000	-18.018495	-160.120212	-0.149540	-69.597110	-0.149540	-69.597110	-18.018878	-160.133371
1.300000	-18.087306	-162.891840	-0.151528	-72.374128	-0.151528	-72.374128	-18.087711	-162.905876
1.350000	-18.200796	-165.666645	-0.152909	-75.155597	-0.152909	-75.155597	-18.201224	-165.681640
1.400000	-18.361594	-168.444911	-0.153693	-77.942366	-0.153693	-77.942366	-18.362048	-168.460960
1.450000	-18.573162	-171.226852	-0.153903	-80.735307	-0.153903	-80.735307	-18.573647	-171.244068
1.500000	-18.839988	-174.012559	-0.153579	-83.535296	-0.153579	-83.535296	-18.840508	-174.031081
1.550000	-19.167862	-176.801939	-0.152772	-86.343213	-0.152772	-86.343213	-19.168424	-176.821935
1.600000	-19.564732	-179.594635	-0.151547	-89.160004	-0.151547	-89.160004	-19.565343	-179.616319
1.650000	-20.040133	177.610198	-0.149990	-91.986482	-0.149990	-91.986482	-20.040805	177.586552
1.700000	-20.606888	174.814055	-0.148200	-94.823437	-0.148200	-94.823437	-20.607633	174.788090
1.750000	-21.282529	172.019479	-0.146290	-97.671643	-0.146290	-97.671643	-21.283367	171.990713
1.800000	-22.091433	169.230759	-0.144389	-100.531817	-0.144389	-100.531817	-22.092388	169.198518
1.850000	-23.068740	166.455244	-0.142637	-103.404611	-0.142637	-103.404611	-23.069854	166.418548
1.900000	-24.268155	163.706354	-0.141193	-106.290674	-0.141193	-106.290674	-24.269489	163.663677
1.950000	-25.775867	161.010231	-0.140230	-109.190496	-0.140230	-109.190496	-25.777527	160.959013
2.000000	-27.744033	158.423408	-0.139926	-112.104386	-0.139926	-112.104386	-27.746227	158.358889
2.050000	-30.484815	156.096319	-0.140473	-115.032608	-0.140473	-115.032608	-30.488038	156.007936
2.100000	-34.817294	154.600724	-0.142071	-117.975307	-0.142071	-117.975307	-34.823261	154.456213
2.150000	-44.667898	160.040096	-0.144928	-120.932489	-0.144928	-120.932489	-44.696147	159.601510
2.200000	-42.615741	-44.039721	-0.149261	-123.904061	-0.149261	-123.904061	-42.612200	-43.678291
2.250000	-33.564802	-41.110493	-0.155298	-126.889806	-0.155298	-126.889806	-33.561520	-40.988182
2.300000	-29.074015	-42.822056	-0.163243	-129.889162	-0.163243	-129.889162	-29.071754	-42.751659
2.350000	-26.031173	-45.268997	-0.173311	-132.901520	-0.173311	-132.901520	-26.029467	-45.221353
2.400000	-23.712699	-47.973193	-0.185709	-135.926111	-0.185709	-135.926111	-23.711334	-47.938424
2.450000	-21.832575	-50.800425	-0.200638	-138.961999	-0.200638	-138.961999	-21.831439	-50.774011
2.500000	-20.248174	-53.697753	-0.218288	-142.008093	-0.218288	-142.008093	-20.247204	-53.677253
2.550000	-18.877733	-56.639906	-0.238866	-145.063223	-0.238866	-145.063223	-18.876887	-56.623844
2.600000	-17.670750	-59.612052	-0.262502	-148.125879	-0.262502	-148.125879	-17.670002	-59.599488
2.650000	-16.593196	-62.605270	-0.289332	-151.194525	-0.289332	-151.194525	-16.592526	-62.595560
2.700000	-15.621227	-65.613325	-0.319472	-154.267504	-0.319472	-154.267504	-15.620620	-65.606011
2.750000	-14.737476	-68.631483	-0.353011	-157.343054	-0.353011	-157.343054	-14.736923	-68.626228
2.800000	-13.928895	-71.655888	-0.390012	-160.419327	-0.390012	-160.419327	-13.928387	-71.652439
2.850000	-13.185402	-74.683233	-0.430535	-163.494382	-0.430535	-163.494382	-13.184933	-74.681395
2.900000	-12.499103	-77.710515	-0.474565	-166.566237	-0.474565	-166.566237	-12.498667	-77.710136
2.950000	-11.863605	-80.735030	-0.522064	-169.632915	-0.522064	-169.632915	-11.863198	-80.735992
3.000000	-11.273664	-83.754273	-0.572972	-172.692440	-0.572972	-172.692440	-11.273283	-83.756482
3.050000	-10.724920	-86.765893	-0.627197	-175.742860	-0.627197	-175.742860	-10.724562	-86.769274
3.100000	-10.213693	-89.767685	-0.684619	-178.782277	-0.684619	-178.782277	-10.213355	-89.772178
3.150000	-9.736880	-92.757503	-0.745099	178.191220	-0.745099	178.191220	-9.736560	-92.763060
3.200000	-9.291774	-95.733390	-0.808455	175.179394	-0.808455	175.179394	-9.291469	-95.739974
3.250000	-8.875958	-98.693632	-0.874465	172.183796	-0.874465	172.183796	-8.875668	-98.701215
3.300000	-8.487331	-101.636605	-0.942901	169.205921	-0.942901	169.205921	-8.487054	-101.645165
3.350000	-8.124248	-104.560356	-1.013544	166.247615	-1.013544	166.247615	-8.123984	-104.569876
3.400000	-7.784631	-107.464416	-1.086056	163.309231	-1.086056	163.309231	-7.784378	-107.474888
3.450000	-7.467131	-110.347307	-1.160183	160.392163	-1.160183	160.392163	-7.466887	-110.358725
3.500000	-7.170365	-113.208075	-1.235626	157.497278	-1.235626	157.497278	-7.170131	-113.220438
3.550000	-6.893072	-116.045946	-1.312075	154.625271	-1.312075	154.625271	-6.892847	-116.059257
3.600000	-6.634096	-118.860318	-1.389212	151.776664	-1.389212	151.776664	-6.633879	-118.874583
3.650000	-6.392372	-121.650767	-1.466714	148.951805	-1.466714	148.951805	-6.392163	-121.665996
3.700000	-6.166920	-124.417039	-1.544253	146.150874	-1.544253	146.150874	-6.166719	-124.433246
3.750000	-5.956835	-127.159050	-1.621501	143.373883	-1.621501	143.373883	-5.956641	-127.176250
3.800000	-5.761491	-129.876357	-1.698095	140.621192	-1.698095	140.621192	-5.761304	-129.894570
3.850000	-5.579898	-132.569732	-1.773732	137.891963	-1.773732	137.891963	-5.579718	-132.588981
3.900000	-5.411343	-135.239573	-1.848091	135.185730	-1.848091	135.185730	-5.411170	-135.259882
3.950000	-5.255168	-137.886418	-1.920856	132.501885	-1.920856	132.501885	-5.255002	-137.907814
4.000000	-5.110771	-140.510941	-1.991718	129.839683	-1.991718	129.839683	-5.110612	-140.533457
4.050000	-4.977599	-143.113947	-2.060373	127.198249	-2.060373	127.198249	-4.977447	-143.137618
4.100000	-4.855147	-145.696364	-2.126525	124.576586	-2.126525	124.576586	-4.855002	-145.721227
4.150000	-4.742960	-148.259238	-2.189887	121.973578	-2.189887	121.973578	-4.742823	-148.285335
4.200000	-4.640629	-150.803723	-2.250178	119.387996	-2.250178	119.387996	-4.640500	-150.831100
4.250000	-4.547788	-153.331084	-2.307127	116.818503	-2.307127	116.818503	-4.547667	-153.359790
4.300000	-4.464118	-155.842687	-2.360469	114.263652	-2.360469	114.263652	-4.464005	-155.872776
4.350000	-4.389343	-158.339997	-2.409949	111.721897	-2.409949	111.721897	-4.389239	-158.371529
4.400000	-4.323319	-160.824459	-2.455268	109.191690	-2.455268	109.191690	-4.323224	-160.857499
4.450000	-4.265861	-163.297794	-2.496182	106.671211	-2.496182	106.671211	-4.265775	-163.332413
4.500000	-4.216741	-165.761904	-2.532506	104.158468	-2.532506	104.158468	-4.216667	-165.798179
4.550000	-4.175872	-168.218649	-2.564014	101.651484	-2.564014	101.651484	-4.175808	-168.256665
4.600000	-4.143211	-170.669990	-2.590492	99.148169	-2.590492	99.148169	-4.143159	-170.709839
4.650000	-4.118773	-173.117990	-2.611728	96.646314	-2.611728	96.646314	-4.118734	-173.159774
4.700000	-4.102625	-175.564820	-2.627521	94.143584	-2.627521	94.143584	-4.102599	-175.608649
4.750000	-4.094895	-178.012761	-2.637677	91.637508	-2.637677	91.637508	-4.094883	-178.058759
4.800000	-4.095777	179.535785	-2.642011	89.125469	-2.642011	89.125469	-4.095781	179.487485
4.850000	-4.105536	177.078294	-2.640343	86.604691	-2.640343	86.604691	-4.105557	177.027541
4.900000	-4.124519	174.612107	-2.632509	84.072227	-2.632509	84.072227	-4.124558	174.558735
4.950000	-4.153159	172.134424	-2.618350	81.524937	-2.618350	81.524937	-4.153219	172.078249
5.000000	-4.191995	169.642295	-2.597723	78.959477	-2.597723	78.959477	-4.192077	169.583110
5.050000	-4.241924	167.132155	-2.570351	76.371712	-2.570351	76.371712	-4.242031	167.069723
5.100000	-4.303521	164.601031	-2.536262	73.758194	-2.536262	73.758194	-4.303656	164.535090
5.150000	-4.377738	162.045467	-2.495368	71.114804	-2.495368	71.114804	-4.377904	161.975721
5.200000	-4.465710	159.461834	-2.447605	68.437124	-2.447605	68.437124	-4.465911	159.387946
5.250000	-4.568788	156.846334	-2.392937	65.720405	-2.392937	65.720405	-4.569029	156.767918
5.300000	-4.688584	154.195011	-2.331371	62.959542	-2.331371	62.959542	-4.688871	154.111625
5.350000	-4.827019	151.503778	-2.262957	60.149043	-2.262957	60.149043	-4.827359	151.414910
5.400000	-4.986391	148.768459	-2.187800	57.283010	-2.187800	57.283010	-4.986794	148.673511
5.450000	-5.169459	145.984857	-2.106075	54.355106	-2.106075	54.355106	-5.169936	145.883128
5.500000	-5.379548	143.148870	-2.018038	51.358546	-2.018038	51.358546	-5.380113	143.039528
5.550000	-5.620453	140.257147	-1.924098	48.286778	-1.924098	48.286778	-5.621124	140.139207
5.600000	-5.897709	137.305061	-1.824584	45.130272	-1.824584	45.130272	-5.898512	137.177304
5.650000	-6.217234	134.290654	-1.720182	41.881390	-1.720182	41.881390	-6.218200	134.151589
5.700000	-6.586651	131.213088	-1.611694	38.531468	-1.611694	38.531468	-6.587825	131.060857
5.750000	-7.015310	128.074428	-1.500149	35.072201	-1.500149	35.072201	-7.016752	127.906686
5.800000	-7.515369	124.880436	-1.386775	31.494645	-1.386775	31.494645	-7.517166	124.694157
5.850000	-8.102638	121.643389	-1.273066	27.789932	-1.273066	27.789932	-8.104917	121.434567
5.900000	-8.798144	118.386257	-1.160818	23.949544	-1.160818	23.949544	-8.801102	118.149450
5.950000	-9.630878	115.150439	-1.052164	19.965287	-1.052164	19.965287	-9.634829	114.877965
6.000000	-10.642270	112.011958	-0.949644	15.829695	-0.949644	15.829695	-10.647757	111.692424
6.050000	-11.892533	109.110424	-0.856082	11.539228	-0.856082	11.539228	-11.900557	108.726249
6.100000	-13.477751	106.724358	-0.774658	7.091674	-0.774658	7.091674	-13.490379	106.246313
6.150000	-15.562277	105.476802	-0.708846	2.488054	-0.708846	2.488054	-15.584485	104.851879
6.200000	-18.453974	107.043670	-0.662331	-2.266634	-0.662331	-2.266634	-18.500822	106.166816
6.250000	-22.720535	117.412643	-0.638884	-7.162760	-0.638884	-7.162760	-22.856024	116.113768
6.300000	-27.100093	161.314752	-0.642533	-12.186752	-0.642533	-12.186752	-27.508943	161.041217
6.350000	-23.173916	-148.811138	-0.676427	-17.316911	-0.676427	-17.316911	-23.345327	-147.467600
6.400000	-18.381519	-135.890813	-0.743462	-22.528139	-0.743462	-22.528139	-18.440252	-134.936100
6.450000	-15.044914	-134.087221	-0.845822	-27.791159	-0.845822	-27.791159	-15.073098	-133.400265
6.500000	-12.595450	-135.752332	-0.984808	-33.073750	-0.984808	-33.073750	-12.611942	-135.220773
6.550000	-10.698828	-138.856302	-1.160736	-38.342325	-1.160736	-38.342325	-10.709702	-138.423141
6.600000	-9.179307	-142.656186	-1.373141	-43.563039	-1.373141	-43.563039	-9.187066	-142.290143
6.650000	-7.934852	-146.802202	-1.620130	-48.704682	-1.620130	-48.704682	-7.940703	-146.484790
6.700000	-6.900404	-151.108621	-1.899004	-53.740813	-1.899004	-53.740813	-6.904999	-150.828071
6.750000	-6.032945	-155.465754	-2.206964	-58.646852	-2.206964	-58.646852	-6.036671	-155.213979
6.800000	-5.300214	-159.801789	-2.540309	-63.406041	-2.540309	-63.406041	-5.303313	-159.573133
6.850000	-4.678189	-164.070500	-2.895353	-68.005969	-2.895353	-68.005969	-4.680819	-163.860818
6.900000	-4.148895	-168.239813	-3.268368	-72.436248	-3.268368	-72.436248	-4.151167	-168.045939
6.950000	-3.695677	-172.294251	-3.655790	-76.698860	-3.655790	-76.698860	-3.697668	-172.113814
7.000000	-3.306962	-176.221869	-4.054377	-80.792059	-4.054377	-80.792059	-3.308728	-176.052968
7.050000	-2.972624	179.982118	-4.461163	-84.719191	-4.461163	-84.719191	-2.974207	-179.858994
7.100000	-2.684403	176.318910	-4.873453	-88.485007	-4.873453	-88.485007	-2.685837	176.469029
7.150000	-2.435360	172.786654	-5.288862	-92.095940	-5.288862	-92.095940	-2.436669	172.929034
7.200000	-2.219309	169.379603	-5.705627	-95.561554	-5.705627	-95.561554	-2.220513	169.515090
7.250000	-2.031349	166.092020	-6.122162	-98.890377	-6.122162	-98.890377	-2.032463	166.221329
7.300000	-1.867361	162.917424	-6.537164	-102.091129	-6.537164	-102.091129	-1.868399	163.041164
7.350000	-1.723882	159.848971	-6.949580	-105.172469	-6.949580	-105.172469	-1.724854	159.967661
7.400000	-1.597992	156.879722	-7.358571	-108.142828	-7.358571	-108.142828	-1.598907	156.993811
7.450000	-1.487225	154.002834	-7.763483	-111.010287	-7.763483	-111.010287	-1.488089	154.112714
7.500000	-1.389493	151.211694	-8.163820	-113.782508	-8.163820	-113.782508	-1.390313	151.317705
7.550000	-1.303632	148.504935	-8.557670	-116.461216	-8.557670	-116.461216	-1.304413	148.607396
7.600000	-1.226671	145.864725	-8.948437	-119.066276	-8.948437	-119.066276	-1.227417	145.963874
7.650000	-1.158669	143.296546	-9.332462	-121.591689	-9.332462	-121.591689	-1.159383	143.392631
7.700000	-1.097810	140.788862	-9.711793	-124.050236	-9.711793	-124.050236	-1.098497	140.882086
7.750000	-1.043422	138.339227	-10.085594	-126.444623	-10.085594	-126.444623	-1.044084	138.429778
7.800000	-0.994812	135.944268	-10.453440	-128.778560	-10.453440	-128.778560	-0.995452	136.032317
7.850000	-0.950911	133.595960	-10.817049	-131.060888	-10.817049	-131.060888	-0.951529	133.681649
7.900000	-0.911718	131.296894	-11.173744	-133.288693	-11.173744	-133.288693	-0.912318	131.380371
7.950000	-0.876040	129.036003	-11.527125	-135.474182	-11.527125	-135.474182	-0.876623	129.117379
8.000000	-0.844101	126.817883	-11.873621	-137.612190	-11.873621	-137.612190	-0.844669	126.897281
8.050000	-0.814971	124.633049	-12.216668	-139.713182	-12.216668	-139.713182	-0.815525	124.710564
8.100000	-0.788642	122.482889	-12.554355	-141.775532	-12.554355	-141.775532	-0.789184	122.558617
8.150000	-0.764679	120.363089	-12.887881	-143.803960	-12.887881	-143.803960	-0.765209	120.437112
8.200000	-0.742829	118.271414	-13.217478	-145.800862	-13.217478	-145.800862	-0.743349	118.343810
8.250000	-0.722984	116.207395	-13.542385	-147.766641	-13.542385	-147.766641	-0.723495	116.278237
8.300000	-0.704746	114.166204	-13.864696	-149.706602	-13.864696	-149.706602	-0.705248	114.235552
8.350000	-0.688296	112.151409	-14.181102	-151.616509	-14.181102	-151.616509	-0.688791	112.219333
8.400000	-0.673079	110.155284	-14.495991	-153.504980	-14.495991	-153.504980	-0.673567	110.221832
8.450000	-0.659137	108.179002	-14.807844	-155.370470	-14.807844	-155.370470	-0.659619	108.244225
8.500000	-0.646353	106.221222	-15.116909	-157.214268	-15.116909	-157.214268	-0.646830	106.285167
8.550000	-0.634623	104.280714	-15.423437	-159.037507	-15.423437	-159.037507	-0.635095	104.343426
8.600000	-0.623854	102.356350	-15.727683	-160.841167	-15.727683	-160.841167	-0.624323	102.417867
8.650000	-0.613966	100.447093	-16.029908	-162.626081	-16.029908	-162.626081	-0.614431	100.507454
8.700000	-0.604887	98.551993	-16.330375	-164.392930	-16.330375	-164.392930	-0.605349	98.611231
8.750000	-0.596551	96.670177	-16.629349	-166.142249	-16.629349	-166.142249	-0.597011	96.728325
8.800000	-0.588930	94.801355	-16.926620	-167.873690	-16.926620	-167.873690	-0.589388	94.858444
8.850000	-0.581941	92.944226	-17.222971	-169.588224	-17.222971	-169.588224	-0.582399	93.000283
8.900000	-0.575541	91.098129	-17.518675	-171.285907	-17.518675	-171.285907	-0.575998	91.153180
8.950000	-0.569690	89.262458	-17.814006	-172.966632	-17.814006	-172.966632	-0.570147	89.316527
9.000000	-0.564353	87.436661	-18.109237	-174.630124	-18.109237	-174.630124	-0.564811	87.489771
9.050000	-0.559499	85.620235	-18.404645	-176.275935	-18.404645	-176.275935	-0.559958	85.672407
9.100000	-0.555099	83.812723	-18.700501	-177.903432	-18.700501	-177.903432	-0.555560	83.863975
9.150000	-0.551131	82.013708	-18.997077	-179.511795	-18.997077	-179.511795	-0.551594	82.064060
9.200000	-0.547572	80.222814	-19.294638	178.899998	-19.294638	178.899998	-0.548038	80.272282
9.250000	-0.544402	78.439702	-19.593446	177.333176	-19.593446	177.333176	-0.544871	78.488303
9.300000	-0.541604	76.664068	-19.893752	175.789187	-19.893752	175.789187	-0.542078	76.711817
9.350000	-0.539164	74.895638	-20.195795	174.269705	-20.195795	174.269705	-0.539642	74.942549
9.400000	-0.537068	73.134170	-20.499801	172.776639	-20.499801	172.776639	-0.537551	73.180256
9.450000	-0.535304	71.379449	-20.805978	171.312140	-20.805978	171.312140	-0.535793	71.424723
9.500000	-0.533863	69.631286	-21.114510	169.878608	-21.114510	169.878608	-0.534358	69.675760
9.550000	-0.532734	67.889518	-21.425555	168.478695	-21.425555	168.478695	-0.533236	67.933203
9.600000	-0.531911	66.154003	-21.739237	167.115307	-21.739237	167.115307	-0.532421	66.196911
9.650000	-0.531386	64.424623	-22.055645	165.791598	-22.055645	165.791598	-0.531904	64.466764
9.700000	-0.531155	62.701278	-22.374821	164.510970	-22.374821	164.510970	-0.531681	62.742661
9.750000	-0.531210	60.983888	-22.696755	163.277052	-22.696755	163.277052	-0.531746	61.024522
9.800000	-0.531549	59.272389	-23.021381	162.093689	-23.021381	162.093689	-0.532094	59.312285
9.850000	-0.532168	57.566737	-23.348563	160.964910	-23.348563	160.964910	-0.532723	57.605902
9.900000	-0.533063	55.866900	-23.678094	159.894899	-23.678094	159.894899	-0.533629	55.905343
9.950000	-0.534232	54.172861	-24.009680	158.887941	-24.009680	158.887941	-0.534809	54.210591
10.000000	-0.535672	52.484619	-24.342941	157.948372	-24.342941	157.948372	-0.536262	52.521642
