! freq	dB(S11)	phase(S11)	dB(S12)	phase(S12)	
!     	dB(S21)	phase(S21)	dB(S22)	phase(S22)	
!S-par simulation data
#  GHz  S  DB  R 50
0.000000	-0.000000	0.000000	-346.924814	0.000000	-346.924814	0.000000	-0.000000	0.000000
0.050000	-0.001016	-1.124269	-81.687385	87.863416	-81.687385	87.863416	-0.002872	-3.141615
0.100000	-0.002899	-2.239555	-75.675106	85.740133	-75.675106	85.740133	-0.008319	-6.257465
0.150000	-0.004593	-3.348924	-72.168336	83.633249	-72.168336	83.633249	-0.013283	-9.354774
0.200000	-0.006044	-4.456112	-69.690630	81.539617	-69.690630	81.539617	-0.017495	-12.444048
0.250000	-0.007379	-5.562312	-67.779570	79.457141	-67.779570	79.457141	-0.021307	-15.528685
0.300000	-0.008688	-6.667787	-66.228902	77.384817	-66.228902	77.384817	-0.024996	-18.609254
0.350000	-0.010011	-7.772519	-64.928566	75.322717	-64.928566	75.322717	-0.028695	-21.685399
0.400000	-0.011360	-8.876453	-63.812849	73.271564	-63.812849	73.271564	-0.032453	-24.756586
0.450000	-0.012734	-9.979542	-62.839344	71.232430	-62.839344	71.232430	-0.036277	-27.822313
0.500000	-0.014128	-11.081765	-61.979029	69.206531	-61.979029	69.206531	-0.040153	-30.882167
0.550000	-0.015535	-12.183090	-61.211539	67.195522	-61.211539	67.195522	-0.044061	-33.935646
0.600000	-0.016951	-13.283539	-60.521062	65.200322	-60.521062	65.200322	-0.047979	-36.982615
0.650000	-0.018368	-14.383079	-59.896307	63.222689	-59.896307	63.222689	-0.051885	-40.022617
0.700000	-0.019785	-15.481691	-59.328247	61.264142	-59.328247	61.264142	-0.055759	-43.055313
0.750000	-0.021197	-16.579361	-58.809389	59.325768	-58.809389	59.325768	-0.059586	-46.080528
0.800000	-0.022603	-17.676054	-58.333888	57.408953	-58.333888	57.408953	-0.063352	-49.097966
0.850000	-0.024002	-18.771722	-57.896938	55.515088	-57.896938	55.515088	-0.067047	-52.107334
0.900000	-0.025393	-19.866310	-57.494532	53.645568	-57.494532	53.645568	-0.070666	-55.108348
0.950000	-0.026776	-20.959745	-57.123404	51.802031	-57.123404	51.802031	-0.074206	-58.100661
1.000000	-0.028152	-22.051936	-56.780882	49.986415	-56.780882	49.986415	-0.077665	-61.083866
1.050000	-0.029520	-23.142841	-56.464108	48.199470	-56.464108	48.199470	-0.081049	-64.057977
1.100000	-0.030883	-24.232389	-56.170902	46.442627	-56.170902	46.442627	-0.084365	-67.022821
1.150000	-0.032241	-25.320508	-55.899340	44.717322	-55.899340	44.717322	-0.087619	-69.978271
1.200000	-0.033596	-26.407131	-55.647710	43.024994	-55.647710	43.024994	-0.090820	-72.924248
1.250000	-0.034949	-27.492191	-55.414471	41.367084	-55.414471	41.367084	-0.093975	-75.860721
1.300000	-0.036301	-28.575571	-55.198592	39.746308	-55.198592	39.746308	-0.097091	-78.787381
1.350000	-0.037654	-29.657269	-54.998387	38.162894	-54.998387	38.162894	-0.100174	-81.704627
1.400000	-0.039007	-30.737237	-54.812664	36.618240	-54.812664	36.618240	-0.103230	-84.612574
1.450000	-0.040362	-31.815429	-54.640309	35.113709	-54.640309	35.113709	-0.106264	-87.511380
1.500000	-0.041719	-32.891807	-54.480269	33.650619	-54.480269	33.650619	-0.109276	-90.401246
1.550000	-0.043078	-33.966337	-54.331541	32.230229	-54.331541	32.230229	-0.112270	-93.282411
1.600000	-0.044439	-35.038938	-54.193351	30.854878	-54.193351	30.854878	-0.115245	-96.154940
1.650000	-0.045802	-36.109617	-54.064603	29.524931	-54.064603	29.524931	-0.118200	-99.019303
1.700000	-0.047167	-37.178367	-53.944319	28.241002	-53.944319	28.241002	-0.121137	-101.875912
1.750000	-0.048533	-38.245181	-53.831564	27.003572	-53.831564	27.003572	-0.124054	-104.725192
1.800000	-0.049899	-39.310024	-53.725512	25.813724	-53.725512	25.813724	-0.126949	-107.567476
1.850000	-0.051266	-40.372881	-53.625278	24.671894	-53.625278	24.671894	-0.129823	-110.403199
1.900000	-0.052634	-41.433716	-53.530014	23.578802	-53.530014	23.578802	-0.132675	-113.232761
1.950000	-0.054001	-42.492518	-53.438819	22.534358	-53.438819	22.534358	-0.135504	-116.056662
2.000000	-0.055368	-43.549296	-53.350779	21.537636	-53.350779	21.537636	-0.138312	-118.875475
2.050000	-0.056736	-44.604042	-53.265027	20.587893	-53.265027	20.587893	-0.141098	-121.689725
2.100000	-0.058103	-45.656744	-53.180705	19.684011	-53.180705	19.684011	-0.143865	-124.499954
2.150000	-0.059471	-46.707394	-53.096968	18.824474	-53.096968	18.824474	-0.146615	-127.306720
2.200000	-0.060840	-47.755981	-53.012991	18.007340	-53.012991	18.007340	-0.149349	-130.110595
2.250000	-0.062209	-48.802498	-52.927972	17.230224	-52.927972	17.230224	-0.152071	-132.912162
2.300000	-0.063580	-49.846935	-52.841142	16.490289	-52.841142	16.490289	-0.154783	-135.712017
2.350000	-0.064954	-50.889283	-52.751774	15.784244	-52.751774	15.784244	-0.157489	-138.510764
2.400000	-0.066330	-51.929533	-52.659190	15.108353	-52.659190	15.108353	-0.160192	-141.309015
2.450000	-0.067710	-52.967678	-52.562770	14.458458	-52.562770	14.458458	-0.162895	-144.107390
2.500000	-0.069094	-54.003709	-52.461963	13.830012	-52.461963	13.830012	-0.165603	-146.906513
2.550000	-0.070482	-55.037572	-52.356150	13.218361	-52.356150	13.218361	-0.168318	-149.707058
2.600000	-0.071877	-56.069305	-52.245064	12.617836	-52.245064	12.617836	-0.171045	-152.509644
2.650000	-0.073277	-57.098902	-52.128409	12.023022	-52.128409	12.023022	-0.173785	-155.314905
2.700000	-0.074685	-58.126355	-52.005981	11.428365	-52.005981	11.428365	-0.176544	-158.123478
2.750000	-0.076101	-59.151661	-51.877676	10.828244	-51.877676	10.828244	-0.179322	-160.936001
2.800000	-0.077525	-60.174812	-51.743483	10.217063	-51.743483	10.217063	-0.182123	-163.753108
2.850000	-0.078958	-61.195805	-51.603486	9.589322	-51.603486	9.589322	-0.184950	-166.575433
2.900000	-0.080401	-62.214636	-51.457859	8.939701	-51.457859	8.939701	-0.187803	-169.403606
2.950000	-0.081855	-63.231303	-51.306858	8.263122	-51.306858	8.263122	-0.190685	-172.238252
3.000000	-0.083320	-64.245804	-51.150818	7.554818	-51.150818	7.554818	-0.193598	-175.079989
3.050000	-0.084797	-65.258138	-50.990139	6.810379	-50.990139	6.810379	-0.196542	-177.929430
3.100000	-0.086287	-66.268306	-50.825280	6.025790	-50.825280	6.025790	-0.199518	179.212825
3.150000	-0.087790	-67.276284	-50.656675	5.196952	-50.656675	5.196952	-0.202529	176.346081
3.200000	-0.089307	-68.282077	-50.484884	4.320621	-50.484884	4.320621	-0.205573	173.469740
3.250000	-0.090838	-69.285709	-50.310554	3.394595	-50.310554	3.394595	-0.208652	170.583336
3.300000	-0.092385	-70.287187	-50.134276	2.416635	-50.134276	2.416635	-0.211764	167.686320
3.350000	-0.093947	-71.286516	-49.956650	1.384919	-49.956650	1.384919	-0.214910	164.778164
3.400000	-0.095525	-72.283702	-49.778278	0.298025	-49.778278	0.298025	-0.218090	161.858358
3.450000	-0.097121	-73.278755	-49.599756	-0.845098	-49.599756	-0.845098	-0.221302	158.926413
3.500000	-0.098733	-74.271682	-49.421670	-2.045158	-49.421670	-2.045158	-0.224547	155.981865
3.550000	-0.100364	-75.262495	-49.244592	-3.302556	-49.244592	-3.302556	-0.227823	153.024276
3.600000	-0.102014	-76.251206	-49.069075	-4.617417	-49.069075	-4.617417	-0.231129	150.053235
3.650000	-0.103682	-77.237826	-48.895653	-5.989623	-48.895653	-5.989623	-0.234465	147.068360
3.700000	-0.105370	-78.222369	-48.724836	-7.418848	-48.724836	-7.418848	-0.237828	144.069301
3.750000	-0.107079	-79.204852	-48.557114	-8.904588	-48.557114	-8.904588	-0.241218	141.055743
3.800000	-0.108808	-80.185246	-48.392973	-10.447382	-48.392973	-10.447382	-0.244635	138.027078
3.850000	-0.110560	-81.163613	-48.232860	-12.045217	-48.232860	-12.045217	-0.248076	134.983380
3.900000	-0.112333	-82.139972	-48.077194	-13.697209	-48.077194	-13.697209	-0.251539	131.924451
3.950000	-0.114129	-83.114343	-47.926373	-15.402403	-47.926373	-15.402403	-0.255024	128.850129
4.000000	-0.115948	-84.086746	-47.780775	-17.159784	-47.780775	-17.159784	-0.258529	125.760297
4.050000	-0.117791	-85.057205	-47.640758	-18.968301	-47.640758	-18.968301	-0.262053	122.654885
4.100000	-0.119658	-86.025742	-47.506663	-20.826876	-47.506663	-20.826876	-0.265595	119.533863
4.150000	-0.121550	-86.992381	-47.378815	-22.734424	-47.378815	-22.734424	-0.269154	116.397252
4.200000	-0.123467	-87.957148	-47.257526	-24.689857	-47.257526	-24.689857	-0.272728	113.245118
4.250000	-0.125411	-88.920070	-47.143093	-26.692099	-47.143093	-26.692099	-0.276318	110.077576
4.300000	-0.127381	-89.881173	-47.035804	-28.740094	-47.035804	-28.740094	-0.279922	106.894789
4.350000	-0.129379	-90.840487	-46.935935	-30.832813	-46.935935	-30.832813	-0.283541	103.696967
4.400000	-0.131404	-91.798023	-46.843831	-32.969727	-46.843831	-32.969727	-0.287174	100.484214
4.450000	-0.133459	-92.753812	-46.759771	-35.149853	-46.759771	-35.149853	-0.290822	97.256847
4.500000	-0.135542	-93.707905	-46.683935	-37.371813	-46.683935	-37.371813	-0.294485	94.015384
4.550000	-0.137655	-94.660335	-46.616578	-39.634763	-46.616578	-39.634763	-0.298165	90.760227
4.600000	-0.139798	-95.611137	-46.557946	-41.937915	-46.557946	-41.937915	-0.301862	87.491818
4.650000	-0.141972	-96.560344	-46.508287	-44.280554	-46.508287	-44.280554	-0.305579	84.210645
4.700000	-0.144177	-97.507994	-46.467849	-46.662034	-46.467849	-46.662034	-0.309318	80.917229
4.750000	-0.146415	-98.454122	-46.436881	-49.081793	-46.436881	-49.081793	-0.313081	77.612130
4.800000	-0.148684	-99.398766	-46.415632	-51.539360	-46.415632	-51.539360	-0.316873	74.295938
4.850000	-0.150987	-100.341966	-46.404360	-54.034361	-46.404360	-54.034361	-0.320697	70.969271
4.900000	-0.153323	-101.283761	-46.403323	-56.566532	-46.403323	-56.566532	-0.324557	67.632770
4.950000	-0.155693	-102.224192	-46.412789	-59.135730	-46.412789	-59.135730	-0.328459	64.287098
5.000000	-0.158098	-103.163300	-46.433034	-61.741945	-46.433034	-61.741945	-0.332408	60.932927
5.050000	-0.160539	-104.101100	-46.464587	-64.386131	-46.464587	-64.386131	-0.336413	57.570786
5.100000	-0.163016	-105.037666	-46.507512	-67.067801	-46.507512	-67.067801	-0.340479	54.201548
5.150000	-0.165530	-105.973042	-46.562117	-69.787460	-46.562117	-69.787460	-0.344615	50.825892
5.200000	-0.168080	-106.907273	-46.628729	-72.545826	-46.628729	-72.545826	-0.348829	47.444490
5.250000	-0.170667	-107.840404	-46.707691	-75.343851	-46.707691	-75.343851	-0.353129	44.057998
5.300000	-0.173292	-108.772484	-46.799365	-78.182757	-46.799365	-78.182757	-0.357528	40.667045
5.350000	-0.175956	-109.703560	-46.904138	-81.064071	-46.904138	-81.064071	-0.362034	37.272234
5.400000	-0.178658	-110.633681	-47.022420	-83.989665	-47.022420	-83.989665	-0.366661	33.874128
5.450000	-0.181400	-111.562897	-47.154649	-86.961809	-47.154649	-86.961809	-0.371419	30.473246
5.500000	-0.184182	-112.491258	-47.301294	-89.983226	-47.301294	-89.983226	-0.376324	27.070056
5.550000	-0.187004	-113.418816	-47.462856	-93.057162	-47.462856	-93.057162	-0.381388	23.664966
5.600000	-0.189867	-114.345623	-47.639872	-96.187470	-47.639872	-96.187470	-0.386627	20.258320
5.650000	-0.192772	-115.271726	-47.833047	-99.379425	-47.833047	-99.379425	-0.392059	16.850376
5.700000	-0.195718	-116.197181	-48.042986	-102.638622	-48.042986	-102.638622	-0.397701	13.441325
5.750000	-0.198707	-117.122050	-48.270208	-105.970810	-48.270208	-105.970810	-0.403568	10.031277
5.800000	-0.201739	-118.046389	-48.515398	-109.383551	-48.515398	-109.383551	-0.409680	6.620231
5.850000	-0.204813	-118.970255	-48.779275	-112.885763	-48.779275	-112.885763	-0.416056	3.208082
5.900000	-0.207931	-119.893706	-49.062582	-116.487975	-49.062582	-116.487975	-0.422717	-0.205383
5.950000	-0.211093	-120.816801	-49.366074	-120.202628	-49.366074	-120.202628	-0.429686	-3.620496
6.000000	-0.214299	-121.739599	-49.690493	-124.044448	-49.690493	-124.044448	-0.436984	-7.037716
6.050000	-0.217549	-122.662161	-50.036533	-128.030882	-50.036533	-128.030882	-0.444637	-10.457632
6.100000	-0.220845	-123.584548	-50.404787	-132.182619	-50.404787	-132.182619	-0.452671	-13.880977
6.150000	-0.224186	-124.506823	-50.795661	-136.524197	-50.795661	-136.524197	-0.461113	-17.308630
6.200000	-0.227573	-125.429049	-51.209254	-141.084687	-51.209254	-141.084687	-0.469992	-20.741633
6.250000	-0.231006	-126.351291	-51.645181	-145.898409	-51.645181	-145.898409	-0.479340	-24.181191
6.300000	-0.234486	-127.273617	-52.102175	-151.013094	-52.102175	-151.013094	-0.489200	-27.628897
6.350000	-0.238013	-128.196095	-52.577877	-156.470421	-52.577877	-156.470421	-0.499599	-31.086196
6.400000	-0.241587	-129.118790	-53.068320	-162.323882	-53.068320	-162.323882	-0.510574	-34.554875
6.450000	-0.245208	-130.041773	-53.567229	-168.632056	-53.567229	-168.632056	-0.522165	-38.036932
6.500000	-0.248877	-130.965113	-54.065204	-175.455326	-54.065204	-175.455326	-0.534416	-41.534594
6.550000	-0.252594	-131.888881	-54.548881	177.150582	-54.548881	177.150582	-0.547373	-45.050329
6.600000	-0.256359	-132.813151	-55.000290	169.145469	-55.000290	169.145469	-0.561086	-48.586862
6.650000	-0.260172	-133.737996	-55.396930	160.520267	-55.396930	160.520267	-0.575610	-52.147196
6.700000	-0.264034	-134.663492	-55.713194	151.315370	-55.713194	151.315370	-0.591002	-55.734628
6.750000	-0.267944	-135.589717	-55.923695	141.635758	-55.923695	141.635758	-0.607324	-59.352776
6.800000	-0.271903	-136.516750	-56.008249	131.653562	-56.008249	131.653562	-0.624645	-63.005596
6.850000	-0.275911	-137.444673	-55.957013	121.590199	-55.957013	121.590199	-0.643037	-66.697416
6.900000	-0.279970	-138.373583	-55.772090	111.683372	-55.772090	111.683372	-0.662591	-70.433493
6.950000	-0.284078	-139.303570	-55.469904	102.141121	-55.469904	102.141121	-0.683396	-74.219172
7.000000	-0.288238	-140.234714	-55.076135	93.099400	-55.076135	93.099400	-0.705530	-78.059630
7.050000	-0.292451	-141.167109	-54.617494	84.627173	-54.617494	84.627173	-0.729091	-81.961021
7.100000	-0.296720	-142.100848	-54.118965	76.735429	-54.118965	76.735429	-0.754186	-85.930040
7.150000	-0.301049	-143.036022	-53.601524	69.395134	-53.601524	69.395134	-0.780925	-89.973970
7.200000	-0.305443	-143.972709	-53.081520	62.554612	-53.081520	62.554612	-0.809428	-94.100718
7.250000	-0.309907	-144.910974	-52.571072	56.152699	-52.571072	56.152699	-0.839818	-98.318860
7.300000	-0.314446	-145.850860	-52.078880	50.127178	-52.078880	50.127178	-0.872225	-102.637686
7.350000	-0.319061	-146.792399	-51.611100	44.419434	-51.611100	44.419434	-0.906782	-107.067232
7.400000	-0.323745	-147.735600	-51.171976	38.974309	-51.171976	38.974309	-0.943596	-111.616849
7.450000	-0.328494	-148.680559	-50.765046	33.751215	-50.765046	33.751215	-0.982859	-116.301767
7.500000	-0.333294	-149.627318	-50.392746	28.705796	-50.392746	28.705796	-1.024658	-121.132430
7.550000	-0.338136	-150.575978	-50.057598	23.804840	-50.057598	23.804840	-1.069126	-126.123967
7.600000	-0.343002	-151.526592	-49.761593	19.017312	-49.761593	19.017312	-1.116318	-131.288805
7.650000	-0.347860	-152.479226	-49.507092	14.318756	-49.507092	14.318756	-1.166279	-136.641593
7.700000	-0.352629	-153.434080	-49.296821	9.688994	-49.296821	9.688994	-1.219001	-142.197456
7.750000	-0.357163	-154.392483	-49.134045	5.111942	-49.134045	5.111942	-1.274403	-147.971759
7.800000	-0.361803	-155.357955	-49.022734	0.575656	-49.022734	0.575656	-1.332316	-153.979773
7.850000	-0.367361	-156.326189	-48.968268	-3.927119	-48.968268	-3.927119	-1.392456	-160.238349
7.900000	-0.373051	-157.293449	-48.976443	-8.398887	-48.976443	-8.398887	-1.454368	-166.759839
7.950000	-0.378593	-158.262583	-49.054521	-12.835714	-49.054521	-12.835714	-1.517424	-173.555094
8.000000	-0.384081	-159.234720	-49.211691	-17.225566	-49.211691	-17.225566	-1.580803	179.367268
8.050000	-0.389574	-160.210139	-49.459422	-21.545632	-49.459422	-21.545632	-1.643466	172.002628
8.100000	-0.395102	-161.188957	-49.812191	-25.757916	-49.812191	-25.757916	-1.704156	164.351566
8.150000	-0.400677	-162.171290	-50.289157	-29.800563	-50.289157	-29.800563	-1.761391	156.419652
8.200000	-0.406308	-163.157242	-50.914683	-33.575541	-50.914683	-33.575541	-1.813547	148.221859
8.250000	-0.411998	-164.146902	-51.720500	-36.926959	-51.720500	-36.926959	-1.858993	139.783024
8.300000	-0.417750	-165.140387	-52.750621	-39.590553	-52.750621	-39.590553	-1.896145	131.135286
8.350000	-0.423566	-166.137808	-54.065343	-41.094837	-54.065343	-41.094837	-1.923657	122.319487
8.400000	-0.429448	-167.139336	-55.744299	-40.485719	-55.744299	-40.485719	-1.940416	113.382737
8.450000	-0.435397	-168.145016	-57.854180	-35.863643	-57.854180	-35.863643	-1.946163	104.380529
8.500000	-0.441415	-169.155099	-60.218091	-22.892627	-60.218091	-22.892627	-1.940742	95.368840
8.550000	-0.447501	-170.169573	-61.618702	2.382000	-61.618702	2.382000	-1.925318	86.403465
8.600000	-0.453660	-171.188741	-60.228034	29.493146	-60.228034	29.493146	-1.901055	77.540023
8.650000	-0.459889	-172.212583	-57.484736	44.763638	-57.484736	44.763638	-1.870375	68.820533
8.700000	-0.466192	-173.241369	-54.874652	50.840698	-54.874652	50.840698	-1.835949	60.285355
8.750000	-0.472568	-174.275150	-52.688124	52.467067	-52.688124	52.467067	-1.801453	51.954435
8.800000	-0.479019	-175.314122	-50.865963	51.866140	-50.865963	51.866140	-1.771802	43.837864
8.850000	-0.485547	-176.358430	-49.322994	50.100421	-49.322994	50.100421	-1.754536	35.924004
8.900000	-0.492152	-177.408189	-47.988212	47.701986	-47.988212	47.701986	-1.763040	28.175110
8.950000	-0.498838	-178.463636	-46.800912	44.934765	-46.800912	44.934765	-1.828026	20.528750
9.000000	-0.505604	-179.524824	-45.700028	41.869848	-45.700028	41.869848	-2.026504	12.960198
9.050000	-0.512454	179.408019	-44.616060	38.062897	-44.616060	38.062897	-2.580248	6.289277
9.100000	-0.519390	178.334761	-43.704383	31.953774	-43.704383	31.953774	-3.384695	6.713872
9.150000	-0.526417	177.255230	-43.449408	26.657177	-43.449408	26.657177	-2.374657	8.399035
9.200000	-0.533538	176.169274	-43.115766	24.413948	-43.115766	24.413948	-1.580407	1.512233
9.250000	-0.540761	175.076691	-42.626512	22.182755	-42.626512	22.182755	-1.296753	-5.446474
9.300000	-0.548095	173.977358	-42.124920	19.648790	-42.124920	19.648790	-1.170519	-11.554309
9.350000	-0.555555	172.870896	-41.648678	16.958139	-41.648678	16.958139	-1.099638	-17.032407
9.400000	-0.563148	171.757346	-41.204081	14.211371	-41.204081	14.211371	-1.051539	-22.079460
9.450000	-0.570886	170.636244	-40.790248	11.456980	-40.790248	11.456980	-1.015648	-26.789125
9.500000	-0.578766	169.506871	-40.404907	8.723272	-40.404907	8.723272	-0.987372	-31.216628
9.550000	-0.586745	168.369213	-40.044788	6.024145	-40.044788	6.024145	-0.964099	-35.417169
9.600000	-0.594765	167.223110	-39.707357	3.367622	-39.707357	3.367622	-0.944675	-39.419729
9.650000	-0.602787	166.068248	-39.390860	0.761167	-39.390860	0.761167	-0.928551	-43.238242
9.700000	-0.610815	164.905199	-39.093154	-1.794102	-39.093154	-1.794102	-0.915143	-46.899153
9.750000	-0.618883	163.734038	-38.812925	-4.295770	-38.812925	-4.295770	-0.904173	-50.417642
9.800000	-0.627030	162.554311	-38.549854	-6.738192	-38.549854	-6.738192	-0.895569	-53.800985
9.850000	-0.635281	161.365848	-38.304396	-9.115539	-38.304396	-9.115539	-0.889242	-57.060154
9.900000	-0.643648	160.168471	-38.079551	-11.415644	-38.079551	-11.415644	-0.885081	-60.201537
9.950000	-0.652141	158.961536	-37.887334	-13.606642	-37.887334	-13.606642	-0.882257	-63.217421
10.000000	-0.660749	157.745976	-37.758723	-15.663472	-37.758723	-15.663472	-0.876620	-66.118268
