! freq	dB(S11)	phase(S11)	dB(S12)	phase(S12)	
!     	dB(S21)	phase(S21)	dB(S22)	phase(S22)	
!S-par simulation data
#  GHz  S  DB  R 50
0.000000	-81.560512	0.000000	-0.000726	0.000000	-0.000726	0.000000	-81.560512	0.000000
0.050000	-49.186808	-85.813626	-0.006225	-2.811187	-0.006225	-2.811187	-49.206497	-84.678453
0.100000	-43.512499	-92.297442	-0.011842	-5.578689	-0.011842	-5.578689	-43.497383	-90.649501
0.150000	-40.103493	-96.889719	-0.016158	-8.337935	-0.016158	-8.337935	-40.078637	-94.452169
0.200000	-37.686714	-100.870491	-0.020179	-11.093938	-0.020179	-11.093938	-37.659296	-97.609767
0.250000	-35.834785	-104.563474	-0.024077	-13.847032	-0.024077	-13.847032	-35.807486	-100.462932
0.300000	-34.350206	-108.118527	-0.027876	-16.598042	-0.027876	-16.598042	-34.324172	-103.161469
0.350000	-33.124639	-111.598374	-0.031592	-19.347739	-0.031592	-19.347739	-33.100390	-105.765057
0.400000	-32.094254	-115.033688	-0.035248	-22.096638	-0.035248	-22.096638	-32.072039	-108.299863
0.450000	-31.222403	-118.443062	-0.038861	-24.845089	-0.038861	-24.845089	-31.202360	-110.776176
0.500000	-30.477521	-121.842522	-0.042452	-27.593379	-0.042452	-27.593379	-30.459663	-113.205698
0.550000	-29.839561	-125.241885	-0.046023	-30.341667	-0.046023	-30.341667	-29.823873	-115.591846
0.600000	-29.295523	-128.649808	-0.049574	-33.090087	-0.049574	-33.090087	-29.281998	-117.934527
0.650000	-28.837802	-132.075791	-0.053093	-35.838789	-0.053093	-35.838789	-28.826469	-120.230466
0.700000	-28.454956	-135.526768	-0.056570	-38.587890	-0.056570	-38.587890	-28.445866	-122.480052
0.750000	-28.141325	-139.010596	-0.059991	-41.337533	-0.059991	-41.337533	-28.134580	-124.679407
0.800000	-27.895861	-142.538588	-0.063336	-44.087925	-0.063336	-44.087925	-27.891650	-126.819994
0.850000	-27.714844	-146.121119	-0.066594	-46.839264	-0.066594	-46.839264	-27.713433	-128.894916
0.900000	-27.595991	-149.769924	-0.069751	-49.591759	-0.069751	-49.591759	-27.597739	-130.895187
0.950000	-27.539204	-153.500472	-0.072797	-52.345662	-0.072797	-52.345662	-27.544598	-132.807664
1.000000	-27.545040	-157.331418	-0.075725	-55.101241	-0.075725	-55.101241	-27.554721	-134.615902
1.050000	-27.615052	-161.286195	-0.078534	-57.858782	-0.078534	-57.858782	-27.629860	-136.298566
1.100000	-27.751825	-165.394797	-0.081224	-60.618584	-0.081224	-60.618584	-27.772862	-137.827678
1.150000	-27.959044	-169.696333	-0.083802	-63.380958	-0.083802	-63.380958	-27.987769	-139.166061
1.200000	-28.241581	-174.242775	-0.086279	-66.146223	-0.086279	-66.146223	-28.279940	-140.263532
1.250000	-28.605544	-179.104545	-0.088672	-68.914699	-0.088672	-68.914699	-28.656171	-141.051150
1.300000	-29.059686	175.608875	-0.091003	-71.686792	-0.091003	-71.686792	-29.126260	-141.420320
1.350000	-29.610341	169.763146	-0.093299	-74.462746	-0.093299	-74.462746	-29.697938	-141.235560
1.400000	-30.264579	163.154667	-0.095594	-77.242869	-0.095594	-77.242869	-30.380351	-140.288365
1.450000	-31.025037	155.486659	-0.097927	-80.027454	-0.097927	-80.027454	-31.179015	-138.268516
1.500000	-31.881150	146.330745	-0.100338	-82.816777	-0.100338	-82.816777	-32.086844	-134.716040
1.550000	-32.789837	135.104805	-0.102876	-85.611094	-0.102876	-85.611094	-33.062971	-128.982596
1.600000	-33.640058	121.161902	-0.105593	-88.410637	-0.105593	-88.410637	-33.990684	-120.308763
1.650000	-34.216241	104.203256	-0.108544	-91.215610	-0.108544	-91.215610	-34.628143	-108.292618
1.700000	-34.241847	85.066605	-0.111790	-94.026187	-0.111790	-94.026187	-34.653967	-93.872737
1.750000	-33.579191	65.960065	-0.115394	-96.842507	-0.115394	-96.842507	-33.916650	-79.636548
1.800000	-32.373933	49.088104	-0.119422	-99.664675	-0.119422	-99.664675	-32.606005	-68.055302
1.850000	-30.904121	35.255255	-0.123942	-102.492754	-0.123942	-102.492754	-31.044675	-59.855432
1.900000	-29.378939	24.145448	-0.129032	-105.326831	-0.129032	-105.326831	-29.454223	-54.542245
1.950000	-27.906658	15.077122	-0.134766	-108.166883	-0.134766	-108.166883	-27.938481	-51.321440
2.000000	-26.528416	7.450317	-0.141211	-111.012779	-0.141211	-111.012779	-26.531613	-49.547428
2.050000	-25.251745	0.850706	-0.148439	-113.864401	-0.148439	-113.864401	-25.235922	-48.791821
2.100000	-24.072069	-5.008374	-0.156524	-116.721589	-0.156524	-116.721589	-24.043440	-48.765652
2.150000	-22.980807	-10.323909	-0.165535	-119.584132	-0.165535	-119.584132	-22.943461	-49.273579
2.200000	-21.968715	-15.232638	-0.175541	-122.451772	-0.175541	-122.451772	-21.925412	-50.181410
2.250000	-21.027155	-19.831082	-0.186610	-125.324205	-0.186610	-125.324205	-20.979805	-51.395002
2.300000	-20.148488	-24.188648	-0.198803	-128.201079	-0.198803	-128.201079	-20.098448	-52.846838
2.350000	-19.326116	-28.356169	-0.212179	-131.081997	-0.212179	-131.081997	-19.274375	-54.487433
2.400000	-18.554393	-32.371519	-0.226793	-133.966519	-0.226793	-133.966519	-18.501684	-56.279769
2.450000	-17.828499	-36.263360	-0.242692	-136.854163	-0.242692	-136.854163	-17.775376	-58.195620
2.500000	-17.144310	-40.053683	-0.259920	-139.744410	-0.259920	-139.744410	-17.091196	-60.213068
2.550000	-16.498069	-43.758040	-0.278542	-142.636735	-0.278542	-142.636735	-16.445294	-62.316324
2.600000	-15.887042	-47.391830	-0.298556	-145.530494	-0.298556	-145.530494	-15.834850	-64.489499
2.650000	-15.308568	-50.965514	-0.319983	-148.425069	-0.319983	-148.425069	-15.257143	-66.721437
2.700000	-14.760331	-54.487455	-0.342835	-151.319825	-0.342835	-151.319825	-14.709803	-69.002916
2.750000	-14.240300	-57.964370	-0.367113	-154.214103	-0.367113	-154.214103	-14.190754	-71.326216
2.800000	-13.746683	-61.401684	-0.392812	-157.107237	-0.392812	-157.107237	-13.698166	-73.684803
2.850000	-13.277912	-64.804728	-0.419877	-159.998626	-0.419877	-159.998626	-13.230430	-76.072346
2.900000	-12.832503	-68.174945	-0.448369	-162.887445	-0.448369	-162.887445	-12.786034	-78.485729
2.950000	-12.409247	-71.516459	-0.478205	-165.773086	-0.478205	-165.773086	-12.363736	-80.919707
3.000000	-12.006994	-74.831617	-0.509342	-168.654885	-0.509342	-168.654885	-11.962356	-83.370596
3.050000	-11.624729	-78.122142	-0.541733	-171.532151	-0.541733	-171.532151	-11.580848	-85.835227
3.100000	-11.261431	-81.390082	-0.575293	-174.404370	-0.575293	-174.404370	-11.218168	-88.310480
3.150000	-10.916309	-84.636148	-0.609974	-177.270811	-0.609974	-177.270811	-10.873499	-90.794021
3.200000	-10.588576	-87.861395	-0.645692	179.869113	-0.645692	179.869113	-10.546031	-93.283475
3.250000	-10.277443	-91.066879	-0.682346	177.015871	-0.682346	177.015871	-10.234957	-95.776710
3.300000	-9.982211	-94.253267	-0.719840	174.169949	-0.719840	174.169949	-9.939561	-98.271900
3.350000	-9.702226	-97.421108	-0.758068	171.331790	-0.758068	171.331790	-9.659179	-100.767411
3.400000	-9.436873	-100.570853	-0.796919	168.501785	-0.796919	168.501785	-9.393188	-103.261793
3.450000	-9.185568	-103.702887	-0.836275	165.680274	-0.836275	165.680274	-9.141005	-105.753755
3.500000	-8.947758	-106.817546	-0.876014	162.867540	-0.876014	162.867540	-8.902081	-108.242165
3.550000	-8.722914	-109.915144	-0.916009	160.063806	-0.916009	160.063806	-8.675904	-110.726029
3.600000	-8.510528	-112.995994	-0.956129	157.269237	-0.956129	157.269237	-8.461987	-113.204489
3.650000	-8.310110	-116.060434	-0.996238	154.483934	-0.996238	154.483934	-8.259875	-115.676814
3.700000	-8.121186	-119.108852	-1.036200	151.707934	-1.036200	151.707934	-8.069140	-118.142389
3.750000	-7.943298	-122.141716	-1.075876	148.941210	-1.075876	148.941210	-7.889375	-120.600714
3.800000	-7.776158	-125.159294	-1.115110	146.183868	-1.115110	146.183868	-7.720358	-123.051219
3.850000	-7.619184	-128.162645	-1.153772	143.435546	-1.153772	143.435546	-7.561578	-125.493773
3.900000	-7.471971	-131.152644	-1.191722	140.696017	-1.191722	140.696017	-7.412700	-127.928180
3.950000	-7.334144	-134.130330	-1.228822	137.964993	-1.228822	137.964993	-7.273412	-130.354332
4.000000	-7.205355	-137.096898	-1.264933	135.242123	-1.264933	135.242123	-7.143422	-132.772204
4.050000	-7.085300	-140.053677	-1.299922	132.526991	-1.299922	132.526991	-7.022462	-135.181847
4.100000	-6.973712	-143.002094	-1.333654	129.819125	-1.333654	129.819125	-6.910283	-137.583386
4.150000	-6.870368	-145.943632	-1.366002	127.117989	-1.366002	127.117989	-6.806658	-139.977013
4.200000	-6.775769	-148.879378	-1.396670	124.423539	-1.396670	124.423539	-6.712086	-142.362257
4.250000	-6.688494	-151.811711	-1.425844	121.734015	-1.425844	121.734015	-6.625052	-144.740839
4.300000	-6.609038	-154.741537	-1.453267	119.049256	-1.453267	119.049256	-6.546019	-147.112453
4.350000	-6.537318	-157.670182	-1.478827	116.368503	-1.478827	116.368503	-6.474844	-149.477513
4.400000	-6.473278	-160.598908	-1.502417	113.690948	-1.502417	113.690948	-6.411408	-151.836476
4.450000	-6.416878	-163.528925	-1.523937	111.015729	-1.523937	111.015729	-6.355613	-154.189839
4.500000	-6.368093	-166.461412	-1.543290	108.341940	-1.543290	108.341940	-6.307385	-156.538131
4.550000	-6.326915	-169.397542	-1.560389	105.668624	-1.560389	105.668624	-6.266671	-158.881911
4.600000	-6.292690	-172.337955	-1.575363	102.994934	-1.575363	102.994934	-6.232800	-161.222043
4.650000	-6.266829	-175.284938	-1.587690	100.319581	-1.587690	100.319581	-6.207131	-163.558487
4.700000	-6.248640	-178.239279	-1.597535	97.641540	-1.597535	97.641540	-6.188970	-165.892238
4.750000	-6.238185	178.797678	-1.604836	94.959677	-1.604836	94.959677	-6.178368	-168.223922
4.800000	-6.235546	175.824516	-1.609541	92.272815	-1.609541	92.272815	-6.175405	-170.554169
4.850000	-6.240837	172.839739	-1.611606	89.579739	-1.611606	89.579739	-6.180191	-172.883601
4.900000	-6.254197	169.841767	-1.610994	86.879190	-1.610994	86.879190	-6.192867	-175.212831
4.950000	-6.275804	166.828934	-1.607678	84.169874	-1.607678	84.169874	-6.213611	-177.542450
5.000000	-6.305869	163.799484	-1.601640	81.450457	-1.601640	81.450457	-6.242636	-179.873018
5.050000	-6.344839	160.751127	-1.592812	78.719284	-1.592812	78.719284	-6.280384	177.794900
5.100000	-6.392833	157.682274	-1.581256	75.975165	-1.581256	75.975165	-6.326973	175.460867
5.150000	-6.450202	154.590880	-1.566986	73.216651	-1.566986	73.216651	-6.382751	173.124491
5.200000	-6.517353	151.474794	-1.550026	70.442264	-1.550026	70.442264	-6.448112	170.785472
5.250000	-6.594755	148.331755	-1.530413	67.650487	-1.530413	67.650487	-6.523511	168.443621
5.300000	-6.682944	145.159380	-1.508197	64.839775	-1.508197	64.839775	-6.609464	166.098887
5.350000	-6.782533	141.955155	-1.483441	62.008553	-1.483441	62.008553	-6.706555	163.751385
5.400000	-6.894220	138.716419	-1.456222	59.155216	-1.456222	59.155216	-6.815445	161.401440
5.450000	-7.018798	135.440349	-1.426633	56.278137	-1.426633	56.278137	-6.936882	159.049626
5.500000	-7.157172	132.123935	-1.394783	53.375667	-1.394783	53.375667	-7.071709	156.696829
5.550000	-7.310368	128.763950	-1.360797	50.446139	-1.360797	50.446139	-7.220879	154.344314
5.600000	-7.479556	125.356917	-1.324820	47.487875	-1.324820	47.487875	-7.385465	151.993813
5.650000	-7.666228	121.898463	-1.286994	44.498840	-1.286994	44.498840	-7.566834	149.647710
5.700000	-7.871935	118.384299	-1.247512	41.477294	-1.247512	41.477294	-7.766381	147.309158
5.750000	-8.098282	114.810371	-1.206599	38.421896	-1.206599	38.421896	-7.985521	144.982084
5.800000	-8.347285	111.171521	-1.164487	35.330994	-1.164487	35.330994	-8.226023	142.671595
5.850000	-8.621275	107.461896	-1.121429	32.202966	-1.121429	32.202966	-8.489894	140.384220
5.900000	-8.922959	103.674749	-1.077703	29.036238	-1.077703	29.036238	-8.779425	138.128302
5.950000	-9.255501	99.802177	-1.033612	25.829296	-1.033612	25.829296	-9.097229	135.914502
6.000000	-9.622625	95.834744	-0.989488	22.580702	-0.989488	22.580702	-9.446295	133.756487
6.050000	-10.028750	91.760948	-0.945688	19.289114	-0.945688	19.289114	-9.830051	131.671849
6.100000	-10.479169	87.566456	-0.902595	15.953309	-0.902595	15.953309	-10.252426	129.683384
6.150000	-10.980290	83.232975	-0.860623	12.572201	-0.860623	12.572201	-10.717922	127.820858
6.200000	-11.539964	78.736539	-0.820208	9.144870	-0.820208	9.144870	-11.231673	126.123514
6.250000	-12.167947	74.044865	-0.781816	5.670584	-0.781816	5.670584	-11.799473	124.643651
6.300000	-12.877209	69.106433	-0.745996	2.147792	-0.745996	2.147792	-12.428077	123.460300
6.350000	-13.682902	63.859108	-0.713221	-1.422738	-0.713221	-1.422738	-13.123620	122.667534
6.400000	-14.605550	58.203074	-0.684021	-5.040984	-0.684021	-5.040984	-13.892162	122.402306
6.450000	-15.672279	51.981166	-0.658938	-8.706624	-0.658938	-8.706624	-14.737406	122.855911
6.500000	-16.919153	44.932536	-0.638527	-12.419013	-0.638527	-12.419013	-15.656711	124.294417
6.550000	-18.392998	36.597264	-0.623347	-16.177162	-0.623347	-16.177162	-16.632867	127.076810
6.600000	-20.146984	26.110652	-0.613955	-19.979720	-0.613955	-19.979720	-17.618740	131.644762
6.650000	-22.202185	11.773614	-0.610900	-23.824967	-0.610900	-23.824967	-18.514628	138.414351
6.700000	-24.391322	-9.234952	-0.614544	-27.709935	-0.614544	-27.709935	-19.165698	147.430311
6.750000	-25.736250	-40.135744	-0.625812	-31.634343	-0.625812	-31.634343	-19.354303	158.089957
6.800000	-24.969512	-73.598949	-0.644948	-35.593975	-0.644948	-35.593975	-19.001108	168.710611
6.850000	-22.786710	-98.701795	-0.672389	-39.585649	-0.672389	-39.585649	-18.197907	177.701625
6.900000	-20.467159	-115.478774	-0.708523	-43.605871	-0.708523	-43.605871	-17.136925	-175.669370
6.950000	-18.423479	-127.436455	-0.753688	-47.650881	-0.753688	-47.650881	-15.986691	-171.323741
7.000000	-16.681298	-136.781542	-0.808158	-51.716695	-0.808158	-51.716695	-14.848577	-168.839426
7.050000	-15.191133	-144.634667	-0.872144	-55.799161	-0.872144	-55.799161	-13.770738	-167.768601
7.100000	-13.902423	-151.573298	-0.945832	-59.894057	-0.945832	-59.894057	-12.770939	-167.750692
7.150000	-12.775362	-157.917207	-1.029334	-63.997030	-1.029334	-63.997030	-11.852449	-168.514722
7.200000	-11.779902	-163.857320	-1.122559	-68.103675	-1.122559	-68.103675	-11.012126	-169.857449
7.250000	-10.893338	-169.506075	-1.225438	-72.209796	-1.225438	-72.209796	-10.244061	-171.639074
7.300000	-10.098366	-174.935610	-1.337833	-76.311340	-1.337833	-76.311340	-9.541796	-173.757359
7.350000	-9.381549	179.806293	-1.459548	-80.404457	-1.459548	-80.404457	-8.899087	-176.136447
7.400000	-8.732252	174.687147	-1.590329	-84.485543	-1.590329	-84.485543	-8.310188	-178.719155
7.450000	-8.141906	169.684372	-1.729876	-88.551283	-1.729876	-88.551283	-7.769932	178.538281
7.500000	-7.603483	164.781975	-1.877847	-92.598680	-1.877847	-92.598680	-7.273717	175.669833
7.550000	-7.111360	159.969583	-2.033931	-96.624738	-2.033931	-96.624738	-6.817657	172.701080
7.600000	-6.660370	155.237398	-2.197637	-100.627436	-2.197637	-100.627436	-6.397909	169.654815
7.650000	-6.246288	150.579166	-2.368544	-104.604844	-2.368544	-104.604844	-6.011217	166.547829
7.700000	-5.865463	145.990109	-2.546220	-108.555387	-2.546220	-108.555387	-5.654671	163.393643
7.750000	-5.514716	141.466484	-2.730227	-112.477832	-2.730227	-112.477832	-5.325657	160.203183
7.800000	-5.191251	137.005284	-2.920131	-116.371272	-2.920131	-116.371272	-5.021825	156.985282
7.850000	-4.892597	132.604023	-3.115502	-120.235107	-3.115502	-120.235107	-4.741049	153.747080
7.900000	-4.616555	128.260583	-3.315924	-124.069020	-3.315924	-124.069020	-4.481406	150.494325
7.950000	-4.361275	123.973634	-3.520986	-127.872664	-3.520986	-127.872664	-4.241263	147.231558
8.000000	-4.124920	119.741205	-3.730291	-131.646365	-3.730291	-131.646365	-4.018964	143.962528
8.050000	-3.905845	115.561495	-3.943474	-135.390653	-3.943474	-135.390653	-3.813005	140.690112
8.100000	-3.702957	111.434754	-4.160111	-139.105145	-4.160111	-139.105145	-3.622403	137.416508
8.150000	-3.514265	107.356225	-4.380025	-142.792471	-4.380025	-142.792471	-3.445277	134.143330
8.200000	-3.338817	103.325607	-4.602883	-146.452914	-4.602883	-146.452914	-3.280744	130.871726
8.250000	-3.176079	99.344418	-4.828226	-150.085882	-4.828226	-150.085882	-3.128325	127.602619
8.300000	-3.024080	95.406034	-5.056188	-153.695394	-5.056188	-153.695394	-2.986123	124.336200
8.350000	-2.883365	91.517166	-5.285864	-157.278302	-5.285864	-157.278302	-2.854695	121.073231
8.400000	-2.751626	87.668071	-5.517810	-160.840355	-5.517810	-160.840355	-2.731803	117.813141
8.450000	-2.629413	83.865156	-5.751051	-164.378891	-5.751051	-164.378891	-2.617995	114.556323
8.500000	-2.515125	80.101618	-5.986017	-167.898047	-5.986017	-167.898047	-2.511721	111.302113
8.550000	-2.408667	76.379584	-6.222147	-171.397567	-6.222147	-171.397567	-2.412894	108.050336
8.600000	-2.309370	72.697252	-6.459358	-174.879126	-6.459358	-174.879126	-2.320866	104.800495
8.650000	-2.216516	69.052118	-6.697702	-178.344709	-6.697702	-178.344709	-2.234943	101.552015
8.700000	-2.130169	65.446872	-6.936461	178.205861	-6.936461	178.205861	-2.155182	98.304449
8.750000	-2.049130	61.874853	-7.176394	174.769014	-7.176394	174.769014	-2.080430	95.057144
8.800000	-1.974035	58.342773	-7.416047	171.346125	-7.416047	171.346125	-2.011290	91.809482
8.850000	-1.903562	54.842208	-7.656582	167.933262	-7.656582	167.933262	-1.946494	88.560979
8.900000	-1.838170	51.378421	-7.896683	164.530857	-7.896683	164.530857	-1.886472	85.310814
8.950000	-1.777055	47.946339	-8.136991	161.136322	-8.136991	161.136322	-1.830458	82.058612
9.000000	-1.720091	44.546174	-8.377124	157.748515	-8.377124	157.748515	-1.778327	78.803763
9.050000	-1.667043	41.177065	-8.616899	154.365981	-8.616899	154.365981	-1.729852	75.545735
9.100000	-1.617695	37.838158	-8.856118	150.987231	-8.856118	150.987231	-1.684828	72.284019
9.150000	-1.571853	34.528599	-9.094567	147.610742	-9.094567	147.610742	-1.643069	69.018133
9.200000	-1.529340	31.247528	-9.332014	144.234951	-9.332014	144.234951	-1.604408	65.747620
9.250000	-1.489996	27.994082	-9.568199	140.858249	-9.568199	140.858249	-1.568694	62.472052
9.300000	-1.453675	24.767389	-9.802839	137.478984	-9.802839	137.478984	-1.535793	59.191027
9.350000	-1.420247	21.566563	-10.035616	134.095451	-10.035616	134.095451	-1.505585	55.904170
9.400000	-1.389684	18.391532	-10.265879	130.705630	-10.265879	130.705630	-1.478047	52.610906
9.450000	-1.361875	15.241289	-10.493200	127.307545	-10.493200	127.307545	-1.453081	49.310879
9.500000	-1.336637	12.114035	-10.717421	123.899569	-10.717421	123.899569	-1.430524	46.004002
9.550000	-1.313892	9.008803	-10.938033	120.479832	-10.938033	120.479832	-1.410309	42.689994
9.600000	-1.293572	5.924604	-11.154467	117.046455	-11.154467	117.046455	-1.392383	39.368589
9.650000	-1.275619	2.860417	-11.366076	113.597576	-11.366076	113.597576	-1.376704	36.039535
9.700000	-1.259986	-0.184809	-11.572132	110.131381	-11.572132	110.131381	-1.363241	32.702592
9.750000	-1.246636	-3.212157	-11.771811	106.646156	-11.771811	106.646156	-1.351972	29.357529
9.800000	-1.235541	-6.222747	-11.964185	103.140344	-11.964185	103.140344	-1.342888	26.004118
9.850000	-1.226685	-9.217736	-12.148201	99.612633	-12.148201	99.612633	-1.335991	22.642136
9.900000	-1.220060	-12.198322	-12.322675	96.062056	-12.322675	96.062056	-1.331294	19.271358
9.950000	-1.215668	-15.165745	-12.486273	92.488135	-12.486273	92.488135	-1.328818	15.891557
10.000000	-1.213521	-18.121289	-12.637500	88.891045	-12.637500	88.891045	-1.328600	12.502501
