! freq	dB(S11)	phase(S11)	dB(S12)	phase(S12)	
!     	dB(S21)	phase(S21)	dB(S22)	phase(S22)	
!S-par simulation data
#  GHz  S  DB  R 50
0.000000	-82.269452	0.000000	-0.000659	0.000000	-0.000659	0.000000	-82.269412	0.000000
0.050000	-35.767903	-93.070410	-0.006823	-3.357286	-0.006823	-3.357286	-35.763697	-92.731781
0.100000	-29.803513	-96.756299	-0.016922	-6.668354	-0.016922	-6.668354	-29.799563	-96.088123
0.150000	-26.339256	-100.396972	-0.027605	-9.961792	-0.027605	-9.961792	-26.334912	-99.399555
0.200000	-23.899191	-103.988827	-0.039599	-13.247303	-0.039599	-13.247303	-23.894389	-102.661499
0.250000	-22.026871	-107.531850	-0.053397	-16.524397	-0.053397	-16.524397	-22.021674	-105.874040
0.300000	-20.516978	-111.037686	-0.068957	-19.792238	-0.068957	-19.792238	-20.511473	-109.048653
0.350000	-19.259159	-114.515862	-0.086075	-23.050512	-0.086075	-23.050512	-19.253420	-112.194618
0.400000	-18.188436	-117.971829	-0.104586	-26.298781	-0.104586	-26.298781	-18.182517	-115.317117
0.450000	-17.265611	-121.407836	-0.124393	-29.535815	-0.124393	-29.535815	-17.259550	-118.417980
0.500000	-16.459136	-124.827950	-0.145185	-32.762369	-0.145185	-32.762369	-16.452961	-121.501142
0.550000	-15.749605	-128.233041	-0.166790	-35.977955	-0.166790	-35.977955	-15.743337	-124.567141
0.600000	-15.123147	-131.623622	-0.189003	-39.182086	-0.189003	-39.182086	-15.116801	-127.616084
0.650000	-14.567257	-135.001011	-0.211570	-42.375209	-0.211570	-42.375209	-14.560847	-130.649042
0.700000	-14.072817	-138.366070	-0.234257	-45.557615	-0.234257	-45.557615	-14.066354	-133.666558
0.750000	-13.633782	-141.719227	-0.256819	-48.729317	-0.256819	-48.729317	-13.627278	-136.668568
0.800000	-13.244488	-145.061439	-0.279002	-51.890860	-0.279002	-51.890860	-13.237953	-139.655600
0.850000	-12.900079	-148.393889	-0.300565	-55.043047	-0.300565	-55.043047	-12.893522	-142.628414
0.900000	-12.596848	-151.717786	-0.321272	-58.186734	-0.321272	-58.186734	-12.590278	-145.587720
0.950000	-12.331963	-155.034446	-0.340886	-61.322880	-0.340886	-61.322880	-12.325387	-148.534244
1.000000	-12.103046	-158.345398	-0.359187	-64.452642	-0.359187	-64.452642	-12.096470	-151.468880
1.050000	-11.909471	-161.652287	-0.375885	-67.577198	-0.375885	-67.577198	-11.902897	-154.392209
1.100000	-11.746920	-164.957204	-0.390961	-70.698365	-0.390961	-70.698365	-11.740349	-157.306270
1.150000	-11.615881	-168.262018	-0.404151	-73.817495	-0.404151	-73.817495	-11.609308	-160.211630
1.200000	-11.515607	-171.568961	-0.415303	-76.936334	-0.415303	-76.936334	-11.509024	-163.109482
1.250000	-11.445686	-174.880449	-0.424287	-80.056770	-0.424287	-80.056770	-11.439080	-166.001035
1.300000	-11.407030	-178.199430	-0.430923	-83.181040	-0.430923	-83.181040	-11.400381	-168.887373
1.350000	-11.398931	178.471448	-0.435206	-86.311263	-0.435206	-86.311263	-11.392212	-171.769831
1.400000	-11.421995	175.129169	-0.437090	-89.449748	-0.437090	-89.449748	-11.415172	-174.649439
1.450000	-11.477204	171.770504	-0.436557	-92.598931	-0.436557	-92.598931	-11.470231	-177.527050
1.500000	-11.565950	168.391977	-0.433617	-95.761355	-0.433617	-95.761355	-11.558772	179.596744
1.550000	-11.690102	164.989842	-0.428313	-98.939660	-0.428313	-98.939660	-11.682645	176.721723
1.600000	-11.852073	161.560028	-0.420721	-102.136563	-0.420721	-102.136563	-11.844247	173.848191
1.650000	-12.054935	158.098071	-0.410951	-105.354840	-0.410951	-105.354840	-12.046621	170.977173
1.700000	-12.302558	154.599015	-0.399151	-108.597306	-0.399151	-108.597306	-12.293598	168.110704
1.750000	-12.599811	151.057252	-0.385509	-111.866791	-0.385509	-111.866791	-12.589993	165.252220
1.800000	-12.952839	147.466301	-0.370256	-115.166121	-0.370256	-115.166121	-12.941869	162.407144
1.850000	-13.369456	143.818444	-0.353668	-118.498085	-0.353668	-118.498085	-13.356918	159.583751
1.900000	-13.860310	140.103305	-0.336064	-121.865824	-0.336064	-121.865824	-13.845587	156.795081
1.950000	-14.438728	136.308069	-0.317832	-125.272056	-0.317832	-125.272056	-14.420877	154.060912
2.000000	-15.121844	132.416421	-0.299415	-128.718879	-0.299415	-128.718879	-15.099386	151.410635
2.050000	-15.933985	128.403695	-0.281299	-132.208596	-0.281299	-132.208596	-15.904482	148.891193
2.100000	-16.909863	124.231617	-0.264020	-135.743282	-0.264020	-135.743282	-16.869073	146.579633
2.150000	-18.101405	119.835717	-0.248172	-139.324728	-0.248172	-139.324728	-18.041408	144.609659
2.200000	-19.591315	115.095862	-0.234398	-142.954386	-0.234398	-142.954386	-19.495864	143.232073
2.250000	-21.523245	109.755958	-0.223388	-146.633306	-0.223388	-146.633306	-21.354221	142.971764
2.300000	-24.180166	103.150205	-0.215878	-150.362079	-0.215878	-150.362079	-23.828090	145.114523
2.350000	-28.237486	92.836331	-0.212637	-154.140770	-0.212637	-154.140770	-27.267790	153.589340
2.400000	-35.492392	60.958921	-0.214465	-157.968861	-0.214465	-157.968861	-31.474013	-178.241065
2.450000	-35.080994	-40.190839	-0.222175	-161.845194	-0.222175	-161.845194	-30.945428	-125.650311
2.500000	-27.434195	-68.278488	-0.236585	-165.767933	-0.236585	-165.767933	-26.256791	-100.649419
2.550000	-23.065689	-78.211140	-0.258680	-169.735402	-0.258680	-169.735402	-22.532341	-93.748938
2.600000	-20.063954	-84.974029	-0.289089	-173.743258	-0.289089	-173.743258	-19.751799	-92.314250
2.650000	-17.775744	-90.632255	-0.328533	-177.787449	-0.328533	-177.787449	-17.564663	-93.107445
2.700000	-15.927309	-95.792459	-0.377668	178.136770	-0.377668	178.136770	-15.771099	-95.003851
2.750000	-14.379343	-100.690729	-0.437064	174.034775	-0.437064	174.034775	-14.256464	-97.524112
2.800000	-13.051557	-105.435214	-0.507188	169.912496	-0.507188	169.912496	-12.950571	-100.430193
2.850000	-11.893506	-110.080345	-0.588387	165.776314	-0.588387	165.776314	-11.807742	-103.589393
2.900000	-10.871394	-114.654778	-0.680881	161.632935	-0.680881	161.632935	-10.796684	-106.920599
2.950000	-9.961420	-119.173573	-0.784749	157.489253	-0.784749	157.489253	-9.895014	-110.370337
3.000000	-9.146109	-123.644146	-0.899930	153.352201	-0.899930	153.352201	-9.086121	-113.901057
3.050000	-8.412182	-128.069441	-1.026220	149.228600	-1.026220	149.228600	-8.357276	-117.485002
3.100000	-7.749230	-132.449760	-1.163278	145.125019	-1.163278	145.125019	-7.698436	-121.100809
3.150000	-7.149071	-136.783364	-1.310707	141.047982	-1.310707	141.047982	-7.101672	-124.731551
3.200000	-6.604827	-141.068164	-1.467885	137.003332	-1.467885	137.003332	-6.560286	-128.363175
3.250000	-6.110475	-145.302338	-1.634028	132.995802	-1.634028	132.995802	-6.068386	-131.984513
3.300000	-5.661013	-149.483601	-1.808353	129.029731	-1.808353	129.029731	-5.621064	-135.586576
3.350000	-5.252096	-153.609911	-1.990012	125.108731	-1.990012	125.108731	-5.214047	-139.162087
3.400000	-4.879904	-157.679609	-2.178103	121.235667	-2.178103	121.235667	-4.843567	-142.705253
3.450000	-4.541049	-161.691504	-2.371688	117.412652	-2.371688	117.412652	-4.506275	-146.211601
3.500000	-4.232502	-165.644914	-2.569805	113.641064	-2.569805	113.641064	-4.199172	-149.677827
3.550000	-3.951546	-169.539683	-2.771481	109.921577	-2.771481	109.921577	-3.919566	-153.101679
3.600000	-3.695733	-173.376172	-2.975741	106.254193	-2.975741	106.254193	-3.665025	-156.481845
3.650000	-3.462853	-177.155238	-3.181611	102.638290	-3.181611	102.638290	-3.433356	-159.817861
3.700000	-3.250916	179.121796	-3.388127	99.072665	-3.388127	99.072665	-3.222582	-163.110016
3.750000	-3.058126	175.453173	-3.594328	95.555579	-3.594328	95.555579	-3.030917	-166.359280
3.800000	-2.883286	171.838363	-3.799036	92.086220	-3.799036	92.086220	-2.857178	-169.565951
3.850000	-2.724480	168.273017	-4.001469	88.660229	-4.001469	88.660229	-2.699459	-172.733638
3.900000	-2.580421	164.754228	-4.200670	85.274392	-4.200670	85.274392	-2.556483	-175.865057
3.950000	-2.449971	161.278761	-4.395664	81.925041	-4.395664	81.925041	-2.427127	-178.963419
4.000000	-2.332134	157.843054	-4.585445	78.608043	-4.585445	78.608043	-2.310407	177.967578
4.050000	-2.226053	154.443211	-4.768951	75.318756	-4.768951	75.318756	-2.205483	174.923727
4.100000	-2.131007	151.074972	-4.945055	72.051970	-4.945055	72.051970	-2.111652	171.900278
4.150000	-2.046413	147.733670	-5.112526	68.801800	-5.112526	68.801800	-2.028351	168.891861
4.200000	-1.971835	144.414155	-5.270005	65.561550	-5.270005	65.561550	-1.955171	165.892387
4.250000	-1.906994	141.110694	-5.415960	62.323505	-5.415960	62.323505	-1.891864	162.894891
4.300000	-1.851791	137.816821	-5.548638	59.078648	-5.548638	59.078648	-1.838372	159.891312
4.350000	-1.806340	134.525140	-5.666000	55.816265	-5.666000	55.816265	-1.794862	156.872197
4.400000	-1.771020	131.227045	-5.765642	52.523392	-5.765642	52.523392	-1.761784	153.826276
4.450000	-1.746556	127.912339	-5.844688	49.184023	-5.844688	49.184023	-1.739960	150.739868
4.500000	-1.734141	124.568708	-5.899662	45.777976	-5.899662	45.777976	-1.730721	147.596044
4.550000	-1.735629	121.180988	-5.926311	42.279226	-5.926311	42.279226	-1.736121	144.373423
4.600000	-1.751971	117.738130	-5.922986	38.669190	-5.922986	38.669190	-1.757280	141.057375
4.650000	-1.790935	114.201508	-5.876242	34.873245	-5.876242	34.873245	-1.802662	137.588049
4.700000	-1.857530	110.546030	-5.781262	30.839601	-5.781262	30.839601	-1.877942	133.927055
4.750000	-1.962398	106.730673	-5.627870	26.475689	-5.627870	26.475689	-1.995081	130.006610
4.800000	-2.123146	102.702835	-5.403581	21.644672	-5.403581	21.644672	-2.174114	125.731499
4.850000	-2.370309	98.399863	-5.093802	16.137576	-5.093802	16.137576	-2.450425	120.967120
4.900000	-2.757318	93.770653	-4.685272	9.642767	-4.685272	9.642767	-2.887744	115.538801
4.950000	-3.398736	88.846949	-4.166404	1.588958	-4.166404	1.588958	-3.629081	109.205257
5.000000	-4.517703	84.176119	-3.561463	-8.869804	-3.561463	-8.869804	-4.985667	101.950498
5.050000	-6.549206	82.799037	-2.989518	-23.046652	-2.989518	-23.046652	-7.789821	95.619559
5.100000	-9.309494	97.390215	-2.792938	-42.048394	-2.792938	-42.048394	-13.960848	110.061424
5.150000	-7.815067	126.835061	-3.553408	-64.810597	-3.553408	-64.810597	-11.104023	175.304526
5.200000	-4.284639	129.834139	-5.538004	-86.634572	-5.538004	-86.634572	-5.284053	173.787303
5.250000	-2.350562	122.103068	-8.332498	-103.659086	-8.332498	-103.659086	-2.796149	162.052747
5.300000	-1.432459	113.940940	-11.422609	-115.702544	-11.422609	-115.702544	-1.683206	151.743756
5.350000	-0.973776	106.972604	-14.606578	-124.087562	-14.606578	-124.087562	-1.134906	143.532869
5.400000	-0.733924	101.141776	-17.801952	-129.703115	-17.801952	-129.703115	-0.847845	136.953242
5.450000	-0.596580	96.110410	-21.089896	-133.133719	-21.089896	-133.133719	-0.682351	131.444829
5.500000	-0.514425	91.659419	-24.510294	-134.285236	-24.510294	-134.285236	-0.582427	126.689107
5.550000	-0.462465	87.616789	-28.142736	-132.445309	-28.142736	-132.445309	-0.518631	122.451671
5.600000	-0.428168	83.869598	-31.998586	-125.764014	-31.998586	-125.764014	-0.476170	118.582845
5.650000	-0.403931	80.322959	-36.023710	-111.839794	-36.023710	-111.839794	-0.445990	114.960344
5.700000	-0.387169	76.950446	-38.903519	-88.231690	-38.903519	-88.231690	-0.425031	111.547940
5.750000	-0.374978	73.699261	-39.804223	-64.224373	-39.804223	-64.224373	-0.409772	108.278804
5.800000	-0.365931	70.539335	-39.679671	-48.581396	-39.679671	-48.581396	-0.398460	105.114678
5.850000	-0.359823	67.468894	-39.848893	-42.436084	-39.848893	-42.436084	-0.390849	102.049754
5.900000	-0.355180	64.441273	-40.678182	-39.785291	-40.678182	-39.785291	-0.385069	99.029164
5.950000	-0.351865	61.451071	-42.352071	-40.670514	-42.352071	-40.670514	-0.380943	96.046482
6.000000	-0.350311	58.503038	-46.186675	-48.107599	-46.186675	-48.107599	-0.378970	93.102091
6.050000	-0.350044	55.575098	-49.532368	-111.033125	-49.532368	-111.033125	-0.378521	90.170888
6.100000	-0.350824	52.659428	-48.480157	177.331660	-48.480157	177.331660	-0.379295	87.245277
6.150000	-0.353062	49.753657	-41.068039	157.773802	-41.068039	157.773802	-0.381740	84.318400
6.200000	-0.357003	46.846825	-36.461452	149.801869	-36.461452	149.801869	-0.386081	81.375489
6.250000	-0.362265	43.934527	-33.175327	145.343799	-33.175327	145.343799	-0.391876	78.415308
6.300000	-0.369183	41.012468	-30.552960	141.840018	-30.552960	141.840018	-0.399479	75.430481
6.350000	-0.378904	38.064595	-28.268949	138.627509	-28.268949	138.627509	-0.410104	72.395732
6.400000	-0.390223	35.100033	-26.350347	135.471431	-26.350347	135.471431	-0.422444	69.331334
6.450000	-0.404728	32.100006	-24.608748	132.338409	-24.608748	132.338409	-0.438192	66.206816
6.500000	-0.423169	29.054042	-23.002505	129.163652	-23.002505	129.163652	-0.458133	63.008737
6.550000	-0.445559	25.961914	-21.527742	125.928145	-21.527742	125.928145	-0.482279	59.739246
6.600000	-0.473147	22.810204	-20.144615	122.606087	-20.144615	122.606087	-0.511955	56.379862
6.650000	-0.507351	19.585438	-18.829647	119.174199	-18.829647	119.174199	-0.548667	52.912500
6.700000	-0.549427	16.278435	-17.574362	115.617738	-17.574362	115.617738	-0.593755	49.325557
6.750000	-0.600968	12.878764	-16.370283	111.921173	-16.370283	111.921173	-0.648924	45.605326
6.800000	-0.664688	9.368321	-15.203656	108.057643	-15.203656	108.057643	-0.717074	41.726870
6.850000	-0.743797	5.729705	-14.066958	104.001120	-14.066958	104.001120	-0.801652	37.665903
6.900000	-0.843106	1.939183	-12.951266	99.715037	-12.951266	99.715037	-0.907829	33.388225
6.950000	-0.968647	-2.026172	-11.852461	95.161827	-11.852461	95.161827	-1.042123	28.859005
7.000000	-1.127606	-6.185148	-10.771061	90.306503	-10.771061	90.306503	-1.212354	24.046399
7.050000	-1.330238	-10.559697	-9.706351	85.102927	-9.706351	85.102927	-1.429753	18.909021
7.100000	-1.590309	-15.167816	-8.659857	79.500084	-8.659857	79.500084	-1.709556	13.402544
7.150000	-1.926312	-20.017375	-7.635850	73.443924	-7.635850	73.443924	-2.072547	7.482544
7.200000	-2.363908	-25.096673	-6.641360	66.876469	-6.641360	66.876469	-2.548200	1.105981
7.250000	-2.938734	-30.350601	-5.687813	59.741575	-5.687813	59.741575	-3.178900	-5.758608
7.300000	-3.691614	-35.637953	-4.793736	52.027996	-4.793736	52.027996	-4.016958	-13.086489
7.350000	-4.676679	-40.688139	-3.978973	43.745548	-3.978973	43.745548	-5.139203	-20.802593
7.400000	-5.958237	-44.993703	-3.265052	34.953130	-3.265052	34.953130	-6.658096	-28.723509
7.450000	-7.601502	-47.649258	-2.670992	25.770038	-2.670992	25.770038	-8.751722	-36.469269
7.500000	-9.633377	-46.882174	-2.213328	16.361281	-2.213328	16.361281	-11.762077	-43.141331
7.550000	-11.853535	-39.686799	-1.897075	6.942762	-1.897075	6.942762	-16.495039	-45.660755
7.600000	-13.444883	-23.838254	-1.712479	-2.278359	-1.712479	-2.278359	-25.249602	-20.233204
7.650000	-13.295294	-4.833536	-1.642118	-11.134516	-1.642118	-11.134516	-22.098885	68.924877
7.700000	-11.826226	7.451837	-1.665265	-19.495696	-1.665265	-19.495696	-15.678321	77.476668
7.750000	-10.204460	12.745272	-1.752470	-27.340801	-1.752470	-27.340801	-12.250651	74.586531
7.800000	-8.823685	13.726383	-1.883642	-34.653600	-1.883642	-34.653600	-10.082521	69.466656
7.850000	-7.735008	12.457143	-2.040115	-41.451958	-2.040115	-41.451958	-8.595432	63.861354
7.900000	-6.890617	10.088625	-2.206304	-47.795834	-2.206304	-47.795834	-7.523122	58.254196
7.950000	-6.236426	7.170580	-2.371243	-53.747132	-2.371243	-53.747132	-6.726937	52.789906
8.000000	-5.730014	3.980645	-2.527138	-59.364562	-2.527138	-59.364562	-6.126643	47.507486
8.050000	-5.339794	0.665893	-2.668493	-64.704431	-2.668493	-64.704431	-5.671662	42.404414
8.100000	-5.042808	-2.695883	-2.791507	-69.819081	-2.791507	-69.819081	-5.328747	37.460684
8.150000	-4.823997	-6.064405	-2.893054	-74.753611	-2.893054	-74.753611	-5.077130	32.651500
8.200000	-4.673149	-9.419762	-2.970621	-79.551937	-2.970621	-79.551937	-4.903226	27.947633
8.250000	-4.576842	-12.757050	-3.025531	-84.265797	-3.025531	-84.265797	-4.790857	23.310500
8.300000	-4.530852	-16.075693	-3.057155	-88.929082	-3.057155	-88.929082	-4.734753	18.713989
8.350000	-4.540116	-19.375306	-3.061684	-93.576919	-3.061684	-93.576919	-4.740155	14.130606
8.400000	-4.599887	-22.660089	-3.041547	-98.249250	-3.041547	-98.249250	-4.801830	9.528852
8.450000	-4.710778	-25.930957	-2.997916	-102.979694	-2.997916	-102.979694	-4.920790	4.882800
8.500000	-4.881974	-29.182258	-2.929609	-107.812717	-2.929609	-107.812717	-5.108101	0.159586
8.550000	-5.124491	-32.398197	-2.836986	-112.798070	-2.836986	-112.798070	-5.377729	-4.674797
8.600000	-5.443808	-35.553359	-2.724312	-117.964769	-2.724312	-117.964769	-5.738339	-9.635209
8.650000	-5.856193	-38.596824	-2.594009	-123.357579	-2.594009	-123.357579	-6.212954	-14.741646
8.700000	-6.401199	-41.379054	-2.447688	-129.080009	-2.447688	-129.080009	-6.858799	-20.030360
8.750000	-7.093761	-43.735586	-2.294481	-135.138782	-2.294481	-135.138782	-7.711916	-25.452692
8.800000	-7.970483	-45.330567	-2.142337	-141.585257	-2.142337	-141.585257	-8.857695	-30.929337
8.850000	-9.079466	-45.398881	-2.003395	-148.509234	-2.003395	-148.509234	-10.467282	-36.209819
8.900000	-10.414940	-42.700301	-1.893844	-155.934207	-1.893844	-155.934207	-12.827684	-40.527180
8.950000	-11.811911	-35.223125	-1.833564	-163.874041	-1.833564	-163.874041	-16.605489	-40.998376
9.000000	-12.698325	-21.515079	-1.844461	-172.299122	-1.844461	-172.299122	-23.367314	-20.274166
9.050000	-12.225947	-5.054742	-1.951503	178.862255	-1.951503	178.862255	-22.214723	60.144041
9.100000	-10.569617	6.565350	-2.173414	169.754505	-2.173414	169.754505	-15.208007	75.289800
9.150000	-8.624233	11.298839	-2.522728	160.564321	-2.522728	160.564321	-11.105221	72.552770
9.200000	-6.890892	11.346613	-2.999601	151.499453	-2.999601	151.499453	-8.401859	66.289621
9.250000	-5.481838	8.802903	-3.593749	142.749567	-3.593749	142.749567	-6.493154	59.026316
9.300000	-4.378072	4.951238	-4.287162	134.467473	-4.287162	134.467473	-5.103376	51.606923
9.350000	-3.523696	0.552095	-5.056468	126.728167	-5.056468	126.728167	-4.070066	44.396148
9.400000	-2.866975	-4.000847	-5.880173	119.569658	-5.880173	119.569658	-3.294380	37.557654
9.450000	-2.362626	-8.488510	-6.738776	112.984047	-6.738776	112.984047	-2.706872	31.154474
9.500000	-1.974409	-12.801900	-7.616519	106.937101	-7.616519	106.937101	-2.258165	25.193537
9.550000	-1.674303	-16.894886	-8.501485	101.380987	-8.501485	101.380987	-1.912621	19.652368
9.600000	-1.441048	-20.756102	-9.385124	96.263304	-9.385124	96.263304	-1.644331	14.494902
9.650000	-1.258675	-24.392416	-10.261586	91.532649	-10.261586	91.532649	-1.434357	9.680601
9.700000	-1.115235	-27.819417	-11.127049	87.141567	-11.127049	87.141567	-1.268785	5.169407
9.750000	-1.001782	-31.056081	-11.979151	83.047775	-11.979151	83.047775	-1.137327	0.924177
9.800000	-0.912070	-34.117615	-12.813854	79.220769	-12.813854	79.220769	-1.032853	-3.082630
9.850000	-0.839896	-37.032656	-13.636520	75.613551	-13.636520	75.613551	-0.948335	-6.893558
9.900000	-0.782131	-39.812204	-14.443374	72.207420	-14.443374	72.207420	-0.880236	-10.525788
9.950000	-0.735810	-42.471545	-15.234292	68.977759	-15.234292	68.977759	-0.825214	-14.001167
10.000000	-0.698647	-45.024198	-16.009245	65.902054	-16.009245	65.902054	-0.780698	-17.338460
