! freq	dB(S11)	phase(S11)	dB(S12)	phase(S12)	
!     	dB(S21)	phase(S21)	dB(S22)	phase(S22)	
!S-par simulation data
#  GHz  S  DB  R 50
0.000000	-0.000000	0.000000	-363.055837	180.000000	-363.055837	180.000000	-0.000000	0.000000
0.050000	-0.002566	-1.164179	-109.844466	88.945040	-109.844466	88.945040	-0.000939	-0.889586
0.100000	-0.006533	-2.352908	-103.865147	87.900049	-103.865147	87.900049	-0.002976	-1.787069
0.150000	-0.009274	-3.553172	-100.413331	86.875457	-100.413331	86.875457	-0.005025	-2.691988
0.200000	-0.011061	-4.755120	-98.012063	85.881173	-98.012063	85.881173	-0.006706	-3.600515
0.250000	-0.012339	-5.956032	-96.204895	84.931155	-96.204895	84.931155	-0.008031	-4.510197
0.300000	-0.013417	-7.155497	-94.779456	84.033522	-94.779456	84.033522	-0.009144	-5.419755
0.350000	-0.014408	-8.353420	-93.630672	83.203524	-93.630672	83.203524	-0.010124	-6.328737
0.400000	-0.015382	-9.549830	-92.694757	82.456868	-92.694757	82.456868	-0.011035	-7.236930
0.450000	-0.016373	-10.744747	-91.931523	81.812137	-91.931523	81.812137	-0.011918	-8.144243
0.500000	-0.017401	-11.938162	-91.314549	81.291838	-91.314549	81.291838	-0.012797	-9.050634
0.550000	-0.018473	-13.130047	-90.826059	80.923799	-90.826059	80.923799	-0.013687	-9.956078
0.600000	-0.019594	-14.320358	-90.454035	80.743078	-90.454035	80.743078	-0.014597	-10.860554
0.650000	-0.020762	-15.509041	-90.190455	80.794557	-90.190455	80.794557	-0.015531	-11.764042
0.700000	-0.021977	-16.696036	-90.030098	81.136547	-90.030098	81.136547	-0.016491	-12.666523
0.750000	-0.023236	-17.881281	-89.969557	81.845761	-89.969557	81.845761	-0.017477	-13.567976
0.800000	-0.024534	-19.064715	-90.006182	83.024089	-90.006182	83.024089	-0.018488	-14.468382
0.850000	-0.025869	-20.246274	-90.136553	84.807463	-90.136553	84.807463	-0.019523	-15.367720
0.900000	-0.027235	-21.425898	-90.353943	87.376240	-90.353943	87.376240	-0.020578	-16.265973
0.950000	-0.028629	-22.603527	-90.643855	90.963893	-90.643855	90.963893	-0.021653	-17.163122
1.000000	-0.030046	-23.779105	-90.976491	95.853885	-90.976491	95.853885	-0.022745	-18.059149
1.050000	-0.031484	-24.952576	-91.295711	102.340977	-91.295711	102.340977	-0.023851	-18.954038
1.100000	-0.032938	-26.123887	-91.508179	110.617333	-91.508179	110.617333	-0.024970	-19.847774
1.150000	-0.034406	-27.292989	-91.486694	120.558671	-91.486694	120.558671	-0.026099	-20.740341
1.200000	-0.035883	-28.459831	-91.109711	131.503769	-91.109711	131.503769	-0.027236	-21.631725
1.250000	-0.037368	-29.624368	-90.331526	142.321357	-90.331526	142.321357	-0.028381	-22.521911
1.300000	-0.038858	-30.786449	-89.200092	151.841509	-89.200092	151.841509	-0.029530	-23.410833
1.350000	-0.040351	-31.946133	-87.866720	159.577699	-87.866720	159.577699	-0.030683	-24.298530
1.400000	-0.041845	-33.103377	-86.450520	165.540607	-86.450520	165.540607	-0.031838	-25.184988
1.450000	-0.043338	-34.258141	-85.030438	169.981564	-85.030438	169.981564	-0.032995	-26.070193
1.500000	-0.044829	-35.410386	-83.649614	173.203500	-83.649614	173.203500	-0.034152	-26.954133
1.550000	-0.046317	-36.560075	-82.327884	175.477341	-82.327884	175.477341	-0.035309	-27.836794
1.600000	-0.047801	-37.707170	-81.072007	177.019838	-81.072007	177.019838	-0.036466	-28.718162
1.650000	-0.049280	-38.851637	-79.882052	177.996543	-79.882052	177.996543	-0.037621	-29.598223
1.700000	-0.050755	-39.993441	-78.754956	178.531818	-78.754956	178.531818	-0.038775	-30.476965
1.750000	-0.052224	-41.132548	-77.686385	178.718913	-77.686385	178.718913	-0.039928	-31.354372
1.800000	-0.053688	-42.268926	-76.671677	178.628148	-76.671677	178.628148	-0.041079	-32.230431
1.850000	-0.055146	-43.402543	-75.706288	178.313049	-75.706288	178.313049	-0.042228	-33.105127
1.900000	-0.056599	-44.533370	-74.785990	177.814806	-74.785990	177.814806	-0.043375	-33.978446
1.950000	-0.058047	-45.661376	-73.906942	177.165489	-73.906942	177.165489	-0.044522	-34.850372
2.000000	-0.059490	-46.786532	-73.065695	176.390347	-73.065695	176.390347	-0.045667	-35.720892
2.050000	-0.060929	-47.908812	-72.259167	175.509483	-72.259167	175.509483	-0.046812	-36.589991
2.100000	-0.062364	-49.028189	-71.484615	174.539071	-71.484615	174.539071	-0.047956	-37.457653
2.150000	-0.063796	-50.144637	-70.739597	173.492250	-70.739597	173.492250	-0.049100	-38.323864
2.200000	-0.065225	-51.258132	-70.021933	172.379797	-70.021933	172.379797	-0.050244	-39.188610
2.250000	-0.066652	-52.368650	-69.329674	171.210624	-69.329674	171.210624	-0.051389	-40.051874
2.300000	-0.068078	-53.476170	-68.661076	169.992163	-68.661076	169.992163	-0.052535	-40.913644
2.350000	-0.069502	-54.580670	-68.014569	168.730656	-68.014569	168.730656	-0.053682	-41.773904
2.400000	-0.070927	-55.682130	-67.388739	167.431385	-67.388739	167.431385	-0.054832	-42.632640
2.450000	-0.072353	-56.780532	-66.782309	166.098845	-66.782309	166.098845	-0.055985	-43.489837
2.500000	-0.073780	-57.875857	-66.194120	164.736889	-66.194120	164.736889	-0.057141	-44.345483
2.550000	-0.075210	-58.967956	-65.622237	163.347834	-65.622237	163.347834	-0.058300	-45.199494
2.600000	-0.076643	-60.056945	-65.066678	161.935779	-65.066678	161.935779	-0.059464	-46.051925
2.650000	-0.078080	-61.142813	-64.526554	160.503180	-64.526554	160.503180	-0.060633	-46.902763
2.700000	-0.079521	-62.225546	-64.001048	159.052192	-64.001048	159.052192	-0.061807	-47.751995
2.750000	-0.080968	-63.305133	-63.489412	157.584707	-63.489412	157.584707	-0.062987	-48.599608
2.800000	-0.082422	-64.381565	-62.990955	156.102397	-62.990955	156.102397	-0.064173	-49.445592
2.850000	-0.083882	-65.454833	-62.505042	154.606744	-62.505042	154.606744	-0.065367	-50.289935
2.900000	-0.085351	-66.524929	-62.031083	153.099067	-62.031083	153.099067	-0.066567	-51.132624
2.950000	-0.086827	-67.591849	-61.568531	151.580541	-61.568531	151.580541	-0.067776	-51.973651
3.000000	-0.088314	-68.655588	-61.116880	150.052219	-61.116880	150.052219	-0.068993	-52.813004
3.050000	-0.089810	-69.716142	-60.675657	148.515046	-60.675657	148.515046	-0.070220	-53.650673
3.100000	-0.091317	-70.773510	-60.244423	146.969872	-60.244423	146.969872	-0.071456	-54.486651
3.150000	-0.092836	-71.827691	-59.822765	145.417466	-59.822765	145.417466	-0.072702	-55.320927
3.200000	-0.094367	-72.878686	-59.410298	143.858523	-59.410298	143.858523	-0.073958	-56.153494
3.250000	-0.095910	-73.926497	-59.006663	142.293672	-59.006663	142.293672	-0.075226	-56.984344
3.300000	-0.097467	-74.971128	-58.611519	140.723486	-58.611519	140.723486	-0.076505	-57.813470
3.350000	-0.099039	-76.012583	-58.224550	139.148487	-58.224550	139.148487	-0.077796	-58.640865
3.400000	-0.100625	-77.050868	-57.845454	137.569151	-57.845454	137.569151	-0.079100	-59.466522
3.450000	-0.102227	-78.085990	-57.473950	135.985915	-57.473950	135.985915	-0.080416	-60.290437
3.500000	-0.103845	-79.117959	-57.109771	134.399177	-57.109771	134.399177	-0.081747	-61.112605
3.550000	-0.105480	-80.146783	-56.752664	132.809303	-56.752664	132.809303	-0.083091	-61.933020
3.600000	-0.107132	-81.172474	-56.402392	131.216631	-56.402392	131.216631	-0.084449	-62.751679
3.650000	-0.108803	-82.195045	-56.058728	129.621471	-56.058728	129.621471	-0.085822	-63.568578
3.700000	-0.110491	-83.214508	-55.721458	128.024109	-55.721458	128.024109	-0.087211	-64.383715
3.750000	-0.112199	-84.230878	-55.390379	126.424809	-55.390379	126.424809	-0.088616	-65.197088
3.800000	-0.113928	-85.244039	-55.065031	124.823753	-55.065031	124.823753	-0.090037	-66.008617
3.850000	-0.115676	-86.254141	-54.745518	123.221250	-54.745518	123.221250	-0.091475	-66.818378
3.900000	-0.117446	-87.261203	-54.431664	121.617506	-54.431664	121.617506	-0.092931	-67.626371
3.950000	-0.119237	-88.265245	-54.123301	120.012717	-54.123301	120.012717	-0.094404	-68.432596
4.000000	-0.121050	-89.266286	-53.820269	118.407060	-53.820269	118.407060	-0.095895	-69.237054
4.050000	-0.122885	-90.264349	-53.522414	116.800705	-53.522414	116.800705	-0.097404	-70.039745
4.100000	-0.124743	-91.259456	-53.229590	115.193807	-53.229590	115.193807	-0.098933	-70.840671
4.150000	-0.126624	-92.251630	-52.941659	113.586512	-52.941659	113.586512	-0.100480	-71.639834
4.200000	-0.128530	-93.240897	-52.658487	111.978957	-52.658487	111.978957	-0.102048	-72.437237
4.250000	-0.130459	-94.227282	-52.379945	110.371268	-52.379945	110.371268	-0.103636	-73.232884
4.300000	-0.132414	-95.210811	-52.105911	108.763566	-52.105911	108.763566	-0.105245	-74.026778
4.350000	-0.134393	-96.191513	-51.836269	107.155962	-51.836269	107.155962	-0.106874	-74.818924
4.400000	-0.136399	-97.169416	-51.570905	105.548561	-51.570905	105.548561	-0.108526	-75.609326
4.450000	-0.138430	-98.144548	-51.309711	103.941463	-51.309711	103.941463	-0.110199	-76.397989
4.500000	-0.140488	-99.116941	-51.052584	102.334760	-51.052584	102.334760	-0.111894	-77.184921
4.550000	-0.142574	-100.086626	-50.799425	100.728539	-50.799425	100.728539	-0.113613	-77.970126
4.600000	-0.144686	-101.053635	-50.550136	99.122883	-50.550136	99.122883	-0.115354	-78.753612
4.650000	-0.146827	-102.018000	-50.304627	97.517869	-50.304627	97.517869	-0.117120	-79.535387
4.700000	-0.148996	-102.979755	-50.062808	95.913571	-50.062808	95.913571	-0.118909	-80.315458
4.750000	-0.151193	-103.938935	-49.824593	94.310057	-49.824593	94.310057	-0.120723	-81.093834
4.800000	-0.153420	-104.895576	-49.589901	92.707392	-49.589901	92.707392	-0.122562	-81.870523
4.850000	-0.155676	-105.849712	-49.358651	91.105640	-49.358651	91.105640	-0.124427	-82.645536
4.900000	-0.157962	-106.801381	-49.130768	89.504857	-49.130768	89.504857	-0.126317	-83.418881
4.950000	-0.160278	-107.750621	-48.906177	87.905099	-48.906177	87.905099	-0.128233	-84.190569
5.000000	-0.162625	-108.697469	-48.684806	86.306420	-48.684806	86.306420	-0.130176	-84.960612
5.050000	-0.165004	-109.641864	-48.466486	84.708918	-48.466486	84.708918	-0.132147	-85.728949
5.100000	-0.167415	-110.583950	-48.251259	83.112596	-48.251259	83.112596	-0.134146	-86.495663
5.150000	-0.169858	-111.523766	-48.039059	81.517496	-48.039059	81.517496	-0.136173	-87.260768
5.200000	-0.172332	-112.461354	-47.829824	79.923661	-47.829824	79.923661	-0.138229	-88.024276
5.250000	-0.174839	-113.396756	-47.623492	78.331131	-47.623492	78.331131	-0.140313	-88.786200
5.300000	-0.177379	-114.330013	-47.420006	76.739944	-47.420006	76.739944	-0.142426	-89.546552
5.350000	-0.179952	-115.261168	-47.219307	75.150136	-47.219307	75.150136	-0.144569	-90.305349
5.400000	-0.182558	-116.190264	-47.021342	73.561741	-47.021342	73.561741	-0.146742	-91.062602
5.450000	-0.185199	-117.117346	-46.826055	71.974791	-46.826055	71.974791	-0.148946	-91.818328
5.500000	-0.187873	-118.042457	-46.633395	70.389318	-46.633395	70.389318	-0.151181	-92.572541
5.550000	-0.190582	-118.965642	-46.443312	68.805351	-46.443312	68.805351	-0.153447	-93.325257
5.600000	-0.193326	-119.886948	-46.255756	67.222916	-46.255756	67.222916	-0.155745	-94.076492
5.650000	-0.196105	-120.806419	-46.070681	65.642042	-46.070681	65.642042	-0.158075	-94.826263
5.700000	-0.198919	-121.724102	-45.888040	64.062751	-45.888040	64.062751	-0.160438	-95.574585
5.750000	-0.201769	-122.640044	-45.707788	62.485068	-45.707788	62.485068	-0.162835	-96.321477
5.800000	-0.204655	-123.554292	-45.529881	60.909015	-45.529881	60.909015	-0.165264	-97.066954
5.850000	-0.207583	-124.466623	-45.354065	59.334905	-45.354065	59.334905	-0.167734	-97.810799
5.900000	-0.210550	-125.377288	-45.180467	57.762538	-45.180467	57.762538	-0.170239	-98.553208
5.950000	-0.213536	-126.287165	-45.009671	56.191059	-45.009671	56.191059	-0.172763	-99.294915
6.000000	-0.216580	-127.194676	-44.840401	54.622244	-44.840401	54.622244	-0.175342	-100.034518
6.050000	-0.219638	-128.101698	-44.674000	53.054032	-44.674000	53.054032	-0.177934	-100.773667
6.100000	-0.222760	-129.006272	-44.508922	51.488836	-44.508922	51.488836	-0.180587	-101.510549
6.150000	-0.225890	-129.910620	-44.346754	49.923946	-44.346754	49.923946	-0.183248	-102.247212
6.200000	-0.229092	-130.812476	-44.185736	48.362427	-44.185736	48.362427	-0.185979	-102.981461
6.250000	-0.232295	-131.714333	-44.027649	46.800907	-44.027649	46.800907	-0.188711	-103.715711
6.300000	-0.235577	-132.613696	-43.870568	45.243113	-43.870568	45.243113	-0.191520	-104.447417
6.350000	-0.238860	-133.513058	-43.716276	43.685319	-43.716276	43.685319	-0.194331	-105.179124
6.400000	-0.242218	-134.410343	-43.563152	42.130974	-43.563152	42.130974	-0.197214	-105.908587
6.450000	-0.245583	-135.307438	-43.412544	40.576942	-43.412544	40.576942	-0.200105	-106.637845
6.500000	-0.249016	-136.202835	-43.263240	39.026070	-43.263240	39.026070	-0.203065	-107.365144
6.550000	-0.252464	-137.097893	-43.116210	37.475830	-43.116210	37.475830	-0.206038	-108.092051
6.600000	-0.255974	-137.991597	-42.970593	35.928449	-42.970593	35.928449	-0.209074	-108.817268
6.650000	-0.259505	-138.884850	-42.827039	34.382019	-42.827039	34.382019	-0.212132	-109.541923
6.700000	-0.263079	-139.777298	-42.685187	32.837500	-42.685187	32.837500	-0.215233	-110.265494
6.750000	-0.266699	-140.668891	-42.544933	31.295131	-42.544933	31.295131	-0.218382	-110.987867
6.800000	-0.270361	-141.559824	-42.406362	29.754593	-42.406362	29.754593	-0.221572	-111.709251
6.850000	-0.274063	-142.450151	-42.269447	28.215886	-42.269447	28.215886	-0.224806	-112.429669
6.900000	-0.277806	-143.339927	-42.134163	26.679009	-42.134163	26.679009	-0.228081	-113.149147
6.950000	-0.281591	-144.229209	-42.000488	25.143957	-42.000488	25.143957	-0.231400	-113.867709
7.000000	-0.285417	-145.118052	-41.868397	23.610728	-41.868397	23.610728	-0.234763	-114.585381
7.050000	-0.289284	-146.006513	-41.737867	22.079317	-41.737867	22.079317	-0.238169	-115.302188
7.100000	-0.293193	-146.894646	-41.608877	20.549718	-41.608877	20.549718	-0.241620	-116.018156
7.150000	-0.297144	-147.782510	-41.481405	19.021925	-41.481405	19.021925	-0.245115	-116.733312
7.200000	-0.301136	-148.670160	-41.355430	17.495931	-41.355430	17.495931	-0.248655	-117.447681
7.250000	-0.305170	-149.557654	-41.230931	15.971726	-41.230931	15.971726	-0.252240	-118.161291
7.300000	-0.309246	-150.445049	-41.107888	14.449303	-41.107888	14.449303	-0.255871	-118.874168
7.350000	-0.313364	-151.332403	-40.986282	12.928651	-40.986282	12.928651	-0.259548	-119.586341
7.400000	-0.317525	-152.219773	-40.866094	11.409758	-40.866094	11.409758	-0.263271	-120.297835
7.450000	-0.321727	-153.107218	-40.747305	9.892615	-40.747305	9.892615	-0.267041	-121.008680
7.500000	-0.325971	-153.994796	-40.629899	8.377208	-40.629899	8.377208	-0.270859	-121.718904
7.550000	-0.330260	-154.882575	-40.513848	6.863598	-40.513848	6.863598	-0.274725	-122.428510
7.600000	-0.334590	-155.770611	-40.399148	5.351696	-40.399148	5.351696	-0.278639	-123.137554
7.650000	-0.338963	-156.658960	-40.285780	3.841487	-40.285780	3.841487	-0.282602	-123.846066
7.700000	-0.343378	-157.547683	-40.173729	2.332956	-40.173729	2.332956	-0.286612	-124.554074
7.750000	-0.347834	-158.436839	-40.062981	0.826086	-40.062981	0.826086	-0.290672	-125.261608
7.800000	-0.352333	-159.326487	-39.953519	-0.679139	-39.953519	-0.679139	-0.294780	-125.968698
7.850000	-0.356874	-160.216687	-39.845331	-2.182736	-39.845331	-2.182736	-0.298938	-126.675375
7.900000	-0.361456	-161.107500	-39.738401	-3.684723	-39.738401	-3.684723	-0.303145	-127.381668
7.950000	-0.366080	-161.998985	-39.632717	-5.185119	-39.632717	-5.185119	-0.307401	-128.087609
8.000000	-0.370746	-162.891203	-39.528265	-6.683942	-39.528265	-6.683942	-0.311708	-128.793228
8.050000	-0.375453	-163.784214	-39.425034	-8.181211	-39.425034	-8.181211	-0.316066	-129.498557
8.100000	-0.380202	-164.678080	-39.323011	-9.676946	-39.323011	-9.676946	-0.320473	-130.203627
8.150000	-0.384991	-165.572860	-39.222185	-11.171167	-39.222185	-11.171167	-0.324932	-130.908471
8.200000	-0.389821	-166.468617	-39.122545	-12.663895	-39.122545	-12.663895	-0.329441	-131.613120
8.250000	-0.394692	-167.365411	-39.024081	-14.155149	-39.024081	-14.155149	-0.334002	-132.317607
8.300000	-0.399604	-168.263304	-38.926783	-15.644950	-38.926783	-15.644950	-0.338614	-133.021964
8.350000	-0.404555	-169.162358	-38.830641	-17.133319	-38.830641	-17.133319	-0.343278	-133.726226
8.400000	-0.409547	-170.062634	-38.735645	-18.620278	-38.735645	-18.620278	-0.347993	-134.430424
8.450000	-0.414578	-170.964194	-38.641788	-20.105846	-38.641788	-20.105846	-0.352760	-135.134594
8.500000	-0.419648	-171.867099	-38.549062	-21.590044	-38.549062	-21.590044	-0.357580	-135.838768
8.550000	-0.424757	-172.771414	-38.457458	-23.072894	-38.457458	-23.072894	-0.362451	-136.542981
8.600000	-0.429904	-173.677198	-38.366969	-24.554416	-38.366969	-24.554416	-0.367375	-137.247268
8.650000	-0.435089	-174.584516	-38.277589	-26.034630	-38.277589	-26.034630	-0.372352	-137.951664
8.700000	-0.440312	-175.493429	-38.189312	-27.513557	-38.189312	-27.513557	-0.377381	-138.656204
8.750000	-0.445572	-176.403999	-38.102131	-28.991215	-38.102131	-28.991215	-0.382462	-139.360924
8.800000	-0.450870	-177.316368	-38.016052	-30.467571	-38.016052	-30.467571	-0.387599	-140.065870
8.850000	-0.456203	-178.230526	-37.931060	-31.942698	-37.931060	-31.942698	-0.392788	-140.771071
8.900000	-0.461573	-179.146536	-37.847151	-33.416615	-37.847151	-33.416615	-0.398030	-141.476563
8.950000	-0.466977	179.935540	-37.764322	-34.889339	-37.764322	-34.889339	-0.403324	-142.182385
9.000000	-0.472415	179.015638	-37.682568	-36.360886	-37.682568	-36.360886	-0.408672	-142.888572
9.050000	-0.477886	178.093695	-37.601886	-37.831273	-37.601886	-37.831273	-0.414072	-143.595163
9.100000	-0.483391	177.169650	-37.522273	-39.300513	-37.522273	-39.300513	-0.419524	-144.302195
9.150000	-0.488927	176.243438	-37.443727	-40.768621	-37.443727	-40.768621	-0.425030	-145.009708
9.200000	-0.494495	175.314996	-37.366246	-42.235610	-37.366246	-42.235610	-0.430588	-145.717739
9.250000	-0.500093	174.384263	-37.289828	-43.701491	-37.289828	-43.701491	-0.436198	-146.426328
9.300000	-0.505721	173.451175	-37.214472	-45.166274	-37.214472	-45.166274	-0.441861	-147.135514
9.350000	-0.511377	172.515669	-37.140178	-46.629969	-37.140178	-46.629969	-0.447575	-147.845337
9.400000	-0.517061	171.577682	-37.066944	-48.092583	-37.066944	-48.092583	-0.453342	-148.555838
9.450000	-0.522772	170.637153	-36.994771	-49.554122	-36.994771	-49.554122	-0.459160	-149.267057
9.500000	-0.528509	169.694018	-36.923658	-51.014592	-36.923658	-51.014592	-0.465030	-149.979034
9.550000	-0.534270	168.748215	-36.853607	-52.473994	-36.853607	-52.473994	-0.470951	-150.691812
9.600000	-0.540055	167.799683	-36.784619	-53.932330	-36.784619	-53.932330	-0.476924	-151.405432
9.650000	-0.545862	166.848358	-36.716694	-55.389599	-36.716694	-55.389599	-0.482947	-152.119936
9.700000	-0.551691	165.894179	-36.649835	-56.845800	-36.649835	-56.845800	-0.489020	-152.835367
9.750000	-0.557539	164.937085	-36.584043	-58.300926	-36.584043	-58.300926	-0.495143	-153.551769
9.800000	-0.563406	163.977014	-36.519320	-59.754973	-36.519320	-59.754973	-0.501316	-154.269183
9.850000	-0.569290	163.013906	-36.455669	-61.207930	-36.455669	-61.207930	-0.507538	-154.987655
9.900000	-0.575191	162.047699	-36.393093	-62.659788	-36.393093	-62.659788	-0.513809	-155.707229
9.950000	-0.581105	161.078333	-36.331594	-64.110533	-36.331594	-64.110533	-0.520127	-156.427949
10.000000	-0.587033	160.105749	-36.271175	-65.560149	-36.271175	-65.560149	-0.526494	-157.149861
