! freq	dB(S11)	phase(S11)	dB(S12)	phase(S12)	
!     	dB(S21)	phase(S21)	dB(S22)	phase(S22)	
!S-par simulation data
#  GHz  S  DB  R 50
0.000000	-83.134731	0.000000	-0.000606	0.000000	-0.000606	0.000000	-83.134732	0.000000
0.050000	-54.868694	-88.794003	-0.002498	-2.412985	-0.002498	-2.412985	-54.819871	-81.721020
0.100000	-48.542381	-92.708463	-0.007016	-4.817191	-0.007016	-4.817191	-48.284396	-86.478787
0.150000	-44.803895	-97.155744	-0.012187	-7.211069	-0.012187	-7.211069	-44.643427	-89.679695
0.200000	-42.221673	-101.804466	-0.016854	-9.597028	-0.016854	-9.597028	-42.135190	-92.041770
0.250000	-40.285124	-106.323986	-0.020836	-11.979026	-0.020836	-11.979026	-40.228111	-94.020504
0.300000	-38.753093	-110.636688	-0.024190	-14.358961	-0.024190	-14.358961	-38.700749	-95.754260
0.350000	-37.492327	-114.774879	-0.027091	-16.738073	-0.027091	-16.738073	-37.436047	-97.322685
0.400000	-36.422856	-118.799849	-0.029713	-19.116966	-0.029713	-19.116966	-36.362266	-98.773871
0.450000	-35.502765	-122.746027	-0.032139	-21.495913	-0.032139	-21.495913	-35.441272	-100.110392
0.500000	-34.697505	-126.661408	-0.034475	-23.875025	-0.034475	-23.875025	-34.639365	-101.355043
0.550000	-33.985803	-130.572693	-0.036777	-26.254328	-0.036777	-26.254328	-33.934945	-102.513922
0.600000	-33.353397	-134.500987	-0.039079	-28.633827	-0.039079	-28.633827	-33.313189	-103.586921
0.650000	-32.787126	-138.459793	-0.041402	-31.013503	-0.041402	-31.013503	-32.759848	-104.580696
0.700000	-32.278518	-142.461478	-0.043760	-33.393356	-0.043760	-33.393356	-32.265778	-105.494370
0.750000	-31.821855	-146.519322	-0.046161	-35.773402	-0.046161	-35.773402	-31.824805	-106.322512
0.800000	-31.408636	-150.635722	-0.048605	-38.153633	-0.048605	-38.153633	-31.427682	-107.073339
0.850000	-31.037925	-154.831266	-0.051098	-40.534113	-0.051098	-40.534113	-31.073471	-107.730039
0.900000	-30.701230	-159.099680	-0.053630	-42.914831	-0.053630	-42.914831	-30.753204	-108.306656
0.950000	-30.398474	-163.463661	-0.056207	-45.295883	-0.056207	-45.295883	-30.467003	-108.784188
1.000000	-30.123516	-167.918792	-0.058821	-47.677278	-0.058821	-47.677278	-30.208669	-109.171216
1.050000	-29.874614	-172.480545	-0.061469	-50.059109	-0.061469	-50.059109	-29.976787	-109.455499
1.100000	-29.648332	-177.154448	-0.064149	-52.441438	-0.064149	-52.441438	-29.768234	-109.633655
1.150000	-29.441076	178.056749	-0.066858	-54.824318	-0.066858	-54.824318	-29.579770	-109.703945
1.200000	-29.251000	173.134503	-0.069595	-57.207892	-0.069595	-57.207892	-29.410271	-109.648707
1.250000	-29.073392	168.092937	-0.072355	-59.592136	-0.072355	-59.592136	-29.255121	-109.480044
1.300000	-28.906414	162.906275	-0.075143	-61.977257	-0.075143	-61.977257	-29.113515	-109.170834
1.350000	-28.746033	157.580448	-0.077958	-64.363298	-0.077958	-64.363298	-28.981704	-108.722813
1.400000	-28.588737	152.114619	-0.080801	-66.750352	-0.080801	-66.750352	-28.856545	-108.130027
1.450000	-28.430910	146.510571	-0.083675	-69.138508	-0.083675	-69.138508	-28.734616	-107.387881
1.500000	-28.268886	140.773200	-0.086585	-71.527860	-0.086585	-71.527860	-28.612199	-106.493877
1.550000	-28.099034	134.910929	-0.089536	-73.918497	-0.089536	-73.918497	-28.485297	-105.448461
1.600000	-27.917863	128.935988	-0.092535	-76.310504	-0.092535	-76.310504	-28.349696	-104.255917
1.650000	-27.722157	122.864491	-0.095590	-78.703963	-0.095590	-78.703963	-28.201072	-102.925220
1.700000	-27.508276	116.714561	-0.098710	-81.099005	-0.098710	-81.099005	-28.034331	-101.467405
1.750000	-27.275454	110.513327	-0.101903	-83.495605	-0.101903	-83.495605	-27.846876	-99.909827
1.800000	-27.021477	104.283957	-0.105181	-85.893871	-0.105181	-85.893871	-27.634653	-98.274674
1.850000	-26.745528	98.053146	-0.108555	-88.293861	-0.108555	-88.293861	-27.394969	-96.592621
1.900000	-26.447223	91.848311	-0.112039	-90.695643	-0.112039	-90.695643	-27.125692	-94.898261
1.950000	-26.127278	85.696051	-0.115645	-93.099259	-0.115645	-93.099259	-26.826197	-93.229012
2.000000	-25.787481	79.619540	-0.119387	-95.504718	-0.119387	-95.504718	-26.497558	-91.620868
2.050000	-25.429824	73.639168	-0.123278	-97.912040	-0.123278	-97.912040	-26.141562	-90.107255
2.100000	-25.056711	67.771719	-0.127330	-100.321235	-0.127330	-100.321235	-25.760946	-88.717433
2.150000	-24.670798	62.030142	-0.131559	-102.732301	-0.131559	-102.732301	-25.359159	-87.475270
2.200000	-24.274855	56.423582	-0.135977	-105.145226	-0.135977	-105.145226	-24.940100	-86.398608
2.250000	-23.871639	50.957641	-0.140598	-107.559986	-0.140598	-107.559986	-24.507859	-85.499193
2.300000	-23.463802	45.634777	-0.145434	-109.976548	-0.145434	-109.976548	-24.066494	-84.783082
2.350000	-23.053813	40.454793	-0.150496	-112.394867	-0.150496	-112.394867	-23.619850	-84.251359
2.400000	-22.643922	35.415345	-0.155796	-114.814888	-0.155796	-114.814888	-23.171446	-83.901023
2.450000	-22.236128	30.512432	-0.161344	-117.236547	-0.161344	-117.236547	-22.724397	-83.725912
2.500000	-21.832183	25.740838	-0.167147	-119.659768	-0.167147	-119.659768	-22.281388	-83.717587
2.550000	-21.433344	21.097093	-0.173219	-122.084500	-0.173219	-122.084500	-21.844386	-83.869253
2.600000	-21.041207	16.571757	-0.179560	-124.510618	-0.179560	-124.510618	-21.415637	-84.166423
2.650000	-20.656829	12.158010	-0.186173	-126.938023	-0.186173	-126.938023	-20.996609	-84.597922
2.700000	-20.281078	7.848981	-0.193059	-129.366612	-0.193059	-129.366612	-20.588444	-85.152624
2.750000	-19.914659	3.637889	-0.200220	-131.796276	-0.200220	-131.796276	-20.192004	-85.819721
2.800000	-19.558136	-0.481864	-0.207651	-134.226904	-0.207651	-134.226904	-19.807916	-86.588899
2.850000	-19.211952	-4.516618	-0.215350	-136.658381	-0.215350	-136.658381	-19.436609	-87.450463
2.900000	-18.876447	-8.472418	-0.223308	-139.090592	-0.223308	-139.090592	-19.078354	-88.395391
2.950000	-18.551878	-12.354990	-0.231518	-141.523424	-0.231518	-141.523424	-18.733292	-89.415366
3.000000	-18.238432	-16.169734	-0.239967	-143.956763	-0.239967	-143.956763	-18.401462	-90.502771
3.050000	-17.936239	-19.921726	-0.248641	-146.390501	-0.248641	-146.390501	-18.082827	-91.650671
3.100000	-17.645384	-23.615728	-0.257525	-148.824534	-0.257525	-148.824534	-17.777291	-92.852777
3.150000	-17.365943	-27.255669	-0.266602	-151.258765	-0.266602	-151.258765	-17.484751	-94.103873
3.200000	-17.097963	-30.845864	-0.275850	-153.693102	-0.275850	-153.693102	-17.205062	-95.398678
3.250000	-16.841416	-34.390802	-0.285245	-156.127465	-0.285245	-156.127465	-16.938005	-96.732084
3.300000	-16.596283	-37.894151	-0.294760	-158.561784	-0.294760	-158.561784	-16.683383	-98.099967
3.350000	-16.362534	-41.359365	-0.304370	-160.996006	-0.304370	-160.996006	-16.440999	-99.498613
3.400000	-16.140136	-44.789702	-0.314044	-163.430089	-0.314044	-163.430089	-16.210658	-100.924674
3.450000	-15.929052	-48.188249	-0.323753	-165.864006	-0.323753	-165.864006	-15.992177	-102.375123
3.500000	-15.729246	-51.557940	-0.333464	-168.297748	-0.333464	-168.297748	-15.785387	-103.847215
3.550000	-15.540687	-54.901573	-0.343143	-170.731323	-0.343143	-170.731323	-15.590133	-105.338449
3.600000	-15.363349	-58.221833	-0.352756	-173.164759	-0.352756	-173.164759	-15.406280	-106.846534
3.650000	-15.197217	-61.521307	-0.362267	-175.598102	-0.362267	-175.598102	-15.233711	-108.369350
3.700000	-15.042284	-64.802505	-0.371639	-178.031419	-0.371639	-178.031419	-15.072333	-109.904927
3.750000	-14.898557	-68.067871	-0.380837	179.535201	-0.380837	179.535201	-14.922075	-111.451409
3.800000	-14.766260	-71.319569	-0.389816	177.101639	-0.389816	177.101639	-14.783084	-113.007186
3.850000	-14.645243	-74.560315	-0.398545	174.667762	-0.398545	174.667762	-14.655155	-114.570320
3.900000	-14.535557	-77.792469	-0.406986	172.233410	-0.406986	172.233410	-14.538289	-116.139148
3.950000	-14.437275	-81.018397	-0.415104	169.798403	-0.415104	169.798403	-14.432513	-117.712018
4.000000	-14.350490	-84.240489	-0.422862	167.362534	-0.422862	167.362534	-14.337877	-119.287268
4.050000	-14.275318	-87.461179	-0.430228	164.925574	-0.430228	164.925574	-14.254460	-120.863203
4.100000	-14.211898	-90.682960	-0.437169	162.487270	-0.437169	162.487270	-14.182368	-122.438068
4.150000	-14.160396	-93.908412	-0.443655	160.047344	-0.443655	160.047344	-14.121734	-124.010030
4.200000	-14.121010	-97.140218	-0.449656	157.605497	-0.449656	157.605497	-14.072719	-125.577142
4.250000	-14.093964	-100.381193	-0.455146	155.161406	-0.455146	155.161406	-14.035514	-127.137326
4.300000	-14.079518	-103.634314	-0.460102	152.714727	-0.460102	152.714727	-14.010340	-128.688334
4.350000	-14.077969	-106.902750	-0.464504	150.265093	-0.464504	150.265093	-13.997450	-130.227716
4.400000	-14.089799	-110.190145	-0.468328	147.812076	-0.468328	147.812076	-13.997269	-131.752596
4.450000	-14.115397	-113.500310	-0.471560	145.355255	-0.471560	145.355255	-14.010124	-133.259888
4.500000	-14.155044	-116.837065	-0.474196	142.894241	-0.474196	142.894241	-14.036233	-134.746416
4.550000	-14.209211	-120.204826	-0.476233	140.428590	-0.476233	140.428590	-14.075983	-136.208448
4.600000	-14.278426	-123.608470	-0.477668	137.957844	-0.477668	137.957844	-14.129798	-137.641787
4.650000	-14.363271	-127.053427	-0.478508	135.481529	-0.478508	135.481529	-14.198138	-139.041684
4.700000	-14.464392	-130.545777	-0.478760	132.999162	-0.478760	132.999162	-14.281502	-140.402745
4.750000	-14.582499	-134.092385	-0.478439	130.510246	-0.478439	130.510246	-14.380421	-141.718815
4.800000	-14.718018	-137.699487	-0.477578	128.014446	-0.477578	128.014446	-14.495136	-142.984165
4.850000	-14.872587	-141.379339	-0.476176	125.510888	-0.476176	125.510888	-14.626968	-144.187864
4.900000	-15.046693	-145.140541	-0.474281	122.999254	-0.474281	122.999254	-14.776128	-145.321946
4.950000	-15.241324	-148.995037	-0.471933	120.479031	-0.471933	120.479031	-14.943233	-146.375533
5.000000	-15.457528	-152.956774	-0.469175	117.949712	-0.469175	117.949712	-15.128887	-147.335975
5.050000	-15.696575	-157.043707	-0.466058	115.410683	-0.466058	115.410683	-15.333807	-148.187163
5.100000	-15.959387	-161.274178	-0.462646	112.861550	-0.462646	112.861550	-15.558297	-148.912786
5.150000	-16.247029	-165.671385	-0.459004	110.301833	-0.459004	110.301833	-15.802674	-149.492595
5.200000	-16.560456	-170.263052	-0.455206	107.731069	-0.455206	107.731069	-16.067009	-149.902921
5.250000	-16.900387	-175.082424	-0.451333	105.148816	-0.451333	105.148816	-16.351005	-150.116164
5.300000	-17.267110	179.830587	-0.447473	102.554660	-0.447473	102.554660	-16.653807	-150.100312
5.350000	-17.660240	174.425090	-0.443722	99.948110	-0.443722	99.948110	-16.973773	-149.816068
5.400000	-18.078036	168.644814	-0.440182	97.328878	-0.440182	97.328878	-17.307987	-149.222608
5.450000	-18.516977	162.423385	-0.436963	94.696686	-0.436963	94.696686	-17.651989	-148.274741
5.500000	-18.970792	155.684084	-0.434180	92.051268	-0.434180	92.051268	-17.999195	-146.924138
5.550000	-19.429192	148.343641	-0.431953	89.392406	-0.431953	89.392406	-18.340270	-145.123608
5.600000	-19.876396	140.319776	-0.430409	86.719936	-0.430409	86.719936	-18.662581	-142.833234
5.650000	-20.289315	131.541746	-0.429686	84.033680	-0.429686	84.033680	-18.949583	-140.026892
5.700000	-20.637467	121.983753	-0.429923	81.333597	-0.429923	81.333597	-19.181576	-136.710848
5.750000	-20.885560	111.698179	-0.431255	78.619790	-0.431255	78.619790	-19.337676	-132.936944
5.800000	-20.997971	100.833778	-0.433825	75.892360	-0.433825	75.892360	-19.397864	-128.805344
5.850000	-20.947684	89.643404	-0.437781	73.151485	-0.437781	73.151485	-19.346938	-124.465777
5.900000	-20.724872	78.447735	-0.443266	70.397420	-0.443266	70.397420	-19.178006	-120.101744
5.950000	-20.340045	67.567930	-0.450435	67.630470	-0.450435	67.630470	-18.893957	-115.903886
6.000000	-19.820515	57.259050	-0.459442	64.850994	-0.459442	64.850994	-18.506807	-112.041697
6.050000	-19.203864	47.659959	-0.470418	62.059607	-0.470418	62.059607	-18.036462	-108.632768
6.100000	-18.525682	38.813311	-0.483502	59.256902	-0.483502	59.256902	-17.504230	-105.743809
6.150000	-17.815851	30.691577	-0.498828	56.443557	-0.498828	56.443557	-16.930597	-103.395154
6.200000	-17.096895	23.228308	-0.516523	53.620330	-0.516523	53.620330	-16.333276	-101.572853
6.250000	-16.384496	16.341966	-0.536708	50.788062	-0.536708	50.788062	-15.726444	-100.241593
6.300000	-15.688557	9.955021	-0.559521	47.947591	-0.559521	47.947591	-15.120450	-99.359573
6.350000	-15.015825	3.986315	-0.585037	45.100003	-0.585037	45.100003	-14.523502	-98.872015
6.400000	-14.369748	-1.629288	-0.613345	42.246349	-0.613345	42.246349	-13.940864	-98.730818
6.450000	-13.751965	-6.946931	-0.644519	39.387738	-0.644519	39.387738	-13.375995	-98.891503
6.500000	-13.162946	-12.012576	-0.678624	36.525329	-0.678624	36.525329	-12.831027	-99.314176
6.550000	-12.602431	-16.864220	-0.715706	33.660319	-0.715706	33.660319	-12.307147	-99.963717
6.600000	-12.069683	-21.531894	-0.755821	30.793934	-0.755821	30.793934	-11.804829	-100.810906
6.650000	-11.563807	-26.042612	-0.798972	27.927449	-0.798972	27.927449	-11.324214	-101.827882
6.700000	-11.083722	-30.417956	-0.845151	25.062124	-0.845151	25.062124	-10.865070	-102.991326
6.750000	-10.628273	-34.675343	-0.894342	22.199214	-0.894342	22.199214	-10.426943	-104.281541
6.800000	-10.196301	-38.829204	-0.946514	19.339963	-0.946514	19.339963	-10.009247	-105.681470
6.850000	-9.786670	-42.891537	-1.001621	16.485589	-1.001621	16.485589	-9.611320	-107.176308
6.900000	-9.398299	-46.871961	-1.059612	13.637317	-1.059612	13.637317	-9.232468	-108.753544
6.950000	-9.030143	-50.778993	-1.120411	10.796308	-1.120411	10.796308	-8.871975	-110.401752
7.000000	-8.681178	-54.620109	-1.183911	7.963615	-1.183911	7.963615	-8.529094	-112.110657
7.050000	-8.350443	-58.401273	-1.250010	5.140264	-1.250010	5.140264	-8.203093	-113.871617
7.100000	-8.037025	-62.127571	-1.318592	2.327211	-1.318592	2.327211	-7.893252	-115.677007
7.150000	-7.740061	-65.803369	-1.389532	-0.474661	-1.389532	-0.474661	-7.598869	-117.520085
7.200000	-7.458745	-69.432328	-1.462701	-3.264518	-1.462701	-3.264518	-7.319274	-119.394950
7.250000	-7.192332	-73.017551	-1.537959	-6.041564	-1.537959	-6.041564	-7.053836	-121.296379
7.300000	-6.940029	-76.562312	-1.615147	-8.805272	-1.615147	-8.805272	-6.801870	-123.219427
7.350000	-6.701129	-80.069185	-1.694109	-11.555105	-1.694109	-11.555105	-6.562751	-125.159930
7.400000	-6.475026	-83.540130	-1.774697	-14.290459	-1.774697	-14.290459	-6.335944	-127.114298
7.450000	-6.260900	-86.978167	-1.856732	-17.011377	-1.856732	-17.011377	-6.120704	-129.078966
7.500000	-6.058244	-90.384664	-1.940067	-19.717358	-1.940067	-19.717358	-5.916570	-131.051238
7.550000	-5.866610	-93.760824	-2.024546	-22.407891	-2.024546	-22.407891	-5.723134	-133.028601
7.600000	-5.685297	-97.109026	-2.109998	-25.083214	-2.109998	-25.083214	-5.539744	-135.008644
7.650000	-5.513768	-100.430881	-2.196269	-27.743320	-2.196269	-27.743320	-5.365899	-136.989401
7.700000	-5.351513	-103.727929	-2.283205	-30.388280	-2.283205	-30.388280	-5.201118	-138.969157
7.750000	-5.198041	-107.001660	-2.370659	-33.018238	-2.370659	-33.018238	-5.044939	-140.946426
7.800000	-5.052887	-110.253519	-2.458487	-35.633408	-2.458487	-35.633408	-4.896919	-142.919932
7.850000	-4.915602	-113.484920	-2.546554	-38.234070	-2.546554	-38.234070	-4.756631	-144.888589
7.900000	-4.785762	-116.697247	-2.634728	-40.820559	-2.634728	-40.820559	-4.623669	-146.851487
7.950000	-4.662958	-119.891863	-2.722884	-43.393269	-2.722884	-43.393269	-4.497643	-148.807874
8.000000	-4.546801	-123.070110	-2.810908	-45.952639	-2.810908	-45.952639	-4.378178	-150.757142
8.050000	-4.436919	-126.233313	-2.898688	-48.499156	-2.898688	-48.499156	-4.264919	-152.698816
8.100000	-4.332958	-129.382781	-2.986124	-51.033344	-2.986124	-51.033344	-4.157525	-154.632541
8.150000	-4.234623	-132.519685	-3.073108	-53.555640	-3.073108	-53.555640	-4.055714	-156.557980
8.200000	-4.141585	-135.645344	-3.159552	-56.066653	-3.159552	-56.066653	-3.959172	-158.474983
8.250000	-4.053485	-138.761148	-3.245392	-58.567129	-3.245392	-58.567129	-3.867557	-160.383589
8.300000	-3.970030	-141.868334	-3.330562	-61.057702	-3.330562	-61.057702	-3.780587	-162.283825
8.350000	-3.891037	-144.967938	-3.414953	-63.538778	-3.414953	-63.538778	-3.698093	-164.175557
8.400000	-3.815889	-148.061760	-3.498677	-66.011887	-3.498677	-66.011887	-3.619479	-166.059778
8.450000	-3.744843	-151.150121	-3.581439	-68.476440	-3.581439	-68.476440	-3.545013	-167.935473
8.500000	-3.677226	-154.234781	-3.663421	-70.934153	-3.663421	-70.934153	-3.474039	-169.803971
8.550000	-3.613034	-157.316572	-3.744466	-73.385172	-3.744466	-73.385172	-3.406571	-171.665017
8.600000	-3.551989	-160.396609	-3.824583	-75.830303	-3.824583	-75.830303	-3.342349	-173.519115
8.650000	-3.493779	-163.475960	-3.903822	-78.270437	-3.903822	-78.270437	-3.281076	-175.366924
8.700000	-3.438433	-166.555598	-3.982013	-80.705791	-3.982013	-80.705791	-3.222810	-177.208276
8.750000	-3.385409	-169.636330	-4.059408	-83.137664	-4.059408	-83.137664	-3.167011	-179.044527
8.800000	-3.334964	-172.719427	-4.135665	-85.565997	-4.135665	-85.565997	-3.113987	179.124956
8.850000	-3.286501	-175.805217	-4.211137	-87.992066	-4.211137	-87.992066	-3.063128	177.298610
8.900000	-3.240134	-178.894977	-4.285597	-90.416155	-4.285597	-90.416155	-3.014597	175.476586
8.950000	-3.195539	178.010965	-4.359214	-92.839045	-4.359214	-92.839045	-2.968074	173.657964
9.000000	-3.152624	174.911775	-4.431958	-95.261304	-4.431958	-95.261304	-2.923497	171.842310
9.050000	-3.111270	171.806763	-4.503833	-97.683519	-4.503833	-97.683519	-2.880773	170.029101
9.100000	-3.071241	168.695878	-4.574985	-100.106243	-4.574985	-100.106243	-2.839667	168.217597
9.150000	-3.032560	165.577807	-4.645273	-102.530150	-4.645273	-102.530150	-2.800266	166.407398
9.200000	-2.994925	162.453375	-4.714968	-104.955542	-4.714968	-104.955542	-2.762229	164.597751
9.250000	-2.958394	159.320922	-4.783884	-107.383311	-4.783884	-107.383311	-2.725705	162.788099
9.300000	-2.922713	156.181532	-4.852280	-109.813549	-4.852280	-109.813549	-2.690395	160.977874
9.350000	-2.887866	153.034231	-4.920087	-112.247063	-4.920087	-112.247063	-2.656344	159.166367
9.400000	-2.853719	149.879442	-4.987428	-114.684116	-4.987428	-114.684116	-2.623411	157.353054
9.450000	-2.820185	146.717242	-5.054368	-117.125141	-5.054368	-117.125141	-2.591525	155.537324
9.500000	-2.787209	143.547367	-5.120926	-119.570796	-5.120926	-119.570796	-2.560666	153.718406
9.550000	-2.754672	140.370914	-5.187268	-122.020929	-5.187268	-122.020929	-2.530675	151.896089
9.600000	-2.722561	137.187047	-5.253346	-124.476786	-5.253346	-124.476786	-2.501629	150.069061
9.650000	-2.690766	133.997483	-5.319366	-126.937678	-5.319366	-126.937678	-2.473328	148.237594
9.700000	-2.659268	130.801728	-5.385312	-129.404912	-5.385312	-129.404912	-2.445844	146.400191
9.750000	-2.628002	127.601164	-5.451338	-131.877972	-5.451338	-131.877972	-2.419041	144.557032
9.800000	-2.596938	124.396156	-5.517500	-134.357607	-5.517500	-134.357607	-2.392926	142.707043
9.850000	-2.566043	121.187605	-5.583897	-136.843930	-5.583897	-136.843930	-2.367449	140.849781
9.900000	-2.535291	117.976534	-5.650631	-139.336890	-5.650631	-139.336890	-2.342555	138.984967
9.950000	-2.504667	114.763740	-5.717789	-141.837344	-5.717789	-141.837344	-2.318265	137.111255
10.000000	-2.474159	111.550434	-5.785473	-144.344338	-5.785473	-144.344338	-2.294477	135.229443
