! freq	dB(S11)	phase(S11)	dB(S12)	phase(S12)	
!     	dB(S21)	phase(S21)	dB(S22)	phase(S22)	
!S-par simulation data
#  GHz  S  DB  R 50
0.000000	-81.641146	0.000000	-0.000719	0.000000	-0.000719	0.000000	-81.641146	0.000000
0.050000	-57.984781	-35.664872	-0.011964	-2.705904	-0.011964	-2.705904	-57.988727	-35.711252
0.100000	-57.251162	-40.680881	-0.016986	-5.341531	-0.016986	-5.341531	-57.257068	-40.705843
0.150000	-56.816836	-50.458163	-0.019767	-7.982669	-0.019767	-7.982669	-56.827997	-50.499216
0.200000	-56.474798	-60.324733	-0.022349	-10.626673	-0.022349	-10.626673	-56.491527	-60.407420
0.250000	-56.287863	-69.311683	-0.025023	-13.271400	-0.025023	-13.271400	-56.309875	-69.459126
0.300000	-56.342863	-77.243124	-0.027775	-15.915776	-0.027775	-15.915776	-56.370112	-77.478892
0.350000	-56.721988	-84.206750	-0.030543	-18.559520	-0.030543	-18.559520	-56.755242	-84.561472
0.400000	-57.533764	-90.326059	-0.033277	-21.202657	-0.033277	-21.202657	-57.575210	-90.847750
0.450000	-59.125993	-95.454973	-0.035927	-23.845253	-0.035927	-23.845253	-59.181898	-96.270128
0.500000	-61.985875	-99.502328	-0.038493	-26.487614	-0.038493	-26.487614	-62.074049	-100.907150
0.550000	-68.374955	-96.614797	-0.040966	-29.129958	-0.040966	-29.129958	-68.631654	-101.372210
0.600000	-72.515532	-2.152644	-0.043354	-31.772529	-0.043354	-31.772529	-72.725413	-5.897838
0.650000	-61.743456	60.185806	-0.045681	-34.415499	-0.045681	-34.415499	-61.666713	62.527648
0.700000	-55.814689	58.287527	-0.047958	-37.059144	-0.047958	-37.059144	-55.769374	59.607577
0.750000	-51.838664	55.388002	-0.050213	-39.703543	-0.050213	-39.703543	-51.807254	56.320115
0.800000	-48.763740	52.306427	-0.052467	-42.348824	-0.052467	-42.348824	-48.740063	53.028774
0.850000	-46.194349	49.205452	-0.054743	-44.995184	-0.054743	-44.995184	-46.175636	49.800772
0.900000	-43.982428	46.136102	-0.057063	-47.642662	-0.057063	-47.642662	-43.967124	46.642806
0.950000	-42.027309	43.109388	-0.059449	-50.291346	-0.059449	-50.291346	-42.014488	43.550639
1.000000	-40.268671	40.125579	-0.061922	-52.941300	-0.061922	-52.941300	-40.257733	40.516209
1.050000	-38.666413	37.181044	-0.064500	-55.592578	-0.064500	-55.592578	-38.656947	37.531138
1.100000	-37.192399	34.270993	-0.067203	-58.245224	-0.067203	-58.245224	-37.184112	34.587727
1.150000	-35.826052	31.390569	-0.070050	-60.899271	-0.070050	-60.899271	-35.818725	31.679233
1.200000	-34.551815	28.535287	-0.073057	-63.554746	-0.073057	-63.554746	-34.545283	28.799892
1.250000	-33.357604	25.701172	-0.076243	-66.211666	-0.076243	-66.211666	-33.351738	25.944833
1.300000	-32.232202	22.885109	-0.079628	-68.870075	-0.079628	-68.870075	-32.226900	23.110330
1.350000	-31.169817	20.083743	-0.083224	-71.529947	-0.083224	-71.529947	-31.164996	20.292491
1.400000	-30.163994	17.294634	-0.087047	-74.191281	-0.087047	-74.191281	-30.159588	17.488514
1.450000	-29.209357	14.515739	-0.091111	-76.854070	-0.091111	-76.854070	-29.205310	14.696079
1.500000	-28.301373	11.745358	-0.095433	-79.518307	-0.095433	-79.518307	-28.297639	11.913268
1.550000	-27.436178	8.982090	-0.100025	-82.183975	-0.100025	-82.183975	-27.432720	9.138507
1.600000	-26.610448	6.224787	-0.104904	-84.851058	-0.104904	-84.851058	-26.607234	6.370509
1.650000	-25.821300	3.472519	-0.110082	-87.519533	-0.110082	-87.519533	-25.818305	3.608229
1.700000	-25.066215	0.724543	-0.115574	-90.189378	-0.115574	-90.189378	-25.063416	0.850833
1.750000	-24.342975	-2.019727	-0.121396	-92.860562	-0.121396	-92.860562	-24.340354	-1.902343
1.800000	-23.649616	-4.760740	-0.127561	-95.533055	-0.127561	-95.533055	-23.647157	-4.651811
1.850000	-22.984389	-7.498828	-0.134088	-98.206817	-0.134088	-98.206817	-22.982079	-7.397958
1.900000	-22.345513	-10.234199	-0.140995	-100.881816	-0.140995	-100.881816	-22.343340	-10.141033
1.950000	-21.731651	-12.967005	-0.148302	-103.557997	-0.148302	-103.557997	-21.729606	-12.881230
2.000000	-21.141762	-15.697351	-0.156024	-106.235279	-0.156024	-106.235279	-21.139837	-15.618690
2.050000	-20.574681	-18.425252	-0.164179	-108.913579	-0.164179	-108.913579	-20.572868	-18.353458
2.100000	-20.029347	-21.150674	-0.172789	-111.592797	-0.172789	-111.592797	-20.027640	-21.085525
2.150000	-19.504790	-23.873540	-0.181875	-114.272811	-0.181875	-114.272811	-19.503183	-23.814837
2.200000	-19.000120	-26.593741	-0.191457	-116.953475	-0.191457	-116.953475	-18.998609	-26.541305
2.250000	-18.514520	-29.311138	-0.201554	-119.634616	-0.201554	-119.634616	-18.513099	-29.264809
2.300000	-18.047234	-32.025570	-0.212185	-122.316035	-0.212185	-122.316035	-18.045899	-31.985205
2.350000	-17.597564	-34.736859	-0.223366	-124.997506	-0.223366	-124.997506	-17.596311	-34.702331
2.400000	-17.164860	-37.444813	-0.235110	-127.678776	-0.235110	-127.678776	-17.163685	-37.416009
2.450000	-16.748520	-40.149233	-0.247426	-130.359572	-0.247426	-130.359572	-16.747420	-40.126053
2.500000	-16.347980	-42.849912	-0.260317	-133.039601	-0.260317	-133.039601	-16.346951	-42.832269
2.550000	-15.962681	-45.546552	-0.273796	-135.718524	-0.273796	-135.718524	-15.961719	-45.534370
2.600000	-15.592198	-48.239027	-0.287844	-138.396042	-0.287844	-138.396042	-15.591301	-48.232243
2.650000	-15.236072	-50.927205	-0.302440	-141.071867	-0.302440	-141.071867	-15.235236	-50.925769
2.700000	-14.893841	-53.610770	-0.317583	-143.745634	-0.317583	-143.745634	-14.893063	-53.614638
2.750000	-14.565106	-56.289576	-0.333243	-146.417048	-0.333243	-146.417048	-14.564384	-56.298717
2.800000	-14.249479	-58.963440	-0.349394	-149.085808	-0.349394	-149.085808	-14.248810	-58.977833
2.850000	-13.946614	-61.632150	-0.366007	-151.751598	-0.366007	-151.751598	-13.945995	-61.651780
2.900000	-13.656162	-64.295570	-0.383042	-154.414161	-0.383042	-154.414161	-13.655591	-64.320435
2.950000	-13.377792	-66.953571	-0.400459	-157.073252	-0.400459	-157.073252	-13.377265	-66.983675
3.000000	-13.111192	-69.606022	-0.418213	-159.728639	-0.418213	-159.728639	-13.110709	-69.641378
3.050000	-12.856069	-72.252810	-0.436257	-162.380115	-0.436257	-162.380115	-12.855629	-72.293439
3.100000	-12.612147	-74.893838	-0.454543	-165.027493	-0.454543	-165.027493	-12.611747	-74.939770
3.150000	-12.379199	-77.528979	-0.473018	-167.670574	-0.473018	-167.670574	-12.378839	-77.580251
3.200000	-12.156986	-80.158174	-0.491628	-170.309219	-0.491628	-170.309219	-12.156664	-80.214829
3.250000	-11.945234	-82.781431	-0.510315	-172.943350	-0.510315	-172.943350	-11.944950	-82.843521
3.300000	-11.743721	-85.398730	-0.529022	-175.572881	-0.529022	-175.572881	-11.743474	-85.466314
3.350000	-11.552234	-88.010075	-0.547690	-178.197753	-0.547690	-178.197753	-11.552024	-88.083219
3.400000	-11.370575	-90.615489	-0.566259	179.182070	-0.566259	179.182070	-11.370401	-90.694264
3.450000	-11.198555	-93.215017	-0.584669	176.566595	-0.584669	176.566595	-11.198419	-93.299504
3.500000	-11.036000	-95.808727	-0.602860	173.955805	-0.602860	173.955805	-11.035900	-95.899012
3.550000	-10.882743	-98.396709	-0.620770	171.349652	-0.620770	171.349652	-10.882681	-98.492886
3.600000	-10.738632	-100.979074	-0.638339	168.748067	-0.638339	168.748067	-10.738608	-101.081245
3.650000	-10.603524	-103.555959	-0.655505	166.150949	-0.655505	166.150949	-10.603539	-103.664233
3.700000	-10.477288	-106.127521	-0.672209	163.558174	-0.672209	163.558174	-10.477342	-106.242014
3.750000	-10.359802	-108.693941	-0.688392	160.969589	-0.688392	160.969589	-10.359897	-108.814778
3.800000	-10.251116	-111.255320	-0.703981	158.385097	-0.703981	158.385097	-10.251252	-111.382638
3.850000	-10.150978	-113.811997	-0.718931	155.804401	-0.718931	155.804401	-10.151157	-113.945939
3.900000	-10.059302	-116.364220	-0.733187	153.227269	-0.733187	153.227269	-10.059524	-116.504939
3.950000	-9.976010	-118.912260	-0.746697	150.653441	-0.746697	150.653441	-9.976277	-119.059920
4.000000	-9.901039	-121.456408	-0.759410	148.082636	-0.759410	148.082636	-9.901353	-121.611182
4.050000	-9.834338	-123.996976	-0.771278	145.514549	-0.771278	145.514549	-9.834699	-124.159051
4.100000	-9.775867	-126.534295	-0.782254	142.948848	-0.782254	142.948848	-9.776277	-126.703868
4.150000	-9.725601	-129.068715	-0.792298	140.385184	-0.792298	140.385184	-9.726060	-129.245998
4.200000	-9.683526	-131.600602	-0.801368	137.823184	-0.801368	137.823184	-9.684036	-131.785822
4.250000	-9.649644	-134.130341	-0.809431	135.262457	-0.809431	135.262457	-9.650206	-134.323738
4.300000	-9.623969	-136.658329	-0.816453	132.702592	-0.816453	132.702592	-9.624585	-136.860162
4.350000	-9.606533	-139.184979	-0.822406	130.143162	-0.822406	130.143162	-9.607205	-139.395524
4.400000	-9.597473	-141.710710	-0.827256	127.583720	-0.827256	127.583720	-9.598201	-141.930266
4.450000	-9.596854	-144.235971	-0.830981	125.023792	-0.830981	125.023792	-9.597641	-144.464858
4.500000	-9.604667	-146.761215	-0.833579	122.462910	-0.833579	122.462910	-9.605513	-146.999773
4.550000	-9.621009	-149.286891	-0.835040	119.900594	-0.835040	119.900594	-9.621918	-149.535485
4.600000	-9.645999	-151.813450	-0.835359	117.336357	-0.835359	117.336357	-9.646972	-152.072471
4.650000	-9.679774	-154.341345	-0.834537	114.769706	-0.834537	114.769706	-9.680813	-154.611213
4.700000	-9.722494	-156.871027	-0.832579	112.200144	-0.832579	112.200144	-9.723603	-157.152194
4.750000	-9.774341	-159.402941	-0.829495	109.627173	-0.829495	109.627173	-9.775522	-159.695893
4.800000	-9.835522	-161.937525	-0.825302	107.050295	-0.825302	107.050295	-9.836779	-162.242785
4.850000	-9.906269	-164.475202	-0.820021	104.469015	-0.820021	104.469015	-9.907605	-164.793335
4.900000	-9.986844	-167.016382	-0.813679	101.882846	-0.813679	101.882846	-9.988264	-167.347999
4.950000	-10.077536	-169.561454	-0.806309	99.291308	-0.806309	99.291308	-10.079044	-169.907213
5.000000	-10.178668	-172.110781	-0.797948	96.693932	-0.797948	96.693932	-10.180270	-172.471396
5.050000	-10.290807	-174.664803	-0.788621	94.090117	-0.788621	94.090117	-10.292509	-175.041068
5.100000	-10.414144	-177.223722	-0.778397	91.479552	-0.778397	91.479552	-10.415953	-177.616483
5.150000	-10.549115	-179.787791	-0.767333	88.861823	-0.767333	88.861823	-10.551040	179.802031
5.200000	-10.696203	177.642787	-0.755487	86.236534	-0.755487	86.236534	-10.698252	177.214184
5.250000	-10.855939	175.067865	-0.742923	83.603318	-0.742923	83.603318	-10.858123	174.619736
5.300000	-11.028909	172.487362	-0.729712	80.961835	-0.729712	80.961835	-11.031240	172.018496
5.350000	-11.215761	169.901270	-0.715926	78.311777	-0.715926	78.311777	-11.218251	169.410336
5.400000	-11.417208	167.309668	-0.701643	75.652870	-0.701643	75.652870	-11.419873	166.795195
5.450000	-11.634044	164.712730	-0.686944	72.984876	-0.686944	72.984876	-11.636902	164.173088
5.500000	-11.867145	162.110743	-0.671914	70.307597	-0.671914	70.307597	-11.870216	161.544121
5.550000	-12.117489	159.504122	-0.656641	67.620875	-0.656641	67.620875	-12.120797	158.908497
5.600000	-12.386165	156.893431	-0.641214	64.924596	-0.641214	64.924596	-12.389736	156.266534
5.650000	-12.674507	154.279376	-0.625726	62.218586	-0.625726	62.218586	-12.678375	153.618623
5.700000	-12.983886	151.662936	-0.610273	59.502826	-0.610273	59.502826	-12.988089	150.965390
5.750000	-13.315734	149.045338	-0.594949	56.777449	-0.594949	56.777449	-13.320317	148.307687
5.800000	-13.671807	146.428066	-0.579849	54.042535	-0.579849	54.042535	-13.676825	145.646514
5.850000	-14.054113	143.812951	-0.565065	51.298213	-0.565065	51.298213	-14.059632	142.983123
5.900000	-14.464963	141.202258	-0.550689	48.544660	-0.550689	48.544660	-14.471065	140.319070
5.950000	-14.907035	138.598789	-0.536812	45.782103	-0.536812	45.782103	-14.913821	137.656289
6.000000	-15.383463	136.006032	-0.523521	43.010819	-0.523521	43.010819	-15.391060	134.997191
6.050000	-15.897949	133.428360	-0.510898	40.231130	-0.510898	40.231130	-15.906519	132.344795
6.100000	-16.454910	130.871320	-0.499024	37.443405	-0.499024	37.443405	-16.464665	129.702922
6.150000	-17.059688	128.342039	-0.487973	34.648053	-0.487973	34.648053	-17.070904	127.076470
6.200000	-17.718825	125.849834	-0.477815	31.845526	-0.477815	31.845526	-17.731876	124.471818
6.250000	-18.440468	123.407127	-0.468613	29.036312	-0.468613	29.036312	-18.455866	121.897451
6.300000	-19.235054	121.032876	-0.460446	26.220809	-0.460446	26.220809	-19.253532	119.366208
6.350000	-20.115746	118.750524	-0.453344	23.399715	-0.453344	23.399715	-20.138368	116.894112
6.400000	-21.100210	116.595963	-0.447347	20.573605	-0.447347	20.573605	-21.128590	114.505574
6.450000	-22.212544	114.624051	-0.442490	17.743074	-0.442490	17.743074	-22.249242	112.237969
6.500000	-23.486768	112.923194	-0.438798	14.908730	-0.438798	14.908730	-23.536087	110.151785
6.550000	-24.972957	111.645660	-0.436288	12.071190	-0.436288	12.071190	-25.042693	108.352024
6.600000	-26.748636	111.077423	-0.434969	9.231075	-0.434969	9.231075	-26.854383	107.038722
6.650000	-28.940994	111.822046	-0.434842	6.389004	-0.434842	6.389004	-29.118580	106.645557
6.700000	-31.768769	115.378473	-0.435897	3.545588	-0.435897	3.545588	-32.119029	108.313680
6.750000	-35.561081	126.356524	-0.438120	0.701425	-0.438120	0.701425	-36.464707	116.164357
6.800000	-39.719870	159.035994	-0.441484	-2.142903	-0.441484	-2.142903	-42.612492	151.086292
6.850000	-38.534194	-150.261354	-0.445960	-4.986841	-0.445960	-4.986841	-40.572815	-139.004992
6.900000	-34.269907	-128.236000	-0.451518	-7.829840	-0.451518	-7.829840	-34.933732	-119.355148
6.950000	-30.993995	-121.164678	-0.458111	-10.671388	-0.458111	-10.671388	-31.297779	-114.856581
7.000000	-28.566097	-118.984394	-0.465674	-13.511034	-0.465674	-13.511034	-28.739523	-114.190529
7.050000	-26.679796	-118.852832	-0.474149	-16.348358	-0.474149	-16.348358	-26.793012	-115.008525
7.100000	-25.155554	-119.746896	-0.483474	-19.182979	-0.483474	-19.182979	-25.236262	-116.545153
7.150000	-23.888010	-121.222034	-0.493580	-22.014566	-0.493580	-22.014566	-23.949219	-118.482001
7.200000	-22.811595	-123.056476	-0.504397	-24.842829	-0.504397	-24.842829	-22.860201	-120.663806
7.250000	-21.883147	-125.127851	-0.515849	-27.667530	-0.515849	-27.667530	-21.923140	-123.006040
7.300000	-21.072881	-127.363324	-0.527862	-30.488480	-0.527862	-30.488480	-21.106732	-125.458839
7.350000	-20.359435	-129.716940	-0.540358	-33.305536	-0.540358	-33.305536	-20.388759	-127.990942
7.400000	-19.726997	-132.158340	-0.553257	-36.118609	-0.553257	-36.118609	-19.752895	-130.581806
7.450000	-19.163549	-134.666719	-0.566481	-38.927656	-0.566481	-38.927656	-19.186797	-133.217430
7.500000	-18.659752	-137.227399	-0.579952	-41.732683	-0.579952	-41.732683	-18.680916	-135.887994
7.550000	-18.208762	-139.830502	-0.593594	-44.533661	-0.593594	-44.533661	-18.228267	-138.586945
7.600000	-17.804055	-142.467255	-0.607327	-47.330779	-0.607327	-47.330779	-17.822222	-141.308507
7.650000	-17.440786	-145.131944	-0.621078	-50.124183	-0.621078	-50.124183	-17.457865	-144.048979
7.700000	-17.114963	-147.820268	-0.634778	-52.914059	-0.634778	-52.914059	-17.131151	-146.805628
7.750000	-16.823260	-150.528971	-0.648359	-55.700634	-0.648359	-55.700634	-16.838717	-149.576446
7.800000	-16.562885	-153.255598	-0.661759	-58.484170	-0.661759	-58.484170	-16.577739	-152.359975
7.850000	-16.331479	-155.998311	-0.674919	-61.264963	-0.674919	-61.264963	-16.345836	-155.155193
7.900000	-16.127034	-158.755759	-0.687784	-64.043338	-0.687784	-64.043338	-16.140983	-157.961418
7.950000	-15.947839	-161.526980	-0.700306	-66.819649	-0.700306	-66.819649	-15.961453	-160.778248
8.000000	-15.792427	-164.311329	-0.712440	-69.594275	-0.712440	-69.594275	-15.805767	-163.605510
8.050000	-15.659540	-167.108422	-0.724147	-72.367614	-0.724147	-72.367614	-15.672659	-166.443222
8.100000	-15.548100	-169.918095	-0.735393	-75.140082	-0.735393	-75.140082	-15.561042	-169.291565
8.150000	-15.457388	-172.740509	-0.746144	-77.912112	-0.746144	-77.912112	-15.470190	-172.150988
8.200000	-15.386604	-175.575861	-0.756378	-80.684160	-0.756378	-80.684160	-15.399298	-175.021962
8.250000	-15.334869	-178.424351	-0.766082	-83.456683	-0.766082	-83.456683	-15.347480	-177.904942
8.300000	-15.301620	178.713554	-0.775248	-86.230136	-0.775248	-86.230136	-15.314167	179.199393
8.350000	-15.286899	175.836836	-0.783852	-89.005027	-0.783852	-89.005027	-15.299398	176.289843
8.400000	-15.288522	172.946342	-0.791953	-91.781613	-0.791953	-91.781613	-15.300985	173.367023
8.450000	-15.308902	170.038853	-0.799471	-94.560675	-0.799471	-94.560675	-15.321335	170.427608
8.500000	-15.345483	167.115620	-0.806491	-97.342322	-0.806491	-97.342322	-15.357889	167.472644
8.550000	-15.399410	164.174288	-0.812988	-100.127207	-0.812988	-100.127207	-15.411787	164.499630
8.600000	-15.470274	161.214051	-0.818994	-102.915681	-0.818994	-102.915681	-15.482614	161.507604
8.650000	-15.557411	158.234386	-0.824554	-105.707993	-0.824554	-105.707993	-15.569705	158.495896
8.700000	-15.662397	155.231841	-0.829654	-108.504928	-0.829654	-108.504928	-15.674625	155.460864
8.750000	-15.782910	152.208331	-0.834393	-111.306134	-0.834393	-111.306134	-15.795050	152.404344
8.800000	-15.922344	149.156935	-0.838730	-114.112990	-0.838730	-114.112990	-15.934363	149.319105
8.850000	-16.077720	146.081135	-0.842781	-116.924707	-0.842781	-116.924707	-16.089581	146.208626
8.900000	-16.251574	142.974475	-0.846543	-119.742402	-0.846543	-119.742402	-16.263227	143.066115
8.950000	-16.442874	139.837418	-0.850090	-122.565767	-0.850090	-122.565767	-16.454259	139.891956
9.000000	-16.652549	136.665968	-0.853462	-125.395246	-0.853462	-125.395246	-16.663594	136.681887
9.050000	-16.881350	133.456330	-0.856708	-128.231140	-0.856708	-128.231140	-16.891962	133.431855
9.100000	-17.128811	130.208055	-0.859886	-131.073103	-0.859886	-131.073103	-17.138885	130.141306
9.150000	-17.397263	126.911280	-0.863044	-133.922124	-0.863044	-133.922124	-17.406659	126.799806
9.200000	-17.685329	123.569648	-0.866234	-136.777141	-0.866234	-136.777141	-17.693893	123.411116
9.250000	-17.996024	120.167697	-0.869520	-139.639476	-0.869520	-139.639476	-18.003541	119.958892
9.300000	-18.328367	116.709220	-0.872933	-142.507980	-0.872933	-142.507980	-18.334604	116.447078
9.350000	-18.684555	113.179664	-0.876543	-145.383399	-0.876543	-145.383399	-18.689202	112.860284
9.400000	-19.065202	109.574798	-0.880382	-148.265292	-0.880382	-148.265292	-19.067887	109.194023
9.450000	-19.471571	105.884759	-0.884496	-151.153573	-0.884496	-151.153573	-19.471834	105.437889
9.500000	-19.905516	102.092348	-0.888942	-154.048496	-0.888942	-154.048496	-19.902764	101.573775
9.550000	-20.367879	98.195944	-0.893718	-156.949193	-0.893718	-156.949193	-20.361413	97.600055
9.600000	-20.861190	94.157028	-0.898921	-159.856564	-0.898921	-159.856564	-20.850046	93.476326
9.650000	-21.386623	89.981681	-0.904501	-162.769267	-0.904501	-162.769267	-21.369686	89.209255
9.700000	-21.946373	85.616050	-0.910555	-165.688106	-0.910555	-165.688106	-21.922099	84.742782
9.750000	-22.542536	81.054303	-0.917040	-168.612112	-0.917040	-168.612112	-22.509056	80.071497
9.800000	-23.176811	76.240164	-0.924001	-171.541481	-0.924001	-171.541481	-23.131629	75.137842
9.850000	-23.851036	71.130125	-0.931436	-174.475889	-0.931436	-174.475889	-23.790941	69.898383
9.900000	-24.566908	65.676253	-0.939324	-177.414927	-0.939324	-177.414927	-24.487784	64.306321
9.950000	-25.322590	59.763169	-0.947702	179.641170	-0.947702	179.641170	-25.218916	58.248023
10.000000	-26.120390	53.372898	-0.956488	176.693293	-0.956488	176.693293	-25.985396	51.711243
