! freq	dB(S11)	phase(S11)	dB(S12)	phase(S12)	
!     	dB(S21)	phase(S21)	dB(S22)	phase(S22)	
!S-par simulation data
#  GHz  S  DB  R 50
0.000000	-82.140202	0.000000	-0.000679	0.000000	-0.000679	0.000000	-82.140202	0.000000
0.050000	-39.585082	-92.419396	-0.005802	-3.258156	-0.005802	-3.258156	-39.576125	-92.051214
0.100000	-33.646495	-96.109506	-0.013879	-6.473692	-0.013879	-6.473692	-33.642950	-95.490597
0.150000	-30.176905	-99.755893	-0.021239	-9.672697	-0.021239	-9.672697	-30.173223	-98.858422
0.200000	-27.720939	-103.327181	-0.028612	-12.866908	-0.028612	-12.866908	-27.716967	-102.135223
0.250000	-25.824716	-106.838350	-0.036564	-16.058100	-0.036564	-16.058100	-25.820680	-105.346020
0.300000	-24.285773	-110.304915	-0.045283	-19.245993	-0.045283	-19.245993	-24.281783	-108.509850
0.350000	-22.994117	-113.740958	-0.054723	-22.430578	-0.054723	-22.430578	-22.990210	-111.642140
0.400000	-21.884978	-117.153441	-0.064854	-25.611720	-0.064854	-25.611720	-21.881175	-114.750173
0.450000	-20.917804	-120.546701	-0.075670	-28.789125	-0.075670	-28.789125	-20.914133	-117.838173
0.500000	-20.061989	-123.926670	-0.087044	-31.963232	-0.087044	-31.963232	-20.058476	-120.911911
0.550000	-19.298686	-127.294874	-0.098975	-35.133748	-0.098975	-35.133748	-19.295366	-123.972471
0.600000	-18.611949	-130.653999	-0.111383	-38.300883	-0.111383	-38.300883	-18.608853	-127.022242
0.650000	-17.990710	-134.005345	-0.124227	-41.464580	-0.124227	-41.464580	-17.987869	-130.062125
0.700000	-17.425774	-137.350181	-0.137444	-44.624921	-0.137444	-44.624921	-17.423211	-133.093100
0.750000	-16.910200	-140.689351	-0.150984	-47.781912	-0.150984	-47.781912	-16.907936	-136.115686
0.800000	-16.438210	-144.023611	-0.164788	-50.935617	-0.164788	-50.935617	-16.436262	-139.130372
0.850000	-16.004962	-147.353632	-0.178798	-54.086146	-0.178798	-54.086146	-16.003341	-142.137612
0.900000	-15.606824	-150.679907	-0.192956	-57.233552	-0.192956	-57.233552	-15.605542	-145.137611
0.950000	-15.240266	-154.003024	-0.207201	-60.378029	-0.207201	-60.378029	-15.239332	-148.130801
1.000000	-14.902461	-157.323485	-0.221474	-63.519762	-0.221474	-63.519762	-14.901881	-151.117507
1.050000	-14.590973	-160.641784	-0.235717	-66.658971	-0.235717	-66.658971	-14.590755	-154.098055
1.100000	-14.303689	-163.958412	-0.249873	-69.795911	-0.249873	-69.795911	-14.303838	-157.072787
1.150000	-14.038754	-167.273861	-0.263889	-72.930871	-0.263889	-72.930871	-14.039279	-160.042059
1.200000	-13.794535	-170.588628	-0.277711	-76.064172	-0.277711	-76.064172	-13.795442	-163.006244
1.250000	-13.569577	-173.903218	-0.291292	-79.196163	-0.291292	-79.196163	-13.570875	-165.965736
1.300000	-13.363410	-177.218199	-0.304562	-82.327187	-0.304562	-82.327187	-13.365109	-168.920689
1.350000	-13.172895	179.466033	-0.317533	-85.457739	-0.317533	-85.457739	-13.175003	-171.872164
1.400000	-12.998850	176.148798	-0.330112	-88.588184	-0.330112	-88.588184	-13.001381	-174.820050
1.450000	-12.839166	172.829728	-0.342305	-91.718950	-0.342305	-91.718950	-12.842130	-177.765128
1.500000	-12.693404	169.508227	-0.354066	-94.850506	-0.354066	-94.850506	-12.696816	179.292213
1.550000	-12.560951	166.183728	-0.365363	-97.983329	-0.365363	-97.983329	-12.564827	176.351500
1.600000	-12.440235	162.855980	-0.376214	-101.117769	-0.376214	-101.117769	-12.444590	173.412080
1.650000	-12.331926	159.523986	-0.386541	-104.254564	-0.386541	-104.254564	-12.336779	170.473540
1.700000	-12.233812	156.187908	-0.396414	-107.393824	-0.396414	-107.393824	-12.239178	167.535211
1.750000	-12.146266	152.846854	-0.405780	-110.536285	-0.405780	-110.536285	-12.152165	164.596543
1.800000	-12.068412	149.500526	-0.414657	-113.682348	-0.414657	-113.682348	-12.074863	161.656919
1.850000	-11.999677	146.148528	-0.423056	-116.832493	-0.423056	-116.832493	-12.006700	158.715709
1.900000	-11.939595	142.790429	-0.430987	-119.987261	-0.430987	-119.987261	-11.947210	155.772229
1.950000	-11.887618	139.425897	-0.438469	-123.147160	-0.438469	-123.147160	-11.895846	152.825782
2.000000	-11.843139	136.054721	-0.445529	-126.312638	-0.445529	-126.312638	-11.852000	149.875689
2.050000	-11.805647	132.676672	-0.452192	-129.484190	-0.452192	-129.484190	-11.815162	146.921224
2.100000	-11.774640	129.291572	-0.458481	-132.662308	-0.458481	-132.662308	-11.784829	143.961630
2.150000	-11.749617	125.899298	-0.464423	-135.847468	-0.464423	-135.847468	-11.760503	140.996121
2.200000	-11.730082	122.499784	-0.470043	-139.040128	-0.470043	-139.040128	-11.741686	138.023879
2.250000	-11.715538	119.093028	-0.475365	-142.240719	-0.475365	-142.240719	-11.727882	135.044052
2.300000	-11.705485	115.679090	-0.480419	-145.449646	-0.480419	-145.449646	-11.718593	132.055754
2.350000	-11.699420	112.258095	-0.485231	-148.667282	-0.485231	-148.667282	-11.713317	129.058060
2.400000	-11.696838	108.830237	-0.489832	-151.893975	-0.489832	-151.893975	-11.711549	126.050011
2.450000	-11.697224	105.395776	-0.494253	-155.130047	-0.494253	-155.130047	-11.712777	123.030608
2.500000	-11.700061	101.955042	-0.498528	-158.375798	-0.498528	-158.375798	-11.716483	119.998817
2.550000	-11.704855	98.508311	-0.502690	-161.631731	-0.502690	-161.631731	-11.722177	116.953247
2.600000	-11.711022	95.056185	-0.506778	-164.897901	-0.506778	-164.897901	-11.729276	113.893062
2.650000	-11.718027	91.599189	-0.510830	-168.174556	-0.510830	-168.174556	-11.737247	110.817125
2.700000	-11.725333	88.137903	-0.514882	-171.461934	-0.514882	-171.461934	-11.745553	107.724275
2.750000	-11.732401	84.672957	-0.518972	-174.760262	-0.518972	-174.760262	-11.753655	104.613329
2.800000	-11.738692	81.205025	-0.523138	-178.069755	-0.523138	-178.069755	-11.761015	101.483097
2.850000	-11.743669	77.734811	-0.527417	178.609377	-0.527417	178.609377	-11.767096	98.332381
2.900000	-11.746803	74.263044	-0.531846	175.276932	-0.531846	175.276932	-11.771366	95.159994
2.950000	-11.747296	70.790444	-0.536482	171.931547	-0.536482	171.931547	-11.773030	91.962431
3.000000	-11.745104	67.317863	-0.541326	168.575217	-0.541326	168.575217	-11.772031	88.742832
3.050000	-11.739536	63.845933	-0.546427	165.206734	-0.546427	165.206734	-11.767678	85.498136
3.100000	-11.730122	60.375334	-0.551820	161.825913	-0.551820	161.825913	-11.759496	82.227307
3.150000	-11.716418	56.906698	-0.557540	158.432575	-0.557540	158.432575	-11.747031	78.929384
3.200000	-11.698009	53.440590	-0.563619	155.026538	-0.563619	155.026538	-11.729862	75.603495
3.250000	-11.674514	49.977491	-0.570091	151.607624	-0.570091	151.607624	-11.707598	72.248867
3.300000	-11.645592	46.517785	-0.576986	148.175654	-0.576986	148.175654	-11.679889	68.864841
3.350000	-11.610946	43.061744	-0.584337	144.730451	-0.584337	144.730451	-11.646425	65.450887
3.400000	-11.570325	39.609514	-0.592174	141.271835	-0.592174	141.271835	-11.606947	62.006607
3.450000	-11.523531	36.161106	-0.600527	137.799630	-0.600527	137.799630	-11.561246	58.531750
3.500000	-11.470421	32.716386	-0.609427	134.313657	-0.609427	134.313657	-11.509168	55.026210
3.550000	-11.411211	29.274952	-0.618876	130.814355	-0.618876	130.814355	-11.450923	51.491352
3.600000	-11.345199	25.836669	-0.628960	127.300165	-0.628960	127.300165	-11.385795	47.924390
3.650000	-11.272794	22.400771	-0.639674	123.771671	-0.639674	123.771671	-11.314191	44.327332
3.700000	-11.194098	18.966532	-0.651045	120.228698	-0.651045	120.228698	-11.236207	40.700661
3.750000	-11.109276	15.533090	-0.663096	116.671071	-0.663096	116.671071	-11.152007	37.044984
3.800000	-11.018413	12.099435	-0.675865	113.098288	-0.675865	113.098288	-11.061671	33.360430
3.850000	-10.921950	8.664450	-0.689356	109.510494	-0.689356	109.510494	-10.965649	29.648453
3.900000	-10.820242	5.226949	-0.703587	105.907514	-0.703587	105.907514	-10.864297	25.909957
3.950000	-10.713699	1.785676	-0.718569	102.289170	-0.718569	102.289170	-10.758033	22.145902
4.000000	-10.602785	-1.660677	-0.734310	98.655281	-0.734310	98.655281	-10.647330	18.357286
4.050000	-10.488015	-5.113451	-0.750815	95.005657	-0.750815	95.005657	-10.532715	14.545122
4.100000	-10.369949	-8.574001	-0.768079	91.340099	-0.768079	91.340099	-10.414761	10.710418
4.150000	-10.249193	-12.043678	-0.786094	87.658391	-0.786094	87.658391	-10.294089	6.854154
4.200000	-10.126388	-15.523815	-0.804840	83.960297	-0.804840	83.960297	-10.171357	2.977260
4.250000	-10.002212	-19.015713	-0.824292	80.245553	-0.824292	80.245553	-10.047261	-0.919400
4.300000	-9.877373	-22.520632	-0.844412	76.513854	-0.844412	76.513854	-9.922530	-4.835057
4.350000	-9.752609	-26.039781	-0.865152	72.764852	-0.865152	72.764852	-9.797921	-8.769051
4.400000	-9.628678	-29.574495	-0.886455	68.997940	-0.886455	68.997940	-9.674221	-12.721039
4.450000	-9.506397	-33.125913	-0.908244	65.212613	-0.908244	65.212613	-9.552270	-16.690637
4.500000	-9.386589	-36.694912	-0.930424	61.408484	-0.930424	61.408484	-9.432917	-20.677456
4.550000	-9.270087	-40.282492	-0.952888	57.584857	-0.952888	57.584857	-9.317029	-24.681496
4.600000	-9.157754	-43.889612	-0.975512	53.740907	-0.975512	53.740907	-9.205499	-28.702975
4.650000	-9.050479	-47.517203	-0.998156	49.875646	-0.998156	49.875646	-9.099257	-32.742352
4.700000	-8.949190	-51.166177	-1.020659	45.987898	-1.020659	45.987898	-8.999270	-36.800356
4.750000	-8.854854	-54.837441	-1.042841	42.076266	-1.042841	42.076266	-8.906556	-40.878014
4.800000	-8.768496	-58.531907	-1.064501	38.139092	-1.064501	38.139092	-8.822195	-44.976688
4.850000	-8.691206	-62.250501	-1.085419	34.174415	-1.085419	34.174415	-8.747346	-49.098114
4.900000	-8.624164	-65.994172	-1.105354	30.179920	-1.105354	30.179920	-8.683266	-53.244442
4.950000	-8.568659	-69.763891	-1.124043	26.152884	-1.124043	26.152884	-8.631339	-57.418297
5.000000	-8.526121	-73.560643	-1.141207	22.090104	-1.141207	22.090104	-8.593110	-61.622829
5.050000	-8.498518	-77.386034	-1.156498	17.986867	-1.156498	17.986867	-8.570712	-65.862646
5.100000	-8.487427	-81.240394	-1.169636	13.839500	-1.169636	13.839500	-8.565884	-70.141573
5.150000	-8.494996	-85.124500	-1.180296	9.642797	-1.180296	9.642797	-8.581000	-74.464896
5.200000	-8.523753	-89.038861	-1.188144	5.390675	-1.188144	5.390675	-8.618874	-78.838808
5.250000	-8.576713	-92.983503	-1.192854	1.076018	-1.192854	1.076018	-8.682899	-83.270549
5.300000	-8.657522	-96.957642	-1.194110	-3.309485	-1.194110	-3.309485	-8.777218	-87.768568
5.350000	-8.770653	-100.959155	-1.191627	-7.775549	-1.191627	-7.775549	-8.906976	-92.342714
5.400000	-8.921664	-104.983759	-1.185172	-12.333531	-1.185172	-12.333531	-9.078663	-97.004451
5.450000	-9.117565	-109.023671	-1.174595	-16.996704	-1.174595	-16.996704	-9.300608	-101.767117
5.500000	-9.367319	-113.065442	-1.159872	-21.780584	-1.159872	-21.780584	-9.583703	-106.646198
5.550000	-9.682018	-117.086882	-1.141192	-26.701955	-1.141192	-26.701955	-9.941869	-111.658331
5.600000	-10.078475	-121.048473	-1.118906	-31.785465	-1.118906	-31.785465	-10.396740	-116.827590
5.650000	-10.577098	-124.883878	-1.093879	-37.055003	-1.093879	-37.055003	-10.976386	-122.176906
5.700000	-11.206396	-128.476519	-1.067507	-42.539658	-1.067507	-42.539658	-11.723010	-127.733374
5.750000	-12.004966	-131.619654	-1.041958	-48.271312	-1.041958	-48.271312	-12.701154	-133.524934
5.800000	-13.026300	-133.923987	-1.020441	-54.287144	-1.020441	-54.287144	-14.019235	-139.580256
5.850000	-14.338849	-134.616977	-1.007597	-60.628262	-1.007597	-60.628262	-15.878164	-145.919884
5.900000	-16.000809	-132.082217	-1.009967	-67.338512	-1.009967	-67.338512	-18.720045	-152.525735
5.950000	-17.893228	-122.984939	-1.036623	-74.463218	-1.036623	-74.463218	-23.905490	-159.143826
6.000000	-19.072716	-103.325159	-1.099928	-82.045144	-1.099928	-82.045144	-46.563856	-109.663916
6.050000	-17.929433	-80.026501	-1.214721	-90.105949	-1.214721	-90.105949	-23.850730	2.231052
6.100000	-15.154047	-66.846276	-1.400343	-98.657433	-1.400343	-98.657433	-17.084011	-5.710327
6.150000	-12.332165	-63.626246	-1.678524	-107.673518	-1.678524	-107.673518	-13.065884	-14.639087
6.200000	-9.928305	-65.946489	-2.071194	-117.082144	-2.071194	-117.082144	-10.205258	-24.095361
6.250000	-7.958450	-71.250473	-2.598648	-126.766406	-2.598648	-126.766406	-8.028858	-33.892683
6.300000	-6.367561	-78.211983	-3.276608	-136.568605	-3.276608	-136.568605	-6.333006	-43.854073
6.350000	-5.098714	-86.054012	-4.112039	-146.308036	-4.112039	-146.308036	-5.006171	-53.794246
6.400000	-4.100490	-94.289259	-5.104725	-155.810017	-5.104725	-155.810017	-3.974039	-63.541137
6.450000	-3.326812	-102.593434	-6.248429	-164.925164	-6.248429	-164.925164	-3.179799	-72.953083
6.500000	-2.734946	-110.757059	-7.534010	-173.546395	-7.534010	-173.546395	-2.575193	-81.935473
6.550000	-2.286102	-118.662415	-8.955329	178.386244	-8.955329	178.386244	-2.118408	-90.446142
6.600000	-1.949730	-126.247763	-10.509281	170.916920	-10.509281	170.916920	-1.777218	-98.470266
6.650000	-1.698919	-133.499848	-12.202966	164.065850	-12.202966	164.065850	-1.523664	-106.030444
6.700000	-1.512551	-140.432362	-14.056750	157.860998	-14.056750	157.860998	-1.335984	-113.165830
6.750000	-1.375195	-147.067329	-16.103642	152.384275	-16.103642	152.384275	-1.198356	-119.915513
6.800000	-1.274136	-153.440181	-18.408412	147.798489	-18.408412	147.798489	-1.097791	-126.329554
6.850000	-1.200209	-159.584870	-21.079574	144.497552	-21.079574	144.497552	-1.024949	-132.452358
6.900000	-1.146536	-165.534220	-24.311555	143.479820	-24.311555	143.479820	-0.972836	-138.324896
6.950000	-1.107968	-171.318589	-28.455399	147.772779	-28.455399	147.772779	-0.936222	-143.983949
7.000000	-1.080649	-176.965320	-33.726001	168.710669	-33.726001	168.710669	-0.911195	-149.461990
7.050000	-1.061684	177.501334	-35.411536	-138.615118	-35.411536	-138.615118	-0.894819	-154.787394
7.100000	-1.048917	172.060419	-31.372796	-109.462591	-31.372796	-109.462591	-0.884908	-159.984293
7.150000	-1.040700	166.693335	-28.150307	-102.393989	-28.150307	-102.393989	-0.879788	-165.073881
7.200000	-1.035741	161.383050	-25.958370	-101.763515	-25.958370	-101.763515	-0.878143	-170.075714
7.250000	-1.033102	156.115490	-24.398281	-103.536988	-24.398281	-103.536988	-0.879012	-175.005621
7.300000	-1.032066	150.878382	-23.242954	-106.421397	-23.242954	-106.421397	-0.881652	-179.877268
7.350000	-1.032088	145.661008	-22.365304	-109.898914	-22.365304	-109.898914	-0.885491	175.297553
7.400000	-1.032752	140.454004	-21.689372	-113.727504	-21.689372	-113.727504	-0.890081	170.508688
7.450000	-1.033747	135.249172	-21.166909	-117.781320	-21.166909	-117.781320	-0.895069	165.747418
7.500000	-1.034839	130.039332	-20.765751	-121.989768	-20.765751	-121.989768	-0.900178	161.006299
7.550000	-1.035858	124.817882	-20.465017	-126.312524	-20.465017	-126.312524	-0.905183	156.279174
7.600000	-1.036691	119.579418	-20.247262	-130.721458	-20.247262	-130.721458	-0.909909	151.560440
7.650000	-1.037273	114.319122	-20.101124	-135.200227	-20.101124	-135.200227	-0.914218	146.845796
7.700000	-1.037576	109.032752	-20.018284	-139.737929	-20.018284	-139.737929	-0.918002	142.131795
7.750000	-1.037608	103.716570	-19.992639	-144.327050	-19.992639	-144.327050	-0.921176	137.415778
7.800000	-1.037405	98.367270	-20.019754	-148.962200	-20.019754	-148.962200	-0.923676	132.695827
7.850000	-1.037036	92.981908	-20.096490	-153.639316	-20.096490	-153.639316	-0.925454	127.970719
7.900000	-1.036593	87.557844	-20.220752	-158.355139	-20.220752	-158.355139	-0.926479	123.239881
7.950000	-1.036195	82.092675	-20.391312	-163.106857	-20.391312	-163.106857	-0.926735	118.503355
8.000000	-1.035988	76.584171	-20.607701	-167.891858	-20.607701	-167.891858	-0.926217	113.761763
8.050000	-1.036137	71.030214	-20.870140	-172.707545	-20.870140	-172.707545	-0.924934	109.016264
8.100000	-1.036835	65.428730	-21.179518	-177.551190	-21.179518	-177.551190	-0.922905	104.268521
8.150000	-1.038306	59.777053	-21.537764	177.579969	-21.537764	177.579969	-0.920155	99.520683
8.200000	-1.040791	54.072903	-21.947104	172.689465	-21.947104	172.689465	-0.916724	94.775392
8.250000	-1.044541	48.314428	-22.410250	167.781584	-22.410250	167.781584	-0.912671	90.035584
8.300000	-1.049831	42.498970	-22.931268	162.861146	-22.931268	162.861146	-0.908054	85.304510
8.350000	-1.056896	36.625356	-23.514652	157.934088	-23.514652	157.934088	-0.902951	80.585233
8.400000	-1.066173	30.686354	-24.168832	153.007727	-24.168832	153.007727	-0.897404	75.882350
8.450000	-1.077935	24.679929	-24.901643	148.092229	-24.901643	148.092229	-0.891504	71.199362
8.500000	-1.092532	18.601469	-25.724567	143.201136	-25.724567	143.201136	-0.885330	66.540259
8.550000	-1.110329	12.445632	-26.652932	138.353710	-26.652932	138.353710	-0.878962	61.909075
8.600000	-1.131709	6.206241	-27.707698	133.578659	-27.707698	133.578659	-0.872479	57.309833
8.650000	-1.157068	-0.123822	-28.918437	128.921114	-28.918437	128.921114	-0.865962	52.746499
8.700000	-1.186814	-6.552717	-30.328589	124.456634	-30.328589	124.456634	-0.859485	48.222928
8.750000	-1.221367	-13.089749	-32.005422	120.321953	-32.005422	120.321953	-0.853122	43.742821
8.800000	-1.261233	-19.747367	-34.060047	116.808711	-34.060047	116.808711	-0.846943	39.310419
8.850000	-1.306767	-26.535943	-36.695771	114.584062	-36.695771	114.584062	-0.841009	34.928368
8.900000	-1.358414	-33.469489	-40.329458	115.722504	-40.329458	115.722504	-0.835377	30.599923
8.950000	-1.416456	-40.559903	-45.838557	129.203718	-45.838557	129.203718	-0.830087	26.326828
9.000000	-1.481405	-47.827591	-49.657093	-168.838725	-49.657093	-168.838725	-0.825189	22.113005
9.050000	-1.553472	-55.288557	-43.826962	-128.772171	-43.826962	-128.772171	-0.820714	17.960013
9.100000	-1.632716	-62.957587	-39.428514	-122.259760	-39.428514	-122.259760	-0.816679	13.868604
9.150000	-1.719428	-70.864415	-36.524181	-123.211560	-36.524181	-123.211560	-0.813123	9.843126
9.200000	-1.813055	-79.016373	-34.426176	-126.449461	-34.426176	-126.449461	-0.810031	5.881402
9.250000	-1.913320	-87.443546	-32.824821	-130.789077	-32.824821	-130.789077	-0.807429	1.987074
9.300000	-2.019156	-96.158066	-31.559253	-135.726141	-31.559253	-135.726141	-0.805304	-1.840728
9.350000	-2.129169	-105.173293	-30.539572	-141.052556	-30.539572	-141.052556	-0.803648	-5.601985
9.400000	-2.241357	-114.509997	-29.714371	-146.666473	-29.714371	-146.666473	-0.802464	-9.294440
9.450000	-2.353099	-124.157273	-29.044251	-152.492765	-29.044251	-152.492765	-0.801717	-12.921361
9.500000	-2.460912	-134.124709	-28.510261	-158.499316	-28.510261	-158.499316	-0.801413	-16.479917
9.550000	-2.561057	-144.384171	-28.093262	-164.648915	-28.093262	-164.648915	-0.801520	-19.972974
9.600000	-2.649388	-154.906261	-27.782288	-170.916691	-27.782288	-170.916691	-0.802026	-23.401088
9.650000	-2.721301	-165.649108	-27.571108	-177.280055	-27.571108	-177.280055	-0.802928	-26.763908
9.700000	-2.772955	-176.548919	-27.453299	176.286381	-27.453299	176.286381	-0.804230	-30.062799
9.750000	-2.801334	172.469885	-27.424346	169.807871	-27.424346	169.807871	-0.805956	-33.298698
9.800000	-2.804852	161.492055	-27.480273	163.310152	-27.480273	163.310152	-0.808174	-36.472495
9.850000	-2.783522	150.605176	-27.617566	156.818555	-27.617566	156.818555	-0.811018	-39.584286
9.900000	-2.738592	139.897818	-27.834076	150.357967	-27.834076	150.357967	-0.814715	-42.630518
9.950000	-2.673349	129.445476	-28.125624	143.950236	-28.125624	143.950236	-0.819035	-45.600996
10.000000	-2.591680	119.312941	-28.489176	137.614145	-28.489176	137.614145	-0.818669	-48.474046
