! freq	dB(S11)	phase(S11)	dB(S12)	phase(S12)	
!     	dB(S21)	phase(S21)	dB(S22)	phase(S22)	
!S-par simulation data
#  GHz  S  DB  R 50
0.000000	-0.000000	0.000000	-349.465981	0.000000	-349.465981	0.000000	-0.000000	0.000000
0.050000	-0.007652	-2.519492	-88.910203	88.303199	-88.910203	88.303199	-0.000587	-0.775838
0.100000	-0.011802	-4.984057	-82.898127	86.712821	-82.898127	86.712821	-0.001887	-1.546605
0.150000	-0.013729	-7.450300	-79.391005	85.102531	-79.391005	85.102531	-0.003189	-2.312248
0.200000	-0.015304	-9.918664	-76.911593	83.491347	-76.911593	83.491347	-0.004233	-3.075278
0.250000	-0.016938	-12.387472	-74.998438	81.884367	-74.998438	81.884367	-0.005011	-3.837321
0.300000	-0.018764	-14.855527	-73.446325	80.284918	-73.446325	80.284918	-0.005605	-4.599292
0.350000	-0.020788	-17.322240	-72.143300	78.694160	-72.143300	78.694160	-0.006126	-5.361507
0.400000	-0.023022	-19.787089	-71.024545	77.114273	-71.024545	77.114273	-0.006633	-6.124006
0.450000	-0.025454	-22.249706	-70.047712	75.546997	-70.047712	75.546997	-0.007174	-6.886687
0.500000	-0.028083	-24.709541	-69.185293	73.995502	-69.185293	73.995502	-0.007788	-7.649371
0.550000	-0.030874	-27.166507	-68.415519	72.460696	-68.415519	72.460696	-0.008489	-8.411846
0.600000	-0.033803	-29.620484	-67.722736	70.943905	-67.722736	70.943905	-0.009279	-9.173931
0.650000	-0.036849	-32.071322	-67.095325	69.446815	-67.095325	69.446815	-0.010154	-9.935467
0.700000	-0.039991	-34.518904	-66.524234	67.971133	-66.524234	67.971133	-0.011106	-10.696322
0.750000	-0.043211	-36.963140	-66.002261	66.518583	-66.002261	66.518583	-0.012123	-11.456396
0.800000	-0.046492	-39.403880	-65.523923	65.091572	-65.523923	65.091572	-0.013191	-12.215597
0.850000	-0.049817	-41.840845	-65.085335	63.693913	-65.085335	63.693913	-0.014300	-12.973820
0.900000	-0.053168	-44.274335	-64.681155	62.325104	-64.681155	62.325104	-0.015432	-13.731128
0.950000	-0.056531	-46.704349	-64.307999	60.986996	-64.307999	60.986996	-0.016576	-14.487519
1.000000	-0.059895	-49.130907	-63.962969	59.681474	-63.962969	59.681474	-0.017725	-15.243002
1.050000	-0.063251	-51.554040	-63.643560	58.410462	-63.643560	58.410462	-0.018871	-15.997593
1.100000	-0.066590	-53.973796	-63.347572	57.175922	-63.347572	57.175922	-0.020010	-16.751309
1.150000	-0.069903	-56.389994	-63.073921	55.982840	-63.073921	55.982840	-0.021136	-17.504109
1.200000	-0.073186	-58.802819	-62.820420	54.832358	-62.820420	54.832358	-0.022248	-18.256036
1.250000	-0.076435	-61.212499	-62.584965	53.724884	-62.584965	53.724884	-0.023344	-19.007143
1.300000	-0.079648	-63.619130	-62.366105	52.662515	-62.366105	52.662515	-0.024424	-19.757441
1.350000	-0.082824	-66.022817	-62.162492	51.647365	-62.162492	51.647365	-0.025489	-20.506938
1.400000	-0.085960	-68.423678	-61.972860	50.681549	-61.972860	50.681549	-0.026539	-21.255639
1.450000	-0.089058	-70.821820	-61.796059	49.767501	-61.796059	49.767501	-0.027575	-22.003541
1.500000	-0.092113	-73.217129	-61.631709	48.913119	-61.631709	48.913119	-0.028596	-22.750562
1.550000	-0.095132	-75.610046	-61.477701	48.114671	-61.477701	48.114671	-0.029605	-23.496784
1.600000	-0.098115	-78.000727	-61.332921	47.374059	-61.332921	47.374059	-0.030604	-24.242203
1.650000	-0.101066	-80.389337	-61.196262	46.693055	-61.196262	46.693055	-0.031594	-24.986809
1.700000	-0.103987	-82.776121	-61.066442	46.070734	-61.066442	46.070734	-0.032577	-25.730629
1.750000	-0.106879	-85.161059	-60.942841	45.515652	-60.942841	45.515652	-0.033552	-26.473556
1.800000	-0.109745	-87.544465	-60.823984	45.025333	-60.823984	45.025333	-0.034522	-27.215627
1.850000	-0.112589	-89.926550	-60.708676	44.600521	-60.708676	44.600521	-0.035487	-27.956828
1.900000	-0.115414	-92.307525	-60.595691	44.242225	-60.595691	44.242225	-0.036449	-28.697136
1.950000	-0.118224	-94.687629	-60.483750	43.950180	-60.483750	43.950180	-0.037409	-29.436538
2.000000	-0.121021	-97.067114	-60.371583	43.722775	-60.371583	43.722775	-0.038367	-30.175027
2.050000	-0.123810	-99.446229	-60.257924	43.558418	-60.257924	43.558418	-0.039325	-30.912590
2.100000	-0.126593	-101.825235	-60.141512	43.454749	-60.141512	43.454749	-0.040283	-31.649211
2.150000	-0.129374	-104.204399	-60.021103	43.408573	-60.021103	43.408573	-0.041243	-32.384876
2.200000	-0.132155	-106.583998	-59.895487	43.415826	-59.895487	43.415826	-0.042204	-33.119569
2.250000	-0.134940	-108.964317	-59.763513	43.471547	-59.763513	43.471547	-0.043167	-33.853276
2.300000	-0.137732	-111.345711	-59.623615	43.571336	-59.623615	43.571336	-0.044133	-34.585939
2.350000	-0.140533	-113.728354	-59.475885	43.704969	-59.475885	43.704969	-0.045103	-35.317642
2.400000	-0.143346	-116.112614	-59.318927	43.867207	-59.318927	43.867207	-0.046076	-36.048315
2.450000	-0.146173	-118.498808	-59.152030	44.049930	-59.152030	44.049930	-0.047053	-36.777946
2.500000	-0.149016	-120.887257	-58.974646	44.244477	-58.974646	44.244477	-0.048036	-37.506521
2.550000	-0.151879	-123.278419	-58.785729	44.441495	-58.785729	44.441495	-0.049023	-38.233980
2.600000	-0.154763	-125.672530	-58.585714	44.631241	-58.585714	44.631241	-0.050016	-38.960355
2.650000	-0.157669	-128.069933	-58.374617	44.804532	-58.374617	44.804532	-0.051015	-39.685633
2.700000	-0.160599	-130.470970	-58.152638	44.952424	-58.152638	44.952424	-0.052020	-40.409804
2.750000	-0.163555	-132.875992	-57.920144	45.066397	-57.920144	45.066397	-0.053032	-41.132855
2.800000	-0.166537	-135.285349	-57.677658	45.138512	-57.677658	45.138512	-0.054050	-41.854775
2.850000	-0.169547	-137.699396	-57.425837	45.161548	-57.425837	45.161548	-0.055075	-42.575554
2.900000	-0.172586	-140.118490	-57.165446	45.129093	-57.165446	45.129093	-0.056107	-43.295180
2.950000	-0.175653	-142.542986	-56.897338	45.035619	-56.897338	45.035619	-0.057147	-44.013643
3.000000	-0.178751	-144.973242	-56.622425	44.876504	-56.622425	44.876504	-0.058195	-44.730934
3.050000	-0.181878	-147.409614	-56.341657	44.648035	-56.341657	44.648035	-0.059251	-45.447045
3.100000	-0.185036	-149.852456	-56.055998	44.347383	-56.055998	44.347383	-0.060315	-46.161965
3.150000	-0.188219	-152.301184	-55.768074	43.982409	-55.768074	43.982409	-0.061387	-46.875845
3.200000	-0.191437	-154.758052	-55.475268	43.531411	-55.475268	43.531411	-0.062469	-47.588349
3.250000	-0.194683	-157.222440	-55.180393	43.004389	-55.180393	43.004389	-0.063559	-48.299639
3.300000	-0.197958	-159.694686	-54.884314	42.401452	-54.884314	42.401452	-0.064660	-49.009709
3.350000	-0.201261	-162.175119	-54.587840	41.723233	-54.587840	41.723233	-0.065770	-49.718552
3.400000	-0.204590	-164.664059	-54.291728	40.970806	-54.291728	40.970806	-0.066890	-50.426161
3.450000	-0.207944	-167.161819	-53.996673	40.145610	-53.996673	40.145610	-0.068020	-51.132532
3.500000	-0.211323	-169.668697	-53.703308	39.249376	-53.703308	39.249376	-0.069161	-51.837658
3.550000	-0.214723	-172.184983	-53.412210	38.284061	-53.412210	38.284061	-0.070313	-52.541536
3.600000	-0.218144	-174.710950	-53.123896	37.251792	-53.123896	37.251792	-0.071476	-53.244161
3.650000	-0.221583	-177.246856	-52.838827	36.154812	-52.838827	36.154812	-0.072650	-53.945529
3.700000	-0.225039	-179.792945	-52.557412	34.995441	-52.557412	34.995441	-0.073837	-54.645638
3.750000	-0.228508	177.650561	-52.280011	33.776034	-52.280011	33.776034	-0.075035	-55.344482
3.800000	-0.231989	175.083222	-52.006857	32.497754	-52.006857	32.497754	-0.076247	-56.042034
3.850000	-0.235479	172.505084	-51.738328	31.164249	-51.738328	31.164249	-0.077471	-56.738318
3.900000	-0.238974	169.915988	-51.474658	29.777817	-51.474658	29.777817	-0.078708	-57.433334
3.950000	-0.242472	167.315801	-51.216044	28.340698	-51.216044	28.340698	-0.079959	-58.127078
4.000000	-0.245970	164.704416	-50.962655	26.855063	-50.962655	26.855063	-0.081224	-58.819553
4.050000	-0.249463	162.081753	-50.714630	25.323001	-50.714630	25.323001	-0.082503	-59.510756
4.100000	-0.252950	159.447764	-50.472081	23.746512	-50.472081	23.746512	-0.083797	-60.200689
4.150000	-0.256426	156.802428	-50.235102	22.127504	-50.235102	22.127504	-0.085107	-60.889352
4.200000	-0.259889	154.145760	-50.003763	20.467787	-50.003763	20.467787	-0.086431	-61.576747
4.250000	-0.263333	151.477806	-49.778119	18.769072	-49.778119	18.769072	-0.087772	-62.262876
4.300000	-0.266756	148.798650	-49.558208	17.032972	-49.558208	17.032972	-0.089129	-62.947741
4.350000	-0.270154	146.108409	-49.344057	15.260996	-49.344057	15.260996	-0.090503	-63.631345
4.400000	-0.273523	143.407125	-49.135689	13.454196	-49.135689	13.454196	-0.091895	-64.313677
4.450000	-0.276858	140.695000	-48.933116	11.613926	-48.933116	11.613926	-0.093304	-64.994742
4.500000	-0.280157	137.972392	-48.736326	9.741771	-48.736326	9.741771	-0.094732	-65.674559
4.550000	-0.283416	135.239579	-48.545302	7.838846	-48.545302	7.838846	-0.096178	-66.353131
4.600000	-0.286631	132.496881	-48.360027	5.906175	-48.360027	5.906175	-0.097644	-67.030466
4.650000	-0.289799	129.744660	-48.180472	3.944695	-48.180472	3.944695	-0.099129	-67.706569
4.700000	-0.292916	126.983319	-48.006608	1.955254	-48.006608	1.955254	-0.100634	-68.381447
4.750000	-0.295980	124.213303	-47.838399	-0.061380	-47.838399	-0.061380	-0.102160	-69.055109
4.800000	-0.298986	121.435100	-47.675807	-2.104522	-47.675807	-2.104522	-0.103707	-69.727561
4.850000	-0.301933	118.649239	-47.518791	-4.173559	-47.518791	-4.173559	-0.105275	-70.398814
4.900000	-0.304817	115.856291	-47.367305	-6.267956	-47.367305	-6.267956	-0.106866	-71.068877
4.950000	-0.307637	113.056864	-47.221303	-8.387248	-47.221303	-8.387248	-0.108479	-71.737760
5.000000	-0.310390	110.251607	-47.080734	-10.531036	-47.080734	-10.531036	-0.110115	-72.405476
5.050000	-0.313073	107.441114	-46.945617	-12.699508	-46.945617	-12.699508	-0.111776	-73.072011
5.100000	-0.315686	104.626235	-46.815828	-14.891866	-46.815828	-14.891866	-0.113461	-73.737403
5.150000	-0.318227	101.807731	-46.691305	-17.107907	-46.691305	-17.107907	-0.115171	-74.401668
5.200000	-0.320697	98.986393	-46.571982	-19.347488	-46.571982	-19.347488	-0.116906	-75.064820
5.250000	-0.323095	96.163041	-46.457789	-21.610523	-46.457789	-21.610523	-0.118667	-75.726876
5.300000	-0.325420	93.338524	-46.348647	-23.896987	-46.348647	-23.896987	-0.120454	-76.387852
5.350000	-0.327674	90.513716	-46.244470	-26.206911	-46.244470	-26.206911	-0.122269	-77.047768
5.400000	-0.329857	87.689509	-46.145165	-28.540390	-46.145165	-28.540390	-0.124112	-77.706643
5.450000	-0.331970	84.866816	-46.050624	-30.897578	-46.050624	-30.897578	-0.125982	-78.364499
5.500000	-0.334015	82.046566	-45.960730	-33.278699	-45.960730	-33.278699	-0.127882	-79.021359
5.550000	-0.335994	79.229697	-45.875347	-35.684046	-45.875347	-35.684046	-0.129812	-79.677247
5.600000	-0.337909	76.417157	-45.794322	-38.113992	-45.794322	-38.113992	-0.131772	-80.332190
5.650000	-0.339763	73.609968	-45.717519	-40.569272	-45.717519	-40.569272	-0.133764	-80.986205
5.700000	-0.341559	70.809114	-45.644730	-43.050465	-45.644730	-43.050465	-0.135788	-81.639326
5.750000	-0.343301	68.015491	-45.575687	-45.557971	-45.575687	-45.557971	-0.137844	-82.291594
5.800000	-0.344993	65.230043	-45.510120	-48.092586	-45.510120	-48.092586	-0.139935	-82.943045
5.850000	-0.346639	62.453704	-45.447719	-50.655248	-45.447719	-50.655248	-0.142060	-83.593717
5.900000	-0.348244	59.687398	-45.388123	-53.247052	-45.388123	-53.247052	-0.144221	-84.243653
5.950000	-0.349813	56.932029	-45.330910	-55.869269	-45.330910	-55.869269	-0.146418	-84.892898
6.000000	-0.351350	54.188483	-45.275587	-58.523354	-45.275587	-58.523354	-0.148654	-85.541500
6.050000	-0.352861	51.457623	-45.221573	-61.210960	-45.221573	-61.210960	-0.150929	-86.189513
6.100000	-0.354351	48.740287	-45.168181	-63.933920	-45.168181	-63.933920	-0.153245	-86.836999
6.150000	-0.355825	46.037283	-45.114596	-66.694217	-45.114596	-66.694217	-0.155605	-87.484022
6.200000	-0.357291	43.349390	-45.059848	-69.493897	-45.059848	-69.493897	-0.158009	-88.130658
6.250000	-0.358752	40.677353	-45.002785	-72.334916	-45.002785	-72.334916	-0.160462	-88.776991
6.300000	-0.360216	38.022256	-44.941912	-75.219844	-44.941912	-75.219844	-0.162966	-89.423118
6.350000	-0.361688	35.384425	-44.875670	-78.148579	-44.875670	-78.148579	-0.165524	-90.069166
6.400000	-0.363175	32.764491	-44.802208	-81.120560	-44.802208	-81.120560	-0.168139	-90.715287
6.450000	-0.364683	30.163044	-44.719490	-84.133184	-44.719490	-84.133184	-0.170812	-91.361678
6.500000	-0.366217	27.580633	-44.625402	-87.181127	-44.625402	-87.181127	-0.173533	-92.008600
6.550000	-0.367783	25.017762	-44.517947	-90.255969	-44.517947	-90.255969	-0.176274	-92.656368
6.600000	-0.369389	22.474894	-44.395483	-93.346503	-44.395483	-93.346503	-0.178955	-93.305173
6.650000	-0.371039	19.952446	-44.256966	-96.440073	-44.256966	-96.440073	-0.181476	-93.954567
6.700000	-0.372744	17.451628	-44.101298	-99.524270	-44.101298	-99.524270	-0.183873	-94.603316
6.750000	-0.374501	14.970379	-43.930908	-102.592628	-43.930908	-102.592628	-0.186387	-95.251295
6.800000	-0.376326	12.511350	-43.744145	-105.640843	-43.744145	-105.640843	-0.189172	-95.899743
6.850000	-0.378225	10.074926	-43.541113	-108.672500	-43.541113	-108.672500	-0.192192	-96.549977
6.900000	-0.380202	7.659986	-43.322586	-111.696594	-43.322586	-111.696594	-0.195366	-97.202443
6.950000	-0.382263	5.266658	-43.087405	-114.722579	-43.087405	-114.722579	-0.198659	-97.857431
7.000000	-0.384418	2.895023	-42.833691	-117.759534	-42.833691	-117.759534	-0.202064	-98.515248
7.050000	-0.386675	0.545116	-42.559005	-120.814790	-42.559005	-120.814790	-0.205585	-99.176286
7.100000	-0.389044	-1.783076	-42.260533	-123.893344	-42.260533	-123.893344	-0.209236	-99.841039
7.150000	-0.391552	-4.087370	-41.930735	-127.000679	-41.930735	-127.000679	-0.213053	-100.510642
7.200000	-0.394202	-6.369899	-41.569404	-130.135004	-41.569404	-130.135004	-0.217052	-101.185540
7.250000	-0.397010	-8.631117	-41.173756	-133.295244	-41.173756	-133.295244	-0.221264	-101.866615
7.300000	-0.399998	-10.871279	-40.740502	-136.480134	-40.740502	-136.480134	-0.225733	-102.555009
7.350000	-0.403194	-13.090707	-40.266290	-139.688498	-40.266290	-139.688498	-0.230516	-103.252109
7.400000	-0.406630	-15.289804	-39.747649	-142.919833	-39.747649	-142.919833	-0.235685	-103.959625
7.450000	-0.410364	-17.468359	-39.177446	-146.175917	-39.177446	-146.175917	-0.241363	-104.680248
7.500000	-0.414476	-19.626252	-38.546063	-149.461478	-38.546063	-149.461478	-0.247734	-105.417777
7.550000	-0.418988	-21.767005	-37.863912	-152.778185	-37.863912	-152.778185	-0.254884	-106.173176
7.600000	-0.424057	-23.889622	-37.113048	-156.140593	-37.113048	-156.140593	-0.263187	-106.953309
7.650000	-0.429862	-25.995153	-36.282217	-159.568652	-36.282217	-159.568652	-0.273130	-107.765629
7.700000	-0.436590	-28.086101	-35.370045	-163.086294	-35.370045	-163.086294	-0.285282	-108.617335
7.750000	-0.444562	-30.164416	-34.365739	-166.733145	-34.365739	-166.733145	-0.300632	-109.520272
7.800000	-0.454365	-32.232332	-33.243534	-170.580420	-33.243534	-170.580420	-0.321067	-110.495013
7.850000	-0.466803	-34.293755	-31.988206	-174.723732	-31.988206	-174.723732	-0.349431	-111.566236
7.900000	-0.483172	-36.353290	-30.580993	-179.308853	-30.580993	-179.308853	-0.390628	-112.769284
7.950000	-0.506248	-38.416509	-28.966242	175.371929	-28.966242	175.371929	-0.455721	-114.170882
8.000000	-0.540948	-40.487559	-27.099508	168.842656	-27.099508	168.842656	-0.566640	-115.858809
8.050000	-0.597780	-42.555983	-24.912186	160.145238	-24.912186	160.145238	-0.776698	-117.948232
8.100000	-0.697752	-44.531823	-22.369598	147.312033	-22.369598	147.312033	-1.222822	-120.380512
8.150000	-0.860184	-45.994061	-19.709594	126.554291	-19.709594	126.554291	-2.204265	-121.436381
8.200000	-0.954797	-46.199529	-18.143373	94.967942	-18.143373	94.967942	-3.353858	-113.663814
8.250000	-0.783229	-46.688471	-19.044718	62.764837	-19.044718	62.764837	-2.544840	-103.810005
8.300000	-0.612905	-48.521075	-21.192651	41.303277	-21.192651	41.303277	-1.497851	-103.487606
8.350000	-0.532828	-50.656983	-23.277124	28.256455	-23.277124	28.256455	-0.985146	-105.513897
8.400000	-0.498898	-52.728255	-25.013674	19.689525	-25.013674	19.689525	-0.738430	-107.459200
8.450000	-0.484825	-54.704806	-26.434208	13.498224	-26.434208	13.498224	-0.607220	-109.081779
8.500000	-0.479983	-56.604763	-27.599895	8.690979	-27.599895	8.690979	-0.531584	-110.442513
8.550000	-0.479690	-58.447737	-28.574540	4.728027	-28.574540	4.728027	-0.484573	-111.620928
8.600000	-0.481925	-60.245800	-29.395887	1.333922	-29.395887	1.333922	-0.454184	-112.668737
8.650000	-0.485643	-62.007515	-30.094633	-1.662137	-30.094633	-1.662137	-0.433949	-113.622413
8.700000	-0.490290	-63.738724	-30.693647	-4.367756	-30.693647	-4.367756	-0.420267	-114.506611
8.750000	-0.495554	-65.443531	-31.210259	-6.854118	-31.210259	-6.854118	-0.411007	-115.338314
8.800000	-0.501276	-67.123500	-31.652623	-9.161324	-31.652623	-9.161324	-0.404992	-116.127372
8.850000	-0.507291	-68.784294	-32.044098	-11.346629	-32.044098	-11.346629	-0.400998	-116.887660
8.900000	-0.513596	-70.423112	-32.377738	-13.409715	-32.377738	-13.409715	-0.398861	-117.619409
8.950000	-0.520088	-72.046200	-32.674690	-15.394114	-32.674690	-15.394114	-0.397844	-118.332946
9.000000	-0.526794	-73.649915	-32.928160	-17.294566	-32.928160	-17.294566	-0.397935	-119.027255
9.050000	-0.533644	-75.240212	-33.155284	-19.142979	-33.155284	-19.142979	-0.398679	-119.709713
9.100000	-0.540634	-76.817468	-33.356904	-20.943816	-33.356904	-20.943816	-0.400004	-120.381365
9.150000	-0.547825	-78.375833	-33.523133	-22.684892	-33.523133	-22.684892	-0.402024	-121.039471
9.200000	-0.555156	-79.921702	-33.669390	-24.392010	-33.669390	-24.392010	-0.404427	-121.689836
9.250000	-0.562615	-81.456426	-33.798343	-26.070703	-33.798343	-26.070703	-0.407147	-122.333681
9.300000	-0.570226	-82.978415	-33.908095	-27.719635	-33.908095	-27.719635	-0.410198	-122.970640
9.350000	-0.578025	-84.485622	-33.997452	-29.338900	-33.997452	-29.338900	-0.413583	-123.600552
9.400000	-0.585958	-85.983129	-34.074618	-30.940974	-34.074618	-30.940974	-0.417166	-124.226254
9.450000	-0.594027	-87.471134	-34.140059	-32.527161	-34.140059	-32.527161	-0.420936	-124.847998
9.500000	-0.602295	-88.945943	-34.190162	-34.094115	-34.190162	-34.094115	-0.424944	-125.464723
9.550000	-0.610732	-90.410619	-34.229511	-35.648682	-34.229511	-35.648682	-0.429120	-126.077967
9.600000	-0.619317	-91.866980	-34.260372	-37.194037	-34.260372	-37.194037	-0.433429	-126.688489
9.650000	-0.628066	-93.314504	-34.282511	-38.730501	-34.282511	-38.730501	-0.437876	-127.296249
9.700000	-0.637051	-94.750214	-34.293850	-40.257460	-34.293850	-40.257460	-0.442497	-127.900629
9.750000	-0.646200	-96.178679	-34.299000	-41.779843	-34.299000	-41.779843	-0.447222	-128.503087
9.800000	-0.655513	-97.600056	-34.298245	-43.298217	-34.298245	-43.298217	-0.452047	-129.103716
9.850000	-0.665056	-99.012191	-34.290204	-44.812617	-34.290204	-44.812617	-0.457002	-129.702100
9.900000	-0.674823	-100.416230	-34.276224	-46.324981	-34.276224	-46.324981	-0.462069	-130.298660
9.950000	-0.684773	-101.814166	-34.257971	-47.836475	-34.257971	-47.836475	-0.467221	-130.893905
10.000000	-0.694910	-103.206147	-34.235681	-49.347520	-34.235681	-49.347520	-0.472457	-131.487904
