! freq	dB(S11)	phase(S11)	dB(S12)	phase(S12)	
!     	dB(S21)	phase(S21)	dB(S22)	phase(S22)	
!S-par simulation data
#  GHz  S  DB  R 50
0.000000	-0.000000	-0.000000	-352.745720	180.000000	-352.745720	180.000000	-0.000000	-0.000000
0.050000	-0.004118	-6.313622	-78.933034	86.445551	-78.933034	86.445551	-0.000659	-0.766568
0.100000	-0.014074	-12.577748	-72.949877	82.992678	-72.949877	82.992678	-0.001854	-1.527079
0.150000	-0.025758	-18.768009	-69.482550	79.555447	-69.482550	79.555447	-0.002866	-2.283681
0.200000	-0.036644	-24.875630	-67.058414	76.147094	-67.058414	76.147094	-0.003650	-3.038948
0.250000	-0.046031	-30.895468	-65.214323	72.780464	-65.214323	72.780464	-0.004314	-3.793821
0.300000	-0.054009	-36.818046	-63.744034	69.466631	-63.744034	69.466631	-0.004936	-4.548472
0.350000	-0.060896	-42.637308	-62.534550	66.212007	-62.534550	66.212007	-0.005555	-5.302865
0.400000	-0.066889	-48.338336	-61.521637	63.026665	-61.521637	63.026665	-0.006189	-6.056883
0.450000	-0.072178	-53.912066	-60.661497	59.916661	-60.661497	59.916661	-0.006845	-6.810393
0.500000	-0.076884	-59.350046	-59.924180	56.887441	-59.924180	56.887441	-0.007522	-7.563227
0.550000	-0.081114	-64.652963	-59.285784	53.938976	-59.285784	53.938976	-0.008217	-8.315210
0.600000	-0.084899	-69.808089	-58.732712	51.079379	-58.732712	51.079379	-0.008939	-9.065923
0.650000	-0.088302	-74.818456	-58.250662	48.307468	-58.250662	48.307468	-0.009740	-9.814823
0.700000	-0.091365	-79.685084	-57.829245	45.623409	-57.829245	45.623409	-0.010825	-10.561384
0.750000	-0.094111	-84.404416	-57.461432	43.030389	-57.461432	43.030389	-0.012639	-11.307494
0.800000	-0.096572	-88.978973	-57.140349	40.528084	-57.140349	40.528084	-0.014842	-12.059220
0.850000	-0.098778	-93.413605	-56.860002	38.114870	-56.860002	38.114870	-0.016320	-12.814238
0.900000	-0.100756	-97.712453	-56.615644	35.789713	-56.615644	35.789713	-0.017250	-13.567013
0.950000	-0.102527	-101.879327	-56.403422	33.551947	-56.403422	33.551947	-0.018061	-14.317118
1.000000	-0.104115	-105.919038	-56.219928	31.400413	-56.219928	31.400413	-0.018894	-15.065375
1.050000	-0.105539	-109.836711	-56.062223	29.333876	-56.062223	29.333876	-0.019768	-15.812309
1.100000	-0.106818	-113.637670	-55.927751	27.351089	-55.927751	27.351089	-0.020679	-16.558176
1.150000	-0.107970	-117.327346	-55.814280	25.450837	-55.814280	25.450837	-0.021615	-17.303099
1.200000	-0.109013	-120.911200	-55.719845	23.631975	-55.719845	23.631975	-0.022571	-18.047137
1.250000	-0.109960	-124.394661	-55.642705	21.893464	-55.642705	21.893464	-0.023539	-18.790320
1.300000	-0.110826	-127.781137	-55.581612	20.236101	-55.581612	20.236101	-0.024515	-19.532643
1.350000	-0.111626	-131.078036	-55.534821	18.657380	-55.534821	18.657380	-0.025496	-20.274130
1.400000	-0.112371	-134.290438	-55.501075	17.156700	-55.501075	17.156700	-0.026480	-21.014781
1.450000	-0.113074	-137.423258	-55.479227	15.733618	-55.479227	15.733618	-0.027464	-21.754593
1.500000	-0.113745	-140.481233	-55.468218	14.387856	-55.468218	14.387856	-0.028448	-22.493561
1.550000	-0.114394	-143.468915	-55.467061	13.119289	-55.467061	13.119289	-0.029430	-23.231678
1.600000	-0.115030	-146.390671	-55.474827	11.927941	-55.474827	11.927941	-0.030410	-23.968936
1.650000	-0.115661	-149.250679	-55.490626	10.813970	-55.490626	10.813970	-0.031389	-24.705327
1.700000	-0.116296	-152.052932	-55.513602	9.777648	-55.513602	9.777648	-0.032364	-25.440841
1.750000	-0.116941	-154.801243	-55.542914	8.819339	-55.542914	8.819339	-0.033337	-26.175467
1.800000	-0.117604	-157.499248	-55.577734	7.939468	-55.577734	7.939468	-0.034308	-26.909195
1.850000	-0.118290	-160.150420	-55.617230	7.138491	-55.617230	7.138491	-0.035277	-27.642014
1.900000	-0.119006	-162.757631	-55.660592	6.417712	-55.660592	6.417712	-0.036243	-28.373902
1.950000	-0.119758	-165.324141	-55.706934	5.777521	-55.706934	5.777521	-0.037208	-29.104847
2.000000	-0.120549	-167.853429	-55.755342	5.217308	-55.755342	5.217308	-0.038172	-29.834846
2.050000	-0.121386	-170.348365	-55.804911	4.737145	-55.804911	4.737145	-0.039135	-30.563886
2.100000	-0.122273	-172.811693	-55.854714	4.336858	-55.854714	4.336858	-0.040097	-31.291956
2.150000	-0.123213	-175.246042	-55.903790	4.015953	-55.903790	4.015953	-0.041059	-32.019042
2.200000	-0.124211	-177.653928	-55.951156	3.773542	-55.951156	3.773542	-0.042022	-32.745131
2.250000	-0.125272	179.962232	-55.995804	3.608267	-55.995804	3.608267	-0.042985	-33.470210
2.300000	-0.126400	177.600930	-56.036480	3.521341	-56.036480	3.521341	-0.043950	-34.194221
2.350000	-0.127595	175.258028	-56.072639	3.503112	-56.072639	3.503112	-0.044917	-34.917252
2.400000	-0.128862	172.932511	-56.103025	3.554459	-56.103025	3.554459	-0.045886	-35.639235
2.450000	-0.130206	170.622292	-56.126633	3.671485	-56.126633	3.671485	-0.046857	-36.360156
2.500000	-0.131629	168.325353	-56.142498	3.849535	-56.142498	3.849535	-0.047831	-37.080003
2.550000	-0.133140	166.040139	-56.149293	4.085311	-56.149293	4.085311	-0.048810	-37.798714
2.600000	-0.134738	163.764175	-56.146538	4.369891	-56.146538	4.369891	-0.049792	-38.516325
2.650000	-0.136426	161.495615	-56.133509	4.696311	-56.133509	4.696311	-0.050779	-39.232823
2.700000	-0.138208	159.232653	-56.109607	5.057005	-56.109607	5.057005	-0.051770	-39.948195
2.750000	-0.140089	156.973520	-56.074370	5.443907	-56.074370	5.443907	-0.052767	-40.662429
2.800000	-0.142072	154.716481	-56.027486	5.848596	-56.027486	5.848596	-0.053769	-41.375514
2.850000	-0.144160	152.459829	-55.968806	6.262445	-55.968806	6.262445	-0.054778	-42.087439
2.900000	-0.146359	150.201880	-55.898349	6.676794	-55.898349	6.676794	-0.055793	-42.798191
2.950000	-0.148672	147.940970	-55.816296	7.083122	-55.816296	7.083122	-0.056815	-43.507760
3.000000	-0.151104	145.675447	-55.722991	7.473212	-55.722991	7.473212	-0.057844	-44.216135
3.050000	-0.153660	143.403674	-55.618926	7.839304	-55.618926	7.839304	-0.058880	-44.923305
3.100000	-0.156344	141.124018	-55.504726	8.174234	-55.504726	8.174234	-0.059925	-45.629261
3.150000	-0.159164	138.834852	-55.381134	8.471540	-55.381134	8.471540	-0.060978	-46.333991
3.200000	-0.162123	136.534548	-55.248985	8.725541	-55.248985	8.725541	-0.062039	-47.037488
3.250000	-0.165228	134.221472	-55.109192	8.931394	-55.109192	8.931394	-0.063110	-47.739741
3.300000	-0.168486	131.893988	-54.962720	9.085114	-54.962720	9.085114	-0.064190	-48.440740
3.350000	-0.171904	129.550445	-54.810566	9.183573	-54.810566	9.183573	-0.065280	-49.140479
3.400000	-0.175489	127.189183	-54.653742	9.224480	-54.653742	9.224480	-0.066380	-49.838947
3.450000	-0.179248	124.808525	-54.493260	9.206335	-54.493260	9.206335	-0.067490	-50.536138
3.500000	-0.183190	122.406773	-54.330117	9.128381	-54.330117	9.128381	-0.068611	-51.232043
3.550000	-0.187324	119.982211	-54.165284	8.990545	-54.165284	8.990545	-0.069743	-51.926655
3.600000	-0.191659	117.533098	-53.999699	8.793367	-53.999699	8.793367	-0.070887	-52.619966
3.650000	-0.196206	115.057666	-53.834258	8.537940	-53.834258	8.537940	-0.072042	-53.311970
3.700000	-0.200974	112.554121	-53.669817	8.225851	-53.669817	8.225851	-0.073209	-54.002661
3.750000	-0.205976	110.020638	-53.507183	7.859116	-53.507183	7.859116	-0.074389	-54.692032
3.800000	-0.211231	107.454246	-53.347139	7.438550	-53.347139	7.438550	-0.075583	-55.380034
3.850000	-0.216745	104.854042	-53.190435	6.968695	-53.190435	6.968695	-0.076789	-56.066705
3.900000	-0.222530	102.218099	-53.037742	6.452629	-53.037742	6.452629	-0.078009	-56.752040
3.950000	-0.228603	99.544461	-52.889687	5.893705	-52.889687	5.893705	-0.079243	-57.436033
4.000000	-0.234976	96.831136	-52.746854	5.295538	-52.746854	5.295538	-0.080491	-58.118680
4.050000	-0.241667	94.076099	-52.609792	4.661994	-52.609792	4.661994	-0.081753	-58.799978
4.100000	-0.248691	91.277298	-52.479011	3.997194	-52.479011	3.997194	-0.083031	-59.479922
4.150000	-0.256066	88.432648	-52.354986	3.305516	-52.354986	3.305516	-0.084324	-60.158509
4.200000	-0.263808	85.540041	-52.238155	2.591612	-52.238155	2.591612	-0.085632	-60.835735
4.250000	-0.271938	82.597346	-52.128923	1.860432	-52.128923	1.860432	-0.086957	-61.511598
4.300000	-0.280473	79.602417	-52.027656	1.117243	-52.027656	1.117243	-0.088297	-62.186096
4.350000	-0.289434	76.553097	-51.934681	0.367670	-51.934681	0.367670	-0.089655	-62.859225
4.400000	-0.298844	73.446587	-51.850368	-0.382204	-51.850368	-0.382204	-0.091030	-63.530969
4.450000	-0.308724	70.280664	-51.774960	-1.125695	-51.774960	-1.125695	-0.092422	-64.201327
4.500000	-0.319090	67.053809	-51.708537	-1.855842	-51.708537	-1.855842	-0.093832	-64.870311
4.550000	-0.329960	63.763921	-51.651191	-2.565170	-51.651191	-2.565170	-0.095261	-65.537922
4.600000	-0.341354	60.408948	-51.602925	-3.245645	-51.602925	-3.245645	-0.096707	-66.204157
4.650000	-0.353290	56.986898	-51.563633	-3.888649	-51.563633	-3.888649	-0.098173	-66.869017
4.700000	-0.365784	53.495864	-51.533080	-4.484959	-51.533080	-4.484959	-0.099659	-67.532502
4.750000	-0.378852	49.934043	-51.510866	-5.024762	-51.510866	-5.024762	-0.101164	-68.194612
4.800000	-0.392506	46.299759	-51.496405	-5.497690	-51.496405	-5.497690	-0.102689	-68.855346
4.850000	-0.406756	42.591490	-51.488873	-5.892907	-51.488873	-5.892907	-0.104234	-69.514706
4.900000	-0.421609	38.807897	-51.487176	-6.199265	-51.487176	-6.199265	-0.105801	-70.172693
4.950000	-0.437067	34.947851	-51.489900	-6.405530	-51.489900	-6.405530	-0.107389	-70.829308
5.000000	-0.453130	31.010470	-51.495262	-6.500728	-51.495262	-6.500728	-0.108998	-71.484552
5.050000	-0.469801	26.993444	-51.501024	-6.471759	-51.501024	-6.471759	-0.110630	-72.138398
5.100000	-0.487054	22.898184	-51.504463	-6.312248	-51.504463	-6.312248	-0.112285	-72.790877
5.150000	-0.504869	18.724770	-51.502465	-6.015590	-51.502465	-6.015590	-0.113962	-73.441992
5.200000	-0.523218	14.473664	-51.491482	-5.578279	-51.491482	-5.578279	-0.115663	-74.091745
5.250000	-0.542066	10.145742	-51.467595	-5.000901	-51.467595	-5.000901	-0.117388	-74.740139
5.300000	-0.561367	5.742329	-51.426636	-4.289124	-51.426636	-4.289124	-0.119136	-75.387177
5.350000	-0.581070	1.265218	-51.364364	-3.454544	-51.364364	-3.454544	-0.120909	-76.032862
5.400000	-0.601113	-3.283304	-51.276700	-2.515208	-51.276700	-2.515208	-0.122707	-76.677199
5.450000	-0.621426	-7.900445	-51.160011	-1.495643	-51.160011	-1.495643	-0.124531	-77.320190
5.500000	-0.641931	-12.582898	-51.011397	-0.426257	-51.011397	-0.426257	-0.126380	-77.961841
5.550000	-0.662540	-17.326845	-50.828961	0.657958	-50.828961	0.657958	-0.128255	-78.602154
5.600000	-0.683163	-22.127968	-50.611995	1.719321	-50.611995	1.719321	-0.130157	-79.241135
5.650000	-0.703697	-26.981977	-50.360631	2.718675	-50.360631	2.718675	-0.132086	-79.878774
5.700000	-0.724038	-31.883434	-50.076705	3.618821	-50.076705	3.618821	-0.134043	-80.515076
5.750000	-0.744081	-36.826093	-49.763602	4.388776	-49.763602	4.388776	-0.136028	-81.150060
5.800000	-0.763722	-41.803934	-49.425084	5.002628	-49.425084	5.002628	-0.138041	-81.783733
5.850000	-0.782858	-46.810656	-49.065429	5.441004	-49.065429	5.441004	-0.140082	-82.416100
5.900000	-0.801389	-51.839748	-48.689145	5.691210	-48.689145	5.691210	-0.142153	-83.047166
5.950000	-0.819222	-56.884565	-48.300711	5.746813	-48.300711	5.746813	-0.144253	-83.676938
6.000000	-0.836269	-61.938413	-47.904377	5.606863	-47.904377	5.606863	-0.146383	-84.305422
6.050000	-0.852475	-66.994735	-47.504434	5.278906	-47.504434	5.278906	-0.148542	-84.932652
6.100000	-0.867728	-72.046854	-47.103349	4.760757	-47.103349	4.760757	-0.150733	-85.558572
6.150000	-0.881996	-77.088367	-46.704681	4.067174	-46.704681	4.067174	-0.152955	-86.183225
6.200000	-0.895237	-82.113193	-46.310908	3.209310	-46.310908	3.209310	-0.155208	-86.806616
6.250000	-0.907422	-87.115593	-45.924064	2.199233	-45.924064	2.199233	-0.157494	-87.428754
6.300000	-0.918521	-92.089862	-45.545706	1.048002	-45.545706	1.048002	-0.159811	-88.049633
6.350000	-0.928543	-97.031360	-45.177209	-0.230338	-45.177209	-0.230338	-0.162162	-88.669273
6.400000	-0.937475	-101.935024	-44.819476	-1.625458	-44.819476	-1.625458	-0.164546	-89.287664
6.450000	-0.945365	-106.797990	-44.473307	-3.122754	-44.473307	-3.122754	-0.166963	-89.904845
6.500000	-0.952228	-111.616507	-44.139121	-4.712669	-44.139121	-4.712669	-0.169414	-90.520813
6.550000	-0.958098	-116.387752	-43.817208	-6.385098	-43.817208	-6.385098	-0.171899	-91.135575
6.600000	-0.963016	-121.109426	-43.507713	-8.130686	-43.507713	-8.130686	-0.174418	-91.749140
6.650000	-0.967030	-125.779748	-43.210666	-9.940828	-43.210666	-9.940828	-0.176973	-92.361518
6.700000	-0.970207	-130.398660	-42.925927	-11.806531	-42.925927	-11.806531	-0.179562	-92.972744
6.750000	-0.972554	-134.962310	-42.653549	-13.723459	-42.653549	-13.723459	-0.182187	-93.582760
6.800000	-0.974156	-139.472124	-42.393251	-15.683203	-42.393251	-15.683203	-0.184849	-94.191616
6.850000	-0.975068	-143.928154	-42.144802	-17.679868	-42.144802	-17.679868	-0.187547	-94.799322
6.900000	-0.975343	-148.330826	-41.907942	-19.708122	-41.907942	-19.708122	-0.190281	-95.405887
6.950000	-0.975037	-152.680907	-41.682393	-21.763149	-41.682393	-21.763149	-0.193053	-96.011322
7.000000	-0.974200	-156.979469	-41.467865	-23.840615	-41.467865	-23.840615	-0.195861	-96.615635
7.050000	-0.972883	-161.227853	-41.264061	-25.936619	-41.264061	-25.936619	-0.198708	-97.218839
7.100000	-0.971131	-165.427413	-41.070712	-28.047719	-41.070712	-28.047719	-0.201592	-97.820937
7.150000	-0.968987	-169.579749	-40.887553	-30.170783	-40.887553	-30.170783	-0.204516	-98.421936
7.200000	-0.966498	-173.687300	-40.714237	-32.302883	-40.714237	-32.302883	-0.207477	-99.021857
7.250000	-0.963701	-177.752184	-40.550478	-34.441545	-40.550478	-34.441545	-0.210478	-99.620711
7.300000	-0.960632	178.223360	-40.396002	-36.584574	-40.396002	-36.584574	-0.213518	-100.218509
7.350000	-0.957324	174.236992	-40.250544	-38.730042	-40.250544	-38.730042	-0.216597	-100.815263
7.400000	-0.953806	170.286293	-40.113852	-40.876257	-40.113852	-40.876257	-0.219716	-101.410984
7.450000	-0.950107	166.368780	-39.985685	-43.021758	-39.985685	-43.021758	-0.222874	-102.005685
7.500000	-0.946250	162.481928	-39.865818	-45.165292	-39.865818	-45.165292	-0.226074	-102.599376
7.550000	-0.942252	158.624892	-39.754481	-47.305539	-39.754481	-47.305539	-0.229316	-103.192003
7.600000	-0.938150	154.790947	-39.650429	-49.442234	-39.650429	-49.442234	-0.232595	-103.783736
7.650000	-0.933949	150.981297	-39.554496	-51.574060	-39.554496	-51.574060	-0.235918	-104.374437
7.700000	-0.929673	147.191246	-39.465878	-53.700962	-39.465878	-53.700962	-0.239281	-104.964210
7.750000	-0.925337	143.418964	-39.384682	-55.822384	-39.384682	-55.822384	-0.242685	-105.553033
7.800000	-0.920954	139.662199	-39.310901	-57.938018	-39.310901	-57.938018	-0.246132	-106.140899
7.850000	-0.916541	135.917360	-39.243917	-60.048242	-39.243917	-60.048242	-0.249619	-106.727894
7.900000	-0.912109	132.183425	-39.184532	-62.152372	-39.184532	-62.152372	-0.253151	-107.313907
7.950000	-0.907673	128.456382	-39.131529	-64.251574	-39.131529	-64.251574	-0.256722	-107.899109
8.000000	-0.903247	124.734964	-39.086155	-66.345168	-39.086155	-66.345168	-0.260339	-108.483342
8.050000	-0.898843	121.016023	-39.047235	-68.434446	-39.047235	-68.434446	-0.263996	-109.066772
8.100000	-0.894475	117.297397	-39.015579	-70.519426	-39.015579	-70.519426	-0.267698	-109.649313
8.150000	-0.890157	113.576798	-38.990848	-72.600935	-38.990848	-72.600935	-0.271442	-110.231029
8.200000	-0.885901	109.852088	-38.973004	-74.679672	-38.973004	-74.679672	-0.275228	-110.811949
8.250000	-0.881728	106.120715	-38.962677	-76.756136	-38.962677	-76.756136	-0.279059	-111.392033
8.300000	-0.877650	102.380632	-38.959831	-78.831107	-38.959831	-78.831107	-0.282933	-111.971322
8.350000	-0.873688	98.629646	-38.964768	-80.905206	-38.964768	-80.905206	-0.286851	-112.549828
8.400000	-0.869860	94.865582	-38.977865	-82.978947	-38.977865	-82.978947	-0.290813	-113.127562
8.450000	-0.866186	91.086530	-38.999454	-85.052649	-38.999454	-85.052649	-0.294819	-113.704547
8.500000	-0.862689	87.290542	-39.030026	-87.126335	-39.030026	-87.126335	-0.298870	-114.280799
8.550000	-0.859391	83.475731	-39.070157	-89.199620	-39.070157	-89.199620	-0.302965	-114.856332
8.600000	-0.856320	79.640281	-39.120517	-91.271559	-39.120517	-91.271559	-0.307105	-115.431162
8.650000	-0.853501	75.782450	-39.181874	-93.340469	-39.181874	-93.340469	-0.311289	-116.005305
8.700000	-0.850964	71.900571	-39.255084	-95.403711	-39.255084	-95.403711	-0.315519	-116.578776
8.750000	-0.848741	67.993064	-39.341090	-97.457426	-39.341090	-97.457426	-0.319794	-117.151591
8.800000	-0.846869	64.058019	-39.441094	-99.495924	-39.441094	-99.495924	-0.324116	-117.723758
8.850000	-0.845381	60.094413	-39.555955	-101.512043	-39.555955	-101.512043	-0.328483	-118.295303
8.900000	-0.844317	56.100553	-39.686872	-103.495731	-39.686872	-103.495731	-0.332898	-118.866235
8.950000	-0.843704	52.076145	-39.834337	-105.436173	-39.834337	-105.436173	-0.337359	-119.436588
9.000000	-0.843586	48.019759	-39.999243	-107.318428	-39.999243	-107.318428	-0.341868	-120.006372
9.050000	-0.844003	43.930456	-40.181996	-109.125198	-40.181996	-109.125198	-0.346425	-120.575606
9.100000	-0.845013	39.806533	-40.382852	-110.833507	-40.382852	-110.833507	-0.351033	-121.144295
9.150000	-0.846648	35.647877	-40.600791	-112.421893	-40.600791	-112.421893	-0.355690	-121.712470
9.200000	-0.848947	31.454258	-40.834129	-113.867655	-40.834129	-113.867655	-0.360398	-122.280155
9.250000	-0.851951	27.225308	-41.080344	-115.147440	-41.080344	-115.147440	-0.365158	-122.847376
9.300000	-0.855699	22.960818	-41.335873	-116.239967	-41.335873	-116.239967	-0.369971	-123.414154
9.350000	-0.860231	18.660743	-41.596115	-117.128297	-41.596115	-117.128297	-0.374837	-123.980518
9.400000	-0.865599	14.324605	-41.855325	-117.798544	-41.855325	-117.798544	-0.379758	-124.546489
9.450000	-0.871838	9.952734	-42.107121	-118.249985	-42.107121	-118.249985	-0.384735	-125.112098
9.500000	-0.878965	5.546249	-42.345441	-118.496689	-42.345441	-118.496689	-0.389767	-125.677384
9.550000	-0.887004	1.105846	-42.564493	-118.559863	-42.564493	-118.559863	-0.394854	-126.242380
9.600000	-0.895977	-3.367591	-42.759459	-118.470357	-42.759459	-118.470357	-0.399995	-126.807117
9.650000	-0.905899	-7.872983	-42.926939	-118.266101	-42.926939	-118.266101	-0.405190	-127.371630
9.700000	-0.916787	-12.409313	-43.064946	-117.988317	-43.064946	-117.988317	-0.410438	-127.935949
9.750000	-0.928657	-16.975557	-43.173030	-117.679224	-43.173030	-117.679224	-0.415738	-128.500101
9.800000	-0.941478	-21.569259	-43.253629	-117.377677	-43.253629	-117.377677	-0.421087	-129.064120
9.850000	-0.955234	-26.188577	-43.309480	-117.114389	-43.309480	-117.114389	-0.426484	-129.628030
9.900000	-0.969901	-30.831489	-43.344026	-116.912588	-43.344026	-116.912588	-0.431927	-130.191854
9.950000	-0.985443	-35.495815	-43.361012	-116.787942	-43.361012	-116.787942	-0.437414	-130.755614
10.000000	-1.001819	-40.179216	-43.364157	-116.749271	-43.364157	-116.749271	-0.442944	-131.319328
