! freq	dB(S11)	phase(S11)	dB(S12)	phase(S12)	
!     	dB(S21)	phase(S21)	dB(S22)	phase(S22)	
!S-par simulation data
#  GHz  S  DB  R 50
0.000000	-83.618691	0.000000	-0.000573	0.000000	-0.000573	0.000000	-83.618691	0.000000
0.050000	-45.827150	-91.769224	-0.004034	-2.573480	-0.004034	-2.573480	-45.827570	-91.768123
0.100000	-39.815227	-94.658100	-0.010261	-5.115124	-0.010261	-5.115124	-39.815563	-94.656180
0.150000	-36.307266	-97.305745	-0.015498	-7.637143	-0.015498	-7.637143	-36.307492	-97.303351
0.200000	-33.828404	-99.898987	-0.019562	-10.153026	-0.019562	-10.153026	-33.828528	-99.896484
0.250000	-31.916686	-102.476027	-0.023024	-12.667785	-0.023024	-12.667785	-31.916738	-102.473690
0.300000	-30.366357	-105.048838	-0.026293	-15.182579	-0.026293	-15.182579	-30.366380	-105.046800
0.350000	-29.068731	-107.621584	-0.029597	-17.697413	-0.029597	-17.697413	-29.068769	-107.619836
0.400000	-27.957512	-110.195367	-0.033045	-20.212018	-0.033045	-20.212018	-27.957601	-110.193793
0.450000	-26.990559	-112.770052	-0.036688	-22.726111	-0.036688	-22.726111	-26.990721	-112.768478
0.500000	-26.140032	-115.345036	-0.040555	-25.239404	-0.040555	-25.239404	-26.140280	-115.343255
0.550000	-25.384690	-117.919543	-0.044638	-27.751710	-0.044638	-27.751710	-25.385024	-117.917362
0.600000	-24.709103	-120.492880	-0.048926	-30.262885	-0.048926	-30.262885	-24.709516	-120.490132
0.650000	-24.102355	-123.064382	-0.053404	-32.772771	-0.053404	-32.772771	-24.102835	-123.060927
0.700000	-23.555479	-125.633526	-0.058049	-35.281282	-0.058049	-35.281282	-23.556011	-125.629262
0.750000	-23.060777	-128.199999	-0.062830	-37.788405	-0.062830	-37.788405	-23.061344	-128.194857
0.800000	-22.612811	-130.763491	-0.067721	-40.294100	-0.067721	-40.294100	-22.613397	-130.757430
0.850000	-22.207636	-133.323703	-0.072694	-42.798325	-0.072694	-42.798325	-22.208226	-133.316704
0.900000	-21.840472	-135.880669	-0.077715	-45.301175	-0.077715	-45.301175	-21.841053	-135.872732
0.950000	-21.508156	-138.434348	-0.082755	-47.802704	-0.082755	-47.802704	-21.508717	-138.425486
1.000000	-21.209149	-140.984578	-0.087785	-50.302923	-0.087785	-50.302923	-21.209679	-140.974812
1.050000	-20.940205	-143.531584	-0.092774	-52.801995	-0.092774	-52.801995	-20.940698	-143.520941
1.100000	-20.699363	-146.075487	-0.097696	-55.300040	-0.097696	-55.300040	-20.699813	-146.063993
1.150000	-20.485801	-148.616321	-0.102520	-57.797163	-0.102520	-57.797163	-20.486205	-148.604001
1.200000	-20.297870	-151.154317	-0.107224	-60.293539	-0.107224	-60.293539	-20.298227	-151.141192
1.250000	-20.134020	-153.689740	-0.111787	-62.789351	-0.111787	-62.789351	-20.134330	-153.675825
1.300000	-19.993736	-156.222778	-0.116185	-65.284774	-0.116185	-65.284774	-19.994000	-156.208079
1.350000	-19.876636	-158.753662	-0.120396	-67.780007	-0.120396	-67.780007	-19.876857	-158.738175
1.400000	-19.781329	-161.282757	-0.124410	-70.275266	-0.124410	-70.275266	-19.781511	-161.266469
1.450000	-19.707412	-163.810352	-0.128215	-72.770760	-0.128215	-72.770760	-19.707559	-163.793239
1.500000	-19.655617	-166.336719	-0.131787	-75.266743	-0.131787	-75.266743	-19.655734	-166.318741
1.550000	-19.624597	-168.862269	-0.135131	-77.763420	-0.135131	-77.763420	-19.624690	-168.843374
1.600000	-19.614257	-171.387349	-0.138242	-80.261016	-0.138242	-80.261016	-19.614330	-171.367472
1.650000	-19.625540	-173.912332	-0.141106	-82.759818	-0.141106	-82.759818	-19.625600	-173.891390
1.700000	-19.658041	-176.437625	-0.143732	-85.260039	-0.143732	-85.260039	-19.658094	-176.415519
1.750000	-19.711681	-178.963622	-0.146126	-87.761883	-0.146126	-87.761883	-19.711732	-178.940237
1.800000	-19.787161	178.509248	-0.148290	-90.265602	-0.148290	-90.265602	-19.787216	178.534047
1.850000	-19.885016	175.980546	-0.150234	-92.771420	-0.150234	-92.771420	-19.885081	176.006914
1.900000	-20.006168	173.449786	-0.151967	-95.279585	-0.151967	-95.279585	-20.006247	173.477904
1.950000	-20.151476	170.916470	-0.153503	-97.790312	-0.153503	-97.790312	-20.151574	170.946546
2.000000	-20.321745	168.380115	-0.154861	-100.303777	-0.154861	-100.303777	-20.321865	168.412385
2.050000	-20.518228	165.840184	-0.156060	-102.820168	-0.156060	-102.820168	-20.518374	165.874916
2.100000	-20.742429	163.296099	-0.157120	-105.339660	-0.157120	-105.339660	-20.742604	163.333604
2.150000	-20.996144	160.747231	-0.158063	-107.862415	-0.158063	-107.862415	-20.996351	160.787867
2.200000	-21.281516	158.192886	-0.158915	-110.388581	-0.158915	-110.388581	-21.281759	158.237066
2.250000	-21.601114	155.632275	-0.159700	-112.918289	-0.159700	-112.918289	-21.601394	155.680484
2.300000	-21.958023	153.064490	-0.160445	-115.451654	-0.160445	-115.451654	-21.958342	153.117301
2.350000	-22.355975	150.488456	-0.161178	-117.988776	-0.161178	-117.988776	-22.356336	150.546549
2.400000	-22.799523	147.902864	-0.161927	-120.529736	-0.161927	-120.529736	-22.799929	147.967064
2.450000	-23.294278	145.306081	-0.162722	-123.074596	-0.162722	-123.074596	-23.294733	145.377395
2.500000	-23.847243	142.696006	-0.163591	-125.623403	-0.163591	-125.623403	-23.847750	142.775686
2.550000	-24.467908	140.069414	-0.164566	-128.176271	-0.164566	-128.176271	-24.468476	140.159092
2.600000	-25.167162	137.422672	-0.165676	-130.733123	-0.165676	-130.733123	-25.167801	137.524429
2.650000	-25.960140	134.750171	-0.166948	-133.293950	-0.166948	-133.293950	-25.960866	134.866781
2.700000	-26.867378	132.043538	-0.168410	-135.858727	-0.168410	-135.858727	-26.868219	132.178816
2.750000	-27.917699	129.289640	-0.170089	-138.427412	-0.170089	-138.427412	-27.918701	129.449036
2.800000	-29.153336	126.466568	-0.172010	-140.999946	-0.172010	-140.999946	-29.154583	126.658270
2.850000	-30.639756	123.534789	-0.174199	-143.576258	-0.174199	-143.576258	-30.641409	123.771917
2.900000	-32.486518	120.414865	-0.176677	-146.156259	-0.176677	-146.156259	-32.488929	120.720433
2.950000	-34.898418	116.919988	-0.179466	-148.739851	-0.179466	-148.739851	-34.902502	117.340181
3.000000	-38.331665	112.480679	-0.182584	-151.326921	-0.182584	-151.326921	-38.340676	113.131555
3.050000	-44.195306	104.067418	-0.186050	-153.917346	-0.186050	-153.917346	-44.232099	105.415828
3.100000	-57.993468	23.348390	-0.189878	-156.510995	-0.189878	-156.510995	-59.035717	23.749793
3.150000	-43.907754	-58.899583	-0.194085	-159.107758	-0.194085	-159.107758	-43.945550	-60.266218
3.200000	-37.985848	-66.887297	-0.198682	-161.707483	-0.198682	-161.707483	-37.996336	-67.605733
3.250000	-34.448274	-71.295278	-0.203673	-164.309982	-0.203673	-164.309982	-34.453423	-71.789383
3.300000	-31.918638	-74.798118	-0.209063	-166.915098	-0.209063	-166.915098	-31.921858	-75.179618
3.350000	-29.948421	-77.939764	-0.214856	-169.522671	-0.214856	-169.522671	-29.950721	-78.253823
3.400000	-28.335402	-80.901836	-0.221052	-172.132538	-0.221052	-172.132538	-28.337184	-81.171134
3.450000	-26.971081	-83.762100	-0.227648	-174.744537	-0.227648	-174.744537	-26.972539	-83.999633
3.500000	-25.790469	-86.559345	-0.234641	-177.358507	-0.234641	-177.358507	-25.791709	-86.773255
3.550000	-24.751550	-89.315038	-0.242024	-179.974289	-0.242024	-179.974289	-24.752632	-89.510770
3.600000	-23.825581	-92.041992	-0.249786	177.408271	-0.249786	177.408271	-23.826545	-92.223366
3.650000	-22.992030	-94.748297	-0.257918	174.789325	-0.257918	174.789325	-22.992901	-94.918106
3.700000	-22.235714	-97.439303	-0.266404	172.169015	-0.266404	172.169015	-22.236512	-97.599649
3.750000	-21.545087	-100.118669	-0.275229	169.547480	-0.275229	169.547480	-21.545823	-100.271180
3.800000	-20.911310	-102.788828	-0.284380	166.924827	-0.284380	166.924827	-20.911996	-102.934813
3.850000	-20.327120	-105.451866	-0.293829	164.301202	-0.293829	164.301202	-20.327764	-105.592354
3.900000	-19.786748	-108.109148	-0.303555	161.676711	-0.303555	161.676711	-19.787355	-108.244984
3.950000	-19.285466	-110.761711	-0.313531	159.051453	-0.313531	159.051453	-19.286043	-110.893600
4.000000	-18.819352	-113.410364	-0.323733	156.425510	-0.323733	156.425510	-18.819902	-113.538899
4.050000	-18.385113	-116.055746	-0.334132	153.798954	-0.334132	153.798954	-18.385640	-116.181437
4.100000	-17.979956	-118.698380	-0.344699	151.171839	-0.344699	151.171839	-17.980464	-118.821665
4.150000	-17.601495	-121.338703	-0.355403	148.544206	-0.355403	148.544206	-17.601987	-121.459965
4.200000	-17.247670	-123.977091	-0.366212	145.916080	-0.366212	145.916080	-17.248148	-124.096666
4.250000	-16.916694	-126.613874	-0.377094	143.287467	-0.377094	143.287467	-16.917162	-126.732064
4.300000	-16.607006	-129.249355	-0.388015	140.658357	-0.388015	140.658357	-16.607464	-129.366428
4.350000	-16.317231	-131.883816	-0.398941	138.028722	-0.398941	138.028722	-16.317683	-132.000017
4.400000	-16.046264	-134.517522	-0.409837	135.398507	-0.409837	135.398507	-16.046710	-134.633074
4.450000	-15.793030	-137.150745	-0.420665	132.767642	-0.420665	132.767642	-15.793472	-137.265856
4.500000	-15.556464	-139.783753	-0.431394	130.136048	-0.431394	130.136048	-15.556904	-139.898614
4.550000	-15.335707	-142.416810	-0.441987	127.503619	-0.441987	127.503619	-15.336146	-142.531597
4.600000	-15.129991	-145.050180	-0.452413	124.870230	-0.452413	124.870230	-15.130430	-145.165063
4.650000	-14.938623	-147.684133	-0.462637	122.235737	-0.462637	122.235737	-14.939062	-147.799272
4.700000	-14.760980	-150.318945	-0.472628	119.599979	-0.472628	119.599979	-14.761421	-150.434495
4.750000	-14.596499	-152.954898	-0.482355	116.962777	-0.482355	116.962777	-14.596942	-153.071008
4.800000	-14.444672	-155.592281	-0.491790	114.323934	-0.491790	114.323934	-14.445118	-155.709096
4.850000	-14.305040	-158.231388	-0.500904	111.683239	-0.500904	111.683239	-14.305490	-158.349051
4.900000	-14.177188	-160.872519	-0.509672	109.040463	-0.509672	109.040463	-14.177642	-160.991172
4.950000	-14.060741	-163.515980	-0.518069	106.395365	-0.518069	106.395365	-14.061199	-163.635764
5.000000	-13.955360	-166.162082	-0.526075	103.747690	-0.526075	103.747690	-13.955822	-166.283138
5.050000	-13.860948	-168.811209	-0.533659	101.097103	-0.533659	101.097103	-13.861415	-168.933683
5.100000	-13.777022	-171.463621	-0.540813	98.443381	-0.540813	98.443381	-13.777494	-171.587657
5.150000	-13.703338	-174.119636	-0.547521	95.786234	-0.547521	95.786234	-13.703815	-174.245380
5.200000	-13.639677	-176.779572	-0.553772	93.125366	-0.553772	93.125366	-13.640160	-176.907176
5.250000	-13.585849	-179.443747	-0.559554	90.460472	-0.559554	90.460472	-13.586338	-179.573363
5.300000	-13.541685	177.887525	-0.564859	87.791238	-0.564859	87.791238	-13.542180	177.755736
5.350000	-13.507043	175.213932	-0.569682	85.117349	-0.569682	85.117349	-13.507544	175.079807
5.400000	-13.481799	172.535168	-0.574019	82.438481	-0.574019	82.438481	-13.482307	172.398536
5.450000	-13.465855	169.850932	-0.577869	79.754308	-0.577869	79.754308	-13.466370	169.711616
5.500000	-13.459133	167.160933	-0.581234	77.064500	-0.581234	77.064500	-13.459656	167.018747
5.550000	-13.461574	164.464889	-0.584118	74.368726	-0.584118	74.368726	-13.462106	164.319640
5.600000	-13.473145	161.762527	-0.586525	71.666651	-0.586525	71.666651	-13.473686	161.614012
5.650000	-13.493928	159.053516	-0.588458	68.957865	-0.588458	68.957865	-13.494479	158.901519
5.700000	-13.523930	156.337604	-0.589929	66.242020	-0.589929	66.242020	-13.524492	156.181897
5.750000	-13.563082	153.614638	-0.590955	63.518853	-0.590955	63.518853	-13.563656	153.454982
5.800000	-13.611437	150.884411	-0.591548	60.788026	-0.591548	60.788026	-13.612024	150.720553
5.850000	-13.669073	148.146738	-0.591727	58.049205	-0.591727	58.049205	-13.669676	147.978411
5.900000	-13.736094	145.401460	-0.591507	55.302055	-0.591507	55.302055	-13.736713	145.228377
5.950000	-13.812632	142.648444	-0.590909	52.546240	-0.590909	52.546240	-13.813269	142.470298
6.000000	-13.898846	139.887587	-0.589953	49.781428	-0.589953	49.781428	-13.899505	139.704053
6.050000	-13.994932	137.118823	-0.588663	47.007285	-0.588663	47.007285	-13.995614	136.929547
6.100000	-14.101120	134.342123	-0.587062	44.223478	-0.587062	44.223478	-14.101827	134.146728
6.150000	-14.217677	131.557504	-0.585176	41.429677	-0.585176	41.429677	-14.218413	131.355580
6.200000	-14.344917	128.765034	-0.583032	38.625548	-0.583032	38.625548	-14.345685	128.556138
6.250000	-14.483202	125.964840	-0.580658	35.810760	-0.580658	35.810760	-14.484007	125.748487
6.300000	-14.633148	123.156958	-0.578080	32.984733	-0.578080	32.984733	-14.633994	122.932609
6.350000	-14.795042	120.341835	-0.575333	30.147365	-0.575333	30.147365	-14.795935	120.108907
6.400000	-14.969437	117.519843	-0.572450	27.298319	-0.572450	27.298319	-14.970382	117.277697
6.450000	-15.156969	114.691462	-0.569463	24.437258	-0.569463	24.437258	-15.157975	114.439389
6.500000	-15.358371	111.857305	-0.566405	21.563838	-0.566405	21.563838	-15.359446	111.594519
6.550000	-15.574487	109.018140	-0.563312	18.677714	-0.563312	18.677714	-15.575641	108.743761
6.600000	-15.806289	106.174923	-0.560220	15.778534	-0.560220	15.778534	-15.807536	105.887963
6.650000	-16.054903	103.328838	-0.557165	12.865940	-0.557165	12.865940	-16.056258	103.028185
6.700000	-16.321574	100.481353	-0.554184	9.939645	-0.554184	9.939645	-16.323056	100.165748
6.750000	-16.607965	97.634263	-0.551318	6.999093	-0.551318	6.999093	-16.609599	97.302251
6.800000	-16.916110	94.790019	-0.548611	4.043576	-0.548611	4.043576	-16.917925	94.439880
6.850000	-17.247524	91.951277	-0.546097	1.073448	-0.546097	1.073448	-17.249560	91.581111
6.900000	-17.604650	89.121313	-0.543813	-1.911674	-0.543813	-1.911674	-17.606953	88.728918
6.950000	-17.991357	86.305561	-0.541824	-4.913320	-0.541824	-4.913320	-17.993992	85.888143
7.000000	-18.410611	83.509488	-0.540164	-7.931199	-0.540164	-7.931199	-18.413661	83.063833
7.050000	-18.866383	80.739833	-0.538870	-10.965404	-0.538870	-10.965404	-18.869958	80.262166
7.100000	-19.364008	78.005972	-0.537992	-14.016528	-0.537992	-14.016528	-19.368254	77.491692
7.150000	-19.911372	75.325295	-0.537618	-17.086436	-0.537618	-17.086436	-19.916502	74.768194
7.200000	-20.515290	72.712153	-0.537764	-20.174206	-0.537764	-20.174206	-20.521591	72.104947
7.250000	-21.186139	70.190006	-0.538484	-23.280363	-0.538484	-23.280363	-21.194024	69.523460
7.300000	-21.938355	67.798114	-0.539859	-26.406216	-0.539859	-26.406216	-21.948446	67.059717
7.350000	-22.790638	65.597253	-0.541972	-29.552769	-0.541972	-29.552769	-22.803918	64.769613
7.400000	-23.766288	63.661125	-0.544851	-32.719608	-0.544851	-32.719608	-23.784305	62.721304
7.450000	-24.899735	62.115238	-0.548567	-35.907386	-0.548567	-35.907386	-24.925108	61.031045
7.500000	-26.243237	61.235566	-0.553263	-39.118343	-0.553263	-39.118343	-26.280944	59.955522
7.550000	-27.869250	61.475709	-0.558992	-42.352367	-0.558992	-42.352367	-27.929307	59.922015
7.600000	-29.886683	63.734795	-0.565823	-45.609699	-0.565823	-45.609699	-29.991544	61.792890
7.650000	-32.442172	70.036109	-0.573858	-48.891292	-0.573858	-48.891292	-32.649430	67.569180
7.700000	-35.404109	86.877493	-0.583327	-52.200177	-0.583327	-52.200177	-35.869831	84.224243
7.750000	-37.180663	119.903360	-0.594185	-55.534126	-0.594185	-55.534126	-37.964638	119.600502
7.800000	-35.033659	152.983331	-0.606719	-58.896748	-0.606719	-58.896748	-35.540514	155.264779
7.850000	-31.692696	168.893237	-0.621019	-62.287968	-0.621019	-62.287968	-31.941070	171.122757
7.900000	-28.817430	175.074725	-0.637279	-65.709215	-0.637279	-65.709215	-28.955106	176.864798
7.950000	-26.471571	177.044918	-0.655687	-69.161546	-0.655687	-69.161546	-26.558286	178.487778
8.000000	-24.516729	176.978874	-0.676448	-72.646019	-0.676448	-72.646019	-24.576560	178.171838
8.050000	-22.842264	175.777925	-0.699826	-76.164226	-0.699826	-76.164226	-22.886307	176.788720
8.100000	-21.376152	173.898483	-0.726034	-79.716751	-0.726034	-79.716751	-21.410115	174.771493
8.150000	-20.067135	171.559310	-0.755440	-83.305757	-0.755440	-83.305757	-20.094263	172.325677
8.200000	-18.882874	168.906998	-0.788259	-86.931285	-0.788259	-86.931285	-18.905127	169.587995
8.250000	-17.797108	166.013420	-0.824976	-90.595923	-0.824976	-90.595923	-17.815754	166.625109
8.300000	-16.793683	162.939111	-0.865843	-94.299434	-0.865843	-94.299434	-16.809571	163.493073
8.350000	-15.858053	159.714435	-0.911400	-98.044002	-0.911400	-98.044002	-15.871779	160.219806
8.400000	-14.980862	156.366728	-0.962015	-101.829737	-0.962015	-101.829737	-14.992858	156.830505
8.450000	-14.153759	152.911749	-1.018256	-105.658014	-1.018256	-105.658014	-14.164345	153.339586
8.500000	-13.370800	149.362858	-1.080633	-109.529217	-1.080633	-109.529217	-13.380220	149.759303
8.550000	-12.627160	145.729721	-1.149718	-113.443709	-1.149718	-113.443709	-12.635604	146.098510
8.600000	-11.918781	142.019091	-1.226190	-117.402026	-1.226190	-117.402026	-11.926399	142.363358
8.650000	-11.242990	138.238143	-1.310593	-121.403319	-1.310593	-121.403319	-11.249905	138.560488
8.700000	-10.596882	134.390348	-1.403797	-125.448084	-1.403797	-125.448084	-10.603193	134.693035
8.750000	-9.979135	130.482140	-1.506272	-129.534098	-1.506272	-129.534098	-9.984924	130.767056
8.800000	-9.387634	126.515465	-1.619093	-133.661550	-1.619093	-133.661550	-9.392971	126.784313
8.850000	-8.821787	122.496566	-1.742673	-137.827043	-1.742673	-137.827043	-8.826729	122.750775
8.900000	-8.280334	118.428052	-1.878067	-142.029323	-1.878067	-142.029323	-8.284928	118.668922
8.950000	-7.762839	114.315445	-2.025803	-146.264586	-2.025803	-146.264586	-7.767126	114.544097
9.000000	-7.268676	110.162771	-2.186783	-150.529789	-2.186783	-150.529789	-7.272691	110.380220
9.050000	-6.797517	105.975449	-2.361625	-154.820536	-2.361625	-154.820536	-6.801287	106.182591
9.100000	-6.349057	101.758905	-2.551005	-159.132163	-2.551005	-159.132163	-6.352605	101.956542
9.150000	-5.923053	97.518879	-2.755590	-163.459521	-2.755590	-163.459521	-5.926397	97.707730
9.200000	-5.519253	93.261885	-2.975769	-167.796732	-2.975769	-167.796732	-5.522409	93.442582
9.250000	-5.137498	88.994248	-3.212200	-172.137779	-3.212200	-172.137779	-5.140475	89.167362
9.300000	-4.777371	84.722982	-3.464957	-176.476212	-3.464957	-176.476212	-4.780179	84.889002
9.350000	-4.438796	80.455122	-3.734612	179.194903	-3.734612	179.194903	-4.441442	80.614489
9.400000	-4.121102	76.197499	-4.020992	174.881918	-4.020992	174.881918	-4.123590	76.350579
9.450000	-3.824156	71.957623	-4.324385	170.592340	-4.324385	170.592340	-3.826491	72.104738
9.500000	-3.547106	67.741689	-4.644509	166.332048	-4.644509	166.332048	-3.549291	67.883096
9.550000	-3.289453	63.556409	-4.981281	162.107743	-4.981281	162.107743	-3.291495	63.692321
9.600000	-3.050570	59.408096	-5.334445	157.925755	-5.334445	157.925755	-3.052475	59.538680
9.650000	-2.829762	55.302683	-5.703631	153.792108	-5.703631	153.792108	-2.831539	55.428062
9.700000	-2.626103	51.244853	-6.088403	149.711575	-6.088403	149.711575	-2.627763	51.365113
9.750000	-2.438736	47.239031	-6.488299	145.688803	-6.488299	145.688803	-2.440293	47.354223
9.800000	-2.266775	43.288999	-6.902820	141.727868	-6.902820	141.727868	-2.268247	43.399144
9.850000	-2.109318	39.397876	-7.331447	137.832268	-7.331447	137.832268	-2.110726	39.502972
9.900000	-1.965460	35.568129	-7.773651	134.004918	-7.773651	134.004918	-1.966831	35.668155
9.950000	-1.834305	31.801592	-8.228913	130.248174	-8.228913	130.248174	-1.835669	31.896511
10.000000	-1.714978	28.099500	-8.696732	126.563856	-8.696732	126.563856	-1.716370	28.189262
