! freq	dB(S11)	phase(S11)	dB(S12)	phase(S12)	
!     	dB(S21)	phase(S21)	dB(S22)	phase(S22)	
!S-par simulation data
#  GHz  S  DB  R 50
0.000000	-0.000000	0.000000	-373.658194	0.000000	-373.658194	0.000000	-0.000000	0.000000
0.050000	-0.000096	-0.874838	-107.895723	90.695179	-107.895723	90.695179	-0.000114	-1.015744
0.100000	-0.000383	-1.749466	-101.875002	89.045118	-101.875002	89.045118	-0.000452	-2.031229
0.150000	-0.000852	-2.623687	-98.393257	87.913609	-98.393257	87.913609	-0.001004	-3.046209
0.200000	-0.001487	-3.497328	-95.955519	86.930513	-95.955519	86.930513	-0.001752	-4.060474
0.250000	-0.002283	-4.370186	-94.100325	86.027461	-94.100325	86.027461	-0.002686	-5.073771
0.300000	-0.003206	-5.242201	-92.616699	85.177767	-92.616699	85.177767	-0.003768	-6.086031
0.350000	-0.004244	-6.113244	-91.397031	84.380296	-91.397031	84.380296	-0.004982	-7.097097
0.400000	-0.005377	-6.983241	-90.376169	83.637063	-90.376169	83.637063	-0.006302	-8.106878
0.450000	-0.006585	-7.852143	-89.512372	82.953692	-89.512372	82.953692	-0.007708	-9.115317
0.500000	-0.007850	-8.719921	-88.777429	82.338337	-88.777429	82.338337	-0.009176	-10.122380
0.550000	-0.009157	-9.586567	-88.151498	81.801367	-88.151498	81.801367	-0.010688	-11.128055
0.600000	-0.010490	-10.452083	-87.620210	81.355430	-87.620210	81.355430	-0.012228	-12.132345
0.650000	-0.011838	-11.316484	-87.172917	81.015729	-87.172917	81.015729	-0.013782	-13.135263
0.700000	-0.013190	-12.179788	-86.801582	80.800477	-86.801582	80.800477	-0.015338	-14.136829
0.750000	-0.014539	-13.042019	-86.500023	80.731507	-86.500023	80.731507	-0.016889	-15.137066
0.800000	-0.015879	-13.903200	-86.263365	80.835059	-86.263365	80.835059	-0.018427	-16.135997
0.850000	-0.017205	-14.763354	-86.087594	81.142743	-86.087594	81.142743	-0.019948	-17.133642
0.900000	-0.018513	-15.622501	-85.969149	81.692691	-85.969149	81.692691	-0.021448	-18.130019
0.950000	-0.019803	-16.480658	-85.904485	82.530846	-85.904485	82.530846	-0.022926	-19.125140
1.000000	-0.021072	-17.337839	-85.889543	83.712282	-85.889543	83.712282	-0.024381	-20.119016
1.050000	-0.022321	-18.194054	-85.919060	85.302257	-85.919060	85.302257	-0.025813	-21.111649
1.100000	-0.023549	-19.049307	-85.985634	87.376423	-85.985634	87.376423	-0.027222	-22.103041
1.150000	-0.024759	-19.903602	-86.078486	90.019082	-86.078486	90.019082	-0.028610	-23.093185
1.200000	-0.025949	-20.756936	-86.181929	93.317648	-86.181929	93.317648	-0.029977	-24.082075
1.250000	-0.027123	-21.609306	-86.273748	97.350635	-86.273748	97.350635	-0.031325	-25.069699
1.300000	-0.028280	-22.460660	-86.320557	102.199144	-86.320557	102.199144	-0.032655	-26.055985
1.350000	-0.029422	-23.311032	-86.285506	107.804758	-86.285506	107.804758	-0.033970	-27.040971
1.400000	-0.030552	-24.160407	-86.129384	114.039681	-86.129384	114.039681	-0.035270	-28.024637
1.450000	-0.031671	-25.008771	-85.819869	120.663601	-85.819869	120.663601	-0.036558	-29.006962
1.500000	-0.032780	-25.856110	-85.341202	127.354383	-85.341202	127.354383	-0.037836	-29.987924
1.550000	-0.033880	-26.702406	-84.699430	133.777015	-84.699430	133.777015	-0.039104	-30.967500
1.600000	-0.034973	-27.547640	-83.919736	139.657425	-83.919736	139.657425	-0.040364	-31.945663
1.650000	-0.036061	-28.391793	-83.037812	144.825198	-83.037812	144.825198	-0.041618	-32.922391
1.700000	-0.037143	-29.234847	-82.090492	149.215065	-82.090492	149.215065	-0.042866	-33.897657
1.750000	-0.038223	-30.076780	-81.109509	152.841489	-81.109509	152.841489	-0.044110	-34.871436
1.800000	-0.039299	-30.917573	-80.119087	155.766318	-80.119087	155.766318	-0.045351	-35.843704
1.850000	-0.040374	-31.757204	-79.136144	158.072106	-79.136144	158.072106	-0.046590	-36.814435
1.900000	-0.041449	-32.595654	-78.171643	159.844835	-78.171643	159.844835	-0.047827	-37.783605
1.950000	-0.042523	-33.432901	-77.232169	161.164704	-77.232169	161.164704	-0.049064	-38.751188
2.000000	-0.043598	-34.268925	-76.321278	162.102299	-76.321278	162.102299	-0.050302	-39.717163
2.050000	-0.044675	-35.103706	-75.440521	162.717772	-75.440521	162.717772	-0.051540	-40.681504
2.100000	-0.045754	-35.937224	-74.590168	163.061496	-74.590168	163.061496	-0.052781	-41.644191
2.150000	-0.046836	-36.769459	-73.769705	163.175275	-73.769705	163.175275	-0.054023	-42.605201
2.200000	-0.047922	-37.600391	-72.978153	163.093692	-72.978153	163.093692	-0.055269	-43.564514
2.250000	-0.049011	-38.430002	-72.214284	162.845352	-72.214284	162.845352	-0.056518	-44.522109
2.300000	-0.050104	-39.258273	-71.476751	162.453970	-71.476751	162.453970	-0.057771	-45.477966
2.350000	-0.051203	-40.085187	-70.764175	161.939272	-70.764175	161.939272	-0.059029	-46.432069
2.400000	-0.052306	-40.910724	-70.075197	161.317742	-70.075197	161.317742	-0.060291	-47.384399
2.450000	-0.053415	-41.734870	-69.408503	160.603217	-69.408503	160.603217	-0.061560	-48.334939
2.500000	-0.054530	-42.557606	-68.762847	159.807371	-68.762847	159.807371	-0.062834	-49.283675
2.550000	-0.055651	-43.378854	-68.135969	158.937396	-68.135969	158.937396	-0.064115	-50.230511
2.600000	-0.056779	-44.198661	-67.527990	158.005084	-67.527990	158.005084	-0.065402	-51.175513
2.650000	-0.057914	-45.017012	-66.937866	157.017525	-66.937866	157.017525	-0.066697	-52.118668
2.700000	-0.059055	-45.833892	-66.364632	155.980831	-66.364632	155.980831	-0.067999	-53.059964
2.750000	-0.060205	-46.649288	-65.807390	154.900299	-65.807390	154.900299	-0.069310	-53.999391
2.800000	-0.061362	-47.463187	-65.265307	153.780536	-65.265307	153.780536	-0.070629	-54.936940
2.850000	-0.062527	-48.275576	-64.737614	152.625568	-64.737614	152.625568	-0.071957	-55.872601
2.900000	-0.063700	-49.086445	-64.223592	151.438924	-64.223592	151.438924	-0.073294	-56.806368
2.950000	-0.064882	-49.895781	-63.722579	150.223712	-63.722579	150.223712	-0.074641	-57.738233
3.000000	-0.066072	-50.703574	-63.233954	148.982679	-63.233954	148.982679	-0.075999	-58.668191
3.050000	-0.067272	-51.509814	-62.757143	147.718260	-62.757143	147.718260	-0.077366	-59.596237
3.100000	-0.068481	-52.314492	-62.291609	146.432620	-62.291609	146.432620	-0.078745	-60.522368
3.150000	-0.069700	-53.117599	-61.836851	145.127692	-61.836851	145.127692	-0.080136	-61.446582
3.200000	-0.070929	-53.919126	-61.392400	143.805205	-61.392400	143.805205	-0.081538	-62.368876
3.250000	-0.072168	-54.719066	-60.957820	142.466712	-60.957820	142.466712	-0.082953	-63.289250
3.300000	-0.073417	-55.517413	-60.532700	141.113610	-60.532700	141.113610	-0.084380	-64.207705
3.350000	-0.074677	-56.314158	-60.116654	139.747160	-60.116654	139.747160	-0.085821	-65.124242
3.400000	-0.075949	-57.109297	-59.709320	138.368501	-59.709320	138.368501	-0.087276	-66.038864
3.450000	-0.077232	-57.902824	-59.310358	136.978667	-59.310358	136.978667	-0.088746	-66.951573
3.500000	-0.078527	-58.694734	-58.919448	135.578597	-58.919448	135.578597	-0.090230	-67.862376
3.550000	-0.079833	-59.485023	-58.536286	134.169145	-58.536286	134.169145	-0.091729	-68.771276
3.600000	-0.081153	-60.273687	-58.160587	132.751092	-58.160587	132.751092	-0.093245	-69.678282
3.650000	-0.082485	-61.060723	-57.792080	131.325150	-57.792080	131.325150	-0.094776	-70.583400
3.700000	-0.083831	-61.846128	-57.430510	129.891972	-57.430510	129.891972	-0.096325	-71.486639
3.750000	-0.085190	-62.629901	-57.075633	128.452156	-57.075633	128.452156	-0.097892	-72.388010
3.800000	-0.086564	-63.411967	-56.726894	127.006012	-56.726894	127.006012	-0.099477	-73.287443
3.850000	-0.087953	-64.192397	-56.384425	125.554329	-56.384425	125.554329	-0.101080	-74.185031
3.900000	-0.089356	-64.971191	-56.048013	124.097568	-56.048013	124.097568	-0.102703	-75.080788
3.950000	-0.090774	-65.748348	-55.717461	122.636156	-55.717461	122.636156	-0.104346	-75.974728
4.000000	-0.092209	-66.523869	-55.392577	121.170488	-55.392577	121.170488	-0.106009	-76.866867
4.050000	-0.093659	-67.297755	-55.073180	119.700929	-55.073180	119.700929	-0.107693	-77.757222
4.100000	-0.095126	-68.070007	-54.759095	118.227820	-54.759095	118.227820	-0.109399	-78.645811
4.150000	-0.096611	-68.840626	-54.450158	116.751475	-54.450158	116.751475	-0.111127	-79.532654
4.200000	-0.098112	-69.609616	-54.146208	115.272190	-54.146208	115.272190	-0.112877	-80.417771
4.250000	-0.099632	-70.376978	-53.847094	113.790239	-53.847094	113.790239	-0.114651	-81.301185
4.300000	-0.101170	-71.142716	-53.552669	112.305878	-53.552669	112.305878	-0.116449	-82.182920
4.350000	-0.102728	-71.906834	-53.262793	110.819348	-53.262793	110.819348	-0.118272	-83.063000
4.400000	-0.104304	-72.669335	-52.977331	109.330875	-52.977331	109.330875	-0.120120	-83.941453
4.450000	-0.105901	-73.430225	-52.696152	107.840672	-52.696152	107.840672	-0.121993	-84.818308
4.500000	-0.107518	-74.189507	-52.419131	106.348941	-52.419131	106.348941	-0.123893	-85.693594
4.550000	-0.109156	-74.947188	-52.146146	104.855870	-52.146146	104.855870	-0.125821	-86.567345
4.600000	-0.110816	-75.703272	-51.877079	103.361642	-51.877079	103.361642	-0.127776	-87.439595
4.650000	-0.112497	-76.457767	-51.611816	101.866430	-51.611816	101.866430	-0.129761	-88.310380
4.700000	-0.114201	-77.210679	-51.350246	100.370397	-51.350246	100.370397	-0.131774	-89.179740
4.750000	-0.115928	-77.962015	-51.092261	98.873706	-51.092261	98.873706	-0.133818	-90.047717
4.800000	-0.117679	-78.711782	-50.837754	97.376508	-50.837754	97.376508	-0.135893	-90.914355
4.850000	-0.119453	-79.459988	-50.586623	95.878956	-50.586623	95.878956	-0.137999	-91.779703
4.900000	-0.121253	-80.206641	-50.338764	94.381196	-50.338764	94.381196	-0.140138	-92.643812
4.950000	-0.123077	-80.951750	-50.094077	92.883374	-50.094077	92.883374	-0.142311	-93.506738
5.000000	-0.124927	-81.695323	-49.852462	91.385633	-49.852462	91.385633	-0.144518	-94.368540
5.050000	-0.126813	-82.436777	-49.612409	89.888263	-49.612409	89.888263	-0.146775	-95.228896
5.100000	-0.128712	-83.177539	-49.377186	88.391118	-49.377186	88.391118	-0.149049	-96.088827
5.150000	-0.130646	-83.916371	-49.143748	86.894601	-49.143748	86.894601	-0.151371	-96.947571
5.200000	-0.132605	-84.653835	-48.913255	85.398779	-48.913255	85.398779	-0.153731	-97.805603
5.250000	-0.134587	-85.390075	-48.685962	83.903579	-48.685962	83.903579	-0.156123	-98.662996
5.300000	-0.136609	-86.124291	-48.459806	82.409819	-48.459806	82.409819	-0.158574	-99.519565
5.350000	-0.138644	-86.857835	-48.237862	80.916570	-48.237862	80.916570	-0.161045	-100.375879
5.400000	-0.140728	-87.588998	-48.015933	79.425561	-48.015933	79.425561	-0.163593	-101.231563
5.450000	-0.142829	-88.319367	-47.797612	77.935510	-47.797612	77.935510	-0.166169	-102.087179
5.500000	-0.144966	-89.048047	-47.580651	76.447500	-47.580651	76.447500	-0.168806	-102.942654
5.550000	-0.147135	-89.775302	-47.365394	74.961664	-47.365394	74.961664	-0.171501	-103.798343
5.600000	-0.149326	-90.501539	-47.152845	73.477382	-47.152845	73.477382	-0.174238	-104.654186
5.650000	-0.151565	-91.225742	-46.939948	71.996994	-46.939948	71.996994	-0.177073	-105.510970
5.700000	-0.153819	-91.949315	-46.730412	70.517937	-46.730412	70.517937	-0.179941	-106.368156
5.750000	-0.156124	-92.670793	-46.519728	69.043907	-46.519728	69.043907	-0.182931	-107.227201
5.800000	-0.158451	-93.391404	-46.311137	67.572491	-46.311137	67.572491	-0.185986	-108.087531
5.850000	-0.160814	-94.110569	-46.102726	66.105431	-46.102726	66.105431	-0.189148	-108.950004
5.900000	-0.163215	-94.828287	-45.893554	64.643879	-45.893554	64.643879	-0.192454	-109.815872
5.950000	-0.165639	-95.545186	-45.686186	63.185441	-45.686186	63.185441	-0.195843	-110.683661
6.000000	-0.168116	-96.260084	-45.474110	61.736666	-45.474110	61.736666	-0.199515	-111.558754
6.050000	-0.170608	-96.974493	-45.264470	60.290531	-45.264470	60.290531	-0.203273	-112.436065
6.100000	-0.173147	-97.687221	-45.049564	58.854591	-45.049564	58.854591	-0.207392	-113.322795
6.150000	-0.175722	-98.398740	-44.830609	57.427288	-44.830609	57.427288	-0.211883	-114.218974
6.200000	-0.178331	-99.109064	-44.605899	56.009525	-44.605899	56.009525	-0.216877	-115.127410
6.250000	-0.180976	-99.818208	-44.373084	54.602002	-44.373084	54.602002	-0.222573	-116.051972
6.300000	-0.183655	-100.526184	-44.128855	53.204808	-44.128855	53.204808	-0.229289	-116.998143
6.350000	-0.186371	-101.232913	-43.865813	51.816790	-43.865813	51.816790	-0.237743	-117.977280
6.400000	-0.189119	-101.938520	-43.578824	50.431330	-43.578824	50.431330	-0.248734	-118.998952
6.450000	-0.191898	-102.642938	-43.251793	49.030251	-43.251793	49.030251	-0.264499	-120.088724
6.500000	-0.194700	-103.346193	-42.862242	47.564088	-42.862242	47.564088	-0.289301	-121.283765
6.550000	-0.197512	-104.048293	-42.369041	45.895842	-42.369041	45.895842	-0.333303	-122.651506
6.600000	-0.200307	-104.749241	-41.685768	43.566202	-41.685768	43.566202	-0.427493	-124.325573
6.650000	-0.203029	-105.449276	-40.675502	38.902379	-40.675502	38.902379	-0.680000	-126.436081
6.700000	-0.205620	-106.149418	-39.566981	25.578115	-39.566981	25.578115	-1.453753	-127.129226
6.750000	-0.208348	-106.851415	-41.432796	5.333258	-41.432796	5.333258	-1.599289	-119.344722
6.800000	-0.211666	-107.552672	-44.165455	10.506540	-44.165455	10.506540	-0.777941	-119.107949
6.850000	-0.215167	-108.250396	-44.539049	19.166260	-44.539049	19.166260	-0.491441	-121.138851
6.900000	-0.218571	-108.946044	-44.271250	23.070052	-44.271250	23.070052	-0.389116	-122.807085
6.950000	-0.221913	-109.640646	-43.942948	24.502156	-43.942948	24.502156	-0.343797	-124.180039
7.000000	-0.225240	-110.334455	-43.641472	24.739209	-43.641472	24.739209	-0.321483	-125.375101
7.050000	-0.228578	-111.027552	-43.372902	24.371816	-43.372902	24.371816	-0.309686	-126.464312
7.100000	-0.231941	-111.719934	-43.131902	23.652606	-43.131902	23.652606	-0.303598	-127.483773
7.150000	-0.235338	-112.411589	-42.912499	22.715409	-42.912499	22.715409	-0.300857	-128.455340
7.200000	-0.238769	-113.102638	-42.708019	21.657516	-42.708019	21.657516	-0.299894	-129.398199
7.250000	-0.242238	-113.793029	-42.516339	20.504266	-42.516339	20.504266	-0.300298	-130.317004
7.300000	-0.245752	-114.482713	-42.335312	19.279184	-42.335312	19.279184	-0.301707	-131.216502
7.350000	-0.249311	-115.171753	-42.162615	18.004754	-42.162615	18.004754	-0.303799	-132.102064
7.400000	-0.252902	-115.860381	-41.995453	16.707665	-41.995453	16.707665	-0.306207	-132.980876
7.450000	-0.256534	-116.548466	-41.834262	15.380608	-41.834262	15.380608	-0.309033	-133.850760
7.500000	-0.260218	-117.235955	-41.678165	14.030228	-41.678165	14.030228	-0.312195	-134.713334
7.550000	-0.263926	-117.923183	-41.525756	12.669587	-41.525756	12.669587	-0.315506	-135.572691
7.600000	-0.267705	-118.609688	-41.377789	11.287513	-41.377789	11.287513	-0.319150	-136.425114
7.650000	-0.271505	-119.296020	-41.232626	9.901095	-41.232626	9.901095	-0.322868	-137.276123
7.700000	-0.275365	-119.981851	-41.090702	8.502728	-41.090702	8.502728	-0.326793	-138.123234
7.750000	-0.279262	-120.667427	-40.951336	7.099115	-40.951336	7.099115	-0.330823	-138.968677
7.800000	-0.283200	-121.352732	-40.814458	5.689954	-40.814458	5.689954	-0.334965	-139.812356
7.850000	-0.287196	-122.037734	-40.679844	4.275008	-40.679844	4.275008	-0.339243	-140.654337
7.900000	-0.291214	-122.722630	-40.547329	2.858055	-40.547329	2.858055	-0.343571	-141.495733
7.950000	-0.295309	-123.407254	-40.416719	1.435593	-40.416719	1.435593	-0.348057	-142.335785
8.000000	-0.299428	-124.091839	-40.287963	0.011993	-40.287963	0.011993	-0.352585	-143.175658
8.050000	-0.303604	-124.776320	-40.160879	-1.414566	-40.160879	-1.414566	-0.357218	-144.015065
8.100000	-0.307826	-125.460799	-40.035385	-2.842776	-40.035385	-2.842776	-0.361926	-144.854443
8.150000	-0.312085	-126.145277	-39.911476	-4.272381	-39.911476	-4.272381	-0.366696	-145.693797
8.200000	-0.316411	-126.829869	-39.788851	-5.703852	-39.788851	-5.703852	-0.371570	-146.533513
8.250000	-0.320760	-127.514511	-39.667778	-7.135900	-39.667778	-7.135900	-0.376480	-147.373379
8.300000	-0.325186	-128.199427	-39.547752	-8.569640	-39.547752	-8.569640	-0.381503	-148.214070
8.350000	-0.329646	-128.884515	-39.429083	-10.003928	-39.429083	-10.003928	-0.386572	-149.055239
8.400000	-0.334168	-129.569945	-39.311466	-11.439309	-39.311466	-11.439309	-0.391728	-149.897364
8.450000	-0.338718	-130.255573	-39.195169	-12.875086	-39.195169	-12.875086	-0.396921	-150.740000
8.500000	-0.343348	-130.941792	-39.079668	-14.312050	-39.079668	-14.312050	-0.402218	-151.584169
8.550000	-0.347997	-131.628186	-38.965502	-15.749271	-38.965502	-15.749271	-0.407541	-152.428755
8.600000	-0.352737	-132.315451	-38.851926	-17.187782	-38.851926	-17.187782	-0.412977	-153.275434
8.650000	-0.357488	-133.002825	-38.739719	-18.626433	-38.739719	-18.626433	-0.418427	-154.122359
8.700000	-0.362342	-133.691406	-38.627898	-20.066619	-38.627898	-20.066619	-0.424001	-154.971987
8.750000	-0.367198	-134.379986	-38.517497	-21.506805	-38.517497	-21.506805	-0.429578	-155.821615
8.800000	-0.372171	-135.070167	-38.407281	-22.948927	-38.407281	-22.948927	-0.435288	-156.674609
8.850000	-0.377146	-135.760349	-38.298445	-24.391050	-38.298445	-24.391050	-0.441002	-157.527603
8.900000	-0.382233	-136.452275	-38.189805	-25.835298	-38.189805	-25.835298	-0.446837	-158.384052
8.950000	-0.387333	-137.144360	-38.082404	-27.279739	-38.082404	-27.279739	-0.452687	-159.240815
9.000000	-0.392541	-137.838298	-37.975230	-28.726520	-37.975230	-28.726520	-0.458649	-160.101047
9.050000	-0.397772	-138.532606	-37.869149	-30.173769	-37.869149	-30.173769	-0.464635	-160.961972
9.100000	-0.403105	-139.228836	-37.763342	-31.623565	-37.763342	-31.623565	-0.470723	-161.826310
9.150000	-0.408474	-139.925707	-37.658478	-33.074210	-37.658478	-33.074210	-0.476846	-162.691786
9.200000	-0.413917	-140.624007	-37.554185	-34.526833	-37.554185	-34.526833	-0.483038	-163.559696
9.250000	-0.419442	-141.323992	-37.450362	-35.981832	-37.450362	-35.981832	-0.489307	-164.430427
9.300000	-0.425043	-142.025523	-37.347104	-37.439077	-37.347104	-37.439077	-0.495642	-165.303669
9.350000	-0.430720	-142.728688	-37.244393	-38.898752	-37.244393	-38.898752	-0.502043	-166.179511
9.400000	-0.436477	-143.433582	-37.142217	-40.361055	-37.142217	-40.361055	-0.508511	-167.058041
9.450000	-0.442316	-144.140298	-37.040560	-41.826189	-37.040560	-41.826189	-0.515046	-167.939347
9.500000	-0.448241	-144.848935	-36.939413	-43.294366	-36.939413	-43.294366	-0.521647	-168.823516
9.550000	-0.454255	-145.559593	-36.838765	-44.765808	-36.838765	-44.765808	-0.528315	-169.710638
9.600000	-0.460361	-146.272377	-36.738608	-46.240745	-36.738608	-46.240745	-0.535050	-170.600800
9.650000	-0.466564	-146.987394	-36.638937	-47.719412	-36.638937	-47.719412	-0.541852	-171.494093
9.700000	-0.472867	-147.704752	-36.539748	-49.202056	-36.539748	-49.202056	-0.548722	-172.390606
9.750000	-0.479275	-148.424565	-36.441038	-50.688927	-36.441038	-50.688927	-0.555660	-173.290428
9.800000	-0.485792	-149.146950	-36.342807	-52.180286	-36.342807	-52.180286	-0.562665	-174.193649
9.850000	-0.492423	-149.872027	-36.245059	-53.676398	-36.245059	-53.676398	-0.569738	-175.100361
9.900000	-0.499174	-150.599918	-36.147797	-55.177536	-36.147797	-55.177536	-0.576878	-176.010654
9.950000	-0.506050	-151.330751	-36.051028	-56.683978	-36.051028	-56.683978	-0.584087	-176.924620
10.000000	-0.513057	-152.064658	-35.954761	-58.196008	-35.954761	-58.196008	-0.591364	-177.842350
