! freq	dB(S11)	phase(S11)	dB(S12)	phase(S12)	
!     	dB(S21)	phase(S21)	dB(S22)	phase(S22)	
!S-par simulation data
#  GHz  S  DB  R 50
0.000000	-84.370043	0.000000	-0.000525	0.000000	-0.000525	0.000000	-84.370043	0.000000
0.050000	-37.685130	-91.772108	-0.007458	-2.952143	-0.007458	-2.952143	-37.688271	-91.836680
0.100000	-31.735724	-95.560060	-0.013749	-5.878539	-0.013749	-5.878539	-31.735911	-95.690593
0.150000	-28.277817	-98.730430	-0.020900	-8.793064	-0.020900	-8.793064	-28.278552	-98.924304
0.200000	-25.829432	-101.744071	-0.029157	-11.701618	-0.029157	-11.701618	-25.831854	-102.000266
0.250000	-23.933603	-104.703367	-0.038775	-14.605174	-0.038775	-14.605174	-23.937103	-105.020383
0.300000	-22.389152	-107.638970	-0.049793	-17.503916	-0.049793	-17.503916	-22.392844	-108.013231
0.350000	-21.089443	-110.560898	-0.062179	-20.398008	-0.062179	-20.398008	-21.092696	-110.987328
0.400000	-19.970382	-113.473500	-0.075816	-23.287867	-0.075816	-23.287867	-19.972885	-113.946512
0.450000	-18.991229	-116.378447	-0.090655	-26.173607	-0.090655	-26.173607	-18.992885	-116.891915
0.500000	-18.123011	-119.277382	-0.106543	-29.055618	-0.106543	-29.055618	-18.123865	-119.825196
0.550000	-17.345301	-122.171274	-0.123390	-31.934007	-0.123390	-31.934007	-17.345461	-122.746977
0.600000	-16.643303	-125.060879	-0.141143	-34.808704	-0.141143	-34.808704	-16.642897	-125.657300
0.650000	-16.006120	-127.946952	-0.159768	-37.679501	-0.159768	-37.679501	-16.005281	-128.555736
0.700000	-15.423867	-130.830604	-0.179146	-40.546626	-0.179146	-40.546626	-15.422709	-131.443061
0.750000	-14.889379	-133.712653	-0.199219	-43.410069	-0.199219	-43.410069	-14.887996	-134.319196
0.800000	-14.397450	-136.593953	-0.219958	-46.269661	-0.219958	-46.269661	-14.395912	-137.183424
0.850000	-13.943039	-139.475512	-0.241284	-49.125547	-0.241284	-49.125547	-13.941385	-140.035831
0.900000	-13.521992	-142.358290	-0.263129	-51.977896	-0.263129	-51.977896	-13.520237	-142.876430
0.950000	-13.131007	-145.243300	-0.285430	-54.826857	-0.285430	-54.826857	-13.129136	-145.705018
1.000000	-12.767209	-148.131598	-0.308121	-57.672652	-0.308121	-57.672652	-12.765184	-148.521471
1.050000	-12.428124	-151.024285	-0.331139	-60.515560	-0.331139	-60.515560	-12.425884	-151.325681
1.100000	-12.111605	-153.922513	-0.354418	-63.355912	-0.354418	-63.355912	-12.109067	-154.117550
1.150000	-11.815769	-156.827493	-0.377894	-66.194093	-0.377894	-66.194093	-11.812837	-156.896988
1.200000	-11.538955	-159.740494	-0.401506	-69.030538	-0.401506	-69.030538	-11.535518	-159.663912
1.250000	-11.279689	-162.662850	-0.425195	-71.865735	-0.425195	-71.865735	-11.275626	-162.418232
1.300000	-11.036835	-165.596231	-0.448902	-74.700221	-0.448902	-74.700221	-11.032016	-165.159577
1.350000	-10.808999	-168.541916	-0.472574	-77.534613	-0.472574	-77.534613	-10.803296	-167.888111
1.400000	-10.595098	-171.501461	-0.496164	-80.369548	-0.496164	-80.369548	-10.588382	-170.603706
1.450000	-10.394140	-174.476504	-0.519630	-83.205712	-0.519630	-83.205712	-10.386288	-173.306212
1.500000	-10.205216	-177.468765	-0.542932	-86.043835	-0.542932	-86.043835	-10.196109	-175.995446
1.550000	-10.027478	179.519950	-0.566040	-88.884690	-0.566040	-88.884690	-10.017006	-178.671199
1.600000	-9.860138	176.487747	-0.588927	-91.729096	-0.588927	-91.729096	-9.848198	178.666773
1.650000	-9.702454	173.432641	-0.611574	-94.577913	-0.611574	-94.577913	-9.688952	176.018749
1.700000	-9.553619	170.353057	-0.633975	-97.431926	-0.633975	-97.431926	-9.538470	173.384772
1.750000	-9.413476	167.244256	-0.656096	-100.292692	-0.656096	-100.292692	-9.396591	170.766526
1.800000	-9.280564	164.108123	-0.677985	-103.160198	-0.677985	-103.160198	-9.261877	168.162221
1.850000	-9.154878	160.938779	-0.699619	-106.036357	-0.699619	-106.036357	-9.134310	165.573999
1.900000	-9.035522	157.735681	-0.721034	-108.921732	-0.721034	-108.921732	-9.013000	163.001354
1.950000	-8.921900	154.496305	-0.742260	-111.817426	-0.742260	-111.817426	-8.897348	160.444677
2.000000	-8.813647	151.215811	-0.763321	-114.725235	-0.763321	-114.725235	-8.786971	157.905298
2.050000	-8.709767	147.896274	-0.784289	-117.644917	-0.784289	-117.644917	-8.680879	155.381619
2.100000	-8.610185	144.527302	-0.805201	-120.580076	-0.805201	-120.580076	-8.578956	152.876917
2.150000	-8.513799	141.114978	-0.826143	-123.529171	-0.826143	-123.529171	-8.480114	150.388076
2.200000	-8.420350	137.647900	-0.847200	-126.496313	-0.847200	-126.496313	-8.384042	147.918276
2.250000	-8.329008	134.130177	-0.868457	-129.480548	-0.868457	-129.480548	-8.289918	145.465156
2.300000	-8.239209	130.554697	-0.890041	-132.484738	-0.890041	-132.484738	-8.197139	143.029943
2.350000	-8.150290	126.919696	-0.912071	-135.509973	-0.912071	-135.509973	-8.105029	140.611995
2.400000	-8.061598	123.224703	-0.934671	-138.556936	-0.934671	-138.556936	-8.012929	138.210152
2.450000	-7.972332	119.460801	-0.958063	-141.629477	-0.958063	-141.629477	-7.919998	135.825225
2.500000	-7.882070	115.635625	-0.982301	-144.725357	-0.982301	-144.725357	-7.825856	133.453839
2.550000	-7.789520	111.731965	-1.007799	-147.851999	-1.007799	-147.851999	-7.729147	131.097617
2.600000	-7.694611	107.762548	-1.034540	-151.005217	-1.034540	-151.005217	-7.629876	128.752123
2.650000	-7.595964	103.713988	-1.062988	-154.191481	-1.062988	-154.191481	-7.526638	126.416979
2.700000	-7.493288	99.591724	-1.093264	-157.409630	-1.093264	-157.409630	-7.419199	124.088854
2.750000	-7.385592	95.391280	-1.125753	-160.662959	-1.125753	-160.662959	-7.306600	121.765041
2.800000	-7.271992	91.109983	-1.160847	-163.954234	-1.160847	-163.954234	-7.187999	119.442163
2.850000	-7.152339	86.753200	-1.198727	-167.282630	-1.198727	-167.282630	-7.063323	117.116426
2.900000	-7.024766	82.309786	-1.240234	-170.655854	-1.240234	-170.655854	-6.930749	114.782601
2.950000	-6.890242	77.793743	-1.285254	-174.068784	-1.285254	-174.068784	-6.791329	112.437485
3.000000	-6.746165	73.190268	-1.335081	-177.532502	-1.335081	-177.532502	-6.642530	110.072524
3.050000	-6.593925	68.514127	-1.389560	178.958740	-1.389560	178.958740	-6.485801	107.685218
3.100000	-6.432160	63.760320	-1.449723	175.398555	-1.449723	175.398555	-6.319851	105.267279
3.150000	-6.260412	58.930059	-1.516385	171.783862	-1.516385	171.783862	-6.144282	102.811254
3.200000	-6.078723	54.027132	-1.590279	168.113107	-1.590279	168.113107	-5.959179	100.310360
3.250000	-5.887048	49.054169	-1.672332	164.383768	-1.672332	164.383768	-5.764531	97.756934
3.300000	-5.685495	44.014084	-1.763582	160.593361	-1.763582	160.593361	-5.560470	95.143091
3.350000	-5.473855	38.907954	-1.865535	156.737260	-1.865535	156.737260	-5.346809	92.458250
3.400000	-5.253416	33.742677	-1.978953	152.816819	-1.978953	152.816819	-5.124813	89.698379
3.450000	-5.024489	28.520172	-2.105494	148.828509	-2.105494	148.828509	-4.894793	86.854103
3.500000	-4.787905	23.243888	-2.246772	144.770515	-2.246772	144.770515	-4.657560	83.917915
3.550000	-4.544670	17.917300	-2.404585	140.641369	-2.404585	140.641369	-4.414103	80.882791
3.600000	-4.295964	12.543906	-2.580940	136.440051	-2.580940	136.440051	-4.165578	77.742363
3.650000	-4.043127	7.127230	-2.778069	132.166095	-2.778069	132.166095	-3.913309	74.491089
3.700000	-3.787641	1.670869	-2.998461	127.819713	-2.998461	127.819713	-3.658763	71.124428
3.750000	-3.531115	-3.821457	-3.244886	123.401933	-3.244886	123.401933	-3.403539	67.639005
3.800000	-3.275151	-9.346428	-3.520933	118.913304	-3.520933	118.913304	-3.149246	64.030107
3.850000	-3.021730	-14.899023	-3.829623	114.358573	-3.829623	114.358573	-2.897856	60.299788
3.900000	-2.772688	-20.474617	-4.174822	109.742222	-4.174822	109.742222	-2.651204	56.449051
3.950000	-2.529862	-26.068108	-4.560890	105.070203	-4.560890	105.070203	-2.411128	52.480481
4.000000	-2.295061	-31.673847	-4.992777	100.350118	-4.992777	100.350118	-2.179434	48.398252
4.050000	-2.070025	-37.285596	-5.476172	95.591437	-5.476172	95.591437	-1.957852	44.208079
4.100000	-1.856390	-42.896514	-6.017706	90.805761	-6.017706	90.805761	-1.747998	39.917128
4.150000	-1.655647	-48.499194	-6.625257	86.007194	-6.625257	86.007194	-1.551339	35.533860
4.200000	-1.468843	-54.086323	-7.307786	81.212280	-7.307786	81.212280	-1.368879	31.069471
4.250000	-1.297750	-59.648310	-8.078744	76.443399	-8.078744	76.443399	-1.202373	26.530203
4.300000	-1.142919	-65.177228	-8.952505	71.727409	-8.952505	71.727409	-1.052316	21.929888
4.350000	-1.005002	-70.664588	-9.949436	67.100080	-9.949436	67.100080	-0.919320	17.279870
4.400000	-0.884411	-76.102100	-11.097725	62.611753	-11.097725	62.611753	-0.803764	12.591499
4.450000	-0.781328	-81.481891	-12.438231	58.339125	-12.438231	58.339125	-0.705800	7.875856
4.500000	-0.695713	-86.796702	-14.033575	54.411172	-14.033575	54.411172	-0.625376	3.143506
4.550000	-0.627333	-92.040069	-15.986805	51.072833	-15.986805	51.072833	-0.562255	-1.595722
4.600000	-0.575860	-97.206069	-18.484083	48.880046	-18.484083	48.880046	-0.516120	-6.332853
4.650000	-0.540824	-102.289749	-21.906449	49.455614	-21.906449	49.455614	-0.486521	-11.059813
4.700000	-0.521416	-107.288513	-27.120039	59.691643	-27.120039	59.691643	-0.472676	-15.769898
4.750000	-0.516921	-112.200130	-32.499922	116.078183	-32.499922	116.078183	-0.473905	-20.457539
4.800000	-0.526592	-117.023456	-26.855643	167.763895	-26.855643	167.763895	-0.489497	-25.118322
4.850000	-0.549679	-121.758370	-21.974349	177.040083	-21.974349	177.040083	-0.518738	-29.748955
4.900000	-0.585453	-126.405694	-18.795846	177.626631	-18.795846	177.626631	-0.560933	-34.347216
4.950000	-0.633236	-130.967090	-16.498870	175.724174	-16.498870	175.724174	-0.615428	-38.911883
5.000000	-0.692411	-135.444947	-14.719792	172.815498	-14.719792	172.815498	-0.681629	-43.442658
5.050000	-0.762585	-139.841152	-13.279175	169.416579	-13.279175	169.416579	-0.759158	-47.939613
5.100000	-0.843156	-144.160430	-12.075429	165.760570	-12.075429	165.760570	-0.847421	-52.404559
5.150000	-0.933787	-148.406669	-11.046513	161.958355	-11.046513	161.958355	-0.946083	-56.839473
5.200000	-1.034246	-152.584022	-10.151590	158.070826	-10.151590	158.070826	-1.054917	-61.246912
5.250000	-1.144414	-156.696812	-9.362350	154.133234	-9.362350	154.133234	-1.173808	-65.629926
5.300000	-1.264286	-160.749440	-8.658362	150.166583	-8.658362	150.166583	-1.302762	-69.991992
5.350000	-1.393971	-164.746303	-8.024401	146.183451	-8.024401	146.183451	-1.441914	-74.336935
5.400000	-1.533699	-168.691723	-7.448830	142.191184	-7.448830	142.191184	-1.591530	-78.668865
5.450000	-1.683933	-172.589246	-6.922753	138.193697	-6.922753	138.193697	-1.752137	-82.992038
5.500000	-1.845387	-176.441898	-6.439227	134.192618	-6.439227	134.192618	-1.924549	-87.311175
5.550000	-2.017699	179.742057	-5.991153	130.188450	-5.991153	130.188450	-2.108498	-91.630751
5.600000	-2.202545	175.963657	-5.575111	126.179850	-5.575111	126.179850	-2.305859	-95.955566
5.650000	-2.400267	172.217824	-5.186669	122.165480	-5.186669	122.165480	-2.517164	-100.289699
5.700000	-2.611819	168.501900	-4.822675	118.143211	-4.822675	118.143211	-2.743632	-104.637458
5.750000	-2.838846	164.815314	-4.480956	114.109997	-4.480956	114.109997	-2.987276	-109.003871
5.800000	-3.081435	161.153107	-4.158509	110.064526	-4.158509	110.064526	-3.248455	-113.390374
5.850000	-3.342690	157.522202	-3.854626	106.009421	-3.854626	106.009421	-3.530498	-117.803894
5.900000	-3.624092	153.924310	-3.567356	101.945382	-3.567356	101.945382	-3.834226	-122.252855
5.950000	-3.927729	150.352777	-3.295672	97.852483	-3.295672	97.852483	-4.162525	-126.747385
6.000000	-4.255997	146.811603	-3.038791	93.730826	-3.038791	93.730826	-4.518264	-131.293560
6.050000	-4.611621	143.306600	-2.796089	89.580187	-2.796089	89.580187	-4.904751	-135.898157
6.100000	-4.997703	139.845860	-2.567089	85.400181	-2.567089	85.400181	-5.325828	-140.568905
6.150000	-5.417786	136.440374	-2.351455	81.190406	-2.351455	81.190406	-5.785989	-145.314828
6.200000	-5.875933	133.104870	-2.148973	76.950572	-2.148973	76.950572	-6.290541	-150.146777
6.250000	-6.376822	129.858953	-1.959542	72.680621	-1.959542	72.680621	-6.845819	-155.078207
6.300000	-6.926214	126.732026	-1.783369	68.380186	-1.783369	68.380186	-7.459908	-160.129434
6.350000	-7.529993	123.757803	-1.620340	64.050637	-1.620340	64.050637	-8.141791	-165.321745
6.400000	-8.195394	120.984463	-1.470588	59.693171	-1.470588	59.693171	-8.903180	-170.687573
6.450000	-8.930774	118.477988	-1.334290	55.309520	-1.334290	55.309520	-9.758982	-176.273528
6.500000	-9.745658	116.330208	-1.211642	50.901976	-1.211642	50.901976	-10.728593	177.850646
6.550000	-10.650528	114.671306	-1.102842	46.473397	-1.102842	46.473397	-11.837850	171.575832
6.600000	-11.655930	113.689377	-1.008075	42.027194	-1.008075	42.027194	-13.122000	164.722277
6.650000	-12.769859	113.660386	-0.927488	37.567297	-0.927488	37.567297	-14.629964	156.975154
6.700000	-13.993464	114.944395	-0.860859	33.098184	-0.860859	33.098184	-16.430897	147.804464
6.750000	-15.295416	118.223125	-0.809011	28.624331	-0.809011	28.624331	-18.604766	135.879201
6.800000	-16.590027	124.187800	-0.771430	24.151121	-0.771430	24.151121	-21.178632	118.568844
6.850000	-17.658181	133.510566	-0.748448	19.684213	-0.748448	19.684213	-23.608984	90.442618
6.900000	-18.232014	145.511366	-0.738891	15.228240	-0.738891	15.228240	-24.236045	52.554273
6.950000	-18.091063	158.171106	-0.742625	10.788392	-0.742625	10.788392	-22.382036	19.586711
7.000000	-17.294519	168.937881	-0.759681	6.370150	-0.759681	6.370150	-19.815831	-1.327333
7.050000	-16.144251	176.358802	-0.789899	1.979565	-0.789899	1.979565	-17.561458	-14.824729
7.100000	-14.921460	-179.093641	-0.831883	-2.380633	-0.831883	-2.380633	-15.711378	-24.887474
7.150000	-13.747279	-176.750912	-0.885041	-6.706727	-0.885041	-6.706727	-14.182543	-33.056284
7.200000	-12.667703	-176.083020	-0.949587	-10.991605	-0.949587	-10.991605	-12.902727	-40.043227
7.250000	-11.697464	-176.404291	-1.023241	-15.238535	-1.023241	-15.238535	-11.811959	-46.391549
7.300000	-10.830239	-177.564981	-1.106891	-19.437119	-1.106891	-19.437119	-10.875622	-52.210021
7.350000	-10.054782	-179.218121	-1.198303	-23.593314	-1.198303	-23.593314	-10.058658	-57.711946
7.400000	-9.361793	178.732634	-1.297420	-27.701197	-1.297420	-27.701197	-9.342773	-62.945905
7.450000	-8.741135	176.398547	-1.403379	-31.760243	-1.403379	-31.760243	-8.711139	-67.971095
7.500000	-8.181734	173.875661	-1.514935	-35.774965	-1.514935	-35.774965	-8.148055	-72.843132
7.550000	-7.679966	171.188823	-1.632016	-39.737129	-1.632016	-39.737129	-7.648438	-77.564153
7.600000	-7.225584	168.400529	-1.753324	-43.655013	-1.753324	-43.655013	-7.199633	-82.176496
7.650000	-6.813784	165.534924	-1.878290	-47.528075	-1.878290	-47.528075	-6.795980	-86.691667
7.700000	-6.441458	162.609352	-2.006346	-51.353942	-2.006346	-51.353942	-6.433897	-91.115475
7.750000	-6.101561	159.647854	-2.136730	-55.140686	-2.136730	-55.140686	-6.105487	-95.470729
7.800000	-5.792982	156.658847	-2.268865	-58.884914	-2.268865	-58.884914	-5.809589	-99.757724
7.850000	-5.511346	153.654018	-2.402200	-62.591651	-2.402200	-62.591651	-5.541456	-103.989326
7.900000	-5.253067	150.641141	-2.536310	-66.265349	-2.536310	-66.265349	-5.297256	-108.175703
7.950000	-5.018479	147.625326	-2.670379	-69.902808	-2.670379	-69.902808	-5.077450	-112.316419
8.000000	-4.802676	144.611298	-2.804326	-73.512994	-2.804326	-73.512994	-4.876794	-116.425756
8.050000	-4.605074	141.602415	-2.937523	-77.096330	-2.937523	-77.096330	-4.694746	-120.507087
8.100000	-4.424350	138.601370	-3.069472	-80.655474	-3.069472	-80.655474	-4.529963	-124.566286
8.150000	-4.257767	135.608938	-3.200173	-84.196090	-3.200173	-84.196090	-4.379566	-128.611401
8.200000	-4.105900	132.628002	-3.328649	-87.718731	-3.328649	-87.718731	-4.244253	-132.646730
8.250000	-3.966276	129.658003	-3.455037	-91.229047	-3.455037	-91.229047	-4.121422	-136.679444
8.300000	-3.838035	126.699436	-3.578990	-94.730463	-3.578990	-94.730463	-4.010213	-140.715301
8.350000	-3.721391	123.753877	-3.699637	-98.226235	-3.699637	-98.226235	-3.910914	-144.761598
8.400000	-3.614179	120.819394	-3.817406	-101.721018	-3.817406	-101.721018	-3.821250	-148.822796
8.450000	-3.517185	117.897807	-3.931112	-105.219424	-3.931112	-105.219424	-3.742121	-152.908991
8.500000	-3.428783	114.987265	-4.041099	-108.725411	-4.041099	-108.725411	-3.671828	-157.023816
8.550000	-3.349171	112.088330	-4.146555	-112.244754	-4.146555	-112.244754	-3.610639	-161.177418
8.600000	-3.277872	109.200411	-4.247179	-115.782584	-4.247179	-115.782584	-3.558100	-165.377134
8.650000	-3.214434	106.322818	-4.342710	-119.344176	-4.342710	-119.344176	-3.513789	-169.630275
8.700000	-3.158910	103.455466	-4.432510	-122.936619	-4.432510	-122.936619	-3.477846	-173.947790
8.750000	-3.111732	100.598666	-4.515589	-126.569906	-4.515589	-126.569906	-3.450850	-178.345543
8.800000	-3.071854	97.750820	-4.592447	-130.245766	-4.592447	-130.245766	-3.431773	177.176719
8.850000	-3.040280	94.912960	-4.661642	-133.978428	-4.661642	-133.978428	-3.421895	172.596148
8.900000	-3.017501	92.085551	-4.722265	-137.780598	-4.722265	-137.780598	-3.422013	167.893843
8.950000	-3.003544	89.268733	-4.774004	-141.661237	-4.774004	-141.661237	-3.432456	163.057736
9.000000	-2.999057	86.463750	-4.816017	-145.634554	-4.816017	-145.634554	-3.454374	158.066896
9.050000	-3.005384	83.673381	-4.846891	-149.722830	-4.846891	-149.722830	-3.489962	152.887493
9.100000	-3.023444	80.900822	-4.865894	-153.944597	-4.865894	-153.944597	-3.541129	147.492078
9.150000	-3.054529	78.151137	-4.872190	-158.322752	-4.872190	-158.322752	-3.610592	141.845824
9.200000	-3.100898	75.433441	-4.864421	-162.892881	-4.864421	-162.892881	-3.702959	135.892928
9.250000	-3.165091	72.761381	-4.841590	-167.696008	-4.841590	-167.696008	-3.824196	129.567287
9.300000	-3.249402	70.153211	-4.803622	-172.771943	-4.803622	-172.771943	-3.981189	122.801561
9.350000	-3.357232	67.639021	-4.750482	-178.180266	-4.750482	-178.180266	-4.184880	115.490677
9.400000	-3.492972	65.270192	-4.682947	175.991995	-4.682947	175.991995	-4.452679	107.471868
9.450000	-3.658600	63.111455	-4.604845	169.671301	-4.604845	169.671301	-4.804475	98.583119
9.500000	-3.855734	61.280052	-4.522660	162.726125	-4.522660	162.726125	-5.275948	88.513979
9.550000	-4.077834	59.912832	-4.448549	155.052815	-4.448549	155.052815	-5.909474	76.918389
9.600000	-4.306065	59.215558	-4.403277	146.491288	-4.403277	146.491288	-6.773774	63.139672
9.650000	-4.496341	59.366310	-4.418950	136.919671	-4.418950	136.919671	-7.948631	46.170288
9.700000	-4.573718	60.388911	-4.541498	126.263653	-4.541498	126.263653	-9.488815	24.186594
9.750000	-4.451316	61.922051	-4.828386	114.568581	-4.828386	114.568581	-11.216654	-5.880243
9.800000	-4.089712	63.162684	-5.338024	102.062378	-5.338024	102.062378	-12.204026	-45.940217
9.850000	-3.547885	63.268409	-6.111026	89.160966	-6.111026	89.160966	-11.336349	-87.895554
9.900000	-2.950553	61.901403	-7.152978	76.372308	-7.152978	76.372308	-9.417701	-121.114349
9.950000	-2.406558	59.292023	-8.431931	64.141794	-8.431931	64.141794	-7.606784	-145.705335
10.000000	-1.988397	56.085057	-9.804429	53.269014	-9.804429	53.269014	-6.280756	-163.991051
