! freq	dB(S11)	phase(S11)	dB(S12)	phase(S12)	
!     	dB(S21)	phase(S21)	dB(S22)	phase(S22)	
!S-par simulation data
#  GHz  S  DB  R 50
0.000000	-0.000000	0.000000	-348.952712	0.000000	-348.952712	0.000000	-0.000000	0.000000
0.050000	-0.000113	-0.764581	-110.607181	146.825918	-110.607181	146.825918	-0.000102	-0.854687
0.100000	-0.000447	-1.528849	-107.770970	125.932446	-107.770970	125.932446	-0.000403	-1.709138
0.150000	-0.000981	-2.292526	-105.281914	114.709582	-105.281914	114.709582	-0.000894	-2.563134
0.200000	-0.001687	-3.055402	-103.286699	107.895827	-103.286699	107.895827	-0.001556	-3.416489
0.250000	-0.002542	-3.817259	-101.690849	103.424465	-101.690849	103.424465	-0.002379	-4.268989
0.300000	-0.003499	-4.578100	-100.398910	100.137577	-100.398910	100.137577	-0.003326	-5.120584
0.350000	-0.004535	-5.337854	-99.346216	97.672318	-99.346216	97.672318	-0.004381	-5.971154
0.400000	-0.005623	-6.096531	-98.488355	95.784285	-98.488355	95.784285	-0.005522	-6.820638
0.450000	-0.006742	-6.854167	-97.794939	94.344926	-97.794939	94.344926	-0.006727	-7.669010
0.500000	-0.007875	-7.610817	-97.245084	93.290654	-97.245084	93.290654	-0.007979	-8.516260
0.550000	-0.009010	-8.366540	-96.824489	92.599457	-96.824489	92.599457	-0.009259	-9.362400
0.600000	-0.010139	-9.121396	-96.523503	92.280557	-96.523503	92.280557	-0.010557	-10.207450
0.650000	-0.011257	-9.875435	-96.335763	92.371250	-96.335763	92.371250	-0.011859	-11.051439
0.700000	-0.012361	-10.628703	-96.257017	92.938551	-96.257017	92.938551	-0.013159	-11.894398
0.750000	-0.013449	-11.381235	-96.283816	94.084793	-96.283816	94.084793	-0.014450	-12.736355
0.800000	-0.014523	-12.133057	-96.411564	95.956728	-96.411564	95.956728	-0.015729	-13.577340
0.850000	-0.015582	-12.884187	-96.631172	98.756680	-96.631172	98.756680	-0.016991	-14.417376
0.900000	-0.016628	-13.634637	-96.923121	102.750188	-96.923121	102.750188	-0.018235	-15.256482
0.950000	-0.017662	-14.384411	-97.247535	108.253953	-97.247535	108.253953	-0.019462	-16.094673
1.000000	-0.018685	-15.133510	-97.530589	115.568480	-97.530589	115.568480	-0.020670	-16.931958
1.050000	-0.019698	-15.881929	-97.655003	124.806956	-97.655003	124.806956	-0.021861	-17.768343
1.100000	-0.020704	-16.629663	-97.476533	135.626968	-97.476533	135.626968	-0.023035	-18.603828
1.150000	-0.021702	-17.376701	-96.887222	147.066163	-96.887222	147.066163	-0.024193	-19.438410
1.200000	-0.022694	-18.123032	-95.889772	157.832433	-95.889772	157.832433	-0.025337	-20.272083
1.250000	-0.023681	-18.868643	-94.596148	166.956102	-94.596148	166.956102	-0.026468	-21.104837
1.300000	-0.024664	-19.613488	-93.137253	174.049163	-93.137253	174.049163	-0.027587	-21.936621
1.350000	-0.025642	-20.357583	-91.642390	179.381454	-91.642390	179.381454	-0.028695	-22.767458
1.400000	-0.026618	-21.100913	-90.174868	-176.714519	-90.174868	-176.714519	-0.029794	-23.597335
1.450000	-0.027590	-21.843462	-88.765176	-173.918992	-88.765176	-173.918992	-0.030886	-24.426234
1.500000	-0.028561	-22.585215	-87.424899	-171.971001	-87.424899	-171.971001	-0.031971	-25.254137
1.550000	-0.029529	-23.326157	-86.155898	-170.671040	-86.155898	-170.671040	-0.033050	-26.081024
1.600000	-0.030496	-24.066270	-84.955456	-169.870318	-84.955456	-169.870318	-0.034124	-26.906878
1.650000	-0.031461	-24.805540	-83.818961	-169.458454	-83.818961	-169.458454	-0.035194	-27.731677
1.700000	-0.032424	-25.543644	-82.715663	-169.431285	-82.715663	-169.431285	-0.036260	-28.555019
1.750000	-0.033388	-26.281295	-81.702960	-169.541515	-81.702960	-169.541515	-0.037325	-29.377794
1.800000	-0.034350	-27.017854	-80.723688	-169.874667	-80.723688	-169.874667	-0.038389	-30.199201
1.850000	-0.035312	-27.753633	-79.797301	-170.367049	-79.797301	-170.367049	-0.039451	-31.019633
1.900000	-0.036274	-28.488444	-78.908344	-170.987023	-78.908344	-170.987023	-0.040512	-31.838848
1.950000	-0.037236	-29.222286	-78.054933	-171.734586	-78.054933	-171.734586	-0.041574	-32.656848
2.000000	-0.038199	-29.955294	-77.241036	-172.556083	-77.241036	-172.556083	-0.042636	-33.473799
2.050000	-0.039162	-30.687134	-76.449741	-173.481084	-76.449741	-173.481084	-0.043699	-34.289283
2.100000	-0.040126	-31.418461	-75.705511	-174.439565	-75.705511	-174.439565	-0.044763	-35.104120
2.150000	-0.041091	-32.148455	-74.974533	-175.480835	-74.974533	-175.480835	-0.045830	-35.917278
2.200000	-0.042057	-32.877441	-74.268568	-176.572259	-74.268568	-176.572259	-0.046898	-36.729167
2.250000	-0.043025	-33.605406	-73.585900	-177.707277	-73.585900	-177.707277	-0.047970	-37.539768
2.300000	-0.043996	-34.332335	-72.924989	-178.880378	-72.924989	-178.880378	-0.049044	-38.349063
2.350000	-0.044968	-35.058215	-72.284444	179.913094	-72.284444	179.913094	-0.050122	-39.157036
2.400000	-0.045943	-35.783032	-71.663010	178.677103	-71.663010	178.677103	-0.051203	-39.963670
2.450000	-0.046921	-36.506775	-71.059547	177.415040	-71.059547	177.415040	-0.052289	-40.768949
2.500000	-0.047903	-37.229429	-70.473018	176.129822	-70.473018	176.129822	-0.053379	-41.572856
2.550000	-0.048888	-37.950934	-69.901548	174.823179	-69.901548	174.823179	-0.054474	-42.375316
2.600000	-0.049877	-38.671325	-69.345295	173.498267	-69.345295	173.498267	-0.055574	-43.176373
2.650000	-0.050871	-39.390589	-68.803455	172.156967	-68.803455	172.156967	-0.056679	-43.976013
2.700000	-0.051869	-40.108714	-68.275288	170.800929	-68.275288	170.800929	-0.057791	-44.774223
2.750000	-0.052872	-40.825690	-67.760114	169.431608	-67.760114	169.431608	-0.058909	-45.570988
2.800000	-0.053881	-41.541503	-67.257305	168.050288	-67.257305	168.050288	-0.060033	-46.366295
2.850000	-0.054895	-42.256144	-66.766278	166.658111	-66.766278	166.658111	-0.061164	-47.160133
2.900000	-0.055916	-42.969601	-66.286494	165.256091	-66.286494	165.256091	-0.062303	-47.952490
2.950000	-0.056943	-43.681864	-65.817451	163.845134	-65.817451	163.845134	-0.063449	-48.743353
3.000000	-0.057977	-44.392921	-65.358683	162.426049	-65.358683	162.426049	-0.064603	-49.532712
3.050000	-0.059019	-45.102763	-64.909754	160.999564	-64.909754	160.999564	-0.065765	-50.320556
3.100000	-0.060067	-45.811381	-64.470258	159.566334	-64.470258	159.566334	-0.066936	-51.106875
3.150000	-0.061124	-46.518763	-64.039814	158.126947	-64.039814	158.126947	-0.068116	-51.891659
3.200000	-0.062190	-47.224901	-63.618065	156.681938	-63.618065	156.681938	-0.069306	-52.674899
3.250000	-0.063264	-47.929787	-63.204677	155.231789	-63.204677	155.231789	-0.070506	-53.456587
3.300000	-0.064347	-48.633410	-62.799334	153.776938	-62.799334	153.776938	-0.071716	-54.236714
3.350000	-0.065441	-49.335540	-62.399927	152.317143	-62.399927	152.317143	-0.072938	-55.014997
3.400000	-0.066546	-50.036335	-62.007716	150.853248	-62.007716	150.853248	-0.074172	-55.791636
3.450000	-0.067656	-50.736456	-61.627443	149.387592	-61.627443	149.387592	-0.075413	-56.567447
3.500000	-0.068783	-51.434554	-61.248725	147.916653	-61.248725	147.916653	-0.076671	-57.340772
3.550000	-0.069914	-52.132197	-60.882732	146.444737	-60.882732	146.444737	-0.077934	-58.113541
3.600000	-0.071064	-52.827567	-60.516668	144.967938	-60.516668	144.967938	-0.079219	-58.883528
3.650000	-0.072217	-53.522707	-60.163969	143.490733	-60.163969	143.490733	-0.080507	-59.653235
3.700000	-0.073393	-54.215320	-59.809804	142.009068	-59.809804	142.009068	-0.081820	-60.419862
3.750000	-0.074568	-54.907932	-59.469517	140.527402	-59.469517	140.527402	-0.083133	-61.186490
3.800000	-0.075771	-55.597762	-59.126568	139.041711	-59.126568	139.041711	-0.084476	-61.949742
3.850000	-0.076973	-56.287592	-58.796647	137.556020	-58.796647	137.556020	-0.085819	-62.712993
3.900000	-0.078202	-56.974850	-58.465544	136.067296	-58.465544	136.067296	-0.087191	-63.473138
3.950000	-0.079433	-57.661874	-58.145440	134.578297	-58.145440	134.578297	-0.088566	-64.233001
4.000000	-0.080689	-58.346544	-57.825452	133.087055	-57.825452	133.087055	-0.089969	-64.990033
4.050000	-0.081950	-59.030743	-57.514662	131.595365	-57.514662	131.595365	-0.091378	-65.746499
4.100000	-0.083235	-59.712809	-57.205126	130.102058	-57.205126	130.102058	-0.092813	-66.500415
4.150000	-0.084528	-60.394165	-56.903191	128.608213	-56.903191	128.608213	-0.094258	-67.253479
4.200000	-0.085843	-61.073616	-56.603507	127.113244	-56.603507	127.113244	-0.095727	-68.004277
4.250000	-0.087170	-61.752114	-56.310003	125.617714	-56.310003	125.617714	-0.097209	-68.753940
4.300000	-0.088516	-62.428940	-56.019622	124.121443	-56.019622	124.121443	-0.098713	-69.501622
4.350000	-0.089878	-63.104569	-55.734161	122.624645	-55.734161	122.624645	-0.100234	-70.247888
4.400000	-0.091257	-63.778761	-55.452582	121.127398	-55.452582	121.127398	-0.101776	-70.992459
4.450000	-0.092655	-64.451514	-55.174806	119.629703	-55.174806	119.629703	-0.103338	-71.735335
4.500000	-0.094069	-65.123065	-54.901570	118.131776	-54.901570	118.131776	-0.104918	-72.476804
4.550000	-0.095505	-65.792935	-54.631147	116.633524	-54.631147	116.633524	-0.106523	-73.216303
4.600000	-0.096954	-66.461842	-54.365834	115.135188	-54.365834	115.135188	-0.108144	-73.954680
4.650000	-0.098430	-67.128826	-54.102455	113.636687	-54.102455	113.636687	-0.109794	-74.690817
4.700000	-0.099916	-67.795087	-53.844676	112.138196	-53.844676	112.138196	-0.111456	-75.426118
4.750000	-0.101433	-68.459184	-53.588057	110.639733	-53.588057	110.639733	-0.113153	-76.158912
4.800000	-0.102958	-69.122801	-53.337454	109.141322	-53.337454	109.141322	-0.114859	-76.891152
4.850000	-0.104518	-69.784013	-53.087328	107.643168	-53.087328	107.643168	-0.116605	-77.620627
4.900000	-0.106082	-70.444986	-52.843571	106.145060	-52.843571	106.145060	-0.118355	-78.349828
4.950000	-0.107687	-71.103320	-52.599690	104.647470	-52.599690	104.647470	-0.120151	-79.076011
5.000000	-0.109293	-71.761653	-52.362470	103.149879	-52.362470	103.149879	-0.121948	-79.802194
5.050000	-0.110944	-72.417115	-52.124602	101.653097	-52.124602	101.653097	-0.123797	-80.525117
5.100000	-0.112596	-73.072577	-51.893075	100.156316	-51.893075	100.156316	-0.125646	-81.248039
5.150000	-0.114291	-73.725416	-51.661563	98.660494	-51.661563	98.660494	-0.127545	-81.968005
5.200000	-0.115991	-74.378017	-51.435530	97.164760	-51.435530	97.164760	-0.129449	-82.687701
5.250000	-0.117731	-75.028243	-51.210100	95.670092	-51.210100	95.670092	-0.131399	-83.404741
5.300000	-0.119481	-75.677994	-50.989374	94.175638	-50.989374	94.175638	-0.133359	-84.121250
5.350000	-0.121268	-76.325621	-50.769775	92.682317	-50.769775	92.682317	-0.135362	-84.835400
5.400000	-0.123069	-76.972538	-50.554179	91.189373	-50.554179	91.189373	-0.137380	-85.548763
5.450000	-0.124904	-77.617578	-50.340173	89.697589	-50.340173	89.697589	-0.139437	-86.260061
5.500000	-0.126758	-78.261680	-50.129540	88.206385	-50.129540	88.206385	-0.141515	-86.970325
5.550000	-0.128643	-78.904149	-49.920904	86.716329	-49.920904	86.716329	-0.143628	-87.678810
5.600000	-0.130551	-79.545454	-49.715076	85.227093	-49.715076	85.227093	-0.145768	-88.386025
5.650000	-0.132488	-80.185371	-49.511601	83.738957	-49.511601	83.738957	-0.147938	-89.091741
5.700000	-0.134452	-80.823901	-49.310428	82.251921	-49.310428	82.251921	-0.150141	-89.795959
5.750000	-0.136441	-81.461285	-49.111917	80.765901	-49.111917	80.765901	-0.152371	-90.498953
5.800000	-0.138463	-82.097064	-48.915254	79.281300	-48.915254	79.281300	-0.154639	-91.200233
5.850000	-0.140506	-82.731935	-48.721522	77.797592	-48.721522	77.797592	-0.156929	-91.900553
5.900000	-0.142588	-83.364990	-48.529233	76.315668	-48.529233	76.315668	-0.159264	-92.598955
5.950000	-0.144686	-83.997371	-48.340104	74.834475	-48.340104	74.834475	-0.161616	-93.296654
6.000000	-0.146829	-84.627731	-48.152057	73.355474	-48.152057	73.355474	-0.164019	-93.992244
6.050000	-0.148983	-85.257646	-47.967365	71.877004	-47.967365	71.877004	-0.166434	-94.687377
6.100000	-0.151190	-85.885339	-47.783435	70.401186	-47.783435	70.401186	-0.168908	-95.380225
6.150000	-0.153402	-86.512814	-47.603023	68.925655	-47.603023	68.925655	-0.171388	-96.072851
6.200000	-0.155674	-87.137875	-47.423089	67.453289	-47.423089	67.453289	-0.173933	-96.763031
6.250000	-0.157946	-87.762936	-47.246807	65.980922	-47.246807	65.980922	-0.176480	-97.453212
6.300000	-0.160283	-88.385398	-47.070753	64.512295	-47.070753	64.512295	-0.179099	-98.140804
6.350000	-0.162622	-89.007860	-46.898197	63.043668	-46.898197	63.043668	-0.181719	-98.828397
6.400000	-0.165022	-89.627974	-46.726173	61.578751	-46.726173	61.578751	-0.184407	-99.513695
6.450000	-0.167429	-90.247873	-46.557238	60.114172	-46.557238	60.114172	-0.187102	-100.198785
6.500000	-0.169893	-90.865669	-46.389106	58.653246	-46.389106	58.653246	-0.189861	-100.881865
6.550000	-0.172370	-91.483044	-46.223692	57.193051	-46.223692	57.193051	-0.192633	-101.564543
6.600000	-0.174900	-92.098556	-46.059320	55.736425	-46.059320	55.736425	-0.195464	-102.245487
6.650000	-0.177448	-92.713446	-45.897330	54.280988	-45.897330	54.280988	-0.198314	-102.925852
6.700000	-0.180045	-93.326707	-45.736591	52.829005	-45.736591	52.829005	-0.201218	-103.604746
6.750000	-0.182667	-93.939153	-45.577930	51.378749	-45.577930	51.378749	-0.204149	-104.282905
6.800000	-0.185332	-94.550199	-45.420705	49.931801	-45.420705	49.931801	-0.207127	-104.959846
6.850000	-0.188029	-95.160244	-45.265285	48.487215	-45.265285	48.487215	-0.210139	-105.635915
6.900000	-0.190764	-95.769112	-45.111459	47.045753	-45.111459	47.045753	-0.213193	-106.311005
6.950000	-0.193538	-96.376801	-44.959192	45.607414	-44.959192	45.607414	-0.216288	-106.985114
7.000000	-0.196345	-96.983528	-44.808656	44.171969	-44.808656	44.171969	-0.219419	-107.658467
7.050000	-0.199197	-97.588907	-44.659459	42.740576	-44.659459	42.740576	-0.222600	-108.330761
7.100000	-0.202076	-98.193532	-44.512110	41.311785	-44.512110	41.311785	-0.225810	-109.002505
7.150000	-0.205009	-98.796648	-44.365902	39.888201	-44.365902	39.888201	-0.229077	-109.673148
7.200000	-0.207963	-99.399210	-44.221642	38.466843	-44.221642	38.466843	-0.232366	-110.343426
7.250000	-0.210977	-100.000112	-44.078345	37.052165	-44.078345	37.052165	-0.235722	-111.012610
7.300000	-0.214007	-100.600653	-43.937078	35.639210	-43.937078	35.639210	-0.239094	-111.681588
7.350000	-0.217106	-101.199390	-43.796618	34.234866	-43.796618	34.234866	-0.242540	-112.349538
7.400000	-0.220213	-101.797952	-43.658254	32.831543	-43.658254	32.831543	-0.245996	-113.017409
7.450000	-0.223397	-102.394576	-43.520556	31.439442	-43.520556	31.439442	-0.249536	-113.684405
7.500000	-0.226583	-102.991200	-43.385006	30.047341	-43.385006	30.047341	-0.253078	-114.351401
7.550000	-0.229856	-103.585763	-43.249992	28.670106	-43.249992	28.670106	-0.256717	-115.017792
7.600000	-0.233129	-104.180326	-43.117044	27.292870	-43.117044	27.292870	-0.260357	-115.684184
7.650000	-0.236485	-104.773047	-42.984749	25.932665	-42.984749	25.932665	-0.264092	-116.350444
7.700000	-0.239848	-105.365601	-42.854318	24.574009	-42.854318	24.574009	-0.267836	-117.016693
7.750000	-0.243288	-105.956525	-42.724618	23.235376	-42.724618	23.235376	-0.271677	-117.683349
7.800000	-0.246744	-106.547123	-42.596590	21.900746	-42.596590	21.900746	-0.275537	-118.350086
7.850000	-0.250271	-107.136293	-42.469311	20.590369	-42.469311	20.590369	-0.279498	-119.017875
7.900000	-0.253822	-107.724987	-42.343504	19.288076	-42.343504	19.288076	-0.283494	-119.686014
7.950000	-0.257438	-108.312445	-42.218357	18.016201	-42.218357	18.016201	-0.287604	-120.356019
8.000000	-0.261088	-108.899284	-42.094427	16.759537	-42.094427	16.759537	-0.291774	-121.026958
8.050000	-0.264797	-109.485067	-41.970857	15.542636	-41.970857	15.542636	-0.296090	-121.700870
8.100000	-0.268550	-110.070095	-41.848045	14.354138	-41.848045	14.354138	-0.300514	-122.376905
8.150000	-0.272357	-110.654231	-41.724827	13.220271	-41.724827	13.220271	-0.305159	-123.057543
8.200000	-0.276219	-111.237475	-41.601242	12.141036	-41.601242	12.141036	-0.310026	-123.742783
8.250000	-0.280132	-111.819971	-41.475293	11.141522	-41.475293	11.141522	-0.315295	-124.435265
8.300000	-0.284114	-112.401418	-41.345490	10.253620	-41.345490	10.253620	-0.321123	-125.137883
8.350000	-0.288131	-112.982413	-41.212310	9.442604	-41.212310	9.442604	-0.327447	-125.847797
8.400000	-0.292240	-113.562126	-41.062448	8.875420	-41.062448	8.875420	-0.335497	-126.581159
8.450000	-0.296427	-114.140787	-40.885167	8.589388	-40.885167	8.589388	-0.346236	-127.342757
8.500000	-0.300699	-114.718167	-40.650775	8.706459	-40.650775	8.706459	-0.362396	-128.147326
8.550000	-0.305049	-115.293996	-40.312902	9.303318	-40.312902	9.303318	-0.388600	-129.008630
8.600000	-0.309435	-115.866849	-39.684414	10.391210	-39.684414	10.391210	-0.444737	-129.955553
8.650000	-0.313447	-116.434958	-38.467857	9.918025	-38.467857	9.918025	-0.576737	-130.813867
8.700000	-0.315810	-117.002150	-37.021005	1.170570	-37.021005	1.170570	-0.771658	-130.535192
8.750000	-0.317705	-117.586772	-37.242526	-12.013215	-37.242526	-12.013215	-0.700708	-129.534908
8.800000	-0.322034	-118.174150	-38.175254	-17.176643	-38.175254	-17.176643	-0.552969	-129.924477
8.850000	-0.327035	-118.754084	-38.747833	-18.465551	-38.747833	-18.465551	-0.480094	-130.734515
8.900000	-0.331980	-119.330018	-39.021488	-18.991298	-39.021488	-18.991298	-0.447787	-131.552774
8.950000	-0.336845	-119.904195	-39.149376	-19.522541	-39.149376	-19.522541	-0.431831	-132.334329
9.000000	-0.341663	-120.477254	-39.192956	-20.191752	-39.192956	-20.191752	-0.424362	-133.082254
9.050000	-0.346467	-121.049490	-39.187701	-21.003002	-39.187701	-21.003002	-0.421506	-133.805225
9.100000	-0.351279	-121.621103	-39.155709	-21.922255	-39.155709	-21.922255	-0.421091	-134.511871
9.150000	-0.356114	-122.192084	-39.104404	-22.938301	-39.104404	-22.938301	-0.422418	-135.205054
9.200000	-0.360985	-122.762461	-39.040720	-24.029988	-39.040720	-24.029988	-0.424872	-135.888392
9.250000	-0.365882	-123.332470	-38.971630	-25.160568	-38.971630	-25.160568	-0.427848	-136.566857
9.300000	-0.370818	-123.901992	-38.896526	-26.337625	-38.896526	-26.337625	-0.431412	-137.239635
9.350000	-0.375806	-124.470951	-38.816720	-27.556944	-38.816720	-27.556944	-0.435462	-137.907484
9.400000	-0.380833	-125.039544	-38.734884	-28.799573	-38.734884	-28.799573	-0.439769	-138.572718
9.450000	-0.385899	-125.607778	-38.651399	-30.063346	-38.651399	-30.063346	-0.444306	-139.235627
9.500000	-0.391023	-126.175518	-38.566034	-31.352043	-38.566034	-31.352043	-0.449106	-139.895930
9.550000	-0.396195	-126.742881	-38.479872	-32.656860	-38.479872	-32.656860	-0.454077	-140.554671
9.600000	-0.401409	-127.309938	-38.393359	-33.973931	-38.393359	-33.973931	-0.459178	-141.212278
9.650000	-0.406669	-127.876670	-38.306556	-35.303108	-38.306556	-35.303108	-0.464409	-141.868823
9.700000	-0.411994	-128.442978	-38.219347	-36.646529	-38.219347	-36.646529	-0.469796	-142.524274
9.750000	-0.417362	-129.009030	-38.132343	-37.997879	-38.132343	-37.997879	-0.475274	-143.179208
9.800000	-0.422774	-129.574835	-38.045595	-39.356737	-38.045595	-39.356737	-0.480839	-143.833691
9.850000	-0.428245	-130.140323	-37.959012	-40.724765	-37.959012	-40.724765	-0.486513	-144.487729
9.900000	-0.433770	-130.705546	-37.872772	-42.100295	-37.872772	-42.100295	-0.492279	-145.141532
9.950000	-0.439340	-131.270573	-37.787038	-43.481309	-37.787038	-43.481309	-0.498116	-145.795227
10.000000	-0.444955	-131.835413	-37.701833	-44.867574	-37.701833	-44.867574	-0.504022	-146.448858
