! freq	dB(S11)	phase(S11)	dB(S12)	phase(S12)	
!     	dB(S21)	phase(S21)	dB(S22)	phase(S22)	
!S-par simulation data
#  GHz  S  DB  R 50
0.000000	-0.000000	0.000000	-391.079430	0.000000	-391.079430	0.000000	-0.000000	0.000000
0.050000	-0.000102	-0.759819	-118.949866	89.791572	-118.949866	89.791572	-0.000102	-0.759890
0.100000	-0.000402	-1.519383	-112.943595	89.445470	-112.943595	89.445470	-0.000402	-1.519525
0.150000	-0.000892	-2.278439	-109.474043	88.953208	-109.474043	88.953208	-0.000892	-2.278653
0.200000	-0.001540	-3.036841	-107.070384	88.392232	-107.070384	88.392232	-0.001539	-3.037127
0.250000	-0.002327	-3.794425	-105.276274	87.829105	-105.276274	87.829105	-0.002326	-3.794785
0.300000	-0.003237	-4.550996	-103.897351	87.324140	-103.897351	87.324140	-0.003236	-4.551428
0.350000	-0.004228	-5.306656	-102.804967	86.906287	-102.804967	86.906287	-0.004227	-5.307162
0.400000	-0.005287	-6.061244	-101.951808	86.624921	-101.951808	86.624921	-0.005286	-6.061824
0.450000	-0.006389	-6.814858	-101.287460	86.507978	-101.287460	86.507978	-0.006388	-6.815512
0.500000	-0.007518	-7.567481	-100.792065	86.609228	-100.792065	86.609228	-0.007517	-7.568209
0.550000	-0.008661	-8.319161	-100.449076	86.989635	-100.449076	86.989635	-0.008660	-8.319962
0.600000	-0.009806	-9.069940	-100.249216	87.733005	-100.249216	87.733005	-0.009806	-9.070815
0.650000	-0.010947	-9.819864	-100.187360	88.955083	-100.187360	88.955083	-0.010947	-9.820811
0.700000	-0.012079	-10.568972	-100.260382	90.818529	-100.260382	90.818529	-0.012079	-10.569992
0.750000	-0.013197	-11.317301	-100.463953	93.554028	-100.463953	93.554028	-0.013198	-11.318393
0.800000	-0.014301	-12.064881	-100.786448	97.486347	-100.786448	97.486347	-0.014302	-12.066044
0.850000	-0.015387	-12.811613	-101.181678	103.491520	-101.181678	103.491520	-0.015388	-12.812847
0.900000	-0.016457	-13.557606	-101.587094	111.754869	-101.587094	111.754869	-0.016459	-13.558910
0.950000	-0.017520	-14.303237	-101.854291	121.230093	-101.854291	121.230093	-0.017522	-14.304612
1.000000	-0.018562	-15.047784	-101.657944	134.340942	-101.657944	134.340942	-0.018564	-15.049229
1.050000	-0.019599	-15.792091	-101.248137	147.294708	-101.248137	147.294708	-0.019601	-15.793606
1.100000	-0.020617	-16.535196	-99.885145	159.463058	-99.885145	159.463058	-0.020619	-16.536780
1.150000	-0.021633	-17.278179	-98.625399	171.201381	-98.625399	171.201381	-0.021636	-17.279833
1.200000	-0.022632	-18.019816	-96.769222	178.209389	-96.769222	178.209389	-0.022635	-18.021539
1.250000	-0.023630	-18.761453	-95.240713	-174.782603	-95.240713	-174.782603	-0.023634	-18.763245
1.300000	-0.024618	-19.501963	-93.583715	-170.755515	-93.583715	-170.755515	-0.024621	-19.503824
1.350000	-0.025600	-20.241735	-92.019577	-167.964376	-92.019577	-167.964376	-0.025603	-20.243664
1.400000	-0.026577	-20.980755	-90.552532	-166.076729	-90.552532	-166.076729	-0.026580	-20.982753
1.450000	-0.027549	-21.719010	-89.177895	-164.856931	-89.177895	-164.856931	-0.027553	-21.721076
1.500000	-0.028518	-22.456485	-87.887869	-164.138681	-87.887869	-164.138681	-0.028522	-22.458618
1.550000	-0.029484	-23.193164	-86.674082	-163.803627	-86.674082	-163.803627	-0.029488	-23.195365
1.600000	-0.030447	-23.929031	-85.528608	-163.766353	-85.528608	-163.766353	-0.030452	-23.931300
1.650000	-0.031409	-24.664071	-84.444321	-163.964206	-84.444321	-163.964206	-0.031413	-24.666408
1.700000	-0.032368	-25.397969	-83.391664	-164.399634	-83.391664	-164.399634	-0.032373	-25.400372
1.750000	-0.033327	-26.131421	-82.422065	-164.920463	-82.422065	-164.920463	-0.033332	-26.133891
1.800000	-0.034286	-26.863802	-81.482890	-165.583960	-81.482890	-165.583960	-0.034290	-26.866339
1.850000	-0.035243	-27.595417	-80.592278	-166.349361	-80.592278	-166.349361	-0.035248	-27.598020
1.900000	-0.036201	-28.326080	-79.735617	-167.199344	-79.735617	-167.199344	-0.036206	-28.328749
1.950000	-0.037159	-29.055790	-78.911418	-168.133909	-78.911418	-168.133909	-0.037164	-29.058526
2.000000	-0.038117	-29.784679	-78.123458	-169.119115	-78.123458	-169.119115	-0.038122	-29.787481
2.050000	-0.039077	-30.512419	-77.355888	-170.175220	-77.355888	-170.175220	-0.039082	-30.515286
2.100000	-0.040037	-31.239481	-76.626040	-171.261347	-76.626040	-171.261347	-0.040042	-31.242413
2.150000	-0.040999	-31.965186	-75.907383	-172.407518	-75.907383	-172.407518	-0.041004	-31.968183
2.200000	-0.041962	-32.690366	-75.227375	-173.570804	-75.227375	-173.570804	-0.041968	-32.693428
2.250000	-0.042928	-33.413973	-74.551458	-174.785434	-74.551458	-174.785434	-0.042934	-33.417100
2.300000	-0.043896	-34.137221	-73.914708	-176.008921	-73.914708	-176.008921	-0.043901	-34.140412
2.350000	-0.044867	-34.858671	-73.276517	-177.276688	-73.276517	-177.276688	-0.044873	-34.861925
2.400000	-0.045839	-35.579935	-72.677704	-178.547952	-72.677704	-178.547952	-0.045845	-35.583254
2.450000	-0.046818	-36.299169	-72.073107	-179.857690	-72.073107	-179.857690	-0.046824	-36.302550
2.500000	-0.047796	-37.018402	-71.507868	178.832572	-71.507868	178.832572	-0.047802	-37.021847
2.550000	-0.048782	-37.735363	-70.933418	177.489198	-70.933418	177.489198	-0.048789	-37.738870
2.600000	-0.049769	-38.452324	-70.394615	176.145824	-70.394615	176.145824	-0.049775	-38.455894
2.650000	-0.050764	-39.167152	-69.850917	174.777435	-69.850917	174.777435	-0.050770	-39.170784
2.700000	-0.051759	-39.881786	-69.336147	173.406773	-69.336147	173.406773	-0.051766	-39.885480
2.750000	-0.052764	-40.594439	-68.820078	172.017474	-68.820078	172.017474	-0.052771	-40.598194
2.800000	-0.053771	-41.306695	-68.327277	170.624448	-68.327277	170.624448	-0.053778	-41.310512
2.850000	-0.054787	-42.017131	-67.836179	169.217561	-67.836179	169.217561	-0.054794	-42.021009
2.900000	-0.055806	-42.726960	-67.363559	167.806053	-67.363559	167.806053	-0.055813	-42.730898
2.950000	-0.056834	-43.435140	-66.895153	166.384293	-66.895153	166.384293	-0.056842	-43.439138
3.000000	-0.057867	-44.142494	-66.441150	164.957405	-66.441150	164.957405	-0.057875	-44.146552
3.050000	-0.058909	-44.848380	-65.993468	163.523011	-65.993468	163.523011	-0.058917	-44.852497
3.100000	-0.059957	-45.553215	-65.556708	162.083255	-65.556708	162.083255	-0.059965	-45.557392
3.150000	-0.061014	-46.256771	-65.128032	160.638092	-65.128032	160.638092	-0.061022	-46.261007
3.200000	-0.062079	-46.959046	-64.707297	159.187522	-64.707297	159.187522	-0.062087	-46.963341
3.250000	-0.063151	-47.660238	-64.296123	157.733155	-64.296123	157.733155	-0.063160	-47.664591
3.300000	-0.064235	-48.359914	-63.890332	156.273471	-63.890332	156.273471	-0.064243	-48.364324
3.350000	-0.065325	-49.058710	-63.495333	154.811222	-63.495333	154.811222	-0.065334	-49.063178
3.400000	-0.066429	-49.755749	-63.103515	153.343842	-63.103515	153.343842	-0.066437	-49.760274
3.450000	-0.067538	-50.452120	-62.723515	151.874837	-62.723515	151.874837	-0.067547	-50.456703
3.500000	-0.068663	-51.146488	-62.344799	150.400955	-62.344799	150.400955	-0.068672	-51.151127
3.550000	-0.069792	-51.840406	-61.978749	148.926157	-61.978749	148.926157	-0.069801	-51.845101
3.600000	-0.070940	-52.532072	-61.612348	147.446784	-61.612348	147.446784	-0.070950	-52.536824
3.650000	-0.072091	-53.223511	-61.259309	145.967026	-61.259309	145.967026	-0.072100	-53.228318
3.700000	-0.073264	-53.912447	-60.904510	144.483025	-60.904510	144.483025	-0.073274	-53.917309
3.750000	-0.074437	-54.601383	-60.563636	142.999025	-60.563636	142.999025	-0.074447	-54.606300
3.800000	-0.075637	-55.287563	-60.219790	141.511141	-60.219790	141.511141	-0.075647	-55.292535
3.850000	-0.076836	-55.973743	-59.889039	140.023256	-59.889039	140.023256	-0.076846	-55.978769
3.900000	-0.078062	-56.657375	-59.556835	138.532399	-59.556835	138.532399	-0.078072	-56.662455
3.950000	-0.079289	-57.340776	-59.235681	137.041271	-59.235681	137.041271	-0.079300	-57.345909
4.000000	-0.080542	-58.021844	-58.914411	135.547907	-58.914411	135.547907	-0.080552	-58.027030
4.050000	-0.081799	-58.702445	-58.602372	134.054095	-58.602372	134.054095	-0.081810	-58.707685
4.100000	-0.083080	-59.380934	-58.291393	132.558635	-58.291393	132.558635	-0.083091	-59.386226
4.150000	-0.084369	-60.058718	-57.988024	131.062627	-57.988024	131.062627	-0.084379	-60.064063
4.200000	-0.085679	-60.734615	-57.686749	129.565440	-57.686749	129.565440	-0.085690	-60.740012
4.250000	-0.087001	-61.409568	-57.391639	128.067664	-57.391639	128.067664	-0.087012	-61.415017
4.300000	-0.088342	-62.082863	-57.099531	126.569078	-57.099531	126.569078	-0.088353	-62.088363
4.350000	-0.089698	-62.754973	-56.812301	125.069913	-56.812301	125.069913	-0.089710	-62.760524
4.400000	-0.091072	-63.425656	-56.528868	123.570222	-56.528868	123.570222	-0.091084	-63.431258
4.450000	-0.092465	-64.094913	-56.249166	122.070005	-56.249166	122.070005	-0.092476	-64.100566
4.500000	-0.093873	-64.762980	-55.973955	120.569475	-55.973955	120.569475	-0.093884	-64.768682
4.550000	-0.095303	-65.429378	-55.701452	119.068506	-55.701452	119.068506	-0.095315	-65.435131
4.600000	-0.096746	-66.094822	-55.434047	117.567376	-55.434047	117.567376	-0.096758	-66.100625
4.650000	-0.098215	-66.758358	-55.168438	116.065924	-55.168438	116.065924	-0.098228	-66.764210
4.700000	-0.099695	-67.421178	-54.908454	114.564411	-54.908454	114.564411	-0.099708	-67.427078
4.750000	-0.101206	-68.081850	-54.649454	113.062719	-54.649454	113.062719	-0.101218	-68.087799
4.800000	-0.102724	-68.742045	-54.396534	111.561022	-54.396534	111.561022	-0.102736	-68.748042
4.850000	-0.104277	-69.399854	-54.143876	110.059308	-54.143876	110.059308	-0.104290	-69.405900
4.900000	-0.105834	-70.057426	-53.897690	108.557609	-53.897690	108.557609	-0.105847	-70.063520
4.950000	-0.107432	-70.712377	-53.651124	107.056073	-53.651124	107.056073	-0.107445	-70.718519
5.000000	-0.109030	-71.367329	-53.411365	105.554537	-53.411365	105.554537	-0.109043	-71.373518
5.050000	-0.110674	-72.019429	-53.170657	104.053362	-53.170657	104.053362	-0.110687	-72.025664
5.100000	-0.112318	-72.671529	-52.936440	102.552187	-52.936440	102.552187	-0.112332	-72.677811
5.150000	-0.114006	-73.321023	-52.701968	101.051496	-52.701968	101.051496	-0.114019	-73.327352
5.200000	-0.115698	-73.970280	-52.473093	99.550848	-52.473093	99.550848	-0.115711	-73.976656
5.250000	-0.117430	-74.617179	-52.244584	98.050770	-52.244584	98.050770	-0.117445	-74.623600
5.300000	-0.119172	-75.263605	-52.020860	96.550805	-52.020860	96.550805	-0.119186	-75.270072
5.350000	-0.120951	-75.907919	-51.798060	95.051458	-51.798060	95.051458	-0.120966	-75.914431
5.400000	-0.122744	-76.551528	-51.579306	93.552318	-51.579306	93.552318	-0.122758	-76.558086
5.450000	-0.124571	-77.193270	-51.361977	92.053816	-51.361977	92.053816	-0.124586	-77.199873
5.500000	-0.126416	-77.834078	-51.148025	90.555634	-51.148025	90.555634	-0.126431	-77.840726
5.550000	-0.128293	-78.473264	-50.935942	89.058081	-50.935942	89.058081	-0.128308	-78.479956
5.600000	-0.130193	-79.111290	-50.726631	87.560980	-50.726631	87.560980	-0.130208	-79.118026
5.650000	-0.132121	-79.747935	-50.519585	86.064476	-50.519585	86.064476	-0.132136	-79.754715
5.700000	-0.134077	-80.383199	-50.314762	84.568571	-50.314762	84.568571	-0.134092	-80.390023
5.750000	-0.136057	-81.017323	-50.112556	83.073209	-50.112556	83.073209	-0.136073	-81.024190
5.800000	-0.138071	-81.649848	-49.912075	81.578608	-49.912075	81.578608	-0.138087	-81.656759
5.850000	-0.140104	-82.281469	-49.714523	80.084476	-49.714523	80.084476	-0.140121	-82.288423
5.900000	-0.142178	-82.911281	-49.518247	78.591280	-49.518247	78.591280	-0.142194	-82.918278
5.950000	-0.144267	-83.540421	-49.325174	77.098459	-49.325174	77.098459	-0.144283	-83.547460
6.000000	-0.146401	-84.167546	-49.132970	75.606764	-49.132970	75.606764	-0.146418	-84.174628
6.050000	-0.148547	-84.794227	-48.944210	74.115333	-48.944210	74.115333	-0.148564	-84.801352
6.100000	-0.150744	-85.418694	-48.755954	72.625225	-48.755954	72.625225	-0.150761	-85.425861
6.150000	-0.152948	-86.042943	-48.571351	71.135257	-48.571351	71.135257	-0.152965	-86.050151
6.200000	-0.155210	-86.664783	-48.386921	69.646821	-48.386921	69.646821	-0.155227	-86.672033
6.250000	-0.157473	-87.286623	-48.206327	68.158384	-48.206327	68.158384	-0.157490	-87.293915
6.300000	-0.159801	-87.905869	-48.025609	66.671695	-48.025609	66.671695	-0.159819	-87.913203
6.350000	-0.162130	-88.525116	-47.848575	65.185006	-47.848575	65.185006	-0.162148	-88.532490
6.400000	-0.164521	-89.142016	-47.671766	63.699983	-47.671766	63.699983	-0.164539	-89.149432
6.450000	-0.166918	-89.758703	-47.498190	62.215112	-47.498190	62.215112	-0.166937	-89.766160
6.500000	-0.169373	-90.373288	-47.325153	60.731809	-47.325153	60.731809	-0.169392	-90.380785
6.550000	-0.171840	-90.987452	-47.154935	59.248821	-47.154935	59.248821	-0.171859	-90.994990
6.600000	-0.174360	-91.599753	-46.985541	57.767288	-46.985541	57.767288	-0.174379	-91.607331
6.650000	-0.176899	-92.211433	-46.818587	56.286240	-46.818587	56.286240	-0.176918	-92.219052
6.700000	-0.179486	-92.821483	-46.652712	54.806521	-46.652712	54.806521	-0.179505	-92.829142
6.750000	-0.182097	-93.430718	-46.488930	53.327467	-46.488930	53.327467	-0.182117	-93.438417
6.800000	-0.184752	-94.038552	-46.326455	51.849601	-46.326455	51.849601	-0.184772	-94.046290
6.850000	-0.187438	-94.645384	-46.165757	50.372585	-46.165757	50.372585	-0.187459	-94.653162
6.900000	-0.190163	-95.251036	-46.006571	48.896607	-46.006571	48.896607	-0.190183	-95.258854
6.950000	-0.192926	-95.855508	-45.848870	47.421667	-45.848870	47.421667	-0.192946	-95.863366
7.000000	-0.195721	-96.459016	-45.692866	45.947604	-45.692866	45.947604	-0.195742	-96.466913
7.050000	-0.198562	-97.061173	-45.538080	44.474771	-45.538080	44.474771	-0.198583	-97.069110
7.100000	-0.201429	-97.662574	-45.385155	43.002648	-45.385155	43.002648	-0.201450	-97.670550
7.150000	-0.204350	-98.262462	-45.233205	41.531944	-45.233205	41.531944	-0.204371	-98.270478
7.200000	-0.207291	-98.861796	-45.083260	40.061777	-45.083260	40.061777	-0.207312	-98.869850
7.250000	-0.210293	-99.459463	-44.934069	38.593217	-44.934069	38.593217	-0.210314	-99.467556
7.300000	-0.213309	-100.056768	-44.787011	37.125016	-44.787011	37.125016	-0.213331	-100.064900
7.350000	-0.216393	-100.652263	-44.640504	35.658606	-44.640504	35.658606	-0.216416	-100.660434
7.400000	-0.219486	-101.247582	-44.496243	34.192375	-44.496243	34.192375	-0.219508	-101.255792
7.450000	-0.222655	-101.840956	-44.352348	32.728111	-44.352348	32.728111	-0.222678	-101.849205
7.500000	-0.225825	-102.434330	-44.210797	31.263846	-44.210797	31.263846	-0.225848	-102.442617
7.550000	-0.229080	-103.025635	-44.069444	29.801714	-44.069444	29.801714	-0.229103	-103.033961
7.600000	-0.232337	-103.616939	-43.930355	28.339582	-43.930355	28.339582	-0.232360	-103.625304
7.650000	-0.235672	-104.206396	-43.791644	26.879383	-43.791644	26.879383	-0.235696	-104.214799
7.700000	-0.239016	-104.795685	-43.654952	25.419360	-43.654952	25.419360	-0.239040	-104.804126
7.750000	-0.242433	-105.383339	-43.518804	23.961066	-43.518804	23.961066	-0.242457	-105.391819
7.800000	-0.245866	-105.970666	-43.384447	22.503117	-43.384447	22.503117	-0.245890	-105.979185
7.850000	-0.249366	-106.556565	-43.250784	21.046690	-43.250784	21.046690	-0.249391	-106.565122
7.900000	-0.252890	-107.141987	-43.118703	19.590770	-43.118703	19.590770	-0.252914	-107.150582
7.950000	-0.256474	-107.726176	-42.987453	18.136165	-42.987453	18.136165	-0.256499	-107.734811
8.000000	-0.260090	-108.309750	-42.857591	16.682217	-42.857591	16.682217	-0.260115	-108.318423
8.050000	-0.263760	-108.892280	-42.728683	15.229380	-42.728683	15.229380	-0.263785	-108.900992
8.100000	-0.267469	-109.474065	-42.600985	13.777336	-42.600985	13.777336	-0.267494	-109.482814
8.150000	-0.271225	-110.054984	-42.474353	12.326204	-42.474353	12.326204	-0.271250	-110.063772
8.200000	-0.275029	-110.635039	-42.348766	10.875984	-42.348766	10.875984	-0.275054	-110.643866
8.250000	-0.278873	-111.214398	-42.224346	9.426484	-42.224346	9.426484	-0.278899	-111.223264
8.300000	-0.282773	-111.792784	-42.100821	7.977994	-42.100821	7.977994	-0.282799	-111.801688
8.350000	-0.286706	-112.370634	-41.978553	6.530046	-41.978553	6.530046	-0.286732	-112.379577
8.400000	-0.290703	-112.947414	-41.857042	5.083182	-41.857042	5.083182	-0.290729	-112.956395
8.450000	-0.294726	-113.523807	-41.736868	3.636694	-41.736868	3.636694	-0.294752	-113.532828
8.500000	-0.298822	-114.099044	-41.617327	2.191338	-41.617327	2.191338	-0.298849	-114.108103
8.550000	-0.302936	-114.674034	-41.499193	0.746211	-41.499193	0.746211	-0.302963	-114.683132
8.600000	-0.307131	-115.247792	-41.381580	-0.697768	-41.381580	-0.697768	-0.307159	-115.256929
8.650000	-0.311337	-115.821432	-41.265435	-2.141643	-41.265435	-2.141643	-0.311365	-115.830608
8.700000	-0.315634	-116.393778	-41.149710	-3.584387	-41.149710	-3.584387	-0.315662	-116.402993
8.750000	-0.319933	-116.966124	-41.035506	-5.027130	-41.035506	-5.027130	-0.319961	-116.975378
8.800000	-0.324332	-117.537124	-40.921633	-6.468792	-40.921633	-6.468792	-0.324360	-117.546418
8.850000	-0.328733	-118.108124	-40.809234	-7.910454	-40.809234	-7.910454	-0.328761	-118.117458
8.900000	-0.333227	-118.677954	-40.697273	-9.351278	-40.697273	-9.351278	-0.333255	-118.687327
8.950000	-0.337731	-119.247678	-40.586648	-10.792025	-40.586648	-10.792025	-0.337760	-119.257091
9.000000	-0.342321	-119.816396	-40.476559	-12.232158	-40.476559	-12.232158	-0.342349	-119.825848
9.050000	-0.346929	-120.384912	-40.367679	-13.672168	-40.367679	-13.672168	-0.346958	-120.394404
9.100000	-0.351615	-120.952576	-40.259425	-15.111767	-40.259425	-15.111767	-0.351644	-120.962108
9.150000	-0.356329	-121.519956	-40.152267	-16.551229	-40.152267	-16.551229	-0.356358	-121.529529
9.200000	-0.361112	-122.086626	-40.045816	-17.990457	-40.045816	-17.990457	-0.361141	-122.096239
9.250000	-0.365932	-122.652942	-39.940359	-19.429569	-39.940359	-19.429569	-0.365961	-122.662596
9.300000	-0.370813	-123.218680	-39.835682	-20.868597	-39.835682	-20.868597	-0.370843	-123.228374
9.350000	-0.375739	-123.784005	-39.731909	-22.307566	-39.731909	-22.307566	-0.375769	-123.793740
9.400000	-0.380719	-124.348871	-39.628981	-23.746571	-39.628981	-23.746571	-0.380749	-124.358647
9.450000	-0.385753	-124.913280	-39.526880	-25.185613	-39.526880	-25.185613	-0.385783	-124.923097
9.500000	-0.390832	-125.477338	-39.425678	-26.624779	-39.425678	-26.624779	-0.390862	-125.487197
9.550000	-0.395974	-126.040907	-39.325242	-28.064117	-39.325242	-28.064117	-0.396004	-126.050807
9.600000	-0.401153	-126.604221	-39.225748	-29.503629	-39.225748	-29.503629	-0.401183	-126.614163
9.650000	-0.406403	-127.167026	-39.126973	-30.943491	-39.126973	-30.943491	-0.406433	-127.177010
9.700000	-0.411682	-127.729660	-39.029173	-32.383543	-39.029173	-32.383543	-0.411712	-127.739687
9.750000	-0.417041	-128.291782	-38.932060	-33.824161	-38.932060	-33.824161	-0.417072	-128.301850
9.800000	-0.422421	-128.853802	-38.835943	-35.264944	-38.835943	-35.264944	-0.422451	-128.863914
9.850000	-0.427889	-129.415320	-38.740499	-36.706553	-38.740499	-36.706553	-0.427920	-129.425474
9.900000	-0.433370	-129.976793	-38.646060	-38.148264	-38.646060	-38.148264	-0.433400	-129.986991
9.950000	-0.438948	-130.537788	-38.552296	-39.591097	-38.552296	-39.591097	-0.438978	-130.548029
10.000000	-0.444529	-131.098783	-38.459533	-41.033931	-38.459533	-41.033931	-0.444560	-131.109067
