! freq	dB(S11)	phase(S11)	dB(S12)	phase(S12)	
!     	dB(S21)	phase(S21)	dB(S22)	phase(S22)	
!S-par simulation data
#  GHz  S  DB  R 50
0.000000	-0.000000	-0.000000	-349.598128	180.000000	-349.598128	180.000000	-0.000000	-0.000000
0.050000	-0.000091	-0.764588	-105.589418	161.907741	-105.589418	161.907741	-0.000202	-1.006387
0.100000	-0.000360	-1.528971	-103.007736	135.519902	-103.007736	135.519902	-0.000782	-2.012002
0.150000	-0.000798	-2.292957	-100.691049	121.544910	-100.691049	121.544910	-0.001676	-3.016247
0.200000	-0.001389	-3.056386	-98.770650	112.931598	-98.770650	112.931598	-0.002799	-4.018793
0.250000	-0.002125	-3.819071	-97.196062	107.188558	-97.196062	107.188558	-0.004079	-5.019414
0.300000	-0.002972	-4.580970	-95.896495	102.896509	-95.896495	102.896509	-0.005437	-6.018338
0.350000	-0.003916	-5.341978	-94.815513	99.596335	-94.815513	99.596335	-0.006834	-7.015626
0.400000	-0.004937	-6.102045	-93.912826	96.969796	-93.912826	96.969796	-0.008241	-8.011439
0.450000	-0.006017	-6.861148	-93.159572	94.838202	-93.159572	94.838202	-0.009641	-9.005924
0.500000	-0.007139	-7.619283	-92.535020	93.099033	-92.535020	93.099033	-0.011028	-9.999201
0.550000	-0.008289	-8.376462	-92.024206	91.695179	-92.024206	91.695179	-0.012400	-10.991355
0.600000	-0.009453	-9.132707	-91.616321	90.599324	-91.616321	90.599324	-0.013758	-11.982439
0.650000	-0.010623	-9.888045	-91.303598	89.806052	-91.303598	89.806052	-0.015104	-12.972483
0.700000	-0.011792	-10.642507	-91.080505	89.328269	-91.080505	89.328269	-0.016441	-13.961495
0.750000	-0.012952	-11.396123	-90.943090	89.196399	-90.943090	89.196399	-0.017770	-14.949473
0.800000	-0.014102	-12.148923	-90.888358	89.459635	-90.888358	89.459635	-0.019095	-15.936402
0.850000	-0.015237	-12.900930	-90.913502	90.188908	-90.913502	90.188908	-0.020415	-16.922262
0.900000	-0.016356	-13.652166	-91.014817	91.481292	-91.014817	91.481292	-0.021733	-17.907030
0.950000	-0.017460	-14.402647	-91.185954	93.465080	-91.185954	93.465080	-0.023047	-18.890678
1.000000	-0.018547	-15.152386	-91.415093	96.303378	-91.415093	96.303378	-0.024359	-19.873179
1.050000	-0.019618	-15.901391	-91.680507	100.190814	-91.680507	100.190814	-0.025669	-20.854505
1.100000	-0.020675	-16.649665	-91.944367	105.332085	-91.944367	105.332085	-0.026975	-21.834627
1.150000	-0.021717	-17.397210	-92.146324	111.883957	-92.146324	111.883957	-0.028278	-22.813519
1.200000	-0.022747	-18.144024	-92.202444	119.844352	-92.202444	119.844352	-0.029577	-23.791153
1.250000	-0.023765	-18.890100	-92.019886	128.910328	-92.019886	128.910328	-0.030872	-24.767501
1.300000	-0.024772	-19.635399	-91.517030	138.399318	-91.517030	138.399318	-0.032162	-25.742479
1.350000	-0.025770	-20.379942	-90.708703	147.426853	-90.708703	147.426853	-0.033448	-26.716117
1.400000	-0.026760	-21.123720	-89.662035	155.355423	-89.662035	155.355423	-0.034729	-27.688390
1.450000	-0.027743	-21.866718	-88.468620	161.903042	-88.468620	161.903042	-0.036006	-28.659273
1.500000	-0.028720	-22.608924	-87.209350	167.078898	-87.209350	167.078898	-0.037277	-29.628741
1.550000	-0.029692	-23.350322	-85.940760	171.044690	-85.940760	171.044690	-0.038543	-30.596770
1.600000	-0.030660	-24.090899	-84.696695	174.007427	-84.696695	174.007427	-0.039805	-31.563336
1.650000	-0.031625	-24.830637	-83.494915	176.163632	-83.494915	176.163632	-0.041062	-32.528415
1.700000	-0.032587	-25.569521	-82.343215	177.679122	-82.343215	177.679122	-0.042314	-33.491986
1.750000	-0.033547	-26.307536	-81.243710	178.686458	-81.243710	178.686458	-0.043563	-34.454023
1.800000	-0.034506	-27.044663	-80.195474	179.289118	-80.195474	179.289118	-0.044808	-35.414506
1.850000	-0.035465	-27.780888	-79.196083	179.567216	-79.196083	179.567216	-0.046050	-36.373411
1.900000	-0.036423	-28.516193	-78.242469	179.582793	-78.242469	179.582793	-0.047289	-37.330717
1.950000	-0.037381	-29.250562	-77.331382	179.384124	-77.331382	179.384124	-0.048526	-38.286402
2.000000	-0.038340	-29.983979	-76.459640	179.009043	-76.459640	179.009043	-0.049761	-39.240445
2.050000	-0.039300	-30.716428	-75.624236	178.487447	-75.624236	178.487447	-0.050995	-40.192827
2.100000	-0.040262	-31.447893	-74.822395	177.843171	-74.822395	177.843171	-0.052229	-41.143525
2.150000	-0.041226	-32.178357	-74.051584	177.095382	-74.051584	177.095382	-0.053462	-42.092521
2.200000	-0.042192	-32.907806	-73.309506	176.259624	-73.309506	176.259624	-0.054696	-43.039796
2.250000	-0.043160	-33.636225	-72.594084	175.348607	-72.594084	175.348607	-0.055931	-43.985330
2.300000	-0.044132	-34.363597	-71.903442	174.372805	-71.903442	174.372805	-0.057167	-44.929107
2.350000	-0.045106	-35.089910	-71.235889	173.340910	-71.235889	173.340910	-0.058406	-45.871108
2.400000	-0.046084	-35.815147	-70.589894	172.260189	-70.589894	172.260189	-0.059648	-46.811316
2.450000	-0.047066	-36.539295	-69.964071	171.136753	-69.964071	171.136753	-0.060894	-47.749716
2.500000	-0.048052	-37.262341	-69.357165	169.975771	-69.357165	169.975771	-0.062143	-48.686292
2.550000	-0.049042	-37.984221	-68.767072	168.780382	-68.767072	168.780382	-0.063398	-49.620949
2.600000	-0.050037	-38.704971	-68.193817	167.555904	-68.193817	167.555904	-0.064657	-50.553752
2.650000	-0.051037	-39.424576	-67.636438	166.305514	-67.636438	166.305514	-0.065923	-51.484687
2.700000	-0.052042	-40.143026	-67.094057	165.031962	-67.094057	165.031962	-0.067195	-52.413743
2.750000	-0.053052	-40.860308	-66.565869	163.737638	-66.565869	163.737638	-0.068474	-53.340908
2.800000	-0.054069	-41.576409	-66.051134	162.424630	-66.051134	162.424630	-0.069761	-54.266171
2.850000	-0.055091	-42.291318	-65.549174	161.094767	-65.549174	161.094767	-0.071056	-55.189522
2.900000	-0.056120	-43.005024	-65.059361	159.749657	-65.059361	159.749657	-0.072359	-56.110952
2.950000	-0.057155	-43.717516	-64.581115	158.390721	-64.581115	158.390721	-0.073672	-57.030453
3.000000	-0.058197	-44.428783	-64.113901	157.019219	-64.113901	157.019219	-0.074995	-57.948017
3.050000	-0.059247	-45.138815	-63.657222	155.636268	-63.657222	155.636268	-0.076328	-58.863637
3.100000	-0.060304	-45.847602	-63.210615	154.242869	-63.210615	154.242869	-0.077671	-59.777308
3.150000	-0.061369	-46.555134	-62.773650	152.839914	-62.773650	152.839914	-0.079027	-60.689025
3.200000	-0.062443	-47.261402	-62.345928	151.428208	-62.345928	151.428208	-0.080394	-61.598784
3.250000	-0.063525	-47.966397	-61.927073	150.008472	-61.927073	150.008472	-0.081773	-62.506582
3.300000	-0.064616	-48.670109	-61.516737	148.581361	-61.516737	148.581361	-0.083166	-63.412417
3.350000	-0.065716	-49.372531	-61.114590	147.147469	-61.114590	147.147469	-0.084572	-64.316287
3.400000	-0.066825	-50.073655	-60.720326	145.707335	-60.720326	145.707335	-0.085992	-65.218193
3.450000	-0.067945	-50.773472	-60.333655	144.261452	-60.333655	144.261452	-0.087426	-66.118134
3.500000	-0.069075	-51.471976	-59.954307	142.810270	-59.954307	142.810270	-0.088876	-67.016112
3.550000	-0.070215	-52.169158	-59.582026	141.354205	-59.582026	141.354205	-0.090341	-67.912131
3.600000	-0.071366	-52.865013	-59.216569	139.893639	-59.216569	139.893639	-0.091822	-68.806192
3.650000	-0.072529	-53.559533	-58.857710	138.428924	-58.857710	138.428924	-0.093319	-69.698300
3.700000	-0.073703	-54.252713	-58.505233	136.960388	-58.505233	136.960388	-0.094834	-70.588461
3.750000	-0.074890	-54.944546	-58.158934	135.488337	-58.158934	135.488337	-0.096366	-71.476681
3.800000	-0.076089	-55.634968	-57.818302	134.012925	-57.818302	134.012925	-0.097916	-72.362883
3.850000	-0.077301	-56.324032	-57.483494	132.534570	-57.483494	132.534570	-0.099486	-73.247160
3.900000	-0.078527	-57.011733	-57.154335	131.053520	-57.154335	131.053520	-0.101074	-74.129520
3.950000	-0.079766	-57.698068	-56.830657	129.570007	-56.830657	129.570007	-0.102682	-75.009975
4.000000	-0.081019	-58.383030	-56.512301	128.084253	-56.512301	128.084253	-0.104310	-75.888535
4.050000	-0.082286	-59.066617	-56.199116	126.596466	-56.199116	126.596466	-0.105959	-76.765212
4.100000	-0.083568	-59.748824	-55.890955	125.106843	-55.890955	125.106843	-0.107628	-77.640020
4.150000	-0.084865	-60.429649	-55.587682	123.615574	-55.587682	123.615574	-0.109319	-78.512973
4.200000	-0.086178	-61.109088	-55.289164	122.122838	-55.289164	122.122838	-0.111033	-79.384085
4.250000	-0.087506	-61.787139	-54.995274	120.628808	-54.995274	120.628808	-0.112769	-80.253374
4.300000	-0.088851	-62.463798	-54.705891	119.133646	-54.705891	119.133646	-0.114528	-81.120856
4.350000	-0.090212	-63.139065	-54.420898	117.637511	-54.420898	117.637511	-0.116310	-81.986551
4.400000	-0.091591	-63.812936	-54.140183	116.140555	-54.140183	116.140555	-0.118117	-82.850477
4.450000	-0.092986	-64.485411	-53.863640	114.642924	-53.863640	114.642924	-0.119948	-83.712655
4.500000	-0.094400	-65.156488	-53.591163	113.144757	-53.591163	113.144757	-0.121805	-84.573108
4.550000	-0.095832	-65.826167	-53.322655	111.646192	-53.322655	111.646192	-0.123688	-85.431859
4.600000	-0.097283	-66.494446	-53.058017	110.147360	-53.058017	110.147360	-0.125597	-86.288932
4.650000	-0.098752	-67.161326	-52.797159	108.648387	-52.797159	108.648387	-0.127532	-87.144352
4.700000	-0.100241	-67.826805	-52.539989	107.149399	-52.539989	107.149399	-0.129495	-87.998149
4.750000	-0.101750	-68.490886	-52.286422	105.650513	-52.286422	105.650513	-0.131487	-88.850349
4.800000	-0.103279	-69.153567	-52.036374	104.151849	-52.036374	104.151849	-0.133506	-89.700985
4.850000	-0.104829	-69.814850	-51.789762	102.653519	-51.789762	102.653519	-0.135555	-90.550087
4.900000	-0.106399	-70.474736	-51.546509	101.155634	-51.546509	101.155634	-0.137634	-91.397689
4.950000	-0.107992	-71.133226	-51.306537	99.658305	-51.306537	99.658305	-0.139743	-92.243829
5.000000	-0.109605	-71.790322	-51.069772	98.161637	-51.069772	98.161637	-0.141883	-93.088542
5.050000	-0.111242	-72.445966	-50.836006	96.665775	-50.836006	96.665775	-0.144056	-93.931812
5.100000	-0.112902	-73.100220	-50.605312	95.170793	-50.605312	95.170793	-0.146261	-94.773743
5.150000	-0.114585	-73.753086	-50.377621	93.676794	-50.377621	93.676794	-0.148500	-95.614382
5.200000	-0.116291	-74.404569	-50.152865	92.183879	-50.152865	92.183879	-0.150773	-96.453776
5.250000	-0.118021	-75.054670	-49.930977	90.692151	-49.930977	90.692151	-0.153080	-97.291978
5.300000	-0.119775	-75.703393	-49.711893	89.201711	-49.711893	89.201711	-0.155422	-98.129044
5.350000	-0.121554	-76.350742	-49.495549	87.712663	-49.495549	87.712663	-0.157801	-98.965034
5.400000	-0.123358	-76.996721	-49.281882	86.225111	-49.281882	86.225111	-0.160217	-99.800013
5.450000	-0.125187	-77.641333	-49.070829	84.739161	-49.070829	84.739161	-0.162672	-100.634050
5.500000	-0.127042	-78.284583	-48.862330	83.254924	-48.862330	83.254924	-0.165166	-101.467223
5.550000	-0.128924	-78.926476	-48.656324	81.772511	-48.656324	81.772511	-0.167701	-102.299615
5.600000	-0.130832	-79.567017	-48.452749	80.292042	-48.452749	80.292042	-0.170277	-103.131318
5.650000	-0.132767	-80.206211	-48.251544	78.813642	-48.251544	78.813642	-0.172897	-103.962433
5.700000	-0.134729	-80.844062	-48.052648	77.337444	-48.052648	77.337444	-0.175563	-104.793073
5.750000	-0.136719	-81.480578	-47.855999	75.863589	-47.855999	75.863589	-0.178276	-105.623364
5.800000	-0.138738	-82.115763	-47.661532	74.392233	-47.661532	74.392233	-0.181039	-106.453447
5.850000	-0.140785	-82.749624	-47.469182	72.923545	-47.469182	72.923545	-0.183854	-107.283484
5.900000	-0.142861	-83.382167	-47.278879	71.457713	-47.278879	71.457713	-0.186726	-108.113659
5.950000	-0.144966	-84.013399	-47.090551	69.994947	-47.090551	69.994947	-0.189657	-108.944184
6.000000	-0.147102	-84.643327	-46.904120	68.535485	-46.904120	68.535485	-0.192653	-109.775306
6.050000	-0.149267	-85.271957	-46.719501	67.079599	-46.719501	67.079599	-0.195721	-110.607314
6.100000	-0.151463	-85.899297	-46.536601	65.627606	-46.536601	65.627606	-0.198867	-111.440554
6.150000	-0.153690	-86.525354	-46.355313	64.179874	-46.355313	64.179874	-0.202102	-112.275438
6.200000	-0.155949	-87.150137	-46.175517	62.736840	-46.175517	62.736840	-0.205438	-113.112469
6.250000	-0.158239	-87.773652	-45.997070	61.299030	-45.997070	61.299030	-0.208893	-113.952264
6.300000	-0.160563	-88.395854	-45.819684	59.867372	-45.819684	59.867372	-0.212497	-114.795795
6.350000	-0.162919	-89.016806	-45.643240	58.442448	-45.643240	58.442448	-0.216278	-115.643958
6.400000	-0.165309	-89.636517	-45.467457	57.025273	-45.467457	57.025273	-0.220282	-116.498072
6.450000	-0.167731	-90.254995	-45.291964	55.617138	-45.291964	55.617138	-0.224576	-117.359890
6.500000	-0.170188	-90.872249	-45.116258	54.219708	-45.116258	54.219708	-0.229261	-118.231791
6.550000	-0.172679	-91.488288	-44.939632	52.835170	-44.939632	52.835170	-0.234493	-119.117097
6.600000	-0.175205	-92.103121	-44.761052	51.466426	-44.761052	51.466426	-0.240525	-120.020596
6.650000	-0.177765	-92.716756	-44.578936	50.117364	-44.578936	50.117364	-0.247784	-120.949446
6.700000	-0.180358	-93.329340	-44.392296	48.789617	-44.392296	48.789617	-0.256691	-121.908979
6.750000	-0.182991	-93.940554	-44.193504	47.497536	-44.193504	47.497536	-0.269436	-122.929690
6.800000	-0.185659	-94.550678	-43.978469	46.240671	-43.978469	46.240671	-0.288152	-124.029048
6.850000	-0.188363	-95.159620	-43.730309	45.021470	-43.730309	45.021470	-0.320416	-125.269441
6.900000	-0.191103	-95.767377	-43.415277	43.792310	-43.415277	43.792310	-0.386270	-126.759894
6.950000	-0.193876	-96.373909	-42.946677	42.195738	-42.946677	42.195738	-0.561131	-128.691135
7.000000	-0.196646	-96.979198	-42.219427	37.843573	-42.219427	37.843573	-1.158434	-130.291337
7.050000	-0.199403	-97.584153	-42.525017	27.717814	-42.525017	27.717814	-1.603079	-123.476578
7.100000	-0.202354	-98.187947	-43.469796	28.092700	-43.469796	28.092700	-0.758449	-122.514929
7.150000	-0.205320	-98.790202	-43.526491	29.652737	-43.526491	29.652737	-0.475814	-124.523836
7.200000	-0.208307	-99.391337	-43.390815	29.788716	-43.390815	29.788716	-0.383087	-126.137837
7.250000	-0.211326	-99.991433	-43.228584	29.249269	-43.228584	29.249269	-0.344398	-127.451705
7.300000	-0.214382	-100.590469	-43.066701	28.376219	-43.066701	28.376219	-0.326562	-128.591238
7.350000	-0.217479	-101.188438	-42.909902	27.328179	-42.909902	27.328179	-0.318006	-129.628801
7.400000	-0.220615	-101.785411	-42.758165	26.186117	-42.758165	26.186117	-0.313921	-130.606766
7.450000	-0.223792	-102.381348	-42.611013	24.981713	-42.611013	24.981713	-0.312611	-131.542255
7.500000	-0.227019	-102.976108	-42.467927	23.735133	-42.467927	23.735133	-0.313106	-132.446117
7.550000	-0.230275	-103.570186	-42.327856	22.471875	-42.327856	22.471875	-0.314323	-133.336317
7.600000	-0.233578	-104.163194	-42.190889	21.188573	-42.190889	21.188573	-0.316431	-134.208817
7.650000	-0.236931	-104.755086	-42.056601	19.894222	-42.056601	19.894222	-0.319124	-135.068904
7.700000	-0.240319	-105.346215	-41.924625	18.595073	-41.924625	18.595073	-0.322135	-135.922172
7.750000	-0.243748	-105.936461	-41.794864	17.292185	-41.794864	17.292185	-0.325463	-136.768632
7.800000	-0.247236	-106.525491	-41.667167	15.989040	-41.667167	15.989040	-0.329110	-137.608482
7.850000	-0.250761	-107.113791	-41.541353	14.687668	-41.541353	14.687668	-0.332914	-138.445344
7.900000	-0.254323	-107.701366	-41.417355	13.388507	-41.417355	13.388507	-0.336866	-139.279448
7.950000	-0.257951	-108.287672	-41.295052	12.096671	-41.295052	12.096671	-0.341033	-140.110222
8.000000	-0.261618	-108.873266	-41.174383	10.810896	-41.174383	10.810896	-0.345305	-140.939798
8.050000	-0.265324	-109.458167	-41.055299	9.531430	-41.055299	9.531430	-0.349678	-141.768326
8.100000	-0.269091	-110.041986	-40.937681	8.264257	-40.937681	8.264257	-0.354197	-142.595889
8.150000	-0.272906	-110.624994	-40.821489	7.008891	-40.821489	7.008891	-0.358818	-143.423297
8.200000	-0.276763	-111.207343	-40.706698	5.764145	-40.706698	5.764145	-0.363524	-144.250753
8.250000	-0.280676	-111.788783	-40.593188	4.536095	-40.593188	4.536095	-0.368345	-145.078630
8.300000	-0.284648	-112.369326	-40.480849	3.328674	-40.480849	3.328674	-0.373282	-145.907511
8.350000	-0.288670	-112.949158	-40.369634	2.140695	-40.369634	2.140695	-0.378317	-146.737550
8.400000	-0.292755	-113.528077	-40.259374	0.979969	-40.259374	0.979969	-0.383480	-147.569341
8.450000	-0.296871	-114.106601	-40.150159	-0.164808	-40.150159	-0.164808	-0.388709	-148.402298
8.500000	-0.301077	-114.683941	-40.041301	-1.261739	-40.041301	-1.261739	-0.394133	-149.238755
8.550000	-0.305306	-115.261022	-39.933369	-2.343854	-39.933369	-2.343854	-0.399615	-150.076351
8.600000	-0.309641	-115.836811	-39.824683	-3.351887	-39.824683	-3.351887	-0.405373	-150.919638
8.650000	-0.313991	-116.412470	-39.716922	-4.349251	-39.716922	-4.349251	-0.411174	-151.763746
8.700000	-0.318471	-116.986706	-39.605936	-5.229246	-39.605936	-5.229246	-0.417414	-152.616883
8.750000	-0.322953	-117.560941	-39.496350	-6.109241	-39.496350	-6.109241	-0.423659	-153.470020
8.800000	-0.327556	-118.133981	-39.381432	-6.856121	-39.381432	-6.856121	-0.430435	-154.333263
8.850000	-0.332246	-118.706214	-39.260897	-7.490295	-39.260897	-7.490295	-0.437708	-155.204962
8.900000	-0.337032	-119.277583	-39.131397	-7.984167	-39.131397	-7.984167	-0.445667	-156.087143
8.950000	-0.341928	-119.847993	-38.987631	-8.301995	-38.987631	-8.301995	-0.454610	-156.982521
9.000000	-0.346941	-120.417355	-38.822793	-8.412071	-38.822793	-8.412071	-0.464919	-157.893727
9.050000	-0.352102	-120.985306	-38.620624	-8.238022	-38.620624	-8.238022	-0.477528	-158.827401
9.100000	-0.357428	-121.551446	-38.358229	-7.729272	-38.358229	-7.729272	-0.493808	-159.789791
9.150000	-0.362935	-122.114984	-37.994537	-6.848714	-37.994537	-6.848714	-0.516430	-160.789843
9.200000	-0.368599	-122.674630	-37.467650	-5.665060	-37.467650	-5.665060	-0.550149	-161.835408
9.250000	-0.374256	-123.227499	-36.655203	-4.581440	-36.655203	-4.581440	-0.606503	-162.926221
9.300000	-0.379178	-123.769706	-35.440448	-4.954440	-35.440448	-4.954440	-0.706187	-163.986960
9.350000	-0.381228	-124.301364	-33.896098	-9.701310	-33.896098	-9.701310	-0.870205	-164.675037
9.400000	-0.378103	-124.848756	-32.732076	-21.241159	-32.732076	-21.241159	-1.019576	-164.333438
9.450000	-0.375307	-125.444283	-32.802758	-34.665852	-32.802758	-34.665852	-0.969335	-163.648751
9.500000	-0.378363	-126.053026	-33.635735	-43.282084	-33.635735	-43.282084	-0.825521	-163.914283
9.550000	-0.384418	-126.647297	-34.470788	-47.440193	-34.470788	-47.440193	-0.722557	-164.769589
9.600000	-0.391059	-127.229007	-35.089513	-49.370468	-35.089513	-49.370468	-0.664141	-165.776632
9.650000	-0.397593	-127.803632	-35.510957	-50.406800	-35.510957	-50.406800	-0.631925	-166.793458
9.700000	-0.403926	-128.374414	-35.791891	-51.136222	-35.791891	-51.136222	-0.614082	-167.790120
9.750000	-0.410088	-128.942928	-35.974459	-51.794294	-35.974459	-51.794294	-0.604643	-168.764305
9.800000	-0.416136	-129.510095	-36.092916	-52.474438	-36.092916	-52.474438	-0.600046	-169.720973
9.850000	-0.422104	-130.076316	-36.164363	-53.208084	-36.164363	-53.208084	-0.598700	-170.663870
9.900000	-0.428027	-130.641893	-36.203760	-54.001828	-36.203760	-54.001828	-0.599430	-171.597134
9.950000	-0.433923	-131.206937	-36.217373	-54.859905	-36.217373	-54.859905	-0.601760	-172.522845
10.000000	-0.439812	-131.771626	-36.214638	-55.768217	-36.214638	-55.768217	-0.605077	-173.444118
