! freq	dB(S11)	phase(S11)	dB(S12)	phase(S12)	
!     	dB(S21)	phase(S21)	dB(S22)	phase(S22)	
!S-par simulation data
#  GHz  S  DB  R 50
0.000000	-0.000000	0.000000	-315.753804	0.000000	-315.753804	0.000000	0.000000	0.000000
0.050000	-0.002881	-0.845322	-113.904379	89.258175	-113.904379	89.258175	-0.000110	-0.816850
0.100000	-0.004716	-1.668228	-107.924384	88.524625	-107.924384	88.524625	-0.000434	-1.633420
0.150000	-0.005519	-2.490926	-104.470283	87.807820	-104.470283	87.807820	-0.000957	-2.449456
0.200000	-0.006073	-3.314679	-102.065924	87.116403	-102.065924	87.116403	-0.001656	-3.264753
0.250000	-0.006591	-4.138956	-100.254278	86.462578	-100.254278	86.462578	-0.002513	-4.079087
0.300000	-0.007139	-4.963318	-98.823227	85.854176	-98.823227	85.854176	-0.003487	-4.892432
0.350000	-0.007737	-5.787546	-97.667174	85.305302	-97.667174	85.305302	-0.004555	-5.704686
0.400000	-0.008392	-6.611474	-96.722023	84.830968	-96.722023	84.830968	-0.005692	-6.515824
0.450000	-0.009106	-7.434986	-95.947236	84.449069	-95.947236	84.449069	-0.006876	-7.325851
0.500000	-0.009875	-8.257991	-95.315984	84.181276	-95.315984	84.181276	-0.008089	-8.134793
0.550000	-0.010696	-9.080418	-94.810014	84.054208	-94.810014	84.054208	-0.009314	-8.942690
0.600000	-0.011564	-9.902209	-94.416754	84.101017	-94.416754	84.101017	-0.010543	-9.749588
0.650000	-0.012474	-10.723315	-94.127528	84.363546	-94.127528	84.363546	-0.011765	-10.555531
0.700000	-0.013422	-11.543697	-93.936348	84.895259	-93.936348	84.895259	-0.012976	-11.360560
0.750000	-0.014402	-12.363320	-93.838943	85.765201	-93.838943	85.765201	-0.014173	-12.164713
0.800000	-0.015411	-13.182154	-93.831756	87.063261	-93.831756	87.063261	-0.015354	-12.968019
0.850000	-0.016442	-14.000175	-93.910611	88.906807	-93.910611	88.906807	-0.016518	-13.770501
0.900000	-0.017493	-14.817361	-94.068636	91.448143	-94.068636	91.448143	-0.017665	-14.572174
0.950000	-0.018559	-15.633695	-94.292836	94.880322	-94.292836	94.880322	-0.018796	-15.373048
1.000000	-0.019637	-16.449159	-94.558564	99.434472	-94.558564	99.434472	-0.019912	-16.173127
1.050000	-0.020724	-17.263740	-94.821630	105.353313	-94.821630	105.353313	-0.021014	-16.972411
1.100000	-0.021817	-18.077425	-95.010140	112.815613	-95.010140	112.815613	-0.022105	-17.770896
1.150000	-0.022914	-18.890203	-95.024161	121.791351	-95.024161	121.791351	-0.023184	-18.568573
1.200000	-0.024013	-19.702061	-94.757550	131.867616	-94.757550	131.867616	-0.024253	-19.365432
1.250000	-0.025112	-20.512990	-94.145982	142.213668	-94.145982	142.213668	-0.025314	-20.161460
1.300000	-0.026209	-21.322938	-93.191563	151.799626	-93.191563	151.799626	-0.026367	-20.956606
1.350000	-0.027304	-22.131936	-92.004136	159.985095	-92.004136	159.985095	-0.027413	-21.750889
1.400000	-0.028396	-22.939972	-90.690929	166.584948	-90.690929	166.584948	-0.028454	-22.544292
1.450000	-0.029483	-23.747037	-89.336003	171.709379	-89.336003	171.709379	-0.029491	-23.336799
1.500000	-0.030566	-24.553120	-87.992504	175.588203	-87.992504	175.588203	-0.030524	-24.128390
1.550000	-0.031644	-25.358209	-86.689263	178.464321	-86.689263	178.464321	-0.031553	-24.919048
1.600000	-0.032718	-26.162295	-85.439597	-179.450561	-85.439597	-179.450561	-0.032579	-25.708753
1.650000	-0.033786	-26.965364	-84.247961	-177.986327	-84.247961	-177.986327	-0.033604	-26.497487
1.700000	-0.034848	-27.767043	-83.084464	-177.134448	-83.084464	-177.134448	-0.034626	-27.284879
1.750000	-0.035908	-28.568180	-82.019173	-176.500901	-82.019173	-176.500901	-0.035647	-28.071748
1.800000	-0.036962	-29.368030	-80.988095	-176.216629	-80.988095	-176.216629	-0.036668	-28.857357
1.850000	-0.038013	-30.166959	-80.014080	-176.181840	-80.014080	-176.181840	-0.037688	-29.642068
1.900000	-0.039060	-30.964756	-79.080697	-176.343103	-79.080697	-176.343103	-0.038708	-30.425659
1.950000	-0.040104	-31.761420	-78.185954	-176.700416	-78.185954	-176.700416	-0.039728	-31.208132
2.000000	-0.041145	-32.557116	-77.334510	-177.169351	-77.334510	-177.169351	-0.040748	-31.989640
2.050000	-0.042184	-33.351455	-76.507772	-177.794558	-76.507772	-177.794558	-0.041770	-32.769798
2.100000	-0.043222	-34.145202	-75.732344	-178.469685	-75.732344	-178.469685	-0.042792	-33.549362
2.150000	-0.044259	-34.937409	-74.971484	-179.268063	-74.971484	-179.268063	-0.043817	-34.327384
2.200000	-0.045295	-35.728455	-74.237901	179.859467	-74.237901	179.859467	-0.044842	-35.104239
2.250000	-0.046331	-36.518328	-73.529669	178.922887	-73.529669	178.922887	-0.045871	-35.879912
2.300000	-0.047367	-37.307012	-72.845054	177.930511	-72.845054	177.930511	-0.046901	-36.654386
2.350000	-0.048405	-38.094494	-72.182497	176.889315	-72.182497	176.889315	-0.047935	-37.427647
2.400000	-0.049445	-38.880761	-71.540586	175.805196	-71.540586	175.805196	-0.048971	-38.199678
2.450000	-0.050487	-39.665799	-70.918044	174.683164	-70.918044	174.683164	-0.050011	-38.970465
2.500000	-0.051531	-40.449595	-70.313711	173.527509	-70.313711	173.527509	-0.051055	-39.739994
2.550000	-0.052582	-41.231420	-69.713866	172.326945	-69.713866	172.326945	-0.052105	-40.507522
2.600000	-0.053633	-42.013244	-69.152784	171.126382	-69.152784	171.126382	-0.053155	-41.275050
2.650000	-0.054692	-42.792617	-68.587607	169.880406	-68.587607	169.880406	-0.054215	-42.040088
2.700000	-0.055753	-43.571766	-68.053715	168.630303	-68.053715	168.630303	-0.055276	-42.804899
2.750000	-0.056823	-44.348644	-67.519408	167.347030	-67.519408	167.347030	-0.056346	-43.567400
2.800000	-0.057895	-45.125066	-67.010171	166.057123	-67.010171	166.057123	-0.057418	-44.329438
2.850000	-0.058978	-45.899407	-66.503546	164.742976	-66.503546	164.742976	-0.058501	-45.089357
2.900000	-0.060064	-46.673054	-66.016790	163.420749	-66.016790	163.420749	-0.059586	-45.848569
2.950000	-0.061159	-47.445293	-65.540365	162.084866	-65.540365	162.084866	-0.060679	-46.606347
3.000000	-0.062262	-48.215940	-65.072081	160.734668	-65.072081	160.734668	-0.061781	-47.362502
3.050000	-0.063375	-48.985218	-64.614175	159.373625	-64.614175	159.373625	-0.062890	-48.117261
3.100000	-0.064496	-49.753118	-64.166208	158.002677	-64.166208	158.002677	-0.064008	-48.870614
3.150000	-0.065627	-50.519631	-63.727766	156.622670	-63.727766	156.622670	-0.065134	-49.622551
3.200000	-0.066768	-51.284749	-63.298465	155.234373	-63.298465	155.234373	-0.066270	-50.373062
3.250000	-0.067919	-52.048464	-62.877942	153.838480	-62.877942	153.838480	-0.067414	-51.122139
3.300000	-0.069081	-52.810768	-62.465860	152.435628	-62.465860	152.435628	-0.068569	-51.869772
3.350000	-0.070256	-53.571406	-62.060049	151.025437	-62.060049	151.025437	-0.069735	-52.615699
3.400000	-0.071443	-54.330558	-61.661783	149.609155	-61.661783	149.609155	-0.070913	-53.360102
3.450000	-0.072637	-55.088961	-61.275880	148.190250	-61.275880	148.190250	-0.072096	-54.103738
3.500000	-0.073850	-55.845118	-60.891749	146.763475	-60.891749	146.763475	-0.073297	-54.845068
3.550000	-0.075068	-56.600773	-60.520741	145.335243	-60.520741	145.335243	-0.074503	-55.585882
3.600000	-0.076309	-57.353914	-60.149845	143.899722	-60.149845	143.899722	-0.075729	-56.324110
3.650000	-0.077552	-58.106802	-59.792680	142.463596	-59.792680	142.463596	-0.076958	-57.062078
3.700000	-0.078823	-58.856910	-59.434210	141.020809	-59.434210	141.020809	-0.078211	-57.797179
3.750000	-0.080093	-59.607018	-59.089950	139.578022	-59.089950	139.578022	-0.079465	-58.532281
3.800000	-0.081394	-60.354079	-58.743174	138.129236	-58.743174	138.129236	-0.080747	-59.264233
3.850000	-0.082695	-61.101140	-58.409714	136.680450	-58.409714	136.680450	-0.082029	-59.996185
3.900000	-0.084027	-61.845400	-58.075230	135.227166	-58.075230	135.227166	-0.083340	-60.725234
3.950000	-0.085361	-62.589405	-57.751982	133.773473	-57.751982	133.773473	-0.084652	-61.454019
4.000000	-0.086724	-63.330861	-57.429013	132.316483	-57.429013	132.316483	-0.085992	-62.180152
4.050000	-0.088092	-64.071807	-57.115440	130.858834	-57.115440	130.858834	-0.087338	-62.905755
4.100000	-0.089488	-64.810459	-56.803282	129.398842	-56.803282	129.398842	-0.088708	-63.628964
4.150000	-0.090893	-65.548346	-56.498893	127.938070	-56.498893	127.938070	-0.090088	-64.351375
4.200000	-0.092323	-66.284198	-56.196907	126.475709	-56.196907	126.475709	-0.091491	-65.071651
4.250000	-0.093765	-67.019031	-55.901250	125.012552	-55.901250	125.012552	-0.092906	-65.790862
4.300000	-0.095231	-67.752088	-55.608856	123.548388	-55.608856	123.548388	-0.094343	-66.508203
4.350000	-0.096713	-68.483876	-55.321513	122.083504	-55.321513	122.083504	-0.095796	-67.224208
4.400000	-0.098216	-69.214150	-55.038179	120.618054	-55.038179	120.618054	-0.097269	-67.938612
4.450000	-0.099740	-69.942908	-54.758765	119.152036	-54.758765	119.152036	-0.098761	-68.651413
4.500000	-0.101281	-70.670411	-54.484004	117.685769	-54.484004	117.685769	-0.100271	-69.362880
4.550000	-0.102848	-71.396158	-54.212163	116.219154	-54.212163	116.219154	-0.101804	-70.072479
4.600000	-0.104430	-72.120908	-53.945527	114.752504	-53.945527	114.752504	-0.103352	-70.781013
4.650000	-0.106041	-72.843666	-53.680927	113.285784	-53.680927	113.285784	-0.104928	-71.487417
4.700000	-0.107665	-73.565683	-53.422006	111.819152	-53.422006	111.819152	-0.106516	-72.193024
4.750000	-0.109323	-74.285481	-53.164337	110.352783	-53.164337	110.352783	-0.108137	-72.896241
4.800000	-0.110989	-75.004790	-52.912751	108.886543	-52.912751	108.886543	-0.109766	-73.598930
4.850000	-0.112695	-75.721659	-52.661726	107.420948	-52.661726	107.420948	-0.111434	-74.298974
4.900000	-0.114406	-76.438287	-52.417123	105.955451	-52.417123	105.955451	-0.113105	-74.998755
4.950000	-0.116163	-77.152265	-52.172473	104.491030	-52.172473	104.491030	-0.114821	-75.695642
5.000000	-0.117920	-77.866243	-51.934526	103.026610	-51.934526	103.026610	-0.116537	-76.392529
5.050000	-0.119729	-78.577372	-51.695999	101.563744	-51.695999	101.563744	-0.118303	-77.086278
5.100000	-0.121538	-79.288501	-51.463847	100.100878	-51.463847	100.100878	-0.120069	-77.780027
5.150000	-0.123397	-79.997062	-51.231764	98.639771	-51.231764	98.639771	-0.121882	-78.470920
5.200000	-0.125260	-80.705389	-51.005192	97.178824	-51.005192	97.178824	-0.123700	-79.161553
5.250000	-0.127169	-81.411424	-50.779265	95.719772	-50.779265	95.719772	-0.125563	-79.849610
5.300000	-0.129088	-82.117001	-50.558068	94.261098	-50.558068	94.261098	-0.127434	-80.537152
5.350000	-0.131051	-82.820558	-50.338028	92.804389	-50.338028	92.804389	-0.129347	-81.222398
5.400000	-0.133028	-83.523441	-50.122014	91.348335	-50.122014	91.348335	-0.131274	-81.906877
5.450000	-0.135044	-84.224570	-49.907608	89.894256	-49.907608	89.894256	-0.133238	-82.589336
5.500000	-0.137081	-84.924822	-49.696595	88.441165	-49.696595	88.441165	-0.135222	-83.270784
5.550000	-0.139154	-85.623579	-49.487590	86.990001	-49.487590	86.990001	-0.137240	-83.950483
5.600000	-0.141253	-86.321267	-49.281405	85.540214	-49.281405	85.540214	-0.139283	-84.628934
5.650000	-0.143384	-87.017711	-49.077578	84.092252	-49.077578	84.092252	-0.141356	-85.305903
5.700000	-0.145546	-87.712909	-48.876057	82.646115	-48.876057	82.646115	-0.143460	-85.981392
5.750000	-0.147737	-88.407102	-48.677201	81.201645	-48.677201	81.201645	-0.145589	-86.655663
5.800000	-0.149966	-89.099890	-48.480189	79.759509	-48.480189	79.759509	-0.147755	-87.328229
5.850000	-0.152217	-89.791902	-48.286108	78.318828	-48.286108	78.318828	-0.149942	-87.999835
5.900000	-0.154515	-90.482364	-48.093456	76.881054	-48.093456	76.881054	-0.152172	-88.669521
5.950000	-0.156830	-91.172268	-47.903966	75.444466	-47.903966	75.444466	-0.154419	-89.338498
6.000000	-0.159197	-91.860498	-47.715531	74.011430	-47.715531	74.011430	-0.156715	-90.005347
6.050000	-0.161577	-92.548373	-47.530457	72.579250	-47.530457	72.579250	-0.159023	-90.671731
6.100000	-0.164018	-93.234470	-47.346105	71.151345	-47.346105	71.151345	-0.161386	-91.335791
6.150000	-0.166465	-93.920399	-47.165282	69.723903	-47.165282	69.723903	-0.163756	-91.999622
6.200000	-0.168980	-94.604473	-46.984882	68.301545	-46.984882	68.301545	-0.166189	-92.660940
6.250000	-0.171497	-95.288547	-46.808152	66.879188	-46.808152	66.879188	-0.168623	-93.322258
6.300000	-0.174090	-95.970715	-46.631579	65.462821	-46.631579	65.462821	-0.171128	-93.980887
6.350000	-0.176684	-96.652883	-46.458523	64.046455	-46.458523	64.046455	-0.173633	-94.639515
6.400000	-0.179351	-97.333419	-46.285926	62.636020	-46.285926	62.636020	-0.176204	-95.295727
6.450000	-0.182025	-98.013808	-46.116431	61.226125	-46.116431	61.226125	-0.178782	-95.951720
6.500000	-0.184768	-98.692829	-45.947664	59.822055	-45.947664	59.822055	-0.181422	-96.605561
6.550000	-0.187525	-99.371578	-45.781620	58.419152	-45.781620	58.419152	-0.184075	-97.258973
6.600000	-0.190346	-100.049209	-45.616544	57.021922	-45.616544	57.021922	-0.186785	-97.910492
6.650000	-0.193189	-100.726468	-45.453844	55.626583	-45.453844	55.626583	-0.189515	-98.561381
6.700000	-0.196091	-101.402845	-45.292323	54.236710	-45.292323	54.236710	-0.192296	-99.210628
6.750000	-0.199023	-102.078780	-45.132861	52.849571	-45.132861	52.849571	-0.195104	-99.859053
6.800000	-0.202009	-102.754051	-44.974766	51.467630	-44.974766	51.467630	-0.197958	-100.506077
6.850000	-0.205033	-103.428846	-44.818440	50.089402	-44.818440	50.089402	-0.200846	-101.152101
6.900000	-0.208105	-104.103173	-44.663645	48.716030	-44.663645	48.716030	-0.203775	-101.796956
6.950000	-0.211226	-104.777030	-44.510350	47.347515	-44.510350	47.347515	-0.206744	-102.440642
7.000000	-0.214388	-105.450591	-44.358733	45.983428	-44.358733	45.983428	-0.209749	-103.083382
7.050000	-0.217608	-106.123736	-44.208367	44.625540	-44.208367	44.625540	-0.212802	-103.724795
7.100000	-0.220864	-106.796729	-44.059806	43.271545	-44.059806	43.271545	-0.215884	-104.365474
7.150000	-0.224189	-107.469415	-43.912261	41.925335	-43.912261	41.925335	-0.219022	-105.004682
7.200000	-0.227542	-108.142058	-43.766637	40.582350	-43.766637	40.582350	-0.222183	-105.643357
7.250000	-0.230978	-108.814571	-43.621805	39.249038	-43.621805	39.249038	-0.225408	-106.280429
7.300000	-0.234433	-109.487111	-43.478997	37.918113	-43.478997	37.918113	-0.228649	-106.917157
7.350000	-0.237985	-110.159778	-43.336762	36.599125	-43.336762	36.599125	-0.231963	-107.552164
7.400000	-0.241548	-110.832490	-43.196646	35.281472	-43.196646	35.281472	-0.235285	-108.187005
7.450000	-0.245224	-111.505688	-43.056882	33.978494	-43.056882	33.978494	-0.238690	-108.820018
7.500000	-0.248901	-112.178886	-42.919332	32.675516	-42.919332	32.675516	-0.242096	-109.453032
7.550000	-0.252709	-112.853051	-42.781899	31.390557	-42.781899	31.390557	-0.245592	-110.084126
7.600000	-0.256520	-113.527216	-42.646607	30.105597	-42.646607	30.105597	-0.249090	-110.715220
7.650000	-0.260461	-114.202740	-42.511516	28.839372	-42.511516	28.839372	-0.252673	-111.344624
7.700000	-0.264416	-114.878388	-42.378327	27.574849	-42.378327	27.574849	-0.256265	-111.973873
7.750000	-0.268503	-115.555781	-42.245398	26.329804	-42.245398	26.329804	-0.259935	-112.601649
7.800000	-0.272617	-116.233524	-42.114128	25.088655	-42.114128	25.088655	-0.263623	-113.229131
7.850000	-0.276863	-116.913392	-41.983148	23.867741	-41.983148	23.867741	-0.267382	-113.855345
7.900000	-0.281156	-117.593969	-41.853568	22.653571	-41.853568	22.653571	-0.271167	-114.481135
7.950000	-0.285582	-118.277038	-41.724285	21.460372	-41.724285	21.460372	-0.275018	-115.105851
8.000000	-0.290077	-118.961354	-41.596106	20.277657	-41.596106	20.277657	-0.278902	-115.730030
8.050000	-0.294709	-119.648508	-41.468204	19.116565	-41.468204	19.116565	-0.282845	-116.353314
8.100000	-0.299441	-120.337689	-41.341041	17.970918	-41.341041	17.970918	-0.286831	-116.975959
8.150000	-0.304313	-121.030016	-41.214118	16.847370	-41.214118	16.847370	-0.290868	-117.597877
8.200000	-0.309327	-121.725488	-41.087450	15.745922	-41.087450	15.745922	-0.294956	-118.219068
8.250000	-0.314487	-122.424349	-40.960973	14.666708	-40.960973	14.666708	-0.299089	-118.839685
8.300000	-0.319851	-123.127953	-40.834065	13.618626	-40.834065	13.618626	-0.303283	-119.459500
8.350000	-0.325326	-123.834184	-40.707748	12.586932	-40.707748	12.586932	-0.307506	-120.078975
8.400000	-0.331073	-124.546862	-40.580235	11.595177	-40.580235	11.595177	-0.311794	-120.697648
8.450000	-0.337061	-125.265271	-40.451874	10.637815	-40.451874	10.637815	-0.316134	-121.315732
8.500000	-0.343380	-125.991430	-40.321675	9.725615	-40.321675	9.725615	-0.320534	-121.933153
8.550000	-0.350046	-126.725545	-40.189488	8.858421	-40.189488	8.858421	-0.324987	-122.550010
8.600000	-0.357110	-127.468594	-40.054763	8.040458	-40.054763	8.040458	-0.329494	-123.166329
8.650000	-0.364646	-128.221899	-39.916737	7.277522	-39.916737	7.277522	-0.334055	-123.782123
8.700000	-0.372744	-128.987022	-39.774472	6.576228	-39.774472	6.576228	-0.338671	-124.397403
8.750000	-0.381520	-129.765820	-39.626803	5.944118	-39.626803	5.944118	-0.343343	-125.012178
8.800000	-0.391119	-130.560504	-39.472297	5.389772	-39.472297	5.389772	-0.348072	-125.626455
8.850000	-0.401860	-131.376028	-39.307641	4.933134	-39.307641	4.933134	-0.352864	-126.240190
8.900000	-0.414100	-132.216945	-39.129358	4.588794	-39.129358	4.588794	-0.357721	-126.853387
8.950000	-0.428165	-133.086407	-38.934730	4.362476	-38.934730	4.362476	-0.362640	-127.466078
9.000000	-0.444632	-133.990539	-38.718787	4.268723	-38.718787	4.268723	-0.367621	-128.078243
9.050000	-0.463736	-134.930058	-38.481001	4.300623	-38.481001	4.300623	-0.372658	-128.689930
9.100000	-0.487855	-135.930389	-38.200108	4.521811	-38.200108	4.521811	-0.377772	-129.300902
9.150000	-0.518092	-136.996173	-37.871460	4.911803	-37.871460	4.911803	-0.382952	-129.911189
9.200000	-0.557976	-138.152262	-37.472494	5.480695	-37.472494	5.480695	-0.388200	-130.520599
9.250000	-0.612810	-139.426579	-36.976982	6.194203	-36.976982	6.194203	-0.393509	-131.128903
9.300000	-0.691419	-140.854079	-36.351962	6.957402	-36.351962	6.957402	-0.398859	-131.735758
9.350000	-0.811078	-142.483278	-35.548248	7.555467	-35.548248	7.555467	-0.404202	-132.340563
9.400000	-1.006328	-144.356080	-34.505034	7.518342	-34.505034	7.518342	-0.409404	-132.942386
9.450000	-1.347399	-146.411043	-33.171543	5.905172	-33.171543	5.905172	-0.414128	-133.540097
9.500000	-1.973692	-148.028441	-31.569356	0.913315	-31.569356	0.913315	-0.417529	-134.133874
9.550000	-2.976193	-146.480841	-30.028156	-9.879262	-30.028156	-9.879262	-0.418321	-134.732753
9.600000	-3.528632	-137.996201	-29.395958	-26.353930	-29.395958	-26.353930	-0.417828	-135.360161
9.650000	-2.698382	-131.305150	-30.176458	-41.595427	-30.176458	-41.595427	-0.421481	-136.009538
9.700000	-1.799424	-131.348650	-31.633782	-50.023559	-31.633782	-50.023559	-0.428865	-136.646794
9.750000	-1.308485	-133.622423	-33.006616	-52.451371	-33.006616	-52.451371	-0.436834	-137.268317
9.800000	-1.081251	-136.183921	-34.022748	-51.035516	-34.022748	-51.035516	-0.444391	-137.881221
9.850000	-1.019035	-138.709919	-34.568304	-47.053394	-34.568304	-47.053394	-0.451446	-138.489085
9.900000	-1.111529	-141.188383	-34.463286	-41.590472	-34.463286	-41.590472	-0.457889	-139.092500
9.950000	-1.433337	-143.254537	-33.452904	-37.442575	-33.452904	-37.442575	-0.463008	-139.691602
10.000000	-2.012817	-142.901664	-31.780120	-40.530381	-31.780120	-40.530381	-0.465380	-140.298410
