! freq	dB(S11)	phase(S11)	dB(S12)	phase(S12)	
!     	dB(S21)	phase(S21)	dB(S22)	phase(S22)	
!S-par simulation data
#  GHz  S  DB  R 50
0.000000	-0.000000	0.000000	-385.150954	180.000000	-385.150954	180.000000	-0.000000	0.000000
0.050000	-0.007502	-1.219597	-109.532816	83.406849	-109.532816	83.406849	-0.005679	-0.841872
0.100000	-0.011598	-2.382839	-103.645222	85.238319	-103.645222	85.238319	-0.007948	-1.646407
0.150000	-0.013065	-3.547410	-100.204681	85.259886	-100.204681	85.259886	-0.008711	-2.454022
0.200000	-0.013883	-4.714998	-97.800029	84.840411	-97.800029	84.840411	-0.009174	-3.263753
0.250000	-0.014520	-5.884181	-95.982157	84.255468	-95.982157	84.255468	-0.009576	-4.074491
0.300000	-0.015134	-7.053903	-94.541205	83.622788	-94.541205	83.622788	-0.009989	-4.885575
0.350000	-0.015774	-8.223704	-93.371883	82.986869	-93.371883	82.986869	-0.010437	-5.696743
0.400000	-0.016463	-9.393236	-92.410076	82.381439	-92.410076	82.381439	-0.010928	-6.507805
0.450000	-0.017210	-10.562255	-91.615010	81.832887	-91.615010	81.832887	-0.011466	-7.318632
0.500000	-0.018019	-11.730573	-90.959499	81.365675	-90.959499	81.365675	-0.012052	-8.129128
0.550000	-0.018892	-12.898037	-90.424846	81.005324	-90.424846	81.005324	-0.012684	-8.939219
0.600000	-0.019827	-14.064515	-89.997966	80.780579	-89.997966	80.780579	-0.013361	-9.748841
0.650000	-0.020823	-15.229890	-89.669639	80.725443	-89.669639	80.725443	-0.014081	-10.557941
0.700000	-0.021877	-16.394055	-89.433365	80.881442	-89.433365	80.881442	-0.014841	-11.366469
0.750000	-0.022987	-17.556909	-89.284515	81.300413	-89.284515	81.300413	-0.015638	-12.174384
0.800000	-0.024148	-18.718363	-89.219577	82.048046	-89.219577	82.048046	-0.016471	-12.981646
0.850000	-0.025357	-19.878327	-89.235308	83.208360	-89.235308	83.208360	-0.017335	-13.788219
0.900000	-0.026612	-21.036721	-89.327567	84.889083	-89.327567	84.889083	-0.018229	-14.594071
0.950000	-0.027908	-22.193466	-89.489491	87.227290	-89.489491	87.227290	-0.019149	-15.399172
1.000000	-0.029241	-23.348490	-89.708573	90.393087	-89.708573	90.393087	-0.020093	-16.203494
1.050000	-0.030608	-24.501721	-89.962136	94.585743	-89.962136	94.585743	-0.021058	-17.007012
1.100000	-0.032006	-25.653095	-90.211131	100.010690	-90.211131	100.010690	-0.022041	-17.809701
1.150000	-0.033430	-26.802548	-90.393947	106.819064	-90.393947	106.819064	-0.023041	-18.611539
1.200000	-0.034877	-27.950021	-90.426127	114.995038	-90.426127	114.995038	-0.024055	-19.412505
1.250000	-0.036345	-29.095457	-90.216235	124.217255	-90.216235	124.217255	-0.025081	-20.212581
1.300000	-0.037830	-30.238710	-89.686451	133.790213	-89.686451	133.790213	-0.026118	-21.011708
1.350000	-0.039328	-31.379819	-88.855981	142.844502	-88.855981	142.844502	-0.027162	-21.809908
1.400000	-0.040837	-32.518735	-87.793821	150.768138	-87.793821	150.768138	-0.028213	-22.607165
1.450000	-0.042354	-33.655415	-86.590831	157.301445	-86.590831	157.301445	-0.029269	-23.403464
1.500000	-0.043876	-34.789816	-85.326064	162.465551	-85.326064	162.465551	-0.030329	-24.198791
1.550000	-0.045402	-35.921898	-84.054338	166.425670	-84.054338	166.425670	-0.031391	-24.993131
1.600000	-0.046929	-37.051623	-82.808328	169.388028	-82.808328	169.388028	-0.032455	-25.786473
1.650000	-0.048455	-38.178956	-81.605111	171.546971	-81.605111	171.546971	-0.033519	-26.578803
1.700000	-0.049978	-39.303864	-80.452136	173.066122	-80.452136	173.066122	-0.034584	-27.370108
1.750000	-0.051499	-40.426315	-79.351358	174.076296	-79.351358	174.076296	-0.035647	-28.160379
1.800000	-0.053014	-41.546278	-78.301802	174.679728	-78.301802	174.679728	-0.036710	-28.949602
1.850000	-0.054523	-42.663726	-77.301042	174.955712	-77.301042	174.955712	-0.037770	-29.737767
1.900000	-0.056025	-43.778633	-76.346034	174.965788	-76.346034	174.965788	-0.038829	-30.524863
1.950000	-0.057520	-44.890973	-75.433563	174.757957	-75.433563	174.757957	-0.039886	-31.310878
2.000000	-0.059007	-46.000723	-74.560480	174.369940	-74.560480	174.369940	-0.040940	-32.095804
2.050000	-0.060485	-47.107861	-73.723813	173.831629	-73.723813	173.831629	-0.041993	-32.879629
2.100000	-0.061956	-48.212366	-72.920820	173.166929	-72.920820	173.166929	-0.043043	-33.662343
2.150000	-0.063418	-49.314219	-72.148993	172.395123	-72.148993	172.395123	-0.044091	-34.443936
2.200000	-0.064873	-50.413399	-71.406060	171.531907	-71.406060	171.531907	-0.045138	-35.224399
2.250000	-0.066319	-51.509892	-70.689964	170.590161	-70.689964	170.590161	-0.046182	-36.003722
2.300000	-0.067759	-52.603679	-69.998849	169.580540	-69.998849	169.580540	-0.047226	-36.781895
2.350000	-0.069192	-53.694746	-69.331034	168.511925	-69.331034	168.511925	-0.048269	-37.558910
2.400000	-0.070620	-54.783079	-68.685002	167.391771	-68.685002	167.391771	-0.049312	-38.334757
2.450000	-0.072042	-55.868664	-68.059377	166.226378	-68.059377	166.226378	-0.050354	-39.109428
2.500000	-0.073461	-56.951489	-67.452911	165.021104	-67.452911	165.021104	-0.051397	-39.882913
2.550000	-0.074876	-58.031420	-66.863521	163.779179	-66.863521	163.779179	-0.052441	-40.655153
2.600000	-0.076290	-59.108569	-66.291224	162.506202	-66.291224	162.506202	-0.053487	-41.426191
2.650000	-0.077702	-60.182925	-65.735060	161.205517	-65.735060	161.205517	-0.054535	-42.196019
2.700000	-0.079115	-61.254480	-65.194151	159.880038	-65.194151	159.880038	-0.055586	-42.964629
2.750000	-0.080530	-62.323225	-64.667693	158.532313	-64.667693	158.532313	-0.056640	-43.732015
2.800000	-0.081948	-63.389154	-64.154944	157.164577	-64.154944	157.164577	-0.057698	-44.498170
2.850000	-0.083369	-64.452260	-63.655223	155.778804	-63.655223	155.778804	-0.058760	-45.263087
2.900000	-0.084796	-65.512540	-63.167900	154.376738	-63.167900	154.376738	-0.059828	-46.026761
2.950000	-0.086230	-66.569987	-62.692391	152.959930	-62.692391	152.959930	-0.060902	-46.789186
3.000000	-0.087671	-67.624599	-62.228156	151.529762	-62.228156	151.529762	-0.061982	-47.550356
3.050000	-0.089122	-68.676374	-61.774691	150.087469	-61.774691	150.087469	-0.063070	-48.310268
3.100000	-0.090583	-69.725310	-61.331531	148.634161	-61.331531	148.634161	-0.064165	-49.068917
3.150000	-0.092056	-70.771406	-60.898237	147.170836	-60.898237	147.170836	-0.065269	-49.826299
3.200000	-0.093541	-71.814662	-60.474404	145.698395	-60.474404	145.698395	-0.066382	-50.582412
3.250000	-0.095041	-72.855080	-60.059649	144.217653	-60.059649	144.217653	-0.067505	-51.337254
3.300000	-0.096555	-73.892663	-59.653616	142.729353	-59.653616	142.729353	-0.068639	-52.090822
3.350000	-0.098087	-74.927412	-59.255968	141.234169	-59.255968	141.234169	-0.069783	-52.843116
3.400000	-0.099635	-75.959333	-58.866391	139.732716	-58.866391	139.732716	-0.070939	-53.594135
3.450000	-0.101202	-76.988431	-58.484588	138.225561	-58.484588	138.225561	-0.072108	-54.343881
3.500000	-0.102788	-78.014712	-58.110279	136.713220	-58.110279	136.713220	-0.073290	-55.092354
3.550000	-0.104394	-79.038183	-57.743199	135.196172	-57.743199	135.196172	-0.074486	-55.839557
3.600000	-0.106022	-80.058853	-57.383099	133.674857	-57.383099	133.674857	-0.075696	-56.585493
3.650000	-0.107671	-81.076732	-57.029741	132.149682	-57.029741	132.149682	-0.076921	-57.330167
3.700000	-0.109344	-82.091828	-56.682903	130.621028	-56.682903	130.621028	-0.078161	-58.073583
3.750000	-0.111040	-83.104155	-56.342371	129.089245	-56.342371	129.089245	-0.079418	-58.815749
3.800000	-0.112761	-84.113606	-56.007649	127.554558	-56.007649	127.554558	-0.080693	-59.556619
3.850000	-0.114507	-85.120314	-55.678861	126.017408	-55.678861	126.017408	-0.081985	-60.296257
3.900000	-0.116279	-86.124296	-55.355822	124.478081	-55.355822	124.478081	-0.083296	-61.034672
3.950000	-0.118077	-87.125566	-55.038355	122.936850	-55.038355	122.936850	-0.084626	-61.771879
4.000000	-0.119901	-88.124143	-54.726291	121.393972	-54.726291	121.393972	-0.085975	-62.507891
4.050000	-0.121752	-89.120045	-54.419470	119.849689	-54.419470	119.849689	-0.087344	-63.242723
4.100000	-0.123630	-90.113292	-54.117736	118.304234	-54.117736	118.304234	-0.088735	-63.976396
4.150000	-0.125536	-91.103903	-53.820942	116.757830	-53.820942	116.757830	-0.090147	-64.708928
4.200000	-0.127470	-92.091902	-53.528945	115.210690	-53.528945	115.210690	-0.091581	-65.440343
4.250000	-0.129432	-93.077310	-53.241609	113.663018	-53.241609	113.663018	-0.093038	-66.170666
4.300000	-0.131422	-94.060153	-52.958801	112.115016	-52.958801	112.115016	-0.094519	-66.899927
4.350000	-0.133441	-95.040456	-52.680394	110.566876	-52.680394	110.566876	-0.096025	-67.628157
4.400000	-0.135488	-96.018245	-52.406264	109.018788	-52.406264	109.018788	-0.097555	-68.355392
4.450000	-0.137564	-96.993548	-52.136292	107.470939	-52.136292	107.470939	-0.099112	-69.081672
4.500000	-0.139668	-97.966394	-51.870362	105.923513	-51.870362	105.923513	-0.100696	-69.807041
4.550000	-0.141801	-98.936813	-51.608360	104.376693	-51.608360	104.376693	-0.102309	-70.531550
4.600000	-0.143963	-99.904837	-51.350175	102.830664	-51.350175	102.830664	-0.103950	-71.255255
4.650000	-0.146153	-100.870498	-51.095700	101.285609	-51.095700	101.285609	-0.105621	-71.978218
4.700000	-0.148372	-101.833830	-50.844828	99.741719	-50.844828	99.741719	-0.107324	-72.700510
4.750000	-0.150620	-102.794868	-50.597452	98.199183	-50.597452	98.199183	-0.109059	-73.422211
4.800000	-0.152896	-103.753648	-50.353468	96.658202	-50.353468	96.658202	-0.110829	-74.143409
4.850000	-0.155201	-104.710207	-50.112773	95.118982	-50.112773	95.118982	-0.112635	-74.864206
4.900000	-0.157534	-105.664584	-49.875260	93.581739	-49.875260	93.581739	-0.114478	-75.584719
4.950000	-0.159896	-106.616819	-49.640824	92.046703	-49.640824	92.046703	-0.116362	-76.305078
5.000000	-0.162287	-107.566952	-49.409359	90.514120	-49.409359	90.514120	-0.118289	-77.025434
5.050000	-0.164717	-108.514235	-49.179500	88.985430	-49.179500	88.985430	-0.120280	-77.746104
5.100000	-0.167161	-109.460609	-48.954113	87.458237	-48.954113	87.458237	-0.122296	-78.467032
5.150000	-0.169642	-110.404444	-48.730472	85.935222	-48.730472	85.935222	-0.124380	-79.188676
5.200000	-0.172150	-111.346532	-48.509555	84.415786	-48.509555	84.415786	-0.126521	-79.911287
5.250000	-0.174683	-112.287056	-48.291596	82.899552	-48.291596	82.899552	-0.128714	-80.634763
5.300000	-0.177256	-113.225069	-48.074584	81.389775	-48.074584	81.389775	-0.131011	-81.360602
5.350000	-0.179844	-114.162253	-47.861407	79.882248	-47.861407	79.882248	-0.133345	-82.087315
5.400000	-0.182483	-115.096578	-47.647904	78.384093	-47.647904	78.384093	-0.135836	-82.818338
5.450000	-0.185141	-116.029982	-47.437507	76.889856	-47.437507	76.889856	-0.138399	-83.551531
5.500000	-0.187836	-116.961425	-47.227894	75.403968	-47.227894	75.403968	-0.141113	-84.289348
5.550000	-0.190566	-117.891274	-47.019115	73.927116	-47.019115	73.927116	-0.144008	-85.033029
5.600000	-0.193321	-118.819983	-46.812372	72.456718	-46.812372	72.456718	-0.147032	-85.780899
5.650000	-0.196127	-119.746501	-46.603431	71.003335	-46.603431	71.003335	-0.150446	-86.541482
5.700000	-0.198949	-120.672419	-46.397329	69.555139	-46.397329	69.555139	-0.153986	-87.306121
5.750000	-0.201822	-121.596408	-46.188005	68.127689	-46.188005	68.127689	-0.158084	-88.088293
5.800000	-0.204733	-122.519073	-45.976480	66.718987	-45.976480	66.718987	-0.162769	-88.887868
5.850000	-0.207683	-123.440459	-45.761311	65.333024	-45.761311	65.333024	-0.168270	-89.710251
5.900000	-0.210674	-124.360612	-45.540449	63.974964	-45.540449	63.974964	-0.174949	-90.563082
5.950000	-0.213706	-125.279579	-45.310883	62.651512	-45.310883	62.651512	-0.183393	-91.457497
6.000000	-0.216781	-126.197371	-45.067116	61.372943	-45.067116	61.372943	-0.194747	-92.412997
6.050000	-0.219902	-127.114017	-44.800136	60.151729	-44.800136	60.151729	-0.211184	-93.461196
6.100000	-0.223067	-128.029611	-44.495941	58.996610	-44.495941	58.996610	-0.236843	-94.650529
6.150000	-0.226277	-128.944206	-44.127589	57.904156	-44.127589	57.904156	-0.281128	-96.070727
6.200000	-0.229534	-129.857808	-43.628504	56.791973	-43.628504	56.791973	-0.372901	-97.929000
6.250000	-0.232837	-130.770497	-42.859472	55.136686	-42.859472	55.136686	-0.606973	-100.609558
6.300000	-0.236188	-131.682311	-41.551777	49.677292	-41.551777	49.677292	-1.442753	-104.187535
6.350000	-0.239586	-132.593299	-41.211318	29.968865	-41.211318	29.968865	-3.250574	-93.505181
6.400000	-0.243032	-133.503512	-43.918180	25.164591	-43.918180	25.164591	-1.313510	-85.747174
6.450000	-0.246525	-134.412998	-44.646087	31.381317	-44.646087	31.381317	-0.598760	-89.248215
6.500000	-0.250065	-135.321808	-44.578209	34.352837	-44.578209	34.352837	-0.390922	-91.767201
6.550000	-0.253653	-136.229988	-44.378404	35.281907	-44.378404	35.281907	-0.309360	-93.532104
6.600000	-0.257287	-137.137604	-44.165827	35.248990	-44.165827	35.248990	-0.270190	-94.907520
6.650000	-0.260968	-138.044702	-43.961309	34.706550	-43.961309	34.706550	-0.249435	-96.059752
6.700000	-0.264696	-138.951320	-43.767749	33.869150	-43.767749	33.869150	-0.237886	-97.073631
6.750000	-0.268468	-139.857543	-43.583708	32.861011	-43.583708	32.861011	-0.231105	-98.002741
6.800000	-0.272285	-140.763411	-43.407834	31.736499	-43.407834	31.736499	-0.227303	-98.871199
6.850000	-0.276146	-141.668983	-43.238757	30.532494	-43.238757	30.532494	-0.225388	-99.696259
6.900000	-0.280058	-142.574290	-43.075645	29.266375	-43.075645	29.266375	-0.224853	-100.485731
6.950000	-0.284007	-143.479449	-42.917073	27.965867	-42.917073	27.965867	-0.225047	-101.254614
7.000000	-0.287999	-144.384490	-42.762712	26.634135	-42.762712	26.634135	-0.225884	-102.004134
7.050000	-0.292033	-145.289472	-42.612052	25.278524	-42.612052	25.278524	-0.227200	-102.738182
7.100000	-0.296109	-146.194457	-42.464689	23.904328	-42.464689	23.904328	-0.228883	-103.459635
7.150000	-0.300227	-147.099508	-42.320301	22.515458	-42.320301	22.515458	-0.230856	-104.170666
7.200000	-0.304386	-148.004688	-42.178630	21.114855	-42.178630	21.114855	-0.233063	-104.872946
7.250000	-0.308586	-148.910059	-42.039463	19.704776	-42.039463	19.704776	-0.235463	-105.567789
7.300000	-0.312826	-149.815688	-41.902627	18.286970	-41.902627	18.286970	-0.238025	-106.256236
7.350000	-0.317106	-150.721638	-41.767975	16.862819	-41.767975	16.862819	-0.240727	-106.939127
7.400000	-0.321427	-151.627975	-41.635385	15.433419	-41.635385	15.433419	-0.243550	-107.617150
7.450000	-0.325787	-152.534765	-41.504751	13.999652	-41.504751	13.999652	-0.246482	-108.290870
7.500000	-0.330187	-153.442075	-41.375984	12.562234	-41.375984	12.562234	-0.249511	-108.960762
7.550000	-0.334628	-154.350001	-41.249001	11.121638	-41.249001	11.121638	-0.252633	-109.627092
7.600000	-0.339109	-155.258586	-41.123738	9.678488	-41.123738	9.678488	-0.255837	-110.290357
7.650000	-0.343630	-156.167899	-41.000138	8.233170	-41.000138	8.233170	-0.259117	-110.950846
7.700000	-0.348190	-157.078007	-40.878147	6.786005	-40.878147	6.786005	-0.262471	-111.608806
7.750000	-0.352790	-157.988980	-40.757721	5.337259	-40.757721	5.337259	-0.265895	-112.264455
7.800000	-0.357431	-158.900886	-40.638819	3.887155	-40.638819	3.887155	-0.269385	-112.917986
7.850000	-0.362111	-159.813794	-40.521404	2.435879	-40.521404	2.435879	-0.272940	-113.569569
7.900000	-0.366832	-160.727772	-40.405445	0.983586	-40.405445	0.983586	-0.276559	-114.219355
7.950000	-0.371593	-161.642891	-40.290912	-0.469595	-40.290912	-0.469595	-0.280240	-114.867484
8.000000	-0.376395	-162.559221	-40.177779	-1.923555	-40.177779	-1.923555	-0.283982	-115.514079
8.050000	-0.381238	-163.476831	-40.066023	-3.378205	-40.066023	-3.378205	-0.287785	-116.159253
8.100000	-0.386123	-164.395790	-39.955624	-4.833469	-39.955624	-4.833469	-0.291648	-116.803112
8.150000	-0.391049	-165.316171	-39.846562	-6.289287	-39.846562	-6.289287	-0.295570	-117.445752
8.200000	-0.396018	-166.238042	-39.738821	-7.745607	-39.738821	-7.745607	-0.299553	-118.087262
8.250000	-0.401029	-167.161475	-39.632387	-9.202388	-39.632387	-9.202388	-0.303597	-118.727726
8.300000	-0.406082	-168.086540	-39.527246	-10.659596	-39.527246	-10.659596	-0.307700	-119.367223
8.350000	-0.411179	-169.013309	-39.423387	-12.117203	-39.423387	-12.117203	-0.311865	-120.005826
8.400000	-0.416320	-169.941852	-39.320799	-13.575188	-39.320799	-13.575188	-0.316091	-120.643608
8.450000	-0.421505	-170.872240	-39.219476	-15.033532	-39.219476	-15.033532	-0.320379	-121.280635
8.500000	-0.426734	-171.804545	-39.119409	-16.492222	-39.119409	-16.492222	-0.324730	-121.916971
8.550000	-0.432009	-172.738837	-39.020592	-17.951246	-39.020592	-17.951246	-0.329144	-122.552678
8.600000	-0.437329	-173.675189	-38.923020	-19.410595	-38.923020	-19.410595	-0.333623	-123.187817
8.650000	-0.442695	-174.613672	-38.826690	-20.870260	-38.826690	-20.870260	-0.338168	-123.822445
8.700000	-0.448107	-175.554356	-38.731599	-22.330234	-38.731599	-22.330234	-0.342780	-124.456619
8.750000	-0.453566	-176.497315	-38.637744	-23.790511	-38.637744	-23.790511	-0.347460	-125.090394
8.800000	-0.459075	-177.442724	-38.545138	-25.251096	-38.545138	-25.251096	-0.352212	-125.723813
8.850000	-0.464632	-178.390555	-38.453770	-26.711968	-38.453770	-26.711968	-0.357035	-126.356944
8.900000	-0.470237	-179.340881	-38.363642	-28.173120	-38.363642	-28.173120	-0.361930	-126.989840
8.950000	-0.475891	179.706227	-38.274756	-29.634540	-38.274756	-29.634540	-0.366900	-127.622553
9.000000	-0.481595	178.750698	-38.187113	-31.096217	-38.187113	-31.096217	-0.371944	-128.255134
9.050000	-0.487349	177.792461	-38.100718	-32.558138	-38.100718	-32.558138	-0.377067	-128.887632
9.100000	-0.493153	176.831444	-38.015573	-34.020286	-38.015573	-34.020286	-0.382268	-129.520100
9.150000	-0.499009	175.867578	-37.931684	-35.482644	-37.931684	-35.482644	-0.387550	-130.152585
9.200000	-0.504916	174.900791	-37.849055	-36.945189	-37.849055	-36.945189	-0.392916	-130.785139
9.250000	-0.510876	173.931012	-37.767693	-38.407896	-37.767693	-38.407896	-0.398367	-131.417811
9.300000	-0.516888	172.958172	-37.687602	-39.870740	-37.687602	-39.870740	-0.403905	-132.050651
9.350000	-0.522953	171.982201	-37.608790	-41.333687	-37.608790	-41.333687	-0.409533	-132.683708
9.400000	-0.529072	171.003028	-37.531264	-42.796703	-37.531264	-42.796703	-0.415253	-133.317032
9.450000	-0.535246	170.020585	-37.455031	-44.259749	-37.455031	-44.259749	-0.421068	-133.950674
9.500000	-0.541474	169.034801	-37.380099	-45.722782	-37.380099	-45.722782	-0.426981	-134.584684
9.550000	-0.547757	168.045610	-37.306475	-47.185756	-37.306475	-47.185756	-0.432993	-135.219111
9.600000	-0.554096	167.052942	-37.234169	-48.648618	-37.234169	-48.648618	-0.439108	-135.854008
9.650000	-0.560491	166.056730	-37.163187	-50.111314	-37.163187	-50.111314	-0.445330	-136.489424
9.700000	-0.566942	165.056907	-37.093540	-51.573782	-37.093540	-51.573782	-0.451660	-137.125411
9.750000	-0.573451	164.053406	-37.025236	-53.035957	-37.025236	-53.035957	-0.458103	-137.762022
9.800000	-0.580016	163.046161	-36.958283	-54.497771	-36.958283	-54.497771	-0.464662	-138.399308
9.850000	-0.586640	162.035106	-36.892690	-55.959148	-36.892690	-55.959148	-0.471339	-139.037322
9.900000	-0.593322	161.020177	-36.828467	-57.420010	-36.828467	-57.420010	-0.478140	-139.676117
9.950000	-0.600063	160.001310	-36.765621	-58.880272	-36.765621	-58.880272	-0.485067	-140.315747
10.000000	-0.606862	158.978442	-36.704162	-60.339846	-36.704162	-60.339846	-0.492124	-140.956266
