! freq	dB(S11)	phase(S11)	dB(S12)	phase(S12)	
!     	dB(S21)	phase(S21)	dB(S22)	phase(S22)	
!S-par simulation data
#  GHz  S  DB  R 50
0.000000	-0.000000	-0.000000	-327.657803	180.000000	-327.657803	180.000000	0.000000	-0.000000
0.050000	-0.001111	-0.874669	-80.894790	87.187814	-80.894790	87.187814	-0.003392	-4.565732
0.100000	-0.002102	-1.745354	-74.903520	84.536632	-74.903520	84.536632	-0.010712	-9.096230
0.150000	-0.003316	-2.612857	-71.417909	81.885787	-71.417909	81.885787	-0.018197	-13.586952
0.200000	-0.004533	-3.477830	-68.964374	79.240765	-68.964374	79.240765	-0.024780	-18.045823
0.250000	-0.005664	-4.340973	-67.084362	76.611667	-67.084362	76.611667	-0.030516	-22.471296
0.300000	-0.006711	-5.203038	-65.571371	74.005663	-65.571371	74.005663	-0.035771	-26.860589
0.350000	-0.007705	-6.064425	-64.313874	71.427128	-64.313874	71.427128	-0.040780	-31.210367
0.400000	-0.008676	-6.925302	-63.245987	68.880336	-63.245987	68.880336	-0.045651	-35.515854
0.450000	-0.009649	-7.785705	-62.327894	66.372436	-62.327894	66.372436	-0.050419	-39.767796
0.500000	-0.010644	-8.645686	-61.527677	63.904326	-61.527677	63.904326	-0.055092	-43.965337
0.550000	-0.011672	-9.505250	-60.824060	61.478570	-60.824060	61.478570	-0.059652	-48.105261
0.600000	-0.012741	-10.364387	-60.202090	59.098775	-60.202090	59.098775	-0.064070	-52.183006
0.650000	-0.013854	-11.223082	-59.651162	56.769868	-59.651162	56.769868	-0.068309	-56.192422
0.700000	-0.015004	-12.081372	-59.159727	54.490617	-59.159727	54.490617	-0.072358	-60.135778
0.750000	-0.016182	-12.939256	-58.720285	52.262799	-58.720285	52.262799	-0.076200	-64.011429
0.800000	-0.017375	-13.796692	-58.328022	50.090884	-58.328022	50.090884	-0.079809	-67.814467
0.850000	-0.018566	-14.653627	-57.977213	47.975418	-57.977213	47.975418	-0.083183	-71.545408
0.900000	-0.019740	-15.509975	-57.663209	45.917072	-57.663209	45.917072	-0.086323	-75.204747
0.950000	-0.020888	-16.365611	-57.382485	43.917506	-57.382485	43.917506	-0.089229	-78.791970
1.000000	-0.022004	-17.220407	-57.131883	41.977983	-57.131883	41.977983	-0.091908	-82.307303
1.050000	-0.023091	-18.074202	-56.909514	40.102459	-56.909514	40.102459	-0.094357	-85.748212
1.100000	-0.024156	-18.927011	-56.711014	38.286014	-56.711014	38.286014	-0.096610	-89.122387
1.150000	-0.025205	-19.778720	-56.535379	36.533186	-56.535379	36.533186	-0.098665	-92.426956
1.200000	-0.026245	-20.629295	-56.380706	34.845168	-56.380706	34.845168	-0.100536	-95.663111
1.250000	-0.027282	-21.478720	-56.245280	33.223171	-56.245280	33.223171	-0.102236	-98.832213
1.300000	-0.028319	-22.326941	-56.128181	31.671418	-56.128181	31.671418	-0.103775	-101.932988
1.350000	-0.029360	-23.174009	-56.027246	30.188310	-56.027246	30.188310	-0.105174	-104.969982
1.400000	-0.030406	-24.019924	-55.941145	28.775150	-55.941145	28.775150	-0.106447	-107.944914
1.450000	-0.031456	-24.864687	-55.868634	27.433268	-55.868634	27.433268	-0.107607	-110.859571
1.500000	-0.032512	-25.708297	-55.808532	26.164015	-55.808532	26.164015	-0.108669	-113.715791
1.550000	-0.033572	-26.550749	-55.759711	24.968750	-55.759711	24.968750	-0.109644	-116.515449
1.600000	-0.034637	-27.392039	-55.721078	23.848822	-55.721078	23.848822	-0.110545	-119.260441
1.650000	-0.035705	-28.232158	-55.691568	22.805551	-55.691568	22.805551	-0.111383	-121.952671
1.700000	-0.036776	-29.071098	-55.670130	21.840201	-55.670130	21.840201	-0.112168	-124.594043
1.750000	-0.037850	-29.908847	-55.655718	20.953947	-55.655718	20.953947	-0.112911	-127.186452
1.800000	-0.038926	-30.745394	-55.647285	20.147834	-55.647285	20.147834	-0.113621	-129.731773
1.850000	-0.040004	-31.580728	-55.643776	19.422737	-55.643776	19.422737	-0.114306	-132.231859
1.900000	-0.041083	-32.414834	-55.644119	18.779308	-55.644119	18.779308	-0.114974	-134.688531
1.950000	-0.042164	-33.247700	-55.647229	18.217920	-55.647229	18.217920	-0.115631	-137.103580
2.000000	-0.043247	-34.079312	-55.651998	17.738603	-55.651998	17.738603	-0.116285	-139.478757
2.050000	-0.044331	-34.909655	-55.657301	17.340983	-55.657301	17.340983	-0.116941	-141.815774
2.100000	-0.045416	-35.738715	-55.661997	17.024213	-55.661997	17.024213	-0.117604	-144.116301
2.150000	-0.046503	-36.566478	-55.664932	16.786902	-55.664932	16.786902	-0.118279	-146.381965
2.200000	-0.047592	-37.392930	-55.664950	16.627055	-55.664950	16.627055	-0.118970	-148.614348
2.250000	-0.048683	-38.218055	-55.660898	16.542010	-55.660898	16.542010	-0.119681	-150.814991
2.300000	-0.049776	-39.041840	-55.651646	16.528396	-55.651646	16.528396	-0.120415	-152.985385
2.350000	-0.050872	-39.864270	-55.636094	16.582091	-55.636094	16.582091	-0.121174	-155.126980
2.400000	-0.051971	-40.685331	-55.613194	16.698217	-55.613194	16.698217	-0.121962	-157.241182
2.450000	-0.053074	-41.505009	-55.581969	16.871136	-55.581969	16.871136	-0.122780	-159.329353
2.500000	-0.054180	-42.323291	-55.541528	17.094494	-55.541528	17.094494	-0.123631	-161.392813
2.550000	-0.055290	-43.140101	-55.490607	17.362798	-55.490607	17.362798	-0.124517	-163.431881
2.600000	-0.056405	-43.955487	-55.428968	17.666199	-55.428968	17.666199	-0.125438	-165.448865
2.650000	-0.057524	-44.769436	-55.356109	17.996606	-55.356109	17.996606	-0.126396	-167.444960
2.700000	-0.058649	-45.581935	-55.271680	18.345634	-55.271680	18.345634	-0.127392	-169.421324
2.750000	-0.059780	-46.392972	-55.175486	18.704764	-55.175486	18.704764	-0.128426	-171.379082
2.800000	-0.060918	-47.202536	-55.067497	19.065496	-55.067497	19.065496	-0.129499	-173.319321
2.850000	-0.062062	-48.010615	-54.947836	19.419516	-54.947836	19.419516	-0.130613	-175.243099
2.900000	-0.063213	-48.817198	-54.816775	19.758845	-54.816775	19.758845	-0.131766	-177.151443
2.950000	-0.064371	-49.622274	-54.674723	20.075971	-54.674723	20.075971	-0.132961	-179.045349
3.000000	-0.065538	-50.425834	-54.522207	20.363971	-54.522207	20.363971	-0.134198	179.074212
3.050000	-0.066713	-51.227868	-54.359857	20.616593	-54.359857	20.616593	-0.135476	177.206297
3.100000	-0.067897	-52.028366	-54.188385	20.828320	-54.188385	20.828320	-0.136797	175.349984
3.150000	-0.069091	-52.827320	-54.008562	20.994406	-54.008562	20.994406	-0.138161	173.504376
3.200000	-0.070294	-53.624721	-53.821202	21.110885	-53.821202	21.110885	-0.139568	171.668596
3.250000	-0.071508	-54.420561	-53.627141	21.174556	-53.627141	21.174556	-0.141019	169.841786
3.300000	-0.072732	-55.214834	-53.427223	21.182950	-53.427223	21.182950	-0.142516	168.023103
3.350000	-0.073967	-56.007531	-53.222281	21.134288	-53.222281	21.134288	-0.144057	166.211723
3.400000	-0.075214	-56.798648	-53.013130	21.027415	-53.013130	21.027415	-0.145646	164.406832
3.450000	-0.076473	-57.588177	-52.800553	20.861743	-52.800553	20.861743	-0.147281	162.607628
3.500000	-0.077745	-58.376114	-52.585298	20.637181	-52.585298	20.637181	-0.148965	160.813321
3.550000	-0.079029	-59.162454	-52.368068	20.354063	-52.368068	20.354063	-0.150698	159.023126
3.600000	-0.080327	-59.947191	-52.149525	20.013091	-52.149525	20.013091	-0.152482	157.236263
3.650000	-0.081638	-60.730324	-51.930279	19.615263	-51.930279	19.615263	-0.154318	155.451956
3.700000	-0.082964	-61.511847	-51.710897	19.161825	-51.710897	19.161825	-0.156209	153.669426
3.750000	-0.084305	-62.291759	-51.491899	18.654214	-51.491899	18.654214	-0.158156	151.887896
3.800000	-0.085661	-63.069986	-51.273582	18.091810	-51.273582	18.091810	-0.160165	150.106551
3.850000	-0.087033	-63.846598	-51.056602	17.478674	-51.056602	17.478674	-0.162235	148.324551
3.900000	-0.088420	-64.621592	-50.841353	16.816582	-50.841353	16.816582	-0.164370	146.541085
3.950000	-0.089825	-65.394968	-50.628194	16.107352	-50.628194	16.107352	-0.166573	144.755324
4.000000	-0.091246	-66.166727	-50.417453	15.352825	-50.417453	15.352825	-0.168849	142.966414
4.050000	-0.092684	-66.936867	-50.209433	14.554846	-50.209433	14.554846	-0.171202	141.173474
4.100000	-0.094140	-67.705391	-50.004410	13.715251	-50.004410	13.715251	-0.173638	139.375582
4.150000	-0.095614	-68.472300	-49.802643	12.835859	-49.802643	12.835859	-0.176163	137.571776
4.200000	-0.097107	-69.237594	-49.604376	11.918468	-49.604376	11.918468	-0.178784	135.761035
4.250000	-0.098619	-70.001278	-49.409840	10.964848	-49.409840	10.964848	-0.181510	133.942274
4.300000	-0.100151	-70.763353	-49.219261	9.976745	-49.219261	9.976745	-0.184352	132.114328
4.350000	-0.101702	-71.523824	-49.032862	8.955885	-49.032862	8.955885	-0.187321	130.275932
4.400000	-0.103274	-72.282693	-48.850869	7.903977	-48.850869	7.903977	-0.190432	128.425707
4.450000	-0.104866	-73.039966	-48.673519	6.822731	-48.673519	6.822731	-0.193703	126.562126
4.500000	-0.106480	-73.795647	-48.501060	5.713866	-48.501060	5.713866	-0.197154	124.683488
4.550000	-0.108116	-74.549742	-48.333766	4.579134	-48.333766	4.579134	-0.200812	122.787874
4.600000	-0.109773	-75.302257	-48.171943	3.420349	-48.171943	3.420349	-0.204708	120.873094
4.650000	-0.111453	-76.053197	-48.015938	2.239423	-48.015938	2.239423	-0.208882	118.936627
4.700000	-0.113156	-76.802570	-47.866157	1.038415	-47.866157	1.038415	-0.213384	116.975524
4.750000	-0.114883	-77.550384	-47.723083	-0.180391	-47.723083	-0.180391	-0.218279	114.986301
4.800000	-0.116633	-78.296646	-47.587298	-1.414395	-47.587298	-1.414395	-0.223648	112.964784
4.850000	-0.118407	-79.041364	-47.459517	-2.660537	-47.459517	-2.660537	-0.229600	110.905900
4.900000	-0.120207	-79.784548	-47.340630	-3.915093	-47.340630	-3.915093	-0.236279	108.803391
4.950000	-0.122031	-80.526206	-47.231766	-5.173369	-47.231766	-5.173369	-0.243881	106.649417
5.000000	-0.123881	-81.266349	-47.134377	-6.429244	-47.134377	-6.429244	-0.252676	104.433983
5.050000	-0.125759	-82.004860	-47.051707	-7.672323	-47.051707	-7.672323	-0.263235	102.136026
5.100000	-0.127661	-82.741989	-46.984125	-8.893237	-46.984125	-8.893237	-0.275835	99.751181
5.150000	-0.129590	-83.477632	-46.936304	-10.072664	-46.936304	-10.072664	-0.291495	97.248470
5.200000	-0.131547	-84.211734	-46.914447	-11.179247	-46.914447	-11.179247	-0.311803	94.585882
5.250000	-0.133529	-84.944486	-46.921989	-12.180970	-46.921989	-12.180970	-0.338227	91.736629
5.300000	-0.135539	-85.675733	-46.973029	-12.987677	-46.973029	-12.987677	-0.375339	88.600876
5.350000	-0.137576	-86.405541	-47.081744	-13.461790	-47.081744	-13.461790	-0.429911	85.063809
5.400000	-0.139639	-87.133941	-47.268878	-13.331821	-47.268878	-13.331821	-0.515363	80.927959
5.450000	-0.141727	-87.860939	-47.559963	-11.989704	-47.559963	-11.989704	-0.662222	75.816754
5.500000	-0.143837	-88.586568	-47.941431	-8.001637	-47.941431	-8.001637	-0.948276	68.983561
5.550000	-0.145964	-89.310915	-48.091959	1.658107	-48.091959	1.658107	-1.609600	58.819758
5.600000	-0.148108	-90.034193	-46.465294	17.247025	-46.465294	17.247025	-3.625272	41.524870
5.650000	-0.150357	-90.756695	-42.344402	17.332030	-42.344402	17.332030	-13.946292	14.436233
5.700000	-0.152790	-91.477178	-40.302607	-3.187673	-40.302607	-3.187673	-7.405237	143.981351
5.750000	-0.155164	-92.195524	-40.609966	-18.097696	-40.609966	-18.097696	-2.647149	120.363463
5.800000	-0.157502	-92.912727	-41.193916	-25.700267	-41.193916	-25.700267	-1.401940	106.897727
5.850000	-0.159859	-93.628824	-41.624829	-30.169151	-41.624829	-30.169151	-0.931961	98.445903
5.900000	-0.162247	-94.343765	-41.913355	-33.335549	-41.913355	-33.335549	-0.710332	92.389682
5.950000	-0.164672	-95.057480	-42.099949	-35.883116	-42.099949	-35.883116	-0.593060	87.651602
6.000000	-0.167132	-95.770047	-42.222660	-38.139066	-42.222660	-38.139066	-0.522759	83.634244
6.050000	-0.169628	-96.481439	-42.299578	-40.229800	-42.299578	-40.229800	-0.479182	80.090733
6.100000	-0.172161	-97.191674	-42.344456	-42.229212	-42.344456	-42.229212	-0.451250	76.859041
6.150000	-0.174731	-97.900768	-42.366384	-44.178105	-42.366384	-44.178105	-0.433123	73.840634
6.200000	-0.177338	-98.608743	-42.371530	-46.100455	-42.371530	-46.100455	-0.421494	70.972280
6.250000	-0.179983	-99.315621	-42.364185	-48.011138	-42.364185	-48.011138	-0.414379	68.211568
6.300000	-0.182667	-100.021391	-42.347159	-49.919993	-42.347159	-49.919993	-0.410614	65.530894
6.350000	-0.185389	-100.726112	-42.323017	-51.833866	-42.323017	-51.833866	-0.409266	62.906054
6.400000	-0.188150	-101.429809	-42.293340	-53.757405	-42.293340	-53.757405	-0.409805	60.321814
6.450000	-0.190951	-102.132509	-42.259302	-55.694155	-42.259302	-55.694155	-0.411864	57.766595
6.500000	-0.193791	-102.834238	-42.221782	-57.646951	-42.221782	-57.646951	-0.415183	55.231417
6.550000	-0.196672	-103.535025	-42.181434	-59.618178	-42.181434	-59.618178	-0.419575	52.709188
6.600000	-0.199593	-104.234896	-42.138735	-61.609933	-42.138735	-61.609933	-0.424906	50.194217
6.650000	-0.202555	-104.933883	-42.094027	-63.624141	-42.094027	-63.624141	-0.431078	47.681860
6.700000	-0.205559	-105.632016	-42.047540	-65.662634	-42.047540	-65.662634	-0.438019	45.168275
6.750000	-0.208605	-106.329326	-41.999410	-67.727203	-41.999410	-67.727203	-0.445680	42.650240
6.800000	-0.211693	-107.025846	-41.949694	-69.819640	-41.949694	-69.819640	-0.454024	40.125015
6.850000	-0.214825	-107.721610	-41.898381	-71.941769	-41.898381	-71.941769	-0.463028	37.590240
6.900000	-0.218000	-108.416653	-41.845395	-74.095464	-41.845395	-74.095464	-0.472678	35.043861
6.950000	-0.221219	-109.111011	-41.790603	-76.282669	-41.790603	-76.282669	-0.482967	32.484065
7.000000	-0.224483	-109.804723	-41.733815	-78.505404	-41.733815	-78.505404	-0.493894	29.909236
7.050000	-0.227793	-110.497827	-41.674787	-80.765779	-41.674787	-80.765779	-0.505464	27.317914
7.100000	-0.231148	-111.190364	-41.613221	-83.065996	-41.613221	-83.065996	-0.517685	24.708770
7.150000	-0.234549	-111.882377	-41.548766	-85.408349	-41.548766	-85.408349	-0.530569	22.080576
7.200000	-0.237998	-112.573911	-41.481014	-87.795220	-41.481014	-87.795220	-0.544131	19.432191
7.250000	-0.241494	-113.265011	-41.409498	-90.229078	-41.409498	-90.229078	-0.558390	16.762539
7.300000	-0.245039	-113.955728	-41.333693	-92.712465	-41.333693	-92.712465	-0.573367	14.070596
7.350000	-0.248634	-114.646110	-41.253012	-95.247981	-41.253012	-95.247981	-0.589084	11.355382
7.400000	-0.252278	-115.336213	-41.166800	-97.838263	-41.166800	-97.838263	-0.605568	8.615945
7.450000	-0.255974	-116.026092	-41.074339	-100.485961	-41.074339	-100.485961	-0.622845	5.851354
7.500000	-0.259721	-116.715808	-40.974837	-103.193703	-40.974837	-103.193703	-0.640946	3.060693
7.550000	-0.263524	-117.405420	-40.866981	-105.966894	-40.866981	-105.966894	-0.659939	0.241831
7.600000	-0.267381	-118.095005	-40.750174	-108.805360	-40.750174	-108.805360	-0.679823	-2.605015
7.650000	-0.271294	-118.784633	-40.623390	-111.711363	-40.623390	-111.711363	-0.700635	-5.480771
7.700000	-0.275264	-119.474380	-40.485535	-114.686925	-40.485535	-114.686925	-0.722414	-8.386382
7.750000	-0.279292	-120.164327	-40.335442	-117.733758	-40.335442	-117.733758	-0.745198	-11.322816
7.800000	-0.283381	-120.854561	-40.171884	-120.853192	-40.171884	-120.853192	-0.769032	-14.291073
7.850000	-0.287533	-121.545176	-39.993576	-124.046098	-39.993576	-124.046098	-0.793961	-17.292190
7.900000	-0.291749	-122.236271	-39.799191	-127.312811	-39.799191	-127.312811	-0.820032	-20.327250
7.950000	-0.296033	-122.927955	-39.587368	-130.653066	-39.587368	-130.653066	-0.847296	-23.397388
8.000000	-0.300387	-123.620346	-39.356731	-134.065933	-39.356731	-134.065933	-0.875808	-26.503800
8.050000	-0.304814	-124.313571	-39.105908	-137.549776	-39.105908	-137.549776	-0.905626	-29.647753
8.100000	-0.309320	-125.007771	-38.833552	-141.102234	-38.833552	-141.102234	-0.936812	-32.830594
8.150000	-0.313908	-125.703098	-38.538358	-144.720220	-38.538358	-144.720220	-0.969434	-36.053761
8.200000	-0.318584	-126.399721	-38.219091	-148.399958	-38.219091	-148.399958	-1.003563	-39.318794
8.250000	-0.323354	-127.097825	-37.874605	-152.137051	-37.874605	-152.137051	-1.039279	-42.627351
8.300000	-0.328225	-127.797617	-37.503857	-155.926585	-37.503857	-155.926585	-1.076668	-45.981221
8.350000	-0.333203	-128.499261	-37.107356	-159.762110	-37.107356	-159.762110	-1.115776	-49.380894
8.400000	-0.338306	-129.203166	-36.680941	-163.641121	-36.680941	-163.641121	-1.156830	-52.831976
8.450000	-0.343540	-129.909498	-36.226654	-167.555590	-36.226654	-167.555590	-1.199852	-56.333939
8.500000	-0.348920	-130.618569	-35.744098	-171.500392	-35.744098	-171.500392	-1.244971	-59.889206
8.550000	-0.354462	-131.330734	-35.232991	-175.470774	-35.232991	-175.470774	-1.292338	-63.500438
8.600000	-0.360209	-132.046830	-34.686043	-179.464536	-34.686043	-179.464536	-1.342377	-67.177438
8.650000	-0.366173	-132.767010	-34.109169	176.524118	-34.109169	176.524118	-1.395088	-70.917713
8.700000	-0.372384	-133.491800	-33.502643	172.497465	-33.502643	172.497465	-1.450699	-74.724653
8.750000	-0.378883	-134.221838	-32.866354	168.456461	-32.866354	168.456461	-1.509501	-78.602479
8.800000	-0.385721	-134.957862	-32.200136	164.400688	-32.200136	164.400688	-1.571842	-82.555971
8.850000	-0.392960	-135.700740	-31.503727	160.328170	-31.503727	160.328170	-1.638150	-86.590579
8.900000	-0.400699	-136.451784	-30.773700	156.234337	-30.773700	156.234337	-1.709092	-90.715603
8.950000	-0.409069	-137.212565	-30.006723	152.112002	-30.006723	152.112002	-1.785507	-94.941380
9.000000	-0.418182	-137.984157	-29.206740	147.953656	-29.206740	147.953656	-1.868047	-99.271925
9.050000	-0.428230	-138.768447	-28.371867	143.747504	-28.371867	143.747504	-1.957874	-103.718348
9.100000	-0.439533	-139.568530	-27.493973	139.474381	-27.493973	139.474381	-2.056941	-108.300476
9.150000	-0.452388	-140.386495	-26.576779	135.116866	-26.576779	135.116866	-2.166941	-113.027939
9.200000	-0.467273	-141.225768	-25.617267	130.649058	-25.617267	130.649058	-2.290663	-117.920447
9.250000	-0.485022	-142.091985	-24.603791	126.028779	-24.603791	126.028779	-2.432910	-123.012874
9.300000	-0.506482	-142.989106	-23.540378	121.218309	-23.540378	121.218309	-2.598554	-128.327263
9.350000	-0.533384	-143.925541	-22.411890	116.143774	-22.411890	116.143774	-2.797488	-133.918738
9.400000	-0.567988	-144.908799	-21.214389	110.721234	-21.214389	110.721234	-3.042839	-139.840515
9.450000	-0.613940	-145.947933	-19.939108	104.826897	-19.939108	104.826897	-3.356309	-146.169230
9.500000	-0.677340	-147.051554	-18.573541	98.273272	-18.573541	98.273272	-3.775731	-153.010601
9.550000	-0.767467	-148.218772	-17.115152	90.808469	-17.115152	90.808469	-4.364676	-160.474227
9.600000	-0.900373	-149.423479	-15.560014	82.026512	-15.560014	82.026512	-5.250182	-168.661790
9.650000	-1.099555	-150.559517	-13.933877	71.364813	-13.933877	71.364813	-6.690190	-177.408538
9.700000	-1.390930	-151.324293	-12.316382	58.085947	-12.316382	58.085947	-9.277337	174.872535
9.750000	-1.762928	-151.069573	-10.894733	41.538634	-10.894733	41.538634	-14.360518	179.544988
9.800000	-2.071220	-149.141166	-9.977716	21.995146	-9.977716	21.995146	-15.748823	-120.898156
9.850000	-2.084924	-146.295629	-9.816515	1.516167	-9.816515	1.516167	-9.137814	-108.365985
9.900000	-1.821606	-144.435359	-10.350660	-17.091993	-10.350660	-17.091993	-5.681932	-119.706097
9.950000	-1.504800	-144.091095	-11.272438	-32.427529	-11.272438	-32.427529	-3.987742	-132.962572
10.000000	-1.252796	-144.658337	-12.311745	-44.676079	-12.311745	-44.676079	-3.130715	-144.918013
