! freq	dB(S11)	phase(S11)	dB(S12)	phase(S12)	
!     	dB(S21)	phase(S21)	dB(S22)	phase(S22)	
!S-par simulation data
#  GHz  S  DB  R 50
0.000000	-0.000000	0.000000	-308.991584	0.000000	-308.991584	0.000000	-0.000000	0.000000
0.050000	-0.016080	-1.756093	-77.739080	66.028680	-77.739080	66.028680	-0.017383	-5.341925
0.100000	-0.019101	-3.437457	-72.484374	72.239247	-72.484374	72.239247	-0.039583	-10.502754
0.150000	-0.020064	-5.130237	-69.162607	72.642859	-69.162607	72.642859	-0.052215	-15.584426
0.200000	-0.020745	-6.826659	-66.782937	71.301277	-66.782937	71.301277	-0.059144	-20.627133
0.250000	-0.021426	-8.523910	-64.952139	69.246374	-64.952139	69.246374	-0.063440	-25.628497
0.300000	-0.022178	-10.220751	-63.481762	66.845960	-63.481762	66.845960	-0.066508	-30.577912
0.350000	-0.023025	-11.916458	-62.268261	64.263846	-62.268261	64.263846	-0.068976	-35.463969
0.400000	-0.023972	-13.610534	-61.248085	61.587382	-61.248085	61.587382	-0.071147	-40.277293
0.450000	-0.025021	-15.302592	-60.379723	58.866731	-60.379723	58.866731	-0.073167	-45.009872
0.500000	-0.026170	-16.992292	-59.634612	56.133917	-59.634612	56.133917	-0.075107	-49.654855
0.550000	-0.027414	-18.679328	-58.992178	53.411139	-58.992178	53.411139	-0.077003	-54.206655
0.600000	-0.028749	-20.363419	-58.437074	50.714769	-58.437074	50.714769	-0.078870	-58.660863
0.650000	-0.030171	-22.044280	-57.957761	48.057822	-57.957761	48.057822	-0.080713	-63.013608
0.700000	-0.031673	-23.721656	-57.544958	45.450835	-57.544958	45.450835	-0.082530	-67.262570
0.750000	-0.033249	-25.395325	-57.190995	42.902383	-57.190995	42.902383	-0.084316	-71.406950
0.800000	-0.034893	-27.065060	-56.889804	40.420228	-56.889804	40.420228	-0.086066	-75.446220
0.850000	-0.036600	-28.730645	-56.636351	38.011456	-56.636351	38.011456	-0.087773	-79.380579
0.900000	-0.038361	-30.391873	-56.426399	35.682732	-56.426399	35.682732	-0.089432	-83.210857
0.950000	-0.040173	-32.048534	-56.256424	33.440753	-56.256424	33.440753	-0.091037	-86.938149
1.000000	-0.042029	-33.700412	-56.123465	31.292497	-56.123465	31.292497	-0.092584	-90.563766
1.050000	-0.043922	-35.347367	-56.024489	29.243724	-56.024489	29.243724	-0.094070	-94.090758
1.100000	-0.045847	-36.989231	-55.957059	27.301094	-55.957059	27.301094	-0.095494	-97.521637
1.150000	-0.047799	-38.625786	-55.919266	25.472894	-55.919266	25.472894	-0.096852	-100.858174
1.200000	-0.049772	-40.257028	-55.908334	23.763223	-55.908334	23.763223	-0.098146	-104.105752
1.250000	-0.051762	-41.882730	-55.922821	22.181771	-55.922821	22.181771	-0.099375	-107.265904
1.300000	-0.053763	-43.502633	-55.961341	20.740098	-55.961341	20.740098	-0.100540	-110.340001
1.350000	-0.055772	-45.116733	-56.021495	19.444437	-56.021495	19.444437	-0.101642	-113.333126
1.400000	-0.057784	-46.724915	-56.101395	18.304423	-56.101395	18.304423	-0.102684	-116.248468
1.450000	-0.059796	-48.327072	-56.199049	17.330280	-56.199049	17.330280	-0.103668	-119.089201
1.500000	-0.061805	-49.923102	-56.312304	16.532744	-56.312304	16.532744	-0.104597	-121.858466
1.550000	-0.063807	-51.512915	-56.438779	15.922897	-56.438779	15.922897	-0.105473	-124.559349
1.600000	-0.065800	-53.096426	-56.575799	15.511911	-56.575799	15.511911	-0.106301	-127.194868
1.650000	-0.067781	-54.673557	-56.720324	15.310643	-56.720324	15.310643	-0.107083	-129.767966
1.700000	-0.069749	-56.244238	-56.868891	15.329081	-56.868891	15.329081	-0.107823	-132.281500
1.750000	-0.071702	-57.808407	-57.017561	15.575589	-57.017561	15.575589	-0.108525	-134.738236
1.800000	-0.073639	-59.366005	-57.161894	16.055954	-57.161894	16.055954	-0.109191	-137.140845
1.850000	-0.075558	-60.916984	-57.296964	16.772255	-57.296964	16.772255	-0.109827	-139.491902
1.900000	-0.077459	-62.461226	-57.417193	17.724022	-57.417193	17.724022	-0.110434	-141.793376
1.950000	-0.079340	-63.998693	-57.516793	18.901512	-57.516793	18.901512	-0.111016	-144.047725
2.000000	-0.081203	-65.529426	-57.590293	20.285099	-57.590293	20.285099	-0.111579	-146.257757
2.050000	-0.083045	-67.053400	-57.632324	21.849638	-57.632324	21.849638	-0.112124	-148.425652
2.100000	-0.084869	-68.570595	-57.638161	23.562019	-57.638161	23.562019	-0.112656	-150.553498
2.150000	-0.086673	-70.080996	-57.604090	25.382131	-57.604090	25.382131	-0.113177	-152.643293
2.200000	-0.088459	-71.584595	-57.527735	27.264744	-57.527735	27.264744	-0.113691	-154.696948
2.250000	-0.090227	-73.081388	-57.408267	29.162121	-57.408267	29.162121	-0.114202	-156.716288
2.300000	-0.091979	-74.571376	-57.246454	31.027023	-57.246454	31.027023	-0.114712	-158.703060
2.350000	-0.093714	-76.054565	-57.044559	32.815635	-57.044559	32.815635	-0.115224	-160.658931
2.400000	-0.095433	-77.530966	-56.806073	34.489977	-56.806073	34.489977	-0.115741	-162.585496
2.450000	-0.097139	-79.000596	-56.535374	36.019501	-56.535374	36.019501	-0.116267	-164.484278
2.500000	-0.098832	-80.463472	-56.237347	37.381763	-56.237347	37.381763	-0.116803	-166.356732
2.550000	-0.100514	-81.919476	-55.916379	38.558140	-55.916379	38.558140	-0.117352	-168.203738
2.600000	-0.102185	-83.368781	-55.578170	39.545374	-55.578170	39.545374	-0.117918	-170.027196
2.650000	-0.103848	-84.811421	-55.227261	40.342436	-55.227261	40.342436	-0.118501	-171.828373
2.700000	-0.105504	-86.247432	-54.867713	40.952871	-54.867713	40.952871	-0.119106	-173.608483
2.750000	-0.107154	-87.676856	-54.503053	41.383555	-54.503053	41.383555	-0.119733	-175.368687
2.800000	-0.108801	-89.099736	-54.136264	41.643611	-54.136264	41.643611	-0.120385	-177.110099
2.850000	-0.110445	-90.516120	-53.769820	41.743508	-53.769820	41.743508	-0.121064	-178.833782
2.900000	-0.112088	-91.926060	-53.405726	41.694370	-53.405726	41.694370	-0.121772	179.459240
2.950000	-0.113732	-93.329609	-53.045580	41.507456	-53.045580	41.507456	-0.122511	177.767987
3.000000	-0.115378	-94.726827	-52.690630	41.193800	-52.690630	41.193800	-0.123282	176.091519
3.050000	-0.117029	-96.117774	-52.341831	40.763967	-52.341831	40.763967	-0.124087	174.428933
3.100000	-0.118685	-97.502513	-51.999893	40.227906	-51.999893	40.227906	-0.124927	172.779358
3.150000	-0.120349	-98.880255	-51.664649	39.582433	-51.664649	39.582433	-0.125810	171.143562
3.200000	-0.122022	-100.252729	-51.337892	38.861232	-51.337892	38.861232	-0.126727	169.517537
3.250000	-0.123705	-101.619206	-51.019090	38.059444	-51.019090	38.059444	-0.127682	167.902097
3.300000	-0.125400	-102.979762	-50.708369	37.184160	-50.708369	37.184160	-0.128679	166.296494
3.350000	-0.127108	-104.334474	-50.405776	36.241812	-50.405776	36.241812	-0.129718	164.700008
3.400000	-0.128832	-105.683421	-50.111296	35.238219	-50.111296	35.238219	-0.130799	163.111944
3.450000	-0.130572	-107.026687	-49.824869	34.178635	-49.824869	34.178635	-0.131924	161.531627
3.500000	-0.132330	-108.364354	-49.546401	33.067796	-49.546401	33.067796	-0.133094	159.958405
3.550000	-0.134108	-109.696510	-49.275774	31.909969	-49.275774	31.909969	-0.134309	158.391648
3.600000	-0.135906	-111.023243	-49.012850	30.708997	-49.012850	30.708997	-0.135570	156.830744
3.650000	-0.137727	-112.344643	-48.757481	29.468337	-48.757481	29.468337	-0.136878	155.275097
3.700000	-0.139572	-113.660804	-48.509513	28.191103	-48.509513	28.191103	-0.138233	153.724130
3.750000	-0.141442	-114.971819	-48.268788	26.880097	-48.268788	26.880097	-0.139636	152.177281
3.800000	-0.143340	-116.277569	-48.035184	25.536593	-48.035184	25.536593	-0.141089	150.634134
3.850000	-0.145266	-117.578376	-47.808527	24.164303	-47.808527	24.164303	-0.142590	149.093976
3.900000	-0.147222	-118.874342	-47.588664	22.765250	-47.588664	22.765250	-0.144140	147.556288
3.950000	-0.149208	-120.165566	-47.375445	21.341263	-47.375445	21.341263	-0.145740	146.020564
4.000000	-0.151227	-121.452154	-47.168728	19.893995	-47.168728	19.893995	-0.147388	144.486307
4.050000	-0.153280	-122.734210	-46.968378	18.424939	-46.968378	18.424939	-0.149086	142.953029
4.100000	-0.155368	-124.011842	-46.774268	16.935450	-46.774268	16.935450	-0.150833	141.420255
4.150000	-0.157492	-125.285160	-46.586278	15.426755	-46.586278	15.426755	-0.152630	139.887515
4.200000	-0.159654	-126.554274	-46.404298	13.899965	-46.404298	13.899965	-0.154476	138.354348
4.250000	-0.161856	-127.819300	-46.228224	12.356091	-46.228224	12.356091	-0.156372	136.820302
4.300000	-0.164098	-129.080354	-46.057961	10.796053	-46.057961	10.796053	-0.158317	135.284929
4.350000	-0.166381	-130.337553	-45.893425	9.220688	-45.893425	9.220688	-0.160312	133.747788
4.400000	-0.168706	-131.591019	-45.734536	7.630758	-45.734536	7.630758	-0.162356	132.208444
4.450000	-0.171075	-132.840876	-45.581227	6.026959	-45.581227	6.026959	-0.164450	130.666467
4.500000	-0.173486	-134.087250	-45.433435	4.409930	-45.433435	4.409930	-0.166593	129.121430
4.550000	-0.175940	-135.330267	-45.291109	2.780253	-45.291109	2.780253	-0.168785	127.572911
4.600000	-0.178436	-136.570057	-45.154202	1.138464	-45.154202	1.138464	-0.171027	126.020489
4.650000	-0.180973	-137.806748	-45.022680	-0.514945	-45.022680	-0.514945	-0.173318	124.463749
4.700000	-0.183548	-139.040469	-44.896513	-2.179519	-44.896513	-2.179519	-0.175658	122.902277
4.750000	-0.186159	-140.271344	-44.775680	-3.854839	-44.775680	-3.854839	-0.178048	121.335659
4.800000	-0.188803	-141.499497	-44.660169	-5.540517	-44.660169	-5.540517	-0.180488	119.763484
4.850000	-0.191475	-142.725044	-44.549974	-7.236193	-44.549974	-7.236193	-0.182977	118.185342
4.900000	-0.194173	-143.948095	-44.445099	-8.941530	-44.445099	-8.941530	-0.185516	116.600824
4.950000	-0.196892	-145.168757	-44.345554	-10.656215	-44.345554	-10.656215	-0.188106	115.009518
5.000000	-0.199629	-146.387128	-44.251358	-12.379955	-44.251358	-12.379955	-0.190746	113.411016
5.050000	-0.202384	-147.603213	-44.162735	-14.112843	-44.162735	-14.112843	-0.193440	111.804555
5.100000	-0.205154	-148.817203	-44.079535	-15.854228	-44.079535	-15.854228	-0.196186	110.190037
5.150000	-0.207938	-150.029192	-44.001801	-17.603867	-44.001801	-17.603867	-0.198984	108.567046
5.200000	-0.210738	-151.239274	-43.929584	-19.361529	-43.929584	-19.361529	-0.201836	106.935166
5.250000	-0.213555	-152.447547	-43.862943	-21.126994	-43.862943	-21.126994	-0.204743	105.293979
5.300000	-0.216391	-153.654114	-43.801949	-22.900053	-43.801949	-22.900053	-0.207705	103.643063
5.350000	-0.219249	-154.859082	-43.746677	-24.680506	-43.746677	-24.680506	-0.210725	101.981994
5.400000	-0.222130	-156.062564	-43.697215	-26.468162	-43.697215	-26.468162	-0.213803	100.310342
5.450000	-0.225035	-157.264799	-43.653093	-28.262166	-43.653093	-28.262166	-0.216936	98.628788
5.500000	-0.227970	-158.465659	-43.615470	-30.063632	-43.615470	-30.063632	-0.220135	96.934843
5.550000	-0.230935	-159.665387	-43.583975	-31.871776	-43.583975	-31.871776	-0.223400	95.229015
5.600000	-0.233932	-160.864109	-43.558739	-33.686438	-43.558739	-33.686438	-0.226731	93.510856
5.650000	-0.236962	-162.061941	-43.539974	-35.507530	-43.539974	-35.507530	-0.230132	91.779771
5.700000	-0.240026	-163.259015	-43.527842	-37.334900	-43.527842	-37.334900	-0.233607	90.035285
5.750000	-0.243125	-164.455468	-43.522445	-39.168337	-43.522445	-39.168337	-0.237157	88.277071
5.800000	-0.246259	-165.651426	-43.523967	-41.007707	-43.523967	-41.007707	-0.240787	86.504657
5.850000	-0.249428	-166.847016	-43.532612	-42.852885	-43.532612	-42.852885	-0.244500	84.717563
5.900000	-0.252632	-168.042365	-43.548600	-44.703751	-43.548600	-44.703751	-0.248300	82.915302
5.950000	-0.255871	-169.237599	-43.572173	-46.560194	-43.572173	-46.560194	-0.252192	81.097378
6.000000	-0.259144	-170.432843	-43.603593	-48.422112	-43.603593	-48.422112	-0.256182	79.263285
6.050000	-0.262453	-171.628222	-43.643148	-50.289411	-43.643148	-50.289411	-0.260274	77.412511
6.100000	-0.265795	-172.823861	-43.691153	-52.162008	-43.691153	-52.162008	-0.264475	75.544531
6.150000	-0.269171	-174.019883	-43.747952	-54.039829	-43.747952	-54.039829	-0.268790	73.658811
6.200000	-0.272579	-175.216413	-43.813925	-55.922811	-43.813925	-55.922811	-0.273226	71.754807
6.250000	-0.276021	-176.413572	-43.889488	-57.810904	-43.889488	-57.810904	-0.277792	69.831963
6.300000	-0.279495	-177.611503	-43.975309	-59.704180	-43.975309	-59.704180	-0.282497	67.889274
6.350000	-0.283000	-178.810314	-44.071702	-61.602503	-44.071702	-61.602503	-0.287347	65.926568
6.400000	-0.286536	179.989875	-44.179231	-63.505863	-44.179231	-63.505863	-0.292351	63.943250
6.450000	-0.290102	178.788942	-44.298521	-65.414266	-44.298521	-65.414266	-0.297520	61.938712
6.500000	-0.293698	177.586767	-44.430271	-67.327731	-44.430271	-67.327731	-0.302862	59.912328
6.550000	-0.297322	176.383231	-44.575262	-69.246296	-44.575262	-69.246296	-0.308389	57.863460
6.600000	-0.300974	175.178214	-44.734372	-71.170013	-44.734372	-71.170013	-0.314112	55.791452
6.650000	-0.304654	173.971597	-44.908587	-73.098952	-44.908587	-73.098952	-0.320043	53.695631
6.700000	-0.308360	172.763263	-45.099027	-75.033202	-45.099027	-75.033202	-0.326196	51.575308
6.750000	-0.312093	171.553095	-45.306962	-76.972866	-45.306962	-76.972866	-0.332583	49.429772
6.800000	-0.315851	170.340974	-45.533847	-78.918064	-45.533847	-78.918064	-0.339219	47.258296
6.850000	-0.319634	169.126786	-45.781349	-80.868934	-45.781349	-80.868934	-0.346120	45.060128
6.900000	-0.323441	167.910390	-46.051571	-82.825689	-46.051571	-82.825689	-0.353304	42.834191
6.950000	-0.327271	166.691667	-46.346787	-84.788498	-46.346787	-84.788498	-0.360788	40.579663
7.000000	-0.331124	165.470527	-46.669478	-86.757464	-46.669478	-86.757464	-0.368588	38.296022
7.050000	-0.334999	164.246858	-47.022770	-88.732757	-47.022770	-88.732757	-0.376721	35.982423
7.100000	-0.338895	163.020547	-47.410394	-90.714537	-47.410394	-90.714537	-0.385207	33.637996
7.150000	-0.342812	161.791483	-47.836851	-92.702942	-47.836851	-92.702942	-0.394065	31.261842
7.200000	-0.346748	160.559555	-48.307640	-94.698067	-48.307640	-94.698067	-0.403318	28.853033
7.250000	-0.350704	159.324656	-48.829570	-96.699936	-48.829570	-96.699936	-0.412986	26.410612
7.300000	-0.354678	158.086676	-49.411211	-98.708455	-49.411211	-98.708455	-0.423092	23.933591
7.350000	-0.358670	156.845509	-50.063550	-100.723335	-50.063550	-100.723335	-0.433659	21.420946
7.400000	-0.362678	155.601049	-50.800995	-102.743970	-50.800995	-102.743970	-0.444712	18.871623
7.450000	-0.366704	154.353193	-51.642955	-104.769229	-51.642955	-104.769229	-0.456276	16.284529
7.500000	-0.370745	153.101837	-52.616451	-106.797067	-52.616451	-106.797067	-0.468376	13.658536
7.550000	-0.374801	151.846799	-53.761761	-108.823601	-53.761761	-108.823601	-0.481050	10.991578
7.600000	-0.378872	150.588056	-55.138301	-110.841429	-55.138301	-110.841429	-0.494316	8.283291
7.650000	-0.382956	149.325509	-56.845301	-112.835453	-56.845301	-112.835453	-0.508198	5.532423
7.700000	-0.387054	148.059062	-59.064259	-114.770292	-59.064259	-114.770292	-0.522727	2.737682
7.750000	-0.391164	146.788621	-62.186038	-116.541664	-62.186038	-116.541664	-0.537929	-0.102268
7.800000	-0.395285	145.514093	-67.349786	-117.647548	-67.349786	-117.647548	-0.553832	-2.988806
7.850000	-0.399418	144.235388	-79.629175	-49.211340	-79.629175	-49.211340	-0.570465	-5.923357
7.900000	-0.403562	142.952416	-70.273731	52.469840	-70.273731	52.469840	-0.587856	-8.907390
7.950000	-0.407716	141.665092	-63.191135	52.182957	-63.191135	52.182957	-0.606031	-11.942419
8.000000	-0.411879	140.373332	-59.237924	50.456835	-59.237924	50.456835	-0.625017	-15.030003
8.050000	-0.416051	139.077054	-56.456063	48.442076	-56.456063	48.442076	-0.644840	-18.171742
8.100000	-0.420232	137.776179	-54.293712	46.307464	-54.293712	46.307464	-0.665524	-21.369279
8.150000	-0.424421	136.470579	-52.515578	44.102931	-52.515578	44.102931	-0.687099	-24.624942
8.200000	-0.428617	135.160179	-51.000021	41.848873	-51.000021	41.848873	-0.709587	-27.940508
8.250000	-0.432820	133.845025	-49.676569	39.555518	-49.676569	39.555518	-0.732983	-31.316255
8.300000	-0.437030	132.524945	-48.498913	37.226725	-48.498913	37.226725	-0.757320	-34.755285
8.350000	-0.441246	131.199937	-47.436817	34.865543	-47.436817	34.865543	-0.782597	-38.258596
8.400000	-0.445467	129.869848	-46.468222	32.472887	-46.468222	32.472887	-0.808834	-41.829208
8.450000	-0.449694	128.534689	-45.577715	30.050063	-45.577715	30.050063	-0.836019	-45.468051
8.500000	-0.453927	127.194405	-44.753438	27.597641	-44.753438	27.597641	-0.864144	-49.176919
8.550000	-0.458164	125.848948	-43.986295	25.116060	-43.986295	25.116060	-0.893196	-52.957576
8.600000	-0.462405	124.498269	-43.269182	22.605736	-43.269182	22.605736	-0.923152	-56.811746
8.650000	-0.466651	123.142328	-42.596468	20.067136	-42.596468	20.067136	-0.953980	-60.741084
8.700000	-0.470902	121.781085	-41.963636	17.500835	-41.963636	17.500835	-0.985640	-64.747161
8.750000	-0.475156	120.414508	-41.367023	14.907555	-41.367023	14.907555	-1.018078	-68.831434
8.800000	-0.479414	119.042488	-40.803581	12.287841	-40.803581	12.287841	-1.051238	-72.996386
8.850000	-0.483677	117.665079	-40.270945	9.643206	-40.270945	9.643206	-1.085029	-77.242016
8.900000	-0.487943	116.282259	-39.767066	6.975004	-39.767066	6.975004	-1.119361	-81.569242
8.950000	-0.492213	114.894015	-39.290231	4.284836	-39.290231	4.284836	-1.154125	-85.978729
9.000000	-0.496488	113.500336	-38.838998	1.574553	-38.838998	1.574553	-1.189199	-90.470849
9.050000	-0.500766	112.101217	-38.412141	-1.153731	-38.412141	-1.153731	-1.224445	-95.045636
9.100000	-0.505050	110.696659	-38.008611	-3.897648	-38.008611	-3.897648	-1.259710	-99.702740
9.150000	-0.509337	109.286667	-37.627493	-6.654583	-37.627493	-6.654583	-1.294825	-104.441381
9.200000	-0.513630	107.871200	-37.268049	-9.421754	-37.268049	-9.421754	-1.329602	-109.261057
9.250000	-0.517929	106.450302	-36.929544	-12.195983	-36.929544	-12.195983	-1.363845	-114.159550
9.300000	-0.522233	105.024022	-36.611284	-14.973965	-36.611284	-14.973965	-1.397351	-119.134098
9.350000	-0.526543	103.592388	-36.312642	-17.752294	-36.312642	-17.752294	-1.429909	-124.181727
9.400000	-0.530861	102.155437	-36.033022	-20.527450	-36.033022	-20.527450	-1.461304	-129.298832
9.450000	-0.535185	100.713209	-35.771842	-23.295838	-35.771842	-23.295838	-1.491321	-134.481159
9.500000	-0.539518	99.265751	-35.528526	-26.053832	-35.528526	-26.053832	-1.519748	-139.723794
9.550000	-0.543860	97.813118	-35.302498	-28.797820	-35.302498	-28.797820	-1.546387	-145.021174
9.600000	-0.548211	96.355344	-35.093231	-31.524142	-35.093231	-31.524142	-1.571042	-150.367302
9.650000	-0.552573	94.892474	-34.900190	-34.229174	-34.900190	-34.229174	-1.593534	-155.755437
9.700000	-0.556946	93.424630	-34.722658	-36.909772	-34.722658	-36.909772	-1.613744	-161.177745
9.750000	-0.561332	91.951894	-34.560016	-39.562804	-34.560016	-39.562804	-1.631564	-166.626390
9.800000	-0.565731	90.474420	-34.411470	-42.185822	-34.411470	-42.185822	-1.646956	-172.093006
9.850000	-0.570145	88.992146	-34.276753	-44.775073	-34.276753	-44.775073	-1.659798	-177.569482
9.900000	-0.574574	87.505262	-34.155013	-47.328667	-34.155013	-47.328667	-1.670137	176.953235
9.950000	-0.579020	86.013858	-34.045641	-49.844281	-34.045641	-49.844281	-1.678001	171.484004
10.000000	-0.583485	84.518095	-33.947879	-52.320444	-33.947879	-52.320444	-1.683494	166.031391
