! freq	dB(S11)	phase(S11)	dB(S12)	phase(S12)	
!     	dB(S21)	phase(S21)	dB(S22)	phase(S22)	
!S-par simulation data
#  GHz  S  DB  R 50
0.000000	-0.000000	0.000000	-390.713308	180.000000	-390.713308	180.000000	-0.000000	0.000000
0.050000	-0.001064	-1.631370	-107.666634	88.997591	-107.666634	88.997591	-0.000496	-0.775210
0.100000	-0.003578	-3.254582	-101.689097	87.754936	-101.689097	87.754936	-0.001659	-1.546599
0.150000	-0.006443	-4.868733	-98.235441	86.582595	-98.235441	86.582595	-0.002968	-2.313866
0.200000	-0.009082	-6.476691	-95.836738	85.451399	-95.836738	85.451399	-0.004163	-3.078472
0.250000	-0.011444	-8.081624	-94.021002	84.357690	-94.021002	84.357690	-0.005231	-3.841911
0.300000	-0.013580	-9.684719	-92.587511	83.310323	-92.587511	83.310323	-0.006200	-4.604779
0.350000	-0.015576	-11.286598	-91.427538	82.319153	-91.427538	82.319153	-0.007113	-5.367403
0.400000	-0.017501	-12.887408	-90.477893	81.397320	-90.477893	81.397320	-0.008004	-6.129907
0.450000	-0.019401	-14.486956	-89.705579	80.569130	-89.705579	80.569130	-0.008893	-6.892301
0.500000	-0.021304	-16.085167	-89.075088	79.845628	-89.075088	79.845628	-0.009793	-7.654569
0.550000	-0.023221	-17.681817	-88.568166	79.249286	-88.568166	79.249286	-0.010705	-8.416664
0.600000	-0.025157	-19.276670	-88.172260	78.807829	-88.172260	78.807829	-0.011631	-9.178528
0.650000	-0.027109	-20.869488	-87.878800	78.555880	-87.878800	78.555880	-0.012567	-9.940098
0.700000	-0.029076	-22.460037	-87.682083	78.537199	-87.682083	78.537199	-0.013512	-10.701307
0.750000	-0.031054	-24.047920	-87.583998	78.830109	-87.583998	78.830109	-0.014461	-11.462057
0.800000	-0.033037	-25.632904	-87.581440	79.519684	-87.581440	79.519684	-0.015412	-12.222274
0.850000	-0.035022	-27.214830	-87.669392	80.710581	-87.669392	80.710581	-0.016363	-12.981901
0.900000	-0.037003	-28.793731	-87.837931	82.494743	-87.837931	82.494743	-0.017313	-13.740928
0.950000	-0.038979	-30.369245	-88.084496	85.079375	-88.084496	85.079375	-0.018262	-14.499269
1.000000	-0.040947	-31.941196	-88.392789	88.691504	-88.392789	88.691504	-0.019209	-15.256880
1.050000	-0.042905	-33.509422	-88.730638	93.597763	-88.730638	93.597763	-0.020156	-16.013724
1.100000	-0.044851	-35.073775	-89.039974	100.059222	-89.039974	100.059222	-0.021102	-16.769772
1.150000	-0.046785	-36.634117	-89.228603	108.214906	-89.228603	108.214906	-0.022049	-17.524998
1.200000	-0.048707	-38.190324	-89.177442	117.881898	-89.177442	117.881898	-0.022997	-18.279385
1.250000	-0.050615	-39.742280	-88.780822	128.378811	-88.780822	128.378811	-0.023946	-19.032915
1.300000	-0.052510	-41.289688	-87.990110	138.586071	-87.990110	138.586071	-0.024897	-19.785539
1.350000	-0.054392	-42.832640	-86.895230	147.548164	-86.895230	147.548164	-0.025850	-20.537282
1.400000	-0.056262	-44.371049	-85.615763	154.845886	-85.615763	154.845886	-0.026805	-21.288136
1.450000	-0.058119	-45.904836	-84.258678	160.489658	-84.258678	160.489658	-0.027761	-22.038090
1.500000	-0.059966	-47.433932	-82.895950	164.702131	-82.895950	164.702131	-0.028719	-22.787138
1.550000	-0.061801	-48.958272	-81.567969	167.756939	-81.567969	167.756939	-0.029679	-23.535271
1.600000	-0.063626	-50.477795	-80.294043	169.903170	-80.294043	169.903170	-0.030639	-24.282480
1.650000	-0.065442	-51.992450	-79.081313	171.343094	-79.081313	171.343094	-0.031601	-25.028758
1.700000	-0.067248	-53.502186	-77.930500	172.233123	-77.930500	172.233123	-0.032564	-25.774095
1.750000	-0.069045	-55.006961	-76.839195	172.691962	-76.839195	172.691962	-0.033528	-26.518483
1.800000	-0.070835	-56.506734	-75.803639	172.809376	-75.803639	172.809376	-0.034492	-27.261913
1.850000	-0.072617	-58.001471	-74.819644	172.653528	-74.819644	172.653528	-0.035458	-28.004374
1.900000	-0.074392	-59.491141	-73.883049	172.276605	-73.883049	172.276605	-0.036423	-28.745858
1.950000	-0.076161	-60.975716	-72.989932	171.718962	-72.989932	171.718962	-0.037390	-29.486353
2.000000	-0.077925	-62.455174	-72.136698	171.012137	-72.136698	171.012137	-0.038357	-30.225849
2.050000	-0.079684	-63.929495	-71.320095	170.181046	-71.320095	170.181046	-0.039326	-30.964336
2.100000	-0.081440	-65.398662	-70.537203	169.245576	-70.537203	169.245576	-0.040295	-31.701803
2.150000	-0.083192	-66.862665	-69.785411	168.221760	-69.785411	168.221760	-0.041266	-32.438238
2.200000	-0.084941	-68.321493	-69.062383	167.122647	-69.062383	167.122647	-0.042238	-33.173630
2.250000	-0.086689	-69.775143	-68.366029	165.958948	-68.366029	165.958948	-0.043211	-33.907969
2.300000	-0.088435	-71.223613	-67.694478	164.739531	-67.694478	164.739531	-0.044187	-34.641242
2.350000	-0.090182	-72.666904	-67.046046	163.471794	-67.046046	163.471794	-0.045164	-35.373438
2.400000	-0.091929	-74.105022	-66.419220	162.161950	-66.419220	162.161950	-0.046145	-36.104545
2.450000	-0.093677	-75.537976	-65.812633	160.815256	-65.812633	160.815256	-0.047128	-36.834552
2.500000	-0.095428	-76.965777	-65.225046	159.436187	-65.225046	159.436187	-0.048114	-37.563448
2.550000	-0.097182	-78.388219	-64.654492	158.027486	-64.654492	158.027486	-0.049104	-38.291171
2.600000	-0.098940	-79.805546	-64.100892	156.593790	-64.100892	156.593790	-0.050098	-39.017758
2.650000	-0.100702	-81.217779	-63.563301	155.137900	-63.563301	155.137900	-0.051096	-39.743198
2.700000	-0.102471	-82.624945	-63.040854	153.662256	-63.040854	153.662256	-0.052098	-40.467480
2.750000	-0.104245	-84.027071	-62.532758	152.168991	-62.532758	152.168991	-0.053106	-41.190592
2.800000	-0.106027	-85.424191	-62.038283	150.659980	-62.038283	150.659980	-0.054119	-41.912524
2.850000	-0.107817	-86.816340	-61.556760	149.136874	-61.556760	149.136874	-0.055138	-42.633265
2.900000	-0.109616	-88.203555	-61.087568	147.601136	-61.087568	147.601136	-0.056163	-43.352805
2.950000	-0.111425	-89.585877	-60.630133	146.054064	-60.630133	146.054064	-0.057194	-44.071132
3.000000	-0.113245	-90.963351	-60.183923	144.496816	-60.183923	144.496816	-0.058232	-44.788237
3.050000	-0.115076	-92.336024	-59.748445	142.930425	-59.748445	142.930425	-0.059278	-45.504110
3.100000	-0.116919	-93.703944	-59.323237	141.355820	-59.323237	141.355820	-0.060331	-46.218740
3.150000	-0.118775	-95.067165	-58.907871	139.773835	-58.907871	139.773835	-0.061393	-46.932120
3.200000	-0.120646	-96.425741	-58.501946	138.185221	-58.501946	138.185221	-0.062462	-47.644239
3.250000	-0.122530	-97.779731	-58.105087	136.590659	-58.105087	136.590659	-0.063541	-48.355088
3.300000	-0.124431	-99.129194	-57.716941	134.990766	-57.716941	134.990766	-0.064629	-49.064659
3.350000	-0.126348	-100.474193	-57.337179	133.386103	-57.337179	133.386103	-0.065727	-49.772943
3.400000	-0.128281	-101.814792	-56.965491	131.777180	-56.965491	131.777180	-0.066834	-50.479932
3.450000	-0.130233	-103.151060	-56.601584	130.164465	-56.601584	130.164465	-0.067952	-51.185619
3.500000	-0.132203	-104.483066	-56.245183	128.548384	-56.245183	128.548384	-0.069081	-51.889995
3.550000	-0.134192	-105.810882	-55.896028	126.929330	-55.896028	126.929330	-0.070220	-52.593054
3.600000	-0.136201	-107.134582	-55.553873	125.307663	-55.553873	125.307663	-0.071372	-53.294789
3.650000	-0.138231	-108.454242	-55.218486	123.683716	-55.218486	123.683716	-0.072535	-53.995193
3.700000	-0.140283	-109.769940	-54.889647	122.057795	-54.889647	122.057795	-0.073710	-54.694259
3.750000	-0.142356	-111.081756	-54.567146	120.430184	-54.567146	120.430184	-0.074898	-55.391982
3.800000	-0.144454	-112.389611	-54.250553	118.801096	-54.250553	118.801096	-0.076100	-56.088296
3.850000	-0.146575	-113.693757	-53.939932	117.170846	-53.939932	117.170846	-0.077315	-56.783257
3.900000	-0.148720	-114.994280	-53.635103	115.539659	-53.635103	115.539659	-0.078544	-57.476857
3.950000	-0.150889	-116.291268	-53.335894	113.907744	-53.335894	113.907744	-0.079787	-58.169093
4.000000	-0.153085	-117.584809	-53.042139	112.275297	-53.042139	112.275297	-0.081045	-58.859959
4.050000	-0.155306	-118.874995	-52.753684	110.642502	-52.753684	110.642502	-0.082317	-59.549453
4.100000	-0.157553	-120.161917	-52.470378	109.009528	-52.470378	109.009528	-0.083605	-60.237571
4.150000	-0.159828	-121.445668	-52.192078	107.376537	-52.192078	107.376537	-0.084908	-60.924308
4.200000	-0.162131	-122.726344	-51.918647	105.743678	-51.918647	105.743678	-0.086227	-61.609663
4.250000	-0.164461	-124.004041	-51.649956	104.111094	-51.649956	104.111094	-0.087563	-62.293632
4.300000	-0.166821	-125.278857	-51.385877	102.478915	-51.385877	102.478915	-0.088915	-62.976212
4.350000	-0.169210	-126.550890	-51.126292	100.847268	-51.126292	100.847268	-0.090285	-63.657402
4.400000	-0.171628	-127.820240	-50.871085	99.216268	-50.871085	99.216268	-0.091672	-64.337201
4.450000	-0.174077	-129.087009	-50.620145	97.586028	-50.620145	97.586028	-0.093077	-65.015605
4.500000	-0.176556	-130.351299	-50.373367	95.956649	-50.373367	95.956649	-0.094500	-65.692616
4.550000	-0.179067	-131.613212	-50.130647	94.328231	-50.130647	94.328231	-0.095942	-66.368230
4.600000	-0.181609	-132.872854	-49.891888	92.700865	-49.891888	92.700865	-0.097402	-67.042449
4.650000	-0.184183	-134.130329	-49.656995	91.074638	-49.656995	91.074638	-0.098882	-67.715272
4.700000	-0.186789	-135.385744	-49.425878	89.449633	-49.425878	89.449633	-0.100382	-68.386699
4.750000	-0.189428	-136.639207	-49.198448	87.825925	-49.198448	87.825925	-0.101902	-69.056730
4.800000	-0.192100	-137.890824	-48.974621	86.203588	-48.974621	86.203588	-0.103442	-69.725366
4.850000	-0.194805	-139.140704	-48.754316	84.582690	-48.754316	84.582690	-0.105003	-70.392608
4.900000	-0.197544	-140.388958	-48.537454	82.963296	-48.537454	82.963296	-0.106585	-71.058458
4.950000	-0.200316	-141.635696	-48.323960	81.345465	-48.323960	81.345465	-0.108189	-71.722917
5.000000	-0.203123	-142.881028	-48.113760	79.729255	-48.113760	79.729255	-0.109815	-72.385987
5.050000	-0.205966	-144.125015	-47.906711	78.114795	-47.906711	78.114795	-0.111464	-73.047610
5.100000	-0.208843	-145.367830	-47.702825	76.502064	-47.702825	76.502064	-0.113136	-73.707850
5.150000	-0.211755	-146.609588	-47.502036	74.891109	-47.502036	74.891109	-0.114832	-74.366708
5.200000	-0.214702	-147.850401	-47.304281	73.281974	-47.304281	73.281974	-0.116550	-75.024187
5.250000	-0.217684	-149.090383	-47.109498	71.674702	-47.109498	71.674702	-0.118293	-75.680293
5.300000	-0.220702	-150.329649	-46.917628	70.069330	-46.917628	70.069330	-0.120060	-76.335027
5.350000	-0.223754	-151.568314	-46.728613	68.465895	-46.728613	68.465895	-0.121852	-76.988394
5.400000	-0.226843	-152.806493	-46.542397	66.864433	-46.542397	66.864433	-0.123668	-77.640398
5.450000	-0.229967	-154.044304	-46.358928	65.264976	-46.358928	65.264976	-0.125511	-78.291044
5.500000	-0.233126	-155.281861	-46.178154	63.667554	-46.178154	63.667554	-0.127379	-78.940337
5.550000	-0.236321	-156.519281	-46.000025	62.072196	-46.000025	62.072196	-0.129273	-79.588281
5.600000	-0.239552	-157.756682	-45.824493	60.478932	-45.824493	60.478932	-0.131194	-80.234881
5.650000	-0.242818	-158.994181	-45.651511	58.887786	-45.651511	58.887786	-0.133142	-80.880144
5.700000	-0.246119	-160.231895	-45.481035	57.298783	-45.481035	57.298783	-0.135118	-81.524075
5.750000	-0.249456	-161.469943	-45.313021	55.711949	-45.313021	55.711949	-0.137121	-82.166679
5.800000	-0.252829	-162.708442	-45.147428	54.127305	-45.147428	54.127305	-0.139153	-82.807965
5.850000	-0.256236	-163.947510	-44.984216	52.544876	-44.984216	52.544876	-0.141213	-83.447937
5.900000	-0.259679	-165.187267	-44.823346	50.964683	-44.823346	50.964683	-0.143303	-84.086602
5.950000	-0.263156	-166.427829	-44.664781	49.386747	-44.664781	49.386747	-0.145421	-84.723969
6.000000	-0.266669	-167.669317	-44.508485	47.811090	-44.508485	47.811090	-0.147570	-85.360043
6.050000	-0.270215	-168.911848	-44.354424	46.237734	-44.354424	46.237734	-0.149749	-85.994833
6.100000	-0.273796	-170.155541	-44.202563	44.666701	-44.202563	44.666701	-0.151958	-86.628345
6.150000	-0.277411	-171.400514	-44.052871	43.098013	-44.052871	43.098013	-0.154198	-87.260589
6.200000	-0.281060	-172.646887	-43.905318	41.531692	-43.905318	41.531692	-0.156470	-87.891572
6.250000	-0.284742	-173.894778	-43.759873	39.967762	-43.759873	39.967762	-0.158774	-88.521303
6.300000	-0.288458	-175.144381	-43.616497	38.406352	-43.616497	38.406352	-0.161111	-89.149737
6.350000	-0.292207	-176.395748	-43.475176	36.847385	-43.475176	36.847385	-0.163480	-89.776936
6.400000	-0.295988	-177.648998	-43.335886	35.290886	-43.335886	35.290886	-0.165883	-90.402910
6.450000	-0.299800	-178.904248	-43.198600	33.736884	-43.198600	33.736884	-0.168319	-91.027669
6.500000	-0.303644	179.838385	-43.063294	32.185408	-43.063294	32.185408	-0.170789	-91.651222
6.550000	-0.307519	178.578784	-42.929945	30.636489	-42.929945	30.636489	-0.173293	-92.273578
6.600000	-0.311425	177.316833	-42.798531	29.090159	-42.798531	29.090159	-0.175832	-92.894747
6.650000	-0.315360	176.052416	-42.669028	27.546454	-42.669028	27.546454	-0.178406	-93.514741
6.700000	-0.319324	174.785417	-42.541418	26.005410	-42.541418	26.005410	-0.181015	-94.133568
6.750000	-0.323317	173.515722	-42.415680	24.467067	-42.415680	24.467067	-0.183659	-94.751240
6.800000	-0.327339	172.243216	-42.291794	22.931465	-42.291794	22.931465	-0.186340	-95.367767
6.850000	-0.331387	170.967787	-42.169742	21.398648	-42.169742	21.398648	-0.189058	-95.983160
6.900000	-0.335463	169.689321	-42.049507	19.868664	-42.049507	19.868664	-0.191812	-96.597431
6.950000	-0.339565	168.407708	-41.931071	18.341561	-41.931071	18.341561	-0.194603	-97.210590
7.000000	-0.343692	167.122836	-41.814418	16.817391	-41.814418	16.817391	-0.197432	-97.822650
7.050000	-0.347844	165.834596	-41.699531	15.296208	-41.699531	15.296208	-0.200300	-98.433621
7.100000	-0.352020	164.542878	-41.586396	13.778071	-41.586396	13.778071	-0.203205	-99.043517
7.150000	-0.356220	163.247576	-41.474997	12.263040	-41.474997	12.263040	-0.206150	-99.652348
7.200000	-0.360442	161.948584	-41.365319	10.751179	-41.365319	10.751179	-0.209133	-100.260128
7.250000	-0.364686	160.645795	-41.257349	9.242554	-41.257349	9.242554	-0.212156	-100.866869
7.300000	-0.368950	159.339108	-41.151073	7.737235	-41.151073	7.737235	-0.215219	-101.472583
7.350000	-0.373235	158.028420	-41.046477	6.235296	-41.046477	6.235296	-0.218322	-102.077283
7.400000	-0.377539	156.713631	-40.943548	4.736812	-40.943548	4.736812	-0.221465	-102.680983
7.450000	-0.381861	155.394641	-40.842273	3.241863	-40.842273	3.241863	-0.224650	-103.283695
7.500000	-0.386201	154.071356	-40.742640	1.750531	-40.742640	1.750531	-0.227875	-103.885433
7.550000	-0.390557	152.743484	-40.644658	0.263068	-40.644658	0.263068	-0.231145	-104.486169
7.600000	-0.394929	151.411120	-40.548294	-1.220596	-40.548294	-1.220596	-0.234456	-105.085960
7.650000	-0.399316	150.074174	-40.453536	-2.700367	-40.453536	-2.700367	-0.237809	-105.684820
7.700000	-0.403717	148.732559	-40.360370	-4.176152	-40.360370	-4.176152	-0.241205	-106.282762
7.750000	-0.408130	147.386187	-40.268785	-5.647852	-40.268785	-5.647852	-0.244644	-106.879801
7.800000	-0.412555	146.034978	-40.178768	-7.115367	-40.178768	-7.115367	-0.248127	-107.475952
7.850000	-0.416990	144.678851	-40.090306	-8.578592	-40.090306	-8.578592	-0.251653	-108.071229
7.900000	-0.421435	143.317728	-40.003386	-10.037423	-40.003386	-10.037423	-0.255223	-108.665648
7.950000	-0.425889	141.951535	-39.917995	-11.491752	-39.917995	-11.491752	-0.258837	-109.259222
8.000000	-0.430351	140.580202	-39.834120	-12.941466	-39.834120	-12.941466	-0.262496	-109.851968
8.050000	-0.434819	139.203660	-39.751748	-14.386455	-39.751748	-14.386455	-0.266199	-110.443901
8.100000	-0.439293	137.821845	-39.670864	-15.826602	-39.670864	-15.826602	-0.269948	-111.035037
8.150000	-0.443772	136.434697	-39.591456	-17.261793	-39.591456	-17.261793	-0.273742	-111.625391
8.200000	-0.448255	135.042157	-39.513507	-18.691907	-39.513507	-18.691907	-0.277582	-112.214979
8.250000	-0.452740	133.644173	-39.437005	-20.116826	-39.437005	-20.116826	-0.281468	-112.803817
8.300000	-0.457227	132.240695	-39.361934	-21.536429	-39.361934	-21.536429	-0.285400	-113.391923
8.350000	-0.461714	130.831679	-39.288279	-22.950594	-39.288279	-22.950594	-0.289378	-113.979312
8.400000	-0.466202	129.417085	-39.216024	-24.359197	-39.216024	-24.359197	-0.293404	-114.566001
8.450000	-0.470688	127.996874	-39.145153	-25.762116	-39.145153	-25.762116	-0.297476	-115.152007
8.500000	-0.475172	126.571018	-39.075649	-27.159225	-39.075649	-27.159225	-0.301596	-115.737348
8.550000	-0.479653	125.139488	-39.007496	-28.550401	-39.007496	-28.550401	-0.305763	-116.322040
8.600000	-0.484131	123.702263	-38.940676	-29.935520	-38.940676	-29.935520	-0.309978	-116.906101
8.650000	-0.488603	122.259327	-38.875172	-31.314455	-38.875172	-31.314455	-0.314240	-117.489548
8.700000	-0.493070	120.810669	-38.810964	-32.687085	-38.810964	-32.687085	-0.318551	-118.072401
8.750000	-0.497531	119.356283	-38.748036	-34.053284	-38.748036	-34.053284	-0.322911	-118.654676
8.800000	-0.501984	117.895920	-38.686401	-35.412641	-38.686401	-35.412641	-0.327320	-119.236369
8.850000	-0.506428	116.429837	-38.626006	-36.765312	-38.626006	-36.765312	-0.331779	-119.817523
8.900000	-0.510865	114.958046	-38.566830	-38.111178	-38.566830	-38.111178	-0.336286	-120.398157
8.950000	-0.515292	113.480565	-38.508852	-39.450120	-38.508852	-39.450120	-0.340843	-120.978290
9.000000	-0.519709	111.997421	-38.452051	-40.782021	-38.452051	-40.782021	-0.345449	-121.557941
9.050000	-0.524116	110.508644	-38.396406	-42.106764	-38.396406	-42.106764	-0.350104	-122.137130
9.100000	-0.528511	109.014273	-38.341894	-43.424236	-38.341894	-43.424236	-0.354809	-122.715876
9.150000	-0.532896	107.514353	-38.288494	-44.734327	-38.288494	-44.734327	-0.359563	-123.294200
9.200000	-0.537269	106.008935	-38.236182	-46.036926	-38.236182	-46.036926	-0.364367	-123.872120
9.250000	-0.541629	104.498077	-38.184936	-47.331928	-38.184936	-47.331928	-0.369221	-124.449658
9.300000	-0.545977	102.981846	-38.134731	-48.619229	-38.134731	-48.619229	-0.374125	-125.026834
9.350000	-0.550313	101.460314	-38.085543	-49.898726	-38.085543	-49.898726	-0.379079	-125.603668
9.400000	-0.554636	99.933560	-38.037350	-51.170322	-38.037350	-51.170322	-0.384084	-126.180183
9.450000	-0.558947	98.401673	-37.990125	-52.433921	-37.990125	-52.433921	-0.389138	-126.756398
9.500000	-0.563245	96.864746	-37.943844	-53.689431	-37.943844	-53.689431	-0.394242	-127.332336
9.550000	-0.567530	95.322881	-37.898483	-54.936763	-37.898483	-54.936763	-0.399397	-127.908018
9.600000	-0.571803	93.776188	-37.854015	-56.175831	-37.854015	-56.175831	-0.404602	-128.483466
9.650000	-0.576064	92.224784	-37.810415	-57.406553	-37.810415	-57.406553	-0.409858	-129.058703
9.700000	-0.580313	90.668791	-37.767657	-58.628850	-37.767657	-58.628850	-0.415164	-129.633751
9.750000	-0.584551	89.108343	-37.725715	-59.842646	-37.725715	-59.842646	-0.420520	-130.208633
9.800000	-0.588778	87.543578	-37.684564	-61.047868	-37.684564	-61.047868	-0.425926	-130.783371
9.850000	-0.592995	85.974643	-37.644176	-62.244450	-37.644176	-62.244450	-0.431382	-131.357991
9.900000	-0.597202	84.401691	-37.604526	-63.432325	-37.604526	-63.432325	-0.436889	-131.932514
9.950000	-0.601401	82.824883	-37.565586	-64.611433	-37.565586	-64.611433	-0.442446	-132.506965
10.000000	-0.605592	81.244388	-37.527331	-65.781715	-37.527331	-65.781715	-0.448052	-133.081368
