! freq	dB(S11)	phase(S11)	dB(S12)	phase(S12)	
!     	dB(S21)	phase(S21)	dB(S22)	phase(S22)	
!S-par simulation data
#  GHz  S  DB  R 50
0.000000	-86.980530	0.000000	-0.000389	0.000000	-0.000389	0.000000	-86.980530	0.000000
0.050000	-33.449022	-92.939465	-0.007691	-2.805723	-0.007691	-2.805723	-33.447036	-92.507536
0.100000	-27.464728	-96.075223	-0.018300	-5.566586	-0.018300	-5.566586	-27.462717	-95.216766
0.150000	-23.989990	-99.170214	-0.030980	-8.320930	-0.030980	-8.320930	-23.987405	-97.888240
0.200000	-21.542035	-102.232856	-0.047284	-11.071694	-0.047284	-11.071694	-21.538639	-100.527067
0.250000	-19.655427	-105.259986	-0.067541	-13.815293	-0.067541	-13.815293	-19.651312	-103.129177
0.300000	-18.125012	-108.252647	-0.091784	-16.547240	-0.091784	-16.547240	-18.120364	-105.695590
0.350000	-16.841167	-111.216366	-0.119527	-19.264469	-0.119527	-19.264469	-16.836150	-108.231886
0.400000	-15.739973	-114.154416	-0.150375	-21.964544	-0.150375	-21.964544	-15.734704	-110.741138
0.450000	-14.779151	-117.070810	-0.183781	-24.647908	-0.183781	-24.647908	-14.773698	-113.227169
0.500000	-13.930836	-119.966889	-0.219554	-27.314605	-0.219554	-27.314605	-13.925240	-115.690991
0.550000	-13.174295	-122.844201	-0.257530	-29.965281	-0.257530	-29.965281	-13.168575	-118.133913
0.600000	-12.494699	-125.702989	-0.297671	-32.599395	-0.297671	-32.599395	-12.488863	-120.555869
0.650000	-11.880370	-128.543549	-0.339877	-35.216349	-0.339877	-35.216349	-11.874420	-122.956910
0.700000	-11.322265	-131.365846	-0.384014	-37.815266	-0.384014	-37.815266	-11.316201	-125.336741
0.750000	-10.813264	-134.169622	-0.429923	-40.395161	-0.429923	-40.395161	-10.807082	-127.694824
0.800000	-10.347242	-136.955016	-0.477382	-42.955608	-0.477382	-42.955608	-10.340936	-130.031091
0.850000	-9.919668	-139.721518	-0.526197	-45.495617	-0.526197	-45.495617	-9.913233	-132.344695
0.900000	-9.526023	-142.469648	-0.576113	-48.015414	-0.576113	-48.015414	-9.519454	-134.636007
0.950000	-9.163387	-145.198770	-0.626926	-50.514024	-0.626926	-50.514024	-9.156677	-136.903973
1.000000	-8.828275	-147.909725	-0.678386	-52.992163	-0.678386	-52.992163	-8.821418	-139.149324
1.050000	-8.518566	-150.602173	-0.730278	-55.449246	-0.730278	-55.449246	-8.511554	-141.371297
1.100000	-8.231717	-153.276898	-0.782382	-57.885976	-0.782382	-57.885976	-8.224542	-143.570511
1.150000	-7.966005	-155.934016	-0.834484	-60.302294	-0.834484	-60.302294	-7.958660	-145.746701
1.200000	-7.719598	-158.574213	-0.886385	-62.698797	-0.886385	-62.698797	-7.712074	-147.900306
1.250000	-7.491012	-161.198035	-0.937892	-65.075907	-0.937892	-65.075907	-7.483300	-150.031550
1.300000	-7.278951	-163.806075	-0.988818	-67.434088	-0.988818	-67.434088	-7.271040	-152.140677
1.350000	-7.082130	-166.399186	-1.038999	-69.774097	-1.038999	-69.774097	-7.074010	-154.228257
1.400000	-6.899704	-168.977834	-1.088243	-72.096199	-1.088243	-72.096199	-6.891362	-156.294256
1.450000	-6.730434	-171.543262	-1.136429	-74.401592	-1.136429	-74.401592	-6.721858	-158.339740
1.500000	-6.573287	-174.096562	-1.183449	-76.691309	-1.183449	-76.691309	-6.564464	-160.365603
1.550000	-6.427594	-176.638486	-1.229166	-78.965925	-1.229166	-78.965925	-6.418510	-162.372165
1.600000	-6.293227	-179.169316	-1.273339	-81.225290	-1.273339	-81.225290	-6.283865	-164.358720
1.650000	-6.168847	178.309082	-1.315993	-83.471424	-1.315993	-83.471424	-6.159190	-166.327414
1.700000	-6.053935	175.795795	-1.357025	-85.705055	-1.357025	-85.705055	-6.043965	-168.278723
1.750000	-5.948173	173.289989	-1.396294	-87.926721	-1.396294	-87.926721	-5.937871	-170.212806
1.800000	-5.851002	170.790503	-1.433739	-90.137432	-1.433739	-90.137432	-5.840345	-172.130474
1.850000	-5.761982	168.296241	-1.469287	-92.338080	-1.469287	-92.338080	-5.750949	-174.032363
1.900000	-5.680788	165.806125	-1.502852	-94.529474	-1.502852	-94.529474	-5.669355	-175.918953
1.950000	-5.607051	163.318994	-1.534378	-96.712541	-1.534378	-96.712541	-5.595191	-177.790893
2.000000	-5.540369	160.833669	-1.563841	-98.888277	-1.563841	-98.888277	-5.528055	-179.648965
2.050000	-5.480446	158.349010	-1.591202	-101.057571	-1.591202	-101.057571	-5.467648	178.506225
2.100000	-5.427012	155.863868	-1.616429	-103.221310	-1.616429	-103.221310	-5.413700	176.674088
2.150000	-5.379826	153.377090	-1.639496	-105.380371	-1.639496	-105.380371	-5.365966	174.854053
2.200000	-5.338670	150.887517	-1.660385	-107.535623	-1.660385	-107.535623	-5.324225	173.045570
2.250000	-5.303348	148.393988	-1.679084	-109.687925	-1.679084	-109.687925	-5.288281	171.248110
2.300000	-5.273685	145.895335	-1.695587	-111.838125	-1.695587	-111.838125	-5.257955	169.461172
2.350000	-5.249524	143.390393	-1.709893	-113.987056	-1.709893	-113.987056	-5.233088	167.684279
2.400000	-5.230728	140.877989	-1.722008	-116.135541	-1.722008	-116.135541	-5.213540	165.916984
2.450000	-5.217176	138.356949	-1.731942	-118.284387	-1.731942	-118.284387	-5.199186	164.158873
2.500000	-5.208762	135.826099	-1.739713	-120.434387	-1.739713	-120.434387	-5.189917	162.409563
2.550000	-5.205502	133.283992	-1.745295	-122.586379	-1.745295	-122.586379	-5.185746	160.668883
2.600000	-5.207210	130.729661	-1.748762	-124.741097	-1.748762	-124.741097	-5.186482	158.936333
2.650000	-5.213820	128.161919	-1.750146	-126.899283	-1.750146	-126.899283	-5.192055	157.211646
2.700000	-5.225282	125.579578	-1.749483	-129.061663	-1.749483	-129.061663	-5.202411	155.494594
2.750000	-5.241553	122.981447	-1.746813	-131.228941	-1.746813	-131.228941	-5.217502	153.784995
2.800000	-5.262604	120.366328	-1.742182	-133.401805	-1.742182	-133.401805	-5.237294	152.082711
2.850000	-5.288415	117.733019	-1.735638	-135.580921	-1.735638	-135.580921	-5.261760	150.387653
2.900000	-5.318974	115.080312	-1.727237	-137.766933	-1.727237	-137.766933	-5.290882	148.699783
2.950000	-5.354278	112.406994	-1.717035	-139.960465	-1.717035	-139.960465	-5.324649	147.019116
3.000000	-5.394333	109.711844	-1.705094	-142.162117	-1.705094	-142.162117	-5.363061	145.345724
3.050000	-5.439150	106.993633	-1.691480	-144.372463	-1.691480	-144.372463	-5.406119	143.679735
3.100000	-5.488748	104.251122	-1.676263	-146.592056	-1.676263	-146.592056	-5.453834	142.021341
3.150000	-5.543200	101.482775	-1.659500	-148.821529	-1.659500	-148.821529	-5.506268	140.370887
3.200000	-5.602534	98.687289	-1.641269	-151.061397	-1.641269	-151.061397	-5.563436	138.728710
3.250000	-5.666736	95.863672	-1.621668	-153.312019	-1.621668	-153.312019	-5.625314	137.095122
3.300000	-5.735843	93.010642	-1.600780	-155.573830	-1.600780	-155.573830	-5.691925	135.470596
3.350000	-5.809895	90.126904	-1.578691	-157.847234	-1.578691	-157.847234	-5.763295	133.855682
3.400000	-5.888933	87.211145	-1.555491	-160.132604	-1.555491	-160.132604	-5.839449	132.251009
3.450000	-5.973001	84.262038	-1.531272	-162.430276	-1.531272	-162.430276	-5.920412	130.657287
3.500000	-6.062139	81.278241	-1.506126	-164.740553	-1.506126	-164.740553	-6.006208	129.075316
3.550000	-6.156390	78.258388	-1.480151	-167.063700	-1.480151	-167.063700	-6.096857	127.505979
3.600000	-6.255790	75.201099	-1.453444	-169.399947	-1.453444	-169.399947	-6.192373	125.950253
3.650000	-6.360375	72.104968	-1.426104	-171.749483	-1.426104	-171.749483	-6.292766	124.409204
3.700000	-6.470172	68.968572	-1.398232	-174.112457	-1.398232	-174.112457	-6.398038	122.883995
3.750000	-6.585203	65.790460	-1.369929	-176.488980	-1.369929	-176.488980	-6.508180	121.375879
3.800000	-6.705557	62.568188	-1.341288	-178.879415	-1.341288	-178.879415	-6.623244	119.886642
3.850000	-6.831151	59.301163	-1.312424	178.716507	-1.312424	178.716507	-6.743117	118.417361
3.900000	-6.961972	55.987864	-1.283437	176.298806	-1.283437	176.298806	-6.867752	116.969575
3.950000	-7.097994	52.626746	-1.254426	173.867542	-1.254426	173.867542	-6.997078	115.544914
4.000000	-7.239169	49.216241	-1.225491	171.422818	-1.225491	171.422818	-7.131008	114.145085
4.050000	-7.385431	45.754763	-1.196728	168.964778	-1.196728	168.964778	-7.269430	112.771872
4.100000	-7.536692	42.240710	-1.168231	166.493608	-1.168231	166.493608	-7.412207	111.427127
4.150000	-7.692835	38.672472	-1.140093	164.009534	-1.140093	164.009534	-7.559171	110.112752
4.200000	-7.853715	35.048431	-1.112401	161.512819	-1.112401	161.512819	-7.710124	108.830690
4.250000	-8.019155	31.366980	-1.085241	159.003767	-1.085241	159.003767	-7.864834	107.582906
4.300000	-8.188942	27.626527	-1.058692	156.482712	-1.058692	156.482712	-8.023031	106.371363
4.350000	-8.362822	23.825516	-1.032830	153.950027	-1.032830	153.950027	-8.184403	105.198001
4.400000	-8.540498	19.961751	-1.007736	151.405995	-1.007736	151.405995	-8.348591	104.065160
4.450000	-8.721610	16.033757	-0.983476	148.851063	-0.983476	148.851063	-8.515177	102.974691
4.500000	-8.905761	12.040891	-0.960104	146.285807	-0.960104	146.285807	-8.683719	101.927814
4.550000	-9.092507	7.981976	-0.937671	143.710709	-0.937671	143.710709	-8.853723	100.926010
4.600000	-9.281347	3.856009	-0.916227	141.126263	-0.916227	141.126263	-9.024646	99.970538
4.650000	-9.471727	-0.337790	-0.895811	138.532984	-0.895811	138.532984	-9.195902	99.062380
4.700000	-9.663035	-4.599930	-0.876458	135.931394	-0.876458	135.931394	-9.366859	98.202188
4.750000	-9.854605	-8.930597	-0.858196	133.322024	-0.858196	133.322024	-9.536842	97.390231
4.800000	-10.045718	-13.329594	-0.841045	130.705409	-0.841045	130.705409	-9.705143	96.626331
4.850000	-10.235603	-17.796278	-0.825020	128.082084	-0.825020	128.082084	-9.871025	95.909814
4.900000	-10.423447	-22.329501	-0.810129	125.452580	-0.810129	125.452580	-10.033728	95.239457
4.950000	-10.608401	-26.927550	-0.796372	122.817421	-0.796372	122.817421	-10.192486	94.613441
5.000000	-10.789592	-31.588085	-0.783745	120.177120	-0.783745	120.177120	-10.346532	94.029322
5.050000	-10.965935	-36.309303	-0.772260	117.532083	-0.772260	117.532083	-10.494931	93.484760
5.100000	-11.136713	-41.086067	-0.761874	114.882902	-0.761874	114.882902	-10.637132	92.975044
5.150000	-11.301066	-45.913873	-0.752565	112.230034	-0.752565	112.230034	-10.772471	92.495735
5.200000	-11.458172	-50.787482	-0.744305	109.573912	-0.744305	109.573912	-10.900347	92.041787
5.250000	-11.607264	-55.700945	-0.737061	106.914945	-0.737061	106.914945	-11.020238	91.607600
5.300000	-11.747657	-60.647651	-0.730795	104.253509	-0.730795	104.253509	-11.131716	91.187098
5.350000	-11.878760	-65.620403	-0.725467	101.589953	-0.725467	101.589953	-11.234454	90.773818
5.400000	-12.000094	-70.611510	-0.721031	98.924592	-0.721031	98.924592	-11.328241	90.361016
5.450000	-12.111305	-75.612912	-0.717440	96.257707	-0.717440	96.257707	-11.412984	89.941789
5.500000	-12.212177	-80.616316	-0.714644	93.589546	-0.714644	93.589546	-11.488708	89.509191
5.550000	-12.302635	-85.613340	-0.712590	90.920320	-0.712590	90.920320	-11.555558	89.056358
5.600000	-12.382747	-90.595671	-0.711225	88.250204	-0.711225	88.250204	-11.613794	88.576621
5.650000	-12.452606	-95.554873	-0.710500	85.579331	-0.710500	85.579331	-11.663689	88.063186
5.700000	-12.512569	-100.482954	-0.710358	82.907807	-0.710358	82.907807	-11.705721	87.509890
5.750000	-12.563214	-105.372933	-0.710736	80.235704	-0.710736	80.235704	-11.740523	86.911618
5.800000	-12.605103	-110.218161	-0.711577	77.563051	-0.711577	77.563051	-11.768697	86.263407
5.850000	-12.638881	-115.012644	-0.712828	74.889845	-0.712828	74.889845	-11.790897	85.560843
5.900000	-12.665259	-119.751090	-0.714433	72.216045	-0.714433	72.216045	-11.807807	84.800064
5.950000	-12.684995	-124.428919	-0.716341	69.541581	-0.716341	69.541581	-11.820134	83.977754
6.000000	-12.698875	-129.042271	-0.718499	66.866350	-0.718499	66.866350	-11.828590	83.091119
6.050000	-12.707696	-133.587972	-0.720859	64.190219	-0.720859	64.190219	-11.833884	82.137857
6.100000	-12.712253	-138.063495	-0.723373	61.513025	-0.723373	61.513025	-11.836708	81.116106
6.150000	-12.713324	-142.466906	-0.725997	58.834579	-0.725997	58.834579	-11.837733	80.024396
6.200000	-12.711657	-146.796797	-0.728688	56.154665	-0.728688	56.154665	-11.837597	78.861597
6.250000	-12.707969	-151.052221	-0.731408	53.473043	-0.731408	53.473043	-11.836909	77.626861
6.300000	-12.702917	-155.230978	-0.734119	50.789400	-0.734119	50.789400	-11.836248	76.317974
6.350000	-12.697165	-159.334457	-0.736787	48.103486	-0.736787	48.103486	-11.836151	74.936058
6.400000	-12.691285	-163.362668	-0.739384	45.414995	-0.739384	45.414995	-11.837104	73.480785
6.450000	-12.685796	-167.315792	-0.741883	42.723601	-0.741883	42.723601	-11.839546	71.951890
6.500000	-12.681164	-171.194123	-0.744260	40.028962	-0.744260	40.028962	-11.843881	70.349133
6.550000	-12.677803	-174.998009	-0.746498	37.330718	-0.746498	37.330718	-11.850467	68.672254
6.600000	-12.676073	-178.727808	-0.748581	34.628497	-0.748581	34.628497	-11.859626	66.920939
6.650000	-12.676286	177.616162	-0.750496	31.921911	-0.750496	31.921911	-11.871640	65.094784
6.700000	-12.678701	174.033660	-0.752236	29.210561	-0.752236	29.210561	-11.886756	63.193267
6.750000	-12.683530	170.524555	-0.753796	26.494035	-0.753796	26.494035	-11.905182	61.215719
6.800000	-12.690935	167.088857	-0.755175	23.771913	-0.755175	23.771913	-11.927092	59.161304
6.850000	-12.701030	163.726744	-0.756377	21.043761	-0.756377	21.043761	-11.952625	57.028992
6.900000	-12.713912	160.439385	-0.757406	18.309067	-0.757406	18.309067	-11.981926	54.816668
6.950000	-12.729596	157.227371	-0.758275	15.567364	-0.758275	15.567364	-12.015064	52.522803
7.000000	-12.748016	154.090691	-0.758998	12.818267	-0.758998	12.818267	-12.052027	50.146527
7.050000	-12.769084	151.030358	-0.759596	10.061312	-0.759596	10.061312	-12.092809	47.685849
7.100000	-12.792655	148.047606	-0.760091	7.296029	-0.760091	7.296029	-12.137360	45.138512
7.150000	-12.818529	145.143890	-0.760508	4.521941	-0.760508	4.521941	-12.185586	42.501978
7.200000	-12.846442	142.320869	-0.760879	1.738566	-0.760879	1.738566	-12.237348	39.773426
7.250000	-12.876062	139.580396	-0.761237	-1.054584	-0.761237	-1.054584	-12.292451	36.949753
7.300000	-12.906985	136.924483	-0.761622	-3.858003	-0.761622	-3.858003	-12.350642	34.027572
7.350000	-12.938729	134.355273	-0.762075	-6.672190	-0.762075	-6.672190	-12.411604	31.003230
7.400000	-12.970725	131.874985	-0.762645	-9.497649	-0.762645	-9.497649	-12.474942	27.872821
7.450000	-13.002312	129.485853	-0.763381	-12.334890	-0.763381	-12.334890	-12.540181	24.632216
7.500000	-13.032731	127.190052	-0.764340	-15.184427	-0.764340	-15.184427	-12.606752	21.277109
7.550000	-13.061051	124.991711	-0.765592	-18.047069	-0.765592	-18.047069	-12.673965	17.800380
7.600000	-13.086319	122.890523	-0.767195	-20.923074	-0.767195	-20.923074	-12.741006	14.200043
7.650000	-13.107445	120.887792	-0.769223	-23.812970	-0.769223	-23.812970	-12.806953	10.471691
7.700000	-13.123230	118.984252	-0.771752	-26.717288	-0.771752	-26.717288	-12.870743	6.611113
7.750000	-13.132370	117.179900	-0.774864	-29.636563	-0.774864	-29.636563	-12.931174	2.614449
7.800000	-13.133468	115.473814	-0.778647	-32.571334	-0.778647	-32.571334	-12.986889	-1.521617
7.850000	-13.125050	113.863973	-0.783197	-35.522139	-0.783197	-35.522139	-13.036383	-5.799646
7.900000	-13.105592	112.347077	-0.788616	-38.489517	-0.788616	-38.489517	-13.078006	-10.221190
7.950000	-13.073549	110.918395	-0.795012	-41.474009	-0.795012	-41.474009	-13.109981	-14.786537
8.000000	-13.027397	109.571639	-0.802502	-44.476148	-0.802502	-44.476148	-13.130424	-19.494432
8.050000	-12.965675	108.298895	-0.811211	-47.496466	-0.811211	-47.496466	-13.137384	-24.341822
8.100000	-12.887042	107.090620	-0.821271	-50.535487	-0.821271	-50.535487	-13.128890	-29.323618
8.150000	-12.790104	105.936154	-0.832842	-53.593939	-0.832842	-53.593939	-13.102803	-34.433810
8.200000	-12.673870	104.822544	-0.846082	-56.672336	-0.846082	-56.672336	-13.057243	-39.662419
8.250000	-12.537878	103.735522	-0.861135	-59.770949	-0.861135	-59.770949	-12.990784	-44.996093
8.300000	-12.381770	102.660632	-0.878175	-62.890236	-0.878175	-62.890236	-12.902083	-50.420812
8.350000	-12.205287	101.582869	-0.897407	-66.030832	-0.897407	-66.030832	-12.789898	-55.921385
8.400000	-12.009383	100.487858	-0.918963	-69.192552	-0.918963	-69.192552	-12.654326	-61.479128
8.450000	-11.794853	99.362397	-0.943021	-72.375603	-0.943021	-72.375603	-12.495430	-67.077244
8.500000	-11.560703	98.189163	-0.970019	-75.582080	-0.970019	-75.582080	-12.311332	-72.699415
8.550000	-11.309845	96.958588	-1.000008	-78.810695	-1.000008	-78.810695	-12.104685	-78.325976
8.600000	-11.043963	95.661302	-1.033180	-82.061379	-1.033180	-82.061379	-11.876981	-83.941715
8.650000	-10.764215	94.287217	-1.069840	-85.334666	-1.069840	-85.334666	-11.629244	-89.532214
8.700000	-10.471222	92.824017	-1.110457	-88.631807	-1.110457	-88.631807	-11.361959	-95.081894
8.750000	-10.168372	91.272292	-1.155045	-91.951089	-1.155045	-91.951089	-11.079079	-100.582920
8.800000	-9.857610	89.629515	-1.203824	-95.292119	-1.203824	-95.292119	-10.782955	-106.028216
8.850000	-9.539469	87.886767	-1.257379	-98.656152	-1.257379	-98.656152	-10.474271	-111.407152
8.900000	-9.216413	86.046618	-1.315863	-102.041973	-1.315863	-102.041973	-10.156135	-116.717550
8.950000	-8.889978	84.108504	-1.379634	-105.449266	-1.379634	-105.449266	-9.830555	-121.956153
9.000000	-8.562014	82.075608	-1.448924	-108.876997	-1.448924	-108.876997	-9.499948	-127.123178
9.050000	-8.233688	79.948037	-1.524180	-112.324846	-1.524180	-112.324846	-9.165878	-132.217053
9.100000	-7.906745	77.731869	-1.605553	-115.791242	-1.605553	-115.791242	-8.830639	-137.241200
9.150000	-7.582058	75.427632	-1.693576	-119.275741	-1.693576	-119.275741	-8.495396	-142.194896
9.200000	-7.261111	73.042751	-1.788353	-122.776432	-1.788353	-122.776432	-8.162097	-147.083034
9.250000	-6.944698	70.579538	-1.890371	-126.292352	-1.890371	-126.292352	-7.831770	-151.906355
9.300000	-6.633884	68.044612	-1.999800	-129.821599	-1.999800	-129.821599	-7.505805	-156.669066
9.350000	-6.329403	65.442066	-2.117026	-133.362640	-2.117026	-133.362640	-7.185125	-161.373105
9.400000	-6.032000	62.777647	-2.242282	-136.913535	-2.242282	-136.913535	-6.870681	-166.021650
9.450000	-5.742291	60.056659	-2.375836	-140.472317	-2.375836	-140.472317	-6.563242	-170.617295
9.500000	-5.460796	57.284044	-2.517985	-144.036956	-2.517985	-144.036956	-6.263440	-175.162083
9.550000	-5.187968	54.465795	-2.668869	-147.605235	-2.668869	-147.605235	-5.971857	-179.658941
9.600000	-4.924184	51.606189	-2.828839	-151.174989	-2.828839	-151.174989	-5.688916	175.891186
9.650000	-4.669700	48.711450	-2.997912	-154.743970	-2.997912	-154.743970	-5.414989	171.485187
9.700000	-4.424818	45.785356	-3.176487	-158.309846	-3.176487	-158.309846	-5.150381	167.123097
9.750000	-4.189643	42.833568	-3.364569	-161.870446	-3.364569	-161.870446	-4.895291	162.802389
9.800000	-3.964274	39.860596	-3.562326	-165.423605	-3.562326	-165.423605	-4.649868	158.521949
9.850000	-3.748763	36.870796	-3.769909	-168.967227	-3.769909	-168.967227	-4.414216	154.280760
9.900000	-3.543103	33.868347	-3.987455	-172.499331	-3.987455	-172.499331	-4.188392	150.077842
9.950000	-3.347246	30.857190	-4.215101	-176.018073	-4.215101	-176.018073	-3.972422	145.912309
10.000000	-3.161105	27.841011	-4.452994	-179.521767	-4.452994	-179.521767	-3.766303	141.783359
