! freq	dB(S11)	phase(S11)	dB(S12)	phase(S12)	
!     	dB(S21)	phase(S21)	dB(S22)	phase(S22)	
!S-par simulation data
#  GHz  S  DB  R 50
0.000000	-0.000000	0.000000	-373.137872	0.000000	-373.137872	0.000000	-0.000000	0.000000
0.050000	-0.000103	-0.762123	-117.929908	87.073355	-117.929908	87.073355	-0.000103	-0.762092
0.100000	-0.000406	-1.523987	-112.222761	85.736321	-112.222761	85.736321	-0.000407	-1.523924
0.150000	-0.000900	-2.285335	-108.975407	85.245900	-108.975407	85.245900	-0.000902	-2.285238
0.200000	-0.001553	-3.046019	-106.713521	84.968304	-106.713521	84.968304	-0.001556	-3.045886
0.250000	-0.002346	-3.805875	-105.011534	84.738469	-105.011534	84.738469	-0.002349	-3.805704
0.300000	-0.003262	-4.564705	-103.694278	84.537312	-103.694278	84.537312	-0.003266	-4.564494
0.350000	-0.004257	-5.322616	-102.645469	84.383386	-102.645469	84.383386	-0.004261	-5.322364
0.400000	-0.005320	-6.079447	-101.824290	84.321090	-101.824290	84.321090	-0.005326	-6.079152
0.450000	-0.006426	-6.835299	-101.184849	84.387608	-101.184849	84.387608	-0.006431	-6.834961
0.500000	-0.007557	-7.590157	-100.709904	84.641056	-100.709904	84.641056	-0.007562	-7.589777
0.550000	-0.008702	-8.344069	-100.384807	85.148316	-100.384807	85.148316	-0.008707	-8.343647
0.600000	-0.009848	-9.097081	-100.201708	85.998272	-100.201708	85.998272	-0.009853	-9.096617
0.650000	-0.010990	-9.849236	-100.156694	87.311685	-100.156694	87.311685	-0.010994	-9.848732
0.700000	-0.012121	-10.600577	-100.247808	89.257092	-100.247808	89.257092	-0.012124	-10.600033
0.750000	-0.013239	-11.351139	-100.471926	92.073553	-100.471926	92.073553	-0.013242	-11.350555
0.800000	-0.014343	-12.100951	-100.818588	96.099513	-100.818588	96.099513	-0.014345	-12.100330
0.850000	-0.015429	-12.849915	-101.241526	102.251476	-101.241526	102.251476	-0.015430	-12.849257
0.900000	-0.016499	-13.598138	-101.676817	110.736173	-101.676817	110.736173	-0.016500	-13.597444
0.950000	-0.017562	-14.346000	-101.968322	120.479863	-101.968322	120.479863	-0.017562	-14.345269
1.000000	-0.018604	-15.092773	-101.771518	134.000532	-101.771518	134.000532	-0.018604	-15.092008
1.050000	-0.019642	-15.839306	-101.351588	147.329541	-101.351588	147.329541	-0.019641	-15.838506
1.100000	-0.020660	-16.584632	-99.940131	159.700256	-99.940131	159.700256	-0.020659	-16.583797
1.150000	-0.021677	-17.329834	-98.643303	171.621548	-98.643303	171.621548	-0.021676	-17.328965
1.200000	-0.022677	-18.073684	-96.751816	178.599184	-96.751816	178.599184	-0.022675	-18.072781
1.250000	-0.023677	-18.817533	-95.199473	-174.423179	-95.199473	-174.423179	-0.023675	-18.816596
1.300000	-0.024666	-19.560248	-93.526831	-170.457389	-93.526831	-170.457389	-0.024664	-19.559277
1.350000	-0.025650	-20.302220	-91.952613	-167.721567	-91.952613	-167.721567	-0.025647	-20.301215
1.400000	-0.026628	-21.043436	-90.479028	-165.880001	-90.479028	-165.880001	-0.026626	-21.042396
1.450000	-0.027603	-21.783881	-89.100099	-164.697170	-89.100099	-164.697170	-0.027600	-21.782807
1.500000	-0.028573	-22.523539	-87.807221	-164.007980	-87.807221	-164.007980	-0.028571	-22.522431
1.550000	-0.029541	-23.262396	-86.591517	-163.695471	-86.591517	-163.695471	-0.029539	-23.261254
1.600000	-0.030507	-24.000437	-85.444742	-163.675494	-85.444742	-163.675494	-0.030504	-23.999260
1.650000	-0.031470	-24.737644	-84.359565	-163.886457	-84.359565	-163.886457	-0.031468	-24.736433
1.700000	-0.032432	-25.473701	-83.306315	-164.330821	-83.306315	-164.330821	-0.032429	-25.472455
1.750000	-0.033393	-26.209309	-82.336281	-164.859094	-82.336281	-164.859094	-0.033390	-26.208029
1.800000	-0.034353	-26.943838	-81.396804	-165.527673	-81.396804	-165.527673	-0.034350	-26.942523
1.850000	-0.035313	-27.677596	-80.505980	-166.296470	-80.505980	-166.296470	-0.035310	-27.676247
1.900000	-0.036272	-28.410396	-79.649163	-167.148582	-79.649163	-167.148582	-0.036270	-28.409012
1.950000	-0.037232	-29.142237	-78.824853	-168.084009	-78.824853	-168.084009	-0.037230	-29.140819
2.000000	-0.038192	-29.873251	-78.036805	-169.069416	-78.036805	-169.069416	-0.038190	-29.871799
2.050000	-0.039154	-30.603109	-77.269168	-170.124796	-77.269168	-170.124796	-0.039151	-30.601622
2.100000	-0.040116	-31.332283	-76.539263	-171.209870	-76.539263	-171.209870	-0.040113	-31.330762
2.150000	-0.041080	-32.060092	-75.820556	-172.354330	-75.820556	-172.354330	-0.041077	-32.058537
2.200000	-0.042045	-32.787373	-75.140503	-173.515756	-75.140503	-173.515756	-0.042042	-32.785784
2.250000	-0.043013	-33.513071	-74.464543	-174.728079	-74.464543	-174.728079	-0.043011	-33.511448
2.300000	-0.043982	-34.238408	-73.827753	-175.949201	-73.827753	-175.949201	-0.043980	-34.236750
2.350000	-0.044956	-34.961934	-73.189520	-177.214320	-73.189520	-177.214320	-0.044953	-34.960243
2.400000	-0.045930	-35.685275	-72.590670	-178.482922	-72.590670	-178.482922	-0.045927	-35.683550
2.450000	-0.046910	-36.406571	-71.986032	-179.789840	-71.986032	-179.789840	-0.046907	-36.404813
2.500000	-0.047890	-37.127868	-71.420759	178.903242	-71.420759	178.903242	-0.047887	-37.126076
2.550000	-0.048878	-37.846878	-70.846272	177.562747	-70.846272	177.562747	-0.048875	-37.845052
2.600000	-0.049867	-38.565887	-70.307436	176.222251	-70.307436	176.222251	-0.049863	-38.564029
2.650000	-0.050864	-39.282752	-69.763709	174.856730	-69.763709	174.856730	-0.050860	-39.280860
2.700000	-0.051862	-39.999421	-69.248913	173.488933	-69.248913	173.488933	-0.051858	-39.997497
2.750000	-0.052868	-40.714096	-68.732822	172.102451	-68.732822	172.102451	-0.052865	-40.712139
2.800000	-0.053877	-41.428373	-68.240003	170.712232	-68.240003	170.712232	-0.053873	-41.426383
2.850000	-0.054895	-42.140817	-67.748895	169.308087	-67.748895	169.308087	-0.054891	-42.138796
2.900000	-0.055916	-42.852652	-67.276268	167.899300	-67.276268	167.899300	-0.055912	-42.850598
2.950000	-0.056947	-43.562827	-66.807865	166.480193	-66.807865	166.480193	-0.056943	-43.560741
3.000000	-0.057982	-44.272172	-66.353869	165.055926	-66.353869	165.055926	-0.057978	-44.270055
3.050000	-0.059026	-44.980039	-65.906204	163.624091	-65.906204	163.624091	-0.059022	-44.977890
3.100000	-0.060076	-45.686850	-65.469467	162.186850	-65.469467	162.186850	-0.060072	-45.684670
3.150000	-0.061136	-46.392373	-65.040823	160.744152	-65.040823	160.744152	-0.061131	-46.390162
3.200000	-0.062203	-47.096609	-64.620130	159.295996	-64.620130	159.295996	-0.062198	-47.094367
3.250000	-0.063278	-47.799755	-64.209005	157.844003	-64.209005	157.844003	-0.063274	-47.797482
3.300000	-0.064365	-48.501375	-63.803275	156.386638	-63.803275	156.386638	-0.064360	-48.499071
3.350000	-0.065457	-49.202111	-63.408342	154.926680	-63.408342	154.926680	-0.065452	-49.199777
3.400000	-0.066564	-49.901079	-63.016606	153.461534	-63.016606	153.461534	-0.066559	-49.898715
3.450000	-0.067676	-50.599376	-62.636689	151.994746	-62.636689	151.994746	-0.067670	-50.596981
3.500000	-0.068804	-51.295658	-62.258077	150.523026	-62.258077	150.523026	-0.068798	-51.293234
3.550000	-0.069936	-51.991488	-61.892128	149.050382	-61.892128	149.050382	-0.069930	-51.989034
3.600000	-0.071087	-52.685053	-61.525852	147.573115	-61.525852	147.573115	-0.071082	-52.682569
3.650000	-0.072241	-53.378390	-61.172932	146.095458	-61.172932	146.095458	-0.072235	-53.375876
3.700000	-0.073417	-54.069209	-60.818280	144.613522	-60.818280	144.613522	-0.073411	-54.066666
3.750000	-0.074593	-54.760029	-60.477543	143.131585	-60.477543	143.131585	-0.074588	-54.757457
3.800000	-0.075796	-55.448077	-60.133867	141.645737	-60.133867	141.645737	-0.075791	-55.445476
3.850000	-0.076999	-56.136125	-59.803272	140.159889	-59.803272	140.159889	-0.076993	-56.133495
3.900000	-0.078228	-56.821612	-59.471256	138.671058	-59.471256	138.671058	-0.078222	-56.818954
3.950000	-0.079460	-57.506866	-59.150279	137.181955	-59.150279	137.181955	-0.079453	-57.504179
4.000000	-0.080715	-58.189775	-58.829214	135.690619	-58.829214	135.690619	-0.080709	-58.187060
4.050000	-0.081977	-58.872215	-58.517371	134.198836	-58.517371	134.198836	-0.081970	-58.869472
4.100000	-0.083261	-59.552531	-58.206611	132.705418	-58.206611	132.705418	-0.083255	-59.549760
4.150000	-0.084554	-60.232140	-57.903458	131.211456	-57.903458	131.211456	-0.084547	-60.229341
4.200000	-0.085868	-60.909851	-57.602416	129.716336	-57.602416	129.716336	-0.085862	-60.907025
4.250000	-0.087194	-61.586614	-57.307540	128.220637	-57.307540	128.220637	-0.087187	-61.583760
4.300000	-0.088539	-62.261709	-57.015679	126.724153	-57.015679	126.724153	-0.088533	-62.258828
4.350000	-0.089900	-62.935615	-56.728699	125.227109	-56.728699	125.227109	-0.089893	-62.932707
4.400000	-0.091278	-63.608087	-56.445524	123.729566	-56.445524	123.729566	-0.091271	-63.605152
4.450000	-0.092675	-64.279126	-56.166087	122.231524	-56.166087	122.231524	-0.092668	-64.276164
4.500000	-0.094087	-64.948968	-55.891145	120.733197	-55.891145	120.733197	-0.094080	-64.945980
4.550000	-0.095522	-65.617135	-55.618920	119.234468	-55.618920	119.234468	-0.095515	-65.614120
4.600000	-0.096970	-66.284343	-55.351792	117.735602	-55.351792	117.735602	-0.096962	-66.281302
4.650000	-0.098444	-66.949634	-55.086474	116.236464	-55.086474	116.236464	-0.098437	-66.946567
4.700000	-0.099929	-67.614205	-54.826774	114.737287	-54.826774	114.737287	-0.099921	-67.611113
4.750000	-0.101444	-68.276620	-54.568074	113.237990	-54.568074	113.237990	-0.101437	-68.273501
4.800000	-0.102967	-68.938555	-54.315445	111.738704	-54.315445	111.738704	-0.102959	-68.935411
4.850000	-0.104525	-69.598095	-54.063096	110.239473	-54.063096	110.239473	-0.104518	-69.594926
4.900000	-0.106088	-70.257396	-53.817206	108.740266	-53.817206	108.740266	-0.106080	-70.254202
4.950000	-0.107691	-70.914066	-53.570956	107.241308	-53.570956	107.241308	-0.107683	-70.910847
5.000000	-0.109294	-71.570736	-53.331496	105.742349	-53.331496	105.742349	-0.109286	-71.567492
5.050000	-0.110944	-72.224543	-53.091109	104.243849	-53.091109	104.243849	-0.110936	-72.221274
5.100000	-0.112593	-72.878350	-52.857197	102.745349	-52.857197	102.745349	-0.112585	-72.875057
5.150000	-0.114287	-73.529542	-52.623047	101.247426	-52.623047	101.247426	-0.114278	-73.526224
5.200000	-0.115984	-74.180496	-52.394480	99.749555	-52.394480	99.749555	-0.115976	-74.177154
5.250000	-0.117723	-74.829082	-52.166293	98.252339	-52.166293	98.252339	-0.117715	-74.825716
5.300000	-0.119470	-75.477194	-51.942879	96.755254	-51.942879	96.755254	-0.119462	-75.473805
5.350000	-0.121256	-76.123186	-51.720399	95.258866	-51.720399	95.258866	-0.121247	-76.119774
5.400000	-0.123055	-76.768472	-51.501958	93.762710	-51.501958	93.762710	-0.123046	-76.765036
5.450000	-0.124888	-77.411884	-51.284946	92.267264	-51.284946	92.267264	-0.124880	-77.408425
5.500000	-0.126740	-78.054360	-51.071306	90.772172	-51.071306	90.772172	-0.126731	-78.050878
5.550000	-0.128624	-78.695207	-50.859538	89.277773	-50.859538	89.277773	-0.128615	-78.691703
5.600000	-0.130530	-79.334892	-50.650538	87.783868	-50.650538	87.783868	-0.130521	-79.331365
5.650000	-0.132464	-79.973191	-50.443803	86.290614	-50.443803	86.290614	-0.132455	-79.969642
5.700000	-0.134427	-80.610106	-50.239290	84.798012	-50.239290	84.798012	-0.134418	-80.606535
5.750000	-0.136414	-81.245877	-50.037391	83.305998	-50.037391	83.305998	-0.136405	-81.242283
5.800000	-0.138435	-81.880045	-49.837218	81.814806	-49.837218	81.814806	-0.138426	-81.876430
5.850000	-0.140476	-82.513307	-49.639968	80.324118	-49.639968	80.324118	-0.140466	-82.509670
5.900000	-0.142557	-83.144755	-49.443998	78.834437	-49.443998	78.834437	-0.142547	-83.141096
5.950000	-0.144653	-83.775529	-49.251222	77.345157	-49.251222	77.345157	-0.144643	-83.771849
6.000000	-0.146795	-84.404284	-49.059321	75.857082	-49.059321	75.857082	-0.146785	-84.400583
6.050000	-0.148948	-85.032595	-48.870855	74.369289	-48.870855	74.369289	-0.148938	-85.028873
6.100000	-0.151153	-85.658686	-48.682898	72.882908	-48.682898	72.882908	-0.151143	-85.654944
6.150000	-0.153365	-86.284558	-48.498584	71.396676	-48.498584	71.396676	-0.153354	-86.280796
6.200000	-0.155635	-86.908018	-48.314452	69.912072	-48.314452	69.912072	-0.155624	-86.904235
6.250000	-0.157906	-87.531478	-48.134143	68.427469	-48.134143	68.427469	-0.157895	-87.527674
6.300000	-0.160242	-88.152339	-47.953720	66.944722	-47.953720	66.944722	-0.160232	-88.148516
6.350000	-0.162580	-88.773201	-47.776970	65.461974	-47.776970	65.461974	-0.162569	-88.769358
6.400000	-0.164979	-89.391713	-47.600453	63.980995	-47.600453	63.980995	-0.164968	-89.387851
6.450000	-0.167385	-90.010012	-47.427159	62.500176	-47.427159	62.500176	-0.167374	-90.006130
6.500000	-0.169848	-90.626206	-47.254412	61.021021	-47.254412	61.021021	-0.169837	-90.622305
6.550000	-0.172324	-91.241979	-47.084476	59.542199	-47.084476	59.542199	-0.172313	-91.238059
6.600000	-0.174853	-91.855887	-46.915370	58.064923	-46.915370	58.064923	-0.174841	-91.851948
6.650000	-0.177400	-92.469174	-46.748698	56.588161	-46.748698	56.588161	-0.177389	-92.465216
6.700000	-0.179996	-93.080829	-46.583110	55.112812	-46.583110	55.112812	-0.179984	-93.076853
6.750000	-0.182616	-93.691670	-46.419612	53.638169	-46.419612	53.638169	-0.182604	-93.687675
6.800000	-0.185280	-94.301108	-46.257426	52.164792	-46.257426	52.164792	-0.185268	-94.297095
6.850000	-0.187975	-94.909545	-46.097014	50.692321	-46.097014	50.692321	-0.187963	-94.905514
6.900000	-0.190709	-95.516802	-45.938118	49.220959	-45.938118	49.220959	-0.190697	-95.512753
6.950000	-0.193480	-96.122879	-45.780709	47.750707	-45.780709	47.750707	-0.193469	-96.118812
7.000000	-0.196285	-96.727992	-45.624998	46.281397	-45.624998	46.281397	-0.196273	-96.723907
7.050000	-0.199135	-97.331755	-45.470510	44.813406	-45.470510	44.813406	-0.199123	-97.327653
7.100000	-0.202012	-97.934763	-45.317881	43.346181	-45.317881	43.346181	-0.202000	-97.930643
7.150000	-0.204941	-98.536258	-45.166236	41.880489	-45.166236	41.880489	-0.204929	-98.532121
7.200000	-0.207892	-99.137200	-45.016593	40.415378	-45.016593	40.415378	-0.207879	-99.133045
7.250000	-0.210902	-99.736477	-44.867716	38.952013	-44.867716	38.952013	-0.210890	-99.732306
7.300000	-0.213928	-100.335393	-44.720967	37.489039	-44.720967	37.489039	-0.213915	-100.331205
7.350000	-0.217021	-100.932502	-44.574784	36.028026	-44.574784	36.028026	-0.217009	-100.928297
7.400000	-0.220123	-101.529435	-44.430840	34.567209	-44.430840	34.567209	-0.220111	-101.525212
7.450000	-0.223301	-102.124427	-44.287281	33.108563	-44.287281	33.108563	-0.223288	-102.120188
7.500000	-0.226480	-102.719419	-44.146057	31.649917	-44.146057	31.649917	-0.226468	-102.715163
7.550000	-0.229744	-103.312347	-44.005054	30.193648	-44.005054	30.193648	-0.229731	-103.308074
7.600000	-0.233009	-103.905275	-43.866303	28.737379	-43.866303	28.737379	-0.232996	-103.900986
7.650000	-0.236353	-104.496361	-43.727954	27.283290	-43.727954	27.283290	-0.236340	-104.492055
7.700000	-0.239705	-105.087279	-43.591615	25.829399	-43.591615	25.829399	-0.239692	-105.082957
7.750000	-0.243131	-105.676569	-43.455841	24.377485	-43.455841	24.377485	-0.243118	-105.672231
7.800000	-0.246572	-106.265534	-43.321853	22.925965	-43.321853	22.925965	-0.246559	-106.261179
7.850000	-0.250080	-106.853075	-43.188578	21.476212	-43.188578	21.476212	-0.250066	-106.848704
7.900000	-0.253611	-107.440142	-43.056883	20.027047	-43.056883	20.027047	-0.253598	-107.435755
7.950000	-0.257202	-108.025984	-42.926034	18.579437	-42.926034	18.579437	-0.257189	-108.021580
8.000000	-0.260825	-108.611212	-42.796575	17.132604	-42.796575	17.132604	-0.260812	-108.606792
8.050000	-0.264501	-109.195403	-42.668082	15.687110	-42.668082	15.687110	-0.264488	-109.190966
8.100000	-0.268217	-109.778853	-42.540804	14.242573	-42.540804	14.242573	-0.268203	-109.774399
8.150000	-0.271979	-110.361443	-42.414601	12.799163	-42.414601	12.799163	-0.271966	-110.356973
8.200000	-0.275789	-110.943175	-42.289453	11.356879	-42.289453	11.356879	-0.275775	-110.938688
8.250000	-0.279638	-111.524216	-42.165475	9.915510	-42.165475	9.915510	-0.279625	-111.519713
8.300000	-0.283543	-112.104292	-42.042406	8.475425	-42.042406	8.475425	-0.283529	-112.099772
8.350000	-0.287480	-112.683837	-41.920594	7.036050	-41.920594	7.036050	-0.287466	-112.679300
8.400000	-0.291481	-113.262321	-41.799555	5.598098	-41.799555	5.598098	-0.291467	-113.257767
8.450000	-0.295508	-113.840422	-41.679849	4.160661	-41.679849	4.160661	-0.295494	-113.835851
8.500000	-0.299606	-114.417378	-41.560795	2.724768	-41.560795	2.724768	-0.299592	-114.412790
8.550000	-0.303722	-114.994091	-41.443141	1.289204	-41.443141	1.289204	-0.303708	-114.989486
8.600000	-0.307920	-115.569586	-41.326027	-0.144717	-41.326027	-0.144717	-0.307905	-115.564963
8.650000	-0.312127	-116.144964	-41.210371	-1.578481	-41.210371	-1.578481	-0.312112	-116.140324
8.700000	-0.316423	-116.719065	-41.095157	-3.010526	-41.095157	-3.010526	-0.316409	-116.714407
8.750000	-0.320722	-117.293166	-40.981450	-4.442571	-40.981450	-4.442571	-0.320707	-117.288489
8.800000	-0.325119	-117.865941	-40.868096	-5.872849	-40.868096	-5.872849	-0.325104	-117.861247
8.850000	-0.329519	-118.438717	-40.756201	-7.303126	-40.756201	-7.303126	-0.329503	-118.434004
8.900000	-0.334009	-119.010342	-40.644760	-8.731892	-40.644760	-8.731892	-0.333994	-119.005610
8.950000	-0.338510	-119.581863	-40.534643	-10.160521	-40.534643	-10.160521	-0.338494	-119.577112
9.000000	-0.343094	-120.152397	-40.425071	-11.587884	-40.425071	-11.587884	-0.343078	-120.147626
9.050000	-0.347697	-120.722733	-40.316700	-13.014994	-40.316700	-13.014994	-0.347681	-120.717943
9.100000	-0.352375	-121.292236	-40.208958	-14.441070	-40.208958	-14.441070	-0.352359	-121.287426
9.150000	-0.357081	-121.861462	-40.102302	-15.866801	-40.102302	-15.866801	-0.357064	-121.856631
9.200000	-0.361855	-122.429996	-39.996351	-17.291713	-39.996351	-17.291713	-0.361838	-122.425145
9.250000	-0.366664	-122.998184	-39.891386	-18.716216	-39.891386	-18.716216	-0.366647	-122.993312
9.300000	-0.371534	-123.565811	-39.787192	-20.140096	-39.787192	-20.140096	-0.371516	-123.560918
9.350000	-0.376447	-124.133038	-39.683893	-21.563530	-39.683893	-21.563530	-0.376428	-124.128122
9.400000	-0.381412	-124.699822	-39.581425	-22.986516	-39.581425	-22.986516	-0.381393	-124.694884
9.450000	-0.386430	-125.266163	-39.479772	-24.409052	-39.479772	-24.409052	-0.386410	-125.261203
9.500000	-0.391491	-125.832169	-39.379001	-25.831288	-39.379001	-25.831288	-0.391471	-125.827185
9.550000	-0.396614	-126.397703	-39.278979	-27.253103	-39.278979	-27.253103	-0.396593	-126.392696
9.600000	-0.401772	-126.962996	-39.179880	-28.674740	-39.179880	-28.674740	-0.401751	-126.957964
9.650000	-0.406999	-127.527804	-39.081474	-30.096020	-39.081474	-30.096020	-0.406977	-127.522747
9.700000	-0.412255	-128.092450	-38.984025	-31.517214	-38.984025	-31.517214	-0.412232	-128.087367
9.750000	-0.417587	-128.656612	-38.887227	-32.938151	-38.887227	-32.938151	-0.417563	-128.651503
9.800000	-0.422939	-129.220680	-38.791410	-34.359063	-38.791410	-34.359063	-0.422914	-129.215545
9.850000	-0.428377	-129.784278	-38.696214	-35.779854	-38.696214	-35.779854	-0.428351	-129.779116
9.900000	-0.433826	-130.347837	-38.602013	-37.200650	-38.602013	-37.200650	-0.433799	-130.342647
9.950000	-0.439368	-130.910957	-38.508418	-38.621496	-38.508418	-38.621496	-0.439340	-130.905738
10.000000	-0.444914	-131.474077	-38.415822	-40.042343	-38.415822	-40.042343	-0.444885	-131.468829
