! freq	dB(S11)	phase(S11)	dB(S12)	phase(S12)	
!     	dB(S21)	phase(S21)	dB(S22)	phase(S22)	
!S-par simulation data
#  GHz  S  DB  R 50
0.000000	-0.000000	0.000000	-337.540915	180.000000	-337.540915	180.000000	-0.000000	0.000000
0.050000	-0.000088	-0.773259	-109.405250	69.576133	-109.405250	69.576133	-0.000086	-0.773120
0.100000	-0.000351	-1.546324	-105.484265	68.835543	-105.484265	68.835543	-0.000340	-1.546057
0.150000	-0.000783	-2.318997	-102.985844	71.480739	-102.985844	71.480739	-0.000760	-2.318623
0.200000	-0.001361	-3.091155	-101.036932	73.751144	-101.036932	73.751144	-0.001322	-3.090698
0.250000	-0.002073	-3.862650	-99.453013	75.347996	-99.453013	75.347996	-0.002017	-3.862142
0.300000	-0.002914	-4.633294	-98.146095	76.395641	-98.146095	76.395641	-0.002839	-4.632769
0.350000	-0.003844	-5.403143	-97.050017	77.141890	-97.050017	77.141890	-0.003752	-5.402630
0.400000	-0.004859	-6.172022	-96.130101	77.660178	-96.130101	77.660178	-0.004751	-6.171547
0.450000	-0.005934	-6.939981	-95.352511	78.061602	-95.352511	78.061602	-0.005813	-6.939567
0.500000	-0.007054	-7.706972	-94.698791	78.406283	-94.698791	78.406283	-0.006924	-7.706633
0.550000	-0.008206	-8.473008	-94.153276	78.749673	-94.153276	78.749673	-0.008069	-8.472754
0.600000	-0.009376	-9.238104	-93.704753	79.139110	-93.704753	79.139110	-0.009236	-9.237938
0.650000	-0.010554	-10.002284	-93.344891	79.619616	-93.344891	79.619616	-0.010415	-10.002205
0.700000	-0.011733	-10.765576	-93.067441	80.237486	-93.067441	80.237486	-0.011596	-10.765579
0.750000	-0.012905	-11.528008	-92.867603	81.043466	-92.867603	81.043466	-0.012774	-11.528084
0.800000	-0.014067	-12.289608	-92.741450	82.095881	-92.741450	82.095881	-0.013944	-12.289746
0.850000	-0.015212	-13.050269	-92.696087	83.545464	-92.696087	83.545464	-0.015098	-13.050454
0.900000	-0.016340	-13.810112	-92.719229	85.414656	-92.719229	85.414656	-0.016236	-13.810331
0.950000	-0.017460	-14.569562	-92.769139	87.594759	-92.769139	87.594759	-0.017366	-14.569808
1.000000	-0.018553	-15.327830	-92.900418	90.707597	-92.900418	90.707597	-0.018470	-15.328085
1.050000	-0.019640	-16.085843	-93.037031	94.128584	-93.037031	94.128584	-0.019568	-16.086102
1.100000	-0.020698	-16.842576	-93.192706	99.090312	-93.192706	99.090312	-0.020636	-16.842823
1.150000	-0.021754	-17.599183	-93.337128	104.235891	-93.337128	104.235891	-0.021702	-17.599414
1.200000	-0.022783	-18.354389	-93.327856	111.403842	-93.327856	111.403842	-0.022740	-18.354592
1.250000	-0.023811	-19.109596	-93.318593	118.571793	-93.318593	118.571793	-0.023777	-19.109769
1.300000	-0.024821	-19.863647	-93.018850	126.967237	-93.018850	126.967237	-0.024794	-19.863783
1.350000	-0.025820	-20.616949	-92.476842	135.496649	-92.476842	135.496649	-0.025799	-20.617045
1.400000	-0.026810	-21.369494	-91.702874	143.594508	-91.702874	143.594508	-0.026794	-21.369546
1.450000	-0.027792	-22.121269	-90.744092	150.830990	-90.744092	150.830990	-0.027781	-22.121276
1.500000	-0.028767	-22.872261	-89.663094	156.992209	-89.663094	156.992209	-0.028760	-22.872223
1.550000	-0.029736	-23.622458	-88.518049	162.052469	-88.518049	162.052469	-0.029732	-23.622375
1.600000	-0.030702	-24.371845	-87.353151	166.100642	-87.353151	166.100642	-0.030699	-24.371717
1.650000	-0.031663	-25.120406	-86.197760	169.273627	-86.197760	169.273627	-0.031662	-25.120235
1.700000	-0.032621	-25.867826	-85.033151	171.520967	-85.033151	171.520967	-0.032621	-25.867616
1.750000	-0.033578	-26.614802	-83.957537	173.432637	-83.957537	173.432637	-0.033578	-26.614553
1.800000	-0.034534	-27.360706	-82.901998	174.789114	-82.901998	174.789114	-0.034533	-27.360422
1.850000	-0.035488	-28.105846	-81.898351	175.749026	-81.898351	175.749026	-0.035488	-28.105528
1.900000	-0.036444	-28.850031	-80.931939	176.393788	-80.931939	176.393788	-0.036442	-28.849684
1.950000	-0.037400	-29.593263	-80.002355	176.723402	-80.002355	176.723402	-0.037397	-29.592889
2.000000	-0.038357	-30.335671	-79.117027	176.874310	-79.117027	176.874310	-0.038353	-30.335272
2.050000	-0.039315	-31.076925	-78.255693	176.775030	-78.255693	176.775030	-0.039310	-31.076505
2.100000	-0.040276	-31.817495	-77.441357	176.575307	-77.441357	176.575307	-0.040269	-31.817058
2.150000	-0.041240	-32.556701	-76.640678	176.174699	-76.640678	176.174699	-0.041231	-32.556249
2.200000	-0.042205	-33.295378	-75.887835	175.719521	-75.887835	175.719521	-0.042195	-33.294912
2.250000	-0.043175	-34.032469	-75.140507	175.100633	-75.140507	175.100633	-0.043164	-34.031993
2.300000	-0.044147	-34.769196	-74.440948	174.454661	-74.440948	174.454661	-0.044134	-34.768711
2.350000	-0.045125	-35.504107	-73.740537	173.673268	-73.740537	173.673268	-0.045112	-35.503617
2.400000	-0.046105	-36.238830	-73.087376	172.881550	-73.087376	172.881550	-0.046090	-36.238336
2.450000	-0.047092	-36.971500	-72.428397	171.976257	-72.428397	171.976257	-0.047076	-36.971003
2.500000	-0.048080	-37.704169	-71.815908	171.070963	-71.815908	171.070963	-0.048063	-37.703670
2.550000	-0.049078	-38.434539	-71.193730	170.069244	-71.193730	170.069244	-0.049061	-38.434040
2.600000	-0.050076	-39.164908	-70.613156	169.067525	-70.613156	169.067525	-0.050058	-39.164410
2.650000	-0.051084	-39.893119	-70.027858	167.995796	-70.027858	167.995796	-0.051067	-39.892623
2.700000	-0.052094	-40.621133	-69.476023	166.917701	-69.476023	166.917701	-0.052077	-40.620639
2.750000	-0.053113	-41.347142	-68.923483	165.788433	-68.923483	165.788433	-0.053097	-41.346650
2.800000	-0.054136	-42.072750	-68.397668	164.648929	-68.397668	164.648929	-0.054120	-42.072260
2.850000	-0.055168	-42.796516	-67.874424	163.471917	-67.874424	163.471917	-0.055153	-42.796029
2.900000	-0.056204	-43.519669	-67.372290	162.282401	-67.372290	162.282401	-0.056189	-43.519184
2.950000	-0.057249	-44.241155	-66.875413	161.065436	-66.875413	161.065436	-0.057236	-44.240671
3.000000	-0.058300	-44.961807	-66.394935	159.834747	-66.394935	159.834747	-0.058288	-44.961325
3.050000	-0.059360	-45.680977	-65.921922	158.584104	-65.921922	158.584104	-0.059350	-45.680496
3.100000	-0.060427	-46.399089	-65.461339	157.319207	-65.461339	157.319207	-0.060418	-46.398607
3.150000	-0.061502	-47.115910	-65.010037	156.039993	-65.010037	156.039993	-0.061495	-47.115428
3.200000	-0.062586	-47.831442	-64.567804	154.746460	-64.567804	154.746460	-0.062580	-47.830958
3.250000	-0.063677	-48.545884	-64.136347	153.442878	-64.136347	153.442878	-0.063674	-48.545398
3.300000	-0.064780	-49.258802	-63.711104	152.125225	-63.711104	152.125225	-0.064778	-49.258312
3.350000	-0.065889	-49.970837	-63.297861	150.800766	-63.297861	150.800766	-0.065889	-49.970343
3.400000	-0.067012	-50.681109	-62.888403	149.462697	-62.888403	149.462697	-0.067013	-50.680609
3.450000	-0.068140	-51.390712	-62.491943	148.120290	-62.491943	148.120290	-0.068143	-51.390206
3.500000	-0.069283	-52.098310	-62.097194	146.764874	-62.097194	146.764874	-0.069288	-52.097796
3.550000	-0.070431	-52.805458	-61.716253	145.406995	-61.716253	145.406995	-0.070437	-52.804936
3.600000	-0.071598	-53.510357	-61.335250	144.036802	-61.335250	144.036802	-0.071606	-53.509826
3.650000	-0.072767	-54.215030	-60.968704	142.665560	-60.968704	142.665560	-0.072776	-54.214489
3.700000	-0.073958	-54.917209	-60.600579	141.282763	-60.600579	141.282763	-0.073968	-54.916657
3.750000	-0.075149	-55.619388	-60.247424	139.899965	-60.247424	139.899965	-0.075161	-55.618824
3.800000	-0.076366	-56.318828	-59.891394	138.506411	-59.891394	138.506411	-0.076379	-56.318252
3.850000	-0.077584	-57.018268	-59.549383	137.112858	-59.549383	137.112858	-0.077597	-57.017680
3.900000	-0.078826	-57.715184	-59.206080	135.710896	-59.206080	135.710896	-0.078841	-57.714582
3.950000	-0.080071	-58.411871	-58.874585	134.308170	-58.874585	134.308170	-0.080086	-58.411254
4.000000	-0.081341	-59.106252	-58.543177	132.898940	-58.543177	132.898940	-0.081356	-59.105622
4.050000	-0.082615	-59.800173	-58.221620	131.488408	-58.221620	131.488408	-0.082631	-59.799528
4.100000	-0.083913	-60.492012	-57.901355	130.072913	-57.901355	130.072913	-0.083929	-60.491352
4.150000	-0.085218	-61.183158	-57.589205	128.655762	-57.589205	128.655762	-0.085235	-61.182483
4.200000	-0.086546	-61.872450	-57.279399	127.234888	-57.279399	127.234888	-0.086562	-61.871760
4.250000	-0.087884	-62.560816	-56.976168	125.812152	-56.976168	125.812152	-0.087900	-62.560111
4.300000	-0.089243	-63.247558	-56.676198	124.386686	-56.676198	124.386686	-0.089258	-63.246838
4.350000	-0.090616	-63.933141	-56.381432	122.959270	-56.381432	122.959270	-0.090631	-63.932407
4.400000	-0.092007	-64.617333	-56.090728	121.529912	-56.090728	121.529912	-0.092021	-64.616584
4.450000	-0.093417	-65.300134	-55.804007	120.098611	-55.804007	120.098611	-0.093430	-65.299371
4.500000	-0.094842	-65.981778	-55.522046	118.665984	-55.522046	118.665984	-0.094855	-65.981000
4.550000	-0.096290	-66.661801	-55.242979	117.231499	-55.242979	117.231499	-0.096301	-66.661010
4.600000	-0.097751	-67.340901	-54.969279	115.796160	-54.969279	115.796160	-0.097762	-67.340097
4.650000	-0.099239	-68.018153	-54.697501	114.359112	-54.697501	114.359112	-0.099248	-68.017337
4.700000	-0.100738	-68.694716	-54.431617	112.921560	-54.431617	112.921560	-0.100745	-68.693888
4.750000	-0.102268	-69.369210	-54.166785	111.482497	-54.166785	111.482497	-0.102274	-69.368369
4.800000	-0.103805	-70.043245	-53.908307	110.043180	-53.908307	110.043180	-0.103810	-70.042393
4.850000	-0.105378	-70.714993	-53.650101	108.602590	-53.650101	108.602590	-0.105382	-70.714131
4.900000	-0.106956	-71.386514	-53.398647	107.161909	-53.398647	107.161909	-0.106958	-71.385641
4.950000	-0.108575	-72.055533	-53.146763	105.720226	-53.146763	105.720226	-0.108575	-72.054651
5.000000	-0.110194	-72.724553	-52.901979	104.278543	-52.901979	104.278543	-0.110193	-72.723661
5.050000	-0.111860	-73.390867	-52.656133	102.836151	-52.656133	102.836151	-0.111857	-73.389966
5.100000	-0.113527	-74.057180	-52.417054	101.393760	-52.417054	101.393760	-0.113522	-74.056270
5.150000	-0.115238	-74.721035	-52.177608	99.951035	-52.177608	99.951035	-0.115232	-74.720117
5.200000	-0.116953	-75.384667	-51.943987	98.508280	-51.943987	98.508280	-0.116946	-75.383741
5.250000	-0.118711	-76.046087	-51.710623	97.065477	-51.710623	97.065477	-0.118702	-76.045153
5.300000	-0.120477	-76.707066	-51.482224	95.622665	-51.482224	95.622665	-0.120467	-76.706124
5.350000	-0.122282	-77.366079	-51.254644	94.180014	-51.254644	94.180014	-0.122271	-77.365130
5.400000	-0.124101	-78.024437	-51.031241	92.737417	-51.031241	92.737417	-0.124089	-78.023480
5.450000	-0.125955	-78.681073	-50.809165	91.295127	-50.809165	91.295127	-0.125942	-78.680108
5.500000	-0.127828	-79.336847	-50.590542	89.852990	-50.590542	89.852990	-0.127814	-79.335875
5.550000	-0.129733	-79.991139	-50.373704	88.411247	-50.373704	88.411247	-0.129719	-79.990158
5.600000	-0.131662	-80.644370	-50.159653	86.969787	-50.159653	86.969787	-0.131646	-80.643381
5.650000	-0.133619	-81.296354	-49.947803	85.528762	-49.947803	85.528762	-0.133603	-81.295356
5.700000	-0.135605	-81.947089	-49.738122	84.088171	-49.738122	84.088171	-0.135588	-81.946081
5.750000	-0.137615	-82.596805	-49.531022	82.648014	-49.531022	82.648014	-0.137599	-82.595787
5.800000	-0.139660	-83.245093	-49.325515	81.208463	-49.325515	81.208463	-0.139643	-83.244065
5.850000	-0.141725	-83.892585	-49.122936	79.769310	-49.122936	79.769310	-0.141708	-83.891545
5.900000	-0.143831	-84.538483	-48.921412	78.330950	-48.921412	78.330950	-0.143814	-84.537430
5.950000	-0.145952	-85.183799	-48.723135	76.892921	-48.723135	76.892921	-0.145935	-85.182733
6.000000	-0.148119	-85.827368	-48.525404	75.455882	-48.525404	75.455882	-0.148103	-85.826287
6.050000	-0.150298	-86.470560	-48.331219	74.019081	-48.331219	74.019081	-0.150282	-86.469463
6.100000	-0.152529	-87.111868	-48.137093	72.583473	-48.137093	72.583473	-0.152513	-87.110753
6.150000	-0.154766	-87.752993	-47.946794	71.147993	-47.946794	71.147993	-0.154751	-87.751860
6.200000	-0.157062	-88.392113	-47.756084	69.713908	-47.756084	69.713908	-0.157048	-88.390959
6.250000	-0.159359	-89.031233	-47.569471	68.279822	-47.569471	68.279822	-0.159346	-89.030058
6.300000	-0.161722	-89.668247	-47.381983	66.847329	-47.381983	66.847329	-0.161710	-89.667048
6.350000	-0.164086	-90.305261	-47.198456	65.414836	-47.198456	65.414836	-0.164074	-90.304038
6.400000	-0.166512	-90.940427	-47.014393	63.983844	-47.014393	63.983844	-0.166501	-90.939176
6.450000	-0.168943	-91.575425	-46.833765	62.552988	-46.833765	62.552988	-0.168934	-91.574147
6.500000	-0.171433	-92.208826	-46.652912	61.123513	-46.652912	61.123513	-0.171424	-92.207517
6.550000	-0.173935	-92.841908	-46.474984	59.694314	-46.474984	59.694314	-0.173927	-92.840567
6.600000	-0.176490	-93.473634	-46.297121	58.266345	-46.297121	58.266345	-0.176483	-93.472259
6.650000	-0.179063	-94.104908	-46.121682	56.838787	-46.121682	56.838787	-0.179057	-94.103498
6.700000	-0.181684	-94.735059	-45.946581	55.412285	-45.946581	55.412285	-0.181679	-94.733611
6.750000	-0.184330	-95.364648	-45.773404	53.986311	-45.773404	53.986311	-0.184326	-95.363162
6.800000	-0.187020	-95.993334	-45.600827	52.561198	-45.600827	52.561198	-0.187016	-95.991806
6.850000	-0.189741	-96.621374	-45.429662	51.136700	-45.429662	51.136700	-0.189738	-96.619804
6.900000	-0.192500	-97.248716	-45.259354	49.712850	-45.259354	49.712850	-0.192498	-97.247102
6.950000	-0.195297	-97.875360	-45.089919	48.289649	-45.089919	48.289649	-0.195295	-97.873700
7.000000	-0.198127	-98.501493	-44.921607	46.866876	-44.921607	46.866876	-0.198126	-98.499786
7.050000	-0.201003	-99.126912	-44.753583	45.444703	-44.753583	45.444703	-0.201002	-99.125156
7.100000	-0.203906	-99.751988	-44.586965	44.022743	-44.586965	44.022743	-0.203905	-99.750182
7.150000	-0.206863	-100.376378	-44.419982	42.601209	-44.419982	42.601209	-0.206862	-100.374521
7.200000	-0.209841	-101.000567	-44.254722	41.179697	-44.254722	41.179697	-0.209839	-100.998658
7.250000	-0.212880	-101.624152	-44.088345	39.758250	-44.088345	39.758250	-0.212878	-101.622189
7.300000	-0.215935	-102.247645	-43.924064	38.336688	-43.924064	38.336688	-0.215933	-102.245629
7.350000	-0.219061	-102.870684	-43.757770	36.914553	-43.757770	36.914553	-0.219057	-102.868612
7.400000	-0.222195	-103.493702	-43.594033	35.492271	-43.594033	35.492271	-0.222191	-103.491575
7.450000	-0.225410	-104.116496	-43.427189	34.068371	-43.427189	34.068371	-0.225405	-104.114313
7.500000	-0.228627	-104.739291	-43.263490	32.644470	-43.263490	32.644470	-0.228620	-104.737051
7.550000	-0.231936	-105.362197	-43.095312	31.217304	-43.095312	31.217304	-0.231927	-105.359901
7.600000	-0.235246	-105.985104	-42.930329	29.790138	-42.930329	29.790138	-0.235236	-105.982751
7.650000	-0.238646	-106.608505	-42.760565	28.358062	-42.760565	28.358062	-0.238634	-106.606094
7.700000	-0.242055	-107.231950	-42.593354	26.925540	-42.593354	26.925540	-0.242041	-107.229482
7.750000	-0.245552	-107.856275	-42.420990	25.486114	-42.420990	25.486114	-0.245536	-107.853750
7.800000	-0.249067	-108.480776	-42.250350	24.045308	-42.250350	24.045308	-0.249050	-108.478194
7.850000	-0.252669	-109.106545	-42.074125	22.595192	-42.074125	22.595192	-0.252649	-109.103906
7.900000	-0.256300	-109.732738	-41.898506	21.141973	-41.898506	21.141973	-0.256279	-109.730041
7.950000	-0.260017	-110.360589	-41.716822	19.676565	-41.716822	19.676565	-0.259993	-110.357833
8.000000	-0.263777	-110.989269	-41.534189	18.205062	-41.534189	18.205062	-0.263752	-110.986454
8.050000	-0.267623	-111.619993	-41.345001	16.717966	-41.345001	16.717966	-0.267597	-111.617118
8.100000	-0.271531	-112.252177	-41.152639	15.219733	-41.152639	15.219733	-0.271503	-112.249240
8.150000	-0.275526	-112.886776	-40.953286	13.701982	-40.953286	13.701982	-0.275499	-112.883773
8.200000	-0.279610	-113.523790	-40.747508	12.164715	-40.747508	12.164715	-0.279582	-113.520718
8.250000	-0.283786	-114.163553	-40.534488	10.603604	-40.534488	10.603604	-0.283758	-114.160406
8.300000	-0.288089	-114.807165	-40.310185	9.009110	-40.310185	9.009110	-0.288062	-114.803936
8.350000	-0.292470	-115.453192	-40.081376	7.392224	-40.081376	7.392224	-0.292445	-115.449875
8.400000	-0.297005	-116.104050	-39.838685	5.730554	-39.838685	5.730554	-0.296983	-116.100632
8.450000	-0.301762	-116.761910	-39.574019	3.999898	-39.574019	3.999898	-0.301745	-116.758369
8.500000	-0.306702	-117.425314	-39.294564	2.211875	-39.294564	2.211875	-0.306690	-117.421632
8.550000	-0.311843	-118.094762	-38.999592	0.360038	-38.999592	0.360038	-0.311838	-118.090916
8.600000	-0.317317	-118.773892	-38.675764	-1.597629	-38.675764	-1.597629	-0.317320	-118.769841
8.650000	-0.323119	-119.461970	-38.327786	-3.657296	-38.327786	-3.657296	-0.323131	-119.457674
8.700000	-0.329451	-120.163740	-37.938823	-5.877449	-37.938823	-5.877449	-0.329474	-120.159130
8.750000	-0.336343	-120.878842	-37.513582	-8.258833	-37.513582	-8.258833	-0.336377	-120.873845
8.800000	-0.344102	-121.612931	-37.033027	-10.875691	-37.033027	-10.875691	-0.344149	-121.607434
8.850000	-0.352991	-122.369209	-36.489900	-13.774081	-36.489900	-13.774081	-0.353049	-122.363065
8.900000	-0.363467	-123.153169	-35.869815	-17.029702	-35.869815	-17.029702	-0.363533	-123.146181
8.950000	-0.376238	-123.972129	-35.154401	-20.742724	-35.154401	-20.742724	-0.376306	-123.964023
9.000000	-0.392448	-124.835964	-34.320089	-25.047926	-34.320089	-25.047926	-0.392500	-124.826357
9.050000	-0.413934	-125.757424	-33.339426	-30.121780	-33.339426	-30.121780	-0.413938	-125.745774
9.100000	-0.444197	-126.755989	-32.167827	-36.246636	-32.167827	-36.246636	-0.444087	-126.741496
9.150000	-0.489361	-127.853773	-30.760683	-43.801409	-30.760683	-43.801409	-0.489005	-127.835285
9.200000	-0.561517	-129.073360	-29.061897	-53.396882	-29.061897	-53.396882	-0.560628	-129.049270
9.250000	-0.684265	-130.404904	-27.028916	-66.006810	-27.028916	-66.006810	-0.682219	-130.373410
9.300000	-0.899058	-131.679730	-24.692349	-83.174359	-24.692349	-83.174359	-0.894532	-131.641047
9.350000	-1.235148	-132.227671	-22.321552	-106.756638	-22.321552	-106.756638	-1.226143	-132.192729
9.400000	-1.540472	-131.058078	-20.565539	-136.466141	-20.565539	-136.466141	-1.527366	-131.055918
9.450000	-1.537301	-129.382658	-19.827655	-166.866196	-19.827655	-166.866196	-1.525012	-129.423846
9.500000	-1.387352	-129.297767	-19.523113	166.987649	-19.523113	166.987649	-1.378407	-129.365075
9.550000	-1.356217	-130.531165	-18.887698	144.223714	-18.887698	144.223714	-1.350664	-130.615531
9.600000	-1.585238	-132.157239	-17.601038	120.681430	-17.601038	120.681430	-1.583947	-132.259518
9.650000	-2.218682	-131.878716	-15.989995	90.132890	-15.989995	90.132890	-2.225768	-131.991405
9.700000	-2.518479	-125.425589	-15.793584	50.057157	-15.793584	50.057157	-2.535027	-125.475469
9.750000	-1.705840	-122.003144	-18.080166	15.440337	-18.080166	15.440337	-1.717276	-121.986548
9.800000	-1.133369	-123.316226	-20.975083	-5.745763	-20.975083	-5.745763	-1.139199	-123.292281
9.850000	-0.871279	-125.156077	-23.452099	-18.599931	-23.452099	-18.599931	-0.874408	-125.137641
9.900000	-0.743358	-126.739646	-25.430976	-27.114059	-25.430976	-27.114059	-0.745186	-126.727116
9.950000	-0.674082	-128.069163	-27.007542	-33.207090	-27.007542	-33.207090	-0.675242	-128.061400
10.000000	-0.633463	-129.217204	-28.276663	-37.829529	-28.276663	-37.829529	-0.634265	-129.213194
