! freq	dB(S11)	phase(S11)	dB(S12)	phase(S12)	
!     	dB(S21)	phase(S21)	dB(S22)	phase(S22)	
!S-par simulation data
#  GHz  S  DB  R 50
0.000000	-81.196446	0.000000	-0.000757	0.000000	-0.000757	0.000000	-81.196446	0.000000
0.050000	-42.836721	-91.267457	-0.007069	-3.081393	-0.007069	-3.081393	-42.920163	-91.962639
0.100000	-36.965984	-94.697994	-0.013610	-6.114145	-0.013610	-6.114145	-36.952207	-94.908319
0.150000	-33.535369	-98.187001	-0.019103	-9.138172	-0.019103	-9.138172	-33.545748	-97.920734
0.200000	-31.100582	-101.601465	-0.024649	-12.157892	-0.024649	-12.157892	-31.134514	-101.311480
0.250000	-29.221317	-104.928983	-0.030418	-15.173021	-0.030418	-15.173021	-29.244331	-104.619804
0.300000	-27.700479	-108.191877	-0.036371	-18.184209	-0.036371	-18.184209	-27.710502	-107.768669
0.350000	-26.431253	-111.408963	-0.042476	-21.192299	-0.042476	-21.192299	-26.433142	-110.839243
0.400000	-25.350056	-114.591754	-0.048726	-24.197870	-0.048726	-24.197870	-25.347747	-113.870904
0.450000	-24.418386	-117.746916	-0.055138	-27.201220	-0.055138	-27.201220	-24.414506	-116.880408
0.500000	-23.605728	-120.882454	-0.061698	-30.202833	-0.061698	-30.202833	-23.601861	-119.877432
0.550000	-22.891602	-124.002134	-0.068394	-33.202936	-0.068394	-33.202936	-22.889006	-122.866153
0.600000	-22.261779	-127.108084	-0.075205	-36.201675	-0.075205	-36.201675	-22.261863	-125.850656
0.650000	-21.706562	-130.201271	-0.082093	-39.199165	-0.082093	-39.199165	-21.711248	-128.840059
0.700000	-21.214872	-133.283231	-0.089003	-42.195646	-0.089003	-42.195646	-21.225294	-131.851105
0.750000	-20.779701	-136.354216	-0.095878	-45.191255	-0.095878	-45.191255	-20.793188	-134.896685
0.800000	-20.397019	-139.413952	-0.102651	-48.186097	-0.102651	-48.186097	-20.405210	-137.950205
0.850000	-20.061472	-142.463656	-0.109253	-51.180332	-0.109253	-51.180332	-20.059502	-140.959951
0.900000	-19.768775	-145.505672	-0.115624	-54.174103	-0.115624	-54.174103	-19.758486	-143.929113
0.950000	-19.516078	-148.543588	-0.121707	-57.167559	-0.121707	-57.167559	-19.501331	-146.879390
1.000000	-19.301192	-151.581854	-0.127454	-60.160883	-0.127454	-60.160883	-19.285273	-149.823202
1.050000	-19.122722	-154.624493	-0.132828	-63.154311	-0.132828	-63.154311	-19.107890	-152.764801
1.100000	-18.979898	-157.674032	-0.137802	-66.148142	-0.137802	-66.148142	-18.967461	-155.705258
1.150000	-18.872354	-160.731268	-0.142356	-69.142747	-0.142356	-69.142747	-18.862869	-158.644678
1.200000	-18.799968	-163.795792	-0.146476	-72.138563	-0.146476	-72.138563	-18.793483	-161.582931
1.250000	-18.762817	-166.866738	-0.150154	-75.136091	-0.150154	-75.136091	-18.759091	-164.519848
1.300000	-18.761980	-169.943449	-0.153376	-78.135939	-0.153376	-78.135939	-18.760642	-167.455231
1.350000	-18.797273	-173.025401	-0.156154	-81.138658	-0.156154	-81.138658	-18.797944	-170.388927
1.400000	-18.869616	-176.112611	-0.158492	-84.144855	-0.158492	-84.144855	-18.871954	-173.320708
1.450000	-18.980343	-179.205454	-0.160402	-87.155154	-0.160402	-87.155154	-18.984062	-176.250250
1.500000	-19.131268	177.695402	-0.161901	-90.170184	-0.161901	-90.170184	-19.136143	-179.177084
1.550000	-19.324775	174.589041	-0.163012	-93.190569	-0.163012	-93.190569	-19.330641	177.899472
1.600000	-19.563934	171.474327	-0.163767	-96.216926	-0.163767	-96.216926	-19.570676	174.980394
1.650000	-19.852649	168.349895	-0.164204	-99.249858	-0.164204	-99.249858	-19.860202	172.067074
1.700000	-20.195883	165.214120	-0.164368	-102.289948	-0.164368	-102.289948	-20.204220	169.161484
1.750000	-20.599954	162.065035	-0.164312	-105.337753	-0.164312	-105.337753	-20.609088	166.266411
1.800000	-21.072974	158.900206	-0.164097	-108.393799	-0.164097	-108.393799	-21.082953	163.385825
1.850000	-21.625499	155.716502	-0.163791	-111.458579	-0.163791	-111.458579	-21.636404	160.525445
1.900000	-22.272111	152.509412	-0.163471	-114.532648	-0.163471	-114.532648	-22.284055	157.694114
1.950000	-23.031908	149.272728	-0.163221	-117.616425	-0.163221	-117.616425	-23.045030	154.905162
2.000000	-23.930898	145.997563	-0.163129	-120.710164	-0.163129	-120.710164	-23.945349	152.178867
2.050000	-25.007742	142.669195	-0.163290	-123.814163	-0.163290	-123.814163	-25.023638	149.549437
2.100000	-26.321702	139.261856	-0.163801	-126.928661	-0.163801	-126.928661	-26.338983	147.077849
2.150000	-27.970303	135.725357	-0.164767	-130.053837	-0.164767	-130.053837	-27.988269	144.883979
2.200000	-30.131274	131.946115	-0.166291	-133.189803	-0.166291	-133.189803	-30.146777	143.239828
2.250000	-33.184275	127.597587	-0.168482	-136.336601	-0.168482	-136.336601	-33.182467	142.923336
2.300000	-38.211070	121.152324	-0.171450	-139.494206	-0.171450	-139.494206	-38.079903	147.438907
2.350000	-49.369398	73.043086	-0.175302	-142.662515	-0.175302	-142.662515	-46.848768	-166.907644
2.400000	-41.426997	-48.017908	-0.180148	-145.841358	-0.180148	-145.841358	-40.631108	-78.131020
2.450000	-34.308280	-57.137607	-0.186092	-149.030486	-0.186092	-149.030486	-34.079214	-68.780580
2.500000	-30.332339	-61.985860	-0.193237	-152.229580	-0.193237	-152.229580	-30.209453	-68.223020
2.550000	-27.542794	-65.984016	-0.201712	-155.438446	-0.201712	-155.438446	-27.460161	-69.620757
2.600000	-25.384581	-69.681829	-0.211582	-158.656403	-0.211582	-158.656403	-25.322420	-71.742601
2.650000	-23.620046	-73.237382	-0.222932	-161.882920	-0.222932	-161.882920	-23.570060	-74.224145
2.700000	-22.125839	-76.716455	-0.235838	-165.117408	-0.235838	-165.117408	-22.083850	-76.910862
2.750000	-20.830172	-80.151697	-0.250323	-168.359036	-0.250323	-168.359036	-20.793810	-79.723836
2.800000	-19.685911	-83.558561	-0.266523	-171.607460	-0.266523	-171.607460	-19.653703	-82.625756
2.850000	-18.662391	-86.947769	-0.284465	-174.861821	-0.284465	-174.861821	-18.633371	-85.588650
2.900000	-17.737676	-90.325342	-0.304174	-178.121298	-0.304174	-178.121298	-17.711174	-88.595680
2.950000	-16.895586	-93.694897	-0.325667	178.614928	-0.325667	178.614928	-16.871118	-91.635655
3.000000	-16.123845	-97.058636	-0.348955	175.347682	-0.348955	175.347682	-16.101053	-94.700688
3.050000	-15.412933	-100.417859	-0.374047	172.077786	-0.374047	172.077786	-15.391539	-97.785027
3.100000	-14.755316	-103.773396	-0.400888	168.806115	-0.400888	168.806115	-14.735104	-100.883843
3.150000	-14.144911	-107.125525	-0.429488	165.533462	-0.429488	165.533462	-14.125708	-103.993869
3.200000	-13.576773	-110.474349	-0.459802	162.260668	-0.459802	162.260668	-13.558437	-107.112093
3.250000	-13.046735	-113.819827	-0.491754	158.988531	-0.491754	158.988531	-13.029150	-110.235989
3.300000	-12.551302	-117.161768	-0.525273	155.717803	-0.525273	155.717803	-12.534368	-113.363520
3.350000	-12.087327	-120.500036	-0.560239	152.449114	-0.560239	152.449114	-12.070962	-116.492935
3.400000	-11.652588	-123.834097	-0.596639	149.183281	-0.596639	149.183281	-11.636721	-119.622796
3.450000	-11.244696	-127.163777	-0.634324	145.920840	-0.634324	145.920840	-11.229264	-122.751750
3.500000	-10.861701	-130.488791	-0.673178	142.662335	-0.673178	142.662335	-10.846652	-125.878685
3.550000	-10.501883	-133.808881	-0.713077	139.408239	-0.713077	139.408239	-10.487170	-129.002652
3.600000	-10.163715	-137.123832	-0.753889	136.158954	-0.753889	136.158954	-10.149298	-132.122846
3.650000	-9.845831	-140.433479	-0.795475	132.914808	-0.795475	132.914808	-9.831675	-135.238598
3.700000	-9.547005	-143.737716	-0.837689	129.676046	-0.837689	129.676046	-9.533079	-138.349371
3.750000	-9.266129	-147.036501	-0.880380	126.442833	-0.880380	126.442833	-9.252406	-141.454745
3.800000	-9.002324	-150.329782	-0.923392	123.215331	-0.923392	123.215331	-8.988779	-144.554334
3.850000	-8.754554	-153.617743	-0.966564	119.993452	-0.966564	119.993452	-8.741169	-147.648034
3.900000	-8.522322	-156.900372	-1.009719	116.777309	-1.009719	116.777309	-8.509078	-150.735538
3.950000	-8.304115	-160.178350	-1.052726	113.566254	-1.052726	113.566254	-8.290997	-153.817395
4.000000	-8.099704	-163.451747	-1.095403	110.360305	-1.095403	110.360305	-8.086700	-156.893421
4.050000	-7.908612	-166.720884	-1.137573	107.159205	-1.137573	107.159205	-7.895711	-159.963732
4.100000	-7.729604	-169.986537	-1.179135	103.962178	-1.179135	103.962178	-7.716796	-163.029064
4.150000	-7.563310	-173.248808	-1.219798	100.769240	-1.219798	100.769240	-7.550587	-166.089153
4.200000	-7.407763	-176.508810	-1.259592	97.579191	-1.259592	97.579191	-7.395119	-169.145294
4.250000	-7.264182	-179.766839	-1.298116	94.391879	-1.298116	94.391879	-7.251612	-172.197302
4.300000	-7.130697	176.976074	-1.335452	91.206154	-1.335452	91.206154	-7.118195	-175.246454
4.350000	-7.007950	173.719173	-1.371271	88.021328	-1.371271	88.021328	-6.995513	-178.293174
4.400000	-6.895144	170.461564	-1.405518	84.836445	-1.405518	84.836445	-6.882768	178.661599
4.450000	-6.792023	167.202281	-1.438045	81.650497	-1.438045	81.650497	-6.779704	175.616969
4.500000	-6.698855	163.940155	-1.468596	78.462291	-1.468596	78.462291	-6.686590	172.571965
4.550000	-6.614483	160.674483	-1.497270	75.270987	-1.497270	75.270987	-6.602268	169.525661
4.600000	-6.540255	157.403300	-1.523543	72.074592	-1.523543	72.074592	-6.528085	166.476568
4.650000	-6.474425	154.126441	-1.547727	68.872755	-1.547727	68.872755	-6.462296	163.424083
4.700000	-6.418463	150.841407	-1.569264	65.662856	-1.569264	65.662856	-6.406366	160.366188
4.750000	-6.371188	147.547922	-1.588369	62.444433	-1.588369	62.444433	-6.359117	157.302296
4.800000	-6.333352	144.243814	-1.604712	59.215081	-1.604712	59.215081	-6.321297	154.230470
4.850000	-6.304898	140.927782	-1.618223	55.973251	-1.618223	55.973251	-6.292846	151.149391
4.900000	-6.285646	137.598737	-1.628895	52.717581	-1.628895	52.717581	-6.273583	148.057902
4.950000	-6.276776	134.253615	-1.636322	49.444544	-1.636322	49.444544	-6.264682	144.953241
5.000000	-6.277071	130.893184	-1.640876	46.154724	-1.640876	46.154724	-6.264926	141.835791
5.050000	-6.289152	127.511753	-1.641762	42.841525	-1.641762	42.841525	-6.276925	138.700517
5.100000	-6.311261	124.111518	-1.639582	39.507066	-1.639582	39.507066	-6.298920	135.549075
5.150000	-6.345757	120.687148	-1.633713	36.144885	-1.633713	36.144885	-6.333260	132.376674
5.200000	-6.392253	117.238805	-1.624409	32.754717	-1.624409	32.754717	-6.379551	129.183296
5.250000	-6.452139	113.763292	-1.611452	29.332259	-1.611452	29.332259	-6.439171	125.966010
5.300000	-6.526764	110.257764	-1.594706	25.873454	-1.594706	25.873454	-6.513456	122.722224
5.350000	-6.616297	106.722231	-1.574410	22.377545	-1.574410	22.377545	-6.602563	119.451911
5.400000	-6.724412	103.149774	-1.550015	18.834889	-1.550015	18.834889	-6.710134	116.148992
5.450000	-6.850022	99.544094	-1.522183	15.249050	-1.522183	15.249050	-6.835076	112.816843
5.500000	-6.998934	95.895423	-1.490185	11.605534	-1.490185	11.605534	-6.983138	109.447140
5.550000	-7.170375	92.208379	-1.454750	7.908606	-1.454750	7.908606	-7.153534	106.044291
5.600000	-7.370135	88.476018	-1.415541	4.145690	-1.415541	4.145690	-7.351977	102.602959
5.650000	-7.600778	84.699259	-1.372934	0.314451	-1.372934	0.314451	-7.580973	99.124847
5.700000	-7.866482	80.878089	-1.327219	-3.590135	-1.327219	-3.590135	-7.844614	95.611294
5.750000	-8.175287	77.009645	-1.278485	-7.580561	-1.278485	-7.580561	-8.150783	92.062200
5.800000	-8.533780	73.097638	-1.227278	-11.662165	-1.227278	-11.662165	-8.505891	88.483847
5.850000	-8.951793	69.147085	-1.174152	-15.843959	-1.174152	-15.843959	-8.919494	84.885331
5.900000	-9.442103	65.168177	-1.119841	-20.135752	-1.119841	-20.135752	-9.403948	81.282684
5.950000	-10.020699	61.179657	-1.065300	-24.546259	-1.065300	-24.546259	-9.974603	77.702640
6.000000	-10.709697	57.213569	-1.011696	-29.085614	-1.011696	-29.085614	-10.652516	74.189376
6.050000	-11.539834	53.325984	-0.960481	-33.764264	-0.960481	-33.764264	-11.466587	70.817616
6.100000	-12.555443	49.617613	-0.913435	-38.592716	-0.913435	-38.592716	-12.457731	67.717932
6.150000	-13.823571	46.278784	-0.872715	-43.581200	-0.872715	-43.581200	-13.686040	65.130596
6.200000	-15.451789	43.699679	-0.840896	-48.739183	-0.840896	-48.739183	-15.243199	63.532464
6.250000	-17.625139	42.785605	-0.821010	-54.074745	-0.821010	-54.074745	-17.272004	63.975344
6.300000	-20.673855	46.243786	-0.816841	-59.596494	-0.816841	-59.596494	-19.964831	69.291426
6.350000	-24.883979	63.831342	-0.832191	-65.304475	-0.832191	-65.304475	-23.181264	87.173181
6.400000	-26.451912	112.795340	-0.871419	-71.197090	-0.871419	-71.197090	-24.163854	124.725247
6.450000	-21.903170	145.214843	-0.939154	-77.267488	-0.939154	-77.267488	-20.957641	153.306281
6.500000	-17.755438	152.854755	-1.040113	-83.502655	-1.040113	-83.502655	-17.378177	163.124752
6.550000	-14.703744	152.640352	-1.178526	-89.881843	-1.178526	-89.881843	-14.523198	164.669689
6.600000	-12.358586	149.458738	-1.359503	-96.381411	-1.359503	-96.381411	-12.261000	162.672571
6.650000	-10.484883	144.926963	-1.585410	-102.965572	-1.585410	-102.965572	-10.428727	158.989121
6.700000	-8.948341	139.656121	-1.859267	-109.597614	-1.859267	-109.597614	-8.915250	154.359751
6.750000	-7.668489	133.974851	-2.181623	-116.235987	-2.181623	-116.235987	-7.649325	149.189359
6.800000	-6.592890	128.069583	-2.552230	-122.839543	-2.552230	-122.839543	-6.582606	143.705813
6.850000	-5.684618	122.065350	-2.969267	-129.369366	-2.969267	-129.369366	-5.680215	138.059725
6.900000	-4.917125	116.050729	-3.430024	-135.788711	-3.430024	-135.788711	-4.916692	132.355090
6.950000	-4.266819	110.088613	-3.930045	-142.073089	-3.930045	-142.073089	-4.269101	126.666674
7.000000	-3.716666	104.224641	-4.465064	-148.200224	-4.465064	-148.200224	-3.720776	121.046775
7.050000	-3.251725	98.490695	-5.030133	-154.156933	-5.030133	-154.156933	-3.257008	115.532443
7.100000	-2.859530	92.908245	-5.620031	-159.936706	-5.620031	-159.936706	-2.865484	110.148835
7.150000	-2.529403	87.489821	-6.229391	-165.540296	-6.229391	-165.540296	-2.535619	104.911263
7.200000	-2.251678	82.238169	-6.853337	-170.977752	-6.853337	-170.977752	-2.257811	99.824811
7.250000	-2.018655	77.151943	-7.486927	-176.263774	-7.486927	-176.263774	-2.024393	94.889823
7.300000	-1.823964	72.225457	-8.125162	178.580271	-8.125162	178.580271	-1.829006	90.101970
7.350000	-1.662478	67.449556	-8.762770	173.525122	-8.762770	173.525122	-1.666514	85.453218
7.400000	-1.530288	62.812126	-9.393854	168.530817	-9.393854	168.530817	-1.532975	80.932400
7.450000	-1.424795	58.298221	-10.011360	163.541118	-10.011360	163.541118	-1.425720	76.525378
7.500000	-1.345011	53.889776	-10.606280	158.472644	-10.606280	158.472644	-1.343646	72.214770
7.550000	-1.292790	49.565911	-11.165292	153.186732	-11.165292	153.186732	-1.288377	67.980076
7.600000	-1.273637	45.299945	-11.672614	147.449797	-11.672614	147.449797	-1.265033	63.794794
7.650000	-1.302520	41.071379	-12.106963	140.814692	-12.106963	140.814692	-1.287818	59.637062
7.700000	-1.415610	36.915690	-12.453758	132.339537	-12.453758	132.339537	-1.391366	55.535655
7.750000	-1.690459	33.197517	-12.781727	119.990923	-12.781727	119.990923	-1.650766	51.827531
7.800000	-2.173997	31.965003	-13.696290	99.514677	-13.696290	99.514677	-2.117727	50.453951
7.850000	-2.041190	34.836206	-17.509028	73.152413	-17.509028	73.152413	-2.014642	53.100139
7.900000	-1.253931	32.891944	-25.021543	73.290825	-25.021543	73.290825	-1.263489	51.276771
7.950000	-0.864726	28.215939	-27.908427	111.081015	-27.908427	111.081015	-0.881215	46.747646
8.000000	-0.711151	23.812299	-26.655307	126.124398	-26.655307	126.124398	-0.726632	42.433413
8.050000	-0.640150	19.859850	-26.041184	128.125920	-26.041184	128.125920	-0.653187	38.536488
8.100000	-0.602826	16.243469	-26.058317	126.620885	-26.058317	126.620885	-0.613279	34.954865
8.150000	-0.579582	12.842104	-26.411248	124.139823	-26.411248	124.139823	-0.587574	31.575616
8.200000	-0.564044	9.599575	-26.979032	121.275386	-26.979032	121.275386	-0.569722	28.345809
8.250000	-0.553246	6.482738	-27.698982	118.237045	-27.698982	118.237045	-0.556740	25.234060
8.300000	-0.545641	3.469557	-28.533297	115.090442	-28.533297	115.090442	-0.547057	22.219437
8.350000	-0.540212	0.537533	-29.461244	111.843493	-29.461244	111.843493	-0.539629	19.280688
8.400000	-0.536508	-2.324050	-30.475807	108.467019	-30.475807	108.467019	-0.533989	16.407671
8.450000	-0.534477	-5.112479	-31.561321	104.852340	-31.561321	104.852340	-0.530077	13.602801
8.500000	-0.533458	-7.854945	-32.737184	100.986199	-32.737184	100.986199	-0.527211	10.840697
8.550000	-0.533535	-10.547075	-33.998686	96.722793	-33.998686	96.722793	-0.525474	8.125406
8.600000	-0.534608	-13.193179	-35.347609	91.901395	-35.347609	91.901395	-0.524762	5.452897
8.650000	-0.536758	-15.790286	-36.749603	86.079353	-36.749603	86.079353	-0.525156	2.825927
8.700000	-0.539781	-18.349086	-38.197956	78.964800	-38.197956	78.964800	-0.526445	0.234565
8.750000	-0.543641	-20.872754	-39.636925	70.136403	-39.636925	70.136403	-0.528592	-2.324132
8.800000	-0.548324	-23.363827	-40.953779	59.274341	-40.953779	59.274341	-0.531583	-4.852516
8.850000	-0.553828	-25.824702	-41.974560	46.477491	-41.974560	46.477491	-0.535416	-7.352813
8.900000	-0.560183	-28.257052	-42.495302	32.537921	-42.495302	32.537921	-0.540121	-9.826582
8.950000	-0.567398	-30.663326	-42.420592	18.868123	-42.420592	18.868123	-0.545709	-12.276111
9.000000	-0.575676	-33.042799	-41.809580	7.849636	-41.809580	7.849636	-0.552387	-14.700772
9.050000	-0.584789	-35.404745	-40.975677	-0.957337	-40.975677	-0.957337	-0.559922	-17.109227
9.100000	-0.594767	-37.750247	-40.015260	-7.498514	-40.015260	-7.498514	-0.568346	-19.502509
9.150000	-0.606231	-40.074703	-38.949557	-11.247753	-38.949557	-11.247753	-0.578297	-21.876566
9.200000	-0.618922	-42.388045	-37.876967	-13.651602	-37.876967	-13.651602	-0.589508	-24.240720
9.250000	-0.632843	-44.692980	-36.810222	-15.023224	-36.810222	-15.023224	-0.601983	-26.597569
9.300000	-0.648367	-46.990503	-35.727900	-15.460064	-35.727900	-15.460064	-0.616106	-28.948298
9.350000	-0.666336	-49.285636	-34.569022	-15.228016	-34.569022	-15.228016	-0.632744	-31.298292
9.400000	-0.686397	-51.583747	-33.392417	-14.744687	-33.392417	-14.744687	-0.651534	-33.652507
9.450000	-0.708727	-53.886906	-32.208818	-14.090870	-32.208818	-14.090870	-0.672657	-36.013059
9.500000	-0.734862	-56.204244	-30.947693	-13.414513	-30.947693	-13.414513	-0.697698	-38.389789
9.550000	-0.765936	-58.545632	-29.606138	-12.894763	-29.606138	-12.894763	-0.727829	-40.792987
9.600000	-0.802819	-60.918417	-28.213702	-12.622628	-28.213702	-12.622628	-0.763952	-43.230280
9.650000	-0.847332	-63.333517	-26.770815	-12.677037	-26.770815	-12.677037	-0.807956	-45.713302
9.700000	-0.900117	-65.793703	-25.323656	-13.062915	-25.323656	-13.062915	-0.860510	-48.244977
9.750000	-0.968789	-68.336625	-23.767544	-14.007809	-23.767544	-14.007809	-0.929529	-50.866024
9.800000	-1.057269	-70.971055	-22.155209	-15.526526	-22.155209	-15.526526	-1.019132	-53.586397
9.850000	-1.174136	-73.717578	-20.484271	-17.733638	-20.484271	-17.733638	-1.138335	-56.429425
9.900000	-1.338261	-76.607527	-18.713140	-20.882871	-18.713140	-20.882871	-1.307062	-59.432073
9.950000	-1.569319	-79.625853	-16.885563	-25.124052	-16.885563	-25.124052	-1.546425	-62.583155
10.000000	-1.909858	-82.713241	-14.990702	-30.855716	-14.990702	-30.855716	-1.902456	-65.829668
