! freq	dB(S11)	phase(S11)	dB(S12)	phase(S12)	
!     	dB(S21)	phase(S21)	dB(S22)	phase(S22)	
!S-par simulation data
#  GHz  S  DB  R 50
0.000000	-82.596116	0.000000	-0.000644	0.000000	-0.000644	0.000000	-82.596116	0.000000
0.050000	-40.220978	-92.982765	-0.005449	-3.090945	-0.005449	-3.090945	-40.217154	-92.294131
0.100000	-34.211059	-96.623977	-0.013972	-6.139680	-0.013972	-6.139680	-34.206329	-95.242264
0.150000	-30.706564	-100.119332	-0.021505	-9.165119	-0.021505	-9.165119	-30.700683	-98.037551
0.200000	-28.231967	-103.578241	-0.028133	-12.183997	-0.028133	-12.183997	-28.224967	-100.787763
0.250000	-26.324821	-107.023261	-0.034631	-15.201509	-0.034631	-15.201509	-26.316900	-103.514554
0.300000	-24.778930	-110.462216	-0.041466	-18.218470	-0.041466	-18.218470	-24.770347	-106.225017
0.350000	-23.485289	-113.898754	-0.048890	-21.234522	-0.048890	-21.234522	-23.476290	-108.921167
0.400000	-22.377297	-117.335238	-0.056968	-24.249203	-0.056968	-24.249203	-22.368079	-111.604426
0.450000	-21.412647	-120.773290	-0.065715	-27.262072	-0.065715	-27.262072	-21.403352	-114.274665
0.500000	-20.563336	-124.214524	-0.075142	-30.272665	-0.075142	-30.272665	-20.554063	-116.930637
0.550000	-19.808041	-127.660272	-0.085181	-33.280778	-0.085181	-33.280778	-19.798843	-119.571877
0.600000	-19.131276	-131.111860	-0.095769	-36.286268	-0.095769	-36.286268	-19.122177	-122.197513
0.650000	-18.522007	-134.570963	-0.106852	-39.288961	-0.106852	-39.288961	-18.513008	-124.805876
0.700000	-17.971181	-138.039200	-0.118353	-42.288840	-0.118353	-42.288840	-17.962269	-127.395650
0.750000	-17.471067	-141.517964	-0.130183	-45.286040	-0.130183	-45.286040	-17.462218	-129.966040
0.800000	-17.016104	-145.009151	-0.142269	-48.280655	-0.142269	-48.280655	-17.007287	-132.515441
0.850000	-16.602142	-148.515213	-0.154532	-51.272805	-0.154532	-51.272805	-16.593322	-135.041629
0.900000	-16.224377	-152.037585	-0.166886	-54.262862	-0.166886	-54.262862	-16.215516	-137.544118
0.950000	-15.879500	-155.578426	-0.179255	-57.251139	-0.179255	-57.251139	-15.870557	-140.021398
1.000000	-15.565622	-159.141304	-0.191559	-60.237948	-0.191559	-60.237948	-15.556550	-142.470369
1.050000	-15.279452	-162.727846	-0.203728	-63.223809	-0.203728	-63.223809	-15.270199	-144.890590
1.100000	-15.018823	-166.340665	-0.215699	-66.209208	-0.215699	-66.209208	-15.009333	-147.280423
1.150000	-14.782518	-169.983855	-0.227396	-69.194695	-0.227396	-69.194695	-14.772722	-149.636740
1.200000	-14.568652	-173.660319	-0.238767	-72.180885	-0.238767	-72.180885	-14.558471	-151.957900
1.250000	-14.375450	-177.372794	-0.249769	-75.168394	-0.249769	-75.168394	-14.364792	-154.242457
1.300000	-14.201940	178.874252	-0.260348	-78.157932	-0.260348	-78.157932	-14.190694	-156.487299
1.350000	-14.047214	175.075890	-0.270459	-81.150291	-0.270459	-81.150291	-14.035247	-158.689025
1.400000	-13.909620	171.229519	-0.280091	-84.146120	-0.280091	-84.146120	-13.896781	-160.846479
1.450000	-13.788216	167.330565	-0.289221	-87.146189	-0.289221	-87.146189	-13.774329	-162.956655
1.500000	-13.682758	163.371101	-0.297808	-90.151582	-0.297808	-90.151582	-13.667604	-165.013696
1.550000	-13.591568	159.349072	-0.305879	-93.162862	-0.305879	-93.162862	-13.574910	-167.016932
1.600000	-13.513769	155.259219	-0.313436	-96.180846	-0.313436	-96.180846	-13.495334	-168.962849
1.650000	-13.448986	151.092497	-0.320472	-99.206738	-0.320472	-99.206738	-13.428448	-170.844840
1.700000	-13.395950	146.844633	-0.327025	-102.241237	-0.327025	-102.241237	-13.372951	-172.660305
1.750000	-13.353527	142.510795	-0.333134	-105.285066	-0.333134	-105.285066	-13.327672	-174.406133
1.800000	-13.320851	138.083295	-0.338834	-108.339234	-0.338834	-108.339234	-13.291697	-176.076913
1.850000	-13.296810	133.555475	-0.344178	-111.404625	-0.344178	-111.404625	-13.263869	-177.668111
1.900000	-13.280255	128.919389	-0.349225	-114.482259	-0.349225	-114.482259	-13.242990	-179.174232
1.950000	-13.269798	124.168175	-0.354048	-117.573032	-0.354048	-117.573032	-13.227629	179.409272
2.000000	-13.263862	119.296607	-0.358734	-120.677665	-0.358734	-120.677665	-13.216184	178.085586
2.050000	-13.260790	114.298740	-0.363373	-123.796993	-0.363373	-123.796993	-13.206972	176.858321
2.100000	-13.258748	109.169327	-0.368066	-126.931827	-0.368066	-126.931827	-13.198147	175.730353
2.150000	-13.255718	103.904115	-0.372925	-130.082952	-0.372925	-130.082952	-13.187693	174.703541
2.200000	-13.249497	98.500193	-0.378068	-133.251121	-0.378068	-133.251121	-13.173436	173.778413
2.250000	-13.237720	92.956362	-0.383625	-136.437053	-0.383625	-136.437053	-13.153056	172.953815
2.300000	-13.217878	87.273538	-0.389734	-139.641429	-0.389734	-139.641429	-13.124128	172.226569
2.350000	-13.187378	81.455131	-0.396542	-142.864885	-0.396542	-142.864885	-13.084167	171.591141
2.400000	-13.143602	75.507379	-0.404204	-146.108010	-0.404204	-146.108010	-13.030699	171.039375
2.450000	-13.083997	69.439591	-0.412884	-149.371341	-0.412884	-149.371341	-12.961345	170.560327
2.500000	-13.006177	63.264244	-0.422752	-152.655360	-0.422752	-152.655360	-12.873915	170.140235
2.550000	-12.907524	56.995323	-0.434021	-155.960957	-0.434021	-155.960957	-12.766009	169.763163
2.600000	-12.786750	50.653681	-0.446851	-159.288035	-0.446851	-159.288035	-12.636556	169.408933
2.650000	-12.642660	44.260007	-0.461433	-162.636881	-0.461433	-162.636881	-12.484560	169.056949
2.700000	-12.474631	37.836427	-0.477965	-166.007709	-0.477965	-166.007709	-12.309573	168.685625
2.750000	-12.282652	31.405636	-0.496649	-169.400660	-0.496649	-169.400660	-12.111717	168.273201
2.800000	-12.067324	24.989976	-0.517692	-172.815796	-0.517692	-172.815796	-11.891680	167.798588
2.850000	-11.829821	18.610555	-0.541302	-176.253100	-0.541302	-176.253100	-11.650669	167.242150
2.900000	-11.571816	12.286495	-0.567693	-179.712473	-0.567693	-179.712473	-11.390338	166.586369
2.950000	-11.295378	6.034363	-0.597079	176.806269	-0.597079	176.806269	-11.112696	165.816332
3.000000	-11.002863	-0.132183	-0.629673	173.303396	-0.629673	173.303396	-10.820002	164.920021
3.050000	-10.696796	-6.202532	-0.665690	169.779260	-0.665690	169.779260	-10.514655	163.888416
3.100000	-10.379763	-12.169058	-0.705345	166.234303	-0.705345	166.234303	-10.199107	162.715418
3.150000	-10.054122	-18.025701	-0.748888	162.668836	-0.748888	162.668836	-9.875581	161.396063
3.200000	-9.722390	-23.770072	-0.796534	159.083491	-0.796534	159.083491	-9.546452	159.929439
3.250000	-9.387081	-29.403181	-0.848445	155.479183	-0.848445	155.479183	-9.214098	158.318367
3.300000	-9.050293	-34.926523	-0.904818	151.856687	-0.904818	151.856687	-8.880499	156.565778
3.350000	-8.714224	-40.345885	-0.965719	148.217326	-0.965719	148.217326	-8.547745	154.679773
3.400000	-8.379818	-45.658520	-1.031598	144.560975	-1.031598	144.560975	-8.216715	152.657327
3.450000	-8.048938	-50.872354	-1.102491	140.889182	-1.102491	140.889182	-7.889184	150.508978
3.500000	-7.722820	-55.992229	-1.178567	137.202983	-1.178567	137.202983	-7.566332	148.241267
3.550000	-7.402511	-61.023208	-1.259984	133.503467	-1.259984	133.503467	-7.249158	145.861044
3.600000	-7.088884	-65.970425	-1.346891	129.791762	-1.346891	129.791762	-6.938498	143.375306
3.650000	-6.782651	-70.838970	-1.439425	126.069032	-1.439425	126.069032	-6.635035	140.791079
3.700000	-6.484387	-75.633810	-1.537715	122.336466	-1.537715	122.336466	-6.339323	138.115323
3.750000	-6.194542	-80.359731	-1.641881	118.595272	-1.641881	118.595272	-6.051794	135.354859
3.800000	-5.913461	-85.020442	-1.752096	114.846574	-1.752096	114.846574	-5.772780	132.515288
3.850000	-5.641411	-89.621276	-1.868391	111.091711	-1.868391	111.091711	-5.502541	129.604241
3.900000	-5.378556	-94.166333	-1.990855	107.331886	-1.990855	107.331886	-5.241233	126.627871
3.950000	-5.124987	-98.659480	-2.119570	103.568281	-2.119570	103.568281	-4.988946	123.592069
4.000000	-4.880737	-103.104369	-2.254607	99.802051	-2.254607	99.802051	-4.745710	120.502461
4.050000	-4.645789	-107.504451	-2.396036	96.034314	-2.396036	96.034314	-4.511506	117.364402
4.100000	-4.420080	-111.862992	-2.543919	92.266145	-2.543919	92.266145	-4.286271	114.182980
4.150000	-4.203512	-116.183100	-2.698315	88.498568	-2.698315	88.498568	-4.069906	110.963022
4.200000	-3.995995	-120.467424	-2.859316	84.732575	-2.859316	84.732575	-3.862322	107.708814
4.250000	-3.797360	-124.719037	-3.026957	80.969080	-3.026957	80.969080	-3.663349	104.424923
4.300000	-3.607410	-128.940856	-3.201280	77.208910	-3.201280	77.208910	-3.472793	101.115587
4.350000	-3.426109	-133.134734	-3.382447	73.452993	-3.382447	73.452993	-3.290609	97.784057
4.400000	-3.252932	-137.304976	-3.570328	69.701702	-3.570328	69.701702	-3.116292	94.435214
4.450000	-3.087719	-141.453733	-3.765050	65.955683	-3.765050	65.955683	-2.949680	91.072091
4.500000	-2.930389	-145.582790	-3.966795	62.215625	-3.966795	62.215625	-2.790682	87.697339
4.550000	-2.780868	-149.694399	-4.175721	58.482211	-4.175721	58.482211	-2.639210	84.313965
4.600000	-2.638603	-153.792201	-4.391807	54.755394	-4.391807	54.755394	-2.494733	80.925306
4.650000	-2.503358	-157.878601	-4.615217	51.035435	-4.615217	51.035435	-2.357013	77.533801
4.700000	-2.375174	-161.955706	-4.846214	47.322943	-4.846214	47.322943	-2.226066	74.141871
4.750000	-2.253712	-166.026621	-5.084947	43.617888	-5.084947	43.617888	-2.101555	70.751992
4.800000	-2.138572	-170.094255	-5.331613	39.920040	-5.331613	39.920040	-1.983086	67.366153
4.850000	-2.029533	-174.161283	-5.586499	36.229358	-5.586499	36.229358	-1.870431	63.986200
4.900000	-1.926778	-178.231001	-5.849993	32.546327	-5.849993	32.546327	-1.763727	60.614711
4.950000	-1.829714	177.693525	-6.122399	28.870147	-6.122399	28.870147	-1.662400	57.252811
5.000000	-1.738117	173.609249	-6.404161	25.200509	-6.404161	25.200509	-1.566212	53.901899
5.050000	-1.651904	169.512570	-6.695805	21.537227	-6.695805	21.537227	-1.475051	50.563652
5.100000	-1.571071	165.398887	-6.997935	17.880100	-6.997935	17.880100	-1.388869	47.240060
5.150000	-1.495151	161.265371	-7.311229	14.228243	-7.311229	14.228243	-1.307205	43.931359
5.200000	-1.423986	157.108165	-7.636502	10.581164	-7.636502	10.581164	-1.229871	40.638531
5.250000	-1.357650	152.921342	-7.974722	6.938544	-7.974722	6.938544	-1.156873	37.363431
5.300000	-1.295936	148.700210	-8.327010	3.299705	-8.327010	3.299705	-1.087970	34.106671
5.350000	-1.238572	144.441034	-8.694673	-0.336007	-8.694673	-0.336007	-1.022863	30.868255
5.400000	-1.185515	140.137924	-9.079265	-3.968981	-9.079265	-3.968981	-0.961447	27.649036
5.450000	-1.136745	135.783979	-9.482653	-7.599491	-9.482653	-7.599491	-0.903621	24.449837
5.500000	-1.092239	131.371785	-9.907067	-11.227584	-9.907067	-11.227584	-0.849274	21.271279
5.550000	-1.051866	126.895279	-10.355137	-14.852985	-10.355137	-14.852985	-0.798207	18.113188
5.600000	-1.015591	122.347051	-10.830041	-18.474826	-10.830041	-18.474826	-0.750290	14.975643
5.650000	-0.983557	117.715656	-11.335786	-22.091122	-11.335786	-22.091122	-0.705508	11.859395
5.700000	-0.955622	112.995482	-11.876998	-25.699096	-11.876998	-25.699096	-0.663641	8.763460
5.750000	-0.932064	108.171273	-12.459855	-29.293119	-12.459855	-29.293119	-0.624745	5.688716
5.800000	-0.912865	103.234605	-13.091678	-32.865469	-13.091678	-32.865469	-0.588672	2.634249
5.850000	-0.898223	98.171817	-13.782040	-36.403523	-13.782040	-36.403523	-0.555403	-0.400068
5.900000	-0.888465	92.965152	-14.543594	-39.885738	-14.543594	-39.885738	-0.524981	-3.414187
5.950000	-0.883673	87.604568	-15.392275	-43.283532	-15.392275	-43.283532	-0.497307	-6.409304
6.000000	-0.884485	82.062713	-16.351195	-46.538351	-16.351195	-46.538351	-0.472573	-9.384834
6.050000	-0.891081	76.327410	-17.450757	-49.569016	-17.450757	-49.569016	-0.450725	-12.342113
6.100000	-0.904077	70.372615	-18.736279	-52.219624	-18.736279	-52.219624	-0.431929	-15.281200
6.150000	-0.924142	64.170493	-20.275501	-54.187084	-20.275501	-54.187084	-0.416373	-18.202296
6.200000	-0.951696	57.702710	-22.173114	-54.925446	-22.173114	-54.925446	-0.404140	-21.106199
6.250000	-0.987999	50.920695	-24.592545	-52.884340	-24.592545	-52.884340	-0.395697	-23.991806
6.300000	-1.033421	43.807671	-27.719110	-44.349331	-27.719110	-44.349331	-0.391142	-26.859683
6.350000	-1.089127	36.316052	-30.929013	-19.134953	-30.929013	-19.134953	-0.390956	-29.708297
6.400000	-1.155487	28.425528	-30.625827	21.239804	-30.625827	21.239804	-0.395313	-32.536962
6.450000	-1.233827	20.071560	-26.959048	43.365508	-26.959048	43.365508	-0.404892	-35.341952
6.500000	-1.324239	11.227724	-23.651620	50.018015	-23.651620	50.018015	-0.419922	-38.120351
6.550000	-1.426629	1.859130	-21.061959	50.468662	-21.061959	50.468662	-0.440685	-40.867495
6.600000	-1.540302	-8.071394	-18.997064	48.088592	-18.997064	48.088592	-0.467404	-43.576852
6.650000	-1.663278	-18.578226	-17.307660	44.194102	-17.307660	44.194102	-0.499940	-46.241489
6.700000	-1.792332	-29.660722	-15.900091	39.359597	-15.900091	39.359597	-0.537840	-48.853755
6.750000	-1.922737	-41.305071	-14.716827	33.877811	-14.716827	33.877811	-0.580318	-51.404945
6.800000	-2.048268	-53.456389	-13.720731	27.940991	-13.720731	27.940991	-0.626031	-53.888575
6.850000	-2.161717	-66.031015	-12.886901	21.681967	-12.886901	21.681967	-0.673254	-56.300049
6.900000	-2.255600	-78.912147	-12.197716	15.207767	-12.197716	15.207767	-0.719958	-58.638008
6.950000	-2.323437	-91.951989	-11.639061	8.612703	-11.639061	8.612703	-0.764022	-60.905694
7.000000	-2.361020	-104.985905	-11.198225	1.980405	-11.198225	1.980405	-0.803534	-63.110952
7.050000	-2.366940	-117.848746	-10.863519	-4.616419	-10.863519	-4.616419	-0.837008	-65.264902
7.100000	-2.342697	-130.388694	-10.623701	-11.115983	-10.623701	-11.115983	-0.863528	-67.380760
7.150000	-2.292282	-142.480331	-10.467627	-17.468504	-10.467627	-17.468504	-0.882812	-69.472360
7.200000	-2.221342	-154.037001	-10.383928	-23.638358	-10.383928	-23.638358	-0.895204	-71.552606
7.250000	-2.135818	-165.005723	-10.362236	-29.601482	-10.362236	-29.601482	-0.901435	-73.632160
7.300000	-2.041216	-175.355255	-10.393666	-35.340901	-10.393666	-35.340901	-0.902419	-75.719379
7.350000	-1.942494	174.893956	-10.468252	-40.858257	-10.468252	-40.858257	-0.899368	-77.819601
7.400000	-1.843227	165.728349	-10.579078	-46.153035	-10.579078	-46.153035	-0.893270	-79.936379
7.450000	-1.746101	157.115635	-10.719637	-51.232276	-10.719637	-51.232276	-0.885077	-82.071490
7.500000	-1.652927	149.017263	-10.884403	-56.106295	-10.884403	-56.106295	-0.875607	-84.225522
7.550000	-1.564888	141.398394	-11.068910	-60.784799	-11.068910	-60.784799	-0.865529	-86.398576
7.600000	-1.482511	134.210576	-11.269047	-65.284082	-11.269047	-65.284082	-0.855386	-88.589806
7.650000	-1.406003	127.414547	-11.481691	-69.617701	-11.481691	-69.617701	-0.845581	-90.798506
7.700000	-1.335323	120.973631	-11.704293	-73.798985	-11.704293	-73.798985	-0.836415	-93.024011
7.750000	-1.270276	114.854168	-11.934779	-77.840735	-11.934779	-77.840735	-0.828106	-95.265805
7.800000	-1.210573	109.025632	-12.171471	-81.755045	-12.171471	-81.755045	-0.820808	-97.523583
7.850000	-1.155875	103.460566	-12.413016	-85.553216	-12.413016	-85.553216	-0.814628	-99.797286
7.900000	-1.105828	98.134410	-12.658328	-89.245736	-12.658328	-89.245736	-0.809634	-102.087120
7.950000	-1.060113	93.027176	-12.906488	-92.841455	-12.906488	-92.841455	-0.805882	-104.393718
8.000000	-1.018363	88.118013	-13.156813	-96.349928	-13.156813	-96.349928	-0.803390	-106.717749
8.050000	-0.980239	83.388670	-13.408780	-99.779820	-13.408780	-99.779820	-0.802165	-109.060125
8.100000	-0.945541	78.828894	-13.661743	-103.136576	-13.661743	-103.136576	-0.802253	-111.422804
8.150000	-0.913796	74.414739	-13.915806	-106.431620	-13.915806	-106.431620	-0.803569	-113.805866
8.200000	-0.884820	70.137387	-14.170610	-109.670048	-14.170610	-109.670048	-0.806139	-116.211395
8.250000	-0.858536	65.993740	-14.425558	-112.854838	-14.425558	-112.854838	-0.810036	-118.642738
8.300000	-0.834466	61.959984	-14.681348	-115.997283	-14.681348	-115.997283	-0.815117	-121.099058
8.350000	-0.812751	58.044218	-14.936846	-119.096501	-14.936846	-119.096501	-0.821573	-123.586835
8.400000	-0.793025	54.228400	-15.192665	-122.161581	-15.192665	-122.161581	-0.829301	-126.106234
8.450000	-0.775180	50.507630	-15.448662	-125.196790	-15.448662	-125.196790	-0.838343	-128.660751
8.500000	-0.759081	46.875669	-15.704861	-128.207009	-15.704861	-128.207009	-0.848725	-131.253642
8.550000	-0.744608	43.326879	-15.961311	-131.197043	-15.961311	-131.197043	-0.860477	-133.888466
8.600000	-0.731652	39.856146	-16.218093	-134.171667	-16.218093	-134.171667	-0.873642	-136.569105
8.650000	-0.720116	36.458819	-16.475312	-137.135677	-16.475312	-137.135677	-0.888268	-139.299790
8.700000	-0.709909	33.130655	-16.733103	-140.093941	-16.733103	-140.093941	-0.904413	-142.085131
8.750000	-0.700954	29.867771	-16.991630	-143.051444	-16.991630	-143.051444	-0.922147	-144.930147
8.800000	-0.693202	26.667865	-17.250946	-146.013565	-17.250946	-146.013565	-0.941586	-147.841862
8.850000	-0.686562	23.526250	-17.511434	-148.985721	-17.511434	-148.985721	-0.962789	-150.824974
8.900000	-0.680977	20.439906	-17.773365	-151.973600	-17.773365	-151.973600	-0.985859	-153.886011
8.950000	-0.676396	17.406033	-18.037057	-154.983232	-18.037057	-154.983232	-1.010914	-157.032086
9.000000	-0.672824	14.424645	-18.302559	-158.022839	-18.302559	-158.022839	-1.038200	-160.276294
9.050000	-0.670128	11.488445	-18.570888	-161.096628	-18.570888	-161.096628	-1.067662	-163.618055
9.100000	-0.668315	8.597379	-18.842274	-164.213213	-18.842274	-164.213213	-1.099546	-167.070483
9.150000	-0.667355	5.749329	-19.117293	-167.380724	-19.117293	-167.380724	-1.134024	-170.643587
9.200000	-0.667129	2.937753	-19.397094	-170.600102	-19.397094	-170.600102	-1.170958	-174.331776
9.250000	-0.667838	0.171741	-19.681281	-173.899115	-19.681281	-173.899115	-1.211297	-178.185027
9.300000	-0.669275	-2.559569	-19.971702	-177.272295	-19.971702	-177.272295	-1.254597	177.817123
9.350000	-0.671515	-5.253543	-20.269038	179.258945	-20.269038	179.258945	-1.301415	173.642359
9.400000	-0.674497	-7.913755	-20.574667	175.687466	-20.574667	175.687466	-1.351766	169.286298
9.450000	-0.678196	-10.542238	-20.890029	172.001955	-20.890029	172.001955	-1.405765	164.737809
9.500000	-0.682646	-13.138134	-21.216711	168.178837	-21.216711	168.178837	-1.463806	159.966995
9.550000	-0.687808	-15.703816	-21.556711	164.205109	-21.556711	164.205109	-1.525883	154.963719
9.600000	-0.693669	-18.240319	-21.912300	160.061277	-21.912300	160.061277	-1.592052	149.709576
9.650000	-0.700212	-20.748618	-22.286126	155.725612	-22.286126	155.725612	-1.662262	144.185919
9.700000	-0.707406	-23.230005	-22.681171	151.177371	-22.681171	151.177371	-1.736271	138.378838
9.750000	-0.715221	-25.685421	-23.100846	146.392108	-23.100846	146.392108	-1.813688	132.273467
9.800000	-0.723622	-28.115744	-23.548979	141.343143	-23.548979	141.343143	-1.893896	125.857361
9.850000	-0.732563	-30.521790	-24.029806	136.001346	-24.029806	136.001346	-1.976005	119.121692
9.900000	-0.741993	-32.904324	-24.547895	130.334834	-24.547895	130.334834	-2.058819	112.062637
9.950000	-0.751847	-35.264064	-25.108011	124.308515	-25.108011	124.308515	-2.140816	104.682917
10.000000	-0.762054	-37.601687	-25.714864	117.883403	-25.714864	117.883403	-2.220168	96.993360
