! freq	dB(S11)	phase(S11)	dB(S12)	phase(S12)	
!     	dB(S21)	phase(S21)	dB(S22)	phase(S22)	
!S-par simulation data
#  GHz  S  DB  R 50
0.000000	-82.437106	0.000000	-0.000656	0.000000	-0.000656	0.000000	-82.437106	0.000000
0.050000	-40.944555	-90.347773	-0.005603	-2.952057	-0.005603	-2.952057	-40.985506	-92.713686
0.100000	-35.030548	-92.728455	-0.012804	-5.862724	-0.012804	-5.862724	-35.063285	-97.113002
0.150000	-31.551705	-94.950259	-0.019062	-8.759961	-0.019062	-8.759961	-31.588433	-101.448253
0.200000	-29.079093	-97.044055	-0.025261	-11.654092	-0.025261	-11.654092	-29.118841	-105.684375
0.250000	-27.162697	-99.062526	-0.031925	-14.546374	-0.031925	-14.546374	-27.204199	-109.848842
0.300000	-25.600248	-101.033288	-0.039192	-17.436681	-0.039192	-17.436681	-25.642632	-113.962937
0.350000	-24.283002	-102.971650	-0.047053	-20.325021	-0.047053	-20.325021	-24.325656	-118.040649
0.400000	-23.145895	-104.886178	-0.055477	-23.211535	-0.055477	-23.211535	-23.188363	-122.090559
0.450000	-22.147024	-106.782304	-0.064444	-26.096420	-0.064444	-26.096420	-22.188953	-126.118451
0.500000	-21.257477	-108.664580	-0.073919	-28.979960	-0.073919	-28.979960	-21.298607	-130.129465
0.550000	-20.456702	-110.536052	-0.083884	-31.862374	-0.083884	-31.862374	-20.496840	-134.127092
0.600000	-19.729554	-112.398992	-0.094330	-34.743830	-0.094330	-34.743830	-19.768552	-138.113915
0.650000	-19.064647	-114.255090	-0.105260	-37.624442	-0.105260	-37.624442	-19.102387	-142.091775
0.700000	-18.453005	-116.105859	-0.116665	-40.504305	-0.116665	-40.504305	-18.489394	-146.062260
0.750000	-17.887453	-117.952528	-0.128536	-43.383491	-0.128536	-43.383491	-17.922415	-150.026561
0.800000	-17.362270	-119.796054	-0.140866	-46.262043	-0.140866	-46.262043	-17.395734	-153.985466
0.850000	-16.872987	-121.637197	-0.153663	-49.139974	-0.153663	-49.139974	-16.904880	-157.939364
0.900000	-16.415404	-123.476807	-0.166895	-52.017343	-0.166895	-52.017343	-16.445665	-161.888854
0.950000	-15.986362	-125.315507	-0.180559	-54.894171	-0.180559	-54.894171	-16.014925	-165.834045
1.000000	-15.583081	-127.153926	-0.194641	-57.770493	-0.194641	-57.770493	-15.609882	-169.775011
1.050000	-15.203180	-128.992671	-0.209127	-60.646354	-0.209127	-60.646354	-15.228152	-173.711713
1.100000	-14.844599	-130.832347	-0.223999	-63.521808	-0.223999	-63.521808	-14.867679	-177.644025
1.150000	-14.505546	-132.673565	-0.239239	-66.396918	-0.239239	-66.396918	-14.526670	178.428255
1.200000	-14.184450	-134.516958	-0.254829	-69.271762	-0.254829	-69.271762	-14.203558	174.505400
1.250000	-13.879925	-136.363182	-0.270748	-72.146430	-0.270748	-72.146430	-13.896960	170.587738
1.300000	-13.590853	-138.213024	-0.286980	-75.021026	-0.286980	-75.021026	-13.605759	166.675781
1.350000	-13.316026	-140.067153	-0.303498	-77.895673	-0.303498	-77.895673	-13.328754	162.769847
1.400000	-13.054464	-141.926345	-0.320279	-80.770500	-0.320279	-80.770500	-13.064974	158.870409
1.450000	-12.805291	-143.791422	-0.337301	-83.645653	-0.337301	-83.645653	-12.813545	154.977978
1.500000	-12.567715	-145.663251	-0.354541	-86.521290	-0.354541	-86.521290	-12.573684	151.093100
1.550000	-12.341024	-147.542750	-0.371976	-89.397584	-0.371976	-89.397584	-12.344683	147.216355
1.600000	-12.124571	-149.430887	-0.389583	-92.274720	-0.389583	-92.274720	-12.125902	143.348352
1.650000	-11.917773	-151.328681	-0.407338	-95.152897	-0.407338	-95.152897	-11.916761	139.489728
1.700000	-11.720100	-153.237200	-0.425220	-98.032328	-0.425220	-98.032328	-11.716734	135.641146
1.750000	-11.531069	-155.157567	-0.443204	-100.913240	-0.443204	-100.913240	-11.525345	131.803295
1.800000	-11.350242	-157.090952	-0.461268	-103.795873	-0.461268	-103.795873	-11.342157	127.976881
1.850000	-11.177223	-159.038576	-0.479389	-106.680481	-0.479389	-106.680481	-11.166775	124.162633
1.900000	-11.011694	-161.001895	-0.497544	-109.567361	-0.497544	-109.567361	-10.998881	120.361445
1.950000	-10.853325	-162.982278	-0.515709	-112.456807	-0.515709	-112.456807	-10.838146	116.574104
2.000000	-10.701774	-164.980931	-0.533862	-115.349095	-0.533862	-115.349095	-10.684226	112.801243
2.050000	-10.556769	-166.999278	-0.551980	-118.244543	-0.551980	-118.244543	-10.536847	109.043646
2.100000	-10.418065	-169.038792	-0.570041	-121.143485	-0.570041	-121.143485	-10.395761	105.302107
2.150000	-10.285441	-171.100997	-0.588023	-124.046273	-0.588023	-124.046273	-10.260738	101.577425
2.200000	-10.158694	-173.187466	-0.605904	-126.953281	-0.605904	-126.953281	-10.131571	97.870402
2.250000	-10.037640	-175.299825	-0.623662	-129.864902	-0.623662	-129.864902	-10.008070	94.181844
2.300000	-9.922115	-177.439750	-0.641274	-132.781551	-0.641274	-132.781551	-9.890058	90.512556
2.350000	-9.811967	-179.608972	-0.658721	-135.703669	-0.658721	-135.703669	-9.777375	86.863341
2.400000	-9.707058	178.190722	-0.675980	-138.631722	-0.675980	-138.631722	-9.669871	83.234997
2.450000	-9.607262	175.957489	-0.693031	-141.566206	-0.693031	-141.566206	-9.567410	79.628316
2.500000	-9.512462	173.689426	-0.709854	-144.507645	-0.709854	-144.507645	-9.469859	76.044082
2.550000	-9.422634	171.383722	-0.726423	-147.456773	-0.726423	-147.456773	-9.377179	72.483590
2.600000	-9.337588	169.039097	-0.742726	-150.414036	-0.742726	-150.414036	-9.289170	68.947110
2.650000	-9.257227	166.653449	-0.758746	-153.380067	-0.758746	-153.380067	-9.205717	65.435385
2.700000	-9.181451	164.224605	-0.774468	-156.355540	-0.774468	-156.355540	-9.126708	61.949138
2.750000	-9.110162	161.750319	-0.789878	-159.341175	-0.789878	-159.341175	-9.052029	58.489070
2.800000	-9.043259	159.228267	-0.804964	-162.337735	-0.804964	-162.337735	-8.981564	55.055855
2.850000	-8.980634	156.656051	-0.819718	-165.346038	-0.819718	-165.346038	-8.915192	51.650136
2.900000	-8.922173	154.031191	-0.834134	-168.366951	-0.834134	-168.366951	-8.852784	48.272517
2.950000	-8.867750	151.351128	-0.848211	-171.401401	-0.848211	-171.401401	-8.794203	44.923558
3.000000	-8.817226	148.613225	-0.861950	-174.450372	-0.861950	-174.450372	-8.739299	41.603763
3.050000	-8.770442	145.814770	-0.875358	-177.514916	-0.875358	-177.514916	-8.687904	38.313571
3.100000	-8.727221	142.952978	-0.888447	179.403851	-0.888447	179.403851	-8.639834	35.053339
3.150000	-8.687392	140.024250	-0.901233	176.304530	-0.901233	176.304530	-8.594912	31.823657
3.200000	-8.650714	137.025585	-0.913742	173.185809	-0.913742	173.185809	-8.552896	28.624666
3.250000	-8.616883	133.954764	-0.926013	170.046531	-0.926013	170.046531	-8.513492	25.456017
3.300000	-8.585590	130.808833	-0.938087	166.885258	-0.938087	166.885258	-8.476401	22.317512
3.350000	-8.556596	127.579344	-0.950012	163.698747	-0.950012	163.698747	-8.441384	19.210687
3.400000	-8.529252	124.273839	-0.961867	160.488570	-0.961867	160.488570	-8.407851	16.131003
3.450000	-8.503227	120.884879	-0.973719	157.251606	-0.973719	157.251606	-8.375487	13.079201
3.500000	-8.478007	117.409821	-0.985657	153.986038	-0.985657	153.986038	-8.343824	10.053887
3.550000	-8.453019	113.846214	-0.997783	150.689933	-0.997783	150.689933	-8.312343	7.053203
3.600000	-8.427620	110.191868	-1.010215	147.361237	-1.010215	147.361237	-8.280471	4.074746
3.650000	-8.401097	106.444934	-1.023090	143.997760	-1.023090	143.997760	-8.247580	1.115470
3.700000	-8.372663	102.603992	-1.036561	140.597166	-1.036561	140.597166	-8.212986	-1.828434
3.750000	-8.341457	98.668149	-1.050804	137.156962	-1.050804	137.156962	-8.175952	-4.761652
3.800000	-8.306302	94.632242	-1.066075	133.672162	-1.066075	133.672162	-8.135472	-7.689928
3.850000	-8.266331	90.501776	-1.082564	130.141910	-1.082564	130.141910	-8.090838	-10.620877
3.900000	-8.220469	86.278225	-1.100524	126.563077	-1.100524	126.563077	-8.041168	-13.562900
3.950000	-8.167584	81.964044	-1.120244	122.932270	-1.120244	122.932270	-7.985554	-16.525925
4.000000	-8.106508	77.562765	-1.142046	119.245794	-1.142046	119.245794	-7.923074	-19.521578
4.050000	-8.036045	73.079069	-1.166294	115.499605	-1.166294	115.499605	-7.852806	-22.563355
4.100000	-7.954665	68.517029	-1.193484	111.687460	-1.193484	111.687460	-7.773578	-25.668845
4.150000	-7.861311	63.885376	-1.224054	107.805293	-1.224054	107.805293	-7.684636	-28.855591
4.200000	-7.754916	59.193081	-1.258521	103.848076	-1.258521	103.848076	-7.585241	-32.143454
4.250000	-7.634360	54.449481	-1.297508	99.809520	-1.297508	99.809520	-7.474632	-35.555433
4.300000	-7.498579	49.664750	-1.341739	95.682493	-1.341739	95.682493	-7.352118	-39.117302
4.350000	-7.346575	44.849643	-1.392067	91.458844	-1.392067	91.458844	-7.217083	-42.857822
4.400000	-7.177035	40.015009	-1.449645	87.127192	-1.449645	87.127192	-7.068692	-46.813198
4.450000	-6.988998	35.172147	-1.515766	82.676094	-1.515766	82.676094	-6.906396	-51.020760
4.500000	-6.781952	30.331367	-1.591843	78.094610	-1.591843	78.094610	-6.729978	-55.516424
4.550000	-6.555046	25.501237	-1.679782	73.367829	-1.679782	73.367829	-6.538940	-60.343925
4.600000	-6.307408	20.688133	-1.781992	68.478327	-1.781992	68.478327	-6.332725	-65.551522
4.650000	-6.038334	15.895202	-1.901435	63.407064	-1.901435	63.407064	-6.110821	-71.189213
4.700000	-5.746071	11.122031	-2.042625	58.124955	-2.042625	58.124955	-5.871839	-77.328075
4.750000	-5.429801	6.361720	-2.210913	52.604733	-2.210913	52.604733	-5.614889	-84.031084
4.800000	-5.089178	1.600400	-2.413088	46.817908	-2.413088	46.817908	-5.339194	-91.359621
4.850000	-4.723403	-3.184390	-2.659053	40.726446	-2.659053	40.726446	-5.043355	-99.392448
4.900000	-4.333201	-8.024343	-2.961333	34.295807	-2.961333	34.295807	-4.726786	-108.195545
4.950000	-3.920816	-12.959520	-3.336373	27.494615	-3.336373	27.494615	-4.389775	-117.825265
5.000000	-3.489615	-18.041031	-3.808202	20.288392	-3.808202	20.288392	-4.033174	-128.346447
5.050000	-3.046883	-23.322438	-4.407761	12.666424	-4.407761	12.666424	-3.660830	-139.783283
5.100000	-2.603968	-28.847967	-5.174242	4.656427	-5.174242	4.656427	-3.280175	-152.107106
5.150000	-2.175594	-34.647786	-6.161630	-3.665027	-6.161630	-3.665027	-2.901887	-165.250246
5.200000	-1.779327	-40.712686	-7.437595	-12.125353	-7.437595	-12.125353	-2.540140	-179.058649
5.250000	-1.433018	-46.992623	-9.096182	-20.410887	-9.096182	-20.410887	-2.210366	166.682210
5.300000	-1.150450	-53.388833	-11.272084	-27.958050	-11.272084	-27.958050	-1.925820	152.251326
5.350000	-0.939174	-59.773691	-14.191684	-33.596031	-14.191684	-33.596031	-1.695064	137.949465
5.400000	-0.797590	-66.015212	-18.287972	-34.164610	-18.287972	-34.164610	-1.519235	124.058481
5.450000	-0.717412	-72.002265	-24.068424	-16.390218	-24.068424	-16.390218	-1.393564	110.808914
5.500000	-0.685434	-77.664087	-25.440361	41.506934	-25.440361	41.506934	-1.308749	98.350742
5.550000	-0.687659	-82.968830	-20.648549	66.042202	-20.648549	66.042202	-1.254361	86.762545
5.600000	-0.711268	-87.919685	-17.362039	68.933469	-17.362039	68.933469	-1.220547	76.055266
5.650000	-0.746205	-92.535909	-15.254946	66.587919	-15.254946	66.587919	-1.199499	66.209958
5.700000	-0.785010	-96.861343	-13.817573	62.683820	-13.817573	62.683820	-1.185167	57.144694
5.750000	-0.823060	-100.929085	-12.799857	58.252860	-12.799857	58.252860	-1.173828	48.800660
5.800000	-0.857519	-104.775048	-12.061816	53.699248	-12.061816	53.699248	-1.163071	41.104308
5.850000	-0.886910	-108.430479	-11.520328	49.190921	-11.520328	49.190921	-1.151544	33.986776
5.900000	-0.910680	-111.922422	-11.122006	44.800197	-11.122006	44.800197	-1.138601	27.383246
5.950000	-0.928944	-115.275304	-10.829773	40.553627	-10.829773	40.553627	-1.124079	21.228934
6.000000	-0.942084	-118.507667	-10.618726	36.458597	-10.618726	36.458597	-1.108064	15.471435
6.050000	-0.950645	-121.634626	-10.470923	32.512959	-10.470923	32.512959	-1.090777	10.064836
6.100000	-0.955232	-124.668484	-10.373103	28.710060	-10.373103	28.710060	-1.072500	4.969143
6.150000	-0.956410	-127.618229	-10.315696	25.043101	-10.315696	25.043101	-1.053527	0.153075
6.200000	-0.954743	-130.491654	-10.291090	21.503779	-10.291090	21.503779	-1.034147	-4.412156
6.250000	-0.950995	-133.303280	-10.290396	18.069842	-10.290396	18.069842	-1.014635	-8.777493
6.300000	-0.945202	-136.045161	-10.313782	14.756108	-10.313782	14.756108	-0.995208	-12.922129
6.350000	-0.938120	-138.735027	-10.353143	11.532322	-10.353143	11.532322	-0.976037	-16.906377
6.400000	-0.929882	-141.368352	-10.407948	8.406043	-10.407948	8.406043	-0.957326	-20.721069
6.450000	-0.920869	-143.953740	-10.474392	5.361894	-10.474392	5.361894	-0.939161	-24.396256
6.500000	-0.911291	-146.492476	-10.550803	2.396892	-10.550803	2.396892	-0.921668	-27.939923
6.550000	-0.901339	-148.986512	-10.635603	-0.493162	-10.635603	-0.493162	-0.904940	-31.361528
6.600000	-0.891199	-151.441639	-10.726823	-3.318852	-10.726823	-3.318852	-0.888981	-34.680322
6.650000	-0.880987	-153.854794	-10.823909	-6.076108	-10.823909	-6.076108	-0.873945	-37.891770
6.700000	-0.870816	-156.234653	-10.925131	-8.779897	-10.925131	-8.779897	-0.859715	-41.020798
6.750000	-0.860787	-158.576307	-11.030122	-11.423291	-11.030122	-11.423291	-0.846480	-44.058268
6.800000	-0.850945	-160.887497	-11.137762	-14.019292	-11.137762	-14.019292	-0.834096	-47.025042
6.850000	-0.841368	-163.166190	-11.247529	-16.565536	-11.247529	-16.565536	-0.822671	-49.918717
6.900000	-0.832082	-165.415756	-11.358818	-19.067889	-11.358818	-19.067889	-0.812150	-52.748862
6.950000	-0.823122	-167.637455	-11.471125	-21.528938	-11.471125	-21.528938	-0.802534	-55.520107
7.000000	-0.814525	-169.831458	-11.583977	-23.949605	-11.583977	-23.949605	-0.793856	-58.234593
7.050000	-0.806289	-172.000694	-11.697040	-26.334780	-11.697040	-26.334780	-0.786052	-60.899927
7.100000	-0.798422	-174.146405	-11.809999	-28.686796	-11.809999	-28.686796	-0.779107	-63.519988
7.150000	-0.790930	-176.269778	-11.922577	-31.007866	-11.922577	-31.007866	-0.773008	-66.098399
7.200000	-0.783815	-178.371949	-12.034529	-33.300088	-12.034529	-33.300088	-0.767739	-68.638562
7.250000	-0.777088	179.546574	-12.145563	-35.564702	-12.145563	-35.564702	-0.763311	-71.142706
7.300000	-0.770764	177.485661	-12.255336	-37.802489	-12.255336	-37.802489	-0.759750	-73.612491
7.350000	-0.764807	175.442607	-12.363885	-40.017532	-12.363885	-40.017532	-0.756975	-76.053725
7.400000	-0.759210	173.416458	-12.471071	-42.211574	-12.471071	-42.211574	-0.754972	-78.469130
7.450000	-0.753966	171.406293	-12.576769	-44.386293	-12.576769	-44.386293	-0.753730	-80.861325
7.500000	-0.749066	169.411225	-12.680875	-46.543316	-12.680875	-46.543316	-0.753237	-83.232835
7.550000	-0.744502	167.430400	-12.783296	-48.684225	-12.783296	-48.684225	-0.753486	-85.586112
7.600000	-0.740288	165.463996	-12.883718	-50.809520	-12.883718	-50.809520	-0.754527	-87.922472
7.650000	-0.736401	163.510542	-12.982201	-52.921529	-12.982201	-52.921529	-0.756322	-90.245238
7.700000	-0.732818	161.568782	-13.078802	-55.022252	-13.078802	-55.022252	-0.758841	-92.557275
7.750000	-0.729529	159.637977	-13.173484	-57.113142	-13.173484	-57.113142	-0.762083	-94.860858
7.800000	-0.726524	157.717409	-13.266216	-59.195639	-13.266216	-59.195639	-0.766047	-97.158250
7.850000	-0.723792	155.806379	-13.356980	-61.271173	-13.356980	-61.271173	-0.770738	-99.451719
7.900000	-0.721328	153.904308	-13.445729	-63.341122	-13.445729	-63.341122	-0.776169	-101.743553
7.950000	-0.719143	152.011207	-13.532207	-65.406718	-13.532207	-65.406718	-0.782418	-104.036407
8.000000	-0.717201	150.125521	-13.616723	-67.469953	-13.616723	-67.469953	-0.789419	-106.332757
8.050000	-0.715491	148.246616	-13.699298	-69.532288	-13.699298	-69.532288	-0.797188	-108.635008
8.100000	-0.714005	146.373871	-13.779957	-71.595210	-13.779957	-71.595210	-0.805742	-110.945630
8.150000	-0.712733	144.506670	-13.858738	-73.660239	-13.858738	-73.660239	-0.815103	-113.267170
8.200000	-0.711669	142.644402	-13.935683	-75.728933	-13.935683	-75.728933	-0.825296	-115.602269
8.250000	-0.710815	140.786685	-14.010700	-77.803335	-14.010700	-77.803335	-0.836406	-117.954865
8.300000	-0.710162	138.932791	-14.083879	-79.885347	-14.083879	-79.885347	-0.848468	-120.328195
8.350000	-0.709700	137.081936	-14.155362	-81.976769	-14.155362	-81.976769	-0.861507	-122.725198
8.400000	-0.709410	135.233320	-14.225380	-84.078690	-14.225380	-84.078690	-0.875501	-125.147260
8.450000	-0.709300	133.386454	-14.293889	-86.193689	-14.293889	-86.193689	-0.890563	-127.599301
8.500000	-0.709369	131.540657	-14.360984	-88.323956	-14.360984	-88.323956	-0.906760	-130.085133
8.550000	-0.709617	129.695220	-14.426760	-90.471848	-14.426760	-90.471848	-0.924170	-132.608845
8.600000	-0.710049	127.849402	-14.491320	-92.639923	-14.491320	-92.639923	-0.942883	-135.174830
8.650000	-0.710673	126.002417	-14.554760	-94.830992	-14.554760	-94.830992	-0.963004	-137.787836
8.700000	-0.711503	124.153429	-14.617172	-97.048170	-14.617172	-97.048170	-0.984655	-140.453008
8.750000	-0.712558	122.301532	-14.678634	-99.294956	-14.678634	-99.294956	-1.007979	-143.175952
8.800000	-0.713879	120.445512	-14.739147	-101.577014	-14.739147	-101.577014	-1.033232	-145.965900
8.850000	-0.715499	118.584380	-14.798778	-103.897767	-14.798778	-103.897767	-1.060549	-148.827175
8.900000	-0.717472	116.716872	-14.857477	-106.262784	-14.857477	-106.262784	-1.090180	-151.767334
8.950000	-0.719877	114.841542	-14.915097	-108.678779	-14.915097	-108.678779	-1.122426	-154.794784
9.000000	-0.722820	112.956699	-14.971352	-111.154025	-14.971352	-111.154025	-1.157665	-157.918936
9.050000	-0.726448	111.060333	-15.025753	-113.698975	-15.025753	-113.698975	-1.196369	-161.150399
9.100000	-0.730968	109.150004	-15.077513	-116.327179	-15.077513	-116.327179	-1.239150	-164.501236
9.150000	-0.736672	107.222687	-15.125407	-119.056713	-15.125407	-119.056713	-1.286815	-167.985304
9.200000	-0.743772	105.277102	-15.168395	-121.896667	-15.168395	-121.896667	-1.339762	-171.601675
9.250000	-0.753206	103.304172	-15.202551	-124.906649	-15.202551	-124.906649	-1.400645	-175.399190
9.300000	-0.765926	101.298104	-15.223725	-128.134305	-15.223725	-128.134305	-1.471544	-179.392936
9.350000	-0.783307	99.251873	-15.226436	-131.645983	-15.226436	-131.645983	-1.555428	176.399743
9.400000	-0.807672	97.154907	-15.202513	-135.551426	-15.202513	-135.551426	-1.657339	171.949415
9.450000	-0.844337	94.986886	-15.136093	-140.093120	-15.136093	-140.093120	-1.788662	167.195760
9.500000	-0.901557	92.732187	-15.010777	-145.603256	-15.010777	-145.603256	-1.966398	162.108768
9.550000	-0.998773	90.377891	-14.803406	-152.818717	-14.803406	-152.818717	-2.230512	156.656980
9.600000	-1.173358	87.993384	-14.516823	-163.033172	-14.516823	-163.033172	-2.658011	151.003436
9.650000	-1.499831	86.063913	-14.288973	-179.094219	-14.288973	-179.094219	-3.402510	146.236861
9.700000	-1.939700	86.441599	-14.855494	154.940191	-14.855494	154.940191	-4.322838	146.593066
9.750000	-1.857874	89.275343	-17.921197	120.802918	-17.921197	120.802918	-3.893839	150.754185
9.800000	-1.340658	88.907393	-23.979620	88.642015	-23.979620	88.642015	-2.823278	146.059605
9.850000	-1.021820	86.362951	-31.834859	49.327186	-31.834859	49.327186	-2.339858	137.563885
9.900000	-0.873812	83.593695	-34.939223	-17.880290	-34.939223	-17.880290	-2.194025	128.887414
9.950000	-0.803392	80.964975	-31.868242	-50.754639	-31.868242	-50.754639	-2.181739	120.356202
10.000000	-0.769540	78.477561	-29.452582	-59.182111	-29.452582	-59.182111	-2.226471	111.832105
