! freq	dB(S11)	phase(S11)	dB(S12)	phase(S12)	
!     	dB(S21)	phase(S21)	dB(S22)	phase(S22)	
!S-par simulation data
#  GHz  S  DB  R 50
0.000000	-86.668890	0.000000	-0.000403	0.000000	-0.000403	0.000000	-86.668890	0.000000
0.050000	-34.456780	-92.982846	-0.006019	-2.790983	-0.006019	-2.790983	-34.439513	-92.437619
0.100000	-28.469355	-96.180338	-0.016009	-5.544026	-0.016009	-5.544026	-28.466986	-95.089610
0.150000	-24.988398	-99.313053	-0.027589	-8.282761	-0.027589	-8.282761	-24.989448	-97.675493
0.200000	-22.532657	-102.402361	-0.041550	-11.014629	-0.041550	-11.014629	-22.531956	-100.222694
0.250000	-20.638231	-105.457158	-0.058249	-13.739332	-0.058249	-13.739332	-20.635120	-102.739547
0.300000	-19.099576	-108.486033	-0.077712	-16.455647	-0.077712	-16.455647	-19.094709	-105.231362
0.350000	-17.807672	-111.494964	-0.099851	-19.162517	-0.099851	-19.162517	-17.801766	-107.701929
0.400000	-16.697682	-114.487343	-0.124548	-21.859080	-0.124548	-21.859080	-16.691226	-110.153816
0.450000	-15.727878	-117.464777	-0.151680	-24.544554	-0.151680	-24.544554	-15.721148	-112.588542
0.500000	-14.869768	-120.427856	-0.181121	-27.218198	-0.181121	-27.218198	-14.862894	-115.006855
0.550000	-14.102875	-123.376742	-0.212725	-29.879388	-0.212725	-29.879388	-14.095909	-117.409097
0.600000	-13.412042	-126.311330	-0.246349	-32.527517	-0.246349	-32.527517	-13.404996	-119.795246
0.650000	-12.785836	-129.231276	-0.281860	-35.161879	-0.281860	-35.161879	-12.778708	-122.164933
0.700000	-12.215219	-132.136341	-0.319103	-37.781924	-0.319103	-37.781924	-12.208005	-124.517825
0.750000	-11.692945	-135.026352	-0.357916	-40.387201	-0.357916	-40.387201	-11.685642	-126.853610
0.800000	-11.213169	-137.901137	-0.398138	-42.977282	-0.398138	-42.977282	-11.205782	-129.171930
0.850000	-10.771108	-140.760540	-0.439608	-45.551771	-0.439608	-45.551771	-10.763643	-131.472423
0.900000	-10.362766	-143.604472	-0.482162	-48.110351	-0.482162	-48.110351	-10.355232	-133.754780
0.950000	-9.984679	-146.433019	-0.525628	-50.652897	-0.525628	-50.652897	-9.977089	-136.018890
1.000000	-9.633944	-149.246256	-0.569843	-53.179288	-0.569843	-53.179288	-9.626310	-138.264625
1.050000	-9.308076	-152.044301	-0.614642	-55.689461	-0.614642	-55.689461	-9.300406	-140.491902
1.100000	-9.004951	-154.827280	-0.659867	-58.183364	-0.659867	-58.183364	-8.997255	-142.700641
1.150000	-8.722600	-157.595538	-0.705360	-60.661193	-0.705360	-60.661193	-8.714883	-144.891032
1.200000	-8.459386	-160.349330	-0.750967	-63.123053	-0.750967	-63.123053	-8.451651	-147.063145
1.250000	-8.213715	-163.089165	-0.796547	-65.569336	-0.796547	-65.569336	-8.205962	-149.217375
1.300000	-7.984481	-165.815148	-0.841950	-67.999983	-0.841950	-67.999983	-7.976707	-151.353586
1.350000	-7.770356	-168.527929	-0.887048	-70.415550	-0.887048	-70.415550	-7.762557	-153.472342
1.400000	-7.570281	-171.227992	-0.931715	-72.816410	-0.931715	-72.816410	-7.562450	-155.573988
1.450000	-7.383301	-173.915855	-0.975832	-75.202979	-0.975832	-75.202979	-7.375427	-157.658910
1.500000	-7.208551	-176.592065	-1.019288	-77.575709	-1.019288	-77.575709	-7.200625	-159.727530
1.550000	-7.045248	-179.257199	-1.061980	-79.935091	-1.061980	-79.935091	-7.037260	-161.780300
1.600000	-6.892681	178.088147	-1.103812	-82.281645	-1.103812	-82.281645	-6.884617	-163.817698
1.650000	-6.750199	175.443356	-1.144697	-84.615923	-1.144697	-84.615923	-6.742049	-165.840227
1.700000	-6.617439	172.808072	-1.184511	-86.938146	-1.184511	-86.938146	-6.609191	-167.847959
1.750000	-6.493416	170.181101	-1.223256	-89.249620	-1.223256	-89.249620	-6.485060	-169.842299
1.800000	-6.377846	167.562055	-1.260830	-91.550634	-1.260830	-91.550634	-6.369372	-171.823381
1.850000	-6.270273	164.950274	-1.297170	-93.841830	-1.297170	-93.841830	-6.261673	-173.791765
1.900000	-6.170344	162.345157	-1.332203	-96.123770	-1.332203	-96.123770	-6.161611	-175.747892
1.950000	-6.077668	159.746016	-1.365874	-98.397138	-1.365874	-98.397138	-6.068797	-177.692355
2.000000	-5.991823	157.152116	-1.398153	-100.662696	-1.398153	-100.662696	-5.982810	-179.625858
2.050000	-5.912483	154.562797	-1.428996	-102.921104	-1.428996	-102.921104	-5.903326	178.451020
2.100000	-5.839349	151.977405	-1.458365	-105.173014	-1.458365	-105.173014	-5.830049	176.537707
2.150000	-5.772144	149.395294	-1.486227	-107.419071	-1.486227	-107.419071	-5.762703	174.633627
2.200000	-5.710615	146.815829	-1.512553	-109.659908	-1.512553	-109.659908	-5.701037	172.738211
2.250000	-5.654527	144.238384	-1.537320	-111.896145	-1.537320	-111.896145	-5.644817	170.850892
2.300000	-5.603664	141.662348	-1.560508	-114.128391	-1.560508	-114.128391	-5.593828	168.971109
2.350000	-5.557827	139.087124	-1.582102	-116.357243	-1.582102	-116.357243	-5.547874	167.098306
2.400000	-5.516832	136.512129	-1.602092	-118.583282	-1.602092	-118.583282	-5.506772	165.231932
2.450000	-5.480512	133.936800	-1.620474	-120.807078	-1.620474	-120.807078	-5.470355	163.371443
2.500000	-5.448711	131.360589	-1.637244	-123.029189	-1.637244	-123.029189	-5.438469	161.516303
2.550000	-5.421378	128.782927	-1.652371	-125.250146	-1.652371	-125.250146	-5.411062	159.666072
2.600000	-5.398287	126.203327	-1.665895	-127.470515	-1.665895	-127.470515	-5.387910	157.820110
2.650000	-5.379319	123.621307	-1.677827	-129.690813	-1.677827	-129.690813	-5.368893	155.977902
2.700000	-5.364365	121.036403	-1.688179	-131.911540	-1.688179	-131.911540	-5.353903	154.138936
2.750000	-5.353327	118.448178	-1.696968	-134.133187	-1.696968	-134.133187	-5.342841	152.302708
2.800000	-5.346113	115.856218	-1.704210	-136.356226	-1.704210	-136.356226	-5.335615	150.468720
2.850000	-5.342643	113.260134	-1.709928	-138.581116	-1.709928	-138.581116	-5.332143	148.636479
2.900000	-5.342842	110.659561	-1.714146	-140.808304	-1.714146	-140.808304	-5.332351	146.805499
2.950000	-5.346645	108.054165	-1.716888	-143.038217	-1.716888	-143.038217	-5.336171	144.975296
3.000000	-5.353993	105.443634	-1.718183	-145.271270	-1.718183	-145.271270	-5.343543	143.145394
3.050000	-5.364833	102.827688	-1.718060	-147.507862	-1.718060	-147.507862	-5.354415	141.315319
3.100000	-5.379121	100.206075	-1.716552	-149.748378	-1.716552	-149.748378	-5.368737	139.484600
3.150000	-5.396853	97.578504	-1.713676	-151.993234	-1.713676	-151.993234	-5.386507	137.652752
3.200000	-5.417994	94.944777	-1.709469	-154.242796	-1.709469	-154.242796	-5.407686	135.819294
3.250000	-5.442479	92.304799	-1.703982	-156.497351	-1.703982	-156.497351	-5.432208	133.983776
3.300000	-5.470287	89.658441	-1.697253	-158.757220	-1.697253	-158.757220	-5.460049	132.145735
3.350000	-5.501355	87.005702	-1.689336	-161.022622	-1.689336	-161.022622	-5.491145	130.304759
3.400000	-5.535723	84.346413	-1.680251	-163.293933	-1.680251	-163.293933	-5.525534	128.460343
3.450000	-5.573467	81.680371	-1.670009	-165.571598	-1.670009	-165.571598	-5.563288	126.611908
3.500000	-5.614447	79.007867	-1.658703	-167.855601	-1.658703	-167.855601	-5.604267	124.759163
3.550000	-5.658668	76.328938	-1.646371	-170.146176	-1.646371	-170.146176	-5.648474	122.901663
3.600000	-5.706303	73.643309	-1.633002	-172.443926	-1.633002	-172.443926	-5.696078	121.038647
3.650000	-5.757209	70.951422	-1.618690	-174.748710	-1.618690	-174.748710	-5.746935	119.169912
3.700000	-5.811394	68.253439	-1.603480	-177.060696	-1.603480	-177.060696	-5.801053	117.295019
3.750000	-5.868994	65.549315	-1.587383	-179.380348	-1.587383	-179.380348	-5.858564	115.413236
3.800000	-5.929981	62.839386	-1.570458	178.292298	-1.570458	178.292298	-5.919439	113.524190
3.850000	-5.994329	60.124019	-1.552765	175.957243	-1.552765	175.957243	-5.983652	111.627542
3.900000	-6.062138	57.403398	-1.534332	173.614179	-1.534332	173.614179	-6.051301	109.722632
3.950000	-6.133495	54.677795	-1.515192	171.262857	-1.515192	171.262857	-6.122470	107.808813
4.000000	-6.208340	51.947761	-1.495415	168.903454	-1.495415	168.903454	-6.197101	105.885892
4.050000	-6.286740	49.213683	-1.475039	166.535838	-1.475039	166.535838	-6.275259	103.953327
4.100000	-6.368893	46.475850	-1.454080	164.159511	-1.454080	164.159511	-6.357141	102.010085
4.150000	-6.454712	43.734958	-1.432612	161.774841	-1.432612	161.774841	-6.442658	100.056170
4.200000	-6.544265	40.991531	-1.410676	159.381765	-1.410676	159.381765	-6.531880	98.091060
4.250000	-6.637762	38.246068	-1.388292	156.979839	-1.388292	156.979839	-6.625012	96.113657
4.300000	-6.735189	35.499280	-1.365519	154.569303	-1.365519	154.569303	-6.722043	94.123778
4.350000	-6.836602	32.751845	-1.342402	152.150229	-1.342402	152.150229	-6.823024	92.121012
4.400000	-6.942181	30.004481	-1.318970	149.722345	-1.318970	149.722345	-6.928134	90.104379
4.450000	-7.052033	27.257992	-1.295265	147.285633	-1.295265	147.285633	-7.037474	88.073247
4.500000	-7.166188	24.513172	-1.271335	144.840339	-1.271335	144.840339	-7.151070	86.027403
4.550000	-7.284802	21.770907	-1.247215	142.386358	-1.247215	142.386358	-7.269073	83.966025
4.600000	-7.408104	19.032269	-1.222937	139.923412	-1.222937	139.923412	-7.391702	81.887872
4.650000	-7.536102	16.298096	-1.198548	137.451913	-1.198548	137.451913	-7.518958	79.792964
4.700000	-7.668947	13.569404	-1.174084	134.971885	-1.174084	134.971885	-7.650981	77.680568
4.750000	-7.806943	10.847643	-1.149575	132.482942	-1.149575	132.482942	-7.788062	75.548978
4.800000	-7.950137	8.133742	-1.125064	129.985490	-1.125064	129.985490	-7.930242	73.398109
4.850000	-8.098742	5.429046	-1.100584	127.479487	-1.100584	127.479487	-8.077727	71.226855
4.900000	-8.252958	2.734912	-1.076171	124.964985	-1.076171	124.964985	-8.230708	69.034239
4.950000	-8.412993	0.052793	-1.051859	122.442039	-1.051859	122.442039	-8.389397	66.819227
5.000000	-8.579075	-2.615764	-1.027682	119.910710	-1.027682	119.910710	-8.554023	64.580731
5.050000	-8.751497	-5.268792	-1.003677	117.370918	-1.003677	117.370918	-8.724887	62.317143
5.100000	-8.930460	-7.904749	-0.979874	114.822886	-0.979874	114.822886	-8.902206	60.027685
5.150000	-9.116239	-10.521714	-0.956307	112.266693	-0.956307	112.266693	-9.086270	57.711095
5.200000	-9.309125	-13.117614	-0.933008	109.702423	-0.933008	109.702423	-9.277394	55.366046
5.250000	-9.509426	-15.690209	-0.910010	107.130165	-0.910010	107.130165	-9.475912	52.991124
5.300000	-9.717473	-18.237067	-0.887343	104.550014	-0.887343	104.550014	-9.682186	50.584824
5.350000	-9.933617	-20.755540	-0.865040	101.962071	-0.865040	101.962071	-9.896604	48.145523
5.400000	-10.158230	-23.242735	-0.843132	99.366441	-0.843132	99.366441	-10.119584	45.671464
5.450000	-10.391710	-25.695482	-0.821649	96.763238	-0.821649	96.763238	-10.351575	43.160731
5.500000	-10.634475	-28.110292	-0.800621	94.152580	-0.800621	94.152580	-10.593061	40.611220
5.550000	-10.886972	-30.483308	-0.780080	91.534594	-0.780080	91.534594	-10.844568	38.020608
5.600000	-11.149670	-32.810255	-0.760054	88.909412	-0.760054	88.909412	-11.106665	35.386317
5.650000	-11.423089	-35.085759	-0.740579	86.277098	-0.740579	86.277098	-11.379998	32.704924
5.700000	-11.707742	-37.304294	-0.721686	83.637805	-0.721686	83.637805	-11.665236	29.973068
5.750000	-12.004145	-39.460384	-0.703396	80.991765	-0.703396	80.991765	-11.963075	27.187566
5.800000	-12.312856	-41.547232	-0.685738	78.339141	-0.685738	78.339141	-12.274312	24.344221
5.850000	-12.634452	-43.557144	-0.668739	75.680107	-0.668739	75.680107	-12.599814	21.438232
5.900000	-12.969515	-45.481373	-0.652426	73.014840	-0.652426	73.014840	-12.940531	18.464070
5.950000	-13.318625	-47.309944	-0.636824	70.343531	-0.636824	70.343531	-13.297504	15.415327
6.000000	-13.682341	-49.031441	-0.621958	67.666375	-0.621958	67.666375	-13.671872	12.284525
6.050000	-14.061180	-50.632767	-0.607852	64.983579	-0.607852	64.983579	-14.064881	9.062884
6.100000	-14.455582	-52.098852	-0.594529	62.295357	-0.594529	62.295357	-14.477897	5.740018
6.150000	-14.865860	-53.412343	-0.582009	59.601931	-0.582009	59.601931	-14.912409	2.303559
6.200000	-15.292137	-54.553244	-0.570314	56.903531	-0.570314	56.903531	-15.370033	-1.261332
6.250000	-15.734255	-55.498549	-0.559461	54.200397	-0.559461	54.200397	-15.852512	-4.972587
6.300000	-16.191404	-56.216364	-0.549486	51.492680	-0.549486	51.492680	-16.361632	-8.856306
6.350000	-16.662509	-56.680624	-0.540386	48.780739	-0.540386	48.780739	-16.899307	-12.936492
6.400000	-17.145540	-56.857282	-0.532175	46.064830	-0.532175	46.064830	-17.467425	-17.246738
6.450000	-17.637330	-56.708836	-0.524862	43.345219	-0.524862	43.345219	-18.067727	-21.828813
6.500000	-18.133206	-56.195290	-0.518459	40.622173	-0.518459	40.622173	-18.701562	-26.734872
6.550000	-18.626557	-55.276165	-0.512970	37.895966	-0.512970	37.895966	-19.369475	-32.030117
6.600000	-19.108391	-53.914050	-0.508401	35.166871	-0.508401	35.166871	-20.070521	-37.795773
6.650000	-19.567007	-52.080171	-0.504754	32.435166	-0.504754	32.435166	-20.801149	-44.131822
6.700000	-19.987951	-49.762157	-0.502029	29.701126	-0.502029	29.701126	-21.553458	-51.158108
6.750000	-20.354533	-46.973407	-0.500222	26.965028	-0.500222	26.965028	-22.312628	-59.010818
6.800000	-20.649150	-43.762193	-0.499329	24.227146	-0.499329	24.227146	-23.053580	-67.828736
6.850000	-20.855504	-40.217096	-0.499343	21.487750	-0.499343	21.487750	-23.737663	-77.721105
6.900000	-20.960204	-36.464307	-0.500261	18.747095	-0.500261	18.747095	-24.309609	-88.720734
6.950000	-20.957713	-32.661900	-0.502072	16.005450	-0.502072	16.005450	-24.706629	-100.675927
7.000000	-20.851800	-28.969259	-0.504749	13.263080	-0.504749	13.263080	-24.877738	-113.210770
7.050000	-20.652382	-25.524905	-0.508276	10.520231	-0.508276	10.520231	-24.800040	-125.802596
7.100000	-20.374502	-22.432962	-0.512632	7.777135	-0.512632	7.777135	-24.491269	-137.920043
7.150000	-20.035547	-19.757126	-0.517796	5.034016	-0.517796	5.034016	-24.001083	-149.177148
7.200000	-19.652762	-17.523502	-0.523742	2.291084	-0.523742	2.291084	-23.390567	-159.395529
7.250000	-19.241567	-15.728702	-0.530446	-0.451461	-0.530446	-0.451461	-22.714756	-168.570388
7.300000	-18.814753	-14.349407	-0.537878	-3.193436	-0.537878	-3.193436	-22.014890	-176.798389
7.350000	-18.382337	-13.350901	-0.546009	-5.934672	-0.546009	-5.934672	-21.318266	175.784413
7.400000	-17.951809	-12.693512	-0.554807	-8.675014	-0.554807	-8.675014	-20.641288	169.039811
7.450000	-17.528549	-12.336909	-0.564241	-11.414326	-0.564241	-11.414326	-19.992890	162.844337
7.500000	-17.116265	-12.242650	-0.574277	-14.152487	-0.574277	-14.152487	-19.377257	157.094303
7.550000	-16.717340	-12.379707	-0.584889	-16.889365	-0.584889	-16.889365	-18.795653	151.711523
7.600000	-16.333428	-12.711113	-0.596031	-19.624900	-0.596031	-19.624900	-18.247939	146.619491
7.650000	-15.965313	-13.209358	-0.607666	-22.359025	-0.607666	-22.359025	-17.732827	141.764731
7.700000	-15.613309	-13.850442	-0.619756	-25.091694	-0.619756	-25.091694	-17.248611	137.104390
7.750000	-15.277402	-14.613531	-0.632265	-27.822877	-0.632265	-27.822877	-16.793416	132.603993
7.800000	-14.957351	-15.480592	-0.645155	-30.552562	-0.645155	-30.552562	-16.365348	128.235651
7.850000	-14.652768	-16.436027	-0.658389	-33.280757	-0.658389	-33.280757	-15.962578	123.976651
7.900000	-14.363169	-17.466337	-0.671929	-36.007487	-0.671929	-36.007487	-15.583381	119.808359
7.950000	-14.088016	-18.559829	-0.685738	-38.732795	-0.685738	-38.732795	-15.226157	115.715379
8.000000	-13.826740	-19.706348	-0.699781	-41.456744	-0.699781	-41.456744	-14.889433	111.684887
8.050000	-13.578763	-20.897056	-0.714021	-44.179412	-0.714021	-44.179412	-14.571867	107.706122
8.100000	-13.343508	-22.124239	-0.728423	-46.900895	-0.728423	-46.900895	-14.272236	103.769981
8.150000	-13.120480	-23.381401	-0.742954	-49.621298	-0.742954	-49.621298	-13.989505	99.869012
8.200000	-12.909130	-24.662434	-0.757578	-52.340755	-0.757578	-52.340755	-13.722671	95.996355
8.250000	-12.708865	-25.961832	-0.772264	-55.059427	-0.772264	-55.059427	-13.470744	92.145916
8.300000	-12.519176	-27.275009	-0.786980	-57.777478	-0.786980	-57.777478	-13.232899	88.312698
8.350000	-12.339404	-28.597710	-0.801698	-60.495096	-0.801698	-60.495096	-13.008181	84.492036
8.400000	-12.169467	-29.926772	-0.816388	-63.212455	-0.816388	-63.212455	-12.796357	80.680669
8.450000	-12.008728	-31.258621	-0.831023	-65.929782	-0.831023	-65.929782	-12.596583	76.874666
8.500000	-11.856771	-32.590342	-0.845579	-68.647302	-0.845579	-68.647302	-12.408308	73.070859
8.550000	-11.713204	-33.919298	-0.860033	-71.365258	-0.860033	-71.365258	-12.231036	69.266353
8.600000	-11.577653	-35.243102	-0.874364	-74.083903	-0.874364	-74.083903	-12.064316	65.458478
8.650000	-11.449761	-36.559574	-0.888552	-76.803508	-0.888552	-76.803508	-11.907746	61.644743
8.700000	-11.329191	-37.866718	-0.902582	-79.524355	-0.902582	-79.524355	-11.760962	57.822800
8.750000	-11.215620	-39.162694	-0.916438	-82.246739	-0.916438	-82.246739	-11.623635	53.990412
8.800000	-11.108815	-40.445583	-0.930105	-84.971002	-0.930105	-84.971002	-11.495577	50.145207
8.850000	-11.008399	-41.713960	-0.943577	-87.697440	-0.943577	-87.697440	-11.376421	46.285235
8.900000	-10.914089	-42.966332	-0.956847	-90.426386	-0.956847	-90.426386	-11.265930	42.408422
8.950000	-10.825608	-44.201285	-0.969912	-93.158180	-0.969912	-93.158180	-11.163895	38.512700
9.000000	-10.742689	-45.417475	-0.982771	-95.893171	-0.982771	-95.893171	-11.070124	34.595980
9.050000	-10.665070	-46.613609	-0.995428	-98.631715	-0.995428	-98.631715	-10.984449	30.656137
9.100000	-10.592497	-47.788439	-1.007887	-101.374172	-1.007887	-101.374172	-10.906716	26.690979
9.150000	-10.524714	-48.940755	-1.020158	-104.120903	-1.020158	-104.120903	-10.836786	22.698235
9.200000	-10.461507	-50.069130	-1.032251	-106.872318	-1.032251	-106.872318	-10.774602	18.675211
9.250000	-10.402598	-51.172492	-1.044183	-109.628756	-1.044183	-109.628756	-10.720011	14.619487
9.300000	-10.347714	-52.249809	-1.055970	-112.390546	-1.055970	-112.390546	-10.672864	10.528541
9.350000	-10.296590	-53.299951	-1.067628	-115.158029	-1.067628	-115.158029	-10.633051	6.399525
9.400000	-10.248961	-54.321795	-1.079175	-117.931540	-1.079175	-117.931540	-10.600461	2.229386
9.450000	-10.204563	-55.314040	-1.090621	-120.711463	-1.090621	-120.711463	-10.575024	-1.985468
9.500000	-10.163096	-56.275678	-1.101973	-123.498139	-1.101973	-123.498139	-10.556591	-6.248475
9.550000	-10.124235	-57.205860	-1.113233	-126.291934	-1.113233	-126.291934	-10.544973	-10.563119
9.600000	-10.087661	-58.103561	-1.124394	-129.093354	-1.124394	-129.093354	-10.540016	-14.933502
9.650000	-10.053036	-58.967800	-1.135449	-131.903054	-1.135449	-131.903054	-10.541534	-19.364058
9.700000	-10.020008	-59.797353	-1.146400	-134.721971	-1.146400	-134.721971	-10.549367	-23.860187
9.750000	-9.988193	-60.590739	-1.157277	-137.551372	-1.157277	-137.551372	-10.563347	-28.428500
9.800000	-9.957138	-61.348122	-1.168157	-140.392204	-1.168157	-140.392204	-10.583001	-33.072922
9.850000	-9.926400	-62.068913	-1.179171	-143.245632	-1.179171	-143.245632	-10.607955	-37.799485
9.900000	-9.895502	-62.752697	-1.190499	-146.112646	-1.190499	-146.112646	-10.637758	-42.614637
9.950000	-9.863938	-63.399274	-1.202350	-148.993941	-1.202350	-148.993941	-10.671868	-47.525235
10.000000	-9.831171	-64.008707	-1.214946	-151.889890	-1.214946	-151.889890	-10.709640	-52.538522
