! freq	dB(S11)	phase(S11)	dB(S12)	phase(S12)	
!     	dB(S21)	phase(S21)	dB(S22)	phase(S22)	
!S-par simulation data
#  GHz  S  DB  R 50
0.000000	-0.000000	0.000000	-369.756358	0.000000	-369.756358	0.000000	-0.000000	0.000000
0.050000	-0.000122	-0.946093	-89.071206	81.555517	-89.071206	81.555517	-0.000118	-0.945746
0.100000	-0.000484	-1.891883	-83.766091	81.792310	-83.766091	81.792310	-0.000468	-1.891206
0.150000	-0.001076	-2.837064	-80.501569	82.355404	-80.501569	82.355404	-0.001042	-2.836092
0.200000	-0.001861	-3.781455	-78.112945	82.477556	-78.112945	82.477556	-0.001805	-3.780229
0.250000	-0.002820	-4.724847	-76.229496	82.275215	-76.229496	82.275215	-0.002740	-4.723413
0.300000	-0.003935	-5.666982	-74.675696	81.858339	-74.675696	81.858339	-0.003832	-5.665390
0.350000	-0.005154	-6.607969	-73.354735	81.330375	-73.354735	81.330375	-0.005030	-6.606256
0.400000	-0.006465	-7.547581	-72.205669	80.715628	-72.205669	80.715628	-0.006324	-7.545782
0.450000	-0.007846	-8.485473	-71.188440	80.038133	-71.188440	80.038133	-0.007694	-8.483610
0.500000	-0.009251	-9.422671	-70.277040	79.338360	-70.277040	79.338360	-0.009091	-9.420752
0.550000	-0.010675	-10.358340	-69.450207	78.612000	-69.450207	78.612000	-0.010513	-10.356366
0.600000	-0.012112	-11.292918	-68.693945	77.866648	-68.693945	77.866648	-0.011952	-11.290887
0.650000	-0.013541	-12.226279	-67.996370	77.112099	-67.996370	77.112099	-0.013386	-12.224179
0.700000	-0.014962	-13.158424	-67.348896	76.348352	-67.348896	76.348352	-0.014816	-13.156240
0.750000	-0.016367	-14.089627	-66.744447	75.583222	-66.744447	75.583222	-0.016230	-14.087345
0.800000	-0.017748	-15.019512	-66.176835	74.816155	-66.176835	74.816155	-0.017624	-15.017109
0.850000	-0.019114	-15.948681	-65.642182	74.051089	-65.642182	74.051089	-0.019003	-15.946146
0.900000	-0.020450	-16.876421	-65.135012	73.290024	-65.135012	73.290024	-0.020352	-16.873730
0.950000	-0.021775	-17.803638	-64.654109	72.532008	-64.654109	72.532008	-0.021689	-17.800784
1.000000	-0.023067	-18.729290	-64.193549	71.783140	-64.193549	71.783140	-0.022993	-18.726251
1.050000	-0.024353	-19.654594	-63.754789	71.037010	-63.754789	71.037010	-0.024290	-19.651368
1.100000	-0.025607	-20.578161	-63.330479	70.304579	-63.330479	70.304579	-0.025554	-20.574732
1.150000	-0.026860	-21.501552	-62.925092	69.573754	-62.925092	69.573754	-0.026816	-21.497919
1.200000	-0.028085	-22.423001	-62.528914	68.860595	-62.528914	68.860595	-0.028048	-22.419155
1.250000	-0.029310	-23.344451	-62.150021	68.147435	-62.150021	68.147435	-0.029280	-23.340390
1.300000	-0.030512	-24.263724	-61.775347	67.455211	-61.775347	67.455211	-0.030487	-24.259447
1.350000	-0.031715	-25.182998	-61.416169	66.762987	-61.416169	66.762987	-0.031694	-25.178503
1.400000	-0.032902	-26.100209	-61.058575	66.090479	-61.058575	66.090479	-0.032884	-26.095500
1.450000	-0.034089	-27.017234	-60.714016	65.419764	-60.714016	65.419764	-0.034072	-27.012309
1.500000	-0.035266	-27.932317	-60.368991	64.766534	-60.368991	64.766534	-0.035250	-27.927182
1.550000	-0.036441	-28.847013	-60.034531	64.116802	-60.034531	64.116802	-0.036425	-28.841668
1.600000	-0.037611	-29.759902	-59.698105	63.481547	-59.698105	63.481547	-0.037595	-29.754353
1.650000	-0.038780	-30.672190	-59.369615	62.851119	-59.369615	62.851119	-0.038763	-30.666439
1.700000	-0.039946	-31.582822	-59.038210	62.231624	-59.038210	62.231624	-0.039928	-31.576875
1.750000	-0.041111	-32.492627	-58.711820	61.617595	-58.711820	61.617595	-0.041091	-32.486486
1.800000	-0.042277	-33.400945	-58.382146	61.010683	-58.382146	61.010683	-0.042255	-33.394615
1.850000	-0.043442	-34.308202	-58.054142	60.408854	-58.054142	60.408854	-0.043418	-34.301686
1.900000	-0.044608	-35.214157	-57.723120	59.810352	-57.723120	59.810352	-0.044582	-35.207460
1.950000	-0.045775	-36.118812	-57.389862	59.215176	-57.389862	59.215176	-0.045747	-36.111937
2.000000	-0.046945	-37.022367	-57.054567	58.619892	-57.054567	58.619892	-0.046914	-37.015318
2.050000	-0.048116	-37.924383	-56.712415	58.024457	-56.712415	58.024457	-0.048084	-37.917162
2.100000	-0.049290	-38.825513	-56.370030	57.426183	-56.370030	57.426183	-0.049256	-38.818124
2.150000	-0.050469	-39.724873	-56.015266	56.822230	-56.015266	56.822230	-0.050432	-39.717318
2.200000	-0.051650	-40.623571	-55.663037	56.213764	-55.663037	56.213764	-0.051611	-40.615853
2.250000	-0.052837	-41.520285	-55.291762	55.591755	-55.291762	55.591755	-0.052797	-41.512406
2.300000	-0.054026	-42.416564	-54.926959	54.964949	-54.926959	54.964949	-0.053985	-42.408526
2.350000	-0.055225	-43.310675	-54.534964	54.314158	-54.534964	54.314158	-0.055183	-43.302480
2.400000	-0.056425	-44.204577	-54.154833	53.659985	-54.154833	53.659985	-0.056382	-44.196226
2.450000	-0.057638	-45.096176	-53.737400	52.968610	-53.737400	52.968610	-0.057594	-45.087671
2.500000	-0.058851	-45.987775	-53.339111	52.277235	-53.339111	52.277235	-0.058806	-45.979116
2.550000	-0.060081	-46.877016	-52.890728	51.532485	-52.890728	51.532485	-0.060037	-46.868205
2.600000	-0.061312	-47.766257	-52.464359	50.787735	-52.464359	50.787735	-0.061268	-47.757293
2.650000	-0.062564	-48.653562	-51.985238	49.981432	-51.985238	49.981432	-0.062519	-48.644449
2.700000	-0.063817	-49.540692	-51.524926	49.169533	-51.524926	49.169533	-0.063773	-49.531428
2.750000	-0.065096	-50.426386	-51.009124	48.289247	-51.009124	48.289247	-0.065051	-50.416972
2.800000	-0.066379	-51.311792	-50.507449	47.395284	-50.507449	47.395284	-0.066335	-51.302228
2.850000	-0.067692	-52.196362	-49.947375	46.427373	-49.947375	46.427373	-0.067649	-52.186649
2.900000	-0.069015	-53.080653	-49.394492	45.434813	-49.394492	45.434813	-0.068972	-53.070791
2.950000	-0.070376	-53.964855	-48.780035	44.363695	-48.780035	44.363695	-0.070334	-53.954844
3.000000	-0.071757	-54.849013	-48.162233	43.253298	-48.162233	43.253298	-0.071716	-54.838853
3.050000	-0.073189	-55.734056	-47.479355	42.059986	-47.479355	42.059986	-0.073149	-55.723748
3.100000	-0.074659	-56.619731	-46.776516	40.807450	-46.776516	40.807450	-0.074620	-56.609276
3.150000	-0.076207	-57.507645	-46.004795	39.466531	-46.004795	39.466531	-0.076168	-57.497044
3.200000	-0.077831	-58.397800	-45.185569	38.037231	-45.185569	38.037231	-0.077793	-58.387052
3.250000	-0.079584	-59.292251	-44.293578	36.510145	-44.293578	36.510145	-0.079547	-59.281358
3.300000	-0.081517	-60.192717	-43.305161	34.846159	-43.305161	34.846159	-0.081481	-60.181681
3.350000	-0.083569	-61.097118	-42.325302	33.116264	-42.325302	33.116264	-0.083533	-61.085941
3.400000	-0.086107	-62.017005	-41.132845	31.149527	-41.132845	31.149527	-0.086072	-62.005689
3.450000	-0.089270	-62.954944	-39.790202	28.955850	-39.790202	28.955850	-0.089236	-62.943494
3.500000	-0.093670	-63.924184	-38.211375	26.415749	-38.211375	26.415749	-0.093637	-63.912608
3.550000	-0.100468	-64.944366	-36.334649	23.362576	-36.334649	23.362576	-0.100436	-64.932675
3.600000	-0.113246	-66.064562	-33.969662	19.356201	-33.969662	19.356201	-0.113216	-66.052779
3.650000	-0.143419	-67.393271	-30.851258	13.361462	-30.851258	13.361462	-0.143393	-67.381441
3.700000	-0.254924	-69.267877	-26.220039	1.289891	-26.220039	1.289891	-0.254917	-69.256120
3.750000	-1.006655	-70.419614	-19.235860	-42.320877	-19.235860	-42.320877	-1.006778	-70.408036
3.800000	-0.484139	-64.763028	-22.759336	-121.127040	-22.759336	-121.127040	-0.484231	-64.749673
3.850000	-0.196891	-67.010888	-28.517456	-142.375723	-28.517456	-142.375723	-0.196897	-66.997615
3.900000	-0.141211	-68.526775	-32.114914	-150.835069	-32.114914	-150.835069	-0.141199	-68.513499
3.950000	-0.123071	-69.714146	-34.652506	-156.124372	-34.652506	-156.124372	-0.123052	-69.700799
4.000000	-0.115716	-70.757652	-36.577229	-160.218534	-36.577229	-160.218534	-0.115694	-70.744202
4.050000	-0.112495	-71.727893	-38.113780	-163.777383	-38.113780	-163.777383	-0.112471	-71.714325
4.100000	-0.111070	-72.659087	-39.427829	-167.092441	-39.427829	-167.092441	-0.111043	-72.645393
4.150000	-0.110793	-73.560656	-40.516239	-170.260949	-40.516239	-170.260949	-0.110766	-73.546830
4.200000	-0.111163	-74.442292	-41.432639	-173.369832	-41.432639	-173.369832	-0.111135	-74.428330
4.250000	-0.111810	-75.314337	-42.290620	-176.466576	-42.290620	-176.466576	-0.111780	-75.300238
4.300000	-0.112753	-76.175311	-43.038047	-179.562961	-43.038047	-179.562961	-0.112722	-76.161074
4.350000	-0.113920	-77.026559	-43.675122	177.312828	-43.675122	177.312828	-0.113888	-77.012182
4.400000	-0.115201	-77.872434	-44.262266	174.161829	-44.262266	174.161829	-0.115168	-77.857917
4.450000	-0.116586	-78.713108	-44.792545	170.978866	-44.792545	170.978866	-0.116552	-78.698451
4.500000	-0.118124	-79.545432	-45.203084	167.726654	-45.203084	167.726654	-0.118089	-79.530634
4.550000	-0.119663	-80.377756	-45.633993	164.474443	-45.633993	164.474443	-0.119627	-80.362818
4.600000	-0.121255	-81.206891	-46.031315	161.191922	-46.031315	161.191922	-0.121218	-81.191812
4.650000	-0.122956	-82.029648	-46.331171	157.848783	-46.331171	157.848783	-0.122918	-82.014430
4.700000	-0.124657	-82.852405	-46.641750	154.505644	-46.641750	154.505644	-0.124618	-82.837047
4.750000	-0.126427	-83.670986	-46.895289	151.132432	-46.895289	151.132432	-0.126386	-83.655489
4.800000	-0.128251	-84.486227	-47.100335	147.735163	-47.100335	147.735163	-0.128210	-84.470590
4.850000	-0.130076	-85.301468	-47.310339	144.337893	-47.310339	144.337893	-0.130034	-85.285692
4.900000	-0.131984	-86.111802	-47.451940	140.936029	-47.451940	140.936029	-0.131941	-86.095887
4.950000	-0.133917	-86.920733	-47.574624	137.532853	-47.574624	137.532853	-0.133872	-86.904680
5.000000	-0.135849	-87.729665	-47.699065	134.129676	-47.699065	134.129676	-0.135803	-87.713474
5.050000	-0.137881	-88.533084	-47.750684	130.769179	-47.750684	130.769179	-0.137834	-88.516755
5.100000	-0.139914	-89.336504	-47.802612	127.408683	-47.802612	127.408683	-0.139866	-89.320037
5.150000	-0.141968	-90.138828	-47.841590	124.066743	-47.841590	124.066743	-0.141919	-90.122224
5.200000	-0.144098	-90.937319	-47.834280	120.789750	-47.834280	120.789750	-0.144048	-90.920578
5.250000	-0.146228	-91.735809	-47.826977	117.512757	-47.826977	117.512757	-0.146178	-91.718931
5.300000	-0.148402	-92.532319	-47.798055	114.285583	-47.798055	114.285583	-0.148350	-92.515304
5.350000	-0.150630	-93.326350	-47.742363	111.120682	-47.742363	111.120682	-0.150577	-93.309199
5.400000	-0.152858	-94.120382	-47.687026	107.955782	-47.687026	107.955782	-0.152804	-94.103094
5.450000	-0.155151	-94.911715	-47.605358	104.875984	-47.605358	104.875984	-0.155097	-94.894290
5.500000	-0.157478	-95.701697	-47.511265	101.838738	-47.511265	101.838738	-0.157423	-95.684136
5.550000	-0.159805	-96.491680	-47.418181	98.801492	-47.418181	98.801492	-0.159750	-96.473983
5.600000	-0.162221	-97.278405	-47.296464	95.881644	-47.296464	95.881644	-0.162165	-97.260571
5.650000	-0.164649	-98.064722	-47.172784	92.976471	-47.172784	92.976471	-0.164592	-98.046751
5.700000	-0.167089	-98.850674	-47.047656	90.085586	-47.047656	90.085586	-0.167031	-98.832567
5.750000	-0.169620	-99.633705	-46.899224	87.309009	-46.899224	87.309009	-0.169562	-99.615463
5.800000	-0.172151	-100.416737	-46.753286	84.532432	-46.753286	84.532432	-0.172093	-100.398358
5.850000	-0.174718	-101.198806	-46.601470	81.796167	-46.601470	81.796167	-0.174659	-101.180291
5.900000	-0.177356	-101.978950	-46.435989	79.140526	-46.435989	79.140526	-0.177297	-101.960299
5.950000	-0.179995	-102.759094	-46.273602	76.484885	-46.273602	76.484885	-0.179935	-102.740306
6.000000	-0.182694	-103.537878	-46.101945	73.892231	-46.101945	73.892231	-0.182634	-103.518955
6.050000	-0.185442	-104.315576	-45.924014	71.349966	-45.924014	71.349966	-0.185382	-104.296517
6.100000	-0.188192	-105.093273	-45.749655	68.807701	-45.749655	68.807701	-0.188131	-105.074078
6.150000	-0.191030	-105.869485	-45.563291	66.353437	-45.563291	66.353437	-0.190970	-105.850155
6.200000	-0.193895	-106.645272	-45.376527	63.924315	-45.376527	63.924315	-0.193834	-106.625808
6.250000	-0.196760	-107.421059	-45.193696	61.495194	-45.193696	61.495194	-0.196700	-107.401461
6.300000	-0.199755	-108.195728	-44.996780	59.208815	-44.996780	59.208815	-0.199694	-108.176000
6.350000	-0.202750	-108.970397	-44.804230	56.922435	-44.804230	56.922435	-0.202689	-108.950539
6.400000	-0.205798	-109.745225	-44.611176	54.709449	-44.611176	54.709449	-0.205737	-109.725241
6.450000	-0.209027	-110.520610	-44.406310	52.753339	-44.406310	52.753339	-0.208966	-110.500513
6.500000	-0.212258	-111.295995	-44.206164	50.797229	-44.206164	50.797229	-0.212197	-111.275786
6.550000	-0.216573	-112.071274	-43.857916	49.192261	-43.857916	49.192261	-0.216528	-112.050971
6.600000	-0.222246	-112.846421	-43.343026	48.026221	-43.343026	48.026221	-0.222235	-112.826045
6.650000	-0.227922	-113.621568	-42.856959	46.860181	-42.856959	46.860181	-0.227946	-113.601120
6.700000	-0.231304	-114.372221	-42.475703	41.995918	-42.475703	41.995918	-0.231310	-114.351311
6.750000	-0.233264	-115.120167	-42.246587	36.316136	-42.246587	36.316136	-0.233231	-115.098783
6.800000	-0.234509	-115.892916	-42.276642	33.323693	-42.276642	33.323693	-0.234453	-115.871535
6.850000	-0.237126	-116.668070	-42.162103	31.016481	-42.162103	31.016481	-0.237065	-116.646621
6.900000	-0.240160	-117.443378	-41.996790	28.806241	-41.996790	28.806241	-0.240097	-117.421838
6.950000	-0.243466	-118.218585	-41.795979	26.602797	-41.795979	26.602797	-0.243403	-118.196937
7.000000	-0.246992	-118.994160	-41.562409	24.363174	-41.562409	24.363174	-0.246928	-118.972398
7.050000	-0.250585	-119.770219	-41.321297	22.106915	-41.321297	22.106915	-0.250521	-119.748341
7.100000	-0.254291	-120.547083	-41.064586	19.822931	-41.064586	19.822931	-0.254225	-120.525089
7.150000	-0.258093	-121.325265	-40.793183	17.512760	-40.793183	17.512760	-0.258027	-121.303157
7.200000	-0.261950	-122.104193	-40.517929	15.187788	-40.517929	15.187788	-0.261883	-122.081971
7.250000	-0.265940	-122.885702	-40.218117	12.825301	-40.218117	12.825301	-0.265873	-122.863371
7.300000	-0.269973	-123.668116	-39.917857	10.451252	-39.917857	10.451252	-0.269905	-123.645679
7.350000	-0.274136	-124.453667	-39.593762	8.039590	-39.593762	8.039590	-0.274067	-124.431129
7.400000	-0.278375	-125.241307	-39.260590	5.606047	-39.260590	5.606047	-0.278306	-125.218675
7.450000	-0.282716	-126.031712	-38.913368	3.143565	-38.913368	3.143565	-0.282645	-126.008991
7.500000	-0.287199	-126.826434	-38.540632	0.640662	-38.540632	0.640662	-0.287127	-126.803635
7.550000	-0.291746	-127.623057	-38.166878	-1.880025	-38.166878	-1.880025	-0.291673	-127.600183
7.600000	-0.296532	-128.427326	-37.745473	-4.465190	-37.745473	-4.465190	-0.296458	-128.404398
7.650000	-0.301381	-129.233570	-37.327941	-7.065877	-37.327941	-7.065877	-0.301305	-129.210591
7.700000	-0.306471	-130.047638	-36.870326	-9.726095	-36.870326	-9.726095	-0.306395	-130.024628
7.750000	-0.311783	-130.868762	-36.384287	-12.436134	-36.384287	-12.436134	-0.311705	-130.845740
7.800000	-0.317359	-131.698135	-35.866587	-15.201072	-35.866587	-15.201072	-0.317280	-131.675122
7.850000	-0.323256	-132.537208	-35.313533	-18.026923	-35.313533	-18.026923	-0.323177	-132.514231
7.900000	-0.329557	-133.387946	-34.719785	-20.921928	-34.719785	-20.921928	-0.329477	-133.365035
7.950000	-0.336431	-134.254205	-34.070791	-23.903648	-34.070791	-23.903648	-0.336351	-134.231403
8.000000	-0.343995	-135.137802	-33.368650	-26.977196	-33.368650	-26.977196	-0.343916	-135.115158
8.050000	-0.352482	-136.042706	-32.605922	-30.158919	-32.605922	-30.158919	-0.352406	-136.020281
8.100000	-0.362234	-136.974163	-31.773702	-33.470969	-31.773702	-33.470969	-0.362161	-136.952034
8.150000	-0.373768	-137.939245	-30.861191	-36.944182	-30.861191	-36.944182	-0.373702	-137.917512
8.200000	-0.387849	-138.946969	-29.858110	-40.619303	-29.858110	-40.619303	-0.387795	-138.925761
8.250000	-0.406199	-140.016597	-28.725910	-44.587881	-28.725910	-44.587881	-0.406164	-139.996106
8.300000	-0.431317	-141.168675	-27.446679	-48.954899	-27.446679	-48.954899	-0.431315	-141.149164
8.350000	-0.467441	-142.431272	-26.002857	-53.877458	-26.002857	-53.877458	-0.467497	-142.413107
8.400000	-0.524618	-143.859970	-24.330000	-59.698075	-24.330000	-59.698075	-0.524781	-143.843730
8.450000	-0.623727	-145.525380	-22.373181	-66.995123	-22.373181	-66.995123	-0.624101	-145.511961
8.500000	-0.815248	-147.493035	-20.068012	-76.927661	-20.068012	-76.927661	-0.816090	-147.483822
8.550000	-1.225439	-149.544063	-17.414648	-91.908911	-17.414648	-91.908911	-1.227445	-149.540561
8.600000	-2.045618	-149.506931	-14.843251	-116.190046	-14.843251	-116.190046	-2.050538	-149.504412
8.650000	-2.555050	-142.778144	-13.888134	-150.041282	-13.888134	-150.041282	-2.562474	-142.748664
8.700000	-1.838892	-138.218147	-15.267022	-179.856103	-15.267022	-179.856103	-1.843675	-138.167833
8.750000	-1.224480	-138.913776	-17.354247	161.300991	-17.354247	161.300991	-1.227112	-138.863146
8.800000	-0.919338	-140.650966	-19.199220	149.540229	-19.199220	149.540229	-0.920956	-140.603178
8.850000	-0.765875	-142.323413	-20.666379	141.484354	-20.666379	141.484354	-0.766981	-142.278031
8.900000	-0.683059	-143.814663	-21.801317	135.467283	-21.801317	135.467283	-0.683878	-143.771017
8.950000	-0.635786	-145.160418	-22.667768	130.660237	-22.667768	130.660237	-0.636427	-145.117991
9.000000	-0.608121	-146.405010	-23.317022	126.624551	-23.317022	126.624551	-0.608645	-146.363434
9.050000	-0.592816	-147.578898	-23.774322	123.136005	-23.774322	123.136005	-0.593260	-147.537890
9.100000	-0.585230	-148.709746	-24.074916	120.015560	-24.074916	120.015560	-0.585617	-148.669102
9.150000	-0.583266	-149.814645	-24.234983	117.164799	-24.234983	117.164799	-0.583610	-149.774200
9.200000	-0.585859	-150.906905	-24.262850	114.515316	-24.262850	114.515316	-0.586172	-150.866515
9.250000	-0.592685	-151.999467	-24.158203	112.010790	-24.158203	112.010790	-0.592975	-151.958994
9.300000	-0.603417	-153.104121	-23.933154	109.584912	-23.933154	109.584912	-0.603689	-153.063439
9.350000	-0.618454	-154.232275	-23.587517	107.185723	-23.587517	107.185723	-0.618713	-154.191248
9.400000	-0.638968	-155.399476	-23.111111	104.750382	-23.111111	104.750382	-0.639217	-155.357947
9.450000	-0.666886	-156.625042	-22.493800	102.194302	-22.493800	102.194302	-0.667125	-156.582817
9.500000	-0.704539	-157.926572	-21.737773	99.429858	-21.737773	99.429858	-0.704766	-157.883421
9.550000	-0.758125	-159.342661	-20.808697	96.290197	-20.808697	96.290197	-0.758331	-159.298248
9.600000	-0.837969	-160.919687	-19.679826	92.536041	-19.679826	92.536041	-0.838134	-160.873530
9.650000	-0.962879	-162.713011	-18.325965	87.804584	-18.325965	87.804584	-0.962956	-162.664408
9.700000	-1.176571	-164.789370	-16.692239	81.374633	-16.692239	81.374633	-1.176448	-164.737195
9.750000	-1.574681	-167.074360	-14.754723	71.946637	-14.754723	71.946637	-1.574064	-167.016902
9.800000	-2.356519	-168.602777	-12.612201	57.100174	-12.612201	57.100174	-2.354578	-168.538380
9.850000	-3.554884	-164.739930	-10.855129	33.756228	-10.855129	33.756228	-3.549719	-164.675490
9.900000	-3.548488	-153.361372	-10.743021	4.511802	-10.743021	4.511802	-3.541324	-153.323864
9.950000	-2.304725	-149.572894	-12.382703	-19.710574	-12.382703	-19.710574	-2.299701	-149.552717
10.000000	-1.510263	-151.399841	-14.523289	-35.234414	-14.523289	-35.234414	-1.507017	-151.381801
