! freq	dB(S11)	phase(S11)	dB(S12)	phase(S12)	
!     	dB(S21)	phase(S21)	dB(S22)	phase(S22)	
!S-par simulation data
#  GHz  S  DB  R 50
0.000000	-82.677659	0.000000	-0.000638	0.000000	-0.000638	0.000000	-82.677659	0.000000
0.050000	-43.025155	-75.254042	-0.020250	-2.805195	-0.020250	-2.805195	-42.976094	-77.070273
0.100000	-37.875704	-84.726546	-0.028188	-5.495411	-0.028188	-5.495411	-37.911379	-86.467931
0.150000	-34.565696	-90.258377	-0.032840	-8.196399	-0.032840	-8.196399	-34.632735	-92.745607
0.200000	-32.159244	-94.314327	-0.037372	-10.902372	-0.037372	-10.902372	-32.235887	-97.638750
0.250000	-30.280693	-97.719631	-0.042215	-13.609392	-0.042215	-13.609392	-30.358867	-101.893719
0.300000	-28.746887	-100.785459	-0.047349	-16.315850	-0.047349	-16.315850	-28.823081	-105.809921
0.350000	-27.456575	-103.645601	-0.052701	-19.021072	-0.052701	-19.021072	-27.529094	-109.520118
0.400000	-26.346784	-106.380706	-0.058194	-21.724937	-0.058194	-21.724937	-26.415021	-113.106128
0.450000	-25.376774	-109.028401	-0.063788	-24.427452	-0.063788	-24.427452	-25.440678	-116.606910
0.500000	-24.519183	-111.609528	-0.069469	-27.128632	-0.069469	-27.128632	-24.579105	-120.044439
0.550000	-23.753286	-114.141641	-0.075226	-29.828612	-0.075226	-29.828612	-23.809950	-123.436410
0.600000	-23.063899	-116.635132	-0.081057	-32.527489	-0.081057	-32.527489	-23.118301	-126.792419
0.650000	-22.440018	-119.096049	-0.086967	-35.225307	-0.086967	-35.225307	-22.493352	-130.116628
0.700000	-21.872669	-121.529724	-0.092956	-37.922131	-0.092956	-37.922131	-21.926116	-133.411352
0.750000	-21.354271	-123.940806	-0.099020	-40.618044	-0.099020	-40.618044	-21.408673	-136.678230
0.800000	-20.879231	-126.332110	-0.105155	-43.313089	-0.105155	-43.313089	-20.934852	-139.918077
0.850000	-20.443275	-128.705754	-0.111356	-46.007292	-0.111356	-46.007292	-20.499641	-143.133201
0.900000	-20.041785	-131.064821	-0.117610	-48.700751	-0.117610	-48.700751	-20.097884	-146.329847
0.950000	-19.671462	-133.411316	-0.123906	-51.393527	-0.123906	-51.393527	-19.726097	-149.513851
1.000000	-19.330251	-135.746614	-0.130229	-54.085664	-0.130229	-54.085664	-19.382313	-152.690205
1.050000	-19.015098	-138.073069	-0.136564	-56.777277	-0.136564	-56.777277	-19.063886	-155.862968
1.100000	-18.723928	-140.392353	-0.142893	-59.468460	-0.142893	-59.468460	-18.769107	-159.034016
1.150000	-18.455504	-142.705814	-0.149198	-62.159307	-0.149198	-62.159307	-18.497017	-162.203996
1.200000	-18.208134	-145.015010	-0.155460	-64.849945	-0.155460	-64.849945	-18.246118	-165.372897
1.250000	-17.980262	-147.321288	-0.161664	-67.540507	-0.161664	-67.540507	-18.014938	-168.540396
1.300000	-17.771043	-149.625727	-0.167789	-70.231132	-0.167789	-70.231132	-17.802645	-171.706012
1.350000	-17.580465	-151.929327	-0.173809	-72.921999	-0.173809	-72.921999	-17.609191	-174.869086
1.400000	-17.405375	-154.233017	-0.179726	-75.613217	-0.179726	-75.613217	-17.431355	-178.029660
1.450000	-17.246203	-156.537480	-0.185516	-78.304974	-0.185516	-78.304974	-17.269500	178.812854
1.500000	-17.103576	-158.843627	-0.191147	-80.997538	-0.191147	-80.997538	-17.124166	175.659196
1.550000	-16.975497	-161.152001	-0.196620	-83.691031	-0.196620	-83.691031	-16.993297	172.509356
1.600000	-16.861424	-163.463244	-0.201923	-86.385643	-0.201923	-86.385643	-16.876297	169.363681
1.650000	-16.760864	-165.778034	-0.207044	-89.081570	-0.207044	-89.081570	-16.772628	166.222544
1.700000	-16.672887	-168.096902	-0.211982	-91.778947	-0.211982	-91.778947	-16.681340	163.086142
1.750000	-16.598460	-170.421210	-0.216704	-94.478173	-0.216704	-94.478173	-16.603339	159.955545
1.800000	-16.536494	-172.751654	-0.221216	-97.179382	-0.221216	-97.179382	-16.537539	156.831014
1.850000	-16.486648	-175.089289	-0.225511	-99.882796	-0.225511	-99.882796	-16.483587	153.713177
1.900000	-16.448734	-177.435404	-0.229582	-102.588673	-0.229582	-102.588673	-16.441288	150.602841
1.950000	-16.422468	-179.791369	-0.233426	-105.297247	-0.233426	-105.297247	-16.410356	147.500859
2.000000	-16.407475	177.841428	-0.237046	-108.008721	-0.237046	-108.008721	-16.390420	144.408094
2.050000	-16.403535	175.461353	-0.240441	-110.723327	-0.240441	-110.723327	-16.381262	141.325615
2.100000	-16.410457	173.066606	-0.243614	-113.441291	-0.243614	-113.441291	-16.382690	138.254637
2.150000	-16.428074	170.655210	-0.246567	-116.162843	-0.246567	-116.162843	-16.394537	135.196530
2.200000	-16.456246	168.225000	-0.249307	-118.888208	-0.249307	-118.888208	-16.416661	132.152834
2.250000	-16.494857	165.773612	-0.251839	-121.617609	-0.251839	-121.617609	-16.448939	129.125282
2.300000	-16.543811	163.298463	-0.254171	-124.351269	-0.254171	-124.351269	-16.491269	126.115814
2.350000	-16.603035	160.796737	-0.256311	-127.089403	-0.256311	-127.089403	-16.543567	123.126601
2.400000	-16.672474	158.265362	-0.258270	-129.832226	-0.258270	-129.832226	-16.605764	120.160064
2.450000	-16.752087	155.700986	-0.260060	-132.579946	-0.260060	-132.579946	-16.677805	117.218902
2.500000	-16.841851	153.099950	-0.261691	-135.332770	-0.261691	-135.332770	-16.759645	114.306122
2.550000	-16.941943	150.457275	-0.263175	-138.091017	-0.263175	-138.091017	-16.851437	111.425837
2.600000	-17.052152	147.769358	-0.264529	-140.854771	-0.264529	-140.854771	-16.952948	108.581170
2.650000	-17.172470	145.031389	-0.265768	-143.624224	-0.265768	-143.624224	-17.064145	105.776266
2.700000	-17.302889	142.238097	-0.266907	-146.399559	-0.266907	-146.399559	-17.184990	103.015720
2.750000	-17.443387	139.383707	-0.267963	-149.180957	-0.267963	-149.180957	-17.315432	100.304618
2.800000	-17.593923	136.461884	-0.268952	-151.968594	-0.268952	-151.968594	-17.455399	97.648585
2.850000	-17.754427	133.465679	-0.269893	-154.762639	-0.269893	-154.762639	-17.604791	95.053832
2.900000	-17.924785	130.387472	-0.270802	-157.563257	-0.270802	-157.563257	-17.763461	92.527204
2.950000	-18.104819	127.218915	-0.271697	-160.370610	-0.271697	-160.370610	-17.931209	90.076230
3.000000	-18.294272	123.950876	-0.272597	-163.184852	-0.272597	-163.184852	-18.107752	87.709168
3.050000	-18.492777	120.573393	-0.273521	-166.006135	-0.273521	-166.006135	-18.292711	85.435038
3.100000	-18.699831	117.075639	-0.274488	-168.834606	-0.274488	-168.834606	-18.485576	83.263647
3.150000	-18.914764	113.444343	-0.275516	-171.670488	-0.275516	-171.670488	-18.685691	81.206946
3.200000	-19.136619	109.666514	-0.276627	-174.513925	-0.276627	-174.513925	-18.892134	79.276685
3.250000	-19.364162	105.730257	-0.277838	-177.364971	-0.277838	-177.364971	-19.103731	77.483668
3.300000	-19.595850	101.621693	-0.279168	179.776244	-0.279168	179.776244	-19.319033	75.840405
3.350000	-19.829725	97.326696	-0.280638	176.909594	-0.280638	176.909594	-19.536229	74.359610
3.400000	-20.063351	92.831356	-0.282265	174.034955	-0.282265	174.034955	-19.753080	73.053791
3.450000	-20.293744	88.122631	-0.284069	171.152211	-0.284069	171.152211	-19.966867	71.934683
3.500000	-20.517317	83.189244	-0.286070	168.261244	-0.286070	168.261244	-20.174344	71.012487
3.550000	-20.729859	78.022811	-0.288284	165.361946	-0.288284	165.361946	-20.371716	70.294903
3.600000	-20.926553	72.619208	-0.290732	162.454208	-0.290732	162.454208	-20.554658	69.785977
3.650000	-21.102070	66.980093	-0.293432	159.537927	-0.293432	159.537927	-20.718383	69.484808
3.700000	-21.250750	61.114426	-0.296400	156.613004	-0.296400	156.613004	-20.857788	69.384243
3.750000	-21.366880	55.039749	-0.299655	153.679345	-0.299655	153.679345	-20.967683	69.469736
3.800000	-21.444135	48.779793	-0.303220	150.736663	-0.303220	150.736663	-21.042238	69.721458
3.850000	-21.478699	42.375755	-0.307105	147.785063	-0.307105	147.785063	-21.077791	70.103954
3.900000	-21.467249	35.871977	-0.311325	144.824462	-0.311325	144.824462	-21.070999	70.578647
3.950000	-21.408063	29.318027	-0.315895	141.854779	-0.315895	141.854779	-21.019850	71.101645
4.000000	-21.301229	22.765380	-0.320827	138.875940	-0.320827	138.875940	-20.923886	71.626404
4.050000	-21.148657	16.263790	-0.326134	135.887871	-0.326134	135.887871	-20.784270	72.106784
4.100000	-20.953878	9.857957	-0.331824	132.890501	-0.331824	132.890501	-20.603679	72.500044
4.150000	-20.721690	3.584987	-0.337906	129.883761	-0.337906	129.883761	-20.386044	72.769322
4.200000	-20.457722	-2.527048	-0.344386	126.867580	-0.344386	126.867580	-20.136205	72.885277
4.250000	-20.167989	-8.459441	-0.351267	123.841887	-0.351267	123.841887	-19.859518	72.826792
4.300000	-19.858503	-14.202270	-0.358550	120.806608	-0.358550	120.806608	-19.561503	72.580834
4.350000	-19.534981	-19.753192	-0.366232	117.761663	-0.366232	117.761663	-19.247542	72.141657
4.400000	-19.202464	-25.114007	-0.374312	114.706858	-0.374312	114.706858	-18.922471	71.507605
4.450000	-18.865716	-30.293432	-0.382779	111.642088	-0.382779	111.642088	-18.590974	70.684180
4.500000	-18.528963	-35.305160	-0.391614	108.567346	-0.391614	108.567346	-18.257300	69.682394
4.550000	-18.195598	-40.162756	-0.400800	105.482497	-0.400800	105.482497	-17.924909	68.513487
4.600000	-17.868473	-44.880832	-0.410312	102.387384	-0.410312	102.387384	-17.596742	67.190124
4.650000	-17.549966	-49.474403	-0.420123	99.281820	-0.420123	99.281820	-17.275277	65.725707
4.700000	-17.242054	-53.958445	-0.430199	96.165582	-0.430199	96.165582	-16.962589	64.133868
4.750000	-16.946384	-58.347614	-0.440500	93.038406	-0.440500	93.038406	-16.660410	62.428123
4.800000	-16.664340	-62.656099	-0.450981	89.899979	-0.450981	89.899979	-16.370189	60.621654
4.850000	-16.397101	-66.897556	-0.461594	86.749929	-0.461594	86.749929	-16.093149	58.727190
4.900000	-16.145697	-71.085127	-0.472281	83.587819	-0.472281	83.587819	-15.830335	56.756964
4.950000	-15.911044	-75.231500	-0.482982	80.413135	-0.482982	80.413135	-15.582653	54.722723
5.000000	-15.693995	-79.349013	-0.493631	77.225276	-0.493631	77.225276	-15.350912	52.635790
5.050000	-15.495695	-83.449701	-0.504153	74.023222	-0.504153	74.023222	-15.136123	50.506488
5.100000	-15.316698	-87.546266	-0.514476	70.806441	-0.514476	70.806441	-14.938779	48.346720
5.150000	-15.157835	-91.650925	-0.524521	67.573992	-0.524521	67.573992	-14.759552	46.167173
5.200000	-15.019984	-95.776260	-0.534210	64.324792	-0.534210	64.324792	-14.599117	43.978638
5.250000	-14.904094	-99.935473	-0.543464	61.057606	-0.543464	61.057606	-14.458164	41.792213
5.300000	-14.811207	-104.142683	-0.552206	57.771030	-0.552206	57.771030	-14.337406	39.619531
5.350000	-14.742476	-108.413278	-0.560361	54.463476	-0.560361	54.463476	-14.237595	37.473037
5.400000	-14.699190	-112.764348	-0.567861	51.133150	-0.567861	51.133150	-14.159518	35.366316
5.450000	-14.682784	-117.215214	-0.574649	47.778044	-0.574649	47.778044	-14.103995	33.314487
5.500000	-14.694856	-121.788096	-0.580678	44.395907	-0.580678	44.395907	-14.071866	31.334676
5.550000	-14.737170	-126.508957	-0.585919	40.984237	-0.585919	40.984237	-14.063961	29.446597
5.600000	-14.811643	-131.408583	-0.590365	37.540259	-0.590365	37.540259	-14.081054	27.673248
5.650000	-14.920682	-136.526835	-0.594029	34.060485	-0.594029	34.060485	-14.124053	26.043653
5.700000	-15.066364	-141.910662	-0.596969	30.541420	-0.596969	30.541420	-14.193299	24.591356
5.750000	-15.249705	-147.608944	-0.599300	26.980366	-0.599300	26.980366	-14.288008	23.350339
5.800000	-15.472838	-153.698111	-0.601161	23.372374	-0.601161	23.372374	-14.407748	22.371420
5.850000	-15.735756	-160.262470	-0.602770	19.713428	-0.602770	19.713428	-14.550042	21.707569
5.900000	-16.036650	-167.409896	-0.604414	15.998847	-0.604414	15.998847	-14.710639	21.422156
5.950000	-16.369981	-175.274939	-0.606473	12.223460	-0.606473	12.223460	-14.882361	21.587567
6.000000	-16.723529	175.978733	-0.609436	8.381555	-0.609436	8.381555	-15.053656	22.282214
6.050000	-17.074614	166.185247	-0.613903	4.468108	-0.613903	4.468108	-15.207500	23.571045
6.100000	-17.385889	155.187815	-0.620614	0.477439	-0.620614	0.477439	-15.320437	25.499979
6.150000	-17.602227	142.905525	-0.630464	-3.596199	-0.630464	-3.596199	-15.362730	28.067429
6.200000	-17.654550	129.425285	-0.644525	-7.758491	-0.644525	-7.758491	-15.301038	31.195549
6.250000	-17.476329	115.083071	-0.664064	-12.014883	-0.664064	-12.014883	-15.104373	34.709944
6.300000	-17.027211	100.451828	-0.690649	-16.371496	-0.690649	-16.371496	-14.750340	38.343495
6.350000	-16.322959	86.176759	-0.725925	-20.831550	-0.725925	-20.831550	-14.238042	41.779247
6.400000	-15.419923	72.740489	-0.771821	-25.398236	-0.771821	-25.398236	-13.584190	44.726241
6.450000	-14.391794	60.370562	-0.830486	-30.073328	-0.830486	-30.073328	-12.819499	46.971245
6.500000	-13.305849	49.075943	-0.904266	-34.856790	-0.904266	-34.856790	-11.980409	48.401037
6.550000	-12.212394	38.741764	-0.995674	-39.746369	-0.995674	-39.746369	-11.101837	48.991848
6.600000	-11.144023	29.215630	-1.107504	-44.737969	-1.107504	-44.737969	-10.212460	48.776634
6.650000	-10.121850	20.337691	-1.242333	-49.823080	-1.242333	-49.823080	-9.335627	47.835233
6.700000	-9.157758	11.973890	-1.402545	-54.989994	-1.402545	-54.989994	-8.488053	46.262203
6.750000	-8.257167	4.028152	-1.590839	-60.225432	-1.590839	-60.225432	-7.680362	44.142023
6.800000	-7.423002	-3.576534	-1.809341	-65.511841	-1.809341	-65.511841	-6.920196	41.564251
6.850000	-6.655958	-10.896102	-2.059586	-70.828964	-2.059586	-70.828964	-6.212224	38.613612
6.900000	-5.955125	-17.967644	-2.342669	-76.155022	-2.342669	-76.155022	-5.558719	35.365313
6.950000	-5.318902	-24.810303	-2.659614	-81.466811	-2.659614	-81.466811	-4.960529	31.882322
7.000000	-4.744382	-31.442844	-3.009923	-86.741720	-3.009923	-86.741720	-4.416757	28.229420
7.050000	-4.229199	-37.865617	-3.393616	-91.955539	-3.393616	-91.955539	-3.926470	24.455331
7.100000	-3.768920	-44.088697	-3.809046	-97.089733	-3.809046	-97.089733	-3.486491	20.609783
7.150000	-3.360667	-50.106040	-4.255047	-102.122621	-4.255047	-102.122621	-3.094791	16.730611
7.200000	-2.999477	-55.924059	-4.729519	-107.041621	-4.729519	-107.041621	-2.747180	12.851774
7.250000	-2.682272	-61.536243	-5.230326	-111.829545	-5.230326	-111.829545	-2.441096	9.001452
7.300000	-2.403561	-66.953624	-5.755509	-116.483233	-5.755509	-116.483233	-2.171559	5.199276
7.350000	-2.160766	-72.169101	-6.302356	-120.988875	-6.302356	-120.988875	-1.936290	1.465209
7.400000	-1.948635	-77.197658	-6.869532	-125.350713	-6.869532	-125.350713	-1.730382	-2.192428
7.450000	-1.763762	-82.044626	-7.455521	-129.567573	-7.455521	-129.567573	-1.550651	-5.765798
7.500000	-1.604280	-86.704840	-8.057102	-133.630178	-8.057102	-133.630178	-1.395371	-9.243322
7.550000	-1.466177	-91.194162	-8.673807	-137.547238	-8.673807	-137.547238	-1.260721	-12.626025
7.600000	-1.346420	-95.524631	-9.305447	-141.325469	-9.305447	-141.325469	-1.143806	-15.915532
7.650000	-1.242824	-99.703476	-9.951302	-144.967915	-9.951302	-144.967915	-1.042539	-19.112022
7.700000	-1.154267	-103.728176	-10.608045	-148.468509	-10.608045	-148.468509	-0.955856	-22.210037
7.750000	-1.077730	-107.620213	-11.278679	-151.843497	-11.278679	-151.843497	-0.880848	-25.220413
7.800000	-1.011699	-111.387594	-11.963618	-155.097099	-11.963618	-155.097099	-0.816057	-28.146284
7.850000	-0.955113	-115.034277	-12.662109	-158.229249	-12.662109	-158.229249	-0.760467	-30.988358
7.900000	-0.906831	-118.566570	-13.374211	-161.241481	-13.374211	-161.241481	-0.712979	-33.749196
7.950000	-0.865370	-121.998337	-14.103740	-164.143323	-14.103740	-164.143323	-0.672159	-36.437242
8.000000	-0.829877	-125.336360	-14.852604	-166.936757	-14.852604	-166.936757	-0.637185	-39.056254
8.050000	-0.799890	-128.581839	-15.620231	-169.615729	-15.620231	-169.615729	-0.607618	-41.605948
8.100000	-0.774515	-131.744540	-16.410959	-172.183045	-16.410959	-172.183045	-0.582595	-44.092588
8.150000	-0.753059	-134.832800	-17.229834	-174.639937	-17.229834	-174.639937	-0.561442	-46.521704
8.200000	-0.735044	-137.851800	-18.081254	-176.980912	-18.081254	-176.980912	-0.543703	-48.896511
8.250000	-0.720216	-140.803025	-18.967805	-179.190771	-18.967805	-179.190771	-0.529141	-51.217423
8.300000	-0.707873	-143.698679	-19.902512	178.727451	-19.902512	178.727451	-0.517067	-53.493523
8.350000	-0.698116	-146.533580	-20.885138	176.819207	-20.885138	176.819207	-0.507599	-55.719952
8.400000	-0.690233	-149.322444	-21.937410	175.080138	-21.937410	175.080138	-0.500034	-57.908222
8.450000	-0.684324	-152.060923	-23.064628	173.590721	-23.064628	173.590721	-0.494488	-60.054173
8.500000	-0.679944	-154.758990	-24.294331	172.383532	-24.294331	172.383532	-0.490522	-62.165737
8.550000	-0.677036	-157.417088	-25.649089	171.594811	-25.649089	171.594811	-0.488093	-64.242860
8.600000	-0.675421	-160.039378	-27.167671	171.398059	-27.167671	171.398059	-0.487031	-66.288758
8.650000	-0.674923	-162.630394	-28.907938	172.088750	-28.907938	172.088750	-0.487164	-68.307075
8.700000	-0.675536	-165.190250	-30.936415	174.434357	-30.936415	174.434357	-0.488507	-70.297641
8.750000	-0.677015	-167.726105	-33.380769	179.366955	-33.380769	179.366955	-0.490807	-72.266657
8.800000	-0.679477	-170.235526	-36.207870	-168.837421	-36.207870	-168.837421	-0.494215	-74.211809
8.850000	-0.682676	-172.726002	-38.987311	-145.881172	-38.987311	-145.881172	-0.498472	-76.139836
8.900000	-0.686687	-175.197007	-39.256390	-112.063092	-39.256390	-112.063092	-0.503685	-78.050360
8.950000	-0.691403	-177.652703	-36.959767	-86.371889	-36.959767	-86.371889	-0.509747	-79.947334
9.000000	-0.696825	179.905060	-34.271312	-73.514730	-34.271312	-73.514730	-0.516682	-81.832793
9.050000	-0.702957	177.474125	-31.978360	-67.675115	-31.978360	-67.675115	-0.524516	-83.709207
9.100000	-0.709744	175.051388	-30.097030	-64.872748	-30.097030	-64.872748	-0.533205	-85.579936
9.150000	-0.717296	172.635449	-28.517585	-63.892175	-28.517585	-63.892175	-0.542916	-87.447454
9.200000	-0.725693	170.223347	-27.159314	-63.913667	-27.159314	-63.913667	-0.553798	-89.316212
9.250000	-0.734674	167.811941	-25.971311	-64.360581	-25.971311	-64.360581	-0.565510	-91.188472
9.300000	-0.744484	165.400094	-24.908320	-65.260253	-24.908320	-65.260253	-0.578419	-93.067701
9.350000	-0.755459	162.983094	-23.933383	-66.505608	-23.933383	-66.505608	-0.593071	-94.963438
9.400000	-0.767363	160.559691	-23.033769	-67.929216	-23.033769	-67.929216	-0.609157	-96.875976
9.450000	-0.780227	158.128935	-22.196011	-69.507686	-22.196011	-69.507686	-0.626741	-98.807082
9.500000	-0.794758	155.682591	-21.392378	-71.268016	-21.392378	-71.268016	-0.647000	-100.775535
9.550000	-0.810983	153.218877	-20.618126	-73.162008	-20.618126	-73.162008	-0.670049	-102.785121
9.600000	-0.829268	150.733331	-19.863237	-75.185114	-19.863237	-75.185114	-0.696568	-104.846781
9.650000	-0.850107	148.220759	-19.118683	-77.340411	-19.118683	-77.340411	-0.727483	-106.974062
9.700000	-0.874177	145.675018	-18.375992	-79.638472	-18.375992	-79.638472	-0.764074	-109.183987
9.750000	-0.902420	143.088748	-17.626899	-82.098150	-17.626899	-82.098150	-0.808145	-111.498285
9.800000	-0.936169	140.453047	-16.863059	-84.748334	-16.863059	-84.748334	-0.862293	-113.945138
9.850000	-0.976882	137.760725	-16.081028	-87.616780	-16.081028	-87.616780	-0.929453	-116.551080
9.900000	-1.028413	134.990777	-15.259916	-90.794022	-15.259916	-90.794022	-1.017287	-119.388723
9.950000	-1.094676	132.131820	-14.396055	-94.350903	-14.396055	-94.350903	-1.134140	-122.515431
10.000000	-1.182513	129.167224	-13.479381	-98.411303	-13.479381	-98.411303	-1.295049	-126.025970
