! freq	dB(S11)	phase(S11)	dB(S12)	phase(S12)	
!     	dB(S21)	phase(S21)	dB(S22)	phase(S22)	
!S-par simulation data
#  GHz  S  DB  R 50
0.000000	-88.211343	0.000000	-0.000337	0.000000	-0.000337	0.000000	-88.211343	0.000000
0.050000	-29.222441	-93.537071	-0.008105	-3.432196	-0.008105	-3.432196	-29.230858	-93.540042
0.100000	-23.236473	-97.130237	-0.029751	-6.840256	-0.029751	-6.840256	-23.240132	-97.132072
0.150000	-19.767169	-100.636908	-0.062401	-10.214981	-0.062401	-10.214981	-19.766178	-100.636299
0.200000	-17.335248	-104.067436	-0.104176	-13.556562	-0.104176	-13.556562	-17.331040	-104.066043
0.250000	-15.474666	-107.431518	-0.154034	-16.866797	-0.154034	-16.866797	-15.468799	-107.430898
0.300000	-13.978258	-110.737241	-0.211596	-20.144527	-0.211596	-20.144527	-13.971911	-110.737892
0.350000	-12.735634	-113.990455	-0.276535	-23.386875	-0.276535	-23.386875	-12.729551	-113.992142
0.400000	-11.680469	-117.194921	-0.348359	-26.590864	-0.348359	-26.590864	-11.675045	-117.197187
0.450000	-10.770752	-120.350995	-0.426649	-29.752465	-0.426649	-29.752465	-10.766157	-120.353420
0.500000	-9.976874	-123.459136	-0.510740	-32.869171	-0.510740	-32.869171	-9.973134	-123.461439
0.550000	-9.277936	-126.518524	-0.599999	-35.938399	-0.599999	-35.938399	-9.275003	-126.520554
0.600000	-8.658501	-129.527907	-0.693766	-38.957830	-0.693766	-38.957830	-8.656288	-129.529610
0.650000	-8.106130	-132.487209	-0.791302	-41.926779	-0.791302	-41.926779	-8.104535	-132.488596
0.700000	-7.611664	-135.395267	-0.891940	-44.843750	-0.891940	-44.843750	-7.610584	-135.396383
0.750000	-7.167367	-138.251984	-0.994973	-47.708495	-0.994973	-47.708495	-7.166703	-138.252891
0.800000	-6.766867	-141.057669	-1.099731	-50.521289	-1.099731	-50.521289	-6.766532	-141.058434
0.850000	-6.404293	-143.814356	-1.205593	-53.284214	-1.205593	-53.284214	-6.404212	-143.815039
0.900000	-6.076116	-146.520808	-1.311949	-55.996063	-1.311949	-55.996063	-6.076220	-146.521469
0.950000	-5.778308	-149.178734	-1.418233	-58.658641	-1.418233	-58.658641	-5.778541	-149.179423
1.000000	-5.507732	-151.789209	-1.523904	-61.273117	-1.523904	-61.273117	-5.508049	-151.789969
1.050000	-5.261798	-154.353180	-1.628428	-63.840536	-1.628428	-63.840536	-5.262159	-154.354048
1.100000	-5.037321	-156.874477	-1.731489	-66.364853	-1.731489	-66.364853	-5.037696	-156.875484
1.150000	-4.832648	-159.353646	-1.832615	-68.846698	-1.832615	-68.846698	-4.833013	-159.354816
1.200000	-4.645935	-161.792560	-1.931435	-71.288040	-1.931435	-71.288040	-4.646271	-161.793918
1.250000	-4.475560	-164.193165	-2.027611	-73.690917	-2.027611	-73.690917	-4.475852	-164.194729
1.300000	-4.320334	-166.556710	-2.120749	-76.056664	-2.120749	-76.056664	-4.320571	-166.558498
1.350000	-4.178720	-168.886050	-2.210658	-78.388224	-2.210658	-78.388224	-4.178896	-168.888079
1.400000	-4.049604	-171.183219	-2.297095	-80.687709	-2.297095	-80.687709	-4.049713	-171.185502
1.450000	-3.931997	-173.450248	-2.379845	-82.957224	-2.379845	-82.957224	-3.932037	-173.452801
1.500000	-3.825021	-175.689159	-2.458715	-85.198863	-2.458715	-85.198863	-3.824992	-175.691998
1.550000	-3.727900	-177.901957	-2.533533	-87.414697	-2.533533	-87.414697	-3.727802	-177.905097
1.600000	-3.639942	179.909379	-2.604150	-89.606771	-2.604150	-89.606771	-3.639777	179.905923
1.650000	-3.560536	177.742899	-2.670432	-91.777097	-2.670432	-91.777097	-3.560307	177.739109
1.700000	-3.489140	175.596682	-2.732265	-93.927657	-2.732265	-93.927657	-3.488851	175.592541
1.750000	-3.425275	173.468840	-2.789548	-96.060395	-2.789548	-96.060395	-3.424930	173.464329
1.800000	-3.368522	171.357520	-2.842192	-98.177225	-2.842192	-98.177225	-3.368124	171.352618
1.850000	-3.318511	169.260901	-2.890124	-100.280024	-2.890124	-100.280024	-3.318065	169.255587
1.900000	-3.274986	167.177314	-2.933225	-102.370524	-2.933225	-102.370524	-3.274497	167.171563
1.950000	-3.237663	165.104943	-2.971442	-104.450600	-2.971442	-104.450600	-3.237137	165.098730
2.000000	-3.206242	163.041919	-3.004787	-106.522170	-3.004787	-106.522170	-3.205682	163.035216
2.050000	-3.180527	160.986541	-3.033222	-108.586990	-3.033222	-108.586990	-3.179938	160.979320
2.100000	-3.160357	158.937133	-3.056722	-110.646798	-3.056722	-110.646798	-3.159743	158.929361
2.150000	-3.145605	156.892036	-3.075267	-112.703308	-3.075267	-112.703308	-3.144971	156.883680
2.200000	-3.136177	154.849613	-3.088842	-114.758221	-3.088842	-114.758221	-3.135527	154.840637
2.250000	-3.132011	152.808241	-3.097443	-116.813226	-3.097443	-116.813226	-3.131349	152.798605
2.300000	-3.133075	150.766307	-3.101069	-118.869999	-3.101069	-118.869999	-3.132404	150.755970
2.350000	-3.139366	148.722210	-3.099726	-120.930214	-3.099726	-120.930214	-3.138691	148.711126
2.400000	-3.150915	146.674353	-3.093427	-122.995543	-3.093427	-122.995543	-3.150237	146.662474
2.450000	-3.167780	144.621144	-3.082192	-125.067656	-3.082192	-125.067656	-3.167102	144.608417
2.500000	-3.190051	142.560989	-3.066046	-127.148233	-3.066046	-127.148233	-3.189377	142.547358
2.550000	-3.217973	140.492072	-3.044915	-129.239219	-3.044915	-129.239219	-3.217304	140.477474
2.600000	-3.251585	138.412943	-3.018945	-131.342129	-3.018945	-131.342129	-3.250924	138.397311
2.650000	-3.291082	136.321997	-2.988185	-133.458677	-2.988185	-133.458677	-3.290429	136.305260
2.700000	-3.336692	134.217621	-2.952689	-135.590594	-2.952689	-135.590594	-3.336050	134.199699
2.750000	-3.388685	132.098193	-2.912522	-137.739632	-2.912522	-137.739632	-3.388055	132.078999
2.800000	-3.447374	129.962080	-2.867759	-139.907564	-2.867759	-139.907564	-3.446756	129.941522
2.850000	-3.513116	127.807642	-2.818485	-142.096188	-2.818485	-142.096188	-3.512512	127.785616
2.900000	-3.586321	125.633230	-2.764796	-144.307328	-2.764796	-144.307328	-3.585730	125.609625
2.950000	-3.667452	123.437189	-2.706801	-146.542832	-2.706801	-146.542832	-3.666875	123.411881
3.000000	-3.757034	121.217864	-2.644624	-148.804576	-2.644624	-148.804576	-3.756472	121.190716
3.050000	-3.855660	118.973600	-2.578404	-151.094459	-2.578404	-151.094459	-3.855111	118.944461
3.100000	-3.963996	116.702753	-2.508295	-153.414400	-2.508295	-153.414400	-3.963461	116.671456
3.150000	-4.082898	114.403372	-2.434428	-155.766712	-2.434428	-155.766712	-4.082376	114.369729
3.200000	-4.213231	112.073810	-2.357000	-158.153416	-2.357000	-158.153416	-4.212722	112.037610
3.250000	-4.355852	109.712827	-2.276278	-160.576124	-2.276278	-160.576124	-4.355356	109.673837
3.300000	-4.511839	107.318945	-2.192504	-163.036798	-2.192504	-163.036798	-4.511354	107.276902
3.350000	-4.682405	104.890774	-2.105945	-165.537384	-2.105945	-165.537384	-4.681931	104.845381
3.400000	-4.868922	102.427044	-2.016898	-168.079803	-2.016898	-168.079803	-4.868458	102.377967
3.450000	-5.072941	99.926646	-1.925689	-170.665934	-1.925689	-170.665934	-5.072488	99.873502
3.500000	-5.296228	97.388670	-1.832676	-173.297592	-1.832676	-173.297592	-5.295786	97.331021
3.550000	-5.540792	94.812468	-1.738250	-175.976512	-1.738250	-175.976512	-5.540361	94.749811
3.600000	-5.808932	92.197724	-1.642838	-178.704317	-1.642838	-178.704317	-5.808513	92.129476
3.650000	-6.103290	89.544541	-1.546900	178.517510	-1.546900	178.517510	-6.102886	89.470023
3.700000	-6.426924	86.853557	-1.450935	175.687657	-1.450935	175.687657	-6.426539	86.771970
3.750000	-6.783391	84.126087	-1.355476	172.805017	-1.355476	172.805017	-6.783030	84.036487
3.800000	-7.177348	81.363646	-1.261109	169.867557	-1.261109	169.867557	-7.177021	81.264875
3.850000	-7.613322	78.570437	-1.168450	166.875877	-1.168450	166.875877	-7.613041	78.461117
3.900000	-8.097239	75.751385	-1.078138	163.829769	-1.078138	163.829769	-8.097024	75.629829
3.950000	-8.636296	72.913460	-0.990833	160.729407	-0.990833	160.729407	-8.636173	72.777568
4.000000	-9.239366	70.066443	-0.907220	157.575385	-0.907220	157.575385	-9.239375	69.913566
4.050000	-9.917595	67.224125	-0.827994	154.368763	-0.827994	154.368763	-9.917797	67.050847
4.100000	-10.685303	64.406224	-0.753858	151.111096	-0.753858	151.111096	-10.685790	64.208044
4.150000	-11.561380	61.641644	-0.685509	147.804467	-0.685509	147.804467	-11.562299	61.412463
4.200000	-12.571556	58.974320	-0.623630	144.451502	-0.623630	144.451502	-12.573150	58.705595
4.250000	-13.752278	56.474453	-0.568876	141.055375	-0.568876	141.055375	-13.754971	56.153712
4.300000	-15.157748	54.261925	-0.521863	137.619804	-0.521863	137.619804	-15.162337	53.869984
4.350000	-16.873715	52.560422	-0.483153	134.149027	-0.483153	134.149027	-16.881857	52.065734
4.400000	-19.047269	51.863542	-0.453345	130.647489	-0.453345	130.647489	-19.062967	51.208258
4.450000	-21.955088	53.469626	-0.432871	127.120522	-0.432871	127.120522	-21.990427	52.534107
4.500000	-26.153423	61.921389	-0.421963	123.573979	-0.421963	123.573979	-26.260167	60.451396
4.550000	-31.522949	98.977938	-0.420849	120.013640	-0.420849	120.013640	-31.948983	97.845976
4.600000	-29.414861	160.391844	-0.429411	116.445509	-0.429411	116.445509	-29.693569	162.116246
4.650000	-24.135551	179.512072	-0.448107	112.875308	-0.448107	112.875308	-24.222963	-179.210861
4.700000	-20.565037	-176.163946	-0.476689	109.309204	-0.476689	109.309204	-20.606106	-175.253029
4.750000	-18.005988	-175.866664	-0.515017	105.753162	-0.515017	105.753162	-18.030253	-175.159637
4.800000	-16.040119	-177.126372	-0.562722	102.212734	-0.562722	102.212734	-16.056436	-176.545139
4.850000	-14.458511	-179.139128	-0.619425	98.693173	-0.619425	98.693173	-14.470421	-178.642238
4.900000	-13.146152	178.436176	-0.684747	95.199661	-0.684747	95.199661	-13.155347	178.873090
4.950000	-12.032345	175.777050	-0.757959	91.735769	-0.757959	91.735769	-12.039732	176.169004
5.000000	-11.072168	172.974007	-0.838611	88.305816	-0.838611	88.305816	-11.078285	173.331265
5.050000	-10.235013	170.084135	-0.926189	84.914038	-0.926189	84.914038	-10.240202	170.413989
5.100000	-9.497759	167.146738	-1.019890	81.562477	-1.019890	81.562477	-9.502244	167.454349
5.150000	-8.843665	164.186282	-1.119041	78.253374	-1.119041	78.253374	-8.847602	164.475529
5.200000	-8.259884	161.219824	-1.222962	74.988449	-1.222962	74.988449	-8.263383	161.493693
5.250000	-7.736305	158.259503	-1.330976	71.768928	-1.330976	71.768928	-7.739449	158.520346
5.300000	-7.264808	155.314062	-1.442419	68.595574	-1.442419	68.595574	-7.267658	155.563759
5.350000	-6.838752	152.389804	-1.556647	65.468732	-1.556647	65.468732	-6.841355	152.629883
5.400000	-6.452626	149.491236	-1.673038	62.388364	-1.673038	62.388364	-6.455020	149.722958
5.450000	-6.101799	146.621511	-1.791002	59.354099	-1.791002	59.354099	-6.104013	146.845925
5.500000	-5.782338	143.782740	-1.909979	56.365272	-1.909979	56.365272	-5.784396	144.000729
5.550000	-5.490871	140.976223	-2.029445	53.420970	-2.029445	53.420970	-5.492793	141.188540
5.600000	-5.224489	138.202628	-2.148908	50.520067	-2.148908	50.520067	-5.226289	138.409916
5.650000	-4.980813	135.462479	-2.267886	47.661706	-2.267886	47.661706	-4.982505	135.665299
5.700000	-4.757600	132.755530	-2.385949	44.844396	-2.385949	44.844396	-4.759196	132.954368
5.750000	-4.552750	130.080865	-2.502736	42.066126	-2.502736	42.066126	-4.554259	130.276142
5.800000	-4.364556	127.437695	-2.617896	39.325261	-2.617896	39.325261	-4.365984	127.629779
5.850000	-4.191506	124.825045	-2.731110	36.620108	-2.731110	36.620108	-4.192862	125.014263
5.900000	-4.032263	122.241799	-2.842086	33.948937	-2.842086	33.948937	-4.033551	122.428442
5.950000	-3.885636	119.686740	-2.950561	31.309994	-2.950561	31.309994	-3.886862	119.871065
6.000000	-3.750564	117.158570	-3.056295	28.701518	-3.056295	28.701518	-3.751733	117.340810
6.050000	-3.626101	114.655943	-3.159071	26.121751	-3.159071	26.121751	-3.627216	114.836306
6.100000	-3.511400	112.177474	-3.258693	23.568944	-3.258693	23.568944	-3.512466	112.356148
6.150000	-3.405706	109.721760	-3.354986	21.041370	-3.354986	21.041370	-3.406725	109.898916
6.200000	-3.308341	107.287392	-3.447787	18.537324	-3.447787	18.537324	-3.309316	107.463184
6.250000	-3.218698	104.872958	-3.536954	16.055129	-3.536954	16.055129	-3.219632	105.047528
6.300000	-3.136364	102.477429	-3.622252	13.593539	-3.622252	13.593539	-3.137258	102.650908
6.350000	-3.060708	100.098980	-3.703662	11.150464	-3.703662	11.150464	-3.061565	100.271489
6.400000	-2.991297	97.736242	-3.781076	8.724321	-3.781076	8.724321	-2.992120	97.907889
6.450000	-2.927746	95.387859	-3.854394	6.313556	-3.854394	6.313556	-2.928536	95.558747
6.500000	-2.869710	93.052499	-3.923525	3.916646	-3.923525	3.916646	-2.870469	93.222721
6.550000	-2.816883	90.728846	-3.988381	1.532093	-3.988381	1.532093	-2.817613	90.898492
6.600000	-2.768997	88.415603	-4.048884	-0.841576	-4.048884	-0.841576	-2.769698	88.584757
6.650000	-2.725813	86.111490	-4.104957	-3.205814	-4.104957	-3.205814	-2.726488	86.280230
6.700000	-2.687123	83.815238	-4.156531	-5.562060	-4.156531	-5.562060	-2.687772	83.983641
6.750000	-2.652775	81.525632	-4.203504	-7.911699	-4.203504	-7.911699	-2.653399	81.693769
6.800000	-2.622579	79.241365	-4.245855	-10.256208	-4.245855	-10.256208	-2.623180	79.409305
6.850000	-2.596412	76.961211	-4.283515	-12.596981	-4.283515	-12.596981	-2.596990	77.129023
6.900000	-2.574274	74.683985	-4.316291	-14.935397	-4.316291	-14.935397	-2.574829	74.851735
6.950000	-2.556085	72.408372	-4.344113	-17.272962	-4.344113	-17.272962	-2.556618	72.576124
7.000000	-2.541699	70.133067	-4.367039	-19.611148	-4.367039	-19.611148	-2.542210	70.300886
7.050000	-2.531090	67.856824	-4.385000	-21.951394	-4.385000	-21.951394	-2.531578	68.024773
7.100000	-2.524256	65.578378	-4.397925	-24.295168	-4.397925	-24.295168	-2.524721	65.746519
7.150000	-2.521219	63.296437	-4.405739	-26.643972	-4.405739	-26.643972	-2.521661	63.464836
7.200000	-2.522029	61.009684	-4.408368	-28.999350	-4.408368	-28.999350	-2.522446	61.178404
7.250000	-2.526758	58.716763	-4.405732	-31.362900	-4.405732	-31.362900	-2.527149	58.885870
7.300000	-2.535509	56.416275	-4.397751	-33.736282	-4.397751	-33.736282	-2.535873	56.585837
7.350000	-2.548414	54.106771	-4.384340	-36.121225	-4.384340	-36.121225	-2.548750	54.276857
7.400000	-2.565638	51.786743	-4.365412	-38.519545	-4.365412	-38.519545	-2.565943	51.957426
7.450000	-2.587382	49.454616	-4.340878	-40.933151	-4.340878	-40.933151	-2.587652	49.625972
7.500000	-2.613884	47.108740	-4.310644	-43.364063	-4.310644	-43.364063	-2.614118	47.280847
7.550000	-2.645791	44.746184	-4.274198	-45.815925	-4.274198	-45.815925	-2.645984	44.919133
7.600000	-2.682921	42.366756	-4.232059	-48.288969	-4.232059	-48.288969	-2.683070	42.540631
7.650000	-2.725950	39.967562	-4.183812	-50.786844	-4.183812	-50.786844	-2.726049	40.142460
7.700000	-2.775246	37.546849	-4.129464	-53.311808	-4.129464	-53.311808	-2.775291	37.722869
7.750000	-2.831347	35.102421	-4.068920	-55.866714	-4.068920	-55.866714	-2.831332	35.279673
7.800000	-2.894876	32.631945	-4.002087	-58.454649	-4.002087	-58.454649	-2.894794	32.810546
7.850000	-2.966772	30.132141	-3.928696	-61.079983	-3.928696	-61.079983	-2.966616	30.312221
7.900000	-3.047780	27.600757	-3.848781	-63.745875	-3.848781	-63.745875	-3.047541	27.782457
7.950000	-3.138827	25.035237	-3.762341	-66.455983	-3.762341	-66.455983	-3.138497	25.218711
8.000000	-3.241073	22.432626	-3.669330	-69.214631	-3.669330	-69.214631	-3.240642	22.618045
8.050000	-3.355877	19.789823	-3.569728	-72.026536	-3.569728	-72.026536	-3.355333	19.977376
8.100000	-3.484837	17.103599	-3.463547	-74.896842	-3.463547	-74.896842	-3.484166	17.293500
8.150000	-3.630106	14.369778	-3.350703	-77.832369	-3.350703	-77.832369	-3.629293	14.562274
8.200000	-3.794013	11.584858	-3.231300	-80.839554	-3.231300	-80.839554	-3.793042	11.780234
8.250000	-3.979011	8.746396	-3.105654	-83.923996	-3.105654	-83.923996	-3.977862	8.944975
8.300000	-4.188327	5.851379	-2.974028	-87.092979	-2.974028	-87.092979	-4.186976	6.053541
8.350000	-4.425855	2.897277	-2.836791	-90.354384	-2.836791	-90.354384	-4.424274	3.103471
8.400000	-4.696323	-0.117602	-2.694440	-93.716693	-2.694440	-93.716693	-4.694479	0.093160
8.450000	-5.005810	-3.194084	-2.547579	-97.190003	-2.547579	-97.190003	-5.003661	-2.978096
8.500000	-5.362246	-6.331108	-2.396990	-100.786385	-2.396990	-100.786385	-5.359737	-6.109062
8.550000	-5.773895	-9.521340	-2.243952	-104.513045	-2.243952	-104.513045	-5.770956	-9.292216
8.600000	-6.252171	-12.753341	-2.089843	-108.380311	-2.089843	-108.380311	-6.248705	-12.515840
8.650000	-6.811736	-16.006664	-1.936364	-112.398512	-1.936364	-112.398512	-6.807609	-15.759093
8.700000	-7.471775	-19.246326	-1.785578	-116.577632	-1.785578	-116.577632	-7.466793	-18.986439
8.750000	-8.257971	-22.413212	-1.639953	-120.926823	-1.639953	-120.926823	-8.251835	-22.137951
8.800000	-9.207860	-25.398187	-1.502619	-125.458514	-1.502619	-125.458514	-9.200081	-25.103126
8.850000	-10.370054	-28.017641	-1.376886	-130.173587	-1.376886	-130.173587	-10.359801	-27.696506
8.900000	-11.819971	-29.905767	-1.266789	-135.076504	-1.266789	-135.076504	-11.805672	-29.549119
8.950000	-13.668669	-30.332196	-1.176343	-140.162396	-1.176343	-140.162396	-13.647052	-29.926472
9.000000	-16.079750	-27.557539	-1.110050	-145.424595	-1.110050	-145.424595	-16.043036	-27.087902
9.050000	-19.165970	-16.971349	-1.072398	-150.849371	-1.072398	-150.849371	-19.094421	-16.468916
9.100000	-21.908576	11.135600	-1.067496	-156.415780	-1.067496	-156.415780	-21.782840	11.332696
9.150000	-20.635105	48.196056	-1.099645	-162.098275	-1.099645	-162.098275	-20.548373	47.878868
9.200000	-17.143506	66.075731	-1.171772	-167.862718	-1.171772	-167.862718	-17.108706	65.775202
9.250000	-14.142492	71.381135	-1.285732	-173.670722	-1.285732	-173.670722	-14.127603	71.181516
9.300000	-11.811965	71.599648	-1.442097	-179.481676	-1.442097	-179.481676	-11.805010	71.473928
9.350000	-9.979199	69.546256	-1.640205	174.745017	-1.640205	174.745017	-9.975914	69.471140
9.400000	-8.509170	66.355341	-1.878608	169.049625	-1.878608	169.049625	-8.507782	66.315964
9.450000	-7.309050	62.592003	-2.153094	163.462552	-2.153094	163.462552	-7.308731	62.579271
9.500000	-6.319369	58.526719	-2.460550	158.014814	-2.460550	158.014814	-6.319671	58.534403
9.550000	-5.496484	54.332168	-2.796278	152.727550	-2.796278	152.727550	-5.497151	54.355979
9.600000	-4.808606	50.112758	-3.155460	147.616308	-3.155460	147.616308	-4.809481	50.149568
9.650000	-4.230469	45.933815	-3.533185	142.687468	-3.533185	142.687468	-4.231454	45.981282
9.700000	-3.743089	41.836299	-3.924827	137.944527	-3.924827	137.944527	-3.744123	41.892571
9.750000	-3.331926	37.847462	-4.325749	133.389155	-4.325749	133.389155	-3.332969	37.911015
9.800000	-2.983121	33.978341	-4.732154	129.011260	-4.732154	129.011260	-2.984156	34.047936
9.850000	-2.686655	30.235394	-5.140430	124.803551	-5.140430	124.803551	-2.687677	30.309970
9.900000	-2.434212	26.619902	-5.547314	120.756818	-5.547314	120.756818	-2.435227	26.698533
9.950000	-2.218929	23.129832	-5.949814	116.861045	-5.949814	116.861045	-2.219954	23.211695
10.000000	-2.035131	19.760988	-6.345144	113.106024	-6.345144	113.106024	-2.036191	19.845340
