! freq	dB(S11)	phase(S11)	dB(S12)	phase(S12)	
!     	dB(S21)	phase(S21)	dB(S22)	phase(S22)	
!S-par simulation data
#  GHz  S  DB  R 50
0.000000	-0.000000	-0.000000	-323.678033	180.000000	-323.678033	180.000000	-0.000000	0.000000
0.050000	-0.001146	-2.437121	-76.560631	87.106367	-76.560631	87.106367	-0.001051	-2.235695
0.100000	-0.004081	-4.866740	-70.549700	85.091063	-70.549700	85.091063	-0.003731	-4.464383
0.150000	-0.007869	-7.285829	-67.043858	82.881125	-67.043858	82.881125	-0.007165	-6.683323
0.200000	-0.011791	-9.696376	-64.566015	80.628520	-64.566015	80.628520	-0.010702	-8.894406
0.250000	-0.015542	-12.100187	-62.654749	78.361775	-62.654749	78.361775	-0.014074	-11.099279
0.300000	-0.019047	-14.498887	-61.104253	76.092294	-61.104253	76.092294	-0.017224	-13.299365
0.350000	-0.022367	-16.893894	-59.802676	73.825663	-59.802676	73.825663	-0.020210	-15.495901
0.400000	-0.025510	-19.284095	-58.690448	71.568180	-58.690448	71.568180	-0.023045	-17.687699
0.450000	-0.028595	-21.671128	-57.717135	69.319194	-57.717135	69.319194	-0.025831	-19.876328
0.500000	-0.031626	-24.054906	-56.853614	67.079169	-56.853614	67.079169	-0.028573	-22.061699
0.550000	-0.034611	-26.432833	-56.087232	64.856787	-56.087232	64.856787	-0.031277	-24.241206
0.600000	-0.037582	-28.807147	-55.393508	62.645658	-55.393508	62.645658	-0.033969	-26.417102
0.650000	-0.040533	-31.174962	-54.768247	60.454937	-54.768247	60.454937	-0.036644	-28.586514
0.700000	-0.043469	-33.537003	-54.198758	58.282487	-54.198758	58.282487	-0.039306	-30.750178
0.750000	-0.046390	-35.892980	-53.677565	56.129295	-53.677565	56.129295	-0.041954	-32.907817
0.800000	-0.049291	-38.241535	-53.200807	53.999767	-53.200807	53.999767	-0.044582	-35.058087
0.850000	-0.052173	-40.583467	-52.761199	51.891462	-52.761199	51.891462	-0.047192	-37.201783
0.900000	-0.055029	-42.917669	-52.356199	49.808091	-52.356199	49.808091	-0.049777	-39.337799
0.950000	-0.057859	-45.244160	-51.981775	47.749788	-51.981775	47.749788	-0.052337	-41.466145
1.000000	-0.060657	-47.561958	-51.636083	45.720047	-51.636083	45.720047	-0.054867	-43.585826
1.050000	-0.063425	-49.872046	-51.314695	43.715946	-51.314695	43.715946	-0.057370	-45.697800
1.100000	-0.066162	-52.173678	-51.016262	41.740311	-51.016262	41.740311	-0.059843	-47.801297
1.150000	-0.068863	-54.466005	-50.739684	39.796504	-50.739684	39.796504	-0.062282	-49.895428
1.200000	-0.071528	-56.749096	-50.482839	37.884857	-50.482839	37.884857	-0.064690	-51.980222
1.250000	-0.074160	-59.023180	-50.243710	36.005171	-50.243710	36.005171	-0.067066	-54.055864
1.300000	-0.076757	-61.288134	-50.020916	34.158510	-50.020916	34.158510	-0.069411	-56.122181
1.350000	-0.079322	-63.543855	-49.813197	32.345922	-49.813197	32.345922	-0.071726	-58.179016
1.400000	-0.081853	-65.790265	-49.619394	30.568434	-49.619394	30.568434	-0.074010	-60.226229
1.450000	-0.084353	-68.027245	-49.438479	28.827269	-49.438479	28.827269	-0.076266	-62.263635
1.500000	-0.086819	-70.253770	-49.270246	27.127362	-49.270246	27.127362	-0.078490	-64.290085
1.550000	-0.089257	-72.470862	-49.112772	25.465595	-49.112772	25.465595	-0.080687	-66.306568
1.600000	-0.091667	-74.678524	-48.965144	23.842793	-48.965144	23.842793	-0.082858	-68.313010
1.650000	-0.094051	-76.876777	-48.826487	22.259695	-48.826487	22.259695	-0.085005	-70.309349
1.700000	-0.096409	-79.065111	-48.696272	20.719351	-48.696272	20.719351	-0.087126	-72.294938
1.750000	-0.098745	-81.244265	-48.573217	19.219364	-48.573217	19.219364	-0.089224	-74.270478
1.800000	-0.101060	-83.414040	-48.456671	17.761297	-48.456671	17.761297	-0.091301	-76.235653
1.850000	-0.103356	-85.574532	-48.345816	16.345359	-48.345816	16.345359	-0.093358	-78.190455
1.900000	-0.105635	-87.725853	-48.239847	14.971558	-48.239847	14.971558	-0.095395	-80.134894
1.950000	-0.107898	-89.868133	-48.137968	13.639686	-48.137968	13.639686	-0.097414	-82.068990
2.000000	-0.110147	-92.001515	-48.039399	12.349290	-48.039399	12.349290	-0.099416	-83.992777
2.050000	-0.112385	-94.126161	-47.943368	11.099658	-47.943368	11.099658	-0.101402	-85.906301
2.100000	-0.114612	-96.242245	-47.849122	9.889800	-47.849122	9.889800	-0.103374	-87.809620
2.150000	-0.116831	-98.349957	-47.755920	8.718429	-47.755920	8.718429	-0.105332	-89.702804
2.200000	-0.119044	-100.449501	-47.663045	7.583958	-47.663045	7.583958	-0.107278	-91.585932
2.250000	-0.121253	-102.541092	-47.569801	6.484486	-47.569801	6.484486	-0.109212	-93.459096
2.300000	-0.123459	-104.624961	-47.475523	5.417804	-47.475523	5.417804	-0.111137	-95.322397
2.350000	-0.125663	-106.701348	-47.379577	4.381394	-47.379577	4.381394	-0.113053	-97.175944
2.400000	-0.127869	-108.770508	-47.281369	3.372444	-47.281369	3.372444	-0.114962	-99.019858
2.450000	-0.130077	-110.832705	-47.180345	2.387864	-47.180345	2.387864	-0.116864	-100.854268
2.500000	-0.132290	-112.888215	-47.076001	1.424308	-47.076001	1.424308	-0.118761	-102.679308
2.550000	-0.134508	-114.937059	-46.967638	0.478785	-46.967638	0.478785	-0.120654	-104.494732
2.600000	-0.136734	-116.979826	-46.855059	-0.453406	-46.855059	-0.453406	-0.122543	-106.301097
2.650000	-0.138970	-119.016822	-46.737931	-1.376193	-46.737931	-1.376193	-0.124431	-108.098566
2.700000	-0.141216	-121.048363	-46.615976	-2.293607	-46.615976	-2.293607	-0.126318	-109.887304
2.750000	-0.143475	-123.074772	-46.488980	-3.209736	-46.488980	-3.209736	-0.128206	-111.667483
2.800000	-0.145748	-125.096383	-46.356786	-4.128679	-46.356786	-4.128679	-0.130095	-113.439284
2.850000	-0.148037	-127.113534	-46.219297	-5.054500	-46.219297	-5.054500	-0.131988	-115.202888
2.900000	-0.150343	-129.126575	-46.076470	-5.991190	-46.076470	-5.991190	-0.133884	-116.958486
2.950000	-0.152667	-131.135858	-45.928314	-6.942625	-45.928314	-6.942625	-0.135785	-118.706271
3.000000	-0.155011	-133.141745	-45.774888	-7.912533	-45.774888	-7.912533	-0.137692	-120.446443
3.050000	-0.157377	-135.144604	-45.616293	-8.904461	-45.616293	-8.904461	-0.139606	-122.179202
3.100000	-0.159766	-137.144809	-45.452666	-9.921755	-45.452666	-9.921755	-0.141529	-123.904756
3.150000	-0.162179	-139.142739	-45.284179	-10.967540	-45.284179	-10.967540	-0.143462	-125.623315
3.200000	-0.164618	-141.138778	-45.111027	-12.044703	-45.111027	-12.044703	-0.145404	-127.335093
3.250000	-0.167084	-143.133319	-44.933429	-13.155892	-44.933429	-13.155892	-0.147359	-129.040306
3.300000	-0.169578	-145.126754	-44.751614	-14.303511	-44.751614	-14.303511	-0.149326	-130.739174
3.350000	-0.172101	-147.119486	-44.565825	-15.489720	-44.565825	-15.489720	-0.151307	-132.431919
3.400000	-0.174656	-149.111917	-44.376306	-16.716447	-44.376306	-16.716447	-0.153302	-134.118767
3.450000	-0.177242	-151.104457	-44.183302	-17.985394	-44.183302	-17.985394	-0.155313	-135.799945
3.500000	-0.179861	-153.097519	-43.987051	-19.298049	-43.987051	-19.298049	-0.157341	-137.475683
3.550000	-0.182515	-155.091520	-43.787784	-20.655705	-43.787784	-20.655705	-0.159387	-139.146213
3.600000	-0.185204	-157.086879	-43.585720	-22.059473	-43.585720	-22.059473	-0.161451	-140.811770
3.650000	-0.187929	-159.084021	-43.381061	-23.510300	-43.381061	-23.510300	-0.163535	-142.472590
3.700000	-0.190692	-161.083373	-43.173993	-25.008987	-43.173993	-25.008987	-0.165639	-144.128911
3.750000	-0.193494	-163.085365	-42.964681	-26.556208	-42.964681	-26.556208	-0.167764	-145.780973
3.800000	-0.196336	-165.090585	-42.752955	-28.154680	-42.752955	-28.154680	-0.169913	-147.428857
3.850000	-0.199219	-167.099353	-42.539246	-29.802749	-42.539246	-29.802749	-0.172085	-149.072991
3.900000	-0.202143	-169.112110	-42.323646	-31.500796	-42.323646	-31.500796	-0.174280	-150.713622
3.950000	-0.205110	-171.129297	-42.106217	-33.249141	-42.106217	-33.249141	-0.176501	-152.351000
4.000000	-0.208119	-173.151356	-41.886996	-35.048058	-41.886996	-35.048058	-0.178747	-153.985376
4.050000	-0.211172	-175.178735	-41.665989	-36.897788	-41.665989	-36.897788	-0.181019	-155.617003
4.100000	-0.214269	-177.211881	-41.443170	-38.798547	-41.443170	-38.798547	-0.183318	-157.246138
4.150000	-0.217412	-179.251243	-41.218482	-40.750543	-41.218482	-40.750543	-0.185646	-158.873042
4.200000	-0.220600	178.702726	-40.991834	-42.753982	-40.991834	-42.753982	-0.188002	-160.497976
4.250000	-0.223836	176.649573	-40.763100	-44.809075	-40.763100	-44.809075	-0.190387	-162.121208
4.300000	-0.227118	174.588843	-40.532115	-46.916052	-40.532115	-46.916052	-0.192803	-163.743009
4.350000	-0.230449	172.520077	-40.298675	-49.075165	-40.298675	-49.075165	-0.195250	-165.363655
4.400000	-0.233828	170.442818	-40.062535	-51.286697	-40.062535	-51.286697	-0.197729	-166.983428
4.450000	-0.237258	168.356604	-39.823403	-53.550966	-39.823403	-53.550966	-0.200241	-168.602617
4.500000	-0.240737	166.260970	-39.580940	-55.868336	-39.580940	-55.868336	-0.202788	-170.221517
4.550000	-0.244269	164.155452	-39.334751	-58.239219	-39.334751	-58.239219	-0.205370	-171.840433
4.600000	-0.247853	162.039579	-39.084387	-60.664083	-39.084387	-60.664083	-0.207988	-173.459680
4.650000	-0.251491	159.912878	-38.829335	-63.143460	-38.829335	-63.143460	-0.210646	-175.079585
4.700000	-0.255184	157.774871	-38.569009	-65.677949	-38.569009	-65.677949	-0.213344	-176.700489
4.750000	-0.258935	155.625073	-38.302751	-68.268227	-38.302751	-68.268227	-0.216085	-178.322750
4.800000	-0.262745	153.462993	-38.029812	-70.915057	-38.029812	-70.915057	-0.218871	-179.946747
4.850000	-0.266618	151.288130	-37.749350	-73.619303	-37.749350	-73.619303	-0.221707	178.427120
4.900000	-0.270556	149.099968	-37.460409	-76.381935	-37.460409	-76.381935	-0.224595	176.798418
4.950000	-0.274565	146.897977	-37.161911	-79.204057	-37.161911	-79.204057	-0.227542	175.166683
5.000000	-0.278648	144.681605	-36.852636	-82.086919	-36.852636	-82.086919	-0.230554	173.531406
5.050000	-0.282818	142.449594	-36.530043	-85.034735	-36.530043	-85.034735	-0.233641	171.891819
5.100000	-0.287079	140.201948	-36.193428	-88.046553	-36.193428	-88.046553	-0.236811	170.247441
5.150000	-0.291443	137.937998	-35.840913	-91.124339	-35.840913	-91.124339	-0.240078	168.597552
5.200000	-0.295925	135.657008	-35.470335	-94.270419	-35.470335	-94.270419	-0.243459	166.941325
5.250000	-0.300544	133.358157	-35.079182	-97.487577	-35.079182	-97.487577	-0.246975	165.277800
5.300000	-0.305325	131.040508	-34.664518	-100.779197	-34.664518	-100.779197	-0.250657	163.605835
5.350000	-0.310303	128.702969	-34.222884	-104.149469	-34.222884	-104.149469	-0.254542	161.924060
5.400000	-0.315525	126.344233	-33.750166	-107.603667	-33.750166	-107.603667	-0.258684	160.230793
5.450000	-0.321053	123.962697	-33.241415	-111.148571	-33.241415	-111.148571	-0.263157	158.523935
5.500000	-0.326979	121.556345	-32.690605	-114.793079	-32.690605	-114.793079	-0.268064	156.800800
5.550000	-0.333432	119.122564	-32.090288	-118.549143	-32.090288	-118.549143	-0.273557	155.057885
5.600000	-0.340604	116.657870	-31.431106	-122.433227	-31.431106	-122.433227	-0.279858	153.290490
5.650000	-0.348604	114.162955	-30.721082	-126.444792	-30.721082	-126.444792	-0.287099	151.497298
5.700000	-0.358195	111.620791	-29.907735	-130.661387	-29.907735	-130.661387	-0.296168	149.659989
5.750000	-0.369955	109.027275	-28.990825	-135.109003	-28.990825	-135.109003	-0.307760	147.770328
5.800000	-0.385248	106.366175	-27.937932	-139.872610	-27.937932	-139.872610	-0.323503	145.806721
5.850000	-0.406473	103.614308	-26.712438	-145.080423	-26.712438	-145.080423	-0.346298	143.737463
5.900000	-0.438917	100.728226	-25.246404	-150.984218	-25.246404	-150.984218	-0.382585	141.503500
5.950000	-0.494526	97.634741	-23.447843	-158.057976	-23.447843	-158.057976	-0.447112	139.003053
6.000000	-0.605970	94.201586	-21.165233	-167.368306	-21.165233	-167.368306	-0.580875	136.045159
6.050000	-0.884479	90.277032	-18.163658	178.217063	-18.163658	178.217063	-0.927547	132.358997
6.100000	-1.717480	87.367407	-14.503766	150.094934	-14.503766	150.094934	-2.032468	129.648821
6.150000	-2.204685	94.950720	-13.422436	98.808196	-13.422436	98.808196	-2.794333	141.723762
6.200000	-1.075192	94.949357	-17.029427	60.071141	-17.029427	60.071141	-1.247884	143.538873
6.250000	-0.658625	90.710732	-20.717814	41.256291	-20.717814	41.256291	-0.692080	139.602998
6.300000	-0.519404	86.937799	-23.605004	30.098150	-23.605004	30.098150	-0.504653	136.319281
6.350000	-0.462053	83.590964	-25.915969	21.983819	-25.915969	21.983819	-0.425162	133.605198
6.400000	-0.434739	80.483136	-27.852244	15.296256	-27.852244	15.296256	-0.385460	131.210897
6.450000	-0.420888	77.513818	-29.526607	9.379218	-29.526607	9.379218	-0.363744	129.003883
6.500000	-0.413819	74.627845	-31.014762	3.906459	-31.014762	3.906459	-0.351184	126.911313
6.550000	-0.410604	71.795507	-32.354597	-1.294982	-32.354597	-1.294982	-0.343890	124.893714
6.600000	-0.409437	68.993947	-33.619620	-6.355945	-33.619620	-6.355945	-0.339433	122.919791
6.650000	-0.409810	66.216394	-34.792356	-11.332469	-34.792356	-11.332469	-0.337136	120.980167
6.700000	-0.411108	63.453308	-35.913331	-16.296334	-35.913331	-16.296334	-0.336159	119.060913
6.750000	-0.413002	60.699221	-37.014939	-21.298500	-37.014939	-21.298500	-0.336044	117.153604
6.800000	-0.415368	57.951831	-38.100704	-26.392479	-38.100704	-26.392479	-0.336619	115.254036
6.850000	-0.418086	55.209008	-39.185700	-31.641821	-39.185700	-31.641821	-0.337715	113.358057
6.900000	-0.421080	52.469373	-40.284659	-37.126252	-40.284659	-37.126252	-0.339219	111.462428
6.950000	-0.424298	49.732077	-41.412407	-42.952374	-41.412407	-42.952374	-0.341055	109.564543
7.000000	-0.427708	46.996650	-42.583871	-49.269533	-42.583871	-49.269533	-0.343170	107.662224
7.050000	-0.431291	44.262895	-43.813102	-56.294245	-43.813102	-56.294245	-0.345528	105.753590
7.100000	-0.435034	41.530818	-45.109949	-64.347135	-45.109949	-64.347135	-0.348105	103.836959
7.150000	-0.438935	38.800574	-46.471045	-73.902271	-46.471045	-73.902271	-0.350889	101.910774
7.200000	-0.442997	36.072419	-47.858179	-85.623766	-47.858179	-85.623766	-0.353875	99.973550
7.250000	-0.447226	33.346686	-49.155108	-100.279719	-49.155108	-100.279719	-0.357062	98.023821
7.300000	-0.451636	30.623750	-50.116339	-118.282045	-50.116339	-118.282045	-0.360461	96.060106
7.350000	-0.456244	27.904008	-50.408884	-138.738387	-50.408884	-138.738387	-0.364084	94.080869
7.400000	-0.461073	25.187857	-49.868701	-159.012371	-49.868701	-159.012371	-0.367954	92.084484
7.450000	-0.466153	22.475670	-48.695654	-176.470890	-48.695654	-176.470890	-0.372100	90.069195
7.500000	-0.471520	19.767779	-47.231560	169.633350	-47.231560	169.633350	-0.376558	88.033076
7.550000	-0.477236	17.064650	-45.697367	158.798894	-45.697367	158.798894	-0.381395	85.972867
7.600000	-0.483349	14.366246	-44.206327	150.045437	-44.206327	150.045437	-0.386660	83.887005
7.650000	-0.489935	11.672580	-42.783506	142.742528	-42.783506	142.742528	-0.392429	81.772656
7.700000	-0.497092	8.983486	-41.426365	136.453247	-41.426365	136.453247	-0.398804	79.626522
7.750000	-0.504949	6.298564	-40.122286	130.879693	-40.122286	130.879693	-0.405911	77.444716
7.800000	-0.513680	3.617112	-38.855505	125.814734	-38.855505	125.814734	-0.413918	75.222593
7.850000	-0.523520	0.938034	-37.609500	121.108086	-37.609500	121.108086	-0.423047	72.954506
7.900000	-0.534791	-1.740269	-36.367461	116.643504	-36.367461	116.643504	-0.433605	70.633479
7.950000	-0.547709	-4.419696	-35.132101	112.316260	-35.132101	112.316260	-0.445797	68.257607
8.000000	-0.563195	-7.103914	-33.850106	108.056549	-33.850106	108.056549	-0.460588	65.804122
8.050000	-0.581916	-9.798894	-32.516308	103.752081	-32.516308	103.752081	-0.478775	63.263475
8.100000	-0.605557	-12.515331	-31.105764	99.282861	-31.105764	99.282861	-0.501885	60.615667
8.150000	-0.637689	-15.265943	-29.582416	94.477047	-29.582416	94.477047	-0.532688	57.830696
8.200000	-0.684148	-18.064325	-27.901217	89.065871	-27.901217	89.065871	-0.576427	54.865797
8.250000	-0.755127	-20.925901	-26.017689	82.621641	-26.017689	82.621641	-0.643255	51.664978
8.300000	-0.873472	-23.854018	-23.854815	74.300689	-23.854815	74.300689	-0.757370	48.143505
8.350000	-1.091528	-26.726485	-21.337256	62.320482	-21.337256	62.320482	-0.981656	44.254162
8.400000	-1.496457	-28.708652	-18.586463	42.998631	-18.586463	42.998631	-1.464820	40.553281
8.450000	-1.882179	-27.218412	-16.625585	11.814955	-16.625585	11.814955	-2.197535	40.330501
8.500000	-1.454751	-25.233246	-17.291105	-23.514889	-17.291105	-23.514889	-2.103768	43.247131
8.550000	-0.943124	-27.615899	-19.678458	-47.965737	-19.678458	-47.965737	-1.583604	41.292363
8.600000	-0.715091	-31.003163	-22.132805	-62.757609	-22.132805	-62.757609	-1.330517	36.979635
8.650000	-0.621479	-34.189481	-24.261444	-72.570978	-24.261444	-72.570978	-1.264888	32.112227
8.700000	-0.580958	-37.117814	-26.104761	-79.924074	-26.104761	-79.924074	-1.305497	26.895327
8.750000	-0.563088	-39.861712	-27.768015	-86.020266	-27.768015	-86.020266	-1.425110	21.204245
8.800000	-0.556065	-42.477530	-29.348575	-91.454790	-29.348575	-91.454790	-1.625143	14.835164
8.850000	-0.554865	-44.998148	-30.937560	-96.524861	-30.937560	-96.524861	-1.931341	7.463875
8.900000	-0.556848	-47.448389	-32.667930	-101.322887	-32.667930	-101.322887	-2.389953	-1.323661
8.950000	-0.560730	-49.843412	-34.733564	-105.550741	-34.733564	-105.550741	-3.085145	-12.163935
9.000000	-0.565835	-52.193414	-37.466475	-107.767407	-37.466475	-107.767407	-4.162982	-26.108357
9.050000	-0.571812	-54.505939	-41.370457	-102.165245	-41.370457	-102.165245	-5.852217	-45.040740
9.100000	-0.578529	-56.785748	-45.049442	-68.879590	-45.049442	-68.879590	-8.394724	-73.340476
9.150000	-0.585940	-59.036141	-42.026648	-32.280718	-42.026648	-32.280718	-11.026564	-120.057780
9.200000	-0.593969	-61.258706	-38.239060	-27.520595	-38.239060	-27.520595	-10.266605	-177.564605
9.250000	-0.602427	-63.454927	-35.999041	-32.803108	-35.999041	-32.803108	-7.434632	143.857161
9.300000	-0.611113	-65.626577	-34.793548	-39.993862	-34.793548	-39.993862	-5.239711	120.133149
9.350000	-0.619906	-67.775839	-34.194162	-46.813428	-34.194162	-46.813428	-3.811397	103.700743
9.400000	-0.628780	-69.904627	-33.940435	-52.695165	-33.940435	-52.695165	-2.886907	91.404517
9.450000	-0.637751	-72.014332	-33.881813	-57.614979	-33.881813	-57.614979	-2.274050	81.764064
9.500000	-0.646847	-74.106491	-33.929886	-61.724085	-33.929886	-61.724085	-1.852198	73.904252
9.550000	-0.656093	-76.182053	-34.036781	-65.171638	-34.036781	-65.171638	-1.553103	67.318229
9.600000	-0.665508	-78.241792	-34.174462	-68.086493	-34.174462	-68.086493	-1.335418	61.672131
9.650000	-0.675116	-80.285974	-34.326168	-70.562300	-34.326168	-70.562300	-1.174357	56.752522
9.700000	-0.684910	-82.316640	-34.481499	-72.714577	-34.481499	-72.714577	-1.049667	52.343149
9.750000	-0.694896	-84.334090	-34.635067	-74.591472	-34.635067	-74.591472	-0.952399	48.353000
9.800000	-0.705078	-86.338179	-34.782376	-76.228585	-34.782376	-76.228585	-0.876179	44.715571
9.850000	-0.715401	-88.330778	-34.922030	-77.685887	-34.922030	-77.685887	-0.814108	41.335734
9.900000	-0.725794	-90.310730	-35.051008	-78.975822	-35.051008	-78.975822	-0.763679	38.191354
9.950000	-0.736306	-92.275549	-35.164564	-80.128452	-35.164564	-80.128452	-0.721554	35.243289
10.000000	-0.748449	-94.223992	-35.167328	-81.592904	-35.167328	-81.592904	-0.688965	32.480178
