! freq	dB(S11)	phase(S11)	dB(S12)	phase(S12)	
!     	dB(S21)	phase(S21)	dB(S22)	phase(S22)	
!S-par simulation data
#  GHz  S  DB  R 50
0.000000	-0.000000	0.000000	-340.724639	0.000000	-340.724639	0.000000	-0.000000	0.000000
0.050000	-0.000116	-0.961450	-113.701037	86.726782	-113.701037	86.726782	-0.000103	-0.762195
0.100000	-0.000461	-1.922622	-107.943021	84.078038	-107.943021	84.078038	-0.000407	-1.524129
0.150000	-0.001021	-2.883260	-104.760947	82.247238	-104.760947	82.247238	-0.000899	-2.285564
0.200000	-0.001776	-3.843144	-102.619524	81.081521	-102.619524	81.081521	-0.001554	-3.046311
0.250000	-0.002714	-4.802024	-101.044078	80.382609	-101.044078	80.382609	-0.002358	-3.806164
0.300000	-0.003792	-5.759842	-99.814724	79.940012	-99.814724	79.940012	-0.003270	-4.565100
0.350000	-0.004992	-6.716454	-98.836472	79.677954	-98.836472	79.677954	-0.004269	-5.323031
0.400000	-0.006287	-7.671793	-98.053636	79.553437	-98.053636	79.553437	-0.005333	-6.079935
0.450000	-0.007653	-8.625823	-97.433600	79.560154	-97.433600	79.560154	-0.006439	-6.835824
0.500000	-0.009070	-9.578534	-96.956486	79.716807	-96.956486	79.716807	-0.007572	-7.590725
0.550000	-0.010518	-10.529936	-96.610170	80.061815	-96.610170	80.061815	-0.008716	-8.344680
0.600000	-0.011983	-11.480050	-96.387666	80.652985	-96.387666	80.652985	-0.009862	-9.097735
0.650000	-0.013452	-12.428906	-96.285557	81.571283	-96.285557	81.571283	-0.011003	-9.849934
0.700000	-0.014917	-13.376536	-96.302752	82.928769	-96.302752	82.928769	-0.012133	-10.601320
0.750000	-0.016371	-14.322969	-96.438983	84.881442	-96.438983	84.881442	-0.013250	-11.351927
0.800000	-0.017808	-15.268235	-96.692175	87.647875	-96.692175	87.647875	-0.014353	-12.101787
0.850000	-0.019227	-16.212356	-97.053204	91.532423	-97.053204	91.532423	-0.015439	-12.850922
0.900000	-0.020626	-17.155350	-97.495366	96.942472	-97.495366	96.942472	-0.016511	-13.599348
0.950000	-0.022003	-18.097229	-97.955264	104.362019	-97.955264	104.362019	-0.017568	-14.347078
1.000000	-0.023359	-19.038000	-98.307102	114.193547	-98.307102	114.193547	-0.018612	-15.094115
1.050000	-0.024695	-19.977664	-98.355502	126.372603	-98.355502	126.372603	-0.019643	-15.840463
1.100000	-0.026012	-20.916219	-97.903764	139.899836	-97.903764	139.899836	-0.020664	-16.586118
1.150000	-0.027311	-21.853656	-96.897914	152.952352	-96.897914	152.952352	-0.021674	-17.331074
1.200000	-0.028594	-22.789965	-95.479826	163.949905	-95.479826	163.949905	-0.022676	-18.075324
1.250000	-0.029861	-23.725131	-93.862518	172.372590	-93.862518	172.372590	-0.023670	-18.818858
1.300000	-0.031115	-24.659086	-92.194616	178.420711	-92.194616	178.420711	-0.024658	-19.561632
1.350000	-0.032358	-25.591861	-90.577360	-177.274865	-90.577360	-177.274865	-0.025640	-20.303664
1.400000	-0.033590	-26.523435	-89.043211	-174.262712	-89.043211	-174.262712	-0.026617	-21.044939
1.450000	-0.034813	-27.453786	-87.600436	-172.201695	-87.600436	-172.201695	-0.027590	-21.785444
1.500000	-0.036028	-28.382891	-86.246615	-170.846229	-86.246615	-170.846229	-0.028560	-22.525163
1.550000	-0.037236	-29.310726	-84.975224	-170.021628	-84.975224	-170.021628	-0.029526	-23.264081
1.600000	-0.038439	-30.237266	-83.778614	-169.603068	-83.778614	-169.603068	-0.030491	-24.002181
1.650000	-0.039638	-31.162488	-82.649281	-169.500279	-82.649281	-169.500279	-0.031453	-24.739449
1.700000	-0.040833	-32.086367	-81.580358	-169.646984	-81.580358	-169.646984	-0.032415	-25.475868
1.750000	-0.042024	-33.008878	-80.565746	-169.993736	-80.565746	-169.993736	-0.033375	-26.211423
1.800000	-0.043214	-33.929997	-79.600104	-170.503059	-79.600104	-170.503059	-0.034334	-26.946098
1.850000	-0.044402	-34.849700	-78.678780	-171.146123	-78.678780	-171.146123	-0.035293	-27.679876
1.900000	-0.045589	-35.767963	-77.797725	-171.900432	-77.797725	-171.900432	-0.036252	-28.412743
1.950000	-0.046777	-36.684762	-76.953410	-172.748201	-76.953410	-172.748201	-0.037211	-29.144683
2.000000	-0.047964	-37.600076	-76.142749	-173.675203	-76.142749	-173.675203	-0.038171	-29.875682
2.050000	-0.049153	-38.513881	-75.363033	-174.669927	-75.363033	-174.669927	-0.039132	-30.605723
2.100000	-0.050342	-39.426156	-74.611874	-175.722965	-74.611874	-175.722965	-0.040094	-31.334792
2.150000	-0.051534	-40.336879	-73.887158	-176.826556	-73.887158	-176.826556	-0.041057	-32.062875
2.200000	-0.052728	-41.246031	-73.187008	-177.974238	-73.187008	-177.974238	-0.042022	-32.789957
2.250000	-0.053925	-42.153590	-72.509745	-179.160591	-72.509745	-179.160591	-0.042989	-33.516023
2.300000	-0.055125	-43.059538	-71.853869	179.618967	-71.853869	179.618967	-0.043959	-34.241061
2.350000	-0.056329	-43.963857	-71.218026	178.368338	-71.218026	178.368338	-0.044931	-34.965055
2.400000	-0.057536	-44.866527	-70.600995	177.090861	-70.600995	177.090861	-0.045906	-35.687994
2.450000	-0.058748	-45.767533	-70.001672	175.789418	-70.001672	175.789418	-0.046884	-36.409862
2.500000	-0.059965	-46.666856	-69.419049	174.466504	-69.419049	174.466504	-0.047866	-37.130648
2.550000	-0.061188	-47.564408	-68.851294	173.123546	-68.851294	173.123546	-0.048851	-37.850291
2.600000	-0.062416	-48.460246	-68.298577	171.763347	-68.298577	171.763347	-0.049841	-38.568824
2.650000	-0.063650	-49.354355	-67.760118	170.387555	-67.760118	170.387555	-0.050836	-39.286235
2.700000	-0.064891	-50.246723	-67.235202	168.997630	-67.235202	168.997630	-0.051835	-40.002513
2.750000	-0.066139	-51.137335	-66.723168	167.594867	-66.723168	167.594867	-0.052840	-40.717646
2.800000	-0.067394	-52.026180	-66.223407	166.180421	-66.223407	166.180421	-0.053850	-41.431622
2.850000	-0.068657	-52.913246	-65.735353	164.755327	-65.735353	164.755327	-0.054866	-42.144430
2.900000	-0.069929	-53.798522	-65.258482	163.320513	-65.258482	163.320513	-0.055888	-42.856059
2.950000	-0.071209	-54.681999	-64.792307	161.876816	-64.792307	161.876816	-0.056917	-43.566499
3.000000	-0.072498	-55.563666	-64.336374	160.424991	-64.336374	160.424991	-0.057953	-44.275738
3.050000	-0.073797	-56.443515	-63.890259	158.965723	-63.890259	158.965723	-0.058996	-44.983767
3.100000	-0.075105	-57.321538	-63.453565	157.499633	-63.453565	157.499633	-0.060046	-45.690576
3.150000	-0.076425	-58.197728	-63.025921	156.027288	-63.025921	156.027288	-0.061105	-46.396155
3.200000	-0.077755	-59.072077	-62.606979	154.549206	-62.606979	154.549206	-0.062172	-47.100495
3.250000	-0.079097	-59.944580	-62.196412	153.065859	-62.196412	153.065859	-0.063247	-47.803587
3.300000	-0.080450	-60.815231	-61.793910	151.577683	-61.793910	151.577683	-0.064332	-48.505422
3.350000	-0.081816	-61.684027	-61.399183	150.085077	-61.399183	150.085077	-0.065426	-49.205992
3.400000	-0.083195	-62.550962	-61.011957	148.588408	-61.011957	148.588408	-0.066530	-49.905288
3.450000	-0.084587	-63.416034	-60.631974	147.088016	-60.631974	147.088016	-0.067643	-50.603303
3.500000	-0.085993	-64.279240	-60.258988	145.584215	-60.258988	145.584215	-0.068768	-51.300029
3.550000	-0.087413	-65.140578	-59.892766	144.077295	-59.892766	144.077295	-0.069903	-51.995459
3.600000	-0.088848	-66.000048	-59.533089	142.567527	-59.533089	142.567527	-0.071050	-52.689586
3.650000	-0.090299	-66.857647	-59.179747	141.055161	-59.179747	141.055161	-0.072208	-53.382404
3.700000	-0.091765	-67.713377	-58.832542	139.540429	-58.832542	139.540429	-0.073378	-54.073905
3.750000	-0.093247	-68.567238	-58.491284	138.023550	-58.491284	138.023550	-0.074561	-54.764084
3.800000	-0.094747	-69.419151	-58.155483	136.504651	-58.155483	136.504651	-0.075756	-55.452878
3.850000	-0.096264	-70.269198	-57.825301	134.984013	-57.825301	134.984013	-0.076965	-56.140338
3.900000	-0.097799	-71.117384	-57.500571	133.461811	-57.500571	133.461811	-0.078188	-56.826459
3.950000	-0.099352	-71.963710	-57.181136	131.938211	-57.181136	131.938211	-0.079424	-57.511236
4.000000	-0.100924	-72.808181	-56.866846	130.413367	-56.866846	130.413367	-0.080675	-58.194666
4.050000	-0.102515	-73.650802	-56.557556	128.887423	-56.557556	128.887423	-0.081940	-58.876743
4.100000	-0.104126	-74.491578	-56.253129	127.360517	-56.253129	127.360517	-0.083220	-59.557465
4.150000	-0.105758	-75.330515	-55.953433	125.832777	-55.953433	125.832777	-0.084515	-60.236827
4.200000	-0.107410	-76.167620	-55.658340	124.304323	-55.658340	124.304323	-0.085827	-60.914826
4.250000	-0.109083	-77.002899	-55.367731	122.775270	-55.367731	122.775270	-0.087154	-61.591460
4.300000	-0.110778	-77.836361	-55.081488	121.245724	-55.081488	121.245724	-0.088498	-62.266726
4.350000	-0.112496	-78.668013	-54.799499	119.715788	-54.799499	119.715788	-0.089859	-62.940621
4.400000	-0.114236	-79.497865	-54.521658	118.185557	-54.521658	118.185557	-0.091237	-63.613143
4.450000	-0.115999	-80.325926	-54.247860	116.655121	-54.247860	116.655121	-0.092632	-64.284292
4.500000	-0.117787	-81.152207	-53.978008	115.124566	-53.978008	115.124566	-0.094046	-64.954064
4.550000	-0.119598	-81.976718	-53.712004	113.593974	-53.712004	113.593974	-0.095478	-65.622460
4.600000	-0.121434	-82.799470	-53.449758	112.063420	-53.449758	112.063420	-0.096929	-66.289479
4.650000	-0.123296	-83.620475	-53.191180	110.532978	-53.191180	110.532978	-0.098399	-66.955119
4.700000	-0.125183	-84.439746	-52.936185	109.002717	-52.936185	109.002717	-0.099889	-67.619381
4.750000	-0.127096	-85.257295	-52.684690	107.472702	-52.684690	107.472702	-0.101398	-68.282265
4.800000	-0.129036	-86.073136	-52.436616	105.942995	-52.436616	105.942995	-0.102928	-68.943770
4.850000	-0.131003	-86.887283	-52.191887	104.413655	-52.191887	104.413655	-0.104478	-69.603899
4.900000	-0.132998	-87.699751	-51.950427	102.884738	-51.950427	102.884738	-0.106049	-70.262651
4.950000	-0.135020	-88.510554	-51.712166	101.356298	-51.712166	101.356298	-0.107642	-70.920028
5.000000	-0.137072	-89.319709	-51.477035	99.828385	-51.477035	99.828385	-0.109257	-71.576032
5.050000	-0.139168	-90.126319	-51.243201	98.301402	-51.243201	98.301402	-0.110906	-72.229889
5.100000	-0.141265	-90.932929	-51.015498	96.774418	-51.015498	96.774418	-0.112556	-72.883747
5.150000	-0.143420	-91.736486	-50.787970	95.248716	-50.787970	95.248716	-0.114250	-73.534989
5.200000	-0.145579	-92.539765	-50.565750	93.723131	-50.565750	93.723131	-0.115948	-74.185993
5.250000	-0.147793	-93.340334	-50.344246	92.198859	-50.344246	92.198859	-0.117687	-74.834630
5.300000	-0.150017	-94.140361	-50.127309	90.674849	-50.127309	90.674849	-0.119434	-75.482794
5.350000	-0.152291	-94.938011	-49.911567	89.152140	-49.911567	89.152140	-0.121220	-76.128837
5.400000	-0.154583	-95.734869	-49.699723	87.629865	-49.699723	87.629865	-0.123020	-76.774174
5.450000	-0.156919	-96.529673	-49.489498	86.108844	-49.489498	86.108844	-0.124854	-77.417637
5.500000	-0.159279	-97.323450	-49.282569	84.588449	-49.282569	84.588449	-0.126706	-78.060164
5.550000	-0.161680	-98.115483	-49.077631	83.069228	-49.077631	83.069228	-0.128590	-78.701064
5.600000	-0.164110	-98.906271	-48.875447	81.550846	-48.875447	81.550846	-0.130497	-79.340800
5.650000	-0.166576	-99.695613	-48.675581	80.033531	-48.675581	80.033531	-0.132432	-79.979152
5.700000	-0.169079	-100.483508	-48.477982	78.517283	-48.477982	78.517283	-0.134396	-80.616119
5.750000	-0.171613	-101.270239	-48.282988	77.001970	-48.282988	77.001970	-0.136384	-81.251942
5.800000	-0.174190	-102.055342	-48.089823	75.487966	-48.089823	75.487966	-0.138406	-81.886163
5.850000	-0.176792	-102.839548	-47.899510	73.974745	-47.899510	73.974745	-0.140448	-82.519477
5.900000	-0.179446	-103.621962	-47.710635	72.463088	-47.710635	72.463088	-0.142529	-83.150978
5.950000	-0.182119	-104.403732	-47.524826	70.952042	-47.524826	70.952042	-0.144627	-83.781806
6.000000	-0.184850	-105.183566	-47.340105	69.442826	-47.340105	69.442826	-0.146770	-84.410614
6.050000	-0.187595	-105.962990	-47.158631	67.934032	-47.158631	67.934032	-0.148925	-85.038979
6.100000	-0.190407	-106.740357	-46.977936	66.427345	-46.977936	66.427345	-0.151132	-85.665124
6.150000	-0.193226	-107.517528	-46.800640	64.920875	-46.800640	64.920875	-0.153344	-86.291051
6.200000	-0.196119	-108.292543	-46.623847	63.416797	-46.623847	63.416797	-0.155616	-86.914565
6.250000	-0.199012	-109.067559	-46.450580	61.912718	-46.450580	61.912718	-0.157889	-87.538079
6.300000	-0.201989	-109.840343	-46.277573	60.411325	-46.277573	60.411325	-0.160228	-88.158996
6.350000	-0.204966	-110.613127	-46.107944	58.909932	-46.107944	58.909932	-0.162567	-88.779913
6.400000	-0.208021	-111.383978	-45.938863	57.411064	-45.938863	57.411064	-0.164969	-89.398480
6.450000	-0.211084	-112.154654	-45.772769	55.912426	-45.772769	55.912426	-0.167377	-90.016835
6.500000	-0.214219	-112.923679	-45.607479	54.416139	-45.607479	54.416139	-0.169844	-90.633085
6.550000	-0.217369	-113.692374	-45.444821	52.920322	-45.444821	52.920322	-0.172322	-91.248914
6.600000	-0.220584	-114.459681	-45.283194	51.426668	-45.283194	51.426668	-0.174854	-91.862879
6.650000	-0.223823	-115.226526	-45.123879	49.933735	-45.123879	49.933735	-0.177405	-92.476222
6.700000	-0.227122	-115.992227	-44.965795	48.442763	-44.965795	48.442763	-0.180004	-93.087935
6.750000	-0.230451	-116.757356	-44.809733	46.952773	-44.809733	46.952773	-0.182628	-93.698832
6.800000	-0.233833	-117.521564	-44.655079	45.464531	-44.655079	45.464531	-0.185296	-94.308328
6.850000	-0.237255	-118.285115	-44.502185	43.977538	-44.502185	43.977538	-0.187996	-94.916822
6.900000	-0.240723	-119.047948	-44.350851	42.492070	-44.350851	42.492070	-0.190734	-95.524137
6.950000	-0.244238	-119.810063	-44.201044	41.008127	-44.201044	41.008127	-0.193511	-96.130271
7.000000	-0.247792	-120.571639	-44.052928	39.525476	-44.052928	39.525476	-0.196321	-96.735442
7.050000	-0.251403	-121.332461	-43.906130	38.044633	-43.906130	38.044633	-0.199177	-97.339263
7.100000	-0.255046	-122.092903	-43.761136	36.564839	-43.761136	36.564839	-0.202060	-97.942328
7.150000	-0.258753	-122.852582	-43.617273	35.087142	-43.617273	35.087142	-0.204996	-98.543881
7.200000	-0.262486	-123.612013	-43.475307	33.610244	-43.475307	33.610244	-0.207953	-99.144880
7.250000	-0.266291	-124.370700	-43.334308	32.135738	-43.334308	32.135738	-0.210972	-99.744215
7.300000	-0.270115	-125.129248	-43.195283	30.661772	-43.195283	30.661772	-0.214005	-100.343189
7.350000	-0.274020	-125.887098	-43.057081	29.190500	-43.057081	29.190500	-0.217107	-100.940355
7.400000	-0.277936	-126.644892	-42.920914	27.719501	-42.920914	27.719501	-0.220217	-101.537344
7.450000	-0.281943	-127.402065	-42.785444	26.251501	-42.785444	26.251501	-0.223405	-102.132392
7.500000	-0.285952	-128.159238	-42.652054	24.783502	-42.652054	24.783502	-0.226593	-102.727441
7.550000	-0.290062	-128.915894	-42.519254	23.318812	-42.519254	23.318812	-0.229868	-103.320424
7.600000	-0.294173	-129.672551	-42.388455	21.854122	-42.388455	21.854122	-0.233144	-103.913407
7.650000	-0.298379	-130.428886	-42.258379	20.392498	-42.258379	20.392498	-0.236500	-104.504547
7.700000	-0.302595	-131.185193	-42.130113	18.931153	-42.130113	18.931153	-0.239865	-105.095519
7.750000	-0.306898	-131.941348	-42.002688	17.472621	-42.002688	17.472621	-0.243304	-105.684862
7.800000	-0.311220	-132.697473	-41.876903	16.014653	-41.876903	16.014653	-0.246759	-106.273878
7.850000	-0.315621	-133.453591	-41.752060	14.559239	-41.752060	14.559239	-0.250282	-106.861470
7.900000	-0.320050	-134.209707	-41.628706	13.104676	-41.628706	13.104676	-0.253828	-107.448587
7.950000	-0.324550	-134.965935	-41.506378	11.652402	-41.506378	11.652402	-0.257437	-108.034476
8.000000	-0.329088	-135.722218	-41.385405	10.201273	-41.385405	10.201273	-0.261077	-108.619751
8.050000	-0.333688	-136.478704	-41.265530	8.752161	-41.265530	8.752161	-0.264772	-109.203987
8.100000	-0.338335	-137.235335	-41.146891	7.304489	-41.146891	7.304489	-0.268506	-109.787480
8.150000	-0.343037	-137.992230	-41.029410	5.858558	-41.029410	5.858558	-0.272289	-110.370112
8.200000	-0.347794	-138.749391	-40.913061	4.414366	-40.913061	4.414366	-0.276120	-110.951883
8.250000	-0.352598	-139.506851	-40.797916	2.971632	-40.797916	2.971632	-0.279992	-111.532962
8.300000	-0.357467	-140.264730	-40.683815	1.530938	-40.683815	1.530938	-0.283921	-112.113072
8.350000	-0.362375	-141.022911	-40.570951	0.091417	-40.570951	0.091417	-0.287883	-112.692649
8.400000	-0.367356	-141.781698	-40.459058	-1.345762	-40.459058	-1.345762	-0.291911	-113.271161
8.450000	-0.372368	-142.540760	-40.348424	-2.782059	-40.348424	-2.782059	-0.295964	-113.849290
8.500000	-0.377463	-143.300650	-40.238699	-4.215709	-40.238699	-4.215709	-0.300092	-114.426268
8.550000	-0.382580	-144.060756	-40.130247	-5.648770	-40.130247	-5.648770	-0.304238	-115.003001
8.600000	-0.387790	-144.821947	-40.022654	-7.078881	-40.022654	-7.078881	-0.308468	-115.578510
8.650000	-0.393012	-145.583263	-39.916336	-8.508697	-39.916336	-8.508697	-0.312708	-116.153902
8.700000	-0.398337	-146.345957	-39.810840	-9.935262	-39.810840	-9.935262	-0.317040	-116.728008
8.750000	-0.403666	-147.108651	-39.706611	-11.361827	-39.706611	-11.361827	-0.321375	-117.302114
8.800000	-0.409107	-147.873055	-39.603181	-12.784841	-39.603181	-12.784841	-0.325811	-117.874885
8.850000	-0.414552	-148.637459	-39.500968	-14.207855	-39.500968	-14.207855	-0.330250	-118.447656
8.900000	-0.420101	-149.403623	-39.399603	-15.627610	-39.399603	-15.627610	-0.334783	-119.019266
8.950000	-0.425662	-150.169947	-39.299376	-17.047070	-39.299376	-17.047070	-0.339327	-119.590770
9.000000	-0.431319	-150.938050	-39.200036	-18.463569	-39.200036	-18.463569	-0.343958	-120.161276
9.050000	-0.436997	-151.706509	-39.101768	-19.879475	-39.101768	-19.879475	-0.348608	-120.731583
9.100000	-0.442762	-152.476732	-39.004415	-21.292718	-39.004415	-21.292718	-0.353338	-121.301046
9.150000	-0.448559	-153.247544	-38.908081	-22.705073	-38.908081	-22.705073	-0.358096	-121.870227
9.200000	-0.454432	-154.020074	-38.812680	-24.115065	-38.812680	-24.115065	-0.362924	-122.438706
9.250000	-0.460346	-154.793462	-38.718254	-25.523875	-38.718254	-25.523875	-0.367790	-123.006834
9.300000	-0.466328	-155.568485	-38.624771	-26.930620	-38.624771	-26.930620	-0.372719	-123.574389
9.350000	-0.472361	-156.344676	-38.532232	-28.335891	-38.532232	-28.335891	-0.377694	-124.141537
9.400000	-0.478452	-157.122385	-38.440636	-29.739397	-38.440636	-29.739397	-0.382724	-124.708231
9.450000	-0.484601	-157.901611	-38.349963	-31.141139	-38.349963	-31.141139	-0.387809	-125.274473
9.500000	-0.490801	-158.682200	-38.260224	-32.541414	-38.260224	-32.541414	-0.392941	-125.840369
9.550000	-0.497069	-159.464698	-38.171399	-33.939635	-38.171399	-33.939635	-0.398137	-126.405782
9.600000	-0.503377	-160.248365	-38.083489	-35.336688	-38.083489	-35.336688	-0.403370	-126.970943
9.650000	-0.509762	-161.034374	-37.996494	-36.731402	-37.996494	-36.731402	-0.408677	-127.535603
9.700000	-0.516178	-161.821322	-37.910388	-38.125242	-37.910388	-38.125242	-0.414014	-128.100094
9.750000	-0.522680	-162.611087	-37.825208	-39.516460	-37.825208	-39.516460	-0.419433	-128.664080
9.800000	-0.529204	-163.401520	-37.740882	-40.907097	-37.740882	-40.907097	-0.424873	-129.227967
9.850000	-0.535821	-164.195291	-37.657504	-42.294832	-37.657504	-42.294832	-0.430404	-129.791360
9.900000	-0.542453	-164.989418	-37.574936	-43.682278	-37.574936	-43.682278	-0.435947	-130.354709
9.950000	-0.549185	-165.787450	-37.493347	-45.066542	-37.493347	-45.066542	-0.441591	-130.917589
10.000000	-0.555923	-166.585482	-37.412517	-46.450806	-37.412517	-46.450806	-0.447238	-131.480468
