! freq	dB(S11)	phase(S11)	dB(S12)	phase(S12)	
!     	dB(S21)	phase(S21)	dB(S22)	phase(S22)	
!S-par simulation data
#  GHz  S  DB  R 50
0.000000	-0.000000	-0.000000	-318.908057	180.000000	-318.908057	180.000000	-0.000000	0.000000
0.050000	-0.000268	-2.577333	-68.263123	-48.418614	-68.263123	-48.418614	-0.000139	-1.100865
0.100000	-0.001061	-5.153624	-65.929509	-29.440477	-65.929509	-29.440477	-0.000550	-2.201390
0.150000	-0.002366	-7.727823	-65.360915	-20.709119	-65.360915	-20.709119	-0.001221	-3.301249
0.200000	-0.004140	-10.299020	-65.189130	-15.852710	-65.189130	-15.852710	-0.002121	-4.400182
0.250000	-0.006346	-12.866291	-65.166139	-12.824809	-65.166139	-12.824809	-0.003225	-5.497954
0.300000	-0.008939	-15.428801	-65.217601	-10.759497	-65.217601	-10.759497	-0.004500	-6.594392
0.350000	-0.011866	-17.985794	-65.316979	-9.252439	-65.316979	-9.252439	-0.005912	-7.689377
0.400000	-0.015074	-20.536592	-65.453350	-8.090244	-65.453350	-8.090244	-0.007430	-8.782838
0.450000	-0.018508	-23.080596	-65.621954	-7.148632	-65.621954	-7.148632	-0.009024	-9.874744
0.500000	-0.022118	-25.617279	-65.820864	-6.348762	-65.820864	-6.348762	-0.010668	-10.965097
0.550000	-0.025855	-28.146182	-66.049653	-5.636391	-66.049653	-5.636391	-0.012342	-12.053922
0.600000	-0.029677	-30.666902	-66.308810	-4.970954	-66.308810	-4.970954	-0.014027	-13.141255
0.650000	-0.033545	-33.178990	-66.599717	-4.319131	-66.599717	-4.319131	-0.015710	-14.227125
0.700000	-0.037426	-35.682126	-66.924033	-3.650268	-66.924033	-3.650268	-0.017381	-15.311578
0.750000	-0.041293	-38.176127	-67.283680	-2.935080	-67.283680	-2.935080	-0.019034	-16.394671
0.800000	-0.045124	-40.660749	-67.681303	-2.142479	-67.681303	-2.142479	-0.020664	-17.476440
0.850000	-0.048901	-43.135765	-68.120047	-1.237070	-68.120047	-1.237070	-0.022269	-18.556914
0.900000	-0.052612	-45.600974	-68.603555	-0.176449	-68.603555	-0.176449	-0.023848	-19.636115
0.950000	-0.056247	-48.056189	-69.135949	1.092210	-69.135949	1.092210	-0.025401	-20.714058
1.000000	-0.059799	-50.501237	-69.721719	2.636748	-69.721719	2.636748	-0.026928	-21.790749
1.050000	-0.063265	-52.935964	-70.365419	4.546334	-70.365419	4.546334	-0.028433	-22.866191
1.100000	-0.066642	-55.360227	-71.070985	6.940199	-71.070985	6.940199	-0.029915	-23.940379
1.150000	-0.069930	-57.773897	-71.840260	9.979343	-71.840260	9.979343	-0.031377	-25.013304
1.200000	-0.073131	-60.176860	-72.670005	13.880757	-72.670005	13.880757	-0.032821	-26.084954
1.250000	-0.076246	-62.569019	-73.546064	18.930031	-73.546064	18.930031	-0.034250	-27.155312
1.300000	-0.079276	-64.950050	-74.429639	25.518657	-74.429639	25.518657	-0.035663	-28.224330
1.350000	-0.082227	-67.320123	-75.246669	33.970135	-75.246669	33.970135	-0.037065	-29.292015
1.400000	-0.085102	-69.679187	-75.872223	44.425494	-75.872223	44.425494	-0.038456	-30.358345
1.450000	-0.087906	-72.027210	-76.150320	56.489828	-76.150320	56.489828	-0.039838	-31.423295
1.500000	-0.090642	-74.364174	-75.969576	69.073109	-75.969576	69.073109	-0.041212	-32.486842
1.550000	-0.093314	-76.690082	-75.344839	80.803507	-75.344839	80.803507	-0.042580	-33.548961
1.600000	-0.095928	-79.004952	-74.404543	90.732623	-74.404543	90.732623	-0.043943	-34.609626
1.650000	-0.098486	-81.308822	-73.301600	98.603723	-73.301600	98.603723	-0.045302	-35.668813
1.700000	-0.100993	-83.601746	-72.149849	104.619751	-72.149849	104.619751	-0.046659	-36.726497
1.750000	-0.103452	-85.883797	-71.014594	109.136323	-71.014594	109.136323	-0.048013	-37.782654
1.800000	-0.105868	-88.155063	-69.926848	112.494344	-69.926848	112.494344	-0.049366	-38.837260
1.850000	-0.108245	-90.415651	-68.898203	114.968107	-68.898203	114.968107	-0.050718	-39.890293
1.900000	-0.110584	-92.665571	-67.930006	116.758572	-67.930006	116.758572	-0.052071	-40.941712
1.950000	-0.112890	-94.904969	-67.019828	118.021614	-67.019828	118.021614	-0.053425	-41.991497
2.000000	-0.115167	-97.134116	-66.163640	118.874262	-66.163640	118.874262	-0.054780	-43.039644
2.050000	-0.117417	-99.353185	-65.356423	119.397969	-65.356423	119.397969	-0.056137	-44.086134
2.100000	-0.119643	-101.562362	-64.593314	119.653875	-64.593314	119.653875	-0.057497	-45.130948
2.150000	-0.121849	-103.761849	-63.869840	119.688449	-63.869840	119.688449	-0.058860	-46.174070
2.200000	-0.124037	-105.951862	-63.181993	119.537468	-63.181993	119.537468	-0.060227	-47.215483
2.250000	-0.126209	-108.132629	-62.526229	119.228824	-62.526229	119.228824	-0.061598	-48.255172
2.300000	-0.128368	-110.304392	-61.899433	118.784524	-61.899433	118.784524	-0.062973	-49.293123
2.350000	-0.130517	-112.467405	-61.298878	118.222133	-61.298878	118.222133	-0.064353	-50.329324
2.400000	-0.132658	-114.621931	-60.722176	117.555819	-60.722176	117.555819	-0.065739	-51.363763
2.450000	-0.134793	-116.768248	-60.167232	116.797124	-60.167232	116.797124	-0.067131	-52.396428
2.500000	-0.136925	-118.906642	-59.632210	115.955540	-59.632210	115.955540	-0.068530	-53.427312
2.550000	-0.139054	-121.037251	-59.115216	115.037458	-59.115216	115.037458	-0.069936	-54.456366
2.600000	-0.141185	-123.160552	-58.615134	114.051188	-58.615134	114.051188	-0.071349	-55.483621
2.650000	-0.143317	-125.276862	-58.130707	113.002216	-58.130707	113.002216	-0.072770	-56.509073
2.700000	-0.145454	-127.386502	-57.660823	111.895206	-57.660823	111.895206	-0.074199	-57.532716
2.750000	-0.147597	-129.489803	-57.204501	110.734149	-57.204501	110.734149	-0.075638	-58.554547
2.800000	-0.149747	-131.587105	-56.760870	109.522482	-56.760870	109.522482	-0.077086	-59.574562
2.850000	-0.151907	-133.678749	-56.329158	108.263188	-56.329158	108.263188	-0.078544	-60.592761
2.900000	-0.154079	-135.765089	-55.908682	106.958867	-55.908682	106.958867	-0.080013	-61.609143
2.950000	-0.156262	-137.846479	-55.498833	105.611810	-55.498833	105.611810	-0.081492	-62.623710
3.000000	-0.158460	-139.923282	-55.099073	104.224039	-55.099073	104.224039	-0.082984	-63.636462
3.050000	-0.160673	-141.995864	-54.708926	102.797363	-54.708926	102.797363	-0.084487	-64.647403
3.100000	-0.162903	-144.064597	-54.327970	101.333405	-54.327970	101.333405	-0.086004	-65.656538
3.150000	-0.165151	-146.129822	-53.955754	99.833262	-53.955754	99.833262	-0.087533	-66.663852
3.200000	-0.167418	-148.191931	-53.591963	98.298322	-53.591963	98.298322	-0.089077	-67.669351
3.250000	-0.169706	-150.251344	-53.236391	96.730211	-53.236391	96.730211	-0.090636	-68.673063
3.300000	-0.172015	-152.308447	-52.888783	95.130080	-52.888783	95.130080	-0.092210	-69.674997
3.350000	-0.174347	-154.363628	-52.548921	93.499017	-52.548921	93.499017	-0.093799	-70.675161
3.400000	-0.176703	-156.417278	-52.216612	91.838055	-52.216612	91.838055	-0.095405	-71.673568
3.450000	-0.179082	-158.469788	-51.891692	90.148187	-51.891692	90.148187	-0.097028	-72.670228
3.500000	-0.181487	-160.521553	-51.574019	88.430378	-51.574019	88.430378	-0.098668	-73.665156
3.550000	-0.183917	-162.572968	-51.263473	86.685570	-51.263473	86.685570	-0.100327	-74.658364
3.600000	-0.186374	-164.624429	-50.959954	84.914695	-50.959954	84.914695	-0.102005	-75.649868
3.650000	-0.188858	-166.676334	-50.663377	83.118680	-50.663377	83.118680	-0.103702	-76.639684
3.700000	-0.191369	-168.729079	-50.373674	81.298452	-50.373674	81.298452	-0.105419	-77.627830
3.750000	-0.193908	-170.783063	-50.090788	79.454947	-50.090788	79.454947	-0.107157	-78.614323
3.800000	-0.196476	-172.838727	-49.814636	77.588643	-49.814636	77.588643	-0.108917	-79.599149
3.850000	-0.199072	-174.896441	-49.545240	75.701008	-49.545240	75.701008	-0.110700	-80.582362
3.900000	-0.201696	-176.956602	-49.282573	73.793016	-49.282573	73.793016	-0.112505	-81.563986
3.950000	-0.204350	-179.019604	-49.026615	71.865661	-49.026615	71.865661	-0.114333	-82.544042
4.000000	-0.207032	178.914159	-48.777350	69.919955	-48.777350	69.919955	-0.116185	-83.522553
4.050000	-0.209742	176.844297	-48.534769	67.956930	-48.534769	67.956930	-0.118062	-84.499546
4.100000	-0.212480	174.770419	-48.298862	65.977637	-48.298862	65.977637	-0.119965	-85.475044
4.150000	-0.215247	172.692139	-48.069624	63.983142	-48.069624	63.983142	-0.121893	-86.449075
4.200000	-0.218041	170.609073	-47.847049	61.974530	-47.847049	61.974530	-0.123848	-87.421667
4.250000	-0.220863	168.520840	-47.631131	59.952896	-47.631131	59.952896	-0.125830	-88.392847
4.300000	-0.223711	166.427064	-47.421862	57.919350	-47.421862	57.919350	-0.127840	-89.362646
4.350000	-0.226585	164.327370	-47.219235	55.875005	-47.219235	55.875005	-0.129878	-90.331095
4.400000	-0.229484	162.221319	-47.023264	53.820887	-47.023264	53.820887	-0.131946	-91.298211
4.450000	-0.232408	160.108534	-46.833945	51.758153	-46.833945	51.758153	-0.134044	-92.264027
4.500000	-0.235356	157.988724	-46.651238	49.688020	-46.651238	49.688020	-0.136173	-93.228593
4.550000	-0.238327	155.861539	-46.475120	47.611594	-46.475120	47.611594	-0.138332	-94.191942
4.600000	-0.241319	153.726632	-46.305569	45.529964	-46.305569	45.529964	-0.140523	-95.154111
4.650000	-0.244332	151.583664	-46.142556	43.444202	-46.142556	43.444202	-0.142747	-96.115136
4.700000	-0.247364	149.432303	-45.986048	41.355360	-45.986048	41.355360	-0.145003	-97.075055
4.750000	-0.250414	147.272224	-45.836013	39.264461	-45.836013	39.264461	-0.147293	-98.033906
4.800000	-0.253482	145.103114	-45.692413	37.172499	-45.692413	37.172499	-0.149617	-98.991730
4.850000	-0.256564	142.924664	-45.555207	35.080437	-45.555207	35.080437	-0.151975	-99.948567
4.900000	-0.259661	140.736578	-45.424356	32.989197	-45.424356	32.989197	-0.154369	-100.904458
4.950000	-0.262771	138.538569	-45.299816	30.899666	-45.299816	30.899666	-0.156798	-101.859446
5.000000	-0.265893	136.330361	-45.181545	28.812690	-45.181545	28.812690	-0.159264	-102.813576
5.050000	-0.269024	134.111456	-45.069605	26.729162	-45.069605	26.729162	-0.161768	-103.766874
5.100000	-0.272164	131.881824	-44.963854	24.649782	-44.963854	24.649782	-0.164309	-104.719405
5.150000	-0.275311	129.641227	-44.864252	22.575266	-44.864252	22.575266	-0.166889	-105.671215
5.200000	-0.278464	127.389438	-44.770763	20.506283	-44.770763	20.506283	-0.169507	-106.622353
5.250000	-0.281620	125.126247	-44.683352	18.443463	-44.683352	18.443463	-0.172165	-107.572867
5.300000	-0.284780	122.851457	-44.601991	16.387395	-44.601991	16.387395	-0.174862	-108.522806
5.350000	-0.287941	120.564887	-44.526658	14.338631	-44.526658	14.338631	-0.177600	-109.472222
5.400000	-0.291102	118.266372	-44.457335	12.297688	-44.457335	12.297688	-0.180379	-110.421165
5.450000	-0.294262	115.955765	-44.394015	10.265055	-44.394015	10.265055	-0.183199	-111.369688
5.500000	-0.297420	113.632934	-44.336697	8.241192	-44.336697	8.241192	-0.186061	-112.317845
5.550000	-0.300576	111.297767	-44.285390	6.226542	-44.285390	6.226542	-0.188966	-113.265690
5.600000	-0.303727	108.950170	-44.240114	4.221529	-44.240114	4.221529	-0.191914	-114.213278
5.650000	-0.306874	106.589932	-44.200965	2.226686	-44.200965	2.226686	-0.194906	-115.160666
5.700000	-0.310016	104.216997	-44.167990	0.242444	-44.167990	0.242444	-0.197943	-116.107912
5.750000	-0.313152	101.831466	-44.141182	-1.730882	-44.141182	-1.730882	-0.201024	-117.055077
5.800000	-0.316283	99.433328	-44.120611	-3.692851	-44.120611	-3.692851	-0.204150	-118.002220
5.850000	-0.319408	97.022591	-44.106364	-5.642997	-44.106364	-5.642997	-0.207322	-118.949404
5.900000	-0.322528	94.599285	-44.098542	-7.580815	-44.098542	-7.580815	-0.210540	-119.896689
5.950000	-0.325644	92.163462	-44.097261	-9.505753	-44.097261	-9.505753	-0.213804	-120.844137
6.000000	-0.328756	89.715195	-44.102658	-11.417199	-44.102658	-11.417199	-0.217116	-121.791814
6.050000	-0.331866	87.254580	-44.114886	-13.314465	-44.114886	-13.314465	-0.220475	-122.739783
6.100000	-0.334974	84.781734	-44.134117	-15.196776	-44.134117	-15.196776	-0.223882	-123.688111
6.150000	-0.338084	82.296797	-44.160542	-17.063248	-44.160542	-17.063248	-0.227337	-124.636865
6.200000	-0.341196	79.799930	-44.194373	-18.912873	-44.194373	-18.912873	-0.230842	-125.586113
6.250000	-0.344314	77.291316	-44.235842	-20.744500	-44.235842	-20.744500	-0.234396	-126.535924
6.300000	-0.347441	74.770913	-44.285376	-22.556354	-44.285376	-22.556354	-0.238000	-127.486383
6.350000	-0.350579	72.239202	-44.343087	-24.347299	-44.343087	-24.347299	-0.241655	-128.437550
6.400000	-0.353733	69.696430	-44.409275	-26.115585	-44.409275	-26.115585	-0.245361	-129.389498
6.450000	-0.356906	67.142861	-44.484262	-27.859207	-44.484262	-27.859207	-0.249118	-130.342301
6.500000	-0.360104	64.578779	-44.568392	-29.575868	-44.568392	-29.575868	-0.252926	-131.296032
6.550000	-0.363331	62.004485	-44.662032	-31.262937	-44.662032	-31.262937	-0.256786	-132.250769
6.600000	-0.366592	59.420295	-44.765571	-32.917406	-44.765571	-32.917406	-0.260699	-133.206588
6.650000	-0.369894	56.826541	-44.879421	-34.535833	-44.879421	-34.535833	-0.264664	-134.163567
6.700000	-0.373242	54.223569	-45.004012	-36.114284	-45.004012	-36.114284	-0.268683	-135.121787
6.750000	-0.376644	51.611736	-45.139791	-37.648261	-45.139791	-37.648261	-0.272755	-136.081328
6.800000	-0.380106	48.991410	-45.287222	-39.132620	-45.287222	-39.132620	-0.276880	-137.042271
6.850000	-0.383637	46.362967	-45.446777	-40.561482	-45.446777	-40.561482	-0.281061	-138.004701
6.900000	-0.387244	43.726712	-45.619033	-41.927361	-45.619033	-41.927361	-0.285296	-138.968719
6.950000	-0.390937	41.083045	-45.804453	-43.222265	-45.804453	-43.222265	-0.289587	-139.934414
7.000000	-0.394724	38.432441	-46.003378	-44.437980	-46.003378	-44.437980	-0.293933	-140.901856
7.050000	-0.398614	35.775292	-46.216211	-45.564333	-46.216211	-45.564333	-0.298336	-141.871133
7.100000	-0.402616	33.111987	-46.443293	-46.589677	-46.443293	-46.589677	-0.302794	-142.842336
7.150000	-0.406742	30.442912	-46.684866	-47.500692	-46.684866	-47.500692	-0.307308	-143.815554
7.200000	-0.411000	27.768445	-46.941031	-48.282162	-46.941031	-48.282162	-0.311879	-144.790880
7.250000	-0.415403	25.088955	-47.211687	-48.916748	-47.211687	-48.916748	-0.316507	-145.768407
7.300000	-0.419960	22.404800	-47.496453	-49.384770	-47.496453	-49.384770	-0.321193	-146.748230
7.350000	-0.424684	19.716325	-47.794559	-49.664035	-47.794559	-49.664035	-0.325936	-147.730447
7.400000	-0.429586	17.023855	-48.104715	-49.729750	-48.104715	-49.729750	-0.330737	-148.715153
7.450000	-0.434678	14.327699	-48.424933	-49.554611	-48.424933	-49.554611	-0.335595	-149.702448
7.500000	-0.439973	11.628141	-48.752315	-49.109188	-48.752315	-49.109188	-0.340513	-150.692433
7.550000	-0.445488	8.925381	-49.082472	-48.355518	-49.082472	-48.355518	-0.345490	-151.685272
7.600000	-0.451232	6.219723	-49.409925	-47.269159	-49.409925	-47.269159	-0.350526	-152.681011
7.650000	-0.457219	3.511370	-49.727378	-45.822916	-49.727378	-45.822916	-0.355621	-153.679754
7.700000	-0.463461	0.800489	-50.025649	-43.996556	-50.025649	-43.996556	-0.360775	-154.681606
7.750000	-0.469974	-1.912786	-50.293689	-41.781890	-50.293689	-41.781890	-0.365989	-155.686677
7.800000	-0.476770	-4.628360	-50.518940	-39.188688	-50.518940	-39.188688	-0.371262	-156.695075
7.850000	-0.483865	-7.346177	-50.688164	-36.250345	-50.688164	-36.250345	-0.376595	-157.706911
7.900000	-0.491274	-10.066227	-50.788766	-33.027534	-50.788766	-33.027534	-0.381988	-158.722296
7.950000	-0.499012	-12.788542	-50.810484	-29.607777	-50.810484	-29.607777	-0.387441	-159.741345
8.000000	-0.507095	-15.513204	-50.747059	-26.099490	-50.747059	-26.099490	-0.392954	-160.764172
8.050000	-0.515538	-18.240346	-50.597378	-22.620842	-50.597378	-22.620842	-0.398528	-161.790894
8.100000	-0.524360	-20.970152	-50.365686	-19.285898	-50.365686	-19.285898	-0.404162	-162.821630
8.150000	-0.533581	-23.702898	-50.059959	-16.195293	-50.059959	-16.195293	-0.409857	-163.856544
8.200000	-0.543220	-26.438895	-49.692283	-13.422396	-49.692283	-13.422396	-0.415613	-164.895764
8.250000	-0.553292	-29.178473	-49.276640	-11.006813	-49.276640	-11.006813	-0.421430	-165.939365
8.300000	-0.563815	-31.922060	-48.825813	-8.965728	-48.825813	-8.965728	-0.427307	-166.987473
8.350000	-0.574810	-34.670147	-48.351286	-7.296587	-48.351286	-7.296587	-0.433244	-168.040214
8.400000	-0.586297	-37.423294	-47.862752	-5.983088	-47.862752	-5.983088	-0.439242	-169.097715
8.450000	-0.598299	-40.182131	-47.367997	-5.000568	-47.367997	-5.000568	-0.445300	-170.160104
8.500000	-0.610839	-42.947362	-46.873034	-4.320222	-46.873034	-4.320222	-0.451419	-171.227513
8.550000	-0.623942	-45.719766	-46.382338	-3.912094	-46.382338	-3.912094	-0.457597	-172.300072
8.600000	-0.637631	-48.500204	-45.899130	-3.746989	-45.899130	-3.746989	-0.463836	-173.377915
8.650000	-0.651936	-51.289616	-45.425636	-3.797590	-45.425636	-3.797590	-0.470134	-174.461177
8.700000	-0.666883	-54.089027	-44.963320	-4.039011	-44.963320	-4.039011	-0.476492	-175.549994
8.750000	-0.682504	-56.899551	-44.513072	-4.448982	-44.513072	-4.448982	-0.482909	-176.644503
8.800000	-0.698846	-59.722691	-44.075171	-5.010658	-44.075171	-5.010658	-0.489386	-177.744973
8.850000	-0.715929	-62.559514	-43.650017	-5.703283	-43.650017	-5.703283	-0.495922	-178.851421
8.900000	-0.733790	-65.411425	-43.237540	-6.511970	-43.237540	-6.511970	-0.502516	-179.963989
8.950000	-0.752466	-68.279932	-42.837519	-7.423797	-42.837519	-7.423797	-0.509167	178.917181
9.000000	-0.772000	-71.166649	-42.449637	-8.427579	-42.449637	-8.427579	-0.515877	177.791945
9.050000	-0.792435	-74.073302	-42.073515	-9.513652	-42.073515	-9.513652	-0.522643	176.660157
9.100000	-0.813817	-77.001728	-41.708738	-10.673681	-41.708738	-10.673681	-0.529465	175.521672
9.150000	-0.836197	-79.953886	-41.354875	-11.900481	-41.354875	-11.900481	-0.536343	174.376341
9.200000	-0.859628	-82.931855	-41.011493	-13.187872	-41.011493	-13.187872	-0.543277	173.224017
9.250000	-0.884165	-85.937842	-40.678168	-14.530539	-40.678168	-14.530539	-0.550264	172.064551
9.300000	-0.909868	-88.974184	-40.354492	-15.923915	-40.354492	-15.923915	-0.557306	170.897792
9.350000	-0.936800	-92.043354	-40.040079	-17.364086	-40.040079	-17.364086	-0.564400	169.723590
9.400000	-0.965043	-95.148379	-39.734547	-18.848137	-39.734547	-18.848137	-0.571547	168.541709
9.450000	-0.994668	-98.292109	-39.437568	-20.373115	-39.437568	-20.373115	-0.578745	167.351992
9.500000	-1.025737	-101.477067	-39.148860	-21.936121	-39.148860	-21.936121	-0.585994	166.154370
9.550000	-1.058327	-104.706307	-38.868146	-23.535083	-38.868146	-23.535083	-0.593291	164.948689
9.600000	-1.092520	-107.983027	-38.595177	-25.168228	-38.595177	-25.168228	-0.600637	163.734799
9.650000	-1.128399	-111.310575	-38.329738	-26.834044	-38.329738	-26.834044	-0.608029	162.512544
9.700000	-1.166050	-114.692442	-38.071640	-28.531234	-38.071640	-28.531234	-0.615466	161.281774
9.750000	-1.205563	-118.132259	-37.820726	-30.258679	-37.820726	-30.258679	-0.622948	160.042336
9.800000	-1.246985	-121.632356	-37.576858	-32.014794	-37.576858	-32.014794	-0.630471	158.794274
9.850000	-1.290494	-125.199777	-37.339946	-33.800123	-37.339946	-33.800123	-0.638037	157.536998
9.900000	-1.336128	-128.836839	-37.109914	-35.613109	-37.109914	-35.613109	-0.645642	156.270600
9.950000	-1.383971	-132.547631	-36.886713	-37.453052	-36.886713	-37.453052	-0.653285	154.994931
10.000000	-1.434098	-136.336309	-36.670319	-39.319287	-36.670319	-39.319287	-0.660964	153.709841
