! freq	dB(S11)	phase(S11)	dB(S12)	phase(S12)	
!     	dB(S21)	phase(S21)	dB(S22)	phase(S22)	
!S-par simulation data
#  GHz  S  DB  R 50
0.000000	-0.000000	0.000000	-355.119064	0.000000	-355.119064	0.000000	-0.000000	0.000000
0.050000	-0.000298	-0.818350	-91.605046	87.229512	-91.605046	87.229512	-0.001497	-4.069374
0.100000	-0.001071	-1.637964	-85.613680	85.010752	-85.613680	85.010752	-0.005563	-8.127355
0.150000	-0.002107	-2.458939	-82.137130	82.681167	-82.137130	82.681167	-0.011278	-12.165900
0.200000	-0.003256	-3.280515	-79.700309	80.338027	-79.700309	80.338027	-0.017680	-16.181827
0.250000	-0.004459	-4.101916	-77.841477	78.004393	-77.841477	78.004393	-0.024160	-20.173513
0.300000	-0.005695	-4.922572	-76.354719	75.692014	-76.354719	75.692014	-0.030393	-24.140053
0.350000	-0.006948	-5.742144	-75.130204	73.409217	-75.130204	73.409217	-0.036265	-28.080186
0.400000	-0.008200	-6.560466	-74.102398	71.163159	-74.102398	71.163159	-0.041767	-31.992110
0.450000	-0.009429	-7.377511	-73.229061	68.960609	-73.229061	68.960609	-0.046930	-35.873611
0.500000	-0.010612	-8.193352	-72.481387	66.808290	-72.481387	66.808290	-0.051798	-39.722261
0.550000	-0.011733	-9.008141	-71.838872	64.713074	-71.838872	64.713074	-0.056411	-43.535596
0.600000	-0.012786	-9.822067	-71.286420	62.682121	-71.286420	62.682121	-0.060801	-47.311236
0.650000	-0.013778	-10.635309	-70.813131	60.723879	-70.813131	60.723879	-0.064991	-51.046520
0.700000	-0.014723	-11.448015	-70.410148	58.846765	-70.410148	58.846765	-0.068999	-54.739404
0.750000	-0.015644	-12.260265	-70.069979	57.058860	-70.069979	57.058860	-0.072842	-58.388605
0.800000	-0.016562	-13.072070	-69.787036	55.369890	-69.787036	55.369890	-0.076530	-61.992672
0.850000	-0.017495	-13.883374	-69.558040	53.794183	-69.558040	53.794183	-0.080064	-65.549044
0.900000	-0.018451	-14.694169	-69.374712	52.330987	-69.374712	52.330987	-0.083466	-69.061665
0.950000	-0.019442	-15.504285	-69.240578	51.014347	-69.240578	51.014347	-0.086716	-72.522423
1.000000	-0.020465	-16.313742	-69.147106	49.840541	-69.147106	49.840541	-0.089837	-75.937379
1.050000	-0.021522	-17.122432	-69.094897	48.839367	-69.094897	48.839367	-0.092820	-79.302574
1.100000	-0.022608	-17.930336	-69.080735	48.027466	-69.080735	48.027466	-0.095671	-82.618933
1.150000	-0.023716	-18.737474	-69.100716	47.419811	-69.100716	47.419811	-0.098396	-85.888508
1.200000	-0.024839	-19.543777	-69.155326	47.064291	-69.155326	47.064291	-0.100985	-89.106991
1.250000	-0.025965	-20.349382	-69.236725	46.950357	-69.236725	46.950357	-0.103461	-92.282266
1.300000	-0.027074	-21.154126	-69.346429	47.171653	-69.346429	47.171653	-0.105800	-95.404964
1.350000	-0.028148	-21.958127	-69.474694	47.696963	-69.474694	47.696963	-0.108030	-98.485769
1.400000	-0.029163	-22.761109	-69.617518	48.616132	-69.617518	48.616132	-0.110138	-101.518483
1.450000	-0.030121	-23.562965	-69.765859	49.927018	-69.765859	49.927018	-0.112139	-104.508413
1.500000	-0.031039	-24.363466	-69.909226	51.675425	-69.909226	51.675425	-0.114033	-107.454917
1.550000	-0.031945	-25.162526	-70.034491	53.888826	-70.034491	53.888826	-0.115824	-110.358297
1.600000	-0.032864	-25.960312	-70.128887	56.532896	-70.128887	56.532896	-0.117526	-113.222933
1.650000	-0.033811	-26.756768	-70.169965	59.640029	-70.169965	59.640029	-0.119137	-116.044625
1.700000	-0.034783	-27.552075	-70.142103	63.115277	-70.142103	63.115277	-0.120672	-118.827120
1.750000	-0.035775	-28.346376	-70.037784	66.834917	-70.037784	66.834917	-0.122149	-121.574796
1.800000	-0.036782	-29.139631	-69.843931	70.696006	-69.843931	70.696006	-0.123579	-124.286759
1.850000	-0.037799	-29.931845	-69.557428	74.557310	-69.557428	74.557310	-0.124978	-126.964393
1.900000	-0.038822	-30.723008	-69.182066	78.279840	-69.182066	78.279840	-0.126363	-129.609123
1.950000	-0.039850	-31.513107	-68.727624	81.744078	-68.727624	81.744078	-0.127751	-132.222410
2.000000	-0.040880	-32.302124	-68.207881	84.861594	-68.207881	84.861594	-0.129158	-134.805750
2.050000	-0.041911	-33.090040	-67.638279	87.578910	-67.638279	87.578910	-0.130596	-137.360667
2.100000	-0.042944	-33.876837	-67.033909	89.874573	-67.033909	89.874573	-0.132073	-139.888697
2.150000	-0.043979	-34.662497	-66.408193	91.752236	-66.408193	91.752236	-0.133591	-142.391378
2.200000	-0.045014	-35.447001	-65.772252	93.232626	-65.772252	93.232626	-0.135151	-144.870232
2.250000	-0.046051	-36.230331	-65.134811	94.346376	-65.134811	94.346376	-0.136747	-147.326762
2.300000	-0.047090	-37.012471	-64.502408	95.128545	-64.502408	95.128545	-0.138375	-149.762442
2.350000	-0.048132	-37.793404	-63.879750	95.614906	-63.879750	95.614906	-0.140032	-152.178729
2.400000	-0.049176	-38.573113	-63.270082	95.839702	-63.270082	95.839702	-0.141714	-154.577061
2.450000	-0.050223	-39.351583	-62.675532	95.834445	-62.675532	95.834445	-0.143420	-156.958869
2.500000	-0.051274	-40.128798	-62.097391	95.627420	-62.097391	95.627420	-0.145152	-159.325586
2.550000	-0.052330	-40.904688	-61.535578	95.236948	-61.535578	95.236948	-0.146915	-161.678124
2.600000	-0.053390	-41.679291	-60.991302	94.693220	-60.991302	94.693220	-0.148712	-164.018591
2.650000	-0.054455	-42.452595	-60.464473	94.014845	-60.464473	94.014845	-0.150549	-166.348455
2.700000	-0.055525	-43.224585	-59.954805	93.217936	-59.954805	93.217936	-0.152432	-168.669203
2.750000	-0.056602	-43.995248	-59.461884	92.316426	-59.461884	92.316426	-0.154369	-170.982348
2.800000	-0.057685	-44.764571	-58.985216	91.322351	-58.985216	91.322351	-0.156366	-173.289428
2.850000	-0.058774	-45.532541	-58.524261	90.246114	-58.524261	90.246114	-0.158431	-175.592013
2.900000	-0.059871	-46.299147	-58.078460	89.096716	-58.078460	89.096716	-0.160572	-177.891710
2.950000	-0.060975	-47.064377	-57.647250	87.881946	-57.647250	87.881946	-0.162798	179.809834
3.000000	-0.062088	-47.828220	-57.230081	86.608558	-57.230081	86.608558	-0.165117	177.510922
3.050000	-0.063208	-48.590665	-56.826416	85.282412	-56.826416	85.282412	-0.167537	175.209806
3.100000	-0.064338	-49.351702	-56.435744	83.908602	-56.435744	83.908602	-0.170068	172.904673
3.150000	-0.065476	-50.111321	-56.057581	82.491554	-56.057581	82.491554	-0.172720	170.593643
3.200000	-0.066624	-50.869513	-55.691469	81.035118	-55.691469	81.035118	-0.175504	168.274754
3.250000	-0.067781	-51.626269	-55.336983	79.542645	-55.336983	79.542645	-0.178431	165.945953
3.300000	-0.068949	-52.381581	-54.993726	78.017047	-54.993726	78.017047	-0.181514	163.605085
3.350000	-0.070127	-53.135441	-54.661335	76.460852	-54.661335	76.460852	-0.184765	161.249876
3.400000	-0.071316	-53.887841	-54.339476	74.876251	-54.339476	74.876251	-0.188200	158.877922
3.450000	-0.072516	-54.638774	-54.027845	73.265135	-54.027845	73.265135	-0.191836	156.486669
3.500000	-0.073728	-55.388234	-53.726172	71.629126	-53.726172	71.629126	-0.195690	154.073392
3.550000	-0.074952	-56.136215	-53.434216	69.969611	-53.434216	69.969611	-0.199784	151.635176
3.600000	-0.076188	-56.882711	-53.151769	68.287756	-53.151769	68.287756	-0.204140	149.168886
3.650000	-0.077436	-57.627718	-52.878654	66.584538	-52.878654	66.584538	-0.208783	146.671142
3.700000	-0.078698	-58.371229	-52.614728	64.860752	-52.614728	64.860752	-0.213744	144.138285
3.750000	-0.079973	-59.113242	-52.359883	63.117031	-52.359883	63.117031	-0.219056	141.566335
3.800000	-0.081262	-59.853687	-52.114148	61.353030	-52.114148	61.353030	-0.224774	138.948835
3.850000	-0.082565	-60.592626	-51.877438	59.569946	-51.877438	59.569946	-0.230929	136.282668
3.900000	-0.083883	-61.330056	-51.649767	57.767985	-51.649767	57.767985	-0.237570	133.562528
3.950000	-0.085216	-62.065975	-51.431198	55.947242	-51.431198	55.947242	-0.244755	130.782558
4.000000	-0.086564	-62.800381	-51.221847	54.107714	-51.221847	54.107714	-0.252552	127.936261
4.050000	-0.087928	-63.533273	-51.021892	52.249317	-51.021892	52.249317	-0.261039	125.016406
4.100000	-0.089307	-64.264649	-50.831578	50.371902	-50.831578	50.371902	-0.270305	122.014920
4.150000	-0.090703	-64.994509	-50.651228	48.475284	-50.651228	48.475284	-0.280456	118.922748
4.200000	-0.092116	-65.722853	-50.481257	46.559273	-50.481257	46.559273	-0.291615	115.729707
4.250000	-0.093545	-66.449681	-50.322187	44.623723	-50.322187	44.623723	-0.303924	112.424299
4.300000	-0.094993	-67.174994	-50.174663	42.668595	-50.174663	42.668595	-0.317552	108.993500
4.350000	-0.096458	-67.898794	-50.039480	40.694050	-50.039480	40.694050	-0.332698	105.422508
4.400000	-0.097939	-68.621280	-49.915918	38.702934	-49.915918	38.702934	-0.349335	101.717439
4.450000	-0.099441	-69.342042	-49.808455	36.691126	-49.808455	36.691126	-0.368238	97.813882
4.500000	-0.100962	-70.061299	-49.716925	34.663078	-49.716925	34.663078	-0.389489	93.711755
4.550000	-0.102502	-70.779054	-49.643068	32.621698	-49.643068	32.621698	-0.413470	89.385618
4.600000	-0.104062	-71.495310	-49.588982	30.571580	-49.588982	30.571580	-0.440629	84.806208
4.650000	-0.105643	-72.210074	-49.557189	28.519786	-49.557189	28.519786	-0.471489	79.939849
4.700000	-0.107245	-72.923351	-49.550704	26.476958	-49.550704	26.476958	-0.506654	74.747822
4.750000	-0.108869	-73.635147	-49.573094	24.458936	-49.573094	24.458936	-0.546816	69.185719
4.800000	-0.110515	-74.345498	-49.627696	22.487230	-49.627696	22.487230	-0.592604	63.213380
4.850000	-0.112186	-75.054337	-49.720964	20.599278	-49.720964	20.599278	-0.645149	56.750933
4.900000	-0.113882	-75.761705	-49.857052	18.843553	-49.857052	18.843553	-0.705138	49.745775
4.950000	-0.115603	-76.467602	-50.040834	17.291645	-50.040834	17.291645	-0.773332	42.127912
5.000000	-0.117350	-77.172030	-50.275902	16.044848	-50.275902	16.044848	-0.850252	33.823478
5.050000	-0.119124	-77.874973	-50.562810	15.250568	-50.562810	15.250568	-0.936025	24.748165
5.100000	-0.120922	-78.576455	-50.893257	15.089242	-50.893257	15.089242	-1.029709	14.844281
5.150000	-0.122746	-79.276500	-51.245899	15.766359	-51.245899	15.766359	-1.129163	4.073296
5.200000	-0.124596	-79.975092	-51.577664	17.502918	-51.577664	17.502918	-1.230651	-7.597160
5.250000	-0.126471	-80.672242	-51.817655	20.387035	-51.817655	20.387035	-1.328309	-20.132032
5.300000	-0.128373	-81.367968	-51.879468	24.221058	-51.879468	24.221058	-1.414670	-33.425839
5.350000	-0.130301	-82.062281	-51.695337	28.444173	-51.695337	28.444173	-1.481698	-47.301250
5.400000	-0.132256	-82.755192	-51.257676	32.278649	-51.257676	32.278649	-1.522480	-61.512638
5.450000	-0.134239	-83.446704	-50.626830	35.066599	-50.626830	35.066599	-1.532945	-75.768091
5.500000	-0.136250	-84.136831	-49.898190	36.530406	-49.898190	36.530406	-1.513412	-89.767948
5.550000	-0.138290	-84.825587	-49.156366	36.740144	-49.156366	36.740144	-1.468130	-103.251278
5.600000	-0.140359	-85.512979	-48.456222	35.937580	-48.456222	35.937580	-1.403737	-116.020626
5.650000	-0.142458	-86.199020	-47.825045	34.403783	-47.825045	34.403783	-1.327639	-127.956162
5.700000	-0.144587	-86.883715	-47.271195	32.381948	-47.271195	32.381948	-1.246454	-139.006042
5.750000	-0.146747	-87.567088	-46.791919	30.062420	-46.791919	30.062420	-1.165299	-149.184000
5.800000	-0.148938	-88.249142	-46.380198	27.576576	-46.380198	27.576576	-1.087609	-158.527633
5.850000	-0.151161	-88.929884	-46.027287	25.015332	-46.027287	25.015332	-1.015442	-167.098636
5.900000	-0.153416	-89.609341	-45.723968	22.438285	-45.723968	22.438285	-0.949699	-174.978801
5.950000	-0.155704	-90.287516	-45.462576	19.882340	-45.462576	19.882340	-0.890660	177.761167
6.000000	-0.158025	-90.964406	-45.236621	17.370583	-45.236621	17.370583	-0.838204	171.055253
6.050000	-0.160380	-91.640051	-45.039898	14.914615	-45.039898	14.914615	-0.791778	164.826671
6.100000	-0.162768	-92.314463	-44.867820	12.520540	-44.867820	12.520540	-0.750848	159.016949
6.150000	-0.165191	-92.987657	-44.716648	10.190675	-44.716648	10.190675	-0.714851	153.574281
6.200000	-0.167648	-93.659646	-44.583343	7.925024	-44.583343	7.925024	-0.683244	148.453178
6.250000	-0.170140	-94.330446	-44.465443	5.722245	-44.465443	5.722245	-0.655520	143.613920
6.300000	-0.172669	-95.000032	-44.361315	3.582301	-44.361315	3.582301	-0.631328	139.029432
6.350000	-0.175233	-95.668459	-44.268892	1.500657	-44.268892	1.500657	-0.610139	134.660413
6.400000	-0.177834	-96.335745	-44.186861	-0.525089	-44.186861	-0.525089	-0.591606	130.480983
6.450000	-0.180472	-97.001904	-44.114147	-2.497218	-44.114147	-2.497218	-0.575426	126.468569
6.500000	-0.183146	-97.666955	-44.049863	-4.417801	-44.049863	-4.417801	-0.561340	122.603435
6.550000	-0.185858	-98.330913	-43.993273	-6.288649	-43.993273	-6.288649	-0.549125	118.868282
6.600000	-0.188609	-98.993768	-43.943926	-8.110069	-43.943926	-8.110069	-0.538631	115.250513
6.650000	-0.191398	-99.655558	-43.901176	-9.884149	-43.901176	-9.884149	-0.529662	111.734268
6.700000	-0.194226	-100.316308	-43.864534	-11.612157	-43.864534	-11.612157	-0.522070	108.306828
6.750000	-0.197092	-100.976045	-43.833589	-13.295000	-43.833589	-13.295000	-0.515735	104.957204
6.800000	-0.199998	-101.634778	-43.808066	-14.932543	-43.808066	-14.932543	-0.510575	101.676723
6.850000	-0.202944	-102.292525	-43.787670	-16.524805	-43.787670	-16.524805	-0.506511	98.456815
6.900000	-0.205935	-102.949174	-43.772775	-18.065001	-43.772775	-18.065001	-0.503619	95.296141
6.950000	-0.208961	-103.605004	-43.761850	-19.564975	-43.761850	-19.564975	-0.501577	92.174277
7.000000	-0.212029	-104.259911	-43.755276	-21.017950	-43.755276	-21.017950	-0.500484	89.091641
7.050000	-0.215137	-104.913916	-43.752806	-22.422813	-43.752806	-22.422813	-0.500314	86.042261
7.100000	-0.218287	-105.567041	-43.754185	-23.778182	-43.754185	-23.778182	-0.501052	83.020577
7.150000	-0.221479	-106.219308	-43.759144	-25.082408	-43.759144	-25.082408	-0.502695	80.021367
7.200000	-0.224713	-106.870740	-43.767388	-26.333580	-43.767388	-26.333580	-0.505248	77.039685
7.250000	-0.227989	-107.521360	-43.778589	-27.529535	-43.778589	-27.529535	-0.508728	74.070797
7.300000	-0.231308	-108.171193	-43.792381	-28.667864	-43.792381	-28.667864	-0.513160	71.110124
7.350000	-0.234671	-108.820261	-43.808341	-29.745931	-43.808341	-29.745931	-0.518581	68.153191
7.400000	-0.238077	-109.468591	-43.825987	-30.760893	-43.825987	-30.760893	-0.525038	65.195573
7.450000	-0.241527	-110.116208	-43.844760	-31.709732	-43.844760	-31.709732	-0.532591	62.232848
7.500000	-0.245022	-110.763138	-43.864014	-32.589293	-43.864014	-32.589293	-0.541311	59.260539
7.550000	-0.248563	-111.409380	-43.882946	-33.393041	-43.882946	-33.393041	-0.551345	56.273226
7.600000	-0.252150	-112.054991	-43.900655	-34.120769	-43.900655	-34.120769	-0.562745	53.266556
7.650000	-0.255782	-112.699999	-43.916126	-34.769381	-43.916126	-34.769381	-0.575635	50.235528
7.700000	-0.259461	-113.344432	-43.928190	-35.336039	-43.928190	-35.336039	-0.590158	47.174843
7.750000	-0.263185	-113.988321	-43.935518	-35.818330	-43.935518	-35.818330	-0.606483	44.078826
7.800000	-0.266957	-114.631695	-43.936602	-36.214479	-43.936602	-36.214479	-0.624805	40.941347
7.850000	-0.270777	-115.274584	-43.929753	-36.523594	-43.929753	-36.523594	-0.645353	37.755723
7.900000	-0.274644	-115.917020	-43.913093	-36.745958	-43.913093	-36.745958	-0.668393	34.514608
7.950000	-0.278561	-116.559034	-43.884561	-36.883364	-43.884561	-36.883364	-0.694239	31.209864
8.000000	-0.282526	-117.200660	-43.841932	-36.939476	-43.841932	-36.939476	-0.723256	27.832413
8.050000	-0.286541	-117.841931	-43.782845	-36.920223	-43.782845	-36.920223	-0.755875	24.372053
8.100000	-0.290607	-118.482881	-43.704842	-36.834181	-43.704842	-36.834181	-0.792603	20.817252
8.150000	-0.294718	-119.123578	-43.608741	-36.698246	-43.608741	-36.698246	-0.833364	17.170865
8.200000	-0.298887	-119.763985	-43.485598	-36.513970	-43.485598	-36.513970	-0.880181	13.386763
8.250000	-0.303108	-120.404179	-43.336238	-36.307885	-43.336238	-36.307885	-0.933266	9.462754
8.300000	-0.307383	-121.044199	-43.158598	-36.102273	-43.158598	-36.102273	-0.993628	5.378829
8.350000	-0.311712	-121.684082	-42.950975	-35.923069	-42.950975	-35.923069	-1.062476	1.111718
8.400000	-0.316096	-122.323868	-42.712147	-35.799685	-42.712147	-35.799685	-1.141256	-3.365776
8.450000	-0.320535	-122.963598	-42.441485	-35.764685	-42.441485	-35.764685	-1.231700	-8.085587
8.500000	-0.325030	-123.603313	-42.139054	-35.853365	-42.139054	-35.853365	-1.335881	-13.085377
8.550000	-0.329582	-124.243056	-41.805713	-36.103248	-41.805713	-36.103248	-1.456269	-18.409743
8.600000	-0.334192	-124.882871	-41.443200	-36.553544	-41.443200	-36.553544	-1.595787	-24.111667
8.650000	-0.338859	-125.522802	-41.054677	-37.241433	-41.054677	-37.241433	-1.757591	-30.248482
8.700000	-0.343586	-126.162901	-40.642796	-38.215363	-40.642796	-38.215363	-1.946190	-36.909320
8.750000	-0.348372	-126.803215	-40.213289	-39.511826	-40.213289	-39.511826	-2.165516	-44.176751
8.800000	-0.353219	-127.443799	-39.772289	-41.174273	-39.772289	-41.174273	-2.420216	-52.166592
8.850000	-0.358124	-128.084706	-39.328295	-43.235065	-39.328295	-43.235065	-2.713646	-60.998160
8.900000	-0.363090	-128.725994	-38.891170	-45.724277	-38.891170	-45.724277	-3.047475	-70.815882
8.950000	-0.368115	-129.367724	-38.472673	-48.662448	-38.472673	-48.662448	-3.419136	-81.778319
9.000000	-0.373200	-130.009962	-38.086387	-52.055593	-38.086387	-52.055593	-3.818369	-94.044325
9.050000	-0.378344	-130.652778	-37.747332	-55.889327	-37.747332	-55.889327	-4.222811	-107.741595
9.100000	-0.383548	-131.296255	-37.471697	-60.125843	-37.471697	-60.125843	-4.593580	-122.919417
9.150000	-0.388810	-131.940474	-37.274239	-64.691043	-37.274239	-64.691043	-4.877950	-139.427512
9.200000	-0.394130	-132.585523	-37.166936	-69.483422	-37.166936	-69.483422	-5.022059	-156.868924
9.250000	-0.399508	-133.231501	-37.157584	-74.380166	-37.157584	-74.380166	-4.992346	-174.615834
9.300000	-0.404944	-133.878515	-37.248534	-79.248058	-37.248534	-79.248058	-4.793424	168.047201
9.350000	-0.410439	-134.526681	-37.436559	-83.957983	-37.436559	-83.957983	-4.465843	151.717631
9.400000	-0.415994	-135.176132	-37.714097	-88.395952	-37.714097	-88.395952	-4.065692	136.756673
9.450000	-0.421610	-135.827009	-38.069831	-92.474138	-38.069831	-92.474138	-3.644622	123.276645
9.500000	-0.427290	-136.479450	-38.491011	-96.135276	-38.491011	-96.135276	-3.238238	111.218589
9.550000	-0.433037	-137.133614	-38.965639	-99.344582	-38.965639	-99.344582	-2.866033	100.452817
9.600000	-0.438855	-137.789670	-39.482982	-102.085289	-39.482982	-102.085289	-2.536012	90.823947
9.650000	-0.444749	-138.447798	-40.034024	-104.351999	-40.034024	-104.351999	-2.249138	82.178557
9.700000	-0.450730	-139.108277	-40.610837	-106.127898	-40.610837	-106.127898	-2.003723	74.402562
9.750000	-0.456799	-139.771159	-41.208712	-107.444035	-41.208712	-107.444035	-1.793319	67.322973
9.800000	-0.462967	-140.436727	-41.822864	-108.283007	-41.822864	-108.283007	-1.614155	60.861206
9.850000	-0.469245	-141.105212	-42.449545	-108.635555	-42.449545	-108.635555	-1.461688	54.929374
9.900000	-0.475644	-141.776861	-43.085221	-108.484559	-43.085221	-108.484559	-1.331840	49.453469
9.950000	-0.482175	-142.451935	-43.725980	-107.803936	-43.725980	-107.803936	-1.221080	44.371272
10.000000	-0.488853	-143.130717	-44.366835	-106.558384	-44.366835	-106.558384	-1.126410	39.630445
