! freq	dB(S11)	phase(S11)	dB(S12)	phase(S12)	
!     	dB(S21)	phase(S21)	dB(S22)	phase(S22)	
!S-par simulation data
#  GHz  S  DB  R 50
0.000000	-0.000000	0.000000	-344.579846	0.000000	-344.579846	0.000000	-0.000000	0.000000
0.050000	-0.000181	-1.300322	-79.758350	-16.239984	-79.758350	-16.239984	-0.000177	-1.299826
0.100000	-0.000717	-2.600149	-79.393442	-4.637130	-79.393442	-4.637130	-0.000699	-2.599177
0.150000	-0.001585	-3.899022	-79.304523	1.025020	-79.304523	1.025020	-0.001545	-3.897609
0.200000	-0.002746	-5.196562	-79.253576	5.092215	-79.253576	5.092215	-0.002680	-5.194755
0.250000	-0.004175	-6.492335	-79.210709	8.456786	-79.210709	8.456786	-0.004079	-6.490191
0.300000	-0.005802	-7.786258	-79.169115	11.489235	-79.169115	11.489235	-0.005676	-7.783830
0.350000	-0.007591	-9.078099	-79.128132	14.295745	-79.128132	14.295745	-0.007436	-9.075436
0.400000	-0.009499	-10.367757	-79.088486	16.947799	-79.088486	16.947799	-0.009319	-10.364905
0.450000	-0.011487	-11.655191	-79.051603	19.487943	-79.051603	19.487943	-0.011285	-11.652184
0.500000	-0.013520	-12.940396	-79.019198	21.945788	-79.019198	21.945788	-0.013302	-12.937261
0.550000	-0.015571	-14.223400	-78.993074	24.345287	-78.993074	24.345287	-0.015342	-14.220154
0.600000	-0.017619	-15.504244	-78.975008	26.708385	-78.975008	26.708385	-0.017383	-15.500895
0.650000	-0.019646	-16.782978	-78.966661	29.057052	-78.966661	29.057052	-0.019409	-16.779528
0.700000	-0.021642	-18.059649	-78.969507	31.414511	-78.969507	31.414511	-0.021407	-18.056094
0.750000	-0.023599	-19.334299	-78.984744	33.806074	-78.984744	33.806074	-0.023370	-19.330633
0.800000	-0.025513	-20.606963	-79.013202	36.259772	-79.013202	36.259772	-0.025293	-20.603175
0.850000	-0.027383	-21.877665	-79.055212	38.806846	-79.055212	38.806846	-0.027173	-21.873743
0.900000	-0.029208	-23.146417	-79.110442	41.482105	-79.110442	41.482105	-0.029011	-23.142350
0.950000	-0.030990	-24.413224	-79.177675	44.324093	-79.177675	44.324093	-0.030807	-24.408998
1.000000	-0.032732	-25.678078	-79.254521	47.374904	-79.254521	47.374904	-0.032563	-25.673681
1.050000	-0.034436	-26.940966	-79.337054	50.679406	-79.337054	50.679406	-0.034282	-26.936386
1.100000	-0.036106	-28.201865	-79.419381	54.283495	-79.419381	54.283495	-0.035967	-28.197092
1.150000	-0.037745	-29.460747	-79.493188	58.230897	-79.493188	58.230897	-0.037621	-29.455770
1.200000	-0.039358	-30.717580	-79.547355	62.557979	-79.547355	62.557979	-0.039247	-30.712391
1.250000	-0.040947	-31.972327	-79.567812	67.286207	-79.567812	67.286207	-0.040850	-31.966916
1.300000	-0.042514	-33.224853	-79.534836	72.427796	-79.534836	72.427796	-0.042430	-33.219213
1.350000	-0.044065	-34.475207	-79.431720	77.921618	-79.431720	77.921618	-0.043993	-34.469332
1.400000	-0.045601	-35.723345	-79.241409	83.681405	-79.241409	83.681405	-0.045540	-35.717229
1.450000	-0.047125	-36.969224	-78.950916	89.580595	-78.950916	89.580595	-0.047075	-36.962861
1.500000	-0.048640	-38.212798	-78.554038	95.465351	-78.554038	95.465351	-0.048599	-38.206183
1.550000	-0.050147	-39.454023	-78.052772	101.175949	-78.052772	101.175949	-0.050116	-39.447153
1.600000	-0.051649	-40.692855	-77.456828	106.569730	-77.456828	106.569730	-0.051625	-40.685725
1.650000	-0.053147	-41.929253	-76.781464	111.538146	-76.781464	111.538146	-0.053131	-41.921859
1.700000	-0.054644	-43.163173	-76.044584	116.013863	-76.044584	116.013863	-0.054633	-43.155512
1.750000	-0.056139	-44.394576	-75.264081	119.968546	-75.264081	119.968546	-0.056133	-44.386645
1.800000	-0.057634	-45.623423	-74.456022	123.404904	-74.456022	123.404904	-0.057634	-45.615218
1.850000	-0.059131	-46.849677	-73.633756	126.346875	-73.633756	126.346875	-0.059134	-46.841196
1.900000	-0.060630	-48.073303	-72.807736	128.830699	-72.807736	128.830699	-0.060637	-48.064542
1.950000	-0.062133	-49.294268	-71.985770	130.898076	-71.985770	130.898076	-0.062142	-49.285223
2.000000	-0.063639	-50.512539	-71.173457	132.591560	-71.173457	132.591560	-0.063650	-50.503209
2.050000	-0.065150	-51.728089	-70.374650	133.951806	-70.374650	133.951806	-0.065162	-51.718469
2.100000	-0.066667	-52.940890	-69.591878	135.016146	-69.591878	135.016146	-0.066679	-52.930978
2.150000	-0.068189	-54.150918	-68.826699	135.818026	-68.826699	135.818026	-0.068202	-54.140709
2.200000	-0.069717	-55.358149	-68.079969	136.386957	-68.079969	136.386957	-0.069730	-55.347641
2.250000	-0.071252	-56.562563	-67.352049	136.748737	-67.352049	136.748737	-0.071264	-56.551752
2.300000	-0.072794	-57.764142	-66.642958	136.925809	-66.642958	136.925809	-0.072805	-57.753025
2.350000	-0.074344	-58.962870	-65.952486	136.937657	-65.952486	136.937657	-0.074354	-58.951442
2.400000	-0.075901	-60.158733	-65.280270	136.801194	-65.280270	136.801194	-0.075910	-60.146991
2.450000	-0.077467	-61.351720	-64.625851	136.531121	-64.625851	136.531121	-0.077474	-61.339659
2.500000	-0.079042	-62.541821	-63.988719	136.140254	-63.988719	136.140254	-0.079046	-62.529437
2.550000	-0.080625	-63.728903	-63.367161	135.635494	-63.367161	135.635494	-0.080627	-63.716192
2.600000	-0.082218	-64.913086	-62.761946	135.031754	-62.761946	135.031754	-0.082217	-64.900044
2.650000	-0.083821	-66.094370	-62.172518	134.337569	-62.172518	134.337569	-0.083817	-66.080991
2.700000	-0.085433	-67.272752	-61.598332	133.560507	-61.598332	133.560507	-0.085427	-67.259032
2.750000	-0.087056	-68.448235	-61.038866	132.707314	-61.038866	132.707314	-0.087047	-68.434168
2.800000	-0.088690	-69.620823	-60.493617	131.784032	-60.493617	131.784032	-0.088678	-69.606405
2.850000	-0.090334	-70.790522	-59.962108	130.796097	-59.962108	130.796097	-0.090319	-70.775747
2.900000	-0.091991	-71.957339	-59.443885	129.748423	-59.443885	129.748423	-0.091972	-71.942202
2.950000	-0.093659	-73.121285	-58.938516	128.645478	-58.938516	128.645478	-0.093637	-73.105781
3.000000	-0.095339	-74.282372	-58.445592	127.491337	-58.445592	127.491337	-0.095314	-74.266494
3.050000	-0.097032	-75.440613	-57.964722	126.289741	-57.964722	126.289741	-0.097004	-75.424357
3.100000	-0.098738	-76.596025	-57.495539	125.044131	-57.495539	125.044131	-0.098707	-76.579384
3.150000	-0.100458	-77.748625	-57.037688	123.757692	-57.037688	123.757692	-0.100424	-77.731593
3.200000	-0.102192	-78.898434	-56.590834	122.433378	-56.590834	122.433378	-0.102155	-78.881005
3.250000	-0.103940	-80.045472	-56.154655	121.073941	-56.154655	121.073941	-0.103900	-80.027639
3.300000	-0.105704	-81.189763	-55.728842	119.681953	-55.728842	119.681953	-0.105661	-81.171521
3.350000	-0.107483	-82.331332	-55.313100	118.259822	-55.313100	118.259822	-0.107437	-82.312674
3.400000	-0.109279	-83.470207	-54.907141	116.809809	-54.907141	116.809809	-0.109230	-83.451126
3.450000	-0.111092	-84.606415	-54.510690	115.334041	-54.510690	115.334041	-0.111040	-84.586904
3.500000	-0.112922	-85.739987	-54.123477	113.834524	-54.123477	113.834524	-0.112867	-85.720041
3.550000	-0.114770	-86.870956	-53.745244	112.313146	-53.745244	112.313146	-0.114713	-86.850566
3.600000	-0.116636	-87.999355	-53.375736	110.771693	-53.375736	110.771693	-0.116577	-87.978514
3.650000	-0.118522	-89.125219	-53.014706	109.211848	-53.014706	109.211848	-0.118460	-89.103921
3.700000	-0.120428	-90.248586	-52.661910	107.635202	-52.661910	107.635202	-0.120364	-90.226823
3.750000	-0.122354	-91.369493	-52.317113	106.043257	-52.317113	106.043257	-0.122288	-91.347259
3.800000	-0.124303	-92.487879	-51.979854	104.436886	-51.979854	104.436886	-0.124234	-92.465164
3.850000	-0.126274	-93.603891	-51.650161	102.818077	-51.650161	102.818077	-0.126203	-93.580689
3.900000	-0.128267	-94.717574	-51.327808	101.188074	-51.327808	101.188074	-0.128194	-94.693876
3.950000	-0.130283	-95.828972	-51.012569	99.548042	-51.012569	99.548042	-0.130209	-95.804771
4.000000	-0.132324	-96.938132	-50.704225	97.899076	-50.704225	97.899076	-0.132247	-96.913420
4.050000	-0.134389	-98.045101	-50.402560	96.242197	-50.402560	96.242197	-0.134311	-98.019870
4.100000	-0.136480	-99.149929	-50.107360	94.578358	-50.107360	94.578358	-0.136400	-99.124171
4.150000	-0.138596	-100.252667	-49.818418	92.908443	-49.818418	92.908443	-0.138515	-100.226373
4.200000	-0.140740	-101.353367	-49.535527	91.233271	-49.535527	91.233271	-0.140657	-101.326529
4.250000	-0.142911	-102.452083	-49.258486	89.553598	-49.258486	89.553598	-0.142826	-102.424692
4.300000	-0.145111	-103.548869	-48.987099	87.870117	-48.987099	87.870117	-0.145024	-103.520916
4.350000	-0.147339	-104.643782	-48.721171	86.183461	-48.721171	86.183461	-0.147251	-104.615259
4.400000	-0.149597	-105.736880	-48.460513	84.494206	-48.460513	84.494206	-0.149508	-105.707778
4.450000	-0.151886	-106.828222	-48.204941	82.802870	-48.204941	82.802870	-0.151795	-106.798531
4.500000	-0.154205	-107.917868	-47.954273	81.109921	-47.954273	81.109921	-0.154113	-107.887580
4.550000	-0.156556	-109.005881	-47.708332	79.415770	-47.708332	79.415770	-0.156462	-108.974985
4.600000	-0.158940	-110.092323	-47.466947	77.720783	-47.466947	77.720783	-0.158845	-110.060811
4.650000	-0.161357	-111.177259	-47.229952	76.025275	-47.229952	76.025275	-0.161260	-111.145120
4.700000	-0.163808	-112.260755	-46.997182	74.329516	-46.997182	74.329516	-0.163709	-112.227979
4.750000	-0.166293	-113.342877	-46.768481	72.633734	-46.768481	72.633734	-0.166193	-113.309456
4.800000	-0.168813	-114.423696	-46.543695	70.938115	-46.543695	70.938115	-0.168712	-114.389617
4.850000	-0.171369	-115.503279	-46.322676	69.242804	-46.322676	69.242804	-0.171266	-115.468534
4.900000	-0.173962	-116.581700	-46.105282	67.547912	-46.105282	67.547912	-0.173857	-116.546277
4.950000	-0.176591	-117.659030	-45.891374	65.853513	-45.891374	65.853513	-0.176485	-117.622918
5.000000	-0.179259	-118.735343	-45.680819	64.159647	-45.680819	64.159647	-0.179151	-118.698532
5.050000	-0.181966	-119.810677	-45.473411	62.466348	-45.473411	62.466348	-0.181857	-119.773155
5.100000	-0.184712	-120.885154	-45.269107	60.773569	-45.269107	60.773569	-0.184601	-120.846909
5.150000	-0.187498	-121.958851	-45.067788	59.081259	-45.067788	59.081259	-0.187385	-121.919872
5.200000	-0.190324	-123.031849	-44.869340	57.389344	-44.869340	57.389344	-0.190209	-122.992124
5.250000	-0.193191	-124.104228	-44.673653	55.697725	-44.673653	55.697725	-0.193074	-124.063745
5.300000	-0.196099	-125.176071	-44.480625	54.006279	-44.480625	54.006279	-0.195980	-125.134818
5.350000	-0.199049	-126.247463	-44.290155	52.314866	-44.290155	52.314866	-0.198928	-126.205426
5.400000	-0.202041	-127.318488	-44.102149	50.623325	-44.102149	50.623325	-0.201918	-127.275656
5.450000	-0.205076	-128.389235	-43.916516	48.931477	-43.916516	48.931477	-0.204951	-128.345593
5.500000	-0.208155	-129.459791	-43.733171	47.239127	-43.733171	47.239127	-0.208027	-129.415327
5.550000	-0.211278	-130.530247	-43.552031	45.546065	-43.552031	45.546065	-0.211147	-130.484947
5.600000	-0.214445	-131.600695	-43.373018	43.852065	-43.373018	43.852065	-0.214312	-131.554546
5.650000	-0.217657	-132.671229	-43.196060	42.156889	-43.196060	42.156889	-0.217521	-132.624216
5.700000	-0.220915	-133.741945	-43.021085	40.460285	-43.021085	40.460285	-0.220776	-133.694053
5.750000	-0.224218	-134.812939	-42.848027	38.761990	-42.848027	38.761990	-0.224077	-134.764154
5.800000	-0.227568	-135.884312	-42.676822	37.061727	-42.676822	37.061727	-0.227424	-135.834617
5.850000	-0.230966	-136.956164	-42.507410	35.359211	-42.507410	35.359211	-0.230817	-136.905545
5.900000	-0.234410	-138.028598	-42.339734	33.654141	-42.339734	33.654141	-0.234259	-137.977039
5.950000	-0.237903	-139.101721	-42.173739	31.946210	-42.173739	31.946210	-0.237748	-139.049206
6.000000	-0.241444	-140.175641	-42.009371	30.235094	-42.009371	30.235094	-0.241285	-140.122152
6.050000	-0.245034	-141.250467	-41.846580	28.520462	-41.846580	28.520462	-0.244872	-141.195988
6.100000	-0.248674	-142.326312	-41.685317	26.801965	-41.685317	26.801965	-0.248508	-142.270826
6.150000	-0.252364	-143.403293	-41.525533	25.079243	-41.525533	25.079243	-0.252194	-143.346781
6.200000	-0.256105	-144.481528	-41.367181	23.351922	-41.367181	23.351922	-0.255930	-144.423972
6.250000	-0.259898	-145.561139	-41.210213	21.619607	-41.210213	21.619607	-0.259718	-145.502521
6.300000	-0.263744	-146.642323	-41.054518	19.881630	-41.054518	19.881630	-0.263560	-146.582621
6.350000	-0.267644	-147.725150	-40.900111	18.137769	-40.900111	18.137769	-0.267455	-147.664345
6.400000	-0.271597	-148.809753	-40.746942	16.387561	-40.746942	16.387561	-0.271403	-148.747824
6.450000	-0.275605	-149.896272	-40.594957	14.630509	-40.594957	14.630509	-0.275405	-149.833198
6.500000	-0.279669	-150.984850	-40.444099	12.866080	-40.444099	12.866080	-0.279464	-150.920609
6.550000	-0.283789	-152.075637	-40.294307	11.093699	-40.294307	11.093699	-0.283579	-152.010207
6.600000	-0.287968	-153.168789	-40.145514	9.312741	-40.145514	9.312741	-0.287751	-153.102145
6.650000	-0.292207	-154.264469	-39.997646	7.522518	-39.997646	7.522518	-0.291984	-154.196588
6.700000	-0.296514	-155.363187	-39.850418	5.721001	-39.850418	5.721001	-0.296284	-155.294040
6.750000	-0.300872	-156.464197	-39.704290	3.910822	-39.704290	3.910822	-0.300635	-156.393763
6.800000	-0.305296	-157.568238	-39.558823	2.089061	-39.558823	2.089061	-0.305052	-157.496491
6.850000	-0.309805	-158.676364	-39.413402	0.251219	-39.413402	0.251219	-0.309553	-158.603267
6.900000	-0.314376	-159.787517	-39.268625	-1.598919	-39.268625	-1.598919	-0.314116	-159.713044
6.950000	-0.319012	-160.901800	-39.124417	-3.461965	-39.124417	-3.461965	-0.318744	-160.825925
7.000000	-0.323748	-162.020997	-38.979681	-5.345993	-38.979681	-5.345993	-0.323470	-161.943676
7.050000	-0.328574	-163.144593	-38.834625	-7.249798	-38.834625	-7.249798	-0.328287	-163.065790
7.100000	-0.333483	-164.272131	-38.689477	-9.171932	-38.689477	-9.171932	-0.333185	-164.191814
7.150000	-0.338487	-165.404171	-38.543847	-11.115515	-38.543847	-11.115515	-0.338178	-165.322299
7.200000	-0.343647	-166.543332	-38.395757	-13.095325	-38.395757	-13.095325	-0.343325	-166.459843
7.250000	-0.348927	-167.687639	-38.246371	-15.103107	-38.246371	-15.103107	-0.348591	-167.602486
7.300000	-0.354337	-168.837349	-38.095449	-17.141148	-38.095449	-17.141148	-0.353987	-168.750484
7.350000	-0.359955	-169.995172	-37.940659	-19.227127	-37.940659	-19.227127	-0.359586	-169.906516
7.400000	-0.365822	-171.161816	-37.780879	-21.369730	-37.780879	-21.369730	-0.365433	-171.071279
7.450000	-0.371933	-172.336243	-37.616762	-23.565343	-37.616762	-23.565343	-0.371519	-172.243739
7.500000	-0.378312	-173.518940	-37.447885	-25.818837	-37.447885	-25.818837	-0.377870	-173.424377
7.550000	-0.385246	-174.716479	-37.266899	-28.185337	-37.266899	-28.185337	-0.384765	-174.619670
7.600000	-0.392733	-175.926951	-37.075303	-30.657523	-37.075303	-30.657523	-0.392204	-175.827716
7.650000	-0.401123	-177.155869	-36.866161	-33.291120	-36.866161	-33.291120	-0.400526	-177.053921
7.700000	-0.410702	-178.405779	-36.635825	-36.121849	-36.635825	-36.121849	-0.410010	-178.300751
7.750000	-0.422185	-179.684153	-36.373913	-39.242270	-36.373913	-39.242270	-0.421347	-179.575472
7.800000	-0.436590	179.000573	-36.068420	-42.772526	-36.068420	-42.772526	-0.435517	179.113753
7.850000	-0.456349	177.630447	-35.691936	-46.991669	-35.691936	-46.991669	-0.454849	177.749589
7.900000	-0.486181	176.180382	-35.202039	-52.415558	-35.202039	-52.415558	-0.483822	176.307949
7.950000	-0.538092	174.606746	-34.511123	-60.395995	-34.511123	-60.395995	-0.533713	174.746893
8.000000	-0.646112	172.865117	-33.484835	-75.387581	-33.484835	-75.387581	-0.636037	173.021223
8.050000	-0.917240	171.221910	-33.282183	-117.745510	-33.282183	-117.745510	-0.889715	171.346125
8.100000	-1.365199	172.554312	-52.218470	161.108806	-52.218470	161.108806	-1.345871	172.318372
8.150000	-0.994092	174.963013	-42.934882	-28.149048	-42.934882	-28.149048	-1.029873	174.996670
8.200000	-0.658891	173.290399	-39.444883	-42.324498	-39.444883	-42.324498	-0.673507	173.457700
8.250000	-0.546937	171.317355	-37.949291	-52.346115	-37.949291	-52.346115	-0.552266	171.482090
8.300000	-0.509238	169.542697	-36.968577	-62.250434	-36.968577	-62.250434	-0.511083	169.699912
8.350000	-0.501884	167.884852	-36.181691	-74.455109	-36.181691	-74.455109	-0.501818	168.038959
8.400000	-0.519430	166.267179	-35.618479	-92.431103	-35.618479	-92.431103	-0.517448	166.420044
8.450000	-0.583611	164.741835	-36.023714	-122.196107	-36.023714	-122.196107	-0.579069	164.884213
8.500000	-0.675150	163.925049	-39.831552	-167.301855	-39.831552	-167.301855	-0.671978	164.044136
8.550000	-0.620069	163.263528	-48.589194	124.736956	-48.589194	124.736956	-0.618308	163.388898
8.600000	-0.559974	161.957954	-48.080710	27.934201	-48.080710	27.934201	-0.558523	162.084415
8.650000	-0.534748	160.537985	-44.265706	-3.421956	-44.265706	-3.421956	-0.533691	160.666621
8.700000	-0.524995	159.129974	-42.327289	-17.316338	-42.327289	-17.316338	-0.524187	159.261493
8.750000	-0.521972	157.740366	-41.196163	-25.896588	-41.196163	-25.896588	-0.521311	157.874867
8.800000	-0.522324	156.363247	-40.458556	-32.015958	-40.458556	-32.015958	-0.521751	156.500681
8.850000	-0.524495	154.992784	-39.934296	-36.802541	-39.934296	-36.802541	-0.523976	155.133091
8.900000	-0.527791	153.624992	-39.542734	-40.739916	-39.542734	-40.739916	-0.527306	153.768124
8.950000	-0.531761	152.257079	-39.232774	-44.150446	-39.232774	-44.150446	-0.531300	152.403010
9.000000	-0.536220	150.887053	-38.982335	-47.165194	-38.982335	-47.165194	-0.535775	151.035768
9.050000	-0.541038	149.513364	-38.775797	-49.881251	-38.775797	-49.881251	-0.540604	149.664862
9.100000	-0.546100	148.135204	-38.599970	-52.387146	-38.599970	-52.387146	-0.545675	148.289489
9.150000	-0.551377	146.750971	-38.450843	-54.704034	-38.450843	-54.704034	-0.550958	146.908056
9.200000	-0.556811	145.360186	-38.321470	-56.879962	-38.321470	-56.879962	-0.556396	145.520088
9.250000	-0.562362	143.962836	-38.207012	-58.948684	-38.207012	-58.948684	-0.561951	144.125573
9.300000	-0.568017	142.558068	-38.105714	-60.920438	-38.105714	-60.920438	-0.567609	142.723661
9.350000	-0.573760	141.145460	-38.015430	-62.809597	-38.015430	-62.809597	-0.573356	141.313932
9.400000	-0.579579	139.724645	-37.934489	-64.627378	-37.934489	-64.627378	-0.579178	139.896020
9.450000	-0.585463	138.295304	-37.861568	-66.382664	-37.861568	-66.382664	-0.585066	138.469607
9.500000	-0.591406	136.857151	-37.795601	-68.082588	-37.795601	-68.082588	-0.591012	137.034407
9.550000	-0.597400	135.409932	-37.735720	-69.732951	-37.735720	-69.732951	-0.597011	135.590167
9.600000	-0.603440	133.953420	-37.681207	-71.338519	-37.681207	-71.338519	-0.603056	134.136658
9.650000	-0.609524	132.487408	-37.631463	-72.903251	-37.631463	-72.903251	-0.609144	132.673673
9.700000	-0.615646	131.011709	-37.585982	-74.430468	-37.585982	-74.430468	-0.615273	131.201027
9.750000	-0.621805	129.526155	-37.544331	-75.922979	-37.544331	-75.922979	-0.621438	129.718548
9.800000	-0.627998	128.030592	-37.506140	-77.383179	-37.506140	-77.383179	-0.627639	128.226084
9.850000	-0.634224	126.524884	-37.471086	-78.813130	-37.471086	-78.813130	-0.633872	126.723494
9.900000	-0.640480	125.008905	-37.438887	-80.214616	-37.438887	-80.214616	-0.640137	125.210655
9.950000	-0.646765	123.482546	-37.409295	-81.589196	-37.409295	-81.589196	-0.646431	123.687455
10.000000	-0.653078	121.945710	-37.382092	-82.938240	-37.382092	-82.938240	-0.652755	122.153795
