! freq	dB(S11)	phase(S11)	dB(S12)	phase(S12)	
!     	dB(S21)	phase(S21)	dB(S22)	phase(S22)	
!S-par simulation data
#  GHz  S  DB  R 50
0.000000	-84.639008	0.000000	-0.000509	0.000000	-0.000509	0.000000	-84.639008	0.000000
0.050000	-43.389037	-91.162107	-0.004193	-2.532737	-0.004193	-2.532737	-43.388727	-91.157258
0.100000	-37.473852	-94.092259	-0.010001	-5.033620	-0.010001	-5.033620	-37.473969	-94.095471
0.150000	-34.003094	-96.964521	-0.014943	-7.521563	-0.014943	-7.521563	-34.003136	-96.971895
0.200000	-31.537155	-99.736498	-0.019496	-10.006705	-0.019496	-10.006705	-31.537185	-99.746393
0.250000	-29.626781	-102.436110	-0.024165	-12.490949	-0.024165	-12.490949	-29.626853	-102.448044
0.300000	-28.070548	-105.085018	-0.029147	-14.974136	-0.029147	-14.974136	-28.070680	-105.098868
0.350000	-26.760105	-107.697148	-0.034480	-17.455902	-0.034480	-17.455902	-26.760290	-107.712935
0.400000	-25.630600	-110.280882	-0.040151	-19.935967	-0.040151	-19.935967	-25.630821	-110.298695
0.450000	-24.640301	-112.841842	-0.046131	-22.414141	-0.046131	-22.414141	-24.640539	-112.861807
0.500000	-23.760273	-115.385178	-0.052377	-24.890434	-0.052377	-24.890434	-23.760510	-115.407427
0.550000	-22.969955	-117.914500	-0.058854	-27.364906	-0.058854	-27.364906	-22.970181	-117.939156
0.600000	-22.254197	-120.432601	-0.065535	-29.837655	-0.065535	-29.837655	-22.254404	-120.459771
0.650000	-21.601652	-122.941593	-0.072403	-32.308777	-0.072403	-32.308777	-21.601837	-122.971365
0.700000	-21.003317	-125.443381	-0.079442	-34.778419	-0.079442	-34.778419	-21.003480	-125.475817
0.750000	-20.451970	-127.939478	-0.086638	-37.246738	-0.086638	-37.246738	-20.452114	-127.974618
0.800000	-19.941878	-130.430997	-0.093984	-39.713861	-0.093984	-39.713861	-19.942007	-130.468863
0.850000	-19.468450	-132.918780	-0.101477	-42.179897	-0.101477	-42.179897	-19.468570	-132.959380
0.900000	-19.027725	-135.403559	-0.109111	-44.644966	-0.109111	-44.644966	-19.027840	-135.446888
0.950000	-18.616438	-137.885875	-0.116886	-47.109169	-0.116886	-47.109169	-18.616553	-137.931919
1.000000	-18.231845	-140.366147	-0.124800	-49.572592	-0.124800	-49.572592	-18.231963	-140.414889
1.050000	-17.871480	-142.844724	-0.132850	-52.035323	-0.132850	-52.035323	-17.871604	-142.896146
1.100000	-17.533268	-145.321866	-0.141035	-54.497432	-0.141035	-54.497432	-17.533400	-145.375947
1.150000	-17.215396	-147.797775	-0.149355	-56.958974	-0.149355	-56.958974	-17.215537	-147.854497
1.200000	-16.916268	-150.272614	-0.157809	-59.419995	-0.157809	-59.419995	-16.916419	-150.331964
1.250000	-16.634468	-152.746516	-0.166393	-61.880527	-0.166393	-61.880527	-16.634627	-152.808485
1.300000	-16.368810	-155.219584	-0.175106	-64.340580	-0.175106	-64.340580	-16.368974	-155.284169
1.350000	-16.118071	-157.691927	-0.183939	-66.800166	-0.183939	-66.800166	-16.118240	-157.759130
1.400000	-15.881223	-160.163635	-0.192884	-69.259277	-0.192884	-69.259277	-15.881394	-160.233464
1.450000	-15.657327	-162.634795	-0.201927	-71.717902	-0.201927	-71.717902	-15.657497	-162.707266
1.500000	-15.445524	-165.105495	-0.211049	-74.176037	-0.211049	-74.176037	-15.445690	-165.180627
1.550000	-15.245022	-167.575825	-0.220226	-76.633693	-0.220226	-76.633693	-15.245181	-167.653645
1.600000	-15.055137	-170.045882	-0.229428	-79.090913	-0.229428	-79.090913	-15.055286	-170.126421
1.650000	-14.875149	-172.515773	-0.238623	-81.547795	-0.238623	-81.547795	-14.875287	-172.599064
1.700000	-14.704508	-174.985612	-0.247773	-84.004494	-0.247773	-84.004494	-14.704630	-175.071694
1.750000	-14.542371	-177.455520	-0.256853	-86.461226	-0.256853	-86.461226	-14.542478	-177.544433
1.800000	-14.388314	-179.925629	-0.265835	-88.918252	-0.265835	-88.918252	-14.388403	179.982586
1.850000	-14.241798	177.603920	-0.274701	-91.375876	-0.274701	-91.375876	-14.241869	177.509221
1.900000	-14.102359	175.132967	-0.283442	-93.834434	-0.283442	-93.834434	-14.102412	175.035312
1.950000	-13.969501	172.661346	-0.292058	-96.294253	-0.292058	-96.294253	-13.969535	172.560694
2.000000	-13.842703	170.188891	-0.300560	-98.755622	-0.300560	-98.755622	-13.842718	170.085205
2.050000	-13.721513	167.715423	-0.308963	-101.218805	-0.308963	-101.218805	-13.721512	167.608668
2.100000	-13.605497	165.240757	-0.317284	-103.684035	-0.317284	-103.684035	-13.605479	165.130901
2.150000	-13.494232	162.764701	-0.325542	-106.151512	-0.325542	-106.151512	-13.494201	162.651718
2.200000	-13.387311	160.287058	-0.333758	-108.621406	-0.333758	-108.621406	-13.387267	160.170927
2.250000	-13.284334	157.807629	-0.341950	-111.093869	-0.341950	-111.093869	-13.284280	157.688335
2.300000	-13.184915	155.326212	-0.350138	-113.569035	-0.350138	-113.569035	-13.184852	155.203745
2.350000	-13.088675	152.842604	-0.358338	-116.047027	-0.358338	-116.047027	-13.088607	152.716963
2.400000	-12.995246	150.356605	-0.366567	-118.527965	-0.366567	-118.527965	-12.995173	150.227794
2.450000	-12.904265	147.868014	-0.374841	-121.011962	-0.374841	-121.011962	-12.904190	147.736045
2.500000	-12.815379	145.376637	-0.383176	-123.499131	-0.383176	-123.499131	-12.815304	145.241530
2.550000	-12.728253	142.882215	-0.391589	-125.989660	-0.391589	-125.989660	-12.728180	142.743997
2.600000	-12.642522	140.384626	-0.400094	-128.483591	-0.400094	-128.483591	-12.642452	140.243332
2.650000	-12.557855	137.883694	-0.408709	-130.981038	-0.408709	-130.981038	-12.557790	137.739367
2.700000	-12.473928	135.379253	-0.417449	-133.482114	-0.417449	-133.482114	-12.473867	135.231943
2.750000	-12.390423	132.871149	-0.426332	-135.986932	-0.426332	-135.986932	-12.390368	132.720912
2.800000	-12.307032	130.359236	-0.435376	-138.495604	-0.435376	-138.495604	-12.306983	130.206137
2.850000	-12.223455	127.843381	-0.444602	-141.008242	-0.444602	-141.008242	-12.223412	127.687491
2.900000	-12.139400	125.323463	-0.454028	-143.524953	-0.454028	-143.524953	-12.139362	125.164860
2.950000	-12.054585	122.799374	-0.463678	-146.045847	-0.463678	-146.045847	-12.054552	122.638143
3.000000	-11.968740	120.271019	-0.473572	-148.571026	-0.473572	-148.571026	-11.968709	120.107251
3.050000	-11.881602	117.738316	-0.483734	-151.100593	-0.483734	-151.100593	-11.881574	117.572107
3.100000	-11.792925	115.201194	-0.494190	-153.634645	-0.494190	-153.634645	-11.792898	115.032647
3.150000	-11.702440	112.659548	-0.504969	-156.173326	-0.504969	-156.173326	-11.702413	112.488772
3.200000	-11.609917	110.113331	-0.516099	-158.716727	-0.516099	-158.716727	-11.609889	109.940441
3.250000	-11.515179	107.562561	-0.527605	-161.264883	-0.527605	-161.264883	-11.515147	107.387675
3.300000	-11.418035	105.007217	-0.539517	-163.817869	-0.539517	-163.817869	-11.417999	104.830457
3.350000	-11.318425	102.447420	-0.551854	-166.375614	-0.551854	-166.375614	-11.318384	102.268910
3.400000	-11.215958	99.882887	-0.564674	-168.938486	-0.564674	-168.938486	-11.215911	99.702762
3.450000	-11.110617	97.313776	-0.577998	-171.506380	-0.577998	-171.506380	-11.110563	97.132171
3.500000	-11.002285	94.740105	-0.591860	-174.079345	-0.591860	-174.079345	-11.002222	94.557157
3.550000	-10.890863	92.161899	-0.606298	-176.657421	-0.606298	-176.657421	-10.890793	91.977749
3.600000	-10.776275	89.579190	-0.621349	-179.240635	-0.621349	-179.240635	-10.776197	89.393981
3.650000	-10.658467	86.992020	-0.637052	178.170992	-0.637052	178.170992	-10.658381	86.805896
3.700000	-10.537404	84.400436	-0.653448	175.577453	-0.653448	175.577453	-10.537310	84.213544
3.750000	-10.413076	81.804493	-0.670578	172.978754	-0.670578	172.978754	-10.412974	81.616979
3.800000	-10.285417	79.204193	-0.688498	170.374839	-0.688498	170.374839	-10.285309	79.016206
3.850000	-10.154535	76.599670	-0.707240	167.765816	-0.707240	167.765816	-10.154420	76.411357
3.900000	-10.020348	73.990901	-0.726873	165.151604	-0.726873	165.151604	-10.020229	73.802409
3.950000	-9.883330	71.378282	-0.747378	162.532647	-0.747378	162.532647	-9.883207	71.189747
4.000000	-9.743157	68.761587	-0.768873	159.908626	-0.768873	159.908626	-9.743031	68.573152
4.050000	-9.600031	66.141000	-0.791393	157.279727	-0.791393	157.279727	-9.599903	65.952803
4.100000	-9.454283	63.516784	-0.814952	154.646250	-0.814952	154.646250	-9.454154	63.328954
4.150000	-9.306062	60.889068	-0.839595	152.008324	-0.839595	152.008324	-9.305934	60.701727
4.200000	-9.155125	58.257722	-0.865462	149.365751	-0.865462	149.365751	-9.154998	58.070997
4.250000	-9.002230	55.623302	-0.892478	146.719212	-0.892478	146.719212	-9.002104	55.437300
4.300000	-8.847115	52.985687	-0.920799	144.068521	-0.920799	144.068521	-8.846991	52.800517
4.350000	-8.690247	50.345241	-0.950415	141.414121	-0.950415	141.414121	-8.690125	50.160997
4.400000	-8.531741	47.702114	-0.981402	138.756180	-0.981402	138.756180	-8.531621	47.518886
4.450000	-8.371909	45.056583	-1.013786	136.095033	-1.013786	136.095033	-8.371792	44.874446
4.500000	-8.210960	42.408867	-1.047623	133.430948	-1.047623	133.430948	-8.210845	42.227887
4.550000	-8.049159	39.759220	-1.082951	130.764247	-1.082951	130.764247	-8.049046	39.579448
4.600000	-7.886791	37.107890	-1.119799	128.095264	-1.119799	128.095264	-7.886680	36.929364
4.650000	-7.724091	34.455074	-1.158213	125.424291	-1.158213	125.424291	-7.723982	34.277815
4.700000	-7.561418	31.800960	-1.198186	122.751650	-1.198186	122.751650	-7.561310	31.624963
4.750000	-7.399021	29.145554	-1.239757	120.077497	-1.239757	120.077497	-7.398913	28.970781
4.800000	-7.237369	26.488714	-1.282859	117.401868	-1.282859	117.401868	-7.237263	26.315079
4.850000	-7.076914	23.829671	-1.327488	114.724078	-1.327488	114.724078	-7.076813	23.656983
4.900000	-6.918717	21.167091	-1.373408	112.042135	-1.373408	112.042135	-6.918635	20.994972
4.950000	-6.765117	18.498922	-1.420424	109.348478	-1.420424	109.348478	-6.765118	18.326506
5.000000	-6.624752	15.841893	-1.469838	106.611613	-1.469838	106.611613	-6.625211	15.667224
5.050000	-6.492935	13.538336	-1.551703	103.846024	-1.551703	103.846024	-6.495379	13.370220
5.100000	-6.280608	10.952299	-1.611086	101.400715	-1.611086	101.400715	-6.281846	10.796075
5.150000	-6.117993	8.206369	-1.657599	98.778131	-1.657599	98.778131	-6.118567	8.050621
5.200000	-5.965905	5.531018	-1.711640	96.128101	-1.711640	96.128101	-5.966265	5.375715
5.250000	-5.816994	2.885668	-1.769632	93.480130	-1.769632	93.480130	-5.817262	2.731182
5.300000	-5.670616	0.256278	-1.830227	90.837617	-1.830227	90.837617	-5.670838	0.102804
5.350000	-5.526797	-2.360556	-1.893101	88.202057	-1.893101	88.202057	-5.526994	-2.512911
5.400000	-5.385689	-4.966372	-1.958039	85.574407	-1.958039	85.574407	-5.385874	-5.117558
5.450000	-5.247407	-7.562238	-2.024818	82.954879	-2.024818	82.954879	-5.247587	-7.712238
5.500000	-5.112060	-10.148148	-2.093348	80.344059	-2.093348	80.344059	-5.112240	-10.296965
5.550000	-4.979824	-12.723184	-2.163616	77.743193	-2.163616	77.743193	-4.980008	-12.870835
5.600000	-4.850735	-15.287636	-2.235467	75.152293	-2.235467	75.152293	-4.850925	-15.434148
5.650000	-4.724916	-17.840674	-2.308859	72.572335	-2.308859	72.572335	-4.725115	-17.986079
5.700000	-4.602422	-20.381959	-2.383695	70.003782	-2.383695	70.003782	-4.602630	-20.526298
5.750000	-4.483310	-22.911009	-2.459890	67.447212	-2.459890	67.447212	-4.483529	-23.054325
5.800000	-4.367624	-25.427342	-2.537352	64.903172	-2.537352	64.903172	-4.367855	-25.569682
5.850000	-4.255468	-27.930032	-2.616000	62.372642	-2.616000	62.372642	-4.255712	-28.071448
5.900000	-4.146752	-30.419385	-2.695709	59.855365	-2.695709	59.855365	-4.147009	-30.559929
5.950000	-4.041532	-32.894679	-2.776386	57.352093	-2.776386	57.352093	-4.041803	-33.034407
6.000000	-3.939810	-35.355523	-2.857924	54.863242	-2.857924	54.863242	-3.940096	-35.494492
6.050000	-3.841580	-37.801558	-2.940212	52.389193	-2.940212	52.389193	-3.841881	-37.939829
6.100000	-3.746828	-40.232461	-3.023136	49.930284	-3.023136	49.930284	-3.747145	-40.370094
6.150000	-3.655532	-42.647945	-3.106578	47.486811	-3.106578	47.486811	-3.655864	-42.785003
6.200000	-3.567662	-45.047759	-3.190419	45.059030	-3.190419	45.059030	-3.568010	-45.184308
6.250000	-3.483183	-47.431696	-3.274538	42.647153	-3.274538	42.647153	-3.483548	-47.567801
6.300000	-3.402112	-49.799233	-3.358793	40.251701	-3.358793	40.251701	-3.402493	-49.934962
6.350000	-3.324346	-52.150589	-3.443071	37.872451	-3.443071	37.872451	-3.324744	-52.286012
6.400000	-3.249836	-54.485680	-3.527247	35.509480	-3.527247	35.509480	-3.250251	-54.620865
6.450000	-3.178527	-56.804460	-3.611196	33.162826	-3.611196	33.162826	-3.178959	-56.939479
6.500000	-3.110362	-59.106926	-3.694791	30.832481	-3.694791	30.832481	-3.110813	-59.241849
6.550000	-3.045282	-61.393113	-3.777906	28.518399	-3.777906	28.518399	-3.045751	-61.528013
6.600000	-2.983226	-63.663095	-3.860418	26.220490	-3.860418	26.220490	-2.983714	-63.798046
6.650000	-2.924131	-65.916986	-3.942201	23.938627	-3.942201	23.938627	-2.924638	-66.052062
6.700000	-2.867933	-68.154937	-4.023133	21.672643	-4.023133	21.672643	-2.868460	-68.290212
6.750000	-2.814568	-70.377133	-4.103093	19.422335	-4.103093	19.422335	-2.815116	-70.512684
6.800000	-2.763973	-72.583795	-4.181962	17.187464	-4.181962	17.187464	-2.764542	-72.719699
6.850000	-2.716083	-74.775181	-4.259620	14.967755	-4.259620	14.967755	-2.716674	-74.911513
6.900000	-2.670861	-76.951416	-4.335931	12.763059	-4.335931	12.763059	-2.671475	-77.088259
6.950000	-2.628245	-79.112834	-4.410776	10.573025	-4.410776	10.573025	-2.628882	-79.250266
7.000000	-2.588148	-81.259947	-4.484068	8.397120	-4.484068	8.397120	-2.588809	-81.398049
7.050000	-2.550510	-83.393136	-4.555698	6.234942	-4.555698	6.234942	-2.551197	-83.531989
7.100000	-2.515276	-85.512805	-4.625559	4.086065	-4.625559	4.086065	-2.515988	-85.652493
7.150000	-2.482392	-87.619387	-4.693548	1.950032	-4.693548	1.950032	-2.483130	-87.759995
7.200000	-2.451804	-89.713340	-4.759565	-0.173635	-4.759565	-0.173635	-2.452570	-89.854953
7.250000	-2.423464	-91.795142	-4.823510	-2.285441	-4.823510	-2.285441	-2.424258	-91.937849
7.300000	-2.397326	-93.865297	-4.885288	-4.385914	-4.885288	-4.385914	-2.398149	-94.009186
7.350000	-2.373345	-95.924329	-4.944806	-6.475603	-4.944806	-6.475603	-2.374198	-96.069491
7.400000	-2.351482	-97.972780	-5.001974	-8.555081	-5.001974	-8.555081	-2.352366	-98.119310
7.450000	-2.331700	-100.011216	-5.056702	-10.624939	-5.056702	-10.624939	-2.332615	-100.159210
7.500000	-2.313965	-102.040219	-5.108905	-12.685789	-5.108905	-12.685789	-2.314913	-102.189775
7.550000	-2.298290	-104.060212	-5.158436	-14.738098	-5.158436	-14.738098	-2.299271	-104.211433
7.600000	-2.284606	-106.072019	-5.205275	-16.782714	-5.205275	-16.782714	-2.285621	-106.225011
7.650000	-2.272889	-108.076279	-5.249345	-18.820309	-5.249345	-18.820309	-2.273939	-108.231149
7.700000	-2.263121	-110.073645	-5.290568	-20.851574	-5.290568	-20.851574	-2.264208	-110.230505
7.750000	-2.255289	-112.064788	-5.328869	-22.877219	-5.328869	-22.877219	-2.256413	-112.223754
7.800000	-2.249381	-114.050397	-5.364178	-24.897973	-5.364178	-24.897973	-2.250544	-114.211588
7.850000	-2.245392	-116.031176	-5.396422	-26.914584	-5.396422	-26.914584	-2.246595	-116.194717
7.900000	-2.243321	-118.007851	-5.425533	-28.927820	-5.425533	-28.927820	-2.244565	-118.173868
7.950000	-2.243170	-119.981160	-5.451444	-30.938469	-5.451444	-30.938469	-2.244457	-120.149789
8.000000	-2.244947	-121.951866	-5.474089	-32.947341	-5.474089	-32.947341	-2.246278	-122.123245
8.050000	-2.248664	-123.920747	-5.493404	-34.955266	-5.493404	-34.955266	-2.250042	-124.095021
8.100000	-2.254341	-125.888605	-5.509326	-36.963098	-5.509326	-36.963098	-2.255766	-126.065924
8.150000	-2.262021	-127.856269	-5.521757	-38.971734	-5.521757	-38.971734	-2.263496	-128.036793
8.200000	-2.271735	-129.824616	-5.530633	-40.982108	-5.530633	-40.982108	-2.273262	-130.008511
8.250000	-2.283496	-131.794522	-5.535934	-42.995144	-5.535934	-42.995144	-2.285077	-131.981960
8.300000	-2.297347	-133.766888	-5.537602	-45.011803	-5.537602	-45.011803	-2.298984	-133.958049
8.350000	-2.313398	-135.742772	-5.535470	-47.033243	-5.535470	-47.033243	-2.315095	-135.937850
8.400000	-2.331483	-137.722668	-5.529871	-49.059882	-5.529871	-49.059882	-2.333242	-137.921846
8.450000	-2.352008	-139.708359	-5.520157	-51.093776	-5.520157	-51.093776	-2.353832	-139.911861
8.500000	-2.374742	-141.700105	-5.506793	-53.135059	-5.506793	-53.135059	-2.376635	-141.908137
8.550000	-2.399947	-143.699511	-5.489425	-55.185512	-5.489425	-55.185512	-2.401912	-143.912309
8.600000	-2.427668	-145.707550	-5.468078	-57.246138	-5.468078	-57.246138	-2.429709	-145.925356
8.650000	-2.457914	-147.725033	-5.442856	-59.317750	-5.442856	-59.317750	-2.460035	-147.948095
8.700000	-2.491050	-149.754205	-5.413312	-61.402810	-5.413312	-61.402810	-2.493256	-149.982808
8.750000	-2.526792	-151.794521	-5.380046	-63.500568	-5.380046	-63.500568	-2.529086	-152.028924
8.800000	-2.565881	-153.850138	-5.342101	-65.615612	-5.342101	-65.615612	-2.568269	-154.090680
8.850000	-2.607868	-155.919472	-5.300351	-67.746032	-5.300351	-67.746032	-2.610355	-156.166444
8.900000	-2.653407	-158.006435	-5.254071	-69.896082	-5.254071	-69.896082	-2.655997	-158.260203
8.950000	-2.702394	-160.110940	-5.203655	-72.065543	-5.203655	-72.065543	-2.705095	-160.371857
9.000000	-2.755192	-162.235378	-5.148884	-74.256938	-5.148884	-74.256938	-2.758009	-162.503835
9.050000	-2.811962	-164.380899	-5.089845	-76.471422	-5.089845	-76.471422	-2.814902	-164.657306
9.100000	-2.873170	-166.550382	-5.026293	-78.712032	-5.026293	-78.712032	-2.876239	-166.835198
9.150000	-2.939055	-168.745254	-4.958319	-80.980216	-4.958319	-80.980216	-2.942262	-169.038963
9.200000	-3.010039	-170.967868	-4.885852	-83.278440	-4.885852	-83.278440	-3.013391	-171.270998
9.250000	-3.086531	-173.220316	-4.808902	-85.608900	-4.808902	-85.608900	-3.090038	-173.533435
9.300000	-3.168992	-175.504762	-4.727489	-87.973895	-4.727489	-87.973895	-3.172663	-175.828484
9.350000	-3.257971	-177.823613	-4.641620	-90.376028	-4.641620	-90.376028	-3.261816	-178.158606
9.400000	-3.354090	179.820615	-4.551315	-92.818075	-4.551315	-92.818075	-3.358122	179.473622
9.450000	-3.458063	177.425311	-4.456609	-95.303001	-4.456609	-95.303001	-3.462296	177.065521
9.500000	-3.570702	174.987782	-4.357557	-97.833972	-4.357557	-97.833972	-3.575152	174.614323
9.550000	-3.692940	172.505283	-4.254235	-100.414374	-4.254235	-100.414374	-3.697624	172.117195
9.600000	-3.825888	169.974813	-4.146723	-103.048097	-4.146723	-103.048097	-3.830828	169.571032
9.650000	-3.970839	167.393355	-4.035131	-105.739366	-4.035131	-105.739366	-3.976060	166.972699
9.700000	-4.129119	164.758779	-3.919691	-108.491804	-3.919691	-108.491804	-4.134650	164.319948
9.750000	-4.302353	162.068723	-3.800627	-111.309822	-3.800627	-111.309822	-4.308229	161.610272
9.800000	-4.492406	159.321197	-3.678219	-114.198105	-3.678219	-114.198105	-4.498670	158.841512
9.850000	-4.701429	156.514772	-3.552813	-117.161621	-3.552813	-117.161621	-4.708129	156.012048
9.900000	-4.931892	153.648825	-3.424832	-120.205612	-3.424832	-120.205612	-4.939088	153.121032
9.950000	-5.186638	150.723868	-3.294788	-123.335578	-3.294788	-123.335578	-5.194402	150.168713
10.000000	-5.468933	147.741958	-3.163301	-126.557246	-3.163301	-126.557246	-5.477351	147.156835
