! freq	dB(S11)	phase(S11)	dB(S12)	phase(S12)	
!     	dB(S21)	phase(S21)	dB(S22)	phase(S22)	
!S-par simulation data
#  GHz  S  DB  R 50
0.000000	-0.000000	-0.000000	-335.242211	180.000000	-335.242211	180.000000	-0.000000	0.000000
0.050000	-0.000139	-1.647612	-67.499204	-38.054281	-67.499204	-38.054281	-0.000072	-0.872414
0.100000	-0.000555	-3.294930	-65.962047	-19.583012	-65.962047	-19.583012	-0.000286	-1.744702
0.150000	-0.001243	-4.941661	-65.649888	-11.186767	-65.649888	-11.186767	-0.000641	-2.616738
0.200000	-0.002186	-6.587548	-65.583624	-6.045977	-65.583624	-6.045977	-0.001127	-3.488412
0.250000	-0.003371	-8.232329	-65.610181	-2.363279	-65.610181	-2.363279	-0.001739	-4.359615
0.300000	-0.004783	-9.875769	-65.685582	0.565646	-65.685582	0.565646	-0.002470	-5.230245
0.350000	-0.006401	-11.517655	-65.794060	3.056346	-65.794060	3.056346	-0.003308	-6.100213
0.400000	-0.008205	-13.157798	-65.928656	5.271408	-65.928656	5.271408	-0.004245	-6.969443
0.450000	-0.010186	-14.795834	-66.087443	7.291540	-66.087443	7.291540	-0.005275	-7.837783
0.500000	-0.012293	-16.431986	-66.264749	9.203842	-66.264749	9.203842	-0.006374	-8.705330
0.550000	-0.014518	-18.065973	-66.460838	11.032208	-66.460838	11.032208	-0.007538	-9.571971
0.600000	-0.016841	-19.697701	-66.674534	12.806845	-66.674534	12.806845	-0.008755	-10.437671
0.650000	-0.019235	-21.327407	-66.903656	14.553082	-66.903656	14.553082	-0.010012	-11.302532
0.700000	-0.021697	-22.954384	-67.149985	16.287652	-67.149985	16.287652	-0.011310	-12.166269
0.750000	-0.024202	-24.578919	-67.411079	18.034172	-67.411079	18.034172	-0.012633	-13.029005
0.800000	-0.026735	-26.200979	-67.685997	19.811760	-67.685997	19.811760	-0.013975	-13.890733
0.850000	-0.029282	-27.820320	-67.973802	21.646323	-67.973802	21.646323	-0.015329	-14.751361
0.900000	-0.031831	-29.437390	-68.272874	23.546061	-68.272874	23.546061	-0.016688	-15.611075
0.950000	-0.034376	-31.051933	-68.582084	25.537477	-68.582084	25.537477	-0.018047	-16.469775
1.000000	-0.036906	-32.663941	-68.899636	27.643121	-68.899636	27.643121	-0.019404	-17.327463
1.050000	-0.039418	-34.273409	-69.223272	29.886775	-69.223272	29.886775	-0.020753	-18.184140
1.100000	-0.041905	-35.880334	-69.550139	32.293211	-69.550139	32.293211	-0.022093	-19.039808
1.150000	-0.044363	-37.484714	-69.876629	34.887645	-69.876629	34.887645	-0.023421	-19.894466
1.200000	-0.046791	-39.086548	-70.198214	37.694783	-70.198214	37.694783	-0.024736	-20.748115
1.250000	-0.049186	-40.685834	-70.509281	40.737316	-70.509281	40.737316	-0.026037	-21.600752
1.300000	-0.051545	-42.282463	-70.801491	44.045318	-70.801491	44.045318	-0.027321	-22.452330
1.350000	-0.053870	-43.876543	-71.067664	47.618687	-71.067664	47.618687	-0.028590	-23.302888
1.400000	-0.056162	-45.468075	-71.298604	51.456384	-71.298604	51.456384	-0.029843	-24.152420
1.450000	-0.058420	-47.057060	-71.484469	55.542630	-71.484469	55.542630	-0.031081	-25.000918
1.500000	-0.060649	-48.643637	-71.618881	59.834023	-71.618881	59.834023	-0.032304	-25.848432
1.550000	-0.062844	-50.227560	-71.687260	64.301268	-71.687260	64.301268	-0.033513	-26.694848
1.600000	-0.065011	-51.808941	-71.685102	68.866005	-71.685102	68.866005	-0.034707	-27.540201
1.650000	-0.067150	-53.387786	-71.608425	73.447562	-71.608425	73.447562	-0.035888	-28.384479
1.700000	-0.069262	-54.963855	-71.449317	77.946219	-71.449317	77.946219	-0.037056	-29.227560
1.750000	-0.071351	-56.537623	-71.225258	82.297196	-71.225258	82.297196	-0.038213	-30.069634
1.800000	-0.073420	-58.108882	-70.935810	86.425247	-70.935810	86.425247	-0.039360	-30.910590
1.850000	-0.075469	-59.677645	-70.589320	90.275756	-70.589320	90.275756	-0.040497	-31.750414
1.900000	-0.077500	-61.243929	-70.195230	93.812094	-70.195230	93.812094	-0.041626	-32.589089
1.950000	-0.079516	-62.807752	-69.763131	97.014944	-69.763131	97.014944	-0.042747	-33.426601
2.000000	-0.081519	-64.369137	-69.302037	99.879763	-69.302037	99.879763	-0.043862	-34.262932
2.050000	-0.083511	-65.928109	-68.819946	102.413378	-68.819946	102.413378	-0.044971	-35.098066
2.100000	-0.085494	-67.484700	-68.323635	104.630507	-68.323635	104.630507	-0.046075	-35.931986
2.150000	-0.087470	-69.038941	-67.818643	106.550718	-67.818643	106.550718	-0.047175	-36.764676
2.200000	-0.089441	-70.590869	-67.309362	108.196029	-67.309362	108.196029	-0.048273	-37.596120
2.250000	-0.091409	-72.140526	-66.799180	109.589172	-66.799180	109.589172	-0.049369	-38.426300
2.300000	-0.093375	-73.687957	-66.290652	110.752426	-66.290652	110.752426	-0.050464	-39.255201
2.350000	-0.095343	-75.233210	-65.785652	111.706900	-65.785652	111.706900	-0.051558	-40.082806
2.400000	-0.097313	-76.776340	-65.285518	112.472147	-65.285518	112.472147	-0.052653	-40.909099
2.450000	-0.099287	-78.317405	-64.791171	113.065988	-64.791171	113.065988	-0.053750	-41.734066
2.500000	-0.101268	-79.856466	-64.303211	113.504492	-64.303211	113.504492	-0.054849	-42.557690
2.550000	-0.103257	-81.393510	-63.821154	113.796510	-63.821154	113.796510	-0.055951	-43.379897
2.600000	-0.105255	-82.928697	-63.346090	113.961385	-63.346090	113.961385	-0.057056	-44.200731
2.650000	-0.107265	-84.462101	-62.878050	114.010287	-62.878050	114.010287	-0.058166	-45.020178
2.700000	-0.109289	-85.993806	-62.416977	113.953111	-62.416977	113.953111	-0.059281	-45.838226
2.750000	-0.111326	-87.523896	-61.962748	113.798611	-61.962748	113.798611	-0.060402	-46.654860
2.800000	-0.113380	-89.052463	-61.515195	113.554525	-61.515195	113.554525	-0.061529	-47.470068
2.850000	-0.115452	-90.579600	-61.074127	113.227696	-61.074127	113.227696	-0.062663	-48.283840
2.900000	-0.117543	-92.105409	-60.639334	112.824173	-60.639334	112.824173	-0.063805	-49.096162
2.950000	-0.119654	-93.629993	-60.210600	112.349307	-60.210600	112.349307	-0.064955	-49.907025
3.000000	-0.121788	-95.153462	-59.787710	111.807830	-59.787710	111.807830	-0.066114	-50.716418
3.050000	-0.123945	-96.675929	-59.370453	111.203934	-59.370453	111.203934	-0.067282	-51.524332
3.100000	-0.126127	-98.197514	-58.958626	110.541331	-58.958626	110.541331	-0.068460	-52.330757
3.150000	-0.128335	-99.718340	-58.552039	109.823311	-58.552039	109.823311	-0.069649	-53.135686
3.200000	-0.130570	-101.238534	-58.150513	109.052794	-58.150513	109.052794	-0.070848	-53.939110
3.250000	-0.132835	-102.758228	-57.753883	108.232369	-57.753883	108.232369	-0.072059	-54.741022
3.300000	-0.135129	-104.277562	-57.362000	107.364339	-57.362000	107.364339	-0.073282	-55.541417
3.350000	-0.137455	-105.796675	-56.974728	106.450750	-56.974728	106.450750	-0.074517	-56.340287
3.400000	-0.139814	-107.315715	-56.591950	105.493427	-56.591950	105.493427	-0.075765	-57.137628
3.450000	-0.142206	-108.834834	-56.213561	104.493997	-56.213561	104.493997	-0.077027	-57.933435
3.500000	-0.144633	-110.354186	-55.839475	103.453916	-55.839475	103.453916	-0.078302	-58.727703
3.550000	-0.147096	-111.873932	-55.469619	102.374492	-55.469619	102.374492	-0.079591	-59.520431
3.600000	-0.149597	-113.394237	-55.103936	101.256904	-55.103936	101.256904	-0.080896	-60.311615
3.650000	-0.152135	-114.915271	-54.742384	100.102223	-54.742384	100.102223	-0.082215	-61.101253
3.700000	-0.154713	-116.437208	-54.384935	98.911426	-54.384935	98.911426	-0.083550	-61.889343
3.750000	-0.157331	-117.960227	-54.031575	97.685414	-54.031575	97.685414	-0.084901	-62.675886
3.800000	-0.159993	-119.484574	-53.681880	96.423572	-53.681880	96.423572	-0.086269	-63.460813
3.850000	-0.162697	-121.010391	-53.336317	95.128217	-53.336317	95.128217	-0.087654	-64.244193
3.900000	-0.165444	-122.537872	-52.994913	93.800108	-52.994913	93.800108	-0.089057	-65.026028
3.950000	-0.168235	-124.067213	-52.657707	92.439983	-52.657707	92.439983	-0.090477	-65.806318
4.000000	-0.171072	-125.598617	-52.324748	91.048574	-52.324748	91.048574	-0.091915	-66.585068
4.050000	-0.173955	-127.132290	-51.996095	89.626616	-51.996095	89.626616	-0.093372	-67.362279
4.100000	-0.176885	-128.668443	-51.671814	88.174860	-51.671814	88.174860	-0.094848	-68.137957
4.150000	-0.179862	-130.207292	-51.351983	86.694081	-51.351983	86.694081	-0.096344	-68.912107
4.200000	-0.182888	-131.749055	-51.036681	85.185086	-51.036681	85.185086	-0.097859	-69.684732
4.250000	-0.185963	-133.293958	-50.725997	83.648725	-50.725997	83.648725	-0.099394	-70.455841
4.300000	-0.189089	-134.842230	-50.420021	82.085896	-50.420021	82.085896	-0.100950	-71.225438
4.350000	-0.192265	-136.394103	-50.118845	80.497553	-50.118845	80.497553	-0.102527	-71.993533
4.400000	-0.195492	-137.949814	-49.822564	78.884708	-49.822564	78.884708	-0.104126	-72.760132
4.450000	-0.198771	-139.509607	-49.531268	77.248439	-49.531268	77.248439	-0.105747	-73.525246
4.500000	-0.202103	-141.073727	-49.245046	75.589889	-49.245046	75.589889	-0.107390	-74.288882
4.550000	-0.205488	-142.642424	-48.963983	73.910268	-48.963983	73.910268	-0.109055	-75.051052
4.600000	-0.208927	-144.215953	-48.688156	72.210854	-48.688156	72.210854	-0.110744	-75.811766
4.650000	-0.212420	-145.794575	-48.417631	70.492988	-48.417631	70.492988	-0.112456	-76.571037
4.700000	-0.215967	-147.378551	-48.152467	68.758072	-48.152467	68.758072	-0.114193	-77.328875
4.750000	-0.219570	-148.968149	-47.892709	67.007560	-47.892709	67.007560	-0.115954	-78.085296
4.800000	-0.223228	-150.563641	-47.638387	65.242956	-47.638387	65.242956	-0.117739	-78.840311
4.850000	-0.226942	-152.165303	-47.389516	63.465799	-47.389516	63.465799	-0.119551	-79.593937
4.900000	-0.230712	-153.773414	-47.146092	61.677653	-47.146092	61.677653	-0.121387	-80.346187
4.950000	-0.234538	-155.388258	-46.908095	59.880098	-46.908095	59.880098	-0.123251	-81.097079
5.000000	-0.238421	-157.010123	-46.675483	58.074709	-46.675483	58.074709	-0.125140	-81.846630
5.050000	-0.242363	-158.639630	-46.448170	56.262847	-46.448170	56.262847	-0.127059	-82.594799
5.100000	-0.246362	-160.276772	-46.226113	54.446373	-46.226113	54.446373	-0.129005	-83.341665
5.150000	-0.250418	-161.921845	-46.009202	52.626754	-46.009202	52.626754	-0.130979	-84.087246
5.200000	-0.254531	-163.575153	-45.797310	50.805386	-45.797310	50.805386	-0.132981	-84.831564
5.250000	-0.258700	-165.237001	-45.590287	48.983577	-45.590287	48.983577	-0.135013	-85.574639
5.300000	-0.262927	-166.907698	-45.387965	47.162529	-45.387965	47.162529	-0.137075	-86.316494
5.350000	-0.267210	-168.587554	-45.190158	45.343319	-45.190158	45.343319	-0.139166	-87.057151
5.400000	-0.271550	-170.276885	-44.996664	43.526889	-44.996664	43.526889	-0.141289	-87.796636
5.450000	-0.275940	-171.975022	-44.807283	41.713623	-44.807283	41.713623	-0.143439	-88.535082
5.500000	-0.280391	-173.684107	-44.621768	39.904855	-44.621768	39.904855	-0.145624	-89.272306
5.550000	-0.284898	-175.403614	-44.439891	38.100739	-44.439891	38.100739	-0.147841	-90.008434
5.600000	-0.289460	-177.133867	-44.261410	36.301545	-44.261410	36.301545	-0.150091	-90.743496
5.650000	-0.294076	-178.875312	-44.086074	34.507404	-44.086074	34.507404	-0.152375	-91.477510
5.700000	-0.298747	179.371715	-43.913633	32.718186	-43.913633	32.718186	-0.154693	-92.210508
5.750000	-0.303471	177.607007	-43.743848	30.933506	-43.743848	30.933506	-0.157046	-92.942533
5.800000	-0.308248	175.830241	-43.576483	29.152836	-43.576483	29.152836	-0.159435	-93.673620
5.850000	-0.313076	174.041090	-43.411311	27.375455	-43.411311	27.375455	-0.161859	-94.403803
5.900000	-0.317954	172.239230	-43.248119	25.600453	-43.248119	25.600453	-0.164320	-95.133120
5.950000	-0.322882	170.424337	-43.086710	23.826746	-43.086710	23.826746	-0.166818	-95.861608
6.000000	-0.327859	168.596089	-42.926906	22.053080	-42.926906	22.053080	-0.169355	-96.589309
6.050000	-0.332882	166.754169	-42.768551	20.278054	-42.768551	20.278054	-0.171930	-97.316264
6.100000	-0.337952	164.898259	-42.611514	18.500130	-42.611514	18.500130	-0.174544	-98.042518
6.150000	-0.343066	163.028046	-42.455688	16.717656	-42.455688	16.717656	-0.177200	-98.768117
6.200000	-0.348222	161.143224	-42.300995	14.928887	-42.300995	14.928887	-0.179896	-99.493109
6.250000	-0.353421	159.243490	-42.147387	13.132009	-42.147387	13.132009	-0.182635	-100.217547
6.300000	-0.358660	157.328208	-41.994810	11.324898	-41.994810	11.324898	-0.185417	-100.941473
6.350000	-0.363936	155.397415	-41.843310	9.505847	-41.843310	9.505847	-0.188244	-101.664958
6.400000	-0.369249	153.450830	-41.692929	7.672977	-41.692929	7.672977	-0.191116	-102.388061
6.450000	-0.374595	151.488179	-41.543734	5.824442	-41.543734	5.824442	-0.194034	-103.110846
6.500000	-0.379974	149.509201	-41.395817	3.958447	-41.395817	3.958447	-0.196999	-103.833382
6.550000	-0.385382	147.513645	-41.249293	2.073271	-41.249293	2.073271	-0.200013	-104.555738
6.600000	-0.390818	145.501271	-41.104294	0.167285	-41.104294	0.167285	-0.203077	-105.277992
6.650000	-0.396279	143.471855	-40.960967	-1.761037	-40.960967	-1.761037	-0.206193	-106.000225
6.700000	-0.401763	141.425185	-40.819469	-3.713105	-40.819469	-3.713105	-0.209362	-106.722522
6.750000	-0.407267	139.361067	-40.679963	-5.690213	-40.679963	-5.690213	-0.212585	-107.444977
6.800000	-0.412789	137.279323	-40.542608	-7.693536	-40.542608	-7.693536	-0.215864	-108.167689
6.850000	-0.418325	135.179794	-40.407558	-9.724142	-40.407558	-9.724142	-0.219202	-108.890763
6.900000	-0.423875	133.062144	-40.274961	-11.783325	-40.274961	-11.783325	-0.222601	-109.614321
6.950000	-0.429434	130.926253	-40.144945	-13.872016	-40.144945	-13.872016	-0.226064	-110.338492
7.000000	-0.435001	128.772222	-40.017603	-15.990766	-40.017603	-15.990766	-0.229593	-111.063403
7.050000	-0.440572	126.599982	-39.893001	-18.140426	-39.893001	-18.140426	-0.233190	-111.789201
7.100000	-0.446144	124.409490	-39.771168	-20.321886	-39.771168	-20.321886	-0.236859	-112.516045
7.150000	-0.451716	122.200731	-39.652094	-22.536112	-39.652094	-22.536112	-0.240604	-113.244108
7.200000	-0.457285	119.973718	-39.535724	-24.784209	-39.535724	-24.784209	-0.244428	-113.973578
7.250000	-0.462848	117.728494	-39.421950	-27.067467	-39.421950	-27.067467	-0.248337	-114.704665
7.300000	-0.468403	115.465134	-39.310615	-29.387424	-39.310615	-29.387424	-0.252335	-115.437595
7.350000	-0.473949	113.183744	-39.201499	-31.745929	-39.201499	-31.745929	-0.256429	-116.172623
7.400000	-0.479483	110.884466	-39.094323	-34.145206	-39.094323	-34.145206	-0.260625	-116.910029
7.450000	-0.485003	108.567477	-38.988738	-36.587923	-38.988738	-36.587923	-0.264931	-117.650124
7.500000	-0.490510	106.232988	-38.884324	-39.077259	-38.884324	-39.077259	-0.269358	-118.393257
7.550000	-0.496000	103.880881	-38.780554	-41.618180	-38.780554	-41.618180	-0.273917	-119.139903
7.600000	-0.501476	101.511827	-38.676831	-44.214158	-38.676831	-44.214158	-0.278620	-119.890440
7.650000	-0.506936	99.126153	-38.572458	-46.870426	-38.572458	-46.870426	-0.283482	-120.645371
7.700000	-0.512382	96.724227	-38.466619	-49.593051	-38.466619	-49.593051	-0.288520	-121.405267
7.750000	-0.517816	94.306453	-38.358369	-52.389028	-38.358369	-52.389028	-0.293756	-122.170781
7.800000	-0.523240	91.873275	-38.246605	-55.266370	-38.246605	-55.266370	-0.299215	-122.942663
7.850000	-0.528658	89.425175	-38.130038	-58.234204	-38.130038	-58.234204	-0.304928	-123.721780
7.900000	-0.534076	86.962673	-38.007161	-61.302878	-38.007161	-61.302878	-0.310933	-124.509141
7.950000	-0.539500	84.486324	-37.876203	-64.484061	-37.876203	-64.484061	-0.317278	-125.305922
8.000000	-0.544938	81.996716	-37.735071	-67.790845	-37.735071	-67.790845	-0.324019	-126.113512
8.050000	-0.550402	79.494472	-37.581291	-71.237840	-37.581291	-71.237840	-0.331230	-126.933556
8.100000	-0.555906	76.980243	-37.411919	-74.841253	-37.411919	-74.841253	-0.339003	-127.768020
8.150000	-0.561467	74.454590	-37.223148	-78.621064	-37.223148	-78.621064	-0.347464	-128.619487
8.200000	-0.567109	71.918239	-37.010578	-82.597542	-37.010578	-82.597542	-0.356773	-129.490959
8.250000	-0.572861	69.372030	-36.769368	-86.790110	-36.769368	-86.790110	-0.367127	-130.385850
8.300000	-0.578757	66.816689	-36.493437	-91.221671	-36.493437	-91.221671	-0.378801	-131.308631
8.350000	-0.584843	64.253061	-36.176450	-95.912444	-36.176450	-95.912444	-0.392135	-132.264347
8.400000	-0.591183	61.681728	-35.809140	-100.892260	-35.809140	-100.892260	-0.407662	-133.260598
8.450000	-0.597869	59.103243	-35.378899	-106.197590	-35.378899	-106.197590	-0.426202	-134.308196
8.500000	-0.605001	56.518603	-34.877304	-111.844004	-34.877304	-111.844004	-0.448677	-135.417104
8.550000	-0.612727	53.928451	-34.291401	-117.863199	-34.291401	-117.863199	-0.476584	-136.602877
8.600000	-0.621303	51.333243	-33.599306	-124.311862	-33.599306	-124.311862	-0.512612	-137.891452
8.650000	-0.631034	48.733840	-32.786294	-131.231946	-32.786294	-131.231946	-0.560403	-139.310915
8.700000	-0.642431	46.131103	-31.828973	-138.708324	-31.828973	-138.708324	-0.626475	-140.905910
8.750000	-0.656275	43.526562	-30.702154	-146.872496	-30.702154	-146.872496	-0.722133	-142.738575
8.800000	-0.673773	40.923419	-29.381448	-155.940586	-29.381448	-155.940586	-0.867702	-144.892435
8.850000	-0.696981	38.329726	-27.832865	-166.327503	-27.832865	-166.327503	-1.105397	-147.483407
8.900000	-0.728847	35.766508	-26.042905	-178.746966	-26.042905	-178.746966	-1.522392	-150.590145
8.950000	-0.772261	33.289039	-24.048427	165.522773	-24.048427	165.522773	-2.312261	-153.927027
9.000000	-0.821457	31.015471	-22.077405	144.633109	-22.077405	144.633109	-3.828491	-155.122701
9.050000	-0.839913	29.025521	-20.756979	117.769089	-20.756979	117.769089	-5.813496	-145.186451
9.100000	-0.789354	26.988054	-20.787227	89.152625	-20.787227	89.152625	-5.297924	-126.180220
9.150000	-0.718319	24.556537	-21.916942	65.400165	-21.916942	65.400165	-3.371902	-121.017387
9.200000	-0.673362	21.910596	-23.372974	48.003688	-23.372974	48.003688	-2.177401	-123.016059
9.250000	-0.652036	19.243420	-24.739128	35.223243	-24.739128	35.223243	-1.548541	-126.022678
9.300000	-0.643582	16.612026	-25.908587	25.373477	-25.908587	25.373477	-1.202037	-128.736740
9.350000	-0.641582	14.022129	-26.883683	17.404315	-26.883683	17.404315	-0.997371	-131.030517
9.400000	-0.642902	11.469040	-27.691618	10.705295	-27.691618	10.705295	-0.869068	-132.976437
9.450000	-0.646012	8.947645	-28.361612	4.908600	-28.361612	4.908600	-0.784725	-134.659625
9.500000	-0.650138	6.453840	-28.920569	-0.224599	-28.920569	-0.224599	-0.727000	-136.149108
9.550000	-0.654887	3.985102	-29.388464	-4.845534	-29.388464	-4.845534	-0.686452	-137.492829
9.600000	-0.660053	1.540323	-29.779524	-9.051850	-29.779524	-9.051850	-0.657638	-138.723356
9.650000	-0.665504	-0.882519	-30.110445	-12.936201	-30.110445	-12.936201	-0.636630	-139.870154
9.700000	-0.671182	-3.283589	-30.389571	-16.547718	-30.389571	-16.547718	-0.621389	-140.949459
9.750000	-0.677050	-5.663225	-30.625127	-19.930315	-30.625127	-19.930315	-0.610401	-141.975018
9.800000	-0.683088	-8.021584	-30.823789	-23.118676	-30.823789	-23.118676	-0.602626	-142.957276
9.850000	-0.689286	-10.358706	-30.991015	-26.140767	-30.991015	-26.140767	-0.597327	-143.904298
9.900000	-0.695641	-12.674557	-31.131304	-29.019542	-31.131304	-29.019542	-0.593978	-144.822410
9.950000	-0.702152	-14.969059	-31.248396	-31.774120	-31.248396	-31.774120	-0.592190	-145.716649
10.000000	-0.708820	-17.242109	-31.345422	-34.420628	-31.345422	-34.420628	-0.591677	-146.591084
