! freq	dB(S11)	phase(S11)	dB(S12)	phase(S12)	
!     	dB(S21)	phase(S21)	dB(S22)	phase(S22)	
!S-par simulation data
#  GHz  S  DB  R 50
0.000000	-151.587098	0.000000	-0.000000	0.000000	0.000000	0.000000	-157.607697	0.000000
0.050000	-30.871817	-93.459477	-0.007416	-3.325567	-0.007416	-3.325567	-30.871073	-93.428267
0.100000	-24.879905	-96.885943	-0.024555	-6.611569	-0.024555	-6.611569	-24.879474	-96.822798
0.150000	-21.401798	-100.260744	-0.047422	-9.869756	-0.047422	-9.869756	-21.401688	-100.165192
0.200000	-18.957935	-103.581967	-0.075889	-13.110090	-0.075889	-13.110090	-18.958041	-103.454515
0.250000	-17.083732	-106.855844	-0.110318	-16.332729	-0.110318	-16.332729	-17.083923	-106.697943
0.300000	-15.571709	-110.090926	-0.150664	-19.535094	-0.150664	-19.535094	-15.571854	-109.904489
0.350000	-14.311885	-113.293071	-0.196780	-22.713693	-0.196780	-22.713693	-14.311851	-113.079985
0.400000	-13.237658	-116.466507	-0.248194	-25.866182	-0.248194	-25.866182	-13.237336	-116.228179
0.450000	-12.307561	-119.610608	-0.304681	-28.988815	-0.304681	-28.988815	-12.306919	-119.348029
0.500000	-11.489964	-122.726230	-0.365404	-32.082302	-0.365404	-32.082302	-11.489097	-122.440322
0.550000	-10.766482	-125.807175	-0.430267	-35.142029	-0.430267	-35.142029	-10.765579	-125.499629
0.600000	-10.120510	-128.851927	-0.498599	-38.168357	-0.498599	-38.168357	-10.119758	-128.525272
0.650000	-9.541686	-131.856395	-0.570043	-41.158472	-0.570043	-41.158472	-9.541206	-131.513978
0.700000	-9.019400	-134.822459	-0.643961	-44.114082	-0.643961	-44.114082	-9.019227	-134.467652
0.750000	-8.546529	-137.749912	-0.719943	-47.034628	-0.719943	-47.034628	-8.546652	-137.386135
0.800000	-8.118116	-140.637105	-0.797593	-49.918115	-0.797593	-49.918115	-8.118504	-140.267967
0.850000	-7.728658	-143.485360	-0.876425	-52.765376	-0.876425	-52.765376	-7.729280	-143.114480
0.900000	-7.373632	-146.295732	-0.956017	-55.577207	-0.956017	-55.577207	-7.374466	-145.926849
0.950000	-7.049512	-149.068598	-1.035967	-58.353922	-1.035967	-58.353922	-7.050546	-148.705712
1.000000	-6.753172	-151.804633	-1.115889	-61.096224	-1.115889	-61.096224	-6.754402	-151.452031
1.050000	-6.481907	-154.504598	-1.195420	-63.804978	-1.195420	-63.804978	-6.483336	-154.166890
1.100000	-6.233362	-157.169347	-1.274218	-66.481191	-1.274218	-66.481191	-6.234998	-156.851496
1.150000	-6.005478	-159.799829	-1.351963	-69.125993	-1.351963	-69.125993	-6.007333	-159.507164
1.200000	-5.796442	-162.397077	-1.428356	-71.740621	-1.428356	-71.740621	-5.798534	-162.135316
1.250000	-5.604657	-164.962194	-1.503122	-74.326398	-1.503122	-74.326398	-5.607002	-164.737464
1.300000	-5.428951	-167.495703	-1.575948	-76.884160	-1.575948	-76.884160	-5.431570	-167.314706
1.350000	-5.267792	-169.999519	-1.646651	-79.415993	-1.646651	-79.415993	-5.270709	-169.869271
1.400000	-5.120063	-172.474892	-1.715021	-81.923404	-1.715021	-81.923404	-5.123301	-172.402880
1.450000	-4.984765	-174.923094	-1.780867	-84.407932	-1.780867	-84.407932	-4.988352	-174.917297
1.500000	-4.861508	-177.344050	-1.843839	-86.870042	-1.843839	-86.870042	-4.865475	-177.413448
1.550000	-4.748560	-179.741579	-1.904095	-89.313403	-1.904095	-89.313403	-4.752938	-179.894871
1.600000	-4.645630	177.884187	-1.961362	-91.738654	-1.961362	-91.738654	-4.650453	177.637361
1.650000	-4.552079	175.531983	-2.015518	-94.147388	-2.015518	-94.147388	-4.557384	175.181371
1.700000	-4.467334	173.200567	-2.066458	-96.541196	-2.066458	-96.541196	-4.473161	172.735267
1.750000	-4.390881	170.888722	-2.114092	-98.921664	-2.114092	-98.921664	-4.397275	170.297146
1.800000	-4.322261	168.595264	-2.158342	-101.290366	-2.158342	-101.290366	-4.329270	167.865092
1.850000	-4.261064	166.319043	-2.199142	-103.648866	-2.199142	-103.648866	-4.268740	165.437181
1.900000	-4.206925	164.058951	-2.236442	-105.998712	-2.236442	-105.998712	-4.215323	163.011480
1.950000	-4.159518	161.813922	-2.270199	-108.341437	-2.270199	-108.341437	-4.168700	160.586046
2.000000	-4.118556	159.582939	-2.300385	-110.678557	-2.300385	-110.678557	-4.128586	158.158928
2.050000	-4.083784	157.365032	-2.326980	-113.011568	-2.326980	-113.011568	-4.094734	155.728161
2.100000	-4.054978	155.159287	-2.349975	-115.341947	-2.349975	-115.341947	-4.066926	153.291767
2.150000	-4.031946	152.964845	-2.369370	-117.671152	-2.369370	-117.671152	-4.044974	150.847755
2.200000	-4.014519	150.780906	-2.385175	-120.000621	-2.385175	-120.000621	-4.028718	148.394113
2.250000	-4.002554	148.606732	-2.397409	-122.331772	-2.397409	-122.331772	-4.018022	145.928810
2.300000	-3.995933	146.441652	-2.406100	-124.666001	-2.406100	-124.666001	-4.012773	143.449792
2.350000	-3.994554	144.285065	-2.411284	-127.004684	-2.411284	-127.004684	-4.012883	140.954974
2.400000	-3.998341	142.136442	-2.413005	-129.349177	-2.413005	-129.349177	-4.018281	138.442242
2.450000	-4.007233	139.995334	-2.411316	-131.700812	-2.411316	-131.700812	-4.028918	135.909449
2.500000	-4.021186	137.861371	-2.406280	-134.060901	-2.406280	-134.060901	-4.044761	133.354405
2.550000	-4.040388	135.734566	-2.397825	-136.431216	-2.397825	-136.431216	-4.066018	130.773705
2.600000	-4.064610	133.614437	-2.386176	-138.812649	-2.386176	-138.812649	-4.092465	128.166030
2.650000	-4.093853	131.500914	-2.371422	-141.206437	-2.371422	-141.206437	-4.124119	125.529040
2.700000	-4.128132	129.394037	-2.353656	-143.613788	-2.353656	-143.613788	-4.161008	122.860333
2.750000	-4.167469	127.293961	-2.332983	-146.035885	-2.332983	-146.035885	-4.203177	120.157448
2.800000	-4.211901	125.200968	-2.309516	-148.473877	-2.309516	-148.473877	-4.250676	117.417850
2.850000	-4.261468	123.115473	-2.283376	-150.928883	-2.283376	-150.928883	-4.303569	114.638934
2.900000	-4.316219	121.038035	-2.254693	-153.401985	-2.254693	-153.401985	-4.361926	111.818013
2.950000	-4.375731	118.968442	-2.223840	-155.892272	-2.223840	-155.892272	-4.425323	108.956927
3.000000	-4.440958	116.909204	-2.190506	-158.404329	-2.190506	-158.404329	-4.494789	106.044432
3.050000	-4.511532	114.860619	-2.155068	-160.937471	-2.155068	-160.937471	-4.569962	103.081415
3.100000	-4.587504	112.823921	-2.117690	-163.492605	-2.117690	-163.492605	-4.650926	100.064819
3.150000	-4.668971	110.800702	-2.078526	-166.070844	-2.078526	-166.070844	-4.737816	96.990823
3.200000	-4.755966	108.792663	-2.037766	-168.673008	-2.037766	-168.673008	-4.830704	93.856036
3.250000	-4.848458	106.801532	-1.995621	-171.299577	-1.995621	-171.299577	-4.929597	90.657676
3.300000	-4.946449	104.829408	-1.952290	-173.951206	-1.952290	-173.951206	-5.034540	87.392224
3.350000	-5.049915	102.878623	-1.907980	-176.628477	-1.907980	-176.628477	-5.145557	84.056047
3.400000	-5.158804	100.951747	-1.862904	-179.331889	-1.862904	-179.331889	-5.262645	80.645393
3.450000	-5.273023	99.051585	-1.817284	177.938147	-1.817284	177.938147	-5.385766	77.156400
3.500000	-5.392437	97.181172	-1.771345	175.181311	-1.771345	175.181311	-5.514838	73.585103
3.550000	-5.516854	95.343760	-1.725317	172.397386	-1.725317	172.397386	-5.649729	69.927452
3.600000	-5.646022	93.542795	-1.679437	169.586254	-1.679437	169.586254	-5.790243	66.179331
3.650000	-5.779613	91.781887	-1.633939	166.747910	-1.633939	166.747910	-5.936109	62.336594
3.700000	-5.917219	90.064762	-1.589064	163.882462	-1.589064	163.882462	-6.086974	58.395103
3.750000	-6.058335	88.395204	-1.545049	160.990134	-1.545049	160.990134	-6.242382	54.350789
3.800000	-6.202348	86.778178	-1.502156	158.070705	-1.502156	158.070705	-6.401771	50.197317
3.850000	-6.348500	85.216280	-1.460604	155.125234	-1.460604	155.125234	-6.564401	45.933255
3.900000	-6.495940	83.712890	-1.420621	152.154318	-1.420621	152.154318	-6.729429	41.555302
3.950000	-6.643691	82.270990	-1.382426	149.158673	-1.382426	149.158673	-6.895866	37.060676
4.000000	-6.790645	80.892999	-1.346232	146.139135	-1.346232	146.139135	-7.062561	32.447284
4.050000	-6.935566	79.580589	-1.312238	143.096652	-1.312238	143.096652	-7.228205	27.713927
4.100000	-7.077103	78.334481	-1.280632	140.032281	-1.280632	140.032281	-7.391324	22.860526
4.150000	-7.213800	77.154244	-1.251586	136.947179	-1.251586	136.947179	-7.550299	17.888363
4.200000	-7.344125	76.038095	-1.225256	133.842593	-1.225256	133.842593	-7.703381	12.800334
4.250000	-7.466500	74.982717	-1.201781	130.719851	-1.201781	130.719851	-7.848721	7.601191
4.300000	-7.579346	73.983120	-1.181278	127.580348	-1.181278	127.580348	-7.984420	2.297746
4.350000	-7.681128	73.032561	-1.163847	124.425533	-1.163847	124.425533	-8.108575	-3.100966
4.400000	-7.770254	72.122855	-1.149598	121.256763	-1.149598	121.256763	-8.219177	-8.584385
4.450000	-7.845420	71.243405	-1.138588	118.075600	-1.138588	118.075600	-8.314494	-14.138398
4.500000	-7.905729	70.381982	-1.130812	114.883715	-1.130812	114.883715	-8.393232	-19.746302
4.550000	-7.950400	69.525600	-1.126279	111.682616	-1.126279	111.682616	-8.454221	-25.390566
4.600000	-7.978952	68.660440	-1.124974	108.473785	-1.124974	108.473785	-8.496646	-31.052363
4.650000	-7.991231	67.772272	-1.126861	105.258661	-1.126861	105.258661	-8.520084	-36.712114
4.700000	-7.987411	66.846902	-1.131884	102.038622	-1.131884	102.038622	-8.524526	-42.350101
4.750000	-7.967984	65.870614	-1.139966	98.814977	-1.139966	98.814977	-8.510374	-47.947086
4.800000	-7.933729	64.830560	-1.151013	95.588945	-1.151013	95.588945	-8.478408	-53.484899
4.850000	-7.885676	63.715099	-1.164916	92.361648	-1.164916	92.361648	-8.429747	-58.946940
4.900000	-7.825046	62.514028	-1.181548	89.134099	-1.181548	89.134099	-8.365775	-64.318569
4.950000	-7.753206	61.218735	-1.200771	85.907192	-1.200771	85.907192	-8.288078	-69.587352
5.000000	-7.671605	59.822246	-1.222437	82.681696	-1.222437	82.681696	-8.198364	-74.743186
5.050000	-7.581561	58.316791	-1.246433	79.458305	-1.246433	79.458305	-8.098184	-79.775533
5.100000	-7.484770	56.700809	-1.272544	76.237481	-1.272544	76.237481	-7.989571	-84.681422
5.150000	-7.382652	54.971881	-1.300600	73.019579	-1.300600	73.019579	-7.874213	-89.457430
5.200000	-7.276541	53.128742	-1.330432	69.804815	-1.330432	69.804815	-7.753697	-94.101898
5.250000	-7.167674	51.171087	-1.361871	66.593265	-1.361871	66.593265	-7.629479	-98.614672
5.300000	-7.057170	49.099368	-1.394748	63.384870	-1.394748	63.384870	-7.502872	-102.996844
5.350000	-6.946028	46.914615	-1.428899	60.179435	-1.428899	60.179435	-7.375035	-107.250502
5.400000	-6.835125	44.618259	-1.464168	56.976636	-1.464168	56.976636	-7.246971	-111.378506
5.450000	-6.725238	42.201384	-1.500468	53.776186	-1.500468	53.776186	-7.119477	-115.372655
5.500000	-6.617040	39.686028	-1.537517	50.577118	-1.537517	50.577118	-6.993447	-119.259230
5.550000	-6.511019	37.064416	-1.575256	47.378938	-1.575256	47.378938	-6.869337	-123.031635
5.600000	-6.407610	34.338282	-1.613567	44.180838	-1.613567	44.180838	-6.747604	-126.694108
5.650000	-6.306881	31.522452	-1.652317	40.982148	-1.652317	40.982148	-6.628413	-130.264150
5.700000	-6.209639	28.590612	-1.691476	37.781494	-1.691476	37.781494	-6.512365	-133.718001
5.750000	-6.115820	25.558460	-1.730928	34.577878	-1.730928	34.577878	-6.399471	-137.074823
5.800000	-6.025547	22.426893	-1.770613	31.370104	-1.770613	31.370104	-6.289816	-140.338728
5.850000	-5.938882	19.196526	-1.810488	28.156894	-1.810488	28.156894	-6.183414	-143.513707
5.900000	-5.855836	15.867688	-1.850530	24.936896	-1.850530	24.936896	-6.080225	-146.603607
5.950000	-5.776371	12.440425	-1.890734	21.708688	-1.890734	21.708688	-5.980151	-149.612135
6.000000	-5.700405	8.914502	-1.931118	18.470786	-1.931118	18.470786	-5.883051	-152.542855
6.050000	-5.627816	5.289419	-1.971720	15.221650	-1.971720	15.221650	-5.788741	-155.399197
6.100000	-5.558444	1.564427	-2.012601	11.959690	-2.012601	11.959690	-5.697000	-158.184472
6.150000	-5.492093	-2.261449	-2.053846	8.683275	-2.053846	8.683275	-5.607573	-160.901889
6.200000	-5.428532	-6.189381	-2.095566	5.390737	-2.095566	5.390737	-5.520174	-163.554572
6.250000	-5.367498	-10.220706	-2.137898	2.080384	-2.137898	2.080384	-5.434491	-166.145591
6.300000	-5.308723	-14.359200	-2.181022	-1.249960	-2.181022	-1.249960	-5.350190	-168.676777
6.350000	-5.251828	-18.604161	-2.225125	-4.601625	-2.225125	-4.601625	-5.266892	-171.152508
6.400000	-5.196446	-22.957154	-2.270434	-7.976326	-2.270434	-7.976326	-5.184216	-173.575854
6.450000	-5.142178	-27.419708	-2.317205	-11.375760	-2.317205	-11.375760	-5.101766	-175.949949
6.500000	-5.088592	-31.993246	-2.365730	-14.801592	-2.365730	-14.801592	-5.019134	-178.278027
6.550000	-5.035224	-36.679011	-2.416334	-18.255443	-2.416334	-18.255443	-4.935905	179.436546
6.600000	-4.981583	-41.477986	-2.469379	-21.738870	-2.469379	-21.738870	-4.851660	177.190237
6.650000	-4.927153	-46.390803	-2.525264	-25.253348	-2.525264	-25.253348	-4.765983	174.979317
6.700000	-4.871395	-51.417654	-2.584424	-28.800250	-2.584424	-28.800250	-4.678468	172.799837
6.750000	-4.813756	-56.558187	-2.647338	-32.380823	-2.647338	-32.380823	-4.588727	170.647602
6.800000	-4.753676	-61.811413	-2.714519	-35.996164	-2.714519	-35.996164	-4.496395	168.518161
6.850000	-4.690595	-67.175603	-2.786524	-39.647193	-2.786524	-39.647193	-4.401144	166.406804
6.900000	-4.623921	-72.649346	-2.864008	-43.335028	-2.864008	-43.335028	-4.302639	164.308645
6.950000	-4.553117	-78.229024	-2.947624	-47.060158	-2.947624	-47.060158	-4.200641	162.218294
7.000000	-4.477756	-83.908952	-3.037996	-50.822387	-3.037996	-50.822387	-4.095034	160.130191
7.050000	-4.397427	-89.683603	-3.135836	-54.621619	-3.135836	-54.621619	-3.985728	158.038762
7.100000	-4.311796	-95.546412	-3.241891	-58.457434	-3.241891	-58.457434	-3.872717	155.938348
7.150000	-4.220620	-101.489794	-3.356939	-62.329059	-3.356939	-62.329059	-3.756079	153.823273
7.200000	-4.123764	-107.505182	-3.481789	-66.235350	-3.481789	-66.235350	-3.635985	151.687935
7.250000	-4.021212	-113.583116	-3.617272	-70.174762	-3.617272	-70.174762	-3.512695	149.526893
7.300000	-3.913074	-119.713341	-3.764244	-74.145342	-3.764244	-74.145342	-3.386563	147.334968
7.350000	-3.799592	-125.884956	-3.923577	-78.144717	-3.923577	-78.144717	-3.258024	145.107337
7.400000	-3.681135	-132.086567	-4.096156	-82.170089	-4.096156	-82.170089	-3.127593	142.839621
7.450000	-3.558198	-138.306471	-4.282881	-86.218239	-4.282881	-86.218239	-2.995848	140.527963
7.500000	-3.431385	-144.532839	-4.484657	-90.285543	-4.484657	-90.285543	-2.863421	138.169093
7.550000	-3.301305	-150.753521	-4.702637	-94.368214	-4.702637	-94.368214	-2.730953	135.759242
7.600000	-3.168862	-156.956873	-4.937506	-98.461429	-4.937506	-98.461429	-2.599197	133.297498
7.650000	-3.034891	-163.131820	-5.190190	-102.560455	-5.190190	-102.560455	-2.468846	130.782578
7.700000	-2.900253	-169.267857	-5.461638	-106.660257	-5.461638	-106.660257	-2.340582	128.213830
7.750000	-2.765814	-175.355168	-5.752825	-110.755532	-5.752825	-110.755532	-2.215058	125.591188
7.800000	-2.632421	178.615276	-6.064771	-114.840735	-6.064771	-114.840735	-2.092885	122.915115
7.850000	-2.500883	172.651646	-6.398560	-118.910096	-6.398560	-118.910096	-1.974622	120.186526
7.900000	-2.371956	166.761201	-6.755364	-122.957619	-6.755364	-122.957619	-1.860766	117.406699
7.950000	-2.246328	160.950271	-7.136480	-126.977063	-7.136480	-126.977063	-1.751749	114.577193
8.000000	-2.124610	155.224244	-7.543368	-130.961891	-7.543368	-130.961891	-1.647932	111.699747
8.050000	-2.007334	149.587578	-7.977705	-134.905176	-7.977705	-134.905176	-1.549610	108.776193
8.100000	-1.894949	144.043828	-8.441448	-138.799449	-8.441448	-138.799449	-1.457008	105.808370
8.150000	-1.787867	138.596740	-8.936965	-142.635752	-8.936965	-142.635752	-1.370345	102.797602
8.200000	-1.686392	133.248213	-9.467013	-146.404378	-9.467013	-146.404378	-1.289734	99.745562
8.250000	-1.590696	127.998250	-10.034924	-150.094877	-10.034924	-150.094877	-1.215172	96.654115
8.300000	-1.500930	122.847185	-10.644867	-153.693795	-10.644867	-153.693795	-1.146670	93.524410
8.350000	-1.417143	117.793760	-11.302020	-157.185453	-11.302020	-157.185453	-1.084148	90.357653
8.400000	-1.339421	112.837775	-12.012905	-160.547582	-12.012905	-160.547582	-1.027598	87.154114
8.450000	-1.267830	107.978544	-12.785758	-163.749538	-12.785758	-163.749538	-0.976996	83.913696
8.500000	-1.202462	103.215731	-13.631081	-166.745452	-13.631081	-166.745452	-0.932364	80.635568
8.550000	-1.143155	98.544546	-14.562689	-169.479769	-14.562689	-169.479769	-0.893484	77.320091
8.600000	-1.089882	93.962319	-15.598752	-171.863228	-15.598752	-171.863228	-0.860288	73.966300
8.650000	-1.042618	89.466075	-16.763520	-173.756822	-16.763520	-173.756822	-0.832724	70.572836
8.700000	-1.001348	85.052572	-18.089564	-174.933738	-18.089564	-174.933738	-0.810760	67.137945
8.750000	-0.966077	80.718341	-19.620010	-175.003606	-19.620010	-175.003606	-0.794395	63.659469
8.800000	-0.937041	76.462205	-21.402931	-173.148766	-21.402931	-173.148766	-0.783859	60.133143
8.850000	-0.914104	72.277614	-23.469492	-167.946494	-23.469492	-167.946494	-0.779041	56.557437
8.900000	-0.897372	68.160620	-25.692811	-156.677882	-25.692811	-156.677882	-0.780073	52.928866
8.950000	-0.886999	64.107176	-27.355913	-136.360455	-27.355913	-136.360455	-0.787149	49.243481
9.000000	-0.883198	60.113170	-27.141740	-111.155446	-27.141740	-111.155446	-0.800533	45.496842
9.050000	-0.886243	56.174443	-25.221616	-92.368025	-25.221616	-92.368025	-0.820571	41.683986
9.100000	-0.896679	52.288031	-22.912052	-82.611125	-22.912052	-82.611125	-0.847902	37.797384
9.150000	-0.914836	48.448705	-20.814739	-78.330629	-20.814739	-78.330629	-0.882985	33.831869
9.200000	-0.941190	44.651860	-19.001932	-77.043022	-19.001932	-77.043022	-0.926459	29.781222
9.250000	-0.976389	40.893349	-17.431380	-77.490886	-17.431380	-77.490886	-0.979180	25.637883
9.300000	-1.021217	37.169047	-16.052274	-79.020974	-16.052274	-79.020974	-1.042192	21.393516
9.350000	-1.076624	33.474853	-14.823201	-81.277100	-14.823201	-81.277100	-1.116760	17.038931
9.400000	-1.143989	29.807104	-13.712259	-84.061760	-13.712259	-84.061760	-1.204653	12.561750
9.450000	-1.224831	26.161777	-12.696236	-87.249337	-12.696236	-87.249337	-1.307809	7.950271
9.500000	-1.320802	22.535192	-11.758250	-90.759219	-11.758250	-90.759219	-1.428275	3.194283
9.550000	-1.434222	18.925461	-10.885156	-94.546842	-10.885156	-94.546842	-1.568776	-1.719671
9.600000	-1.567942	15.333220	-10.067099	-98.585080	-10.067099	-98.585080	-1.732600	-6.806283
9.650000	-1.725329	11.763084	-9.296769	-102.858285	-9.296769	-102.858285	-1.923716	-12.081545
9.700000	-1.910408	8.225446	-8.568736	-107.360395	-8.568736	-107.360395	-2.147183	-17.564754
9.750000	-2.127822	4.738500	-7.879268	-112.092305	-7.879268	-112.092305	-2.409511	-23.279411
9.800000	-2.381139	1.325823	-7.226899	-117.048350	-7.226899	-117.048350	-2.717050	-29.240681
9.850000	-2.674590	-1.979592	-6.610912	-122.229823	-6.610912	-122.229823	-3.078334	-35.470944
9.900000	-3.012298	-5.134289	-6.031773	-127.637518	-6.031773	-127.637518	-3.503710	-41.994980
9.950000	-3.397990	-8.081689	-5.491005	-133.270116	-5.491005	-133.270116	-4.005766	-48.841071
10.000000	-3.834449	-10.748973	-4.991032	-139.122542	-4.991032	-139.122542	-4.599911	-56.043188
