! freq	dB(S11)	phase(S11)	dB(S12)	phase(S12)	
!     	dB(S21)	phase(S21)	dB(S22)	phase(S22)	
!S-par simulation data
#  GHz  S  DB  R 50
0.000000	-0.000000	0.000000	-352.206595	0.000000	-352.206595	0.000000	-0.000000	0.000000
0.050000	-0.001711	-2.884196	-100.939348	88.230843	-100.939348	88.230843	-0.000584	-0.765732
0.100000	-0.006117	-5.759944	-94.957620	86.467106	-94.957620	86.467106	-0.001771	-1.526252
0.150000	-0.011743	-8.623160	-91.500637	84.714784	-91.500637	84.714784	-0.002888	-2.282524
0.200000	-0.017428	-11.474196	-89.090717	82.980107	-89.090717	82.980107	-0.003794	-3.036867
0.250000	-0.022607	-14.314292	-87.267856	81.271382	-87.267856	81.271382	-0.004545	-3.790416
0.300000	-0.027140	-17.144749	-85.827363	79.598168	-85.827363	79.598168	-0.005220	-4.543563
0.350000	-0.031120	-19.966522	-84.657466	77.969150	-84.657466	77.969150	-0.005874	-5.296365
0.400000	-0.034671	-22.779535	-83.693999	76.395450	-83.693999	76.395450	-0.006542	-6.048745
0.450000	-0.037902	-25.582900	-82.899271	74.892977	-82.899271	74.892977	-0.007256	-6.800568
0.500000	-0.040928	-28.376390	-82.241833	73.472749	-82.241833	73.472749	-0.008042	-7.551761
0.550000	-0.043821	-31.159212	-81.702706	72.150959	-81.702706	72.150959	-0.008935	-8.302303
0.600000	-0.046629	-33.929949	-81.272237	70.953317	-81.272237	70.953317	-0.009985	-9.052319
0.650000	-0.049393	-36.688138	-80.938105	69.900146	-80.938105	69.900146	-0.011210	-9.802272
0.700000	-0.052135	-39.433090	-80.692817	69.018791	-80.692817	69.018791	-0.012568	-10.552763
0.750000	-0.054872	-42.163575	-80.534195	68.352245	-80.534195	68.352245	-0.013935	-11.304114
0.800000	-0.057611	-44.878845	-80.458831	67.948183	-80.458831	67.948183	-0.015181	-12.055884
0.850000	-0.060358	-47.578368	-80.463436	67.864009	-80.463436	67.864009	-0.016269	-12.807251
0.900000	-0.063112	-50.261529	-80.545768	68.175722	-80.545768	68.175722	-0.017240	-13.557640
0.950000	-0.065873	-52.927661	-80.703421	68.983806	-80.703421	68.983806	-0.018150	-14.306844
1.000000	-0.068637	-55.576209	-80.931469	70.415841	-80.931469	70.415841	-0.019041	-15.054871
1.050000	-0.071399	-58.206676	-81.220289	72.632697	-81.220289	72.632697	-0.019933	-15.801801
1.100000	-0.074155	-60.818615	-81.551551	75.828534	-81.551551	75.828534	-0.020837	-16.547715
1.150000	-0.076899	-63.411634	-81.892342	80.215884	-81.892342	80.215884	-0.021754	-17.292674
1.200000	-0.079626	-65.985393	-82.188331	85.977973	-82.188331	85.977973	-0.022686	-18.036720
1.250000	-0.082331	-68.539601	-82.360476	93.168379	-82.360476	93.168379	-0.023628	-18.779878
1.300000	-0.085008	-71.073584	-82.308411	101.580440	-82.308411	101.580440	-0.024581	-19.522147
1.350000	-0.087652	-73.587574	-81.960260	110.579730	-81.960260	110.579730	-0.025540	-20.263552
1.400000	-0.090260	-76.081426	-81.300133	119.346799	-81.300133	119.346799	-0.026506	-21.004096
1.450000	-0.092827	-78.555039	-80.379672	127.162982	-80.379672	127.162982	-0.027475	-21.743779
1.500000	-0.095351	-81.008353	-79.287175	133.638291	-79.287175	133.638291	-0.028446	-22.482597
1.550000	-0.097829	-83.441345	-78.108702	138.710468	-78.108702	138.710468	-0.029419	-23.220543
1.600000	-0.100257	-85.854033	-76.907933	142.514274	-76.907933	142.514274	-0.030393	-23.957613
1.650000	-0.102636	-88.246468	-75.724471	145.256000	-75.724471	145.256000	-0.031366	-24.693798
1.700000	-0.104964	-90.618737	-74.579848	147.141470	-74.579848	147.141470	-0.032339	-25.429088
1.750000	-0.107240	-92.970955	-73.484084	148.347561	-73.484084	148.347561	-0.033311	-26.163476
1.800000	-0.109463	-95.303269	-72.440522	149.016621	-72.440522	149.016621	-0.034282	-26.896951
1.850000	-0.111636	-97.615852	-71.448877	149.259945	-71.448877	149.259945	-0.035251	-27.629503
1.900000	-0.113756	-99.908692	-70.506486	149.160715	-70.506486	149.160715	-0.036220	-28.361110
1.950000	-0.115827	-102.182021	-69.610604	148.787229	-69.610604	148.787229	-0.037187	-29.091762
2.000000	-0.117850	-104.436296	-68.758558	148.194039	-68.758558	148.194039	-0.038154	-29.821456
2.050000	-0.119826	-106.671782	-67.947088	147.421026	-67.947088	147.421026	-0.039120	-30.550182
2.100000	-0.121758	-108.888761	-67.173103	146.499701	-67.173103	146.499701	-0.040086	-31.277927
2.150000	-0.123649	-111.087533	-66.433740	145.455180	-66.433740	145.455180	-0.041051	-32.004679
2.200000	-0.125500	-113.268412	-65.726384	144.307653	-65.726384	144.307653	-0.042017	-32.730427
2.250000	-0.127315	-115.431723	-65.048663	143.073486	-65.048663	143.073486	-0.042984	-33.455158
2.300000	-0.129096	-117.577807	-64.398432	141.766054	-64.398432	141.766054	-0.043951	-34.178860
2.350000	-0.130847	-119.707012	-63.773752	140.396368	-63.773752	140.396368	-0.044920	-34.901520
2.400000	-0.132570	-121.819697	-63.172876	138.973561	-63.172876	138.973561	-0.045891	-35.623126
2.450000	-0.134269	-123.916227	-62.594224	137.505259	-62.594224	137.505259	-0.046864	-36.343666
2.500000	-0.135946	-125.996975	-62.036365	135.997866	-62.036365	135.997866	-0.047839	-37.063129
2.550000	-0.137604	-128.061994	-61.497701	134.456172	-61.497701	134.456172	-0.048818	-37.781476
2.600000	-0.139247	-130.112010	-60.977404	132.885578	-60.977404	132.885578	-0.049801	-38.498721
2.650000	-0.140878	-132.147409	-60.474394	131.289974	-60.474394	131.289974	-0.050787	-39.214852
2.700000	-0.142500	-134.168582	-59.987688	129.672703	-59.987688	129.672703	-0.051778	-39.929856
2.750000	-0.144115	-136.175920	-59.516387	128.036650	-59.516387	128.036650	-0.052773	-40.643722
2.800000	-0.145726	-138.169814	-59.059668	126.384313	-59.059668	126.384313	-0.053774	-41.356438
2.850000	-0.147337	-140.150658	-58.616775	124.717866	-58.616775	124.717866	-0.054780	-42.067994
2.900000	-0.148948	-142.118844	-58.187011	123.039207	-58.187011	123.039207	-0.055793	-42.778379
2.950000	-0.150563	-144.074763	-57.769736	121.349998	-57.769736	121.349998	-0.056812	-43.487581
3.000000	-0.152184	-146.018805	-57.364358	119.651702	-57.364358	119.651702	-0.057838	-44.195590
3.050000	-0.153812	-147.951358	-56.970329	117.945609	-56.970329	117.945609	-0.058871	-44.902397
3.100000	-0.155451	-149.872807	-56.587141	116.232858	-56.587141	116.232858	-0.059912	-45.607990
3.150000	-0.157101	-151.783422	-56.214260	114.514413	-56.214260	114.514413	-0.060961	-46.312347
3.200000	-0.158764	-153.683595	-55.851262	112.791203	-55.851262	112.791203	-0.062019	-47.015458
3.250000	-0.160442	-155.573818	-55.497803	111.064087	-55.497803	111.064087	-0.063086	-47.717327
3.300000	-0.162136	-157.454460	-55.153499	109.333783	-55.153499	109.333783	-0.064162	-48.417945
3.350000	-0.163847	-159.325889	-54.817993	107.600935	-54.817993	107.600935	-0.065247	-49.117304
3.400000	-0.165576	-161.188467	-54.490950	105.866124	-54.490950	105.866124	-0.066343	-49.815395
3.450000	-0.167324	-163.042549	-54.172059	104.129877	-54.172059	104.129877	-0.067449	-50.512210
3.500000	-0.169091	-164.888487	-53.861024	102.392670	-53.861024	102.392670	-0.068566	-51.207742
3.550000	-0.170878	-166.726627	-53.557570	100.654938	-53.557570	100.654938	-0.069694	-51.901983
3.600000	-0.172686	-168.557310	-53.261439	98.917079	-53.261439	98.917079	-0.070833	-52.594926
3.650000	-0.174515	-170.380871	-52.972385	97.179458	-52.972385	97.179458	-0.071985	-53.286564
3.700000	-0.176365	-172.197639	-52.690179	95.442411	-52.690179	95.442411	-0.073149	-53.976890
3.750000	-0.178236	-174.007935	-52.414605	93.706248	-52.414605	93.706248	-0.074325	-54.665900
3.800000	-0.180129	-175.811951	-52.145417	91.971290	-52.145417	91.971290	-0.075515	-55.353557
3.850000	-0.182042	-177.610136	-51.882470	90.237784	-51.882470	90.237784	-0.076718	-56.039885
3.900000	-0.183976	-179.402795	-51.625582	88.505983	-51.625582	88.505983	-0.077934	-56.724879
3.950000	-0.185931	178.809775	-51.374579	86.776121	-51.374579	86.776121	-0.079165	-57.408534
4.000000	-0.187906	177.027284	-51.129296	85.048423	-51.129296	85.048423	-0.080410	-58.090845
4.050000	-0.189900	175.249449	-50.889578	83.323099	-50.889578	83.323099	-0.081671	-58.771808
4.100000	-0.191913	173.475991	-50.655275	81.600353	-50.655275	81.600353	-0.082946	-59.451420
4.150000	-0.193944	171.706640	-50.426247	79.880379	-50.426247	79.880379	-0.084236	-60.129676
4.200000	-0.195993	169.941133	-50.202361	78.163363	-50.202361	78.163363	-0.085543	-60.806573
4.250000	-0.198058	168.179212	-49.983489	76.449486	-49.983489	76.449486	-0.086866	-61.482109
4.300000	-0.200140	166.420627	-49.769509	74.738924	-49.769509	74.738924	-0.088205	-62.156281
4.350000	-0.202237	164.665136	-49.560306	73.031849	-49.560306	73.031849	-0.089562	-62.829085
4.400000	-0.204349	162.912529	-49.355768	71.328470	-49.355768	71.328470	-0.090936	-63.500507
4.450000	-0.206474	161.162572	-49.155793	69.628959	-49.155793	69.628959	-0.092327	-64.170542
4.500000	-0.208612	159.415009	-48.960282	67.933439	-48.960282	67.933439	-0.093737	-64.839206
4.550000	-0.210762	157.669628	-48.769140	66.242072	-48.769140	66.242072	-0.095165	-65.506497
4.600000	-0.212922	155.926370	-48.582297	64.555412	-48.582297	64.555412	-0.096614	-66.172294
4.650000	-0.215092	154.184698	-48.399622	62.872801	-48.399622	62.872801	-0.098080	-66.836852
4.700000	-0.217270	152.444611	-48.221045	61.194823	-48.221045	61.194823	-0.099566	-67.500034
4.750000	-0.219456	150.705919	-48.046487	59.521641	-48.046487	59.521641	-0.101071	-68.161842
4.800000	-0.221648	148.968444	-47.875868	57.853417	-47.875868	57.853417	-0.102597	-68.822276
4.850000	-0.223846	147.232014	-47.709114	56.190318	-47.709114	56.190318	-0.104143	-69.481336
4.900000	-0.226049	145.496462	-47.546151	54.532508	-47.546151	54.532508	-0.105711	-70.139024
4.950000	-0.228255	143.761631	-47.386910	52.880156	-47.386910	52.880156	-0.107299	-70.795340
5.000000	-0.230464	142.027370	-47.231323	51.233434	-47.231323	51.233434	-0.108910	-71.450285
5.050000	-0.232675	140.293547	-47.079366	49.592776	-47.079366	49.592776	-0.110543	-72.103803
5.100000	-0.234886	138.560002	-46.930940	47.958115	-46.930940	47.958115	-0.112200	-72.755955
5.150000	-0.237097	136.826606	-46.785984	46.329632	-46.785984	46.329632	-0.113879	-73.406743
5.200000	-0.239307	135.093240	-46.644438	44.707511	-46.644438	44.707511	-0.115581	-74.056169
5.250000	-0.241515	133.359790	-46.506244	43.091942	-46.506244	43.091942	-0.117307	-74.704237
5.300000	-0.243720	131.626149	-46.371346	41.483117	-46.371346	41.483117	-0.119058	-75.350950
5.350000	-0.245922	129.892219	-46.239688	39.881235	-46.239688	39.881235	-0.120832	-75.996310
5.400000	-0.248119	128.157908	-46.111217	38.286498	-46.111217	38.286498	-0.122632	-76.640322
5.450000	-0.250311	126.423133	-45.985881	36.699113	-45.985881	36.699113	-0.124457	-77.282989
5.500000	-0.252497	124.687817	-45.863627	35.119295	-45.863627	35.119295	-0.126307	-77.924316
5.550000	-0.254676	122.951891	-45.744405	33.547261	-45.744405	33.547261	-0.128184	-78.564306
5.600000	-0.256848	121.215293	-45.628165	31.983236	-45.628165	31.983236	-0.130087	-79.202965
5.650000	-0.259014	119.478070	-45.514669	30.426344	-45.514669	30.426344	-0.132013	-79.840468
5.700000	-0.261171	117.739969	-45.404258	28.879095	-45.404258	28.879095	-0.133970	-80.476463
5.750000	-0.263318	116.001053	-45.296684	27.340571	-45.296684	27.340571	-0.135955	-81.111141
5.800000	-0.265457	114.261292	-45.191896	25.811019	-45.191896	25.811019	-0.137968	-81.744507
5.850000	-0.267586	112.520661	-45.089849	24.290697	-45.089849	24.290697	-0.140009	-82.376569
5.900000	-0.269705	110.779142	-44.990491	22.779867	-44.990491	22.779867	-0.142079	-83.007330
5.950000	-0.271815	109.036726	-44.893776	21.278799	-44.893776	21.278799	-0.144178	-83.636799
6.000000	-0.273914	107.293411	-44.799654	19.787769	-44.799654	19.787769	-0.146307	-84.264980
6.050000	-0.276003	105.549202	-44.708074	18.307061	-44.708074	18.307061	-0.148466	-84.891881
6.100000	-0.278081	103.804110	-44.618987	16.836964	-44.618987	16.836964	-0.150655	-85.517508
6.150000	-0.280149	102.058157	-44.532340	15.377775	-44.532340	15.377775	-0.152875	-86.141868
6.200000	-0.282207	100.311367	-44.448082	13.929795	-44.448082	13.929795	-0.155126	-86.764969
6.250000	-0.284256	98.563775	-44.366158	12.493335	-44.366158	12.493335	-0.157409	-87.386817
6.300000	-0.286294	96.815406	-44.286547	11.068973	-44.286547	11.068973	-0.159724	-88.007395
6.350000	-0.288322	95.066326	-44.209156	9.656779	-44.209156	9.656779	-0.162072	-88.626735
6.400000	-0.290342	93.316589	-44.133928	8.257076	-44.133928	8.257076	-0.164453	-89.244848
6.450000	-0.292353	91.566258	-44.060801	6.870195	-44.060801	6.870195	-0.166866	-89.861740
6.500000	-0.294356	89.815400	-43.989711	5.496467	-43.989711	5.496467	-0.169313	-90.477420
6.550000	-0.296352	88.064091	-43.920593	4.136227	-43.920593	4.136227	-0.171794	-91.091897
6.600000	-0.298341	86.312412	-43.853378	2.789809	-43.853378	2.789809	-0.174310	-91.705179
6.650000	-0.300324	84.560449	-43.787995	1.457551	-43.787995	1.457551	-0.176860	-92.317276
6.700000	-0.302303	82.808298	-43.724369	0.139786	-43.724369	0.139786	-0.179445	-92.928196
6.750000	-0.304277	81.056057	-43.662423	-1.163153	-43.662423	-1.163153	-0.182065	-93.537949
6.800000	-0.306249	79.303832	-43.602076	-2.450938	-43.602076	-2.450938	-0.184721	-94.146543
6.850000	-0.308219	77.551734	-43.543244	-3.723246	-43.543244	-3.723246	-0.187414	-94.753990
6.900000	-0.310189	75.799884	-43.485848	-4.979589	-43.485848	-4.979589	-0.190143	-95.360286
6.950000	-0.312159	74.048407	-43.429793	-6.219651	-43.429793	-6.219651	-0.192910	-95.965442
7.000000	-0.314132	72.297428	-43.374973	-7.443313	-43.374973	-7.443313	-0.195715	-96.569480
7.050000	-0.316109	70.547079	-43.321287	-8.650300	-43.321287	-8.650300	-0.198556	-97.172410
7.100000	-0.318091	68.797497	-43.268630	-9.840351	-43.268630	-9.840351	-0.201436	-97.774244
7.150000	-0.320080	67.048822	-43.216894	-11.013229	-43.216894	-11.013229	-0.204355	-98.374991
7.200000	-0.322079	65.301201	-43.165966	-12.168719	-43.165966	-12.168719	-0.207312	-98.974663
7.250000	-0.324088	63.554783	-43.115731	-13.306630	-43.115731	-13.306630	-0.210308	-99.573270
7.300000	-0.326110	61.809787	-43.066072	-14.426025	-43.066072	-14.426025	-0.213346	-100.170779
7.350000	-0.328146	60.066224	-43.016850	-15.528524	-43.016850	-15.528524	-0.216421	-100.767303
7.400000	-0.330199	58.324329	-42.967950	-16.613069	-42.967950	-16.613069	-0.219537	-101.362796
7.450000	-0.332271	56.584264	-42.919242	-17.679603	-42.919242	-17.679603	-0.222693	-101.957271
7.500000	-0.334364	54.846194	-42.870592	-18.728113	-42.870592	-18.728113	-0.225889	-102.550737
7.550000	-0.336482	53.110389	-42.821841	-19.757853	-42.821841	-19.757853	-0.229129	-103.143166
7.600000	-0.338625	51.376933	-42.772861	-20.769692	-42.772861	-20.769692	-0.232411	-103.734613
7.650000	-0.340797	49.645997	-42.723510	-21.763767	-42.723510	-21.763767	-0.235734	-104.325090
7.700000	-0.343001	47.917755	-42.673648	-22.740267	-42.673648	-22.740267	-0.239099	-104.914610
7.750000	-0.345237	46.192382	-42.623132	-23.699438	-42.623132	-23.699438	-0.242507	-105.503185
7.800000	-0.347510	44.470053	-42.571821	-24.641580	-42.571821	-24.641580	-0.245958	-106.090828
7.850000	-0.349822	42.750945	-42.519575	-25.567054	-42.519575	-25.567054	-0.249452	-106.677553
7.900000	-0.352175	41.035235	-42.466254	-26.476279	-42.466254	-26.476279	-0.252989	-107.263371
7.950000	-0.354573	39.323100	-42.411723	-27.369731	-42.411723	-27.369731	-0.256570	-107.848297
8.000000	-0.357019	37.614717	-42.355849	-28.247947	-42.355849	-28.247947	-0.260196	-108.432344
8.050000	-0.359514	35.910265	-42.298504	-29.111521	-42.298504	-29.111521	-0.263865	-109.015525
8.100000	-0.362062	34.209917	-42.239563	-29.961104	-42.239563	-29.961104	-0.267579	-109.597855
8.150000	-0.364666	32.513851	-42.178910	-30.797400	-42.178910	-30.797400	-0.271338	-110.179347
8.200000	-0.367330	30.822241	-42.116433	-31.621165	-42.116433	-31.621165	-0.275143	-110.760015
8.250000	-0.370055	29.135259	-42.052029	-32.433202	-42.052029	-32.433202	-0.278992	-111.339873
8.300000	-0.372844	27.453077	-41.985603	-33.234359	-41.985603	-33.234359	-0.282887	-111.918936
8.350000	-0.375698	25.775564	-41.917227	-34.026035	-41.917227	-34.026035	-0.286826	-112.497263
8.400000	-0.378624	24.103300	-41.846606	-34.808340	-41.846606	-34.808340	-0.290812	-113.074804
8.450000	-0.381630	22.436779	-41.773491	-35.581881	-41.773491	-35.581881	-0.294848	-113.651532
8.500000	-0.384710	20.775438	-41.698217	-36.348679	-41.698217	-36.348679	-0.298928	-114.227565
8.550000	-0.387871	19.119865	-41.620504	-37.109204	-41.620504	-37.109204	-0.303057	-114.802859
8.600000	-0.391115	17.470107	-41.540375	-37.864572	-41.540375	-37.864572	-0.307233	-115.377445
8.650000	-0.394443	15.826093	-41.457926	-38.615960	-41.457926	-38.615960	-0.311454	-115.951366
8.700000	-0.397866	14.188556	-41.372829	-39.364034	-41.372829	-39.364034	-0.315726	-116.524570
8.750000	-0.401372	12.556687	-41.285586	-40.110172	-41.285586	-40.110172	-0.320042	-117.097178
8.800000	-0.404985	10.931978	-41.195493	-40.855044	-41.195493	-40.855044	-0.324411	-117.669066
8.850000	-0.408687	9.313203	-41.103278	-41.599784	-41.103278	-41.599784	-0.328824	-118.240387
8.900000	-0.412496	7.701514	-41.008438	-42.345351	-41.008438	-42.345351	-0.333288	-118.811062
8.950000	-0.416406	6.096397	-40.911338	-43.092542	-40.911338	-43.092542	-0.337800	-119.381165
9.000000	-0.420423	4.498244	-40.811881	-43.842304	-40.811881	-43.842304	-0.342360	-119.950691
9.050000	-0.424551	2.907315	-40.710051	-44.595529	-40.710051	-44.595529	-0.346970	-120.519646
9.100000	-0.428787	1.323182	-40.606164	-45.352712	-40.606164	-45.352712	-0.351627	-121.088089
9.150000	-0.433146	-0.253060	-40.499816	-46.115227	-40.499816	-46.115227	-0.356337	-121.655966
9.200000	-0.437612	-1.822576	-40.391667	-46.882858	-40.391667	-46.882858	-0.361092	-122.223384
9.250000	-0.442211	-3.383815	-40.281124	-47.657425	-40.281124	-47.657425	-0.365901	-122.790266
9.300000	-0.446924	-4.937988	-40.168852	-48.438403	-40.168852	-48.438403	-0.370756	-123.356712
9.350000	-0.451767	-6.484107	-40.054532	-49.227178	-40.054532	-49.227178	-0.375663	-123.922689
9.400000	-0.456736	-8.022529	-39.938436	-50.023818	-39.938436	-50.023818	-0.380619	-124.488239
9.450000	-0.461834	-9.553163	-39.820639	-50.828789	-39.820639	-50.828789	-0.385625	-125.053382
9.500000	-0.467070	-11.075463	-39.701031	-51.643020	-39.701031	-51.643020	-0.390682	-125.618113
9.550000	-0.472431	-12.590280	-39.580066	-52.465836	-39.580066	-52.465836	-0.395786	-126.182495
9.600000	-0.477943	-14.096127	-39.457261	-53.299224	-39.457261	-53.299224	-0.400945	-126.746485
9.650000	-0.483581	-15.594510	-39.333311	-54.141607	-39.333311	-54.141607	-0.406150	-127.310170
9.700000	-0.489372	-17.083928	-39.207740	-54.994994	-39.207740	-54.994994	-0.411409	-127.873512
9.750000	-0.495299	-18.565441	-39.081046	-55.858229	-39.081046	-55.858229	-0.416716	-128.436574
9.800000	-0.501375	-20.038345	-38.953059	-56.732324	-38.953059	-56.732324	-0.422074	-128.999353
9.850000	-0.507599	-21.502746	-38.823909	-57.617246	-38.823909	-57.617246	-0.427483	-129.561876
9.900000	-0.513966	-22.958925	-38.693776	-58.512725	-38.693776	-58.512725	-0.432940	-130.124171
9.950000	-0.520494	-24.406009	-38.562434	-59.419952	-38.562434	-59.419952	-0.438451	-130.686240
10.000000	-0.527160	-25.845285	-38.430402	-60.337316	-38.430402	-60.337316	-0.444008	-131.248134
