! freq	dB(S11)	phase(S11)	dB(S12)	phase(S12)	
!     	dB(S21)	phase(S21)	dB(S22)	phase(S22)	
!S-par simulation data
#  GHz  S  DB  R 50
0.000000	-0.000000	-0.000000	-342.493807	180.000000	-342.493807	180.000000	0.000000	0.000000
0.050000	-0.000100	-0.764714	-117.523055	86.480899	-117.523055	86.480899	-0.000099	-0.764711
0.100000	-0.000396	-1.529181	-111.881878	84.960730	-111.881878	84.960730	-0.000394	-1.529178
0.150000	-0.000879	-2.293158	-108.678991	84.501853	-108.678991	84.501853	-0.000874	-2.293160
0.200000	-0.001518	-3.056500	-106.442265	84.302076	-106.442265	84.302076	-0.001511	-3.056513
0.250000	-0.002297	-3.819046	-104.754125	84.147766	-104.754125	84.147766	-0.002287	-3.819075
0.300000	-0.003201	-4.580596	-103.443862	84.006616	-103.443862	84.006616	-0.003188	-4.580649
0.350000	-0.004187	-5.341248	-102.398181	83.899111	-102.398181	83.899111	-0.004172	-5.341329
0.400000	-0.005246	-6.100834	-101.577170	83.868884	-101.577170	83.868884	-0.005229	-6.100947
0.450000	-0.006349	-6.859445	-100.935824	83.955471	-100.935824	83.955471	-0.006332	-6.859591
0.500000	-0.007483	-7.617059	-100.457118	84.216689	-100.457118	84.216689	-0.007466	-7.617240
0.550000	-0.008633	-8.373719	-100.126549	84.718658	-100.126549	84.718658	-0.008616	-8.373932
0.600000	-0.009787	-9.129464	-99.936287	85.547987	-99.936287	85.547987	-0.009771	-9.129708
0.650000	-0.010938	-9.884336	-99.882412	86.821256	-99.882412	86.821256	-0.010924	-9.884609
0.700000	-0.012081	-10.638374	-99.963061	88.700091	-99.963061	88.700091	-0.012069	-10.638673
0.750000	-0.013211	-11.391616	-100.175561	91.412770	-100.175561	91.412770	-0.013200	-11.391938
0.800000	-0.014326	-12.144090	-100.510830	95.282095	-100.510830	95.282095	-0.014318	-12.144432
0.850000	-0.015423	-12.895698	-100.929119	101.191759	-100.929119	101.191759	-0.015416	-12.896057
0.900000	-0.016503	-13.646551	-101.371872	109.347438	-101.371872	109.347438	-0.016499	-13.646925
0.950000	-0.017576	-14.397036	-101.686768	118.780320	-101.686768	118.780320	-0.017573	-14.397424
1.000000	-0.018626	-15.146417	-101.557423	132.044811	-101.557423	132.044811	-0.018624	-15.146817
1.050000	-0.019671	-15.895553	-101.206225	145.200122	-101.206225	145.200122	-0.019671	-15.895965
1.100000	-0.020695	-16.643470	-99.866418	157.809532	-99.866418	157.809532	-0.020696	-16.643893
1.150000	-0.021717	-17.391263	-98.620536	169.974936	-98.620536	169.974936	-0.021719	-17.391697
1.200000	-0.022720	-18.137695	-96.743452	177.256285	-96.743452	177.256285	-0.022723	-18.138139
1.250000	-0.023724	-18.884127	-95.200811	-175.462367	-95.200811	-175.462367	-0.023726	-18.884581
1.300000	-0.024715	-19.629419	-93.523908	-171.291667	-93.523908	-171.291667	-0.024718	-19.629885
1.350000	-0.025699	-20.373967	-91.942606	-168.402091	-91.942606	-168.402091	-0.025702	-20.374444
1.400000	-0.026678	-21.117756	-90.461252	-166.444267	-90.461252	-166.444267	-0.026681	-21.118245
1.450000	-0.027653	-21.860772	-89.074793	-165.172120	-89.074793	-165.172120	-0.027655	-21.861275
1.500000	-0.028623	-22.603001	-87.774982	-164.413010	-87.774982	-164.413010	-0.028626	-22.603517
1.550000	-0.029591	-23.344427	-86.553040	-164.044705	-86.553040	-164.044705	-0.029593	-23.344958
1.600000	-0.030555	-24.085034	-85.400711	-163.979376	-85.400711	-163.979376	-0.030557	-24.085580
1.650000	-0.031518	-24.824806	-84.310607	-164.152839	-84.310607	-164.152839	-0.031519	-24.825369
1.700000	-0.032478	-25.563424	-83.252832	-164.567175	-83.252832	-164.567175	-0.032479	-25.564004
1.750000	-0.033438	-26.301592	-82.278997	-165.068061	-82.278997	-165.068061	-0.033439	-26.302189
1.800000	-0.034398	-27.038677	-81.336059	-165.713363	-81.336059	-165.713363	-0.034398	-27.039293
1.850000	-0.035357	-27.774989	-80.442184	-166.461821	-80.442184	-166.461821	-0.035356	-27.775624
1.900000	-0.036316	-28.510337	-79.582626	-167.295850	-79.582626	-167.295850	-0.036315	-28.510992
1.950000	-0.037275	-29.244723	-78.755846	-168.215451	-78.755846	-168.215451	-0.037274	-29.245398
2.000000	-0.038236	-29.978278	-77.965598	-169.186297	-77.965598	-169.186297	-0.038234	-29.978974
2.050000	-0.039197	-30.710670	-77.195942	-170.228889	-77.195942	-170.228889	-0.039195	-30.711387
2.100000	-0.040159	-31.442375	-76.464251	-171.301883	-76.464251	-171.301883	-0.040158	-31.443115
2.150000	-0.041124	-32.172708	-75.743881	-172.435686	-75.743881	-172.435686	-0.041122	-32.173469
2.200000	-0.042090	-32.902509	-75.062363	-173.586840	-75.062363	-173.586840	-0.042088	-32.903293
2.250000	-0.043059	-33.630718	-74.385023	-174.790050	-74.385023	-174.790050	-0.043057	-33.631524
2.300000	-0.044029	-34.358563	-73.747023	-176.002252	-73.747023	-176.002252	-0.044027	-34.359392
2.350000	-0.045004	-35.084586	-73.107638	-177.259413	-73.107638	-177.259413	-0.045002	-35.085438
2.400000	-0.045980	-35.810423	-72.507782	-178.520130	-72.507782	-178.520130	-0.045978	-35.811298
2.450000	-0.046962	-36.534201	-71.902181	-179.819973	-71.902181	-179.819973	-0.046960	-36.535100
2.500000	-0.047944	-37.257980	-71.336066	178.880184	-71.336066	178.880184	-0.047942	-37.258902
2.550000	-0.048934	-37.979456	-70.760774	177.546077	-70.760774	177.546077	-0.048933	-37.980402
2.600000	-0.049925	-38.700933	-70.221230	176.211969	-70.221230	176.211969	-0.049924	-38.701902
2.650000	-0.050924	-39.420249	-69.676833	174.852335	-69.676833	174.852335	-0.050923	-39.421242
2.700000	-0.051925	-40.139369	-69.161441	173.490382	-69.161441	173.490382	-0.051924	-40.140385
2.750000	-0.052934	-40.856482	-68.644795	172.109378	-68.644795	172.109378	-0.052934	-40.857521
2.800000	-0.053946	-41.573193	-68.151478	170.724565	-68.151478	170.724565	-0.053946	-41.574256
2.850000	-0.054967	-42.288060	-67.659911	169.325561	-67.659911	169.325561	-0.054967	-42.289147
2.900000	-0.055991	-43.002312	-67.186870	167.921826	-67.186870	167.921826	-0.055991	-43.003423
2.950000	-0.057024	-43.714894	-66.718092	166.507579	-66.718092	166.507579	-0.057025	-43.716028
3.000000	-0.058062	-44.426640	-66.263756	165.088076	-66.263756	165.088076	-0.058063	-44.427798
3.050000	-0.059109	-45.136899	-65.815786	163.660867	-65.815786	163.660867	-0.059111	-45.138081
3.100000	-0.060163	-45.846095	-65.378776	162.228155	-65.378776	162.228155	-0.060164	-45.847301
3.150000	-0.061225	-46.553995	-64.949890	160.789889	-64.949890	160.789889	-0.061227	-46.555224
3.200000	-0.062296	-47.260599	-64.528983	159.346068	-64.528983	159.346068	-0.062298	-47.261852
3.250000	-0.063374	-47.966107	-64.117671	157.898344	-64.117671	157.898344	-0.063376	-47.967383
3.300000	-0.064463	-48.670079	-63.711780	156.445157	-63.711780	156.445157	-0.064466	-48.671380
3.350000	-0.065559	-49.373163	-63.316708	154.989334	-63.316708	154.989334	-0.065562	-49.374486
3.400000	-0.066669	-50.074467	-62.924860	153.528238	-62.924860	153.528238	-0.066672	-50.075815
3.450000	-0.067783	-50.775096	-62.544848	152.065474	-62.544848	152.065474	-0.067787	-50.776468
3.500000	-0.068915	-51.473699	-62.166167	150.597701	-62.166167	150.597701	-0.068918	-51.475094
3.550000	-0.070050	-52.171846	-61.800162	149.128991	-61.800162	149.128991	-0.070053	-52.173266
3.600000	-0.071204	-52.867717	-61.433859	147.655589	-61.433859	147.655589	-0.071208	-52.869160
3.650000	-0.072361	-53.563357	-61.080916	146.181793	-61.080916	146.181793	-0.072365	-53.564824
3.700000	-0.073540	-54.256466	-60.726276	144.703660	-60.726276	144.703660	-0.073544	-54.257957
3.750000	-0.074719	-54.949575	-60.385548	143.225526	-60.385548	143.225526	-0.074724	-54.951091
3.800000	-0.075925	-55.639899	-60.041917	141.743435	-60.041917	141.743435	-0.075930	-55.641439
3.850000	-0.077131	-56.330222	-59.711365	140.261344	-59.711365	140.261344	-0.077136	-56.331786
3.900000	-0.078363	-57.017971	-59.379423	138.776241	-59.379423	138.776241	-0.078368	-57.019559
3.950000	-0.079597	-57.705485	-59.058518	137.290864	-59.058518	137.290864	-0.079602	-57.707098
4.000000	-0.080856	-58.390643	-58.737553	135.803237	-58.737553	135.803237	-0.080861	-58.392281
4.050000	-0.082120	-59.075330	-58.425811	134.315160	-58.425811	134.315160	-0.082126	-59.076992
4.100000	-0.083408	-59.757882	-58.115177	132.825442	-58.115177	132.825442	-0.083413	-59.759569
4.150000	-0.084703	-60.439724	-57.812150	131.335178	-57.812150	131.335178	-0.084709	-60.441435
4.200000	-0.086021	-61.119659	-57.511256	129.843757	-57.511256	129.843757	-0.086026	-61.121396
4.250000	-0.087350	-61.798641	-57.216532	128.351759	-57.216532	128.351759	-0.087355	-61.800403
4.300000	-0.088699	-62.475949	-56.924838	126.858981	-56.924838	126.858981	-0.088704	-62.477736
4.350000	-0.090062	-63.152061	-56.638033	125.365648	-56.638033	125.365648	-0.090067	-63.153873
4.400000	-0.091444	-63.826734	-56.355045	123.871825	-56.355045	123.871825	-0.091449	-63.828571
4.450000	-0.092844	-64.499967	-56.075805	122.377513	-56.075805	122.377513	-0.092849	-64.501829
4.500000	-0.094259	-65.171999	-55.801067	120.882925	-55.801067	120.882925	-0.094265	-65.173886
4.550000	-0.095697	-65.842348	-55.529060	119.387951	-55.529060	119.387951	-0.095703	-65.844260
4.600000	-0.097149	-66.511734	-55.262153	117.892851	-55.262153	117.892851	-0.097154	-66.513672
4.650000	-0.098627	-67.179195	-54.997072	116.397500	-54.997072	116.397500	-0.098632	-67.181158
4.700000	-0.100115	-67.845935	-54.737608	114.902118	-54.737608	114.902118	-0.100120	-67.847923
4.750000	-0.101634	-68.510509	-54.479165	113.406644	-54.479165	113.406644	-0.101639	-68.512523
4.800000	-0.103161	-69.174602	-54.226785	111.911189	-54.226785	111.911189	-0.103166	-69.176641
4.850000	-0.104723	-69.836291	-53.974710	110.415825	-53.974710	110.415825	-0.104728	-69.838355
4.900000	-0.106289	-70.497739	-53.729082	108.920487	-53.729082	108.920487	-0.106294	-70.499829
4.950000	-0.107897	-71.156548	-53.483123	107.425440	-53.483123	107.425440	-0.107902	-71.158663
5.000000	-0.109504	-71.815356	-53.243938	105.930393	-53.243938	105.930393	-0.109509	-71.817496
5.050000	-0.111158	-72.471292	-53.003858	104.435855	-53.003858	104.435855	-0.111163	-72.473457
5.100000	-0.112812	-73.127228	-52.770235	102.941317	-52.770235	102.941317	-0.112817	-73.129419
5.150000	-0.114510	-73.780540	-52.536403	101.447403	-52.536403	101.447403	-0.114515	-73.782755
5.200000	-0.116212	-74.433613	-52.308140	99.953547	-52.308140	99.953547	-0.116217	-74.435854
5.250000	-0.117955	-75.084311	-52.080281	98.460392	-52.080281	98.460392	-0.117960	-75.086577
5.300000	-0.119707	-75.734535	-51.857186	96.967377	-51.857186	96.967377	-0.119713	-75.736825
5.350000	-0.121498	-76.382632	-51.635043	95.475103	-51.635043	95.475103	-0.121503	-76.384947
5.400000	-0.123302	-77.030020	-51.416934	93.983077	-51.416934	93.983077	-0.123307	-77.032360
5.450000	-0.125141	-77.675530	-51.200268	92.491799	-51.200268	92.491799	-0.125146	-77.677894
5.500000	-0.126998	-78.320101	-50.986974	91.000896	-50.986974	91.000896	-0.127003	-78.322490
5.550000	-0.128887	-78.963040	-50.775561	89.510721	-50.775561	89.510721	-0.128892	-78.965452
5.600000	-0.130799	-79.604813	-50.566918	88.021068	-50.566918	88.021068	-0.130804	-79.607249
5.650000	-0.132739	-80.245198	-50.360547	86.532097	-50.360547	86.532097	-0.132744	-80.247658
5.700000	-0.134707	-80.884195	-50.156403	85.043810	-50.156403	85.043810	-0.134713	-80.886678
5.750000	-0.136700	-81.522045	-49.954875	83.556137	-49.954875	83.556137	-0.136706	-81.524552
5.800000	-0.138727	-82.158291	-49.755083	82.069325	-49.755083	82.069325	-0.138733	-82.160821
5.850000	-0.140775	-82.793627	-49.558212	80.583039	-49.558212	80.583039	-0.140780	-82.796180
5.900000	-0.142862	-83.427147	-49.362634	79.097804	-49.362634	79.097804	-0.142867	-83.429723
5.950000	-0.144964	-84.059993	-49.170245	77.612988	-49.170245	77.612988	-0.144970	-84.062591
6.000000	-0.147113	-84.690816	-48.978747	76.129427	-48.978747	76.129427	-0.147119	-84.693436
6.050000	-0.149273	-85.321194	-48.790674	74.646160	-48.790674	74.646160	-0.149279	-85.323837
6.100000	-0.151485	-85.949351	-48.603132	73.164362	-48.603132	73.164362	-0.151491	-85.952014
6.150000	-0.153703	-86.577288	-48.419219	71.682718	-48.419219	71.682718	-0.153709	-86.579973
6.200000	-0.155980	-87.202810	-48.235512	70.202769	-48.235512	70.202769	-0.155987	-87.205516
6.250000	-0.158258	-87.828333	-48.055610	68.722819	-48.055610	68.722819	-0.158265	-87.831060
6.300000	-0.160602	-88.451256	-47.875624	67.244797	-47.875624	67.244797	-0.160609	-88.454003
6.350000	-0.162947	-89.074178	-47.699292	65.766775	-47.699292	65.766775	-0.162954	-89.076946
6.400000	-0.165353	-89.694752	-47.523218	64.290588	-47.523218	64.290588	-0.165361	-89.697540
6.450000	-0.167767	-90.315112	-47.350354	62.814569	-47.350354	62.814569	-0.167774	-90.317919
6.500000	-0.170238	-90.933367	-47.178057	61.340276	-47.178057	61.340276	-0.170245	-90.936194
6.550000	-0.172721	-91.551202	-47.008562	59.866329	-47.008562	59.866329	-0.172729	-91.554048
6.600000	-0.175258	-92.167173	-46.839914	58.393985	-46.839914	58.393985	-0.175266	-92.170038
6.650000	-0.177813	-92.782523	-46.673695	56.922176	-46.673695	56.922176	-0.177821	-92.785407
6.700000	-0.180417	-93.396245	-46.508573	55.451833	-46.508573	55.451833	-0.180425	-93.399146
6.750000	-0.183045	-94.009151	-46.345538	53.982222	-46.345538	53.982222	-0.183053	-94.012071
6.800000	-0.185717	-94.620658	-46.183826	52.513927	-46.183826	52.513927	-0.185726	-94.623596
6.850000	-0.188421	-95.231166	-46.023889	51.046571	-46.023889	51.046571	-0.188429	-95.234120
6.900000	-0.191162	-95.840496	-45.865475	49.580369	-45.865475	49.580369	-0.191171	-95.843467
6.950000	-0.193943	-96.448649	-45.708553	48.115319	-45.708553	48.115319	-0.193952	-96.451637
7.000000	-0.196756	-97.055840	-45.553332	46.651250	-45.553332	46.651250	-0.196765	-97.058845
7.050000	-0.199614	-97.661685	-45.399344	45.188552	-45.399344	45.188552	-0.199623	-97.664707
7.100000	-0.202499	-98.266777	-45.247214	43.726652	-45.247214	43.726652	-0.202509	-98.269815
7.150000	-0.205438	-98.870363	-45.096083	42.266348	-45.096083	42.266348	-0.205447	-98.873417
7.200000	-0.208397	-99.473397	-44.946948	40.806650	-44.946948	40.806650	-0.208406	-99.476467
7.250000	-0.211416	-100.074774	-44.798597	39.348774	-44.798597	39.348774	-0.211426	-100.077859
7.300000	-0.214451	-100.675792	-44.652365	37.891307	-44.652365	37.891307	-0.214460	-100.678892
7.350000	-0.217553	-101.275011	-44.506723	36.435889	-44.506723	36.435889	-0.217563	-101.278127
7.400000	-0.220664	-101.874055	-44.363305	34.980677	-44.363305	34.980677	-0.220674	-101.877186
7.450000	-0.223851	-102.471170	-44.220301	33.527738	-44.220301	33.527738	-0.223861	-102.474316
7.500000	-0.227039	-103.068285	-44.079613	32.074800	-44.079613	32.074800	-0.227049	-103.071446
7.550000	-0.230312	-103.663350	-43.939180	30.624359	-43.939180	30.624359	-0.230322	-103.666525
7.600000	-0.233586	-104.258415	-43.800981	29.173917	-43.800981	29.173917	-0.233596	-104.261605
7.650000	-0.236939	-104.851652	-43.663212	27.725773	-43.663212	27.725773	-0.236950	-104.854857
7.700000	-0.240301	-105.444723	-43.527440	26.277838	-43.527440	26.277838	-0.240311	-105.447943
7.750000	-0.243736	-106.036181	-43.392257	24.831993	-43.392257	24.831993	-0.243746	-106.039415
7.800000	-0.247186	-106.627315	-43.258851	23.386566	-43.258851	23.386566	-0.247197	-106.630565
7.850000	-0.250704	-107.217042	-43.126179	21.943016	-43.126179	21.943016	-0.250714	-107.220306
7.900000	-0.254245	-107.806299	-42.995081	20.500091	-42.995081	20.500091	-0.254255	-107.809579
7.950000	-0.257846	-108.394344	-42.864847	19.058825	-42.864847	19.058825	-0.257857	-108.397639
8.000000	-0.261478	-108.981784	-42.736002	17.618388	-42.736002	17.618388	-0.261489	-108.985095
8.050000	-0.265165	-109.568199	-42.608135	16.179389	-42.608135	16.179389	-0.265176	-109.571526
8.100000	-0.268890	-110.153883	-42.481488	14.741418	-42.481488	14.741418	-0.268901	-110.157226
8.150000	-0.272663	-110.738720	-42.355923	13.304663	-42.355923	13.304663	-0.272674	-110.742080
8.200000	-0.276482	-111.322712	-42.231422	11.869125	-42.231422	11.869125	-0.276493	-111.326089
8.250000	-0.280342	-111.906025	-42.108095	10.434584	-42.108095	10.434584	-0.280353	-111.909419
8.300000	-0.284257	-112.488388	-41.985688	9.001439	-41.985688	9.001439	-0.284269	-112.491800
8.350000	-0.288205	-113.070230	-41.864539	7.569075	-41.864539	7.569075	-0.288217	-113.073661
8.400000	-0.292217	-113.651031	-41.744179	6.138272	-41.744179	6.138272	-0.292229	-113.654481
8.450000	-0.296254	-114.231457	-41.625148	4.708039	-41.625148	4.708039	-0.296266	-114.234928
8.500000	-0.300364	-114.810763	-41.506789	3.279518	-41.506789	3.279518	-0.300376	-114.814254
8.550000	-0.304491	-115.389831	-41.389821	1.851366	-41.389821	1.851366	-0.304504	-115.393343
8.600000	-0.308700	-115.967709	-41.273418	0.425056	-41.273418	0.425056	-0.308713	-115.971244
8.650000	-0.312918	-116.545475	-41.158460	-1.001075	-41.158460	-1.001075	-0.312932	-116.549032
8.700000	-0.317227	-117.121997	-41.043972	-2.425254	-41.043972	-2.425254	-0.317241	-117.125579
8.750000	-0.321538	-117.698519	-40.930974	-3.849432	-40.930974	-3.849432	-0.321552	-117.702126
8.800000	-0.325947	-118.273756	-40.818360	-5.271569	-40.818360	-5.271569	-0.325962	-118.277390
8.850000	-0.330359	-118.848992	-40.707189	-6.693707	-40.707189	-6.693707	-0.330374	-118.852653
8.900000	-0.334863	-119.423117	-40.596498	-8.114067	-40.596498	-8.114067	-0.334879	-119.426808
8.950000	-0.339377	-119.997141	-40.487117	-9.534264	-40.487117	-9.534264	-0.339393	-120.000861
9.000000	-0.343974	-120.570217	-40.378304	-10.952938	-40.378304	-10.952938	-0.343992	-120.573969
9.050000	-0.348591	-121.143102	-40.270681	-12.371307	-40.270681	-12.371307	-0.348609	-121.146887
9.100000	-0.353284	-121.715190	-40.163705	-13.788396	-40.163705	-13.788396	-0.353304	-121.719011
9.150000	-0.358005	-122.287013	-40.057809	-15.205057	-40.057809	-15.205057	-0.358025	-122.290870
9.200000	-0.362794	-122.858178	-39.952630	-16.620667	-39.952630	-16.620667	-0.362815	-122.862074
9.250000	-0.367619	-123.429015	-39.848434	-18.035751	-39.848434	-18.035751	-0.367641	-123.432950
9.300000	-0.372504	-123.999322	-39.745016	-19.449997	-39.745016	-19.449997	-0.372529	-124.003300
9.350000	-0.377434	-124.569252	-39.642494	-20.863644	-39.642494	-20.863644	-0.377460	-124.573274
9.400000	-0.382417	-125.138768	-39.540804	-22.276647	-39.540804	-22.276647	-0.382444	-125.142836
9.450000	-0.387453	-125.707870	-39.439933	-23.689005	-39.439933	-23.689005	-0.387482	-125.711988
9.500000	-0.392533	-126.276661	-39.339942	-25.100893	-39.339942	-25.100893	-0.392564	-126.280830
9.550000	-0.397674	-126.845018	-39.240703	-26.512121	-39.240703	-26.512121	-0.397708	-126.849241
9.600000	-0.402853	-127.413153	-39.142382	-27.923026	-39.142382	-27.923026	-0.402888	-127.417433
9.650000	-0.408101	-127.980847	-39.044760	-29.333288	-39.044760	-29.333288	-0.408139	-127.985187
9.700000	-0.413377	-128.548397	-38.948086	-30.743351	-38.948086	-30.743351	-0.413418	-128.552798
9.750000	-0.418732	-129.115513	-38.852067	-32.152818	-38.852067	-32.152818	-0.418776	-129.119980
9.800000	-0.424107	-129.682548	-38.757018	-33.562182	-38.757018	-33.562182	-0.424154	-129.687082
9.850000	-0.429569	-130.249173	-38.662594	-34.971032	-38.662594	-34.971032	-0.429619	-130.253780
9.900000	-0.435043	-130.815765	-38.569151	-36.379846	-38.569151	-36.379846	-0.435097	-130.820446
9.950000	-0.440612	-131.381987	-38.476318	-37.788261	-38.476318	-37.788261	-0.440670	-131.386748
10.000000	-0.446185	-131.948209	-38.384466	-39.196676	-38.384466	-39.196676	-0.446247	-131.953051
