! freq	dB(S11)	phase(S11)	dB(S12)	phase(S12)	
!     	dB(S21)	phase(S21)	dB(S22)	phase(S22)	
!S-par simulation data
#  GHz  S  DB  R 50
0.000000	-0.000000	-0.000000	-400.607972	180.000000	-400.607972	180.000000	-0.000000	-0.000000
0.050000	-0.000113	-0.766126	-114.261604	91.460260	-114.261604	91.460260	-0.000184	-1.025955
0.100000	-0.000447	-1.531940	-108.107909	89.982398	-108.107909	89.982398	-0.000703	-2.052439
0.150000	-0.000982	-2.297162	-104.615441	88.720167	-104.615441	88.720167	-0.001480	-3.079724
0.200000	-0.001689	-3.061583	-102.210479	87.670500	-102.210479	87.670500	-0.002431	-4.107753
0.250000	-0.002545	-3.824984	-100.416197	86.769218	-100.416197	86.769218	-0.003497	-5.136289
0.300000	-0.003504	-4.587368	-99.012901	85.975539	-99.012901	85.975539	-0.004628	-6.164943
0.350000	-0.004542	-5.348663	-97.894067	85.290818	-97.894067	85.290818	-0.005808	-7.193412
0.400000	-0.005633	-6.108877	-96.995338	84.723220	-96.995338	84.723220	-0.007028	-8.221420
0.450000	-0.006755	-6.868047	-96.276621	84.290374	-96.276621	84.290374	-0.008283	-9.248745
0.500000	-0.007892	-7.626225	-95.711982	84.018668	-95.711982	84.018668	-0.009572	-10.275215
0.550000	-0.009032	-8.383470	-95.284430	83.944367	-95.284430	83.944367	-0.010895	-11.300697
0.600000	-0.010167	-9.139840	-94.982964	84.116215	-94.982964	84.116215	-0.012250	-12.325089
0.650000	-0.011291	-9.895386	-94.800731	84.599675	-94.800731	84.599675	-0.013633	-13.348309
0.700000	-0.012401	-10.650150	-94.733652	85.483292	-94.733652	85.483292	-0.015043	-14.370294
0.750000	-0.013497	-11.404169	-94.779023	86.887896	-94.779023	86.887896	-0.016474	-15.390991
0.800000	-0.014578	-12.157466	-94.933547	88.979304	-94.933547	88.979304	-0.017923	-16.410357
0.850000	-0.015644	-12.910061	-95.189873	91.984053	-95.189873	91.984053	-0.019387	-17.428356
0.900000	-0.016698	-13.661963	-95.530152	96.203371	-95.530152	96.203371	-0.020861	-18.444956
0.950000	-0.017739	-14.413178	-95.914567	102.008027	-95.914567	102.008027	-0.022341	-19.460133
1.000000	-0.018770	-15.163705	-96.264234	109.770573	-96.264234	109.770573	-0.023824	-20.473863
1.050000	-0.019792	-15.913540	-96.446722	119.666435	-96.446722	119.666435	-0.025306	-21.486124
1.100000	-0.020805	-16.662676	-96.292658	131.333580	-96.292658	131.333580	-0.026785	-22.496898
1.150000	-0.021811	-17.411104	-95.675045	143.643919	-95.675045	143.643919	-0.028259	-23.506168
1.200000	-0.022811	-18.158811	-94.605138	155.078463	-94.605138	155.078463	-0.029725	-24.513915
1.250000	-0.023805	-18.905786	-93.224045	164.570404	-93.224045	164.570404	-0.031182	-25.520123
1.300000	-0.024794	-19.651980	-91.685793	171.785029	-91.685793	171.785029	-0.032628	-26.524708
1.350000	-0.025780	-20.397410	-90.128828	177.106318	-90.128828	177.106318	-0.034062	-27.527718
1.400000	-0.026762	-21.142063	-88.615389	-179.062710	-88.615389	-179.062710	-0.035484	-28.529138
1.450000	-0.027740	-21.885921	-87.172438	-176.363290	-87.172438	-176.363290	-0.036893	-29.528950
1.500000	-0.028717	-22.628969	-85.808160	-174.515541	-85.808160	-174.515541	-0.038289	-30.527136
1.550000	-0.029690	-23.371191	-84.521780	-173.311817	-84.521780	-173.311817	-0.039672	-31.523678
1.600000	-0.030662	-24.112571	-83.308697	-172.600466	-83.308697	-172.600466	-0.041042	-32.518557
1.650000	-0.031633	-24.853093	-82.162981	-172.270657	-82.162981	-172.270657	-0.042401	-33.511756
1.700000	-0.032602	-25.592742	-81.078544	-172.240697	-81.078544	-172.240697	-0.043747	-34.503253
1.750000	-0.033570	-26.331501	-80.049639	-172.449643	-80.049639	-172.449643	-0.045083	-35.493031
1.800000	-0.034537	-27.069356	-79.071048	-172.851412	-79.071048	-172.851412	-0.046408	-36.481068
1.850000	-0.035503	-27.806290	-78.138120	-173.410681	-78.138120	-173.410681	-0.047723	-37.467346
1.900000	-0.036469	-28.542288	-77.246746	-174.100016	-77.246746	-174.100016	-0.049029	-38.451843
1.950000	-0.037435	-29.277334	-76.393310	-174.897838	-76.393310	-174.897838	-0.050327	-39.434539
2.000000	-0.038402	-30.011415	-75.574627	-175.786974	-75.574627	-175.786974	-0.051618	-40.415415
2.050000	-0.039368	-30.744515	-74.787888	-176.753605	-74.787888	-176.753605	-0.052903	-41.394451
2.100000	-0.040336	-31.476619	-74.030610	-177.786499	-74.030610	-177.786499	-0.054183	-42.371625
2.150000	-0.041304	-32.207712	-73.300592	-178.876440	-73.300592	-178.876440	-0.055458	-43.346919
2.200000	-0.042274	-32.937781	-72.595873	179.984202	-72.595873	179.984202	-0.056730	-44.320313
2.250000	-0.043246	-33.666812	-71.914704	178.801792	-71.914704	178.801792	-0.058000	-45.291788
2.300000	-0.044219	-34.394790	-71.255515	177.581682	-71.255515	177.581682	-0.059268	-46.261326
2.350000	-0.045195	-35.121701	-70.616895	176.328404	-70.616895	176.328404	-0.060535	-47.228908
2.400000	-0.046174	-35.847533	-69.997569	175.045819	-69.997569	175.045819	-0.061803	-48.194516
2.450000	-0.047155	-36.572271	-69.396383	173.737236	-69.396383	173.737236	-0.063072	-49.158133
2.500000	-0.048140	-37.295903	-68.812289	172.405509	-68.812289	172.405509	-0.064343	-50.119743
2.550000	-0.049128	-38.018366	-68.243422	171.052312	-68.243422	171.052312	-0.065617	-51.079241
2.600000	-0.050121	-38.739696	-67.689912	169.680765	-67.689912	169.680765	-0.066895	-52.036699
2.650000	-0.051117	-39.459880	-67.150947	168.292720	-67.150947	168.292720	-0.068178	-52.992103
2.700000	-0.052119	-40.178907	-66.625784	166.889807	-66.625784	166.889807	-0.069466	-53.945439
2.750000	-0.053125	-40.896764	-66.113735	165.473466	-66.113735	165.473466	-0.070760	-54.896693
2.800000	-0.054137	-41.613440	-65.614169	164.044975	-65.614169	164.044975	-0.072062	-55.845855
2.850000	-0.055155	-42.328923	-65.126500	162.605470	-65.126500	162.605470	-0.073372	-56.792911
2.900000	-0.056179	-43.043202	-64.650186	161.155966	-64.650186	161.155966	-0.074690	-57.737853
2.950000	-0.057209	-43.756266	-64.184722	159.697372	-64.184722	159.697372	-0.076017	-58.680670
3.000000	-0.058247	-44.468105	-63.729639	158.230504	-63.729639	158.230504	-0.077354	-59.621353
3.050000	-0.059291	-45.178708	-63.284500	156.756098	-63.284500	156.756098	-0.078702	-60.559894
3.100000	-0.060343	-45.888066	-62.848896	155.274819	-62.848896	155.274819	-0.080061	-61.496286
3.150000	-0.061403	-46.596168	-62.422444	153.787269	-62.422444	153.787269	-0.081431	-62.430524
3.200000	-0.062472	-47.303005	-62.004787	152.293994	-62.004787	152.293994	-0.082815	-63.362600
3.250000	-0.063549	-48.008567	-61.595587	150.795492	-61.595587	150.795492	-0.084211	-64.292512
3.300000	-0.064635	-48.712847	-61.194529	149.292217	-61.194529	149.292217	-0.085622	-65.220256
3.350000	-0.065731	-49.415835	-60.801315	147.784585	-60.801315	147.784585	-0.087046	-66.145828
3.400000	-0.066836	-50.117523	-60.415663	146.272977	-60.415663	146.272977	-0.088486	-67.069227
3.450000	-0.067952	-50.817904	-60.037310	144.757741	-60.037310	144.757741	-0.089940	-67.990453
3.500000	-0.069078	-51.516969	-59.666005	143.239200	-59.666005	143.239200	-0.091411	-68.909505
3.550000	-0.070216	-52.214711	-59.301511	141.717651	-59.301511	141.717651	-0.092898	-69.826384
3.600000	-0.071364	-52.911123	-58.943603	140.193369	-58.943603	140.193369	-0.094403	-70.741092
3.650000	-0.072524	-53.606199	-58.592070	138.666606	-58.592070	138.666606	-0.095925	-71.653632
3.700000	-0.073696	-54.299932	-58.246709	137.137600	-58.246709	137.137600	-0.097465	-72.564007
3.750000	-0.074881	-54.992317	-57.907329	135.606569	-57.907329	135.606569	-0.099023	-73.472222
3.800000	-0.076079	-55.683287	-57.573444	134.073647	-57.573444	134.073647	-0.100602	-74.378189
3.850000	-0.077290	-56.372897	-57.245205	132.539111	-57.245205	132.539111	-0.102200	-75.282007
3.900000	-0.078514	-57.061142	-56.922446	131.003138	-56.922446	131.003138	-0.103818	-76.183685
3.950000	-0.079753	-57.748017	-56.605007	129.465893	-56.605007	129.465893	-0.105457	-77.083231
4.000000	-0.081005	-58.433517	-56.292737	127.927531	-56.292737	127.927531	-0.107117	-77.980652
4.050000	-0.082273	-59.117638	-55.985491	126.388198	-55.985491	126.388198	-0.108798	-78.875960
4.100000	-0.083555	-59.800377	-55.683130	124.848031	-55.683130	124.848031	-0.110502	-79.769164
4.150000	-0.084853	-60.481731	-55.385521	123.307161	-55.385521	123.307161	-0.112228	-80.660276
4.200000	-0.086166	-61.161696	-55.092538	121.765709	-55.092538	121.765709	-0.113976	-81.549308
4.250000	-0.087496	-61.840269	-54.804059	120.223793	-54.804059	120.223793	-0.115748	-82.436273
4.300000	-0.088842	-62.517448	-54.519967	118.681521	-54.519967	118.681521	-0.117544	-83.321185
4.350000	-0.090204	-63.193231	-54.240151	117.138999	-54.240151	117.138999	-0.119364	-84.204059
4.400000	-0.091584	-63.867616	-53.964504	115.596326	-53.964504	115.596326	-0.121208	-85.084909
4.450000	-0.092982	-64.540602	-53.692922	114.053597	-53.692922	114.053597	-0.123078	-85.963753
4.500000	-0.094398	-65.212187	-53.425306	112.510901	-53.425306	112.510901	-0.124973	-86.840606
4.550000	-0.095831	-65.882371	-53.161560	110.968325	-53.161560	110.968325	-0.126895	-87.715487
4.600000	-0.097284	-66.551153	-52.901594	109.425953	-52.901594	109.425953	-0.128842	-88.588414
4.650000	-0.098756	-67.218532	-52.645319	107.883862	-52.645319	107.883862	-0.130817	-89.459405
4.700000	-0.100247	-67.884510	-52.392649	106.342128	-52.392649	106.342128	-0.132818	-90.328482
4.750000	-0.101758	-68.549085	-52.143502	104.800826	-52.143502	104.800826	-0.134848	-91.195663
4.800000	-0.103289	-69.212260	-51.897800	103.260023	-51.897800	103.260023	-0.136905	-92.060971
4.850000	-0.104840	-69.874034	-51.655465	101.719789	-51.655465	101.719789	-0.138991	-92.924427
4.900000	-0.106413	-70.534409	-51.416424	100.180188	-51.416424	100.180188	-0.141106	-93.786053
4.950000	-0.108007	-71.193387	-51.180606	98.641282	-51.180606	98.641282	-0.143251	-94.645874
5.000000	-0.109623	-71.850970	-50.947941	97.103132	-50.947941	97.103132	-0.145425	-95.503913
5.050000	-0.111261	-72.507099	-50.718234	95.565835	-50.718234	95.565835	-0.147631	-96.360119
5.100000	-0.112923	-73.161837	-50.491558	94.029415	-50.491558	94.029415	-0.149867	-97.214594
5.150000	-0.114607	-73.815187	-50.267848	92.493924	-50.267848	92.493924	-0.152135	-98.067366
5.200000	-0.116314	-74.467152	-50.047046	90.959417	-50.047046	90.959417	-0.154434	-98.918460
5.250000	-0.118045	-75.117736	-49.829090	89.425945	-49.829090	89.425945	-0.156766	-99.767903
5.300000	-0.119800	-75.766942	-49.613925	87.893557	-49.613925	87.893557	-0.159129	-100.615723
5.350000	-0.121580	-76.414773	-49.401495	86.362302	-49.401495	86.362302	-0.161526	-101.461949
5.400000	-0.123385	-77.061235	-49.191745	84.832226	-49.191745	84.832226	-0.163956	-102.306609
5.450000	-0.125223	-77.705858	-48.983826	83.303823	-48.983826	83.303823	-0.166431	-103.149213
5.500000	-0.127075	-78.349771	-48.779593	81.776075	-48.779593	81.776075	-0.168924	-103.991026
5.550000	-0.128959	-78.992035	-48.577409	80.249946	-48.577409	80.249946	-0.171460	-104.831058
5.600000	-0.130865	-79.633122	-48.377981	78.724973	-48.377981	78.724973	-0.174026	-105.669818
5.650000	-0.132800	-80.272808	-48.180902	77.201479	-48.180902	77.201479	-0.176628	-106.507122
5.700000	-0.134763	-80.911093	-47.986115	75.679463	-47.986115	75.679463	-0.179268	-107.342968
5.750000	-0.136750	-81.548221	-47.793937	74.158750	-47.793937	74.158750	-0.181940	-108.177659
5.800000	-0.138771	-82.183731	-47.603639	72.639861	-47.603639	72.639861	-0.184657	-109.010734
5.850000	-0.140811	-82.818324	-47.416170	71.122070	-47.416170	71.122070	-0.187399	-109.842935
5.900000	-0.142892	-83.451086	-47.230213	69.606473	-47.230213	69.606473	-0.190193	-110.673388
5.950000	-0.144988	-84.083169	-47.047273	68.091739	-47.047273	68.091739	-0.193008	-111.503223
6.000000	-0.147130	-84.713213	-46.865518	66.579592	-46.865518	66.579592	-0.195882	-112.331207
6.050000	-0.149283	-85.342811	-46.686936	65.068046	-46.686936	65.068046	-0.198770	-113.158805
6.100000	-0.151488	-85.970171	-46.509249	63.559504	-46.509249	63.559504	-0.201726	-113.984476
6.150000	-0.153699	-86.597311	-46.334866	62.051274	-46.334866	62.051274	-0.204690	-114.809969
6.200000	-0.155970	-87.222022	-46.161121	60.546487	-46.161121	60.546487	-0.207729	-115.633492
6.250000	-0.158240	-87.846734	-45.990784	59.041700	-45.990784	59.041700	-0.210770	-116.457015
6.300000	-0.160577	-88.468832	-45.820861	57.540819	-45.820861	57.540819	-0.213895	-117.278556
6.350000	-0.162915	-89.090931	-45.654198	56.039938	-45.654198	56.039938	-0.217021	-118.100098
6.400000	-0.165314	-89.710672	-45.488210	54.542778	-45.488210	54.542778	-0.220226	-118.919980
6.450000	-0.167720	-90.330198	-45.325115	53.045955	-45.325115	53.045955	-0.223440	-119.739712
6.500000	-0.170184	-90.947614	-45.162924	51.552646	-45.162924	51.552646	-0.226727	-120.558084
6.550000	-0.172660	-91.564608	-45.003295	50.060039	-45.003295	50.060039	-0.230029	-121.376183
6.600000	-0.175190	-92.179736	-44.844772	48.570718	-44.844772	48.570718	-0.233399	-122.193194
6.650000	-0.177738	-92.794243	-44.688510	47.082492	-44.688510	47.082492	-0.236793	-123.009843
6.700000	-0.180335	-93.407121	-44.533533	45.597305	-44.533533	45.597305	-0.240248	-123.825648
6.750000	-0.182957	-94.019185	-44.380546	44.113637	-44.380546	44.113637	-0.243735	-124.641032
6.800000	-0.185623	-94.629852	-44.228998	42.632743	-44.228998	42.632743	-0.247276	-125.455791
6.850000	-0.188321	-95.239522	-44.079200	41.153830	-44.079200	41.153830	-0.250858	-126.270102
6.900000	-0.191057	-95.848020	-43.930971	39.677404	-43.930971	39.677404	-0.254487	-127.083976
6.950000	-0.193832	-96.455347	-43.784277	38.203466	-43.784277	38.203466	-0.258165	-127.897413
7.000000	-0.196640	-97.061719	-43.639265	36.731706	-43.639265	36.731706	-0.261884	-128.710569
7.050000	-0.199494	-97.666755	-43.495596	35.262996	-43.495596	35.262996	-0.265660	-129.523332
7.100000	-0.202375	-98.271046	-43.353703	33.796129	-43.353703	33.796129	-0.269470	-130.335941
7.150000	-0.205310	-98.873848	-43.212984	32.332946	-43.212984	32.332946	-0.273346	-131.148241
7.200000	-0.208266	-99.476106	-43.074116	30.871234	-43.074116	30.871234	-0.277248	-131.960478
7.250000	-0.211284	-100.076733	-42.936275	29.413934	-42.936275	29.413934	-0.281226	-132.772529
7.300000	-0.214316	-100.677008	-42.800344	27.957688	-42.800344	27.957688	-0.285222	-133.584576
7.350000	-0.217419	-101.275522	-42.665312	26.506707	-42.665312	26.506707	-0.289303	-134.396600
7.400000	-0.220530	-101.873867	-42.532235	25.056298	-42.532235	25.056298	-0.293395	-135.208641
7.450000	-0.223720	-102.470336	-42.399946	23.612174	-42.399946	23.612174	-0.297582	-136.020868
7.500000	-0.226911	-103.066806	-42.269641	22.168051	-42.269641	22.168051	-0.301771	-136.833096
7.550000	-0.230190	-103.661304	-42.140029	20.731461	-42.140029	20.731461	-0.306065	-137.645764
7.600000	-0.233470	-104.255801	-42.012323	19.294871	-42.012323	19.294871	-0.310361	-138.458433
7.650000	-0.236833	-104.848564	-41.885419	17.865981	-41.885419	17.865981	-0.314755	-139.271734
7.700000	-0.240205	-105.441169	-41.760248	16.437791	-41.760248	16.437791	-0.319160	-140.085093
7.750000	-0.243655	-106.032270	-41.635969	15.017540	-41.635969	15.017540	-0.323657	-140.899241
7.800000	-0.247122	-106.623070	-41.513267	13.598876	-41.513267	13.598876	-0.328173	-141.713548
7.850000	-0.250662	-107.212593	-41.391525	12.188478	-41.391525	12.188478	-0.332773	-142.528771
7.900000	-0.254227	-107.801690	-41.271218	10.780836	-41.271218	10.780836	-0.337403	-143.344298
7.950000	-0.257860	-108.389731	-41.151914	9.381895	-41.151914	9.381895	-0.342109	-144.160830
8.000000	-0.261528	-108.977242	-41.033911	7.987305	-41.033911	7.987305	-0.346855	-144.977864
8.050000	-0.265259	-109.563914	-40.916930	6.601980	-40.916930	6.601980	-0.351669	-145.795955
8.100000	-0.269037	-110.149985	-40.801108	5.223273	-40.801108	5.223273	-0.356534	-146.614801
8.150000	-0.272873	-110.735429	-40.686297	3.854551	-40.686297	3.854551	-0.361459	-147.434714
8.200000	-0.276769	-111.320245	-40.572475	2.495813	-40.572475	2.495813	-0.366446	-148.255695
8.250000	-0.280721	-111.904643	-40.459615	1.147953	-40.459615	1.147953	-0.371487	-149.077711
8.300000	-0.284750	-112.488456	-40.347495	-0.184680	-40.347495	-0.184680	-0.376602	-149.901176
8.350000	-0.288826	-113.072072	-40.236333	-1.507263	-40.236333	-1.507263	-0.381757	-150.725460
8.400000	-0.292992	-113.655295	-40.125645	-2.809747	-40.125645	-2.809747	-0.386989	-151.551384
8.450000	-0.297271	-114.238376	-40.014977	-4.084965	-40.014977	-4.084965	-0.392304	-152.379155
8.500000	-0.301626	-114.821481	-39.904673	-5.341346	-39.904673	-5.341346	-0.397671	-153.208050
8.550000	-0.306121	-115.404779	-39.793738	-6.562360	-39.793738	-6.562360	-0.403123	-154.038878
8.600000	-0.310802	-115.988734	-39.680957	-7.736315	-39.680957	-7.736315	-0.408664	-154.871673
8.650000	-0.315611	-116.573183	-39.567349	-8.879304	-39.567349	-8.879304	-0.414260	-155.705656
8.700000	-0.320773	-117.159316	-39.448069	-9.939966	-39.448069	-9.939966	-0.419978	-156.542113
8.750000	-0.326352	-117.747517	-39.321183	-10.914743	-39.321183	-10.914743	-0.425800	-157.380477
8.800000	-0.332636	-118.338975	-39.179369	-11.766070	-39.179369	-11.766070	-0.431753	-158.220844
8.850000	-0.340277	-118.935457	-39.005771	-12.437846	-39.005771	-12.437846	-0.437875	-159.063122
8.900000	-0.350280	-119.537434	-38.774316	-12.914565	-38.774316	-12.914565	-0.444174	-159.906476
8.950000	-0.364953	-120.141809	-38.426996	-13.267560	-38.426996	-13.267560	-0.450620	-160.749378
9.000000	-0.390196	-120.714397	-37.821604	-14.304331	-37.821604	-14.304331	-0.456655	-161.587567
9.050000	-0.421144	-121.122897	-37.061350	-18.907578	-37.061350	-18.907578	-0.459650	-162.425177
9.100000	-0.413272	-121.416770	-37.054454	-26.637479	-37.054454	-26.637479	-0.461362	-163.301006
9.150000	-0.388356	-121.935953	-37.576287	-30.339634	-37.576287	-30.339634	-0.467610	-164.186816
9.200000	-0.377542	-122.546674	-37.900185	-31.391836	-37.900185	-31.391836	-0.474954	-165.065163
9.250000	-0.375040	-123.158438	-38.037505	-31.952929	-38.037505	-31.952929	-0.482259	-165.943227
9.300000	-0.376320	-123.759384	-38.072852	-32.544840	-38.072852	-32.544840	-0.489511	-166.824820
9.350000	-0.379210	-124.351836	-38.060250	-33.235620	-38.060250	-33.235620	-0.496806	-167.711393
9.400000	-0.383017	-124.937632	-38.018994	-34.014344	-38.018994	-34.014344	-0.504230	-168.604512
9.450000	-0.387332	-125.518729	-37.961577	-34.849551	-37.961577	-34.849551	-0.511871	-169.505436
9.500000	-0.391938	-126.096708	-37.895014	-35.712282	-37.895014	-35.712282	-0.519775	-170.414251
9.550000	-0.396774	-126.671914	-37.821075	-36.581641	-37.821075	-36.581641	-0.528102	-171.334039
9.600000	-0.401758	-127.245220	-37.742257	-37.436396	-37.742257	-37.436396	-0.536936	-172.265253
9.650000	-0.406861	-127.816945	-37.659075	-38.259430	-37.659075	-38.259430	-0.546435	-173.209774
9.700000	-0.412059	-128.387333	-37.571514	-39.032471	-37.571514	-39.032471	-0.556814	-174.169937
9.750000	-0.417337	-128.956575	-37.479049	-39.734715	-37.479049	-39.734715	-0.568371	-175.148647
9.800000	-0.422680	-129.524827	-37.380603	-40.341188	-37.380603	-40.341188	-0.581526	-176.149546
9.850000	-0.428078	-130.092224	-37.274438	-40.820772	-37.274438	-40.820772	-0.596868	-177.177202
9.900000	-0.433529	-130.658789	-37.154422	-41.087368	-37.154422	-41.087368	-0.616160	-178.245219
9.950000	-0.439015	-131.224831	-37.018710	-41.124841	-37.018710	-41.124841	-0.640098	-179.352313
10.000000	-0.444542	-131.790335	-36.854481	-40.787712	-36.854481	-40.787712	-0.672268	179.483258
