! freq	dB(S11)	phase(S11)	dB(S12)	phase(S12)	
!     	dB(S21)	phase(S21)	dB(S22)	phase(S22)	
!S-par simulation data
#  GHz  S  DB  R 50
0.000000	-0.000000	0.000000	-317.025332	0.000000	-317.025332	0.000000	-0.000000	0.000000
0.050000	-0.008944	-2.645579	-68.097045	86.690631	-68.097045	86.690631	-0.008957	-2.645810
0.100000	-0.019575	-5.205418	-62.115446	84.471266	-62.115446	84.471266	-0.019589	-5.205774
0.150000	-0.025351	-7.741175	-58.610766	82.053839	-58.610766	82.053839	-0.025361	-7.741694
0.200000	-0.028668	-10.275841	-56.128547	79.576011	-56.128547	79.576011	-0.028674	-10.276546
0.250000	-0.030926	-12.811827	-54.209495	77.074037	-54.209495	77.074037	-0.030929	-12.812721
0.300000	-0.032759	-15.348221	-52.648393	74.562346	-52.648393	74.562346	-0.032761	-15.349302
0.350000	-0.034446	-17.883831	-51.335604	72.047796	-51.335604	72.047796	-0.034447	-17.885094
0.400000	-0.036117	-20.417650	-50.205616	69.534289	-50.205616	69.534289	-0.036117	-20.419090
0.450000	-0.037836	-22.948859	-49.216134	67.024389	-49.216134	67.024389	-0.037835	-22.950470
0.500000	-0.039636	-25.476776	-48.338248	64.519971	-48.338248	64.519971	-0.039634	-25.478551
0.550000	-0.041532	-28.000816	-47.551316	62.022532	-47.551316	62.022532	-0.041530	-28.002747
0.600000	-0.043532	-30.520464	-46.840072	59.533336	-46.840072	59.533336	-0.043529	-30.522544
0.650000	-0.045636	-33.035201	-46.193017	57.053613	-46.193017	57.053613	-0.045632	-33.037420
0.700000	-0.047843	-35.544594	-45.601097	54.584405	-45.601097	54.584405	-0.047839	-35.546945
0.750000	-0.050147	-38.048315	-45.056991	52.126540	-45.056991	52.126540	-0.050142	-38.050787
0.800000	-0.052542	-40.546014	-44.554874	49.680888	-44.554874	49.680888	-0.052536	-40.548597
0.850000	-0.055021	-43.037369	-44.089958	47.248262	-44.089958	47.248262	-0.055014	-43.040054
0.900000	-0.057576	-45.522085	-43.658254	44.829433	-43.658254	44.829433	-0.057568	-45.524861
0.950000	-0.060200	-47.999895	-43.256399	42.425122	-43.256399	42.425122	-0.060190	-48.002750
1.000000	-0.062884	-50.470553	-42.881526	40.036007	-42.881526	40.036007	-0.062874	-50.473476
1.050000	-0.065621	-52.933840	-42.531163	37.662722	-42.531163	37.662722	-0.065609	-52.936819
1.100000	-0.068402	-55.389559	-42.203166	35.305856	-42.203166	35.305856	-0.068389	-55.392583
1.150000	-0.071220	-57.837536	-41.895650	32.965953	-41.895650	32.965953	-0.071205	-57.840592
1.200000	-0.074067	-60.277622	-41.606955	30.643507	-41.606955	30.643507	-0.074050	-60.280697
1.250000	-0.076935	-62.709687	-41.335600	28.338966	-41.335600	28.338966	-0.076916	-62.712769
1.300000	-0.079818	-65.133447	-41.080428	26.053132	-41.080428	26.053132	-0.079797	-65.136521
1.350000	-0.082708	-67.548991	-40.840062	23.785959	-40.840062	23.785959	-0.082685	-67.552045
1.400000	-0.085599	-69.956256	-40.613420	21.537736	-40.613420	21.537736	-0.085574	-69.959277
1.450000	-0.088487	-72.355199	-40.399512	19.308700	-40.399512	19.308700	-0.088459	-72.358172
1.500000	-0.091364	-74.745796	-40.197433	17.099032	-40.197433	17.099032	-0.091334	-74.748709
1.550000	-0.094227	-77.128043	-40.006350	14.908861	-40.006350	14.908861	-0.094194	-77.130881
1.600000	-0.097071	-79.501953	-39.825495	12.738259	-39.825495	12.738259	-0.097036	-79.504702
1.650000	-0.099893	-81.867557	-39.654153	10.587242	-39.654153	10.587242	-0.099854	-81.870204
1.700000	-0.102688	-84.224904	-39.491660	8.455773	-39.491660	8.455773	-0.102647	-84.227435
1.750000	-0.105455	-86.574058	-39.337396	6.343758	-39.337396	6.343758	-0.105411	-86.576458
1.800000	-0.108191	-88.915099	-39.190781	4.251050	-39.190781	4.251050	-0.108144	-88.917354
1.850000	-0.110894	-91.248122	-39.051270	2.177446	-39.051270	2.177446	-0.110843	-91.250219
1.900000	-0.113562	-93.573152	-38.918396	0.122893	-38.918396	0.122893	-0.113508	-93.575075
1.950000	-0.116195	-95.890314	-38.791667	-1.912929	-38.791667	-1.912929	-0.116137	-95.892050
2.000000	-0.118792	-98.199832	-38.670580	-3.930588	-38.670580	-3.930588	-0.118730	-98.201367
2.050000	-0.121352	-100.501853	-38.554706	-5.930497	-38.554706	-5.930497	-0.121287	-100.503173
2.100000	-0.123877	-102.796536	-38.443638	-7.913117	-38.443638	-7.913117	-0.123809	-102.797627
2.150000	-0.126367	-105.084051	-38.336991	-9.878957	-38.336991	-9.878957	-0.126295	-105.084898
2.200000	-0.128823	-107.364577	-38.234402	-11.828574	-38.234402	-11.828574	-0.128746	-107.365167
2.250000	-0.131245	-109.638303	-38.135526	-13.762568	-38.135526	-13.762568	-0.131165	-109.638622
2.300000	-0.133636	-111.905424	-38.040035	-15.681582	-38.040035	-15.681582	-0.133551	-111.905460
2.350000	-0.135997	-114.166147	-37.947620	-17.586301	-37.947620	-17.586301	-0.135908	-114.165885
2.400000	-0.138329	-116.420683	-37.857987	-19.477451	-37.857987	-19.477451	-0.138236	-116.420109
2.450000	-0.140636	-118.669250	-37.770859	-21.355795	-37.770859	-21.355795	-0.140539	-118.668351
2.500000	-0.142919	-120.912073	-37.685973	-23.222134	-37.685973	-23.222134	-0.142817	-120.910836
2.550000	-0.145180	-123.149266	-37.603102	-25.077080	-37.603102	-25.077080	-0.145073	-123.147678
2.600000	-0.147421	-125.381190	-37.521982	-26.921766	-37.521982	-26.921766	-0.147311	-125.379237
2.650000	-0.149647	-127.608082	-37.442393	-28.757095	-37.442393	-28.757095	-0.149532	-127.605753
2.700000	-0.151859	-129.830186	-37.364127	-30.583998	-37.364127	-30.583998	-0.151739	-129.827466
2.750000	-0.154059	-132.047746	-37.286991	-32.403433	-37.286991	-32.403433	-0.153935	-132.044624
2.800000	-0.156251	-134.261010	-37.210804	-34.216387	-37.210804	-34.216387	-0.156122	-134.257473
2.850000	-0.158438	-136.470226	-37.135394	-36.023867	-37.135394	-36.023867	-0.158303	-136.466263
2.900000	-0.160620	-138.675648	-37.060606	-37.826904	-37.060606	-37.826904	-0.160481	-138.671245
2.950000	-0.162802	-140.877525	-36.986293	-39.626546	-36.986293	-39.626546	-0.162658	-140.872672
3.000000	-0.164985	-143.076111	-36.912323	-41.423860	-36.912323	-41.423860	-0.164837	-143.070795
3.050000	-0.167173	-145.271657	-36.838571	-43.219928	-36.838571	-43.219928	-0.167019	-145.265868
3.100000	-0.169367	-147.464415	-36.764927	-45.015843	-36.764927	-45.015843	-0.169208	-147.458141
3.150000	-0.171569	-149.654611	-36.691284	-46.812732	-36.691284	-46.812732	-0.171405	-149.647842
3.200000	-0.173782	-151.842503	-36.617549	-48.611744	-36.617549	-48.611744	-0.173612	-151.835227
3.250000	-0.176007	-154.028365	-36.543651	-50.413985	-36.543651	-50.413985	-0.175832	-154.020572
3.300000	-0.178247	-156.212441	-36.469524	-52.220572	-36.469524	-52.220572	-0.178067	-156.204121
3.350000	-0.180502	-158.394974	-36.395111	-54.032621	-36.395111	-54.032621	-0.180317	-158.386117
3.400000	-0.182775	-160.576202	-36.320367	-55.851244	-36.320367	-55.851244	-0.182584	-160.566798
3.450000	-0.185066	-162.756359	-36.245255	-57.677547	-36.245255	-57.677547	-0.184870	-162.746399
3.500000	-0.187377	-164.935676	-36.169750	-59.512623	-36.169750	-59.512623	-0.187175	-164.925152
3.550000	-0.189709	-167.114379	-36.093835	-61.357554	-36.093835	-61.357554	-0.189501	-167.103281
3.600000	-0.192062	-169.292688	-36.017505	-63.213401	-36.017505	-63.213401	-0.191848	-169.281009
3.650000	-0.194436	-171.470819	-35.940762	-65.081210	-35.940762	-65.081210	-0.194216	-171.458551
3.700000	-0.196833	-173.648982	-35.863618	-66.961998	-35.863618	-66.961998	-0.196607	-173.636116
3.750000	-0.199252	-175.827379	-35.786093	-68.856758	-35.786093	-68.856758	-0.199020	-175.813909
3.800000	-0.201694	-178.006221	-35.708195	-70.766798	-35.708195	-70.766798	-0.201456	-177.992140
3.850000	-0.204157	179.814308	-35.629984	-72.692740	-35.629984	-72.692740	-0.203914	179.829008
3.900000	-0.206643	177.634029	-35.551505	-74.635472	-35.551505	-74.635472	-0.206393	177.649351
3.950000	-0.209149	175.452767	-35.472810	-76.595840	-35.472810	-76.595840	-0.208893	175.468718
4.000000	-0.211675	173.270357	-35.393958	-78.574646	-35.393958	-78.574646	-0.211414	173.286943
4.050000	-0.214221	171.086645	-35.315012	-80.572647	-35.315012	-80.572647	-0.213953	171.103869
4.100000	-0.216785	168.901484	-35.236043	-82.590549	-35.236043	-82.590549	-0.216511	168.919350
4.150000	-0.219365	166.714736	-35.157126	-84.629004	-35.157126	-84.629004	-0.219085	166.733249
4.200000	-0.221961	164.526276	-35.078339	-86.688612	-35.078339	-86.688612	-0.221674	164.545437
4.250000	-0.224570	162.335986	-34.999765	-88.769913	-34.999765	-88.769913	-0.224277	162.355798
4.300000	-0.227192	160.143761	-34.921489	-90.873391	-34.921489	-90.873391	-0.226892	160.164227
4.350000	-0.229823	157.949507	-34.843598	-92.999466	-34.843598	-92.999466	-0.229517	157.970627
4.400000	-0.232462	155.753117	-34.766179	-95.148753	-34.766179	-95.148753	-0.232150	155.774892
4.450000	-0.235107	153.554518	-34.689325	-97.321554	-34.689325	-97.321554	-0.234789	153.576948
4.500000	-0.237755	151.353675	-34.613127	-99.517852	-34.613127	-99.517852	-0.237431	151.376759
4.550000	-0.240405	149.150542	-34.537673	-101.737810	-34.537673	-101.737810	-0.240074	149.174280
4.600000	-0.243053	146.945088	-34.463048	-103.981532	-34.463048	-103.981532	-0.242716	146.969477
4.650000	-0.245697	144.737293	-34.389337	-106.249057	-34.389337	-106.249057	-0.245354	144.762330
4.700000	-0.248335	142.527151	-34.316620	-108.540365	-34.316620	-108.540365	-0.247986	142.552832
4.750000	-0.250964	140.314669	-34.244971	-110.855374	-34.244971	-110.855374	-0.250609	140.340991
4.800000	-0.253582	138.099869	-34.174464	-113.193945	-34.174464	-113.193945	-0.253221	138.126827
4.850000	-0.256185	135.882787	-34.105164	-115.555881	-34.105164	-115.555881	-0.255818	135.910375
4.900000	-0.258772	133.663472	-34.037131	-117.940934	-34.037131	-117.940934	-0.258399	133.691684
4.950000	-0.261340	131.441988	-33.970418	-120.348805	-33.970418	-120.348805	-0.260961	131.470817
5.000000	-0.263886	129.218414	-33.905074	-122.779144	-33.905074	-122.779144	-0.263501	129.247851
5.050000	-0.266407	126.992801	-33.841159	-125.232030	-33.841159	-125.232030	-0.266016	127.022839
5.100000	-0.268901	124.765304	-33.778686	-127.706538	-33.778686	-127.706538	-0.268505	124.795932
5.150000	-0.271367	122.536045	-33.717678	-130.202194	-33.717678	-130.202194	-0.270965	122.567252
5.200000	-0.273801	120.305162	-33.658152	-132.718489	-33.658152	-132.718489	-0.273394	120.336938
5.250000	-0.276203	118.072807	-33.600115	-135.254886	-33.600115	-135.254886	-0.275790	118.105139
5.300000	-0.278569	115.839145	-33.543566	-137.810819	-33.543566	-137.810819	-0.278151	115.872020
5.350000	-0.280899	113.604356	-33.488498	-140.385697	-33.488498	-140.385697	-0.280476	113.637760
5.400000	-0.283190	111.368633	-33.434892	-142.978911	-33.434892	-142.978911	-0.282762	111.402553
5.450000	-0.285442	109.132186	-33.382726	-145.589832	-33.382726	-145.589832	-0.285009	109.166605
5.500000	-0.287654	106.895232	-33.331968	-148.217815	-33.331968	-148.217815	-0.287216	106.930136
5.550000	-0.289823	104.658007	-33.282578	-150.862205	-33.282578	-150.862205	-0.289381	104.693377
5.600000	-0.291950	102.420756	-33.234511	-153.522333	-33.234511	-153.522333	-0.291503	102.456575
5.650000	-0.294034	100.183742	-33.187726	-156.197677	-33.187726	-156.197677	-0.293582	100.219991
5.700000	-0.296074	97.947245	-33.142162	-158.887531	-33.142162	-158.887531	-0.295618	97.983905
5.750000	-0.298071	95.711543	-33.097745	-161.591038	-33.097745	-161.591038	-0.297611	95.748593
5.800000	-0.300026	93.476928	-33.054407	-164.307500	-33.054407	-164.307500	-0.299561	93.514348
5.850000	-0.301938	91.243702	-33.012073	-167.036214	-33.012073	-167.036214	-0.301469	91.281469
5.900000	-0.303809	89.012174	-32.970667	-169.776471	-32.970667	-169.776471	-0.303336	89.050267
5.950000	-0.305639	86.782664	-32.930108	-172.527558	-32.930108	-172.527558	-0.305163	86.821061
6.000000	-0.307431	84.555499	-32.890313	-175.288755	-32.890313	-175.288755	-0.306951	84.594175
6.050000	-0.309186	82.331013	-32.851196	-178.059334	-32.851196	-178.059334	-0.308702	82.369944
6.100000	-0.310905	80.109544	-32.812669	179.161437	-32.812669	179.161437	-0.310418	80.148706
6.150000	-0.312592	77.891439	-32.774644	176.374301	-32.774644	176.374301	-0.312101	77.930807
6.200000	-0.314248	75.677047	-32.737029	173.580007	-32.737029	173.580007	-0.313754	75.716595
6.250000	-0.315876	73.466722	-32.699734	170.779317	-32.699734	170.779317	-0.315379	73.506423
6.300000	-0.317479	71.260924	-32.662669	167.972897	-32.662669	167.972897	-0.316979	71.300752
6.350000	-0.319061	69.059923	-32.625737	165.161671	-32.625737	165.161671	-0.318558	69.099851
6.400000	-0.320626	66.864080	-32.588849	162.346435	-32.588849	162.346435	-0.320119	66.904079
6.450000	-0.322176	64.673752	-32.551916	159.528000	-32.551916	159.528000	-0.321666	64.713796
6.500000	-0.323716	62.489300	-32.514848	156.707190	-32.514848	156.707190	-0.323204	62.529360
6.550000	-0.325250	60.311078	-32.477558	153.884841	-32.477558	153.884841	-0.324735	60.351127
6.600000	-0.326782	58.139443	-32.439959	151.061807	-32.439959	151.061807	-0.326265	58.179451
6.650000	-0.328318	55.974744	-32.401967	148.238954	-32.401967	148.238954	-0.327798	56.014683
6.700000	-0.329861	53.817329	-32.363498	145.417162	-32.363498	145.417162	-0.329338	53.857170
6.750000	-0.331416	51.667538	-32.324471	142.597324	-32.324471	142.597324	-0.330891	51.707252
6.800000	-0.332988	49.525707	-32.284806	139.780345	-32.284806	139.780345	-0.332461	49.565266
6.850000	-0.334583	47.392165	-32.244423	136.967143	-32.244423	136.967143	-0.334053	47.431539
6.900000	-0.336205	45.267330	-32.203234	134.158703	-32.203234	134.158703	-0.335673	45.306490
6.950000	-0.337859	43.151525	-32.161161	131.355993	-32.161161	131.355993	-0.337326	43.190442
7.000000	-0.339552	41.044960	-32.118141	128.559901	-32.118141	128.559901	-0.339016	41.083605
7.050000	-0.341288	38.947929	-32.074101	125.771372	-32.074101	125.771372	-0.340750	38.986272
7.100000	-0.343072	36.860715	-32.028970	122.991348	-32.028970	122.991348	-0.342533	36.898728
7.150000	-0.344909	34.783589	-31.982677	120.220776	-31.982677	120.220776	-0.344369	34.821244
7.200000	-0.346806	32.716814	-31.935152	117.460593	-31.935152	117.460593	-0.346263	32.754081
7.250000	-0.348766	30.660637	-31.886328	114.711732	-31.886328	114.711732	-0.348222	30.697488
7.300000	-0.350796	28.615295	-31.836135	111.975117	-31.836135	111.975117	-0.350251	28.651703
7.350000	-0.352899	26.581011	-31.784507	109.251658	-31.784507	109.251658	-0.352353	26.616947
7.400000	-0.355083	24.557994	-31.731374	106.542249	-31.731374	106.542249	-0.354536	24.593431
7.450000	-0.357350	22.546442	-31.676671	103.847769	-31.676671	103.847769	-0.356803	22.581351
7.500000	-0.359707	20.546535	-31.620327	101.169070	-31.620327	101.169070	-0.359159	20.580889
7.550000	-0.362161	18.558701	-31.562229	98.507366	-31.562229	98.507366	-0.361612	18.592473
7.600000	-0.364713	16.582839	-31.502349	95.863115	-31.502349	95.863115	-0.364164	16.616002
7.650000	-0.367370	14.619086	-31.440617	93.237090	-31.440617	93.237090	-0.366821	14.651613
7.700000	-0.370135	12.667562	-31.376961	90.630032	-31.376961	90.630032	-0.369586	12.699426
7.750000	-0.373013	10.728374	-31.311310	88.042647	-31.311310	88.042647	-0.372465	10.759549
7.800000	-0.376009	8.801612	-31.243586	85.475606	-31.243586	85.475606	-0.375462	8.832071
7.850000	-0.379128	6.887350	-31.173715	82.929542	-31.173715	82.929542	-0.378581	6.917067
7.900000	-0.382372	4.985646	-31.101617	80.405046	-31.101617	80.405046	-0.381827	5.014595
7.950000	-0.385748	3.096544	-31.027210	77.902669	-31.027210	77.902669	-0.385204	3.124699
8.000000	-0.389259	1.220069	-30.950411	75.422922	-30.950411	75.422922	-0.388716	1.247405
8.050000	-0.392909	-0.643768	-30.871132	72.966269	-30.871132	72.966269	-0.392369	-0.617278
8.100000	-0.396704	-2.494974	-30.789282	70.533132	-30.789282	70.533132	-0.396166	-2.469355
8.150000	-0.400649	-4.333435	-30.704729	68.124150	-30.704729	68.124150	-0.400113	-4.308714
8.200000	-0.404748	-6.159192	-30.617368	65.739665	-30.617368	65.739665	-0.404216	-6.135395
8.250000	-0.409006	-7.972440	-30.527134	63.379700	-30.527134	63.379700	-0.408477	-7.949593
8.300000	-0.413426	-9.773252	-30.433920	61.044491	-30.433920	61.044491	-0.412901	-9.751382
8.350000	-0.418024	-11.561011	-30.337360	58.735686	-30.337360	58.735686	-0.417503	-11.540147
8.400000	-0.422786	-13.337220	-30.237819	56.450584	-30.237819	56.450584	-0.422269	-13.317386
8.450000	-0.427724	-15.101508	-30.135015	54.190279	-30.135015	54.190279	-0.427211	-15.082732
8.500000	-0.432843	-16.854012	-30.028824	51.954826	-30.028824	51.954826	-0.432336	-16.836321
8.550000	-0.438150	-18.594884	-29.919120	49.744238	-29.919120	49.744238	-0.437649	-18.578306
8.600000	-0.443674	-20.323050	-29.805180	47.561225	-29.805180	47.561225	-0.443179	-20.307617
8.650000	-0.449402	-22.039913	-29.687368	45.403114	-29.687368	45.403114	-0.448913	-22.025655
8.700000	-0.455342	-23.745753	-29.565562	43.269634	-29.565562	43.269634	-0.454860	-23.732700
8.750000	-0.461502	-25.440797	-29.439600	41.160628	-29.439600	41.160628	-0.461027	-25.428980
8.800000	-0.467892	-27.125290	-29.309311	39.075898	-29.309311	39.075898	-0.467424	-27.114742
8.850000	-0.474522	-28.799496	-29.174513	37.015207	-29.174513	37.015207	-0.474063	-28.790251
8.900000	-0.481417	-30.463285	-29.034704	34.979284	-29.034704	34.979284	-0.480967	-30.455378
8.950000	-0.488599	-32.116710	-28.889403	32.968479	-28.889403	32.968479	-0.488158	-32.110182
9.000000	-0.496066	-33.760835	-28.738897	30.980677	-28.738897	30.980677	-0.495635	-33.755723
9.050000	-0.503834	-35.396013	-28.582947	29.015467	-28.582947	29.015467	-0.503413	-35.392359
9.100000	-0.511923	-37.022621	-28.421297	27.072395	-28.421297	27.072395	-0.511512	-37.020466
9.150000	-0.520354	-38.641059	-28.253674	25.150960	-28.253674	25.150960	-0.519955	-38.640449
9.200000	-0.529152	-40.251752	-28.079785	23.250617	-28.079785	23.250617	-0.528764	-40.252735
9.250000	-0.538381	-41.854528	-27.898318	21.372592	-27.898318	21.372592	-0.538004	-41.857159
9.300000	-0.548050	-43.450420	-27.709544	19.514764	-27.709544	19.514764	-0.547686	-43.454755
9.350000	-0.558185	-45.040123	-27.513337	17.675905	-27.513337	17.675905	-0.557835	-45.046221
9.400000	-0.568827	-46.624187	-27.309285	15.855221	-27.309285	15.855221	-0.568490	-46.632110
9.450000	-0.580020	-48.203194	-27.096942	14.051845	-27.096942	14.051845	-0.579697	-48.213010
9.500000	-0.591816	-49.777762	-26.875822	12.264830	-26.875822	12.264830	-0.591508	-49.789543
9.550000	-0.604290	-51.348470	-26.644996	10.493478	-26.644996	10.493478	-0.603997	-51.362297
9.600000	-0.617564	-52.915898	-26.402634	8.737431	-26.402634	8.737431	-0.617287	-52.931864
9.650000	-0.631655	-54.481127	-26.149492	6.993990	-26.149492	6.993990	-0.631395	-54.499328
9.700000	-0.646650	-56.044947	-25.884840	5.261697	-25.884840	5.261697	-0.646408	-56.065484
9.750000	-0.662595	-57.608175	-25.608971	3.538540	-25.608971	3.538540	-0.662372	-57.631154
9.800000	-0.679742	-59.171723	-25.318091	1.823677	-25.318091	1.823677	-0.679539	-59.197278
9.850000	-0.698165	-60.736575	-25.012406	0.114394	-25.012406	0.114394	-0.697983	-60.764845
9.900000	-0.717966	-62.303677	-24.691672	-1.591990	-24.691672	-1.591990	-0.717809	-62.334809
9.950000	-0.739468	-63.874388	-24.351741	-3.298298	-24.351741	-3.298298	-0.739336	-63.908563
10.000000	-0.762610	-65.449193	-23.995937	-5.007615	-23.995937	-5.007615	-0.762509	-65.486582
