! freq	dB(S11)	phase(S11)	dB(S12)	phase(S12)	
!     	dB(S21)	phase(S21)	dB(S22)	phase(S22)	
!S-par simulation data
#  GHz  S  DB  R 50
0.000000	-82.114541	0.000000	-0.000681	0.000000	-0.000681	0.000000	-82.114541	0.000000
0.050000	-38.615771	-92.390211	-0.007358	-3.184656	-0.007358	-3.184656	-38.609694	-91.338784
0.100000	-32.672859	-96.655566	-0.014879	-6.321381	-0.014879	-6.321381	-32.663282	-94.690459
0.150000	-29.189474	-100.616283	-0.022207	-9.449324	-0.022207	-9.449324	-29.178938	-97.670004
0.200000	-26.725157	-104.451931	-0.030361	-12.572170	-0.030361	-12.572170	-26.714415	-100.515514
0.250000	-24.824856	-108.211030	-0.039520	-15.689131	-0.039520	-15.689131	-24.813745	-103.284741
0.300000	-23.282694	-111.922901	-0.049591	-18.800678	-0.049591	-18.800678	-23.271106	-106.009215
0.350000	-21.987796	-115.604866	-0.060490	-21.907629	-0.060490	-21.907629	-21.975872	-108.703778
0.400000	-20.874458	-119.268159	-0.072202	-25.010531	-0.072202	-25.010531	-20.862425	-111.375458
0.450000	-19.901645	-122.920863	-0.084794	-28.109529	-0.084794	-28.109529	-19.889690	-114.026693
0.500000	-19.039579	-126.569556	-0.098207	-31.205222	-0.098207	-31.205222	-19.027769	-116.660810
0.550000	-18.267791	-130.217322	-0.112427	-34.297852	-0.112427	-34.297852	-18.256143	-119.278641
0.600000	-17.571557	-133.865901	-0.127440	-37.387543	-0.127440	-37.387543	-17.560101	-121.880142
0.650000	-16.940117	-137.516244	-0.143222	-40.474329	-0.143222	-40.474329	-16.928939	-124.464711
0.700000	-16.363644	-141.168528	-0.159638	-43.558493	-0.159638	-43.558493	-16.352877	-127.033617
0.750000	-15.835094	-144.822856	-0.176595	-46.640011	-0.176595	-46.640011	-15.824892	-129.586978
0.800000	-15.349445	-148.479489	-0.194005	-49.718585	-0.194005	-49.718585	-15.339964	-132.124077
0.850000	-14.901783	-152.138746	-0.211757	-52.793991	-0.211757	-52.793991	-14.893123	-134.645268
0.900000	-14.488073	-155.801219	-0.229768	-55.865992	-0.229768	-55.865992	-14.480264	-137.150719
0.950000	-14.105130	-159.467827	-0.247983	-58.934363	-0.247983	-58.934363	-14.098134	-139.640229
1.000000	-13.750167	-163.139704	-0.266355	-61.999039	-0.266355	-61.999039	-13.743885	-142.113632
1.050000	-13.420762	-166.818137	-0.284845	-65.060105	-0.284845	-65.060105	-13.415058	-144.570721
1.100000	-13.114790	-170.504481	-0.303409	-68.117781	-0.303409	-68.117781	-13.109511	-147.011260
1.150000	-12.830370	-174.200101	-0.322001	-71.172386	-0.322001	-71.172386	-12.825364	-149.435000
1.200000	-12.565824	-177.906332	-0.340570	-74.224314	-0.340570	-74.224314	-12.560952	-151.841692
1.250000	-12.319653	178.375538	-0.359062	-77.274008	-0.359062	-77.274008	-12.314797	-154.231094
1.300000	-12.090839	174.643807	-0.377417	-80.321907	-0.377417	-80.321907	-12.085902	-156.602405
1.350000	-11.877813	170.897660	-0.395586	-83.368600	-0.395586	-83.368600	-11.872722	-158.955987
1.400000	-11.679474	167.135936	-0.413519	-86.414623	-0.413519	-86.414623	-11.674173	-161.291670
1.450000	-11.494826	163.357496	-0.431169	-89.460530	-0.431169	-89.460530	-11.489272	-163.609314
1.500000	-11.322477	159.562230	-0.448518	-92.506847	-0.448518	-92.506847	-11.316639	-165.909804
1.550000	-11.162482	155.747292	-0.465492	-95.554199	-0.465492	-95.554199	-11.156327	-168.191295
1.600000	-11.013677	151.912352	-0.482077	-98.603169	-0.482077	-98.603169	-11.007177	-170.454547
1.650000	-10.875357	148.056338	-0.498247	-101.654355	-0.498247	-101.654355	-10.868479	-172.699570
1.700000	-10.747602	144.175949	-0.513935	-104.708688	-0.513935	-104.708688	-10.740303	-174.924649
1.750000	-10.628385	140.274299	-0.529213	-107.766223	-0.529213	-107.766223	-10.620624	-177.133242
1.800000	-10.517820	136.348488	-0.544032	-110.827798	-0.544032	-110.827798	-10.509546	-179.323913
1.850000	-10.415381	132.397559	-0.558385	-113.894009	-0.558385	-113.894009	-10.406531	178.503145
1.900000	-10.320571	128.420600	-0.572273	-116.965448	-0.572273	-116.965448	-10.311073	176.347694
1.950000	-10.232925	124.416744	-0.585697	-120.042698	-0.585697	-120.042698	-10.222698	174.209443
2.000000	-10.152007	120.385179	-0.598663	-123.126335	-0.598663	-123.126335	-10.140958	172.088053
2.050000	-10.077406	116.325148	-0.611181	-126.216923	-0.611181	-126.216923	-10.065434	169.983136
2.100000	-10.008734	112.235960	-0.623262	-129.315019	-0.623262	-129.315019	-9.995729	167.894252
2.150000	-9.945628	108.116985	-0.634918	-132.421170	-0.634918	-132.421170	-9.931470	165.820909
2.200000	-9.887748	103.967661	-0.646164	-135.535912	-0.646164	-135.535912	-9.872309	163.762567
2.250000	-9.834774	99.787493	-0.657016	-138.659776	-0.657016	-138.659776	-9.817920	161.718635
2.300000	-9.786410	95.576051	-0.667488	-141.793286	-0.667488	-141.793286	-9.767997	159.688476
2.350000	-9.742384	91.332969	-0.677597	-144.936963	-0.677597	-144.936963	-9.722261	157.671408
2.400000	-9.702444	87.057936	-0.687358	-148.091323	-0.687358	-148.091323	-9.680453	155.666709
2.450000	-9.666365	82.750694	-0.696786	-151.256884	-0.696786	-151.256884	-9.642340	153.673620
2.500000	-9.633947	78.411021	-0.705893	-154.434169	-0.705893	-154.434169	-9.607710	151.691355
2.550000	-9.605157	74.037297	-0.714677	-157.624265	-0.714677	-157.624265	-9.576512	149.719501
2.600000	-9.579700	69.630746	-0.723162	-160.827203	-0.723162	-160.827203	-9.548447	147.756767
2.650000	-9.557466	65.191167	-0.731354	-164.043543	-0.731354	-164.043543	-9.523389	145.802336
2.700000	-9.538377	60.718320	-0.739258	-167.273864	-0.739258	-167.273864	-9.501242	143.855410
2.750000	-9.522389	56.211894	-0.746872	-170.518774	-0.746872	-170.518774	-9.481939	141.915225
2.800000	-9.509496	51.671477	-0.754195	-173.778915	-0.754195	-173.778915	-9.465448	139.981071
2.850000	-9.499730	47.096513	-0.761219	-177.054970	-0.761219	-177.054970	-9.451771	138.052317
2.900000	-9.493165	42.486261	-0.767934	179.652329	-0.767934	179.652329	-9.440944	136.128440
2.950000	-9.489919	37.839745	-0.774326	176.342192	-0.774326	176.342192	-9.433041	134.209047
3.000000	-9.490155	33.155693	-0.780375	173.013759	-0.780375	173.013759	-9.428174	132.293921
3.050000	-9.494088	28.432478	-0.786059	169.666093	-0.786059	169.666093	-9.426494	130.383051
3.100000	-9.501978	23.668043	-0.791352	166.298163	-0.791352	166.298163	-9.428194	128.476686
3.150000	-9.513542	18.865935	-0.796281	162.911790	-0.796281	162.911790	-9.433001	126.574609
3.200000	-9.530357	14.010717	-0.800694	159.499734	-0.800694	159.499734	-9.442208	124.679185
3.250000	-9.552255	9.104649	-0.804613	156.063617	-0.804613	156.063617	-9.455626	122.791085
3.300000	-9.579732	4.142982	-0.807998	152.601885	-0.807998	152.601885	-9.473616	120.912207
3.350000	-9.613539	-0.882014	-0.810791	149.111954	-0.810791	149.111954	-9.496736	119.045510
3.400000	-9.653606	-5.970054	-0.813017	145.594947	-0.813017	145.594947	-9.524867	117.192622
3.450000	-9.701718	-11.140954	-0.814535	142.043905	-0.814535	142.043905	-9.559360	115.360466
3.500000	-9.757620	-16.393718	-0.815402	138.460792	-0.815402	138.460792	-9.599910	113.551335
3.550000	-9.822760	-21.747237	-0.815536	134.840189	-0.815536	134.840189	-9.647523	111.773726
3.600000	-9.897845	-27.213591	-0.814931	131.179789	-0.814931	131.179789	-9.702580	110.034848
3.650000	-9.983413	-32.804781	-0.813613	127.477805	-0.813613	127.477805	-9.765277	108.342548
3.700000	-10.081422	-38.554504	-0.811526	123.726035	-0.811526	123.726035	-9.836779	106.713829
3.750000	-10.191069	-44.461023	-0.808818	119.927887	-0.808818	119.927887	-9.916175	105.152000
3.800000	-10.315708	-50.593871	-0.805431	116.066994	-0.805431	116.066994	-10.005255	103.692187
3.850000	-10.453466	-56.941686	-0.801606	112.150275	-0.801606	112.150275	-10.102183	102.333748
3.900000	-10.606570	-63.584335	-0.797459	108.161854	-0.797459	108.161854	-10.207406	101.119354
3.950000	-10.773705	-70.541655	-0.793262	104.101786	-0.793262	104.101786	-10.319027	100.062810
4.000000	-10.954202	-77.884703	-0.789366	99.959580	-0.789366	99.959580	-10.434915	99.203080
4.050000	-11.145636	-85.666573	-0.786192	95.729472	-0.786192	95.729472	-10.551683	98.568688
4.100000	-11.343631	-93.987508	-0.784408	91.397882	-0.784408	91.397882	-10.663673	98.209715
4.150000	-11.540459	-102.921933	-0.784794	86.956832	-0.784794	86.956832	-10.763118	98.158137
4.200000	-11.723961	-112.566743	-0.788422	82.393858	-0.788422	82.393858	-10.838922	98.449618
4.250000	-11.876405	-123.002299	-0.796626	77.697137	-0.796626	77.697137	-10.876841	99.100793
4.300000	-11.973955	-134.281387	-0.811077	72.854194	-0.811077	72.854194	-10.859734	100.102023
4.350000	-11.987040	-146.408374	-0.833891	67.851259	-0.833891	67.851259	-10.768386	101.406787
4.400000	-11.883776	-159.307752	-0.867699	62.674158	-0.867699	62.674158	-10.584024	102.919457
4.450000	-11.636480	-172.807794	-0.915747	57.308774	-0.915747	57.308774	-10.291862	104.492995
4.500000	-11.229879	173.347064	-0.981981	51.741751	-0.981981	51.741751	-9.884889	105.940160
4.550000	-10.667179	159.449405	-1.071140	45.961457	-1.071140	45.961457	-9.366461	107.058426
4.600000	-9.969553	145.767021	-1.188972	39.958162	-1.188972	39.958162	-8.749856	107.658289
4.650000	-9.171739	132.493368	-1.342211	33.726753	-1.342211	33.726753	-8.056896	107.591850
4.700000	-8.315570	119.721261	-1.537865	27.272049	-1.537865	27.272049	-7.315653	106.781351
4.750000	-7.438866	107.472514	-1.783833	20.605065	-1.783833	20.605065	-6.553459	105.201473
4.800000	-6.573514	95.725163	-2.088366	13.746750	-2.088366	13.746750	-5.795476	102.875249
4.850000	-5.744371	84.440331	-2.459692	6.728949	-2.459692	6.728949	-5.063130	99.861902
4.900000	-4.969572	73.580510	-2.905570	-0.405676	-2.905570	-0.405676	-4.373432	96.245139
4.950000	-4.261322	63.118884	-3.432855	-7.605037	-3.432855	-7.605037	-3.738845	92.123168
5.000000	-3.626736	53.041739	-4.047182	-14.810332	-4.047182	-14.810332	-3.167439	87.600398
5.050000	-3.069279	43.352016	-4.753266	-21.957988	-4.753266	-21.957988	-2.663874	82.777689
5.100000	-2.587682	34.048449	-5.553396	-28.987219	-5.553396	-28.987219	-2.228165	77.757612
5.150000	-2.178241	25.137107	-6.449999	-35.842017	-6.449999	-35.842017	-1.857796	72.625808
5.200000	-1.835320	16.621923	-7.445746	-42.473165	-7.445746	-42.473165	-1.548169	67.454154
5.250000	-1.552115	8.502164	-8.544627	-48.838613	-8.544627	-48.838613	-1.293367	62.299706
5.300000	-1.322051	0.778199	-9.752199	-54.895965	-9.752199	-54.895965	-1.087502	57.206584
5.350000	-1.136808	-6.569900	-11.079885	-60.614832	-11.079885	-60.614832	-0.922971	52.203500
5.400000	-0.988841	-13.566665	-12.548082	-65.963024	-12.548082	-65.963024	-0.792855	47.305762
5.450000	-0.872672	-20.226375	-14.184809	-70.878645	-14.184809	-70.878645	-0.692066	42.524694
5.500000	-0.784067	-26.554678	-16.026526	-75.224752	-16.026526	-75.224752	-0.616609	37.870851
5.550000	-0.716396	-32.599714	-18.157600	-78.839796	-18.157600	-78.839796	-0.560288	33.333460
5.600000	-0.665954	-38.384070	-20.709814	-81.322984	-20.709814	-81.322984	-0.519639	28.908117
5.650000	-0.630122	-43.920075	-23.914467	-81.543620	-23.914467	-81.543620	-0.492194	24.593270
5.700000	-0.605947	-49.232706	-28.232151	-75.463874	-28.232151	-75.463874	-0.475193	20.380449
5.750000	-0.590752	-54.353165	-33.829583	-46.541217	-33.829583	-46.541217	-0.466160	16.256988
5.800000	-0.582859	-59.300390	-33.920077	14.415079	-33.920077	14.415079	-0.463536	12.215125
5.850000	-0.581233	-64.081846	-28.917185	37.454114	-28.917185	37.454114	-0.466339	8.252201
5.900000	-0.584301	-68.725395	-25.538408	42.741131	-25.538408	42.741131	-0.473138	4.355541
5.950000	-0.591116	-73.248679	-23.210612	43.052431	-23.210612	43.052431	-0.483071	0.517099
6.000000	-0.601016	-77.664574	-21.495269	41.507173	-21.495269	41.507173	-0.495532	-3.268960
6.050000	-0.613544	-81.981916	-20.173712	39.103700	-20.173712	39.103700	-0.510087	-7.006473
6.100000	-0.628040	-86.221370	-19.112480	36.293170	-19.112480	36.293170	-0.526163	-10.705132
6.150000	-0.644173	-90.394417	-18.239112	33.242825	-18.239112	33.242825	-0.543463	-14.370136
6.200000	-0.661725	-94.510096	-17.509599	30.041434	-17.509599	30.041434	-0.561782	-18.005360
6.250000	-0.680539	-98.577768	-16.895024	26.741292	-16.895024	26.741292	-0.580959	-21.614606
6.300000	-0.700295	-102.614806	-16.365074	23.385121	-16.365074	23.385121	-0.600742	-25.206031
6.350000	-0.720915	-106.629760	-15.905450	19.985966	-15.905450	19.985966	-0.621051	-28.783129
6.400000	-0.742323	-110.632103	-15.504483	16.553538	-15.504483	16.553538	-0.641814	-32.349816
6.450000	-0.764464	-114.631225	-15.153285	13.093539	-15.153285	13.093539	-0.662972	-35.909890
6.500000	-0.787305	-118.636504	-14.844993	9.608903	-14.844993	9.608903	-0.684482	-39.467058
6.550000	-0.810839	-122.657985	-14.574844	6.100092	-14.574844	6.100092	-0.706319	-43.025076
6.600000	-0.835153	-126.711760	-14.342083	2.562818	-14.342083	2.562818	-0.728489	-46.589227
6.650000	-0.860158	-130.805284	-14.139244	-1.000929	-14.139244	-1.000929	-0.750931	-50.162993
6.700000	-0.885772	-134.939526	-13.960535	-4.588581	-13.960535	-4.588581	-0.773603	-53.747410
6.750000	-0.912257	-139.145875	-13.812922	-8.213895	-13.812922	-8.213895	-0.796561	-57.351828
6.800000	-0.939481	-143.421566	-13.689482	-11.872131	-13.689482	-11.872131	-0.819740	-60.976226
6.850000	-0.967566	-147.789146	-13.592733	-15.570971	-13.592733	-15.570971	-0.843142	-64.627654
6.900000	-0.996513	-152.257388	-13.521564	-19.311483	-13.521564	-19.311483	-0.866735	-68.309082
6.950000	-1.026370	-156.841541	-13.476947	-23.096828	-13.476947	-23.096828	-0.890494	-72.025342
7.000000	-1.057235	-161.565543	-13.462147	-26.932415	-13.462147	-26.932415	-0.914395	-75.783850
7.050000	-1.089057	-166.430440	-13.476110	-30.814362	-13.476110	-30.814362	-0.938399	-79.585075
7.100000	-1.122055	-171.484379	-13.527983	-34.751723	-13.527983	-34.751723	-0.962480	-83.443786
7.150000	-1.156099	-176.713607	-13.615282	-38.733084	-13.615282	-38.733084	-0.986614	-87.355971
7.200000	-1.191435	177.823346	-13.751016	-42.760723	-13.751016	-42.760723	-1.010788	-91.339789
7.250000	-1.227987	172.132208	-13.936634	-46.818454	-13.936634	-46.818454	-1.035022	-95.393894
7.300000	-1.265934	166.166905	-14.186074	-50.888097	-14.186074	-50.888097	-1.059381	-99.533200
7.350000	-1.305363	159.904496	-14.511126	-54.936013	-14.511126	-54.936013	-1.083995	-103.765879
7.400000	-1.346341	153.332764	-14.924410	-58.911263	-14.924410	-58.911263	-1.109074	-108.097219
7.450000	-1.389190	146.392650	-15.454906	-62.714128	-15.454906	-62.714128	-1.135036	-112.548285
7.500000	-1.434124	139.066181	-16.129125	-66.189973	-16.129125	-66.189973	-1.162456	-117.128107
7.550000	-1.481560	131.317918	-16.987601	-69.049483	-16.987601	-69.049483	-1.192240	-121.852847
7.600000	-1.531994	123.127889	-18.077007	-70.786005	-18.077007	-70.786005	-1.225593	-126.735098
7.650000	-1.586138	114.476379	-19.444828	-70.425210	-19.444828	-70.425210	-1.264162	-131.789274
7.700000	-1.644931	105.352574	-21.079070	-66.087326	-21.079070	-66.087326	-1.310080	-137.028901
7.750000	-1.709577	95.758050	-22.670495	-54.726823	-22.670495	-54.726823	-1.365985	-142.465465
7.800000	-1.781490	85.713662	-23.198810	-35.375818	-23.198810	-35.375818	-1.434849	-148.105359
7.850000	-1.862647	75.244996	-21.734356	-16.551411	-21.734356	-16.551411	-1.520571	-153.957540
7.900000	-1.954899	64.417604	-19.262251	-6.482761	-19.262251	-6.482761	-1.626546	-160.016010
7.950000	-2.060154	53.313559	-16.811190	-3.783026	-16.811190	-3.783026	-1.755934	-166.269447
8.000000	-2.180092	42.029995	-14.671692	-5.384104	-14.671692	-5.384104	-1.911098	-172.699796
8.050000	-2.316808	30.670577	-12.851287	-9.495516	-12.851287	-9.495516	-2.094637	-179.291692
8.100000	-2.471972	19.353526	-11.309648	-15.071651	-11.309648	-15.071651	-2.307768	173.976732
8.150000	-2.646132	8.185553	-10.001608	-21.496142	-10.001608	-21.496142	-2.549491	167.132845
8.200000	-2.840749	-2.729721	-8.887975	-28.451894	-8.887975	-28.451894	-2.819602	160.193164
8.250000	-3.056339	-13.320219	-7.935451	-35.711956	-7.935451	-35.711956	-3.116307	153.175726
8.300000	-3.294399	-23.521663	-7.117797	-43.143276	-7.117797	-43.143276	-3.438714	146.090166
8.350000	-3.556458	-33.302407	-6.411944	-50.656137	-6.411944	-50.656137	-3.786024	138.944334
8.400000	-3.845112	-42.644469	-5.799169	-58.197796	-5.799169	-58.197796	-4.158650	131.742559
8.450000	-4.164382	-51.540404	-5.264271	-65.739882	-5.264271	-65.739882	-4.558541	124.487969
8.500000	-4.519177	-60.010186	-4.793373	-73.272480	-4.793373	-73.272480	-4.989177	117.187228
8.550000	-4.915797	-68.083942	-4.375014	-80.799297	-4.375014	-80.799297	-5.456020	109.850847
8.600000	-5.363338	-75.782408	-4.000810	-88.332105	-4.000810	-88.332105	-5.967309	102.493765
8.650000	-5.878119	-83.094709	-3.665898	-95.894028	-3.665898	-95.894028	-6.537415	95.144499
8.700000	-6.475075	-90.059915	-3.363300	-103.510254	-3.363300	-103.510254	-7.181875	87.850432
8.750000	-7.177699	-96.668648	-3.089661	-111.209356	-3.089661	-111.209356	-7.923636	80.683406
8.800000	-8.021486	-102.864097	-2.843735	-119.026796	-2.843735	-119.026796	-8.796619	73.770585
8.850000	-9.061131	-108.485643	-2.626674	-127.008228	-2.626674	-127.008228	-9.851617	67.378022
8.900000	-10.363162	-113.286334	-2.438778	-135.177471	-2.438778	-135.177471	-11.148259	61.898845
8.950000	-12.045283	-116.564440	-2.285390	-143.578386	-2.285390	-143.578386	-12.778396	58.259599
9.000000	-14.270169	-116.707848	-2.172678	-152.237992	-2.172678	-152.237992	-14.824684	58.384020
9.050000	-17.165576	-109.400190	-2.109468	-161.175587	-2.109468	-161.175587	-17.154334	66.415971
9.100000	-19.698593	-84.677933	-2.108526	-170.400771	-2.108526	-170.400771	-18.461034	87.197547
9.150000	-18.374602	-51.352987	-2.181550	-179.886181	-2.181550	-179.886181	-16.943037	109.360864
9.200000	-14.844172	-36.049975	-2.340246	170.421714	-2.340246	170.421714	-14.080301	119.008887
9.250000	-11.769644	-33.568939	-2.595072	160.603600	-2.595072	160.603600	-11.432874	119.251108
9.300000	-9.394176	-36.396504	-2.952869	150.764999	-2.952869	150.764999	-9.278319	114.863061
9.350000	-7.560762	-41.521299	-3.415409	141.025468	-3.415409	141.025468	-7.561361	108.261880
9.400000	-6.136468	-47.681244	-3.979683	131.509460	-3.979683	131.509460	-6.198741	100.618376
9.450000	-5.026207	-54.233724	-4.635518	122.324433	-4.635518	122.324433	-5.119299	92.579839
9.500000	-4.157918	-60.832892	-5.368941	113.541752	-5.368941	113.541752	-4.263416	84.510512
9.550000	-3.478663	-67.288823	-6.165642	105.206808	-6.165642	105.206808	-3.584840	76.616601
9.600000	-2.947299	-73.496042	-7.011386	97.337119	-7.011386	97.337119	-3.046426	69.015986
9.650000	-2.531482	-79.402798	-7.893153	89.927691	-7.893153	89.927691	-2.618366	61.769338
9.700000	-2.206288	-84.988840	-8.799042	82.960991	-8.799042	82.960991	-2.277404	54.903653
9.750000	-1.952346	-90.252913	-9.718038	76.411471	-9.718038	76.411471	-2.005332	48.425543
9.800000	-1.752432	-95.219661	-10.644884	70.231160	-10.644884	70.231160	-1.785873	42.311313
9.850000	-1.594676	-99.911248	-11.574141	64.381743	-11.574141	64.381743	-1.607764	36.540206
9.900000	-1.469899	-104.352095	-12.501654	58.825235	-12.501654	58.825235	-1.462280	31.088380
9.950000	-1.371005	-108.566749	-13.424259	53.525077	-13.424259	53.525077	-1.342667	25.931260
10.000000	-1.292501	-112.578666	-14.339517	48.446586	-14.339517	48.446586	-1.243695	21.044902
