! freq	dB(S11)	phase(S11)	dB(S12)	phase(S12)	
!     	dB(S21)	phase(S21)	dB(S22)	phase(S22)	
!S-par simulation data
#  GHz  S  DB  R 50
0.000000	-0.000000	0.000000	-283.527204	0.000000	-283.527204	0.000000	0.000000	0.000000
0.050000	-0.002911	-4.224561	-74.572244	85.730289	-74.572244	85.730289	-0.002902	-4.224431
0.100000	-0.009657	-8.421881	-68.589824	81.639223	-68.589824	81.639223	-0.009668	-8.421903
0.150000	-0.017156	-12.585921	-65.126287	77.527659	-65.126287	77.527659	-0.017251	-12.586109
0.200000	-0.023915	-16.721160	-62.708900	73.428780	-62.708900	73.428780	-0.024135	-16.721288
0.250000	-0.029775	-20.831388	-60.874738	69.355663	-60.874738	69.355663	-0.030128	-20.831240
0.300000	-0.034980	-24.916334	-59.418220	65.317867	-59.418220	65.317867	-0.035458	-24.915775
0.350000	-0.039800	-28.974498	-58.227529	61.322282	-58.227529	61.322282	-0.040390	-28.973463
0.400000	-0.044409	-33.002744	-57.237171	57.376282	-57.237171	57.376282	-0.045097	-33.001204
0.450000	-0.048909	-36.996559	-56.406640	53.488915	-56.406640	53.488915	-0.049681	-36.994496
0.500000	-0.053355	-40.953396	-55.705094	49.665782	-55.705094	49.665782	-0.054196	-40.950794
0.550000	-0.057759	-44.870058	-55.111700	45.913761	-55.111700	45.913761	-0.058655	-44.866891
0.600000	-0.062112	-48.743318	-54.611310	42.240168	-54.611310	42.240168	-0.063051	-48.739550
0.650000	-0.066393	-52.571187	-54.191209	38.650530	-54.191209	38.650530	-0.067364	-52.566771
0.700000	-0.070575	-56.350757	-53.842749	35.152614	-53.842749	35.152614	-0.071566	-56.345639
0.750000	-0.074627	-60.080083	-53.558287	31.753070	-53.558287	31.753070	-0.075632	-60.074206
0.800000	-0.078526	-63.757612	-53.331515	28.458458	-53.331515	28.458458	-0.079538	-63.750921
0.850000	-0.082256	-67.383617	-53.155903	25.272198	-53.155903	25.272198	-0.083270	-67.376068
0.900000	-0.085795	-70.954882	-53.029070	22.206008	-53.029070	22.206008	-0.086808	-70.946437
0.950000	-0.089136	-74.471286	-52.946715	19.266116	-52.946715	19.266116	-0.090147	-74.461922
1.000000	-0.092277	-77.932026	-52.905814	16.461420	-52.905814	16.461420	-0.093282	-77.921736
1.050000	-0.095221	-81.337320	-52.903179	13.799601	-52.903179	13.799601	-0.096219	-81.326109
1.100000	-0.097976	-84.687178	-52.936250	11.290144	-52.936250	11.290144	-0.098964	-84.675063
1.150000	-0.100550	-87.981236	-53.002986	8.945378	-53.002986	8.945378	-0.101525	-87.968247
1.200000	-0.102960	-91.221415	-53.100313	6.772070	-53.100313	6.772070	-0.103918	-91.207586
1.250000	-0.105216	-94.407420	-53.226550	4.785568	-53.226550	4.785568	-0.106152	-94.392793
1.300000	-0.107329	-97.538870	-53.379880	3.004584	-53.379880	3.004584	-0.108237	-97.523489
1.350000	-0.109315	-100.617845	-53.557266	1.440532	-53.557266	1.440532	-0.110189	-100.601756
1.400000	-0.111187	-103.645357	-53.755996	0.110218	-53.755996	0.110218	-0.112020	-103.628606
1.450000	-0.112956	-106.622510	-53.972963	-0.968390	-53.972963	-0.968390	-0.113743	-106.605143
1.500000	-0.114633	-109.550485	-54.204517	-1.776561	-54.204517	-1.776561	-0.115367	-109.532545
1.550000	-0.116227	-112.430518	-54.446313	-2.295506	-54.446313	-2.295506	-0.116903	-112.412049
1.600000	-0.117748	-115.263895	-54.693157	-2.507491	-54.693157	-2.507491	-0.118359	-115.244937
1.650000	-0.119204	-118.051931	-54.938874	-2.397469	-54.938874	-2.397469	-0.119745	-118.032526
1.700000	-0.120601	-120.795969	-55.176238	-1.955283	-55.176238	-1.955283	-0.121068	-120.776154
1.750000	-0.121946	-123.497362	-55.397000	-1.178423	-55.397000	-1.178423	-0.122335	-123.477175
1.800000	-0.123245	-126.157471	-55.592093	-0.075135	-55.592093	-0.075135	-0.123553	-126.136949
1.850000	-0.124504	-128.777657	-55.752040	1.332566	-55.752040	1.332566	-0.124727	-128.756837
1.900000	-0.125727	-131.358871	-55.867031	3.008970	-55.867031	3.008970	-0.125862	-131.337787
1.950000	-0.126920	-133.902501	-55.928763	4.897159	-55.928763	4.897159	-0.126966	-133.881190
2.000000	-0.128087	-136.410295	-55.931774	6.924329	-55.931774	6.924329	-0.128041	-136.388790
2.050000	-0.129231	-138.883563	-55.872927	9.011177	-55.872927	9.011177	-0.129094	-138.861897
2.100000	-0.130358	-141.323592	-55.752320	11.075787	-55.752320	11.075787	-0.130127	-141.301799
2.150000	-0.131470	-143.731648	-55.573219	13.040996	-55.573219	13.040996	-0.131146	-143.709759
2.200000	-0.132570	-146.108970	-55.341531	14.840700	-55.341531	14.840700	-0.132154	-146.087017
2.250000	-0.133663	-148.456773	-55.064980	16.423950	-55.064980	16.423950	-0.133153	-148.434787
2.300000	-0.134751	-150.776243	-54.752183	17.756396	-54.752183	17.756396	-0.134149	-150.754253
2.350000	-0.135836	-153.068536	-54.411828	18.819420	-54.411828	18.819420	-0.135142	-153.046572
2.400000	-0.136921	-155.334784	-54.052059	19.607742	-54.052059	19.607742	-0.136137	-155.312873
2.450000	-0.138009	-157.576085	-53.680097	20.126337	-53.680097	20.126337	-0.137135	-157.554254
2.500000	-0.139101	-159.793510	-53.302064	20.387346	-53.302064	20.387346	-0.138140	-159.771786
2.550000	-0.140200	-161.987627	-52.922687	20.402584	-52.922687	20.402584	-0.139152	-161.966036
2.600000	-0.141308	-164.159968	-52.546388	20.196704	-52.546388	20.196704	-0.140175	-164.138533
2.650000	-0.142426	-166.311513	-52.176205	19.789428	-52.176205	19.789428	-0.141210	-166.290258
2.700000	-0.143556	-168.443215	-51.814420	19.200160	-51.814420	19.200160	-0.142258	-168.422162
2.750000	-0.144699	-170.556000	-51.462698	18.447356	-51.462698	18.447356	-0.143322	-170.535170
2.800000	-0.145856	-172.650765	-51.122215	17.548175	-51.122215	17.548175	-0.144402	-172.630178
2.850000	-0.147028	-174.728381	-50.793761	16.518315	-50.793761	16.518315	-0.145499	-174.708056
2.900000	-0.148217	-176.789692	-50.477828	15.371979	-50.477828	15.371979	-0.146614	-176.769648
2.950000	-0.149422	-178.835518	-50.174682	14.121912	-50.174682	14.121912	-0.147749	-178.815770
3.000000	-0.150646	179.133350	-49.884418	12.779487	-49.884418	12.779487	-0.148904	179.152784
3.050000	-0.151888	177.116141	-49.607006	11.354812	-49.607006	11.354812	-0.150079	177.135248
3.100000	-0.153148	175.112111	-49.342324	9.856849	-49.342324	9.856849	-0.151276	175.130876
3.150000	-0.154428	173.120666	-49.090242	8.292894	-49.090242	8.292894	-0.152494	173.139075
3.200000	-0.155728	171.141083	-48.850544	6.670163	-48.850544	6.670163	-0.153734	171.159125
3.250000	-0.157047	169.172552	-48.622911	4.995499	-48.622911	4.995499	-0.154996	169.190215
3.300000	-0.158386	167.214417	-48.407062	3.274318	-48.407062	3.274318	-0.156280	167.231692
3.350000	-0.159745	165.266310	-48.202904	1.510320	-48.202904	1.510320	-0.157586	165.283186
3.400000	-0.161122	163.326692	-48.009459	-0.288523	-48.009459	-0.288523	-0.158913	163.343160
3.450000	-0.162520	161.396330	-47.827505	-2.123946	-47.827505	-2.123946	-0.160263	161.412383
3.500000	-0.163937	159.473521	-47.655828	-3.988261	-47.655828	-3.988261	-0.161634	159.489152
3.550000	-0.165372	157.558309	-47.494720	-5.880865	-47.494720	-5.880865	-0.163026	157.573510
3.600000	-0.166827	155.650013	-47.343787	-7.798706	-47.343787	-7.798706	-0.164439	155.664780
3.650000	-0.168299	153.747859	-47.202516	-9.738643	-47.202516	-9.738643	-0.165872	153.762187
3.700000	-0.169789	151.851928	-47.071413	-11.700824	-47.071413	-11.700824	-0.167326	151.865812
3.750000	-0.171296	149.960875	-46.949106	-13.680470	-46.949106	-13.680470	-0.168797	149.974311
3.800000	-0.172820	148.075300	-46.837052	-15.679969	-46.837052	-15.679969	-0.170289	148.088285
3.850000	-0.174360	146.193740	-46.733440	-17.694350	-46.733440	-17.694350	-0.171798	146.206272
3.900000	-0.175916	144.316414	-46.639343	-19.724971	-46.639343	-19.724971	-0.173326	144.328491
3.950000	-0.177486	142.442528	-46.553871	-21.769421	-46.553871	-21.769421	-0.174870	142.454149
4.000000	-0.179070	140.571802	-46.477233	-23.827403	-46.477233	-23.827403	-0.176430	140.582965
4.050000	-0.180668	138.703893	-46.409501	-25.898453	-46.409501	-25.898453	-0.178005	138.714598
4.100000	-0.182277	136.838222	-46.349983	-27.980998	-46.349983	-27.980998	-0.179595	136.848470
4.150000	-0.183900	134.974710	-46.299748	-30.076117	-46.299748	-30.076117	-0.181199	134.984500
4.200000	-0.185532	133.112682	-46.257333	-32.181384	-46.257333	-32.181384	-0.182815	133.122016
4.250000	-0.187176	131.252071	-46.224355	-34.298550	-46.224355	-34.298550	-0.184445	131.260951
4.300000	-0.188829	129.392343	-46.199364	-36.425442	-46.199364	-36.425442	-0.186085	129.400770
4.350000	-0.190491	127.533275	-46.183388	-38.563009	-46.183388	-38.563009	-0.187737	127.541252
4.400000	-0.192161	125.674530	-46.175989	-40.710445	-46.175989	-40.710445	-0.189397	125.682060
4.450000	-0.193838	123.815817	-46.177246	-42.867573	-46.177246	-42.867573	-0.191067	123.822901
4.500000	-0.195521	121.956842	-46.187777	-45.034806	-46.187777	-45.034806	-0.192745	121.963486
4.550000	-0.197210	120.097384	-46.206667	-47.210903	-46.206667	-47.210903	-0.194430	120.103590
4.600000	-0.198904	118.237063	-46.235640	-49.397404	-46.235640	-49.397404	-0.196122	118.242835
4.650000	-0.200602	116.375800	-46.273100	-51.592397	-46.273100	-51.592397	-0.197820	116.381143
4.700000	-0.202304	114.513159	-46.320851	-53.797414	-46.320851	-53.797414	-0.199522	114.518077
4.750000	-0.204008	112.649097	-46.377848	-56.011127	-46.377848	-56.011127	-0.201229	112.653594
4.800000	-0.205715	110.783276	-46.445064	-58.234169	-46.445064	-58.234169	-0.202940	110.787358
4.850000	-0.207423	108.915525	-46.522590	-60.466291	-46.522590	-60.466291	-0.204654	108.919197
4.900000	-0.209132	107.045729	-46.610345	-62.707075	-46.610345	-62.707075	-0.206370	107.048997
4.950000	-0.210842	105.173488	-46.709613	-64.957315	-46.709613	-64.957315	-0.208088	105.176358
5.000000	-0.212552	103.299002	-46.819215	-67.215577	-46.819215	-67.215577	-0.209808	103.301479
5.050000	-0.214261	101.421697	-46.941183	-69.483239	-46.941183	-69.483239	-0.211528	101.423788
5.100000	-0.215970	99.541595	-47.075239	-71.759622	-47.075239	-71.759622	-0.213249	99.543306
5.150000	-0.217678	97.658554	-47.221859	-74.044693	-47.221859	-74.044693	-0.214971	97.659891
5.200000	-0.219385	95.772440	-47.381565	-76.338440	-47.381565	-76.338440	-0.216692	95.773410
5.250000	-0.221091	93.883129	-47.554929	-78.640883	-47.554929	-78.640883	-0.218413	93.883738
5.300000	-0.222795	91.990507	-47.742581	-80.952082	-47.742581	-80.952082	-0.220134	91.990763
5.350000	-0.224498	90.094469	-47.945216	-83.272155	-47.945216	-83.272155	-0.221855	90.094378
5.400000	-0.226200	88.194919	-48.163602	-85.601293	-48.163602	-85.601293	-0.223576	88.194489
5.450000	-0.227901	86.291771	-48.398592	-87.939778	-48.398592	-87.939778	-0.225296	86.291010
5.500000	-0.229601	84.384948	-48.651138	-90.288013	-48.651138	-90.288013	-0.227017	84.383861
5.550000	-0.231301	82.474379	-48.922303	-92.646551	-48.922303	-92.646551	-0.228739	82.472975
5.600000	-0.233002	80.560005	-49.213287	-95.016134	-49.213287	-95.016134	-0.230462	80.558291
5.650000	-0.234703	78.641732	-49.525561	-97.397888	-49.525561	-97.397888	-0.232186	78.639715
5.700000	-0.236406	76.719514	-49.860667	-99.793152	-49.860667	-99.793152	-0.233913	76.717203
5.750000	-0.238112	74.793358	-50.220254	-102.203487	-50.220254	-102.203487	-0.235644	74.790760
5.800000	-0.239821	72.863237	-50.606363	-104.631082	-50.606363	-104.631082	-0.237378	72.860359
5.850000	-0.241535	70.929130	-51.021361	-107.078758	-51.021361	-107.078758	-0.239118	70.925980
5.900000	-0.243255	68.991026	-51.468025	-109.550161	-51.468025	-109.550161	-0.240864	68.987611
5.950000	-0.244982	67.048918	-51.949638	-112.050012	-51.949638	-112.050012	-0.242619	67.045246
6.000000	-0.246718	65.102806	-52.470118	-114.584472	-52.470118	-114.584472	-0.244383	65.098886
6.050000	-0.248465	63.152700	-53.034196	-117.161641	-53.034196	-117.161641	-0.246157	63.148538
6.100000	-0.250224	61.198611	-53.647647	-119.792303	-53.647647	-119.792303	-0.247945	61.194216
6.150000	-0.251997	59.240560	-54.317626	-122.491024	-54.317626	-122.491024	-0.249747	59.235939
6.200000	-0.253787	57.278570	-55.053124	-125.277844	-55.053124	-125.277844	-0.251566	57.273732
6.250000	-0.255595	55.312673	-55.865647	-128.180956	-55.865647	-128.180956	-0.253404	55.307623
6.300000	-0.257425	53.342817	-56.770347	-131.245937	-56.770347	-131.245937	-0.255263	53.337565
6.350000	-0.259279	51.369128	-57.787074	-134.533346	-57.787074	-134.533346	-0.257147	51.363681
6.400000	-0.261159	49.391648	-58.943280	-138.142475	-58.943280	-138.142475	-0.259057	49.386013
6.450000	-0.263068	47.410422	-60.277709	-142.238501	-60.277709	-142.238501	-0.260997	47.404608
6.500000	-0.265009	45.425500	-61.846706	-147.115942	-61.846706	-147.115942	-0.262969	45.419513
6.550000	-0.266986	43.436932	-63.733909	-153.348606	-63.733909	-153.348606	-0.264977	43.430780
6.600000	-0.269002	41.444771	-66.059174	-162.185593	-66.059174	-162.185593	-0.267024	41.438462
6.650000	-0.271060	39.449071	-68.933972	-176.671511	-68.933972	-176.671511	-0.269113	39.442612
6.700000	-0.273164	37.449888	-71.962032	156.325168	-71.962032	156.325168	-0.271248	37.443286
6.750000	-0.275318	35.447276	-72.660412	114.776817	-72.660412	114.776817	-0.273433	35.440539
6.800000	-0.277526	33.441289	-70.021375	81.742196	-70.021375	81.742196	-0.275671	33.434425
6.850000	-0.279792	31.431983	-66.990809	64.229348	-66.990809	64.229348	-0.277968	31.424999
6.900000	-0.282120	29.419374	-64.503425	54.174085	-64.503425	54.174085	-0.280327	29.412276
6.950000	-0.284516	27.403512	-62.502928	47.393293	-62.502928	47.393293	-0.282754	27.396310
7.000000	-0.286983	25.384482	-60.857359	42.245870	-60.857359	42.245870	-0.285252	25.377181
7.050000	-0.289527	23.362325	-59.470543	38.026364	-59.470543	38.026364	-0.287826	23.354933
7.100000	-0.292151	21.337081	-58.278155	34.379848	-58.278155	34.379848	-0.290480	21.329605
7.150000	-0.294862	19.308783	-57.236475	31.110727	-57.236475	31.110727	-0.293221	19.301230
7.200000	-0.297663	17.277459	-56.314881	28.103056	-56.314881	28.103056	-0.296053	17.269837
7.250000	-0.300562	15.243131	-55.491275	25.283964	-55.491275	25.283964	-0.298982	15.235448
7.300000	-0.303563	13.205813	-54.749278	22.605429	-54.749278	22.605429	-0.302012	13.198075
7.350000	-0.306672	11.165512	-54.076465	20.034540	-54.076465	20.034540	-0.305150	11.157726
7.400000	-0.309894	9.122225	-53.463225	17.548010	-53.463225	17.548010	-0.308402	9.114399
7.450000	-0.313236	7.075940	-52.902004	15.128909	-52.902004	15.128909	-0.311773	7.068081
7.500000	-0.316704	5.026634	-52.386778	12.764667	-52.386778	12.764667	-0.315270	5.018750
7.550000	-0.320307	2.974208	-51.912986	10.446600	-51.912986	10.446600	-0.318901	2.966306
7.600000	-0.324050	0.918679	-51.476410	8.166380	-51.476410	8.166380	-0.322672	0.910766
7.650000	-0.327937	-1.140012	-51.073827	5.918502	-51.073827	5.918502	-0.326587	-1.147927
7.700000	-0.331978	-3.201937	-50.702589	3.698724	-50.702589	3.698724	-0.330655	-3.209848
7.750000	-0.336178	-5.267185	-50.360517	1.503805	-50.360517	1.503805	-0.334882	-5.275084
7.800000	-0.340545	-7.335860	-50.045824	-0.668665	-50.045824	-0.668665	-0.339276	-7.343739
7.850000	-0.345086	-9.408081	-49.757047	-2.820400	-49.757047	-2.820400	-0.343843	-9.415934
7.900000	-0.349808	-11.483988	-49.492999	-4.952497	-49.492999	-4.952497	-0.348593	-11.491806
7.950000	-0.354721	-13.563735	-49.252733	-7.065493	-49.252733	-7.065493	-0.353531	-13.571511
8.000000	-0.359832	-15.647500	-49.035508	-9.159403	-49.035508	-9.159403	-0.358667	-15.655226
8.050000	-0.365148	-17.735477	-48.840766	-11.233732	-48.840766	-11.233732	-0.364009	-17.743146
8.100000	-0.370680	-19.827887	-48.668116	-13.287480	-48.668116	-13.287480	-0.369565	-19.835491
8.150000	-0.376437	-21.925022	-48.517524	-15.318864	-48.517524	-15.318864	-0.375347	-21.932553
8.200000	-0.382431	-24.027157	-48.388906	-17.325736	-48.388906	-17.325736	-0.381364	-24.034608
8.250000	-0.388667	-26.134534	-48.282080	-19.305656	-48.282080	-19.305656	-0.387624	-26.141897
8.300000	-0.395156	-28.247469	-48.197186	-21.255316	-48.197186	-21.255316	-0.394136	-28.254737
8.350000	-0.401924	-30.366674	-48.135780	-23.168420	-48.135780	-23.168420	-0.400927	-30.373840
8.400000	-0.408951	-32.491827	-48.095730	-25.044395	-48.095730	-25.044395	-0.407976	-32.498884
8.450000	-0.416258	-34.623555	-48.078361	-26.876407	-48.078361	-26.876407	-0.415305	-34.630495
8.500000	-0.423857	-36.762273	-48.084239	-28.658113	-48.084239	-28.658113	-0.422925	-36.769090
8.550000	-0.431759	-38.908429	-48.114050	-30.382107	-48.114050	-30.382107	-0.430848	-38.915117
8.600000	-0.440011	-41.063432	-48.171372	-32.031294	-48.171372	-32.031294	-0.439120	-41.069984
8.650000	-0.448595	-43.227025	-48.254634	-33.601141	-48.254634	-33.601141	-0.447723	-43.233436
8.700000	-0.457522	-45.399716	-48.364736	-35.079630	-48.364736	-35.079630	-0.456670	-45.405981
8.750000	-0.466806	-47.582099	-48.502860	-36.452090	-48.502860	-36.452090	-0.465973	-47.588212
8.800000	-0.476463	-49.774805	-48.670316	-37.701116	-48.670316	-37.701116	-0.475647	-49.780763
8.850000	-0.486506	-51.978506	-48.868539	-38.805933	-48.868539	-38.805933	-0.485707	-51.984305
8.900000	-0.496964	-54.194313	-49.099939	-39.735259	-49.099939	-39.735259	-0.496183	-54.199952
8.950000	-0.507867	-56.423354	-49.366705	-40.450523	-49.366705	-40.450523	-0.507102	-56.428831
9.000000	-0.519210	-58.665795	-49.668846	-40.922650	-49.668846	-40.922650	-0.518460	-58.671109
9.050000	-0.531014	-60.922566	-50.007755	-41.102798	-50.007755	-41.102798	-0.530278	-60.927719
9.100000	-0.543322	-63.195377	-50.385164	-40.911403	-50.385164	-40.911403	-0.542600	-63.200371
9.150000	-0.556131	-65.484426	-50.799349	-40.290134	-50.799349	-40.290134	-0.555422	-65.489265
9.200000	-0.569463	-67.790739	-51.248010	-39.147575	-51.248010	-39.147575	-0.568767	-67.795430
9.250000	-0.583367	-70.116294	-51.725231	-37.338069	-51.725231	-37.338069	-0.582683	-70.120844
9.300000	-0.597851	-72.461688	-52.218653	-34.743574	-52.218653	-34.743574	-0.597177	-72.466108
9.350000	-0.612934	-74.827909	-52.707967	-31.228435	-52.707967	-31.228435	-0.612270	-74.832212
9.400000	-0.628661	-77.216921	-53.157785	-26.626162	-53.157785	-26.626162	-0.628007	-77.221123
9.450000	-0.645064	-79.630181	-53.516959	-20.858873	-53.516959	-20.858873	-0.644418	-79.634302
9.500000	-0.662156	-82.068470	-53.726594	-14.021743	-53.726594	-14.021743	-0.661517	-82.072534
9.550000	-0.679976	-84.533636	-53.722412	-6.370185	-53.722412	-6.370185	-0.679343	-84.537669
9.600000	-0.698585	-87.028314	-53.453541	1.612149	-53.453541	1.612149	-0.697958	-87.032349
9.650000	-0.717986	-89.552943	-52.931284	9.333225	-52.931284	9.333225	-0.717364	-89.557018
9.700000	-0.738217	-92.109277	-52.195202	16.326158	-52.195202	16.326158	-0.737598	-92.113433
9.750000	-0.759357	-94.700884	-51.295536	22.266593	-51.295536	22.266593	-0.758742	-94.705174
9.800000	-0.781415	-97.328359	-50.303755	27.134259	-50.303755	27.134259	-0.780803	-97.332837
9.850000	-0.804442	-99.994157	-49.265280	30.994538	-49.265280	30.994538	-0.803832	-99.998889
9.900000	-0.828483	-102.700495	-48.212193	33.984184	-48.212193	33.984184	-0.827875	-102.705553
9.950000	-0.853587	-105.449688	-47.163573	36.251580	-47.163573	36.251580	-0.852979	-105.455155
10.000000	-0.879800	-108.244155	-46.129314	37.932653	-46.129314	37.932653	-0.879193	-108.250124
