! freq	dB(S11)	phase(S11)	dB(S12)	phase(S12)	
!     	dB(S21)	phase(S21)	dB(S22)	phase(S22)	
!S-par simulation data
#  GHz  S  DB  R 50
0.000000	-82.893833	0.000000	-0.000631	0.000000	-0.000631	0.000000	-82.893854	0.000000
0.050000	-46.081089	-91.885210	-0.005054	-2.698998	-0.005054	-2.698998	-46.080648	-91.639283
0.100000	-40.063544	-95.024977	-0.012019	-5.356538	-0.012019	-5.356538	-40.062310	-94.534747
0.150000	-36.546164	-97.896898	-0.017236	-7.994736	-0.017236	-7.994736	-36.543848	-97.165072
0.200000	-34.054245	-100.711387	-0.021136	-10.629051	-0.021136	-10.629051	-34.050795	-99.740909
0.250000	-32.125978	-103.512429	-0.024512	-13.263513	-0.024512	-13.263513	-32.121567	-102.305681
0.300000	-30.555896	-106.314341	-0.027801	-15.898577	-0.027801	-15.898577	-30.550840	-104.872615
0.350000	-29.235080	-109.122637	-0.031221	-18.533943	-0.031221	-18.533943	-29.229771	-107.445935
0.400000	-28.097913	-111.938359	-0.034861	-21.169208	-0.034861	-21.169208	-28.092712	-110.025517
0.450000	-27.102370	-114.761063	-0.038760	-23.804054	-0.038760	-23.804054	-27.097575	-112.610054
0.500000	-26.220290	-117.589704	-0.042944	-26.438190	-0.042944	-26.438190	-26.216124	-115.197785
0.550000	-25.430760	-120.422414	-0.047400	-29.071439	-0.047400	-29.071439	-25.427347	-117.786613
0.600000	-24.718409	-123.257511	-0.052112	-31.703672	-0.052112	-31.703672	-24.715797	-120.374788
0.650000	-24.071975	-126.093492	-0.057070	-34.334757	-0.057070	-34.334757	-24.070159	-122.960747
0.700000	-23.482352	-128.928976	-0.062250	-36.964626	-0.062250	-36.964626	-23.481288	-125.543204
0.750000	-22.941904	-131.762903	-0.067624	-39.593280	-0.067624	-39.593280	-22.941528	-128.121296
0.800000	-22.444877	-134.594427	-0.073169	-42.220696	-0.073169	-42.220696	-22.445118	-130.694241
0.850000	-21.986794	-137.422828	-0.078865	-44.846850	-0.078865	-44.846850	-21.987585	-133.261294
0.900000	-21.563017	-140.247843	-0.084681	-47.471837	-0.084681	-47.471837	-21.564305	-135.822341
0.950000	-21.170114	-143.069262	-0.090594	-50.095709	-0.090594	-50.095709	-21.171859	-138.377158
1.000000	-20.805755	-145.886820	-0.096584	-52.718484	-0.096584	-52.718484	-20.807936	-140.925283
1.050000	-20.466843	-148.700758	-0.102626	-55.340303	-0.102626	-55.340303	-20.469455	-143.467005
1.100000	-20.151146	-151.511252	-0.108699	-57.961266	-0.108699	-57.961266	-20.154197	-146.002407
1.150000	-19.857137	-154.318426	-0.114785	-60.581457	-0.114785	-60.581457	-19.860653	-148.531385
1.200000	-19.582959	-157.122645	-0.120865	-63.201011	-0.120865	-63.201011	-19.586976	-151.054216
1.250000	-19.326907	-159.924318	-0.126925	-65.820067	-0.126925	-65.820067	-19.331466	-153.571248
1.300000	-19.087857	-162.723778	-0.132950	-68.438747	-0.132950	-68.438747	-19.093006	-156.082629
1.350000	-18.864787	-165.521407	-0.138926	-71.057190	-0.138926	-71.057190	-18.870581	-158.588563
1.400000	-18.656271	-168.317685	-0.144844	-73.675544	-0.144844	-73.675544	-18.662759	-161.089570
1.450000	-18.461382	-171.113004	-0.150696	-76.293946	-0.150696	-76.293946	-18.468616	-163.585964
1.500000	-18.279693	-173.907745	-0.156470	-78.912552	-0.156470	-78.912552	-18.287723	-166.077887
1.550000	-18.109924	-176.702329	-0.162164	-81.531495	-0.162164	-81.531495	-18.118794	-168.565948
1.600000	-17.951352	-179.497108	-0.167775	-84.150910	-0.167775	-84.150910	-17.961101	-171.050513
1.650000	-17.803649	177.707554	-0.173295	-86.770962	-0.173295	-86.770962	-17.814315	-173.531831
1.700000	-17.665967	174.911351	-0.178725	-89.391777	-0.178725	-89.391777	-17.677581	-176.010394
1.750000	-17.537601	172.114027	-0.184066	-92.013470	-0.184066	-92.013470	-17.550189	-178.486632
1.800000	-17.418112	169.315328	-0.189318	-94.636180	-0.189318	-94.636180	-17.431697	179.039093
1.850000	-17.306979	166.515050	-0.194482	-97.260032	-0.194482	-97.260032	-17.321579	176.566381
1.900000	-17.203777	163.713011	-0.199559	-99.885160	-0.199559	-99.885160	-17.219409	174.094839
1.950000	-17.108023	160.909086	-0.204553	-102.511681	-0.204553	-102.511681	-17.124702	171.624053
2.000000	-17.019195	158.103220	-0.209469	-105.139690	-0.209469	-105.139690	-17.036935	169.153609
2.050000	-16.936856	155.295380	-0.214311	-107.769290	-0.214311	-107.769290	-16.955671	166.683107
2.100000	-16.860583	152.485580	-0.219086	-110.400578	-0.219086	-110.400578	-16.880486	164.212145
2.150000	-16.789964	149.673875	-0.223797	-113.033648	-0.223797	-113.033648	-16.810971	161.740319
2.200000	-16.724596	146.860369	-0.228451	-115.668585	-0.228451	-115.668585	-16.746725	159.267222
2.250000	-16.664084	144.045205	-0.233055	-118.305472	-0.233055	-118.305472	-16.687355	156.792442
2.300000	-16.608037	141.228575	-0.237614	-120.944386	-0.237614	-120.944386	-16.632472	154.315562
2.350000	-16.556073	138.410712	-0.242135	-123.585398	-0.242135	-123.585398	-16.581697	151.836156
2.400000	-16.507809	135.591890	-0.246624	-126.228576	-0.246624	-126.228576	-16.534650	149.353791
2.450000	-16.462870	132.772427	-0.251089	-128.873982	-0.251089	-128.873982	-16.490956	146.868020
2.500000	-16.420880	129.952682	-0.255536	-131.521675	-0.255536	-131.521675	-16.450244	144.378387
2.550000	-16.381513	127.133063	-0.259972	-134.171762	-0.259972	-134.171762	-16.412187	141.884318
2.600000	-16.344339	124.314012	-0.264403	-136.824244	-0.264403	-136.824244	-16.376355	139.385410
2.650000	-16.308993	121.496003	-0.268836	-139.479167	-0.268836	-139.479167	-16.342383	136.881166
2.700000	-16.275110	118.679538	-0.273277	-142.136575	-0.273277	-142.136575	-16.309905	134.371072
2.750000	-16.242334	115.865152	-0.277733	-144.796509	-0.277733	-144.796509	-16.278559	131.854604
2.800000	-16.210307	113.053404	-0.282211	-147.459007	-0.282211	-147.459007	-16.247988	129.331222
2.850000	-16.178682	110.244877	-0.286715	-150.124104	-0.286715	-150.124104	-16.217836	126.800380
2.900000	-16.147115	107.440175	-0.291252	-152.791831	-0.291252	-152.791831	-16.187756	124.261522
2.950000	-16.115270	104.639912	-0.295829	-155.462219	-0.295829	-155.462219	-16.157403	121.714088
3.000000	-16.082820	101.844714	-0.300450	-158.135296	-0.300450	-158.135296	-16.126444	119.157518
3.050000	-16.049448	99.055213	-0.305122	-160.811086	-0.305122	-160.811086	-16.094552	116.591255
3.100000	-16.014847	96.272035	-0.309849	-163.489615	-0.309849	-163.489615	-16.061412	114.014751
3.150000	-15.978702	93.495884	-0.314639	-166.170932	-0.314639	-166.170932	-16.026699	111.427351
3.200000	-15.940723	90.727388	-0.319497	-168.855058	-0.319497	-168.855058	-15.990113	108.828524
3.250000	-15.900667	87.967055	-0.324428	-171.541979	-0.324428	-171.541979	-15.951400	106.217901
3.300000	-15.858285	85.215442	-0.329436	-174.231712	-0.329436	-174.231712	-15.910303	103.595031
3.350000	-15.813352	82.473073	-0.334527	-176.924267	-0.334527	-176.924267	-15.866583	100.959500
3.400000	-15.765657	79.740431	-0.339707	-179.619657	-0.339707	-179.619657	-15.820025	98.310939
3.450000	-15.715015	77.017951	-0.344981	177.682111	-0.344981	177.682111	-15.770430	95.649029
3.500000	-15.661260	74.306016	-0.350353	174.981031	-0.350353	174.981031	-15.717627	92.973509
3.550000	-15.604251	71.604954	-0.355829	172.277100	-0.355829	172.277100	-15.661465	90.284176
3.600000	-15.543870	68.915027	-0.361415	169.570317	-0.361415	169.570317	-15.601821	87.580889
3.650000	-15.480024	66.236434	-0.367114	166.860685	-0.367114	166.860685	-15.538597	84.863577
3.700000	-15.412645	63.569303	-0.372932	164.148209	-0.372932	164.148209	-15.471720	82.132236
3.750000	-15.341693	60.913692	-0.378874	161.432898	-0.378874	161.432898	-15.401147	79.386930
3.800000	-15.267058	58.269835	-0.384948	158.714702	-0.384948	158.714702	-15.326764	76.627497
3.850000	-15.188844	55.637392	-0.391155	155.993700	-0.391155	155.993700	-15.248677	73.854449
3.900000	-15.107088	53.016199	-0.397499	153.269910	-0.397499	153.269910	-15.166924	71.068057
3.950000	-15.021855	50.406028	-0.403986	150.543356	-0.403986	150.543356	-15.081572	68.268655
4.000000	-14.933234	47.806583	-0.410619	147.814066	-0.410619	147.814066	-14.992713	65.456637
4.050000	-14.841338	45.217508	-0.417401	145.082071	-0.417401	145.082071	-14.900466	62.632447
4.100000	-14.746304	42.638390	-0.424336	142.347407	-0.424336	142.347407	-14.804973	59.796578
4.150000	-14.648293	40.068768	-0.431426	139.610112	-0.431426	139.610112	-14.706402	56.949564
4.200000	-14.547485	37.508134	-0.438674	136.870233	-0.438674	136.870233	-14.604939	54.091975
4.250000	-14.444081	34.955946	-0.446081	134.127816	-0.446081	134.127816	-14.500796	51.224408
4.300000	-14.338302	32.411630	-0.453648	131.382913	-0.453648	131.382913	-14.394199	48.347484
4.350000	-14.230384	29.874587	-0.461375	128.635582	-0.461375	128.635582	-14.285396	45.461835
4.400000	-14.120547	27.344272	-0.469264	125.885856	-0.469264	125.885856	-14.174614	42.568026
4.450000	-14.009066	24.820041	-0.477312	123.133801	-0.477312	123.133801	-14.062138	39.666721
4.500000	-13.896258	22.301197	-0.485515	120.379509	-0.485515	120.379509	-13.948295	36.758650
4.550000	-13.782412	19.787124	-0.493870	117.623050	-0.493870	117.623050	-13.833385	33.844443
4.600000	-13.667830	17.277212	-0.502371	114.864493	-0.502371	114.864493	-13.717717	30.924715
4.650000	-13.552819	14.770871	-0.511012	112.103913	-0.511012	112.103913	-13.601609	28.000063
4.700000	-13.437694	12.267531	-0.519785	109.341383	-0.519785	109.341383	-13.485383	25.071059
4.750000	-13.322773	9.766644	-0.528682	106.576976	-0.528682	106.576976	-13.369365	22.138248
4.800000	-13.208379	7.267695	-0.537691	103.810766	-0.537691	103.810766	-13.253886	19.202147
4.850000	-13.094835	4.770196	-0.546800	101.042823	-0.546800	101.042823	-13.139277	16.263236
4.900000	-12.982466	2.273694	-0.555995	98.273218	-0.555995	98.273218	-13.025871	13.321965
4.950000	-12.871599	-0.222232	-0.565261	95.502015	-0.565261	95.502015	-12.913998	10.378742
5.000000	-12.762558	-2.717965	-0.574580	92.729276	-0.574580	92.729276	-12.803989	7.433942
5.050000	-12.655692	-5.213867	-0.583934	89.955024	-0.583934	89.955024	-12.696199	4.487876
5.100000	-12.551314	-7.710256	-0.593300	87.179340	-0.593300	87.179340	-12.590946	1.540867
5.150000	-12.449743	-10.207411	-0.602655	84.402264	-0.602655	84.402264	-12.488554	-1.406836
5.200000	-12.351296	-12.705580	-0.611976	81.623824	-0.611976	81.623824	-12.389342	-4.355027
5.250000	-12.256286	-15.204979	-0.621236	78.844040	-0.621236	78.844040	-12.293629	-7.303544
5.300000	-12.165026	-17.705798	-0.630406	76.062915	-0.630406	76.062915	-12.201728	-10.252266
5.350000	-12.077823	-20.208198	-0.639459	73.280442	-0.639459	73.280442	-12.113954	-13.201118
5.400000	-11.994986	-22.712317	-0.648362	70.496598	-0.648362	70.496598	-12.030614	-16.150066
5.450000	-11.916820	-25.218270	-0.657084	67.711340	-0.657084	67.711340	-11.952018	-19.099123
5.500000	-11.843629	-27.726152	-0.665591	64.924611	-0.665591	64.924611	-11.878472	-22.048346
5.550000	-11.775720	-30.236040	-0.673850	62.136332	-0.673850	62.136332	-11.810285	-24.997839
5.600000	-11.713399	-32.747995	-0.681823	59.346404	-0.681823	59.346404	-11.747765	-27.947749
5.650000	-11.657038	-35.262086	-0.689472	56.554683	-0.689472	56.554683	-11.691287	-30.898284
5.700000	-11.606964	-37.778346	-0.696760	53.761021	-0.696760	53.761021	-11.641180	-33.849696
5.750000	-11.563436	-40.296774	-0.703652	50.965264	-0.703652	50.965264	-11.597704	-36.802276
5.800000	-11.526779	-42.817375	-0.710113	48.167216	-0.710113	48.167216	-11.561185	-39.756369
5.850000	-11.497326	-45.340148	-0.716106	45.366653	-0.716106	45.366653	-11.531960	-42.712374
5.900000	-11.475422	-47.865075	-0.721597	42.563325	-0.721597	42.563325	-11.510375	-45.670741
5.950000	-11.461428	-50.392128	-0.726552	39.756954	-0.726552	39.756954	-11.496791	-48.631973
6.000000	-11.455716	-52.921261	-0.730937	36.947234	-0.730937	36.947234	-11.491585	-51.596631
6.050000	-11.458680	-55.452412	-0.734721	34.133828	-0.734721	34.133828	-11.495154	-54.565332
6.100000	-11.470735	-57.985494	-0.737877	31.316374	-0.737877	31.316374	-11.507915	-57.538757
6.150000	-11.492324	-60.520395	-0.740378	28.494479	-0.740378	28.494479	-11.530313	-60.517646
6.200000	-11.523915	-63.056971	-0.742201	25.667724	-0.742201	25.667724	-11.562823	-63.502809
6.250000	-11.566012	-65.595033	-0.743327	22.835661	-0.743327	22.835661	-11.605953	-66.495125
6.300000	-11.619405	-68.134366	-0.743724	19.997679	-0.743724	19.997679	-11.660500	-69.495750
6.350000	-11.684457	-70.674634	-0.743396	17.153392	-0.743396	17.153392	-11.726831	-72.505571
6.400000	-11.761806	-73.215453	-0.742338	14.302276	-0.742338	14.302276	-11.805595	-75.525720
6.450000	-11.852151	-75.756347	-0.740549	11.443786	-0.740549	11.443786	-11.897498	-78.557428
6.500000	-11.956257	-78.296723	-0.738033	8.577354	-0.738033	8.577354	-12.003317	-81.602034
6.550000	-12.074964	-80.835843	-0.734803	5.702399	-0.734803	5.702399	-12.123907	-84.661003
6.600000	-12.209204	-83.372796	-0.730875	2.818323	-0.730875	2.818323	-12.260216	-87.735938
6.650000	-12.360008	-85.906457	-0.726274	-0.075480	-0.726274	-0.075480	-12.413295	-90.828608
6.700000	-12.528525	-88.435436	-0.721032	-2.979625	-0.721032	-2.979625	-12.584320	-93.940973
6.750000	-12.716043	-90.958023	-0.715188	-5.894731	-0.715188	-5.894731	-12.774607	-97.075221
6.800000	-12.924010	-93.472106	-0.708791	-8.821414	-0.708791	-8.821414	-12.985643	-100.233815
6.850000	-13.154061	-95.975075	-0.701896	-11.760285	-0.701896	-11.760285	-13.219111	-103.419554
6.900000	-13.408251	-98.463498	-0.694562	-14.712087	-0.694562	-14.712087	-13.477125	-106.636030
6.950000	-13.688726	-100.933188	-0.686866	-17.677422	-0.686866	-17.677422	-13.761911	-109.887135
7.000000	-13.997746	-103.379201	-0.678892	-20.656709	-0.678892	-20.656709	-14.075821	-113.177013
7.050000	-14.338143	-105.795119	-0.670730	-23.650475	-0.670730	-23.650475	-14.421813	-116.511025
7.100000	-14.713220	-108.172806	-0.662479	-26.659212	-0.662479	-26.659212	-14.803361	-119.895710
7.150000	-15.126865	-110.501847	-0.654243	-29.683370	-0.654243	-29.683370	-15.224573	-123.339180
7.200000	-15.583692	-112.768769	-0.646136	-32.723348	-0.646136	-32.723348	-15.690372	-126.851690
7.250000	-16.089233	-114.955902	-0.638277	-35.779491	-0.638277	-35.779491	-16.206715	-130.446485
7.300000	-16.650193	-117.039712	-0.630793	-38.852080	-0.630793	-38.852080	-16.780917	-134.141043
7.350000	-17.274791	-118.988276	-0.623814	-41.941329	-0.623814	-41.941329	-17.422088	-137.959021
7.400000	-17.973225	-120.757351	-0.617475	-45.047375	-0.617475	-45.047375	-18.141775	-141.933320
7.450000	-18.758307	-122.284063	-0.611916	-48.170276	-0.611916	-48.170276	-18.954895	-146.111143
7.500000	-19.646312	-123.476425	-0.607276	-51.310006	-0.607276	-51.310006	-19.881142	-150.562687
7.550000	-20.658356	-124.179887	-0.603722	-54.466807	-0.603722	-54.466807	-20.947667	-155.409181
7.600000	-21.820046	-124.173773	-0.601375	-57.640098	-0.601375	-57.640098	-22.190646	-160.830152
7.650000	-23.162751	-123.078950	-0.600369	-60.829571	-0.600369	-60.829571	-23.661872	-167.152581
7.700000	-24.717470	-120.235335	-0.600838	-64.034823	-0.600838	-64.034823	-25.433955	-175.001832
7.750000	-26.487682	-114.466200	-0.602905	-67.255358	-0.602905	-67.255358	-27.597456	174.309050
7.800000	-28.349030	-103.825304	-0.606686	-70.490590	-0.606686	-70.490590	-30.182248	157.826956
7.850000	-29.800665	-86.396390	-0.612289	-73.739847	-0.612289	-73.739847	-32.658491	130.091759
7.900000	-29.950215	-64.389658	-0.619806	-77.002376	-0.619806	-77.002376	-33.029605	91.858003
7.950000	-28.649932	-45.217880	-0.629278	-80.277135	-0.629278	-80.277135	-30.790109	60.198837
8.000000	-26.709798	-33.176711	-0.640858	-83.563749	-0.640858	-83.563749	-28.025028	41.535508
8.050000	-24.797594	-26.567854	-0.654542	-86.860974	-0.654542	-86.860974	-25.655551	29.760027
8.100000	-23.094389	-23.266006	-0.670357	-90.167831	-0.670357	-90.167831	-23.703889	21.303841
8.150000	-21.611220	-21.942401	-0.688323	-93.483359	-0.688323	-93.483359	-22.078201	14.589550
8.200000	-20.319566	-21.839964	-0.708426	-96.806528	-0.708426	-96.806528	-20.699928	8.872608
8.250000	-19.187328	-22.534430	-0.730646	-100.136361	-0.730646	-100.136361	-19.512663	3.777883
8.300000	-18.187287	-23.757870	-0.754881	-103.471734	-0.754881	-103.471734	-18.476436	-0.914692
8.350000	-17.297689	-25.359395	-0.781068	-106.811762	-0.781068	-106.811762	-17.562713	-5.323720
8.400000	-16.501625	-27.235555	-0.809109	-110.155561	-0.809109	-110.155561	-16.750597	-9.527485
8.450000	-15.785852	-29.315928	-0.838881	-113.502324	-0.838881	-113.502324	-16.024423	-13.577581
8.500000	-15.139906	-31.550970	-0.870245	-116.851334	-0.870245	-116.851334	-15.372198	-17.509253
8.550000	-14.555001	-33.902869	-0.903019	-120.201957	-0.903019	-120.201957	-14.784096	-21.348923
8.600000	-14.025302	-36.349682	-0.937086	-123.553760	-0.937086	-123.553760	-14.253730	-25.110728
8.650000	-13.544790	-38.868173	-0.972218	-126.906344	-0.972218	-126.906344	-13.774572	-28.810368
8.700000	-13.108909	-41.442786	-1.008214	-130.259500	-1.008214	-130.259500	-13.341764	-32.457866
8.750000	-12.713874	-44.061279	-1.044858	-133.613171	-1.044858	-133.613171	-12.951318	-36.060993
8.800000	-12.356756	-46.714148	-1.081929	-136.967474	-1.081929	-136.967474	-12.600193	-39.625549
8.850000	-12.034665	-49.393056	-1.119191	-140.322689	-1.119191	-140.322689	-12.285405	-43.156972
8.900000	-11.745362	-52.091558	-1.156413	-143.679274	-1.156413	-143.679274	-12.004674	-46.659369
8.950000	-11.486959	-54.804312	-1.193361	-147.037868	-1.193361	-147.037868	-11.756115	-50.136224
9.000000	-11.258489	-57.526996	-1.229779	-150.399392	-1.229779	-150.399392	-11.538836	-53.590010
9.050000	-11.057532	-60.255384	-1.265476	-153.764701	-1.265476	-153.764701	-11.350381	-57.024449
9.100000	-10.883491	-62.986399	-1.300217	-157.135036	-1.300217	-157.135036	-11.190271	-60.441433
9.150000	-10.735489	-65.717124	-1.333791	-160.511756	-1.333791	-160.511756	-11.057737	-63.843135
9.200000	-10.612411	-68.445019	-1.366030	-163.896209	-1.366030	-163.896209	-10.951753	-67.231755
9.250000	-10.514725	-71.167406	-1.396684	-167.290468	-1.396684	-167.290468	-10.873045	-70.608627
9.300000	-10.441627	-73.881915	-1.425615	-170.696243	-1.425615	-170.696243	-10.820963	-73.975706
9.350000	-10.393002	-76.586067	-1.452671	-174.115580	-1.452671	-174.115580	-10.795639	-77.334483
9.400000	-10.368621	-79.277382	-1.477749	-177.550491	-1.477749	-177.550491	-10.797111	-80.686339
9.450000	-10.369056	-81.952768	-1.500713	178.996456	-1.500713	178.996456	-10.826343	-84.032251
9.500000	-10.394033	-84.609437	-1.521543	175.523342	-1.521543	175.523342	-10.883408	-87.373145
9.550000	-10.444832	-87.242980	-1.540127	172.026992	-1.540127	172.026992	-10.970197	-90.709304
9.600000	-10.521230	-89.849845	-1.556530	168.505690	-1.556530	168.505690	-11.086977	-94.040865
9.650000	-10.624948	-92.423702	-1.570699	164.955913	-1.570699	164.955913	-11.236349	-97.367030
9.700000	-10.756226	-94.959166	-1.582753	161.375898	-1.582753	161.375898	-11.419346	-100.686579
9.750000	-10.916887	-97.447394	-1.592736	157.762283	-1.592736	157.762283	-11.639027	-103.996920
9.800000	-11.107942	-99.879415	-1.600803	154.112972	-1.600803	154.112972	-11.897735	-107.294456
9.850000	-11.331234	-102.242613	-1.607099	150.425098	-1.607099	150.425098	-12.199127	-110.573526
9.900000	-11.588554	-104.521738	-1.611820	146.696178	-1.611820	146.696178	-12.547264	-113.826163
9.950000	-11.881647	-106.698189	-1.615202	142.924091	-1.615202	142.924091	-12.946798	-117.041369
10.000000	-12.190245	-108.881224	-1.617935	139.193296	-1.617935	139.193296	-13.363448	-120.084643
