! freq	dB(S11)	phase(S11)	dB(S12)	phase(S12)	
!     	dB(S21)	phase(S21)	dB(S22)	phase(S22)	
!S-par simulation data
#  GHz  S  DB  R 50
0.000000	-0.000000	0.000000	-374.953620	0.000000	-374.953620	0.000000	-0.000000	0.000000
0.050000	-0.000101	-0.765273	-113.507904	89.091379	-113.507904	89.091379	-0.000126	-1.056025
0.100000	-0.000401	-1.530294	-107.537267	88.193573	-107.537267	88.193573	-0.000500	-2.111746
0.150000	-0.000885	-2.294832	-104.098787	87.317603	-104.098787	87.317603	-0.001108	-3.166880
0.200000	-0.001532	-3.058701	-101.716242	86.474634	-101.716242	86.474634	-0.001929	-4.221184
0.250000	-0.002328	-3.821698	-99.933910	85.680363	-99.933910	85.680363	-0.002950	-5.274376
0.300000	-0.003232	-4.583796	-98.538388	84.944779	-98.538388	84.944779	-0.004126	-6.326386
0.350000	-0.004226	-5.344901	-97.425247	84.286044	-97.425247	84.286044	-0.005437	-7.377046
0.400000	-0.005287	-6.104990	-96.531021	83.723696	-96.531021	83.723696	-0.006856	-8.426269
0.450000	-0.006393	-6.864066	-95.815992	83.281474	-95.815992	83.281474	-0.008355	-9.474003
0.500000	-0.007527	-7.622154	-95.254382	82.988880	-95.254382	82.988880	-0.009913	-10.520225
0.550000	-0.008676	-8.379289	-94.829252	82.883343	-94.829252	82.883343	-0.011509	-11.564932
0.600000	-0.009828	-9.135514	-94.529630	83.013294	-94.529630	83.013294	-0.013126	-12.608139
0.650000	-0.010977	-9.890873	-94.348714	83.442545	-94.348714	83.442545	-0.014750	-13.649867
0.700000	-0.012116	-10.645406	-94.282560	84.256602	-94.282560	84.256602	-0.016370	-14.690141
0.750000	-0.013242	-11.399150	-94.328795	85.571681	-94.328795	85.571681	-0.017979	-15.728988
0.800000	-0.014353	-12.152133	-94.484816	87.547244	-94.484816	87.547244	-0.019571	-16.766431
0.850000	-0.015449	-12.904380	-94.744659	90.402019	-94.744659	90.402019	-0.021143	-17.802489
0.900000	-0.016529	-13.655909	-95.093086	94.429850	-95.093086	94.429850	-0.022692	-18.837177
0.950000	-0.017594	-14.406731	-95.494793	100.000677	-95.494793	100.000677	-0.024216	-19.870504
1.000000	-0.018646	-15.156854	-95.877435	107.506887	-95.877435	107.506887	-0.025717	-20.902471
1.050000	-0.019684	-15.906280	-96.114587	117.184652	-96.114587	117.184652	-0.027195	-21.933078
1.100000	-0.020711	-16.655008	-96.034708	128.775288	-96.034708	128.775288	-0.028650	-22.962316
1.150000	-0.021727	-17.403032	-95.493501	141.233237	-95.493501	141.233237	-0.030085	-23.990174
1.200000	-0.022734	-18.150346	-94.479485	153.002331	-94.479485	153.002331	-0.031499	-25.016635
1.250000	-0.023732	-18.896940	-93.125368	162.883843	-93.125368	162.883843	-0.032896	-26.041682
1.300000	-0.024724	-19.642771	-91.591729	170.437668	-91.591729	170.437668	-0.034277	-27.065227
1.350000	-0.025709	-20.387857	-90.028220	176.021099	-90.028220	176.021099	-0.035643	-28.087308
1.400000	-0.026689	-21.132184	-88.503918	-179.953709	-88.503918	-179.953709	-0.036996	-29.107900
1.450000	-0.027664	-21.875739	-87.049251	-177.111325	-87.049251	-177.111325	-0.038338	-30.126974
1.500000	-0.028636	-22.618506	-85.673889	-175.157100	-85.673889	-175.157100	-0.039670	-31.144502
1.550000	-0.029605	-23.360469	-84.377574	-173.872432	-84.377574	-173.872432	-0.040993	-32.160455
1.600000	-0.030571	-24.101614	-83.155785	-173.098050	-83.155785	-173.098050	-0.042310	-33.174803
1.650000	-0.031535	-24.841924	-82.002510	-172.717935	-82.002510	-172.717935	-0.043620	-34.187517
1.700000	-0.032497	-25.581383	-80.911516	-172.646871	-80.911516	-172.646871	-0.044925	-35.198566
1.750000	-0.033459	-26.319975	-79.876910	-172.821501	-79.876910	-172.821501	-0.046226	-36.207923
1.800000	-0.034420	-27.057685	-78.893337	-173.194067	-78.893337	-173.194067	-0.047524	-37.215556
1.850000	-0.035380	-27.794496	-77.956032	-173.728073	-77.956032	-173.728073	-0.048819	-38.221438
1.900000	-0.036340	-28.530394	-77.060789	-174.395243	-77.060789	-174.395243	-0.050113	-39.225541
1.950000	-0.037301	-29.265362	-76.203911	-175.173389	-76.203911	-175.173389	-0.051406	-40.227837
2.000000	-0.038262	-29.999384	-75.382147	-176.044890	-75.382147	-176.044890	-0.052698	-41.228299
2.050000	-0.039225	-30.732447	-74.592634	-176.995592	-74.592634	-176.995592	-0.053991	-42.226901
2.100000	-0.040188	-31.464534	-73.832847	-178.014010	-73.832847	-178.014010	-0.055285	-43.223619
2.150000	-0.041153	-32.195632	-73.100547	-179.090729	-73.100547	-179.090729	-0.056581	-44.218427
2.200000	-0.042120	-32.925725	-72.393746	179.782032	-72.393746	179.782032	-0.057879	-45.211303
2.250000	-0.043090	-33.654799	-71.710668	178.610762	-71.710668	178.610762	-0.059179	-46.202224
2.300000	-0.044061	-34.382840	-71.049724	177.400913	-71.049724	177.400913	-0.060482	-47.191169
2.350000	-0.045036	-35.109835	-70.409487	176.157097	-70.409487	176.157097	-0.061789	-48.178117
2.400000	-0.046013	-35.835769	-69.788669	174.883245	-69.788669	174.883245	-0.063101	-49.163048
2.450000	-0.046994	-36.560630	-69.186105	173.582724	-69.186105	173.582724	-0.064416	-50.145944
2.500000	-0.047978	-37.284403	-68.600736	172.258438	-68.600736	172.258438	-0.065737	-51.126787
2.550000	-0.048967	-38.007029	-68.030688	170.912083	-68.030688	170.912083	-0.067064	-52.105471
2.600000	-0.049960	-38.728541	-67.476087	169.546846	-67.476087	169.546846	-0.068396	-53.082068
2.650000	-0.050957	-39.448927	-66.936116	168.164614	-66.936116	168.164614	-0.069735	-54.056564
2.700000	-0.051960	-40.168175	-66.410026	166.767051	-66.410026	166.767051	-0.071081	-55.028945
2.750000	-0.052967	-40.886274	-65.897127	165.355626	-65.897127	165.355626	-0.072435	-55.999200
2.800000	-0.053981	-41.603212	-65.396784	163.931645	-65.396784	163.931645	-0.073796	-56.967317
2.850000	-0.055000	-42.318978	-64.908407	162.496272	-64.908407	162.496272	-0.075166	-57.933285
2.900000	-0.056026	-43.033560	-64.431451	161.050547	-64.431451	161.050547	-0.076544	-58.897095
2.950000	-0.057058	-43.746948	-63.965411	159.595402	-63.965411	159.595402	-0.077932	-59.858737
3.000000	-0.058097	-44.459132	-63.509814	158.131676	-63.509814	158.131676	-0.079330	-60.818205
3.050000	-0.059144	-45.170102	-63.064221	156.660128	-63.064221	156.660128	-0.080738	-61.775492
3.100000	-0.060198	-45.879847	-62.628222	155.181443	-62.628222	155.181443	-0.082157	-62.730593
3.150000	-0.061260	-46.588358	-62.201432	153.696242	-62.201432	153.696242	-0.083588	-63.683502
3.200000	-0.062331	-47.295627	-61.783492	152.205092	-61.783492	152.205092	-0.085030	-64.634216
3.250000	-0.063410	-48.001643	-61.374063	150.708508	-61.374063	150.708508	-0.086485	-65.582732
3.300000	-0.064498	-48.706399	-60.972828	149.206961	-60.972828	149.206961	-0.087953	-66.529048
3.350000	-0.065596	-49.409886	-60.579488	147.700884	-60.579488	147.700884	-0.089434	-67.473163
3.400000	-0.066704	-50.112096	-60.193760	146.190672	-60.193760	146.190672	-0.090929	-68.415078
3.450000	-0.067822	-50.813021	-59.815378	144.676691	-59.815378	144.676691	-0.092438	-69.354793
3.500000	-0.068950	-51.512655	-59.444090	143.159275	-59.444090	143.159275	-0.093963	-70.292310
3.550000	-0.070089	-52.210989	-59.079659	141.638736	-59.079659	141.638736	-0.095503	-71.227632
3.600000	-0.071240	-52.908016	-58.721858	140.115360	-58.721858	140.115360	-0.097060	-72.160763
3.650000	-0.072402	-53.603732	-58.370473	138.589411	-58.370473	138.589411	-0.098633	-73.091706
3.700000	-0.073576	-54.298128	-58.025301	137.061138	-58.025301	137.061138	-0.100223	-74.020468
3.750000	-0.074762	-54.991200	-57.686148	135.530768	-57.686148	135.530768	-0.101831	-74.947054
3.800000	-0.075962	-55.682884	-57.352530	133.998442	-57.352530	133.998442	-0.103458	-75.871378
3.850000	-0.077175	-56.373232	-57.024595	132.464448	-57.024595	132.464448	-0.105104	-76.793542
3.900000	-0.078401	-57.062239	-56.702174	130.928969	-56.702174	130.928969	-0.106769	-77.713556
3.950000	-0.079641	-57.749901	-56.385106	129.392177	-56.385106	129.392177	-0.108455	-78.631429
4.000000	-0.080896	-58.436213	-56.073238	127.854232	-56.073238	127.854232	-0.110160	-79.547172
4.050000	-0.082165	-59.121172	-55.766424	126.315285	-55.766424	126.315285	-0.111887	-80.460796
4.100000	-0.083449	-59.804773	-55.464523	124.775476	-55.464523	124.775476	-0.113636	-81.372313
4.150000	-0.084749	-60.487014	-55.167401	123.234939	-55.167401	123.234939	-0.115407	-82.281736
4.200000	-0.086064	-61.167892	-54.874929	121.693798	-54.874929	121.693798	-0.117200	-83.189079
4.250000	-0.087396	-61.847403	-54.586985	120.152169	-54.586985	120.152169	-0.119017	-84.094358
4.300000	-0.088744	-62.525546	-54.303451	118.610165	-54.303451	118.610165	-0.120857	-84.997586
4.350000	-0.090109	-63.202318	-54.024214	117.067887	-54.024214	117.067887	-0.122721	-85.898780
4.400000	-0.091491	-63.877717	-53.749163	115.525436	-53.749163	115.525436	-0.124611	-86.797957
4.450000	-0.092891	-64.551742	-53.478196	113.982903	-53.478196	113.982903	-0.126526	-87.695134
4.500000	-0.094309	-65.224393	-53.211212	112.440376	-53.211212	112.440376	-0.128466	-88.590331
4.550000	-0.095745	-65.895667	-52.948114	110.897939	-52.948114	110.897939	-0.130433	-89.483565
4.600000	-0.097200	-66.565565	-52.688809	109.355670	-52.688809	109.355670	-0.132427	-90.374857
4.650000	-0.098674	-67.234086	-52.433207	107.813643	-52.433207	107.813643	-0.134448	-91.264226
4.700000	-0.100168	-67.901230	-52.181223	106.271928	-52.181223	106.271928	-0.136498	-92.151695
4.750000	-0.101682	-68.566998	-51.932773	104.730594	-51.932773	104.730594	-0.138575	-93.037286
4.800000	-0.103216	-69.231390	-51.687776	103.189703	-51.687776	103.189703	-0.140682	-93.921019
4.850000	-0.104771	-69.894407	-51.446156	101.649317	-51.446156	101.649317	-0.142818	-94.802920
4.900000	-0.106347	-70.556050	-51.207838	100.109492	-51.207838	100.109492	-0.144984	-95.683011
4.950000	-0.107944	-71.216321	-50.972749	98.570283	-50.972749	98.570283	-0.147181	-96.561318
5.000000	-0.109564	-71.875222	-50.740819	97.031743	-50.740819	97.031743	-0.149408	-97.437865
5.050000	-0.111206	-72.532695	-50.511855	95.493955	-50.511855	95.493955	-0.151668	-98.312604
5.100000	-0.112872	-73.188801	-50.285926	93.956936	-50.285926	93.956936	-0.153961	-99.185638
5.150000	-0.114560	-73.843545	-50.062969	92.420732	-50.062969	92.420732	-0.156285	-100.056994
5.200000	-0.116272	-74.496929	-49.842922	90.885385	-49.842922	90.885385	-0.158643	-100.926701
5.250000	-0.118007	-75.148955	-49.625726	89.350936	-49.625726	89.350936	-0.161033	-101.794786
5.300000	-0.119767	-75.799628	-49.411323	87.817424	-49.411323	87.817424	-0.163458	-102.661278
5.350000	-0.121552	-76.448951	-49.199657	86.284887	-49.199657	86.284887	-0.165917	-103.526207
5.400000	-0.123362	-77.096928	-48.990675	84.753361	-48.990675	84.753361	-0.168411	-104.389604
5.450000	-0.125197	-77.743563	-48.784323	83.222878	-48.784323	83.222878	-0.170940	-105.251498
5.500000	-0.127057	-78.388862	-48.580551	81.693474	-48.580551	81.693474	-0.173504	-106.111921
5.550000	-0.128944	-79.032828	-48.379310	80.165177	-48.379310	80.165177	-0.176105	-106.970905
5.600000	-0.130858	-79.675466	-48.180551	78.638020	-48.180551	78.638020	-0.178742	-107.828483
5.650000	-0.132799	-80.316782	-47.984229	77.112029	-47.984229	77.112029	-0.181416	-108.684687
5.700000	-0.134767	-80.956782	-47.790298	75.587233	-47.790298	75.587233	-0.184128	-109.539551
5.750000	-0.136763	-81.595471	-47.598714	74.063658	-47.598714	74.063658	-0.186878	-110.393109
5.800000	-0.138786	-82.232855	-47.409434	72.541330	-47.409434	72.541330	-0.189665	-111.245396
5.850000	-0.140844	-82.868717	-47.222115	71.020500	-47.222115	71.020500	-0.192499	-112.096242
5.900000	-0.142932	-83.503231	-47.036958	69.501020	-47.036958	69.501020	-0.195373	-112.945836
5.950000	-0.145035	-84.137076	-46.854803	67.982235	-46.854803	67.982235	-0.198268	-113.794838
6.000000	-0.147185	-84.768919	-46.673857	66.465536	-46.673857	66.465536	-0.201225	-114.642061
6.050000	-0.149345	-85.400321	-46.496065	64.949314	-46.496065	64.949314	-0.204197	-115.488916
6.100000	-0.151558	-86.029523	-46.319199	63.435482	-46.319199	63.435482	-0.207239	-116.333931
6.150000	-0.153777	-86.658508	-46.145610	61.921896	-46.145610	61.921896	-0.210289	-117.178777
6.200000	-0.156055	-87.285104	-45.972699	60.411012	-45.972699	60.411012	-0.213417	-118.021751
6.250000	-0.158334	-87.911700	-45.803163	58.900128	-45.803163	58.900128	-0.216547	-118.864726
6.300000	-0.160679	-88.535725	-45.634087	57.392264	-45.634087	57.392264	-0.219764	-119.705833
6.350000	-0.163025	-89.159750	-45.468239	55.884400	-45.468239	55.884400	-0.222981	-120.546939
6.400000	-0.165433	-89.781453	-45.303106	54.379366	-45.303106	54.379366	-0.226281	-121.386495
6.450000	-0.167847	-90.402946	-45.140840	52.874588	-45.140840	52.874588	-0.229589	-122.225910
6.500000	-0.170320	-91.022359	-44.979513	51.372432	-44.979513	51.372432	-0.232972	-123.064066
6.550000	-0.172804	-91.641357	-44.820728	49.870801	-44.820728	49.870801	-0.236371	-123.901970
6.600000	-0.175342	-92.258516	-44.663079	48.371569	-44.663079	48.371569	-0.239840	-124.738879
6.650000	-0.177899	-92.875062	-44.507677	46.873137	-44.507677	46.873137	-0.243332	-125.575458
6.700000	-0.180504	-93.490001	-44.353582	45.376870	-44.353582	45.376870	-0.246887	-126.411279
6.750000	-0.183135	-94.104137	-44.201472	43.881685	-44.201472	43.881685	-0.250475	-127.246721
6.800000	-0.185808	-94.716893	-44.050815	42.388419	-44.050815	42.388419	-0.254117	-128.081614
6.850000	-0.188514	-95.328665	-43.901909	40.896524	-43.901909	40.896524	-0.257801	-128.916114
6.900000	-0.191258	-95.939277	-43.754580	39.406291	-43.754580	39.406291	-0.261533	-129.750242
6.950000	-0.194040	-96.548729	-43.608792	37.917722	-43.608792	37.917722	-0.265314	-130.583997
7.000000	-0.196855	-97.157236	-43.464687	36.430552	-43.464687	36.430552	-0.269136	-131.417527
7.050000	-0.199716	-97.764419	-43.321937	34.945341	-43.321937	34.945341	-0.273016	-132.250741
7.100000	-0.202604	-98.370862	-43.180957	33.461258	-43.180957	33.461258	-0.276930	-133.083843
7.150000	-0.205545	-98.975824	-43.041169	31.979431	-43.041169	31.979431	-0.280910	-133.916721
7.200000	-0.208506	-99.580245	-42.903219	30.498456	-42.903219	30.498456	-0.284916	-134.749568
7.250000	-0.211529	-100.183039	-42.766318	29.020035	-42.766318	29.020035	-0.288998	-135.582321
7.300000	-0.214566	-100.785480	-42.631310	27.542185	-42.631310	27.542185	-0.293098	-136.415089
7.350000	-0.217671	-101.386158	-42.497226	26.067188	-42.497226	26.067188	-0.297283	-137.247932
7.400000	-0.220785	-101.986664	-42.365074	24.592477	-42.365074	24.592477	-0.301478	-138.080800
7.450000	-0.223975	-102.585281	-42.233741	23.120914	-42.233741	23.120914	-0.305767	-138.913952
7.500000	-0.227166	-103.183898	-42.104365	21.649352	-42.104365	21.649352	-0.310058	-139.747103
7.550000	-0.230443	-103.780509	-41.975719	20.181233	-41.975719	20.181233	-0.314452	-140.580787
7.600000	-0.233720	-104.377121	-41.848951	18.713114	-41.848951	18.713114	-0.318848	-141.414470
7.650000	-0.237077	-104.971948	-41.723023	17.248153	-41.723023	17.248153	-0.323340	-142.248849
7.700000	-0.240443	-105.566613	-41.598806	15.783481	-41.598806	15.783481	-0.327843	-143.083292
7.750000	-0.243881	-106.159704	-41.475521	14.321679	-41.475521	14.321679	-0.332433	-143.918560
7.800000	-0.247335	-106.752480	-41.353800	12.860451	-41.353800	12.860451	-0.337043	-144.753993
7.850000	-0.250857	-107.343886	-41.233091	11.401804	-41.233091	11.401804	-0.341733	-145.590346
7.900000	-0.254402	-107.934835	-41.113815	9.944017	-41.113815	9.944017	-0.346452	-146.427005
7.950000	-0.258007	-108.524607	-40.995614	8.488518	-40.995614	8.488518	-0.351242	-147.264643
8.000000	-0.261644	-109.113791	-40.878733	7.034163	-40.878733	7.034163	-0.356070	-148.102769
8.050000	-0.265334	-109.701982	-40.762979	5.581803	-40.762979	5.581803	-0.360962	-148.941893
8.100000	-0.269064	-110.289464	-40.648448	4.130867	-40.648448	4.130867	-0.365899	-149.781730
8.150000	-0.272840	-110.876127	-40.535082	2.681632	-40.535082	2.681632	-0.370893	-150.622546
8.200000	-0.276664	-111.461973	-40.422855	1.234100	-40.422855	1.234100	-0.375941	-151.464343
8.250000	-0.280528	-112.047164	-40.311822	-0.212022	-40.311822	-0.212022	-0.381037	-152.307061
8.300000	-0.284448	-112.631439	-40.201859	-1.656170	-40.201859	-1.656170	-0.386197	-153.151069
8.350000	-0.288400	-113.215214	-40.093105	-3.099198	-40.093105	-3.099198	-0.391395	-153.995901
8.400000	-0.292416	-113.797987	-39.985368	-4.539983	-39.985368	-4.539983	-0.396667	-154.842379
8.450000	-0.296457	-114.380403	-39.878844	-5.979934	-39.878844	-5.979934	-0.401968	-155.689540
8.500000	-0.300571	-114.961743	-39.773296	-7.417381	-39.773296	-7.417381	-0.407352	-156.538750
8.550000	-0.304703	-115.542857	-39.668956	-8.854276	-39.668956	-8.854276	-0.412757	-157.388459
8.600000	-0.308915	-116.122837	-39.565564	-10.288411	-39.565564	-10.288411	-0.418254	-158.240665
8.650000	-0.313138	-116.702709	-39.463363	-11.722272	-39.463363	-11.722272	-0.423763	-159.093144
8.700000	-0.317450	-117.281399	-39.362095	-13.153123	-39.362095	-13.153123	-0.429372	-159.948617
8.750000	-0.321765	-117.860089	-39.261993	-14.583975	-39.261993	-14.583975	-0.434985	-160.804091
8.800000	-0.326153	-118.437859	-39.162866	-16.012381	-39.162866	-16.012381	-0.440681	-161.662187
8.850000	-0.330591	-119.015065	-39.064771	-17.439235	-39.064771	-17.439235	-0.446431	-162.522046
8.900000	-0.335077	-119.591723	-38.967702	-18.864544	-38.967702	-18.864544	-0.452235	-163.383733
8.950000	-0.339612	-120.167853	-38.871651	-20.288314	-38.871651	-20.288314	-0.458093	-164.247312
9.000000	-0.344196	-120.743471	-38.776611	-21.710553	-38.776611	-21.710553	-0.464005	-165.112849
9.050000	-0.348829	-121.318595	-38.682576	-23.131267	-38.682576	-23.131267	-0.469972	-165.980409
9.100000	-0.353512	-121.893244	-38.589539	-24.550463	-38.589539	-24.550463	-0.475991	-166.850058
9.150000	-0.358244	-122.467436	-38.497494	-25.968149	-38.497494	-25.968149	-0.482065	-167.721863
9.200000	-0.363026	-123.041189	-38.406436	-27.384330	-38.406436	-27.384330	-0.488192	-168.595890
9.250000	-0.367857	-123.614522	-38.316358	-28.799012	-38.316358	-28.799012	-0.494372	-169.472207
9.300000	-0.372739	-124.187453	-38.227256	-30.212203	-38.227256	-30.212203	-0.500606	-170.350882
9.350000	-0.377671	-124.760002	-38.139124	-31.623909	-38.139124	-31.623909	-0.506892	-171.231983
9.400000	-0.382653	-125.332188	-38.051959	-33.034134	-38.051959	-33.034134	-0.513231	-172.115579
9.450000	-0.387685	-125.904030	-37.965756	-34.442884	-37.965756	-34.442884	-0.519622	-173.001739
9.500000	-0.392767	-126.475548	-37.880510	-35.850165	-37.880510	-35.850165	-0.526065	-173.890532
9.550000	-0.397900	-127.046761	-37.796218	-37.255981	-37.796218	-37.255981	-0.532560	-174.782029
9.600000	-0.403083	-127.617690	-37.712877	-38.660336	-37.712877	-38.660336	-0.539106	-175.676299
9.650000	-0.408316	-128.188355	-37.630483	-40.063234	-37.630483	-40.063234	-0.545703	-176.573414
9.700000	-0.413600	-128.758775	-37.549033	-41.464678	-37.549033	-41.464678	-0.552351	-177.473445
9.750000	-0.418935	-129.328972	-37.468525	-42.864672	-37.468525	-42.864672	-0.559048	-178.376462
9.800000	-0.424320	-129.898966	-37.388956	-44.263216	-37.388956	-44.263216	-0.565795	-179.282539
9.850000	-0.429756	-130.468778	-37.310324	-45.660313	-37.310324	-45.660313	-0.572591	179.808253
9.900000	-0.435242	-131.038430	-37.232627	-47.055964	-37.232627	-47.055964	-0.579436	178.895841
9.950000	-0.440778	-131.607943	-37.155863	-48.450168	-37.155863	-48.450168	-0.586328	177.980152
10.000000	-0.446365	-132.177338	-37.080031	-49.842925	-37.080031	-49.842925	-0.593267	177.061114
