! freq	dB(S11)	phase(S11)	dB(S12)	phase(S12)	
!     	dB(S21)	phase(S21)	dB(S22)	phase(S22)	
!S-par simulation data
#  GHz  S  DB  R 50
0.000000	-0.000000	-0.000000	-369.713829	180.000000	-369.713829	180.000000	-0.000000	-0.000000
0.050000	-0.000122	-1.098553	-109.213426	88.930914	-109.213426	88.930914	-0.000123	-1.098605
0.100000	-0.000486	-2.196824	-103.239013	87.871084	-103.239013	87.871084	-0.000487	-2.196927
0.150000	-0.001079	-3.294547	-99.794237	86.829965	-99.794237	86.829965	-0.001083	-3.294698
0.200000	-0.001883	-4.391490	-97.402909	85.817169	-97.402909	85.817169	-0.001889	-4.391685
0.250000	-0.002890	-5.487377	-95.608796	84.846250	-95.608796	84.846250	-0.002899	-5.487611
0.300000	-0.004057	-6.582128	-94.199020	83.925886	-94.199020	83.925886	-0.004068	-6.582396
0.350000	-0.005367	-7.675566	-93.068699	83.071791	-93.068699	83.071791	-0.005381	-7.675863
0.400000	-0.006795	-8.767586	-92.154128	82.300821	-92.154128	82.300821	-0.006812	-8.767908
0.450000	-0.008316	-9.858115	-91.415282	81.633321	-91.415282	81.633321	-0.008335	-9.858460
0.500000	-0.009908	-10.947111	-90.825988	81.094325	-90.825988	81.094325	-0.009929	-10.947474
0.550000	-0.011550	-12.034550	-90.368821	80.715197	-90.368821	80.715197	-0.011572	-12.034931
0.600000	-0.013224	-13.120427	-90.032238	80.535924	-90.032238	80.535924	-0.013246	-13.120825
0.650000	-0.014915	-14.204750	-89.808814	80.608330	-89.808814	80.608330	-0.014938	-14.205165
0.700000	-0.016611	-15.287533	-89.694034	81.000651	-89.694034	81.000651	-0.016633	-15.287965
0.750000	-0.018302	-16.368793	-89.685240	81.803998	-89.685240	81.803998	-0.018323	-16.369244
0.800000	-0.019981	-17.448549	-89.780386	83.141395	-89.780386	83.141395	-0.020001	-17.449021
0.850000	-0.021642	-18.526818	-89.976069	85.179778	-89.976069	85.179778	-0.021661	-18.527312
0.900000	-0.023281	-19.603614	-90.264000	88.143975	-90.264000	88.143975	-0.023299	-19.604133
0.950000	-0.024897	-20.678948	-90.624506	92.326957	-90.624506	92.326957	-0.024913	-20.679493
1.000000	-0.026487	-21.752825	-91.015416	98.078222	-91.015416	98.078222	-0.026502	-21.753398
1.050000	-0.028053	-22.825246	-91.356527	105.728911	-91.356527	105.728911	-0.028066	-22.825849
1.100000	-0.029593	-23.896207	-91.518880	115.394958	-91.518880	115.394958	-0.029605	-23.896842
1.150000	-0.031110	-24.965702	-91.345511	126.664820	-91.345511	126.664820	-0.031120	-24.966370
1.200000	-0.032603	-26.033718	-90.727558	138.428914	-90.727558	138.428914	-0.032612	-26.034420
1.250000	-0.034076	-27.100240	-89.685704	149.279316	-89.685704	149.279316	-0.034083	-27.100978
1.300000	-0.035528	-28.165183	-88.338350	158.176906	-88.338350	158.176906	-0.035534	-28.165957
1.350000	-0.036962	-29.228591	-86.862339	165.021829	-86.862339	165.021829	-0.036966	-29.229403
1.400000	-0.038379	-30.290441	-85.365320	170.074834	-85.365320	170.074834	-0.038383	-30.291290
1.450000	-0.039783	-31.350707	-83.906211	173.700309	-83.906211	173.700309	-0.039786	-31.351595
1.500000	-0.041174	-32.409364	-82.511644	176.230795	-82.511644	176.230795	-0.041176	-32.410291
1.550000	-0.042553	-33.466385	-81.190500	177.930344	-81.190500	177.930344	-0.042556	-33.467349
1.600000	-0.043924	-34.521740	-79.942907	178.997437	-79.942907	178.997437	-0.043925	-34.522743
1.650000	-0.045286	-35.575403	-78.765081	179.578498	-78.765081	179.578498	-0.045287	-35.576444
1.700000	-0.046641	-36.627344	-77.651766	179.781389	-77.651766	179.781389	-0.046642	-36.628423
1.750000	-0.047990	-37.677534	-76.597400	179.686115	-76.597400	179.686115	-0.047992	-37.678652
1.800000	-0.049336	-38.725946	-75.596649	179.352673	-75.596649	179.352673	-0.049337	-38.727101
1.850000	-0.050678	-39.772551	-74.644617	178.826620	-74.644617	178.826620	-0.050679	-39.773744
1.900000	-0.052018	-40.817322	-73.736905	178.142998	-73.736905	178.142998	-0.052019	-40.818552
1.950000	-0.053356	-41.860232	-72.869606	177.329104	-72.869606	177.329104	-0.053358	-41.861499
2.000000	-0.054694	-42.901255	-72.039265	176.406461	-72.039265	176.406461	-0.054696	-42.902559
2.050000	-0.056033	-43.940365	-71.242828	175.392232	-71.242828	175.392232	-0.056035	-43.941705
2.100000	-0.057373	-44.977538	-70.477596	174.300251	-70.477596	174.300251	-0.057375	-44.978914
2.150000	-0.058715	-46.012750	-69.741174	173.141783	-69.741174	173.141783	-0.058717	-46.014161
2.200000	-0.060059	-47.045978	-69.031439	171.926080	-69.031439	171.926080	-0.060062	-47.047425
2.250000	-0.061407	-48.077202	-68.346494	170.660811	-68.346494	170.660811	-0.061410	-48.078684
2.300000	-0.062759	-49.106400	-67.684645	169.352381	-67.684645	169.352381	-0.062762	-49.107917
2.350000	-0.064115	-50.133552	-67.044370	168.006180	-67.044370	168.006180	-0.064118	-50.135104
2.400000	-0.065476	-51.158642	-66.424300	166.626776	-66.424300	166.626776	-0.065479	-51.160228
2.450000	-0.066842	-52.181651	-65.823198	165.218063	-65.823198	165.218063	-0.066846	-52.183272
2.500000	-0.068215	-53.202563	-65.239942	163.783385	-65.239942	163.783385	-0.068219	-53.204219
2.550000	-0.069595	-54.221272	-64.672642	162.324737	-64.672642	162.324737	-0.069598	-54.222962
2.600000	-0.070981	-55.237854	-64.121335	160.845701	-64.121335	160.845701	-0.070985	-55.239578
2.650000	-0.072376	-56.252298	-63.585161	159.348419	-63.585161	159.348419	-0.072379	-56.254057
2.700000	-0.073778	-57.264592	-63.063329	157.834771	-63.063329	157.834771	-0.073782	-57.266385
2.750000	-0.075189	-58.274727	-62.555116	156.306412	-62.555116	156.306412	-0.075193	-58.276554
2.800000	-0.076609	-59.282693	-62.059853	154.764805	-62.059853	154.764805	-0.076613	-59.284554
2.850000	-0.078038	-60.288482	-61.576924	153.211251	-61.576924	153.211251	-0.078042	-60.290379
2.900000	-0.079478	-61.292090	-61.105759	151.646907	-61.105759	151.646907	-0.079482	-61.294021
2.950000	-0.080928	-62.293509	-60.645828	150.072808	-60.645828	150.072808	-0.080931	-62.295475
3.000000	-0.082388	-63.292736	-60.196641	148.489883	-60.196641	148.489883	-0.082392	-63.294737
3.050000	-0.083861	-64.289768	-59.757737	146.898966	-59.757737	146.898966	-0.083864	-64.291805
3.100000	-0.085345	-65.284604	-59.328692	145.300810	-59.328692	145.300810	-0.085348	-65.286676
3.150000	-0.086841	-66.277242	-58.909104	143.696097	-58.909104	143.696097	-0.086845	-66.279349
3.200000	-0.088351	-67.267683	-58.498601	142.085446	-58.498601	142.085446	-0.088354	-67.269826
3.250000	-0.089873	-68.255928	-58.096832	140.469418	-58.096832	140.469418	-0.089877	-68.258108
3.300000	-0.091410	-69.241981	-57.703467	138.848525	-57.703467	138.848525	-0.091413	-69.244197
3.350000	-0.092961	-70.225844	-57.318196	137.223236	-57.318196	137.223236	-0.092964	-70.228097
3.400000	-0.094527	-71.207524	-56.940728	135.593980	-56.940728	135.593980	-0.094530	-71.209813
3.450000	-0.096109	-72.187025	-56.570788	133.961149	-56.570788	133.961149	-0.096111	-72.189351
3.500000	-0.097706	-73.164354	-56.208116	132.325104	-56.208116	132.325104	-0.097709	-73.166718
3.550000	-0.099320	-74.139521	-55.852465	130.686180	-55.852465	130.686180	-0.099323	-74.141922
3.600000	-0.100951	-75.112533	-55.503602	129.044682	-55.503602	129.044682	-0.100954	-75.114972
3.650000	-0.102600	-76.083401	-55.161308	127.400895	-55.161308	127.400895	-0.102602	-76.085878
3.700000	-0.104267	-77.052136	-54.825373	125.755080	-54.825373	125.755080	-0.104269	-77.054651
3.750000	-0.105953	-78.018751	-54.495597	124.107483	-54.495597	124.107483	-0.105955	-78.021304
3.800000	-0.107658	-78.983167	-54.171527	122.458270	-54.171527	122.458270	-0.107660	-78.985759
3.850000	-0.109384	-79.945490	-53.853270	120.807728	-53.853270	120.807728	-0.109386	-79.948122
3.900000	-0.111130	-80.905737	-53.540651	119.156050	-53.540651	119.156050	-0.111132	-80.908408
3.950000	-0.112897	-81.863924	-53.233505	117.503416	-53.233505	117.503416	-0.112899	-81.866634
4.000000	-0.114685	-82.820067	-52.931675	115.849996	-52.931675	115.849996	-0.114687	-82.822817
4.050000	-0.116496	-83.774185	-52.635010	114.195946	-52.635010	114.195946	-0.116498	-83.776974
4.100000	-0.118329	-84.726296	-52.343367	112.541414	-52.343367	112.541414	-0.118331	-84.729126
4.150000	-0.120186	-85.676421	-52.056608	110.886538	-52.056608	110.886538	-0.120188	-85.679291
4.200000	-0.122067	-86.624581	-51.774601	109.231447	-51.774601	109.231447	-0.122069	-86.627491
4.250000	-0.123972	-87.570797	-51.497220	107.576261	-51.497220	107.576261	-0.123974	-87.573748
4.300000	-0.125902	-88.515092	-51.224343	105.921094	-51.224343	105.921094	-0.125904	-88.518084
4.350000	-0.127857	-89.457490	-50.955855	104.266054	-50.955855	104.266054	-0.127859	-89.460523
4.400000	-0.129839	-90.398015	-50.691645	102.611239	-50.691645	102.611239	-0.129841	-90.401089
4.450000	-0.131847	-91.336692	-50.431604	100.956745	-50.431604	100.956745	-0.131850	-91.339807
4.500000	-0.133882	-92.273548	-50.175630	99.302658	-50.175630	99.302658	-0.133885	-92.276704
4.550000	-0.135946	-93.208609	-49.923625	97.649063	-49.923625	97.649063	-0.135949	-93.211807
4.600000	-0.138037	-94.141903	-49.675492	95.996038	-49.675492	95.996038	-0.138041	-94.145143
4.650000	-0.140158	-95.073460	-49.431140	94.343655	-49.431140	94.343655	-0.140162	-95.076741
4.700000	-0.142308	-96.003307	-49.190481	92.691985	-49.190481	92.691985	-0.142312	-96.006630
4.750000	-0.144488	-96.931477	-48.953429	91.041093	-48.953429	91.041093	-0.144492	-96.934842
4.800000	-0.146699	-97.857999	-48.719903	89.391039	-48.719903	89.391039	-0.146703	-97.861406
4.850000	-0.148941	-98.782905	-48.489822	87.741881	-48.489822	87.741881	-0.148945	-98.786355
4.900000	-0.151214	-99.706229	-48.263111	86.093674	-48.263111	86.093674	-0.151219	-99.709722
4.950000	-0.153520	-100.628004	-48.039695	84.446469	-48.039695	84.446469	-0.153525	-100.631539
5.000000	-0.155858	-101.548264	-47.819503	82.800313	-47.819503	82.800313	-0.155863	-101.551842
5.050000	-0.158231	-102.466981	-47.602369	81.155301	-47.602369	81.155301	-0.158237	-102.470602
5.100000	-0.160638	-103.384257	-47.388331	79.511430	-47.388331	79.511430	-0.160644	-103.387921
5.150000	-0.163079	-104.300129	-47.177324	77.868738	-47.177324	77.868738	-0.163085	-104.303836
5.200000	-0.165555	-105.214633	-46.969285	76.227263	-46.969285	76.227263	-0.165561	-105.218385
5.250000	-0.168067	-106.127809	-46.764154	74.587039	-46.764154	74.587039	-0.168073	-106.131604
5.300000	-0.170614	-107.039694	-46.561873	72.948099	-46.561873	72.948099	-0.170620	-107.043534
5.350000	-0.173197	-107.950329	-46.362383	71.310473	-46.362383	71.310473	-0.173204	-107.954213
5.400000	-0.175817	-108.859754	-46.165630	69.674190	-46.165630	69.674190	-0.175824	-108.863682
5.450000	-0.178475	-109.768010	-45.971561	68.039275	-45.971561	68.039275	-0.178482	-109.771982
5.500000	-0.181170	-110.675138	-45.780125	66.405753	-45.780125	66.405753	-0.181177	-110.679155
5.550000	-0.183903	-111.581181	-45.591270	64.773648	-45.591270	64.773648	-0.183911	-111.585244
5.600000	-0.186675	-112.486182	-45.404948	63.142979	-45.404948	63.142979	-0.186683	-112.490290
5.650000	-0.189486	-113.390186	-45.221113	61.513768	-45.221113	61.513768	-0.189494	-113.394339
5.700000	-0.192337	-114.293235	-45.039718	59.886032	-45.039718	59.886032	-0.192345	-114.297435
5.750000	-0.195227	-115.195377	-44.860720	58.259787	-44.860720	58.259787	-0.195235	-115.199623
5.800000	-0.198158	-116.096657	-44.684076	56.635050	-44.684076	56.635050	-0.198166	-116.100949
5.850000	-0.201130	-116.997121	-44.509743	55.011833	-44.509743	55.011833	-0.201138	-117.001461
5.900000	-0.204143	-117.896817	-44.337682	53.390150	-44.337682	53.390150	-0.204151	-117.901204
5.950000	-0.207198	-118.795793	-44.167854	51.770012	-44.167854	51.770012	-0.207206	-118.800227
6.000000	-0.210295	-119.694098	-44.000220	50.151430	-44.000220	50.151430	-0.210303	-119.698580
6.050000	-0.213434	-120.591781	-43.834743	48.534413	-43.834743	48.534413	-0.213442	-120.596312
6.100000	-0.216616	-121.488892	-43.671389	46.918969	-43.671389	46.918969	-0.216624	-121.493472
6.150000	-0.219841	-122.385482	-43.510122	45.305106	-43.510122	45.305106	-0.219850	-122.390111
6.200000	-0.223110	-123.281604	-43.350908	43.692829	-43.350908	43.692829	-0.223119	-123.286282
6.250000	-0.226423	-124.177308	-43.193715	42.082145	-43.193715	42.082145	-0.226431	-124.182036
6.300000	-0.229805	-125.072475	-43.038072	40.473964	-43.038072	40.473964	-0.229813	-125.077254
6.350000	-0.233188	-125.967643	-42.885169	38.865782	-42.885169	38.865782	-0.233196	-125.972472
6.400000	-0.236655	-126.862335	-42.733524	37.260669	-42.733524	37.260669	-0.236664	-126.867216
6.450000	-0.240132	-127.756983	-42.584358	35.655835	-42.584358	35.655835	-0.240141	-127.761916
6.500000	-0.243688	-128.651401	-42.436581	34.053798	-42.436581	34.053798	-0.243696	-128.656387
6.550000	-0.247260	-129.545774	-42.291055	32.452321	-42.291055	32.452321	-0.247268	-129.550811
6.600000	-0.250904	-130.440125	-42.147022	30.853363	-42.147022	30.853363	-0.250913	-130.445216
6.650000	-0.254573	-131.334469	-42.005042	29.255246	-42.005042	29.255246	-0.254582	-131.339613
6.700000	-0.258307	-132.228964	-41.864639	27.659368	-41.864639	27.659368	-0.258315	-132.234163
6.750000	-0.262075	-133.123535	-41.726120	26.064609	-41.726120	26.064609	-0.262082	-133.128789
6.800000	-0.265899	-134.018391	-41.589236	24.471807	-41.589236	24.471807	-0.265907	-134.023699
6.850000	-0.269766	-134.913450	-41.454097	22.880402	-41.454097	22.880402	-0.269773	-134.918814
6.900000	-0.273682	-135.808887	-41.320632	21.290671	-41.320632	21.290671	-0.273690	-135.814308
6.950000	-0.277649	-136.704702	-41.188797	19.702612	-41.188797	19.702612	-0.277657	-136.710180
7.000000	-0.281659	-137.600947	-41.058656	18.115944	-41.058656	18.115944	-0.281666	-137.606481
7.050000	-0.285727	-138.497792	-40.930053	16.531222	-40.930053	16.531222	-0.285734	-138.503385
7.100000	-0.289830	-139.395075	-40.803146	14.947608	-40.803146	14.947608	-0.289838	-139.400726
7.150000	-0.294001	-140.293232	-40.677711	13.366212	-40.677711	13.366212	-0.294008	-140.298942
7.200000	-0.298199	-141.191789	-40.553955	11.785645	-40.553955	11.785645	-0.298206	-141.197558
7.250000	-0.302473	-142.091546	-40.431625	10.207563	-40.431625	10.207563	-0.302480	-142.097374
7.300000	-0.306766	-142.991618	-40.310942	8.630033	-40.310942	8.630033	-0.306774	-142.997506
7.350000	-0.311145	-143.893268	-40.191661	7.055256	-40.191661	7.055256	-0.311152	-143.899217
7.400000	-0.315534	-144.795101	-40.073979	5.480754	-40.073979	5.480754	-0.315541	-144.801111
7.450000	-0.320018	-145.698946	-39.957694	3.909273	-39.957694	3.909273	-0.320025	-145.705017
7.500000	-0.324504	-146.602791	-39.842945	2.337793	-39.842945	2.337793	-0.324511	-146.608924
7.550000	-0.329068	-147.508475	-39.729616	0.768781	-39.729616	0.768781	-0.329075	-147.514670
7.600000	-0.333683	-148.415433	-39.617732	-0.798656	-39.617732	-0.798656	-0.333690	-148.421691
7.650000	-0.338349	-149.323738	-39.507280	-2.364517	-39.507280	-2.364517	-0.338356	-149.330059
7.700000	-0.343066	-150.233464	-39.398248	-3.928802	-39.398248	-3.928802	-0.343074	-150.239848
7.750000	-0.347834	-151.144684	-39.290624	-5.491511	-39.290624	-5.491511	-0.347842	-151.151132
7.800000	-0.352654	-152.057474	-39.184398	-7.052643	-39.184398	-7.052643	-0.352662	-152.063985
7.850000	-0.357525	-152.971909	-39.079559	-8.612194	-39.079559	-8.612194	-0.357534	-152.978485
7.900000	-0.362448	-153.888066	-38.976097	-10.170164	-38.976097	-10.170164	-0.362457	-153.894706
7.950000	-0.367422	-154.806022	-38.874002	-11.726547	-38.874002	-11.726547	-0.367431	-154.812727
8.000000	-0.372448	-155.725856	-38.773265	-13.281340	-38.773265	-13.281340	-0.372457	-155.732626
8.050000	-0.377525	-156.647646	-38.673878	-14.834538	-38.673878	-14.834538	-0.377535	-156.654481
8.100000	-0.382654	-157.571472	-38.575831	-16.386134	-38.575831	-16.386134	-0.382664	-157.578372
8.150000	-0.387835	-158.497415	-38.479118	-17.936122	-38.479118	-17.936122	-0.387846	-158.504380
8.200000	-0.393067	-159.425556	-38.383730	-19.484494	-38.383730	-19.484494	-0.393078	-159.432585
8.250000	-0.398351	-160.355976	-38.289661	-21.031240	-38.289661	-21.031240	-0.398363	-160.363070
8.300000	-0.403687	-161.288760	-38.196903	-22.576351	-38.196903	-22.576351	-0.403699	-161.295918
8.350000	-0.409074	-162.223990	-38.105451	-24.119815	-38.105451	-24.119815	-0.409086	-162.231213
8.400000	-0.414512	-163.161751	-38.015299	-25.661619	-38.015299	-25.661619	-0.414525	-163.169038
8.450000	-0.420002	-164.102128	-37.926441	-27.201750	-37.926441	-27.201750	-0.420016	-164.109480
8.500000	-0.425542	-165.045208	-37.838871	-28.740192	-37.838871	-28.740192	-0.425557	-165.052623
8.550000	-0.431134	-165.991077	-37.752585	-30.276930	-37.752585	-30.276930	-0.431150	-165.998556
8.600000	-0.436777	-166.939824	-37.667578	-31.811945	-37.667578	-31.811945	-0.436793	-166.947365
8.650000	-0.442470	-167.891536	-37.583845	-33.345218	-37.583845	-33.345218	-0.442487	-167.899140
8.700000	-0.448214	-168.846303	-37.501384	-34.876729	-37.501384	-34.876729	-0.448232	-168.853968
8.750000	-0.454008	-169.804214	-37.420188	-36.406454	-37.420188	-36.406454	-0.454026	-169.811941
8.800000	-0.459854	-170.765506	-37.340279	-37.934291	-37.340279	-37.934291	-0.459873	-170.773293
8.850000	-0.465750	-171.730134	-37.261632	-39.460292	-37.261632	-39.460292	-0.465770	-171.737980
8.900000	-0.471695	-172.698190	-37.184244	-40.984429	-37.184244	-40.984429	-0.471716	-172.706094
8.950000	-0.477689	-173.669766	-37.108110	-42.506674	-37.108110	-42.506674	-0.477711	-173.677728
9.000000	-0.483732	-174.644958	-37.033230	-44.026996	-37.033230	-44.026996	-0.483754	-174.652975
9.050000	-0.489823	-175.623858	-36.959600	-45.545362	-36.959600	-45.545362	-0.489846	-175.631931
9.100000	-0.495962	-176.606564	-36.887217	-47.061740	-36.887217	-47.061740	-0.495986	-176.614690
9.150000	-0.502149	-177.593170	-36.816080	-48.576093	-36.816080	-48.576093	-0.502173	-177.601349
9.200000	-0.508382	-178.583772	-36.746187	-50.088385	-36.746187	-50.088385	-0.508406	-178.592002
9.250000	-0.514661	-179.578470	-36.677535	-51.598576	-36.677535	-51.598576	-0.514687	-179.586749
9.300000	-0.520987	179.422641	-36.610123	-53.106624	-36.610123	-53.106624	-0.521013	179.414314
9.350000	-0.527358	178.419462	-36.543948	-54.612489	-36.543948	-54.612489	-0.527384	178.411089
9.400000	-0.533773	177.411893	-36.479010	-56.116124	-36.479010	-56.116124	-0.533800	177.403476
9.450000	-0.540232	176.399835	-36.415305	-57.617485	-36.415305	-57.617485	-0.540259	176.391377
9.500000	-0.546735	175.383189	-36.352834	-59.116522	-36.352834	-59.116522	-0.546762	175.374691
9.550000	-0.553280	174.361854	-36.291594	-60.613187	-36.291594	-60.613187	-0.553307	174.353318
9.600000	-0.559866	173.335728	-36.231583	-62.107429	-36.231583	-62.107429	-0.559893	173.327158
9.650000	-0.566493	172.304712	-36.172800	-63.599193	-36.172800	-63.599193	-0.566520	172.296109
9.700000	-0.573161	171.268703	-36.115243	-65.088425	-36.115243	-65.088425	-0.573187	171.260070
9.750000	-0.579867	170.227599	-36.058911	-66.575069	-36.058911	-66.575069	-0.579892	170.218939
9.800000	-0.586611	169.181299	-36.003801	-68.059067	-36.003801	-68.059067	-0.586636	169.172614
9.850000	-0.593392	168.129699	-35.949913	-69.540359	-35.949913	-69.540359	-0.593416	168.120994
9.900000	-0.600209	167.072699	-35.897244	-71.018883	-35.897244	-71.018883	-0.600232	167.063975
9.950000	-0.607060	166.010194	-35.845792	-72.494577	-35.845792	-72.494577	-0.607082	166.001456
10.000000	-0.613945	164.942083	-35.795555	-73.967377	-35.795555	-73.967377	-0.613965	164.933334
