! freq	dB(S11)	phase(S11)	dB(S12)	phase(S12)	
!     	dB(S21)	phase(S21)	dB(S22)	phase(S22)	
!S-par simulation data
#  GHz  S  DB  R 50
0.000000	-0.000000	0.000000	-312.088115	180.000000	-312.088115	180.000000	-0.000000	0.000000
0.050000	-0.003154	-1.621072	-100.736285	88.373947	-100.736285	88.373947	-0.001862	-1.071376
0.100000	-0.008478	-3.271932	-94.751609	87.149941	-94.751609	87.149941	-0.005146	-2.160234
0.150000	-0.012480	-4.939409	-91.278975	85.854672	-91.278975	85.854672	-0.007734	-3.259859
0.200000	-0.015191	-6.610202	-88.846791	84.553489	-88.846791	84.553489	-0.009541	-4.362254
0.250000	-0.017156	-8.279826	-86.994074	83.265202	-86.994074	83.265202	-0.010873	-5.464502
0.300000	-0.018755	-9.946974	-85.515367	82.000790	-85.515367	82.000790	-0.011964	-6.565722
0.350000	-0.020192	-11.611292	-84.301301	80.769135	-84.301301	80.769135	-0.012947	-7.665709
0.400000	-0.021578	-13.272642	-83.286856	79.578821	-83.286856	79.578821	-0.013895	-8.764434
0.450000	-0.022968	-14.930911	-82.430375	78.438874	-82.430375	78.438874	-0.014845	-9.861898
0.500000	-0.024394	-16.585966	-81.703716	77.359214	-81.703716	77.359214	-0.015819	-10.958095
0.550000	-0.025870	-18.237653	-81.087111	76.351025	-81.087111	76.351025	-0.016828	-12.053007
0.600000	-0.027403	-19.885797	-80.566278	75.427144	-80.566278	75.427144	-0.017876	-13.146606
0.650000	-0.028995	-21.530175	-80.131331	74.603780	-80.131331	74.603780	-0.018965	-14.238841
0.700000	-0.030644	-23.170592	-79.774394	73.899214	-79.774394	73.899214	-0.020094	-15.329669
0.750000	-0.032347	-24.806901	-79.488838	73.333509	-79.488838	73.333509	-0.021262	-16.419063
0.800000	-0.034098	-26.438915	-79.270047	72.932006	-79.270047	72.932006	-0.022464	-17.506977
0.850000	-0.035894	-28.066045	-79.119412	72.746039	-79.119412	72.746039	-0.023701	-18.593231
0.900000	-0.037724	-29.688965	-79.022956	72.772318	-79.022956	72.772318	-0.024964	-19.678070
0.950000	-0.039586	-31.307064	-78.983554	73.075230	-78.983554	73.075230	-0.026251	-20.761302
1.000000	-0.041473	-32.920178	-78.998000	73.709318	-78.998000	73.709318	-0.027561	-21.842886
1.050000	-0.043380	-34.528381	-79.060427	74.718326	-79.060427	74.718326	-0.028888	-22.922860
1.100000	-0.045304	-36.131004	-79.169165	76.226907	-79.169165	76.226907	-0.030231	-24.001018
1.150000	-0.047237	-37.728187	-79.312499	78.303347	-79.312499	78.303347	-0.031587	-25.077415
1.200000	-0.049177	-39.319793	-79.476513	81.047607	-79.476513	81.047607	-0.032953	-26.152018
1.250000	-0.051118	-40.905693	-79.640473	84.558599	-79.640473	84.558599	-0.034326	-27.224794
1.300000	-0.053057	-42.485636	-79.773386	88.932811	-79.773386	88.932811	-0.035704	-28.295669
1.350000	-0.054991	-44.059632	-79.836199	94.169849	-79.836199	94.169849	-0.037086	-29.364653
1.400000	-0.056917	-45.627572	-79.784099	100.183443	-79.784099	100.183443	-0.038469	-30.431717
1.450000	-0.058833	-47.189355	-79.575228	106.753651	-79.575228	106.753651	-0.039853	-31.496830
1.500000	-0.060737	-48.744885	-79.182965	113.538953	-79.182965	113.538953	-0.041237	-32.559966
1.550000	-0.062627	-50.294073	-78.605562	120.145577	-78.605562	120.145577	-0.042618	-33.621097
1.600000	-0.064501	-51.836836	-77.866484	126.225233	-77.866484	126.225233	-0.043997	-34.680195
1.650000	-0.066360	-53.373097	-77.005222	131.547263	-77.005222	131.547263	-0.045374	-35.737236
1.700000	-0.068200	-54.902136	-76.050437	135.930692	-76.050437	135.930692	-0.046746	-36.791987
1.750000	-0.070025	-56.425106	-75.070126	139.550099	-75.070126	139.550099	-0.048116	-37.844809
1.800000	-0.071833	-57.941376	-74.077740	142.398764	-74.077740	142.398764	-0.049481	-38.895498
1.850000	-0.073623	-59.450891	-73.093043	144.571118	-73.093043	144.571118	-0.050843	-39.944029
1.900000	-0.075396	-60.953602	-72.128603	146.165983	-72.128603	146.165983	-0.052202	-40.990377
1.950000	-0.077153	-62.449465	-71.191771	147.275000	-71.191771	147.275000	-0.053557	-42.034522
2.000000	-0.078894	-63.938442	-70.286359	147.978035	-70.286359	147.978035	-0.054909	-43.076438
2.050000	-0.080620	-65.420498	-69.413893	148.342411	-69.413893	148.342411	-0.056258	-44.116106
2.100000	-0.082332	-66.895605	-68.574482	148.423879	-68.574482	148.423879	-0.057605	-45.153503
2.150000	-0.084030	-68.363740	-67.767384	148.268226	-67.767384	148.268226	-0.058951	-46.188608
2.200000	-0.085716	-69.824882	-66.991382	147.912951	-66.991382	147.912951	-0.060295	-47.221401
2.250000	-0.087390	-71.279018	-66.245014	147.388789	-66.245014	147.388789	-0.061639	-48.251862
2.300000	-0.089055	-72.726138	-65.526719	146.721006	-65.526719	146.721006	-0.062982	-49.279973
2.350000	-0.090710	-74.166238	-64.834927	145.930455	-64.834927	145.930455	-0.064326	-50.305714
2.400000	-0.092358	-75.599315	-64.168106	145.034433	-64.168106	145.034433	-0.065671	-51.329070
2.450000	-0.093999	-77.025375	-63.524797	144.047365	-63.524797	144.047365	-0.067019	-52.350021
2.500000	-0.095635	-78.444425	-62.903622	142.981344	-62.903622	142.981344	-0.068368	-53.368554
2.550000	-0.097267	-79.856174	-62.302404	141.843977	-62.302404	141.843977	-0.069721	-54.384546
2.600000	-0.098896	-81.260943	-61.720962	140.647147	-61.720962	140.647147	-0.071079	-55.398087
2.650000	-0.100524	-82.658753	-61.158168	139.398066	-61.158168	139.398066	-0.072441	-56.409165
2.700000	-0.102152	-84.049630	-60.612980	138.102925	-60.612980	138.102925	-0.073808	-57.417767
2.750000	-0.103781	-85.433601	-60.084437	136.767059	-60.084437	136.767059	-0.075181	-58.423882
2.800000	-0.105412	-86.810698	-59.571647	135.395088	-59.571647	135.395088	-0.076562	-59.427498
2.850000	-0.107047	-88.180957	-59.073791	133.991027	-59.073791	133.991027	-0.077949	-60.428606
2.900000	-0.108686	-89.544418	-58.590108	132.558383	-58.590108	132.558383	-0.079345	-61.427197
2.950000	-0.110332	-90.901122	-58.119893	131.100228	-58.119893	131.100228	-0.080750	-62.423264
3.000000	-0.111984	-92.251115	-57.662495	129.619266	-57.662495	129.619266	-0.082164	-63.416799
3.050000	-0.113644	-93.594447	-57.217307	128.117881	-57.217307	128.117881	-0.083589	-64.407797
3.100000	-0.115314	-94.931167	-56.783767	126.598186	-56.783767	126.598186	-0.085024	-65.396253
3.150000	-0.116993	-96.261332	-56.361349	125.062058	-56.361349	125.062058	-0.086471	-66.382163
3.200000	-0.118684	-97.584999	-55.949564	123.511170	-55.949564	123.511170	-0.087930	-67.365524
3.250000	-0.120387	-98.902228	-55.547957	121.947016	-55.547957	121.947016	-0.089402	-68.346334
3.300000	-0.122103	-100.213080	-55.156100	120.370936	-55.156100	120.370936	-0.090887	-69.324594
3.350000	-0.123832	-101.517623	-54.773593	118.784134	-54.773593	118.784134	-0.092387	-70.300302
3.400000	-0.125577	-102.815922	-54.400061	117.187693	-54.400061	117.187693	-0.093901	-71.273460
3.450000	-0.127337	-104.108048	-54.035153	115.582593	-54.035153	115.582593	-0.095430	-72.244072
3.500000	-0.129113	-105.394073	-53.678537	113.969719	-53.678537	113.969719	-0.096975	-73.212139
3.550000	-0.130907	-106.674071	-53.329902	112.349876	-53.329902	112.349876	-0.098537	-74.177666
3.600000	-0.132719	-107.948117	-52.988954	110.723791	-52.988954	110.723791	-0.100115	-75.140659
3.650000	-0.134549	-109.216290	-52.655415	109.092132	-52.655415	109.092132	-0.101711	-76.101124
3.700000	-0.136398	-110.478669	-52.329024	107.455502	-52.329024	107.455502	-0.103325	-77.059069
3.750000	-0.138268	-111.735335	-52.009532	105.814457	-52.009532	105.814457	-0.104958	-78.014502
3.800000	-0.140159	-112.986130	-51.696505	104.169354	-51.696505	104.169354	-0.106611	-78.967324
3.850000	-0.142072	-114.231388	-51.389940	102.520844	-51.389940	102.520844	-0.108284	-79.917655
3.900000	-0.144006	-115.471194	-51.089624	100.869349	-51.089624	100.869349	-0.109977	-80.865507
3.950000	-0.145963	-116.705636	-50.795354	99.215255	-50.795354	99.215255	-0.111691	-81.810893
4.000000	-0.147942	-117.934801	-50.506939	97.558919	-50.506939	97.558919	-0.113427	-82.753826
4.050000	-0.149945	-119.158781	-50.224192	95.900667	-50.224192	95.900667	-0.115184	-83.694320
4.100000	-0.151972	-120.377665	-49.946941	94.240803	-49.946941	94.240803	-0.116964	-84.632392
4.150000	-0.154023	-121.591546	-49.675018	92.579604	-49.675018	92.579604	-0.118767	-85.568057
4.200000	-0.156099	-122.800516	-49.408263	90.917327	-49.408263	90.917327	-0.120593	-86.501335
4.250000	-0.158200	-124.004669	-49.146524	89.254209	-49.146524	89.254209	-0.122443	-87.432243
4.300000	-0.160327	-125.204099	-48.889654	87.590467	-48.889654	87.590467	-0.124318	-88.360800
4.350000	-0.162479	-126.398902	-48.637515	85.926302	-48.637515	85.926302	-0.126218	-89.287028
4.400000	-0.164658	-127.589173	-48.389971	84.261899	-48.389971	84.261899	-0.128143	-90.210948
4.450000	-0.166863	-128.775009	-48.146895	82.597428	-48.146895	82.597428	-0.130094	-91.132583
4.500000	-0.169096	-129.956507	-47.908163	80.933045	-47.908163	80.933045	-0.132071	-92.051956
4.550000	-0.171355	-131.133764	-47.673655	79.268893	-47.673655	79.268893	-0.134076	-92.969091
4.600000	-0.173642	-132.306880	-47.443258	77.605101	-47.443258	77.605101	-0.136108	-93.884015
4.650000	-0.175956	-133.475952	-47.216860	75.941787	-47.216860	75.941787	-0.138167	-94.796753
4.700000	-0.178299	-134.641079	-46.994357	74.279059	-46.994357	74.279059	-0.140256	-95.707334
4.750000	-0.180669	-135.802361	-46.775646	72.617013	-46.775646	72.617013	-0.142373	-96.615786
4.800000	-0.183068	-136.959897	-46.560627	70.955733	-46.560627	70.955733	-0.144519	-97.522139
4.850000	-0.185496	-138.113787	-46.349204	69.295296	-46.349204	69.295296	-0.146695	-98.426424
4.900000	-0.187952	-139.264130	-46.141286	67.635766	-46.141286	67.635766	-0.148902	-99.328672
4.950000	-0.190437	-140.411028	-45.936781	65.977199	-45.936781	65.977199	-0.151139	-100.228917
5.000000	-0.192951	-141.554580	-45.735603	64.319640	-45.735603	64.319640	-0.153408	-101.127193
5.050000	-0.195496	-142.694751	-45.537612	62.663171	-45.537612	62.663171	-0.155710	-102.023454
5.100000	-0.198069	-143.831786	-45.342786	61.007774	-45.342786	61.007774	-0.158044	-102.917822
5.150000	-0.200672	-144.965786	-45.151043	59.353461	-45.151043	59.353461	-0.160412	-103.810336
5.200000	-0.203305	-146.096852	-44.962305	57.700236	-44.962305	57.700236	-0.162812	-104.701036
5.250000	-0.205967	-147.225083	-44.776495	56.048093	-44.776495	56.048093	-0.165247	-105.589963
5.300000	-0.208658	-148.350581	-44.593537	54.397012	-44.593537	54.397012	-0.167717	-106.477160
5.350000	-0.211379	-149.473446	-44.413356	52.746962	-44.413356	52.746962	-0.170222	-107.362674
5.400000	-0.214130	-150.593778	-44.235879	51.097898	-44.235879	51.097898	-0.172762	-108.246551
5.450000	-0.216910	-151.711677	-44.061034	49.449763	-44.061034	49.449763	-0.175339	-109.128840
5.500000	-0.219720	-152.827243	-43.888748	47.802481	-43.888748	47.802481	-0.177954	-110.009594
5.550000	-0.222559	-153.940577	-43.718950	46.155961	-43.718950	46.155961	-0.180606	-110.888866
5.600000	-0.225428	-155.051777	-43.551568	44.510093	-43.551568	44.510093	-0.183297	-111.766715
5.650000	-0.228327	-156.160944	-43.386530	42.864742	-43.386530	42.864742	-0.186028	-112.643202
5.700000	-0.231255	-157.268176	-43.223764	41.219753	-43.223764	41.219753	-0.188799	-113.518391
5.750000	-0.234213	-158.373572	-43.063195	39.574937	-43.063195	39.574937	-0.191612	-114.392352
5.800000	-0.237199	-159.477232	-42.904747	37.930077	-42.904747	37.930077	-0.194467	-115.265159
5.850000	-0.240215	-160.579254	-42.748342	36.284913	-42.748342	36.284913	-0.197367	-116.136893
5.900000	-0.243260	-161.679736	-42.593898	34.639142	-42.593898	34.639142	-0.200312	-117.007643
5.950000	-0.246334	-162.778777	-42.441330	32.992405	-42.441330	32.992405	-0.203304	-117.877503
6.000000	-0.249437	-163.876473	-42.290545	31.344279	-42.290545	31.344279	-0.206346	-118.746579
6.050000	-0.252569	-164.972923	-42.141446	29.694261	-42.141446	29.694261	-0.209439	-119.614990
6.100000	-0.255728	-166.068224	-41.993925	28.041751	-41.993925	28.041751	-0.212587	-120.482867
6.150000	-0.258916	-167.162473	-41.847867	26.386030	-41.847867	26.386030	-0.215793	-121.350361
6.200000	-0.262132	-168.255766	-41.703140	24.726231	-41.703140	24.726231	-0.219061	-122.217643
6.250000	-0.265375	-169.348200	-41.559597	23.061297	-41.559597	23.061297	-0.222397	-123.084912
6.300000	-0.268646	-170.439843	-41.417001	21.389577	-41.417001	21.389577	-0.225812	-123.952425
6.350000	-0.271945	-171.530828	-41.275205	19.709634	-41.275205	19.709634	-0.229311	-124.820466
6.400000	-0.275269	-172.621253	-41.133969	18.019380	-41.133969	18.019380	-0.232907	-125.689381
6.450000	-0.278620	-173.711213	-40.993007	16.316148	-40.993007	16.316148	-0.236616	-126.559594
6.500000	-0.281995	-174.800805	-40.851968	14.596485	-40.851968	14.596485	-0.240460	-127.431637
6.550000	-0.285395	-175.890127	-40.710420	12.855837	-40.710420	12.855837	-0.244471	-128.306185
6.600000	-0.288818	-176.979279	-40.567816	11.088084	-40.567816	11.088084	-0.248694	-129.184123
6.650000	-0.292263	-178.068362	-40.423459	9.284807	-40.423459	9.284807	-0.253193	-130.066622
6.700000	-0.295727	-179.157466	-40.277153	7.441210	-40.277153	7.441210	-0.258014	-130.954363
6.750000	-0.299214	179.753269	-40.126111	5.524695	-40.126111	5.524695	-0.263439	-131.851593
6.800000	-0.302715	178.663754	-39.970252	3.525118	-39.970252	3.525118	-0.269594	-132.759517
6.850000	-0.306232	177.573811	-39.806390	1.389388	-39.806390	1.389388	-0.277048	-133.684536
6.900000	-0.309758	176.483291	-39.632440	-0.940223	-39.632440	-0.940223	-0.286541	-134.632961
6.950000	-0.313291	175.391973	-39.445562	-3.571482	-39.445562	-3.571482	-0.299602	-135.615647
7.000000	-0.316834	174.299401	-39.242337	-6.753039	-39.242337	-6.753039	-0.320167	-136.654811
7.050000	-0.320414	173.204862	-39.031211	-10.957059	-39.031211	-10.957059	-0.357384	-137.780025
7.100000	-0.324202	172.106865	-38.881751	-17.331550	-38.881751	-17.331550	-0.438292	-139.012285
7.150000	-0.329065	171.004365	-39.270314	-28.403528	-39.270314	-28.403528	-0.639930	-140.044052
7.200000	-0.336020	169.913495	-42.361547	-38.515813	-42.361547	-38.515813	-0.884606	-138.966496
7.250000	-0.340267	168.838223	-44.414926	-12.706712	-44.414926	-12.706712	-0.655767	-137.885377
7.300000	-0.343007	167.750185	-42.431858	-3.505698	-42.431858	-3.505698	-0.468436	-138.868997
7.350000	-0.346081	166.655507	-41.284410	-4.122331	-41.284410	-4.122331	-0.393265	-140.062765
7.400000	-0.349470	165.558091	-40.651494	-6.138330	-40.651494	-6.138330	-0.362185	-141.167886
7.450000	-0.353045	164.458965	-40.247314	-8.255009	-40.247314	-8.255009	-0.348326	-142.193328
7.500000	-0.356725	163.358516	-39.949238	-10.298099	-39.949238	-10.298099	-0.341623	-143.171036
7.550000	-0.360490	162.256505	-39.721811	-12.237478	-39.721811	-12.237478	-0.339369	-144.111033
7.600000	-0.364310	161.152998	-39.533307	-14.096505	-39.533307	-14.096505	-0.339302	-145.028379
7.650000	-0.368174	160.047925	-39.370831	-15.891541	-39.370831	-15.891541	-0.340587	-145.929806
7.700000	-0.372073	158.941210	-39.226716	-17.635822	-39.226716	-17.635822	-0.342757	-146.819730
7.750000	-0.376003	157.832777	-39.096150	-19.339464	-39.096150	-19.339464	-0.345536	-147.701149
7.800000	-0.379960	156.722551	-38.975974	-21.010092	-38.975974	-21.010092	-0.348752	-148.576161
7.850000	-0.383941	155.610457	-38.864029	-22.653469	-38.864029	-22.653469	-0.352296	-149.446278
7.900000	-0.387944	154.496420	-38.758796	-24.273988	-38.758796	-24.273988	-0.356094	-150.312621
7.950000	-0.391968	153.380371	-38.659173	-25.875027	-38.659173	-25.875027	-0.360093	-151.176040
8.000000	-0.396010	152.262237	-38.564342	-27.459218	-38.564342	-27.459218	-0.364260	-152.037195
8.050000	-0.400070	151.141949	-38.473684	-29.028630	-38.473684	-29.028630	-0.368567	-152.896607
8.100000	-0.404146	150.019441	-38.386721	-30.584903	-38.386721	-30.584903	-0.372996	-153.754698
8.150000	-0.408238	148.894646	-38.303077	-32.129352	-38.303077	-32.129352	-0.377531	-154.611816
8.200000	-0.412343	147.767500	-38.222452	-33.663036	-38.222452	-33.663036	-0.382163	-155.468252
8.250000	-0.416462	146.637938	-38.144606	-35.186815	-38.144606	-35.186815	-0.386882	-156.324251
8.300000	-0.420594	145.505900	-38.069341	-36.701390	-38.069341	-36.701390	-0.391681	-157.180026
8.350000	-0.424736	144.371326	-37.996493	-38.207335	-37.996493	-38.207335	-0.396556	-158.035764
8.400000	-0.428890	143.234157	-37.925925	-39.705123	-37.925925	-39.705123	-0.401501	-158.891630
8.450000	-0.433053	142.094336	-37.857522	-41.195140	-37.857522	-41.195140	-0.406514	-159.747771
8.500000	-0.437225	140.951808	-37.791185	-42.677707	-37.791185	-42.677707	-0.411591	-160.604323
8.550000	-0.441405	139.806519	-37.726829	-44.153084	-37.726829	-44.153084	-0.416730	-161.461410
8.600000	-0.445592	138.658419	-37.664381	-45.621487	-37.664381	-45.621487	-0.421928	-162.319144
8.650000	-0.449786	137.507456	-37.603777	-47.083091	-37.603777	-47.083091	-0.427185	-163.177633
8.700000	-0.453985	136.353582	-37.544958	-48.538038	-37.544958	-48.538038	-0.432498	-164.036978
8.750000	-0.458188	135.196753	-37.487874	-49.986439	-37.487874	-49.986439	-0.437866	-164.897274
8.800000	-0.462395	134.036790	-37.432536	-51.428105	-37.432536	-51.428105	-0.443289	-165.758661
8.850000	-0.466605	132.873780	-37.378845	-52.863388	-37.378845	-52.863388	-0.448766	-166.621185
8.900000	-0.470816	131.707684	-37.326764	-54.292334	-37.326764	-54.292334	-0.454293	-167.484931
8.950000	-0.475029	130.538464	-37.276257	-55.714977	-37.276257	-55.714977	-0.459871	-168.349978
9.000000	-0.479241	129.366083	-37.227293	-57.131337	-37.227293	-57.131337	-0.465498	-169.216408
9.050000	-0.483452	128.190509	-37.179842	-58.541424	-37.179842	-58.541424	-0.471174	-170.084296
9.100000	-0.487662	127.011710	-37.133877	-59.945236	-37.133877	-59.945236	-0.476898	-170.953720
9.150000	-0.491869	125.829658	-37.089371	-61.342765	-37.089371	-61.342765	-0.482668	-171.824754
9.200000	-0.496072	124.644327	-37.046298	-62.733996	-37.046298	-62.733996	-0.488485	-172.697471
9.250000	-0.500270	123.455691	-37.004635	-64.118906	-37.004635	-64.118906	-0.494347	-173.571943
9.300000	-0.504463	122.263730	-36.964359	-65.497468	-36.964359	-65.497468	-0.500252	-174.448243
9.350000	-0.508650	121.068425	-36.925448	-66.869650	-36.925448	-66.869650	-0.506202	-175.326442
9.400000	-0.512829	119.869759	-36.887880	-68.235416	-36.887880	-68.235416	-0.512194	-176.206609
9.450000	-0.517000	118.667720	-36.851633	-69.594728	-36.851633	-69.594728	-0.518228	-177.088815
9.500000	-0.521162	117.462295	-36.816688	-70.947545	-36.816688	-70.947545	-0.524302	-177.973130
9.550000	-0.525313	116.253477	-36.783024	-72.293822	-36.783024	-72.293822	-0.530417	-178.859621
9.600000	-0.529454	115.041260	-36.750622	-73.633515	-36.750622	-73.633515	-0.536570	-179.748359
9.650000	-0.533582	113.825643	-36.719461	-74.966576	-36.719461	-74.966576	-0.542761	179.360589
9.700000	-0.537698	112.606625	-36.689523	-76.292958	-36.689523	-76.292958	-0.548989	178.467154
9.750000	-0.541799	111.384210	-36.660789	-77.612614	-36.660789	-77.612614	-0.555253	177.571268
9.800000	-0.545886	110.158405	-36.633238	-78.925495	-36.633238	-78.925495	-0.561551	176.672864
9.850000	-0.549957	108.929219	-36.606854	-80.231551	-36.606854	-80.231551	-0.567883	175.771874
9.900000	-0.554012	107.696665	-36.581616	-81.530737	-36.581616	-81.530737	-0.574247	174.868229
9.950000	-0.558050	106.460759	-36.557506	-82.823002	-36.557506	-82.823002	-0.580643	173.961863
10.000000	-0.562069	105.221521	-36.534505	-84.108302	-36.534505	-84.108302	-0.587068	173.052708
