! freq	dB(S11)	phase(S11)	dB(S12)	phase(S12)	
!     	dB(S21)	phase(S21)	dB(S22)	phase(S22)	
!S-par simulation data
#  GHz  S  DB  R 50
0.000000	-0.000000	0.000000	-379.572144	0.000000	-379.572144	0.000000	-0.000000	0.000000
0.050000	-0.000447	-0.805698	-107.802194	88.969182	-107.802194	88.969182	-0.000793	-1.394649
0.100000	-0.001622	-1.609990	-101.814739	87.938970	-101.814739	87.938970	-0.002848	-2.785239
0.150000	-0.003187	-2.411999	-98.349365	86.913520	-98.349365	86.913520	-0.005526	-4.170225
0.200000	-0.004827	-3.211471	-95.935450	85.902264	-95.935450	85.902264	-0.008270	-5.550179
0.250000	-0.006371	-4.009052	-94.102325	84.913025	-94.102325	84.913025	-0.010820	-6.927053
0.300000	-0.007749	-4.805125	-92.648530	83.957251	-92.648530	83.957251	-0.013086	-8.301804
0.350000	-0.008955	-5.600148	-91.465041	83.046194	-91.465041	83.046194	-0.015079	-9.675192
0.400000	-0.010009	-6.394462	-90.488125	82.192681	-90.488125	82.192681	-0.016845	-11.047601
0.450000	-0.010934	-7.188263	-89.683318	81.418109	-89.683318	81.418109	-0.018432	-12.419113
0.500000	-0.011778	-7.981729	-89.015523	80.731845	-89.015523	80.731845	-0.019910	-13.789810
0.550000	-0.012568	-8.774910	-88.465766	80.152118	-88.465766	80.152118	-0.021320	-15.159619
0.600000	-0.013324	-9.567816	-88.020678	79.700738	-88.020678	79.700738	-0.022692	-16.528435
0.650000	-0.014067	-10.360431	-87.670757	79.404182	-87.670757	79.404182	-0.024051	-17.896136
0.700000	-0.014808	-11.152722	-87.409261	79.294988	-87.409261	79.294988	-0.025414	-19.262592
0.750000	-0.015561	-11.944617	-87.236210	79.430806	-87.236210	79.430806	-0.026796	-20.627582
0.800000	-0.016335	-12.736059	-87.147561	79.870812	-87.147561	79.870812	-0.028207	-21.990967
0.850000	-0.017135	-13.526994	-87.138164	80.684564	-87.138164	80.684564	-0.029653	-23.352647
0.900000	-0.017963	-14.317405	-87.199286	81.928736	-87.199286	81.928736	-0.031135	-24.712629
0.950000	-0.018822	-15.107203	-87.330548	83.738600	-87.330548	83.738600	-0.032654	-26.070697
1.000000	-0.019713	-15.896330	-87.523311	86.257633	-87.523311	86.257633	-0.034212	-27.426741
1.050000	-0.020635	-16.684730	-87.761925	89.659322	-87.761925	89.659322	-0.035807	-28.780653
1.100000	-0.021588	-17.472353	-88.018893	94.137324	-88.018893	94.137324	-0.037436	-30.132338
1.150000	-0.022568	-18.259152	-88.248919	99.871918	-88.248919	99.871918	-0.039095	-31.481705
1.200000	-0.023572	-19.045085	-88.384668	106.955727	-88.384668	106.955727	-0.040781	-32.828672
1.250000	-0.024598	-19.830116	-88.341284	115.274565	-88.341284	115.274565	-0.042490	-34.173166
1.300000	-0.025642	-20.614173	-88.024208	124.396306	-88.024208	124.396306	-0.044218	-35.515005
1.350000	-0.026699	-21.397269	-87.407205	133.531685	-87.407205	133.531685	-0.045959	-36.854239
1.400000	-0.027767	-22.179382	-86.520169	141.951870	-86.520169	141.951870	-0.047710	-38.190815
1.450000	-0.028842	-22.960495	-85.438102	149.186757	-85.438102	149.186757	-0.049466	-39.524687
1.500000	-0.029922	-23.740595	-84.244871	155.081318	-84.244871	155.081318	-0.051225	-40.855813
1.550000	-0.031002	-24.519669	-83.008495	159.702326	-83.008495	159.702326	-0.052984	-42.184158
1.600000	-0.032083	-25.297709	-81.774558	163.219995	-81.774558	163.219995	-0.054738	-43.509689
1.650000	-0.033161	-26.074705	-80.569739	165.827244	-80.569739	165.827244	-0.056488	-44.832378
1.700000	-0.034235	-26.850652	-79.407770	167.700573	-79.407770	167.700573	-0.058230	-46.152201
1.750000	-0.035305	-27.625543	-78.294452	168.987235	-78.294452	168.987235	-0.059964	-47.469133
1.800000	-0.036369	-28.399371	-77.231058	169.804898	-77.231058	169.804898	-0.061688	-48.783157
1.850000	-0.037427	-29.172130	-76.216434	170.245834	-76.216434	170.245834	-0.063402	-50.094253
1.900000	-0.038479	-29.943814	-75.248224	170.381976	-75.248224	170.381976	-0.065105	-51.402407
1.950000	-0.039525	-30.714415	-74.323562	170.269466	-74.323562	170.269466	-0.066799	-52.707603
2.000000	-0.040566	-31.483925	-73.439447	169.952347	-73.439447	169.952347	-0.068483	-54.009830
2.050000	-0.041600	-32.252337	-72.592948	169.465417	-72.592948	169.465417	-0.070157	-55.309076
2.100000	-0.042630	-33.019642	-71.781298	168.836392	-71.781298	168.836392	-0.071823	-56.605332
2.150000	-0.043656	-33.785830	-71.001936	168.087537	-71.001936	168.087537	-0.073481	-57.898588
2.200000	-0.044678	-34.550891	-70.252518	167.236888	-70.252518	167.236888	-0.075133	-59.188837
2.250000	-0.045697	-35.314815	-69.530913	166.299177	-69.530913	166.299177	-0.076779	-60.476074
2.300000	-0.046715	-36.077590	-68.835189	165.286531	-68.835189	165.286531	-0.078422	-61.760295
2.350000	-0.047731	-36.839205	-68.163595	164.209012	-68.163595	164.209012	-0.080061	-63.041495
2.400000	-0.048746	-37.599649	-67.514545	163.075022	-67.514545	163.075022	-0.081699	-64.319675
2.450000	-0.049762	-38.358909	-66.886604	161.891628	-66.886604	161.891628	-0.083337	-65.594833
2.500000	-0.050779	-39.116973	-66.278465	160.664812	-66.278465	160.664812	-0.084976	-66.866972
2.550000	-0.051798	-39.873776	-65.688015	159.398201	-65.688015	159.398201	-0.086617	-68.135963
2.600000	-0.052820	-40.629356	-65.115208	158.097952	-65.115208	158.097952	-0.088263	-69.401944
2.650000	-0.053846	-41.383703	-64.559041	156.767744	-64.559041	156.767744	-0.089914	-70.664920
2.700000	-0.054876	-42.136803	-64.018597	155.410766	-64.018597	155.410766	-0.091571	-71.924902
2.750000	-0.055910	-42.888645	-63.493038	154.029791	-63.493038	154.029791	-0.093237	-73.181900
2.800000	-0.056950	-43.639215	-62.981590	152.627245	-62.981590	152.627245	-0.094911	-74.435925
2.850000	-0.057997	-44.388503	-62.483543	151.205256	-62.483543	151.205256	-0.096596	-75.686993
2.900000	-0.059050	-45.136496	-61.998241	149.765696	-61.998241	149.765696	-0.098292	-76.935120
2.950000	-0.060110	-45.883183	-61.525076	148.310224	-61.525076	148.310224	-0.100001	-78.180324
3.000000	-0.061179	-46.628552	-61.063486	146.840309	-61.063486	146.840309	-0.101723	-79.422625
3.050000	-0.062256	-47.372594	-60.612949	145.357260	-60.612949	145.357260	-0.103460	-80.662046
3.100000	-0.063342	-48.115297	-60.172979	143.862246	-60.172979	143.862246	-0.105213	-81.898610
3.150000	-0.064437	-48.856650	-59.743122	142.356315	-59.743122	142.356315	-0.106983	-83.132345
3.200000	-0.065542	-49.596645	-59.322957	140.840408	-59.322957	140.840408	-0.108770	-84.363278
3.250000	-0.066658	-50.335271	-58.912086	139.315376	-58.912086	139.315376	-0.110576	-85.591439
3.300000	-0.067784	-51.072519	-58.510141	137.781986	-58.510141	137.781986	-0.112401	-86.816861
3.350000	-0.068922	-51.808380	-58.116773	136.240936	-58.116773	136.240936	-0.114246	-88.039577
3.400000	-0.070071	-52.542847	-57.731656	134.692861	-57.731656	134.692861	-0.116113	-89.259623
3.450000	-0.071232	-53.275910	-57.354484	133.138339	-57.354484	133.138339	-0.118001	-90.477038
3.500000	-0.072406	-54.007563	-56.984966	131.577901	-56.984966	131.577901	-0.119912	-91.691861
3.550000	-0.073593	-54.737798	-56.622832	130.012034	-56.622832	130.012034	-0.121847	-92.904133
3.600000	-0.074792	-55.466608	-56.267822	128.441185	-56.267822	128.441185	-0.123806	-94.113899
3.650000	-0.076006	-56.193987	-55.919695	126.865767	-55.919695	126.865767	-0.125789	-95.321203
3.700000	-0.077233	-56.919929	-55.578219	125.286164	-55.578219	125.286164	-0.127798	-96.526094
3.750000	-0.078474	-57.644429	-55.243177	123.702730	-55.243177	123.702730	-0.129833	-97.728619
3.800000	-0.079731	-58.367417	-54.914094	122.115659	-54.914094	122.115659	-0.131896	-98.928731
3.850000	-0.081002	-59.088952	-54.591064	120.525421	-54.591064	120.525421	-0.133986	-100.126586
3.900000	-0.082289	-59.809029	-54.273899	118.932302	-54.273899	118.932302	-0.136104	-101.322238
3.950000	-0.083592	-60.527646	-53.962422	117.336569	-53.962422	117.336569	-0.138251	-102.515744
4.000000	-0.084911	-61.244797	-53.656462	115.738473	-53.656462	115.738473	-0.140426	-103.707160
4.050000	-0.086245	-61.960481	-53.355859	114.138251	-53.355859	114.138251	-0.142632	-104.896547
4.100000	-0.087597	-62.674694	-53.060457	112.536126	-53.060457	112.536126	-0.144868	-106.083965
4.150000	-0.088965	-63.387434	-52.770110	110.932306	-52.770110	110.932306	-0.147134	-107.269476
4.200000	-0.090351	-64.098699	-52.484679	109.326992	-52.484679	109.326992	-0.149431	-108.453145
4.250000	-0.091755	-64.808488	-52.204029	107.720371	-52.204029	107.720371	-0.151760	-109.635037
4.300000	-0.093176	-65.516800	-51.928033	106.112621	-51.928033	106.112621	-0.154122	-110.815220
4.350000	-0.094616	-66.223633	-51.656569	104.503912	-51.656569	104.503912	-0.156516	-111.993760
4.400000	-0.096074	-66.928988	-51.389519	102.894404	-51.389519	102.894404	-0.158942	-113.170729
4.450000	-0.097551	-67.632864	-51.126773	101.284249	-51.126773	101.284249	-0.161403	-114.346198
4.500000	-0.099048	-68.335261	-50.868222	99.673593	-50.868222	99.673593	-0.163897	-115.520239
4.550000	-0.100564	-69.036182	-50.613764	98.062573	-50.613764	98.062573	-0.166426	-116.692926
4.600000	-0.102101	-69.735625	-50.363301	96.451321	-50.363301	96.451321	-0.168989	-117.864335
4.650000	-0.103658	-70.433594	-50.116738	94.839961	-50.116738	94.839961	-0.171587	-119.034542
4.700000	-0.105235	-71.130090	-49.873983	93.228611	-49.873983	93.228611	-0.174221	-120.203626
4.750000	-0.106834	-71.825114	-49.634951	91.617384	-49.634951	91.617384	-0.176891	-121.371665
4.800000	-0.108454	-72.518670	-49.399555	90.006387	-49.399555	90.006387	-0.179597	-122.538739
4.850000	-0.110095	-73.210760	-49.167717	88.395721	-49.167717	88.395721	-0.182340	-123.704932
4.900000	-0.111759	-73.901388	-48.939357	86.785484	-48.939357	86.785484	-0.185120	-124.870324
4.950000	-0.113446	-74.590557	-48.714401	85.175765	-48.714401	85.175765	-0.187937	-126.035002
5.000000	-0.115155	-75.278270	-48.492777	83.566653	-48.492777	83.566653	-0.190791	-127.199048
5.050000	-0.116889	-75.964470	-48.274318	81.958261	-48.274318	81.958261	-0.193685	-128.362532
5.100000	-0.118646	-76.649223	-48.059062	80.350641	-48.059062	80.350641	-0.196617	-129.525567
5.150000	-0.120427	-77.332536	-47.846943	78.743864	-47.846943	78.743864	-0.199588	-130.688242
5.200000	-0.122233	-78.014412	-47.637898	77.137999	-47.637898	77.137999	-0.202598	-131.850648
5.250000	-0.124064	-78.694858	-47.431866	75.533109	-47.431866	75.533109	-0.205646	-133.012875
5.300000	-0.125919	-79.373878	-47.228787	73.929255	-47.228787	73.929255	-0.208734	-134.175014
5.350000	-0.127801	-80.051480	-47.028606	72.326491	-47.028606	72.326491	-0.211862	-135.337160
5.400000	-0.129708	-80.727670	-46.831265	70.724871	-46.831265	70.724871	-0.215029	-136.499406
5.450000	-0.131642	-81.402454	-46.636713	69.124442	-46.636713	69.124442	-0.218237	-137.661847
5.500000	-0.133602	-82.075839	-46.444896	67.525250	-46.444896	67.525250	-0.221484	-138.824579
5.550000	-0.135590	-82.747833	-46.255764	65.927336	-46.255764	65.927336	-0.224772	-139.987699
5.600000	-0.137605	-83.418442	-46.069270	64.330739	-46.069270	64.330739	-0.228101	-141.151305
5.650000	-0.139648	-84.087676	-45.885365	62.735492	-45.885365	62.735492	-0.231470	-142.315496
5.700000	-0.141719	-84.755542	-45.704003	61.141629	-45.704003	61.141629	-0.234880	-143.480371
5.750000	-0.143819	-85.422048	-45.525140	59.549178	-45.525140	59.549178	-0.238332	-144.646032
5.800000	-0.145948	-86.087203	-45.348732	57.958164	-45.348732	57.958164	-0.241824	-145.812580
5.850000	-0.148107	-86.751016	-45.174738	56.368611	-45.174738	56.368611	-0.245358	-146.980117
5.900000	-0.150295	-87.413496	-45.003117	54.780540	-45.003117	54.780540	-0.248933	-148.148747
5.950000	-0.152514	-88.074654	-44.833828	53.193968	-44.833828	53.193968	-0.252549	-149.318574
6.000000	-0.154764	-88.734497	-44.666834	51.608910	-44.666834	51.608910	-0.256207	-150.489703
6.050000	-0.157045	-89.393038	-44.502096	50.025380	-44.502096	50.025380	-0.259906	-151.662240
6.100000	-0.159357	-90.050285	-44.339577	48.443388	-44.339577	48.443388	-0.263647	-152.836291
6.150000	-0.161701	-90.706250	-44.179244	46.862943	-44.179244	46.862943	-0.267429	-154.011964
6.200000	-0.164078	-91.360944	-44.021059	45.284052	-44.021059	45.284052	-0.271253	-155.189367
6.250000	-0.166487	-92.014377	-43.864991	43.706720	-43.864991	43.706720	-0.275119	-156.368609
6.300000	-0.168931	-92.666507	-43.710977	42.131016	-43.710977	42.131016	-0.279027	-157.549889
6.350000	-0.171408	-93.317402	-43.559018	40.556874	-43.559018	40.556874	-0.282977	-158.733237
6.400000	-0.173919	-93.967072	-43.409081	38.984292	-43.409081	38.984292	-0.286968	-159.918766
6.450000	-0.176464	-94.615531	-43.261136	37.413269	-43.261136	37.413269	-0.291000	-161.106586
6.500000	-0.179044	-95.262792	-43.115153	35.843800	-43.115153	35.843800	-0.295072	-162.296809
6.550000	-0.181659	-95.908866	-42.971101	34.275879	-42.971101	34.275879	-0.299186	-163.489549
6.600000	-0.184310	-96.553768	-42.828953	32.709497	-42.828953	32.709497	-0.303340	-164.684920
6.650000	-0.186996	-97.197512	-42.688679	31.144648	-42.688679	31.144648	-0.307534	-165.883034
6.700000	-0.189718	-97.840111	-42.550252	29.581318	-42.550252	29.581318	-0.311769	-167.084006
6.750000	-0.192477	-98.481580	-42.413645	28.019497	-42.413645	28.019497	-0.316043	-168.287952
6.800000	-0.195272	-99.121933	-42.278829	26.459168	-42.278829	26.459168	-0.320357	-169.494986
6.850000	-0.198105	-99.761187	-42.145779	24.900316	-42.145779	24.900316	-0.324709	-170.705225
6.900000	-0.200975	-100.399357	-42.014468	23.342921	-42.014468	23.342921	-0.329101	-171.918784
6.950000	-0.203882	-101.036458	-41.884868	21.786962	-41.884868	21.786962	-0.333531	-173.135779
7.000000	-0.206828	-101.672509	-41.756954	20.232413	-41.756954	20.232413	-0.337998	-174.356328
7.050000	-0.209812	-102.307526	-41.630698	18.679245	-41.630698	18.679245	-0.342504	-175.580547
7.100000	-0.212834	-102.941527	-41.506074	17.127424	-41.506074	17.127424	-0.347046	-176.808553
7.150000	-0.215896	-103.574532	-41.383054	15.576911	-41.383054	15.576911	-0.351625	-178.040463
7.200000	-0.218996	-104.206559	-41.261610	14.027660	-41.261610	14.027660	-0.356240	-179.276395
7.250000	-0.222135	-104.837630	-41.141712	12.479617	-41.141712	12.479617	-0.360890	179.483534
7.300000	-0.225314	-105.467767	-41.023330	10.932717	-41.023330	10.932717	-0.365575	178.239208
7.350000	-0.228533	-106.096992	-40.906433	9.386883	-40.906433	9.386883	-0.370294	176.990509
7.400000	-0.231791	-106.725330	-40.790985	7.842021	-40.790985	7.842021	-0.375047	175.737320
7.450000	-0.235089	-107.352807	-40.676952	6.298018	-40.676952	6.298018	-0.379832	174.479525
7.500000	-0.238427	-107.979453	-40.564292	4.754736	-40.564292	4.754736	-0.384650	173.217007
7.550000	-0.241807	-108.605264	-40.452958	3.212021	-40.452958	3.212021	-0.389499	171.949434
7.600000	-0.245226	-109.230311	-40.342904	1.669622	-40.342904	1.669622	-0.394380	170.676895
7.650000	-0.248686	-109.854635	-40.234073	0.127270	-40.234073	0.127270	-0.399290	169.399277
7.700000	-0.252185	-110.478277	-40.126402	-1.415380	-40.126402	-1.415380	-0.404228	168.116463
7.750000	-0.255725	-111.101291	-40.019816	-2.958765	-40.019816	-2.958765	-0.409194	166.828340
7.800000	-0.259304	-111.723733	-39.914226	-4.503449	-39.914226	-4.503449	-0.414188	165.534794
7.850000	-0.262924	-112.345676	-39.809528	-6.050165	-39.809528	-6.050165	-0.419207	164.235711
7.900000	-0.266583	-112.967205	-39.705593	-7.599885	-39.705593	-7.599885	-0.424251	162.930978
7.950000	-0.270284	-113.588425	-39.602265	-9.153908	-39.602265	-9.153908	-0.429320	161.620483
8.000000	-0.274027	-114.209472	-39.499348	-10.714009	-39.499348	-10.714009	-0.434413	160.304112
8.050000	-0.277815	-114.830522	-39.396596	-12.282659	-39.396596	-12.282659	-0.439528	158.981751
8.100000	-0.281652	-115.451810	-39.293693	-13.863383	-39.293693	-13.863383	-0.444667	157.653284
8.150000	-0.285547	-116.073661	-39.190235	-15.461351	-39.190235	-15.461351	-0.449828	156.318593
8.200000	-0.289519	-116.696540	-39.085701	-17.084407	-39.085701	-17.084407	-0.455013	154.977554
8.250000	-0.293601	-117.321134	-38.979435	-18.744932	-38.979435	-18.744932	-0.460226	153.630033
8.300000	-0.297865	-117.948503	-38.870675	-20.463428	-38.870675	-20.463428	-0.465472	152.275884
8.350000	-0.302442	-118.580100	-38.758908	-22.270604	-38.758908	-22.270604	-0.470763	150.915143
8.400000	-0.307724	-119.219085	-38.644106	-24.241242	-38.644106	-24.241242	-0.476132	149.547123
8.450000	-0.314569	-119.869339	-38.531657	-26.495481	-38.531657	-26.495481	-0.481640	148.172044
8.500000	-0.325337	-120.535080	-38.446321	-29.275871	-38.446321	-29.275871	-0.487426	146.789992
8.550000	-0.346008	-121.204172	-38.490269	-32.910199	-38.490269	-32.910199	-0.493734	145.402442
8.600000	-0.382274	-121.750235	-38.996446	-36.248950	-38.996446	-36.248950	-0.500443	144.015087
8.650000	-0.393613	-122.103315	-39.570261	-34.396625	-39.570261	-34.396625	-0.505707	142.627667
8.700000	-0.377777	-122.591711	-39.400983	-32.024403	-39.400983	-32.024403	-0.509763	141.225837
8.750000	-0.367373	-123.189057	-39.092425	-32.053385	-39.092425	-32.053385	-0.514110	139.811072
8.800000	-0.363735	-123.810037	-38.856115	-33.075249	-38.856115	-33.075249	-0.518857	138.387483
8.850000	-0.363527	-124.432008	-38.677273	-34.390700	-38.677273	-34.390700	-0.523814	136.956596
8.900000	-0.365158	-125.051450	-38.534240	-35.806335	-38.534240	-35.806335	-0.528880	135.518585
8.950000	-0.367845	-125.668105	-38.413865	-37.254788	-38.413865	-37.254788	-0.534003	134.073410
9.000000	-0.371187	-126.282376	-38.308540	-38.710900	-38.308540	-38.710900	-0.539156	132.620999
9.050000	-0.374964	-126.894713	-38.213754	-40.164722	-38.213754	-40.164722	-0.544323	131.161280
9.100000	-0.379049	-127.505490	-38.126724	-41.612203	-38.126724	-41.612203	-0.549493	129.694196
9.150000	-0.383363	-128.115000	-38.045659	-43.051708	-38.045659	-43.051708	-0.554661	128.219704
9.200000	-0.387857	-128.723468	-37.969362	-44.482626	-37.969362	-44.482626	-0.559821	126.737770
9.250000	-0.392497	-129.331072	-37.897006	-45.904788	-37.897006	-45.904788	-0.564970	125.248372
9.300000	-0.397260	-129.937950	-37.828002	-47.318200	-37.828002	-47.318200	-0.570105	123.751499
9.350000	-0.402130	-130.544217	-37.761918	-48.722933	-37.761918	-48.722933	-0.575222	122.247145
9.400000	-0.407096	-131.149965	-37.698433	-50.119065	-37.698433	-50.119065	-0.580319	120.735316
9.450000	-0.412147	-131.755275	-37.637300	-51.506662	-37.637300	-51.506662	-0.585395	119.216027
9.500000	-0.417279	-132.360215	-37.578326	-52.885770	-37.578326	-52.885770	-0.590447	117.689298
9.550000	-0.422484	-132.964845	-37.521359	-54.256411	-37.521359	-54.256411	-0.595473	116.155160
9.600000	-0.427760	-133.569220	-37.466276	-55.618585	-37.466276	-55.618585	-0.600471	114.613652
9.650000	-0.433104	-134.173389	-37.412977	-56.972272	-37.412977	-56.972272	-0.605441	113.064822
9.700000	-0.438512	-134.777398	-37.361377	-58.317438	-37.361377	-58.317438	-0.610379	111.508726
9.750000	-0.443982	-135.381291	-37.311407	-59.654030	-37.311407	-59.654030	-0.615284	109.945429
9.800000	-0.449513	-135.985107	-37.263007	-60.981987	-37.263007	-60.981987	-0.620155	108.375004
9.850000	-0.455103	-136.588886	-37.216126	-62.301237	-37.216126	-62.301237	-0.624991	106.797536
9.900000	-0.460750	-137.192665	-37.170717	-63.611700	-37.170717	-63.611700	-0.629791	105.213115
9.950000	-0.466455	-137.796481	-37.126743	-64.913291	-37.126743	-64.913291	-0.634552	103.621845
10.000000	-0.472214	-138.400370	-37.084166	-66.205922	-37.084166	-66.205922	-0.639274	102.023835
