! freq	dB(S11)	phase(S11)	dB(S12)	phase(S12)	
!     	dB(S21)	phase(S21)	dB(S22)	phase(S22)	
!S-par simulation data
#  GHz  S  DB  R 50
0.000000	-0.000000	0.000000	-348.694947	180.000000	-348.694947	180.000000	-0.000000	0.000000
0.050000	-0.000105	-0.918324	-110.418360	68.631512	-110.418360	68.631512	-0.000106	-0.760755
0.100000	-0.000417	-1.836411	-106.707366	64.445233	-106.707366	64.445233	-0.000418	-1.521235
0.150000	-0.000926	-2.754040	-104.600094	65.946687	-104.600094	65.946687	-0.000920	-2.281193
0.200000	-0.001615	-3.671019	-102.963946	68.190959	-102.963946	68.190959	-0.001588	-3.040432
0.250000	-0.002474	-4.587125	-101.620554	70.092470	-101.620554	70.092470	-0.002405	-3.798744
0.300000	-0.003468	-5.502300	-100.506685	71.586822	-100.506685	71.586822	-0.003327	-4.556115
0.350000	-0.004579	-6.416409	-99.587371	72.747110	-99.587371	72.747110	-0.004335	-5.312459
0.400000	-0.005787	-7.329381	-98.837370	73.686909	-98.837370	73.686909	-0.005404	-6.067765
0.450000	-0.007069	-8.241172	-98.238528	74.511241	-98.238528	74.511241	-0.006511	-6.822051
0.500000	-0.008406	-9.151763	-97.778169	75.314590	-97.778169	75.314590	-0.007641	-7.575353
0.550000	-0.009780	-10.061153	-97.448031	76.187477	-97.448031	76.187477	-0.008781	-8.327718
0.600000	-0.011177	-10.969356	-97.243448	77.225147	-97.243448	77.225147	-0.009920	-9.079196
0.650000	-0.012585	-11.876392	-97.162631	78.537818	-97.162631	78.537818	-0.011051	-9.829833
0.700000	-0.013994	-12.782288	-97.205825	80.263623	-97.205825	80.263623	-0.012172	-10.579672
0.750000	-0.015396	-13.687072	-97.373889	82.586144	-97.373889	82.586144	-0.013278	-11.328750
0.800000	-0.016786	-14.590771	-97.665405	85.758311	-97.665405	85.758311	-0.014370	-12.077093
0.850000	-0.018159	-15.493410	-98.070453	90.131564	-98.070453	90.131564	-0.015447	-12.824725
0.900000	-0.019515	-16.395009	-98.557598	96.176441	-98.557598	96.176441	-0.016510	-13.571661
0.950000	-0.020850	-17.295585	-99.049946	104.442731	-99.049946	104.442731	-0.017559	-14.317908
1.000000	-0.022165	-18.195149	-99.394487	115.340685	-99.394487	115.340685	-0.018596	-15.063472
1.050000	-0.023460	-19.093710	-99.362857	128.641089	-99.362857	128.641089	-0.019621	-15.808351
1.100000	-0.024736	-19.991269	-98.755738	142.976723	-98.755738	142.976723	-0.020636	-16.552543
1.150000	-0.025993	-20.887827	-97.572081	156.243535	-97.572081	156.243535	-0.021643	-17.296040
1.200000	-0.027232	-21.783379	-96.013379	166.976448	-96.013379	166.976448	-0.022641	-18.038833
1.250000	-0.028456	-22.677916	-94.308942	174.954824	-94.308942	174.954824	-0.023633	-18.780912
1.300000	-0.029665	-23.571383	-92.595132	-179.424855	-92.595132	-179.424855	-0.024619	-19.522232
1.350000	-0.030861	-24.463811	-90.956135	-175.470109	-90.956135	-175.470109	-0.025599	-20.262811
1.400000	-0.032045	-25.355184	-89.413392	-172.727396	-89.413392	-172.727396	-0.026576	-21.002634
1.450000	-0.033220	-26.245486	-87.968836	-170.868789	-87.968836	-170.868789	-0.027548	-21.741688
1.500000	-0.034386	-27.134699	-86.616602	-169.663621	-86.616602	-169.663621	-0.028518	-22.479955
1.550000	-0.035545	-28.022802	-85.348323	-168.949840	-85.348323	-168.949840	-0.029484	-23.217423
1.600000	-0.036697	-28.909778	-84.155376	-168.612383	-84.155376	-168.612383	-0.030449	-23.954074
1.650000	-0.037845	-29.795604	-83.029747	-168.568272	-83.029747	-168.568272	-0.031412	-24.689893
1.700000	-0.038988	-30.680260	-81.964311	-168.756627	-81.964311	-168.756627	-0.032373	-25.424864
1.750000	-0.040129	-31.563725	-80.952847	-169.132003	-80.952847	-169.132003	-0.033333	-26.158973
1.800000	-0.041267	-32.445978	-79.989967	-169.659908	-79.989967	-169.659908	-0.034293	-26.892203
1.850000	-0.042404	-33.326997	-79.071010	-170.313757	-79.071010	-170.313757	-0.035252	-27.624539
1.900000	-0.043540	-34.206762	-78.191942	-171.072761	-78.191942	-171.072761	-0.036211	-28.355966
1.950000	-0.044676	-35.085252	-77.349255	-171.920447	-77.349255	-171.920447	-0.037170	-29.086468
2.000000	-0.045814	-35.962445	-76.539891	-172.843601	-76.539891	-172.843601	-0.038129	-29.816032
2.050000	-0.046952	-36.838323	-75.761169	-173.831508	-75.761169	-173.831508	-0.039089	-30.544641
2.100000	-0.048092	-37.712865	-75.010729	-174.875383	-75.010729	-174.875383	-0.040051	-31.272282
2.150000	-0.049235	-38.586052	-74.286485	-175.967962	-74.286485	-175.967962	-0.041013	-31.998940
2.200000	-0.050380	-39.457865	-73.586583	-177.103180	-73.586583	-177.103180	-0.041977	-32.724600
2.250000	-0.051529	-40.328286	-72.909367	-178.275936	-72.909367	-178.275936	-0.042943	-33.449249
2.300000	-0.052682	-41.197297	-72.253357	-179.481905	-72.253357	-179.481905	-0.043911	-34.172874
2.350000	-0.053839	-42.064881	-71.617217	179.282602	-71.617217	179.282602	-0.044882	-34.895459
2.400000	-0.055000	-42.931021	-70.999744	178.020758	-70.999744	178.020758	-0.045855	-35.616993
2.450000	-0.056167	-43.795701	-70.399847	176.735303	-70.399847	176.735303	-0.046832	-36.337461
2.500000	-0.057339	-44.658905	-69.816534	175.428620	-69.816534	175.428620	-0.047812	-37.056852
2.550000	-0.058516	-45.520554	-69.247975	174.102043	-69.247975	174.102043	-0.048796	-37.775103
2.600000	-0.059700	-46.380698	-68.694359	172.758292	-68.694359	172.758292	-0.049784	-38.492250
2.650000	-0.060891	-47.239322	-68.154919	171.398954	-68.154919	171.398954	-0.050776	-39.208280
2.700000	-0.062088	-48.096414	-67.628947	170.025438	-67.628947	170.025438	-0.051774	-39.923182
2.750000	-0.063293	-48.951962	-67.115790	168.639001	-67.115790	168.639001	-0.052776	-40.636943
2.800000	-0.064505	-49.805955	-66.614846	167.240766	-66.614846	167.240766	-0.053784	-41.349552
2.850000	-0.065725	-50.658380	-66.125558	165.831739	-66.125558	165.831739	-0.054797	-42.060999
2.900000	-0.066954	-51.509228	-65.647406	164.412831	-65.647406	164.412831	-0.055817	-42.771271
2.950000	-0.068191	-52.358489	-65.179910	162.984861	-65.179910	162.984861	-0.056844	-43.480358
3.000000	-0.069438	-53.206154	-64.722620	161.548574	-64.722620	161.548574	-0.057877	-44.188250
3.050000	-0.070694	-54.052214	-64.275116	160.104646	-64.275116	160.104646	-0.058918	-44.894937
3.100000	-0.071960	-54.896661	-63.837007	158.653694	-63.837007	158.653694	-0.059966	-45.600408
3.150000	-0.073236	-55.739489	-63.407923	157.196280	-63.407923	157.196280	-0.061022	-46.304654
3.200000	-0.074523	-56.580690	-62.987521	155.732922	-62.987521	155.732922	-0.062086	-47.007666
3.250000	-0.075821	-57.420259	-62.575476	154.264094	-62.575476	154.264094	-0.063159	-47.709435
3.300000	-0.077130	-58.258190	-62.171482	152.790232	-62.171482	152.790232	-0.064241	-48.409952
3.350000	-0.078452	-59.094478	-61.775250	151.311739	-61.775250	151.311739	-0.065333	-49.109208
3.400000	-0.079786	-59.929119	-61.386509	149.828988	-61.386509	149.828988	-0.066434	-49.807195
3.450000	-0.081132	-60.762109	-61.005002	148.342322	-61.005002	148.342322	-0.067545	-50.503905
3.500000	-0.082492	-61.593446	-60.630485	146.852063	-60.630485	146.852063	-0.068667	-51.199331
3.550000	-0.083866	-62.423126	-60.262726	145.358506	-60.262726	145.358506	-0.069800	-51.893466
3.600000	-0.085254	-63.251149	-59.901508	143.861929	-59.901508	143.861929	-0.070944	-52.586302
3.650000	-0.086657	-64.077512	-59.546621	142.362589	-59.546621	142.362589	-0.072100	-53.277833
3.700000	-0.088074	-64.902216	-59.197868	140.860728	-59.197868	140.860728	-0.073267	-53.968052
3.750000	-0.089508	-65.725259	-58.855061	139.356569	-58.855061	139.356569	-0.074447	-54.656953
3.800000	-0.090958	-66.546570	-58.517704	137.850242	-58.517704	137.850242	-0.075640	-55.344473
3.850000	-0.092424	-67.366224	-58.185965	136.342042	-58.185965	136.342042	-0.076847	-56.030663
3.900000	-0.093908	-68.184220	-57.859677	134.832153	-57.859677	134.832153	-0.078066	-56.715519
3.950000	-0.095409	-69.000562	-57.538684	133.320746	-57.538684	133.320746	-0.079300	-57.399036
4.000000	-0.096928	-69.815252	-57.222835	131.807983	-57.222835	131.807983	-0.080548	-58.081209
4.050000	-0.098466	-70.628294	-56.911986	130.294016	-56.911986	130.294016	-0.081810	-58.762033
4.100000	-0.100022	-71.439691	-56.605999	128.778989	-56.605999	128.778989	-0.083087	-59.441506
4.150000	-0.101598	-72.249448	-56.304742	127.263036	-56.304742	127.263036	-0.084380	-60.119623
4.200000	-0.103195	-73.057570	-56.008088	125.746285	-56.008088	125.746285	-0.085688	-60.796381
4.250000	-0.104811	-73.864063	-55.715915	124.228854	-55.715915	124.228854	-0.087012	-61.471778
4.300000	-0.106449	-74.668932	-55.428106	122.710858	-55.428106	122.710858	-0.088353	-62.145810
4.350000	-0.108108	-75.472184	-55.144550	121.192402	-55.144550	121.192402	-0.089711	-62.818476
4.400000	-0.109789	-76.273826	-54.865138	119.673589	-54.865138	119.673589	-0.091085	-63.489772
4.450000	-0.111492	-77.073866	-54.589766	118.154512	-54.589766	118.154512	-0.092477	-64.159698
4.500000	-0.113218	-77.872313	-54.318336	116.635261	-54.318336	116.635261	-0.093888	-64.828252
4.550000	-0.114968	-78.669174	-54.050749	115.115923	-54.050749	115.115923	-0.095316	-65.495432
4.600000	-0.116746	-79.464187	-53.786179	113.596597	-53.786179	113.596597	-0.096766	-66.161000
4.650000	-0.118550	-80.257567	-53.525136	112.077345	-53.525136	112.077345	-0.098237	-66.825133
4.700000	-0.120367	-81.050139	-53.269630	110.558193	-53.269630	110.558193	-0.099717	-67.488548
4.750000	-0.122224	-81.840289	-53.015368	109.039343	-53.015368	109.039343	-0.101229	-68.149812
4.800000	-0.124089	-82.629908	-52.767035	107.520605	-52.767035	107.520605	-0.102747	-68.810598
4.850000	-0.126001	-83.416877	-52.519271	106.002431	-52.519271	106.002431	-0.104301	-69.468993
4.900000	-0.127918	-84.203585	-52.277765	104.484335	-52.277765	104.484335	-0.105859	-70.127151
4.950000	-0.129886	-84.987428	-52.036233	102.967086	-52.036233	102.967086	-0.107458	-70.782683
5.000000	-0.131855	-85.771271	-51.801236	101.449836	-51.801236	101.449836	-0.109057	-71.438216
5.050000	-0.133883	-86.552046	-51.565685	99.933732	-51.565685	99.933732	-0.110701	-72.090892
5.100000	-0.135912	-87.332821	-51.336355	98.417627	-51.336355	98.417627	-0.112346	-72.743568
5.150000	-0.137996	-88.110842	-51.107097	96.902752	-51.107097	96.902752	-0.114034	-73.393634
5.200000	-0.140086	-88.888613	-50.883218	95.387990	-50.883218	95.387990	-0.115727	-74.043462
5.250000	-0.142228	-89.663936	-50.659969	93.874493	-50.659969	93.874493	-0.117461	-74.690928
5.300000	-0.144381	-90.438770	-50.441340	92.361249	-50.441340	92.361249	-0.119203	-75.337921
5.350000	-0.146584	-91.211454	-50.223836	90.849265	-50.223836	90.849265	-0.120983	-75.982798
5.400000	-0.148802	-91.983422	-50.010266	89.337700	-50.010266	89.337700	-0.122776	-76.626970
5.450000	-0.151066	-92.753531	-49.798262	87.827351	-49.798262	87.827351	-0.124604	-77.269272
5.500000	-0.153353	-93.522710	-49.589571	86.317610	-49.589571	86.317610	-0.126450	-77.910639
5.550000	-0.155680	-94.290308	-49.382836	84.809008	-49.382836	84.809008	-0.128327	-78.550380
5.600000	-0.158036	-95.056777	-49.178856	83.301222	-49.178856	83.301222	-0.130228	-79.188961
5.650000	-0.160428	-95.821934	-48.977174	81.794472	-48.977174	81.794472	-0.132156	-79.826159
5.700000	-0.162856	-96.585779	-48.777743	80.288760	-48.777743	80.288760	-0.134113	-80.461974
5.750000	-0.165314	-97.348566	-48.580915	78.783959	-48.580915	78.783959	-0.136093	-81.096646
5.800000	-0.167816	-98.109873	-48.385882	77.280432	-48.385882	77.280432	-0.138108	-81.729719
5.850000	-0.170343	-98.870366	-48.193717	75.777669	-48.193717	75.777669	-0.140142	-82.361887
5.900000	-0.172920	-99.629229	-48.002940	74.276431	-48.002940	74.276431	-0.142216	-82.992242
5.950000	-0.175516	-100.387505	-47.815261	72.775789	-47.815261	72.775789	-0.144305	-83.621926
6.000000	-0.178171	-101.144019	-47.628605	71.276937	-47.628605	71.276937	-0.146441	-84.249592
6.050000	-0.180839	-101.900159	-47.445245	69.778498	-47.445245	69.778498	-0.148587	-84.876814
6.100000	-0.183573	-102.654426	-47.262583	68.282124	-47.262583	68.282124	-0.150785	-85.501819
6.150000	-0.186315	-103.408514	-47.083385	66.785963	-47.083385	66.785963	-0.152989	-86.126605
6.200000	-0.189130	-104.160638	-46.904596	65.292155	-46.904596	65.292155	-0.155252	-86.748980
6.250000	-0.191947	-104.912761	-46.729413	63.798347	-46.729413	63.798347	-0.157515	-87.371356
6.300000	-0.194845	-105.662849	-46.554383	62.307191	-46.554383	62.307191	-0.159844	-87.991135
6.350000	-0.197745	-106.412936	-46.382810	60.816035	-46.382810	60.816035	-0.162174	-88.610913
6.400000	-0.200721	-107.161261	-46.211697	59.327388	-46.211697	59.327388	-0.164566	-89.228344
6.450000	-0.203706	-107.909425	-46.043633	57.838968	-46.043633	57.838968	-0.166963	-89.845561
6.500000	-0.206763	-108.656083	-45.876304	56.352899	-45.876304	56.352899	-0.169419	-90.460673
6.550000	-0.209834	-109.402439	-45.711654	54.867301	-45.711654	54.867301	-0.171887	-91.075365
6.600000	-0.212972	-110.147530	-45.547983	53.383880	-45.547983	53.383880	-0.174407	-91.688191
6.650000	-0.216132	-110.892199	-45.386656	51.901186	-45.386656	51.901186	-0.176947	-92.300395
6.700000	-0.219353	-111.635825	-45.226525	50.420484	-45.226525	50.420484	-0.179534	-92.910969
6.750000	-0.222604	-112.378929	-45.068435	48.940778	-45.068435	48.940778	-0.182146	-93.520726
6.800000	-0.225909	-113.121196	-44.911732	47.462866	-44.911732	47.462866	-0.184802	-94.129080
6.850000	-0.229253	-113.862863	-44.756796	45.986235	-44.756796	45.986235	-0.187489	-94.736432
6.900000	-0.232643	-114.603879	-44.603415	44.511184	-44.603415	44.511184	-0.190214	-95.342602
6.950000	-0.236081	-115.344241	-44.451554	43.037715	-44.451554	43.037715	-0.192978	-95.947591
7.000000	-0.239559	-116.084116	-44.301394	41.565600	-44.301394	41.565600	-0.195774	-96.551615
7.050000	-0.243093	-116.823308	-44.152535	40.095381	-44.152535	40.095381	-0.198615	-97.154286
7.100000	-0.246660	-117.562157	-44.005500	38.626277	-44.005500	38.626277	-0.201484	-97.756200
7.150000	-0.250292	-118.300318	-43.859570	37.159400	-43.859570	37.159400	-0.204405	-98.356600
7.200000	-0.253949	-119.038258	-43.715570	35.693381	-43.715570	35.693381	-0.207347	-98.956443
7.250000	-0.257681	-119.775531	-43.572500	34.229939	-43.572500	34.229939	-0.210349	-99.554619
7.300000	-0.261430	-120.512681	-43.431448	32.767085	-43.431448	32.767085	-0.213366	-100.152432
7.350000	-0.265263	-121.249214	-43.291172	31.307172	-43.291172	31.307172	-0.216451	-100.748432
7.400000	-0.269105	-121.985697	-43.152984	29.847562	-43.152984	29.847562	-0.219544	-101.344255
7.450000	-0.273041	-122.721640	-43.015439	28.391275	-43.015439	28.391275	-0.222714	-101.938131
7.500000	-0.276979	-123.457582	-42.880037	26.934988	-42.880037	26.934988	-0.225884	-102.532007
7.550000	-0.281020	-124.193090	-42.745160	25.482425	-42.745160	25.482425	-0.229140	-103.123809
7.600000	-0.285063	-124.928598	-42.612346	24.029863	-42.612346	24.029863	-0.232396	-103.715612
7.650000	-0.289202	-125.663853	-42.480202	22.580805	-42.480202	22.580805	-0.235732	-104.305563
7.700000	-0.293351	-126.399085	-42.349918	21.132066	-42.349918	21.132066	-0.239076	-104.895345
7.750000	-0.297590	-127.134224	-42.220431	19.686596	-42.220431	19.686596	-0.242493	-105.483490
7.800000	-0.301848	-127.869343	-42.092624	18.241779	-42.092624	18.241779	-0.245926	-106.071307
7.850000	-0.306188	-128.604505	-41.965724	16.799981	-41.965724	16.799981	-0.249426	-106.657691
7.900000	-0.310557	-129.339679	-41.840340	15.359187	-41.840340	15.359187	-0.252949	-107.243598
7.950000	-0.314999	-130.075006	-41.715957	13.921143	-41.715957	13.921143	-0.256532	-107.828269
8.000000	-0.319480	-130.810407	-41.592944	12.484473	-41.592944	12.484473	-0.260147	-108.412323
8.050000	-0.324027	-131.546044	-41.471012	11.050265	-41.471012	11.050265	-0.263815	-108.995330
8.100000	-0.328622	-132.281849	-41.350319	9.617816	-41.350319	9.617816	-0.267523	-109.577588
8.150000	-0.333275	-133.017946	-41.230773	8.187527	-41.230773	8.187527	-0.271278	-110.158979
8.200000	-0.337986	-133.754334	-41.112350	6.759396	-41.112350	6.759396	-0.275079	-110.739502
8.250000	-0.342746	-134.491043	-40.995129	5.333104	-40.995129	5.333104	-0.278921	-111.319327
8.300000	-0.347575	-135.228200	-40.878927	3.909386	-40.878927	3.909386	-0.282818	-111.898175
8.350000	-0.352444	-135.965677	-40.763970	2.487170	-40.763970	2.487170	-0.286748	-112.476485
8.400000	-0.357392	-136.703793	-40.649941	1.067956	-40.649941	1.067956	-0.290742	-113.053719
8.450000	-0.362372	-137.442197	-40.537188	-0.350111	-40.537188	-0.350111	-0.294761	-113.630565
8.500000	-0.367442	-138.181466	-40.425284	-1.764733	-40.425284	-1.764733	-0.298853	-114.206249
8.550000	-0.372534	-138.920960	-40.314680	-3.178577	-40.314680	-3.178577	-0.302962	-114.781685
8.600000	-0.377727	-139.661581	-40.204854	-4.588526	-40.204854	-4.588526	-0.307152	-115.355882
8.650000	-0.382933	-140.402332	-40.096342	-5.998080	-40.096342	-5.998080	-0.311353	-115.929961
8.700000	-0.388251	-141.144509	-39.988547	-7.403278	-39.988547	-7.403278	-0.315643	-116.502737
8.750000	-0.393572	-141.886687	-39.882074	-8.808477	-39.882074	-8.808477	-0.319935	-117.075513
8.800000	-0.399017	-142.630631	-39.776265	-10.208854	-39.776265	-10.208854	-0.324325	-117.646934
8.850000	-0.404466	-143.374574	-39.671729	-11.609231	-39.671729	-11.609231	-0.328718	-118.218355
8.900000	-0.410030	-144.120333	-39.567908	-13.005130	-39.567908	-13.005130	-0.333202	-118.788597
8.950000	-0.415607	-144.866257	-39.465266	-14.400621	-39.465266	-14.400621	-0.337697	-119.358731
9.000000	-0.421292	-145.614014	-39.363380	-15.791996	-39.363380	-15.791996	-0.342275	-119.927850
9.050000	-0.427000	-146.362138	-39.262589	-17.182547	-39.262589	-17.182547	-0.346872	-120.496766
9.100000	-0.432807	-147.112081	-39.162588	-18.569356	-39.162588	-18.569356	-0.351544	-121.064821
9.150000	-0.438649	-147.862631	-39.063604	-19.954919	-39.063604	-19.954919	-0.356244	-121.632589
9.200000	-0.444579	-148.614951	-38.965437	-21.337130	-38.965437	-21.337130	-0.361012	-122.199640
9.250000	-0.450556	-149.368157	-38.868220	-22.717665	-38.868220	-22.717665	-0.365816	-122.766331
9.300000	-0.456612	-150.123051	-38.771838	-24.095252	-38.771838	-24.095252	-0.370679	-123.332437
9.350000	-0.462725	-150.879150	-38.676345	-25.470731	-38.676345	-25.470731	-0.375587	-123.898124
9.400000	-0.468908	-151.636816	-38.581701	-26.843674	-38.581701	-26.843674	-0.380547	-124.463346
9.450000	-0.475161	-152.396051	-38.487891	-28.214079	-38.487891	-28.214079	-0.385559	-125.028103
9.500000	-0.481473	-153.156695	-38.394939	-29.582367	-38.394939	-29.582367	-0.390615	-125.592504
9.550000	-0.487866	-153.919314	-38.302772	-30.947690	-38.302772	-30.947690	-0.395732	-126.156406
9.600000	-0.494308	-154.683145	-38.211468	-32.311321	-38.211468	-32.311321	-0.400885	-126.720048
9.650000	-0.500844	-155.449402	-38.120904	-33.671564	-38.120904	-33.671564	-0.406107	-127.283171
9.700000	-0.507419	-156.216634	-38.031203	-35.030542	-38.031203	-35.030542	-0.411357	-127.846119
9.750000	-0.514099	-156.986791	-37.942205	-36.385721	-37.942205	-36.385721	-0.416684	-128.408541
9.800000	-0.520807	-157.757642	-37.854066	-37.740061	-37.854066	-37.740061	-0.422031	-128.970860
9.850000	-0.527635	-158.531966	-37.766595	-39.090201	-37.766595	-39.090201	-0.427463	-129.532661
9.900000	-0.534478	-159.306661	-37.679976	-40.439924	-37.679976	-40.439924	-0.432906	-130.094416
9.950000	-0.541454	-160.085426	-37.593997	-41.785063	-37.593997	-41.785063	-0.438443	-130.655676
10.000000	-0.548435	-160.864191	-37.508860	-43.130202	-37.508860	-43.130202	-0.443984	-131.216935
