! freq	dB(S11)	phase(S11)	dB(S12)	phase(S12)	
!     	dB(S21)	phase(S21)	dB(S22)	phase(S22)	
!S-par simulation data
#  GHz  S  DB  R 50
0.000000	-0.000000	0.000000	-342.024320	0.000000	-342.024320	0.000000	0.000000	0.000000
0.050000	-0.002504	-1.866244	-92.586517	88.297784	-92.586517	88.297784	-0.002505	-1.866644
0.100000	-0.006164	-3.711207	-86.608410	86.520728	-86.608410	86.520728	-0.006167	-3.711995
0.150000	-0.008759	-5.548397	-83.144965	84.687925	-83.144965	84.687925	-0.008762	-5.549571
0.200000	-0.010703	-7.384281	-80.714914	82.842426	-80.714914	82.842426	-0.010707	-7.385842
0.250000	-0.012365	-9.219525	-78.857519	81.007585	-78.857519	81.007585	-0.012370	-9.221475
0.300000	-0.013962	-11.053462	-77.375150	79.201201	-77.375150	79.201201	-0.013968	-11.055801
0.350000	-0.015597	-12.885805	-76.148272	77.425126	-76.148272	77.425126	-0.015603	-12.888533
0.400000	-0.017310	-14.715968	-75.116075	75.687570	-75.116075	75.687570	-0.017316	-14.719083
0.450000	-0.019118	-16.543525	-74.236821	73.994358	-74.236821	73.994358	-0.019125	-16.547026
0.500000	-0.021036	-18.367800	-73.486489	72.356847	-73.486489	72.356847	-0.021044	-18.371684
0.550000	-0.023052	-20.188634	-72.841594	70.779169	-72.841594	70.779169	-0.023060	-20.192899
0.600000	-0.025155	-22.005812	-72.286204	69.267627	-72.286204	69.267627	-0.025163	-22.010455
0.650000	-0.027334	-23.819072	-71.809229	67.830683	-71.809229	67.830683	-0.027343	-23.824089
0.700000	-0.029578	-25.628173	-71.402157	66.477872	-71.402157	66.477872	-0.029588	-25.633561
0.750000	-0.031876	-27.432895	-71.058349	65.220004	-71.058349	65.220004	-0.031886	-27.438649
0.800000	-0.034217	-29.232916	-70.773673	64.072418	-70.773673	64.072418	-0.034229	-29.239033
0.850000	-0.036591	-31.027704	-70.546902	63.059603	-70.546902	63.059603	-0.036604	-31.034177
0.900000	-0.038986	-32.817512	-70.370233	62.188459	-70.370233	62.188459	-0.039000	-32.824338
0.950000	-0.041391	-34.602182	-70.240686	61.478678	-70.240686	61.478678	-0.041406	-34.609355
1.000000	-0.043800	-36.381566	-70.155600	60.953142	-70.155600	60.953142	-0.043816	-36.389082
1.050000	-0.046205	-38.155526	-70.112427	60.638438	-70.112427	60.638438	-0.046222	-38.163378
1.100000	-0.048600	-39.923932	-70.108514	60.565393	-70.108514	60.565393	-0.048618	-39.932116
1.150000	-0.050978	-41.686239	-70.143186	60.793075	-70.143186	60.793075	-0.050997	-41.694748
1.200000	-0.053335	-43.442491	-70.210803	61.360049	-70.210803	61.360049	-0.053355	-43.451321
1.250000	-0.055669	-45.192831	-70.304466	62.300901	-70.304466	62.300901	-0.055689	-45.201975
1.300000	-0.057976	-46.937160	-70.416965	63.665790	-70.416965	63.665790	-0.057997	-46.946613
1.350000	-0.060255	-48.675388	-70.538597	65.505497	-70.538597	65.505497	-0.060277	-48.685144
1.400000	-0.062504	-50.407430	-70.656512	67.866294	-70.656512	67.866294	-0.062527	-50.417484
1.450000	-0.064723	-52.133168	-70.753978	70.785242	-70.753978	70.785242	-0.064746	-52.143514
1.500000	-0.066907	-53.851860	-70.804001	74.327230	-70.804001	74.327230	-0.066930	-53.862493
1.550000	-0.069061	-55.564134	-70.786255	78.388609	-70.786255	78.388609	-0.069084	-55.575048
1.600000	-0.071184	-57.269930	-70.678206	82.875092	-70.678206	82.875092	-0.071207	-57.281120
1.650000	-0.073277	-58.969194	-70.461707	87.638963	-70.461707	87.638963	-0.073300	-58.980655
1.700000	-0.075343	-60.662145	-70.132319	92.494712	-70.132319	92.494712	-0.075366	-60.673872
1.750000	-0.077379	-62.347976	-69.675390	97.233460	-69.675390	97.233460	-0.077401	-62.359964
1.800000	-0.079389	-64.027038	-69.110168	101.657875	-69.110168	101.657875	-0.079410	-64.039282
1.850000	-0.081373	-65.699297	-68.456274	105.626115	-68.456274	105.626115	-0.081394	-65.711792
1.900000	-0.083334	-67.364654	-67.735530	109.049807	-67.735530	109.049807	-0.083355	-67.377394
1.950000	-0.085272	-69.023087	-66.970783	111.901907	-66.970783	111.901907	-0.085293	-69.036068
2.000000	-0.087191	-70.674657	-66.182625	114.203214	-66.182625	114.203214	-0.087211	-70.687875
2.050000	-0.089092	-72.319358	-65.386277	115.992470	-65.386277	115.992470	-0.089111	-72.332808
2.100000	-0.090977	-73.957189	-64.593010	117.319933	-64.593010	117.319933	-0.090996	-73.970865
2.150000	-0.092847	-75.588154	-63.810735	118.238991	-63.810735	118.238991	-0.092866	-75.602053
2.200000	-0.094705	-77.212265	-63.044730	118.801186	-63.044730	118.801186	-0.094723	-77.226381
2.250000	-0.096553	-78.829539	-62.298310	119.053677	-62.298310	119.053677	-0.096570	-78.843869
2.300000	-0.098391	-80.439705	-61.571829	119.028731	-61.571829	119.028731	-0.098408	-80.454243
2.350000	-0.100222	-82.043455	-60.869837	118.785131	-60.869837	118.785131	-0.100239	-82.058198
2.400000	-0.102048	-83.640456	-60.190426	118.340434	-60.190426	118.340434	-0.102065	-83.655398
2.450000	-0.103871	-85.230746	-59.533432	117.721497	-59.533432	117.721497	-0.103887	-85.245883
2.500000	-0.105692	-86.814372	-58.898400	116.951202	-58.898400	116.951202	-0.105707	-86.829701
2.550000	-0.107512	-88.391102	-58.283774	116.044089	-58.283774	116.044089	-0.107528	-88.406617
2.600000	-0.109334	-89.961282	-57.689918	115.023014	-57.689918	115.023014	-0.109349	-89.976979
2.650000	-0.111158	-91.524975	-57.116016	113.901926	-57.116016	113.901926	-0.111174	-91.540851
2.700000	-0.112987	-93.082251	-56.561247	112.692825	-56.561247	112.692825	-0.113003	-93.098300
2.750000	-0.114822	-94.633181	-56.024794	111.406074	-56.024794	111.406074	-0.114838	-94.649400
2.800000	-0.116663	-96.177845	-55.505867	110.050661	-55.505867	110.050661	-0.116680	-96.194229
2.850000	-0.118513	-97.716325	-55.003705	108.634418	-55.003705	108.634418	-0.118530	-97.732871
2.900000	-0.120373	-99.248709	-54.517581	107.164198	-54.517581	107.164198	-0.120390	-99.265412
2.950000	-0.122244	-100.775088	-54.046805	105.646028	-54.046805	105.646028	-0.122261	-100.791944
3.000000	-0.124126	-102.295559	-53.590723	104.085233	-53.590723	104.085233	-0.124145	-102.312565
3.050000	-0.126022	-103.810223	-53.148716	102.486532	-53.148716	102.486532	-0.126041	-103.827375
3.100000	-0.127933	-105.319185	-52.720198	100.854134	-52.720198	100.854134	-0.127952	-105.336479
3.150000	-0.129858	-106.822552	-52.304615	99.191797	-52.304615	99.191797	-0.129879	-106.839985
3.200000	-0.131800	-108.320438	-51.901442	97.502895	-51.901442	97.502895	-0.131821	-108.338005
3.250000	-0.133759	-109.812959	-51.510181	95.790463	-51.510181	95.790463	-0.133781	-109.830657
3.300000	-0.135737	-111.300234	-51.130361	94.057241	-51.130361	94.057241	-0.135760	-111.318060
3.350000	-0.137733	-112.782387	-50.761533	92.305702	-50.761533	92.305702	-0.137757	-112.800338
3.400000	-0.139750	-114.259544	-50.403268	90.538088	-50.403268	90.538088	-0.139774	-114.277616
3.450000	-0.141787	-115.731834	-50.055159	88.756429	-50.055159	88.756429	-0.141812	-115.750024
3.500000	-0.143846	-117.199391	-49.716817	86.962566	-49.716817	86.962566	-0.143872	-117.217696
3.550000	-0.145927	-118.662349	-49.387869	85.158166	-49.387869	85.158166	-0.145954	-118.680767
3.600000	-0.148031	-120.120848	-49.067959	83.344740	-49.067959	83.344740	-0.148058	-120.139376
3.650000	-0.150158	-121.575029	-48.756746	81.523653	-48.756746	81.523653	-0.150187	-121.593664
3.700000	-0.152310	-123.025035	-48.453902	79.696133	-48.453902	79.696133	-0.152340	-123.043775
3.750000	-0.154488	-124.471013	-48.159113	77.863286	-48.159113	77.863286	-0.154517	-124.489855
3.800000	-0.156691	-125.912950	-47.872000	76.025955	-47.872000	76.025955	-0.156722	-125.931892
3.850000	-0.158921	-127.351173	-47.592369	74.185235	-47.592369	74.185235	-0.158952	-127.370212
3.900000	-0.161178	-128.785835	-47.319939	72.341893	-47.319939	72.341893	-0.161209	-128.804970
3.950000	-0.163462	-130.217091	-47.054443	70.496599	-47.054443	70.496599	-0.163494	-130.236321
4.000000	-0.165774	-131.645101	-46.795625	68.649934	-46.795625	68.649934	-0.165806	-131.664423
4.050000	-0.168115	-133.070023	-46.543238	66.802399	-46.543238	66.802399	-0.168146	-133.089435
4.100000	-0.170484	-134.492018	-46.297049	64.954414	-46.297049	64.954414	-0.170515	-134.511521
4.150000	-0.172882	-135.911252	-46.056835	63.106329	-46.056835	63.106329	-0.172914	-135.930842
4.200000	-0.175310	-137.327888	-45.822384	61.258425	-45.822384	61.258425	-0.175341	-137.347566
4.250000	-0.177768	-138.742093	-45.593495	59.410920	-45.593495	59.410920	-0.177799	-138.761857
4.300000	-0.180256	-140.154036	-45.369977	57.563974	-45.369977	57.563974	-0.180287	-140.173886
4.350000	-0.182775	-141.563887	-45.151650	55.717694	-45.151650	55.717694	-0.182806	-141.583822
4.400000	-0.185326	-142.971817	-44.938345	53.872139	-44.938345	53.872139	-0.185355	-142.991837
4.450000	-0.187907	-144.378000	-44.729903	52.027323	-44.729903	52.027323	-0.187936	-144.398103
4.500000	-0.190521	-145.782608	-44.526176	50.183220	-44.526176	50.183220	-0.190549	-145.802796
4.550000	-0.193166	-147.185819	-44.327025	48.339770	-44.327025	48.339770	-0.193193	-147.206090
4.600000	-0.195844	-148.587809	-44.132323	46.496883	-44.132323	46.496883	-0.195870	-148.608164
4.650000	-0.198554	-149.988755	-43.941952	44.654441	-43.941952	44.654441	-0.198580	-150.009194
4.700000	-0.201297	-151.388838	-43.755805	42.812308	-43.755805	42.812308	-0.201322	-151.409362
4.750000	-0.204074	-152.788237	-43.573782	40.970328	-43.573782	40.970328	-0.204096	-152.808846
4.800000	-0.206883	-154.187135	-43.395796	39.128332	-43.395796	39.128332	-0.206904	-154.207829
4.850000	-0.209725	-155.585713	-43.221767	37.286144	-43.221767	37.286144	-0.209746	-155.606493
4.900000	-0.212602	-156.984155	-43.051626	35.443582	-43.051626	35.443582	-0.212621	-157.005022
4.950000	-0.215511	-158.382646	-42.885309	33.600464	-42.885309	33.600464	-0.215529	-158.403602
5.000000	-0.218455	-159.781372	-42.722765	31.756611	-42.722765	31.756611	-0.218471	-159.802416
5.050000	-0.221434	-161.180545	-42.563985	29.911803	-42.563985	29.911803	-0.221448	-161.201680
5.100000	-0.224447	-162.580344	-42.408904	28.065913	-42.408904	28.065913	-0.224460	-162.601570
5.150000	-0.227493	-163.980956	-42.257492	26.218794	-42.257492	26.218794	-0.227505	-164.002275
5.200000	-0.230574	-165.382570	-42.109726	24.370316	-42.109726	24.370316	-0.230584	-165.403983
5.250000	-0.233689	-166.785377	-41.965588	22.520369	-41.965588	22.520369	-0.233698	-166.806885
5.300000	-0.236838	-168.189566	-41.825068	20.668867	-41.825068	20.668867	-0.236845	-168.211172
5.350000	-0.240020	-169.595329	-41.688158	18.815744	-41.688158	18.815744	-0.240026	-169.617034
5.400000	-0.243237	-171.002858	-41.554857	16.960964	-41.554857	16.960964	-0.243241	-171.024664
5.450000	-0.246487	-172.412345	-41.425167	15.104514	-41.425167	15.104514	-0.246490	-172.434253
5.500000	-0.249771	-173.823983	-41.299095	13.246413	-41.299095	13.246413	-0.249773	-173.845996
5.550000	-0.253088	-175.237966	-41.176647	11.386704	-41.176647	11.386704	-0.253089	-175.260085
5.600000	-0.256439	-176.654487	-41.057835	9.525462	-41.057835	9.525462	-0.256439	-176.676715
5.650000	-0.259823	-178.073741	-40.942671	7.662788	-40.942671	7.662788	-0.259822	-178.096080
5.700000	-0.263239	-179.495924	-40.831167	5.798814	-40.831167	5.798814	-0.263238	-179.518375
5.750000	-0.266688	179.078771	-40.723338	3.933693	-40.723338	3.933693	-0.266687	179.056204
5.800000	-0.270170	177.650147	-40.619196	2.067608	-40.619196	2.067608	-0.270168	177.627463
5.850000	-0.273683	176.218009	-40.518756	0.200761	-40.518756	0.200761	-0.273681	176.195206
5.900000	-0.277229	174.782161	-40.422028	-1.666624	-40.422028	-1.666624	-0.277226	174.759236
5.950000	-0.280805	173.342408	-40.329023	-3.534306	-40.329023	-3.534306	-0.280802	173.319358
6.000000	-0.284412	171.898553	-40.239751	-5.402030	-40.239751	-5.402030	-0.284409	171.875375
6.050000	-0.288049	170.450400	-40.154219	-7.269529	-40.154219	-7.269529	-0.288047	170.427093
6.100000	-0.291717	168.997753	-40.072431	-9.136529	-40.072431	-9.136529	-0.291714	168.974314
6.150000	-0.295413	167.540418	-39.994392	-11.002751	-39.994392	-11.002751	-0.295412	167.516843
6.200000	-0.299138	166.078199	-39.920101	-12.867918	-39.920101	-12.867918	-0.299137	166.054486
6.250000	-0.302892	164.610900	-39.849557	-14.731755	-39.849557	-14.731755	-0.302892	164.587046
6.300000	-0.306673	163.138089	-39.782899	-16.593915	-39.782899	-16.593915	-0.306675	163.114091
6.350000	-0.310482	161.659794	-39.719986	-18.454201	-39.719986	-18.454201	-0.310484	161.635648
6.400000	-0.314316	160.175821	-39.660809	-20.312375	-39.660809	-20.312375	-0.314320	160.151524
6.450000	-0.318176	158.685978	-39.605363	-22.168220	-39.605363	-22.168220	-0.318181	158.661526
6.500000	-0.322060	157.190073	-39.553638	-24.021537	-39.553638	-24.021537	-0.322067	157.165464
6.550000	-0.325968	155.687918	-39.505629	-25.872154	-39.505629	-25.872154	-0.325976	155.663147
6.600000	-0.329898	154.179322	-39.461328	-27.719923	-39.461328	-27.719923	-0.329908	154.154385
6.650000	-0.333850	152.664099	-39.420731	-29.564725	-39.420731	-29.564725	-0.333862	152.638992
6.700000	-0.337823	151.142063	-39.383835	-31.406471	-39.383835	-31.406471	-0.337837	151.116781
6.750000	-0.341816	149.613029	-39.350643	-33.245100	-39.350643	-33.245100	-0.341832	149.587568
6.800000	-0.345827	148.076815	-39.321160	-35.080579	-39.321160	-35.080579	-0.345846	148.051170
6.850000	-0.349856	146.533241	-39.295397	-36.912906	-39.295397	-36.912906	-0.349877	146.507408
6.900000	-0.353902	144.982130	-39.273369	-38.742104	-39.273369	-38.742104	-0.353925	144.956102
6.950000	-0.357964	143.423305	-39.255102	-40.568221	-39.255102	-40.568221	-0.357989	143.397077
7.000000	-0.362040	141.856595	-39.240626	-42.391328	-39.240626	-42.391328	-0.362067	141.830160
7.050000	-0.366130	140.281828	-39.229982	-44.211515	-39.229982	-44.211515	-0.366159	140.255182
7.100000	-0.370231	138.698840	-39.223219	-46.028885	-39.223219	-46.028885	-0.370262	138.671974
7.150000	-0.374344	137.107466	-39.220398	-47.843554	-39.220398	-47.843554	-0.374377	137.080375
7.200000	-0.378466	135.507547	-39.221591	-49.655640	-39.221591	-49.655640	-0.378501	135.480222
7.250000	-0.382598	133.898928	-39.226882	-51.465262	-39.226882	-51.465262	-0.382634	133.871362
7.300000	-0.386736	132.281456	-39.236368	-53.272532	-39.236368	-53.272532	-0.386774	132.253641
7.350000	-0.390881	130.654985	-39.250159	-55.077547	-39.250159	-55.077547	-0.390921	130.626912
7.400000	-0.395031	129.019374	-39.268380	-56.880383	-39.268380	-56.880383	-0.395072	128.991034
7.450000	-0.399185	127.374484	-39.291171	-58.681088	-39.291171	-58.681088	-0.399227	127.345868
7.500000	-0.403343	125.720184	-39.318688	-60.479672	-39.318688	-60.479672	-0.403385	125.691282
7.550000	-0.407502	124.055929	-39.351316	-62.276004	-39.351316	-62.276004	-0.407545	124.026730
7.600000	-0.411661	122.382007	-39.389044	-64.070079	-39.389044	-64.070079	-0.411705	122.352501
7.650000	-0.415821	120.698308	-39.432078	-65.861736	-39.432078	-65.861736	-0.415865	120.668484
7.700000	-0.419980	119.004724	-39.480640	-67.650742	-39.480640	-67.650742	-0.420024	118.974571
7.750000	-0.424136	117.301159	-39.534971	-69.436783	-39.534971	-69.436783	-0.424180	117.270664
7.800000	-0.428291	115.587520	-39.595332	-71.219453	-39.595332	-71.219453	-0.428334	115.556672
7.850000	-0.432442	113.863726	-39.661999	-72.998248	-39.661999	-72.998248	-0.432485	113.832512
7.900000	-0.436589	112.129702	-39.735269	-74.772555	-39.735269	-74.772555	-0.436632	112.098109
7.950000	-0.440734	110.386393	-39.814830	-76.542223	-39.814830	-76.542223	-0.440775	110.354410
8.000000	-0.444873	108.631838	-39.902183	-78.305419	-39.902183	-78.305419	-0.444914	108.599450
8.050000	-0.449009	106.866883	-39.997144	-80.061600	-39.997144	-80.061600	-0.449048	106.834078
8.100000	-0.453140	105.091490	-40.100096	-81.809644	-40.100096	-81.809644	-0.453178	105.058254
8.150000	-0.457268	103.305518	-40.211523	-83.548161	-40.211523	-83.548161	-0.457305	103.271839
8.200000	-0.461393	101.508950	-40.331863	-85.275666	-40.331863	-85.275666	-0.461428	101.474814
8.250000	-0.465515	99.701896	-40.461500	-86.990650	-40.461500	-86.990650	-0.465549	99.667290
8.300000	-0.469637	97.884361	-40.600925	-88.691322	-40.600925	-88.691322	-0.469669	97.849273
8.350000	-0.473758	96.056363	-40.750669	-90.375698	-40.750669	-90.375698	-0.473789	96.020782
8.400000	-0.477881	94.217935	-40.911302	-92.041585	-40.911302	-92.041585	-0.477910	94.181849
8.450000	-0.482008	92.369119	-41.083441	-93.686566	-41.083441	-93.686566	-0.482036	92.332518
8.500000	-0.486141	90.509971	-41.267761	-95.307974	-41.267761	-95.307974	-0.486168	90.472846
8.550000	-0.490283	88.640560	-41.465002	-96.902863	-41.465002	-96.902863	-0.490308	88.602902
8.600000	-0.494435	86.760969	-41.675982	-98.467971	-41.675982	-98.467971	-0.494461	86.722773
8.650000	-0.498603	84.871296	-41.901610	-99.999671	-41.901610	-99.999671	-0.498628	84.832556
8.700000	-0.502790	82.971651	-42.142908	-101.493908	-42.142908	-101.493908	-0.502814	82.932363
8.750000	-0.506999	81.062158	-42.401029	-102.946115	-42.401029	-102.946115	-0.507024	81.022321
8.800000	-0.511236	79.142751	-42.677511	-104.349936	-42.677511	-104.349936	-0.511262	79.102366
8.850000	-0.515506	77.213800	-42.973656	-105.700260	-42.973656	-105.700260	-0.515533	77.172870
8.900000	-0.519815	75.275473	-43.291215	-106.990076	-43.291215	-106.990076	-0.519842	75.234005
8.950000	-0.524167	73.327958	-43.632234	-108.211114	-43.632234	-108.211114	-0.524197	73.285960
9.000000	-0.528571	71.371454	-43.999116	-109.353471	-43.999116	-109.353471	-0.528603	71.328940
9.050000	-0.533033	69.406177	-44.394715	-110.405093	-44.394715	-110.405093	-0.533067	69.363163
9.100000	-0.537561	67.432358	-44.822442	-111.351057	-44.822442	-111.351057	-0.537597	67.388864
9.150000	-0.542162	65.450244	-45.286408	-112.172539	-45.286408	-112.172539	-0.542201	65.406295
9.200000	-0.546846	63.460094	-45.791612	-112.845325	-45.791612	-112.845325	-0.546887	63.415720
9.250000	-0.551622	61.462187	-46.344181	-113.337596	-46.344181	-113.337596	-0.551666	61.417420
9.300000	-0.556499	59.456811	-46.951680	-113.606579	-46.951680	-113.606579	-0.556545	59.411692
9.350000	-0.561488	57.444272	-47.623517	-113.593326	-47.623517	-113.593326	-0.561536	57.398846
9.400000	-0.566602	55.424820	-48.371623	-113.209035	-48.371623	-113.209035	-0.566651	55.379138
9.450000	-0.571852	53.398800	-49.210529	-112.325561	-49.210529	-112.325561	-0.571901	53.352921
9.500000	-0.577248	51.366635	-50.157547	-110.756423	-50.157547	-110.756423	-0.577296	51.320622
9.550000	-0.582804	49.328686	-51.232265	-108.201936	-51.232265	-108.201936	-0.582848	49.282610
9.600000	-0.588532	47.285327	-52.451472	-104.175570	-52.451472	-104.175570	-0.588571	47.239266
9.650000	-0.594447	45.236944	-53.811900	-97.878753	-53.811900	-97.878753	-0.594478	45.190984
9.700000	-0.600561	43.183937	-55.238065	-88.076627	-55.238065	-88.076627	-0.600581	43.138170
9.750000	-0.606890	41.126713	-56.461592	-73.374385	-56.461592	-73.374385	-0.606895	41.081241
9.800000	-0.613448	39.065692	-56.928768	-53.952588	-56.928768	-53.952588	-0.613434	39.020625
9.850000	-0.620251	37.001305	-56.197516	-33.762406	-56.197516	-33.762406	-0.620212	36.956759
9.900000	-0.627315	34.933989	-54.550183	-17.584945	-54.550183	-17.584945	-0.627245	34.890091
9.950000	-0.634655	32.864191	-52.580179	-6.491009	-52.580179	-6.491009	-0.634548	32.821077
10.000000	-0.642289	30.792366	-50.625176	0.801208	-50.625176	0.801208	-0.642136	30.750178
