! freq	dB(S11)	phase(S11)	dB(S12)	phase(S12)	
!     	dB(S21)	phase(S21)	dB(S22)	phase(S22)	
!S-par simulation data
#  GHz  S  DB  R 50
0.000000	0.000000	0.000000	-350.074560	180.000000	-350.074560	180.000000	-0.000000	-0.000000
0.050000	-0.000107	-0.851139	-92.760329	22.076134	-92.760329	22.076134	-0.000129	-1.196097
0.100000	-0.000423	-1.702020	-92.372328	18.953238	-92.372328	18.953238	-0.000512	-2.391901
0.150000	-0.000936	-2.552404	-92.156097	20.957801	-92.156097	20.957801	-0.001138	-3.587131
0.200000	-0.001625	-3.402091	-91.932957	24.045372	-91.932957	24.045372	-0.001989	-4.781542
0.250000	-0.002476	-4.250859	-91.692932	27.337523	-91.692932	27.337523	-0.003057	-5.974840
0.300000	-0.003451	-5.098666	-91.448637	30.526081	-91.448637	30.526081	-0.004299	-7.166931
0.350000	-0.004530	-5.945393	-91.212086	33.512796	-91.212086	33.512796	-0.005698	-8.357617
0.400000	-0.005689	-6.790995	-90.995879	36.268217	-90.995879	36.268217	-0.007229	-9.546775
0.450000	-0.006905	-7.635455	-90.811251	38.804378	-90.811251	38.804378	-0.008865	-10.734315
0.500000	-0.008161	-8.478780	-90.668040	41.156382	-90.668040	41.156382	-0.010583	-11.920175
0.550000	-0.009438	-9.320993	-90.574994	43.373900	-90.574994	43.373900	-0.012362	-13.104317
0.600000	-0.010726	-10.162125	-90.540169	45.517942	-90.540169	45.517942	-0.014180	-14.286724
0.650000	-0.012014	-11.002213	-90.571330	47.661148	-90.571330	47.661148	-0.016023	-15.467391
0.700000	-0.013294	-11.841294	-90.676278	49.891041	-90.676278	49.891041	-0.017875	-16.646324
0.750000	-0.014562	-12.679401	-90.863000	52.316489	-90.863000	52.316489	-0.019725	-17.823534
0.800000	-0.015814	-13.516564	-91.139492	55.078264	-91.139492	55.078264	-0.021565	-18.999036
0.850000	-0.017049	-14.352805	-91.512837	58.365220	-91.512837	58.365220	-0.023387	-20.172843
0.900000	-0.018266	-15.188145	-91.986687	62.437662	-91.986687	62.437662	-0.025187	-21.344969
0.950000	-0.019465	-16.022594	-92.555247	67.656757	-92.555247	67.656757	-0.026960	-22.515424
1.000000	-0.020647	-16.856159	-93.190264	74.506495	-93.190264	74.506495	-0.028706	-23.684214
1.050000	-0.021812	-17.688844	-93.816519	83.557049	-93.816519	83.557049	-0.030423	-24.851340
1.100000	-0.022962	-18.520645	-94.279442	95.247512	-94.279442	95.247512	-0.032111	-26.016801
1.150000	-0.024097	-19.351557	-94.344093	109.356745	-94.344093	109.356745	-0.033771	-27.180589
1.200000	-0.025221	-20.181571	-93.806028	124.435476	-93.806028	124.435476	-0.035404	-28.342696
1.250000	-0.026332	-21.010674	-92.673317	138.272658	-92.673317	138.272658	-0.037011	-29.503106
1.300000	-0.027434	-21.838813	-91.143672	149.298930	-91.143672	149.298930	-0.038593	-30.661727
1.350000	-0.028526	-22.666009	-89.481516	157.541352	-89.481516	157.541352	-0.040153	-31.818613
1.400000	-0.029612	-23.492247	-87.827446	163.524055	-87.827446	163.524055	-0.041693	-32.973741
1.450000	-0.030690	-24.317507	-86.244750	167.816480	-86.244750	167.816480	-0.043215	-34.127088
1.500000	-0.031764	-25.141771	-84.754578	170.874032	-84.754578	170.874032	-0.044721	-35.278626
1.550000	-0.032832	-25.965019	-83.358895	173.026779	-83.358895	173.026779	-0.046212	-36.428330
1.600000	-0.033897	-26.787231	-82.052015	174.506858	-82.052015	174.506858	-0.047692	-37.576172
1.650000	-0.034959	-27.608386	-80.825822	175.477324	-80.825822	175.477324	-0.049161	-38.722123
1.700000	-0.036018	-28.428464	-79.671960	176.054023	-79.671960	176.054023	-0.050621	-39.866156
1.750000	-0.037075	-29.247444	-78.582687	176.320628	-78.582687	176.320628	-0.052074	-41.008243
1.800000	-0.038131	-30.065306	-77.551127	176.338691	-77.551127	176.338691	-0.053521	-42.148355
1.850000	-0.039187	-30.882031	-76.571296	176.154314	-76.571296	176.154314	-0.054964	-43.286465
1.900000	-0.040242	-31.697597	-75.638021	175.802638	-75.638021	175.802638	-0.056405	-44.422548
1.950000	-0.041297	-32.511985	-74.746838	175.310886	-74.746838	175.310886	-0.057843	-45.556576
2.000000	-0.042353	-33.325176	-73.893890	174.700468	-73.893890	174.700468	-0.059281	-46.688524
2.050000	-0.043410	-34.137150	-73.075834	173.988458	-73.075834	173.988458	-0.060720	-47.818370
2.100000	-0.044469	-34.947888	-72.289758	173.188648	-72.289758	173.188648	-0.062161	-48.946090
2.150000	-0.045529	-35.757373	-71.533116	172.312313	-71.533116	172.312313	-0.063604	-50.071663
2.200000	-0.046591	-36.565586	-70.803674	171.368767	-70.803674	171.368767	-0.065050	-51.195068
2.250000	-0.047656	-37.372509	-70.099456	170.365789	-70.099456	170.365789	-0.066501	-52.316287
2.300000	-0.048724	-38.178125	-69.418713	169.309932	-69.418713	169.309932	-0.067957	-53.435301
2.350000	-0.049795	-38.982418	-68.759884	168.206765	-68.759884	168.206765	-0.069419	-54.552097
2.400000	-0.050869	-39.785370	-68.121575	167.061062	-68.121575	167.061062	-0.070887	-55.666658
2.450000	-0.051947	-40.586967	-67.502533	165.876945	-67.502533	165.876945	-0.072362	-56.778972
2.500000	-0.053029	-41.387191	-66.901629	164.658000	-66.901629	164.658000	-0.073845	-57.889027
2.550000	-0.054117	-42.185968	-66.316884	163.406117	-66.316884	163.406117	-0.075337	-58.996715
2.600000	-0.055209	-42.983342	-65.748431	162.125530	-65.748431	162.125530	-0.076838	-60.102127
2.650000	-0.056306	-43.779298	-65.195412	160.818654	-65.195412	160.818654	-0.078348	-61.205255
2.700000	-0.057409	-44.573824	-64.657043	159.487646	-64.657043	159.487646	-0.079869	-62.306095
2.750000	-0.058518	-45.366906	-64.132607	158.134441	-64.132607	158.134441	-0.081400	-63.404644
2.800000	-0.059633	-46.158531	-63.621443	156.760785	-63.621443	156.760785	-0.082942	-64.500900
2.850000	-0.060755	-46.948686	-63.122942	155.368258	-63.122942	155.368258	-0.084496	-65.594864
2.900000	-0.061884	-47.737360	-62.636542	153.958300	-62.636542	153.958300	-0.086061	-66.686538
2.950000	-0.063021	-48.524542	-62.161721	152.532225	-62.161721	152.532225	-0.087640	-67.775924
3.000000	-0.064165	-49.310219	-61.697994	151.091239	-61.697994	151.091239	-0.089231	-68.863029
3.050000	-0.065318	-50.094382	-61.244909	149.636452	-61.244909	149.636452	-0.090836	-69.947858
3.100000	-0.066479	-50.877020	-60.802044	148.168888	-60.802044	148.168888	-0.092455	-71.030420
3.150000	-0.067649	-51.658124	-60.369005	146.689496	-60.369005	146.689496	-0.094088	-72.110725
3.200000	-0.068829	-52.437685	-59.945422	145.199158	-59.945422	145.199158	-0.095737	-73.188784
3.250000	-0.070018	-53.215693	-59.530946	143.698695	-59.530946	143.698695	-0.097400	-74.264610
3.300000	-0.071218	-53.992141	-59.125249	142.188872	-59.125249	142.188872	-0.099080	-75.338218
3.350000	-0.072428	-54.767020	-58.728023	140.670407	-58.728023	140.670407	-0.100776	-76.409624
3.400000	-0.073649	-55.540323	-58.338975	139.143972	-58.338975	139.143972	-0.102490	-77.478846
3.450000	-0.074881	-56.312043	-57.957828	137.610196	-57.957828	137.610196	-0.104220	-78.545903
3.500000	-0.076126	-57.082174	-57.584319	136.069672	-57.584319	136.069672	-0.105969	-79.610816
3.550000	-0.077382	-57.850710	-57.218199	134.522959	-57.218199	134.522959	-0.107736	-80.673607
3.600000	-0.078652	-58.617644	-56.859230	132.970581	-56.859230	132.970581	-0.109523	-81.734299
3.650000	-0.079934	-59.382973	-56.507186	131.413034	-56.507186	131.413034	-0.111329	-82.792919
3.700000	-0.081230	-60.146691	-56.161850	129.850785	-56.161850	129.850785	-0.113155	-83.849493
3.750000	-0.082539	-60.908794	-55.823016	128.284276	-55.823016	128.284276	-0.115002	-84.904050
3.800000	-0.083864	-61.669208	-55.490209	126.713773	-55.490209	126.713773	-0.116871	-85.956533
3.850000	-0.085204	-62.427999	-55.163540	125.139853	-55.163540	125.139853	-0.118763	-87.007062
3.900000	-0.086558	-63.185165	-54.842826	123.562883	-54.842826	123.562883	-0.120676	-88.055671
3.950000	-0.087929	-63.940704	-54.527891	121.983211	-54.527891	121.983211	-0.122613	-89.102393
4.000000	-0.089315	-64.694614	-54.218565	120.401163	-54.218565	120.401163	-0.124574	-90.147264
4.050000	-0.090718	-65.446892	-53.914685	118.817049	-53.914685	118.817049	-0.126559	-91.190321
4.100000	-0.092138	-66.197539	-53.616094	117.231159	-53.616094	117.231159	-0.128570	-92.231604
4.150000	-0.093575	-66.946554	-53.322642	115.643767	-53.322642	115.643767	-0.130605	-93.271152
4.200000	-0.095030	-67.693936	-53.034182	114.055130	-53.034182	114.055130	-0.132667	-94.309006
4.250000	-0.096503	-68.439685	-52.750575	112.465488	-52.750575	112.465488	-0.134757	-95.345211
4.300000	-0.097994	-69.183803	-52.471684	110.875069	-52.471684	110.875069	-0.136873	-96.379809
4.350000	-0.099505	-69.926291	-52.197380	109.284082	-52.197380	109.284082	-0.139018	-97.412848
4.400000	-0.101036	-70.667150	-51.927535	107.692727	-51.927535	107.692727	-0.141192	-98.444375
4.450000	-0.102586	-71.406381	-51.662027	106.101185	-51.662027	106.101185	-0.143395	-99.474439
4.500000	-0.104156	-72.143989	-51.400739	104.509629	-51.400739	104.509629	-0.145628	-100.503090
4.550000	-0.105748	-72.879974	-51.143555	102.918217	-51.143555	102.918217	-0.147893	-101.530381
4.600000	-0.107361	-73.614342	-50.890366	101.327095	-50.890366	101.327095	-0.150189	-102.556364
4.650000	-0.108995	-74.347094	-50.641065	99.736399	-50.641065	99.736399	-0.152517	-103.581095
4.700000	-0.110651	-75.078236	-50.395548	98.146251	-50.395548	98.146251	-0.154878	-104.604632
4.750000	-0.112330	-75.807771	-50.153716	96.556767	-50.153716	96.556767	-0.157273	-105.627032
4.800000	-0.114032	-76.535705	-49.915471	94.968049	-49.915471	94.968049	-0.159702	-106.648356
4.850000	-0.115757	-77.262043	-49.680721	93.380191	-49.680721	93.380191	-0.162166	-107.668666
4.900000	-0.117506	-77.986790	-49.449374	91.793277	-49.449374	91.793277	-0.164666	-108.688026
4.950000	-0.119279	-78.709952	-49.221343	90.207384	-49.221343	90.207384	-0.167202	-109.706501
5.000000	-0.121077	-79.431537	-48.996544	88.622579	-48.996544	88.622579	-0.169776	-110.724160
5.050000	-0.122901	-80.151481	-48.774785	87.038973	-48.774785	87.038973	-0.172389	-111.741042
5.100000	-0.124751	-80.869862	-48.556103	85.456570	-48.556103	85.456570	-0.175041	-112.757257
5.150000	-0.126627	-81.586688	-48.340421	83.875414	-48.340421	83.875414	-0.177732	-113.772877
5.200000	-0.128529	-82.301965	-48.127665	82.295542	-48.127665	82.295542	-0.180463	-114.787981
5.250000	-0.130457	-83.015702	-47.917762	80.716985	-47.917762	80.716985	-0.183235	-115.802648
5.300000	-0.132414	-83.727908	-47.710643	79.139768	-47.710643	79.139768	-0.186049	-116.816959
5.350000	-0.134398	-84.438591	-47.506241	77.563911	-47.506241	77.563911	-0.188905	-117.831000
5.400000	-0.136409	-85.147762	-47.304492	75.989427	-47.304492	75.989427	-0.191804	-118.844860
5.450000	-0.138450	-85.855429	-47.105333	74.416326	-47.105333	74.416326	-0.194748	-119.858629
5.500000	-0.140520	-86.561604	-46.908704	72.844614	-46.908704	72.844614	-0.197736	-120.872402
5.550000	-0.142618	-87.266295	-46.714545	71.274290	-46.714545	71.274290	-0.200770	-121.886279
5.600000	-0.144747	-87.969515	-46.522802	69.705352	-46.522802	69.705352	-0.203851	-122.900362
5.650000	-0.146906	-88.671273	-46.333420	68.137793	-46.333420	68.137793	-0.206980	-123.914758
5.700000	-0.149096	-89.371582	-46.146347	66.571604	-46.146347	66.571604	-0.210157	-124.929581
5.750000	-0.151316	-90.070452	-45.961532	65.006770	-45.961532	65.006770	-0.213384	-125.944949
5.800000	-0.153569	-90.767896	-45.778926	63.443277	-45.778926	63.443277	-0.216662	-126.960985
5.850000	-0.155853	-91.463926	-45.598483	61.881105	-45.598483	61.881105	-0.219992	-127.977821
5.900000	-0.158169	-92.158556	-45.420156	60.320235	-45.420156	60.320235	-0.223375	-128.995594
5.950000	-0.160518	-92.851796	-45.243901	58.760642	-45.243901	58.760642	-0.226813	-130.014452
6.000000	-0.162901	-93.543662	-45.069677	57.202302	-45.069677	57.202302	-0.230307	-131.034550
6.050000	-0.165317	-94.234165	-44.897441	55.645187	-44.897441	55.645187	-0.233860	-132.056055
6.100000	-0.167767	-94.923321	-44.727152	54.089267	-44.727152	54.089267	-0.237473	-133.079146
6.150000	-0.170251	-95.611143	-44.558773	52.534511	-44.558773	52.534511	-0.241148	-134.104015
6.200000	-0.172771	-96.297646	-44.392263	50.980884	-44.392263	50.980884	-0.244888	-135.130870
6.250000	-0.175325	-96.982843	-44.227586	49.428349	-44.227586	49.428349	-0.248696	-136.159938
6.300000	-0.177917	-97.666695	-44.064648	47.876910	-44.064648	47.876910	-0.252578	-137.191585
6.350000	-0.180545	-98.349274	-43.903472	46.326476	-43.903472	46.326476	-0.256536	-138.225990
6.400000	-0.183209	-99.030595	-43.744018	44.776999	-43.744018	44.776999	-0.260574	-139.263459
6.450000	-0.185910	-99.710674	-43.586249	43.228423	-43.586249	43.228423	-0.264699	-140.304330
6.500000	-0.188649	-100.389527	-43.430128	41.680689	-43.430128	41.680689	-0.268915	-141.348984
6.550000	-0.191425	-101.067170	-43.275614	40.133727	-43.275614	40.133727	-0.273233	-142.397852
6.600000	-0.194239	-101.743620	-43.122667	38.587456	-43.122667	38.587456	-0.277662	-143.451422
6.650000	-0.197092	-102.418893	-42.971244	37.041783	-42.971244	37.041783	-0.282215	-144.510258
6.700000	-0.199988	-103.092875	-42.821164	35.496631	-42.821164	35.496631	-0.286924	-145.575796
6.750000	-0.202916	-103.765953	-42.672746	33.951743	-42.672746	33.951743	-0.291761	-146.646677
6.800000	-0.205883	-104.437896	-42.525699	32.407090	-42.525699	32.407090	-0.296774	-147.724888
6.850000	-0.208900	-105.108472	-42.379681	30.862370	-42.379681	30.862370	-0.302056	-148.813936
6.900000	-0.211951	-105.778127	-42.235067	29.317328	-42.235067	29.317328	-0.307567	-149.911764
6.950000	-0.215036	-106.446908	-42.091853	27.771869	-42.091853	27.771869	-0.313316	-151.018494
7.000000	-0.218170	-107.114405	-41.949423	26.225175	-41.949423	26.225175	-0.319518	-152.141300
7.050000	-0.221343	-107.780945	-41.808033	24.676958	-41.808033	24.676958	-0.326166	-153.278826
7.100000	-0.224562	-108.446367	-41.667284	23.126054	-41.667284	23.126054	-0.333499	-154.437341
7.150000	-0.227820	-109.110887	-41.527301	21.571955	-41.527301	21.571955	-0.341578	-155.616883
7.200000	-0.231124	-109.774351	-41.387551	20.012394	-41.387551	20.012394	-0.350864	-156.827420
7.250000	-0.234469	-110.436911	-41.248012	18.446011	-41.248012	18.446011	-0.361619	-158.072026
7.300000	-0.237858	-111.098513	-41.108129	16.868932	-41.108129	16.868932	-0.374672	-159.364117
7.350000	-0.241291	-111.759196	-40.967468	15.276538	-40.967468	15.276538	-0.391079	-160.717366
7.400000	-0.244767	-112.419026	-40.825598	13.662529	-40.825598	13.662529	-0.412409	-162.148715
7.450000	-0.248288	-113.077948	-40.681400	12.012438	-40.681400	12.012438	-0.442461	-163.698355
7.500000	-0.251855	-113.736016	-40.534116	10.305651	-40.534116	10.305651	-0.487518	-165.415541
7.550000	-0.255467	-114.393240	-40.383070	8.500923	-40.383070	8.500923	-0.562044	-167.391757
7.600000	-0.259125	-115.049659	-40.230006	6.525026	-40.230006	6.525026	-0.698734	-169.763840
7.650000	-0.262828	-115.705288	-40.086132	4.234119	-40.086132	4.234119	-0.988965	-172.716505
7.700000	-0.266578	-116.360146	-40.000820	1.420958	-40.000820	1.420958	-1.711345	-175.892275
7.750000	-0.270375	-117.014256	-40.115348	-1.639976	-40.115348	-1.639976	-3.269734	-173.165674
7.800000	-0.274219	-117.667642	-40.432853	-2.859426	-40.432853	-2.859426	-3.039393	-159.264196
7.850000	-0.278110	-118.320326	-40.506434	-2.215963	-40.506434	-2.215963	-1.643359	-158.212830
7.900000	-0.282048	-118.972330	-40.350747	-2.171602	-40.350747	-2.171602	-1.033903	-161.189893
7.950000	-0.286035	-119.623676	-40.158202	-2.902612	-40.158202	-2.902612	-0.778307	-163.905667
8.000000	-0.290070	-120.274385	-39.980999	-4.019354	-39.980999	-4.019354	-0.655390	-166.145118
8.050000	-0.294153	-120.924485	-39.822384	-5.309499	-39.822384	-5.309499	-0.588914	-168.059253
8.100000	-0.298285	-121.574000	-39.678413	-6.682503	-39.678413	-6.682503	-0.550365	-169.760858
8.150000	-0.302466	-122.222952	-39.545317	-8.096769	-39.545317	-8.096769	-0.527015	-171.321666
8.200000	-0.306698	-122.871356	-39.420475	-9.532295	-39.420475	-9.532295	-0.512716	-172.785223
8.250000	-0.310979	-123.519240	-39.301957	-10.978372	-39.301957	-10.978372	-0.504023	-174.181402
8.300000	-0.315307	-124.166668	-39.188246	-12.429026	-39.188246	-12.429026	-0.498786	-175.532598
8.350000	-0.319693	-124.813557	-39.079104	-13.881358	-39.079104	-13.881358	-0.496469	-176.843428
8.400000	-0.324123	-125.460058	-38.973207	-15.333123	-38.973207	-15.333123	-0.495720	-178.131821
8.450000	-0.328604	-126.106140	-38.870395	-16.783113	-38.870395	-16.783113	-0.496328	-179.400640
8.500000	-0.333137	-126.751828	-38.770321	-18.230427	-38.770321	-18.230427	-0.497960	179.345057
8.550000	-0.337720	-127.397148	-38.672719	-19.674435	-38.672719	-19.674435	-0.500382	178.101427
8.600000	-0.342355	-128.042123	-38.577384	-21.114679	-38.577384	-21.114679	-0.503427	176.865490
8.650000	-0.347042	-128.686779	-38.484151	-22.550806	-38.484151	-22.550806	-0.506972	175.634892
8.700000	-0.351781	-129.331140	-38.392890	-23.982537	-38.392890	-23.982537	-0.510927	174.407744
8.750000	-0.356572	-129.975232	-38.303492	-25.409639	-38.303492	-25.409639	-0.515222	173.182503
8.800000	-0.361419	-130.619069	-38.215904	-26.831694	-38.215904	-26.831694	-0.519815	171.957871
8.850000	-0.366319	-131.262689	-38.130009	-28.248730	-38.130009	-28.248730	-0.524652	170.732717
8.900000	-0.371274	-131.906115	-38.045744	-29.660589	-38.045744	-29.660589	-0.529699	169.506147
8.950000	-0.376283	-132.549374	-37.963051	-31.067124	-37.963051	-31.067124	-0.534932	168.277392
9.000000	-0.381348	-133.192489	-37.881880	-32.468197	-37.881880	-32.468197	-0.540331	167.045777
9.050000	-0.386470	-133.835487	-37.802184	-33.863679	-37.802184	-33.863679	-0.545878	165.810709
9.100000	-0.391651	-134.478394	-37.723923	-35.253446	-37.723923	-35.253446	-0.551560	164.571660
9.150000	-0.396893	-135.121239	-37.647057	-36.637377	-37.647057	-36.637377	-0.557365	163.328155
9.200000	-0.402199	-135.764058	-37.571551	-38.015359	-37.571551	-38.015359	-0.563284	162.079763
9.250000	-0.407573	-136.406894	-37.497372	-39.387280	-37.497372	-39.387280	-0.569309	160.826090
9.300000	-0.413018	-137.049802	-37.424486	-40.753034	-37.424486	-40.753034	-0.575434	159.566775
9.350000	-0.418535	-137.692856	-37.352865	-42.112517	-37.352865	-42.112517	-0.581654	158.301480
9.400000	-0.424124	-138.336147	-37.282477	-43.465631	-37.282477	-43.465631	-0.587963	157.029893
9.450000	-0.429780	-138.979769	-37.213296	-44.812280	-37.213296	-44.812280	-0.594358	155.751720
9.500000	-0.435488	-139.623794	-37.145292	-46.152372	-37.145292	-46.152372	-0.600837	154.466684
9.550000	-0.441234	-140.268247	-37.078439	-47.485818	-37.078439	-47.485818	-0.607395	153.174521
9.600000	-0.447005	-140.913091	-37.012711	-48.812535	-37.012711	-48.812535	-0.614032	151.874983
9.650000	-0.452794	-141.558255	-36.948081	-50.132441	-36.948081	-50.132441	-0.620746	150.567831
9.700000	-0.458605	-142.203677	-36.884524	-51.445459	-36.884524	-51.445459	-0.627535	149.252838
9.750000	-0.464446	-142.849329	-36.822014	-52.751517	-36.822014	-52.751517	-0.634398	147.929786
9.800000	-0.470327	-143.495222	-36.760526	-54.050545	-36.760526	-54.050545	-0.641335	146.598464
9.850000	-0.476255	-144.141394	-36.700036	-55.342479	-36.700036	-55.342479	-0.648346	145.258671
9.900000	-0.482236	-144.787894	-36.640518	-56.627258	-36.640518	-56.627258	-0.655430	143.910214
9.950000	-0.488271	-145.434776	-36.581949	-57.904823	-36.581949	-57.904823	-0.662588	142.552904
10.000000	-0.494362	-146.082091	-36.524305	-59.175124	-36.524305	-59.175124	-0.669820	141.186561
