! freq	dB(S11)	phase(S11)	dB(S12)	phase(S12)	
!     	dB(S21)	phase(S21)	dB(S22)	phase(S22)	
!S-par simulation data
#  GHz  S  DB  R 50
0.000000	-0.000000	0.000000	-361.276234	0.000000	-361.276234	0.000000	-0.000000	0.000000
0.050000	-0.013737	-1.690549	-91.592929	84.456578	-91.592929	84.456578	-0.013716	-1.691082
0.100000	-0.014620	-3.413832	-85.730786	84.591467	-85.730786	84.591467	-0.014617	-3.415337
0.150000	-0.015181	-5.130022	-82.268106	83.620254	-82.268106	83.620254	-0.015183	-5.132422
0.200000	-0.015826	-6.844033	-79.820177	82.339011	-79.820177	82.339011	-0.015830	-6.847301
0.250000	-0.016611	-8.556746	-77.939438	80.927793	-77.939438	80.927793	-0.016618	-8.560870
0.300000	-0.017548	-10.268419	-76.423710	79.457883	-76.423710	79.457883	-0.017557	-10.273391
0.350000	-0.018623	-11.979193	-75.161981	77.966142	-75.161981	77.966142	-0.018634	-11.985008
0.400000	-0.019850	-13.688919	-74.093903	76.469477	-74.093903	76.469477	-0.019863	-13.695573
0.450000	-0.021197	-15.397727	-73.171580	74.979899	-73.171580	74.979899	-0.021212	-15.405216
0.500000	-0.022680	-17.105362	-72.373324	73.509013	-72.373324	73.509013	-0.022697	-17.113682
0.550000	-0.024268	-18.811957	-71.672659	72.061079	-71.672659	72.061079	-0.024288	-18.821106
0.600000	-0.025965	-20.517331	-71.058929	70.646323	-71.058929	70.646323	-0.025987	-20.527306
0.650000	-0.027756	-22.221508	-70.518775	69.269691	-70.518775	69.269691	-0.027780	-22.232307
0.700000	-0.029630	-23.924453	-70.043680	67.938325	-70.043680	67.938325	-0.029656	-23.936072
0.750000	-0.031583	-25.626062	-69.628922	66.662797	-69.628922	66.662797	-0.031611	-25.638500
0.800000	-0.033597	-27.326466	-69.265038	65.444611	-69.265038	65.444611	-0.033627	-27.339721
0.850000	-0.035674	-29.025424	-68.953972	64.304842	-68.953972	64.304842	-0.035706	-29.039493
0.900000	-0.037795	-30.723185	-68.685274	63.239247	-68.685274	63.239247	-0.037829	-30.738067
0.950000	-0.039961	-32.419525	-68.462294	62.274836	-68.462294	62.274836	-0.039997	-32.435218
1.000000	-0.042159	-34.114629	-68.277730	61.411635	-68.277730	61.411635	-0.042196	-34.131132
1.050000	-0.044384	-35.808414	-68.132188	60.673708	-68.132188	60.673708	-0.044423	-35.825725
1.100000	-0.046632	-37.500928	-68.023008	60.076101	-68.023008	60.076101	-0.046672	-37.519046
1.150000	-0.048895	-39.192246	-67.946995	59.632988	-67.946995	59.632988	-0.048937	-39.211171
1.200000	-0.051171	-40.882286	-67.905255	59.384166	-67.905255	59.384166	-0.051213	-40.902017
1.250000	-0.053454	-42.571269	-67.890810	59.324792	-67.890810	59.324792	-0.053497	-42.591804
1.300000	-0.055742	-44.258996	-67.906854	59.533127	-67.906854	59.533127	-0.055786	-44.280336
1.350000	-0.058031	-45.945752	-67.944383	59.988813	-67.944383	59.988813	-0.058076	-45.967896
1.400000	-0.060320	-47.631427	-68.002164	60.771566	-68.002164	60.771566	-0.060365	-47.654374
1.450000	-0.062606	-49.316174	-68.072649	61.887391	-68.072649	61.887391	-0.062651	-49.339925
1.500000	-0.064888	-51.000018	-68.148369	63.386496	-68.148369	63.386496	-0.064934	-51.024572
1.550000	-0.067166	-52.683009	-68.219261	65.308467	-68.219261	65.308467	-0.067211	-52.708367
1.600000	-0.069438	-54.365278	-68.273923	67.642170	-68.273923	67.642170	-0.069484	-54.391439
1.650000	-0.071705	-56.046800	-68.293950	70.450167	-68.293950	70.450167	-0.071750	-56.073765
1.700000	-0.073966	-57.727705	-68.262607	73.679624	-68.262607	73.679624	-0.074011	-57.755474
1.750000	-0.076222	-59.408120	-68.168512	77.239392	-68.168512	77.239392	-0.076268	-59.436693
1.800000	-0.078474	-61.088095	-67.994667	81.061236	-67.994667	81.061236	-0.078520	-61.117473
1.850000	-0.080722	-62.767720	-67.731052	85.021501	-67.731052	85.021501	-0.080768	-62.797903
1.900000	-0.082968	-64.447091	-67.373961	88.978780	-67.373961	88.978780	-0.083014	-64.478080
1.950000	-0.085213	-66.126306	-66.926706	92.791944	-66.926706	92.791944	-0.085258	-66.158102
2.000000	-0.087457	-67.805471	-66.398815	96.338068	-66.398815	96.338068	-0.087502	-67.838075
2.050000	-0.089703	-69.484694	-65.804080	99.525055	-65.804080	99.525055	-0.089748	-69.518106
2.100000	-0.091951	-71.164062	-65.165662	102.335033	-65.165662	102.335033	-0.091996	-71.198284
2.150000	-0.094205	-72.843742	-64.482337	104.661613	-64.482337	104.661613	-0.094250	-72.878774
2.200000	-0.096464	-74.523839	-63.777323	106.550874	-63.777323	106.550874	-0.096509	-74.559683
2.250000	-0.098732	-76.204483	-63.062096	108.024527	-63.062096	108.024527	-0.098776	-76.241140
2.300000	-0.101009	-77.885808	-62.345654	109.114344	-62.345654	109.114344	-0.101053	-77.923279
2.350000	-0.103298	-79.567954	-61.634735	109.856562	-61.634735	109.856562	-0.103342	-79.606242
2.400000	-0.105600	-81.251067	-60.934183	110.288100	-60.934183	110.288100	-0.105644	-81.290174
2.450000	-0.107918	-82.935299	-60.247335	110.444280	-60.247335	110.444280	-0.107961	-82.975226
2.500000	-0.110253	-84.620807	-59.576373	110.357616	-59.576373	110.357616	-0.110296	-84.661556
2.550000	-0.112607	-86.307790	-58.921972	110.053271	-58.921972	110.053271	-0.112650	-86.349363
2.600000	-0.114982	-87.996388	-58.285604	109.562128	-58.285604	109.562128	-0.115025	-88.038789
2.650000	-0.117381	-89.686779	-57.667496	108.906586	-57.667496	108.906586	-0.117423	-89.730009
2.700000	-0.119804	-91.379145	-57.067564	108.106139	-57.067564	108.106139	-0.119845	-91.423207
2.750000	-0.122253	-93.073673	-56.485519	107.177697	-56.485519	107.177697	-0.122294	-93.118571
2.800000	-0.124731	-94.770560	-55.920929	106.135906	-55.920929	106.135906	-0.124772	-94.816296
2.850000	-0.127239	-96.470006	-55.373279	104.993448	-55.373279	104.993448	-0.127279	-96.516584
2.900000	-0.129779	-98.172219	-54.842000	103.761309	-54.842000	103.761309	-0.129819	-98.219643
2.950000	-0.132353	-99.877415	-54.326501	102.449023	-54.326501	102.449023	-0.132392	-99.925688
3.000000	-0.134963	-101.585816	-53.826185	101.064869	-53.826185	101.064869	-0.135000	-101.634941
3.050000	-0.137609	-103.297649	-53.340459	99.616056	-53.340459	99.616056	-0.137646	-103.347632
3.100000	-0.140295	-105.013150	-52.868746	98.108870	-52.868746	98.108870	-0.140331	-105.063994
3.150000	-0.143021	-106.732606	-52.410374	96.548287	-52.410374	96.548287	-0.143056	-106.784318
3.200000	-0.145790	-108.456278	-51.964837	94.939262	-51.964837	94.939262	-0.145824	-108.508860
3.250000	-0.148603	-110.184378	-51.531747	93.286557	-51.531747	93.286557	-0.148636	-110.237836
3.300000	-0.151462	-111.917171	-51.110621	91.593857	-51.110621	91.593857	-0.151493	-111.971511
3.350000	-0.154367	-113.654928	-50.701002	89.864412	-50.701002	89.864412	-0.154396	-113.710156
3.400000	-0.157321	-115.397929	-50.302460	88.101093	-50.302460	88.101093	-0.157349	-115.454050
3.450000	-0.160325	-117.146460	-49.914591	86.306442	-49.914591	86.306442	-0.160350	-117.203479
3.500000	-0.163379	-118.900813	-49.537019	84.482712	-49.537019	84.482712	-0.163403	-118.958736
3.550000	-0.166487	-120.661290	-49.169390	82.631905	-49.169390	82.631905	-0.166509	-120.720124
3.600000	-0.169649	-122.428197	-48.811374	80.755802	-48.811374	80.755802	-0.169668	-122.487949
3.650000	-0.172865	-124.201851	-48.462662	78.855990	-48.462662	78.855990	-0.172882	-124.262527
3.700000	-0.176139	-125.982575	-48.122968	76.933888	-48.122968	76.933888	-0.176153	-126.044181
3.750000	-0.179470	-127.770696	-47.792025	74.990763	-47.792025	74.990763	-0.179482	-127.833240
3.800000	-0.182861	-129.566729	-47.469513	73.027341	-47.469513	73.027341	-0.182870	-129.630218
3.850000	-0.186313	-131.370858	-47.155291	71.045092	-47.155291	71.045092	-0.186318	-131.435299
3.900000	-0.189825	-133.183434	-46.849147	69.044927	-46.849147	69.044927	-0.189827	-133.248834
3.950000	-0.193399	-135.004814	-46.550883	67.027668	-46.550883	67.027668	-0.193398	-135.071182
4.000000	-0.197040	-136.835878	-46.260208	64.993194	-46.260208	64.993194	-0.197035	-136.903221
4.050000	-0.200742	-138.676100	-45.977175	62.943775	-45.977175	62.943775	-0.200732	-138.744425
4.100000	-0.204508	-140.526253	-45.701527	60.879300	-45.701527	60.879300	-0.204495	-140.595567
4.150000	-0.208340	-142.386719	-45.433126	58.800326	-45.433126	58.800326	-0.208322	-142.457031
4.200000	-0.212232	-144.256812	-45.171911	56.708694	-45.171911	56.708694	-0.212208	-144.328128
4.250000	-0.216195	-146.138921	-44.917605	54.602313	-44.917605	54.602313	-0.216167	-146.211250
4.300000	-0.220225	-148.032525	-44.670194	52.482844	-44.670194	52.482844	-0.220191	-148.105874
4.350000	-0.224322	-149.938030	-44.429583	50.350692	-44.429583	50.350692	-0.224283	-150.012406
4.400000	-0.228488	-151.855986	-44.195699	48.206105	-44.195699	48.206105	-0.228443	-151.931397
4.450000	-0.232722	-153.786825	-43.968479	46.049452	-43.968479	46.049452	-0.232670	-153.863278
4.500000	-0.237023	-155.730832	-43.747858	43.881203	-43.747858	43.881203	-0.236965	-155.808334
4.550000	-0.241392	-157.688431	-43.533785	41.701680	-43.533785	41.701680	-0.241327	-157.766988
4.600000	-0.245828	-159.660047	-43.326216	39.511193	-43.326216	39.511193	-0.245755	-159.739666
4.650000	-0.250330	-161.646109	-43.125117	37.310044	-43.125117	37.310044	-0.250250	-161.726795
4.700000	-0.254899	-163.647046	-42.930463	35.098528	-42.930463	35.098528	-0.254811	-163.728804
4.750000	-0.259533	-165.663287	-42.742238	32.876939	-42.742238	32.876939	-0.259437	-165.746124
4.800000	-0.264232	-167.695262	-42.560434	30.645567	-42.560434	30.645567	-0.264127	-167.779181
4.850000	-0.268994	-169.743400	-42.385050	28.404708	-42.385050	28.404708	-0.268880	-169.828404
4.900000	-0.273819	-171.808125	-42.216097	26.154660	-42.216097	26.154660	-0.273694	-171.894218
4.950000	-0.278703	-173.889860	-42.053589	23.895729	-42.053589	23.895729	-0.278569	-173.977044
5.000000	-0.283647	-175.989022	-41.897554	21.628232	-41.897554	21.628232	-0.283502	-176.077299
5.050000	-0.288649	-178.106421	-41.748114	19.352327	-41.748114	19.352327	-0.288493	-178.195791
5.100000	-0.293706	179.757919	-41.605234	17.068546	-41.605234	17.068546	-0.293538	179.667456
5.150000	-0.298815	177.603602	-41.468963	14.777258	-41.468963	14.777258	-0.298635	177.512049
5.200000	-0.303973	175.430244	-41.339362	12.478851	-41.339362	12.478851	-0.303781	175.337603
5.250000	-0.309179	173.237474	-41.216498	10.173742	-41.216498	10.173742	-0.308974	173.143749
5.300000	-0.314427	171.024933	-41.100446	7.862381	-41.100446	7.862381	-0.314209	170.930130
5.350000	-0.319715	168.792279	-40.991293	5.545251	-40.991293	5.545251	-0.319483	168.696406
5.400000	-0.325040	166.539188	-40.889131	3.222878	-40.889131	3.222878	-0.324792	166.442253
5.450000	-0.330396	164.265357	-40.794064	0.895834	-40.794064	0.895834	-0.330133	164.167370
5.500000	-0.335779	161.970502	-40.706205	-1.435256	-40.706205	-1.435256	-0.335501	161.871476
5.550000	-0.341185	159.654368	-40.625675	-3.769709	-40.625675	-3.769709	-0.340891	159.554316
5.600000	-0.346609	157.316723	-40.552604	-6.106775	-40.552604	-6.106775	-0.346298	157.215663
5.650000	-0.352045	154.957130	-40.487211	-8.445640	-40.487211	-8.445640	-0.351716	154.855079
5.700000	-0.357487	152.575415	-40.429656	-10.785362	-40.429656	-10.785362	-0.357140	152.472394
5.750000	-0.362929	150.171683	-40.380018	-13.124919	-40.380018	-13.124919	-0.362564	150.067715
5.800000	-0.368365	147.745839	-40.338465	-15.463204	-40.338465	-15.463204	-0.367981	147.640951
5.850000	-0.373788	145.297831	-40.305169	-17.798999	-40.305169	-17.798999	-0.373384	145.192049
5.900000	-0.379192	142.827646	-40.280314	-20.130961	-40.280314	-20.130961	-0.378767	142.721002
5.950000	-0.384569	140.335321	-40.264088	-22.457613	-40.264088	-22.457613	-0.384123	140.227848
6.000000	-0.389911	137.820937	-40.256688	-24.777331	-40.256688	-24.777331	-0.389443	137.712671
6.050000	-0.395211	135.284629	-40.258312	-27.088329	-40.258312	-27.088329	-0.394722	135.175609
6.100000	-0.400462	132.726584	-40.269167	-29.388649	-40.269167	-29.388649	-0.399950	132.616851
6.150000	-0.405656	130.147044	-40.289460	-31.676143	-40.289460	-31.676143	-0.405120	130.036644
6.200000	-0.410783	127.546310	-40.319399	-33.948462	-40.319399	-33.948462	-0.410225	127.435290
6.250000	-0.415837	124.924742	-40.359192	-36.203037	-40.359192	-36.203037	-0.415255	124.813153
6.300000	-0.420808	122.282331	-40.409259	-38.436551	-40.409259	-38.436551	-0.420201	122.170226
6.350000	-0.425688	119.620019	-40.469586	-40.646317	-40.469586	-40.646317	-0.425056	119.507456
6.400000	-0.430470	116.938362	-40.540359	-42.829001	-40.540359	-42.829001	-0.429813	116.825398
6.450000	-0.435146	114.237978	-40.621755	-44.980984	-40.621755	-44.980984	-0.434464	114.124677
6.500000	-0.439709	111.519556	-40.713933	-47.098345	-40.713933	-47.098345	-0.439002	111.405981
6.550000	-0.444151	108.783847	-40.817031	-49.176849	-40.817031	-49.176849	-0.443418	108.670066
6.600000	-0.448466	106.031671	-40.931163	-51.211928	-40.931163	-51.211928	-0.447707	105.917752
6.650000	-0.452647	103.263911	-41.056412	-53.198662	-41.056412	-53.198662	-0.451863	103.149925
6.700000	-0.456687	100.481515	-41.192823	-55.131769	-41.192823	-55.131769	-0.455878	100.367536
6.750000	-0.460583	97.685495	-41.340397	-57.005586	-41.340397	-57.005586	-0.459748	97.571597
6.800000	-0.464328	94.876921	-41.499082	-58.814056	-41.499082	-58.814056	-0.463467	94.763180
6.850000	-0.467918	92.056922	-41.668764	-60.550720	-41.668764	-60.550720	-0.467033	91.943415
6.900000	-0.471349	89.226583	-41.849324	-62.207770	-41.849324	-62.207770	-0.470440	89.113390
6.950000	-0.474618	86.387184	-42.040460	-63.777661	-42.040460	-63.777661	-0.473685	86.274384
7.000000	-0.477725	83.540119	-42.241709	-65.253532	-42.241709	-65.253532	-0.476768	83.427791
7.050000	-0.480669	80.686714	-42.452567	-66.627281	-42.452567	-66.627281	-0.479689	80.574938
7.100000	-0.483450	77.828333	-42.672394	-67.890458	-42.672394	-67.890458	-0.482448	77.717186
7.150000	-0.486069	74.966370	-42.900390	-69.034318	-42.900390	-69.034318	-0.485046	74.855931
7.200000	-0.488528	72.102246	-43.135573	-70.049910	-43.135573	-70.049910	-0.487484	71.992591
7.250000	-0.490830	69.237401	-43.376751	-70.928195	-43.376751	-70.928195	-0.489767	69.128606
7.300000	-0.492979	66.373290	-43.622499	-71.660219	-43.622499	-71.660219	-0.491897	66.265429
7.350000	-0.494980	63.511376	-43.871129	-72.237336	-43.871129	-72.237336	-0.493880	63.404519
7.400000	-0.496837	60.653121	-44.120672	-72.651506	-44.120672	-72.651506	-0.495721	60.547339
7.450000	-0.498558	57.799986	-44.368852	-72.895654	-44.368852	-72.895654	-0.497426	57.695344
7.500000	-0.500150	54.953418	-44.613084	-72.964128	-44.613084	-72.964128	-0.499004	54.849980
7.550000	-0.501618	52.115052	-44.850122	-72.849287	-44.850122	-72.849287	-0.500460	52.012881
7.600000	-0.502975	49.286154	-45.077029	-72.553970	-45.077029	-72.553970	-0.501804	49.185305
7.650000	-0.504228	46.468097	-45.290412	-72.080384	-45.290412	-72.080384	-0.503048	46.368624
7.700000	-0.505390	43.662222	-45.486746	-71.434493	-45.486746	-71.434493	-0.504200	43.564175
7.750000	-0.506469	40.869829	-45.662496	-70.626477	-45.662496	-70.626477	-0.505271	40.773254
7.800000	-0.507476	38.092173	-45.814260	-69.670989	-45.814260	-69.670989	-0.506272	37.997112
7.850000	-0.508424	35.330461	-45.938947	-68.587139	-45.938947	-68.587139	-0.507215	35.236952
7.900000	-0.509323	32.585847	-46.033951	-67.398124	-46.033951	-67.398124	-0.508110	32.493923
7.950000	-0.510184	29.859427	-46.097317	-66.130490	-46.097317	-66.130490	-0.508969	29.769119
8.000000	-0.511020	27.152240	-46.127864	-64.813053	-46.127864	-64.813053	-0.509803	27.063573
8.050000	-0.511842	24.465263	-46.125267	-63.475582	-46.125267	-63.475582	-0.510625	24.378259
8.100000	-0.512661	21.799411	-46.090058	-62.147375	-46.090058	-62.147375	-0.511445	21.714087
8.150000	-0.513490	19.155780	-46.023246	-60.856573	-46.023246	-60.856573	-0.512276	19.072150
8.200000	-0.514339	16.535178	-45.926915	-59.628347	-45.926915	-59.628347	-0.513129	16.453253
8.250000	-0.515221	13.938081	-45.803974	-58.482663	-45.803974	-58.482663	-0.514015	13.857866
8.300000	-0.516145	11.365136	-45.657326	-57.435608	-45.657326	-57.435608	-0.514944	11.286634
8.350000	-0.517121	8.816925	-45.490046	-56.498939	-45.490046	-56.498939	-0.515928	8.740135
8.400000	-0.518161	6.293966	-45.305224	-55.680311	-45.305224	-55.680311	-0.516974	6.218884
8.450000	-0.519272	3.796712	-45.105846	-54.983716	-45.105846	-54.983716	-0.518094	3.723333
8.500000	-0.520466	1.325557	-44.894705	-54.410035	-44.894705	-54.410035	-0.519297	1.253870
8.550000	-0.521749	-1.119168	-44.674338	-53.957634	-44.674338	-53.957634	-0.520590	-1.189176
8.600000	-0.523131	-3.537189	-44.447002	-53.622950	-44.447002	-53.622950	-0.521982	-3.605532
8.650000	-0.524618	-5.928290	-44.214660	-53.401016	-44.214660	-53.401016	-0.523482	-5.994985
8.700000	-0.526219	-8.292307	-43.978989	-53.285920	-43.978989	-53.285920	-0.525094	-8.357373
8.750000	-0.527940	-10.629128	-43.741399	-53.271182	-43.741399	-53.271182	-0.526828	-10.692586
8.800000	-0.529790	-12.938098	-43.502920	-53.351929	-43.502920	-53.351929	-0.528691	-12.999972
8.850000	-0.531773	-15.219795	-43.264671	-53.519190	-43.264671	-53.519190	-0.530687	-15.280108
8.900000	-0.533893	-17.474250	-43.027401	-53.766320	-43.027401	-53.766320	-0.532821	-17.533027
8.950000	-0.536155	-19.701534	-42.791694	-54.086927	-42.791694	-54.086927	-0.535098	-19.758802
9.000000	-0.538564	-21.901756	-42.557999	-54.474945	-42.557999	-54.474945	-0.537522	-21.957543
9.050000	-0.541124	-24.075061	-42.326646	-54.924683	-42.326646	-54.924683	-0.540097	-24.129396
9.100000	-0.543839	-26.221629	-42.097866	-55.430846	-42.097866	-55.430846	-0.542827	-26.274540
9.150000	-0.546711	-28.341667	-41.871813	-55.988542	-41.871813	-55.988542	-0.545714	-28.393184
9.200000	-0.549744	-30.435411	-41.648570	-56.593278	-41.648570	-56.593278	-0.548763	-30.485565
9.250000	-0.552939	-32.503124	-41.428168	-57.240950	-41.428168	-57.240950	-0.551974	-32.551945
9.300000	-0.556300	-34.545092	-41.210595	-57.927819	-41.210595	-57.927819	-0.555351	-34.592610
9.350000	-0.559828	-36.561619	-40.995800	-58.650498	-40.995800	-58.650498	-0.558895	-36.607866
9.400000	-0.563526	-38.552764	-40.783679	-59.406250	-40.783679	-59.406250	-0.562609	-38.597769
9.450000	-0.567397	-40.518879	-40.574133	-60.192232	-40.574133	-60.192232	-0.566496	-40.562674
9.500000	-0.571439	-42.460596	-40.367071	-61.005632	-40.367071	-61.005632	-0.570554	-42.503212
9.550000	-0.575653	-44.378285	-40.162360	-61.844249	-40.162360	-61.844249	-0.574784	-44.419752
9.600000	-0.580040	-46.272330	-39.959859	-62.706122	-39.959859	-62.706122	-0.579187	-46.312677
9.650000	-0.584600	-48.143121	-39.759419	-63.589509	-39.759419	-63.589509	-0.583764	-48.182378
9.700000	-0.589335	-49.991060	-39.560886	-64.492867	-39.560886	-64.492867	-0.588514	-50.029255
9.750000	-0.594243	-51.816552	-39.364103	-65.414843	-39.364103	-65.414843	-0.593438	-51.853714
9.800000	-0.599326	-53.620010	-39.168909	-66.354252	-39.168909	-66.354252	-0.598536	-53.656167
9.850000	-0.604583	-55.401851	-38.975145	-67.310068	-38.975145	-67.310068	-0.603809	-55.437030
9.900000	-0.610015	-57.162494	-38.782651	-68.281413	-38.782651	-68.281413	-0.609255	-57.196723
9.950000	-0.615620	-58.902363	-38.591266	-69.267543	-38.591266	-69.267543	-0.614875	-58.935666
10.000000	-0.621399	-60.621879	-38.400833	-70.267841	-38.400833	-70.267841	-0.620669	-60.654283
