! freq	dB(S11)	phase(S11)	dB(S12)	phase(S12)	
!     	dB(S21)	phase(S21)	dB(S22)	phase(S22)	
!S-par simulation data
#  GHz  S  DB  R 50
0.000000	-0.000000	0.000000	-349.708010	180.000000	-349.708010	180.000000	-0.000000	0.000000
0.050000	-0.000474	-0.769828	-107.276485	88.600180	-107.276485	88.600180	-0.001309	-2.132558
0.100000	-0.001622	-1.536334	-101.305849	87.209442	-101.305849	87.209442	-0.004551	-4.256797
0.150000	-0.002972	-2.299054	-97.867722	85.837219	-97.867722	85.837219	-0.008470	-6.370703
0.200000	-0.004261	-3.059277	-95.484262	84.492595	-95.484262	84.492595	-0.012260	-8.476688
0.250000	-0.005415	-3.818168	-93.696693	83.187392	-93.696693	83.187392	-0.015641	-10.577144
0.300000	-0.006449	-4.576463	-92.301263	81.935364	-92.301263	81.935364	-0.018619	-12.673638
0.350000	-0.007403	-5.334497	-91.186137	80.749780	-91.186137	80.749780	-0.021308	-14.766906
0.400000	-0.008306	-6.092361	-90.288188	79.649075	-90.288188	79.649075	-0.023805	-16.856975
0.450000	-0.009180	-6.850038	-89.572004	78.661670	-89.572004	78.661670	-0.026189	-18.943454
0.500000	-0.010043	-7.607487	-89.006216	77.811278	-89.006216	77.811278	-0.028522	-21.026163
0.550000	-0.010905	-8.364646	-88.573603	77.133382	-88.573603	77.133382	-0.030841	-23.104718
0.600000	-0.011772	-9.121434	-88.268085	76.685697	-88.268085	76.685697	-0.033170	-25.178492
0.650000	-0.012651	-9.877804	-88.078949	76.522171	-88.078949	76.522171	-0.035522	-27.247243
0.700000	-0.013541	-10.633710	-88.001206	76.717210	-88.001206	76.717210	-0.037904	-29.310651
0.750000	-0.014446	-11.389092	-88.036169	77.390165	-88.036169	77.390165	-0.040317	-31.368175
0.800000	-0.015366	-12.143910	-88.181553	78.688960	-88.181553	78.688960	-0.042758	-33.419473
0.850000	-0.016299	-12.898120	-88.433799	80.839119	-88.433799	80.839119	-0.045224	-35.464090
0.900000	-0.017245	-13.651759	-88.772746	83.988081	-88.772746	83.988081	-0.047705	-37.502436
0.950000	-0.018203	-14.404700	-89.178580	88.693371	-89.178580	88.693371	-0.050196	-39.533099
1.000000	-0.019171	-15.157025	-89.589271	95.091654	-89.589271	95.091654	-0.052687	-41.556921
1.050000	-0.020148	-15.908638	-89.890127	103.700732	-89.890127	103.700732	-0.055169	-43.572777
1.100000	-0.021132	-16.659565	-89.925486	114.300593	-89.925486	114.300593	-0.057635	-45.580854
1.150000	-0.022121	-17.409767	-89.524074	126.069456	-89.524074	126.069456	-0.060076	-47.580616
1.200000	-0.023112	-18.159245	-88.645406	137.483864	-88.645406	137.483864	-0.062484	-49.571951
1.250000	-0.024103	-18.908004	-87.403993	147.298567	-87.403993	147.298567	-0.064853	-51.554820
1.300000	-0.025089	-19.656021	-85.957407	154.964925	-85.957407	154.964925	-0.067179	-53.528849
1.350000	-0.026068	-20.403267	-84.441640	160.563450	-84.441640	160.563450	-0.069456	-55.493673
1.400000	-0.027033	-21.149752	-82.950989	164.537956	-82.950989	164.537956	-0.071684	-57.449455
1.450000	-0.027980	-21.895443	-81.522527	167.253739	-81.522527	167.253739	-0.073865	-59.396005
1.500000	-0.028903	-22.640246	-80.164130	168.978934	-80.164130	168.978934	-0.075997	-61.332689
1.550000	-0.029799	-23.384140	-78.886410	170.002423	-78.886410	170.002423	-0.078086	-63.259893
1.600000	-0.030671	-24.127045	-77.685189	170.489024	-77.685189	170.489024	-0.080137	-65.177517
1.650000	-0.031524	-24.868834	-76.551173	170.545692	-76.551173	170.545692	-0.082154	-67.085048
1.700000	-0.032370	-25.609503	-75.482180	170.282184	-75.482180	170.282184	-0.084146	-68.982861
1.750000	-0.033226	-26.348964	-74.467537	169.749327	-74.467537	169.749327	-0.086116	-70.870182
1.800000	-0.034100	-27.087399	-73.509847	169.026048	-73.509847	169.026048	-0.088074	-72.748287
1.850000	-0.035001	-27.824744	-72.597439	168.128951	-72.597439	168.128951	-0.090021	-74.616028
1.900000	-0.035926	-28.561117	-71.729161	167.097210	-71.729161	167.097210	-0.091964	-76.473995
1.950000	-0.036874	-29.296557	-70.901010	165.954351	-70.901010	165.954351	-0.093905	-78.322220
2.000000	-0.037840	-30.031031	-70.107404	164.713140	-70.107404	164.713140	-0.095847	-80.160170
2.050000	-0.038817	-30.764648	-69.349625	163.398482	-69.349625	163.398482	-0.097791	-81.989035
2.100000	-0.039803	-31.497235	-68.619176	162.010038	-68.619176	162.010038	-0.099737	-83.807174
2.150000	-0.040795	-32.228960	-67.919918	160.569902	-67.919918	160.569902	-0.101686	-85.616526
2.200000	-0.041790	-32.959635	-67.244663	159.076946	-67.244663	159.076946	-0.103636	-87.415483
2.250000	-0.042787	-33.689372	-66.595319	157.544212	-66.595319	157.544212	-0.105587	-89.205414
2.300000	-0.043786	-34.418074	-65.968220	155.974270	-65.968220	155.974270	-0.107539	-90.985661
2.350000	-0.044785	-35.145742	-65.362410	154.372574	-65.362410	154.372574	-0.109489	-92.756488
2.400000	-0.045786	-35.872398	-64.777322	152.744310	-64.777322	152.744310	-0.111438	-94.518341
2.450000	-0.046788	-36.597922	-64.209867	151.090483	-64.209867	151.090483	-0.113384	-96.270417
2.500000	-0.047792	-37.322465	-63.661794	149.417507	-63.661794	149.417507	-0.115327	-98.014225
2.550000	-0.048797	-38.045778	-63.128437	147.723837	-63.128437	147.723837	-0.117266	-99.747943
2.600000	-0.049804	-38.768082	-62.612408	146.015474	-62.612408	146.015474	-0.119201	-101.473583
2.650000	-0.050815	-39.489188	-62.110462	144.291951	-62.110462	144.291951	-0.121132	-103.189883
2.700000	-0.051828	-40.209194	-61.623255	142.556285	-61.623255	142.556285	-0.123059	-104.897804
2.750000	-0.052845	-40.928041	-61.149529	140.809506	-61.149529	140.809506	-0.124982	-106.597131
2.800000	-0.053866	-41.645695	-60.688418	139.052735	-60.688418	139.052735	-0.126902	-108.287823
2.850000	-0.054891	-42.362233	-60.240210	137.287844	-60.240210	137.287844	-0.128819	-109.970655
2.900000	-0.055921	-43.077484	-59.802864	135.514798	-59.802864	135.514798	-0.130734	-111.644648
2.950000	-0.056957	-43.791644	-59.377681	133.735754	-59.377681	133.735754	-0.132648	-113.311347
3.000000	-0.057999	-44.504469	-58.962276	131.950355	-58.962276	131.950355	-0.134561	-114.969358
3.050000	-0.059047	-45.216159	-58.557841	130.160302	-58.557841	130.160302	-0.136475	-116.620190
3.100000	-0.060102	-45.926562	-58.162918	128.365704	-58.162918	128.365704	-0.138390	-118.263100
3.150000	-0.061164	-46.635739	-57.777609	126.567400	-57.777609	126.567400	-0.140309	-119.898678
3.200000	-0.062234	-47.343680	-57.401530	124.765928	-57.401530	124.765928	-0.142231	-121.527080
3.250000	-0.063312	-48.050304	-57.033923	122.961605	-57.033923	122.961605	-0.144158	-123.148047
3.300000	-0.064398	-48.755748	-56.675252	121.155160	-56.675252	121.155160	-0.146092	-124.762557
3.350000	-0.065495	-49.459707	-56.323740	119.346555	-56.323740	119.346555	-0.148035	-126.369201
3.400000	-0.066600	-50.162526	-55.980819	117.536635	-55.980819	117.536635	-0.149985	-127.970003
3.450000	-0.067715	-50.864047	-55.645480	115.725514	-55.645480	115.725514	-0.151946	-129.564347
3.500000	-0.068841	-51.564264	-55.317465	113.913490	-55.317465	113.913490	-0.153918	-131.152406
3.550000	-0.069977	-52.263169	-54.996531	112.100835	-54.996531	112.100835	-0.155903	-132.734353
3.600000	-0.071124	-52.960755	-54.682448	110.287793	-54.682448	110.287793	-0.157901	-134.310366
3.650000	-0.072282	-53.657015	-54.374995	108.474586	-54.374995	108.474586	-0.159915	-135.880623
3.700000	-0.073453	-54.351944	-54.073966	106.661414	-54.073966	106.661414	-0.161945	-137.445305
3.750000	-0.074636	-55.045534	-53.779164	104.848458	-53.779164	104.848458	-0.163991	-139.004592
3.800000	-0.075832	-55.737723	-53.490247	103.035906	-53.490247	103.035906	-0.166057	-140.558449
3.850000	-0.077042	-56.428562	-53.207209	101.223892	-53.207209	101.223892	-0.168142	-142.107296
3.900000	-0.078265	-57.118047	-52.929880	99.412546	-52.929880	99.412546	-0.170247	-143.651317
3.950000	-0.079502	-57.806173	-52.658096	97.601984	-52.658096	97.601984	-0.172373	-145.190699
4.000000	-0.080753	-58.492936	-52.391704	95.792307	-52.391704	95.792307	-0.174521	-146.725627
4.050000	-0.082019	-59.178333	-52.130555	93.983608	-52.130555	93.983608	-0.176690	-148.256289
4.100000	-0.083301	-59.862359	-51.874510	92.175967	-51.874510	92.175967	-0.178882	-149.782873
4.150000	-0.084598	-60.545012	-51.623433	90.369453	-51.623433	90.369453	-0.181097	-151.305566
4.200000	-0.085911	-61.226289	-51.377199	88.564127	-51.377199	88.564127	-0.183335	-152.824556
4.250000	-0.087240	-61.906186	-51.135684	86.760043	-51.135684	86.760043	-0.185596	-154.340031
4.300000	-0.088586	-62.584702	-50.898773	84.957244	-50.898773	84.957244	-0.187881	-155.852177
4.350000	-0.089949	-63.261835	-50.666356	83.155768	-50.666356	83.155768	-0.190188	-157.361181
4.400000	-0.091330	-63.937584	-50.438326	81.355646	-50.438326	81.355646	-0.192518	-158.867231
4.450000	-0.092728	-64.611947	-50.214584	79.556904	-50.214584	79.556904	-0.194871	-160.370510
4.500000	-0.094145	-65.284922	-49.995033	77.759562	-49.995033	77.759562	-0.197245	-161.871205
4.550000	-0.095581	-65.956510	-49.779583	75.963635	-49.779583	75.963635	-0.199641	-163.369498
4.600000	-0.097035	-66.626710	-49.568146	74.169136	-49.568146	74.169136	-0.202057	-164.865571
4.650000	-0.098509	-67.295523	-49.360639	72.376072	-49.360639	72.376072	-0.204492	-166.359605
4.700000	-0.100003	-67.962947	-49.156985	70.584449	-49.156985	70.584449	-0.206946	-167.851781
4.750000	-0.101517	-68.628985	-48.957106	68.794269	-48.957106	68.794269	-0.209417	-169.342274
4.800000	-0.103051	-69.293636	-48.760934	67.005535	-48.760934	67.005535	-0.211904	-170.831263
4.850000	-0.104606	-69.956902	-48.568398	65.218245	-48.568398	65.218245	-0.214407	-172.318920
4.900000	-0.106183	-70.618784	-48.379436	63.432398	-48.379436	63.432398	-0.216923	-173.805419
4.950000	-0.107782	-71.279283	-48.193985	61.647993	-48.193985	61.647993	-0.219451	-175.290930
5.000000	-0.109402	-71.938403	-48.011988	59.865028	-48.011988	59.865028	-0.221990	-176.775620
5.050000	-0.111046	-72.596085	-47.833378	58.083565	-47.833378	58.083565	-0.224539	-178.259636
5.100000	-0.112713	-73.252392	-47.658123	56.303539	-47.658123	56.303539	-0.227095	-179.743177
5.150000	-0.114403	-73.907326	-47.486171	54.524953	-47.486171	54.524953	-0.229658	178.773596
5.200000	-0.116116	-74.560891	-47.317476	52.747808	-47.317476	52.747808	-0.232226	177.290523
5.250000	-0.117854	-75.213089	-47.151993	50.972108	-47.151993	50.972108	-0.234797	175.807447
5.300000	-0.119616	-75.863925	-46.989681	49.197861	-46.989681	49.197861	-0.237370	174.324214
5.350000	-0.121403	-76.513402	-46.830498	47.425075	-46.830498	47.425075	-0.239943	172.840671
5.400000	-0.123215	-77.161524	-46.674408	45.653761	-46.674408	45.653761	-0.242515	171.356668
5.450000	-0.125052	-77.808296	-46.521375	43.883935	-46.521375	43.883935	-0.245085	169.872058
5.500000	-0.126915	-78.453721	-46.371365	42.115615	-46.371365	42.115615	-0.247652	168.386694
5.550000	-0.128805	-79.097805	-46.224347	40.348820	-46.224347	40.348820	-0.250213	166.900433
5.600000	-0.130721	-79.740552	-46.080290	38.583578	-46.080290	38.583578	-0.252768	165.413136
5.650000	-0.132664	-80.381969	-45.939167	36.819915	-45.939167	36.819915	-0.255315	163.924664
5.700000	-0.134635	-81.022059	-45.800951	35.057865	-45.800951	35.057865	-0.257853	162.434880
5.750000	-0.136633	-81.660829	-45.665617	33.297464	-45.665617	33.297464	-0.260382	160.943652
5.800000	-0.138660	-82.298284	-45.533141	31.538751	-45.533141	31.538751	-0.262899	159.450849
5.850000	-0.140715	-82.934431	-45.403502	29.781773	-45.403502	29.781773	-0.265404	157.956343
5.900000	-0.142799	-83.569275	-45.276679	28.026576	-45.276679	28.026576	-0.267895	156.460007
5.950000	-0.144913	-84.202824	-45.152653	26.273214	-45.152653	26.273214	-0.270371	154.961719
6.000000	-0.147056	-84.835084	-45.031405	24.521745	-45.031405	24.521745	-0.272832	153.461359
6.050000	-0.149230	-85.466061	-44.912917	22.772228	-44.912917	22.772228	-0.275276	151.958810
6.100000	-0.151433	-86.095763	-44.797175	21.024730	-44.797175	21.024730	-0.277702	150.453956
6.150000	-0.153668	-86.724196	-44.684163	19.279320	-44.684163	19.279320	-0.280108	148.946687
6.200000	-0.155934	-87.351370	-44.573867	17.536071	-44.573867	17.536071	-0.282495	147.436895
6.250000	-0.158232	-87.977290	-44.466275	15.795063	-44.466275	15.795063	-0.284860	145.924474
6.300000	-0.160563	-88.601911	-44.361437	14.056482	-44.361437	14.056482	-0.287202	144.409199
6.350000	-0.162927	-89.225296	-44.259284	12.320317	-44.259284	12.320317	-0.289521	142.891086
6.400000	-0.165324	-89.847452	-44.159805	10.586659	-44.159805	10.586659	-0.291815	141.370042
6.450000	-0.167754	-90.468389	-44.062992	8.855604	-44.062992	8.855604	-0.294083	139.845975
6.500000	-0.170217	-91.088115	-43.968835	7.127251	-43.968835	7.127251	-0.296324	138.318799
6.550000	-0.172715	-91.706638	-43.877327	5.401703	-43.877327	5.401703	-0.298537	136.788430
6.600000	-0.175247	-92.323967	-43.788460	3.679067	-43.788460	3.679067	-0.300721	135.254790
6.650000	-0.177814	-92.940113	-43.702229	1.959457	-43.702229	1.959457	-0.302875	133.717803
6.700000	-0.180416	-93.555083	-43.618628	0.242988	-43.618628	0.242988	-0.304997	132.177400
6.750000	-0.183054	-94.168888	-43.537653	-1.470218	-43.537653	-1.470218	-0.307087	130.633513
6.800000	-0.185727	-94.781536	-43.459299	-3.180036	-43.459299	-3.180036	-0.309143	129.086081
6.850000	-0.188438	-95.393039	-43.383565	-4.886334	-43.383565	-4.886334	-0.311165	127.535048
6.900000	-0.191185	-96.003406	-43.310448	-6.588977	-43.310448	-6.588977	-0.313150	125.980360
6.950000	-0.193969	-96.612647	-43.239948	-8.287823	-43.239948	-8.287823	-0.315099	124.421971
7.000000	-0.196790	-97.220772	-43.172063	-9.982724	-43.172063	-9.982724	-0.317009	122.859838
7.050000	-0.199650	-97.827793	-43.106795	-11.673526	-43.106795	-11.673526	-0.318881	121.293925
7.100000	-0.202548	-98.433720	-43.044146	-13.360070	-43.044146	-13.360070	-0.320712	119.724198
7.150000	-0.205484	-99.038563	-42.984118	-15.042186	-42.984118	-15.042186	-0.322503	118.150632
7.200000	-0.208460	-99.642334	-42.926714	-16.719700	-42.926714	-16.719700	-0.324251	116.573205
7.250000	-0.211475	-100.245045	-42.871940	-18.392428	-42.871940	-18.392428	-0.325956	114.991903
7.300000	-0.214530	-100.846705	-42.819799	-20.060177	-42.819799	-20.060177	-0.327617	113.406715
7.350000	-0.217625	-101.447328	-42.770300	-21.722744	-42.770300	-21.722744	-0.329234	111.817638
7.400000	-0.220760	-102.046925	-42.723448	-23.379917	-42.723448	-23.379917	-0.330805	110.224674
7.450000	-0.223936	-102.645508	-42.679253	-25.031470	-42.679253	-25.031470	-0.332330	108.627832
7.500000	-0.227154	-103.243089	-42.637722	-26.677169	-42.637722	-26.677169	-0.333808	107.027125
7.550000	-0.230414	-103.839638	-42.598976	-28.316486	-42.598976	-28.316486	-0.335236	105.422408
7.600000	-0.233717	-104.435211	-42.562919	-29.949409	-42.562919	-29.949409	-0.336617	103.813877
7.650000	-0.237062	-105.029820	-42.529562	-31.575659	-42.529562	-31.575659	-0.337950	102.201567
7.700000	-0.240449	-105.623480	-42.498916	-33.194939	-42.498916	-33.194939	-0.339234	100.585517
7.750000	-0.243879	-106.216202	-42.470995	-34.806935	-42.470995	-34.806935	-0.340470	98.965776
7.800000	-0.247353	-106.808000	-42.445810	-36.411315	-42.445810	-36.411315	-0.341657	97.342396
7.850000	-0.250870	-107.398887	-42.423376	-38.007727	-42.423376	-38.007727	-0.342795	95.715438
7.900000	-0.254431	-107.988878	-42.403705	-39.595800	-42.403705	-39.595800	-0.343885	94.084969
7.950000	-0.258035	-108.577985	-42.386812	-41.175140	-42.386812	-41.175140	-0.344927	92.451063
8.000000	-0.261684	-109.166223	-42.372709	-42.745330	-42.372709	-42.745330	-0.345922	90.813800
8.050000	-0.265378	-109.753607	-42.361409	-44.305931	-42.361409	-44.305931	-0.346869	89.173266
8.100000	-0.269117	-110.340150	-42.352926	-45.856478	-42.352926	-45.856478	-0.347770	87.529556
8.150000	-0.272901	-110.925867	-42.347272	-47.396479	-42.347272	-47.396479	-0.348626	85.882769
8.200000	-0.276730	-111.510774	-42.344456	-48.925417	-42.344456	-48.925417	-0.349438	84.233012
8.250000	-0.280605	-112.094884	-42.344490	-50.442746	-42.344490	-50.442746	-0.350206	82.580399
8.300000	-0.284526	-112.678214	-42.347381	-51.947892	-42.347381	-51.947892	-0.350933	80.925050
8.350000	-0.288492	-113.260801	-42.353054	-53.440646	-42.353054	-53.440646	-0.351621	79.267160
8.400000	-0.292505	-113.842606	-42.361716	-54.919422	-42.361716	-54.919422	-0.352268	77.606686
8.450000	-0.296565	-114.423689	-42.373204	-56.384325	-42.373204	-56.384325	-0.352880	75.943911
8.500000	-0.300671	-115.004065	-42.387519	-57.834688	-42.387519	-57.834688	-0.353457	74.278974
8.550000	-0.304823	-115.583751	-42.404656	-59.269814	-42.404656	-59.269814	-0.354002	72.612019
8.600000	-0.309026	-116.162689	-42.424913	-60.687131	-42.424913	-60.687131	-0.354515	70.943008
8.650000	-0.313275	-116.740968	-42.447989	-62.087466	-42.447989	-62.087466	-0.355001	69.272306
8.700000	-0.317572	-117.318607	-42.473852	-63.470123	-42.473852	-63.470123	-0.355463	67.600086
8.750000	-0.321915	-117.895625	-42.502482	-64.834279	-42.502482	-64.834279	-0.355904	65.926516
8.800000	-0.326305	-118.472036	-42.533856	-66.179080	-42.533856	-66.179080	-0.356327	64.251766
8.850000	-0.330741	-119.047859	-42.567943	-67.503642	-42.567943	-67.503642	-0.356735	62.576012
8.900000	-0.335227	-119.623087	-42.604816	-68.806105	-42.604816	-68.806105	-0.357130	60.899408
8.950000	-0.339763	-120.197724	-42.644500	-70.084712	-42.644500	-70.084712	-0.357518	59.222146
9.000000	-0.344347	-120.771828	-42.686760	-71.340059	-42.686760	-71.340059	-0.357901	57.544474
9.050000	-0.348977	-121.345419	-42.731539	-72.571147	-42.731539	-72.571147	-0.358285	55.866586
9.100000	-0.353655	-121.918514	-42.778775	-73.776954	-42.778775	-73.776954	-0.358672	54.188679
9.150000	-0.358379	-122.491132	-42.828395	-74.956435	-42.828395	-74.956435	-0.359067	52.510953
9.200000	-0.363151	-123.063293	-42.880320	-76.108525	-42.880320	-76.108525	-0.359475	50.833610
9.250000	-0.367974	-123.634977	-42.934623	-77.229415	-42.934623	-77.229415	-0.359901	49.156932
9.300000	-0.372845	-124.206235	-42.991064	-78.319792	-42.991064	-78.319792	-0.360349	47.481111
9.350000	-0.377763	-124.777098	-43.049484	-79.379238	-43.049484	-79.379238	-0.360823	45.806344
9.400000	-0.382728	-125.347587	-43.109763	-80.406622	-43.109763	-80.406622	-0.361329	44.132844
9.450000	-0.387740	-125.917722	-43.171770	-81.400805	-43.171770	-81.400805	-0.361871	42.460826
9.500000	-0.392798	-126.487523	-43.235361	-82.360640	-43.235361	-82.360640	-0.362453	40.790506
9.550000	-0.397904	-127.057006	-43.300400	-83.284080	-43.300400	-83.284080	-0.363083	39.122154
9.600000	-0.403060	-127.626175	-43.366744	-84.167357	-43.366744	-84.167357	-0.363768	37.456162
9.650000	-0.408262	-128.195079	-43.434127	-85.012619	-43.434127	-85.012619	-0.364510	35.792567
9.700000	-0.413510	-128.763743	-43.502352	-85.818741	-43.502352	-85.818741	-0.365315	34.131588
9.750000	-0.418802	-129.332197	-43.571215	-86.586642	-43.571215	-86.586642	-0.366182	32.473295
9.800000	-0.424142	-129.900440	-43.640475	-87.309913	-43.640475	-87.309913	-0.367128	30.818299
9.850000	-0.429528	-130.468509	-43.709882	-87.989845	-43.709882	-87.989845	-0.368153	29.166654
9.900000	-0.434958	-131.036434	-43.779193	-88.627060	-43.779193	-88.627060	-0.369260	27.518452
9.950000	-0.440435	-131.604229	-43.848043	-89.216205	-43.848043	-89.216205	-0.370463	25.874275
10.000000	-0.445953	-132.171936	-43.916311	-89.763393	-43.916311	-89.763393	-0.371752	24.233740
