! freq	dB(S11)	phase(S11)	dB(S12)	phase(S12)	
!     	dB(S21)	phase(S21)	dB(S22)	phase(S22)	
!S-par simulation data
#  GHz  S  DB  R 50
0.000000	-81.657745	0.000000	-0.000718	0.000000	-0.000718	0.000000	-81.657745	0.000000
0.050000	-37.518874	-92.417698	-0.006393	-3.352780	-0.006393	-3.352780	-37.524427	-92.727253
0.100000	-31.566242	-95.832826	-0.015748	-6.660320	-0.015748	-6.660320	-31.571152	-96.437334
0.150000	-28.093561	-99.211769	-0.024877	-9.949675	-0.024877	-9.949675	-28.098821	-100.113934
0.200000	-25.637054	-102.533308	-0.034484	-13.233562	-0.034484	-13.233562	-25.642819	-103.736645
0.250000	-23.742783	-105.800447	-0.045193	-16.513322	-0.045193	-16.513322	-23.749064	-107.308864
0.300000	-22.206766	-109.026509	-0.057158	-19.788674	-0.057158	-19.788674	-22.213521	-110.844699
0.350000	-20.919269	-112.221402	-0.070313	-23.059393	-0.070313	-23.059393	-20.926446	-114.354925
0.400000	-19.815196	-115.390781	-0.084586	-26.325261	-0.084586	-26.325261	-19.822750	-117.846269
0.450000	-18.854155	-118.536983	-0.099969	-29.585745	-0.099969	-29.585745	-18.862059	-121.322954
0.500000	-18.006029	-121.664314	-0.116285	-32.841184	-0.116285	-32.841184	-18.014260	-124.789961
0.550000	-17.250236	-124.774379	-0.133439	-36.091611	-0.133439	-36.091611	-17.258785	-128.249998
0.600000	-16.572101	-127.867689	-0.151357	-39.336926	-0.151357	-39.336926	-16.580972	-131.705080
0.650000	-15.961073	-130.943922	-0.169965	-42.576918	-0.169965	-42.576918	-15.970284	-135.156993
0.700000	-15.406962	-134.004329	-0.189117	-45.812012	-0.189117	-45.812012	-15.416537	-138.607538
0.750000	-14.902713	-137.048821	-0.208716	-49.042311	-0.208716	-49.042311	-14.912683	-142.058075
0.800000	-14.443541	-140.076324	-0.228670	-52.267736	-0.228670	-52.267736	-14.453951	-145.510083
0.850000	-14.024933	-143.086310	-0.248854	-55.488506	-0.248854	-55.488506	-14.035836	-148.965201
0.900000	-13.640982	-146.080373	-0.269147	-58.705400	-0.269147	-58.705400	-13.652431	-152.424392
0.950000	-13.291284	-149.055185	-0.289428	-61.918155	-0.289428	-61.918155	-13.303355	-155.890153
1.000000	-12.970425	-152.013009	-0.309597	-65.127774	-0.309597	-65.127774	-12.983185	-159.363121
1.050000	-12.678062	-154.951135	-0.329510	-68.334406	-0.329510	-68.334406	-12.691602	-162.846096
1.100000	-12.411227	-157.870006	-0.349065	-71.538824	-0.349065	-71.538824	-12.425639	-166.340560
1.150000	-12.169122	-160.767788	-0.368114	-74.741638	-0.368114	-74.741638	-12.184521	-169.849513
1.200000	-11.949892	-163.644096	-0.386550	-77.943683	-0.386550	-77.943683	-11.966401	-173.375189
1.250000	-11.751758	-166.498713	-0.404286	-81.145805	-0.404286	-81.145805	-11.769509	-176.919669
1.300000	-11.573642	-169.330668	-0.421223	-84.348870	-0.421223	-84.348870	-11.592784	179.514287
1.350000	-11.414621	-172.138861	-0.437267	-87.553811	-0.437267	-87.553811	-11.435321	175.923670
1.400000	-11.273904	-174.922039	-0.452335	-90.761627	-0.452335	-90.761627	-11.296348	172.305195
1.450000	-11.150913	-177.678593	-0.466341	-93.973423	-0.466341	-93.973423	-11.175317	168.655054
1.500000	-11.046699	179.596283	-0.479092	-97.191026	-0.479092	-97.191026	-11.073342	164.965112
1.550000	-10.959073	176.901620	-0.490655	-100.415227	-0.490655	-100.415227	-10.988236	161.234497
1.600000	-10.887662	174.239713	-0.500983	-103.647366	-0.500983	-103.647366	-10.919670	157.458344
1.650000	-10.832174	171.613228	-0.510040	-106.888872	-0.510040	-106.888872	-10.867397	153.631283
1.700000	-10.791766	169.023601	-0.517853	-110.140775	-0.517853	-110.140775	-10.830611	149.749868
1.750000	-10.768062	166.479174	-0.524251	-113.406075	-0.524251	-113.406075	-10.811062	145.800414
1.800000	-10.760062	163.982138	-0.529302	-116.685913	-0.529302	-116.685913	-10.807804	141.778513
1.850000	-10.767723	161.537688	-0.533010	-119.982153	-0.533010	-119.982153	-10.820892	137.675522
1.900000	-10.791211	159.152636	-0.535373	-123.296965	-0.535373	-123.296965	-10.850618	133.480608
1.950000	-10.830546	156.834423	-0.536421	-126.632452	-0.536421	-126.632452	-10.897144	129.182363
2.000000	-10.885580	154.590901	-0.536214	-129.990537	-0.536214	-129.990537	-10.960484	124.769208
2.050000	-10.956319	152.432034	-0.534812	-133.373431	-0.534812	-133.373431	-11.040839	120.226844
2.100000	-11.042711	150.369499	-0.532297	-136.783431	-0.532297	-136.783431	-11.138396	115.538944
2.150000	-11.144600	148.416952	-0.528772	-140.222931	-0.528772	-140.222931	-11.253280	110.686820
2.200000	-11.261665	146.590317	-0.524366	-143.694420	-0.524366	-143.694420	-11.385502	105.649046
2.250000	-11.393327	144.908061	-0.519233	-147.200485	-0.519233	-147.200485	-11.534873	100.401046
2.300000	-11.538640	143.391448	-0.513559	-150.743815	-0.513559	-150.743815	-11.700892	94.914670
2.350000	-11.696127	142.064686	-0.507563	-154.327198	-0.507563	-154.327198	-11.882590	89.157809
2.400000	-11.863587	140.954890	-0.501502	-157.953523	-0.501502	-157.953523	-12.078314	83.094132
2.450000	-12.037838	140.091698	-0.495673	-161.625770	-0.495673	-161.625770	-12.285446	76.683093
2.500000	-12.214415	139.506330	-0.490421	-165.347008	-0.490421	-165.347008	-12.500031	69.880452
2.550000	-12.386896	139.237137	-0.486174	-169.121589	-0.486174	-169.121589	-12.716072	62.629099
2.600000	-12.547142	139.305365	-0.483375	-172.951653	-0.483375	-172.951653	-12.925345	54.891819
2.650000	-12.684806	139.729871	-0.482544	-176.840439	-0.482544	-176.840439	-13.116902	46.628952
2.700000	-12.787401	140.514715	-0.484272	179.208810	-0.484272	179.208810	-13.276784	37.814565
2.750000	-12.840800	141.641773	-0.489224	175.192886	-0.489224	175.192886	-13.388273	28.446505
2.800000	-12.830349	143.063879	-0.498147	171.108666	-0.498147	171.108666	-13.432974	18.557319
2.850000	-12.742635	144.701043	-0.511878	166.953166	-0.511878	166.953166	-13.392931	8.222648
2.900000	-12.567636	146.442499	-0.531346	162.723616	-0.531346	162.723616	-13.253589	-2.437546
2.950000	-12.300694	148.156090	-0.557583	158.417542	-0.557583	158.417542	-13.006871	-13.268677
3.000000	-11.943621	149.703745	-0.591718	154.032862	-0.591718	154.032862	-12.653213	-24.101811
3.050000	-11.504488	150.958906	-0.634987	149.567994	-0.634987	149.567994	-12.201659	-34.778762
3.100000	-10.996191	151.820744	-0.688726	145.021979	-0.688726	145.021979	-11.667958	-45.173393
3.150000	-10.433720	152.217546	-0.754475	140.393948	-0.754475	140.393948	-11.070823	-55.199335
3.200000	-9.833588	152.115043	-0.833792	135.684618	-0.833792	135.684618	-10.430654	-64.816430
3.250000	-9.211006	151.505732	-0.928387	130.895349	-0.928387	130.895349	-9.765898	-74.018261
3.300000	-8.580683	150.416800	-1.039603	126.030762	-1.039603	126.030762	-9.093789	-82.833010
3.350000	-7.953096	148.873783	-1.169237	121.094345	-1.169237	121.094345	-8.426266	-91.289141
3.400000	-7.337033	146.913996	-1.318972	116.091531	-1.318972	116.091531	-7.772984	-99.423452
3.450000	-6.739290	144.578302	-1.490465	111.029079	-1.490465	111.029079	-7.141126	-107.272568
3.500000	-6.164983	141.908395	-1.685310	105.915045	-1.685310	105.915045	-6.535883	-114.869916
3.550000	-5.617844	138.945146	-1.905011	100.758696	-1.905011	100.758696	-5.960871	-122.244253
3.600000	-5.100482	135.727678	-2.150948	95.570368	-2.150948	95.570368	-5.418483	-129.419189
3.650000	-4.614598	132.292881	-2.424358	90.361263	-2.424358	90.361263	-4.910155	-136.413339
3.700000	-4.161145	128.675182	-2.726315	85.143205	-2.726315	85.143205	-4.436565	-143.240821
3.750000	-3.740461	124.906434	-3.057729	79.928351	-3.057729	79.928351	-3.997786	-149.911927
3.800000	-3.352732	121.013838	-3.419662	74.729506	-3.419662	74.729506	-3.593759	-156.430726
3.850000	-2.997082	117.027090	-3.812314	69.558505	-3.812314	69.558505	-3.223379	-162.805313
3.900000	-2.672529	112.969933	-4.236179	64.426680	-4.236179	64.426680	-2.885462	-169.038747
3.950000	-2.377816	108.863472	-4.691706	59.344581	-4.691706	59.344581	-2.578572	-175.133021
4.000000	-2.111480	104.726202	-5.179361	54.321800	-5.179361	54.321800	-2.301086	178.910454
4.050000	-1.871903	100.574078	-5.699700	49.366871	-5.699700	49.366871	-2.051247	173.090468
4.100000	-1.657372	96.420610	-6.253452	44.487239	-6.253452	44.487239	-1.827219	167.405730
4.150000	-1.466122	92.276992	-6.841621	39.689298	-6.841621	39.689298	-1.627129	161.854675
4.200000	-1.296382	88.152252	-7.465593	34.978502	-7.465593	34.978502	-1.449107	156.435341
4.250000	-1.146407	84.053432	-8.127272	30.359546	-8.127272	30.359546	-1.291323	151.145317
4.300000	-1.014505	79.985765	-8.829235	25.836616	-8.829235	25.836616	-1.152005	145.981736
4.350000	-0.899065	75.952863	-9.574942	21.413736	-9.574942	21.413736	-1.029472	140.941298
4.400000	-0.798704	71.957314	-10.368744	17.096414	-10.368744	17.096414	-0.922272	136.021584
4.450000	-0.711973	68.000016	-11.216645	12.890121	-11.216645	12.890121	-0.828893	131.218459
4.500000	-0.637425	64.080292	-12.126996	8.800970	-12.126996	8.800970	-0.747828	126.526380
4.550000	-0.573879	60.196900	-13.110705	4.839559	-13.110705	4.839559	-0.677837	121.940933
4.600000	-0.521013	56.350427	-14.179406	1.037324	-14.179406	1.037324	-0.618529	117.466007
4.650000	-0.476236	52.532014	-15.360169	-2.608343	-15.360169	-2.608343	-0.567271	113.078801
4.700000	-0.439625	48.741440	-16.679129	-6.039520	-16.679129	-6.039520	-0.524072	108.784675
4.750000	-0.410444	44.974490	-18.179867	-9.179886	-18.179867	-9.179886	-0.488131	104.579093
4.800000	-0.388062	41.226289	-19.930430	-11.886242	-19.930430	-11.886242	-0.458743	100.457584
4.850000	-0.371949	37.491292	-22.044654	-13.861369	-22.044654	-13.861369	-0.435298	96.415761
4.900000	-0.361671	33.763236	-24.731771	-14.387868	-24.731771	-14.387868	-0.417275	92.449338
4.950000	-0.356896	30.035070	-28.425669	-11.282721	-28.425669	-11.282721	-0.404236	88.554134
5.000000	-0.357391	26.298845	-34.083847	4.312884	-34.083847	4.312884	-0.395826	84.726079
5.050000	-0.363446	22.543154	-36.617643	67.485986	-36.617643	67.485986	-0.392111	80.966026
5.100000	-0.374163	18.761861	-31.203519	109.524919	-31.203519	109.524919	-0.392169	77.259614
5.150000	-0.390460	14.937904	-26.799812	117.466752	-26.799812	117.466752	-0.396541	73.612011
5.200000	-0.412085	11.061772	-23.795960	118.457220	-23.795960	118.457220	-0.404821	70.014322
5.250000	-0.439688	7.114712	-21.541832	117.181879	-21.541832	117.181879	-0.417258	66.464887
5.300000	-0.474325	3.071147	-19.732709	114.840031	-19.732709	114.840031	-0.434319	62.962633
5.350000	-0.516053	-1.079978	-18.214919	111.984346	-18.214919	111.984346	-0.455787	59.498660
5.400000	-0.566396	-5.370379	-16.896871	108.759957	-16.896871	108.759957	-0.482357	56.071951
5.450000	-0.626990	-9.833563	-15.721466	105.254849	-15.721466	105.254849	-0.514710	52.679546
5.500000	-0.701034	-14.528957	-14.647045	101.489899	-14.647045	101.489899	-0.554294	49.320891
5.550000	-0.791314	-19.504741	-13.647701	97.482516	-13.647701	97.482516	-0.602184	45.992296
5.600000	-0.902000	-24.827541	-12.703717	93.219268	-12.703717	93.219268	-0.660024	42.692555
5.650000	-1.040133	-30.605556	-11.797606	88.654305	-11.797606	88.654305	-0.730596	39.424218
5.700000	-1.215151	-36.973307	-10.917089	83.727212	-10.917089	83.727212	-0.817312	36.193467
5.750000	-1.439220	-44.090243	-10.055306	78.366873	-10.055306	78.366873	-0.924065	33.012770
5.800000	-1.732095	-52.211671	-9.206490	72.457997	-9.206490	72.457997	-1.056628	29.909843
5.850000	-2.125872	-61.751821	-8.369024	65.826476	-8.369024	65.826476	-1.222837	26.942653
5.900000	-2.656410	-73.145542	-7.555796	58.332182	-7.555796	58.332182	-1.427300	24.195168
5.950000	-3.386284	-87.298496	-6.787412	49.710154	-6.787412	49.710154	-1.674007	21.839307
6.000000	-4.375906	-105.512558	-6.110498	39.733152	-6.110498	39.733152	-1.950217	20.121344
6.050000	-5.615016	-129.791497	-5.600838	28.257180	-5.600838	28.257180	-2.209675	19.309450
6.100000	-6.783324	-162.374341	-5.361704	15.374068	-5.361704	15.374068	-2.360263	19.453265
6.150000	-7.050043	158.210219	-5.498091	1.576063	-5.498091	1.576063	-2.304191	20.029488
6.200000	-6.066893	120.617701	-6.068953	-12.269275	-6.068953	-12.269275	-2.035713	20.064849
6.250000	-4.644463	90.927664	-7.056367	-25.234623	-7.056367	-25.234623	-1.662170	18.920098
6.300000	-3.426365	68.491968	-8.387143	-36.693919	-8.387143	-36.693919	-1.301961	16.670571
6.350000	-2.540969	51.195004	-9.984008	-46.412582	-9.984008	-46.412582	-1.012929	13.731698
6.400000	-1.930017	37.442193	-11.803118	-54.401679	-11.803118	-54.401679	-0.802235	10.474719
6.450000	-1.511085	26.134103	-13.855287	-60.743666	-13.855287	-60.743666	-0.655521	7.121614
6.500000	-1.227277	16.632330	-16.196969	-65.264113	-16.196969	-65.264113	-0.558498	3.778134
6.550000	-1.032984	8.392117	-18.983765	-67.456561	-18.983765	-67.456561	-0.496495	0.485758
6.600000	-0.904678	1.126231	-22.463679	-64.985381	-22.463679	-64.985381	-0.461685	-2.742210
6.650000	-0.821105	-5.473933	-26.943146	-50.219473	-26.943146	-50.219473	-0.446166	-5.914784
6.700000	-0.772498	-11.572558	-30.115423	-7.322516	-30.115423	-7.322516	-0.446506	-9.041490
6.750000	-0.753177	-17.297780	-26.803040	32.483840	-26.803040	32.483840	-0.460970	-12.133957
6.800000	-0.758859	-22.772244	-22.845577	45.000220	-22.845577	45.000220	-0.488360	-15.206744
6.850000	-0.788208	-28.091290	-19.902231	47.683032	-19.902231	47.683032	-0.528852	-18.273644
6.900000	-0.842320	-33.340144	-17.625741	46.905372	-17.625741	46.905372	-0.583913	-21.348729
6.950000	-0.924029	-38.603259	-15.755798	44.559766	-15.755798	44.559766	-0.655968	-24.446034
7.000000	-1.038050	-43.963249	-14.145431	41.314860	-14.145431	41.314860	-0.748455	-27.577945
7.050000	-1.192532	-49.507551	-12.707130	37.417476	-12.707130	37.417476	-0.866743	-30.754963
7.100000	-1.399836	-55.334639	-11.386588	32.954113	-11.386588	32.954113	-1.018460	-33.982988
7.150000	-1.678510	-61.559673	-10.149481	27.927532	-10.149481	27.927532	-1.214295	-37.258158
7.200000	-2.057549	-68.327037	-8.974438	22.282357	-8.974438	22.282357	-1.469616	-40.556513
7.250000	-2.581761	-75.815955	-7.852168	15.925243	-7.852168	15.925243	-1.805318	-43.811865
7.300000	-3.318264	-84.233465	-6.787073	8.753008	-6.787073	8.753008	-2.246269	-46.879901
7.350000	-4.376583	-93.853603	-5.795431	0.652305	-5.795431	0.652305	-2.819930	-49.475691
7.400000	-5.946053	-105.097663	-4.909150	-8.469228	-4.909150	-8.469228	-3.543020	-51.062757
7.450000	-8.360805	-118.730743	-4.173900	-18.581280	-4.173900	-18.581280	-4.379906	-50.846146
7.500000	-12.355080	-137.355310	-3.640531	-29.511043	-3.640531	-29.511043	-5.182866	-47.975964
7.550000	-19.573450	-179.981146	-3.354919	-40.899935	-3.354919	-40.899935	-5.653945	-42.434112
7.600000	-18.308471	78.766360	-3.326548	-52.241622	-3.326548	-52.241622	-5.561446	-36.148531
7.650000	-11.895076	44.432084	-3.532525	-63.053896	-3.532525	-63.053896	-4.993737	-31.572034
7.700000	-8.401848	28.021447	-3.925248	-72.978624	-3.925248	-72.978624	-4.241330	-29.657779
7.750000	-6.266930	16.123025	-4.443413	-81.874070	-4.443413	-81.874070	-3.524184	-29.852696
7.800000	-4.860811	6.538605	-5.035088	-89.736708	-5.035088	-89.736708	-2.923542	-31.350318
7.850000	-3.886703	-1.516197	-5.661082	-96.673419	-5.661082	-96.673419	-2.445331	-33.530965
7.900000	-3.189722	-8.422576	-6.294970	-102.802850	-6.294970	-102.802850	-2.072236	-36.035254
7.950000	-2.678505	-14.429050	-6.919189	-108.245792	-6.919189	-108.245792	-1.782835	-38.660418
8.000000	-2.296171	-19.712565	-7.522161	-113.109985	-7.522161	-113.109985	-1.558271	-41.297257
8.050000	-1.997283	-24.475004	-8.106338	-117.545708	-8.106338	-117.545708	-1.378443	-43.900199
8.100000	-1.765401	-28.760919	-8.662248	-121.582593	-8.662248	-121.582593	-1.236593	-46.441552
8.150000	-1.580658	-32.677051	-9.192696	-125.306428	-9.192696	-125.306428	-1.122419	-48.916698
8.200000	-1.431364	-36.287323	-9.698129	-128.769531	-9.698129	-128.769531	-1.029652	-51.325129
8.250000	-1.310782	-39.626033	-10.176099	-132.000368	-10.176099	-132.000368	-0.954641	-53.666328
8.300000	-1.210224	-42.761035	-10.633635	-135.056865	-10.633635	-135.056865	-0.892199	-55.952343
8.350000	-1.128242	-45.690119	-11.063702	-137.937500	-11.063702	-137.937500	-0.841644	-58.179045
8.400000	-1.058600	-48.473771	-11.475985	-140.694506	-11.475985	-140.694506	-0.799060	-60.362025
8.450000	-1.000795	-51.107330	-11.864519	-143.324865	-11.864519	-143.324865	-0.764245	-62.498790
8.500000	-0.951864	-53.621350	-12.233749	-145.855474	-12.233749	-145.855474	-0.735323	-64.598390
8.550000	-0.909977	-56.035226	-12.586155	-148.303671	-12.586155	-148.303671	-0.711134	-66.667043
8.600000	-0.874289	-58.356279	-12.921016	-150.676796	-12.921016	-150.676796	-0.691171	-68.707596
8.650000	-0.844175	-60.589329	-13.236908	-152.980531	-13.236908	-152.980531	-0.675077	-70.722648
8.700000	-0.818632	-62.746672	-13.535407	-155.226578	-13.535407	-155.226578	-0.662222	-72.717320
8.750000	-0.796853	-64.839052	-13.818106	-157.425210	-13.818106	-157.425210	-0.652101	-74.696324
8.800000	-0.778352	-66.872780	-14.085265	-159.583292	-14.085265	-159.583292	-0.644429	-76.663293
8.850000	-0.763383	-68.840732	-14.331197	-161.700070	-14.331197	-161.700070	-0.639528	-78.620876
8.900000	-0.749780	-70.783117	-14.572309	-163.801446	-14.572309	-163.801446	-0.635710	-80.575462
8.950000	-0.739611	-72.658677	-14.786748	-165.869951	-14.786748	-165.869951	-0.634862	-82.529830
9.000000	-0.730395	-74.515654	-14.996741	-167.931047	-14.996741	-167.931047	-0.634884	-84.485956
9.050000	-0.724006	-76.316608	-15.180422	-169.975317	-15.180422	-169.975317	-0.637677	-86.453182
9.100000	-0.718762	-78.095127	-15.353958	-172.019343	-15.353958	-172.019343	-0.641794	-88.431757
9.150000	-0.715212	-79.840379	-15.509716	-174.063004	-15.509716	-174.063004	-0.647873	-90.427161
9.200000	-0.713363	-81.553758	-15.644811	-176.120512	-15.644811	-176.120512	-0.656371	-92.453850
9.250000	-0.712363	-83.251199	-15.770122	-178.184943	-15.770122	-178.184943	-0.666084	-94.496183
9.300000	-0.713597	-84.910475	-15.863186	179.707219	-15.863186	179.707219	-0.679837	-96.604654
9.350000	-0.715464	-86.560088	-15.947087	177.580580	-15.947087	177.580580	-0.694999	-98.738209
9.400000	-0.719263	-88.181475	-16.000070	175.389475	-16.000070	175.389475	-0.714700	-100.955236
9.450000	-0.724242	-89.789249	-16.033223	173.140776	-16.033223	173.140776	-0.738013	-103.240780
9.500000	-0.730618	-91.380935	-16.042655	170.824012	-16.042655	170.824012	-0.765618	-105.607299
9.550000	-0.738565	-92.958716	-16.025105	168.411056	-16.025105	168.411056	-0.799135	-108.083599
9.600000	-0.748540	-94.521416	-15.973261	165.861416	-15.973261	165.861416	-0.841165	-110.713417
9.650000	-0.760898	-96.070970	-15.882842	163.131519	-15.882842	163.131519	-0.894888	-113.542133
9.700000	-0.775734	-97.609981	-15.755061	160.201670	-15.755061	160.201670	-0.962385	-116.589409
9.750000	-0.793836	-99.137948	-15.582068	156.995893	-15.582068	156.995893	-1.050313	-119.936714
9.800000	-0.816137	-100.653781	-15.357184	153.423739	-15.357184	153.423739	-1.168093	-123.681948
9.850000	-0.843832	-102.154168	-15.074104	149.369272	-15.074104	149.369272	-1.330077	-127.953267
9.900000	-0.878347	-103.631719	-14.727652	144.686611	-14.727652	144.686611	-1.558400	-132.917957
9.950000	-0.921806	-105.068870	-14.308710	139.131043	-14.308710	139.131043	-1.896297	-138.870797
10.000000	-0.975711	-106.432782	-13.814168	132.406857	-13.814168	132.406857	-2.419137	-146.217790
