! freq	dB(S11)	phase(S11)	dB(S12)	phase(S12)	
!     	dB(S21)	phase(S21)	dB(S22)	phase(S22)	
!S-par simulation data
#  GHz  S  DB  R 50
0.000000	-84.662290	0.000000	-0.000508	0.000000	-0.000508	0.000000	-84.662290	0.000000
0.050000	-35.140590	-92.905118	-0.004289	-2.989000	-0.004289	-2.989000	-35.139984	-92.802348
0.100000	-29.132033	-96.094789	-0.014138	-5.961389	-0.014138	-5.961389	-29.131390	-95.889253
0.150000	-25.629951	-99.211351	-0.027463	-8.914404	-0.027463	-8.914404	-25.629253	-98.903087
0.200000	-23.157668	-102.299971	-0.042696	-11.853490	-0.042696	-11.853490	-23.156905	-101.889007
0.250000	-21.252915	-105.366915	-0.059434	-14.783035	-0.059434	-14.783035	-21.252084	-104.853251
0.300000	-19.709406	-108.413274	-0.077726	-17.705292	-0.077726	-17.705292	-19.708514	-107.796856
0.350000	-18.416067	-111.439963	-0.097661	-20.620982	-0.097661	-20.620982	-18.415126	-110.720676
0.400000	-17.307001	-114.447068	-0.119361	-23.529673	-0.119361	-23.529673	-17.306027	-113.624721
0.450000	-16.340273	-117.434161	-0.142960	-26.430257	-0.142960	-26.430257	-16.339286	-116.508472
0.500000	-15.485707	-120.402907	-0.168366	-29.322302	-0.168366	-29.322302	-15.484725	-119.373529
0.550000	-14.722431	-123.354100	-0.195539	-32.205039	-0.195539	-32.205039	-14.721472	-122.220618
0.600000	-14.035708	-126.287850	-0.224479	-35.077258	-0.224479	-35.077258	-14.034786	-125.049762
0.650000	-13.413193	-129.205694	-0.255024	-37.938682	-0.255024	-37.938682	-13.412320	-127.862458
0.700000	-12.845600	-132.108646	-0.287046	-40.788905	-0.287046	-40.788905	-12.844783	-130.659677
0.750000	-12.326096	-134.997066	-0.320456	-43.627138	-0.320456	-43.627138	-12.325339	-133.441719
0.800000	-11.848757	-137.871744	-0.355106	-46.453069	-0.355106	-46.453069	-11.848062	-136.209342
0.850000	-11.408611	-140.733506	-0.390839	-49.266609	-0.390839	-49.266609	-11.407975	-138.963345
0.900000	-11.001641	-143.582951	-0.427505	-52.067646	-0.427505	-52.067646	-11.001060	-141.704304
0.950000	-10.624549	-146.420534	-0.464962	-54.856075	-0.464962	-54.856075	-10.624018	-144.432645
1.000000	-10.274492	-149.246708	-0.503062	-57.631923	-0.503062	-57.631923	-10.274003	-147.148799
1.050000	-9.949028	-152.061890	-0.541660	-60.395298	-0.541660	-60.395298	-9.948574	-149.853160
1.100000	-9.646047	-154.866467	-0.580614	-63.146382	-0.580614	-63.146382	-9.645620	-152.546093
1.150000	-9.363705	-157.660809	-0.619786	-65.885430	-0.619786	-65.885430	-9.363297	-155.227950
1.200000	-9.100380	-160.445280	-0.659041	-68.612761	-0.659041	-68.612761	-9.099984	-157.899071
1.250000	-8.854637	-163.220243	-0.698253	-71.328755	-0.698253	-71.328755	-8.854248	-160.559798
1.300000	-8.625402	-165.985878	-0.737289	-74.033620	-0.737289	-74.033620	-8.625014	-163.210270
1.350000	-8.411308	-168.742775	-0.776040	-76.728094	-0.776040	-76.728094	-8.410918	-165.851072
1.400000	-8.211320	-171.491332	-0.814397	-79.412707	-0.814397	-79.412707	-8.210926	-168.482580
1.450000	-8.024501	-174.231967	-0.852260	-82.088034	-0.852260	-82.088034	-8.024103	-171.105187
1.500000	-7.849997	-176.965117	-0.889536	-84.754683	-0.889536	-84.754683	-7.849597	-173.719307
1.550000	-7.687029	-179.691241	-0.926139	-87.413289	-0.926139	-87.413289	-7.686632	-176.325375
1.600000	-7.534882	177.589179	-0.961992	-90.064519	-0.961992	-90.064519	-7.534493	-178.923847
1.650000	-7.392894	174.875639	-0.997025	-92.709056	-0.997025	-92.709056	-7.392523	178.484797
1.700000	-7.260458	172.167615	-1.031173	-95.347605	-1.031173	-95.347605	-7.260113	175.900057
1.750000	-7.137008	169.464560	-1.064384	-97.980882	-1.064384	-97.980882	-7.136701	173.321409
1.800000	-7.022018	166.765908	-1.096607	-100.609614	-1.096607	-100.609614	-7.021761	170.748309
1.850000	-6.914997	164.071075	-1.127804	-103.234537	-1.127804	-103.234537	-6.914805	168.180192
1.900000	-6.816336	161.379821	-1.157774	-105.856064	-1.157774	-105.856064	-6.816226	165.617009
1.950000	-6.723929	158.690731	-1.186810	-108.475677	-1.186810	-108.475677	-6.723915	163.057034
2.000000	-6.638192	156.003594	-1.214741	-111.093714	-1.214741	-111.093714	-6.638290	160.500222
2.050000	-6.558742	153.317768	-1.241554	-113.710909	-1.241554	-113.710909	-6.558968	157.945940
2.100000	-6.485220	150.632601	-1.267244	-116.327991	-1.267244	-116.327991	-6.485587	155.393537
2.150000	-6.417282	147.947435	-1.291809	-118.945678	-1.291809	-118.945678	-6.417806	152.842354
2.200000	-6.354603	145.261605	-1.315256	-121.564682	-1.315256	-121.564682	-6.355297	150.291716
2.250000	-6.296874	142.574446	-1.337595	-124.185699	-1.337595	-124.185699	-6.297748	147.740940
2.300000	-6.243800	139.885289	-1.358843	-126.809416	-1.358843	-126.809416	-6.244862	145.189334
2.350000	-6.195097	137.193470	-1.379022	-129.436503	-1.379022	-129.436503	-6.196352	142.636198
2.400000	-6.150493	134.498328	-1.398158	-132.067614	-1.398158	-132.067614	-6.151944	140.080825
2.450000	-6.109728	131.799207	-1.416284	-134.703385	-1.416284	-134.703385	-6.111371	137.522506
2.500000	-6.072550	129.095464	-1.433434	-137.344438	-1.433434	-137.344438	-6.074378	134.960525
2.550000	-6.038842	126.386206	-1.449609	-139.991654	-1.449609	-139.991654	-6.040843	132.393942
2.600000	-6.008220	123.671018	-1.464898	-142.645383	-1.464898	-142.645383	-6.010378	129.822198
2.650000	-5.980455	120.949300	-1.479348	-145.306181	-1.479348	-145.306181	-5.982745	127.244578
2.700000	-5.955322	118.220474	-1.493012	-147.974584	-1.493012	-147.974584	-5.957714	124.660366
2.750000	-5.932601	115.483982	-1.505944	-150.651108	-1.505944	-150.651108	-5.935060	122.068851
2.800000	-5.912077	112.739292	-1.518202	-153.336244	-1.518202	-153.336244	-5.914562	119.469326
2.850000	-5.893538	109.985901	-1.529847	-156.030465	-1.529847	-156.030465	-5.896001	116.861091
2.900000	-5.876775	107.223334	-1.540942	-158.734219	-1.540942	-158.734219	-5.879162	114.243452
2.950000	-5.861581	104.451149	-1.551554	-161.447931	-1.551554	-161.447931	-5.863835	111.615721
3.000000	-5.847752	101.668939	-1.561749	-164.172006	-1.561749	-164.172006	-5.849811	108.977222
3.050000	-5.835084	98.876332	-1.571599	-166.906825	-1.571599	-166.906825	-5.836883	106.327287
3.100000	-5.823374	96.072995	-1.581176	-169.652748	-1.581176	-169.652748	-5.824850	103.665262
3.150000	-5.812422	93.258634	-1.590553	-172.410111	-1.590553	-172.410111	-5.813512	100.990504
3.200000	-5.802024	90.432995	-1.599805	-175.179231	-1.599805	-175.179231	-5.802676	98.302389
3.250000	-5.791981	87.595868	-1.609011	-177.960402	-1.609011	-177.960402	-5.792152	95.600313
3.300000	-5.782091	84.747083	-1.618247	179.246105	-1.618247	179.246105	-5.781760	92.883705
3.350000	-5.772151	81.886509	-1.627593	176.440036	-1.627593	176.440036	-5.771326	90.152040
3.400000	-5.761961	79.014060	-1.637130	173.621161	-1.637130	173.621161	-5.760689	87.404861
3.450000	-5.751318	76.129687	-1.646940	170.789269	-1.646940	170.789269	-5.749697	84.641821
3.500000	-5.740021	73.233380	-1.657105	167.944168	-1.657105	167.944168	-5.738211	81.862731
3.550000	-5.727869	70.325164	-1.667709	165.085685	-1.667709	165.085685	-5.726091	79.067621
3.600000	-5.714662	67.405095	-1.678836	162.213669	-1.678836	162.213669	-5.713192	76.256790
3.650000	-5.700200	64.473259	-1.690571	159.327986	-1.690571	159.327986	-5.699332	73.430804
3.700000	-5.684287	61.529766	-1.703001	156.428518	-1.703001	156.428518	-5.684273	70.590387
3.750000	-5.666729	58.574745	-1.716212	153.515170	-1.716212	153.515170	-5.667705	67.736172
3.800000	-5.647245	55.607851	-1.730333	150.587253	-1.730333	150.587253	-5.649157	64.867753
3.850000	-5.625724	52.629739	-1.745419	147.645311	-1.745419	147.645311	-5.628325	61.985212
3.900000	-5.601988	49.640562	-1.761560	144.689305	-1.761560	144.689305	-5.604905	59.087501
3.950000	-5.575868	46.640470	-1.778846	141.719213	-1.778846	141.719213	-5.578693	56.173392
4.000000	-5.547202	43.629604	-1.797367	138.735031	-1.797367	138.735031	-5.549573	53.241808
4.050000	-5.515842	40.608088	-1.817216	135.736776	-1.817216	135.736776	-5.517490	50.292016
4.100000	-5.481649	37.576026	-1.838484	132.724482	-1.838484	132.724482	-5.482418	47.323645
4.150000	-5.444502	34.533497	-1.861266	129.698204	-1.861266	129.698204	-5.444339	44.336619
4.200000	-5.404294	31.480550	-1.885655	126.658019	-1.885655	126.658019	-5.403235	41.331062
4.250000	-5.360934	28.417200	-1.911746	123.604022	-1.911746	123.604022	-5.359087	38.307220
4.300000	-5.314351	25.343423	-1.939634	120.536332	-1.939634	120.536332	-5.311878	35.265407
4.350000	-5.264493	22.259147	-1.969416	117.455091	-1.969416	117.455091	-5.261597	32.205973
4.400000	-5.211329	19.164243	-2.001188	114.360464	-2.001188	114.360464	-5.208245	29.129287
4.450000	-5.154850	16.058505	-2.035046	111.252640	-2.035046	111.252640	-5.151836	26.035730
4.500000	-5.095075	12.941624	-2.071089	108.131834	-2.071089	108.131834	-5.092399	22.925694
4.550000	-5.032055	9.813154	-2.109412	104.998287	-2.109412	104.998287	-5.029983	19.799579
4.600000	-4.965891	6.672489	-2.150113	101.852266	-2.150113	101.852266	-4.964654	16.657800
4.650000	-4.896763	3.518913	-2.193288	98.694065	-2.193288	98.694065	-4.896498	13.500789
4.700000	-4.824962	0.351856	-2.239031	95.524005	-2.239031	95.524005	-4.825623	10.328991
4.750000	-4.750890	-2.828548	-2.287438	92.342436	-2.287438	92.342436	-4.752152	7.142874
4.800000	-4.674970	-6.020810	-2.338602	89.149733	-2.338602	89.149733	-4.676228	3.942925
4.850000	-4.597443	-9.222210	-2.392613	85.946300	-2.392613	85.946300	-4.598014	0.729654
4.900000	-4.518256	-12.430302	-2.449560	82.732564	-2.449560	82.732564	-4.517685	-2.496407
4.950000	-4.437217	-15.644484	-2.509531	79.508979	-2.509531	79.508979	-4.435434	-5.734702
5.000000	-4.354266	-18.865765	-2.572607	76.276019	-2.572607	76.276019	-4.351463	-8.984652
5.050000	-4.269354	-22.096263	-2.639094	73.033502	-2.639094	73.033502	-4.265815	-12.246505
5.100000	-4.183174	-25.335260	-2.708595	69.783422	-2.708595	69.783422	-4.179097	-15.517795
5.150000	-4.095689	-28.584562	-2.781603	66.525052	-2.781603	66.525052	-4.091220	-18.799455
5.200000	-4.007393	-31.843247	-2.857922	63.259666	-2.857922	63.259666	-4.002599	-22.089918
5.250000	-3.918512	-35.111509	-2.937718	59.987538	-2.937718	59.987538	-3.913405	-25.388866
5.300000	-3.829294	-38.389253	-3.021106	56.709095	-3.021106	56.709095	-3.823849	-28.695794
5.350000	-3.740078	-41.675469	-3.107926	53.425336	-3.107926	53.425336	-3.734249	-32.009475
5.400000	-3.650995	-44.971030	-3.198595	50.136084	-3.198595	50.136084	-3.644716	-35.330175
5.450000	-3.562376	-48.274164	-3.292687	46.842699	-3.292687	46.842699	-3.555586	-38.656197
5.500000	-3.474365	-51.586193	-3.390756	43.544863	-3.390756	43.544863	-3.466991	-41.988010
5.550000	-3.387194	-54.905510	-3.492381	40.243724	-3.492381	40.243724	-3.379177	-45.324177
5.600000	-3.301050	-58.232855	-3.597890	36.939329	-3.597890	36.939329	-3.292330	-48.664714
5.650000	-3.216091	-61.567683	-3.707168	33.632251	-3.707168	33.632251	-3.206621	-52.008936
5.700000	-3.132475	-64.909965	-3.820240	30.322841	-3.820240	30.322841	-3.122214	-55.356463
5.750000	-3.050381	-68.260187	-3.937268	27.011270	-3.937268	27.011270	-3.039295	-58.707173
5.800000	-2.969848	-71.617589	-4.058011	23.697999	-4.058011	23.697999	-2.957914	-62.060507
5.850000	-2.891159	-74.983771	-4.182878	20.382897	-4.182878	20.382897	-2.878355	-65.416822
5.900000	-2.814213	-78.357492	-4.311484	17.066374	-4.311484	17.066374	-2.800529	-68.775576
5.950000	-2.739313	-81.740672	-4.444216	13.748168	-4.444216	13.748168	-2.724738	-72.137346
6.000000	-2.666359	-85.132650	-4.580846	10.428421	-4.580846	10.428421	-2.650888	-75.501959
6.050000	-2.595530	-88.534837	-4.721564	7.106836	-4.721564	7.106836	-2.579159	-78.870010
6.100000	-2.526855	-91.947833	-4.866392	3.783187	-4.866392	3.783187	-2.509579	-82.241912
6.150000	-2.460317	-95.372130	-5.015331	0.457200	-5.015331	0.457200	-2.442134	-85.618130
6.200000	-2.396118	-98.809996	-5.168624	-2.871853	-5.168624	-2.871853	-2.377021	-88.999916
6.250000	-2.334012	-102.260550	-5.326126	-6.204041	-5.326126	-6.204041	-2.313996	-92.387295
6.300000	-2.274409	-105.728343	-5.488291	-9.540888	-5.488291	-9.540888	-2.253461	-95.782836
6.350000	-2.216923	-109.211531	-5.654942	-12.882250	-5.654942	-12.882250	-2.195034	-99.186164
6.400000	-2.161855	-112.714547	-5.826491	-16.229862	-5.826491	-16.229862	-2.139009	-102.600132
6.450000	-2.109015	-116.237402	-6.003006	-19.584141	-6.003006	-19.584141	-2.085195	-106.025335
6.500000	-2.058471	-119.783001	-6.184796	-22.946508	-6.184796	-22.946508	-2.033660	-109.464069
6.550000	-2.010249	-123.354085	-6.372191	-26.318380	-6.372191	-26.318380	-1.984427	-112.918636
6.600000	-1.964179	-126.951091	-6.565406	-29.700321	-6.565406	-29.700321	-1.937326	-116.389955
6.650000	-1.920510	-130.580657	-6.765096	-33.095337	-6.765096	-33.095337	-1.892606	-119.883072
6.700000	-1.878906	-134.240842	-6.971431	-36.502982	-6.971431	-36.502982	-1.849934	-123.397359
6.750000	-1.839560	-137.938398	-7.185184	-39.926332	-7.185184	-39.926332	-1.809504	-126.938193
6.800000	-1.802368	-141.675450	-7.406914	-43.366500	-7.406914	-43.366500	-1.771217	-130.507829
6.850000	-1.767302	-145.455653	-7.637358	-46.825153	-7.637358	-46.825153	-1.735051	-134.109662
6.900000	-1.734386	-149.284281	-7.877461	-50.304524	-7.877461	-50.304524	-1.701035	-137.748408
6.950000	-1.703593	-153.165885	-8.128246	-53.806341	-8.128246	-53.806341	-1.669153	-141.428342
7.000000	-1.674848	-157.103790	-8.390776	-57.331571	-8.390776	-57.331571	-1.639339	-145.152828
7.050000	-1.648013	-161.098812	-8.666045	-60.879961	-8.666045	-60.879961	-1.611464	-148.923187
7.100000	-1.623270	-165.162718	-8.956100	-64.455185	-8.956100	-64.455185	-1.585730	-152.749712
7.150000	-1.600523	-169.298348	-9.262506	-68.056814	-9.262506	-68.056814	-1.562055	-156.635567
7.200000	-1.579782	-173.512298	-9.587389	-71.685144	-9.587389	-71.685144	-1.540468	-160.587082
7.250000	-1.561081	-177.812500	-9.933323	-75.339823	-9.933323	-75.339823	-1.521028	-164.611860
7.300000	-1.544379	177.796472	-10.302932	-79.018209	-10.302932	-79.018209	-1.503717	-168.714765
7.350000	-1.529692	173.307688	-10.699502	-82.716764	-10.699502	-82.716764	-1.488580	-172.902775
7.400000	-1.517047	168.713909	-11.126887	-86.429781	-11.126887	-86.429781	-1.475677	-177.183291
7.450000	-1.506483	164.007611	-11.589636	-90.148552	-11.589636	-90.148552	-1.465084	178.435868
7.500000	-1.498046	159.181040	-12.093137	-93.860211	-12.093137	-93.860211	-1.456888	173.946479
7.550000	-1.491870	154.221584	-12.644367	-97.544301	-12.644367	-97.544301	-1.451286	169.335606
7.600000	-1.487950	149.125410	-13.250498	-101.173188	-13.250498	-101.173188	-1.448313	164.598064
7.650000	-1.486357	143.884563	-13.920689	-104.706514	-13.920689	-104.706514	-1.448100	159.724638
7.700000	-1.487164	138.491281	-14.665923	-108.085616	-14.665923	-108.085616	-1.450785	154.705952
7.750000	-1.490439	132.938179	-15.499305	-111.224311	-15.499305	-111.224311	-1.456503	149.532586
7.800000	-1.496236	127.218462	-16.436223	-113.994133	-16.436223	-113.994133	-1.465380	144.195238
7.850000	-1.504648	121.321587	-17.493769	-116.178248	-17.493769	-116.178248	-1.477603	138.680216
7.900000	-1.515618	115.245581	-18.687553	-117.464635	-18.687553	-117.464635	-1.493172	132.981746
7.950000	-1.529047	108.988680	-20.025023	-117.366999	-20.025023	-117.366999	-1.512048	127.093752
8.000000	-1.544782	102.549412	-21.483812	-115.135237	-21.483812	-115.135237	-1.534123	121.009797
8.050000	-1.562566	95.928395	-22.960103	-109.757758	-22.960103	-109.757758	-1.559169	114.724909
8.100000	-1.582026	89.128630	-24.182793	-100.411716	-24.182793	-100.411716	-1.586808	108.235925
8.150000	-1.602658	82.152890	-24.701254	-87.893011	-24.701254	-87.893011	-1.616506	101.538329
8.200000	-1.623764	75.010100	-24.282614	-75.774518	-24.282614	-75.774518	-1.647464	94.633819
8.250000	-1.644516	67.714703	-23.227609	-67.299983	-23.227609	-67.299983	-1.678680	87.530506
8.300000	-1.663976	60.280893	-21.969081	-63.048979	-21.969081	-63.048979	-1.708998	80.236047
8.350000	-1.681173	52.726963	-20.767327	-62.097196	-20.767327	-62.097196	-1.737162	72.763896
8.400000	-1.694929	45.067617	-19.723577	-63.529795	-19.723577	-63.529795	-1.761646	65.121731
8.450000	-1.704247	37.326041	-18.866081	-66.535840	-18.866081	-66.535840	-1.781058	57.330742
8.500000	-1.708136	29.524034	-18.195599	-70.628736	-18.195599	-70.628736	-1.793973	49.410965
8.550000	-1.706126	21.685912	-17.698613	-75.452636	-17.698613	-75.452636	-1.799578	41.390718
8.600000	-1.697600	13.833367	-17.371349	-80.808896	-17.371349	-80.808896	-1.796849	33.293482
8.650000	-1.682449	5.989527	-17.208509	-86.533900	-17.208509	-86.533900	-1.785387	25.148751
8.700000	-1.661045	-1.823979	-17.205189	-92.500352	-17.205189	-92.500352	-1.765411	16.987488
8.750000	-1.633996	-9.586815	-17.362500	-98.610549	-17.362500	-98.610549	-1.737471	8.840068
8.800000	-1.602149	-17.278493	-17.688606	-104.778207	-17.688606	-104.778207	-1.702429	0.737837
8.850000	-1.566753	-24.882499	-18.191563	-110.918323	-18.191563	-110.918323	-1.661743	-7.290484
8.900000	-1.529104	-32.383052	-18.889542	-116.941990	-18.889542	-116.941990	-1.616958	-15.217698
8.950000	-1.490553	-39.764155	-19.813752	-122.735172	-19.813752	-122.735172	-1.569719	-23.016814
9.000000	-1.452463	-47.013436	-21.010091	-128.136355	-21.010091	-128.136355	-1.521747	-30.665535
9.050000	-1.415999	-54.125079	-22.550696	-132.902892	-22.550696	-132.902892	-1.474581	-38.150643
9.100000	-1.382287	-61.084215	-24.574491	-136.464706	-24.574491	-136.464706	-1.429642	-45.449242
9.150000	-1.352141	-67.886879	-27.327794	-137.473974	-27.327794	-137.473974	-1.388056	-52.552662
9.200000	-1.326142	-74.530103	-31.277590	-131.440637	-31.277590	-131.440637	-1.350650	-59.454657
9.250000	-1.304681	-81.011529	-36.203643	-99.986045	-36.203643	-99.986045	-1.318015	-66.150610
9.300000	-1.287960	-87.330589	-34.626338	-45.168210	-34.626338	-45.168210	-1.290503	-72.638820
9.350000	-1.276013	-93.488355	-29.690978	-25.908498	-29.690978	-25.908498	-1.268261	-78.920159
9.400000	-1.268820	-99.484687	-26.172488	-22.863866	-26.172488	-22.863866	-1.251350	-84.994270
9.450000	-1.266165	-105.323615	-23.645166	-24.224432	-23.645166	-24.224432	-1.239603	-90.866363
9.500000	-1.267687	-111.012796	-21.713734	-27.196948	-21.713734	-27.196948	-1.232667	-96.546413
9.550000	-1.273058	-116.557961	-20.170627	-30.896649	-20.170627	-30.896649	-1.230219	-102.041963
9.600000	-1.281930	-121.965455	-18.899145	-34.948393	-18.899145	-34.948393	-1.231898	-107.361331
9.650000	-1.293944	-127.242046	-17.827796	-39.169446	-17.827796	-39.169446	-1.237324	-112.513341
9.700000	-1.308767	-132.393756	-16.910000	-43.462301	-16.910000	-43.462301	-1.246144	-117.505817
9.750000	-1.326089	-137.426007	-16.113801	-47.770469	-16.113801	-47.770469	-1.258027	-122.345766
9.800000	-1.345521	-142.349127	-15.414786	-52.061017	-15.414786	-52.061017	-1.272537	-127.046403
9.850000	-1.366769	-147.170141	-14.795517	-56.315059	-14.795517	-56.315059	-1.289349	-131.616687
9.900000	-1.389565	-151.895892	-14.242624	-60.521278	-14.242624	-60.521278	-1.308161	-136.065314
9.950000	-1.413663	-156.532976	-13.745624	-64.673121	-13.745624	-64.673121	-1.328699	-140.400655
10.000000	-1.438844	-161.087702	-13.296134	-68.767112	-13.296134	-68.767112	-1.350714	-144.630710
