! freq	dB(S11)	phase(S11)	dB(S12)	phase(S12)	
!     	dB(S21)	phase(S21)	dB(S22)	phase(S22)	
!S-par simulation data
#  GHz  S  DB  R 50
0.000000	-87.020216	0.000000	-0.000387	0.000000	-0.000387	0.000000	-87.020216	0.000000
0.050000	-32.502274	-93.270371	-0.005805	-3.127376	-0.005805	-3.127376	-32.519480	-93.075084
0.100000	-26.520381	-96.612091	-0.018994	-6.225750	-0.018994	-6.225750	-26.526584	-96.279905
0.150000	-23.046823	-99.844425	-0.036439	-9.298348	-0.036439	-9.298348	-23.046409	-99.397674
0.200000	-20.602372	-103.031582	-0.057327	-12.354722	-0.057327	-12.354722	-20.599748	-102.454986
0.250000	-18.724184	-106.194391	-0.081829	-15.398354	-0.081829	-15.398354	-18.721723	-105.465712
0.300000	-17.206468	-109.336556	-0.110129	-18.428625	-0.110129	-18.428625	-17.205298	-108.441165
0.350000	-15.939480	-112.456539	-0.142235	-21.443447	-0.142235	-21.443447	-15.940120	-111.389402
0.400000	-14.857407	-115.552512	-0.177967	-24.440648	-0.177967	-24.440648	-14.859957	-114.315238
0.450000	-13.918921	-118.622142	-0.217211	-27.417160	-0.217211	-27.417160	-13.923118	-117.219371
0.500000	-13.094396	-121.665512	-0.259569	-30.371358	-0.259569	-30.371358	-13.099688	-120.101512
0.550000	-12.364135	-124.681392	-0.304772	-33.300269	-0.304772	-33.300269	-12.369848	-122.958438
0.600000	-11.712118	-127.670602	-0.352301	-36.202933	-0.352301	-36.202933	-11.717683	-125.788457
0.650000	-11.127241	-130.632587	-0.401689	-39.077613	-0.401689	-39.077613	-11.132283	-128.589164
0.700000	-10.599967	-133.567963	-0.452386	-41.924638	-0.452386	-41.924638	-10.604334	-131.360268
0.750000	-10.123177	-136.476708	-0.503946	-44.744524	-0.503946	-44.744524	-10.126873	-134.101410
0.800000	-9.690850	-139.359179	-0.556047	-47.538472	-0.556047	-47.538472	-9.693973	-136.812934
0.850000	-9.297972	-142.215879	-0.608479	-50.307431	-0.608479	-50.307431	-9.300654	-139.495383
0.900000	-8.940451	-145.047265	-0.661059	-53.051675	-0.661059	-53.051675	-8.942828	-142.149180
0.950000	-8.614829	-147.853914	-0.713566	-55.771166	-0.713566	-55.771166	-8.617024	-144.774787
1.000000	-8.318207	-150.636468	-0.765725	-58.465809	-0.765725	-58.465809	-8.320324	-147.372637
1.050000	-8.047867	-153.396015	-0.817243	-61.136066	-0.817243	-61.136066	-8.049990	-149.943604
1.100000	-7.801587	-156.133568	-0.867812	-63.782468	-0.867812	-63.782468	-7.803778	-152.488413
1.150000	-7.577596	-158.850045	-0.917114	-66.405561	-0.917114	-66.405561	-7.579901	-155.007606
1.200000	-7.373791	-161.547221	-0.964917	-69.006935	-0.964917	-69.006935	-7.376242	-157.502739
1.250000	-7.188946	-164.226100	-1.010931	-71.587362	-1.010931	-71.587362	-7.191562	-159.974362
1.300000	-7.022057	-166.887784	-1.054861	-74.147724	-1.054861	-74.147724	-7.024848	-162.423042
1.350000	-6.871664	-169.534200	-1.096532	-76.689857	-1.096532	-76.689857	-6.874631	-164.850381
1.400000	-6.736767	-172.166954	-1.135745	-79.215219	-1.135745	-79.215219	-6.739903	-167.257516
1.450000	-6.616486	-174.787723	-1.172323	-81.725331	-1.172323	-81.725331	-6.619778	-169.645620
1.500000	-6.510054	-177.398249	-1.206105	-84.221761	-1.206105	-84.221761	-6.513484	-172.015892
1.550000	-6.416802	179.999665	-1.236953	-86.706117	-1.236953	-86.706117	-6.420348	-174.369546
1.600000	-6.336152	177.404159	-1.264745	-89.180037	-1.264745	-89.180037	-6.339785	-176.707802
1.650000	-6.267608	174.813320	-1.289374	-91.645183	-1.289374	-91.645183	-6.271299	-179.031876
1.700000	-6.210754	172.225184	-1.310754	-94.103234	-1.310754	-94.103234	-6.214466	178.657027
1.750000	-6.165242	169.637736	-1.328813	-96.555883	-1.328813	-96.555883	-6.168937	176.357724
1.800000	-6.130794	167.048912	-1.343496	-99.004829	-1.343496	-99.004829	-6.134429	174.069063
1.850000	-6.107197	164.456597	-1.354763	-101.451778	-1.354763	-101.451778	-6.110724	171.789931
1.900000	-6.094413	161.858538	-1.362553	-103.898451	-1.362553	-103.898451	-6.097778	169.519346
1.950000	-6.092348	159.252433	-1.366855	-106.346609	-1.366855	-106.346609	-6.095494	167.256275
2.000000	-6.100854	156.636059	-1.367715	-108.797952	-1.367715	-108.797952	-6.103717	164.999700
2.050000	-6.119958	154.007065	-1.365154	-111.254168	-1.365154	-111.254168	-6.122467	162.748779
2.100000	-6.149743	151.363028	-1.359208	-113.716934	-1.359208	-113.716934	-6.151819	160.502774
2.150000	-6.190350	148.701450	-1.349927	-116.187912	-1.349927	-116.187912	-6.191906	158.261057
2.200000	-6.241980	146.019740	-1.337377	-118.668746	-1.337377	-118.668746	-6.242917	156.023139
2.250000	-6.304894	143.315208	-1.321639	-121.161057	-1.321639	-121.161057	-6.305102	153.788684
2.300000	-6.379417	140.585053	-1.302809	-123.666442	-1.302809	-123.666442	-6.378771	151.557535
2.350000	-6.465939	137.826339	-1.280997	-126.186466	-1.280997	-126.186466	-6.464295	149.329748
2.400000	-6.564919	135.035981	-1.256330	-128.722661	-1.256330	-128.722661	-6.562114	147.105620
2.450000	-6.676888	132.210717	-1.228949	-131.276514	-1.228949	-131.276514	-6.672734	144.885733
2.500000	-6.802459	129.347077	-1.199014	-133.849469	-1.199014	-133.849469	-6.796739	142.671001
2.550000	-6.942600	126.440344	-1.166645	-136.443391	-1.166645	-136.443391	-6.935057	140.462907
2.600000	-7.097838	123.487321	-1.132093	-139.059184	-1.132093	-139.059184	-7.088176	138.263139
2.650000	-7.269059	120.483630	-1.095564	-141.698099	-1.095564	-141.698099	-7.256931	136.074042
2.700000	-7.457258	117.424462	-1.057280	-144.361304	-1.057280	-144.361304	-7.442254	133.898613
2.750000	-7.663548	114.304488	-1.017480	-147.049876	-1.017480	-147.049876	-7.645182	131.740624
2.800000	-7.889173	111.117737	-0.976416	-149.764792	-0.976416	-149.764792	-7.866864	129.604773
2.850000	-8.135521	107.857449	-0.934357	-152.506914	-0.934357	-152.506914	-8.108572	127.496873
2.900000	-8.404142	104.515877	-0.891585	-155.276977	-0.891585	-155.276977	-8.371710	125.424082
2.950000	-8.696765	101.084037	-0.848395	-158.075583	-0.848395	-158.075583	-8.657825	123.395198
3.000000	-9.015317	97.551380	-0.805091	-160.903179	-0.805091	-160.903179	-8.968613	121.421022
3.050000	-9.361946	93.905363	-0.761991	-163.760056	-0.761991	-163.760056	-9.305928	119.514827
3.100000	-9.739044	90.130879	-0.719418	-166.646325	-0.719418	-166.646325	-9.671783	117.692949
3.150000	-10.149430	86.207652	-0.677712	-169.562235	-0.677712	-169.562235	-10.068488	115.976974
3.200000	-10.596014	82.111941	-0.637218	-172.507505	-0.637218	-172.507505	-10.498300	114.392962
3.250000	-11.081818	77.816359	-0.598262	-175.481337	-0.598262	-175.481337	-10.963403	112.971410
3.300000	-11.610267	73.284124	-0.561173	-178.483043	-0.561173	-178.483043	-11.466088	111.751915
3.350000	-12.184932	68.468011	-0.526274	178.488273	-0.526274	178.488273	-12.008414	110.784231
3.400000	-12.809316	63.306766	-0.493878	175.433719	-0.493878	175.433719	-12.591863	110.131018
3.450000	-13.486440	57.720291	-0.464285	172.354613	-0.464285	172.354613	-13.216770	109.871106
3.500000	-14.218019	51.603419	-0.437775	169.252472	-0.437775	169.252472	-13.881348	110.102964
3.550000	-15.002947	44.818503	-0.414609	166.129005	-0.414609	166.129005	-14.580119	110.947372
3.600000	-15.834545	37.188393	-0.395022	162.986104	-0.395022	162.986104	-15.301476	112.546909
3.650000	-16.695876	28.494747	-0.379221	159.825820	-0.379221	159.825820	-16.024223	115.057218
3.700000	-17.552523	18.493958	-0.367382	156.650350	-0.367382	156.650350	-16.713489	118.621483
3.750000	-18.343828	6.974411	-0.359644	153.462014	-0.359644	153.462014	-17.317906	123.317769
3.800000	-18.972051	-6.143847	-0.356205	150.263054	-0.356205	150.263054	-17.767316	129.094234
3.850000	-19.333425	-20.506659	-0.357036	147.056231	-0.357036	147.056231	-18.000526	135.616600
3.900000	-19.350443	-35.363516	-0.362158	143.844051	-0.362158	143.844051	-17.978868	142.359776
3.950000	-19.021166	-49.759663	-0.371551	140.629015	-0.371551	140.629015	-17.707704	148.725730
4.000000	-18.420083	-62.937577	-0.385152	137.413582	-0.385152	137.413582	-17.233455	154.235671
4.050000	-17.653064	-74.559963	-0.402862	134.200133	-0.402862	134.200133	-16.621962	158.638333
4.100000	-16.815801	-84.685637	-0.424430	130.990749	-0.424430	130.990749	-15.938462	161.925650
4.150000	-15.964824	-93.420217	-0.449935	127.787945	-0.449935	127.787945	-15.225091	164.117102
4.200000	-15.141396	-101.063696	-0.479035	124.593550	-0.479035	124.593550	-14.518034	165.402844
4.250000	-14.363420	-107.837918	-0.511497	121.409364	-0.511497	121.409364	-13.836221	165.937272
4.300000	-13.638079	-113.923535	-0.547067	118.236994	-0.547067	118.236994	-13.189748	165.858670
4.350000	-12.966715	-119.461051	-0.585472	115.077837	-0.585472	115.077837	-12.583145	165.282740
4.400000	-12.347766	-124.554836	-0.626438	111.933200	-0.626438	111.933200	-12.017676	164.300378
4.450000	-11.778291	-129.288133	-0.669655	108.804066	-0.669655	108.804066	-11.492757	162.987611
4.500000	-11.254664	-133.726120	-0.714795	105.691045	-0.714795	105.691045	-11.006648	161.406039
4.550000	-10.773236	-137.916210	-0.761544	102.594645	-0.761544	102.594645	-10.557154	159.601725
4.600000	-10.330505	-141.895282	-0.809590	99.515159	-0.809590	99.515159	-10.141912	157.611138
4.650000	-9.923218	-145.692312	-0.858622	96.452670	-0.858622	96.452670	-9.758553	155.463204
4.700000	-9.548394	-149.330306	-0.908337	93.407061	-0.908337	93.407061	-9.404793	153.180897
4.750000	-9.203326	-152.827717	-0.958438	90.378025	-0.958438	90.378025	-9.078477	150.782482
4.800000	-8.885573	-156.199498	-1.008641	87.365078	-1.008641	87.365078	-8.777602	148.282457
4.850000	-8.592928	-159.457883	-1.058674	84.367565	-1.058674	84.367565	-8.500316	145.692295
4.900000	-8.323403	-162.612972	-1.108280	81.384682	-1.108280	81.384682	-8.244921	143.021010
4.950000	-8.075204	-165.673171	-1.157219	78.415479	-1.157219	78.415479	-8.009858	140.275606
5.000000	-7.846707	-168.645527	-1.205267	75.458880	-1.205267	75.458880	-7.793703	137.461423
5.050000	-7.636707	-171.534324	-1.252185	72.513909	-1.252185	72.513909	-7.595418	134.581075
5.100000	-7.443582	-174.346459	-1.297817	69.578985	-1.297817	69.578985	-7.413524	131.638777
5.150000	-7.266114	-177.086178	-1.341996	66.652712	-1.341996	66.652712	-7.246928	128.636278
5.200000	-7.103192	-179.757105	-1.384581	63.733612	-1.384581	63.733612	-7.094624	125.574493
5.250000	-6.953795	177.637665	-1.425448	60.820137	-1.425448	60.820137	-6.955687	122.453623
5.300000	-6.816985	175.095501	-1.464498	57.910678	-1.464498	57.910678	-6.829266	119.273243
5.350000	-6.691890	172.614168	-1.501650	55.003576	-1.501650	55.003576	-6.714566	116.032387
5.400000	-6.577701	170.191786	-1.536849	52.097130	-1.536849	52.097130	-6.610851	112.729608
5.450000	-6.473659	167.826787	-1.570057	49.189607	-1.570057	49.189607	-6.517427	109.363042
5.500000	-6.379045	165.517885	-1.601264	46.279250	-1.601264	46.279250	-6.433641	105.930456
5.550000	-6.293179	163.264040	-1.630480	43.364286	-1.630480	43.364286	-6.358870	102.429293
5.600000	-6.215402	161.064439	-1.657737	40.442936	-1.657737	40.442936	-6.292514	98.856718
5.650000	-6.145148	158.919038	-1.683072	37.513316	-1.683072	37.513316	-6.234064	95.208811
5.700000	-6.081775	156.827379	-1.706569	34.573603	-1.706569	34.573603	-6.182929	91.482190
5.750000	-6.024588	154.788577	-1.728355	31.622144	-1.728355	31.622144	-6.138457	87.674242
5.800000	-5.972967	152.802438	-1.748559	28.657234	-1.748559	28.657234	-6.100068	83.781451
5.850000	-5.926283	150.868839	-1.767336	25.677209	-1.767336	25.677209	-6.067171	79.800262
5.900000	-5.883897	148.987690	-1.784864	22.680463	-1.784864	22.680463	-6.039157	75.727144
5.950000	-5.845151	147.158889	-1.801346	19.665462	-1.801346	19.665462	-6.015391	71.558658
6.000000	-5.809365	145.382269	-1.817009	16.630751	-1.817009	16.630751	-5.995206	67.291539
6.050000	-5.775806	143.656427	-1.832112	13.575465	-1.832112	13.575465	-5.977856	62.925058
6.100000	-5.743821	141.983421	-1.846910	10.497285	-1.846910	10.497285	-5.962712	58.451499
6.150000	-5.712597	140.361117	-1.861719	7.395682	-1.861719	7.395682	-5.948910	53.871476
6.200000	-5.681352	138.788467	-1.876860	4.269699	-1.876860	4.269699	-5.935624	49.183434
6.250000	-5.649284	137.264022	-1.892676	1.118550	-1.892676	1.118550	-5.921984	44.386551
6.300000	-5.615551	135.786339	-1.909545	-2.058648	-1.909545	-2.058648	-5.907062	39.479697
6.350000	-5.579346	134.352412	-1.927839	-5.262007	-1.927839	-5.262007	-5.889929	34.465135
6.400000	-5.539795	132.959775	-1.947987	-8.492115	-1.947987	-8.492115	-5.869577	29.343402
6.450000	-5.496213	131.603587	-1.970348	-11.748166	-1.970348	-11.748166	-5.845152	24.120853
6.500000	-5.447988	130.279145	-1.995274	-15.029410	-1.995274	-15.029410	-5.815867	18.803638
6.550000	-5.394195	128.982953	-2.023313	-18.336493	-2.023313	-18.336493	-5.780592	13.393238
6.600000	-5.334299	127.708756	-2.054861	-21.668140	-2.054861	-21.668140	-5.738580	7.898775
6.650000	-5.267854	126.450122	-2.090316	-25.023002	-2.090316	-25.023002	-5.689167	2.329835
6.700000	-5.194530	125.200319	-2.130071	-28.399519	-2.130071	-28.399519	-5.631812	-3.303040
6.750000	-5.114121	123.952368	-2.174509	-31.795900	-2.174509	-31.795900	-5.566109	-8.988388
6.800000	-5.026572	122.699143	-2.223994	-35.210075	-2.223994	-35.210075	-5.491825	-14.713799
6.850000	-4.931988	121.433559	-2.278860	-38.639701	-2.278860	-38.639701	-5.408914	-20.466149
6.900000	-4.830587	120.148608	-2.339438	-42.082237	-2.339438	-42.082237	-5.317472	-26.231871
6.950000	-4.722784	118.837734	-2.405992	-45.534814	-2.405992	-45.534814	-5.217838	-31.997023
7.000000	-4.609172	117.495189	-2.478713	-48.994341	-2.478713	-48.994341	-5.110581	-37.747975
7.050000	-4.490413	116.115846	-2.557770	-52.457642	-2.557770	-52.457642	-4.996374	-43.471606
7.100000	-4.367265	114.695418	-2.643285	-55.921424	-2.643285	-55.921424	-4.876022	-49.155473
7.150000	-4.240549	113.230528	-2.735325	-59.382320	-2.735325	-59.382320	-4.750428	-54.788021
7.200000	-4.111117	111.718612	-2.833919	-62.836909	-2.833919	-62.836909	-4.620550	-60.358546
7.250000	-3.979836	110.157905	-2.939057	-66.281712	-2.939057	-66.281712	-4.487380	-65.857190
7.300000	-3.847607	108.548225	-3.050600	-69.713467	-3.050600	-69.713467	-4.351977	-71.276362
7.350000	-3.715263	106.889838	-3.168407	-73.128966	-3.168407	-73.128966	-4.215325	-76.609206
7.400000	-3.583585	105.183749	-3.292290	-76.525146	-3.292290	-76.525146	-4.078361	-81.850077
7.450000	-3.453291	103.431600	-3.422020	-79.899121	-3.422020	-79.899121	-3.941950	-86.994494
7.500000	-3.325025	101.635558	-3.557326	-83.248216	-3.557326	-83.248216	-3.806881	-92.039067
7.550000	-3.199367	99.797790	-3.697936	-86.569661	-3.697936	-86.569661	-3.673856	-96.980281
7.600000	-3.076797	97.921674	-3.843480	-89.861538	-3.843480	-89.861538	-3.543485	-101.817772
7.650000	-2.957715	96.010311	-3.993608	-93.121918	-3.993608	-93.121918	-3.416274	-106.550899
7.700000	-2.842442	94.066922	-4.147950	-96.349138	-4.147950	-96.349138	-3.292637	-111.179725
7.750000	-2.731304	92.094062	-4.306143	-99.540833	-4.306143	-99.540833	-3.172969	-115.702140
7.800000	-2.624348	90.096327	-4.467757	-102.697580	-4.467757	-102.697580	-3.057404	-120.124415
7.850000	-2.521748	88.076231	-4.632428	-105.817752	-4.632428	-105.817752	-2.946159	-124.445942
7.900000	-2.423568	86.036801	-4.799771	-108.900708	-4.799771	-108.900708	-2.839343	-128.668731
7.950000	-2.329824	83.980915	-4.969409	-111.946035	-4.969409	-111.946035	-2.737008	-132.795094
8.000000	-2.240493	81.911277	-5.140970	-114.953526	-5.140970	-114.953526	-2.639156	-136.827577
8.050000	-2.155517	79.830406	-5.314097	-117.923166	-5.314097	-117.923166	-2.545750	-140.768916
8.100000	-2.074814	77.740632	-5.488445	-120.855113	-5.488445	-120.855113	-2.456718	-144.621981
8.150000	-1.998312	75.644039	-5.663652	-123.749274	-5.663652	-123.749274	-2.371998	-148.388852
8.200000	-1.925887	73.542634	-5.839392	-126.606113	-5.839392	-126.606113	-2.291467	-152.072668
8.250000	-1.857364	71.438239	-6.015402	-129.426604	-6.015402	-129.426604	-2.214950	-155.677424
8.300000	-1.792597	69.332432	-6.191403	-132.211413	-6.191403	-132.211413	-2.142297	-159.206197
8.350000	-1.731524	67.226666	-6.367016	-134.960300	-6.367016	-134.960300	-2.073439	-162.660028
8.400000	-1.673679	65.122043	-6.542421	-137.677561	-6.542421	-137.677561	-2.007905	-166.049048
8.450000	-1.619372	63.019999	-6.716739	-140.358843	-6.716739	-140.358843	-1.945990	-169.365674
8.500000	-1.568057	60.921157	-6.890342	-143.009505	-6.890342	-143.009505	-1.887141	-172.621733
8.550000	-1.519800	58.826674	-7.062691	-145.628019	-7.062691	-145.628019	-1.831409	-175.815226
8.600000	-1.474401	56.737232	-7.233691	-148.215947	-7.233691	-148.215947	-1.778582	-178.950101
8.650000	-1.431621	54.653294	-7.403364	-150.775416	-7.403364	-150.775416	-1.728410	177.968746
8.700000	-1.391557	52.576028	-7.571082	-153.304618	-7.571082	-153.304618	-1.680971	174.943915
8.750000	-1.353722	50.504926	-7.737473	-155.808838	-7.737473	-155.808838	-1.635775	171.964928
8.800000	-1.318457	48.441935	-7.901334	-158.283348	-7.901334	-158.283348	-1.593133	169.039710
8.850000	-1.285193	46.385870	-8.063620	-160.734680	-8.063620	-160.734680	-1.552479	166.155870
8.900000	-1.254130	44.338256	-8.223432	-163.159892	-8.223432	-163.159892	-1.513987	163.318062
8.950000	-1.224977	42.298594	-8.381157	-165.562263	-8.381157	-165.562263	-1.477361	160.520000
9.000000	-1.197705	40.267446	-8.536504	-167.941814	-8.536504	-167.941814	-1.442556	157.761146
9.050000	-1.172253	38.245183	-8.689276	-170.299024	-8.689276	-170.299024	-1.409497	155.040212
9.100000	-1.148407	36.231300	-8.839790	-172.636426	-8.839790	-172.636426	-1.377967	152.352492
9.150000	-1.126298	34.227152	-8.987262	-174.952132	-8.987262	-174.952132	-1.348065	149.700720
9.200000	-1.105585	32.231287	-9.132513	-177.250407	-9.132513	-177.250407	-1.319467	147.077495
9.250000	-1.086477	30.245579	-9.274472	-179.528477	-9.274472	-179.528477	-1.292338	144.486990
9.300000	-1.068664	28.268503	-9.413960	178.209695	-9.413960	178.209695	-1.266387	141.922501
9.350000	-1.052240	26.301208	-9.550313	175.965293	-9.550313	175.965293	-1.241677	139.385647
9.400000	-1.037072	24.343202	-9.683753	173.736568	-9.683753	173.736568	-1.218076	136.873419
9.450000	-1.023109	22.394529	-9.814215	171.522730	-9.814215	171.522730	-1.195523	134.384378
9.500000	-1.010368	20.455770	-9.941333	169.323840	-9.941333	169.323840	-1.174014	131.918452
9.550000	-0.998674	18.525844	-10.065623	167.137508	-10.065623	167.137508	-1.153388	129.471833
9.600000	-0.988172	16.606423	-10.186142	164.965214	-10.186142	164.965214	-1.133745	127.046712
9.650000	-0.978621	14.695672	-10.303783	162.803766	-10.303783	162.803766	-1.114876	124.638178
9.700000	-0.970160	12.795251	-10.417612	160.654375	-10.417612	160.654375	-1.096873	122.248116
9.750000	-0.962625	10.903864	-10.528220	158.514764	-10.528220	158.514764	-1.079592	119.873123
9.800000	-0.956057	9.022239	-10.635154	156.384876	-10.635154	156.384876	-1.063049	117.513285
9.850000	-0.950411	7.150178	-10.738427	154.263687	-10.738427	154.263687	-1.047194	115.167243
9.900000	-0.945627	5.287294	-10.838151	152.150009	-10.838151	152.150009	-1.031965	112.833445
9.950000	-0.941767	3.434481	-10.933770	150.043636	-10.933770	150.043636	-1.017388	110.512039
10.000000	-0.938676	1.590250	-11.025956	147.942661	-11.025956	147.942661	-1.003342	108.200329
