! freq	dB(S11)	phase(S11)	dB(S12)	phase(S12)	
!     	dB(S21)	phase(S21)	dB(S22)	phase(S22)	
!S-par simulation data
#  GHz  S  DB  R 50
0.000000	-0.000000	-0.000000	-380.033279	180.000000	-380.033279	180.000000	-0.000000	-0.000000
0.050000	-0.000121	-0.950693	-112.564203	88.580227	-112.564203	88.580227	-0.000119	-0.950580
0.100000	-0.000478	-1.901083	-106.634973	87.273412	-106.634973	87.273412	-0.000470	-1.900868
0.150000	-0.001056	-2.850894	-103.250221	86.135659	-103.250221	86.135659	-0.001039	-2.850593
0.200000	-0.001833	-3.799892	-100.922129	85.165236	-100.922129	85.165236	-0.001805	-3.799529
0.250000	-0.002793	-4.747818	-99.189861	84.347312	-99.189861	84.347312	-0.002753	-4.747418
0.300000	-0.003889	-5.694621	-97.836468	83.646392	-97.836468	83.646392	-0.003838	-5.694207
0.350000	-0.005101	-6.640165	-96.758753	83.058752	-96.758753	83.058752	-0.005041	-6.639756
0.400000	-0.006402	-7.584392	-95.894459	82.586957	-95.894459	82.586957	-0.006334	-7.584005
0.450000	-0.007766	-8.527281	-95.205306	82.245348	-95.205306	82.245348	-0.007694	-8.526924
0.500000	-0.009172	-9.468836	-94.666888	82.059359	-94.666888	82.059359	-0.009098	-9.468513
0.550000	-0.010602	-10.409078	-94.263487	82.066140	-94.263487	82.066140	-0.010528	-10.408788
0.600000	-0.012042	-11.348037	-93.985182	82.316815	-93.985182	82.316815	-0.011971	-11.347776
0.650000	-0.013481	-12.285750	-93.826058	82.880731	-93.826058	82.880731	-0.013415	-12.285509
0.700000	-0.014911	-13.222250	-93.782862	83.852208	-93.782862	83.852208	-0.014851	-13.222021
0.750000	-0.016327	-14.157570	-93.853585	85.360581	-93.853585	85.360581	-0.016274	-14.157342
0.800000	-0.017726	-15.091735	-94.035353	87.584261	-94.035353	87.584261	-0.017680	-15.091498
0.850000	-0.019106	-16.024765	-94.320598	90.768264	-94.320598	90.768264	-0.019067	-16.024510
0.900000	-0.020465	-16.956673	-94.689743	95.239328	-94.689743	95.239328	-0.020434	-16.956391
0.950000	-0.021805	-17.887467	-95.098075	101.397423	-95.098075	101.397423	-0.021780	-17.887150
1.000000	-0.023125	-18.817147	-95.456460	109.630904	-95.456460	109.630904	-0.023107	-18.816790
1.050000	-0.024427	-19.745710	-95.617125	120.077343	-95.617125	120.077343	-0.024414	-19.745307
1.100000	-0.025713	-20.673147	-95.399658	132.240887	-95.399658	132.240887	-0.025704	-20.672694
1.150000	-0.026982	-21.599444	-94.687536	144.806943	-94.687536	144.806943	-0.026978	-21.598940
1.200000	-0.028238	-22.524586	-93.523171	156.182871	-93.523171	156.182871	-0.028237	-22.524030
1.250000	-0.029481	-23.448554	-92.072049	165.405281	-92.072049	165.405281	-0.029482	-23.447945
1.300000	-0.030712	-24.371274	-90.492262	172.285030	-90.492262	172.285030	-0.030715	-24.370613
1.350000	-0.031934	-25.292774	-88.914324	177.291875	-88.914324	177.291875	-0.031938	-25.292063
1.400000	-0.033146	-26.213030	-87.392423	-179.146614	-87.392423	-179.146614	-0.033151	-26.212271
1.450000	-0.034352	-27.132018	-85.948004	-176.670775	-85.948004	-176.670775	-0.034356	-27.131212
1.500000	-0.035550	-28.049711	-84.585959	-175.007590	-84.585959	-175.007590	-0.035554	-28.048861
1.550000	-0.036743	-28.966084	-83.303656	-173.957441	-83.303656	-173.957441	-0.036746	-28.965192
1.600000	-0.037931	-29.881110	-82.095474	-173.375688	-82.095474	-173.375688	-0.037933	-29.880180
1.650000	-0.039115	-30.794763	-80.954936	-173.157063	-80.954936	-173.157063	-0.039116	-30.793797
1.700000	-0.040295	-31.707017	-79.875661	-173.224126	-79.875661	-173.224126	-0.040296	-31.706018
1.750000	-0.041473	-32.617846	-78.851759	-173.519138	-78.851759	-173.519138	-0.041472	-32.616816
1.800000	-0.042648	-33.527224	-77.877945	-173.998433	-77.877945	-173.998433	-0.042646	-33.526167
1.850000	-0.043823	-34.435125	-76.949546	-174.628517	-76.949546	-174.628517	-0.043819	-34.434043
1.900000	-0.044996	-35.341526	-76.062457	-175.383346	-76.062457	-175.383346	-0.044991	-35.340421
1.950000	-0.046168	-36.246400	-75.213073	-176.242410	-75.213073	-176.242410	-0.046162	-36.245275
2.000000	-0.047340	-37.149725	-74.398230	-177.189363	-74.398230	-177.189363	-0.047334	-37.148582
2.050000	-0.048513	-38.051477	-73.615141	-178.211033	-73.615141	-178.211033	-0.048506	-38.050317
2.100000	-0.049687	-38.951633	-72.861347	-179.296695	-72.861347	-179.296695	-0.049678	-38.950458
2.150000	-0.050862	-39.850170	-72.134667	179.562466	-72.134667	179.562466	-0.050853	-39.848982
2.200000	-0.052038	-40.747068	-71.433162	178.373759	-71.433162	178.373759	-0.052029	-40.745868
2.250000	-0.053217	-41.642304	-70.755099	177.143293	-70.755099	177.143293	-0.053207	-41.641093
2.300000	-0.054398	-42.535858	-70.098927	175.876214	-70.098927	175.876214	-0.054388	-42.534638
2.350000	-0.055582	-43.427712	-69.463250	174.576886	-69.463250	174.576886	-0.055572	-43.426483
2.400000	-0.056769	-44.317844	-68.846806	173.249036	-68.846806	173.249036	-0.056759	-44.316607
2.450000	-0.057961	-45.206237	-68.248455	171.895864	-68.248455	171.895864	-0.057951	-45.204993
2.500000	-0.059156	-46.092873	-67.667159	170.520135	-67.667159	170.520135	-0.059146	-46.091622
2.550000	-0.060356	-46.977657	-67.101078	169.123471	-67.101078	169.123471	-0.060347	-46.976400
2.600000	-0.061561	-47.860648	-66.550336	167.708909	-66.550336	167.708909	-0.061553	-47.859385
2.650000	-0.062772	-48.741830	-66.014129	166.278257	-66.014129	166.278257	-0.062764	-48.740562
2.700000	-0.063989	-49.621189	-65.491719	164.833108	-65.491719	164.833108	-0.063981	-49.619916
2.750000	-0.065212	-50.498710	-64.982427	163.374872	-64.982427	163.374872	-0.065205	-50.497433
2.800000	-0.066442	-51.374379	-64.485626	161.904803	-64.485626	161.904803	-0.066436	-51.373097
2.850000	-0.067679	-52.248183	-64.000735	160.424021	-64.000735	160.424021	-0.067674	-52.246896
2.900000	-0.068924	-53.120109	-63.527216	158.933524	-63.527216	158.933524	-0.068920	-53.118818
2.950000	-0.070177	-53.990145	-63.064567	157.434213	-63.064567	157.434213	-0.070174	-53.988850
3.000000	-0.071439	-54.858281	-62.612323	155.926895	-62.612323	155.926895	-0.071436	-54.856982
3.050000	-0.072709	-55.724505	-62.170049	154.412301	-62.170049	154.412301	-0.072708	-55.723202
3.100000	-0.073990	-56.588809	-61.737338	152.891092	-61.737338	152.891092	-0.073989	-56.587502
3.150000	-0.075280	-57.451181	-61.313810	151.363869	-61.313810	151.363869	-0.075280	-57.449871
3.200000	-0.076581	-58.311615	-60.899108	149.831176	-60.899108	149.831176	-0.076582	-58.310301
3.250000	-0.077892	-59.170102	-60.492896	148.293512	-60.492896	148.293512	-0.077894	-59.168785
3.300000	-0.079216	-60.026635	-60.094859	146.751332	-60.094859	146.751332	-0.079218	-60.025315
3.350000	-0.080551	-60.881208	-59.704699	145.205053	-59.704699	145.205053	-0.080554	-60.879885
3.400000	-0.081898	-61.733814	-59.322137	143.655056	-59.322137	143.655056	-0.081902	-61.732488
3.450000	-0.083258	-62.584448	-58.946907	142.101693	-58.946907	142.101693	-0.083263	-62.583120
3.500000	-0.084632	-63.433107	-58.578759	140.545288	-58.578759	140.545288	-0.084637	-63.431776
3.550000	-0.086019	-64.279785	-58.217456	138.986138	-58.217456	138.986138	-0.086025	-64.278452
3.600000	-0.087421	-65.124479	-57.862774	137.424521	-57.862774	137.424521	-0.087427	-65.123145
3.650000	-0.088837	-65.967188	-57.514499	135.860690	-57.514499	135.860690	-0.088844	-65.965852
3.700000	-0.090268	-66.807909	-57.172427	134.294883	-57.172427	134.294883	-0.090276	-66.806572
3.750000	-0.091716	-67.646640	-56.836368	132.727320	-56.836368	132.727320	-0.091724	-67.645303
3.800000	-0.093180	-68.483295	-56.505846	131.158144	-56.505846	131.158144	-0.093188	-68.481958
3.850000	-0.094661	-69.317960	-56.181000	129.587621	-56.181000	129.587621	-0.094669	-69.316622
3.900000	-0.096159	-70.150636	-55.861661	128.015926	-55.861661	128.015926	-0.096167	-70.149298
3.950000	-0.097674	-70.981323	-55.547669	126.443222	-55.547669	126.443222	-0.097683	-70.979987
4.000000	-0.099208	-71.810025	-55.238871	124.869663	-55.238871	124.869663	-0.099217	-71.808689
4.050000	-0.100760	-72.636742	-54.935120	123.295389	-54.935120	123.295389	-0.100769	-72.635408
4.100000	-0.102331	-73.461479	-54.636278	121.720537	-54.636278	121.720537	-0.102340	-73.460147
4.150000	-0.103922	-74.284240	-54.342209	120.145229	-54.342209	120.145229	-0.103931	-74.282910
4.200000	-0.105533	-75.105027	-54.052785	118.569585	-54.052785	118.569585	-0.105542	-75.103700
4.250000	-0.107164	-75.923847	-53.767884	116.993714	-53.767884	116.993714	-0.107173	-75.922523
4.300000	-0.108816	-76.740705	-53.487387	115.417720	-53.487387	115.417720	-0.108825	-76.739384
4.350000	-0.110490	-77.555607	-53.211182	113.841700	-53.211182	113.841700	-0.110498	-77.554289
4.400000	-0.112185	-78.368559	-52.939160	112.265747	-52.939160	112.265747	-0.112193	-78.367245
4.450000	-0.113903	-79.179569	-52.671216	110.689946	-52.671216	110.689946	-0.113911	-79.178260
4.500000	-0.115643	-79.988644	-52.407249	109.114379	-52.407249	109.114379	-0.115651	-79.987340
4.550000	-0.117407	-80.795793	-52.147164	107.539123	-52.147164	107.539123	-0.117414	-80.794493
4.600000	-0.119199	-81.600695	-51.890217	105.964337	-51.890217	105.964337	-0.119206	-81.599400
4.650000	-0.121015	-82.403605	-51.636848	104.390026	-51.636848	104.390026	-0.121022	-82.402315
4.700000	-0.122845	-83.205529	-51.388829	102.816008	-51.388829	102.816008	-0.122852	-83.204245
4.750000	-0.124714	-84.004495	-51.142353	101.242874	-51.142353	101.242874	-0.124720	-84.003217
4.800000	-0.126592	-84.802812	-50.901537	99.669977	-50.901537	99.669977	-0.126598	-84.801539
4.850000	-0.128515	-85.597882	-50.661669	98.098270	-50.661669	98.098270	-0.128520	-85.596616
4.900000	-0.130442	-86.392633	-50.427714	96.526700	-50.427714	96.526700	-0.130448	-86.391372
4.950000	-0.132421	-87.183860	-50.194186	94.956642	-50.194186	94.956642	-0.132426	-87.182605
5.000000	-0.134400	-87.975088	-49.966772	93.386585	-49.966772	93.386585	-0.134405	-87.973839
5.050000	-0.136436	-88.762531	-49.739334	91.818378	-49.739334	91.818378	-0.136441	-88.761288
5.100000	-0.138473	-89.549974	-49.517700	90.250170	-49.517700	90.250170	-0.138477	-89.548737
5.150000	-0.140564	-90.334004	-49.296582	88.683825	-49.296582	88.683825	-0.140568	-90.332773
5.200000	-0.142661	-91.117724	-49.080510	87.117648	-49.080510	87.117648	-0.142665	-91.116498
5.250000	-0.144809	-91.898396	-48.865431	85.553299	-48.865431	85.553299	-0.144812	-91.897176
5.300000	-0.146967	-92.678459	-48.654718	83.989315	-48.654718	83.989315	-0.146970	-92.677245
5.350000	-0.149173	-93.455832	-48.445414	82.427087	-48.445414	82.427087	-0.149176	-93.454623
5.400000	-0.151395	-94.232309	-48.239868	80.865443	-48.239868	80.865443	-0.151397	-94.231105
5.450000	-0.153660	-95.006444	-48.036092	79.305449	-48.036092	79.305449	-0.153663	-95.005244
5.500000	-0.155947	-95.779409	-47.835531	77.746278	-47.835531	77.746278	-0.155950	-95.778213
5.550000	-0.158274	-96.550370	-47.637054	76.188621	-47.637054	76.188621	-0.158276	-96.549178
5.600000	-0.160628	-97.319901	-47.441306	74.632044	-47.441306	74.632044	-0.160630	-97.318712
5.650000	-0.163017	-98.087755	-47.247911	73.076819	-47.247911	73.076819	-0.163019	-98.086569
5.700000	-0.165441	-98.853933	-47.056811	71.522945	-47.056811	71.522945	-0.165443	-98.852750
5.750000	-0.167894	-99.618751	-46.868297	69.970239	-46.868297	69.970239	-0.167896	-99.617569
5.800000	-0.170388	-100.381662	-46.681691	68.419168	-46.681691	68.419168	-0.170390	-100.380481
5.850000	-0.172907	-101.143514	-46.497865	66.869061	-46.497865	66.869061	-0.172909	-101.142334
5.900000	-0.175474	-101.903248	-46.315606	65.320882	-46.315606	65.320882	-0.175476	-101.902068
5.950000	-0.178060	-102.662210	-46.136289	63.773447	-46.136289	63.773447	-0.178062	-102.661029
6.000000	-0.180702	-103.418858	-45.958237	62.228242	-45.958237	62.228242	-0.180704	-103.417676
6.050000	-0.183356	-104.175007	-45.783260	60.683545	-45.783260	60.683545	-0.183359	-104.173823
6.100000	-0.186074	-104.928665	-45.609281	59.141387	-45.609281	59.141387	-0.186076	-104.927478
6.150000	-0.188799	-105.682081	-45.438483	57.599489	-45.438483	57.599489	-0.188801	-105.680891
6.200000	-0.191594	-106.432847	-45.268450	56.060445	-45.268450	56.060445	-0.191597	-106.431653
6.250000	-0.194390	-107.183614	-45.101682	54.521400	-45.101682	54.521400	-0.194394	-107.182414
6.300000	-0.197265	-107.931590	-44.935473	52.985528	-44.935473	52.985528	-0.197269	-107.930384
6.350000	-0.200141	-108.679567	-44.772385	51.449655	-44.772385	51.449655	-0.200145	-108.678354
6.400000	-0.203091	-109.425082	-44.610090	49.916737	-44.610090	49.916737	-0.203095	-109.423862
6.450000	-0.206048	-110.170373	-44.450575	48.384087	-44.450575	48.384087	-0.206052	-110.169145
6.500000	-0.209074	-110.913517	-44.292056	46.854161	-44.292056	46.854161	-0.209078	-110.912279
6.550000	-0.212114	-111.656231	-44.136009	45.324780	-44.136009	45.324780	-0.212118	-111.654983
6.600000	-0.215217	-112.397095	-43.981135	43.797878	-43.981135	43.797878	-0.215221	-112.395836
6.650000	-0.218341	-113.137342	-43.828457	42.271802	-43.828457	42.271802	-0.218346	-113.136071
6.700000	-0.221523	-113.876020	-43.677105	40.747951	-43.677105	40.747951	-0.221528	-113.874736
6.750000	-0.224734	-114.613913	-43.527701	39.225212	-43.527701	39.225212	-0.224739	-114.612616
6.800000	-0.227995	-115.350501	-43.379753	37.704435	-43.379753	37.704435	-0.228001	-115.349189
6.850000	-0.231294	-116.086157	-43.233531	36.185058	-43.233531	36.185058	-0.231300	-116.084829
6.900000	-0.234637	-116.820753	-43.088876	34.667370	-43.088876	34.667370	-0.234643	-116.819409
6.950000	-0.238024	-117.554289	-42.945749	33.151373	-42.945749	33.151373	-0.238030	-117.552928
7.000000	-0.241450	-118.286992	-42.804280	31.636787	-42.804280	31.636787	-0.241456	-118.285614
7.050000	-0.244928	-119.018530	-42.664165	30.124180	-42.664165	30.124180	-0.244934	-119.017133
7.100000	-0.248438	-119.749443	-42.525781	28.612703	-42.525781	28.612703	-0.248444	-119.748027
7.150000	-0.252008	-120.479106	-42.388597	27.103489	-42.388597	27.103489	-0.252014	-120.477670
7.200000	-0.255602	-121.208332	-42.253202	25.595123	-42.253202	25.595123	-0.255609	-121.206875
7.250000	-0.259266	-121.936247	-42.118872	24.089300	-42.118872	24.089300	-0.259273	-121.934768
7.300000	-0.262947	-122.663891	-41.986375	22.584040	-41.986375	22.584040	-0.262953	-122.662391
7.350000	-0.266705	-123.390186	-41.854825	21.081598	-41.854825	21.081598	-0.266712	-123.388662
7.400000	-0.270473	-124.116356	-41.725140	19.579435	-41.725140	19.579435	-0.270480	-124.114810
7.450000	-0.274328	-124.841161	-41.596299	18.080356	-41.596299	18.080356	-0.274335	-124.839591
7.500000	-0.278185	-125.565966	-41.469342	16.581276	-41.469342	16.581276	-0.278191	-125.564372
7.550000	-0.282137	-126.289415	-41.343144	15.085535	-41.343144	15.085535	-0.282143	-126.287797
7.600000	-0.286091	-127.012864	-41.218753	13.589793	-41.218753	13.589793	-0.286097	-127.011221
7.650000	-0.290134	-127.735195	-41.095216	12.097082	-41.095216	12.097082	-0.290140	-127.733526
7.700000	-0.294186	-128.457423	-40.973330	10.604647	-40.973330	10.604647	-0.294192	-128.455730
7.750000	-0.298321	-129.178750	-40.852379	9.114933	-40.852379	9.114933	-0.298327	-129.177032
7.800000	-0.302474	-129.899897	-40.732941	7.625765	-40.732941	7.625765	-0.302479	-129.898153
7.850000	-0.306701	-130.620336	-40.614504	6.139011	-40.614504	6.139011	-0.306706	-130.618568
7.900000	-0.310954	-131.340541	-40.497458	4.653062	-40.497458	4.653062	-0.310960	-131.338747
7.950000	-0.315275	-132.060212	-40.381469	3.169223	-40.381469	3.169223	-0.315280	-132.058394
8.000000	-0.319631	-132.779617	-40.266762	1.686440	-40.266762	1.686440	-0.319635	-132.777774
8.050000	-0.324046	-133.498640	-40.153156	0.205468	-40.153156	0.205468	-0.324050	-133.496774
8.100000	-0.328504	-134.217391	-40.040739	-1.274210	-40.040739	-1.274210	-0.328508	-134.215501
8.150000	-0.333015	-134.935888	-39.929457	-2.752370	-39.929457	-2.752370	-0.333018	-134.933975
8.200000	-0.337577	-135.654131	-39.819283	-4.229011	-39.819283	-4.229011	-0.337580	-135.652197
8.250000	-0.342183	-136.372226	-39.710267	-5.704418	-39.710267	-5.704418	-0.342186	-136.370271
8.300000	-0.346850	-137.090112	-39.602293	-7.178097	-39.602293	-7.178097	-0.346853	-137.088137
8.350000	-0.351553	-137.807929	-39.495490	-8.650815	-39.495490	-8.650815	-0.351555	-137.805936
8.400000	-0.356325	-138.525610	-39.389675	-10.121612	-39.389675	-10.121612	-0.356327	-138.523600
8.450000	-0.361125	-139.243278	-39.285034	-11.591710	-39.285034	-11.591710	-0.361127	-139.241251
8.500000	-0.366003	-139.960908	-39.181342	-13.059713	-39.181342	-13.059713	-0.366005	-139.958867
8.550000	-0.370901	-140.678556	-39.078816	-14.527264	-39.078816	-14.527264	-0.370902	-140.676502
8.600000	-0.375886	-141.396292	-38.977211	-15.992564	-38.977211	-15.992564	-0.375887	-141.394228
8.650000	-0.380882	-142.114050	-38.876757	-17.457646	-38.876757	-17.457646	-0.380883	-142.111977
8.700000	-0.385973	-142.832051	-38.777208	-18.920339	-38.777208	-18.920339	-0.385974	-142.829973
8.750000	-0.391068	-143.550052	-38.678786	-20.383032	-38.678786	-20.383032	-0.391069	-143.547969
8.800000	-0.396267	-144.268481	-38.581264	-21.843220	-38.581264	-21.843220	-0.396268	-144.266397
8.850000	-0.401469	-144.986909	-38.484825	-23.303408	-38.484825	-23.303408	-0.401470	-144.984826
8.900000	-0.406766	-145.705880	-38.389317	-24.761395	-38.389317	-24.761395	-0.406768	-145.703802
8.950000	-0.412076	-146.424899	-38.294837	-26.219183	-38.294837	-26.219183	-0.412078	-146.422828
9.000000	-0.417473	-147.144551	-38.201313	-27.675058	-38.201313	-27.675058	-0.417475	-147.142492
9.050000	-0.422890	-147.864329	-38.108772	-29.130552	-38.108772	-29.130552	-0.422893	-147.862283
9.100000	-0.428386	-148.584802	-38.017200	-30.584406	-38.017200	-30.584406	-0.428390	-148.582776
9.150000	-0.433911	-149.305508	-37.926582	-32.037713	-37.926582	-32.037713	-0.433916	-149.303503
9.200000	-0.439506	-150.026946	-37.836938	-33.489637	-37.836938	-33.489637	-0.439512	-150.024969
9.250000	-0.445138	-150.748751	-37.748229	-34.940868	-37.748229	-34.940868	-0.445145	-150.746804
9.300000	-0.450832	-151.471299	-37.660490	-36.390950	-37.660490	-36.390950	-0.450841	-151.469389
9.350000	-0.456571	-152.194378	-37.573680	-37.840213	-37.573680	-37.840213	-0.456582	-152.192509
9.400000	-0.462363	-152.918183	-37.487826	-39.288544	-37.487826	-39.288544	-0.462376	-152.916360
9.450000	-0.468209	-153.642714	-37.402909	-40.735944	-37.402909	-40.735944	-0.468224	-153.640943
9.500000	-0.474099	-154.367925	-37.318924	-42.182612	-37.318924	-42.182612	-0.474117	-154.366211
9.550000	-0.480051	-155.094087	-37.235897	-43.628253	-37.235897	-43.628253	-0.480071	-155.092437
9.600000	-0.486038	-155.820854	-37.153767	-45.073341	-37.153767	-45.073341	-0.486062	-155.819274
9.650000	-0.492095	-156.548832	-37.072630	-46.517321	-37.072630	-46.517321	-0.492122	-156.547329
9.700000	-0.498179	-157.277309	-36.992346	-47.960910	-36.992346	-47.960910	-0.498210	-157.275888
9.750000	-0.504339	-158.007287	-36.913103	-49.403322	-36.913103	-49.403322	-0.504375	-158.005959
9.800000	-0.510519	-158.737629	-36.834657	-50.845487	-36.834657	-50.845487	-0.510560	-158.736397
9.850000	-0.516782	-159.469796	-36.757315	-52.286415	-36.757315	-52.286415	-0.516828	-159.468673
9.900000	-0.523057	-160.202161	-36.680703	-53.727226	-36.680703	-53.727226	-0.523108	-160.201149
9.950000	-0.529421	-160.936708	-36.605274	-55.166746	-36.605274	-55.166746	-0.529478	-160.935824
10.000000	-0.535789	-161.671256	-36.530494	-56.606265	-36.530494	-56.606265	-0.535853	-161.670499
