! freq	dB(S11)	phase(S11)	dB(S12)	phase(S12)	
!     	dB(S21)	phase(S21)	dB(S22)	phase(S22)	
!S-par simulation data
#  GHz  S  DB  R 50
0.000000	-88.117496	0.000000	-0.000341	0.000000	-0.000341	0.000000	-88.117496	0.000000
0.050000	-30.305797	-93.357692	-0.007627	-3.340922	-0.007627	-3.340922	-30.307428	-93.521169
0.100000	-24.321123	-96.770372	-0.025871	-6.647656	-0.025871	-6.647656	-24.322130	-97.100134
0.150000	-20.851118	-100.080256	-0.051278	-9.923524	-0.051278	-9.923524	-20.851668	-100.578291
0.200000	-18.414398	-103.314856	-0.083068	-13.177329	-0.083068	-13.177329	-18.414796	-103.980726
0.250000	-16.546326	-106.493741	-0.121431	-16.410314	-0.121431	-16.410314	-16.546772	-107.325498
0.300000	-15.039995	-109.630946	-0.166339	-19.620170	-0.166339	-19.620170	-15.040565	-110.626353
0.350000	-13.786074	-112.732924	-0.217670	-22.802879	-0.217670	-22.802879	-13.786796	-113.890060
0.400000	-12.718360	-115.802903	-0.274901	-25.955480	-0.274901	-25.955480	-12.719259	-117.120464
0.450000	-11.795481	-118.839735	-0.337685	-29.073775	-0.337685	-29.073775	-11.796606	-120.317056
0.500000	-10.987394	-121.843125	-0.405281	-32.156310	-0.405281	-32.156310	-10.988793	-123.480214
0.550000	-10.274239	-124.809931	-0.477216	-35.199764	-0.477216	-35.199764	-10.275932	-126.607366
0.600000	-9.639613	-127.739390	-0.552758	-38.203954	-0.552758	-38.203954	-9.641547	-129.698027
0.650000	-9.072233	-130.628945	-0.631366	-41.167060	-0.631366	-41.167060	-9.074261	-132.749551
0.700000	-8.562308	-133.478073	-0.712421	-44.089361	-0.712421	-44.089361	-8.564207	-135.760843
0.750000	-8.102765	-136.285284	-0.795394	-46.970009	-0.795394	-46.970009	-8.104286	-138.729532
0.800000	-7.687009	-139.051184	-0.879753	-49.810011	-0.879753	-49.810011	-7.687956	-141.655391
0.850000	-7.310200	-141.775502	-0.965006	-52.609289	-0.965006	-52.609289	-7.310475	-144.537560
0.900000	-6.967776	-144.459390	-1.050693	-55.368977	-1.050693	-55.368977	-6.967385	-147.377055
0.950000	-6.656204	-147.103515	-1.136373	-58.089609	-1.136373	-58.089609	-6.655230	-150.174644
1.000000	-6.372351	-149.709027	-1.221622	-60.772123	-1.221622	-60.772123	-6.370915	-152.931692
1.050000	-6.113504	-152.277269	-1.306038	-63.417614	-1.306038	-63.417614	-6.111734	-155.649727
1.100000	-5.877303	-154.809745	-1.389241	-66.027332	-1.389241	-66.027332	-5.875313	-158.330330
1.150000	-5.661683	-157.308087	-1.470872	-68.602666	-1.470872	-68.602666	-5.659567	-160.975098
1.200000	-5.464834	-159.774030	-1.550598	-71.145123	-1.550598	-71.145123	-5.462660	-163.585638
1.250000	-5.285158	-162.209392	-1.628111	-73.656319	-1.628111	-73.656319	-5.282974	-166.163567
1.300000	-5.121500	-164.615480	-1.703052	-76.137349	-1.703052	-76.137349	-5.119336	-168.709886
1.350000	-4.972330	-166.994901	-1.775229	-78.590661	-1.775229	-78.590661	-4.970202	-171.226959
1.400000	-4.836547	-169.349635	-1.844408	-81.018073	-1.844408	-81.018073	-4.834458	-173.716451
1.450000	-4.713174	-171.681693	-1.910378	-83.421440	-1.910378	-83.421440	-4.711118	-176.180036
1.500000	-4.601866	-173.992062	-1.972735	-85.801502	-1.972735	-85.801502	-4.599828	-178.618133
1.550000	-4.500887	-176.284815	-2.031691	-88.162321	-2.031691	-88.162321	-4.498848	178.965217
1.600000	-4.409996	-178.561083	-2.086932	-90.504800	-2.086932	-90.504800	-4.407931	176.569442
1.650000	-4.328595	179.177064	-2.138326	-92.830833	-2.138326	-92.830833	-4.326471	174.192908
1.700000	-4.256154	176.927548	-2.185761	-95.142308	-2.185761	-95.142308	-4.253936	171.834010
1.750000	-4.192208	174.688288	-2.229139	-97.441104	-2.229139	-97.441104	-4.189855	169.491169
1.800000	-4.136352	172.457194	-2.268376	-99.729089	-2.268376	-99.729089	-4.133817	167.162845
1.850000	-4.088234	170.232169	-2.303404	-102.008115	-2.303404	-102.008115	-4.085466	164.847536
1.900000	-4.047552	168.011105	-2.334166	-104.280020	-2.334166	-104.280020	-4.044495	162.543780
1.950000	-4.014050	165.791884	-2.360618	-106.546628	-2.360618	-106.546628	-4.010642	160.250165
2.000000	-3.987515	163.572367	-2.382728	-108.809746	-2.382728	-108.809746	-3.983689	157.965326
2.050000	-3.967775	161.350398	-2.400475	-111.071170	-2.400475	-111.071170	-3.963456	155.687951
2.100000	-3.954695	159.123793	-2.413848	-113.332680	-2.413848	-113.332680	-3.949805	153.416784
2.150000	-3.948180	156.890337	-2.422846	-115.596044	-2.422846	-115.596044	-3.942631	151.150630
2.200000	-3.948168	154.647774	-2.427479	-117.863021	-2.427479	-117.863021	-3.941864	148.888358
2.250000	-3.954631	152.393807	-2.427767	-120.135357	-2.427767	-120.135357	-3.947470	146.628905
2.300000	-3.967577	150.126081	-2.423739	-122.414792	-2.423739	-122.414792	-3.959445	144.371287
2.350000	-3.987045	147.842181	-2.415434	-124.703059	-2.415434	-124.703059	-3.977821	142.114597
2.400000	-4.013110	145.539622	-2.402901	-127.001884	-2.402901	-127.001884	-4.002658	139.858023
2.450000	-4.045879	143.215833	-2.386199	-129.312986	-2.386199	-129.312986	-4.034052	137.600851
2.500000	-4.085493	140.868152	-2.365397	-131.638084	-2.365397	-131.638084	-4.072128	135.342477
2.550000	-4.132431	138.492511	-2.340402	-133.979653	-2.340402	-133.979653	-4.117341	133.082333
2.600000	-4.186615	136.087040	-2.311486	-136.338792	-2.311486	-136.338792	-4.169603	130.820154
2.650000	-4.248299	133.648685	-2.278754	-138.717204	-2.278754	-138.717204	-4.229142	128.555784
2.700000	-4.317772	131.174235	-2.242321	-141.116586	-2.242321	-141.116586	-4.296223	126.289251
2.750000	-4.395365	128.660295	-2.202319	-143.538626	-2.202319	-143.538626	-4.371147	124.020796
2.800000	-4.481447	126.103266	-2.158890	-145.985003	-2.158890	-145.985003	-4.454252	121.750899
2.850000	-4.576436	123.499310	-2.112194	-148.457381	-2.112194	-148.457381	-4.545913	119.480317
2.900000	-4.680792	120.844324	-2.062402	-150.957408	-2.062402	-150.957408	-4.646545	117.210130
2.950000	-4.794167	118.139702	-2.010005	-153.483713	-2.010005	-153.483713	-4.755784	114.941463
3.000000	-4.918705	115.370293	-1.954622	-156.043370	-1.954622	-156.043370	-4.875645	112.676543
3.050000	-5.054283	112.535683	-1.896757	-158.635423	-1.896757	-158.635423	-5.005959	110.417591
3.100000	-5.201566	109.630259	-1.836652	-161.261389	-1.836652	-161.261389	-5.147305	108.167523
3.150000	-5.361385	106.646949	-1.774545	-163.923128	-1.774545	-163.923128	-5.300403	105.930104
3.200000	-5.534530	103.578708	-1.710725	-166.622080	-1.710725	-166.622080	-5.465916	103.709871
3.250000	-5.721727	100.418778	-1.645521	-169.359172	-1.645521	-169.359172	-5.644431	101.512013
3.300000	-5.923862	97.158676	-1.579254	-172.135618	-1.579254	-172.135618	-5.836657	99.342924
3.350000	-6.142187	93.785356	-1.512244	-174.953729	-1.512244	-174.953729	-6.043604	97.211566
3.400000	-6.376549	90.300671	-1.444935	-177.810207	-1.444935	-177.810207	-6.264984	95.122111
3.450000	-6.629649	86.672216	-1.377615	179.287569	-1.377615	179.287569	-6.503014	93.093579
3.500000	-6.901011	82.904620	-1.310731	176.344678	-1.310731	176.344678	-6.757032	91.130385
3.550000	-7.192417	78.969750	-1.244710	173.357304	-1.244710	173.357304	-7.028279	89.253325
3.600000	-7.504556	74.852085	-1.179977	170.326006	-1.179977	170.326006	-7.316964	87.478190
3.650000	-7.837760	70.537369	-1.116938	167.252414	-1.116938	167.252414	-7.622895	85.820966
3.700000	-8.193320	65.978930	-1.056205	164.132497	-1.056205	164.132497	-7.946438	84.318508
3.750000	-8.570194	61.185742	-0.997921	160.973383	-0.997921	160.973383	-8.286137	82.972561
3.800000	-8.968750	56.063390	-0.943109	157.766730	-0.943109	157.766730	-8.640874	81.854951
3.850000	-9.386866	50.637794	-0.891611	154.522485	-0.891611	154.522485	-9.008205	80.953806
3.900000	-9.821692	44.822861	-0.844297	151.236747	-0.844297	151.236747	-9.384005	80.335173
3.950000	-10.268603	38.584712	-0.801472	147.912704	-0.801472	147.912704	-9.763073	80.025644
4.000000	-10.720026	31.866539	-0.763629	144.551793	-0.763629	144.551793	-10.137602	80.064992
4.050000	-11.164726	24.612921	-0.731251	141.155845	-0.731251	141.155845	-10.497083	80.487035
4.100000	-11.589409	16.805292	-0.704531	137.728492	-0.704531	137.728492	-10.830334	81.294100
4.150000	-11.975848	8.425625	-0.683837	134.272176	-0.683837	134.272176	-11.123054	82.483590
4.200000	-12.298656	-0.528745	-0.669764	130.788690	-0.669764	130.788690	-11.356616	84.036992
4.250000	-12.538782	-9.955239	-0.662244	127.282531	-0.662244	127.282531	-11.519395	85.867532
4.300000	-12.676481	-19.727099	-0.661478	123.756859	-0.661478	123.756859	-11.599720	87.876845
4.350000	-12.692672	-29.668866	-0.667952	120.214320	-0.667952	120.214320	-11.586376	89.938847
4.400000	-12.588475	-39.561188	-0.681519	116.659046	-0.681519	116.659046	-11.482319	91.910569
4.450000	-12.373102	-49.208738	-0.702152	113.094565	-0.702152	113.094565	-11.294720	93.666630
4.500000	-12.060316	-58.438485	-0.730060	109.524133	-0.730060	109.524133	-11.032703	95.092872
4.550000	-11.672969	-67.142148	-0.765164	105.951283	-0.765164	105.951283	-10.711620	96.116085
4.600000	-11.235901	-75.285279	-0.807168	102.379322	-0.807168	102.379322	-10.348713	96.710558
4.650000	-10.768350	-82.856094	-0.856016	98.811354	-0.856016	98.811354	-9.957657	96.862885
4.700000	-10.286098	-89.864742	-0.911699	95.250600	-0.911699	95.250600	-9.550236	96.574578
4.750000	-9.803503	-96.377978	-0.973709	91.699482	-0.973709	91.699482	-9.138074	95.892448
4.800000	-9.329210	-102.443293	-1.041795	88.160391	-1.041795	88.160391	-8.728628	94.850405
4.850000	-8.868780	-108.088833	-1.115955	84.636372	-1.115955	84.636372	-8.327043	93.468800
4.900000	-8.426685	-113.382473	-1.195605	81.128677	-1.195605	81.128677	-7.937869	91.802159
4.950000	-8.004987	-118.365585	-1.280422	77.638900	-1.280422	77.638900	-7.563567	89.885053
5.000000	-7.604797	-123.064230	-1.370231	74.169217	-1.370231	74.169217	-7.205723	87.740770
5.050000	-7.226387	-127.516092	-1.464613	70.720492	-1.464613	70.720492	-6.865180	85.402450
5.100000	-6.869349	-131.752752	-1.563175	67.293237	-1.563175	67.293237	-6.542093	82.898304
5.150000	-6.533175	-135.793073	-1.665655	63.888628	-1.665655	63.888628	-6.236432	80.246559
5.200000	-6.217146	-139.655087	-1.771759	60.507530	-1.771759	60.507530	-5.947921	77.464672
5.250000	-5.919998	-143.362302	-1.881097	57.149417	-1.881097	57.149417	-5.675729	74.573451
5.300000	-5.640722	-146.928485	-1.993398	53.814535	-1.993398	53.814535	-5.419187	71.586025
5.350000	-5.378668	-150.360526	-2.108438	50.504009	-2.108438	50.504009	-5.177922	68.510597
5.400000	-5.132338	-153.676642	-2.225891	47.216464	-2.225891	47.216464	-4.950729	65.362192
5.450000	-4.900720	-156.886360	-2.345527	43.951668	-2.345527	43.951668	-4.736819	62.149503
5.500000	-4.683201	-159.993966	-2.467134	40.710323	-2.467134	40.710323	-4.535757	58.877802
5.550000	-4.478581	-163.010698	-2.590493	37.491272	-2.590493	37.491272	-4.346523	55.555962
5.600000	-4.285897	-165.944419	-2.715419	34.293808	-2.715419	34.293808	-4.168304	52.190392
5.650000	-4.104542	-168.799066	-2.841733	31.118073	-2.841733	31.118073	-4.000608	48.785147
5.700000	-3.933735	-171.580485	-2.969270	27.963546	-2.969270	27.963546	-3.842769	45.345017
5.750000	-3.772571	-174.295807	-3.097910	24.829122	-3.097910	24.829122	-3.693979	41.875047
5.800000	-3.620473	-176.948815	-3.227518	21.714549	-3.227518	21.714549	-3.553741	38.378487
5.850000	-3.477016	-179.541932	-3.357938	18.619963	-3.357938	18.619963	-3.421705	34.857941
5.900000	-3.341364	177.918284	-3.489115	15.544005	-3.489115	15.544005	-3.297099	31.317469
5.950000	-3.213003	175.428367	-3.620959	12.486240	-3.620959	12.486240	-3.179466	27.759708
6.000000	-3.092048	172.990483	-3.753198	9.448394	-3.753198	9.448394	-3.068974	24.185541
6.050000	-2.976994	170.591801	-3.886072	6.426274	-3.886072	6.426274	-2.964157	20.600266
6.100000	-2.867908	168.233911	-4.019372	3.421192	-4.019372	3.421192	-2.865122	17.004623
6.150000	-2.764719	165.916871	-4.152897	0.434043	-4.152897	0.434043	-2.771841	13.400135
6.200000	-2.666928	163.636807	-4.286621	-2.536003	-4.286621	-2.536003	-2.683843	9.789188
6.250000	-2.574039	161.389893	-4.420550	-5.489909	-4.420550	-5.489909	-2.600659	6.173900
6.300000	-2.485765	159.174070	-4.554617	-8.427889	-4.554617	-8.427889	-2.522025	2.555958
6.350000	-2.401843	156.987411	-4.688754	-11.350135	-4.688754	-11.350135	-2.447699	-1.063022
6.400000	-2.322030	154.828106	-4.822888	-14.256815	-4.822888	-14.256815	-2.377458	-4.681498
6.450000	-2.246120	152.694605	-4.956932	-17.147982	-4.956932	-17.147982	-2.311114	-8.297969
6.500000	-2.174208	150.587645	-5.090567	-20.022191	-5.090567	-20.022191	-2.248795	-11.910508
6.550000	-2.105757	148.502957	-5.223947	-22.881259	-5.223947	-22.881259	-2.189961	-15.518038
6.600000	-2.040594	146.439155	-5.356983	-25.725298	-5.356983	-25.725298	-2.134448	-19.119297
6.650000	-1.978557	144.394936	-5.489580	-28.554421	-5.489580	-28.554421	-2.082107	-22.713091
6.700000	-1.919400	142.368360	-5.621741	-31.369338	-5.621741	-31.369338	-2.032692	-26.298677
6.750000	-1.863272	140.360283	-5.753056	-34.168475	-5.753056	-34.168475	-1.986379	-29.873925
6.800000	-1.809892	138.368475	-5.883552	-36.952848	-5.883552	-36.952848	-1.942883	-33.438326
6.850000	-1.759139	136.391861	-6.013100	-39.722619	-6.013100	-39.722619	-1.902091	-36.990960
6.900000	-1.710927	134.429563	-6.141528	-42.477822	-6.141528	-42.477822	-1.863922	-40.530855
6.950000	-1.665152	132.480584	-6.268686	-45.218684	-6.268686	-45.218684	-1.828274	-44.057259
7.000000	-1.621696	130.543855	-6.394449	-47.945618	-6.394449	-47.945618	-1.795033	-47.569688
7.050000	-1.580471	128.618502	-6.518649	-50.658923	-6.518649	-50.658923	-1.764114	-51.067627
7.100000	-1.541400	126.703692	-6.641109	-53.358945	-6.641109	-53.358945	-1.735440	-54.550675
7.150000	-1.504408	124.798621	-6.761640	-56.046082	-6.761640	-56.046082	-1.708943	-58.018545
7.200000	-1.469429	122.902516	-6.880044	-58.720792	-6.880044	-58.720792	-1.684558	-61.471073
7.250000	-1.436403	121.014629	-6.996107	-61.383594	-6.996107	-61.383594	-1.662230	-64.908220
7.300000	-1.405276	119.134227	-7.109603	-64.035081	-7.109603	-64.035081	-1.641907	-68.330082
7.350000	-1.375998	117.260597	-7.220295	-66.675923	-7.220295	-66.675923	-1.623548	-71.736893
7.400000	-1.348527	115.393032	-7.327925	-69.306875	-7.327925	-69.306875	-1.607114	-75.129035
7.450000	-1.322826	113.530831	-7.432225	-71.928783	-7.432225	-71.928783	-1.592580	-78.507042
7.500000	-1.298867	111.673292	-7.532902	-74.542601	-7.532902	-74.542601	-1.579923	-81.871613
7.550000	-1.276662	109.819778	-7.629533	-77.149267	-7.629533	-77.149267	-1.569174	-85.223374
7.600000	-1.256159	107.969467	-7.721888	-79.750161	-7.721888	-79.750161	-1.560292	-88.563693
7.650000	-1.237352	106.121620	-7.809609	-82.346627	-7.809609	-82.346627	-1.553287	-91.893851
7.700000	-1.220244	104.275474	-7.892308	-84.940170	-7.892308	-84.940170	-1.548183	-95.215354
7.750000	-1.204848	102.430230	-7.969565	-87.532481	-7.969565	-87.532481	-1.545019	-98.529956
7.800000	-1.191190	100.585049	-8.040923	-90.125456	-8.040923	-90.125456	-1.543849	-101.839688
7.850000	-1.179307	98.739040	-8.105886	-92.721231	-8.105886	-92.721231	-1.544749	-105.146891
7.900000	-1.169256	96.891248	-8.163909	-95.322221	-8.163909	-95.322221	-1.547818	-108.454264
7.950000	-1.161112	95.040643	-8.214392	-97.931162	-8.214392	-97.931162	-1.553183	-111.764910
8.000000	-1.154972	93.186105	-8.256675	-100.551171	-8.256675	-100.551171	-1.561006	-115.082410
8.050000	-1.150962	91.326403	-8.290024	-103.185817	-8.290024	-103.185817	-1.571489	-118.410897
8.100000	-1.149242	89.460180	-8.313624	-105.839204	-8.313624	-105.839204	-1.584886	-121.755166
8.150000	-1.150044	87.585819	-8.326437	-108.516403	-8.326437	-108.516403	-1.601556	-125.121108
8.200000	-1.153632	85.701565	-8.327401	-111.223174	-8.327401	-111.223174	-1.621912	-128.515526
8.250000	-1.160305	83.805584	-8.315469	-113.965844	-8.315469	-113.965844	-1.646428	-131.945995
8.300000	-1.170473	81.895703	-8.289325	-116.752204	-8.289325	-116.752204	-1.675750	-135.421798
8.350000	-1.184704	79.969266	-8.247303	-119.592186	-8.247303	-119.592186	-1.710761	-138.954737
8.400000	-1.203541	78.023961	-8.188168	-122.495348	-8.188168	-122.495348	-1.752347	-142.556481
8.450000	-1.227748	76.056949	-8.110253	-125.473889	-8.110253	-125.473889	-1.801735	-146.241774
8.500000	-1.258972	74.062482	-8.009506	-128.552330	-8.009506	-128.552330	-1.861502	-150.039683
8.550000	-1.298285	72.038155	-7.884821	-131.745909	-7.884821	-131.745909	-1.933494	-153.969402
8.600000	-1.347442	69.980175	-7.733805	-135.078114	-7.733805	-135.078114	-2.020676	-158.059915
8.650000	-1.409133	67.883527	-7.552842	-138.583458	-7.552842	-138.583458	-2.127620	-162.353840
8.700000	-1.487422	65.742786	-7.337163	-142.311605	-7.337163	-142.311605	-2.261406	-166.913255
8.750000	-1.586969	63.556313	-7.083682	-146.314192	-7.083682	-146.314192	-2.430665	-171.804714
8.800000	-1.715075	61.325303	-6.787927	-150.668962	-6.787927	-150.668962	-2.649394	-177.130000
8.850000	-1.881770	59.061096	-6.446438	-155.474918	-6.446438	-155.474918	-2.938307	176.976209
8.900000	-2.101510	56.796048	-6.057119	-160.866260	-6.057119	-160.866260	-3.330294	170.321678
8.950000	-2.395703	54.609574	-5.620656	-167.034233	-5.620656	-167.034233	-3.881461	162.610451
9.000000	-2.790605	52.674631	-5.147312	-174.204819	-5.147312	-174.204819	-4.682974	153.431047
9.050000	-3.318579	51.379752	-4.660515	177.290415	-4.660515	177.290415	-5.913013	142.022169
9.100000	-3.985889	51.487660	-4.213720	167.111093	-4.213720	167.111093	-7.914108	126.945469
9.150000	-4.688817	54.206949	-3.903442	154.987418	-3.903442	154.987418	-11.427152	103.966835
9.200000	-5.076450	60.196202	-3.870289	140.995073	-3.870289	140.995073	-17.226898	50.767833
9.250000	-4.734042	67.131528	-4.255273	125.838660	-4.255273	125.838660	-14.397076	-39.027165
9.300000	-3.810115	70.980383	-5.116728	110.779769	-5.116728	110.779769	-8.918591	-76.031442
9.350000	-2.832865	70.920956	-6.383252	97.034470	-6.383252	97.034470	-5.862370	-97.274181
9.400000	-2.074472	68.575919	-7.910995	85.199167	-7.910995	85.199167	-4.110679	-112.922278
9.450000	-1.551201	65.365521	-9.567815	75.279501	-9.567815	75.279501	-3.066564	-125.219395
9.500000	-1.202081	62.003245	-11.269212	66.974818	-11.269212	66.974818	-2.419932	-135.197019
9.550000	-0.969197	58.760454	-12.971569	59.937389	-12.971569	59.937389	-2.005251	-143.500611
9.600000	-0.811880	55.714892	-14.656342	53.864908	-14.656342	53.864908	-1.730834	-150.574757
9.650000	-0.703713	52.869034	-16.320008	48.516595	-16.320008	48.516595	-1.543939	-156.734651
9.700000	-0.627755	50.198866	-17.970627	43.703250	-17.970627	43.703250	-1.412986	-162.210193
9.750000	-0.573575	47.677346	-19.617924	39.284992	-19.617924	39.284992	-1.319241	-167.159863
9.800000	-0.534451	45.279402	-21.274409	35.150993	-21.274409	35.150993	-1.250901	-171.698901
9.850000	-0.505972	42.983727	-22.955048	31.208326	-22.955048	31.208326	-1.200316	-175.912349
9.900000	-0.485263	40.773817	-24.673717	27.371994	-24.673717	27.371994	-1.162517	-179.861008
9.950000	-0.470315	38.635784	-26.448530	23.550946	-26.448530	23.550946	-1.134036	176.407276
10.000000	-0.459282	36.551702	-28.342415	19.654696	-28.342415	19.654696	-1.111753	172.835764
