! freq	dB(S11)	phase(S11)	dB(S12)	phase(S12)	
!     	dB(S21)	phase(S21)	dB(S22)	phase(S22)	
!S-par simulation data
#  GHz  S  DB  R 50
0.000000	-0.000000	0.000000	-300.840605	0.000000	-300.840605	0.000000	-0.000000	0.000000
0.050000	-0.000105	-0.804466	-114.487192	87.830525	-114.487192	87.830525	-0.000101	-0.858657
0.100000	-0.000414	-1.608674	-108.670119	86.476032	-108.670119	86.476032	-0.000400	-1.717083
0.150000	-0.000914	-2.412388	-105.352466	85.707751	-105.352466	85.707751	-0.000886	-2.575064
0.200000	-0.001585	-3.215416	-103.045822	85.171135	-103.045822	85.171135	-0.001543	-3.432416
0.250000	-0.002411	-4.017543	-101.307384	84.719763	-101.307384	84.719763	-0.002360	-4.288928
0.300000	-0.003352	-4.818738	-99.935787	84.309493	-99.935787	84.309493	-0.003303	-5.144548
0.350000	-0.004390	-5.618897	-98.833564	83.947475	-98.833564	83.947475	-0.004355	-5.999152
0.400000	-0.005500	-6.417985	-97.941314	83.652713	-97.941314	83.652713	-0.005494	-6.852681
0.450000	-0.006661	-7.216001	-97.221633	83.451790	-97.221633	83.451790	-0.006699	-7.705100
0.500000	-0.007854	-8.012963	-96.650009	83.377225	-96.650009	83.377225	-0.007953	-8.556399
0.550000	-0.009064	-8.808901	-96.210123	83.468605	-96.210123	83.468605	-0.009238	-9.406586
0.600000	-0.010281	-9.603856	-95.891168	83.775208	-95.891168	83.775208	-0.010541	-10.255677
0.650000	-0.011494	-10.397870	-95.686161	84.359960	-95.686161	84.359960	-0.011851	-11.103700
0.700000	-0.012699	-11.190981	-95.590680	85.305048	-95.590680	85.305048	-0.013160	-11.950684
0.750000	-0.013891	-11.983227	-95.601626	86.719699	-95.601626	86.719699	-0.014460	-12.796657
0.800000	-0.015067	-12.774636	-95.715540	88.750640	-95.715540	88.750640	-0.015748	-13.641648
0.850000	-0.016227	-13.565234	-95.925805	91.594884	-95.925805	91.594884	-0.017020	-14.485680
0.900000	-0.017371	-14.355039	-96.217609	95.511538	-96.217609	95.511538	-0.018274	-15.328774
0.950000	-0.018498	-15.144062	-96.559143	100.820798	-96.559143	100.820798	-0.019510	-16.170945
1.000000	-0.019609	-15.932312	-96.888226	107.860438	-96.888226	107.860438	-0.020727	-17.012204
1.050000	-0.020707	-16.719790	-97.098795	116.848553	-97.098795	116.848553	-0.021926	-17.852556
1.100000	-0.021791	-17.506495	-97.045471	127.622997	-97.045471	127.622997	-0.023108	-18.692005
1.150000	-0.022863	-18.292421	-96.594304	139.387161	-96.594304	139.387161	-0.024273	-19.530547
1.200000	-0.023925	-19.077561	-95.707901	150.835714	-95.707901	150.835714	-0.025423	-20.368179
1.250000	-0.024977	-19.861904	-94.475984	160.798427	-94.475984	160.798427	-0.026559	-21.204890
1.300000	-0.026021	-20.645401	-93.034027	168.681513	-93.034027	168.681513	-0.027683	-22.040631
1.350000	-0.027058	-21.428074	-91.529942	174.671302	-91.529942	174.671302	-0.028796	-22.875426
1.400000	-0.028089	-22.209907	-90.040845	179.097793	-90.040845	179.097793	-0.029899	-23.709261
1.450000	-0.029114	-22.990884	-88.605280	-177.695736	-88.605280	-177.695736	-0.030994	-24.542120
1.500000	-0.030135	-23.770989	-87.238844	-175.421939	-87.238844	-175.421939	-0.032081	-25.373986
1.550000	-0.031153	-24.550203	-85.945146	-173.859480	-85.945146	-173.859480	-0.033163	-26.204839
1.600000	-0.032167	-25.328510	-84.722088	-172.843270	-84.722088	-172.843270	-0.034239	-27.034660
1.650000	-0.033179	-26.105893	-83.565155	-172.251211	-83.565155	-172.251211	-0.035312	-27.863431
1.700000	-0.034189	-26.881996	-82.442641	-172.077436	-82.442641	-172.077436	-0.036380	-28.690750
1.750000	-0.035198	-27.657601	-81.413799	-172.052927	-81.413799	-172.052927	-0.037447	-29.517502
1.800000	-0.036206	-28.432006	-80.419525	-172.270091	-80.419525	-172.270091	-0.038512	-30.342892
1.850000	-0.037214	-29.205555	-79.479787	-172.659880	-79.479787	-172.659880	-0.039576	-31.167310
1.900000	-0.038221	-29.978037	-78.578610	-173.187967	-78.578610	-173.187967	-0.040640	-31.990515
1.950000	-0.039229	-30.749453	-77.714009	-173.854352	-77.714009	-173.854352	-0.041703	-32.812510
2.000000	-0.040238	-31.519950	-76.889977	-174.601054	-76.889977	-174.601054	-0.042768	-33.633459
2.050000	-0.041247	-32.289160	-76.089162	-175.460200	-76.089162	-175.460200	-0.043833	-34.452946
2.100000	-0.042257	-33.057802	-75.336530	-176.355843	-75.336530	-176.355843	-0.044900	-35.271788
2.150000	-0.043270	-33.824975	-74.597481	-177.341798	-74.597481	-177.341798	-0.045969	-36.088959
2.200000	-0.044284	-34.591034	-73.884015	-178.382665	-73.884015	-178.382665	-0.047040	-36.904864
2.250000	-0.045301	-35.355964	-73.194357	-179.471407	-73.194357	-179.471407	-0.048115	-37.719486
2.300000	-0.046320	-36.119751	-72.526918	179.397887	-72.526918	179.397887	-0.049192	-38.532808
2.350000	-0.047342	-36.882379	-71.880264	178.230218	-71.880264	178.230218	-0.050273	-39.344812
2.400000	-0.048367	-37.643834	-71.253102	177.029844	-71.253102	177.029844	-0.051359	-40.155483
2.450000	-0.049396	-38.404100	-70.644263	175.800413	-70.644263	175.800413	-0.052448	-40.964804
2.500000	-0.050429	-39.163164	-70.052681	174.545071	-70.052681	174.545071	-0.053542	-41.772760
2.550000	-0.051466	-39.920959	-69.476446	173.265645	-69.476446	173.265645	-0.054642	-42.579276
2.600000	-0.052508	-40.677523	-68.915710	171.965588	-68.915710	171.965588	-0.055747	-43.384395
2.650000	-0.053555	-41.432843	-68.369652	170.646944	-68.369652	170.646944	-0.056857	-44.188105
2.700000	-0.054607	-42.186907	-67.837517	169.311508	-67.837517	169.311508	-0.057973	-44.990392
2.750000	-0.055664	-42.939703	-67.318611	167.960869	-67.318611	167.960869	-0.059096	-45.791242
2.800000	-0.056728	-43.691217	-66.812292	166.596436	-66.812292	166.596436	-0.060226	-46.590645
2.850000	-0.057798	-44.441439	-66.317968	165.219464	-66.317968	165.219464	-0.061362	-47.388586
2.900000	-0.058874	-45.190357	-65.835090	163.831075	-65.835090	163.831075	-0.062506	-48.185056
2.950000	-0.059958	-45.937960	-65.363146	162.432273	-65.363146	162.432273	-0.063658	-48.980043
3.000000	-0.061049	-46.684237	-64.901663	161.023963	-64.901663	161.023963	-0.064818	-49.773537
3.050000	-0.062147	-47.429179	-64.450198	159.606961	-64.450198	159.606961	-0.065986	-50.565528
3.100000	-0.063254	-48.172774	-64.008337	158.182004	-64.008337	158.182004	-0.067163	-51.356007
3.150000	-0.064369	-48.915013	-63.575694	156.749760	-63.575694	156.749760	-0.068350	-52.144964
3.200000	-0.065494	-49.655888	-63.151905	155.310838	-63.151905	155.310838	-0.069546	-52.932392
3.250000	-0.066627	-50.395389	-62.736630	153.865792	-62.736630	153.865792	-0.070751	-53.718282
3.300000	-0.067770	-51.133507	-62.329550	152.415129	-62.329550	152.415129	-0.071968	-54.502627
3.350000	-0.068925	-51.869991	-61.928551	150.958541	-61.928551	150.958541	-0.073196	-55.285149
3.400000	-0.070091	-52.605015	-61.534887	149.497031	-61.534887	149.497031	-0.074437	-56.066045
3.450000	-0.071262	-53.339303	-61.153294	148.033402	-61.153294	148.033402	-0.075684	-56.846122
3.500000	-0.072451	-54.071381	-60.773394	146.563417	-60.773394	146.563417	-0.076949	-57.623746
3.550000	-0.073645	-54.802964	-60.406328	145.092255	-60.406328	145.092255	-0.078219	-58.400820
3.600000	-0.074858	-55.532068	-60.039338	143.615212	-60.039338	143.615212	-0.079510	-59.175151
3.650000	-0.076075	-56.260921	-59.685794	142.137682	-59.685794	142.137682	-0.080804	-59.949206
3.700000	-0.077315	-56.987025	-59.330943	140.654789	-59.330943	140.654789	-0.082124	-60.720228
3.750000	-0.078556	-57.713129	-58.990021	139.171896	-58.990021	139.171896	-0.083445	-61.491251
3.800000	-0.079824	-58.436210	-58.646609	137.684189	-58.646609	137.684189	-0.084795	-62.258953
3.850000	-0.081093	-59.159292	-58.316259	136.196482	-58.316259	136.196482	-0.086145	-63.026656
3.900000	-0.082389	-59.879586	-57.984888	134.705183	-57.984888	134.705183	-0.087525	-63.791310
3.950000	-0.083688	-60.599626	-57.664546	133.213557	-57.664546	133.213557	-0.088907	-64.555687
4.000000	-0.085014	-61.317119	-57.344466	131.719315	-57.344466	131.719315	-0.090317	-65.317290
4.050000	-0.086344	-62.034102	-57.033615	130.224550	-57.033615	130.224550	-0.091734	-66.078339
4.100000	-0.087700	-62.748784	-56.724145	128.727942	-56.724145	128.727942	-0.093177	-66.836894
4.150000	-0.089065	-63.462699	-56.422310	127.230720	-56.422310	127.230720	-0.094629	-67.594618
4.200000	-0.090452	-64.174561	-56.122831	125.732261	-56.122831	125.732261	-0.096106	-68.350130
4.250000	-0.091852	-64.885398	-55.829573	124.233183	-55.829573	124.233183	-0.097596	-69.104536
4.300000	-0.093273	-65.594436	-55.539519	122.733334	-55.539519	122.733334	-0.099109	-69.857014
4.350000	-0.094710	-66.302189	-55.254433	121.232934	-55.254433	121.232934	-0.100639	-70.608114
4.400000	-0.096166	-67.008400	-54.973287	119.732111	-54.973287	119.732111	-0.102190	-71.357570
4.450000	-0.097641	-67.713067	-54.695997	118.230865	-54.695997	118.230865	-0.103761	-72.105382
4.500000	-0.099133	-68.416450	-54.423284	116.729446	-54.423284	116.729446	-0.105351	-72.851833
4.550000	-0.100649	-69.118032	-54.153441	115.227783	-54.153441	115.227783	-0.106966	-73.596378
4.600000	-0.102180	-69.818588	-53.888725	113.726111	-53.888725	113.726111	-0.108596	-74.339843
4.650000	-0.103738	-70.517090	-53.626005	112.224418	-53.626005	112.224418	-0.110257	-75.081147
4.700000	-0.105307	-71.214824	-53.368881	110.722808	-53.368881	110.722808	-0.111930	-75.821649
4.750000	-0.106910	-71.910252	-53.112980	109.221440	-53.112980	109.221440	-0.113638	-76.559744
4.800000	-0.108520	-72.605170	-52.863077	107.720181	-52.863077	107.720181	-0.115355	-77.297310
4.850000	-0.110168	-73.297535	-52.613712	106.219464	-52.613712	106.219464	-0.117113	-78.032233
4.900000	-0.111821	-73.989645	-52.370684	104.718827	-52.370684	104.718827	-0.118875	-78.766894
4.950000	-0.113516	-74.678960	-52.127591	103.219062	-52.127591	103.219062	-0.120685	-79.498684
5.000000	-0.115212	-75.368275	-51.891117	101.719298	-51.891117	101.719298	-0.122495	-80.230475
5.050000	-0.116958	-76.054556	-51.654047	100.220769	-51.654047	100.220769	-0.124358	-80.959181
5.100000	-0.118703	-76.740837	-51.423276	98.722240	-51.423276	98.722240	-0.126221	-81.687887
5.150000	-0.120495	-77.424354	-51.192549	97.225089	-51.192549	97.225089	-0.128135	-82.413813
5.200000	-0.122292	-78.107621	-50.967267	95.728063	-50.967267	95.728063	-0.130054	-83.139487
5.250000	-0.124132	-78.788393	-50.742598	94.232504	-50.742598	94.232504	-0.132020	-83.862682
5.300000	-0.125982	-79.468666	-50.522604	92.737238	-50.522604	92.737238	-0.133997	-84.585381
5.350000	-0.127872	-80.146714	-50.303728	91.243477	-50.303728	91.243477	-0.136018	-85.305897
5.400000	-0.129776	-80.824020	-50.088830	89.750218	-50.088830	89.750218	-0.138054	-86.025685
5.450000	-0.131718	-81.499365	-49.875501	88.258459	-49.875501	88.258459	-0.140131	-86.743580
5.500000	-0.133678	-82.173730	-49.665519	86.767451	-49.665519	86.767451	-0.142228	-87.460528
5.550000	-0.135673	-82.846398	-49.457503	85.277895	-49.457503	85.277895	-0.144363	-88.175864
5.600000	-0.137691	-83.517853	-49.252266	83.789377	-49.252266	83.789377	-0.146524	-88.890048
5.650000	-0.139740	-84.187869	-49.049345	82.302226	-49.049345	82.302226	-0.148718	-89.602894
5.700000	-0.141819	-84.856446	-48.848691	80.816441	-48.848691	80.816441	-0.150944	-90.314400
5.750000	-0.143923	-85.523839	-48.650661	79.331899	-48.650661	79.331899	-0.153199	-91.024828
5.800000	-0.146063	-86.189575	-48.454434	77.849094	-48.454434	77.849094	-0.155494	-91.733748
5.850000	-0.148225	-86.854375	-48.261100	76.367368	-48.261100	76.367368	-0.157811	-92.441839
5.900000	-0.150429	-87.517306	-48.069154	74.887800	-48.069154	74.887800	-0.160176	-93.148275
5.950000	-0.152649	-88.179545	-47.880334	73.409107	-47.880334	73.409107	-0.162558	-93.854116
6.000000	-0.154918	-88.839712	-47.692526	71.933042	-47.692526	71.933042	-0.164994	-94.558179
6.050000	-0.157198	-89.499425	-47.508048	70.457608	-47.508048	70.457608	-0.167443	-95.261866
6.100000	-0.159534	-90.156869	-47.324243	68.985331	-47.324243	68.985331	-0.169953	-95.963678
6.150000	-0.161876	-90.814091	-47.143942	67.513396	-47.143942	67.513396	-0.172471	-96.665313
6.200000	-0.164280	-91.468859	-46.964011	66.045216	-46.964011	66.045216	-0.175057	-97.365011
6.250000	-0.166685	-92.123626	-46.787731	64.577036	-46.787731	64.577036	-0.177645	-98.064709
6.300000	-0.169160	-92.775764	-46.611547	63.113289	-46.611547	63.113289	-0.180311	-98.762444
6.350000	-0.171635	-93.427901	-46.438865	61.649542	-46.438865	61.649542	-0.182977	-99.460178
6.400000	-0.174176	-94.077673	-46.266580	60.190202	-46.266580	60.190202	-0.185718	-100.156269
6.450000	-0.176724	-94.727230	-46.097382	58.731263	-46.097382	58.731263	-0.188467	-100.852210
6.500000	-0.179332	-95.374679	-45.928849	57.276682	-45.928849	57.276682	-0.191285	-101.546814
6.550000	-0.181954	-96.021706	-45.763021	55.822974	-45.763021	55.822974	-0.194118	-102.241152
6.600000	-0.184631	-96.666876	-45.598100	54.373550	-45.598100	54.373550	-0.197017	-102.934449
6.650000	-0.187328	-97.311427	-45.435532	52.925554	-45.435532	52.925554	-0.199938	-103.627399
6.700000	-0.190076	-97.954364	-45.274084	51.481741	-45.274084	51.481741	-0.202920	-104.319590
6.750000	-0.192850	-98.596494	-45.114666	50.040019	-45.114666	50.040019	-0.205933	-105.011402
6.800000	-0.195670	-99.237245	-44.956557	48.602341	-44.956557	48.602341	-0.209002	-105.702718
6.850000	-0.198523	-99.877011	-44.800177	47.167553	-44.800177	47.167553	-0.212111	-106.393679
6.900000	-0.201416	-100.515625	-44.645273	45.736626	-44.645273	45.736626	-0.215270	-107.084384
6.950000	-0.204349	-101.153087	-44.491818	44.309561	-44.491818	44.309561	-0.218480	-107.774833
7.000000	-0.207317	-101.789614	-44.339988	42.886113	-44.339988	42.886113	-0.221736	-108.465237
7.050000	-0.210332	-102.424832	-44.189337	41.467729	-44.189337	41.467729	-0.225054	-109.155578
7.100000	-0.213376	-103.059323	-44.040445	40.052632	-44.040445	40.052632	-0.228411	-109.846044
7.150000	-0.216476	-103.692361	-43.892472	38.644110	-43.892472	38.644110	-0.231846	-110.536764
7.200000	-0.219597	-104.324869	-43.746380	37.238425	-43.746380	37.238425	-0.235313	-111.227728
7.250000	-0.222782	-104.955791	-43.600941	35.841248	-43.600941	35.841248	-0.238874	-111.919427
7.300000	-0.225982	-105.586370	-43.457501	34.446278	-43.457501	34.446278	-0.242460	-112.611415
7.350000	-0.229254	-106.215241	-43.314434	33.062337	-43.314434	33.062337	-0.246164	-113.304847
7.400000	-0.232534	-106.843947	-43.173484	31.679705	-43.173484	31.679705	-0.249883	-113.998505
7.450000	-0.235895	-107.470836	-43.032593	30.311461	-43.032593	30.311461	-0.253750	-114.694637
7.500000	-0.239257	-108.097725	-42.893951	28.943218	-42.893951	28.943218	-0.257618	-115.390770
7.550000	-0.242708	-108.722700	-42.754986	27.593940	-42.754986	27.593940	-0.261678	-116.090872
7.600000	-0.246160	-109.347676	-42.618209	26.244662	-42.618209	26.244662	-0.265740	-116.790974
7.650000	-0.249696	-109.970962	-42.481064	24.916841	-42.481064	24.916841	-0.270020	-117.496284
7.700000	-0.253240	-110.594095	-42.345829	23.590970	-42.345829	23.590970	-0.274321	-118.202068
7.750000	-0.256861	-111.215752	-42.210093	22.289767	-42.210093	22.289767	-0.278880	-118.914573
7.800000	-0.260499	-111.837114	-42.075938	20.993497	-42.075938	20.993497	-0.283492	-119.628421
7.850000	-0.264208	-112.457202	-41.941019	19.726098	-41.941019	19.726098	-0.288425	-120.350893
7.900000	-0.267941	-113.076866	-41.807245	18.468322	-41.807245	18.468322	-0.293466	-121.076240
7.950000	-0.271723	-113.695710	-41.673208	17.234984	-41.673208	17.234984	-0.298798	-121.809357
8.000000	-0.275560	-114.313647	-41.538310	16.032668	-41.538310	16.032668	-0.304519	-122.552609
8.050000	-0.279444	-114.930833	-41.402441	14.862443	-41.402441	14.862443	-0.310672	-123.306751
8.100000	-0.283376	-115.547283	-41.264985	13.730228	-41.264985	13.730228	-0.317378	-124.074185
8.150000	-0.287356	-116.163013	-41.125105	12.643501	-41.125105	12.643501	-0.324804	-124.858008
8.200000	-0.291386	-116.778036	-40.981627	11.611799	-40.981627	11.611799	-0.333191	-125.662280
8.250000	-0.295465	-117.392367	-40.832877	10.647421	-40.832877	10.647421	-0.342896	-126.492425
8.300000	-0.299595	-118.006016	-40.676390	9.766360	-40.676390	9.766360	-0.354458	-127.355839
8.350000	-0.303772	-118.619042	-40.510135	8.978937	-40.510135	8.978937	-0.368398	-128.258123
8.400000	-0.308006	-119.231341	-40.325603	8.331404	-40.325603	8.331404	-0.386605	-129.222026
8.450000	-0.312292	-119.842979	-40.116063	7.844370	-40.116063	7.844370	-0.410905	-130.262328
8.500000	-0.316634	-120.453881	-39.862805	7.574288	-39.862805	7.574288	-0.446215	-131.418888
8.550000	-0.321030	-121.064031	-39.540958	7.550218	-39.540958	7.550218	-0.500280	-132.735759
8.600000	-0.325475	-121.673269	-39.094872	7.777844	-39.094872	7.777844	-0.592437	-134.298789
8.650000	-0.329945	-122.281380	-38.437295	8.047915	-38.437295	8.047915	-0.763909	-136.199424
8.700000	-0.334348	-122.887901	-37.409178	7.399324	-37.409178	7.399324	-1.130578	-138.426634
8.750000	-0.338371	-123.493023	-35.950172	2.696976	-35.950172	2.696976	-1.953133	-139.613116
8.800000	-0.341758	-124.101946	-34.886536	-10.490073	-34.886536	-10.490073	-2.961424	-133.245775
8.850000	-0.345921	-124.717233	-35.563300	-24.574460	-35.563300	-24.574460	-2.262111	-124.863299
8.900000	-0.350967	-125.329335	-36.839854	-30.146203	-36.839854	-30.146203	-1.363304	-124.861391
8.950000	-0.356081	-125.938099	-37.711617	-31.038197	-37.711617	-31.038197	-0.936642	-126.807338
9.000000	-0.361133	-126.545405	-38.192988	-30.780760	-38.192988	-30.780760	-0.736184	-128.632945
9.050000	-0.366157	-127.151996	-38.441703	-30.514213	-38.441703	-30.514213	-0.632185	-130.163219
9.100000	-0.371181	-127.758142	-38.562053	-30.484559	-38.562053	-30.484559	-0.572793	-131.470386
9.150000	-0.376224	-128.363943	-38.607071	-30.708611	-38.607071	-30.708611	-0.537123	-132.619056
9.200000	-0.381299	-128.969450	-38.606643	-31.149759	-38.606643	-31.149759	-0.515012	-133.655827
9.250000	-0.386413	-129.574694	-38.577753	-31.766270	-38.577753	-31.766270	-0.501184	-134.611814
9.300000	-0.391566	-130.179728	-38.532183	-32.506633	-38.532183	-32.506633	-0.492202	-135.514370
9.350000	-0.396765	-130.784551	-38.474054	-33.356936	-38.474054	-33.356936	-0.486911	-136.371681
9.400000	-0.402010	-131.389198	-38.407857	-34.289847	-38.407857	-34.289847	-0.484065	-137.196162
9.450000	-0.407305	-131.993688	-38.335958	-35.290761	-38.335958	-35.290761	-0.483028	-137.994359
9.500000	-0.412650	-132.598037	-38.259832	-36.349567	-38.259832	-36.349567	-0.483409	-138.770629
9.550000	-0.418046	-133.202284	-38.181170	-37.450983	-38.181170	-37.450983	-0.484746	-139.531116
9.600000	-0.423485	-133.806459	-38.100956	-38.584021	-38.100956	-38.584021	-0.486768	-140.280009
9.650000	-0.428972	-134.410570	-38.019421	-39.747524	-38.019421	-39.747524	-0.489425	-141.017859
9.700000	-0.434524	-135.014633	-37.936534	-40.945059	-37.936534	-40.945059	-0.492751	-141.743628
9.750000	-0.440120	-135.618693	-37.853387	-42.160636	-37.853387	-42.160636	-0.496419	-142.463120
9.800000	-0.445761	-136.222758	-37.770093	-43.392958	-37.770093	-43.392958	-0.500403	-143.176835
9.850000	-0.451461	-136.826861	-37.686558	-44.644844	-37.686558	-44.644844	-0.504748	-143.883936
9.900000	-0.457216	-137.431038	-37.603086	-45.911776	-37.603086	-45.911776	-0.509366	-144.586108
9.950000	-0.463016	-138.035291	-37.519919	-47.189282	-37.519919	-47.189282	-0.514177	-145.284895
10.000000	-0.468861	-138.639631	-37.437103	-48.476649	-37.437103	-48.476649	-0.519169	-145.980574
