! freq	dB(S11)	phase(S11)	dB(S12)	phase(S12)	
!     	dB(S21)	phase(S21)	dB(S22)	phase(S22)	
!S-par simulation data
#  GHz  S  DB  R 50
0.000000	-84.535420	0.000000	-0.000515	0.000000	-0.000515	0.000000	-84.535420	0.000000
0.050000	-47.052644	-89.140824	-0.005888	-2.426658	-0.005888	-2.426658	-47.052784	-89.147402
0.100000	-41.070902	-93.269247	-0.011024	-4.827147	-0.011024	-4.827147	-41.071147	-93.282038
0.150000	-37.573033	-96.285742	-0.015098	-7.212142	-0.015098	-7.212142	-37.573288	-96.304900
0.200000	-35.102030	-99.025783	-0.018314	-9.593373	-0.018314	-9.593373	-35.102281	-99.051338
0.250000	-33.198373	-101.642355	-0.021144	-11.973934	-0.021144	-11.973934	-33.198615	-101.674344
0.300000	-31.658308	-104.191749	-0.023908	-14.354432	-0.023908	-14.354432	-31.658542	-104.230229
0.350000	-30.372448	-106.701414	-0.026774	-16.734680	-0.026774	-16.734680	-30.372675	-106.746467
0.400000	-29.274476	-109.185762	-0.029804	-19.114395	-0.029804	-19.114395	-29.274698	-109.237489
0.450000	-28.322270	-111.652148	-0.033022	-21.493325	-0.033022	-21.493325	-28.322489	-111.710676
0.500000	-27.488238	-114.104831	-0.036434	-23.871213	-0.036434	-23.871213	-27.488456	-114.170315
0.550000	-26.751025	-116.547512	-0.040023	-26.247935	-0.040023	-26.247935	-26.751243	-116.620127
0.600000	-26.095224	-118.982424	-0.043765	-28.623399	-0.043765	-28.623399	-26.095443	-119.062369
0.650000	-25.510158	-121.410882	-0.047638	-30.997505	-0.047638	-30.997505	-25.510381	-121.498388
0.700000	-24.986985	-123.834003	-0.051615	-33.370225	-0.051615	-33.370225	-24.987212	-123.929331
0.750000	-24.518012	-126.252716	-0.055661	-35.741604	-0.055661	-35.741604	-24.518243	-126.356148
0.800000	-24.098025	-128.667544	-0.059751	-38.111663	-0.059751	-38.111663	-24.098261	-128.779401
0.850000	-23.723439	-131.078837	-0.063852	-40.480426	-0.063852	-40.480426	-23.723680	-131.199488
0.900000	-23.389442	-133.487115	-0.067938	-42.848041	-0.067938	-42.848041	-23.389688	-133.616953
0.950000	-23.093091	-135.892669	-0.071980	-45.214615	-0.071980	-45.214615	-23.093342	-136.032132
1.000000	-22.833403	-138.295638	-0.075951	-47.580234	-0.075951	-47.580234	-22.833658	-138.445239
1.050000	-22.607138	-140.696390	-0.079830	-49.945097	-0.079830	-49.945097	-22.607396	-140.856675
1.100000	-22.412609	-143.095162	-0.083596	-52.309366	-0.083596	-52.309366	-22.412870	-143.266736
1.150000	-22.249571	-145.492119	-0.087225	-54.673208	-0.087225	-54.673208	-22.249834	-145.675682
1.200000	-22.116674	-147.887526	-0.090703	-57.036828	-0.090703	-57.036828	-22.116938	-148.083852
1.250000	-22.012661	-150.281651	-0.094020	-59.400427	-0.094020	-59.400427	-22.012923	-150.491589
1.300000	-21.937642	-152.674717	-0.097161	-61.764219	-0.097161	-61.764219	-21.937902	-152.899238
1.350000	-21.891942	-155.066975	-0.100113	-64.128432	-0.100113	-64.128432	-21.892197	-155.307198
1.400000	-21.874525	-157.458728	-0.102880	-66.493273	-0.102880	-66.493273	-21.874773	-157.715871
1.450000	-21.885732	-159.850251	-0.105456	-68.858961	-0.105456	-68.858961	-21.885970	-160.125698
1.500000	-21.927585	-162.241855	-0.107834	-71.225781	-0.107834	-71.225781	-21.927811	-162.537273
1.550000	-21.999260	-164.633861	-0.110025	-73.593902	-0.110025	-73.593902	-21.999469	-164.951064
1.600000	-22.101784	-167.026596	-0.112036	-75.963540	-0.112036	-75.963540	-22.101974	-167.367667
1.650000	-22.237890	-169.420473	-0.113867	-78.334992	-0.113867	-78.334992	-22.238053	-169.787942
1.700000	-22.408526	-171.815867	-0.115535	-80.708437	-0.115535	-80.708437	-22.408656	-172.212623
1.750000	-22.615331	-174.213169	-0.117056	-83.084047	-0.117056	-83.084047	-22.615420	-174.642551
1.800000	-22.861462	-176.612870	-0.118445	-85.462054	-0.118445	-85.462054	-22.861500	-177.078890
1.850000	-23.150252	-179.015492	-0.119719	-87.842653	-0.119719	-87.842653	-23.150226	-179.522956
1.900000	-23.486232	178.578320	-0.120901	-90.226062	-0.120901	-90.226062	-23.486123	178.023513
1.950000	-23.874597	176.167840	-0.122014	-92.612459	-0.122014	-92.612459	-23.874380	175.558412
2.000000	-24.321441	173.752249	-0.123086	-95.001972	-0.123086	-95.001972	-24.321084	173.079201
2.050000	-24.835014	171.330471	-0.124146	-97.394748	-0.124146	-97.394748	-24.834469	170.582386
2.100000	-25.425977	168.901101	-0.125222	-99.790917	-0.125222	-99.790917	-25.425175	168.063195
2.150000	-26.108394	166.462219	-0.126348	-102.190591	-0.126348	-102.190591	-26.107230	165.514881
2.200000	-26.901277	164.011072	-0.127556	-104.593868	-0.127556	-104.593868	-26.899592	162.927518
2.250000	-27.831166	161.543485	-0.128881	-107.000824	-0.128881	-107.000824	-27.828692	160.285788
2.300000	-28.936613	159.052705	-0.130360	-109.411518	-0.130360	-109.411518	-28.932889	157.564648
2.350000	-30.276659	156.526924	-0.132028	-111.825987	-0.132028	-111.825987	-30.270810	154.720051
2.400000	-31.948406	153.943300	-0.133925	-114.244247	-0.133925	-114.244247	-31.938586	151.666618
2.450000	-34.128755	151.251017	-0.136087	-116.666292	-0.136087	-116.666292	-34.110382	148.214685
2.500000	-37.195845	148.310531	-0.138553	-119.092096	-0.138553	-119.092096	-37.154135	143.846500
2.550000	-42.238844	144.475325	-0.141369	-121.521686	-0.141369	-121.521686	-42.089882	136.217537
2.600000	-56.540325	122.588476	-0.144567	-123.954906	-0.144567	-123.954906	-53.026710	90.331596
2.650000	-45.777193	-31.833414	-0.148183	-126.391657	-0.148183	-126.391657	-45.335543	-17.793122
2.700000	-38.516716	-37.562837	-0.152254	-128.831818	-0.152254	-128.831818	-38.428876	-31.504733
2.750000	-34.522837	-40.784428	-0.156814	-131.275245	-0.156814	-131.275245	-34.484438	-36.857664
2.800000	-31.734569	-43.583936	-0.161895	-133.721772	-0.161895	-133.721772	-31.712404	-40.649929
2.850000	-29.581471	-46.232445	-0.167531	-136.171212	-0.167531	-136.171212	-29.566695	-43.873055
2.900000	-27.822743	-48.810261	-0.173748	-138.623356	-0.173748	-138.623356	-27.811983	-46.825422
2.950000	-26.333844	-51.349713	-0.180574	-141.077976	-0.180574	-141.077976	-26.325529	-49.628159
3.000000	-25.041926	-53.866264	-0.188032	-143.534825	-0.188032	-143.534825	-25.035219	-52.339721
3.050000	-23.900666	-56.368173	-0.196144	-145.993639	-0.196144	-145.993639	-23.895079	-54.991720
3.100000	-22.878767	-58.860184	-0.204926	-148.454140	-0.204926	-148.454140	-22.873996	-57.602681
3.150000	-21.954015	-61.345120	-0.214397	-150.916042	-0.214397	-150.916042	-21.949859	-60.183955
3.200000	-21.110218	-63.824784	-0.224568	-153.379032	-0.224568	-153.379032	-21.106538	-62.743151
3.250000	-20.335171	-66.300322	-0.235440	-155.842782	-0.235440	-155.842782	-20.331869	-65.285452
3.300000	-19.619350	-68.772409	-0.247014	-158.306970	-0.247014	-158.306970	-19.616354	-67.814283
3.350000	-18.955230	-71.241445	-0.259288	-160.771267	-0.259288	-160.771267	-18.952484	-70.332052
3.400000	-18.336753	-73.707642	-0.272255	-163.235340	-0.272255	-163.235340	-18.334216	-72.840471
3.450000	-17.758975	-76.171070	-0.285906	-165.698855	-0.285906	-165.698855	-17.756615	-75.340744
3.500000	-17.217819	-78.631700	-0.300229	-168.161469	-0.300229	-168.161469	-17.215609	-77.833714
3.550000	-16.709854	-81.089473	-0.315200	-170.622862	-0.315200	-170.622862	-16.707773	-80.320058
3.600000	-16.232174	-83.544263	-0.330792	-173.082712	-0.330792	-173.082712	-16.230204	-82.800205
3.650000	-15.782295	-85.995917	-0.346980	-175.540708	-0.346980	-175.540708	-15.780422	-85.274445
3.700000	-15.358076	-88.444258	-0.363729	-177.996550	-0.363729	-177.996550	-15.356287	-87.742969
3.750000	-14.957657	-90.889107	-0.381003	179.550048	-0.381003	179.550048	-14.955942	-90.205896
3.800000	-14.579495	-93.330213	-0.398769	177.099405	-0.398769	177.099405	-14.577846	-92.663199
3.850000	-14.222089	-95.767455	-0.416975	174.651735	-0.416975	174.651735	-14.220497	-95.114996
3.900000	-13.884168	-98.200661	-0.435572	172.207268	-0.435572	172.207268	-13.882626	-97.561290
3.950000	-13.564600	-100.629673	-0.454510	169.766216	-0.454510	169.766216	-13.563102	-100.002071
4.000000	-13.262373	-103.054353	-0.473736	167.328766	-0.473736	167.328766	-13.260915	-102.437324
4.050000	-12.976579	-105.474578	-0.493193	164.895080	-0.493193	164.895080	-12.975155	-104.867038
4.100000	-12.706398	-107.890253	-0.512824	162.465295	-0.512824	162.465295	-12.705003	-107.291205
4.150000	-12.451087	-110.301302	-0.532566	160.039520	-0.532566	160.039520	-12.449718	-109.709833
4.200000	-12.209973	-112.707680	-0.552360	157.617837	-0.552360	157.617837	-12.208626	-112.122941
4.250000	-11.982442	-115.109366	-0.572140	155.200299	-0.572140	155.200299	-11.981114	-114.530571
4.300000	-11.767936	-117.506370	-0.591842	152.786930	-0.591842	152.786930	-11.766624	-116.932782
4.350000	-11.565945	-119.898730	-0.611402	150.377722	-0.611402	150.377722	-11.564645	-119.329656
4.400000	-11.376084	-122.286465	-0.630750	147.972685	-0.630750	147.972685	-11.374795	-121.721245
4.450000	-11.197930	-124.669678	-0.649819	145.571750	-0.649819	145.571750	-11.196649	-124.107683
4.500000	-11.031008	-127.048549	-0.668546	143.174772	-0.668546	143.174772	-11.029733	-126.489186
4.550000	-10.874961	-129.423238	-0.686866	140.781625	-0.686866	140.781625	-10.873690	-128.865937
4.600000	-10.729461	-131.793934	-0.704717	138.392153	-0.704717	138.392153	-10.728192	-131.238145
4.650000	-10.594212	-134.160857	-0.722035	136.006169	-0.722035	136.006169	-10.592942	-133.606044
4.700000	-10.468943	-136.524251	-0.738761	133.623461	-0.738761	133.623461	-10.467671	-135.969894
4.750000	-10.353410	-138.884392	-0.754834	131.243788	-0.754834	131.243788	-10.352135	-138.329979
4.800000	-10.247393	-141.241580	-0.770199	128.866882	-0.770199	128.866882	-10.246113	-140.686604
4.850000	-10.150698	-143.596139	-0.784800	126.492452	-0.784800	126.492452	-10.149410	-143.040101
4.900000	-10.063149	-145.948420	-0.798586	124.120179	-0.798586	124.120179	-10.061854	-145.390821
4.950000	-9.984598	-148.298795	-0.811507	121.749725	-0.811507	121.749725	-9.983292	-147.739135
5.000000	-9.914914	-150.647657	-0.823518	119.380725	-0.823518	119.380725	-9.913597	-150.085433
5.050000	-9.854170	-152.995407	-0.834554	117.012811	-0.834554	117.012811	-9.852840	-152.430100
5.100000	-9.802100	-155.342512	-0.844596	114.645545	-0.844596	114.645545	-9.800755	-154.773605
5.150000	-9.758638	-157.689421	-0.853608	112.278505	-0.853608	112.278505	-9.757277	-157.116387
5.200000	-9.723739	-160.036602	-0.861559	109.911252	-0.861559	109.911252	-9.722360	-159.458901
5.250000	-9.697379	-162.384533	-0.868421	107.543329	-0.868421	107.543329	-9.695979	-161.801608
5.300000	-9.679553	-164.733705	-0.874171	105.174268	-0.874171	105.174268	-9.678132	-164.144984
5.350000	-9.670282	-167.084621	-0.878789	102.803588	-0.878789	102.803588	-9.668836	-166.489507
5.400000	-9.669604	-169.437790	-0.882260	100.430797	-0.882260	100.430797	-9.668132	-168.835662
5.450000	-9.677583	-171.793727	-0.884575	98.055392	-0.884575	98.055392	-9.676083	-171.183940
5.500000	-9.694305	-174.152955	-0.885727	95.676866	-0.885727	95.676866	-9.692773	-173.534828
5.550000	-9.719879	-176.515997	-0.885716	93.294704	-0.885716	93.294704	-9.718314	-175.888815
5.600000	-9.754442	-178.883375	-0.884546	90.908387	-0.884546	90.908387	-9.752839	-178.246384
5.650000	-9.798253	178.744329	-0.882213	88.517339	-0.882213	88.517339	-9.796609	179.391936
5.700000	-9.851505	176.366580	-0.878732	86.121020	-0.878732	86.121020	-9.849816	177.025663
5.750000	-9.914320	173.982918	-0.874135	83.718964	-0.874135	83.718964	-9.912582	174.654386
5.800000	-9.986947	171.592843	-0.868445	81.310654	-0.868445	81.310654	-9.985155	172.277665
5.850000	-10.069670	169.195863	-0.861693	78.895583	-0.861693	78.895583	-10.067819	169.895081
5.900000	-10.162808	166.791501	-0.853914	76.473251	-0.853914	76.473251	-10.160892	167.506237
5.950000	-10.266719	164.379299	-0.845146	74.043166	-0.845146	74.043166	-10.264732	165.110763
6.000000	-10.381804	161.958816	-0.835435	71.604854	-0.835435	71.604854	-10.379738	162.708321
6.050000	-10.508509	159.529637	-0.824830	69.157850	-0.824830	69.157850	-10.506356	160.298609
6.100000	-10.647330	157.091371	-0.813388	66.701711	-0.813388	66.701711	-10.645081	157.881367
6.150000	-10.798819	154.643661	-0.801166	64.236012	-0.801166	64.236012	-10.796463	155.456383
6.200000	-10.963590	152.186182	-0.788231	61.760351	-0.788231	61.760351	-10.961117	153.023501
6.250000	-11.142327	149.718648	-0.774650	59.274351	-0.774650	59.274351	-11.139722	150.582627
6.300000	-11.336029	147.240588	-0.760486	56.777422	-0.760486	56.777422	-11.333277	148.133567
6.350000	-11.545315	144.752031	-0.745832	54.269471	-0.745832	54.269471	-11.542397	145.676562
6.400000	-11.771135	142.252842	-0.730769	51.750213	-0.730769	51.750213	-11.768031	143.211776
6.450000	-12.014554	139.742950	-0.715383	49.219398	-0.715383	49.219398	-12.011240	140.739487
6.500000	-12.276770	137.222352	-0.699762	46.676815	-0.699762	46.676815	-12.273218	138.260100
6.550000	-12.559137	134.691124	-0.683998	44.122290	-0.683998	44.122290	-12.555313	135.774175
6.600000	-12.863191	132.149435	-0.668184	41.555693	-0.668184	41.555693	-12.859054	133.282455
6.650000	-13.190684	129.597557	-0.652417	38.976936	-0.652417	38.976936	-13.186186	130.785896
6.700000	-13.543626	127.035883	-0.636794	36.385977	-0.636794	36.385977	-13.538707	128.285723
6.750000	-13.924341	124.464951	-0.621413	33.782823	-0.621413	33.782823	-13.918927	125.783481
6.800000	-14.335531	121.885469	-0.606372	31.167526	-0.606372	31.167526	-14.329533	123.281119
6.850000	-14.780372	119.298357	-0.591770	28.540189	-0.591770	28.540189	-14.773675	120.781101
6.900000	-15.262768	116.704747	-0.577711	25.900838	-0.577711	25.900838	-15.255224	118.286655
6.950000	-15.787230	114.106227	-0.564294	23.249682	-0.564294	23.249682	-15.778649	115.801953
7.000000	-16.359095	111.504871	-0.551607	20.587106	-0.551607	20.587106	-16.349226	113.332218
7.050000	-16.985101	108.903305	-0.539741	17.913414	-0.539741	17.913414	-16.973607	110.884408
7.100000	-17.673677	106.305028	-0.528780	15.228956	-0.528780	15.228956	-17.660095	108.467883
7.150000	-18.435577	103.714807	-0.518809	12.534130	-0.518809	12.534130	-18.419252	106.095527
7.200000	-19.284823	101.139339	-0.509905	9.829375	-0.509905	9.829375	-19.264799	103.785606
7.250000	-20.240198	98.588371	-0.502137	7.115174	-0.502137	7.115174	-20.215029	101.564937
7.300000	-21.327696	96.076758	-0.495572	4.392046	-0.495572	4.392046	-21.295085	99.474621
7.350000	-22.584775	93.628451	-0.490268	1.660543	-0.490268	1.660543	-22.540853	97.581098
7.400000	-24.068299	91.284956	-0.486275	-1.078751	-0.486275	-1.078751	-24.006025	95.999265
7.450000	-25.870793	89.125343	-0.483636	-3.825226	-0.483636	-3.825226	-25.775948	94.946097
7.500000	-28.158262	87.321175	-0.482385	-6.578255	-0.482385	-6.578255	-27.997526	94.883089
7.550000	-31.276045	86.375192	-0.482579	-9.337303	-0.482579	-9.337303	-30.948736	97.100085
7.600000	-36.151426	88.305882	-0.484203	-12.101573	-0.484203	-12.101573	-35.198070	106.030192
7.650000	-46.522569	121.214846	-0.487264	-14.870403	-0.487264	-14.870403	-40.723924	143.642653
7.700000	-41.041941	-129.579039	-0.491759	-17.643136	-0.491759	-17.643136	-38.477140	-154.577969
7.750000	-33.863606	-119.081335	-0.497677	-20.419119	-0.497677	-20.419119	-33.257138	-133.625271
7.800000	-29.937613	-118.787397	-0.504997	-23.197714	-0.504997	-23.197714	-29.682254	-128.398363
7.850000	-27.255457	-120.194764	-0.513688	-25.978300	-0.513688	-25.978300	-27.115218	-127.358844
7.900000	-25.226202	-122.204903	-0.523713	-28.760280	-0.523713	-28.760280	-25.137165	-127.929649
7.950000	-23.600405	-124.498807	-0.535024	-31.543088	-0.535024	-31.543088	-23.538489	-129.280775
8.000000	-22.249516	-126.948946	-0.547567	-34.326190	-0.547567	-34.326190	-22.203676	-131.067637
8.050000	-21.098599	-129.494098	-0.561280	-37.109089	-0.561280	-37.109089	-21.063065	-133.122009
8.100000	-20.100144	-132.101083	-0.576092	-39.891333	-0.576092	-39.891333	-20.071608	-135.352051
8.150000	-19.222331	-134.750598	-0.591939	-42.672500	-0.591939	-42.672500	-19.198754	-137.704289
8.200000	-18.442533	-137.429983	-0.608737	-45.452222	-0.608737	-45.452222	-18.422592	-140.143676
8.250000	-17.743972	-140.130739	-0.626388	-48.230209	-0.626388	-48.230209	-17.726775	-142.646726
8.300000	-17.114142	-142.847271	-0.644801	-51.006215	-0.644801	-51.006215	-17.099062	-145.198072
8.350000	-16.542873	-145.575318	-0.663867	-53.780117	-0.663867	-53.780117	-16.529459	-147.785898
8.400000	-16.023593	-148.312557	-0.683525	-56.551642	-0.683525	-56.551642	-16.011500	-150.404164
8.450000	-15.549593	-151.056441	-0.703653	-59.320790	-0.703653	-59.320790	-15.538567	-153.045703
8.500000	-15.115867	-153.805360	-0.724152	-62.087546	-0.724152	-62.087546	-15.105711	-155.706028
8.550000	-14.718280	-156.558116	-0.744919	-64.851958	-0.744919	-64.851958	-14.708841	-158.381712
8.600000	-14.353379	-159.313830	-0.765852	-67.614131	-0.765852	-67.614131	-14.344536	-161.070125
8.650000	-14.018251	-162.071876	-0.786850	-70.374232	-0.786850	-70.374232	-14.009908	-163.769247
8.700000	-13.710421	-164.831839	-0.807813	-73.132483	-0.807813	-73.132483	-13.702503	-166.477541
8.750000	-13.427773	-167.593475	-0.828640	-75.889165	-0.828640	-75.889165	-13.420219	-169.193852
8.800000	-13.169479	-170.356798	-0.849210	-78.644561	-0.849210	-78.644561	-13.162241	-171.917781
8.850000	-12.931617	-173.121589	-0.869485	-81.399212	-0.869485	-81.399212	-12.924660	-174.647684
8.900000	-12.715094	-175.888259	-0.889309	-84.153466	-0.889309	-84.153466	-12.708391	-177.384208
8.950000	-12.517329	-178.656871	-0.908642	-86.907840	-0.908642	-86.907840	-12.510859	179.873425
9.000000	-12.337866	178.572158	-0.927379	-89.662902	-0.927379	-89.662902	-12.331616	177.125001
9.050000	-12.176085	175.798366	-0.945423	-92.419276	-0.945423	-92.419276	-12.170046	174.370290
9.100000	-12.030165	173.021514	-0.962758	-95.177485	-0.962758	-95.177485	-12.024333	171.609547
9.150000	-11.901328	170.240578	-0.979199	-97.938552	-0.979199	-97.938552	-11.895704	168.841547
9.200000	-11.786651	167.455681	-0.994833	-100.702698	-0.994833	-100.702698	-11.781236	166.067076
9.250000	-11.688340	164.665276	-1.009414	-103.471470	-1.009414	-103.471470	-11.683139	163.284198
9.300000	-11.603669	161.869613	-1.023059	-106.244927	-1.023059	-106.244927	-11.598687	160.493715
9.350000	-11.533972	159.067324	-1.035595	-109.024584	-1.035595	-109.024584	-11.529214	157.694033
9.400000	-11.478278	156.258104	-1.047041	-111.811011	-1.047041	-111.811011	-11.473748	154.885025
9.450000	-11.436507	153.441275	-1.057357	-114.605187	-1.057357	-114.605187	-11.432208	152.066014
9.500000	-11.409467	150.615708	-1.066443	-117.408634	-1.066443	-117.408634	-11.405396	149.235694
9.550000	-11.395615	147.781806	-1.074413	-120.221320	-1.074413	-120.221320	-11.391768	146.394681
9.600000	-11.397622	144.937400	-1.081035	-123.046235	-1.081035	-123.046235	-11.393988	143.540228
9.650000	-11.412965	142.083921	-1.086536	-125.882317	-1.086536	-125.882317	-11.409527	140.674115
9.700000	-11.444604	139.219301	-1.090700	-128.733041	-1.090700	-128.733041	-11.441336	137.793512
9.750000	-11.490601	136.345058	-1.093729	-131.597413	-1.093729	-131.597413	-11.487475	134.900136
9.800000	-11.553430	133.460026	-1.095491	-134.478592	-1.095491	-134.478592	-11.550406	131.991984
9.850000	-11.633155	130.565056	-1.096067	-137.377328	-1.096067	-137.377328	-11.630187	129.069521
9.900000	-11.730649	127.660921	-1.095493	-140.295075	-1.095493	-140.295075	-11.727691	126.132846
9.950000	-11.846939	124.748865	-1.093822	-143.233351	-1.093822	-143.233351	-11.843946	123.182359
10.000000	-11.983225	121.830729	-1.091119	-146.193733	-1.091119	-146.193733	-11.980160	120.218847
