! freq	dB(S11)	phase(S11)	dB(S12)	phase(S12)	
!     	dB(S21)	phase(S21)	dB(S22)	phase(S22)	
!S-par simulation data
#  GHz  S  DB  R 50
0.000000	-0.000000	0.000000	-342.417370	0.000000	-342.417370	0.000000	-0.000000	0.000000
0.050000	-0.000567	-0.962008	-73.928543	87.165141	-73.928543	87.165141	-0.002913	-4.674727
0.100000	-0.001997	-1.920531	-67.927971	84.337665	-67.927971	84.337665	-0.010198	-9.323005
0.150000	-0.003785	-2.874650	-64.439450	81.529768	-64.439450	81.529768	-0.019171	-13.932765
0.200000	-0.005563	-3.825375	-61.986536	78.755470	-61.986536	78.755470	-0.027927	-18.502189
0.250000	-0.007183	-4.774136	-60.104102	76.019836	-60.104102	76.019836	-0.035737	-23.032497
0.300000	-0.008627	-5.721877	-58.584821	73.319957	-58.584821	73.319957	-0.042513	-27.522078
0.350000	-0.009922	-6.669089	-57.318431	70.651493	-57.318431	70.651493	-0.048397	-31.967255
0.400000	-0.011108	-7.615970	-56.239035	68.012642	-56.239035	68.012642	-0.053576	-36.363956
0.450000	-0.012218	-8.562543	-55.304824	65.405112	-55.304824	65.405112	-0.058191	-40.706429
0.500000	-0.013281	-9.508768	-54.486470	62.831026	-54.486470	62.831026	-0.062369	-44.990552
0.550000	-0.014317	-10.454568	-53.763206	60.293256	-53.763206	60.293256	-0.066195	-49.211877
0.600000	-0.015340	-11.399855	-53.119689	57.794801	-53.119689	57.794801	-0.069732	-53.366073
0.650000	-0.016361	-12.344551	-52.543634	55.337499	-52.543634	55.337499	-0.073031	-57.450864
0.700000	-0.017388	-13.288571	-52.025956	52.923944	-52.025956	52.923944	-0.076123	-61.462725
0.750000	-0.018427	-14.231844	-51.558872	50.555437	-51.558872	50.555437	-0.079038	-65.400313
0.800000	-0.019481	-15.174306	-51.136155	48.233247	-51.136155	48.233247	-0.081793	-69.262356
0.850000	-0.020551	-16.115883	-50.752908	45.959032	-50.752908	45.959032	-0.084401	-73.047005
0.900000	-0.021639	-17.056532	-50.404436	43.732754	-50.404436	43.732754	-0.086876	-76.755198
0.950000	-0.022744	-17.996192	-50.087227	41.555425	-50.087227	41.555425	-0.089225	-80.386237
1.000000	-0.023868	-18.934806	-49.798179	39.427667	-49.798179	39.427667	-0.091454	-83.940133
1.050000	-0.025009	-19.872338	-49.534375	37.349252	-49.534375	37.349252	-0.093569	-87.418275
1.100000	-0.026165	-20.808743	-49.293396	35.320194	-49.293396	35.320194	-0.095576	-90.821714
1.150000	-0.027336	-21.743968	-49.073254	33.340911	-49.073254	33.340911	-0.097477	-94.150974
1.200000	-0.028521	-22.678009	-48.871682	31.409843	-48.871682	31.409843	-0.099280	-97.409522
1.250000	-0.029717	-23.610809	-48.687227	29.527475	-48.687227	29.527475	-0.100988	-100.597850
1.300000	-0.030924	-24.542307	-48.518613	27.694450	-48.518613	27.694450	-0.102602	-103.716343
1.350000	-0.032140	-25.472498	-48.364197	25.909244	-48.364197	25.909244	-0.104130	-106.768477
1.400000	-0.033364	-26.401351	-48.222740	24.171343	-48.222740	24.171343	-0.105577	-109.756287
1.450000	-0.034593	-27.328838	-48.093117	22.480188	-48.093117	22.480188	-0.106946	-112.681868
1.500000	-0.035828	-28.254931	-47.974299	20.835189	-47.974299	20.835189	-0.108242	-115.547359
1.550000	-0.037066	-29.179604	-47.865341	19.235728	-47.865341	19.235728	-0.109472	-118.354923
1.600000	-0.038307	-30.102832	-47.765372	17.681162	-47.765372	17.681162	-0.110640	-121.106734
1.650000	-0.039549	-31.024591	-47.673586	16.170831	-47.673586	16.170831	-0.111751	-123.804960
1.700000	-0.040793	-31.944859	-47.589234	14.704056	-47.589234	14.704056	-0.112810	-126.451759
1.750000	-0.042036	-32.863614	-47.511618	13.280140	-47.511618	13.280140	-0.113823	-129.049263
1.800000	-0.043278	-33.780833	-47.440083	11.898370	-47.440083	11.898370	-0.114796	-131.599576
1.850000	-0.044519	-34.696498	-47.374013	10.558012	-47.374013	10.558012	-0.115733	-134.104763
1.900000	-0.045758	-35.610571	-47.312872	9.258745	-47.312872	9.258745	-0.116639	-136.566406
1.950000	-0.046995	-36.523032	-47.256092	7.999764	-47.256092	7.999764	-0.117520	-138.986550
2.000000	-0.048229	-37.433880	-47.203105	6.779819	-47.203105	6.779819	-0.118381	-141.367596
2.050000	-0.049461	-38.343098	-47.153414	5.598068	-47.153414	5.598068	-0.119228	-143.711424
2.100000	-0.050690	-39.250669	-47.106546	4.453634	-47.106546	4.453634	-0.120065	-146.019868
2.150000	-0.051916	-40.156576	-47.062045	3.345598	-47.062045	3.345598	-0.120897	-148.294708
2.200000	-0.053140	-41.060802	-47.019478	2.272995	-47.019478	2.272995	-0.121728	-150.537675
2.250000	-0.054360	-41.963333	-46.978425	1.234807	-46.978425	1.234807	-0.122564	-152.750450
2.300000	-0.055579	-42.864153	-46.938485	0.229962	-46.938485	0.229962	-0.123409	-154.934664
2.350000	-0.056795	-43.763247	-46.899272	-0.742674	-46.899272	-0.742674	-0.124267	-157.091902
2.400000	-0.058009	-44.660602	-46.860415	-1.684299	-46.860415	-1.684299	-0.125142	-159.223701
2.450000	-0.059223	-45.556203	-46.821560	-2.596180	-46.821560	-2.596180	-0.126038	-161.331552
2.500000	-0.060435	-46.450037	-46.782365	-3.479654	-46.782365	-3.479654	-0.126959	-163.416904
2.550000	-0.061646	-47.342052	-46.742480	-4.335581	-46.742480	-4.335581	-0.127911	-165.480736
2.600000	-0.062857	-48.232274	-46.701608	-5.166069	-46.701608	-5.166069	-0.128895	-167.524902
2.650000	-0.064069	-49.120691	-46.659456	-5.972685	-46.659456	-5.972685	-0.129915	-169.550727
2.700000	-0.065282	-50.007290	-46.615751	-6.757068	-46.615751	-6.757068	-0.130976	-171.559503
2.750000	-0.066497	-50.892061	-46.570233	-7.520931	-46.570233	-7.520931	-0.132080	-173.552486
2.800000	-0.067714	-51.774992	-46.522666	-8.266053	-46.522666	-8.266053	-0.133230	-175.530900
2.850000	-0.068933	-52.656072	-46.472830	-8.994282	-46.472830	-8.994282	-0.134430	-177.495940
2.900000	-0.070156	-53.535291	-46.420524	-9.707519	-46.420524	-9.707519	-0.135682	-179.448774
2.950000	-0.071384	-54.412639	-46.365572	-10.407724	-46.365572	-10.407724	-0.136990	178.609456
3.000000	-0.072616	-55.288105	-46.307814	-11.096896	-46.307814	-11.096896	-0.138357	176.677634
3.050000	-0.073853	-56.161679	-46.247117	-11.777074	-46.247117	-11.777074	-0.139786	174.754663
3.100000	-0.075097	-57.033352	-46.183366	-12.450324	-46.183366	-12.450324	-0.141279	172.839467
3.150000	-0.076347	-57.903092	-46.116430	-13.118699	-46.116430	-13.118699	-0.142840	170.931048
3.200000	-0.077605	-58.770888	-46.046238	-13.784359	-46.046238	-13.784359	-0.144471	169.028329
3.250000	-0.078872	-59.636751	-45.972784	-14.449443	-45.972784	-14.449443	-0.146176	167.130210
3.300000	-0.080148	-60.500668	-45.896047	-15.116022	-45.896047	-15.116022	-0.147957	165.235675
3.350000	-0.081434	-61.362626	-45.816026	-15.786141	-45.816026	-15.786141	-0.149817	163.343718
3.400000	-0.082733	-62.222613	-45.732740	-16.461810	-45.732740	-16.461810	-0.151758	161.453343
3.450000	-0.084045	-63.080611	-45.646230	-17.144994	-45.646230	-17.144994	-0.153784	159.563559
3.500000	-0.085374	-63.936604	-45.556556	-17.837607	-45.556556	-17.837607	-0.155898	157.673380
3.550000	-0.086724	-64.790574	-45.463794	-18.541501	-45.463794	-18.541501	-0.158103	155.781823
3.600000	-0.088100	-65.642508	-45.368039	-19.258461	-45.368039	-19.258461	-0.160402	153.887907
3.650000	-0.089511	-66.492401	-45.269399	-19.990196	-45.269399	-19.990196	-0.162799	151.990648
3.700000	-0.090967	-67.340269	-45.167999	-20.738342	-45.167999	-20.738342	-0.165297	150.089063
3.750000	-0.092481	-68.186168	-45.063974	-21.504449	-45.063974	-21.504449	-0.167900	148.182161
3.800000	-0.094063	-69.030173	-44.957393	-22.290441	-44.957393	-22.290441	-0.170615	146.268787
3.850000	-0.095711	-69.872491	-44.848496	-23.097305	-44.848496	-23.097305	-0.173443	144.348052
3.900000	-0.097407	-70.713282	-44.737450	-23.926334	-44.737450	-23.926334	-0.176389	142.418944
3.950000	-0.099120	-71.552608	-44.624429	-24.778736	-44.624429	-24.778736	-0.179458	140.480436
4.000000	-0.100819	-72.390400	-44.509611	-25.655639	-44.509611	-25.655639	-0.182654	138.531491
4.050000	-0.102488	-73.226496	-44.393182	-26.558089	-44.393182	-26.558089	-0.185984	136.571054
4.100000	-0.104127	-74.060730	-44.275328	-27.487057	-44.275328	-27.487057	-0.189452	134.598054
4.150000	-0.105746	-74.892991	-44.156241	-28.443442	-44.156241	-28.443442	-0.193065	132.611402
4.200000	-0.107357	-75.723226	-44.036114	-29.428075	-44.036114	-29.428075	-0.196830	130.609986
4.250000	-0.108974	-76.551427	-43.915140	-30.441724	-43.915140	-30.441724	-0.200754	128.592671
4.300000	-0.110603	-77.377608	-43.793516	-31.485099	-43.793516	-31.485099	-0.204844	126.558300
4.350000	-0.112252	-78.201792	-43.671437	-32.558858	-43.671437	-32.558858	-0.209108	124.505685
4.400000	-0.113924	-79.023985	-43.549079	-33.663955	-43.549079	-33.663955	-0.213558	122.433387
4.450000	-0.115621	-79.844210	-43.426644	-34.800976	-43.426644	-34.800976	-0.218202	120.340116
4.500000	-0.117346	-80.662512	-43.304351	-35.970114	-43.304351	-35.970114	-0.223050	118.224803
4.550000	-0.119098	-81.478909	-43.182394	-37.171867	-43.182394	-37.171867	-0.228111	116.086132
4.600000	-0.120879	-82.293421	-43.060972	-38.406707	-43.060972	-38.406707	-0.233397	113.922748
4.650000	-0.122688	-83.106064	-42.940278	-39.675088	-42.940278	-39.675088	-0.238921	111.733261
4.700000	-0.124528	-83.916854	-42.820512	-40.977444	-42.820512	-40.977444	-0.244696	109.516236
4.750000	-0.126397	-84.725806	-42.701871	-42.314198	-42.701871	-42.314198	-0.250736	107.270198
4.800000	-0.128296	-85.532936	-42.584554	-43.685764	-42.584554	-43.685764	-0.257056	104.993626
4.850000	-0.130225	-86.338258	-42.468764	-45.092553	-42.468764	-45.092553	-0.263672	102.684952
4.900000	-0.132185	-87.141787	-42.354706	-46.534972	-42.354706	-46.534972	-0.270603	100.342561
4.950000	-0.134176	-87.943539	-42.242587	-48.013431	-42.242587	-48.013431	-0.277865	97.964788
5.000000	-0.136198	-88.743528	-42.132621	-49.528345	-42.132621	-49.528345	-0.285479	95.549919
5.050000	-0.138252	-89.541732	-42.025054	-51.080942	-42.025054	-51.080942	-0.293474	93.095300
5.100000	-0.140338	-90.338206	-41.920094	-52.670859	-41.920094	-52.670859	-0.301864	90.599914
5.150000	-0.142456	-91.132966	-41.817975	-54.298531	-41.817975	-54.298531	-0.310673	88.061887
5.200000	-0.144607	-91.926028	-41.718937	-55.964403	-41.718937	-55.964403	-0.319925	85.479293
5.250000	-0.146789	-92.717409	-41.623229	-57.668929	-41.623229	-57.668929	-0.329646	82.850154
5.300000	-0.149005	-93.507127	-41.531111	-59.412573	-41.531111	-59.412573	-0.339863	80.172446
5.350000	-0.151253	-94.295200	-41.442858	-61.195806	-41.442858	-61.195806	-0.350605	77.444093
5.400000	-0.153535	-95.081645	-41.358754	-63.019103	-41.358754	-63.019103	-0.361900	74.662980
5.450000	-0.155851	-95.866482	-41.279100	-64.882946	-41.279100	-64.882946	-0.373780	71.826950
5.500000	-0.158200	-96.649730	-41.204212	-66.787817	-41.204212	-66.787817	-0.386276	68.933812
5.550000	-0.160583	-97.431409	-41.134426	-68.734192	-41.134426	-68.734192	-0.399419	65.981351
5.600000	-0.163001	-98.211537	-41.070095	-70.722542	-41.070095	-70.722542	-0.413243	62.967330
5.650000	-0.165454	-98.990121	-41.011659	-72.753789	-41.011659	-72.753789	-0.427788	59.888787
5.700000	-0.167942	-99.767180	-40.959533	-74.828384	-40.959533	-74.828384	-0.443086	56.743407
5.750000	-0.170465	-100.542754	-40.914082	-76.946272	-40.914082	-76.946272	-0.459164	53.529663
5.800000	-0.173024	-101.316864	-40.875759	-79.107821	-40.875759	-79.107821	-0.476050	50.245374
5.850000	-0.175619	-102.089533	-40.845042	-81.313351	-40.845042	-81.313351	-0.493775	46.888414
5.900000	-0.178249	-102.860783	-40.822444	-83.563124	-40.822444	-83.563124	-0.512363	43.456736
5.950000	-0.180916	-103.630637	-40.808507	-85.857331	-40.808507	-85.857331	-0.531838	39.948397
6.000000	-0.183619	-104.399119	-40.803812	-88.196075	-40.803812	-88.196075	-0.552219	36.361587
6.050000	-0.186359	-105.166253	-40.808973	-90.579360	-40.808973	-90.579360	-0.573518	32.694658
6.100000	-0.189136	-105.932064	-40.824648	-93.007072	-40.824648	-93.007072	-0.595743	28.946161
6.150000	-0.191950	-106.696589	-40.851404	-95.478486	-40.851404	-95.478486	-0.618882	25.115794
6.200000	-0.194802	-107.459819	-40.890306	-97.994389	-40.890306	-97.994389	-0.642951	21.200342
6.250000	-0.197692	-108.221802	-40.941960	-100.553476	-40.941960	-100.553476	-0.667914	17.200541
6.300000	-0.200621	-108.982550	-41.007357	-103.155420	-41.007357	-103.155420	-0.693747	13.115218
6.350000	-0.203588	-109.742103	-41.087255	-105.798742	-41.087255	-105.798742	-0.720397	8.945455
6.400000	-0.206594	-110.500489	-41.182602	-108.482195	-41.182602	-108.482195	-0.747804	4.691873
6.450000	-0.209638	-111.257733	-41.294407	-111.204264	-41.294407	-111.204264	-0.775894	0.355584
6.500000	-0.212722	-112.013864	-41.423743	-113.963148	-41.423743	-113.963148	-0.804578	-4.061763
6.550000	-0.215846	-112.768909	-41.571750	-116.756736	-41.571750	-116.756736	-0.833750	-8.557952
6.600000	-0.219010	-113.522889	-41.739792	-119.582822	-41.739792	-119.582822	-0.863288	-13.130757
6.650000	-0.222215	-114.275838	-41.929081	-122.438387	-41.929081	-122.438387	-0.893052	-17.776265
6.700000	-0.225459	-115.027792	-42.140895	-125.320067	-42.140895	-125.320067	-0.922889	-22.489932
6.750000	-0.228745	-115.778767	-42.376977	-128.224569	-42.376977	-128.224569	-0.952632	-27.267873
6.800000	-0.232073	-116.528803	-42.638782	-131.147628	-42.638782	-131.147628	-0.982106	-32.104098
6.850000	-0.235441	-117.277928	-42.928077	-134.084773	-42.928077	-134.084773	-1.011125	-36.992666
6.900000	-0.238852	-118.026175	-43.246805	-137.031050	-43.246805	-137.031050	-1.039504	-41.927092
6.950000	-0.242305	-118.773573	-43.597117	-139.980973	-43.597117	-139.980973	-1.067052	-46.900400
7.000000	-0.245801	-119.520153	-43.981426	-142.928463	-43.981426	-142.928463	-1.093586	-51.905193
7.050000	-0.249339	-120.265947	-44.402464	-145.866765	-44.402464	-145.866765	-1.118927	-56.933739
7.100000	-0.252921	-121.010983	-44.863453	-148.788191	-44.863453	-148.788191	-1.142901	-61.978093
7.150000	-0.256547	-121.755290	-45.368106	-151.683862	-45.368106	-151.683862	-1.165348	-67.030007
7.200000	-0.260218	-122.498907	-45.920566	-154.544037	-45.920566	-154.544037	-1.186150	-72.081169
7.250000	-0.263932	-123.241868	-46.526010	-157.357092	-46.526010	-157.357092	-1.205197	-77.123499
7.300000	-0.267692	-123.984204	-47.190762	-160.109024	-47.190762	-160.109024	-1.222402	-82.149098
7.350000	-0.271497	-124.725950	-47.922686	-162.782436	-47.922686	-162.782436	-1.237705	-87.150349
7.400000	-0.275347	-125.467138	-48.731754	-165.354914	-48.731754	-165.354914	-1.251069	-92.120004
7.450000	-0.279244	-126.207803	-49.630892	-167.796383	-49.630892	-167.796383	-1.262482	-97.051267
7.500000	-0.283187	-126.947978	-50.637257	-170.064589	-50.637257	-170.064589	-1.271957	-101.937859
7.550000	-0.287177	-127.687692	-51.774181	-172.092195	-51.774181	-172.092195	-1.279500	-106.773263
7.600000	-0.291215	-128.426986	-53.074603	-173.781187	-53.074603	-173.781187	-1.285195	-111.553053
7.650000	-0.295300	-129.165895	-54.586875	-174.961160	-54.586875	-174.961160	-1.289113	-116.272786
7.700000	-0.299434	-129.904456	-56.385124	-175.316554	-56.385124	-175.316554	-1.291339	-120.928660
7.750000	-0.303616	-130.642702	-58.588402	-174.192871	-58.588402	-174.192871	-1.291970	-125.517504
7.800000	-0.307848	-131.380670	-61.391321	-170.012839	-61.391321	-170.012839	-1.291110	-130.036765
7.850000	-0.312129	-132.118396	-65.037029	-158.226861	-65.037029	-158.226861	-1.288870	-134.484481
7.900000	-0.316459	-132.855916	-68.743147	-126.248423	-68.743147	-126.248423	-1.285363	-138.859246
7.950000	-0.320841	-133.593265	-67.629316	-80.291457	-67.629316	-80.291457	-1.280691	-143.159459
8.000000	-0.325273	-134.330483	-63.831422	-58.341857	-63.831422	-58.341857	-1.274977	-147.385070
8.050000	-0.329756	-135.067606	-60.752426	-50.339111	-60.752426	-50.339111	-1.268333	-151.536474
8.100000	-0.334291	-135.804673	-58.425809	-47.408600	-58.425809	-47.408600	-1.260867	-155.614095
8.150000	-0.338878	-136.541720	-56.606765	-46.635146	-56.606765	-46.635146	-1.252677	-159.618690
8.200000	-0.343518	-137.278786	-55.134087	-46.934170	-55.134087	-46.934170	-1.243858	-163.551308
8.250000	-0.348210	-138.015910	-53.909029	-47.826694	-53.909029	-47.826694	-1.234498	-167.413248
8.300000	-0.352955	-138.753130	-52.868742	-49.071610	-52.868742	-49.071610	-1.224678	-171.206020
8.350000	-0.357754	-139.490485	-51.971405	-50.535859	-51.971405	-50.535859	-1.214470	-174.930989
8.400000	-0.362607	-140.228016	-51.187851	-52.139344	-51.187851	-52.139344	-1.203942	-178.589698
8.450000	-0.367514	-140.965761	-50.496572	-53.830505	-50.496572	-53.830505	-1.193159	177.815264
8.500000	-0.372476	-141.703761	-49.881773	-55.576530	-49.881773	-55.576530	-1.182176	174.281884
8.550000	-0.377492	-142.442055	-49.331360	-57.354896	-49.331360	-57.354896	-1.171042	170.808088
8.600000	-0.382563	-143.180684	-48.835864	-59.149695	-48.835864	-59.149695	-1.159800	167.391770
8.650000	-0.387689	-143.919687	-48.387725	-60.949414	-48.387725	-60.949414	-1.148488	164.030802
8.700000	-0.392871	-144.659108	-47.980810	-62.745544	-47.980810	-62.745544	-1.137140	160.723057
8.750000	-0.398108	-145.398986	-47.610068	-64.531657	-47.610068	-64.531657	-1.125785	157.466417
8.800000	-0.403401	-146.139371	-47.271522	-66.302518	-47.271522	-66.302518	-1.114450	154.259463
8.850000	-0.408750	-146.880300	-46.961344	-68.054370	-46.961344	-68.054370	-1.103156	151.099389
8.900000	-0.414155	-147.621822	-46.676686	-69.783668	-46.676686	-69.783668	-1.091922	147.984720
8.950000	-0.419615	-148.363963	-46.414515	-71.488303	-46.414515	-71.488303	-1.080763	144.912215
9.000000	-0.425130	-149.106773	-46.172752	-73.165369	-46.172752	-73.165369	-1.069693	141.880509
9.050000	-0.430700	-149.850296	-45.949406	-74.812151	-45.949406	-74.812151	-1.058722	138.887735
9.100000	-0.436326	-150.594596	-45.742983	-76.424564	-45.742983	-76.424564	-1.047862	135.932995
9.150000	-0.442007	-151.339705	-45.551683	-77.998976	-45.551683	-77.998976	-1.037120	133.013819
9.200000	-0.447741	-152.085663	-45.374013	-79.529919	-45.374013	-79.529919	-1.026501	130.128186
9.250000	-0.453530	-152.832516	-45.208776	-81.008637	-45.208776	-81.008637	-1.016010	127.274445
9.300000	-0.459371	-153.580308	-45.055083	-82.420881	-45.055083	-82.420881	-1.005651	124.451000
9.350000	-0.465264	-154.329087	-44.912770	-83.741957	-44.912770	-83.741957	-0.995428	121.656304
9.400000	-0.471209	-155.078918	-44.784075	-84.922792	-44.784075	-84.922792	-0.985344	118.889304
9.450000	-0.477206	-155.829853	-44.679386	-85.871290	-44.679386	-85.871290	-0.975403	116.148485
9.500000	-0.483252	-156.581922	-44.639727	-86.465672	-44.639727	-86.465672	-0.965603	113.431977
9.550000	-0.489345	-157.335174	-44.789503	-87.067076	-44.789503	-87.067076	-0.955947	110.738422
9.600000	-0.495486	-158.089661	-45.054246	-89.941044	-45.054246	-89.941044	-0.946436	108.066503
9.650000	-0.501671	-158.845434	-44.923265	-93.705724	-44.923265	-93.705724	-0.937071	105.414935
9.700000	-0.507900	-159.602556	-44.679307	-95.846314	-44.679307	-95.846314	-0.927856	102.782625
9.750000	-0.514172	-160.361108	-44.502235	-97.313255	-44.502235	-97.313255	-0.918795	100.168610
9.800000	-0.520483	-161.121111	-44.373490	-98.615308	-44.373490	-98.615308	-0.909887	97.571208
9.850000	-0.526830	-161.882618	-44.273519	-99.868716	-44.273519	-99.868716	-0.901134	94.989247
9.900000	-0.533212	-162.645689	-44.191872	-101.102473	-44.191872	-101.102473	-0.892541	92.421572
9.950000	-0.539626	-163.410382	-44.122993	-102.323448	-44.122993	-102.323448	-0.884111	89.867043
10.000000	-0.546068	-164.176756	-44.063720	-103.532615	-44.063720	-103.532615	-0.875849	87.324524
