! freq	dB(S11)	phase(S11)	dB(S12)	phase(S12)	
!     	dB(S21)	phase(S21)	dB(S22)	phase(S22)	
!S-par simulation data
#  GHz  S  DB  R 50
0.000000	-0.000000	0.000000	-346.577900	0.000000	-346.577900	0.000000	-0.000000	0.000000
0.050000	-0.000589	-0.807932	-104.512137	88.406709	-104.512137	88.406709	-0.001885	-2.492768
0.100000	-0.001826	-1.610957	-98.538812	86.812998	-98.538812	86.812998	-0.005796	-4.969124
0.150000	-0.003083	-2.409892	-95.096002	85.238161	-95.096002	85.238161	-0.009739	-7.431464
0.200000	-0.004212	-3.206834	-92.705930	83.689014	-92.705930	83.689014	-0.013291	-9.885826
0.250000	-0.005246	-4.002814	-90.909468	82.175933	-90.909468	82.175933	-0.016561	-12.334630
0.300000	-0.006237	-4.798227	-89.502533	80.711091	-89.502533	80.711091	-0.019694	-14.778384
0.350000	-0.007215	-5.593201	-88.373185	79.306085	-88.373185	79.306085	-0.022767	-17.217053
0.400000	-0.008194	-6.387760	-87.457883	77.976905	-87.457883	77.976905	-0.025814	-19.650188
0.450000	-0.009179	-7.181887	-86.720430	76.747900	-86.720430	76.747900	-0.028845	-22.077017
0.500000	-0.010169	-7.975600	-86.129286	75.638524	-86.129286	75.638524	-0.031861	-24.497344
0.550000	-0.011164	-8.768894	-85.666598	74.677622	-85.666598	74.677622	-0.034862	-26.910670
0.600000	-0.012162	-9.561737	-85.325114	73.911530	-85.325114	73.911530	-0.037845	-29.316109
0.650000	-0.013164	-10.354129	-85.093540	73.381440	-85.093540	73.381440	-0.040805	-31.713395
0.700000	-0.014167	-11.146056	-84.966075	73.143434	-84.966075	73.143434	-0.043741	-34.102091
0.750000	-0.015170	-11.937476	-84.943063	73.286646	-84.943063	73.286646	-0.046649	-36.481392
0.800000	-0.016174	-12.728361	-85.022310	73.918115	-85.022310	73.918115	-0.049524	-38.850785
0.850000	-0.017178	-13.518701	-85.197382	75.151959	-85.197382	75.151959	-0.052366	-41.210190
0.900000	-0.018181	-14.308426	-85.468033	77.219161	-85.468033	77.219161	-0.055170	-43.558498
0.950000	-0.019184	-15.097517	-85.817464	80.353910	-85.817464	80.353910	-0.057933	-45.895536
1.000000	-0.020185	-15.885942	-86.215290	84.855294	-86.215290	84.855294	-0.060656	-48.220966
1.050000	-0.021186	-16.673632	-86.598003	91.140613	-86.598003	91.140613	-0.063333	-50.533822
1.100000	-0.022186	-17.460594	-86.862822	99.312680	-86.862822	99.312680	-0.065967	-52.834459
1.150000	-0.023185	-18.246796	-86.877618	109.207993	-86.877618	109.207993	-0.068557	-55.122559
1.200000	-0.024183	-19.032172	-86.499049	120.121625	-86.499049	120.121625	-0.071102	-57.397252
1.250000	-0.025181	-19.816683	-85.683020	130.698449	-85.683020	130.698449	-0.073601	-59.658167
1.300000	-0.026178	-20.600341	-84.539842	139.892907	-84.539842	139.892907	-0.076057	-61.905714
1.350000	-0.027174	-21.383123	-83.206116	147.240891	-83.206116	147.240891	-0.078471	-64.139698
1.400000	-0.028171	-22.164934	-81.784819	152.641320	-81.784819	152.641320	-0.080841	-66.358914
1.450000	-0.029167	-22.945801	-80.373621	156.505397	-80.373621	156.505397	-0.083170	-68.563961
1.500000	-0.030162	-23.725721	-79.014524	159.175778	-79.014524	159.175778	-0.085461	-70.754993
1.550000	-0.031158	-24.504665	-77.721683	160.911638	-77.721683	160.911638	-0.087714	-72.931768
1.600000	-0.032155	-25.282543	-76.493134	161.896253	-76.493134	161.896253	-0.089928	-75.093202
1.650000	-0.033151	-26.059419	-75.336716	162.354123	-75.336716	162.354123	-0.092107	-77.240424
1.700000	-0.034148	-26.835274	-74.246940	162.395959	-74.246940	162.395959	-0.094253	-79.373334
1.750000	-0.035146	-27.610063	-73.216737	162.102730	-73.216737	162.102730	-0.096367	-81.491544
1.800000	-0.036145	-28.383784	-72.241788	161.547156	-72.241788	161.547156	-0.098449	-83.595220
1.850000	-0.037144	-29.156425	-71.317258	160.781235	-71.317258	160.781235	-0.100502	-85.684409
1.900000	-0.038145	-29.927960	-70.438253	159.843339	-70.438253	159.843339	-0.102526	-87.759019
1.950000	-0.039147	-30.698378	-69.600922	158.765228	-69.600922	158.765228	-0.104523	-89.819134
2.000000	-0.040151	-31.467681	-68.802183	157.572700	-68.802183	157.572700	-0.106495	-91.865010
2.050000	-0.041157	-32.235856	-68.038849	156.284828	-68.038849	156.284828	-0.108444	-93.896761
2.100000	-0.042164	-33.002895	-67.308092	154.916955	-67.308092	154.916955	-0.110370	-95.914513
2.150000	-0.043174	-33.768787	-66.607401	153.481546	-66.607401	153.481546	-0.112275	-97.918407
2.200000	-0.044186	-34.533521	-65.934543	151.988812	-65.934543	151.988812	-0.114161	-99.908596
2.250000	-0.045201	-35.297089	-65.287527	150.447193	-65.287527	150.447193	-0.116029	-101.885243
2.300000	-0.046220	-36.059481	-64.664569	148.863713	-64.664569	148.863713	-0.117880	-103.848520
2.350000	-0.047241	-36.820686	-64.064070	147.244263	-64.064070	147.244263	-0.119717	-105.798612
2.400000	-0.048266	-37.580696	-63.484587	145.593810	-63.484587	145.593810	-0.121540	-107.735709
2.450000	-0.049295	-38.339500	-62.924819	143.916572	-62.924819	143.916572	-0.123352	-109.660012
2.500000	-0.050328	-39.097089	-62.383583	142.216149	-62.383583	142.216149	-0.125153	-111.571726
2.550000	-0.051366	-39.853426	-61.859502	140.495252	-61.859502	140.495252	-0.126946	-113.470802
2.600000	-0.052408	-40.608528	-61.351945	138.757019	-61.351945	138.757019	-0.128730	-115.357733
2.650000	-0.053456	-41.362386	-60.860011	137.003728	-60.860011	137.003728	-0.130509	-117.232745
2.700000	-0.054509	-42.114989	-60.382877	135.237362	-60.382877	135.237362	-0.132284	-119.096068
2.750000	-0.055568	-42.866259	-59.919204	133.459089	-59.919204	133.459089	-0.134055	-120.947322
2.800000	-0.056633	-43.616309	-59.469386	131.671521	-59.469386	131.671521	-0.135825	-122.787868
2.850000	-0.057705	-44.365076	-59.032278	129.875461	-59.032278	129.875461	-0.137595	-124.617445
2.900000	-0.058783	-45.112550	-58.607285	128.072071	-58.607285	128.072071	-0.139366	-126.436298
2.950000	-0.059869	-45.858721	-58.193852	126.262377	-58.193852	126.262377	-0.141138	-128.244676
3.000000	-0.060962	-46.603580	-57.791467	124.447284	-57.791467	124.447284	-0.142914	-130.042827
3.050000	-0.062062	-47.347118	-57.399650	122.627596	-57.399650	122.627596	-0.144695	-131.831003
3.100000	-0.063171	-48.089325	-57.017958	120.804023	-57.017958	120.804023	-0.146481	-133.609457
3.150000	-0.064288	-48.830193	-56.645975	118.977197	-56.645975	118.977197	-0.148274	-135.378444
3.200000	-0.065414	-49.569712	-56.283312	117.147680	-56.283312	117.147680	-0.150074	-137.138219
3.250000	-0.066549	-50.307875	-55.929607	115.315973	-55.929607	115.315973	-0.151882	-138.889037
3.300000	-0.067694	-51.044672	-55.584519	113.482521	-55.584519	113.482521	-0.153700	-140.631154
3.350000	-0.068847	-51.780216	-55.248140	111.647802	-55.248140	111.647802	-0.155527	-142.365533
3.400000	-0.070012	-52.514243	-54.919273	109.811978	-54.919273	109.811978	-0.157365	-144.090908
3.450000	-0.071187	-53.246881	-54.598129	107.975491	-54.598129	107.975491	-0.159215	-145.808355
3.500000	-0.072374	-53.978123	-54.284444	106.138624	-54.284444	106.138624	-0.161076	-147.518129
3.550000	-0.073571	-54.707960	-53.977966	104.301630	-53.977966	104.301630	-0.162949	-149.220484
3.600000	-0.074780	-55.436386	-53.678460	102.464737	-53.678460	102.464737	-0.164835	-150.915673
3.650000	-0.076002	-56.163395	-53.385701	100.628149	-53.385701	100.628149	-0.166734	-152.603948
3.700000	-0.077235	-56.888980	-53.099480	98.792049	-53.099480	98.792049	-0.168647	-154.285559
3.750000	-0.078482	-57.613136	-52.819598	96.956603	-52.819598	96.956603	-0.170572	-155.960755
3.800000	-0.079742	-58.335825	-52.545812	95.121980	-52.545812	95.121980	-0.172512	-157.629655
3.850000	-0.081015	-59.057074	-52.278008	93.288299	-52.278008	93.288299	-0.174465	-159.292644
3.900000	-0.082303	-59.776878	-52.016014	91.455679	-52.016014	91.455679	-0.176431	-160.949964
3.950000	-0.083605	-60.495232	-51.759672	89.624231	-51.759672	89.624231	-0.178411	-162.601857
4.000000	-0.084922	-61.212053	-51.508732	87.794125	-51.508732	87.794125	-0.180405	-164.248289
4.050000	-0.086255	-61.927479	-51.263236	85.965328	-51.263236	85.965328	-0.182412	-165.890005
4.100000	-0.087602	-62.641445	-51.022960	84.137975	-51.022960	84.137975	-0.184432	-167.527008
4.150000	-0.088966	-63.353947	-50.787776	82.312142	-50.787776	82.312142	-0.186464	-169.159530
4.200000	-0.090347	-64.064983	-50.557559	80.487898	-50.557559	80.487898	-0.188508	-170.787801
4.250000	-0.091744	-64.774551	-50.332192	78.665309	-50.332192	78.665309	-0.190565	-172.412046
4.300000	-0.093158	-65.482649	-50.111564	76.844433	-50.111564	76.844433	-0.192632	-174.032490
4.350000	-0.094591	-66.189275	-49.895568	75.025329	-49.895568	75.025329	-0.194710	-175.649351
4.400000	-0.096041	-66.894428	-49.684105	73.208048	-49.684105	73.208048	-0.196799	-177.262848
4.450000	-0.097510	-67.598109	-49.477078	71.392641	-49.477078	71.392641	-0.198897	-178.873195
4.500000	-0.098999	-68.300317	-49.274396	69.579158	-49.274396	69.579158	-0.201004	179.519397
4.550000	-0.100506	-69.001052	-49.075972	67.767644	-49.075972	67.767644	-0.203119	177.914721
4.600000	-0.102034	-69.700314	-48.881725	65.958144	-48.881725	65.958144	-0.205242	176.312570
4.650000	-0.103582	-70.398105	-48.691574	64.150704	-48.691574	64.150704	-0.207371	174.712746
4.700000	-0.105151	-71.094426	-48.505447	62.345367	-48.505447	62.345367	-0.209506	173.115049
4.750000	-0.106741	-71.789279	-48.323271	60.542177	-48.323271	60.542177	-0.211646	171.519286
4.800000	-0.108352	-72.482665	-48.144980	58.741176	-48.144980	58.741176	-0.213790	169.925267
4.850000	-0.109986	-73.174588	-47.970508	56.942410	-47.970508	56.942410	-0.215937	168.332804
4.900000	-0.111643	-73.865049	-47.799795	55.145921	-47.799795	55.145921	-0.218087	166.741715
4.950000	-0.113322	-74.554053	-47.632783	53.351756	-47.632783	53.351756	-0.220237	165.151821
5.000000	-0.115025	-75.241602	-47.469417	51.559959	-47.469417	51.559959	-0.222387	163.562947
5.050000	-0.116753	-75.927582	-47.309699	49.770782	-47.309699	49.770782	-0.224537	161.974974
5.100000	-0.118504	-76.612248	-47.153468	47.983847	-47.153468	47.983847	-0.226684	160.387611
5.150000	-0.120281	-77.295383	-47.000786	46.199588	-47.000786	46.199588	-0.228828	158.800789
5.200000	-0.122082	-77.977129	-46.851530	44.417812	-46.851530	44.417812	-0.230968	157.214306
5.250000	-0.123909	-78.657437	-46.705692	42.638675	-46.705692	42.638675	-0.233102	155.628021
5.300000	-0.125764	-79.336229	-46.563291	40.862389	-46.563291	40.862389	-0.235229	154.041781
5.350000	-0.127643	-80.013692	-46.424161	39.088670	-46.424161	39.088670	-0.237349	152.455442
5.400000	-0.129549	-80.689764	-46.288310	37.317708	-46.288310	37.317708	-0.239460	150.868872
5.450000	-0.131481	-81.364449	-46.155702	35.549563	-46.155702	35.549563	-0.241561	149.281940
5.500000	-0.133443	-82.037628	-46.026421	33.784572	-46.026421	33.784572	-0.243649	147.694464
5.550000	-0.135434	-82.709402	-45.900358	32.022615	-45.900358	32.022615	-0.245725	146.106341
5.600000	-0.137453	-83.379811	-45.777453	30.263692	-45.777453	30.263692	-0.247787	144.517467
5.650000	-0.139500	-84.048862	-45.657675	28.507878	-45.657675	28.507878	-0.249835	142.927732
5.700000	-0.141576	-84.716564	-45.540998	26.755251	-45.540998	26.755251	-0.251866	141.337027
5.750000	-0.143681	-85.382923	-45.427396	25.005894	-45.427396	25.005894	-0.253880	139.745250
5.800000	-0.145816	-86.047916	-45.316886	23.259977	-45.316886	23.259977	-0.255875	138.152273
5.850000	-0.147985	-86.711462	-45.209567	21.517835	-45.209567	21.517835	-0.257849	136.557906
5.900000	-0.150183	-87.373691	-45.105267	19.779255	-45.105267	19.779255	-0.259802	134.962170
5.950000	-0.152413	-88.034614	-45.003968	18.044337	-45.003968	18.044337	-0.261733	133.364984
6.000000	-0.154674	-88.694238	-44.905653	16.313189	-44.905653	16.313189	-0.263640	131.766271
6.050000	-0.156966	-89.352573	-44.810306	14.585922	-44.810306	14.585922	-0.265524	130.165959
6.100000	-0.159290	-90.009629	-44.717912	12.862652	-44.717912	12.862652	-0.267382	128.563981
6.150000	-0.161649	-90.665322	-44.628608	11.143818	-44.628608	11.143818	-0.269212	126.960142
6.200000	-0.164042	-91.319701	-44.542329	9.429443	-44.542329	9.429443	-0.271013	125.354433
6.250000	-0.166468	-91.972833	-44.458977	7.719485	-44.458977	7.719485	-0.272785	123.746877
6.300000	-0.168928	-92.624727	-44.378544	6.014093	-44.378544	6.014093	-0.274528	122.137430
6.350000	-0.171421	-93.275393	-44.301021	4.313418	-44.301021	4.313418	-0.276241	120.526050
6.400000	-0.173949	-93.924843	-44.226402	2.617623	-44.226402	2.617623	-0.277921	118.912705
6.450000	-0.176512	-94.573079	-44.154696	0.926908	-44.154696	0.926908	-0.279570	117.297352
6.500000	-0.179113	-95.219991	-44.086145	-0.757981	-44.086145	-0.757981	-0.281181	115.679754
6.550000	-0.181750	-95.865720	-44.020492	-2.437414	-44.020492	-2.437414	-0.282759	114.060115
6.600000	-0.184422	-96.510281	-43.957734	-4.111194	-43.957734	-4.111194	-0.284301	112.438422
6.650000	-0.187131	-97.153683	-43.897871	-5.779109	-43.897871	-5.779109	-0.285808	110.814671
6.700000	-0.189878	-97.795872	-43.841050	-7.440568	-43.841050	-7.440568	-0.287277	109.188738
6.750000	-0.192661	-98.436945	-43.787092	-9.095770	-43.787092	-9.095770	-0.288710	107.560778
6.800000	-0.195482	-99.076878	-43.736072	-10.744285	-43.736072	-10.744285	-0.290104	105.930740
6.850000	-0.198341	-99.715687	-43.687992	-12.385844	-43.687992	-12.385844	-0.291461	104.298640
6.900000	-0.201239	-100.353383	-43.642856	-14.020166	-43.642856	-14.020166	-0.292778	102.664502
6.950000	-0.204175	-100.989981	-43.600668	-15.646956	-43.600668	-15.646956	-0.294057	101.028352
7.000000	-0.207151	-101.625494	-43.561431	-17.265904	-43.561431	-17.265904	-0.295296	99.390225
7.050000	-0.210166	-102.259935	-43.525149	-18.876684	-43.525149	-18.876684	-0.296496	97.750159
7.100000	-0.213221	-102.893319	-43.491828	-20.478956	-43.491828	-20.478956	-0.297657	96.108199
7.150000	-0.216316	-103.525661	-43.461471	-22.072363	-43.461471	-22.072363	-0.298778	94.464395
7.200000	-0.219452	-104.156973	-43.434082	-23.656529	-43.434082	-23.656529	-0.299859	92.818803
7.250000	-0.222629	-104.787272	-43.409667	-25.231063	-43.409667	-25.231063	-0.300902	91.171483
7.300000	-0.225845	-105.416614	-43.388100	-26.796017	-43.388100	-26.796017	-0.301907	89.522571
7.350000	-0.229105	-106.044918	-43.369672	-28.349936	-43.369672	-28.349936	-0.302871	87.871982
7.400000	-0.232407	-106.672254	-43.354227	-29.892925	-43.354227	-29.892925	-0.303797	86.219881
7.450000	-0.235751	-107.298636	-43.341767	-31.424513	-43.341767	-31.424513	-0.304686	84.566351
7.500000	-0.239138	-107.924081	-43.332292	-32.944211	-43.332292	-32.944211	-0.305538	82.911477
7.550000	-0.242568	-108.548575	-43.325901	-34.451086	-43.325901	-34.451086	-0.306352	81.255314
7.600000	-0.246043	-109.172163	-43.322493	-35.944986	-43.322493	-35.944986	-0.307132	79.598002
7.650000	-0.249560	-109.794863	-43.322066	-37.425352	-43.322066	-37.425352	-0.307877	77.939641
7.700000	-0.253122	-110.416691	-43.324614	-38.891602	-43.324614	-38.891602	-0.308590	76.280336
7.750000	-0.256728	-111.037663	-43.330131	-40.343127	-43.330131	-40.343127	-0.309271	74.620198
7.800000	-0.260378	-111.657796	-43.338607	-41.779296	-43.338607	-41.779296	-0.309922	72.959338
7.850000	-0.264073	-112.277108	-43.350030	-43.199451	-43.350030	-43.199451	-0.310544	71.297874
7.900000	-0.267813	-112.895615	-43.364385	-44.602911	-43.364385	-44.602911	-0.311139	69.635926
7.950000	-0.271599	-113.513335	-43.381655	-45.988964	-43.381655	-45.988964	-0.311708	67.973619
8.000000	-0.275430	-114.130286	-43.401819	-47.356875	-43.401819	-47.356875	-0.312254	66.311079
8.050000	-0.279307	-114.746485	-43.424852	-48.705879	-43.424852	-48.705879	-0.312778	64.648436
8.100000	-0.283230	-115.361950	-43.450724	-50.035183	-43.450724	-50.035183	-0.313283	62.985824
8.150000	-0.287200	-115.976700	-43.479402	-51.343968	-43.479402	-51.343968	-0.313771	61.323379
8.200000	-0.291216	-116.590753	-43.510848	-52.631385	-43.510848	-52.631385	-0.314244	59.661238
8.250000	-0.295280	-117.204127	-43.545016	-53.896556	-43.545016	-53.896556	-0.314705	57.999542
8.300000	-0.299391	-117.816843	-43.581858	-55.138576	-43.581858	-55.138576	-0.315156	56.338433
8.350000	-0.303546	-118.428954	-43.621180	-56.357977	-43.621180	-56.357977	-0.315601	54.678003
8.400000	-0.307751	-119.040427	-43.663120	-57.551807	-43.663120	-57.551807	-0.316041	53.018460
8.450000	-0.312007	-119.651250	-43.707723	-58.717435	-43.707723	-58.717435	-0.316480	51.360029
8.500000	-0.316309	-120.261524	-43.754610	-59.857421	-43.754610	-59.857421	-0.316920	49.702714
8.550000	-0.320661	-120.871223	-43.803853	-60.968596	-43.803853	-60.968596	-0.317367	48.046758
8.600000	-0.325062	-121.480379	-43.855313	-62.050444	-43.855313	-62.050444	-0.317822	46.392286
8.650000	-0.329510	-122.089033	-43.908808	-63.103033	-43.908808	-63.103033	-0.318289	44.739388
8.700000	-0.334010	-122.697156	-43.964380	-64.122265	-43.964380	-64.122265	-0.318773	43.088380
8.750000	-0.338555	-123.304845	-44.021656	-65.111984	-44.021656	-65.111984	-0.319275	41.439124
8.800000	-0.343155	-123.912022	-44.080775	-66.063984	-44.080775	-66.063984	-0.319803	39.792203
8.850000	-0.347800	-124.518805	-44.141311	-66.984360	-44.141311	-66.984360	-0.320356	38.147314
8.900000	-0.352499	-125.125149	-44.203244	-67.866530	-44.203244	-67.866530	-0.320943	36.504961
8.950000	-0.357245	-125.731115	-44.266297	-68.712878	-44.266297	-68.712878	-0.321564	34.865058
9.000000	-0.362043	-126.336711	-44.330280	-69.520837	-44.330280	-69.520837	-0.322225	33.227852
9.050000	-0.366891	-126.941953	-44.394966	-70.288561	-44.394966	-70.288561	-0.322932	31.593546
9.100000	-0.371788	-127.546890	-44.460096	-71.018079	-44.460096	-71.018079	-0.323685	29.962059
9.150000	-0.376739	-128.151502	-44.525368	-71.702836	-44.525368	-71.702836	-0.324495	28.333951
9.200000	-0.381737	-128.755864	-44.590569	-72.349157	-44.590569	-72.349157	-0.325358	26.708810
9.250000	-0.386790	-129.359948	-44.655227	-72.947895	-44.655227	-72.947895	-0.326291	25.087424
9.300000	-0.391891	-129.963822	-44.719185	-73.505829	-44.719185	-73.505829	-0.327286	23.469331
9.350000	-0.397045	-130.567483	-44.781919	-74.017168	-44.781919	-74.017168	-0.328357	21.855087
9.400000	-0.402250	-131.170969	-44.843145	-74.483979	-44.843145	-74.483979	-0.329504	20.244608
9.450000	-0.407505	-131.774303	-44.902461	-74.905884	-44.902461	-74.905884	-0.330732	18.638027
9.500000	-0.412814	-132.377504	-44.959287	-75.280037	-44.959287	-75.280037	-0.332052	17.035709
9.550000	-0.418171	-132.980609	-45.013529	-75.611735	-45.013529	-75.611735	-0.333458	15.437297
9.600000	-0.423583	-133.583631	-45.064122	-75.893276	-45.064122	-75.893276	-0.334972	13.843665
9.650000	-0.429043	-134.186608	-45.111319	-76.133889	-45.111319	-76.133889	-0.336580	12.254085
9.700000	-0.434559	-134.789561	-45.153891	-76.326558	-45.153891	-76.326558	-0.338306	10.669463
9.750000	-0.440124	-135.392518	-45.191972	-76.478260	-45.191972	-76.478260	-0.340140	9.089291
9.800000	-0.445741	-135.995508	-45.224668	-76.587049	-45.224668	-76.587049	-0.342096	7.514047
9.850000	-0.451410	-136.598558	-45.251591	-76.655401	-45.251591	-76.655401	-0.344178	5.943749
9.900000	-0.457129	-137.201693	-45.272493	-76.686830	-45.272493	-76.686830	-0.346386	4.378310
9.950000	-0.462903	-137.804953	-45.286269	-76.680134	-45.286269	-76.680134	-0.348739	2.818327
10.000000	-0.468723	-138.408345	-45.293554	-76.643266	-45.293554	-76.643266	-0.351220	1.263097
