! freq	dB(S11)	phase(S11)	dB(S12)	phase(S12)	
!     	dB(S21)	phase(S21)	dB(S22)	phase(S22)	
!S-par simulation data
#  GHz  S  DB  R 50
0.000000	-0.000000	0.000000	-369.099482	0.000000	-369.099482	0.000000	-0.000000	0.000000
0.050000	-0.000109	-0.853734	-112.982404	88.689966	-112.982404	88.689966	-0.000113	-0.973385
0.100000	-0.000432	-1.707200	-107.036580	87.433500	-107.036580	87.433500	-0.000450	-1.946511
0.150000	-0.000955	-2.560151	-103.634288	86.271216	-103.634288	86.271216	-0.000997	-2.919136
0.200000	-0.001657	-3.412383	-101.293745	85.224864	-101.293745	85.224864	-0.001737	-3.891051
0.250000	-0.002523	-4.263669	-99.555844	84.311412	-99.555844	84.311412	-0.002660	-4.862017
0.300000	-0.003511	-5.113971	-98.202074	83.520591	-98.202074	83.520591	-0.003724	-5.831972
0.350000	-0.004603	-5.963172	-97.127170	82.858821	-97.127170	82.858821	-0.004914	-6.800771
0.400000	-0.005774	-6.811231	-96.266920	82.331122	-96.266920	82.331122	-0.006204	-7.768341
0.450000	-0.007000	-7.658136	-95.581566	81.949194	-95.581566	81.949194	-0.007572	-8.734638
0.500000	-0.008263	-8.503900	-95.045697	81.733466	-95.045697	81.733466	-0.008995	-9.699646
0.550000	-0.009546	-9.348549	-94.642956	81.715100	-94.642956	81.715100	-0.010456	-10.663366
0.600000	-0.010837	-10.192119	-94.363027	81.938705	-94.363027	81.938705	-0.011940	-11.625814
0.650000	-0.012127	-11.034648	-94.199778	82.466390	-94.199778	82.466390	-0.013432	-12.587017
0.700000	-0.013409	-11.876176	-94.149900	83.383927	-94.149900	83.383927	-0.014924	-13.547003
0.750000	-0.014678	-12.716735	-94.211572	84.809850	-94.211572	84.809850	-0.016408	-14.505804
0.800000	-0.015931	-13.556356	-94.382594	86.908369	-94.382594	86.908369	-0.017877	-15.463448
0.850000	-0.017168	-14.395061	-94.657071	89.905982	-94.657071	89.905982	-0.019328	-16.419962
0.900000	-0.018386	-15.232867	-95.019122	94.107721	-95.019122	94.107721	-0.020760	-17.375368
0.950000	-0.019587	-16.069787	-95.431353	99.896652	-95.431353	99.896652	-0.022170	-18.329681
1.000000	-0.020771	-16.905824	-95.816880	107.672885	-95.816880	107.672885	-0.023558	-19.282915
1.050000	-0.021939	-17.740981	-96.042199	117.656855	-96.042199	117.656855	-0.024925	-20.235076
1.100000	-0.023093	-18.575254	-95.930071	129.529092	-95.930071	129.529092	-0.026271	-21.186166
1.150000	-0.024234	-19.408635	-95.340275	142.152012	-95.340275	142.152012	-0.027599	-22.136183
1.200000	-0.025362	-20.241116	-94.276560	153.924647	-94.276560	153.924647	-0.028908	-23.085122
1.250000	-0.026480	-21.072682	-92.884906	163.695771	-92.884906	163.695771	-0.030201	-24.032973
1.300000	-0.027589	-21.903278	-91.328654	171.102247	-91.328654	171.102247	-0.031478	-24.979677
1.350000	-0.028689	-22.732927	-89.753353	176.548662	-89.753353	176.548662	-0.032742	-25.925264
1.400000	-0.029782	-23.561612	-88.223727	-179.539386	-88.223727	-179.539386	-0.033995	-26.869720
1.450000	-0.030869	-24.389313	-86.767230	-176.786240	-86.767230	-176.786240	-0.035237	-27.813026
1.500000	-0.031951	-25.216012	-85.391790	-174.901229	-85.391790	-174.901229	-0.036471	-28.755163
1.550000	-0.033028	-26.041689	-84.096197	-173.670238	-84.096197	-173.670238	-0.037697	-29.696110
1.600000	-0.034102	-26.866322	-82.875426	-172.937819	-82.875426	-172.937819	-0.038917	-30.635847
1.650000	-0.035173	-27.689893	-81.723206	-172.590922	-81.723206	-172.590922	-0.040132	-31.574352
1.700000	-0.036241	-28.512380	-80.633180	-172.546550	-80.633180	-172.546550	-0.041343	-32.511604
1.750000	-0.037308	-29.333763	-79.599396	-172.742982	-79.599396	-172.742982	-0.042551	-33.447580
1.800000	-0.038373	-30.154023	-78.616484	-173.133670	-78.616484	-173.133670	-0.043757	-34.382261
1.850000	-0.039437	-30.973137	-77.679677	-173.683010	-77.679677	-173.683010	-0.044961	-35.315623
1.900000	-0.040501	-31.791088	-76.784778	-174.363390	-76.784778	-174.363390	-0.046165	-36.247645
1.950000	-0.041565	-32.607855	-75.928104	-175.153122	-75.928104	-175.153122	-0.047369	-37.178308
2.000000	-0.042629	-33.423419	-75.106419	-176.034962	-75.106419	-176.034962	-0.048574	-38.107590
2.050000	-0.043695	-34.237760	-74.316874	-176.995044	-74.316874	-176.995044	-0.049781	-39.035472
2.100000	-0.044761	-35.050861	-73.556958	-178.022100	-73.556958	-178.022100	-0.050989	-39.961934
2.150000	-0.045829	-35.862703	-72.824444	-179.106890	-72.824444	-179.106890	-0.052200	-40.886957
2.200000	-0.046899	-36.673267	-72.117354	179.758239	-72.117354	179.758239	-0.053414	-41.810524
2.250000	-0.047971	-37.482537	-71.433923	178.579671	-71.433923	178.579671	-0.054632	-42.732616
2.300000	-0.049046	-38.290495	-70.772570	177.362776	-70.772570	177.362776	-0.055853	-43.653217
2.350000	-0.050124	-39.097124	-70.131876	176.112103	-70.131876	176.112103	-0.057080	-44.572311
2.400000	-0.051205	-39.902408	-69.510558	174.831532	-69.510558	174.831532	-0.058311	-45.489882
2.450000	-0.052290	-40.706331	-68.907457	173.524390	-68.907457	173.524390	-0.059547	-46.405916
2.500000	-0.053379	-41.508877	-68.321520	172.193548	-68.321520	172.193548	-0.060789	-47.320398
2.550000	-0.054472	-42.309971	-67.750872	170.840679	-67.750872	170.840679	-0.062038	-48.233246
2.600000	-0.055571	-43.109656	-67.195647	169.468945	-67.195647	169.468945	-0.063293	-49.144517
2.650000	-0.056674	-43.907920	-66.655033	168.080219	-66.655033	168.080219	-0.064556	-50.054197
2.700000	-0.057783	-44.704747	-66.128281	166.676151	-66.128281	166.676151	-0.065826	-50.962277
2.750000	-0.058898	-45.500126	-65.614705	165.258200	-65.614705	165.258200	-0.067103	-51.868745
2.800000	-0.060019	-46.294042	-65.113671	163.827664	-65.113671	163.827664	-0.068389	-52.773593
2.850000	-0.061147	-47.086483	-64.624593	162.385700	-64.624593	162.385700	-0.069684	-53.676813
2.900000	-0.062282	-47.877438	-64.146926	160.933343	-64.146926	160.933343	-0.070988	-54.578395
2.950000	-0.063425	-48.666894	-63.680165	159.471522	-63.680165	159.471522	-0.072301	-55.478334
3.000000	-0.064575	-49.454841	-63.223840	158.001072	-63.223840	158.001072	-0.073625	-56.376622
3.050000	-0.065734	-50.241267	-62.777514	156.522748	-62.777514	156.522748	-0.074959	-57.273254
3.100000	-0.066901	-51.026163	-62.340775	155.037234	-62.340775	155.037234	-0.076304	-58.168225
3.150000	-0.068077	-51.809518	-61.913242	153.545150	-61.913242	153.545150	-0.077660	-59.061532
3.200000	-0.069263	-52.591323	-61.494554	152.047061	-61.494554	152.047061	-0.079028	-59.953170
3.250000	-0.070459	-53.371569	-61.084374	150.543481	-61.084374	150.543481	-0.080408	-60.843138
3.300000	-0.071665	-54.150248	-60.682385	149.034882	-60.682385	149.034882	-0.081801	-61.731432
3.350000	-0.072881	-54.927351	-60.288288	147.521695	-60.288288	147.521695	-0.083207	-62.618053
3.400000	-0.074109	-55.702871	-59.901801	146.004316	-59.901801	146.004316	-0.084627	-63.502999
3.450000	-0.075348	-56.476801	-59.522659	144.483109	-59.522659	144.483109	-0.086061	-64.386272
3.500000	-0.076599	-57.249133	-59.150610	142.958410	-59.150610	142.958410	-0.087510	-65.267871
3.550000	-0.077863	-58.019863	-58.785415	141.430529	-58.785415	141.430529	-0.088974	-66.147800
3.600000	-0.079139	-58.788983	-58.426849	139.899752	-58.426849	139.899752	-0.090453	-67.026059
3.650000	-0.080429	-59.556489	-58.074699	138.366346	-58.074699	138.366346	-0.091949	-67.902653
3.700000	-0.081732	-60.322376	-57.728761	136.830557	-57.728761	136.830557	-0.093461	-68.777585
3.750000	-0.083049	-61.086638	-57.388841	135.292613	-57.388841	135.292613	-0.094991	-69.650861
3.800000	-0.084381	-61.849202	-57.054454	133.752652	-57.054454	133.752652	-0.096539	-70.522413
3.850000	-0.085729	-62.610135	-56.725748	132.210965	-56.725748	132.210965	-0.098106	-71.392320
3.900000	-0.087091	-63.369432	-56.402556	130.667736	-56.402556	130.667736	-0.099691	-72.260589
3.950000	-0.088470	-64.127093	-56.084717	129.123135	-56.084717	129.123135	-0.101296	-73.127227
4.000000	-0.089864	-64.883113	-55.772077	127.577324	-55.772077	127.577324	-0.102920	-73.992243
4.050000	-0.091275	-65.637493	-55.464491	126.030452	-55.464491	126.030452	-0.104565	-74.855645
4.100000	-0.092704	-66.390230	-55.161817	124.482661	-55.161817	124.482661	-0.106231	-75.717443
4.150000	-0.094150	-67.141324	-54.863922	122.934082	-54.863922	122.934082	-0.107919	-76.577647
4.200000	-0.095613	-67.890774	-54.570678	121.384841	-54.570678	121.384841	-0.109628	-77.436268
4.250000	-0.097095	-68.638580	-54.281961	119.835055	-54.281961	119.835055	-0.111360	-78.293318
4.300000	-0.098596	-69.384743	-53.997653	118.284833	-53.997653	118.284833	-0.113115	-79.148809
4.350000	-0.100116	-70.129264	-53.717641	116.734279	-53.717641	116.734279	-0.114894	-80.002754
4.400000	-0.101655	-70.872143	-53.441816	115.183492	-53.441816	115.183492	-0.116697	-80.855167
4.450000	-0.103215	-71.613383	-53.170075	113.632564	-53.170075	113.632564	-0.118524	-81.706061
4.500000	-0.104795	-72.352986	-52.902315	112.081582	-52.902315	112.081582	-0.120377	-82.555452
4.550000	-0.106396	-73.090954	-52.638441	110.530628	-52.638441	110.530628	-0.122256	-83.403355
4.600000	-0.108018	-73.827290	-52.378360	108.979782	-52.378360	108.979782	-0.124161	-84.249787
4.650000	-0.109662	-74.561998	-52.121982	107.429117	-52.121982	107.429117	-0.126092	-85.094764
4.700000	-0.111328	-75.295081	-51.869221	105.878703	-51.869221	105.878703	-0.128052	-85.938303
4.750000	-0.113017	-76.026543	-51.619993	104.328607	-51.619993	104.328607	-0.130039	-86.780424
4.800000	-0.114728	-76.756390	-51.374219	102.778893	-51.374219	102.778893	-0.132054	-87.621144
4.850000	-0.116464	-77.484625	-51.131820	101.229619	-51.131820	101.229619	-0.134099	-88.460484
4.900000	-0.118222	-78.211255	-50.892723	99.680844	-50.892723	99.680844	-0.136173	-89.298462
4.950000	-0.120006	-78.936284	-50.656855	98.132622	-50.656855	98.132622	-0.138277	-90.135100
5.000000	-0.121813	-79.659720	-50.424146	96.585003	-50.424146	96.585003	-0.140411	-90.970420
5.050000	-0.123647	-80.381500	-50.194400	95.038070	-50.194400	95.038070	-0.142578	-91.804387
5.100000	-0.125507	-81.101699	-49.967690	93.491840	-49.967690	93.491840	-0.144777	-92.637081
5.150000	-0.127393	-81.820326	-49.743950	91.946359	-49.743950	91.946359	-0.147008	-93.468526
5.200000	-0.129305	-82.537388	-49.523121	90.401670	-49.523121	90.401670	-0.149272	-94.298746
5.250000	-0.131243	-83.252892	-49.305142	88.857813	-49.305142	88.857813	-0.151568	-95.127765
5.300000	-0.133209	-83.966847	-49.089956	87.314826	-49.089956	87.314826	-0.153899	-95.955608
5.350000	-0.135203	-84.679263	-48.877507	85.772747	-48.877507	85.772747	-0.156264	-96.782300
5.400000	-0.137225	-85.390147	-48.667741	84.231611	-48.667741	84.231611	-0.158663	-97.607869
5.450000	-0.139285	-86.098984	-48.459809	82.691806	-48.459809	82.691806	-0.161110	-98.431972
5.500000	-0.141360	-86.807031	-48.255564	81.152523	-48.255564	81.152523	-0.163576	-99.255511
5.550000	-0.143471	-87.513254	-48.053372	79.614520	-48.053372	79.614520	-0.166086	-100.077797
5.600000	-0.145608	-88.218174	-47.853936	78.077433	-47.853936	78.077433	-0.168628	-100.899188
5.650000	-0.147776	-88.921555	-47.656852	76.541506	-47.656852	76.541506	-0.171209	-101.719568
5.700000	-0.149977	-89.623395	-47.462064	75.006739	-47.462064	75.006739	-0.173829	-102.538936
5.750000	-0.152204	-90.323973	-47.269886	73.472987	-47.269886	73.472987	-0.176482	-103.357518
5.800000	-0.154469	-91.022783	-47.079591	71.940655	-47.079591	71.940655	-0.179183	-104.174997
5.850000	-0.156756	-91.720600	-46.892128	70.409170	-46.892128	70.409170	-0.181911	-104.991894
5.900000	-0.159088	-92.416431	-46.706181	68.879377	-46.706181	68.879377	-0.184693	-105.807623
5.950000	-0.161438	-93.111531	-46.523253	67.350243	-46.523253	67.350243	-0.187498	-106.622950
6.000000	-0.163838	-93.804439	-46.341517	65.823085	-46.341517	65.823085	-0.190365	-107.437073
6.050000	-0.166251	-94.496869	-46.162955	64.296381	-46.162955	64.296381	-0.193247	-108.250952
6.100000	-0.168722	-95.186910	-45.985296	62.771945	-45.985296	62.771945	-0.196201	-109.063617
6.150000	-0.171199	-95.876717	-45.810941	61.247743	-45.810941	61.247743	-0.199163	-109.876174
6.200000	-0.173742	-96.563952	-45.637236	59.726110	-45.637236	59.726110	-0.202206	-110.687536
6.250000	-0.176286	-97.251187	-45.466936	58.204478	-45.466936	58.204478	-0.205249	-111.498898
6.300000	-0.178902	-97.935678	-45.297065	56.685721	-45.297065	56.685721	-0.208383	-112.309118
6.350000	-0.181520	-98.620169	-45.130453	55.166964	-45.130453	55.166964	-0.211517	-113.119338
6.400000	-0.184206	-99.302205	-44.964528	53.650904	-44.964528	53.650904	-0.214735	-113.928662
6.450000	-0.186899	-99.984017	-44.801496	52.135090	-44.801496	52.135090	-0.217962	-114.737904
6.500000	-0.189656	-100.663652	-44.639383	50.621778	-44.639383	50.621778	-0.221268	-115.546475
6.550000	-0.192426	-101.342853	-44.479830	49.108966	-44.479830	49.108966	-0.224590	-116.354912
6.600000	-0.195255	-102.020147	-44.321397	47.598448	-44.321397	47.598448	-0.227983	-117.162877
6.650000	-0.198104	-102.696806	-44.165226	46.088694	-44.165226	46.088694	-0.231402	-117.970684
6.700000	-0.201007	-103.371817	-44.010351	44.581012	-44.010351	44.581012	-0.234886	-118.778194
6.750000	-0.203937	-104.046006	-43.857470	43.074364	-43.857470	43.074364	-0.238403	-119.585555
6.800000	-0.206914	-104.718796	-43.706036	41.569554	-43.706036	41.569554	-0.241979	-120.392764
6.850000	-0.209926	-105.390589	-43.556357	40.066056	-43.556357	40.066056	-0.245597	-121.199866
6.900000	-0.212980	-106.061221	-43.408255	38.564151	-43.408255	38.564151	-0.249266	-122.006935
6.950000	-0.216076	-106.730693	-43.261692	37.063840	-43.261692	37.063840	-0.252987	-122.813972
7.000000	-0.219207	-107.399232	-43.116816	35.564871	-43.116816	35.564871	-0.256751	-123.621064
7.050000	-0.222389	-108.066462	-42.973289	34.067780	-42.973289	34.067780	-0.260576	-124.428235
7.100000	-0.225599	-108.732972	-42.831539	32.571771	-42.831539	32.571771	-0.264437	-125.235520
7.150000	-0.228867	-109.398042	-42.690971	31.077926	-42.690971	31.077926	-0.268369	-126.043031
7.200000	-0.232158	-110.062591	-42.552253	29.584898	-42.552253	29.584898	-0.272328	-126.850680
7.250000	-0.235515	-110.725582	-42.414570	28.094321	-42.414570	28.094321	-0.276368	-127.658742
7.300000	-0.238887	-111.388240	-42.278794	26.604292	-42.278794	26.604292	-0.280427	-128.466933
7.350000	-0.242334	-112.049236	-42.143924	25.116999	-42.143924	25.116999	-0.284577	-129.275764
7.400000	-0.245789	-112.710072	-42.011005	23.629982	-42.011005	23.629982	-0.288737	-130.084678
7.450000	-0.249327	-113.369160	-41.878882	22.145985	-41.878882	22.145985	-0.292999	-130.894503
7.500000	-0.252867	-114.028247	-41.748738	20.661989	-41.748738	20.661989	-0.297263	-131.704327
7.550000	-0.256498	-114.685514	-41.619296	19.181294	-41.619296	19.181294	-0.301638	-132.515375
7.600000	-0.260130	-115.342781	-41.491754	17.700599	-41.491754	17.700599	-0.306016	-133.326423
7.650000	-0.263848	-115.998462	-41.365028	16.222932	-41.365028	16.222932	-0.310498	-134.138809
7.700000	-0.267575	-116.653999	-41.240031	14.745540	-41.240031	14.745540	-0.314991	-134.951316
7.750000	-0.271380	-117.308170	-41.115946	13.270897	-41.115946	13.270897	-0.319581	-135.765243
7.800000	-0.275202	-117.962069	-40.993438	11.796803	-40.993438	11.796803	-0.324192	-136.579454
7.850000	-0.279096	-118.614809	-40.871924	10.325176	-40.871924	10.325176	-0.328891	-137.395131
7.900000	-0.283016	-119.267163	-40.751852	8.854372	-40.751852	8.854372	-0.333621	-138.211296
7.950000	-0.287000	-119.918551	-40.632842	7.385751	-40.632842	7.385751	-0.338430	-139.028934
8.000000	-0.291017	-120.569457	-40.515157	5.918222	-40.515157	5.918222	-0.343281	-139.847310
8.050000	-0.295093	-121.219574	-40.398588	4.452592	-40.398588	4.452592	-0.348203	-140.667130
8.100000	-0.299209	-121.869127	-40.283241	2.988318	-40.283241	2.988318	-0.353177	-141.487981
8.150000	-0.303376	-122.518055	-40.169054	1.525661	-40.169054	1.525661	-0.358212	-142.310205
8.200000	-0.307594	-123.166357	-40.056001	0.064620	-40.056001	0.064620	-0.363310	-143.133803
8.250000	-0.311854	-123.814179	-39.944138	-1.395086	-39.944138	-1.395086	-0.368461	-143.958662
8.300000	-0.316173	-124.461330	-39.833336	-2.852923	-39.833336	-2.852923	-0.373685	-144.785287
8.350000	-0.320526	-125.108132	-39.723745	-4.309702	-39.723745	-4.309702	-0.378952	-145.613015
8.400000	-0.324948	-125.754235	-39.615155	-5.764367	-39.615155	-5.764367	-0.384303	-146.442952
8.450000	-0.329396	-126.400103	-39.507785	-7.218247	-39.507785	-7.218247	-0.389688	-147.273791
8.500000	-0.333921	-127.045263	-39.401368	-8.669776	-39.401368	-8.669776	-0.395168	-148.107337
8.550000	-0.338465	-127.690284	-39.296171	-10.120789	-39.296171	-10.120789	-0.400672	-148.941533
8.600000	-0.343094	-128.334608	-39.191895	-11.569222	-39.191895	-11.569222	-0.406283	-149.778989
8.650000	-0.347734	-128.978871	-39.088827	-13.017400	-39.088827	-13.017400	-0.411907	-150.616796
8.700000	-0.352469	-129.622468	-38.986658	-14.462779	-38.986658	-14.462779	-0.417649	-151.458474
8.750000	-0.357206	-130.266064	-38.885677	-15.908159	-38.885677	-15.908159	-0.423396	-152.300151
8.800000	-0.362046	-130.909044	-38.785586	-17.350531	-38.785586	-17.350531	-0.429271	-153.146370
8.850000	-0.366889	-131.552023	-38.686636	-18.792903	-38.686636	-18.792903	-0.435150	-153.992588
8.900000	-0.371827	-132.194540	-38.588614	-20.232562	-38.588614	-20.232562	-0.441150	-154.843270
8.950000	-0.376776	-132.837015	-38.491669	-21.671974	-38.491669	-21.671974	-0.447163	-155.694359
9.000000	-0.381813	-133.479165	-38.395681	-23.108962	-38.395681	-23.108962	-0.453287	-156.549785
9.050000	-0.386869	-134.121250	-38.300719	-24.545464	-38.300719	-24.545464	-0.459437	-157.406080
9.100000	-0.392004	-134.763131	-38.206731	-25.979822	-38.206731	-25.979822	-0.465687	-158.266539
9.150000	-0.397168	-135.404942	-38.113732	-27.413464	-38.113732	-27.413464	-0.471973	-159.128386
9.200000	-0.402386	-136.046667	-38.021711	-28.845699	-38.021711	-28.845699	-0.478328	-159.993157
9.250000	-0.407664	-136.688318	-37.930659	-30.276359	-37.930659	-30.276359	-0.484759	-160.861292
9.300000	-0.412993	-137.329941	-37.840575	-31.705694	-37.840575	-31.705694	-0.491258	-161.732399
9.350000	-0.418375	-137.971564	-37.751454	-33.133713	-37.751454	-33.133713	-0.497822	-162.606561
9.400000	-0.423808	-138.613216	-37.663291	-34.560430	-37.663291	-34.560430	-0.504454	-163.483864
9.450000	-0.429293	-139.254924	-37.576083	-35.985854	-37.576083	-35.985854	-0.511152	-164.364395
9.500000	-0.434830	-139.896718	-37.489825	-37.409997	-37.489825	-37.409997	-0.517917	-165.248243
9.550000	-0.440419	-140.538626	-37.404514	-38.832870	-37.404514	-38.832870	-0.524750	-166.135496
9.600000	-0.446060	-141.180678	-37.320147	-40.254482	-37.320147	-40.254482	-0.531649	-167.026244
9.650000	-0.451752	-141.822902	-37.236720	-41.674843	-37.236720	-41.674843	-0.538615	-167.920578
9.700000	-0.457496	-142.465329	-37.154232	-43.093964	-37.154232	-43.093964	-0.545649	-168.818590
9.750000	-0.463291	-143.107988	-37.072680	-44.511853	-37.072680	-44.511853	-0.552750	-169.720374
9.800000	-0.469138	-143.750909	-36.992062	-45.928518	-36.992062	-45.928518	-0.559917	-170.626024
9.850000	-0.475037	-144.394124	-36.912377	-47.343967	-36.912377	-47.343967	-0.567152	-171.535635
9.900000	-0.480986	-145.037662	-36.833622	-48.758208	-36.833622	-48.758208	-0.574454	-172.449303
9.950000	-0.486987	-145.681554	-36.755797	-50.171247	-36.755797	-50.171247	-0.581822	-173.367128
10.000000	-0.493038	-146.325833	-36.678901	-51.583090	-36.678901	-51.583090	-0.589257	-174.289206
