! freq	dB(S11)	phase(S11)	dB(S12)	phase(S12)	
!     	dB(S21)	phase(S21)	dB(S22)	phase(S22)	
!S-par simulation data
#  GHz  S  DB  R 50
0.000000	-84.408311	0.000000	-0.000523	0.000000	-0.000523	0.000000	-84.408311	0.000000
0.050000	-33.296753	-92.782661	-0.007015	-3.413830	-0.007015	-3.413830	-33.306116	-93.873234
0.100000	-27.311509	-95.789271	-0.019629	-6.784466	-0.019629	-6.784466	-27.322021	-97.967926
0.150000	-23.839497	-98.715759	-0.034655	-10.133711	-0.034655	-10.133711	-23.851400	-101.979372
0.200000	-21.400141	-101.596842	-0.052637	-13.470613	-0.052637	-13.470613	-21.413455	-105.944632
0.250000	-19.528070	-104.439919	-0.073920	-16.795070	-0.073920	-16.795070	-19.542705	-109.874693
0.300000	-18.016865	-107.248376	-0.098472	-20.105239	-0.098472	-20.105239	-18.032675	-113.776168
0.350000	-16.756606	-110.025034	-0.126034	-23.399734	-0.126034	-23.399734	-16.773416	-117.654063
0.400000	-15.682471	-112.771213	-0.156351	-26.677210	-0.156351	-26.677210	-15.700112	-121.511414
0.450000	-14.753420	-115.486835	-0.189176	-29.936127	-0.189176	-29.936127	-14.771754	-125.349955
0.500000	-13.940269	-118.172575	-0.224135	-33.175993	-0.224135	-33.175993	-13.959201	-129.171645
0.550000	-13.222414	-120.828196	-0.260892	-36.396242	-0.260892	-36.396242	-13.241894	-132.977739
0.600000	-12.584657	-123.453057	-0.299109	-39.596388	-0.299109	-39.596388	-12.604677	-136.769255
0.650000	-12.015847	-126.045811	-0.338451	-42.775748	-0.338451	-42.775748	-12.036435	-140.546973
0.700000	-11.506709	-128.605802	-0.378547	-45.934314	-0.378547	-45.934314	-11.527925	-144.312102
0.750000	-11.049625	-131.132696	-0.419033	-49.072440	-0.419033	-49.072440	-11.071554	-148.066041
0.800000	-10.638685	-133.625840	-0.459561	-52.190419	-0.459561	-52.190419	-10.661434	-151.810174
0.850000	-10.269878	-136.083393	-0.499761	-55.288039	-0.499761	-55.288039	-10.293581	-155.545802
0.900000	-9.937952	-138.506636	-0.539322	-58.367007	-0.539322	-58.367007	-9.962740	-159.275063
0.950000	-9.639938	-140.894586	-0.577912	-61.427867	-0.577912	-61.427867	-9.665930	-162.999637
1.000000	-9.372936	-143.247002	-0.615226	-64.471729	-0.615226	-64.471729	-9.400180	-166.721520
1.050000	-9.134469	-145.563718	-0.650976	-67.499884	-0.650976	-67.499884	-9.162839	-170.443166
1.100000	-8.922399	-147.844598	-0.684892	-70.513797	-0.684892	-70.513797	-8.951484	-174.168372
1.150000	-8.734864	-150.089448	-0.716728	-73.515093	-0.716728	-73.515093	-8.764040	-177.903487
1.200000	-8.570216	-152.297807	-0.746260	-76.505542	-0.746260	-76.505542	-8.599145	178.343246
1.250000	-8.427000	-154.468567	-0.773284	-79.487050	-0.773284	-79.487050	-8.456192	174.565558
1.300000	-8.304392	-156.598569	-0.797560	-82.461543	-0.797560	-82.461543	-8.335115	170.760440
1.350000	-8.201189	-158.685482	-0.818994	-85.431358	-0.818994	-85.431358	-8.234676	166.926798
1.400000	-8.117054	-160.727120	-0.837459	-88.398735	-0.837459	-88.398735	-8.153956	163.061222
1.450000	-8.051796	-162.723692	-0.852858	-91.365995	-0.852858	-91.365995	-8.092159	159.158594
1.500000	-8.005021	-164.676423	-0.865116	-94.335535	-0.865116	-94.335535	-8.048677	155.212715
1.550000	-7.976170	-166.585312	-0.874190	-97.309815	-0.874190	-97.309815	-8.023075	151.216670
1.600000	-7.964729	-168.448532	-0.880064	-100.291347	-0.880064	-100.291347	-8.015060	147.162944
1.650000	-7.970335	-170.262918	-0.882749	-103.282682	-0.882749	-103.282682	-8.024459	143.043406
1.700000	-7.994406	-172.018836	-0.881989	-106.287836	-0.881989	-106.287836	-8.052887	138.841132
1.750000	-8.033744	-173.721342	-0.878438	-109.307004	-0.878438	-109.307004	-8.097161	134.560623
1.800000	-8.089787	-175.360191	-0.871930	-112.343825	-0.871930	-112.343825	-8.158870	130.184960
1.850000	-8.162551	-176.928660	-0.862606	-115.400897	-0.862606	-115.400897	-8.238148	125.702497
1.900000	-8.250025	-178.430255	-0.850961	-118.477474	-0.850961	-118.477474	-8.332991	121.117840
1.950000	-8.356541	-179.833282	-0.836509	-121.582683	-0.836509	-121.582683	-8.448127	116.382309
2.000000	-8.479795	178.862172	-0.819876	-124.715768	-0.819876	-124.715768	-8.581318	111.496832
2.050000	-8.619637	177.668835	-0.801345	-127.879108	-0.801345	-127.879108	-8.732627	106.443687
2.100000	-8.775746	176.601455	-0.781242	-131.074965	-0.781242	-131.074965	-8.901982	101.203103
2.150000	-8.947537	175.676976	-0.759927	-134.305464	-0.759927	-134.305464	-9.089083	95.753053
2.200000	-9.134061	174.914641	-0.737799	-137.572556	-0.737799	-137.572556	-9.293302	90.069078
2.250000	-9.333859	174.335968	-0.715295	-140.877985	-0.715295	-140.877985	-9.513530	84.124219
2.300000	-9.544800	173.964510	-0.692888	-144.223256	-0.692888	-144.223256	-9.747998	77.889130
2.350000	-9.763879	173.825272	-0.671085	-147.609593	-0.671085	-147.609593	-9.994045	71.332501
2.400000	-9.986994	173.943636	-0.650423	-151.037898	-0.650423	-151.037898	-10.247848	64.421992
2.450000	-10.208731	174.343593	-0.631468	-154.508718	-0.631468	-154.508718	-10.504122	57.125911
2.500000	-10.422182	175.045102	-0.614807	-158.022203	-0.614807	-158.022203	-10.755829	49.415930
2.550000	-10.618203	176.067322	-0.601119	-161.578971	-0.601119	-161.578971	-10.993299	41.261446
2.600000	-10.787145	177.402815	-0.590965	-165.177313	-0.590965	-165.177313	-11.205740	32.664491
2.650000	-10.918151	179.033385	-0.584952	-168.815957	-0.584952	-168.815957	-11.380541	23.637857
2.700000	-11.000324	-179.080340	-0.583678	-172.493124	-0.583678	-172.493124	-11.504431	14.220166
2.750000	-11.023947	-177.000378	-0.587714	-176.206523	-0.587714	-176.206523	-11.564920	4.479594
2.800000	-10.981859	-174.809063	-0.597596	-179.953361	-0.597596	-179.953361	-11.552113	-5.487062
2.850000	-10.870654	-172.602398	-0.613815	176.269640	-0.613815	176.269640	-11.460462	-15.561416
2.900000	-10.691333	-170.480028	-0.636802	172.466206	-0.636802	172.466206	-11.289893	-25.615984
2.950000	-10.449185	-168.534197	-0.666918	168.640463	-0.666918	168.640463	-11.045886	-35.529129
3.000000	-10.152929	-166.840463	-0.704442	164.796867	-0.704442	164.796867	-10.738470	-45.198275
3.050000	-9.813409	-165.452223	-0.749567	160.940137	-0.749567	160.940137	-10.380519	-54.548025
3.100000	-9.442213	-164.399568	-0.802388	157.075162	-0.802388	157.075162	-9.985887	-63.532146
3.150000	-9.050215	-163.695313	-0.862981	153.206927	-0.862981	153.206927	-9.567529	-72.126365
3.200000	-8.647678	-163.331336	-0.931228	149.340544	-0.931228	149.340544	-9.137498	-80.331542
3.250000	-8.243362	-163.284232	-1.006839	145.480860	-1.006839	145.480860	-8.705898	-88.166898
3.300000	-7.843945	-163.527522	-1.089505	141.632467	-1.089505	141.632467	-8.280274	-95.655467
3.350000	-7.454530	-164.031118	-1.178822	137.799625	-1.178822	137.799625	-7.866266	-102.824503
3.400000	-7.078833	-164.764773	-1.274322	133.986261	-1.274322	133.986261	-7.467869	-109.701489
3.450000	-6.719451	-165.698559	-1.375452	130.195842	-1.375452	130.195842	-7.087790	-116.313854
3.500000	-6.378058	-166.804321	-1.481595	126.431327	-1.481595	126.431327	-6.727698	-122.687516
3.550000	-6.055607	-168.056286	-1.592087	122.695138	-1.592087	122.695138	-6.388475	-128.846389
3.600000	-5.752503	-169.431286	-1.706219	118.989136	-1.706219	118.989136	-6.070418	-134.812296
3.650000	-5.468741	-170.908773	-1.823256	115.314611	-1.823256	115.314611	-5.773397	-140.605076
3.700000	-5.204018	-172.470715	-1.942445	111.672281	-1.942445	111.672281	-5.496985	-146.242778
3.750000	-4.957824	-174.101419	-2.063021	108.062301	-2.063021	108.062301	-5.240553	-151.741906
3.800000	-4.729509	-175.787319	-2.184219	104.484279	-2.184219	104.484279	-5.003340	-157.117662
3.850000	-4.518336	-177.516754	-2.305278	100.937294	-2.305278	100.937294	-4.784515	-162.384183
3.900000	-4.323525	-179.279754	-2.425446	97.419921	-2.425446	97.419921	-4.583217	-167.554763
3.950000	-4.144350	178.932065	-2.543963	93.930409	-2.543963	93.930409	-4.398661	-172.641596
4.000000	-3.980043	177.126005	-2.660086	90.466373	-2.660086	90.466373	-4.230032	-177.656970
4.050000	-3.829745	175.308338	-2.773145	87.024731	-2.773145	87.024731	-4.076430	177.386537
4.100000	-3.692732	173.484188	-2.882458	83.602195	-2.882458	83.602195	-3.937115	172.477191
4.150000	-3.568331	171.657899	-2.987368	80.195042	-2.987368	80.195042	-3.811417	167.603234
4.200000	-3.455929	169.833161	-3.087233	76.799102	-3.087233	76.799102	-3.698738	162.752742
4.250000	-3.354970	168.013139	-3.181431	73.409750	-3.181431	73.409750	-3.598565	157.913461
4.300000	-3.264967	166.200592	-3.269360	70.021875	-3.269360	70.021875	-3.510470	153.072638
4.350000	-3.185501	164.397978	-3.350432	66.629844	-3.350432	66.629844	-3.434120	148.216836
4.400000	-3.116224	162.607568	-3.424079	63.227446	-3.424079	63.227446	-3.369284	143.331715
4.450000	-3.056859	160.831554	-3.489750	59.807832	-3.489750	59.807832	-3.315836	138.401789
4.500000	-3.007207	159.072168	-3.546916	56.363422	-3.546916	56.363422	-3.273768	133.410138
4.550000	-2.967141	157.331812	-3.595071	52.885804	-3.595071	52.885804	-3.243199	128.338059
4.600000	-2.936772	155.613594	-3.633576	49.364811	-3.633576	49.364811	-3.224588	123.162767
4.650000	-2.915770	153.919932	-3.662370	45.791474	-3.662370	45.791474	-3.217909	117.864267
4.700000	-2.904902	152.256677	-3.680369	42.149783	-3.680369	42.149783	-3.224623	112.405668
4.750000	-2.902938	150.623993	-3.688784	38.437291	-3.688784	38.437291	-3.243596	106.781339
4.800000	-2.911380	149.032370	-3.686036	34.628873	-3.686036	34.628873	-3.277573	100.931654
4.850000	-2.930405	147.490047	-3.672186	30.706549	-3.672186	30.706549	-3.327740	94.812058
4.900000	-2.959683	146.004536	-3.648002	26.656689	-3.648002	26.656689	-3.394705	88.386302
4.950000	-2.999550	144.589741	-3.613759	22.454611	-3.613759	22.454611	-3.480449	81.588782
5.000000	-3.049885	143.262420	-3.570412	18.074345	-3.570412	18.074345	-3.586790	74.345913
5.050000	-3.109823	142.039023	-3.519739	13.494847	-3.519739	13.494847	-3.714766	66.591230
5.100000	-3.178522	140.951375	-3.463754	8.671999	-3.463754	8.671999	-3.866947	58.189409
5.150000	-3.253044	140.019911	-3.406154	3.587000	-3.406154	3.587000	-4.042497	49.061586
5.200000	-3.329306	139.283803	-3.351708	-1.807729	-3.351708	-1.807729	-4.240850	39.035804
5.250000	-3.400712	138.764876	-3.306677	-7.533111	-3.306677	-7.533111	-4.456462	28.001571
5.300000	-3.457856	138.487925	-3.279381	-13.623699	-3.279381	-13.623699	-4.679526	15.795923
5.350000	-3.487219	138.462542	-3.281291	-20.112532	-3.281291	-20.112532	-4.891230	2.251279
5.400000	-3.473993	138.651887	-3.325052	-27.000617	-3.325052	-27.000617	-5.063120	-12.676147
5.450000	-3.403806	138.975721	-3.425112	-34.272643	-3.425112	-34.272643	-5.158972	-28.918598
5.500000	-3.266017	139.304157	-3.597617	-41.889731	-3.597617	-41.889731	-5.140520	-46.234960
5.550000	-3.060328	139.473662	-3.856747	-49.773969	-3.856747	-49.773969	-4.984620	-64.160288
5.600000	-2.798145	139.330807	-4.213145	-57.817226	-4.213145	-57.817226	-4.695478	-82.112555
5.650000	-2.499450	138.765714	-4.673583	-65.891125	-4.673583	-65.891125	-4.303355	-99.525530
5.700000	-2.188765	137.743844	-5.237680	-73.858289	-5.237680	-73.858289	-3.855707	-115.972119
5.750000	-1.888104	136.303156	-5.898511	-81.595098	-5.898511	-81.595098	-3.398911	-131.224233
5.800000	-1.613094	134.519240	-6.645331	-88.999894	-6.645331	-88.999894	-2.966675	-145.194867
5.850000	-1.372365	132.485884	-7.464194	-96.002378	-7.464194	-96.002378	-2.578670	-157.905517
5.900000	-1.168042	130.294029	-8.340904	-102.571162	-8.340904	-102.571162	-2.242035	-169.455190
5.950000	-0.998956	128.014427	-9.261564	-108.691413	-9.261564	-108.691413	-1.956960	-179.941693
6.000000	-0.860804	125.701020	-10.216070	-114.382665	-10.216070	-114.382665	-1.718185	170.496253
6.050000	-0.749377	123.388761	-11.194925	-119.664002	-11.194925	-119.664002	-1.519954	161.752842
6.100000	-0.660463	121.100247	-12.189691	-124.559849	-12.189691	-124.559849	-1.356288	153.731329
6.150000	-0.589595	118.847086	-13.197202	-129.109814	-13.197202	-129.109814	-1.220682	146.322886
6.200000	-0.533510	116.634870	-14.212779	-133.342016	-14.212779	-133.342016	-1.108282	139.451145
6.250000	-0.489444	114.464767	-15.232487	-137.284101	-15.232487	-137.284101	-1.014893	133.047852
6.300000	-0.454505	112.331636	-16.263108	-140.983040	-16.263108	-140.983040	-0.935991	127.023003
6.350000	-0.427860	110.235057	-17.290958	-144.441830	-17.290958	-144.441830	-0.870071	121.361756
6.400000	-0.407808	108.167082	-18.319721	-147.704518	-18.319721	-147.704518	-0.814093	115.997426
6.450000	-0.393473	106.120114	-19.349209	-150.813185	-19.349209	-150.813185	-0.766068	110.883324
6.500000	-0.385628	104.085934	-20.352219	-153.822744	-20.352219	-153.822744	-0.725459	106.011969
6.550000	-0.384825	102.049449	-21.327738	-156.888952	-21.327738	-156.888952	-0.690548	101.317664
6.600000	-0.395926	99.992620	-22.229997	-160.359406	-22.229997	-160.359406	-0.662048	96.774169
6.650000	-0.436204	97.906324	-22.998099	-165.499373	-22.998099	-165.499373	-0.645838	92.325885
6.700000	-0.542393	95.965720	-23.752712	-175.413314	-23.752712	-175.413314	-0.663548	87.937807
6.750000	-0.657283	95.370325	-26.366658	165.559986	-26.366658	165.559986	-0.747995	84.181954
6.800000	-0.489787	94.383032	-31.490754	167.873323	-31.490754	167.873323	-0.708530	80.967382
6.850000	-0.389821	92.322636	-34.019793	-177.698766	-34.019793	-177.698766	-0.645145	77.309613
6.900000	-0.356290	90.253319	-35.586195	-169.518067	-35.586195	-169.518067	-0.607928	73.609806
6.950000	-0.343541	88.268998	-37.408750	-163.473555	-37.408750	-163.473555	-0.584274	69.987500
7.000000	-0.337935	86.332586	-39.555579	-155.308327	-39.555579	-155.308327	-0.566094	66.449083
7.050000	-0.336099	84.427267	-41.754033	-141.345424	-41.754033	-141.345424	-0.551699	62.995706
7.100000	-0.336069	82.537522	-43.748066	-121.650174	-43.748066	-121.650174	-0.539548	59.600179
7.150000	-0.337754	80.660692	-43.902006	-96.513910	-43.902006	-96.513910	-0.529981	56.285020
7.200000	-0.340349	78.787016	-42.699856	-77.149306	-42.699856	-77.149306	-0.521941	53.028436
7.250000	-0.343668	76.912520	-41.069409	-64.155774	-41.069409	-64.155774	-0.515100	49.824435
7.300000	-0.347614	75.033908	-39.492920	-56.560062	-39.492920	-56.560062	-0.509243	46.669294
7.350000	-0.352130	73.148198	-38.137253	-52.403662	-38.137253	-52.403662	-0.504199	43.559519
7.400000	-0.357306	71.249873	-37.025589	-50.448150	-37.025589	-50.448150	-0.499949	40.499074
7.450000	-0.363126	69.335533	-36.120789	-49.599143	-36.120789	-49.599143	-0.496328	37.480150
7.500000	-0.369575	67.403565	-35.375910	-49.404416	-35.375910	-49.404416	-0.493227	34.495662
7.550000	-0.376717	65.450945	-34.763274	-49.668091	-34.763274	-49.668091	-0.490625	31.543335
7.600000	-0.384630	63.474406	-34.262864	-50.249536	-34.262864	-50.249536	-0.488509	28.621027
7.650000	-0.393530	61.466515	-33.868440	-51.062469	-33.868440	-51.062469	-0.486930	25.729557
7.700000	-0.403731	59.417316	-33.576073	-52.016042	-33.576073	-52.016042	-0.485937	22.868019
7.750000	-0.415277	57.326307	-33.366208	-53.026421	-33.366208	-53.026421	-0.485445	20.029359
7.800000	-0.428520	55.184177	-33.240069	-54.046537	-33.240069	-54.046537	-0.485484	17.212573
7.850000	-0.443370	52.994866	-33.183092	-55.044896	-33.183092	-55.044896	-0.485968	14.412709
7.900000	-0.461675	50.708997	-33.248816	-55.903483	-33.248816	-55.903483	-0.487200	11.637099
7.950000	-0.483526	48.332120	-33.418092	-56.531754	-33.418092	-56.531754	-0.488986	8.875807
8.000000	-0.509410	45.857552	-33.697181	-56.842363	-33.697181	-56.842363	-0.491296	6.126349
8.050000	-0.541164	43.247300	-34.130746	-56.626461	-34.130746	-56.626461	-0.494249	3.389049
8.100000	-0.582464	40.438605	-34.781254	-55.266853	-34.781254	-55.266853	-0.497954	0.660854
8.150000	-0.637016	37.380000	-35.704056	-51.882392	-35.704056	-51.882392	-0.502475	-2.061713
8.200000	-0.710857	33.997539	-36.925337	-44.592832	-36.925337	-44.592832	-0.507924	-4.782863
8.250000	-0.817537	30.129982	-38.191618	-28.879220	-38.191618	-28.879220	-0.514660	-7.507394
8.300000	-0.979381	25.566895	-38.040946	-1.717906	-38.040946	-1.717906	-0.523213	-10.241600
8.350000	-1.244260	19.927275	-34.909006	23.845808	-34.909006	23.845808	-0.534758	-12.993654
8.400000	-1.724813	12.518779	-30.375466	35.047878	-30.375466	35.047878	-0.551938	-15.773218
8.450000	-2.708675	2.153480	-25.815106	34.657974	-25.815106	34.657974	-0.580526	-18.582657
8.500000	-5.140567	-13.160084	-21.525963	24.391364	-21.525963	24.391364	-0.632380	-21.374600
8.550000	-13.596287	-31.768473	-18.080853	3.664963	-18.080853	3.664963	-0.709607	-23.921616
8.600000	-11.984889	102.537692	-16.569180	-23.140995	-16.569180	-23.140995	-0.744354	-26.099074
8.650000	-4.722155	83.073181	-16.870259	-45.382290	-16.870259	-45.382290	-0.714060	-28.487820
8.700000	-2.534375	68.059987	-17.776703	-59.966564	-17.776703	-59.966564	-0.685185	-31.201155
8.750000	-1.647460	57.875634	-18.663796	-69.493967	-18.663796	-69.493967	-0.673562	-34.052091
8.800000	-1.225223	50.591546	-19.393311	-76.178588	-19.393311	-76.178588	-0.674284	-36.969361
8.850000	-0.994028	44.944479	-19.978843	-81.324686	-19.978843	-81.324686	-0.682738	-39.939430
8.900000	-0.860707	40.357489	-20.440825	-85.515119	-20.440825	-85.515119	-0.697176	-42.972350
8.950000	-0.779873	36.457376	-20.807063	-89.116570	-20.807063	-89.116570	-0.716868	-46.084880
9.000000	-0.726767	32.974406	-21.109557	-92.379637	-21.109557	-92.379637	-0.741172	-49.283464
9.050000	-0.692251	29.803453	-21.360208	-95.405274	-21.360208	-95.405274	-0.770599	-52.588607
9.100000	-0.671135	26.880611	-21.567254	-98.258746	-21.567254	-98.258746	-0.806631	-56.039031
9.150000	-0.658610	24.129307	-21.744666	-101.007085	-21.744666	-101.007085	-0.850333	-59.659095
9.200000	-0.651978	21.501512	-21.902660	-103.690123	-21.902660	-103.690123	-0.903161	-63.475917
9.250000	-0.649836	18.970103	-22.048617	-106.329375	-22.048617	-106.329375	-0.967577	-67.531996
9.300000	-0.651487	16.520166	-22.190058	-108.934350	-22.190058	-108.934350	-1.048858	-71.915785
9.350000	-0.656078	14.131521	-22.336881	-111.505569	-22.336881	-111.505569	-1.152849	-76.706212
9.400000	-0.662957	11.787617	-22.499155	-114.027030	-22.499155	-114.027030	-1.286611	-81.981310
9.450000	-0.671789	9.478377	-22.687994	-116.458213	-22.687994	-116.458213	-1.461197	-87.856960
9.500000	-0.682595	7.198919	-22.922965	-118.682609	-22.922965	-118.682609	-1.703092	-94.618076
9.550000	-0.695163	4.939626	-23.220654	-120.498816	-23.220654	-120.498816	-2.044652	-102.514944
9.600000	-0.709530	2.693630	-23.592638	-121.511396	-23.592638	-121.511396	-2.543692	-111.952145
9.650000	-0.725970	0.454933	-24.016324	-121.007519	-24.016324	-121.007519	-3.302327	-123.545304
9.700000	-0.745057	-1.781524	-24.354854	-118.022032	-24.354854	-118.022032	-4.497920	-138.217432
9.750000	-0.767718	-4.017963	-24.259175	-112.322524	-24.259175	-112.322524	-6.436646	-157.556930
9.800000	-0.795023	-6.251231	-23.343597	-106.514191	-23.343597	-106.514191	-9.594790	174.435700
9.850000	-0.827181	-8.473189	-21.806008	-104.795723	-21.806008	-104.795723	-13.752385	125.174412
9.900000	-0.863217	-10.678185	-20.233151	-108.020315	-20.233151	-108.020315	-13.583948	54.770462
9.950000	-0.902049	-12.869547	-18.943033	-114.290840	-18.943033	-114.290840	-10.200314	11.753494
10.000000	-0.942514	-14.961626	-18.024873	-121.782426	-18.024873	-121.782426	-8.023348	-12.312267
