! freq	dB(S11)	phase(S11)	dB(S12)	phase(S12)	
!     	dB(S21)	phase(S21)	dB(S22)	phase(S22)	
!S-par simulation data
#  GHz  S  DB  R 50
0.000000	-0.000000	0.000000	-337.245111	180.000000	-337.245111	180.000000	-0.000000	0.000000
0.050000	-0.002527	-1.255243	-96.353328	88.840873	-96.353328	88.840873	-0.002504	-1.386009
0.100000	-0.004911	-2.488541	-90.343651	87.489779	-90.343651	87.489779	-0.005304	-2.749202
0.150000	-0.006208	-3.718761	-86.847522	86.186168	-86.847522	86.186168	-0.006926	-4.107176
0.200000	-0.007181	-4.949353	-84.383439	84.904063	-84.383439	84.904063	-0.008092	-5.465078
0.250000	-0.008101	-6.180165	-82.490305	83.641427	-82.490305	83.641427	-0.009130	-6.823185
0.300000	-0.009073	-7.410748	-80.963194	82.400322	-80.963194	82.400322	-0.010185	-8.181114
0.350000	-0.010125	-8.640801	-79.689221	81.180858	-79.689221	81.180858	-0.011307	-9.538530
0.400000	-0.011291	-9.869787	-78.612268	79.994631	-78.612268	79.994631	-0.012544	-10.894842
0.450000	-0.012493	-11.098427	-77.663743	78.818769	-77.663743	78.818769	-0.013818	-12.250790
0.500000	-0.013833	-12.325171	-76.852783	77.696296	-76.852783	77.696296	-0.015244	-13.604672
0.550000	-0.015204	-13.551324	-76.123661	76.590895	-76.123661	76.590895	-0.016708	-14.957889
0.600000	-0.016662	-14.775740	-75.485214	75.535791	-75.485214	75.535791	-0.018277	-16.309149
0.650000	-0.018163	-15.998907	-74.913979	74.520030	-74.913979	74.520030	-0.019900	-17.658963
0.700000	-0.019706	-17.220823	-74.400137	73.543612	-74.400137	73.543612	-0.021579	-19.007329
0.750000	-0.021292	-18.440709	-73.950063	72.638999	-73.950063	72.638999	-0.023321	-20.353289
0.800000	-0.022893	-19.659889	-73.533810	71.759703	-73.533810	71.759703	-0.025084	-21.698413
0.850000	-0.024525	-20.876372	-73.180197	70.989651	-73.180197	70.989651	-0.026901	-23.040277
0.900000	-0.026163	-22.092021	-72.853589	70.258797	-72.853589	70.258797	-0.028729	-24.381118
0.950000	-0.027810	-23.305644	-72.569743	69.623140	-72.569743	69.623140	-0.030581	-25.719471
1.000000	-0.029458	-24.517640	-72.318844	69.076770	-72.318844	69.076770	-0.032441	-27.055800
1.050000	-0.031107	-25.728333	-72.093678	68.601831	-72.093678	68.601831	-0.034308	-28.390512
1.100000	-0.032747	-26.936578	-71.907362	68.284147	-71.907362	68.284147	-0.036175	-29.722150
1.150000	-0.034385	-28.144030	-71.735248	68.020136	-71.735248	68.020136	-0.038041	-31.052792
1.200000	-0.036008	-29.348693	-71.600186	67.965387	-71.600186	67.965387	-0.039897	-32.379911
1.250000	-0.037624	-30.552279	-71.478280	68.004240	-71.478280	68.004240	-0.041747	-33.705668
1.300000	-0.039228	-31.753845	-71.378655	68.219065	-71.378655	68.219065	-0.043585	-35.028864
1.350000	-0.040822	-32.953970	-71.291986	68.574432	-71.291986	68.574432	-0.045412	-36.350233
1.400000	-0.042402	-34.151997	-71.220966	69.144391	-71.220966	69.144391	-0.047222	-37.668940
1.450000	-0.043970	-35.348202	-71.159248	69.915886	-71.159248	69.915886	-0.049018	-38.985336
1.500000	-0.045526	-36.542374	-71.102654	70.925307	-71.102654	70.925307	-0.050796	-40.299156
1.550000	-0.047071	-37.734697	-71.045401	72.160154	-71.045401	72.160154	-0.052559	-41.610633
1.600000	-0.048606	-38.925152	-70.981984	73.626512	-70.981984	73.626512	-0.054307	-42.919748
1.650000	-0.050131	-40.113723	-70.906334	75.325079	-70.906334	75.325079	-0.056040	-44.226484
1.700000	-0.051647	-41.300281	-70.810382	77.261995	-70.810382	77.261995	-0.057758	-45.530679
1.750000	-0.053156	-42.484945	-70.688614	79.404323	-70.688614	79.404323	-0.059463	-46.832490
1.800000	-0.054659	-43.667644	-70.533762	81.731953	-70.533762	81.731953	-0.061156	-48.131829
1.850000	-0.056155	-44.848362	-70.339789	84.207328	-70.339789	84.207328	-0.062837	-49.428682
1.900000	-0.057648	-46.027085	-70.101913	86.783289	-70.101913	86.783289	-0.064507	-50.723032
1.950000	-0.059136	-47.203799	-69.817074	89.405511	-69.817074	89.405511	-0.066168	-52.014867
2.000000	-0.060623	-48.378492	-69.484252	92.016108	-69.484252	92.016108	-0.067822	-53.304174
2.050000	-0.062108	-49.551152	-69.104544	94.557844	-69.104544	94.557844	-0.069469	-54.590942
2.100000	-0.063593	-50.721772	-68.680990	96.978238	-68.680990	96.978238	-0.071110	-55.875161
2.150000	-0.065078	-51.890341	-68.218193	99.232869	-68.218193	99.232869	-0.072748	-57.156825
2.200000	-0.066566	-53.056854	-67.721806	101.287417	-67.721806	101.287417	-0.074383	-58.435925
2.250000	-0.068055	-54.221305	-67.197995	103.118316	-67.197995	103.118316	-0.076016	-59.712458
2.300000	-0.069549	-55.383693	-66.652964	104.712223	-66.652964	104.712223	-0.077650	-60.986420
2.350000	-0.071047	-56.544016	-66.092590	106.064657	-66.092590	106.064657	-0.079285	-62.257811
2.400000	-0.072551	-57.702274	-65.522182	107.178218	-65.522182	107.178218	-0.080923	-63.526632
2.450000	-0.074061	-58.858471	-64.946356	108.060742	-64.946356	108.060742	-0.082564	-64.792884
2.500000	-0.075579	-60.012612	-64.368996	108.723612	-64.368996	108.723612	-0.084210	-66.056573
2.550000	-0.077105	-61.164616	-63.791824	109.172073	-63.791824	109.172073	-0.085863	-67.317596
2.600000	-0.078640	-62.314582	-63.219078	109.430291	-63.219078	109.430291	-0.087523	-68.576072
2.650000	-0.080185	-63.462522	-62.652707	109.513002	-62.652707	109.513002	-0.089192	-69.832014
2.700000	-0.081741	-64.608450	-62.094185	109.434556	-62.094185	109.434556	-0.090870	-71.085435
2.750000	-0.083308	-65.752386	-61.544598	109.208597	-61.544598	109.208597	-0.092559	-72.336350
2.800000	-0.084887	-66.894347	-61.004713	108.847879	-61.004713	108.847879	-0.094260	-73.584779
2.850000	-0.086480	-68.034358	-60.475043	108.364171	-60.475043	108.364171	-0.095973	-74.830741
2.900000	-0.088086	-69.172442	-59.955898	107.768232	-59.955898	107.768232	-0.097700	-76.074260
2.950000	-0.089706	-70.308630	-59.447431	107.069832	-59.447431	107.069832	-0.099441	-77.315359
3.000000	-0.091343	-71.442951	-58.949670	106.277796	-58.949670	106.277796	-0.101197	-78.554068
3.050000	-0.092995	-72.575440	-58.462550	105.400062	-58.462550	105.400062	-0.102969	-79.790415
3.100000	-0.094664	-73.706135	-57.985934	104.443751	-57.985934	104.443751	-0.104759	-81.024432
3.150000	-0.096350	-74.835077	-57.519631	103.415232	-57.519631	103.415232	-0.106566	-82.256154
3.200000	-0.098055	-75.962310	-57.063412	102.320194	-57.063412	102.320194	-0.108392	-83.485617
3.250000	-0.099779	-77.087882	-56.617018	101.163704	-56.617018	101.163704	-0.110237	-84.712860
3.300000	-0.101524	-78.211845	-56.180171	99.950272	-56.180171	99.950272	-0.112102	-85.937926
3.350000	-0.103289	-79.334255	-55.752580	98.683901	-55.752580	98.683901	-0.113988	-87.160857
3.400000	-0.105075	-80.455171	-55.333945	97.368134	-55.333945	97.368134	-0.115895	-88.381699
3.450000	-0.106885	-81.574659	-54.923962	96.006103	-54.923962	96.006103	-0.117825	-89.600502
3.500000	-0.108717	-82.692786	-54.522327	94.600560	-54.522327	94.600560	-0.119777	-90.817314
3.550000	-0.110574	-83.809628	-54.128734	93.153916	-54.128734	93.153916	-0.121753	-92.032191
3.600000	-0.112456	-84.925264	-53.742881	91.668267	-53.742881	91.668267	-0.123753	-93.245186
3.650000	-0.114365	-86.039779	-53.364468	90.145419	-53.364468	90.145419	-0.125778	-94.456357
3.700000	-0.116301	-87.153265	-52.993198	88.586910	-52.993198	88.586910	-0.127828	-95.665764
3.750000	-0.118265	-88.265819	-52.628777	86.994029	-52.628777	86.994029	-0.129904	-96.873470
3.800000	-0.120260	-89.377516	-52.270556	85.366419	-52.270556	85.366419	-0.132009	-98.079470
3.850000	-0.122287	-90.488511	-51.918621	83.706371	-51.918621	83.706371	-0.134140	-99.283906
3.900000	-0.124345	-91.598927	-51.572683	82.014470	-51.572683	82.014470	-0.136300	-100.486846
3.950000	-0.126438	-92.708896	-51.232450	80.291091	-51.232450	80.291091	-0.138489	-101.688363
4.000000	-0.128565	-93.818561	-50.897632	78.536405	-50.897632	78.536405	-0.140706	-102.888530
4.050000	-0.130730	-94.928078	-50.567936	76.750376	-50.567936	76.750376	-0.142954	-104.087422
4.100000	-0.132933	-96.037614	-50.243065	74.932763	-50.243065	74.932763	-0.145231	-105.285120
4.150000	-0.135177	-97.147351	-49.922717	73.083108	-49.922717	73.083108	-0.147540	-106.481702
4.200000	-0.137479	-98.257731	-49.603943	71.188911	-49.603943	71.188911	-0.149892	-107.676934
4.250000	-0.139806	-99.368395	-49.292745	69.277341	-49.292745	69.277341	-0.152261	-108.871657
4.300000	-0.142192	-100.480233	-48.983259	67.322698	-48.983259	67.322698	-0.154670	-110.065379
4.350000	-0.144621	-101.592909	-48.678180	65.337290	-48.678180	65.337290	-0.157108	-111.258386
4.400000	-0.147109	-102.707224	-48.375314	63.311225	-48.375314	63.311225	-0.159582	-112.450736
4.450000	-0.149656	-103.823176	-48.074791	61.244501	-48.074791	61.244501	-0.162092	-113.642430
4.500000	-0.152261	-104.941151	-47.776985	59.139482	-47.776985	59.139482	-0.164632	-114.833755
4.550000	-0.154946	-106.061959	-47.479131	56.980849	-47.479131	56.980849	-0.167217	-116.024564
4.600000	-0.157672	-107.184387	-47.186402	54.796329	-47.186402	54.796329	-0.169821	-117.215244
4.650000	-0.160504	-108.311228	-46.890970	52.543235	-46.890970	52.543235	-0.172474	-118.405639
4.700000	-0.163427	-109.442102	-46.595235	50.233612	-46.595235	50.233612	-0.175166	-119.595970
4.750000	-0.166450	-110.577675	-46.298430	47.862445	-46.298430	47.862445	-0.177896	-120.786349
4.800000	-0.169586	-111.718714	-45.999672	45.423937	-45.999672	45.423937	-0.180665	-121.976893
4.850000	-0.172850	-112.866109	-45.697935	42.911393	-45.697935	42.911393	-0.183475	-123.167722
4.900000	-0.176260	-114.020900	-45.392018	40.317058	-45.392018	40.317058	-0.186325	-124.358963
4.950000	-0.179840	-115.184317	-45.080498	37.631943	-45.080498	37.631943	-0.189217	-125.550746
5.000000	-0.183619	-116.357818	-44.761681	34.845596	-44.761681	34.845596	-0.192152	-126.743208
5.050000	-0.187650	-117.543964	-44.432096	31.938614	-44.432096	31.938614	-0.195133	-127.936550
5.100000	-0.191970	-118.744317	-44.090329	28.902648	-44.090329	28.902648	-0.198159	-129.130883
5.150000	-0.196645	-119.961567	-43.733223	25.720723	-43.733223	25.720723	-0.201231	-130.326371
5.200000	-0.201762	-121.199073	-43.356864	22.372850	-43.356864	22.372850	-0.204351	-131.523195
5.250000	-0.207440	-122.461087	-42.956352	18.835407	-42.956352	18.835407	-0.207522	-132.721551
5.300000	-0.213844	-123.753083	-42.525504	15.080355	-42.525504	15.080355	-0.210747	-133.921663
5.350000	-0.221210	-125.082237	-42.056434	11.074230	-42.056434	11.074230	-0.214031	-135.123788
5.400000	-0.229881	-126.458156	-41.538993	6.776821	-41.538993	6.776821	-0.217380	-136.328230
5.450000	-0.240377	-127.894009	-40.959975	2.139336	-40.959975	2.139336	-0.220804	-137.535362
5.500000	-0.253509	-129.408358	-40.302020	-2.898303	-40.302020	-2.898303	-0.224322	-138.745659
5.550000	-0.270600	-131.028232	-39.542020	-8.411831	-39.542020	-8.411831	-0.227958	-139.959757
5.600000	-0.293857	-132.792986	-38.650883	-14.494770	-38.650883	-14.494770	-0.231761	-141.178500
5.650000	-0.328002	-134.778350	-37.571820	-21.320220	-37.571820	-21.320220	-0.235834	-142.403512
5.700000	-0.381976	-137.098553	-36.242466	-29.098632	-36.242466	-29.098632	-0.240374	-143.636925
5.750000	-0.475947	-139.961788	-34.571984	-38.205024	-34.571984	-38.205024	-0.245830	-144.882389
5.800000	-0.664856	-143.796239	-32.411150	-49.443057	-32.411150	-49.443057	-0.253414	-146.146596
5.850000	-1.136078	-149.522217	-29.533136	-64.816117	-29.533136	-64.816117	-0.266983	-147.439531
5.900000	-2.762610	-158.232614	-25.775226	-90.201350	-25.775226	-90.201350	-0.300035	-148.740183
5.950000	-8.078032	-140.265079	-22.832763	-138.147928	-22.832763	-138.147928	-0.356678	-149.706020
6.000000	-3.225249	-113.111701	-24.812373	171.897431	-24.812373	171.897431	-0.326086	-150.544391
6.050000	-1.344099	-121.832956	-27.940045	145.037675	-27.940045	145.037675	-0.296222	-151.789290
6.100000	-0.840806	-128.202147	-30.087776	128.972224	-30.087776	128.972224	-0.287122	-153.082451
6.150000	-0.703729	-132.995985	-31.245771	116.967664	-31.245771	116.967664	-0.285978	-154.367456
6.200000	-0.795397	-137.530514	-31.412484	105.553020	-31.412484	105.553020	-0.288955	-155.647447
6.250000	-1.479166	-142.281101	-30.386536	87.840723	-30.386536	87.840723	-0.297498	-156.918460
6.300000	-2.755957	-132.923678	-31.014099	46.528099	-31.014099	46.528099	-0.305954	-158.093566
6.350000	-1.105435	-130.325092	-37.027431	30.102641	-37.027431	30.102641	-0.297615	-159.337639
6.400000	-0.618525	-134.246675	-39.897819	39.956180	-39.897819	39.956180	-0.297832	-160.625329
6.450000	-0.470198	-137.130005	-40.528223	46.106216	-40.528223	46.106216	-0.300777	-161.907537
6.500000	-0.408817	-139.368121	-40.604325	47.502108	-40.604325	47.502108	-0.304484	-163.188204
6.550000	-0.378096	-141.260684	-40.567651	46.620505	-40.567651	46.620505	-0.308504	-164.470379
6.600000	-0.360142	-142.966370	-40.507159	44.782413	-40.507159	44.782413	-0.312686	-165.755256
6.650000	-0.350205	-144.529629	-40.438589	42.416719	-40.438589	42.416719	-0.317000	-167.044254
6.700000	-0.344452	-146.004673	-40.366766	39.852034	-40.366766	39.852034	-0.321410	-168.337838
6.750000	-0.341180	-147.421266	-40.292481	37.220142	-40.292481	37.220142	-0.325896	-169.636051
6.800000	-0.339755	-148.790763	-40.215684	34.577959	-40.215684	34.577959	-0.330453	-170.939513
6.850000	-0.339633	-150.124722	-40.136559	31.962559	-40.136559	31.962559	-0.335077	-172.248538
6.900000	-0.340469	-151.431376	-40.055388	29.392962	-40.055388	29.392962	-0.339763	-173.563410
6.950000	-0.342033	-152.716786	-39.972521	26.878296	-39.972521	26.878296	-0.344507	-174.884389
7.000000	-0.344168	-153.985543	-39.888329	24.422166	-39.888329	24.422166	-0.349307	-176.211722
7.050000	-0.346761	-155.241207	-39.803176	22.025079	-39.803176	22.025079	-0.354162	-177.545646
7.100000	-0.349730	-156.486601	-39.717406	19.685828	-39.717406	19.685828	-0.359069	-178.886390
7.150000	-0.353014	-157.724000	-39.631326	17.402299	-39.631326	17.402299	-0.364027	179.765820
7.200000	-0.356566	-158.955273	-39.545213	15.171950	-39.545213	15.171950	-0.369034	178.410763
7.250000	-0.360351	-160.181975	-39.459308	12.992094	-39.459308	12.992094	-0.374090	177.048218
7.300000	-0.364341	-161.405422	-39.373819	10.860062	-39.373819	10.860062	-0.379193	175.677968
7.350000	-0.368514	-162.626739	-39.288925	8.773304	-39.288925	8.773304	-0.384343	174.299796
7.400000	-0.372851	-163.846900	-39.204781	6.729437	-39.204781	6.729437	-0.389537	172.913485
7.450000	-0.377339	-165.066761	-39.121515	4.726274	-39.121515	4.726274	-0.394775	171.518819
7.500000	-0.381965	-166.287076	-39.039236	2.761835	-39.039236	2.761835	-0.400057	170.115584
7.550000	-0.386726	-167.508603	-38.958053	0.835877	-38.958053	0.835877	-0.405381	168.703170
7.600000	-0.391607	-168.731924	-38.878028	-1.054828	-38.878028	-1.054828	-0.410747	167.281737
7.650000	-0.396602	-169.957591	-38.799219	-2.911637	-38.799219	-2.911637	-0.416152	165.851069
7.700000	-0.401706	-171.186114	-38.721667	-4.735723	-38.721667	-4.735723	-0.421596	164.410951
7.750000	-0.406915	-172.417963	-38.645404	-6.528091	-38.645404	-6.528091	-0.427077	162.961170
7.800000	-0.412225	-173.653581	-38.570449	-8.289586	-38.570449	-8.289586	-0.432595	161.501512
7.850000	-0.417632	-174.893385	-38.496808	-10.020904	-38.496808	-10.020904	-0.438148	160.031764
7.900000	-0.423135	-176.137769	-38.424478	-11.722601	-38.424478	-11.722601	-0.443735	158.551714
7.950000	-0.428732	-177.387111	-38.353442	-13.395105	-38.353442	-13.395105	-0.449356	157.061153
8.000000	-0.434420	-178.641773	-38.283674	-15.038722	-38.283674	-15.038722	-0.455008	155.559870
8.050000	-0.440199	-179.902103	-38.215137	-16.653648	-38.215137	-16.653648	-0.460691	154.047658
8.100000	-0.446068	178.831560	-38.147778	-18.239975	-38.147778	-18.239975	-0.466404	152.524312
8.150000	-0.452026	177.558886	-38.081537	-19.797702	-38.081537	-19.797702	-0.472145	150.989630
8.200000	-0.458074	176.279554	-38.016336	-21.326744	-38.016336	-21.326744	-0.477913	149.443410
8.250000	-0.464211	174.993247	-37.952087	-22.826939	-37.952087	-22.826939	-0.483708	147.885457
8.300000	-0.470437	173.699653	-37.888686	-24.298060	-37.888686	-24.298060	-0.489527	146.315576
8.350000	-0.476753	172.398467	-37.826012	-25.739823	-37.826012	-25.739823	-0.495370	144.733578
8.400000	-0.483160	171.089384	-37.763931	-27.151900	-37.763931	-27.151900	-0.501236	143.139278
8.450000	-0.489659	169.772101	-37.702291	-28.533929	-37.702291	-28.533929	-0.507122	141.532497
8.500000	-0.496252	168.446320	-37.640921	-29.885525	-37.640921	-29.885525	-0.513029	139.913060
8.550000	-0.502939	167.111740	-37.579634	-31.206297	-37.579634	-31.206297	-0.518955	138.280798
8.600000	-0.509723	165.768063	-37.518223	-32.495856	-37.518223	-32.495856	-0.524898	136.635550
8.650000	-0.516606	164.414991	-37.456464	-33.753838	-37.456464	-33.753838	-0.530858	134.977162
8.700000	-0.523590	163.052223	-37.394109	-34.979910	-37.394109	-34.979910	-0.536833	133.305487
8.750000	-0.530678	161.679461	-37.330896	-36.173797	-37.330896	-36.173797	-0.542823	131.620388
8.800000	-0.537877	160.295940	-37.266455	-37.333875	-37.266455	-37.333875	-0.548826	129.921140
8.850000	-0.545187	158.901793	-37.200539	-38.461439	-37.200539	-38.461439	-0.554841	128.208211
8.900000	-0.552611	157.496713	-37.132824	-39.556489	-37.132824	-39.556489	-0.560868	126.481494
8.950000	-0.560153	156.080395	-37.062972	-40.619154	-37.062972	-40.619154	-0.566904	124.740894
9.000000	-0.567817	154.652528	-36.990629	-41.649703	-36.990629	-41.649703	-0.572949	122.986331
9.050000	-0.575609	153.212798	-36.915428	-42.648565	-36.915428	-42.648565	-0.579002	121.217734
9.100000	-0.583532	151.760891	-36.836993	-43.616340	-36.836993	-43.616340	-0.585063	119.435049
9.150000	-0.591592	150.296486	-36.754940	-44.553812	-36.754940	-44.553812	-0.591130	117.638237
9.200000	-0.599796	148.819261	-36.668881	-45.461959	-36.668881	-45.461959	-0.597202	115.827273
9.250000	-0.608149	147.328887	-36.578425	-46.341963	-36.578425	-46.341963	-0.603280	114.002150
9.300000	-0.616657	145.825033	-36.483185	-47.195207	-36.483185	-47.195207	-0.609361	112.162878
9.350000	-0.625328	144.307362	-36.382778	-48.023281	-36.382778	-48.023281	-0.615447	110.309486
9.400000	-0.634168	142.775532	-36.276831	-48.827979	-36.276831	-48.827979	-0.621536	108.442021
9.450000	-0.643185	141.229195	-36.164984	-49.611286	-36.164984	-49.611286	-0.627627	106.560550
9.500000	-0.652386	139.667997	-36.046891	-50.375375	-36.046891	-50.375375	-0.633722	104.665163
9.550000	-0.661779	138.091577	-35.922225	-51.122588	-35.922225	-51.122588	-0.639818	102.755970
9.600000	-0.671373	136.499568	-35.790680	-51.855421	-35.790680	-51.855421	-0.645917	100.833103
9.650000	-0.681174	134.891594	-35.651974	-52.576503	-35.651974	-52.576503	-0.652017	98.896718
9.700000	-0.691191	133.267270	-35.505846	-53.288577	-35.505846	-53.288577	-0.658120	96.946995
9.750000	-0.701432	131.626204	-35.352061	-53.994479	-35.352061	-53.994479	-0.664226	94.984138
9.800000	-0.711903	129.967991	-35.190409	-54.697110	-35.190409	-54.697110	-0.670334	93.008375
9.850000	-0.722610	128.292220	-35.020701	-55.399420	-35.020701	-55.399420	-0.676445	91.019963
9.900000	-0.733561	126.598464	-34.842774	-56.104386	-34.842774	-56.104386	-0.682559	89.019181
9.950000	-0.744758	124.886287	-34.656480	-56.814992	-34.656480	-56.814992	-0.688678	87.006338
10.000000	-0.756204	123.155239	-34.461691	-57.534219	-34.461691	-57.534219	-0.694802	84.981766
