! freq	dB(S11)	phase(S11)	dB(S12)	phase(S12)	
!     	dB(S21)	phase(S21)	dB(S22)	phase(S22)	
!S-par simulation data
#  GHz  S  DB  R 50
0.000000	-81.735139	0.000000	-0.000711	0.000000	-0.000711	0.000000	-81.735139	0.000000
0.050000	-41.498048	-92.186027	-0.003848	-3.075472	-0.003848	-3.075472	-41.496872	-92.416992
0.100000	-35.505539	-95.211913	-0.011311	-6.147852	-0.011311	-6.147852	-35.506691	-95.685265
0.150000	-32.033850	-98.062571	-0.020233	-9.209675	-0.020233	-9.209675	-32.036430	-98.797053
0.200000	-29.608321	-100.922816	-0.029142	-12.259078	-0.029142	-12.259078	-29.608375	-101.927418
0.250000	-27.763639	-103.897623	-0.037555	-15.298149	-0.037555	-15.298149	-27.756551	-105.147086
0.300000	-26.277075	-107.031662	-0.045456	-18.330105	-0.045456	-18.330105	-26.264568	-108.477437
0.350000	-25.022779	-110.241202	-0.053008	-21.357532	-0.053008	-21.357532	-25.012173	-111.872087
0.400000	-23.937426	-113.417453	-0.060368	-24.381763	-0.060368	-24.381763	-23.933044	-115.263734
0.450000	-22.990174	-116.512758	-0.067664	-27.403433	-0.067664	-27.403433	-22.991098	-118.605297
0.500000	-22.158950	-119.541162	-0.074984	-30.423007	-0.074984	-30.423007	-22.162530	-121.890389
0.550000	-21.426378	-122.523672	-0.082372	-33.440613	-0.082372	-33.440613	-21.430538	-125.128024
0.600000	-20.779663	-125.476132	-0.089844	-36.456200	-0.089844	-36.456200	-20.783189	-128.329301
0.650000	-20.206257	-128.410751	-0.097390	-39.469856	-0.097390	-39.469856	-20.208636	-131.506159
0.700000	-19.696732	-131.334109	-0.104982	-42.481627	-0.104982	-42.481627	-19.697805	-134.665965
0.750000	-19.244769	-134.249935	-0.112583	-45.491514	-0.112583	-45.491514	-19.244542	-137.813104
0.800000	-18.844475	-137.160853	-0.120144	-48.499630	-0.120144	-48.499630	-18.843023	-140.950796
0.850000	-18.490822	-140.068635	-0.127609	-51.506158	-0.127609	-51.506158	-18.488234	-144.081128
0.900000	-18.179981	-142.974532	-0.134924	-54.511313	-0.134924	-54.511313	-18.176338	-147.205342
0.950000	-17.909038	-145.879563	-0.142029	-57.515358	-0.142029	-57.515358	-17.904399	-150.324192
1.000000	-17.675547	-148.784667	-0.148866	-60.518618	-0.148866	-60.518618	-17.669947	-153.438168
1.050000	-17.477550	-151.690771	-0.155379	-63.521472	-0.155379	-63.521472	-17.470999	-156.547565
1.100000	-17.313501	-154.598833	-0.161513	-66.524353	-0.161513	-66.524353	-17.305986	-159.652529
1.150000	-17.182214	-157.509879	-0.167221	-69.527741	-0.167221	-69.527741	-17.173699	-162.753089
1.200000	-17.082826	-160.425031	-0.172458	-72.532164	-0.172458	-72.532164	-17.073251	-165.849164
1.250000	-17.014766	-163.345527	-0.177187	-75.538187	-0.177187	-75.538187	-17.004049	-168.940555
1.300000	-16.978413	-166.272925	-0.181363	-78.546476	-0.181363	-78.546476	-16.966446	-172.026810
1.350000	-16.973084	-169.208669	-0.184977	-81.557631	-0.184977	-81.557631	-16.959737	-175.107525
1.400000	-16.999027	-172.154511	-0.188013	-84.572312	-0.188013	-84.572312	-16.984143	-178.181991
1.450000	-17.056770	-175.112447	-0.190466	-87.591193	-0.190466	-87.591193	-17.040160	178.750757
1.500000	-17.147135	-178.084758	-0.192340	-90.614963	-0.192340	-90.614963	-17.128576	175.692010
1.550000	-17.271267	178.925915	-0.193647	-93.644313	-0.193647	-93.644313	-17.250492	172.643471
1.600000	-17.430673	175.916485	-0.194410	-96.679933	-0.194410	-96.679933	-17.407363	169.607371
1.650000	-17.627271	172.883295	-0.194660	-99.722503	-0.194660	-99.722503	-17.601045	166.586625
1.700000	-17.863469	169.821948	-0.194438	-102.772687	-0.194438	-102.772687	-17.833862	163.585033
1.750000	-18.142253	166.727079	-0.193796	-105.831126	-0.193796	-105.831126	-18.108699	160.607565
1.800000	-18.467324	163.592016	-0.192790	-108.898432	-0.192790	-108.898432	-18.429122	157.660743
1.850000	-18.843271	160.408316	-0.191490	-111.975179	-0.191490	-111.975179	-18.799544	154.753197
1.900000	-19.276242	157.164253	-0.189969	-115.062013	-0.189969	-115.062013	-19.225862	151.897184
1.950000	-19.773475	153.844716	-0.188312	-118.159433	-0.188312	-118.159433	-19.714981	149.109063
2.000000	-20.343733	150.430260	-0.186611	-121.267753	-0.186611	-121.267753	-20.275192	146.410389
2.050000	-20.998866	146.892694	-0.184961	-124.387339	-0.184961	-124.387339	-20.917655	143.832444
2.100000	-21.754482	143.191105	-0.183460	-127.518490	-0.183460	-127.518490	-21.656927	141.420729
2.150000	-22.631605	139.263731	-0.182211	-130.661437	-0.182211	-130.661437	-22.512378	139.243703
2.200000	-23.659346	135.012829	-0.181319	-133.816341	-0.181319	-133.816341	-23.510366	137.408746
2.250000	-24.879307	130.274462	-0.180888	-136.983288	-0.180888	-136.983288	-24.687648	136.093221
2.300000	-26.353062	124.752840	-0.181024	-140.162289	-0.181024	-140.162289	-26.096597	135.609566
2.350000	-28.174562	117.861895	-0.181830	-143.353282	-0.181830	-143.353282	-27.812120	136.553854
2.400000	-30.485583	108.293640	-0.183406	-146.556128	-0.183406	-146.556128	-29.933132	140.174970
2.450000	-33.442601	92.723638	-0.185846	-149.770621	-0.185846	-149.770621	-32.522024	149.308959
2.500000	-36.639012	62.827596	-0.189241	-152.996483	-0.189241	-152.996483	-35.145617	169.807074
2.550000	-36.776481	16.442369	-0.193698	-156.233609	-0.193698	-156.233609	-35.567185	-157.117995
2.600000	-33.533090	-15.929794	-0.199268	-159.481354	-0.199268	-159.481354	-33.137346	-131.826353
2.650000	-30.304681	-32.746072	-0.206016	-162.739277	-0.206016	-162.739277	-30.248367	-119.803889
2.700000	-27.722824	-42.815978	-0.214000	-166.006901	-0.214000	-166.006901	-27.782058	-114.918264
2.750000	-25.649726	-49.933458	-0.223267	-169.283721	-0.223267	-169.283721	-25.751511	-113.444917
2.800000	-23.938338	-55.566348	-0.233864	-172.569203	-0.233864	-172.569203	-24.056926	-113.750097
2.850000	-22.489836	-60.358667	-0.245840	-175.862732	-0.245840	-175.862732	-22.615187	-115.080172
2.900000	-21.239508	-64.629872	-0.259247	-179.163476	-0.259247	-179.163476	-21.367470	-117.052399
2.950000	-20.143761	-68.554345	-0.274109	177.529863	-0.274109	177.529863	-20.272623	-119.454976
3.000000	-19.172162	-72.234488	-0.290313	174.218944	-0.290313	174.218944	-19.301310	-122.162267
3.050000	-18.302753	-75.733894	-0.307571	170.904577	-0.307571	170.904577	-18.432091	-125.095521
3.100000	-17.519217	-79.093787	-0.325650	167.585914	-0.325650	167.585914	-17.648906	-128.203185
3.150000	-16.809216	-82.341043	-0.344558	164.261987	-0.344558	164.261987	-16.939553	-131.451268
3.200000	-16.163102	-85.494926	-0.364344	160.932900	-0.364344	160.932900	-16.294456	-134.815132
3.250000	-15.573103	-88.569334	-0.384974	157.599246	-0.384974	157.599246	-15.705880	-138.276838
3.300000	-15.033017	-91.573432	-0.406356	154.261499	-0.406356	154.261499	-15.167650	-141.824414
3.350000	-14.537700	-94.513932	-0.428366	150.919953	-0.428366	150.919953	-14.674639	-145.449076
3.400000	-14.083215	-97.394240	-0.450870	147.574629	-0.450870	147.574629	-14.222946	-149.146259
3.450000	-13.665845	-100.218167	-0.473713	144.225489	-0.473713	144.225489	-13.808871	-152.911170
3.500000	-13.282604	-102.987524	-0.496741	140.872284	-0.496741	140.872284	-13.429454	-156.741692
3.550000	-12.930941	-105.703216	-0.519797	137.514612	-0.519797	137.514612	-13.082180	-160.637070
3.600000	-12.608660	-108.365406	-0.542724	134.151914	-0.542724	134.151914	-12.764895	-164.597730
3.650000	-12.313855	-110.973611	-0.565366	130.783471	-0.565366	130.783471	-12.475743	-168.625159
3.700000	-12.044859	-113.526778	-0.587568	127.408404	-0.587568	127.408404	-12.213114	-172.721838
3.750000	-11.800205	-116.023310	-0.609181	124.025670	-0.609181	124.025670	-11.975609	-176.891198
3.800000	-11.578830	-118.460200	-0.630049	120.633904	-0.630049	120.633904	-11.762267	178.861188
3.850000	-11.379318	-120.835594	-0.650049	117.231825	-0.650049	117.231825	-11.571746	174.530994
3.900000	-11.200602	-123.146267	-0.669061	113.817866	-0.669061	113.817866	-11.403085	170.111855
3.950000	-11.041695	-125.388411	-0.686979	110.390284	-0.686979	110.390284	-11.255422	165.596367
4.000000	-10.901666	-127.557588	-0.703714	106.947160	-0.703714	106.947160	-11.127966	160.976021
4.050000	-10.779615	-129.648679	-0.719199	103.486396	-0.719199	103.486396	-11.019974	156.241128
4.100000	-10.674643	-131.655830	-0.733388	100.005719	-0.733388	100.005719	-10.930729	151.380729
4.150000	-10.585820	-133.572401	-0.746265	96.502680	-0.746265	96.502680	-10.859500	146.382503
4.200000	-10.512280	-135.389887	-0.757831	92.974389	-0.757831	92.974389	-10.805666	141.231051
4.250000	-10.452824	-137.100242	-0.768142	89.418119	-0.768142	89.418119	-10.768262	135.911428
4.300000	-10.406102	-138.694724	-0.777295	85.831036	-0.777295	85.831036	-10.746177	130.407359
4.350000	-10.370613	-140.163349	-0.785423	82.210039	-0.785423	82.210039	-10.738168	124.700217
4.400000	-10.344563	-141.495512	-0.792710	78.551893	-0.792710	78.551893	-10.742685	118.769826
4.450000	-10.325794	-142.680271	-0.799394	74.853250	-0.799394	74.853250	-10.757779	112.594655
4.500000	-10.311701	-143.706787	-0.805774	71.110671	-0.805774	71.110671	-10.780986	106.152212
4.550000	-10.299154	-144.564985	-0.812218	67.320661	-0.812218	67.320661	-10.809198	99.419697
4.600000	-10.284401	-145.245585	-0.819168	63.479442	-0.819168	63.479442	-10.838516	92.373420
4.650000	-10.262960	-145.742184	-0.827160	59.583201	-0.827160	59.583201	-10.864042	84.991582
4.700000	-10.229860	-146.055648	-0.836797	55.629044	-0.836797	55.629044	-10.880004	77.261840
4.750000	-10.179594	-146.191354	-0.848778	51.613758	-0.848778	51.613758	-10.879711	69.175805
4.800000	-10.106342	-146.162619	-0.863895	47.534383	-0.863895	47.534383	-10.855709	60.735009
4.850000	-10.004296	-145.992163	-0.883039	43.388311	-0.883039	43.388311	-10.800140	51.953856
4.900000	-9.868094	-145.712887	-0.907197	39.173404	-0.907197	39.173404	-10.705309	42.861973
4.950000	-9.693340	-145.367590	-0.937455	34.888113	-0.937455	34.888113	-10.564444	33.505159
5.000000	-9.477120	-145.007327	-0.974984	30.531615	-0.974984	30.531615	-10.372531	23.944267
5.050000	-9.217687	-144.689883	-1.021178	26.102932	-1.021178	26.102932	-10.126180	14.250933
5.100000	-8.916910	-144.472893	-1.077250	21.604191	-1.077250	21.604191	-9.826801	4.506380
5.150000	-8.578099	-144.410213	-1.144560	17.037619	-1.144560	17.037619	-9.478085	-5.212470
5.200000	-8.206381	-144.548173	-1.224483	12.406690	-1.224483	12.406690	-9.086394	-14.836192
5.250000	-7.808222	-144.922698	-1.318376	7.716197	-1.318376	7.716197	-8.660022	-24.307307
5.300000	-7.390861	-145.557828	-1.427544	2.972290	-1.427544	2.972290	-8.208313	-33.582382
5.350000	-6.961751	-146.465629	-1.553201	-1.817543	-1.553201	-1.817543	-7.740817	-42.631897
5.400000	-6.528086	-147.647210	-1.696429	-6.644552	-1.696429	-6.644552	-7.266603	-51.438506
5.450000	-6.096326	-149.096849	-1.858293	-11.499023	-1.858293	-11.499023	-6.793633	-59.992029
5.500000	-5.672428	-150.797457	-2.039416	-16.369796	-2.039416	-16.369796	-6.329077	-68.292915
5.550000	-5.261260	-152.727059	-2.240183	-21.245268	-2.240183	-21.245268	-5.878642	-76.346092
5.600000	-4.866614	-154.861758	-2.460806	-26.113624	-2.460806	-26.113624	-5.446645	-84.157758
5.650000	-4.491341	-157.176011	-2.701241	-30.963024	-2.701241	-30.963024	-5.036231	-91.735292
5.700000	-4.137431	-159.643895	-2.961195	-35.781928	-2.961195	-35.781928	-4.649515	-99.086447
5.750000	-3.806107	-162.240082	-3.240143	-40.559390	-3.240143	-40.559390	-4.287727	-106.218906
5.800000	-3.497941	-164.940561	-3.537348	-45.285329	-3.537348	-45.285329	-3.951367	-113.140102
5.850000	-3.213032	-167.723425	-3.851923	-49.950399	-3.851923	-49.950399	-3.640413	-119.856243
5.900000	-2.951051	-170.568532	-4.182793	-54.546342	-4.182793	-54.546342	-3.354393	-126.373461
5.950000	-2.711107	-173.457397	-4.528747	-59.067314	-4.528747	-59.067314	-3.092249	-132.700551
6.000000	-2.492189	-176.374640	-4.888587	-63.508210	-4.888587	-63.508210	-2.852809	-138.844303
6.050000	-2.293117	-179.307133	-5.261091	-67.865220	-5.261091	-67.865220	-2.634734	-144.811537
6.100000	-2.112610	177.756125	-5.645055	-72.135752	-5.645055	-72.135752	-2.436591	-150.609139
6.150000	-1.949334	174.824176	-6.039312	-76.318325	-6.039312	-76.318325	-2.256908	-156.244061
6.200000	-1.801946	171.904298	-6.442758	-80.412446	-6.442758	-80.412446	-2.094214	-161.723308
6.250000	-1.669126	169.002209	-6.854367	-84.418473	-6.854367	-84.418473	-1.947072	-167.053903
6.300000	-1.549756	166.122640	-7.272994	-88.336241	-7.272994	-88.336241	-1.814264	-172.240896
6.350000	-1.442448	163.268487	-7.697967	-92.168701	-7.697967	-92.168701	-1.694300	-177.293361
6.400000	-1.346067	160.441935	-8.128551	-95.917974	-8.128551	-95.917974	-1.585961	177.781911
6.450000	-1.259562	157.644367	-8.564111	-99.586514	-8.564111	-99.586514	-1.488118	172.978299
6.500000	-1.181961	154.876510	-9.004111	-103.177013	-9.004111	-103.177013	-1.399732	168.289390
6.550000	-1.112670	152.139851	-9.447269	-106.689157	-9.447269	-106.689157	-1.320161	163.713497
6.600000	-1.050056	149.430564	-9.895557	-110.134671	-9.895557	-110.134671	-1.247684	159.232181
6.650000	-0.994414	146.752779	-10.345583	-113.505161	-10.345583	-113.505161	-1.182590	154.855820
6.700000	-0.944079	144.100705	-10.800671	-116.815336	-10.800671	-116.815336	-1.123128	150.562686
6.750000	-0.899454	141.478701	-11.256730	-120.055521	-11.256730	-120.055521	-1.069708	146.364890
6.800000	-0.859173	138.880963	-11.717342	-123.239332	-11.717342	-123.239332	-1.020895	142.242948
6.850000	-0.823258	136.309257	-12.180105	-126.362432	-12.180105	-126.362432	-0.976701	138.201739
6.900000	-0.791054	133.760897	-12.646315	-129.430591	-12.646315	-129.430591	-0.936438	134.232748
6.950000	-0.762182	131.234593	-13.116174	-132.446091	-13.116174	-132.446091	-0.899702	130.332147
7.000000	-0.736478	128.730298	-13.588574	-135.408022	-13.588574	-135.408022	-0.866316	126.500273
7.050000	-0.713313	126.244370	-14.066383	-138.324134	-14.066383	-138.324134	-0.835623	122.726417
7.100000	-0.692851	123.778845	-14.546039	-141.187768	-14.546039	-141.187768	-0.807786	119.018058
7.150000	-0.674402	121.329012	-15.032238	-144.009552	-15.032238	-144.009552	-0.782086	115.361105
7.200000	-0.658111	118.896585	-15.521545	-146.782908	-15.521545	-146.782908	-0.758669	111.762593
7.250000	-0.643528	116.478304	-16.017467	-149.514949	-16.017467	-149.514949	-0.737067	108.212945
7.300000	-0.630614	114.074197	-16.518877	-152.203213	-16.518877	-152.203213	-0.717237	104.713894
7.350000	-0.619186	111.682956	-17.026797	-154.849168	-17.026797	-154.849168	-0.698987	101.262480
7.400000	-0.609055	109.303118	-17.542875	-157.454824	-17.542875	-157.454824	-0.682118	97.855069
7.450000	-0.600220	106.934824	-18.065659	-160.016268	-18.065659	-160.016268	-0.666633	94.494271
7.500000	-0.592396	104.575591	-18.599632	-162.539767	-18.599632	-162.539767	-0.652230	91.171907
7.550000	-0.585709	102.226569	-19.140870	-165.015811	-19.140870	-165.015811	-0.639045	87.895351
7.600000	-0.579864	99.885082	-19.695441	-167.452541	-19.695441	-167.452541	-0.626768	84.654708
7.650000	-0.574925	97.551618	-20.261026	-169.841774	-20.261026	-169.841774	-0.615467	81.454850
7.700000	-0.570745	95.224764	-20.841316	-172.185976	-20.841316	-172.185976	-0.604987	78.291024
7.750000	-0.567293	92.904104	-21.437096	-174.480721	-21.437096	-174.480721	-0.595298	75.163666
7.800000	-0.564531	90.589116	-22.049719	-176.721640	-22.049719	-176.721640	-0.586359	72.072557
7.850000	-0.562363	88.278798	-22.683348	-178.908664	-22.683348	-178.908664	-0.578067	69.014166
7.900000	-0.560829	85.973204	-23.337040	178.972012	-23.337040	178.972012	-0.570468	65.992337
7.950000	-0.559796	83.671082	-24.018275	176.916017	-24.018275	176.916017	-0.563415	63.000549
8.000000	-0.559337	81.372598	-24.725425	174.947329	-24.725425	174.947329	-0.556987	60.044469
8.050000	-0.559336	79.076717	-25.467321	173.063523	-25.467321	173.063523	-0.551057	57.117893
8.100000	-0.559830	76.783271	-26.245771	171.292092	-26.245771	171.292092	-0.545660	54.223924
8.150000	-0.560774	74.491679	-27.068432	169.647667	-27.068432	169.647667	-0.540744	51.360239
8.200000	-0.562153	72.201496	-27.942866	168.159234	-27.942866	168.159234	-0.536288	48.526348
8.250000	-0.563984	69.912354	-28.876291	166.877734	-28.876291	166.877734	-0.532301	45.723522
8.300000	-0.566208	67.623734	-29.884524	165.832601	-29.884524	165.832601	-0.528717	42.947899
8.350000	-0.568898	65.335249	-30.975474	165.162001	-30.975474	165.162001	-0.525594	40.204110
8.400000	-0.571970	63.046467	-32.176140	164.914985	-32.176140	164.914985	-0.522841	37.486194
8.450000	-0.575502	60.756840	-33.501631	165.392469	-33.501631	165.392469	-0.520517	34.798677
8.500000	-0.579443	58.466025	-34.988964	166.811966	-34.988964	166.811966	-0.518560	32.137392
8.550000	-0.583836	56.173410	-36.662621	169.837128	-36.662621	169.837128	-0.516992	29.504086
8.600000	-0.588687	53.878501	-38.537496	175.425250	-38.537496	175.425250	-0.515799	26.897855
8.650000	-0.593996	51.580824	-40.551273	-174.880249	-40.551273	-174.880249	-0.514961	24.317285
8.700000	-0.599832	49.279435	-42.279189	-158.488468	-42.279189	-158.488468	-0.514508	21.764537
8.750000	-0.606144	46.974247	-43.062983	-136.718732	-43.062983	-136.718732	-0.514382	19.235211
8.800000	-0.613080	44.663471	-42.126361	-115.917235	-42.126361	-115.917235	-0.514656	16.734329
8.850000	-0.620560	42.347348	-40.435549	-101.050737	-40.435549	-101.050737	-0.515252	14.256112
8.900000	-0.628782	40.023222	-38.578210	-92.682487	-38.578210	-92.682487	-0.516252	11.805802
8.950000	-0.637614	37.692144	-36.899563	-87.704263	-36.899563	-87.704263	-0.517561	9.376446
9.000000	-0.647354	35.349839	-35.412652	-85.180550	-35.412652	-85.180550	-0.519286	6.974340
9.050000	-0.657841	32.997835	-34.108742	-83.829733	-34.108742	-83.829733	-0.521319	4.591760
9.100000	-0.669118	30.635350	-32.950529	-83.380394	-32.950529	-83.380394	-0.523663	2.228471
9.150000	-0.681803	28.253060	-31.899731	-83.763775	-31.899731	-83.763775	-0.526502	-0.105998
9.200000	-0.695366	25.858095	-30.947307	-84.443308	-30.947307	-84.443308	-0.529613	-2.425752
9.250000	-0.710642	23.437735	-30.061370	-85.543724	-30.061370	-85.543724	-0.533217	-4.720477
9.300000	-0.727484	20.993807	-29.233177	-86.884321	-29.233177	-86.884321	-0.537223	-6.997025
9.350000	-0.746427	18.517998	-28.445548	-88.449151	-28.445548	-88.449151	-0.541717	-9.254167
9.400000	-0.767776	16.005797	-27.688819	-90.199231	-27.688819	-90.199231	-0.546719	-11.494122
9.450000	-0.792089	13.449366	-26.952454	-92.119800	-26.952454	-92.119800	-0.552293	-13.718377
9.500000	-0.820236	10.836994	-26.225143	-94.213742	-26.225143	-94.213742	-0.558553	-15.928079
9.550000	-0.853600	8.151314	-25.493732	-96.495632	-25.493732	-96.495632	-0.565682	-18.125178
9.600000	-0.893578	5.377636	-24.751049	-98.975187	-24.751049	-98.975187	-0.573850	-20.313239
9.650000	-0.942559	2.491621	-23.985791	-101.686329	-23.985791	-101.686329	-0.583378	-22.495633
9.700000	-1.005243	-0.551505	-23.177400	-104.702843	-23.177400	-104.702843	-0.594918	-24.677116
9.750000	-1.088644	-3.806233	-22.307745	-108.118154	-22.307745	-108.118154	-0.609439	-26.864975
9.800000	-1.202555	-7.333048	-21.365035	-112.044718	-21.365035	-112.044718	-0.628289	-29.067442
9.850000	-1.371244	-11.271236	-20.306857	-116.763188	-20.306857	-116.763188	-0.654839	-31.298387
9.900000	-1.642262	-15.807622	-19.091779	-122.718660	-19.091779	-122.718660	-0.695518	-33.574172
9.950000	-2.114893	-21.153582	-17.687544	-130.653837	-17.687544	-130.653837	-0.762842	-35.901461
10.000000	-3.043402	-27.355344	-16.076244	-142.083628	-16.076244	-142.083628	-0.884363	-38.224851
