! freq	dB(S11)	phase(S11)	dB(S12)	phase(S12)	
!     	dB(S21)	phase(S21)	dB(S22)	phase(S22)	
!S-par simulation data
#  GHz  S  DB  R 50
0.000000	-83.254600	0.000000	-0.000597	0.000000	-0.000597	0.000000	-83.254600	0.000000
0.050000	-39.348515	-91.935346	-0.006226	-2.879767	-0.006226	-2.879767	-39.348216	-91.843827
0.100000	-33.407201	-95.233009	-0.013114	-5.716693	-0.013114	-5.716693	-33.406856	-95.068713
0.150000	-29.927226	-98.427226	-0.019512	-8.544748	-0.019512	-8.544748	-29.926851	-98.180371
0.200000	-27.463174	-101.517693	-0.026542	-11.368749	-0.026542	-11.368749	-27.463185	-101.187275
0.250000	-25.560869	-104.539133	-0.034437	-14.188306	-0.034437	-14.188306	-25.561305	-104.125527
0.300000	-24.016917	-107.511027	-0.043165	-17.003103	-0.043165	-17.003103	-24.017660	-107.014210
0.350000	-22.722073	-110.446010	-0.052645	-19.813232	-0.052645	-19.813232	-22.722966	-109.865537
0.400000	-21.611327	-113.352118	-0.062832	-22.618787	-0.062832	-22.618787	-21.612227	-112.687302
0.450000	-20.641235	-116.237233	-0.073638	-25.420234	-0.073638	-25.420234	-20.642041	-115.487365
0.500000	-19.782997	-119.105685	-0.085037	-28.217652	-0.085037	-28.217652	-19.783639	-118.270052
0.550000	-19.016544	-121.960637	-0.097016	-31.010929	-0.097016	-31.010929	-19.016979	-121.038514
0.600000	-18.326393	-124.805245	-0.109531	-33.800107	-0.109531	-33.800107	-18.326604	-123.795919
0.650000	-17.700757	-127.641825	-0.122536	-36.585191	-0.122536	-36.585191	-17.700745	-126.544574
0.700000	-17.130756	-130.471962	-0.135991	-39.366081	-0.135991	-39.366081	-17.130539	-129.286013
0.750000	-16.609299	-133.296895	-0.149846	-42.142704	-0.149846	-42.142704	-16.608903	-132.021412
0.800000	-16.130676	-136.117550	-0.164048	-44.914994	-0.164048	-44.914994	-16.130136	-134.751615
0.850000	-15.690291	-138.934600	-0.178543	-47.682885	-0.178543	-47.682885	-15.689646	-137.477192
0.900000	-15.284346	-141.748543	-0.193271	-50.446341	-0.193271	-50.446341	-15.283641	-140.198530
0.950000	-14.909470	-144.559785	-0.208167	-53.205418	-0.208167	-53.205418	-14.908751	-142.915932
1.000000	-14.562923	-147.368600	-0.223171	-55.960166	-0.223171	-55.960166	-14.562236	-145.629554
1.050000	-14.242360	-150.175195	-0.238220	-58.710670	-0.238220	-58.710670	-14.241750	-148.339483
1.100000	-13.945757	-152.979734	-0.253251	-61.457051	-0.253251	-61.457051	-13.945269	-151.045759
1.150000	-13.671354	-155.782349	-0.268204	-64.199462	-0.268204	-64.199462	-13.671030	-153.748394
1.200000	-13.417607	-158.583160	-0.283018	-66.938093	-0.283018	-66.938093	-13.417484	-156.447383
1.250000	-13.183155	-161.382281	-0.297637	-69.673164	-0.297637	-69.673164	-13.183267	-159.142721
1.300000	-12.966962	-164.179810	-0.312000	-72.404885	-0.312000	-72.404885	-12.967338	-161.834353
1.350000	-12.767765	-166.975899	-0.326057	-75.133587	-0.326057	-75.133587	-12.768431	-164.522345
1.400000	-12.584594	-169.770693	-0.339761	-77.859581	-0.339761	-77.859581	-12.585566	-167.206728
1.450000	-12.416569	-172.564354	-0.353064	-80.583198	-0.353064	-80.583198	-12.417861	-169.887552
1.500000	-12.262895	-175.357066	-0.365924	-83.304792	-0.365924	-83.304792	-12.264514	-172.564898
1.550000	-12.123319	-178.149014	-0.378280	-86.024681	-0.378280	-86.024681	-12.125265	-175.238728
1.600000	-11.995855	179.059500	-0.390161	-88.743416	-0.390161	-88.743416	-11.998124	-177.909571
1.650000	-11.881609	176.268280	-0.401449	-91.461229	-0.401449	-91.461229	-11.884191	179.422912
1.700000	-11.778370	173.477015	-0.412209	-94.178649	-0.412209	-94.178649	-11.781251	176.758059
1.750000	-11.686687	170.685397	-0.422357	-96.896046	-0.422357	-96.896046	-11.689847	174.095947
1.800000	-11.605771	167.893086	-0.431893	-99.613865	-0.431893	-99.613865	-11.609187	171.436240
1.850000	-11.535165	165.099721	-0.440804	-102.332544	-0.440804	-102.332544	-11.538811	168.778659
1.900000	-11.474542	162.304893	-0.449075	-105.052540	-0.449075	-105.052540	-11.478388	166.122914
1.950000	-11.423489	159.508181	-0.456699	-107.774306	-0.456699	-107.774306	-11.427505	163.468664
2.000000	-11.381525	156.709170	-0.463685	-110.498263	-0.463685	-110.498263	-11.385680	160.815536
2.050000	-11.348289	153.907411	-0.470035	-113.224841	-0.470035	-113.224841	-11.352550	158.163157
2.100000	-11.323436	151.102444	-0.475757	-115.954465	-0.475757	-115.954465	-11.327773	155.511137
2.150000	-11.306639	148.293793	-0.480862	-118.687548	-0.480862	-118.687548	-11.311021	152.859072
2.200000	-11.297579	145.480974	-0.485364	-121.424495	-0.485364	-121.424495	-11.301979	150.206547
2.250000	-11.295952	142.663500	-0.489283	-124.165697	-0.489283	-124.165697	-11.300345	147.553136
2.300000	-11.301460	139.840878	-0.492639	-126.911533	-0.492639	-126.911533	-11.305824	144.898409
2.350000	-11.313812	137.012618	-0.495455	-129.662366	-0.495455	-129.662366	-11.318131	142.241931
2.400000	-11.332725	134.178238	-0.497760	-132.418542	-0.497760	-132.418542	-11.336983	139.583269
2.450000	-11.357915	131.337264	-0.499581	-135.180391	-0.499581	-135.180391	-11.362104	136.921988
2.500000	-11.389102	128.489235	-0.500950	-137.948223	-0.500950	-137.948223	-11.393217	134.257661
2.550000	-11.426118	125.633539	-0.501892	-140.722473	-0.501892	-140.722473	-11.430161	131.589782
2.600000	-11.468552	122.769913	-0.502450	-143.503281	-0.502450	-143.503281	-11.472528	128.918002
2.650000	-11.516116	119.897969	-0.502662	-146.290899	-0.502662	-146.290899	-11.520035	126.241921
2.700000	-11.568517	117.017354	-0.502563	-149.085557	-0.502563	-149.085557	-11.572393	123.561148
2.750000	-11.625454	114.127750	-0.502192	-151.887465	-0.502192	-151.887465	-11.629307	120.875304
2.800000	-11.686619	111.228883	-0.501585	-154.696813	-0.501585	-154.696813	-11.690469	118.184023
2.850000	-11.751690	108.320525	-0.500781	-157.513773	-0.500781	-157.513773	-11.755563	115.486955
2.900000	-11.820336	105.402497	-0.499817	-160.338497	-0.499817	-160.338497	-11.824259	112.783759
2.950000	-11.892210	102.474677	-0.498731	-163.171117	-0.498731	-163.171117	-11.896211	110.074107
3.000000	-11.966951	99.536998	-0.497558	-166.011751	-0.497558	-166.011751	-11.971058	107.357679
3.050000	-12.044180	96.589456	-0.496336	-168.860498	-0.496336	-168.860498	-12.048422	104.634166
3.100000	-12.123502	93.632109	-0.495098	-171.717442	-0.495098	-171.717442	-12.127908	101.903262
3.150000	-12.204509	90.664976	-0.493877	-174.582745	-0.493877	-174.582745	-12.209103	99.164577
3.200000	-12.286752	87.688255	-0.492708	-177.456466	-0.492708	-177.456466	-12.291556	96.417797
3.250000	-12.369769	84.702311	-0.491620	179.661439	-0.491620	179.661439	-12.374801	93.662696
3.300000	-12.453088	81.707466	-0.490641	176.770933	-0.490641	176.770933	-12.458363	90.898956
3.350000	-12.536222	78.704108	-0.489799	173.871987	-0.489799	173.871987	-12.541748	88.126248
3.400000	-12.618664	75.692682	-0.489117	170.964579	-0.489117	170.964579	-12.624445	85.344223
3.450000	-12.699895	72.673687	-0.488620	168.048693	-0.488620	168.048693	-12.705927	82.552516
3.500000	-12.779381	69.647672	-0.488329	165.124314	-0.488329	165.124314	-12.785656	79.750737
3.550000	-12.856579	66.615227	-0.488262	162.191430	-0.488262	162.191430	-12.863084	76.938473
3.600000	-12.930940	63.576976	-0.488439	159.250031	-0.488439	159.250031	-12.937656	74.115284
3.650000	-13.001914	60.533568	-0.488876	156.300105	-0.488876	156.300105	-13.008816	71.280705
3.700000	-13.068954	57.485663	-0.489587	153.341639	-0.489587	153.341639	-13.076014	68.434248
3.750000	-13.131521	54.433926	-0.490585	150.374618	-0.490585	150.374618	-13.138706	65.575401
3.800000	-13.188961	51.378958	-0.491889	147.398835	-0.491889	147.398835	-13.196236	62.703345
3.850000	-13.240881	48.321474	-0.493504	144.414454	-0.493504	144.414454	-13.248211	59.817812
3.900000	-13.286807	45.262074	-0.495439	141.421447	-0.495439	141.421447	-13.294155	56.918261
3.950000	-13.326301	42.201308	-0.497704	138.419781	-0.497704	138.419781	-13.333629	54.004159
4.000000	-13.358964	39.139674	-0.500305	135.409419	-0.500305	135.409419	-13.366240	51.074992
4.050000	-13.384449	36.077601	-0.503250	132.390319	-0.503250	132.390319	-13.391638	48.130274
4.100000	-13.402461	33.015447	-0.506546	129.362434	-0.506546	129.362434	-13.409533	45.169557
4.150000	-13.412766	29.953488	-0.510198	126.325713	-0.510198	126.325713	-13.419694	42.192446
4.200000	-13.415195	26.891916	-0.514211	123.280099	-0.514211	123.280099	-13.421956	39.198608
4.250000	-13.409651	23.830836	-0.518591	120.225535	-0.518591	120.225535	-13.416222	36.187780
4.300000	-13.396108	20.770267	-0.523342	117.161957	-0.523342	117.161957	-13.402470	33.159778
4.350000	-13.374613	17.710142	-0.528468	114.089301	-0.528468	114.089301	-13.380749	30.114504
4.400000	-13.345207	14.650313	-0.533974	111.007401	-0.533974	111.007401	-13.351102	27.051762
4.450000	-13.308097	11.590547	-0.539864	107.916184	-0.539864	107.916184	-13.313737	23.971637
4.500000	-13.263647	8.530543	-0.546133	104.815681	-0.546133	104.815681	-13.269016	20.874492
4.550000	-13.212207	5.469943	-0.552782	101.705819	-0.552782	101.705819	-13.217290	17.760584
4.600000	-13.154195	2.408336	-0.559808	98.586525	-0.559808	98.586525	-13.158976	14.630248
4.650000	-13.090093	-0.654730	-0.567207	95.457724	-0.567207	95.457724	-13.094552	11.483885
4.700000	-13.020441	-3.719742	-0.574972	92.319338	-0.574972	92.319338	-13.024560	8.321954
4.750000	-12.945836	-6.787215	-0.583096	89.171286	-0.583096	89.171286	-12.949593	5.144957
4.800000	-12.866922	-9.857681	-0.591565	86.013479	-0.591565	86.013479	-12.870293	1.953429
4.850000	-12.784385	-12.931687	-0.600366	82.845824	-0.600366	82.845824	-12.787346	-1.252078
4.900000	-12.698953	-16.009785	-0.609477	79.668214	-0.609477	79.668214	-12.701480	-4.471009
4.950000	-12.611384	-19.092532	-0.618877	76.480532	-0.618877	76.480532	-12.613453	-7.702818
5.000000	-12.522467	-22.180481	-0.628536	73.282641	-0.628536	73.282641	-12.524057	-10.946983
5.050000	-12.433005	-25.274325	-0.638425	70.074156	-0.638425	70.074156	-12.434095	-14.203268
5.100000	-12.343887	-28.374501	-0.648500	66.855113	-0.648500	66.855113	-12.344462	-17.470969
5.150000	-12.255974	-31.481555	-0.658716	63.625293	-0.658716	63.625293	-12.256024	-20.749713
5.200000	-12.170149	-34.596032	-0.669021	60.384436	-0.669021	60.384436	-12.169668	-24.039196
5.250000	-12.087314	-37.718477	-0.679357	57.132239	-0.679357	57.132239	-12.086304	-27.339192
5.300000	-12.008392	-40.849433	-0.689661	53.868338	-0.689661	53.868338	-12.006863	-30.649564
5.350000	-11.934333	-43.989451	-0.699862	50.592311	-0.699862	50.592311	-11.932303	-33.970265
5.400000	-11.866117	-47.139081	-0.709882	47.303657	-0.709882	47.303657	-11.863613	-37.301350
5.450000	-11.804756	-50.298885	-0.719638	44.001793	-0.719638	44.001793	-11.801815	-40.642980
5.500000	-11.751310	-53.469428	-0.729039	40.686039	-0.729039	40.686039	-11.747978	-43.995426
5.550000	-11.706888	-56.651283	-0.737992	37.355609	-0.737992	37.355609	-11.703222	-47.359075
5.600000	-11.672666	-59.845026	-0.746396	34.009595	-0.746396	34.009595	-11.668736	-50.734431
5.650000	-11.650041	-63.051374	-0.754138	30.646759	-0.754138	30.646759	-11.645927	-54.122265
5.700000	-11.640419	-66.270909	-0.761109	27.265865	-0.761109	27.265865	-11.636216	-57.523358
5.750000	-11.645162	-69.504033	-0.767207	23.865724	-0.767207	23.865724	-11.640979	-60.938462
5.800000	-11.665906	-72.751235	-0.772325	20.444787	-0.772325	20.444787	-11.661867	-64.368582
5.850000	-11.704473	-76.012922	-0.776358	17.001306	-0.776358	17.001306	-11.700723	-67.814842
5.900000	-11.762916	-79.289379	-0.779207	13.533318	-0.779207	13.533318	-11.759623	-71.278474
5.950000	-11.842793	-82.580215	-0.780823	10.039576	-0.780823	10.039576	-11.840146	-74.760142
6.000000	-11.948412	-85.886292	-0.781034	6.515650	-0.781034	6.515650	-11.946653	-78.262609
6.050000	-12.082091	-89.206426	-0.779824	2.959831	-0.779824	2.959831	-12.081503	-81.786574
6.100000	-12.247524	-92.539384	-0.777150	-0.630889	-0.777150	-0.630889	-12.248458	-85.333398
6.150000	-12.449119	-95.883042	-0.772995	-4.259825	-0.772995	-4.259825	-12.452016	-88.904305
6.200000	-12.692202	-99.233966	-0.767378	-7.930609	-0.767378	-7.930609	-12.697627	-92.500224
6.250000	-12.983293	-102.586797	-0.760355	-11.647207	-0.760355	-11.647207	-12.991992	-96.121567
6.300000	-13.331046	-105.933100	-0.752021	-15.414526	-0.752021	-15.414526	-13.344039	-99.768120
6.350000	-13.745323	-109.260061	-0.742563	-19.236737	-0.742563	-19.236737	-13.764021	-103.437621
6.400000	-14.239409	-112.547962	-0.732222	-23.118850	-0.732222	-23.118850	-14.265843	-107.125635
6.450000	-14.830844	-115.765940	-0.721327	-27.066207	-0.721327	-27.066207	-14.868053	-110.823618
6.500000	-15.543434	-118.864483	-0.710306	-31.084451	-0.710306	-31.084451	-15.596172	-114.515918
6.550000	-16.410556	-121.761247	-0.699706	-35.179484	-0.699706	-35.179484	-16.486694	-118.174021
6.600000	-17.481802	-124.307237	-0.690223	-39.358129	-0.690223	-39.358129	-17.595455	-121.743010
6.650000	-18.831401	-126.224770	-0.682700	-43.626215	-0.682700	-43.626215	-19.010318	-125.113397
6.700000	-20.578692	-126.946022	-0.678127	-47.989108	-0.678127	-47.989108	-20.885068	-128.046430
6.750000	-22.927482	-125.039859	-0.677756	-52.454024	-0.677756	-52.454024	-23.534199	-129.877911
6.800000	-26.170877	-116.310044	-0.682998	-57.026087	-0.682998	-57.026087	-27.737879	-128.097421
6.850000	-29.818049	-87.792466	-0.695445	-61.709403	-0.695445	-61.709403	-35.970008	-102.447900
6.900000	-28.679270	-40.712843	-0.717031	-66.508747	-0.717031	-66.508747	-32.872444	-3.965225
6.950000	-24.240062	-19.132077	-0.749861	-71.426542	-0.749861	-71.426542	-25.385914	9.236662
7.000000	-20.602337	-13.263930	-0.796112	-76.462362	-0.796112	-76.462362	-21.068373	9.110127
7.050000	-17.797869	-12.930827	-0.858316	-81.615325	-0.858316	-81.615325	-18.032491	6.203608
7.100000	-15.548779	-14.960790	-0.939120	-86.881600	-0.939120	-86.881600	-15.679954	2.232419
7.150000	-13.681987	-18.203490	-1.040904	-92.252742	-1.040904	-92.252742	-13.758301	-2.283188
7.200000	-12.093579	-22.171484	-1.166223	-97.718721	-1.166223	-97.718721	-12.137340	-7.134335
7.250000	-10.719391	-26.614040	-1.317684	-103.266711	-1.317684	-103.266711	-10.742217	-12.212631
7.300000	-9.518284	-31.374711	-1.496908	-108.878660	-1.496908	-108.878660	-9.526777	-17.445813
7.350000	-8.461428	-36.357447	-1.705548	-114.535532	-1.705548	-114.535532	-8.459636	-22.784928
7.400000	-7.528386	-41.492732	-1.944965	-120.216083	-1.944965	-120.216083	-7.518935	-28.190001
7.450000	-6.703420	-46.722724	-2.215226	-125.897318	-2.215226	-125.897318	-6.688074	-33.624698
7.500000	-5.974050	-52.002471	-2.516161	-131.556705	-2.516161	-131.556705	-5.954044	-39.057787
7.550000	-5.330530	-57.293747	-2.847254	-137.171382	-2.847254	-137.171382	-5.306749	-44.460239
7.600000	-4.763425	-62.563911	-3.206779	-142.721718	-3.206779	-142.721718	-4.736514	-49.807363
7.650000	-4.264788	-67.786289	-3.592903	-148.190070	-3.592903	-148.190070	-4.235220	-55.077808
7.700000	-3.827965	-72.937746	-4.003449	-153.560082	-4.003449	-153.560082	-3.796093	-60.252196
7.750000	-3.445883	-78.001748	-4.435800	-158.821363	-4.435800	-158.821363	-3.411970	-65.317538
7.800000	-3.112414	-82.965628	-4.887352	-163.965995	-4.887352	-163.965995	-3.076654	-70.263727
7.850000	-2.822402	-87.818942	-5.355325	-168.987372	-5.355325	-168.987372	-2.784942	-75.082129
7.900000	-2.570474	-92.557038	-5.837137	-173.884424	-5.837137	-173.884424	-2.531424	-79.769899
7.950000	-2.351919	-97.177857	-6.330379	-178.658129	-6.330379	-178.658129	-2.311363	-84.326378
8.000000	-2.162864	-101.680018	-6.832532	176.690232	-6.832532	176.690232	-2.120869	-88.751145
8.050000	-1.999479	-106.065890	-7.341533	172.155787	-7.341533	172.155787	-1.956101	-93.047552
8.100000	-1.858433	-110.339099	-7.855520	167.732622	-7.855520	167.732622	-1.813718	-97.220003
8.150000	-1.736824	-114.504154	-8.372799	163.414075	-8.372799	163.414075	-1.690816	-101.273639
8.200000	-1.632297	-118.565050	-8.891485	159.194005	-8.891485	159.194005	-1.585039	-105.212851
8.250000	-1.542363	-122.529366	-9.410766	155.062928	-9.410766	155.062928	-1.493898	-109.045828
8.300000	-1.465114	-126.403102	-9.929519	151.012912	-9.929519	151.012912	-1.415487	-112.778928
8.350000	-1.398893	-130.192372	-10.446756	147.035923	-10.446756	147.035923	-1.348150	-116.418563
8.400000	-1.342260	-133.903279	-10.961608	143.123937	-10.961608	143.123937	-1.290453	-119.971090
8.450000	-1.294029	-137.541252	-11.473008	139.269439	-11.473008	139.269439	-1.241211	-123.442073
8.500000	-1.253208	-141.111204	-11.979669	135.465176	-11.979669	135.465176	-1.199438	-126.836468
8.550000	-1.218668	-144.620590	-12.481827	131.702103	-12.481827	131.702103	-1.164008	-130.162097
8.600000	-1.189614	-148.074762	-12.978896	127.972845	-12.978896	127.972845	-1.134126	-133.424440
8.650000	-1.165356	-151.478809	-13.470316	124.270264	-13.470316	124.270264	-1.109108	-136.628697
8.700000	-1.145299	-154.837553	-13.955536	120.587472	-13.955536	120.587472	-1.088358	-139.779790
8.750000	-1.128928	-158.155546	-14.433999	116.917841	-14.433999	116.917841	-1.071366	-142.882363
8.800000	-1.115897	-161.435955	-14.903994	113.255056	-14.903994	113.255056	-1.057788	-145.939408
8.850000	-1.105703	-164.684178	-15.366073	109.592666	-15.366073	109.592666	-1.047119	-148.956675
8.900000	-1.098073	-167.903348	-15.818769	105.924675	-15.818769	105.924675	-1.039090	-151.937192
8.950000	-1.092597	-171.098442	-16.263259	102.246358	-16.263259	102.246358	-1.033285	-154.886463
9.000000	-1.089116	-174.271789	-16.697531	98.552267	-16.697531	98.552267	-1.029547	-157.806615
9.050000	-1.087456	-177.426119	-17.120098	94.837521	-17.120098	94.837521	-1.027702	-160.700351
9.100000	-1.087305	179.434369	-17.532611	91.099861	-17.532611	91.099861	-1.027429	-163.572548
9.150000	-1.088709	176.308871	-17.929799	87.332345	-17.929799	87.332345	-1.028783	-166.423207
9.200000	-1.091298	173.192851	-18.316146	83.537288	-18.316146	83.537288	-1.031375	-169.258219
9.250000	-1.095197	170.085746	-18.684524	79.706717	-18.684524	79.706717	-1.035341	-172.077043
9.300000	-1.100110	166.984142	-19.039175	75.845254	-19.039175	75.845254	-1.040368	-174.884437
9.350000	-1.106081	163.886682	-19.375339	71.949018	-19.375339	71.949018	-1.046502	-177.681267
9.400000	-1.112986	160.791379	-19.693512	68.020933	-19.693512	68.020933	-1.053609	179.529865
9.450000	-1.120772	157.696604	-19.992469	64.063174	-19.992469	64.063174	-1.061629	176.747030
9.500000	-1.129443	154.600861	-20.269126	60.077522	-20.269126	60.077522	-1.070561	173.968710
9.550000	-1.138870	151.503029	-20.525795	56.071365	-20.525795	56.071365	-1.080267	171.192832
9.600000	-1.149163	148.401418	-20.755996	52.047490	-20.755996	52.047490	-1.090850	168.418099
9.650000	-1.160154	145.295753	-20.964449	48.015565	-20.964449	48.015565	-1.102133	165.642957
9.700000	-1.171959	142.184324	-21.144947	43.983119	-21.144947	43.983119	-1.114224	162.865857
9.750000	-1.184471	139.067170	-21.300637	39.959074	-21.300637	39.959074	-1.127007	160.085854
9.800000	-1.197742	135.943240	-21.428545	35.954654	-21.428545	35.954654	-1.140526	157.301527
9.850000	-1.211757	132.812242	-21.528687	31.980299	-21.528687	31.980299	-1.154759	154.511916
9.900000	-1.226493	129.674178	-21.601847	28.045910	-21.601847	28.045910	-1.169674	151.716299
9.950000	-1.242025	126.528203	-21.645082	24.167734	-21.645082	24.167734	-1.185335	148.913181
10.000000	-1.258246	123.375473	-21.662788	20.348040	-21.662788	20.348040	-1.201639	146.102975
