! freq	dB(S11)	phase(S11)	dB(S12)	phase(S12)	
!     	dB(S21)	phase(S21)	dB(S22)	phase(S22)	
!S-par simulation data
#  GHz  S  DB  R 50
0.000000	-88.129501	0.000000	-0.000341	0.000000	-0.000341	0.000000	-88.129501	0.000000
0.050000	-36.599206	-92.526858	-0.003753	-2.431375	-0.003753	-2.431375	-36.599240	-92.525999
0.100000	-30.612944	-95.165245	-0.011384	-4.839369	-0.011384	-4.839369	-30.612953	-95.163694
0.150000	-27.128599	-97.641892	-0.020311	-7.228452	-0.020311	-7.228452	-27.128595	-97.639734
0.200000	-24.665061	-100.047924	-0.029968	-9.608341	-0.029968	-9.608341	-24.665054	-100.045157
0.250000	-22.760505	-102.425851	-0.040656	-11.983425	-0.040656	-11.983425	-22.760499	-102.422448
0.300000	-21.210547	-104.793482	-0.052668	-14.354732	-0.052668	-14.354732	-21.210543	-104.789424
0.350000	-19.906807	-107.156879	-0.066189	-16.721928	-0.066189	-16.721928	-19.906805	-107.152151
0.400000	-18.784465	-109.517564	-0.081275	-19.084371	-0.081275	-19.084371	-18.784465	-109.512155
0.450000	-17.801813	-111.875263	-0.097944	-21.441277	-0.097944	-21.441277	-17.801814	-111.869167
0.500000	-16.930366	-114.229093	-0.116180	-23.791853	-0.116180	-23.791853	-16.930368	-114.222303
0.550000	-16.149545	-116.578107	-0.135914	-26.135490	-0.135914	-26.135490	-16.149547	-116.570618
0.600000	-15.444397	-118.921250	-0.157099	-28.471450	-0.157099	-28.471450	-15.444399	-118.913056
0.650000	-14.803275	-121.257685	-0.179642	-30.799242	-0.179642	-30.799242	-14.803276	-121.248782
0.700000	-14.217185	-123.586627	-0.203457	-33.118368	-0.203457	-33.118368	-14.217187	-123.577008
0.750000	-13.679089	-125.907299	-0.228462	-35.428290	-0.228462	-35.428290	-13.679090	-125.896959
0.800000	-13.183025	-128.219229	-0.254543	-37.728760	-0.254543	-37.728760	-13.183026	-128.208162
0.850000	-12.724370	-130.521801	-0.281611	-40.019337	-0.281611	-40.019337	-12.724369	-130.509999
0.900000	-12.299082	-132.814650	-0.309556	-42.299816	-0.309556	-42.299816	-12.299081	-132.802105
0.950000	-11.903782	-135.097469	-0.338270	-44.570028	-0.338270	-44.570028	-11.903780	-135.084175
1.000000	-11.535768	-137.369841	-0.367656	-46.829671	-0.367656	-46.829671	-11.535764	-137.355789
1.050000	-11.192428	-139.631724	-0.397598	-49.078808	-0.397598	-49.078808	-11.192424	-139.616905
1.100000	-10.871752	-141.882861	-0.427997	-51.317274	-0.427997	-51.317274	-10.871747	-141.867264
1.150000	-10.571866	-144.123189	-0.458746	-53.545089	-0.458746	-53.545089	-10.571860	-144.106805
1.200000	-10.291076	-146.352755	-0.489742	-55.762370	-0.489742	-55.762370	-10.291069	-146.335572
1.250000	-10.028113	-148.571380	-0.520886	-57.969010	-0.520886	-57.969010	-10.028105	-148.553388
1.300000	-9.781535	-150.779323	-0.552081	-60.165319	-0.552081	-60.165319	-9.781526	-150.760508
1.350000	-9.550284	-152.976593	-0.583230	-62.351364	-0.583230	-62.351364	-9.550274	-152.956942
1.400000	-9.333349	-155.163325	-0.614241	-64.527327	-0.614241	-64.527327	-9.333338	-155.142825
1.450000	-9.129735	-157.339794	-0.645030	-66.693520	-0.645030	-66.693520	-9.129724	-157.318432
1.500000	-8.938852	-159.505919	-0.675498	-68.849917	-0.675498	-68.849917	-8.938839	-159.483678
1.550000	-8.759621	-161.662358	-0.705583	-70.997185	-0.705583	-70.997185	-8.759608	-161.639222
1.600000	-8.591371	-163.809372	-0.735211	-73.135615	-0.735211	-73.135615	-8.591357	-163.785326
1.650000	-8.433805	-165.946858	-0.764283	-75.265154	-0.764283	-75.265154	-8.433790	-165.921883
1.700000	-8.286155	-168.075393	-0.792745	-77.386385	-0.792745	-77.386385	-8.286139	-168.049470
1.750000	-8.147790	-170.195460	-0.820546	-79.499798	-0.820546	-79.499798	-8.147773	-170.168570
1.800000	-8.018338	-172.307292	-0.847616	-81.605650	-0.847616	-81.605650	-8.018321	-172.279416
1.850000	-7.897364	-174.411271	-0.873897	-83.704333	-0.873897	-83.704333	-7.897346	-174.382387
1.900000	-7.784537	-176.507715	-0.899330	-85.796182	-0.899330	-85.796182	-7.784518	-176.477801
1.950000	-7.679482	-178.597044	-0.923863	-87.881622	-0.923863	-87.881622	-7.679462	-178.566076
2.000000	-7.581791	179.320242	-0.947463	-89.961148	-0.947463	-89.961148	-7.581770	179.352287
2.050000	-7.491153	177.243717	-0.970092	-92.035186	-0.970092	-92.035186	-7.491131	177.276865
2.100000	-7.407282	175.172947	-0.991712	-94.104168	-0.991712	-94.104168	-7.407259	175.207224
2.150000	-7.329913	173.107494	-1.012292	-96.168528	-1.012292	-96.168528	-7.329890	173.142928
2.200000	-7.258806	171.046916	-1.031804	-98.228701	-1.031804	-98.228701	-7.258782	171.083536
2.250000	-7.193738	168.990768	-1.050222	-100.285126	-1.050222	-100.285126	-7.193712	169.028603
2.300000	-7.134503	166.938605	-1.067526	-102.338237	-1.067526	-102.338237	-7.134476	166.977686
2.350000	-7.080915	164.889980	-1.083697	-104.388470	-1.083697	-104.388470	-7.080887	164.930341
2.400000	-7.032800	162.844450	-1.098722	-106.436258	-1.098722	-106.436258	-7.032771	162.886123
2.450000	-6.990003	160.801572	-1.112587	-108.482030	-1.112587	-108.482030	-6.989973	160.844595
2.500000	-6.952381	158.760909	-1.125286	-110.526213	-1.125286	-110.526213	-6.952349	158.805317
2.550000	-6.919906	156.722055	-1.136787	-112.569210	-1.136787	-112.569210	-6.919873	156.767888
2.600000	-6.892353	154.684534	-1.147112	-114.611471	-1.147112	-114.611471	-6.892318	154.731831
2.650000	-6.869616	152.647922	-1.156264	-116.653407	-1.156264	-116.653407	-6.869580	152.696727
2.700000	-6.851600	150.611806	-1.164244	-118.695419	-1.164244	-118.695419	-6.851561	150.662163
2.750000	-6.838218	148.575778	-1.171058	-120.737902	-1.171058	-120.737902	-6.838177	148.627732
2.800000	-6.829395	146.539440	-1.176714	-122.781243	-1.176714	-122.781243	-6.829353	146.593038
2.850000	-6.825066	144.502402	-1.181224	-124.825824	-1.181224	-124.825824	-6.825021	144.557695
2.900000	-6.825172	142.464285	-1.184598	-126.872014	-1.184598	-126.872014	-6.825125	142.521324
2.950000	-6.829664	140.424720	-1.186853	-128.920177	-1.186853	-128.920177	-6.829614	140.483561
3.000000	-6.838502	138.383349	-1.188005	-130.970665	-1.188005	-130.970665	-6.838449	138.444048
3.050000	-6.851651	136.339827	-1.188073	-133.023821	-1.188073	-133.023821	-6.851595	136.402444
3.100000	-6.869085	134.293820	-1.187078	-135.079980	-1.187078	-135.079980	-6.869025	134.358417
3.150000	-6.890830	132.244973	-1.185031	-137.139505	-1.185031	-137.139505	-6.890768	132.311616
3.200000	-6.916874	130.192971	-1.181959	-139.202718	-1.181959	-139.202718	-6.916808	130.261728
3.250000	-6.947164	128.137550	-1.177899	-141.269886	-1.177899	-141.269886	-6.947094	128.208494
3.300000	-6.981701	126.078434	-1.172878	-143.341299	-1.172878	-143.341299	-6.981627	126.151638
3.350000	-7.020491	124.015360	-1.166926	-145.417236	-1.166926	-145.417236	-7.020413	124.090904
3.400000	-7.063548	121.948080	-1.160073	-147.497964	-1.160073	-147.497964	-7.063465	122.026047
3.450000	-7.110889	119.876365	-1.152352	-149.583741	-1.152352	-149.583741	-7.110801	119.956839
3.500000	-7.162539	117.799999	-1.143797	-151.674810	-1.143797	-151.674810	-7.162445	117.883072
3.550000	-7.218527	115.718785	-1.134441	-153.771402	-1.134441	-153.771402	-7.218427	115.804551
3.600000	-7.278887	113.632540	-1.124320	-155.873738	-1.124320	-155.873738	-7.278782	113.721100
3.650000	-7.343661	111.541104	-1.113471	-157.982024	-1.113471	-157.982024	-7.343549	111.632562
3.700000	-7.412893	109.444330	-1.101932	-160.096455	-1.101932	-160.096455	-7.412774	109.538797
3.750000	-7.486635	107.342091	-1.089741	-162.217212	-1.089741	-162.217212	-7.486508	107.439684
3.800000	-7.565027	105.234157	-1.076924	-164.344608	-1.076924	-164.344608	-7.564892	105.335000
3.850000	-7.648045	103.120559	-1.063536	-166.478660	-1.063536	-166.478660	-7.647902	103.224781
3.900000	-7.735756	101.001228	-1.049618	-168.619509	-1.049618	-168.619509	-7.735604	101.108966
3.950000	-7.828233	98.876117	-1.035210	-170.767283	-1.035210	-170.767283	-7.828070	98.987515
4.000000	-7.925551	96.745197	-1.020354	-172.922096	-1.020354	-172.922096	-7.925378	96.860405
4.050000	-8.027796	94.608459	-1.005091	-175.084048	-1.005091	-175.084048	-8.027611	94.727640
4.100000	-8.135057	92.465918	-0.989464	-177.253228	-0.989464	-177.253228	-8.134858	92.589240
4.150000	-8.247428	90.317606	-0.973514	-179.429708	-0.973514	-179.429708	-8.247215	90.445249
4.200000	-8.365011	88.163579	-0.957284	178.386451	-0.957284	178.386451	-8.364783	88.295733
4.250000	-8.487915	86.003914	-0.940815	176.195202	-0.940815	176.195202	-8.487671	86.140780
4.300000	-8.616255	83.838709	-0.924150	173.996512	-0.924150	173.996512	-8.615993	83.980503
4.350000	-8.750155	81.668088	-0.907329	171.790360	-0.907329	171.790360	-8.749873	81.815036
4.400000	-8.889784	79.492138	-0.890393	169.576659	-0.890393	169.576659	-8.889480	79.644486
4.450000	-9.035279	77.311036	-0.873384	167.355413	-0.873384	167.355413	-9.034952	77.469043
4.500000	-9.186752	75.125032	-0.856343	165.126724	-0.856343	165.126724	-9.186398	75.288975
4.550000	-9.344363	72.934347	-0.839310	162.890622	-0.839310	162.890622	-9.343979	73.104519
4.600000	-9.508281	70.739227	-0.822324	160.647151	-0.822324	160.647151	-9.507865	70.915941
4.650000	-9.678689	68.539944	-0.805421	158.396365	-0.805421	158.396365	-9.678238	68.723537
4.700000	-9.855786	66.336801	-0.788640	156.138331	-0.788640	156.138331	-9.855294	66.527633
4.750000	-10.039781	64.130130	-0.772016	153.873126	-0.772016	153.873126	-10.039245	64.328587
4.800000	-10.230902	61.920295	-0.755583	151.600836	-0.755583	151.600836	-10.230317	62.126793
4.850000	-10.429397	59.707695	-0.739375	149.321559	-0.739375	149.321559	-10.428756	59.922681
4.900000	-10.635532	57.492767	-0.723425	147.035401	-0.723425	147.035401	-10.634829	57.716723
4.950000	-10.849597	55.275988	-0.707763	144.742476	-0.707763	144.742476	-10.848825	55.509436
5.000000	-11.071907	53.057880	-0.692418	142.442908	-0.692418	142.442908	-11.071057	53.301385
5.050000	-11.302862	50.839015	-0.677428	140.136688	-0.677428	140.136688	-11.301924	51.093203
5.100000	-11.542779	48.620052	-0.662811	137.824099	-0.662811	137.824099	-11.541742	48.885595
5.150000	-11.792071	46.401689	-0.648593	135.505283	-0.648593	135.505283	-11.790922	46.679316
5.200000	-12.051194	44.184695	-0.634797	133.180390	-0.634797	133.180390	-12.049918	44.475204
5.250000	-12.320648	41.969922	-0.621446	130.849573	-0.621446	130.849573	-12.319228	42.274189
5.300000	-12.600991	39.758320	-0.608559	128.512989	-0.608559	128.512989	-12.599406	40.077309
5.350000	-12.892841	37.550951	-0.596155	126.170799	-0.596155	126.170799	-12.891068	37.885725
5.400000	-13.196886	35.349010	-0.584252	123.823164	-0.584252	123.823164	-13.194897	35.700748
5.450000	-13.513896	33.153850	-0.572866	121.470250	-0.572866	121.470250	-13.511660	33.523860
5.500000	-13.844739	30.967011	-0.562009	119.112220	-0.562009	119.112220	-13.842217	31.356754
5.550000	-14.190388	28.790261	-0.551695	116.749240	-0.551695	116.749240	-14.187535	29.201373
5.600000	-14.551950	26.625639	-0.541934	114.381476	-0.541934	114.381476	-14.548711	27.059962
5.650000	-14.930693	24.475711	-0.532743	112.009041	-0.532743	112.009041	-14.927003	24.935354
5.700000	-15.328050	22.343379	-0.524130	109.632102	-0.524130	109.632102	-15.323829	22.830748
5.750000	-15.745652	20.231834	-0.516095	107.250869	-0.516095	107.250869	-15.740804	20.749657
5.800000	-16.185406	18.145088	-0.508644	104.865498	-0.508644	104.865498	-16.179811	18.696505
5.850000	-16.649524	16.087997	-0.501782	102.476139	-0.501782	102.476139	-16.643034	16.676653
5.900000	-17.140597	14.066508	-0.495512	100.082942	-0.495512	100.082942	-17.133026	14.696659
5.950000	-17.661678	12.087995	-0.489835	97.686048	-0.489835	97.686048	-17.652790	12.764653
6.000000	-18.216398	10.161720	-0.484754	95.285597	-0.484754	95.285597	-18.205887	10.890844
6.050000	-18.809109	8.299495	-0.480269	92.881721	-0.480269	92.881721	-18.796577	9.088235
6.100000	-19.445085	6.516629	-0.476380	90.474547	-0.476380	90.474547	-19.430002	7.373657
6.150000	-20.130784	4.833331	-0.473085	88.064196	-0.473085	88.064196	-20.112436	5.769290
6.200000	-20.874216	3.276830	-0.470385	85.650783	-0.470385	85.650783	-20.851612	4.304949
6.250000	-21.685447	1.884678	-0.468276	83.234418	-0.468276	83.234418	-21.657185	3.021623
6.300000	-22.577219	0.716585	-0.466771	80.815143	-0.466771	80.815143	-22.541230	1.984266
6.350000	-23.566125	-0.150747	-0.465853	78.393119	-0.465853	78.393119	-23.519299	1.275671
6.400000	-24.673851	-0.594620	-0.465522	75.968435	-0.465522	75.968435	-24.611300	1.027319
6.450000	-25.929021	-0.418722	-0.465774	73.541175	-0.465774	73.541175	-25.842699	1.447080
6.500000	-27.369019	0.707997	-0.466607	71.111417	-0.466607	71.111417	-27.244964	2.879211
6.550000	-29.039364	3.377498	-0.468021	68.679233	-0.468021	68.679233	-28.852010	5.921693
6.600000	-30.979089	8.706680	-0.470014	66.244690	-0.470014	66.244690	-30.679910	11.648295
6.650000	-33.143024	18.803841	-0.472584	63.807850	-0.472584	63.807850	-32.645822	21.911542
6.700000	-35.114045	36.726822	-0.475732	61.368770	-0.475732	61.368770	-34.334139	38.957015
6.750000	-35.744327	62.115103	-0.479457	58.927504	-0.479457	58.927504	-34.829467	61.815101
6.800000	-34.426021	85.416903	-0.483762	56.484100	-0.483762	56.484100	-33.711802	82.961886
6.850000	-32.263608	99.961589	-0.488646	54.038605	-0.488646	54.038605	-31.802882	96.995305
6.900000	-30.149149	107.758149	-0.494119	51.591041	-0.494119	51.591041	-29.851854	104.994292
6.950000	-28.302227	111.782968	-0.500185	49.141451	-0.500185	49.141451	-28.099864	109.346746
7.000000	-26.714762	113.714181	-0.506842	46.689898	-0.506842	46.689898	-26.569342	111.579433
7.050000	-25.339483	114.393418	-0.514095	44.236422	-0.514095	44.236422	-25.230112	112.509513
7.100000	-24.133029	114.278879	-0.521951	41.781061	-0.521951	41.781061	-24.047697	112.599411
7.150000	-23.061427	113.634513	-0.530416	39.323858	-0.530416	39.323858	-22.992860	112.122108
7.200000	-22.098917	112.620933	-0.539499	36.864854	-0.539499	36.864854	-22.042493	111.246438
7.250000	-21.225955	111.340698	-0.549209	34.404093	-0.549209	34.404093	-21.178610	110.081436
7.300000	-20.427545	109.862064	-0.559558	31.941622	-0.559558	31.941622	-20.387172	108.700257
7.350000	-19.692013	108.232083	-0.570556	29.477494	-0.570556	29.477494	-19.657118	107.153637
7.400000	-19.010140	106.484187	-0.582215	27.011762	-0.582215	27.011762	-18.979634	105.477792
7.450000	-18.374540	104.642754	-0.594550	24.544487	-0.594550	24.544487	-18.347611	103.699223
7.500000	-17.779220	102.725967	-0.607573	22.075736	-0.607573	22.075736	-17.755250	101.837752
7.550000	-17.219201	100.746573	-0.621316	19.605553	-0.621316	19.605553	-17.197710	99.907294
7.600000	-16.690471	98.716746	-0.635779	17.134050	-0.635779	17.134050	-16.671084	97.921181
7.650000	-16.189613	96.644791	-0.650979	14.661316	-0.650979	14.661316	-16.172028	95.888519
7.700000	-15.713741	94.537350	-0.666932	12.187447	-0.666932	12.187447	-15.697716	93.816592
7.750000	-15.260399	92.399797	-0.683658	9.712549	-0.683658	9.712549	-15.245735	91.711303
7.800000	-14.827484	90.236530	-0.701172	7.236736	-0.701172	7.236736	-14.814017	89.577482
7.850000	-14.413184	88.051186	-0.719493	4.760134	-0.719493	4.760134	-14.400777	87.419128
7.900000	-14.015929	85.846803	-0.738640	2.282876	-0.738640	2.282876	-14.004466	85.239580
7.950000	-13.634350	83.625941	-0.758632	-0.194890	-0.758632	-0.194890	-13.623734	83.041652
8.000000	-13.267253	81.390780	-0.779485	-2.673009	-0.779485	-2.673009	-13.257400	80.827737
8.050000	-12.913588	79.143186	-0.801218	-5.151313	-0.801218	-5.151313	-12.904426	78.599886
8.100000	-12.572429	76.884774	-0.823849	-7.629625	-0.823849	-7.629625	-12.563896	76.359872
8.150000	-12.242948	74.616866	-0.847404	-10.107750	-0.847404	-10.107750	-12.234990	74.109139
8.200000	-11.924426	72.340735	-0.871899	-12.585481	-0.871899	-12.585481	-11.916994	71.849083
8.250000	-11.616232	70.057572	-0.897342	-15.062607	-0.897342	-15.062607	-11.609284	69.581008
8.300000	-11.317794	67.768352	-0.923747	-17.538905	-0.923747	-17.538905	-11.311294	67.305977
8.350000	-11.028619	65.474079	-0.951101	-20.014179	-0.951101	-20.014179	-11.022533	65.025095
8.400000	-10.748210	63.175261	-0.979471	-22.488113	-0.979471	-22.488113	-10.742509	62.738890
8.450000	-10.476181	60.872798	-1.008839	-24.960487	-1.008839	-24.960487	-10.470839	60.448349
8.500000	-10.212167	58.567366	-1.039215	-27.431037	-1.039215	-27.431037	-10.207159	58.154202
8.550000	-9.955838	56.259593	-1.070606	-29.899494	-1.070606	-29.899494	-9.951142	55.857125
8.600000	-9.706896	53.950068	-1.103018	-32.365577	-1.103018	-32.365577	-9.702493	53.557749
8.650000	-9.465074	51.639348	-1.136455	-34.829000	-1.136455	-34.829000	-9.460947	51.256672
8.700000	-9.230130	49.327966	-1.170920	-37.289471	-1.170920	-37.289471	-9.226261	48.954458
8.750000	-9.001844	47.016428	-1.206411	-39.746690	-1.206411	-39.746690	-8.998219	46.651646
8.800000	-8.780029	44.705238	-1.242940	-42.200299	-1.242940	-42.200299	-8.776634	44.348763
8.850000	-8.564495	42.394872	-1.280489	-44.650037	-1.280489	-44.650037	-8.561318	42.046315
8.900000	-8.355076	40.085790	-1.319051	-47.095593	-1.319051	-47.095593	-8.352105	39.744788
8.950000	-8.151620	37.778444	-1.358618	-49.536657	-1.358618	-49.536657	-8.148844	37.444652
9.000000	-7.953984	35.473273	-1.399178	-51.972916	-1.399178	-51.972916	-7.951393	35.146369
9.050000	-7.762037	33.170710	-1.440716	-54.404057	-1.440716	-54.404057	-7.759623	32.850388
9.100000	-7.575657	30.871180	-1.483218	-56.829769	-1.483218	-56.829769	-7.573411	30.557151
9.150000	-7.394727	28.575098	-1.526664	-59.249744	-1.526664	-59.249744	-7.392642	28.267090
9.200000	-7.219155	26.282917	-1.571039	-61.663614	-1.571039	-61.663614	-7.217223	25.980667
9.250000	-7.048830	23.995025	-1.616317	-64.071101	-1.616317	-64.071101	-7.047045	23.698289
9.300000	-6.883641	21.711797	-1.662468	-66.471939	-1.662468	-66.471939	-6.881996	21.420343
9.350000	-6.723489	19.433615	-1.709464	-68.865838	-1.709464	-68.865838	-6.721979	19.147226
9.400000	-6.568276	17.160853	-1.757275	-71.252516	-1.757275	-71.252516	-6.566896	16.879320
9.450000	-6.417905	14.893871	-1.805870	-73.631698	-1.805870	-73.631698	-6.416650	14.616998
9.500000	-6.272279	12.633018	-1.855213	-76.003119	-1.855213	-76.003119	-6.271145	12.360620
9.550000	-6.131300	10.378627	-1.905269	-78.366522	-1.905269	-78.366522	-6.130282	10.110531
9.600000	-5.995017	8.131461	-1.956020	-80.721128	-1.956020	-80.721128	-5.994113	7.867493
9.650000	-5.862952	5.890698	-2.007373	-83.068050	-2.007373	-83.068050	-5.862158	5.630721
9.700000	-5.735426	3.657908	-2.059342	-85.405528	-2.059342	-85.405528	-5.734738	3.401767
9.750000	-5.612005	1.432341	-2.111848	-87.734541	-2.111848	-87.734541	-5.611420	1.179912
9.800000	-5.492764	-0.785168	-2.164863	-90.054193	-2.164863	-90.054193	-5.492280	-1.034009
9.850000	-5.377538	-2.994557	-2.218340	-92.364474	-2.218340	-92.364474	-5.377153	-3.239922
9.900000	-5.266078	-5.196078	-2.272227	-94.665717	-2.272227	-94.665717	-5.265790	-5.438060
9.950000	-5.158466	-7.388843	-2.326484	-96.956931	-2.326484	-96.956931	-5.158272	-7.627536
10.000000	-5.054472	-9.573035	-2.381059	-99.238338	-2.381059	-99.238338	-5.054371	-9.808515
