! freq	dB(S11)	phase(S11)	dB(S12)	phase(S12)	
!     	dB(S21)	phase(S21)	dB(S22)	phase(S22)	
!S-par simulation data
#  GHz  S  DB  R 50
0.000000	-0.000000	-0.000000	-391.312438	180.000000	-391.312438	180.000000	-0.000000	-0.000000
0.050000	-0.000119	-0.954247	-112.194195	87.435420	-112.194195	87.435420	-0.000120	-0.954283
0.100000	-0.000473	-1.908198	-106.386517	85.457624	-106.386517	85.457624	-0.000475	-1.908267
0.150000	-0.001047	-2.861579	-103.122783	84.134868	-103.122783	84.134868	-0.001051	-2.861678
0.200000	-0.001818	-3.814162	-100.886698	83.248986	-100.886698	83.248986	-0.001825	-3.814285
0.250000	-0.002772	-4.765687	-99.218069	82.618178	-99.218069	82.618178	-0.002782	-4.765828
0.300000	-0.003864	-5.716101	-97.907912	82.114676	-97.907912	82.114676	-0.003877	-5.716255
0.350000	-0.005073	-6.665265	-96.860892	81.708393	-96.860892	81.708393	-0.005089	-6.665426
0.400000	-0.006373	-7.613118	-96.019973	81.394266	-96.019973	81.394266	-0.006391	-7.613282
0.450000	-0.007738	-8.559633	-95.350284	81.188643	-95.350284	81.188643	-0.007758	-8.559798
0.500000	-0.009147	-9.504810	-94.829631	81.122154	-94.829631	81.122154	-0.009168	-9.504974
0.550000	-0.010582	-10.448666	-94.443803	81.238070	-94.443803	81.238070	-0.010603	-10.448828
0.600000	-0.012028	-11.391229	-94.183990	81.594143	-94.183990	81.594143	-0.012050	-11.391391
0.650000	-0.013475	-12.332533	-94.045177	82.267263	-94.045177	82.267263	-0.013497	-12.332694
0.700000	-0.014915	-13.272610	-94.024872	83.361168	-94.024872	83.361168	-0.014935	-13.272773
0.750000	-0.016341	-14.211492	-94.121670	85.017995	-94.121670	85.017995	-0.016360	-14.211659
0.800000	-0.017750	-15.149205	-94.332914	87.434506	-94.332914	87.434506	-0.017767	-15.149377
0.850000	-0.019139	-16.085767	-94.650270	90.882187	-94.650270	90.882187	-0.019155	-16.085947
0.900000	-0.020508	-17.021194	-95.051053	95.723533	-95.051053	95.723533	-0.020523	-17.021384
0.950000	-0.021857	-17.955494	-95.482569	102.396735	-95.482569	102.396735	-0.021870	-17.955695
1.000000	-0.023186	-18.888667	-95.839914	111.301433	-95.839914	111.301433	-0.023197	-18.888882
1.050000	-0.024496	-19.820711	-95.953812	122.497406	-95.953812	122.497406	-0.024506	-19.820941
1.100000	-0.025789	-20.751618	-95.633426	135.274655	-95.633426	135.274655	-0.025798	-20.751864
1.150000	-0.027065	-21.681375	-94.785904	148.074149	-94.785904	148.074149	-0.027073	-21.681639
1.200000	-0.028327	-22.609967	-93.499131	159.270766	-93.499131	159.270766	-0.028333	-22.610249
1.250000	-0.029576	-23.537376	-91.964783	168.089030	-91.964783	168.089030	-0.029581	-23.537677
1.300000	-0.030812	-24.463528	-90.339508	174.529955	-90.339508	174.529955	-0.030816	-24.463849
1.350000	-0.032038	-25.388452	-88.740689	179.151644	-88.740689	179.151644	-0.032042	-25.388792
1.400000	-0.033254	-26.312124	-87.211950	-177.601078	-87.211950	-177.601078	-0.033258	-26.312484
1.450000	-0.034463	-27.234518	-85.768108	-175.374894	-85.768108	-175.374894	-0.034466	-27.234899
1.500000	-0.035665	-28.155610	-84.410306	-173.909038	-84.410306	-173.909038	-0.035667	-28.156011
1.550000	-0.036861	-29.075373	-83.133887	-173.015621	-83.133887	-173.015621	-0.036863	-29.075794
1.600000	-0.038051	-29.993781	-81.932156	-172.559538	-81.932156	-172.559538	-0.038053	-29.994222
1.650000	-0.039238	-30.910808	-80.798082	-172.442813	-80.798082	-172.442813	-0.039239	-30.911269
1.700000	-0.040421	-31.826426	-79.725011	-172.593471	-79.725011	-172.593471	-0.040422	-31.826907
1.750000	-0.041601	-32.740610	-78.706928	-172.957849	-78.706928	-172.957849	-0.041602	-32.741111
1.800000	-0.042779	-33.653334	-77.738503	-173.495331	-77.738503	-173.495331	-0.042780	-33.653854
1.850000	-0.043955	-34.564572	-76.815061	-174.174725	-76.815061	-174.174725	-0.043957	-34.565112
1.900000	-0.045131	-35.474300	-75.932516	-174.971742	-75.932516	-174.971742	-0.045132	-35.474858
1.950000	-0.046305	-36.382491	-75.087290	-175.867222	-75.087290	-175.867222	-0.046307	-36.383069
2.000000	-0.047480	-37.289123	-74.276253	-176.845871	-74.276253	-176.845871	-0.047482	-37.289719
2.050000	-0.048656	-38.194171	-73.496651	-177.895341	-73.496651	-177.895341	-0.048657	-38.194786
2.100000	-0.049832	-39.097612	-72.746053	-179.005563	-72.746053	-179.005563	-0.049834	-39.098245
2.150000	-0.051009	-39.999423	-72.022309	179.831754	-72.022309	179.831754	-0.051011	-40.000075
2.200000	-0.052189	-40.899584	-71.323506	178.623493	-71.323506	178.623493	-0.052191	-40.900254
2.250000	-0.053370	-41.798072	-70.647936	177.375421	-70.647936	177.375421	-0.053372	-41.798760
2.300000	-0.054554	-42.694867	-69.994067	176.092400	-69.994067	176.092400	-0.054557	-42.695573
2.350000	-0.055741	-43.589948	-69.360524	174.778560	-69.360524	174.778560	-0.055744	-43.590672
2.400000	-0.056932	-44.483297	-68.746061	173.437435	-68.746061	173.437435	-0.056935	-44.484039
2.450000	-0.058126	-45.374895	-68.149554	172.072062	-68.149554	172.072062	-0.058129	-45.375655
2.500000	-0.059325	-46.264723	-67.569977	170.685070	-67.569977	170.685070	-0.059328	-46.265501
2.550000	-0.060529	-47.152687	-67.005508	169.277996	-67.005508	169.277996	-0.060532	-47.153482
2.600000	-0.061738	-48.038846	-66.456276	167.853742	-66.456276	167.853742	-0.061740	-48.039659
2.650000	-0.062952	-48.923184	-65.921487	166.414033	-65.921487	166.414033	-0.062955	-48.924014
2.700000	-0.064172	-49.805686	-65.400412	164.960393	-65.400412	164.960393	-0.064175	-49.806534
2.750000	-0.065399	-50.686338	-64.892381	163.494171	-64.892381	163.494171	-0.065402	-50.687204
2.800000	-0.066633	-51.565125	-64.396771	162.016571	-64.396771	162.016571	-0.066636	-51.566009
2.850000	-0.067874	-52.442036	-63.913010	160.528664	-63.913010	160.528664	-0.067877	-52.442937
2.900000	-0.069123	-53.317056	-63.440564	159.031413	-63.440564	159.031413	-0.069126	-53.317974
2.950000	-0.070379	-54.190174	-62.978939	157.525683	-62.978939	157.525683	-0.070383	-54.191110
3.000000	-0.071645	-55.061380	-62.527671	156.012252	-62.527671	156.012252	-0.071648	-55.062333
3.050000	-0.072920	-55.930662	-62.086331	154.491825	-62.086331	154.491825	-0.072923	-55.931633
3.100000	-0.074204	-56.798012	-61.654516	152.965041	-61.654516	152.965041	-0.074207	-56.799000
3.150000	-0.075498	-57.663419	-61.231848	151.432479	-61.231848	151.432479	-0.075502	-57.664424
3.200000	-0.076803	-58.526875	-60.817975	149.894668	-60.817975	149.894668	-0.076806	-58.527898
3.250000	-0.078119	-59.388374	-60.412562	148.352091	-60.412562	148.352091	-0.078122	-59.389414
3.300000	-0.079446	-60.247907	-60.015297	146.805188	-60.015297	146.805188	-0.079449	-60.248964
3.350000	-0.080785	-61.105468	-59.625886	145.254365	-59.625886	145.254365	-0.080789	-61.106542
3.400000	-0.082137	-61.961051	-59.244050	143.699994	-59.244050	143.699994	-0.082140	-61.962143
3.450000	-0.083501	-62.814653	-58.869526	142.142415	-58.869526	142.142415	-0.083504	-62.815761
3.500000	-0.084879	-63.666267	-58.502065	140.581945	-58.502065	140.581945	-0.084882	-63.667392
3.550000	-0.086270	-64.515890	-58.141432	139.018874	-58.141432	139.018874	-0.086273	-64.517032
3.600000	-0.087676	-65.363520	-57.787404	137.453473	-57.787404	137.453473	-0.087679	-65.364679
3.650000	-0.089096	-66.209154	-57.439767	135.885989	-57.439767	135.885989	-0.089100	-66.210329
3.700000	-0.090532	-67.052790	-57.098322	134.316654	-57.098322	134.316654	-0.090535	-67.053981
3.750000	-0.091983	-67.894427	-56.762876	132.745683	-56.762876	132.745683	-0.091987	-67.895634
3.800000	-0.093452	-68.733978	-56.432958	131.173222	-56.432958	131.173222	-0.093455	-68.735201
3.850000	-0.094937	-69.571529	-56.108704	129.599527	-56.108704	129.599527	-0.094940	-69.572768
3.900000	-0.096439	-70.407083	-55.789948	128.024768	-55.789948	128.024768	-0.096442	-70.408337
3.950000	-0.097959	-71.240639	-55.476529	126.449107	-55.476529	126.449107	-0.097962	-71.241909
4.000000	-0.099496	-72.072201	-55.168295	124.872692	-55.168295	124.872692	-0.099500	-72.073486
4.050000	-0.101053	-72.901771	-54.865101	123.295665	-54.865101	123.295665	-0.101057	-72.903071
4.100000	-0.102629	-73.729353	-54.566807	121.718155	-54.566807	121.718155	-0.102632	-73.730667
4.150000	-0.104224	-74.554950	-54.273278	120.140287	-54.273278	120.140287	-0.104228	-74.556279
4.200000	-0.105839	-75.378567	-53.984389	118.562175	-53.984389	118.562175	-0.105843	-75.379910
4.250000	-0.107475	-76.200209	-53.700015	116.983928	-53.700015	116.983928	-0.107479	-76.201567
4.300000	-0.109131	-77.019882	-53.420039	115.405647	-53.420039	115.405647	-0.109135	-77.021254
4.350000	-0.110810	-77.837593	-53.144349	113.827428	-53.144349	113.827428	-0.110813	-77.838978
4.400000	-0.112510	-78.653348	-52.872835	112.249360	-52.872835	112.249360	-0.112514	-78.654746
4.450000	-0.114232	-79.467155	-52.605394	110.671530	-52.605394	110.671530	-0.114236	-79.468566
4.500000	-0.115977	-80.279022	-52.341925	109.094015	-52.341925	109.094015	-0.115981	-80.280445
4.550000	-0.117746	-81.088957	-52.082331	107.516892	-52.082331	107.516892	-0.117750	-81.090392
4.600000	-0.119542	-81.896638	-51.825875	105.940332	-51.825875	105.940332	-0.119546	-81.898085
4.650000	-0.121364	-82.702324	-51.572991	104.364327	-51.572991	104.364327	-0.121368	-82.703783
4.700000	-0.123199	-83.507022	-51.325442	102.788654	-51.325442	102.788654	-0.123203	-83.508491
4.750000	-0.125073	-84.308755	-51.079443	101.213981	-51.079443	101.213981	-0.125077	-84.310235
4.800000	-0.126956	-85.109838	-50.839086	99.639571	-50.839086	99.639571	-0.126960	-85.111328
4.850000	-0.128884	-85.907668	-50.599686	98.066474	-50.599686	98.066474	-0.128888	-85.909168
4.900000	-0.130817	-86.705178	-50.366177	96.493526	-50.366177	96.493526	-0.130821	-86.706687
4.950000	-0.132801	-87.499160	-50.133109	94.922221	-50.133109	94.922221	-0.132806	-87.500678
5.000000	-0.134786	-88.293142	-49.906132	93.350916	-49.906132	93.350916	-0.134790	-88.294669
5.050000	-0.136828	-89.083335	-49.679144	91.781597	-49.679144	91.781597	-0.136833	-89.084870
5.100000	-0.138871	-89.873529	-49.457938	90.212278	-49.457938	90.212278	-0.138875	-89.875071
5.150000	-0.140968	-90.660307	-49.237260	88.644938	-49.237260	88.644938	-0.140973	-90.661856
5.200000	-0.143071	-91.446775	-49.021609	87.077777	-49.021609	87.077777	-0.143075	-91.448331
5.250000	-0.145224	-92.230195	-48.806957	85.512547	-48.806957	85.512547	-0.145229	-92.231757
5.300000	-0.147389	-93.013006	-48.596657	83.947702	-48.596657	83.947702	-0.147394	-93.014573
5.350000	-0.149601	-93.793127	-48.387769	82.384699	-48.387769	82.384699	-0.149606	-93.794699
5.400000	-0.151829	-94.572352	-48.182628	80.822309	-48.182628	80.822309	-0.151834	-94.573929
5.450000	-0.154101	-95.349237	-47.979259	79.261642	-47.979259	79.261642	-0.154106	-95.350818
5.500000	-0.156395	-96.124953	-47.779095	77.701835	-47.779095	77.701835	-0.156400	-96.126537
5.550000	-0.158728	-96.898667	-47.581013	76.143601	-47.581013	76.143601	-0.158733	-96.900254
5.600000	-0.161090	-97.670953	-47.385654	74.586491	-47.385654	74.586491	-0.161095	-97.672543
5.650000	-0.163486	-98.441566	-47.192645	73.030782	-47.192645	73.030782	-0.163491	-98.443157
5.700000	-0.165917	-99.210506	-47.001927	71.476473	-47.001927	71.476473	-0.165922	-99.212098
5.750000	-0.168377	-99.978088	-46.813788	69.923370	-46.813788	69.923370	-0.168382	-99.979680
5.800000	-0.170879	-100.743769	-46.627557	68.371955	-46.627557	68.371955	-0.170884	-100.745361
5.850000	-0.173405	-101.508394	-46.444098	66.821534	-46.444098	66.821534	-0.173410	-101.509985
5.900000	-0.175980	-102.270907	-46.262207	65.273100	-46.262207	65.273100	-0.175985	-102.272497
5.950000	-0.178574	-103.032651	-46.083248	63.725430	-46.083248	63.725430	-0.178579	-103.034239
6.000000	-0.181223	-103.792091	-45.905557	62.180053	-45.905557	62.180053	-0.181228	-103.793676
6.050000	-0.183886	-104.551034	-45.730930	60.635197	-45.730930	60.635197	-0.183891	-104.552616
6.100000	-0.186611	-105.307497	-45.557306	59.092946	-45.557306	59.092946	-0.186616	-105.309074
6.150000	-0.189344	-106.063720	-45.386851	57.550962	-45.386851	57.550962	-0.189349	-106.065293
6.200000	-0.192148	-106.817308	-45.217167	56.011901	-45.217167	56.011901	-0.192153	-106.818875
6.250000	-0.194953	-107.570895	-45.050734	54.472840	-45.050734	54.472840	-0.194958	-107.572456
6.300000	-0.197837	-108.321711	-44.884870	52.937025	-44.884870	52.937025	-0.197841	-108.323265
6.350000	-0.200721	-109.072526	-44.722113	51.401211	-44.722113	51.401211	-0.200726	-109.074073
6.400000	-0.203679	-109.820899	-44.560156	49.868417	-44.560156	49.868417	-0.203684	-109.822437
6.450000	-0.206645	-110.569050	-44.400967	48.335898	-44.400967	48.335898	-0.206650	-110.570579
6.500000	-0.209680	-111.315072	-44.242780	46.806163	-44.242780	46.806163	-0.209685	-111.316591
6.550000	-0.212729	-112.060668	-44.087057	45.276984	-44.087057	45.276984	-0.212734	-112.062177
6.600000	-0.215841	-112.804432	-43.932511	43.750339	-43.932511	43.750339	-0.215846	-112.805929
6.650000	-0.218975	-113.547585	-43.780153	42.224538	-43.780153	42.224538	-0.218980	-113.549071
6.700000	-0.222166	-114.289188	-43.629124	40.701011	-43.629124	40.701011	-0.222171	-114.290660
6.750000	-0.225386	-115.030014	-43.480038	39.178620	-43.480038	39.178620	-0.225391	-115.031473
6.800000	-0.228657	-115.769553	-43.332409	37.658235	-43.332409	37.658235	-0.228662	-115.770997
6.850000	-0.231965	-116.508171	-43.186505	36.139281	-43.186505	36.139281	-0.231970	-116.509600
6.900000	-0.235318	-117.245746	-43.042165	34.622056	-43.042165	34.622056	-0.235322	-117.247159
6.950000	-0.238715	-117.982276	-42.899354	33.106560	-42.899354	33.106560	-0.238720	-117.983672
7.000000	-0.242150	-118.717988	-42.758199	31.592510	-42.758199	31.592510	-0.242155	-118.719367
7.050000	-0.245639	-119.452555	-42.618398	30.080486	-42.618398	30.080486	-0.245643	-119.453915
7.100000	-0.249158	-120.186509	-42.480326	28.569622	-42.480326	28.569622	-0.249162	-120.187850
7.150000	-0.252738	-120.919237	-42.343456	27.061078	-42.343456	27.061078	-0.252742	-120.920558
7.200000	-0.256343	-121.651539	-42.208372	25.553405	-42.208372	25.553405	-0.256347	-121.652839
7.250000	-0.260016	-122.382558	-42.074356	24.048344	-42.074356	24.048344	-0.260021	-122.383836
7.300000	-0.263707	-123.113314	-41.942169	22.543863	-41.942169	22.543863	-0.263711	-123.114570
7.350000	-0.267476	-123.842756	-41.810934	21.042281	-41.810934	21.042281	-0.267480	-123.843988
7.400000	-0.271254	-124.572077	-41.681556	19.540988	-41.681556	19.540988	-0.271258	-124.573285
7.450000	-0.275119	-125.300073	-41.553032	18.042875	-41.553032	18.042875	-0.275123	-125.301256
7.500000	-0.278986	-126.028070	-41.426382	16.544761	-41.426382	16.544761	-0.278990	-126.029227
7.550000	-0.282949	-126.754759	-41.300501	15.050099	-41.300501	15.050099	-0.282953	-126.755889
7.600000	-0.286913	-127.481447	-41.176418	13.555437	-41.176418	13.555437	-0.286917	-127.482550
7.650000	-0.290966	-128.207064	-41.053197	12.063917	-41.053197	12.063917	-0.290970	-128.208138
7.700000	-0.295030	-128.932583	-40.931620	10.572683	-40.931620	10.572683	-0.295033	-128.933628
7.750000	-0.299175	-129.657244	-40.810984	9.084280	-40.810984	9.084280	-0.299178	-129.658259
7.800000	-0.303338	-130.381734	-40.691855	7.596443	-40.691855	7.596443	-0.303341	-130.382718
7.850000	-0.307575	-131.105560	-40.573733	6.111126	-40.573733	6.111126	-0.307579	-131.106512
7.900000	-0.311840	-131.829165	-40.456996	4.626649	-40.456996	4.626649	-0.311843	-131.830085
7.950000	-0.316171	-132.552277	-40.341319	3.144383	-40.341319	3.144383	-0.316174	-132.553163
8.000000	-0.320537	-133.275142	-40.226922	1.663222	-40.226922	1.663222	-0.320541	-133.275994
8.050000	-0.324963	-133.997662	-40.113626	0.183966	-40.113626	0.183966	-0.324966	-133.998479
8.100000	-0.329432	-134.719936	-40.001518	-1.293930	-40.001518	-1.293930	-0.329435	-134.720717
8.150000	-0.333952	-135.441990	-39.890543	-2.770223	-39.890543	-2.770223	-0.333956	-135.442734
8.200000	-0.338525	-136.163823	-39.780676	-4.244912	-39.780676	-4.244912	-0.338529	-136.164530
8.250000	-0.343142	-136.885536	-39.671963	-5.718291	-39.671963	-5.718291	-0.343146	-136.886205
8.300000	-0.347820	-137.607082	-39.564292	-7.189837	-39.564292	-7.189837	-0.347823	-137.607712
8.350000	-0.352533	-138.328583	-39.457788	-8.660359	-39.457788	-8.660359	-0.352537	-138.329174
8.400000	-0.357316	-139.049997	-39.352272	-10.128833	-39.352272	-10.128833	-0.357319	-139.050547
8.450000	-0.362126	-139.771417	-39.247924	-11.596559	-39.247924	-11.596559	-0.362130	-139.771926
8.500000	-0.367015	-140.492857	-39.144524	-13.062037	-39.144524	-13.062037	-0.367019	-140.493324
8.550000	-0.371923	-141.214328	-39.042285	-14.527030	-39.042285	-14.527030	-0.371927	-141.214753
8.600000	-0.376918	-141.935954	-38.940964	-15.989596	-38.940964	-15.989596	-0.376922	-141.936336
8.650000	-0.381925	-142.657610	-38.840788	-17.451927	-38.840788	-17.451927	-0.381929	-142.657948
8.700000	-0.387027	-143.379586	-38.741513	-18.911668	-38.741513	-18.911668	-0.387031	-143.379879
8.750000	-0.392132	-144.101562	-38.643359	-20.371410	-38.643359	-20.371410	-0.392136	-144.101811
8.800000	-0.397341	-144.824053	-38.546099	-21.828419	-38.546099	-21.828419	-0.397346	-144.824256
8.850000	-0.402554	-145.546545	-38.449916	-23.285428	-38.449916	-23.285428	-0.402558	-145.546702
8.900000	-0.407862	-146.269663	-38.354657	-24.740022	-38.354657	-24.740022	-0.407867	-146.269773
8.950000	-0.413182	-146.992838	-38.260419	-26.194396	-38.260419	-26.194396	-0.413187	-146.992901
9.000000	-0.418589	-147.716725	-38.167125	-27.646658	-38.167125	-27.646658	-0.418594	-147.716741
9.050000	-0.424017	-148.440755	-38.074809	-29.098498	-38.074809	-29.098498	-0.424022	-148.440723
9.100000	-0.429523	-149.165556	-37.983449	-30.548514	-37.983449	-30.548514	-0.429529	-149.165475
9.150000	-0.435058	-149.890613	-37.893036	-31.997922	-37.893036	-31.997922	-0.435064	-149.890484
9.200000	-0.440664	-150.616474	-37.803583	-33.445780	-37.803583	-33.445780	-0.440670	-150.616296
9.250000	-0.446306	-151.342737	-37.715056	-34.892861	-37.715056	-34.892861	-0.446313	-151.342509
9.300000	-0.452010	-152.069806	-37.627484	-36.338648	-37.627484	-36.338648	-0.452017	-152.069529
9.350000	-0.457759	-152.797452	-37.540830	-37.783509	-37.540830	-37.783509	-0.457767	-152.797125
9.400000	-0.463562	-153.525881	-37.455117	-39.227313	-37.455117	-39.227313	-0.463570	-153.525504
9.450000	-0.469418	-154.255093	-37.370326	-40.670059	-37.370326	-40.670059	-0.469426	-154.254665
9.500000	-0.475318	-154.985034	-37.286452	-42.111967	-37.286452	-42.111967	-0.475327	-154.984556
9.550000	-0.481280	-155.715996	-37.203518	-43.552702	-37.203518	-43.552702	-0.481289	-155.715468
9.600000	-0.487278	-156.447604	-37.121468	-44.992801	-37.121468	-44.992801	-0.487287	-156.447025
9.650000	-0.493344	-157.180504	-37.040387	-46.431626	-37.040387	-46.431626	-0.493354	-157.179875
9.700000	-0.499439	-157.913937	-36.960148	-47.869998	-36.960148	-47.869998	-0.499450	-157.913258
9.750000	-0.505609	-158.648966	-36.880920	-49.307011	-36.880920	-49.307011	-0.505621	-158.648237
9.800000	-0.511799	-159.384382	-36.802481	-50.743738	-36.802481	-50.743738	-0.511812	-159.383603
9.850000	-0.518072	-160.121734	-36.725110	-52.179030	-36.725110	-52.179030	-0.518085	-160.120906
9.900000	-0.524357	-160.859296	-36.648465	-53.614186	-36.648465	-53.614186	-0.524371	-160.858418
9.950000	-0.530731	-161.599167	-36.572957	-55.047842	-36.572957	-55.047842	-0.530746	-161.598241
10.000000	-0.537110	-162.339038	-36.498100	-56.481498	-36.498100	-56.481498	-0.537125	-162.338064
