! freq	dB(S11)	phase(S11)	dB(S12)	phase(S12)	
!     	dB(S21)	phase(S21)	dB(S22)	phase(S22)	
!S-par simulation data
#  GHz  S  DB  R 50
0.000000	-82.829278	0.000000	-0.000627	0.000000	-0.000627	0.000000	-82.829278	0.000000
0.050000	-44.080126	-90.393468	-0.005895	-2.759913	-0.005895	-2.759913	-44.060891	-89.774547
0.100000	-38.236836	-94.540918	-0.011816	-5.477230	-0.011816	-5.477230	-38.219913	-93.054330
0.150000	-34.783818	-98.234983	-0.016626	-8.185374	-0.016626	-8.185374	-34.769402	-95.984330
0.200000	-32.334018	-101.704976	-0.021329	-10.889917	-0.021329	-10.889917	-32.319315	-98.704787
0.250000	-30.445338	-105.051356	-0.026154	-13.590833	-0.026154	-13.590833	-30.428989	-101.301386
0.300000	-28.917207	-108.330487	-0.031114	-16.288536	-0.031114	-16.288536	-28.898807	-103.826474
0.350000	-27.640551	-111.567984	-0.036195	-18.983636	-0.036195	-18.983636	-27.620221	-106.304188
0.400000	-26.549446	-114.778288	-0.041393	-21.676684	-0.041393	-21.676684	-26.527593	-108.747856
0.450000	-25.606755	-117.966060	-0.046736	-24.367684	-0.046736	-24.367684	-25.584025	-111.158686
0.500000	-24.778802	-121.140915	-0.052205	-27.057214	-0.052205	-27.057214	-24.755875	-113.545952
0.550000	-24.047578	-124.306040	-0.057806	-29.745283	-0.057806	-29.745283	-24.025214	-115.909326
0.600000	-23.398642	-127.465045	-0.063526	-32.431963	-0.063526	-32.431963	-23.377580	-118.249076
0.650000	-22.817665	-130.621468	-0.069331	-35.117472	-0.069331	-35.117472	-22.798441	-120.567883
0.700000	-22.299093	-133.777791	-0.075194	-37.801702	-0.075194	-37.801702	-22.282152	-122.862646
0.750000	-21.834791	-136.936657	-0.081071	-40.484738	-0.081071	-40.484738	-21.820272	-125.134030
0.800000	-21.418987	-140.100385	-0.086915	-43.166602	-0.086915	-43.166602	-21.406709	-127.382210
0.850000	-21.048174	-143.271552	-0.092677	-45.847250	-0.092677	-45.847250	-21.037619	-129.606939
0.900000	-20.717398	-146.452039	-0.098316	-48.526738	-0.098316	-48.526738	-20.707820	-131.810607
0.950000	-20.424161	-149.644242	-0.103793	-51.205051	-0.103793	-51.205051	-20.414719	-133.994404
1.000000	-20.166010	-152.850507	-0.109077	-53.882226	-0.109077	-53.882226	-20.155955	-136.159744
1.050000	-19.940924	-156.073299	-0.114141	-56.558338	-0.114141	-56.558338	-19.929767	-138.307193
1.100000	-19.747248	-159.315260	-0.118964	-59.233513	-0.118964	-59.233513	-19.734844	-140.436052
1.150000	-19.583635	-162.579255	-0.123532	-61.907929	-0.123532	-61.907929	-19.570185	-142.544305
1.200000	-19.449005	-165.868440	-0.127830	-64.581812	-0.127830	-64.581812	-19.434994	-144.628850
1.250000	-19.342512	-169.186332	-0.131849	-67.255433	-0.131849	-67.255433	-19.328616	-146.685835
1.300000	-19.264094	-172.537711	-0.135574	-69.929105	-0.135574	-69.929105	-19.251119	-148.710118
1.350000	-19.212735	-175.926528	-0.139005	-72.603168	-0.139005	-72.603168	-19.201512	-150.697573
1.400000	-19.188172	-179.358067	-0.142137	-75.277974	-0.142137	-75.277974	-19.179534	-152.643114
1.450000	-19.190336	177.161518	-0.144970	-77.953885	-0.144970	-77.953885	-19.185075	-154.541184
1.500000	-19.219355	173.625046	-0.147505	-80.631271	-0.147505	-80.631271	-19.218180	-156.385590
1.550000	-19.275592	170.024236	-0.149749	-83.310504	-0.149749	-83.310504	-19.279059	-158.169293
1.600000	-19.359673	166.349816	-0.151711	-85.991950	-0.151711	-85.991950	-19.368082	-159.884156
1.650000	-19.472475	162.591844	-0.153405	-88.675973	-0.153405	-88.675973	-19.485781	-161.520645
1.700000	-19.615033	158.739944	-0.154848	-91.362926	-0.154848	-91.362926	-19.632846	-163.067470
1.750000	-19.788372	154.782806	-0.156063	-94.053149	-0.156063	-94.053149	-19.810123	-164.511143
1.800000	-19.993388	150.706633	-0.157077	-96.746968	-0.157077	-96.746968	-20.018591	-165.835433
1.850000	-20.230885	146.493261	-0.157922	-99.444691	-0.157922	-99.444691	-20.259349	-167.020683
1.900000	-20.501972	142.116838	-0.158631	-102.146654	-0.158631	-102.146654	-20.533835	-168.040844
1.950000	-20.807537	137.546180	-0.159247	-104.853128	-0.159247	-104.853128	-20.843164	-168.865351
2.000000	-21.148209	132.745794	-0.159814	-107.564306	-0.159814	-107.564306	-21.188054	-169.459345
2.050000	-21.524652	127.670336	-0.160379	-110.280394	-0.160379	-110.280394	-21.569148	-169.777625
2.100000	-21.936921	122.264547	-0.160992	-113.001571	-0.160992	-113.001571	-21.986393	-169.764434
2.150000	-22.383920	116.461157	-0.161707	-115.727982	-0.161707	-115.727982	-22.438487	-169.351327
2.200000	-22.862577	110.178952	-0.162579	-118.459736	-0.162579	-118.459736	-22.922024	-168.455314
2.250000	-23.366621	103.321948	-0.163664	-121.196908	-0.163664	-121.196908	-23.430204	-166.978270
2.300000	-23.884827	95.781518	-0.165023	-123.939536	-0.165023	-123.939536	-23.950982	-164.809606
2.350000	-24.398740	87.444735	-0.166713	-126.687617	-0.166713	-126.687617	-24.464713	-161.835752
2.400000	-24.880263	78.213814	-0.168794	-129.441111	-0.168794	-129.441111	-24.941734	-157.961570
2.450000	-25.290346	68.041376	-0.171327	-132.199937	-0.171327	-132.199937	-25.341288	-153.148270
2.500000	-25.581123	56.980391	-0.174368	-134.963975	-0.174368	-134.963975	-25.614316	-147.465268
2.550000	-25.699702	45.224861	-0.177990	-137.733169	-0.177990	-137.733169	-25.708155	-141.130449
2.600000	-25.615296	33.158095	-0.182237	-140.507204	-0.182237	-140.507204	-25.594752	-134.546579
2.650000	-25.321873	21.222892	-0.187159	-143.285842	-0.187159	-143.285842	-25.272192	-128.162994
2.700000	-24.843519	9.822582	-0.192808	-146.068804	-0.192808	-146.068804	-24.768404	-122.373052
2.750000	-24.224356	-0.772345	-0.199227	-148.855783	-0.199227	-148.855783	-24.129631	-117.427385
2.800000	-23.513630	-10.447704	-0.206459	-151.646433	-0.206459	-151.646433	-23.405346	-113.420049
2.850000	-22.754567	-19.212288	-0.214541	-154.440384	-0.214541	-154.440384	-22.637840	-110.327556
2.900000	-21.979794	-27.146358	-0.223502	-157.237235	-0.223502	-157.237235	-21.858438	-108.061229
2.950000	-21.211482	-34.358955	-0.233369	-160.036563	-0.233369	-160.036563	-21.088104	-106.508253
3.000000	-20.463481	-40.961681	-0.244163	-162.837926	-0.244163	-162.837926	-20.339758	-105.555947
3.050000	-19.743749	-47.055994	-0.255896	-165.640863	-0.255896	-165.640863	-19.620692	-105.103032
3.100000	-19.056340	-52.728801	-0.268575	-168.444901	-0.268575	-168.444901	-18.934516	-105.063205
3.150000	-18.402714	-58.049129	-0.282212	-171.249562	-0.282212	-171.249562	-18.282403	-105.367974
3.200000	-17.783102	-63.077544	-0.296799	-174.054344	-0.296799	-174.054344	-17.664399	-105.957236
3.250000	-17.196860	-67.865040	-0.312313	-176.858754	-0.312313	-176.858754	-17.079748	-106.780311
3.300000	-16.642700	-72.449928	-0.328733	-179.662311	-0.328733	-179.662311	-16.527095	-107.798917
3.350000	-16.119136	-76.867615	-0.346009	177.535405	-0.346009	177.535405	-16.004920	-108.977732
3.400000	-15.624479	-81.133939	-0.364159	174.734950	-0.364159	174.734950	-15.511518	-110.300204
3.450000	-15.157238	-85.275340	-0.383113	171.936726	-0.383113	171.936726	-15.045391	-111.739773
3.500000	-14.715877	-89.308964	-0.402827	169.141154	-0.402827	169.141154	-14.605005	-113.278879
3.550000	-14.298943	-93.249044	-0.423249	166.348632	-0.423249	166.348632	-14.188910	-114.902845
3.600000	-13.905070	-97.107470	-0.444320	163.559532	-0.444320	163.559532	-13.795749	-116.599327
3.650000	-13.533070	-100.893354	-0.465986	160.774253	-0.465986	160.774253	-13.424342	-118.358626
3.700000	-13.181837	-104.614833	-0.488181	157.993153	-0.488181	157.993153	-13.073589	-120.172082
3.750000	-12.849565	-108.285409	-0.510790	155.215994	-0.510790	155.215994	-12.741700	-122.027031
3.800000	-12.536596	-111.900234	-0.533811	152.443966	-0.533811	152.443966	-12.429013	-123.925759
3.850000	-12.240583	-115.474858	-0.557105	149.676278	-0.557105	149.676278	-12.133202	-125.854745
3.900000	-11.961752	-119.007308	-0.580624	146.913828	-0.580624	146.913828	-11.854489	-127.814076
3.950000	-11.698591	-122.505349	-0.604274	144.156249	-0.604274	144.156249	-11.591374	-129.796950
4.000000	-11.450661	-125.971264	-0.627973	141.403809	-0.627973	141.403809	-11.343424	-131.800612
4.050000	-11.217422	-129.407696	-0.651635	138.656633	-0.651635	138.656633	-11.110100	-133.822242
4.100000	-10.997636	-132.819635	-0.675187	135.914312	-0.675187	135.914312	-10.890176	-135.857836
4.150000	-10.791797	-136.206424	-0.698511	133.177478	-0.698511	133.177478	-10.684141	-137.906767
4.200000	-10.597954	-139.574297	-0.721579	130.445162	-0.721579	130.445162	-10.490060	-139.964957
4.250000	-10.417184	-142.921689	-0.744228	127.718167	-0.744228	127.718167	-10.309002	-142.032323
4.300000	-10.247586	-146.253760	-0.766459	124.995487	-0.766459	124.995487	-10.139081	-144.105901
4.350000	-10.089688	-149.570596	-0.788129	122.277433	-0.788129	122.277433	-9.980820	-146.185011
4.400000	-9.942604	-152.874809	-0.809197	119.563499	-0.809197	119.563499	-9.833343	-148.268149
4.450000	-9.805969	-156.168109	-0.829588	116.853397	-0.829588	116.853397	-9.696285	-150.354258
4.500000	-9.679912	-159.451549	-0.849186	114.147017	-0.849186	114.147017	-9.569780	-152.442562
4.550000	-9.563168	-162.727686	-0.868021	111.443616	-0.868021	111.443616	-9.452570	-154.532075
4.600000	-9.456871	-165.996839	-0.885870	108.743321	-0.885870	108.743321	-9.345786	-156.622266
4.650000	-9.359176	-169.261589	-0.902858	106.045208	-0.902858	106.045208	-9.247593	-158.712470
4.700000	-9.271257	-172.522645	-0.918753	103.349214	-0.918753	103.349214	-9.159166	-160.802150
4.750000	-9.191797	-175.781799	-0.933644	100.654632	-0.933644	100.654632	-9.079192	-162.890962
4.800000	-9.121223	-179.040308	-0.947401	97.961076	-0.947401	97.961076	-9.008104	-164.978460
4.850000	-9.059203	177.700475	-0.960002	95.268022	-0.960002	95.268022	-8.945570	-167.064360
4.900000	-9.005273	174.439282	-0.971456	92.574938	-0.971456	92.574938	-8.891132	-169.148463
4.950000	-8.960064	171.174525	-0.981612	89.881247	-0.981612	89.881247	-8.845426	-171.230347
5.000000	-8.922239	167.905553	-0.990635	87.186540	-0.990635	87.186540	-8.807115	-173.310156
5.050000	-8.892988	164.630267	-0.998297	84.490041	-0.998297	84.490041	-8.777394	-175.387331
5.100000	-8.871672	161.347716	-1.004669	81.791252	-1.004669	81.791252	-8.755628	-177.461874
5.150000	-8.858234	158.056630	-1.009740	79.089588	-1.009740	79.089588	-8.741760	-179.533630
5.200000	-8.852636	154.755743	-1.013503	76.384457	-1.013503	76.384457	-8.735755	178.397553
5.250000	-8.854860	151.443792	-1.015955	73.675266	-1.015955	73.675266	-8.737596	176.331835
5.300000	-8.864907	148.119517	-1.017102	70.961417	-1.017102	70.961417	-8.747285	174.269389
5.350000	-8.882800	144.781654	-1.016949	68.242313	-1.016949	68.242313	-8.764843	172.210408
5.400000	-8.908580	141.428936	-1.015513	65.517359	-1.015513	65.517359	-8.790311	170.155113
5.450000	-8.942311	138.060092	-1.012811	62.785962	-1.012811	62.785962	-8.823750	168.103759
5.500000	-8.984078	134.673839	-1.008867	60.047535	-1.008867	60.047535	-8.865240	166.056647
5.550000	-9.033988	131.268880	-1.003709	57.301497	-1.003709	57.301497	-8.914883	164.014131
5.600000	-9.092173	127.843903	-0.997371	54.547275	-0.997371	54.547275	-8.972803	161.976626
5.650000	-9.158876	124.397324	-0.989878	51.784205	-0.989878	51.784205	-9.039231	159.944687
5.700000	-9.234283	120.927728	-0.981276	49.011715	-0.981276	49.011715	-9.114340	157.918913
5.750000	-9.318517	117.433944	-0.971624	46.229363	-0.971624	46.229363	-9.198238	155.899927
5.800000	-9.411820	113.914520	-0.960973	43.436623	-0.960973	43.436623	-9.291144	153.888525
5.850000	-9.514465	110.367947	-0.949380	40.632985	-0.949380	40.632985	-9.393306	151.885640
5.900000	-9.626761	106.792648	-0.936904	37.817956	-0.936904	37.817956	-9.505004	149.892358
5.950000	-9.749053	103.186957	-0.923610	34.991061	-0.923610	34.991061	-9.626545	147.909943
6.000000	-9.881729	99.549108	-0.909564	32.151842	-0.909564	32.151842	-9.758272	145.939863
6.050000	-10.025222	95.877205	-0.894838	29.299860	-0.894838	29.299860	-9.900563	143.983825
6.100000	-10.180016	92.169198	-0.879507	26.434699	-0.879507	26.434699	-10.053837	142.043813
6.150000	-10.346647	88.422852	-0.863647	23.555963	-0.863647	23.555963	-10.218552	140.122127
6.200000	-10.525717	84.635702	-0.847339	20.663276	-0.847339	20.663276	-10.395214	138.221444
6.250000	-10.717894	80.805005	-0.830667	17.756288	-0.830667	17.756288	-10.584376	136.344879
6.300000	-10.924129	76.926589	-0.813711	14.834344	-0.813711	14.834344	-10.786834	134.496761
6.350000	-11.145056	72.997870	-0.796570	11.897452	-0.796570	11.897452	-11.003062	132.680852
6.400000	-11.381608	69.014804	-0.779334	8.945331	-0.779334	8.945331	-11.233782	130.902168
6.450000	-11.634825	64.972711	-0.762095	5.977728	-0.762095	5.977728	-11.479780	129.166598
6.500000	-11.905877	60.866119	-0.744949	2.994412	-0.744949	2.994412	-11.741909	127.481075
6.550000	-12.196074	56.688580	-0.727992	-0.004823	-0.727992	-0.004823	-12.021091	125.853790
6.600000	-12.506892	52.432421	-0.711321	-3.020158	-0.711321	-3.020158	-12.318313	124.294448
6.650000	-12.839992	48.088427	-0.695037	-6.051749	-0.695037	-6.051749	-12.634627	122.814600
6.700000	-13.197184	43.646069	-0.679236	-9.099632	-0.679236	-9.099632	-12.971095	121.427419
6.750000	-13.580721	39.090395	-0.664027	-12.164130	-0.664027	-12.164130	-13.328960	120.150664
6.800000	-13.993182	34.400849	-0.649530	-15.245669	-0.649530	-15.245669	-13.709446	119.008102
6.850000	-14.436698	29.563183	-0.635814	-18.343455	-0.635814	-18.343455	-14.113281	118.016885
6.900000	-14.914275	24.552843	-0.622974	-21.457519	-0.622974	-21.457519	-14.541473	117.203943
6.950000	-15.429832	19.321245	-0.611183	-24.589030	-0.611183	-24.589030	-14.994799	116.619880
7.000000	-15.986361	13.832172	-0.600504	-27.737163	-0.600504	-27.737163	-15.472998	116.299624
7.050000	-16.587388	8.036609	-0.591014	-30.901520	-0.591014	-30.901520	-15.975325	116.286915
7.100000	-17.236608	1.862362	-0.582820	-34.082172	-0.582820	-34.082172	-16.499731	116.642044
7.150000	-17.936299	-4.829668	-0.576139	-37.280258	-0.576139	-37.280258	-17.040151	117.473727
7.200000	-18.686813	-12.133652	-0.570960	-40.494292	-0.570960	-40.494292	-17.589569	118.827778
7.250000	-19.484964	-20.209597	-0.567381	-43.724141	-0.567381	-43.724141	-18.136000	120.783338
7.300000	-20.317513	-29.304948	-0.565568	-46.970249	-0.565568	-46.970249	-18.658793	123.443144
7.350000	-21.152586	-39.718099	-0.565662	-50.232665	-0.565662	-50.232665	-19.128197	126.875149
7.400000	-21.940682	-51.629274	-0.567669	-53.510325	-0.567669	-53.510325	-19.514795	131.031672
7.450000	-22.600131	-65.165188	-0.571683	-56.803007	-0.571683	-56.803007	-19.783090	135.825524
7.500000	-22.998689	-80.258371	-0.577952	-60.111456	-0.577952	-60.111456	-19.888403	141.084404
7.550000	-23.043735	-96.146639	-0.586492	-63.434712	-0.586492	-63.434712	-19.816676	146.469539
7.600000	-22.716461	-111.853143	-0.597345	-66.772114	-0.597345	-66.772114	-19.573270	151.656471
7.650000	-22.071882	-126.505934	-0.610616	-70.123417	-0.610616	-70.123417	-19.177067	156.362715
7.700000	-21.201596	-139.462035	-0.626614	-73.489340	-0.626614	-73.489340	-18.651060	160.320162
7.750000	-20.237882	-150.819688	-0.645220	-76.868293	-0.645220	-76.868293	-18.046028	163.498934
7.800000	-19.250989	-160.764016	-0.666521	-80.259879	-0.666521	-80.259879	-17.393932	165.899363
7.850000	-18.280484	-169.507652	-0.690708	-83.664098	-0.690708	-83.664098	-16.718165	167.545581
7.900000	-17.349085	-177.295758	-0.717937	-87.080690	-0.717937	-87.080690	-16.037797	168.508574
7.950000	-16.469014	175.621507	-0.748136	-90.508476	-0.748136	-90.508476	-15.368429	168.910418
8.000000	-15.641531	169.099284	-0.781387	-93.946961	-0.781387	-93.946961	-14.717268	168.826386
8.050000	-14.863896	163.047216	-0.817969	-97.396253	-0.817969	-97.396253	-14.087331	168.301580
8.100000	-14.134439	157.353555	-0.857851	-100.855338	-0.857851	-100.855338	-13.482231	167.417497
8.150000	-13.449914	151.944919	-0.901025	-104.323366	-0.901025	-104.323366	-12.903136	166.232899
8.200000	-12.806550	146.773766	-0.947568	-107.799770	-0.947568	-107.799770	-12.349779	164.787356
8.250000	-12.200437	141.816179	-0.997830	-111.284542	-0.997830	-111.284542	-11.820955	163.098380
8.300000	-11.629139	137.023156	-1.051588	-114.776281	-1.051588	-114.776281	-11.316589	161.216481
8.350000	-11.089711	132.372745	-1.108902	-118.274338	-1.108902	-118.274338	-10.835503	159.164264
8.400000	-10.579508	127.850762	-1.169932	-121.778202	-1.169932	-121.778202	-10.376428	156.956611
8.450000	-10.096317	123.444119	-1.234818	-125.287216	-1.234818	-125.287216	-9.938268	154.608325
8.500000	-9.638202	119.134419	-1.303409	-128.800333	-1.303409	-128.800333	-9.520046	152.141761
8.550000	-9.203320	114.912706	-1.375747	-132.316841	-1.375747	-132.316841	-9.120654	149.568357
8.600000	-8.790140	110.776178	-1.452067	-135.836127	-1.452067	-135.836127	-8.739120	146.892619
8.650000	-8.397246	106.715380	-1.532289	-139.357259	-1.532289	-139.357259	-8.374547	144.127450
8.700000	-8.023290	102.723112	-1.616344	-142.879416	-1.616344	-142.879416	-8.026014	141.283039
8.750000	-7.667090	98.795355	-1.704255	-146.401854	-1.704255	-146.401854	-7.692681	138.365849
8.800000	-7.327883	94.934093	-1.796303	-149.923685	-1.796303	-149.923685	-7.374017	135.376034
8.850000	-7.004474	91.130608	-1.892218	-153.444127	-1.892218	-153.444127	-7.069123	132.325417
8.900000	-6.695978	87.382631	-1.992005	-156.962431	-1.992005	-156.962431	-6.777322	129.218514
8.950000	-6.401710	83.689785	-2.095742	-160.477738	-2.095742	-160.477738	-6.498088	126.058004
9.000000	-6.121091	80.051913	-2.203494	-163.989069	-2.203494	-163.989069	-6.230978	122.846606
9.050000	-5.853207	76.464285	-2.315082	-167.495874	-2.315082	-167.495874	-5.975246	119.590996
9.100000	-5.597427	72.925735	-2.430489	-170.997426	-2.430489	-170.997426	-5.730381	116.294313
9.150000	-5.353442	69.438078	-2.549823	-174.492593	-2.549823	-174.492593	-5.496141	112.957387
9.200000	-5.120604	65.998988	-2.672976	-177.980729	-2.672976	-177.980729	-5.271990	109.584391
9.250000	-4.898262	62.606118	-2.799847	178.538660	-2.799847	178.538660	-5.057379	106.179100
9.300000	-4.685941	59.258779	-2.930402	175.066250	-2.930402	175.066250	-4.851909	102.743900
9.350000	-4.483622	55.960347	-3.064733	171.603586	-3.064733	171.603586	-4.655588	99.278808
9.400000	-4.290480	52.706244	-3.202637	168.150604	-3.202637	168.150604	-4.467708	95.788610
9.450000	-4.106139	49.496103	-3.344070	164.707977	-3.344070	164.707977	-4.287952	92.275268
9.500000	-3.930475	46.331731	-3.489030	161.276955	-3.489030	161.276955	-4.116243	88.739711
9.550000	-3.762618	43.207841	-3.637341	157.856902	-3.637341	157.856902	-3.951819	85.186107
9.600000	-3.603053	40.131459	-3.789072	154.450563	-3.789072	154.450563	-3.795165	81.613204
9.650000	-3.450549	37.093794	-3.944018	151.056081	-3.944018	151.056081	-3.645185	78.026086
9.700000	-3.305610	34.101727	-4.102180	147.676347	-4.102180	147.676347	-3.502406	74.423952
9.750000	-3.167319	31.149091	-4.263434	144.310040	-4.263434	144.310040	-3.366016	70.810309
9.800000	-3.035749	28.238599	-4.427700	140.958798	-4.427700	140.958798	-3.236156	67.185930
9.850000	-2.910546	25.368960	-4.594892	137.622835	-4.594892	137.622835	-3.112556	63.552625
9.900000	-2.791286	22.538114	-4.764930	134.302033	-4.764930	134.302033	-2.994882	59.912276
9.950000	-2.678142	19.749402	-4.937665	130.998387	-4.937665	130.998387	-2.883411	56.265813
10.000000	-2.570227	16.996229	-5.113119	127.709790	-5.113119	127.709790	-2.777327	52.615490
