! freq	dB(S11)	phase(S11)	dB(S12)	phase(S12)	
!     	dB(S21)	phase(S21)	dB(S22)	phase(S22)	
!S-par simulation data
#  GHz  S  DB  R 50
0.000000	-0.000000	0.000000	-374.667602	0.000000	-374.667602	0.000000	-0.000000	0.000000
0.050000	-0.000127	-1.055158	-108.643603	88.965766	-108.643603	88.965766	-0.000127	-1.055175
0.100000	-0.000502	-2.110009	-102.663596	87.939781	-102.663596	87.939781	-0.000502	-2.110045
0.150000	-0.001114	-3.164268	-99.209413	86.930413	-99.209413	86.930413	-0.001112	-3.164323
0.200000	-0.001938	-4.217690	-96.804815	85.946062	-96.804815	85.946062	-0.001936	-4.217766
0.250000	-0.002963	-5.269993	-94.992624	84.998415	-94.992624	84.998415	-0.002960	-5.270091
0.300000	-0.004143	-6.321107	-93.560619	84.094632	-93.560619	84.094632	-0.004139	-6.321229
0.350000	-0.005457	-7.370866	-92.403025	83.247708	-92.403025	83.247708	-0.005453	-7.371013
0.400000	-0.006878	-8.419183	-91.455567	82.471146	-91.455567	82.471146	-0.006873	-8.419357
0.450000	-0.008379	-9.466010	-90.677521	81.780817	-90.677521	81.780817	-0.008374	-9.466211
0.500000	-0.009938	-10.511326	-90.041864	81.195714	-90.041864	81.195714	-0.009932	-10.511555
0.550000	-0.011533	-11.555131	-89.530164	80.738945	-89.530164	80.738945	-0.011528	-11.555387
0.600000	-0.013148	-12.597439	-89.129688	80.439078	-89.129688	80.439078	-0.013143	-12.597723
0.650000	-0.014770	-13.638275	-88.831658	80.331937	-88.831658	80.331937	-0.014765	-13.638586
0.700000	-0.016388	-14.677663	-88.630101	80.463065	-88.630101	80.463065	-0.016383	-14.678002
0.750000	-0.017994	-15.715633	-88.520981	80.891069	-88.520981	80.891069	-0.017989	-15.715997
0.800000	-0.019582	-16.752206	-88.501384	81.692133	-88.501384	81.692133	-0.019578	-16.752596
0.850000	-0.021150	-17.787403	-88.568525	82.965974	-88.568525	82.965974	-0.021147	-17.787818
0.900000	-0.022696	-18.821238	-88.718261	84.843188	-88.718261	84.843188	-0.022693	-18.821677
0.950000	-0.024218	-19.853720	-88.942611	87.493022	-88.942611	87.493022	-0.024215	-19.854183
1.000000	-0.025716	-20.884850	-89.225591	91.127917	-89.225591	91.127917	-0.025714	-20.885336
1.050000	-0.027190	-21.914627	-89.536599	95.995242	-89.536599	95.995242	-0.027189	-21.915136
1.100000	-0.028643	-22.943043	-89.821541	102.336280	-89.821541	102.336280	-0.028642	-22.943574
1.150000	-0.030076	-23.970084	-89.995550	110.283315	-89.995550	110.283315	-0.030075	-23.970638
1.200000	-0.031489	-24.995736	-89.948840	119.684065	-89.948840	119.684065	-0.031489	-24.996311
1.250000	-0.032885	-26.019979	-89.580808	129.939588	-89.580808	129.939588	-0.032885	-26.020576
1.300000	-0.034264	-27.042727	-88.837318	140.032892	-88.837318	140.032892	-0.034265	-27.043346
1.350000	-0.035630	-28.064017	-87.792563	149.034860	-87.792563	149.034860	-0.035630	-28.064657
1.400000	-0.036983	-29.083823	-86.554899	156.488231	-86.554899	156.488231	-0.036983	-29.084485
1.450000	-0.038325	-30.102117	-85.227515	162.348631	-85.227515	162.348631	-0.038325	-30.102801
1.500000	-0.039657	-31.118870	-83.883403	166.797729	-83.883403	166.797729	-0.039658	-31.119577
1.550000	-0.040981	-32.134055	-82.565505	170.086406	-82.565505	170.086406	-0.040982	-32.134783
1.600000	-0.042298	-33.147641	-81.295570	172.453744	-81.295570	172.453744	-0.042298	-33.148391
1.650000	-0.043608	-34.159598	-80.082603	174.098936	-80.082603	174.098936	-0.043609	-34.160371
1.700000	-0.044914	-35.169898	-78.928631	175.178525	-78.928631	175.178525	-0.044915	-35.170693
1.750000	-0.046216	-36.178510	-77.832127	175.812597	-77.832127	175.812597	-0.046216	-36.179328
1.800000	-0.047514	-37.185406	-76.789925	176.092626	-76.789925	176.092626	-0.047515	-37.186247
1.850000	-0.048810	-38.190558	-75.798234	176.088438	-75.798234	176.088438	-0.048811	-38.191422
1.900000	-0.050105	-39.193937	-74.853164	175.853685	-74.853164	175.853685	-0.050105	-39.194825
1.950000	-0.051398	-40.195516	-73.950982	175.429971	-73.950982	175.429971	-0.051399	-40.196428
2.000000	-0.052692	-41.195269	-73.088222	174.849876	-73.088222	174.849876	-0.052692	-41.196205
2.050000	-0.053985	-42.193170	-72.261728	174.139180	-72.261728	174.139180	-0.053986	-42.194130
2.100000	-0.055280	-43.189195	-71.468648	173.318486	-71.468648	173.318486	-0.055280	-43.190178
2.150000	-0.056576	-44.183318	-70.706421	172.404425	-70.706421	172.404425	-0.056576	-44.184326
2.200000	-0.057874	-45.175517	-69.972752	171.410543	-69.972752	171.410543	-0.057874	-45.176549
2.250000	-0.059174	-46.165770	-69.265580	170.347974	-69.265580	170.347974	-0.059175	-46.166826
2.300000	-0.060478	-47.154055	-68.583057	169.225941	-68.583057	169.225941	-0.060478	-47.155136
2.350000	-0.061785	-48.140352	-67.923520	168.052147	-67.923520	168.052147	-0.061785	-48.141458
2.400000	-0.063096	-49.124641	-67.285471	166.833071	-67.285471	166.833071	-0.063096	-49.125772
2.450000	-0.064412	-50.106904	-66.667555	165.574197	-66.667555	165.574197	-0.064412	-50.108060
2.500000	-0.065732	-51.087124	-66.068546	164.280200	-66.068546	164.280200	-0.065733	-51.088305
2.550000	-0.067058	-52.065194	-65.486416	162.953896	-65.486416	162.953896	-0.067059	-52.066400
2.600000	-0.068391	-53.041187	-64.921167	161.600198	-64.921167	161.600198	-0.068391	-53.042418
2.650000	-0.069729	-54.015088	-64.371861	160.222045	-64.371861	160.222045	-0.069730	-54.016345
2.700000	-0.071075	-54.986886	-63.837637	158.822000	-63.837637	158.822000	-0.071075	-54.988168
2.750000	-0.072428	-55.956566	-63.317709	157.402312	-63.317709	157.402312	-0.072428	-55.957874
2.800000	-0.073789	-56.924118	-62.811353	155.964956	-62.811353	155.964956	-0.073789	-56.925452
2.850000	-0.075158	-57.889531	-62.317900	154.511679	-62.317900	154.511679	-0.075158	-57.890891
2.900000	-0.076536	-58.852795	-61.836735	153.044030	-61.836735	153.044030	-0.076536	-58.854181
2.950000	-0.077923	-59.813903	-61.367287	151.563385	-61.367287	151.563385	-0.077924	-59.815315
3.000000	-0.079320	-60.772847	-60.909025	150.070975	-60.909025	150.070975	-0.079321	-60.774285
3.050000	-0.080728	-61.729619	-60.461459	148.567902	-60.461459	148.567902	-0.080728	-61.731084
3.100000	-0.082146	-62.684215	-60.024129	147.055154	-60.024129	147.055154	-0.082147	-62.685706
3.150000	-0.083576	-63.636630	-59.596609	145.533623	-59.596609	145.533623	-0.083577	-63.638148
3.200000	-0.085017	-64.586860	-59.178497	144.004114	-59.178497	144.004114	-0.085018	-64.588404
3.250000	-0.086471	-65.534902	-58.769421	142.467358	-58.769421	142.467358	-0.086472	-65.536473
3.300000	-0.087938	-66.480755	-58.369030	140.924015	-58.369030	140.924015	-0.087939	-66.482353
3.350000	-0.089418	-67.424417	-57.976992	139.374689	-57.976992	139.374689	-0.089420	-67.426042
3.400000	-0.090912	-68.365888	-57.593000	137.819930	-57.593000	137.819930	-0.090914	-68.367540
3.450000	-0.092421	-69.305170	-57.216761	136.260241	-57.216761	136.260241	-0.092423	-69.306850
3.500000	-0.093945	-70.242264	-56.848000	134.696081	-56.848000	134.696081	-0.093947	-70.243971
3.550000	-0.095484	-71.177172	-56.486456	133.127874	-56.486456	133.127874	-0.095486	-71.178908
3.600000	-0.097040	-72.109900	-56.131885	131.556008	-56.131885	131.556008	-0.097042	-72.111663
3.650000	-0.098612	-73.040450	-55.784053	129.980842	-55.784053	129.980842	-0.098614	-73.042241
3.700000	-0.100201	-73.968828	-55.442740	128.402705	-55.442740	128.402705	-0.100203	-73.970648
3.750000	-0.101808	-74.895041	-55.107737	126.821904	-55.107737	126.821904	-0.101810	-74.896890
3.800000	-0.103435	-75.819003	-54.778571	125.238630	-54.778571	125.238630	-0.103437	-75.820880
3.850000	-0.105080	-76.740814	-54.455350	123.653260	-54.455350	123.653260	-0.105082	-76.742720
3.900000	-0.106744	-77.660485	-54.137892	122.066033	-54.137892	122.066033	-0.106746	-77.662420
3.950000	-0.108428	-78.578024	-53.826025	120.477175	-53.826025	120.477175	-0.108431	-78.579990
4.000000	-0.110133	-79.493443	-53.519584	118.886895	-53.519584	118.886895	-0.110136	-79.495438
4.050000	-0.111859	-80.406753	-53.218412	117.295388	-53.218412	117.295388	-0.111862	-80.408778
4.100000	-0.113607	-81.317966	-52.922360	115.702838	-52.922360	115.702838	-0.113609	-81.320022
4.150000	-0.115376	-82.227095	-52.631284	114.109413	-52.631284	114.109413	-0.115379	-82.229181
4.200000	-0.117168	-83.134154	-52.345047	112.515275	-52.345047	112.515275	-0.117171	-83.136270
4.250000	-0.118984	-84.039156	-52.063519	110.920572	-52.063519	110.920572	-0.118986	-84.041304
4.300000	-0.120823	-84.942118	-51.786574	109.325446	-51.786574	109.325446	-0.120826	-84.944298
4.350000	-0.122686	-85.843056	-51.514091	107.730029	-51.514091	107.730029	-0.122689	-85.845267
4.400000	-0.124574	-86.741986	-51.245956	106.134444	-51.245956	106.134444	-0.124577	-86.744229
4.450000	-0.126487	-87.638926	-50.982056	104.538808	-50.982056	104.538808	-0.126491	-87.641202
4.500000	-0.128427	-88.533894	-50.722287	102.943232	-50.722287	102.943232	-0.128430	-88.536202
4.550000	-0.130392	-89.426909	-50.466545	101.347819	-50.466545	101.347819	-0.130395	-89.429250
4.600000	-0.132384	-90.317991	-50.214733	99.752666	-50.214733	99.752666	-0.132388	-90.320366
4.650000	-0.134404	-91.207160	-49.966756	98.157866	-49.966756	98.157866	-0.134407	-91.209569
4.700000	-0.136452	-92.094437	-49.722523	96.563507	-49.722523	96.563507	-0.136455	-92.096881
4.750000	-0.138527	-92.979845	-49.481945	94.969670	-49.481945	94.969670	-0.138531	-92.982323
4.800000	-0.140632	-93.863406	-49.244940	93.376433	-49.244940	93.376433	-0.140636	-93.865918
4.850000	-0.142766	-94.745142	-49.011424	91.783871	-49.011424	91.783871	-0.142770	-94.747690
4.900000	-0.144930	-95.625078	-48.781319	90.192053	-48.781319	90.192053	-0.144934	-95.627661
4.950000	-0.147125	-96.503238	-48.554550	88.601044	-48.554550	88.601044	-0.147129	-96.505857
5.000000	-0.149350	-97.379647	-48.331044	87.010908	-48.331044	87.010908	-0.149354	-97.382303
5.050000	-0.151608	-98.254257	-48.110624	85.421746	-48.110624	85.421746	-0.151612	-98.256950
5.100000	-0.153897	-99.127171	-47.893336	83.833577	-47.893336	83.833577	-0.153902	-99.129902
5.150000	-0.156220	-99.998417	-47.679111	82.246454	-47.679111	82.246454	-0.156224	-100.001185
5.200000	-0.158574	-100.868020	-47.467886	80.660426	-47.467886	80.660426	-0.158579	-100.870827
5.250000	-0.160963	-101.736011	-47.259597	79.075540	-47.259597	79.075540	-0.160968	-101.738856
5.300000	-0.163385	-102.602418	-47.054186	77.491842	-47.054186	77.491842	-0.163390	-102.605302
5.350000	-0.165841	-103.467270	-46.851593	75.909374	-46.851593	75.909374	-0.165846	-103.470193
5.400000	-0.168332	-104.330597	-46.651761	74.328176	-46.651761	74.328176	-0.168337	-104.333560
5.450000	-0.170858	-105.192430	-46.454637	72.748287	-46.454637	72.748287	-0.170864	-105.195434
5.500000	-0.173419	-106.052801	-46.260166	71.169742	-46.260166	71.169742	-0.173425	-106.055846
5.550000	-0.176017	-106.911741	-46.068297	69.592575	-46.068297	69.592575	-0.176023	-106.914827
5.600000	-0.178651	-107.769282	-45.878980	68.016819	-45.878980	68.016819	-0.178657	-107.772410
5.650000	-0.181322	-108.625458	-45.692166	66.442504	-45.692166	66.442504	-0.181329	-108.628628
5.700000	-0.184030	-109.480301	-45.507809	64.869659	-45.507809	64.869659	-0.184037	-109.483514
5.750000	-0.186776	-110.333846	-45.325862	63.298310	-45.325862	63.298310	-0.186784	-110.337102
5.800000	-0.189561	-111.186127	-45.146282	61.728484	-45.146282	61.728484	-0.189568	-111.189428
5.850000	-0.192390	-112.036976	-44.968804	60.160478	-44.968804	60.160478	-0.192399	-112.040321
5.900000	-0.195261	-112.886581	-44.793563	58.594110	-44.793563	58.594110	-0.195269	-112.889972
5.950000	-0.198152	-113.735598	-44.621163	57.028578	-44.621163	57.028578	-0.198161	-113.739034
6.000000	-0.201106	-114.582847	-44.450283	55.465557	-44.450283	55.465557	-0.201115	-114.586329
6.050000	-0.204074	-115.429731	-44.282318	53.903107	-44.282318	53.903107	-0.204084	-115.433260
6.100000	-0.207112	-116.274787	-44.115662	52.343511	-44.115662	52.343511	-0.207122	-116.278363
6.150000	-0.210158	-117.119674	-43.951968	50.784207	-43.951968	50.784207	-0.210169	-117.123298
6.200000	-0.213283	-117.962703	-43.789405	49.228102	-43.789405	49.228102	-0.213294	-117.966376
6.250000	-0.216409	-118.805732	-43.629828	47.671998	-43.629828	47.671998	-0.216420	-118.809454
6.300000	-0.219621	-119.646907	-43.471233	46.119442	-43.471233	46.119442	-0.219633	-119.650679
6.350000	-0.222835	-120.488081	-43.315482	44.566885	-43.315482	44.566885	-0.222847	-120.491903
6.400000	-0.226131	-121.327716	-43.160883	43.017623	-43.160883	43.017623	-0.226143	-121.331590
6.450000	-0.229434	-122.167212	-43.008847	41.468660	-43.008847	41.468660	-0.229447	-122.171137
6.500000	-0.232814	-123.005458	-42.858108	39.922723	-42.858108	39.922723	-0.232827	-123.009436
6.550000	-0.236209	-123.843454	-42.709681	38.377391	-42.709681	38.377391	-0.236223	-123.847485
6.600000	-0.239673	-124.680465	-42.562671	36.834804	-42.562671	36.834804	-0.239688	-124.684550
6.650000	-0.243162	-125.517147	-42.417755	35.293131	-42.417755	35.293131	-0.243177	-125.521286
6.700000	-0.246712	-126.353078	-42.274352	33.753913	-42.274352	33.753913	-0.246728	-126.357273
6.750000	-0.250295	-127.188635	-42.132852	32.215922	-42.132852	32.215922	-0.250312	-127.192886
6.800000	-0.253934	-128.023647	-41.992940	30.680087	-41.992940	30.680087	-0.253951	-128.027955
6.850000	-0.257613	-128.858270	-41.854768	29.145791	-41.854768	29.145791	-0.257631	-128.862636
6.900000	-0.261341	-129.692526	-41.718239	27.613348	-41.718239	27.613348	-0.261359	-129.696950
6.950000	-0.265117	-130.526414	-41.583310	26.082756	-41.583310	26.082756	-0.265136	-130.530897
7.000000	-0.268935	-131.360079	-41.450061	24.553709	-41.450061	24.553709	-0.268955	-131.364622
7.050000	-0.272811	-132.193432	-41.318296	23.026825	-41.318296	23.026825	-0.272831	-132.198036
7.100000	-0.276720	-133.026675	-41.188231	21.501175	-41.188231	21.501175	-0.276741	-133.031341
7.150000	-0.280696	-133.859699	-41.059555	19.977996	-41.059555	19.977996	-0.280718	-133.864428
7.200000	-0.284698	-134.692694	-40.932584	18.455741	-40.932584	18.455741	-0.284720	-134.697486
7.250000	-0.288775	-135.525598	-40.806927	16.936261	-40.806927	16.936261	-0.288798	-135.530455
7.300000	-0.292870	-136.358518	-40.682964	15.417396	-40.682964	15.417396	-0.292895	-136.363440
7.350000	-0.297050	-137.191516	-40.560260	13.901606	-40.560260	13.901606	-0.297075	-137.196505
7.400000	-0.301240	-138.024540	-40.439225	12.386123	-40.439225	12.386123	-0.301267	-138.029596
7.450000	-0.305524	-138.857850	-40.319413	10.874012	-40.319413	10.874012	-0.305551	-138.862974
7.500000	-0.309810	-139.691159	-40.201231	9.361901	-40.201231	9.361901	-0.309838	-139.696353
7.550000	-0.314199	-140.525002	-40.084253	7.853455	-40.084253	7.853455	-0.314228	-140.530267
7.600000	-0.318590	-141.358845	-39.968829	6.345010	-39.968829	6.345010	-0.318620	-141.364181
7.650000	-0.323076	-142.193384	-39.854656	4.839912	-39.854656	4.839912	-0.323107	-142.198792
7.700000	-0.327573	-143.027986	-39.741940	3.335119	-39.741940	3.335119	-0.327606	-143.033468
7.750000	-0.332158	-143.863412	-39.630507	1.833357	-39.630507	1.833357	-0.332191	-143.868969
7.800000	-0.336762	-144.699004	-39.520453	0.332202	-39.520453	0.332202	-0.336797	-144.704636
7.850000	-0.341446	-145.535512	-39.411698	-1.166235	-39.411698	-1.166235	-0.341482	-145.541222
7.900000	-0.346158	-146.372327	-39.304263	-2.663765	-39.304263	-2.663765	-0.346195	-146.378115
7.950000	-0.350942	-147.210116	-39.198131	-4.158885	-39.198131	-4.158885	-0.350980	-147.215983
8.000000	-0.355763	-148.048393	-39.093275	-5.652801	-39.093275	-5.652801	-0.355803	-148.054340
8.050000	-0.360647	-148.887663	-38.989713	-7.144614	-38.989713	-7.144614	-0.360688	-148.893693
8.100000	-0.365578	-149.727644	-38.887401	-8.634924	-38.887401	-8.634924	-0.365620	-149.733756
8.150000	-0.370563	-150.568600	-38.786359	-10.123433	-38.786359	-10.123433	-0.370607	-150.574797
8.200000	-0.375603	-151.410532	-38.686558	-11.610141	-38.686558	-11.610141	-0.375649	-151.416814
8.250000	-0.380690	-152.253381	-38.587992	-13.095350	-38.587992	-13.095350	-0.380737	-152.259750
8.300000	-0.385841	-153.097514	-38.490673	-14.578457	-38.490673	-14.578457	-0.385890	-153.103972
8.350000	-0.391030	-153.942467	-38.394542	-16.060362	-38.394542	-16.060362	-0.391080	-153.949014
8.400000	-0.396292	-154.789058	-38.299678	-17.539863	-38.299678	-17.539863	-0.396344	-154.795697
8.450000	-0.401583	-155.636327	-38.205942	-19.018458	-38.205942	-19.018458	-0.401637	-155.643059
8.500000	-0.406956	-156.485635	-38.113511	-20.494340	-38.113511	-20.494340	-0.407011	-156.492460
8.550000	-0.412349	-157.335439	-38.022135	-21.969616	-38.022135	-21.969616	-0.412407	-157.342359
8.600000	-0.417834	-158.187726	-37.932116	-23.441860	-37.932116	-23.441860	-0.417893	-158.194744
8.650000	-0.423330	-159.040284	-37.843068	-24.913798	-37.843068	-24.913798	-0.423392	-159.047401
8.700000	-0.428925	-159.895820	-37.755443	-26.382377	-37.755443	-26.382377	-0.428989	-159.903037
8.750000	-0.434524	-160.751356	-37.668694	-27.850956	-37.668694	-27.850956	-0.434590	-160.758673
8.800000	-0.440205	-161.609497	-37.583275	-29.316763	-37.583275	-29.316763	-0.440273	-161.616918
8.850000	-0.445938	-162.469391	-37.499017	-30.780786	-37.499017	-30.780786	-0.446009	-162.476917
8.900000	-0.451725	-163.331101	-37.415914	-32.243015	-37.415914	-32.243015	-0.451798	-163.338734
8.950000	-0.457565	-164.194692	-37.333963	-33.703435	-37.333963	-33.703435	-0.457641	-164.202433
9.000000	-0.463458	-165.060227	-37.253159	-35.162034	-37.253159	-35.162034	-0.463537	-165.068078
9.050000	-0.469404	-165.927772	-37.173499	-36.618797	-37.173499	-36.618797	-0.469485	-165.935734
9.100000	-0.475402	-166.797392	-37.094979	-38.073708	-37.094979	-38.073708	-0.475486	-166.805467
9.150000	-0.481453	-167.669152	-37.017596	-39.526749	-37.017596	-39.526749	-0.481540	-167.677343
9.200000	-0.487556	-168.543120	-36.941347	-40.977901	-36.941347	-40.977901	-0.487646	-168.551428
9.250000	-0.493711	-169.419361	-36.866229	-42.427145	-36.866229	-42.427145	-0.493804	-169.427788
9.300000	-0.499917	-170.297943	-36.792240	-43.874459	-36.792240	-43.874459	-0.500014	-170.306491
9.350000	-0.506175	-171.178934	-36.719376	-45.319819	-36.719376	-45.319819	-0.506275	-171.187604
9.400000	-0.512484	-172.062401	-36.647637	-46.763202	-36.647637	-46.763202	-0.512588	-172.071196
9.450000	-0.518844	-172.948413	-36.577018	-48.204581	-36.577018	-48.204581	-0.518951	-172.957334
9.500000	-0.525253	-173.837039	-36.507520	-49.643929	-36.507520	-49.643929	-0.525365	-173.846088
9.550000	-0.531713	-174.728347	-36.439139	-51.081218	-36.439139	-51.081218	-0.531828	-174.737527
9.600000	-0.538222	-175.622408	-36.371874	-52.516416	-36.371874	-52.516416	-0.538341	-175.631719
9.650000	-0.544780	-176.519291	-36.305724	-53.949492	-36.305724	-53.949492	-0.544903	-176.528737
9.700000	-0.551386	-177.419067	-36.240686	-55.380412	-36.240686	-55.380412	-0.551514	-177.428648
9.750000	-0.558040	-178.321805	-36.176760	-56.809142	-36.176760	-56.809142	-0.558172	-178.331526
9.800000	-0.564741	-179.227579	-36.113944	-58.235644	-36.113944	-58.235644	-0.564878	-179.237439
9.850000	-0.571488	179.863543	-36.052236	-59.659881	-36.052236	-59.659881	-0.571630	179.853540
9.900000	-0.578281	178.951487	-35.991636	-61.081813	-35.991636	-61.081813	-0.578429	178.941339
9.950000	-0.585120	178.036181	-35.932142	-62.501398	-35.932142	-62.501398	-0.585272	178.025887
10.000000	-0.592003	177.117555	-35.873752	-63.918595	-35.873752	-63.918595	-0.592161	177.107111
