! freq	dB(S11)	phase(S11)	dB(S12)	phase(S12)	
!     	dB(S21)	phase(S21)	dB(S22)	phase(S22)	
!S-par simulation data
#  GHz  S  DB  R 50
0.000000	0.000000	0.000000	-330.003076	0.000000	-330.003076	0.000000	0.000000	0.000000
0.050000	-0.001832	-2.898571	-78.795520	87.143104	-78.795520	87.143104	-0.001826	-2.898504
0.100000	-0.006324	-5.782844	-72.796034	84.290264	-72.796034	84.290264	-0.006315	-5.782833
0.150000	-0.011691	-8.648957	-69.309390	81.445495	-69.309390	81.445495	-0.011696	-8.649076
0.200000	-0.016856	-11.500242	-66.858708	78.612314	-66.858708	78.612314	-0.016887	-11.500479
0.250000	-0.021477	-14.339748	-64.982666	75.794838	-64.982666	75.794838	-0.021537	-14.340063
0.300000	-0.025577	-17.169100	-63.475651	72.997147	-63.475651	72.997147	-0.025661	-17.169462
0.350000	-0.029295	-19.988771	-62.226330	70.222233	-62.226330	70.222233	-0.029395	-19.989161
0.400000	-0.032741	-22.797932	-61.169321	67.473812	-61.169321	67.473812	-0.032848	-22.798341
0.450000	-0.035990	-25.594791	-60.264002	64.756998	-60.264002	64.756998	-0.036097	-25.595215
0.500000	-0.039109	-28.378534	-59.479353	62.073939	-59.479353	62.073939	-0.039210	-28.378972
0.550000	-0.042136	-31.147771	-58.794714	59.428211	-58.794714	59.428211	-0.042225	-31.148219
0.600000	-0.045090	-33.900327	-58.196539	56.825545	-58.196539	56.825545	-0.045165	-33.900784
0.650000	-0.047990	-36.635422	-57.671771	54.268334	-57.671771	54.268334	-0.048049	-36.635888
0.700000	-0.050845	-39.352027	-57.210957	51.759901	-57.210957	51.759901	-0.050887	-39.352502
0.750000	-0.053658	-42.048398	-56.807961	49.305851	-56.807961	49.305851	-0.053685	-42.048881
0.800000	-0.056433	-44.723501	-56.456786	46.910340	-56.456786	46.910340	-0.056444	-44.723996
0.850000	-0.059170	-47.376633	-56.152166	44.577055	-56.152166	44.577055	-0.059166	-47.377141
0.900000	-0.061868	-50.006997	-55.890005	42.310388	-55.890005	42.310388	-0.061851	-50.007520
0.950000	-0.064524	-52.613738	-55.667043	40.115419	-55.667043	40.115419	-0.064496	-52.614280
1.000000	-0.067136	-55.196177	-55.480378	37.997303	-55.480378	37.997303	-0.067099	-55.196740
1.050000	-0.069700	-57.753722	-55.327493	35.961552	-55.327493	35.961552	-0.069657	-57.754309
1.100000	-0.072214	-60.285865	-55.206174	34.014096	-55.206174	34.014096	-0.072166	-60.286478
1.150000	-0.074674	-62.792176	-55.114442	32.161337	-55.114442	32.161337	-0.074623	-62.792816
1.200000	-0.077079	-65.272303	-55.050492	30.410211	-55.050492	30.410211	-0.077026	-65.272971
1.250000	-0.079424	-67.725965	-55.012644	28.768245	-55.012644	28.768245	-0.079373	-67.726661
1.300000	-0.081708	-70.152367	-54.999785	27.246368	-54.999785	27.246368	-0.081659	-70.153091
1.350000	-0.083930	-72.551941	-55.009763	25.851128	-55.009763	25.851128	-0.083885	-72.552692
1.400000	-0.086089	-74.924604	-55.040960	24.592168	-55.040960	24.592168	-0.086049	-74.925381
1.450000	-0.088184	-77.270330	-55.091681	23.479852	-55.091681	23.479852	-0.088150	-77.271132
1.500000	-0.090216	-79.589147	-55.160093	22.525231	-55.160093	22.525231	-0.090189	-79.589970
1.550000	-0.092185	-81.881129	-55.244168	21.739944	-55.244168	21.739944	-0.092165	-81.881970
1.600000	-0.094092	-84.146397	-55.341614	21.136034	-55.341614	21.136034	-0.094080	-84.147255
1.650000	-0.095938	-86.385114	-55.449807	20.725658	-55.449807	20.725658	-0.095934	-86.385986
1.700000	-0.097724	-88.597481	-55.565721	20.520656	-55.565721	20.520656	-0.097729	-88.598364
1.750000	-0.099454	-90.783735	-55.685862	20.531935	-55.685862	20.531935	-0.099467	-90.784626
1.800000	-0.101129	-92.944144	-55.806217	20.768657	-55.806217	20.768657	-0.101150	-92.945040
1.850000	-0.102751	-95.079005	-55.922234	21.237204	-55.922234	21.237204	-0.102780	-95.079905
1.900000	-0.104324	-97.188371	-56.028663	21.942465	-56.028663	21.942465	-0.104360	-97.189272
1.950000	-0.105849	-99.272602	-56.119806	22.881089	-56.119806	22.881089	-0.105891	-99.273503
2.000000	-0.107331	-101.332340	-56.189989	24.040234	-56.189989	24.040234	-0.107379	-101.333240
2.050000	-0.108773	-103.367974	-56.233416	25.401661	-56.233416	25.401661	-0.108826	-103.368870
2.100000	-0.110177	-105.379904	-56.244629	26.938605	-56.244629	26.938605	-0.110235	-105.380798
2.150000	-0.111548	-107.368549	-56.218896	28.615995	-56.218896	28.615995	-0.111609	-107.369440
2.200000	-0.112888	-109.334337	-56.152607	30.391631	-56.152607	30.391631	-0.112952	-109.335224
2.250000	-0.114201	-111.277706	-56.043603	32.218333	-56.043603	32.218333	-0.114267	-111.278590
2.300000	-0.115488	-113.198175	-55.889376	34.044081	-55.889376	34.044081	-0.115556	-113.199057
2.350000	-0.116756	-115.098302	-55.695607	35.825532	-55.695607	35.825532	-0.116824	-115.099183
2.400000	-0.118005	-116.977359	-55.462436	37.517856	-55.462436	37.517856	-0.118073	-116.978241
2.450000	-0.119239	-118.835809	-55.193718	39.083464	-55.193718	39.083464	-0.119306	-118.836694
2.500000	-0.120461	-120.674118	-54.894151	40.492796	-54.894151	40.492796	-0.120526	-120.675007
2.550000	-0.121673	-122.492131	-54.567805	41.718604	-54.567805	41.718604	-0.121736	-122.493025
2.600000	-0.122878	-124.290970	-54.221214	42.754170	-54.221214	42.754170	-0.122939	-124.291872
2.650000	-0.124080	-126.071102	-53.859377	43.594623	-53.859377	43.594623	-0.124137	-126.072015
2.700000	-0.125279	-127.832995	-53.486864	44.240867	-53.486864	44.240867	-0.125332	-127.833921
2.750000	-0.126479	-129.577113	-53.107714	44.698200	-53.107714	44.698200	-0.126528	-129.578053
2.800000	-0.127681	-131.303919	-52.725393	44.975039	-52.725393	44.975039	-0.127726	-131.304875
2.850000	-0.128889	-133.013870	-52.342798	45.081812	-52.342798	45.081812	-0.128929	-133.014845
2.900000	-0.130102	-134.707423	-51.962301	45.030082	-51.962301	45.030082	-0.130138	-134.708419
2.950000	-0.131326	-136.383507	-51.584747	44.818561	-51.584747	44.818561	-0.131356	-136.384525
3.000000	-0.132558	-138.045494	-51.213804	44.485712	-51.213804	44.485712	-0.132584	-138.046535
3.050000	-0.133803	-139.692431	-50.849500	44.030194	-50.849500	44.030194	-0.133824	-139.693498
3.100000	-0.135061	-141.324755	-50.492684	43.463015	-50.492684	43.463015	-0.135077	-141.325849
3.150000	-0.136333	-142.942897	-50.143968	42.794483	-50.143968	42.794483	-0.136344	-142.944018
3.200000	-0.137621	-144.547282	-49.803774	42.034145	-49.803774	42.034145	-0.137628	-144.548432
3.250000	-0.138926	-146.138329	-49.472369	41.190771	-49.472369	41.190771	-0.138928	-146.139508
3.300000	-0.140250	-147.716452	-49.149900	40.272371	-49.149900	40.272371	-0.140247	-147.717660
3.350000	-0.141592	-149.282058	-48.836415	39.286224	-48.836415	39.286224	-0.141586	-149.283295
3.400000	-0.142955	-150.835547	-48.531891	38.238926	-48.531891	38.238926	-0.142944	-150.836814
3.450000	-0.144339	-152.377313	-48.236246	37.136436	-48.236246	37.136436	-0.144324	-152.378609
3.500000	-0.145744	-153.907746	-47.949357	35.984132	-47.949357	35.984132	-0.145726	-153.909070
3.550000	-0.147171	-155.427225	-47.671066	34.786861	-47.671066	34.786861	-0.147150	-155.428578
3.600000	-0.148622	-156.936128	-47.401195	33.548986	-47.401195	33.548986	-0.148598	-156.937507
3.650000	-0.150096	-158.434821	-47.139550	32.274436	-47.139550	32.274436	-0.150069	-158.436227
3.700000	-0.151594	-159.923668	-46.885925	30.966746	-46.885925	30.966746	-0.151565	-159.925099
3.750000	-0.153117	-161.403025	-46.640110	29.629099	-46.640110	29.629099	-0.153086	-161.404479
3.800000	-0.154665	-162.872860	-46.401939	28.263303	-46.401939	28.263303	-0.154633	-162.874335
3.850000	-0.156239	-164.333928	-46.171169	26.873201	-46.171169	26.873201	-0.156206	-164.335423
3.900000	-0.157839	-165.786565	-45.947587	25.461084	-45.947587	25.461084	-0.157805	-165.788078
3.950000	-0.159465	-167.231101	-45.730986	24.029019	-45.730986	24.029019	-0.159430	-167.232631
4.000000	-0.161116	-168.667861	-45.521163	22.578866	-45.521163	22.578866	-0.161081	-168.669406
4.050000	-0.162795	-170.097163	-45.317923	21.112308	-45.317923	21.112308	-0.162759	-170.098720
4.100000	-0.164499	-171.519319	-45.121077	19.630862	-45.121077	19.630862	-0.164464	-171.520886
4.150000	-0.166231	-172.934634	-44.930444	18.135896	-44.930444	18.135896	-0.166196	-172.936210
4.200000	-0.167989	-174.343411	-44.745852	16.628648	-44.745852	16.628648	-0.167955	-174.344994
4.250000	-0.169774	-175.745945	-44.567134	15.110235	-44.567134	15.110235	-0.169741	-175.747531
4.300000	-0.171586	-177.142524	-44.394133	13.581667	-44.394133	13.581667	-0.171554	-177.144113
4.350000	-0.173426	-178.533434	-44.226701	12.043856	-44.226701	12.043856	-0.173394	-178.535024
4.400000	-0.175292	-179.918953	-44.064695	10.497628	-44.064695	10.497628	-0.175262	-179.920542
4.450000	-0.177185	178.700644	-43.907982	8.943729	-43.907982	8.943729	-0.177156	178.699058
4.500000	-0.179105	177.325088	-43.756437	7.382833	-43.756437	7.382833	-0.179078	177.323507
4.550000	-0.181053	175.954117	-43.609941	5.815551	-43.609941	5.815551	-0.181027	175.952542
4.600000	-0.183027	174.587470	-43.468384	4.242436	-43.468384	4.242436	-0.183004	174.585902
4.650000	-0.185029	173.224893	-43.331662	2.663988	-43.331662	2.663988	-0.185007	173.223334
4.700000	-0.187057	171.866137	-43.199678	1.080659	-43.199678	1.080659	-0.187037	171.864588
4.750000	-0.189113	170.510956	-43.072343	-0.507140	-43.072343	-0.507140	-0.189094	170.509419
4.800000	-0.191195	169.159110	-42.949575	-2.099036	-42.949575	-2.099036	-0.191178	169.157584
4.850000	-0.193304	167.810362	-42.831297	-3.694691	-42.831297	-3.694691	-0.193288	167.808849
4.900000	-0.195439	166.464480	-42.717441	-5.293797	-42.717441	-5.293797	-0.195426	166.462981
4.950000	-0.197601	165.121237	-42.607941	-6.896075	-42.607941	-6.896075	-0.197590	165.119752
5.000000	-0.199790	163.780409	-42.502743	-8.501270	-42.502743	-8.501270	-0.199780	163.778938
5.050000	-0.202006	162.441860	-42.401928	-10.109253	-42.401928	-10.109253	-0.201998	162.440403
5.100000	-0.204249	161.105271	-42.305322	-11.719686	-42.305322	-11.719686	-0.204242	161.103828
5.150000	-0.206518	159.770430	-42.212887	-13.332374	-42.212887	-13.332374	-0.206512	159.769001
5.200000	-0.208813	158.437129	-42.124588	-14.947134	-42.124588	-14.947134	-0.208808	158.435714
5.250000	-0.211134	157.105164	-42.040398	-16.563798	-42.040398	-16.563798	-0.211131	157.103762
5.300000	-0.213481	155.774334	-41.960294	-18.182206	-41.960294	-18.182206	-0.213479	155.772944
5.350000	-0.215854	154.444443	-41.884260	-19.802209	-41.884260	-19.802209	-0.215853	154.443065
5.400000	-0.218253	153.115297	-41.812284	-21.423664	-41.812284	-21.423664	-0.218253	153.113929
5.450000	-0.220678	151.786705	-41.744360	-23.046434	-41.744360	-23.046434	-0.220678	151.785346
5.500000	-0.223128	150.458481	-41.680487	-24.670385	-41.680487	-24.670385	-0.223129	150.457130
5.550000	-0.225605	149.130441	-41.620670	-26.295387	-41.620670	-26.295387	-0.225606	149.129096
5.600000	-0.228107	147.802405	-41.564918	-27.921311	-41.564918	-27.921311	-0.228108	147.801065
5.650000	-0.230634	146.474195	-41.513246	-29.548028	-41.513246	-29.548028	-0.230636	146.472859
5.700000	-0.233187	145.145638	-41.465676	-31.175409	-41.465676	-31.175409	-0.233189	145.144304
5.750000	-0.235766	143.816563	-41.422231	-32.803323	-41.422231	-32.803323	-0.235768	143.815229
5.800000	-0.238371	142.486801	-41.382945	-34.431634	-41.382945	-34.431634	-0.238372	142.485466
5.850000	-0.241001	141.156189	-41.347852	-36.060204	-41.347852	-36.060204	-0.241002	141.154850
5.900000	-0.243657	139.824564	-41.316995	-37.688889	-41.316995	-37.688889	-0.243658	139.823220
5.950000	-0.246338	138.491767	-41.290423	-39.317537	-41.290423	-39.317537	-0.246339	138.490415
6.000000	-0.249045	137.157643	-41.268188	-40.945990	-41.268188	-40.945990	-0.249045	137.156282
6.050000	-0.251779	135.822038	-41.250349	-42.574084	-41.250349	-42.574084	-0.251778	135.820666
6.100000	-0.254538	134.484802	-41.236974	-44.201641	-41.236974	-44.201641	-0.254536	134.483417
6.150000	-0.257323	133.145789	-41.228133	-45.828475	-41.228133	-45.828475	-0.257321	133.144389
6.200000	-0.260135	131.804854	-41.223905	-47.454388	-41.223905	-47.454388	-0.260132	131.803436
6.250000	-0.262974	130.461855	-41.224377	-49.079170	-41.224377	-49.079170	-0.262969	130.460419
6.300000	-0.265840	129.116552	-41.229854	-50.702525	-41.229854	-50.702525	-0.265834	129.115095
6.350000	-0.268733	127.768900	-41.240232	-52.324259	-41.240232	-52.324259	-0.268726	127.767421
6.400000	-0.271653	126.418765	-41.255620	-53.944113	-41.255620	-53.944113	-0.271645	126.417262
6.450000	-0.274601	125.066019	-41.276137	-55.561809	-41.276137	-55.561809	-0.274592	125.064491
6.500000	-0.277577	123.710535	-41.301908	-57.177047	-41.301908	-57.177047	-0.277566	123.708980
6.550000	-0.280582	122.352189	-41.333071	-58.789507	-41.333071	-58.789507	-0.280570	122.350607
6.600000	-0.283615	120.990861	-41.369773	-60.398842	-41.369773	-60.398842	-0.283601	120.989250
6.650000	-0.286677	119.626433	-41.412172	-62.004682	-41.412172	-62.004682	-0.286662	119.624792
6.700000	-0.289769	118.258790	-41.460439	-63.606623	-41.460439	-63.606623	-0.289753	118.257119
6.750000	-0.292892	116.887820	-41.514759	-65.204232	-41.514759	-65.204232	-0.292874	116.886119
6.800000	-0.296045	115.513416	-41.575329	-66.797037	-41.575329	-66.797037	-0.296027	115.511683
6.850000	-0.299230	114.135470	-41.642364	-68.384528	-41.642364	-68.384528	-0.299210	114.133707
6.900000	-0.302447	112.753881	-41.716097	-69.966149	-41.716097	-69.966149	-0.302426	112.752088
6.950000	-0.305698	111.368550	-41.796778	-71.541293	-41.796778	-71.541293	-0.305676	111.366726
7.000000	-0.308982	109.979380	-41.884678	-73.109297	-41.884678	-73.109297	-0.308959	109.977527
7.050000	-0.312301	108.586279	-41.980094	-74.669433	-41.980094	-74.669433	-0.312277	108.584397
7.100000	-0.315656	107.189157	-42.083344	-76.220899	-42.083344	-76.220899	-0.315631	107.187247
7.150000	-0.319048	105.787928	-42.194780	-77.762810	-42.194780	-77.762810	-0.319022	105.785992
7.200000	-0.322478	104.382510	-42.314781	-79.294187	-42.314781	-79.294187	-0.322451	104.380548
7.250000	-0.325947	102.972822	-42.443765	-80.813937	-42.443765	-80.813937	-0.325919	102.970838
7.300000	-0.329456	101.558790	-42.582188	-82.320840	-42.582188	-82.320840	-0.329428	101.556785
7.350000	-0.333007	100.140340	-42.730552	-83.813527	-42.730552	-83.813527	-0.332978	100.138317
7.400000	-0.336602	98.717406	-42.889410	-85.290455	-42.889410	-85.290455	-0.336572	98.715367
7.450000	-0.340240	97.289922	-43.059370	-86.749875	-43.059370	-86.749875	-0.340210	97.287870
7.500000	-0.343925	95.857828	-43.241109	-88.189795	-43.241109	-88.189795	-0.343895	95.855766
7.550000	-0.347660	94.420860	-43.435754	-89.606862	-43.435754	-89.606862	-0.347630	94.418791
7.600000	-0.351445	92.979167	-43.643785	-90.999241	-43.643785	-90.999241	-0.351414	92.977095
7.650000	-0.355282	91.532701	-43.866137	-92.363818	-43.866137	-92.363818	-0.355251	91.530629
7.700000	-0.359172	90.081417	-44.103857	-93.696956	-44.103857	-93.696956	-0.359141	90.079349
7.750000	-0.363118	88.625275	-44.358123	-94.994373	-44.358123	-94.994373	-0.363087	88.623215
7.800000	-0.367122	87.164239	-44.630265	-96.250997	-44.630265	-96.250997	-0.367091	87.162192
7.850000	-0.371187	85.698278	-44.921788	-97.460771	-44.921788	-97.460771	-0.371156	85.696247
7.900000	-0.375314	84.227366	-45.234405	-98.616406	-45.234405	-98.616406	-0.375283	84.225354
7.950000	-0.379507	82.751478	-45.570070	-99.709045	-45.570070	-99.709045	-0.379476	82.749491
8.000000	-0.383767	81.270598	-45.931022	-100.727835	-45.931022	-100.727835	-0.383736	81.268640
8.050000	-0.388099	79.784713	-46.319836	-101.659339	-46.319836	-101.659339	-0.388068	79.782786
8.100000	-0.392504	78.293813	-46.739478	-102.486736	-46.739478	-102.486736	-0.392473	78.291923
8.150000	-0.396985	76.797895	-47.193380	-103.188725	-47.193380	-103.188725	-0.396955	76.796045
8.200000	-0.401547	75.296961	-47.685508	-103.737989	-47.685508	-103.737989	-0.401516	75.295155
8.250000	-0.406191	73.791016	-48.220437	-104.099015	-48.220437	-104.099015	-0.406161	73.789257
8.300000	-0.410923	72.280072	-48.803414	-104.224962	-48.803414	-104.224962	-0.410892	72.278364
8.350000	-0.415738	70.764433	-49.439858	-104.076512	-49.439858	-104.076512	-0.415708	70.762777
8.400000	-0.420650	69.243710	-50.137285	-103.546405	-50.137285	-103.546405	-0.420619	69.242110
8.450000	-0.425666	67.717648	-50.902175	-102.473827	-50.902175	-102.473827	-0.425636	67.716105
8.500000	-0.430779	66.186945	-51.739680	-100.770735	-51.739680	-100.770735	-0.430748	66.185461
8.550000	-0.436000	64.651261	-52.650783	-98.144248	-52.650783	-98.144248	-0.435969	64.649836
8.600000	-0.441331	63.110732	-53.627577	-94.290118	-53.627577	-94.290118	-0.441300	63.109368
8.650000	-0.446773	61.565593	-54.642653	-88.838889	-54.642653	-88.838889	-0.446741	61.564288
8.700000	-0.452340	60.015440	-55.609063	-81.116950	-55.609063	-81.116950	-0.452307	60.014192
8.750000	-0.458019	58.461055	-56.422055	-71.142354	-56.422055	-71.142354	-0.457986	58.459863
8.800000	-0.463841	56.901524	-56.795739	-58.759047	-56.795739	-58.759047	-0.463807	56.900383
8.850000	-0.469784	55.337888	-56.663376	-45.637503	-56.663376	-45.637503	-0.469749	55.336794
8.900000	-0.475873	53.769529	-55.952540	-33.590298	-55.952540	-33.590298	-0.475837	53.768478
8.950000	-0.482100	52.196956	-54.890930	-23.710727	-54.890930	-23.710727	-0.482063	52.195940
9.000000	-0.488475	50.620089	-53.661723	-16.310682	-53.661723	-16.310682	-0.488437	50.619101
9.050000	-0.495007	49.038941	-52.397483	-11.077884	-52.397483	-11.077884	-0.494968	49.037971
9.100000	-0.501690	47.453930	-51.179839	-7.386773	-51.179839	-7.386773	-0.501649	47.452967
9.150000	-0.508549	45.864615	-50.021231	-5.004194	-50.021231	-5.004194	-0.508507	45.863647
9.200000	-0.515563	44.271791	-48.943210	-3.430297	-48.943210	-3.430297	-0.515520	44.270803
9.250000	-0.522770	42.674838	-47.931610	-2.589045	-47.931610	-2.589045	-0.522724	42.673815
9.300000	-0.530144	41.074523	-46.989616	-2.214503	-46.989616	-2.214503	-0.530098	41.073447
9.350000	-0.537714	39.470557	-46.105663	-2.247916	-46.105663	-2.247916	-0.537666	39.469409
9.400000	-0.545473	37.863273	-45.275411	-2.586460	-45.275411	-2.586460	-0.545424	37.862031
9.450000	-0.553428	36.252808	-44.492847	-3.170356	-44.492847	-3.170356	-0.553378	36.251449
9.500000	-0.561597	34.639121	-43.751365	-3.968051	-43.751365	-3.968051	-0.561545	34.637618
9.550000	-0.569961	33.022708	-43.049105	-4.924406	-43.049105	-4.924406	-0.569909	33.021035
9.600000	-0.578563	31.403228	-42.378532	-6.040846	-42.378532	-6.040846	-0.578511	31.401351
9.650000	-0.587368	29.781363	-41.740134	-7.271038	-41.740134	-7.271038	-0.587316	29.779252
9.700000	-0.596420	28.156833	-41.127865	-8.620318	-41.127865	-8.620318	-0.596368	28.154451
9.750000	-0.605695	26.530130	-40.541599	-10.062374	-40.541599	-10.062374	-0.605644	26.527441
9.800000	-0.615217	24.901253	-39.977975	-11.595060	-39.977975	-11.595060	-0.615167	24.898215
9.850000	-0.624987	23.270417	-39.435509	-13.209182	-39.435509	-13.209182	-0.624939	23.266987
9.900000	-0.635001	21.637874	-38.913144	-14.895730	-38.913144	-14.895730	-0.634957	21.634007
9.950000	-0.645290	20.003646	-38.408392	-16.656855	-38.408392	-16.656855	-0.645250	19.999291
10.000000	-0.655821	18.368148	-37.921882	-18.478173	-37.921882	-18.478173	-0.655786	18.363257
