! freq	dB(S11)	phase(S11)	dB(S12)	phase(S12)	
!     	dB(S21)	phase(S21)	dB(S22)	phase(S22)	
!S-par simulation data
#  GHz  S  DB  R 50
0.000000	-0.000000	0.000000	-384.775768	180.000000	-384.775768	180.000000	-0.000000	-0.000000
0.050000	-0.000090	-0.815441	-111.358852	89.034867	-111.358852	89.034867	-0.000111	-1.013108
0.100000	-0.000357	-1.630688	-105.380371	88.079175	-105.380371	88.079175	-0.000441	-2.025967
0.150000	-0.000793	-2.445559	-101.928670	87.142432	-101.928670	87.142432	-0.000980	-3.038341
0.200000	-0.001384	-3.259896	-99.527411	86.234053	-99.527411	86.234053	-0.001711	-4.050026
0.250000	-0.002124	-4.073512	-97.719478	85.366962	-97.719478	85.366962	-0.002627	-5.060777
0.300000	-0.002982	-4.886357	-96.292318	84.548757	-96.292318	84.548757	-0.003690	-6.070523
0.350000	-0.003946	-5.698312	-95.140146	83.793335	-95.140146	83.793335	-0.004885	-7.079104
0.400000	-0.004996	-6.509314	-94.198576	83.114839	-94.198576	83.114839	-0.006189	-8.086429
0.450000	-0.006117	-7.319320	-93.426768	82.529710	-93.426768	82.529710	-0.007580	-9.092432
0.500000	-0.007289	-8.128311	-92.797587	82.057472	-92.797587	82.057472	-0.009038	-10.097076
0.550000	-0.008499	-8.936280	-92.292489	81.721782	-92.292489	81.721782	-0.010543	-11.100340
0.600000	-0.009734	-9.743235	-91.898629	81.551827	-91.898629	81.551827	-0.012080	-12.102221
0.650000	-0.010982	-10.549192	-91.607112	81.584201	-91.607112	81.584201	-0.013634	-13.102727
0.700000	-0.012234	-11.354171	-91.411824	81.865447	-91.411824	81.865447	-0.015195	-14.101873
0.750000	-0.013484	-12.158196	-91.308549	82.455494	-91.308549	82.455494	-0.016752	-15.099678
0.800000	-0.014725	-12.961291	-91.294111	83.432264	-91.294111	83.432264	-0.018299	-16.096161
0.850000	-0.015954	-13.763479	-91.365325	84.897648	-91.365325	84.897648	-0.019831	-17.091341
0.900000	-0.017169	-14.564779	-91.517402	86.984744	-91.517402	86.984744	-0.021344	-18.085234
0.950000	-0.018366	-15.365208	-91.741328	89.865069	-91.741328	89.865069	-0.022835	-19.077853
1.000000	-0.019546	-16.164780	-92.019504	93.751629	-92.019504	93.751629	-0.024304	-20.069206
1.050000	-0.020709	-16.963504	-92.319000	98.887395	-92.319000	98.887395	-0.025750	-21.059299
1.100000	-0.021854	-17.761387	-92.582927	105.498627	-92.582927	105.498627	-0.027172	-22.048131
1.150000	-0.022982	-18.558430	-92.724471	113.685700	-92.724471	113.685700	-0.028573	-23.035699
1.200000	-0.024095	-19.354634	-92.635516	123.249315	-92.635516	123.249315	-0.029953	-24.021995
1.250000	-0.025192	-20.149995	-92.223070	133.552261	-92.223070	133.552261	-0.031313	-25.007010
1.300000	-0.026276	-20.944468	-91.444113	143.583763	-91.444113	143.583763	-0.032654	-25.990671
1.350000	-0.027347	-21.738083	-90.378859	152.478263	-90.378859	152.478263	-0.033979	-26.973019
1.400000	-0.028408	-22.530828	-89.134166	159.834380	-89.134166	159.834380	-0.035288	-27.954034
1.450000	-0.029458	-23.322690	-87.808360	165.635553	-87.808360	165.635553	-0.036584	-28.933697
1.500000	-0.030501	-24.113657	-86.469967	170.068144	-86.469967	170.068144	-0.037869	-29.911984
1.550000	-0.031536	-24.903713	-85.159044	173.377002	-85.159044	173.377002	-0.039143	-30.888873
1.600000	-0.032565	-25.692842	-83.895810	175.792607	-83.895810	175.792607	-0.040409	-31.864340
1.650000	-0.033589	-26.481027	-82.688580	177.506418	-82.688580	177.506418	-0.041666	-32.838360
1.700000	-0.034608	-27.268252	-81.539138	178.668990	-81.539138	178.668990	-0.042918	-33.810909
1.750000	-0.035625	-28.054499	-80.445932	179.396044	-80.445932	179.396044	-0.044165	-34.781960
1.800000	-0.036639	-28.839750	-79.405866	179.775956	-79.405866	179.775956	-0.045408	-35.751489
1.850000	-0.037652	-29.623986	-78.415254	179.876361	-78.415254	179.876361	-0.046648	-36.719470
1.900000	-0.038664	-30.407190	-77.470316	179.749365	-77.470316	179.749365	-0.047886	-37.685878
1.950000	-0.039676	-31.189344	-76.567424	179.435465	-76.567424	179.435465	-0.049124	-38.650689
2.000000	-0.040689	-31.970428	-75.703207	178.966450	-75.703207	178.966450	-0.050361	-39.613878
2.050000	-0.041702	-32.750427	-74.874589	178.367520	-74.874589	178.367520	-0.051599	-40.575422
2.100000	-0.042717	-33.529321	-74.078792	177.658858	-74.078792	177.658858	-0.052839	-41.535298
2.150000	-0.043734	-34.307092	-73.313316	176.856780	-73.313316	176.856780	-0.054080	-42.493483
2.200000	-0.044754	-35.083725	-72.575918	175.974601	-72.575918	175.974601	-0.055324	-43.449956
2.250000	-0.045777	-35.859202	-71.864586	175.023279	-71.864586	175.023279	-0.056572	-44.404695
2.300000	-0.046803	-36.633506	-71.177510	174.011908	-71.177510	174.011908	-0.057824	-45.357681
2.350000	-0.047833	-37.406620	-70.513064	172.948092	-70.513064	172.948092	-0.059080	-46.308894
2.400000	-0.048867	-38.178530	-69.869777	171.838235	-69.869777	171.838235	-0.060341	-47.258316
2.450000	-0.049906	-38.949220	-69.246325	170.687767	-69.246325	170.687767	-0.061607	-48.205928
2.500000	-0.050950	-39.718674	-68.641503	169.501325	-68.641503	169.501325	-0.062879	-49.151715
2.550000	-0.051999	-40.486823	-68.053259	168.281654	-68.053259	168.281654	-0.064158	-50.095580
2.600000	-0.053053	-41.253706	-67.481662	167.033687	-67.481662	167.033687	-0.065444	-51.037588
2.650000	-0.054113	-42.019311	-66.925788	165.760351	-66.925788	165.760351	-0.066737	-51.977724
2.700000	-0.055180	-42.783622	-66.384796	164.464204	-66.384796	164.464204	-0.068038	-52.915976
2.750000	-0.056252	-43.546629	-65.857910	163.147491	-65.857910	163.147491	-0.069346	-53.852331
2.800000	-0.057332	-44.308318	-65.344419	161.812191	-65.344419	161.812191	-0.070664	-54.786780
2.850000	-0.058418	-45.068677	-64.843668	160.460054	-64.843668	160.460054	-0.071990	-55.719312
2.900000	-0.059512	-45.827696	-64.355049	159.092636	-64.355049	159.092636	-0.073325	-56.649917
2.950000	-0.060613	-46.585363	-63.878003	157.711324	-63.878003	157.711324	-0.074670	-57.578588
3.000000	-0.061722	-47.341668	-63.412007	156.317358	-63.412007	156.317358	-0.076026	-58.505318
3.050000	-0.062839	-48.096600	-62.956579	154.911851	-62.956579	154.911851	-0.077391	-59.430100
3.100000	-0.063965	-48.850151	-62.511267	153.495807	-62.511267	153.495807	-0.078768	-60.352929
3.150000	-0.065099	-49.602310	-62.075650	152.070131	-62.075650	152.070131	-0.080156	-61.273801
3.200000	-0.066243	-50.353071	-61.649334	150.635642	-61.649334	150.635642	-0.081556	-62.192711
3.250000	-0.067396	-51.102424	-61.231952	149.193086	-61.231952	149.193086	-0.082969	-63.109659
3.300000	-0.068559	-51.850362	-60.823158	147.743140	-60.823158	147.743140	-0.084394	-64.024641
3.350000	-0.069732	-52.596878	-60.422628	146.286424	-60.422628	146.286424	-0.085832	-64.937658
3.400000	-0.070915	-53.341966	-60.030056	144.823503	-60.030056	144.823503	-0.087284	-65.848710
3.450000	-0.072109	-54.085618	-59.645154	143.354897	-59.645154	143.354897	-0.088750	-66.757797
3.500000	-0.073314	-54.827830	-59.267652	141.881083	-59.267652	141.881083	-0.090230	-67.664922
3.550000	-0.074531	-55.568596	-58.897294	140.402501	-58.897294	140.402501	-0.091725	-68.570087
3.600000	-0.075760	-56.307912	-58.533837	138.919555	-58.533837	138.919555	-0.093236	-69.473298
3.650000	-0.077001	-57.045773	-58.177052	137.432622	-58.177052	137.432622	-0.094763	-70.374557
3.700000	-0.078254	-57.782177	-57.826721	135.942047	-57.826721	135.942047	-0.096307	-71.273871
3.750000	-0.079521	-58.517119	-57.482639	134.448154	-57.482639	134.448154	-0.097867	-72.171247
3.800000	-0.080801	-59.250533	-57.144303	132.951124	-57.144303	132.951124	-0.099446	-73.066607
3.850000	-0.082096	-59.982482	-56.811857	131.451377	-56.811857	131.451377	-0.101043	-73.960046
3.900000	-0.083405	-60.712964	-56.485122	129.949171	-56.485122	129.949171	-0.102658	-74.851570
3.950000	-0.084728	-61.441977	-56.163927	128.444747	-56.163927	128.444747	-0.104293	-75.741192
4.000000	-0.086067	-62.169523	-55.848112	126.938330	-55.848112	126.938330	-0.105947	-76.628922
4.050000	-0.087421	-62.895600	-55.537521	125.430131	-55.537521	125.430131	-0.107622	-77.514770
4.100000	-0.088791	-63.620210	-55.232007	123.920348	-55.232007	123.920348	-0.109317	-78.398751
4.150000	-0.090178	-64.343356	-54.931430	122.409167	-54.931430	122.409167	-0.111033	-79.280877
4.200000	-0.091581	-65.065038	-54.635654	120.896764	-54.635654	120.896764	-0.112771	-80.161163
4.250000	-0.093002	-65.785262	-54.344551	119.383303	-54.344551	119.383303	-0.114532	-81.039624
4.300000	-0.094441	-66.504029	-54.057998	117.868941	-54.057998	117.868941	-0.116316	-81.916275
4.350000	-0.095898	-67.221346	-53.775878	116.353823	-53.775878	116.353823	-0.118123	-82.791134
4.400000	-0.097374	-67.937217	-53.498078	114.838090	-53.498078	114.838090	-0.119953	-83.664218
4.450000	-0.098870	-68.651651	-53.224489	113.321873	-53.224489	113.321873	-0.121809	-84.535546
4.500000	-0.100385	-69.364653	-52.955010	111.805296	-52.955010	111.805296	-0.123690	-85.405136
4.550000	-0.101921	-70.076234	-52.689541	110.288478	-52.689541	110.288478	-0.125596	-86.273010
4.600000	-0.103478	-70.786403	-52.427988	108.771532	-52.427988	108.771532	-0.127529	-87.139188
4.650000	-0.105056	-71.495172	-52.170261	107.254566	-52.170261	107.254566	-0.129488	-88.003692
4.700000	-0.106656	-72.202555	-51.916273	105.737682	-51.916273	105.737682	-0.131475	-88.866545
4.750000	-0.108280	-72.908566	-51.665942	104.220977	-51.665942	104.220977	-0.133489	-89.727771
4.800000	-0.109927	-73.613223	-51.419189	102.704546	-51.419189	102.704546	-0.135532	-90.587393
4.850000	-0.111598	-74.316546	-51.175941	101.188479	-51.175941	101.188479	-0.137604	-91.445438
4.900000	-0.113294	-75.018556	-50.936127	99.672864	-50.936127	99.672864	-0.139706	-92.301932
4.950000	-0.115015	-75.719281	-50.699679	98.157784	-50.699679	98.157784	-0.141838	-93.156902
5.000000	-0.116764	-76.418749	-50.466537	96.643322	-50.466537	96.643322	-0.144000	-94.010376
5.050000	-0.118547	-77.116704	-50.235950	95.129747	-50.235950	95.129747	-0.146201	-94.862029
5.100000	-0.120355	-77.813731	-50.009153	93.616828	-50.009153	93.616828	-0.148429	-95.712542
5.150000	-0.122186	-78.509842	-49.786019	92.104582	-49.786019	92.104582	-0.150682	-96.561923
5.200000	-0.124059	-79.204556	-49.565230	90.593544	-49.565230	90.593544	-0.152977	-97.409524
5.250000	-0.125965	-79.898337	-49.347658	89.083515	-49.347658	89.083515	-0.155305	-98.255857
5.300000	-0.127900	-80.591377	-49.133591	87.574374	-49.133591	87.574374	-0.157660	-99.101141
5.350000	-0.129880	-81.283458	-48.922228	86.066589	-48.922228	86.066589	-0.160054	-99.944971
5.400000	-0.131910	-81.974810	-48.713711	84.560300	-48.713711	84.560300	-0.162487	-100.787442
5.450000	-0.133980	-82.665758	-48.508631	83.055185	-48.508631	83.055185	-0.164949	-101.628959
5.500000	-0.136103	-83.356317	-48.306609	81.551598	-48.306609	81.551598	-0.167446	-102.469325
5.550000	-0.138312	-84.046856	-48.107392	80.050335	-48.107392	80.050335	-0.169990	-103.308288
5.600000	-0.140591	-84.737741	-47.911755	78.550828	-47.911755	78.550828	-0.172564	-104.146399
5.650000	-0.142947	-85.429095	-47.719594	77.053230	-47.719594	77.053230	-0.175169	-104.983638
5.700000	-0.145498	-86.122574	-47.530976	75.560042	-47.530976	75.560042	-0.177828	-105.819480
5.750000	-0.148230	-86.818492	-47.346733	74.070611	-47.346733	74.070611	-0.180519	-106.654584
5.800000	-0.151171	-87.517270	-47.166912	72.585458	-47.166912	72.585458	-0.183241	-107.488960
5.850000	-0.154692	-88.224145	-46.993549	71.111630	-46.993549	71.111630	-0.186016	-108.322211
5.900000	-0.158788	-88.938479	-46.826758	69.648791	-46.826758	69.648791	-0.188819	-109.154915
5.950000	-0.164586	-89.672243	-46.671996	68.218486	-46.671996	68.218486	-0.191671	-109.986721
6.000000	-0.173736	-90.436195	-46.534634	66.853168	-46.534634	66.853168	-0.194564	-110.817843
6.050000	-0.190878	-91.251476	-46.425174	65.646585	-46.425174	65.646585	-0.197497	-111.648362
6.100000	-0.238152	-92.158179	-46.364527	65.059267	-46.364527	65.059267	-0.200478	-112.478250
6.150000	-0.391578	-92.742721	-46.149327	66.659058	-46.149327	66.659058	-0.203509	-113.307606
6.200000	-0.371186	-91.802315	-45.257543	64.694421	-45.257543	64.694421	-0.206596	-114.136528
6.250000	-0.239528	-92.498047	-45.087702	60.676422	-45.087702	60.676422	-0.209738	-114.965167
6.300000	-0.202853	-93.380967	-45.008098	58.412484	-45.008098	58.412484	-0.212920	-115.793600
6.350000	-0.191267	-94.178655	-44.897683	56.638552	-44.897683	56.638552	-0.216137	-116.621821
6.400000	-0.187428	-94.923598	-44.767653	55.023968	-44.767653	55.023968	-0.219399	-117.449870
6.450000	-0.186485	-95.641129	-44.628277	53.471542	-44.628277	53.471542	-0.222701	-118.277832
6.500000	-0.187080	-96.338825	-44.482489	51.954246	-44.482489	51.954246	-0.226061	-119.105813
6.550000	-0.188341	-97.026492	-44.334559	50.452987	-44.334559	50.452987	-0.229464	-119.933893
6.600000	-0.190073	-97.706094	-44.185345	48.963661	-44.185345	48.963661	-0.232911	-120.762114
6.650000	-0.192206	-98.377404	-44.034427	47.485691	-44.034427	47.485691	-0.236427	-121.590727
6.700000	-0.194540	-99.043781	-43.883254	46.014459	-43.883254	46.014459	-0.240007	-122.419895
6.750000	-0.196975	-99.707691	-43.733274	44.546595	-43.733274	44.546595	-0.243619	-123.249341
6.800000	-0.199543	-100.367930	-43.583453	43.084149	-43.583453	43.084149	-0.247302	-124.079654
6.850000	-0.202205	-101.025545	-43.434497	41.625574	-43.434497	41.625574	-0.251035	-124.910585
6.900000	-0.204947	-101.680811	-43.286298	40.171012	-43.286298	40.171012	-0.254833	-125.742571
6.950000	-0.207769	-102.333729	-43.138860	38.720464	-43.138860	38.720464	-0.258695	-126.575612
7.000000	-0.210644	-102.985071	-42.992543	37.273122	-42.992543	37.273122	-0.262615	-127.409839
7.050000	-0.213593	-103.634206	-42.846804	35.830268	-42.846804	35.830268	-0.266617	-128.245726
7.100000	-0.216580	-104.282272	-42.702438	34.390022	-42.702438	34.390022	-0.270670	-129.082857
7.150000	-0.219641	-104.928202	-42.558404	32.954992	-42.558404	32.954992	-0.274824	-129.922475
7.200000	-0.222728	-105.573429	-42.415946	31.522026	-42.415946	31.522026	-0.279022	-130.763296
7.250000	-0.225893	-106.216548	-42.273505	30.095253	-42.273505	30.095253	-0.283348	-131.607727
7.300000	-0.229074	-106.859247	-42.132830	28.669972	-42.132830	28.669972	-0.287709	-132.453186
7.350000	-0.232337	-107.499847	-41.991772	27.252147	-41.991772	27.252147	-0.292233	-133.303783
7.400000	-0.235610	-108.140257	-41.852683	25.835147	-41.852683	25.835147	-0.296779	-134.155038
7.450000	-0.238970	-108.778568	-41.712694	24.427224	-41.712694	24.427224	-0.301538	-135.013533
7.500000	-0.242331	-109.416879	-41.574924	23.019302	-41.574924	23.019302	-0.306300	-135.872028
7.550000	-0.245764	-110.053593	-41.436570	21.619574	-41.436570	21.619574	-0.311270	-136.737812
7.600000	-0.249242	-110.689343	-41.298471	20.225566	-41.298471	20.225566	-0.316397	-137.609120
7.650000	-0.252766	-111.324165	-41.160474	18.837686	-41.160474	18.837686	-0.321701	-138.486706
7.700000	-0.256335	-111.958093	-41.022397	17.456407	-41.022397	17.456407	-0.327209	-139.371454
7.750000	-0.259951	-112.591162	-40.884025	16.082266	-40.884025	16.082266	-0.332955	-140.264411
7.800000	-0.263612	-113.223403	-40.745097	14.715882	-40.745097	14.715882	-0.338982	-141.166825
7.850000	-0.267319	-113.854847	-40.605298	13.357962	-40.605298	13.357962	-0.345344	-142.080200
7.900000	-0.271073	-114.485525	-40.464241	12.009319	-40.464241	12.009319	-0.352112	-143.006367
7.950000	-0.274872	-115.115467	-40.321447	10.670880	-40.321447	10.670880	-0.359383	-143.947579
8.000000	-0.278718	-115.744701	-40.176315	9.343699	-40.176315	9.343699	-0.367283	-144.906645
8.050000	-0.282611	-116.373256	-40.028079	8.028961	-40.028079	8.028961	-0.375987	-145.887113
8.100000	-0.286550	-117.001161	-39.875746	6.727962	-39.875746	6.727962	-0.385739	-146.893535
8.150000	-0.290530	-117.628519	-39.719325	5.439913	-39.719325	5.439913	-0.396645	-147.926701
8.200000	-0.294562	-118.255193	-39.554678	4.170457	-39.554678	4.170457	-0.409624	-149.003873
8.250000	-0.298642	-118.881296	-39.380569	2.918458	-39.380569	2.918458	-0.425241	-150.131229
8.300000	-0.302768	-119.506854	-39.193686	1.683957	-39.193686	1.683957	-0.444671	-151.323467
8.350000	-0.306939	-120.131902	-38.990113	0.464428	-38.990113	0.464428	-0.469572	-152.598215
8.400000	-0.311156	-120.756430	-38.761367	-0.746604	-38.761367	-0.746604	-0.503547	-153.991787
8.450000	-0.315415	-121.380468	-38.497508	-1.969025	-38.497508	-1.969025	-0.552186	-155.547336
8.500000	-0.319712	-122.004029	-38.183060	-3.248446	-38.183060	-3.248446	-0.626046	-157.331455
8.550000	-0.324037	-122.627097	-37.790751	-4.700569	-37.790751	-4.700569	-0.748587	-159.457832
8.600000	-0.328362	-123.249664	-37.280774	-6.619198	-37.280774	-6.619198	-0.973510	-162.080943
8.650000	-0.332609	-123.871874	-36.610432	-9.751397	-36.610432	-9.751397	-1.435541	-165.278309
8.700000	-0.336633	-124.495372	-35.829212	-15.931628	-35.829212	-15.931628	-2.483723	-167.953001
8.750000	-0.341176	-125.123261	-35.512125	-27.318961	-35.512125	-27.318961	-4.276227	-162.076483
8.800000	-0.346427	-125.746370	-36.616717	-38.234029	-36.616717	-38.234029	-3.863440	-145.998612
8.850000	-0.351367	-126.367124	-38.143659	-39.944801	-38.143659	-39.944801	-2.250480	-143.547827
8.900000	-0.356192	-126.987937	-38.952219	-37.065297	-38.952219	-37.065297	-1.433005	-146.250032
8.950000	-0.361015	-127.608887	-39.208703	-34.346591	-39.208703	-34.346591	-1.055564	-149.051799
9.000000	-0.365871	-128.229902	-39.222282	-32.708022	-39.222282	-32.708022	-0.863190	-151.385817
9.050000	-0.370769	-128.850949	-39.142534	-31.944747	-39.142534	-31.944747	-0.755105	-153.335886
9.100000	-0.375718	-129.472023	-39.028417	-31.786611	-39.028417	-31.786611	-0.690470	-155.012366
9.150000	-0.380716	-130.093134	-38.903919	-32.018625	-38.903919	-32.018625	-0.649247	-156.505322
9.200000	-0.385767	-130.714306	-38.778002	-32.527399	-38.778002	-32.527399	-0.622675	-157.862660
9.250000	-0.390871	-131.335561	-38.654447	-33.221908	-38.654447	-33.221908	-0.605045	-159.125396
9.300000	-0.396032	-131.956935	-38.534636	-34.054794	-38.534636	-34.054794	-0.593609	-160.315225
9.350000	-0.401241	-132.578439	-38.418579	-34.977054	-38.418579	-34.977054	-0.585958	-161.456640
9.400000	-0.406511	-133.200139	-38.306691	-35.981759	-38.306691	-35.981759	-0.581646	-162.552337
9.450000	-0.411833	-133.822034	-38.198304	-37.038380	-38.198304	-37.038380	-0.579359	-163.618660
9.500000	-0.417211	-134.444179	-38.093351	-38.139796	-38.093351	-38.139796	-0.578775	-164.659300
9.550000	-0.422647	-135.066613	-37.991579	-39.276976	-37.991579	-39.276976	-0.579527	-165.679246
9.600000	-0.428135	-135.689341	-37.892542	-40.439730	-37.892542	-40.439730	-0.581225	-166.684342
9.650000	-0.433685	-136.312457	-37.796280	-41.626754	-37.796280	-41.626754	-0.583820	-167.675383
9.700000	-0.439290	-136.935950	-37.702381	-42.830876	-37.702381	-42.830876	-0.587051	-168.656620
9.750000	-0.444964	-137.559972	-37.610975	-44.052187	-37.610975	-44.052187	-0.590934	-169.628217
9.800000	-0.450681	-138.184343	-37.521333	-45.281813	-37.521333	-45.281813	-0.595144	-170.595309
9.850000	-0.456454	-138.809188	-37.433635	-46.521554	-37.433635	-46.521554	-0.599757	-171.557008
9.900000	-0.462303	-139.434753	-37.348067	-47.771634	-37.348067	-47.771634	-0.604807	-172.513649
9.950000	-0.468200	-140.060801	-37.264055	-49.026842	-37.264055	-49.026842	-0.610091	-173.468041
10.000000	-0.474145	-140.687343	-37.181549	-50.286873	-37.181549	-50.286873	-0.615600	-174.420397
