! freq	dB(S11)	phase(S11)	dB(S12)	phase(S12)	
!     	dB(S21)	phase(S21)	dB(S22)	phase(S22)	
!S-par simulation data
#  GHz  S  DB  R 50
0.000000	-0.000000	0.000000	-322.086042	0.000000	-322.086042	0.000000	0.000000	0.000000
0.050000	-0.019046	-4.387852	-70.525487	83.293685	-70.525487	83.293685	-0.008802	-3.030234
0.100000	-0.037268	-8.597031	-64.879412	79.204017	-64.879412	79.204017	-0.020433	-6.143144
0.150000	-0.045749	-12.768916	-61.594416	76.057652	-61.594416	76.057652	-0.027422	-9.280720
0.200000	-0.050209	-16.931732	-59.250014	73.002324	-59.250014	73.002324	-0.031601	-12.413868
0.250000	-0.053161	-21.081544	-57.432214	69.876383	-57.432214	69.876383	-0.034537	-15.535678
0.300000	-0.055534	-25.211627	-55.958419	66.678737	-55.958419	66.678737	-0.036956	-18.644152
0.350000	-0.057703	-29.315720	-54.729959	63.432194	-54.729959	63.432194	-0.039188	-21.737880
0.400000	-0.059832	-33.388732	-53.686404	60.158861	-53.686404	60.158861	-0.041387	-24.815633
0.450000	-0.061994	-37.426248	-52.788105	56.875784	-52.788105	56.875784	-0.043623	-27.876084
0.500000	-0.064220	-41.424322	-52.007653	53.596102	-52.007653	53.596102	-0.045928	-30.917829
0.550000	-0.066520	-45.379484	-51.325241	50.330250	-51.325241	50.330250	-0.048312	-33.939476
0.600000	-0.068893	-49.288692	-50.726060	47.086800	-50.726060	47.086800	-0.050775	-36.939672
0.650000	-0.071331	-53.149034	-50.198910	43.873217	-50.198910	43.873217	-0.053309	-39.916999
0.700000	-0.073822	-56.958231	-49.734801	40.695949	-49.734801	40.695949	-0.055904	-42.870231
0.750000	-0.076353	-60.714680	-49.326315	37.560492	-49.326315	37.560492	-0.058545	-45.798378
0.800000	-0.078911	-64.416864	-48.967519	34.472004	-48.967519	34.472004	-0.061219	-48.700424
0.850000	-0.081482	-68.063602	-48.653463	31.435245	-48.653463	31.435245	-0.063912	-51.575453
0.900000	-0.084051	-71.654024	-48.379944	28.454650	-48.379944	28.454650	-0.066610	-54.422651
0.950000	-0.086608	-75.187399	-48.143423	25.534552	-48.143423	25.534552	-0.069301	-57.241226
1.000000	-0.089139	-78.663112	-47.940878	22.679268	-47.940878	22.679268	-0.071972	-60.030403
1.050000	-0.091636	-82.081581	-47.769277	19.891988	-47.769277	19.891988	-0.074613	-62.789902
1.100000	-0.094088	-85.442987	-47.626121	17.176192	-47.626121	17.176192	-0.077214	-65.519310
1.150000	-0.096487	-88.747106	-47.509396	14.536016	-47.509396	14.536016	-0.079767	-68.217968
1.200000	-0.098828	-91.996034	-47.416412	11.972442	-47.416412	11.972442	-0.082266	-70.886473
1.250000	-0.101105	-95.189574	-47.345652	9.489620	-47.345652	9.489620	-0.084705	-73.524172
1.300000	-0.103312	-98.327435	-47.295739	7.092169	-47.295739	7.092169	-0.087077	-76.130317
1.350000	-0.105447	-101.411824	-47.264529	4.780895	-47.264529	4.780895	-0.089380	-78.705578
1.400000	-0.107508	-104.443846	-47.250432	2.558183	-47.250432	2.558183	-0.091613	-81.250023
1.450000	-0.109494	-107.424696	-47.251924	0.426240	-47.251924	0.426240	-0.093774	-83.763784
1.500000	-0.111404	-110.355638	-47.267537	-1.612914	-47.267537	-1.612914	-0.095863	-86.247050
1.550000	-0.113239	-113.237999	-47.295843	-3.557457	-47.295843	-3.557457	-0.097880	-88.700064
1.600000	-0.115000	-116.073149	-47.335443	-5.405785	-47.335443	-5.405785	-0.099826	-91.123117
1.650000	-0.116689	-118.862495	-47.384958	-7.156533	-47.384958	-7.156533	-0.101703	-93.516547
1.700000	-0.118308	-121.607468	-47.443020	-8.808609	-47.443020	-8.808609	-0.103513	-95.880730
1.750000	-0.119860	-124.309515	-47.508267	-10.361225	-47.508267	-10.361225	-0.105259	-98.216077
1.800000	-0.121347	-126.970091	-47.579336	-11.813951	-47.579336	-11.813951	-0.106944	-100.523034
1.850000	-0.122774	-129.590652	-47.654858	-13.166758	-47.654858	-13.166758	-0.108572	-102.802075
1.900000	-0.124143	-132.172246	-47.733469	-14.419009	-47.733469	-14.419009	-0.110144	-105.053405
1.950000	-0.125459	-134.716364	-47.813742	-15.571716	-47.813742	-15.571716	-0.111666	-107.277564
2.000000	-0.126726	-137.224850	-47.894272	-16.627554	-47.894272	-16.627554	-0.113141	-109.475391
2.050000	-0.127949	-139.699111	-47.973682	-17.588776	-47.973682	-17.588776	-0.114573	-111.647442
2.100000	-0.129131	-142.140531	-48.050611	-18.458355	-48.050611	-18.458355	-0.115967	-113.794287
2.150000	-0.130277	-144.550473	-48.123720	-19.240041	-48.123720	-19.240041	-0.117327	-115.916507
2.200000	-0.131392	-146.930272	-48.191710	-19.938392	-48.191710	-19.938392	-0.118655	-118.014693
2.250000	-0.132480	-149.281234	-48.253339	-20.558804	-48.253339	-20.558804	-0.119956	-120.089441
2.300000	-0.133544	-151.604640	-48.307439	-21.107504	-48.307439	-21.107504	-0.121234	-122.141352
2.350000	-0.134590	-153.901737	-48.352939	-21.591524	-48.352939	-21.591524	-0.122493	-124.171033
2.400000	-0.135621	-156.173744	-48.388881	-22.018644	-48.388881	-22.018644	-0.123735	-126.179090
2.450000	-0.136641	-158.421849	-48.414443	-22.397308	-48.414443	-22.397308	-0.124964	-128.166132
2.500000	-0.137655	-160.647210	-48.428955	-22.736501	-48.428955	-22.736501	-0.126183	-130.132764
2.550000	-0.138665	-162.850508	-48.431654	-23.045183	-48.431654	-23.045183	-0.127396	-132.079177
2.600000	-0.139676	-165.033331	-48.422460	-23.333852	-48.422460	-23.333852	-0.128606	-134.006417
2.650000	-0.140692	-167.196743	-48.401232	-23.612193	-48.401232	-23.612193	-0.129815	-135.915081
2.700000	-0.141715	-169.341778	-48.368005	-23.889757	-48.368005	-23.889757	-0.131025	-137.805765
2.750000	-0.142748	-171.469439	-48.322984	-24.175790	-48.322984	-24.175790	-0.132240	-139.679059
2.800000	-0.143795	-173.580702	-48.266531	-24.479074	-48.266531	-24.479074	-0.133462	-141.535545
2.850000	-0.144858	-175.676516	-48.199148	-24.807795	-48.199148	-24.807795	-0.134692	-143.375802
2.900000	-0.145940	-177.757799	-48.121457	-25.169431	-48.121457	-25.169431	-0.135933	-145.200400
2.950000	-0.147043	-179.825447	-48.034181	-25.570671	-48.034181	-25.570671	-0.137187	-147.009904
3.000000	-0.148170	178.119674	-47.938115	-26.017375	-47.938115	-26.017375	-0.138456	-148.804871
3.050000	-0.149322	176.076720	-47.834112	-26.514549	-47.834112	-26.514549	-0.139740	-150.585851
3.100000	-0.150502	174.044873	-47.723053	-27.066357	-47.723053	-27.066357	-0.141042	-152.353386
3.150000	-0.151712	172.023443	-47.605760	-27.676815	-47.605760	-27.676815	-0.142364	-154.107876
3.200000	-0.152953	170.011630	-47.483149	-28.348577	-47.483149	-28.348577	-0.143706	-155.849865
3.250000	-0.154227	168.008577	-47.356176	-29.082864	-47.356176	-29.082864	-0.145069	-157.580013
3.300000	-0.155534	166.013555	-47.225683	-29.880906	-47.225683	-29.880906	-0.146455	-159.298828
3.350000	-0.156875	164.025858	-47.092474	-30.743393	-47.092474	-30.743393	-0.147864	-161.006815
3.400000	-0.158253	162.044802	-46.957306	-31.670544	-46.957306	-31.670544	-0.149298	-162.704466
3.450000	-0.159666	160.069719	-46.820887	-32.662189	-46.820887	-32.662189	-0.150757	-164.392270
3.500000	-0.161117	158.099962	-46.683875	-33.717831	-46.683875	-33.717831	-0.152242	-166.070703
3.550000	-0.162605	156.134901	-46.546875	-34.836716	-46.546875	-34.836716	-0.153753	-167.740239
3.600000	-0.164131	154.173924	-46.410441	-36.017888	-46.410441	-36.017888	-0.155291	-169.401340
3.650000	-0.165695	152.216438	-46.275077	-37.260242	-46.275077	-37.260242	-0.156856	-171.054463
3.700000	-0.167297	150.261864	-46.141240	-38.562569	-46.141240	-38.562569	-0.158450	-172.700055
3.750000	-0.168937	148.309640	-46.009341	-39.923594	-46.009341	-39.923594	-0.160072	-174.338559
3.800000	-0.170616	146.359248	-45.879768	-41.343226	-45.879768	-41.343226	-0.161723	-175.970274
3.850000	-0.172333	144.410106	-45.752852	-42.818876	-45.752852	-42.818876	-0.163402	-177.595781
3.900000	-0.174087	142.461701	-45.628885	-44.349252	-45.628885	-44.349252	-0.165111	-179.215500
3.950000	-0.175877	140.513534	-45.508130	-45.933100	-45.508130	-45.933100	-0.166849	179.170156
4.000000	-0.177704	138.565118	-45.390817	-47.569220	-45.390817	-47.569220	-0.168615	177.560779
4.050000	-0.179567	136.615983	-45.277151	-49.256475	-45.277151	-49.256475	-0.170412	175.955970
4.100000	-0.181464	134.665671	-45.167312	-50.993803	-45.167312	-50.993803	-0.172237	174.355333
4.150000	-0.183395	132.713740	-45.061457	-52.780223	-45.061457	-52.780223	-0.174092	172.758482
4.200000	-0.185360	130.759760	-44.959724	-54.614841	-44.959724	-54.614841	-0.175976	171.165034
4.250000	-0.187357	128.803314	-44.862233	-56.496854	-44.862233	-56.496854	-0.177890	169.574611
4.300000	-0.189385	126.843999	-44.769088	-58.425554	-44.769088	-58.425554	-0.179832	167.986845
4.350000	-0.191444	124.881426	-44.680377	-60.400326	-44.680377	-60.400326	-0.181803	166.401368
4.400000	-0.193532	122.915175	-44.596215	-62.421148	-44.596215	-62.421148	-0.183804	164.817838
4.450000	-0.195648	120.944871	-44.516667	-64.487592	-44.516667	-64.487592	-0.185834	163.235889
4.500000	-0.197792	118.970203	-44.441744	-66.598854	-44.441744	-66.598854	-0.187892	161.655151
4.550000	-0.199961	116.990836	-44.371480	-68.754725	-44.371480	-68.754725	-0.189978	160.075278
4.600000	-0.202156	115.006448	-44.305902	-70.955096	-44.305902	-70.955096	-0.192092	158.495931
4.650000	-0.204374	113.016729	-44.245024	-73.199959	-44.245024	-73.199959	-0.194235	156.916777
4.700000	-0.206614	111.021384	-44.188850	-75.489407	-44.188850	-75.489407	-0.196405	155.337483
4.750000	-0.208877	109.020130	-44.137373	-77.823630	-44.137373	-77.823630	-0.198602	153.757727
4.800000	-0.211160	107.012699	-44.090574	-80.202923	-44.090574	-80.202923	-0.200827	152.177185
4.850000	-0.213462	104.998837	-44.048423	-82.627677	-44.048423	-82.627677	-0.203079	150.595541
4.900000	-0.215783	102.978302	-44.010878	-85.098385	-44.010878	-85.098385	-0.205357	149.012484
4.950000	-0.218122	100.950870	-43.977881	-87.615637	-43.977881	-87.615637	-0.207662	147.427705
5.000000	-0.220478	98.916329	-43.949363	-90.180121	-43.949363	-90.180121	-0.209993	145.840900
5.050000	-0.222850	96.874317	-43.925331	-92.793685	-43.925331	-92.793685	-0.212351	144.251711
5.100000	-0.225238	94.824808	-43.905584	-95.456187	-43.905584	-95.456187	-0.214734	142.659888
5.150000	-0.227640	92.767637	-43.890000	-98.168601	-43.890000	-98.168601	-0.217143	141.065140
5.200000	-0.230057	90.702652	-43.878436	-100.931987	-43.878436	-100.931987	-0.219577	139.467178
5.250000	-0.232488	88.629719	-43.870725	-103.747486	-43.870725	-103.747486	-0.222037	137.865720
5.300000	-0.234933	86.548717	-43.866677	-106.616311	-43.866677	-106.616311	-0.224521	136.260486
5.350000	-0.237392	84.459544	-43.866075	-109.539742	-43.866075	-109.539742	-0.227030	134.651202
5.400000	-0.239865	82.362111	-43.868672	-112.519108	-43.868672	-112.519108	-0.229564	133.037597
5.450000	-0.242351	80.256348	-43.874190	-115.555779	-43.874190	-115.555779	-0.232122	131.419403
5.500000	-0.244852	78.142200	-43.882313	-118.651148	-43.882313	-118.651148	-0.234705	129.796358
5.550000	-0.247368	76.019629	-43.892691	-121.806606	-43.892691	-121.806606	-0.237312	128.168203
5.600000	-0.249899	73.888614	-43.904932	-125.023522	-43.904932	-125.023522	-0.239943	126.534684
5.650000	-0.252447	71.749060	-43.918612	-128.303908	-43.918612	-128.303908	-0.242599	124.895487
5.700000	-0.255012	69.600979	-43.933232	-131.649032	-43.933232	-131.649032	-0.245280	123.250358
5.750000	-0.257596	67.444496	-43.948247	-135.059301	-43.948247	-135.059301	-0.247985	121.599118
5.800000	-0.260200	65.279658	-43.963080	-138.535632	-43.963080	-138.535632	-0.250714	119.941530
5.850000	-0.262825	63.106530	-43.977102	-142.078717	-43.977102	-142.078717	-0.253468	118.277363
5.900000	-0.265474	60.925195	-43.989640	-145.688965	-43.989640	-145.688965	-0.256248	116.606389
5.950000	-0.268148	58.735751	-43.999972	-149.366450	-43.999972	-149.366450	-0.259052	114.928388
6.000000	-0.270849	56.538316	-44.007335	-153.110841	-44.007335	-153.110841	-0.261882	113.243143
6.050000	-0.273580	54.333020	-44.010927	-156.921346	-44.010927	-156.921346	-0.264738	111.550441
6.100000	-0.276344	52.120013	-44.009918	-160.796645	-44.009918	-160.796645	-0.267620	109.850078
6.150000	-0.279142	49.899460	-44.003456	-164.734836	-44.003456	-164.734836	-0.270529	108.141853
6.200000	-0.281978	47.671541	-43.990680	-168.733379	-43.990680	-168.733379	-0.273466	106.425572
6.250000	-0.284856	45.436451	-43.970734	-172.789058	-43.970734	-172.789058	-0.276430	104.701045
6.300000	-0.287778	43.194256	-43.942587	-176.899004	-43.942587	-176.899004	-0.279424	102.967903
6.350000	-0.290749	40.945337	-43.905598	178.942709	-43.905598	178.942709	-0.282448	101.226151
6.400000	-0.293771	38.689934	-43.859024	174.741460	-43.859024	174.741460	-0.285503	99.475618
6.450000	-0.296849	36.428300	-43.802202	170.503283	-43.802202	170.503283	-0.288590	97.716142
6.500000	-0.299986	34.160698	-43.734556	166.234808	-43.734556	166.234808	-0.291709	95.947570
6.550000	-0.303187	31.887407	-43.655621	161.943171	-43.655621	161.943171	-0.294862	94.169753
6.600000	-0.306455	29.608714	-43.565054	157.635902	-43.565054	157.635902	-0.298051	92.382551
6.650000	-0.309795	27.324915	-43.462641	153.320802	-43.462641	153.320802	-0.301277	90.585832
6.700000	-0.313211	25.036318	-43.348307	149.005797	-43.348307	149.005797	-0.304541	88.779473
6.750000	-0.316709	22.743237	-43.222117	144.698795	-43.222117	144.698795	-0.307846	86.963356
6.800000	-0.320292	20.445995	-43.084271	140.407540	-43.084271	140.407540	-0.311193	85.137376
6.850000	-0.323965	18.144919	-42.935099	136.139468	-42.935099	136.139468	-0.314583	83.301434
6.900000	-0.327734	15.840307	-42.774903	131.901993	-42.774903	131.901993	-0.318020	81.455331
6.950000	-0.331604	13.532510	-42.604243	127.701787	-42.604243	127.701787	-0.321506	79.598984
7.000000	-0.335579	11.221904	-42.423912	123.544330	-42.423912	123.544330	-0.325043	77.732435
7.050000	-0.339663	8.908831	-42.234624	119.434750	-42.234624	119.434750	-0.328633	75.855624
7.100000	-0.343862	6.593633	-42.037141	115.377464	-42.037141	115.377464	-0.332279	73.968502
7.150000	-0.348180	4.276651	-41.832259	111.376168	-41.832259	111.376168	-0.335984	72.071031
7.200000	-0.352621	1.958225	-41.620789	107.433851	-41.620789	107.433851	-0.339751	70.163183
7.250000	-0.357190	-0.361310	-41.403542	103.552823	-41.403542	103.552823	-0.343583	68.244941
7.300000	-0.361893	-2.681623	-41.181314	99.734758	-41.181314	99.734758	-0.347483	66.316300
7.350000	-0.366733	-5.002387	-40.954880	95.980745	-40.954880	95.980745	-0.351455	64.377265
7.400000	-0.371715	-7.323284	-40.724979	92.291349	-40.724979	92.291349	-0.355502	62.427855
7.450000	-0.376844	-9.644002	-40.492311	88.666669	-40.492311	88.666669	-0.359628	60.468098
7.500000	-0.382123	-11.964240	-40.257532	85.106405	-40.257532	85.106405	-0.363838	58.498035
7.550000	-0.387561	-14.283681	-40.021088	81.611277	-40.021088	81.611277	-0.368137	56.517500
7.600000	-0.393157	-16.602059	-39.783719	78.178938	-39.783719	78.178938	-0.372528	54.526781
7.650000	-0.398917	-18.919104	-39.545932	74.808217	-39.545932	74.808217	-0.377015	52.525957
7.700000	-0.404843	-21.234564	-39.308183	71.497761	-39.308183	71.497761	-0.381603	50.515121
7.750000	-0.410940	-23.548199	-39.070882	68.246078	-39.070882	68.246078	-0.386297	48.494374
7.800000	-0.417210	-25.859787	-38.834393	65.051579	-38.834393	65.051579	-0.391101	46.463833
7.850000	-0.423658	-28.169120	-38.599036	61.912600	-38.599036	61.912600	-0.396021	44.423626
7.900000	-0.430287	-30.476007	-38.365093	58.827439	-38.365093	58.827439	-0.401062	42.373893
7.950000	-0.437100	-32.780278	-38.132805	55.794368	-38.132805	55.794368	-0.406229	40.314788
8.000000	-0.444100	-35.081778	-37.902379	52.811662	-37.902379	52.811662	-0.411528	38.246474
8.050000	-0.451289	-37.380374	-37.673992	49.877605	-37.673992	49.877605	-0.416964	36.169129
8.100000	-0.458672	-39.675951	-37.447791	46.990507	-37.447791	46.990507	-0.422543	34.082942
8.150000	-0.466252	-41.968383	-37.223859	44.149183	-37.223859	44.149183	-0.428273	31.988021
8.200000	-0.474032	-44.257596	-37.002300	41.351964	-37.002300	41.351964	-0.434159	29.884586
8.250000	-0.482013	-46.543574	-36.783226	38.596789	-36.783226	38.596789	-0.440207	27.772953
8.300000	-0.490198	-48.826291	-36.566691	35.882137	-36.566691	35.882137	-0.446421	25.653356
8.350000	-0.498595	-51.105650	-36.352656	33.207627	-36.352656	33.207627	-0.452813	23.525823
8.400000	-0.507186	-53.382002	-36.141408	30.568012	-36.141408	30.568012	-0.459372	21.391369
8.450000	-0.516004	-55.654889	-35.932563	27.967641	-35.932563	27.967641	-0.466131	19.249122
8.500000	-0.525025	-57.924806	-35.726446	25.400357	-35.726446	25.400357	-0.473072	17.100314
8.550000	-0.534267	-60.191603	-35.522862	22.867558	-35.522862	22.867558	-0.480216	14.944699
8.600000	-0.543728	-62.455453	-35.321831	20.367381	-35.321831	20.367381	-0.487565	12.782692
8.650000	-0.553404	-64.716604	-35.123402	17.897427	-35.123402	17.897427	-0.495117	10.614827
8.700000	-0.563316	-66.974957	-34.927340	15.459521	-34.927340	15.459521	-0.502899	8.440838
8.750000	-0.573436	-69.231087	-34.733899	13.048022	-34.733899	13.048022	-0.510883	6.261892
8.800000	-0.583812	-71.484717	-34.542630	10.667908	-34.542630	10.667908	-0.519124	4.077190
8.850000	-0.594400	-73.736540	-34.353868	8.312286	-34.353868	8.312286	-0.527578	1.888118
8.900000	-0.605238	-75.986524	-34.167275	5.984296	-34.167275	5.984296	-0.536287	-0.305729
8.950000	-0.616309	-78.235111	-33.982958	3.680515	-33.982958	3.680515	-0.545235	-2.503605
9.000000	-0.627623	-80.482559	-33.800785	1.400981	-33.800785	1.400981	-0.554435	-4.705338
9.050000	-0.639190	-82.729186	-33.620656	-0.854740	-33.620656	-0.854740	-0.563899	-6.910669
9.100000	-0.650995	-84.975396	-33.442629	-3.089270	-33.442629	-3.089270	-0.573613	-9.119015
9.150000	-0.663075	-87.221544	-33.266408	-5.300495	-33.266408	-5.300495	-0.583616	-11.330447
9.200000	-0.675394	-89.468012	-33.092212	-7.492909	-33.092212	-7.492909	-0.593867	-13.544171
9.250000	-0.688003	-91.715351	-32.919644	-9.663406	-32.919644	-9.663406	-0.604424	-15.760309
9.300000	-0.700864	-93.963852	-32.748923	-11.816184	-32.748923	-11.816184	-0.615243	-17.978175
9.350000	-0.714014	-96.214163	-32.579780	-13.949833	-32.579780	-13.949833	-0.626362	-20.197649
9.400000	-0.727442	-98.466676	-32.412242	-16.066156	-32.412242	-16.066156	-0.637767	-22.418332
9.450000	-0.741157	-100.721918	-32.246233	-18.165898	-32.246233	-18.165898	-0.649464	-24.639911
9.500000	-0.755180	-102.980621	-32.081585	-20.248844	-32.081585	-20.248844	-0.661472	-26.862120
9.550000	-0.769486	-105.242936	-31.918426	-22.317537	-31.918426	-22.317537	-0.673762	-29.084609
9.600000	-0.784135	-107.510208	-31.756381	-24.370109	-31.756381	-24.370109	-0.686386	-31.307100
9.650000	-0.799078	-109.782140	-31.595723	-26.410045	-31.595723	-26.410045	-0.699293	-33.529327
9.700000	-0.814376	-112.060327	-31.436072	-28.435700	-31.436072	-28.435700	-0.712535	-35.750935
9.750000	-0.829997	-114.344623	-31.277608	-30.449530	-31.277608	-30.449530	-0.726077	-37.971743
9.800000	-0.845978	-116.636239	-31.120123	-32.451298	-31.120123	-32.451298	-0.739941	-40.191414
9.850000	-0.862321	-118.935748	-30.963590	-34.441934	-30.963590	-34.441934	-0.754126	-42.409715
9.900000	-0.879026	-121.243563	-30.808022	-36.422556	-30.808022	-36.422556	-0.768621	-44.626461
9.950000	-0.896139	-123.561317	-30.653174	-38.392911	-30.653174	-38.392911	-0.783456	-46.841248
10.000000	-0.913616	-125.888266	-30.499290	-40.355131	-30.499290	-40.355131	-0.798587	-49.054159
