! freq	dB(S11)	phase(S11)	dB(S12)	phase(S12)	
!     	dB(S21)	phase(S21)	dB(S22)	phase(S22)	
!S-par simulation data
#  GHz  S  DB  R 50
0.000000	-0.000000	0.000000	-368.270607	180.000000	-368.270607	180.000000	-0.000000	0.000000
0.050000	-0.001864	-1.594824	-80.327222	-1.582803	-80.327222	-1.582803	-0.000131	-1.164278
0.100000	-0.005609	-3.172607	-80.264604	4.070574	-80.264604	4.070574	-0.000521	-2.328244
0.150000	-0.009040	-4.736520	-80.197575	8.045686	-80.197575	8.045686	-0.001156	-3.491601
0.200000	-0.011683	-6.294114	-80.113292	11.521715	-80.113292	11.521715	-0.002017	-4.654094
0.250000	-0.013704	-7.849144	-80.012857	14.703891	-80.012857	14.703891	-0.003094	-5.815415
0.300000	-0.015404	-9.403119	-79.902042	17.684001	-79.902042	17.684001	-0.004341	-6.975476
0.350000	-0.016922	-10.956183	-79.784890	20.478164	-79.784890	20.478164	-0.005740	-8.134078
0.400000	-0.018362	-12.508215	-79.666332	23.104251	-79.666332	23.104251	-0.007263	-9.291103
0.450000	-0.019785	-14.058972	-79.551201	25.578507	-79.551201	25.578507	-0.008883	-10.446470
0.500000	-0.021226	-15.608182	-79.444080	27.918886	-79.444080	27.918886	-0.010577	-11.600127
0.550000	-0.022702	-17.155585	-79.349215	30.146198	-79.349215	30.146198	-0.012323	-12.752044
0.600000	-0.024225	-18.700933	-79.270481	32.284486	-79.270481	32.284486	-0.014100	-13.902211
0.650000	-0.025798	-20.244003	-79.211355	34.361198	-79.211355	34.361198	-0.015893	-15.050631
0.700000	-0.027421	-21.784584	-79.174922	36.407419	-79.174922	36.407419	-0.017690	-16.197314
0.750000	-0.029093	-23.322486	-79.163849	38.458267	-79.163849	38.458267	-0.019480	-17.342273
0.800000	-0.030808	-24.857528	-79.180349	40.553524	-79.180349	40.553524	-0.021255	-18.485521
0.850000	-0.032565	-26.389548	-79.226083	42.738518	-79.226083	42.738518	-0.023010	-19.627072
0.900000	-0.034356	-27.918389	-79.301995	45.065227	-79.301995	45.065227	-0.024741	-20.766933
0.950000	-0.036178	-29.443910	-79.408016	47.593535	-79.408016	47.593535	-0.026445	-21.905110
1.000000	-0.038026	-30.965975	-79.542606	50.392425	-79.542606	50.392425	-0.028122	-23.041602
1.050000	-0.039893	-32.484461	-79.702058	53.540672	-79.702058	53.540672	-0.029771	-24.176404
1.100000	-0.041777	-33.999248	-79.879497	57.126184	-79.879497	57.126184	-0.031393	-25.309506
1.150000	-0.043671	-35.510227	-80.063547	61.242526	-80.063547	61.242526	-0.032988	-26.440893
1.200000	-0.045573	-37.017294	-80.236769	65.980296	-80.236769	65.980296	-0.034559	-27.570548
1.250000	-0.047478	-38.520353	-80.374275	71.410439	-80.374275	71.410439	-0.036107	-28.698447
1.300000	-0.049383	-40.019129	-80.438661	77.585197	-80.438661	77.585197	-0.037633	-29.824487
1.350000	-0.051284	-41.513713	-80.393269	84.402494	-80.393269	84.402494	-0.039139	-30.948717
1.400000	-0.053180	-43.004024	-80.202001	91.677980	-80.202001	91.677980	-0.040627	-32.071105
1.450000	-0.055068	-44.489988	-79.840856	99.124270	-79.840856	99.124270	-0.042100	-33.191622
1.500000	-0.056947	-45.971534	-79.306022	106.404878	-79.306022	106.404878	-0.043559	-34.310233
1.550000	-0.058814	-47.448597	-78.615070	113.211595	-78.615070	113.211595	-0.045006	-35.426905
1.600000	-0.060669	-48.921115	-77.800554	119.325348	-77.800554	119.325348	-0.046442	-36.541605
1.650000	-0.062511	-50.389031	-76.900300	124.636272	-76.900300	124.636272	-0.047869	-37.654297
1.700000	-0.064338	-51.852292	-75.949405	129.128050	-75.949405	129.128050	-0.049289	-38.764948
1.750000	-0.066152	-53.310848	-74.976106	132.846513	-74.976106	132.846513	-0.050701	-39.873523
1.800000	-0.067951	-54.764654	-74.000962	135.869347	-74.000962	135.869347	-0.052109	-40.979989
1.850000	-0.069736	-56.213668	-73.037831	138.284410	-73.037831	138.284410	-0.053513	-42.084313
1.900000	-0.071507	-57.657851	-72.095433	140.177099	-72.095433	140.177099	-0.054914	-43.186462
1.950000	-0.073265	-59.097171	-71.178831	141.624358	-71.178831	141.624358	-0.056313	-44.286407
2.000000	-0.075010	-60.531595	-70.290623	142.692712	-70.290623	142.692712	-0.057710	-45.384115
2.050000	-0.076742	-61.961096	-69.431800	143.438384	-69.431800	143.438384	-0.059108	-46.479558
2.100000	-0.078463	-63.385651	-68.602344	143.908342	-68.602344	143.908342	-0.060506	-47.572708
2.150000	-0.080174	-64.805240	-67.801623	144.141621	-67.801623	144.141621	-0.061906	-48.663538
2.200000	-0.081875	-66.219845	-67.028655	144.170647	-67.028655	144.170647	-0.063307	-49.752022
2.250000	-0.083568	-67.629453	-66.282272	144.022402	-66.282272	144.022402	-0.064712	-50.838135
2.300000	-0.085253	-69.034055	-65.561232	143.719428	-65.561232	143.719428	-0.066119	-51.921856
2.350000	-0.086933	-70.433644	-64.864279	143.280641	-64.864279	143.280641	-0.067531	-53.003162
2.400000	-0.088607	-71.828218	-64.190184	142.722005	-64.190184	142.722005	-0.068947	-54.082033
2.450000	-0.090278	-73.217775	-63.537773	142.057071	-63.537773	142.057071	-0.070369	-55.158450
2.500000	-0.091947	-74.602321	-62.905932	141.297408	-62.905932	141.297408	-0.071796	-56.232396
2.550000	-0.093614	-75.981645	-62.292601	140.449672	-62.292601	140.449672	-0.073229	-57.303746
2.600000	-0.095282	-77.355976	-61.697955	139.526407	-61.697955	139.526407	-0.074670	-58.372593
2.650000	-0.096951	-78.725327	-61.121067	138.534953	-61.121067	138.534953	-0.076117	-59.438924
2.700000	-0.098623	-80.089715	-60.561079	137.481742	-60.561079	137.481742	-0.077572	-60.502728
2.750000	-0.100299	-81.449162	-60.017193	136.372445	-60.017193	136.372445	-0.079036	-61.563994
2.800000	-0.101981	-82.803690	-59.488669	135.212082	-59.488669	135.212082	-0.080508	-62.622713
2.850000	-0.103669	-84.153326	-58.974820	134.005125	-58.974820	134.005125	-0.081990	-63.678880
2.900000	-0.105365	-85.498099	-58.475007	132.755577	-58.475007	132.755577	-0.083482	-64.732486
2.950000	-0.107070	-86.838042	-57.988634	131.467038	-57.988634	131.467038	-0.084984	-65.783529
3.000000	-0.108785	-88.173191	-57.515145	130.142757	-57.515145	130.142757	-0.086496	-66.832005
3.050000	-0.110512	-89.503582	-57.054021	128.785685	-57.054021	128.785685	-0.088020	-67.877912
3.100000	-0.112250	-90.829259	-56.604775	127.398508	-56.604775	127.398508	-0.089556	-68.921250
3.150000	-0.114003	-92.150264	-56.166950	125.983683	-56.166950	125.983683	-0.091104	-69.962020
3.200000	-0.115769	-93.466644	-55.740116	124.543463	-55.740116	124.543463	-0.092666	-71.000223
3.250000	-0.117552	-94.778448	-55.323869	123.079924	-55.323869	123.079924	-0.094240	-72.035864
3.300000	-0.119351	-96.085728	-54.917825	121.594980	-54.917825	121.594980	-0.095829	-73.068948
3.350000	-0.121167	-97.388539	-54.521623	120.090405	-54.521623	120.090405	-0.097432	-74.099479
3.400000	-0.123002	-98.686937	-54.134919	118.567843	-54.134919	118.567843	-0.099050	-75.127467
3.450000	-0.124856	-99.980982	-53.757386	117.028822	-53.757386	117.028822	-0.100684	-76.152918
3.500000	-0.126731	-101.270736	-53.388712	115.474768	-53.388712	115.474768	-0.102334	-77.175844
3.550000	-0.128627	-102.556261	-53.028602	113.907008	-53.028602	113.907008	-0.104001	-78.196255
3.600000	-0.130544	-103.837626	-52.676772	112.326781	-52.676772	112.326781	-0.105685	-79.214163
3.650000	-0.132484	-105.114898	-52.332950	110.735248	-52.332950	110.735248	-0.107387	-80.229582
3.700000	-0.134448	-106.388147	-51.996876	109.133491	-51.996876	109.133491	-0.109108	-81.242526
3.750000	-0.136436	-107.657447	-51.668301	107.522526	-51.668301	107.522526	-0.110848	-82.253011
3.800000	-0.138450	-108.922707	-51.346784	105.902984	-51.346784	105.902984	-0.112608	-83.260948
3.850000	-0.140489	-110.184177	-51.032319	104.276146	-51.032319	104.276146	-0.114388	-84.266463
3.900000	-0.142555	-111.441934	-50.724682	102.642836	-50.724682	102.642836	-0.116190	-85.269574
3.950000	-0.144648	-112.696061	-50.423655	101.003823	-50.423655	101.003823	-0.118012	-86.270302
4.000000	-0.146768	-113.946639	-50.129030	99.359828	-50.129030	99.359828	-0.119857	-87.268667
4.050000	-0.148916	-115.193753	-49.840605	97.711523	-49.840605	97.711523	-0.121725	-88.264693
4.100000	-0.151093	-116.437490	-49.558185	96.059535	-49.558185	96.059535	-0.123615	-89.258402
4.150000	-0.153299	-117.677936	-49.281584	94.404448	-49.281584	94.404448	-0.125530	-90.249820
4.200000	-0.155534	-118.915182	-49.010619	92.746807	-49.010619	92.746807	-0.127469	-91.238970
4.250000	-0.157800	-120.149319	-48.745116	91.087114	-48.745116	91.087114	-0.129433	-92.225879
4.300000	-0.160097	-121.380439	-48.484906	89.425839	-48.484906	89.425839	-0.131422	-93.210575
4.350000	-0.162424	-122.608636	-48.229825	87.763414	-48.229825	87.763414	-0.133437	-94.193087
4.400000	-0.164783	-123.834006	-47.979716	86.100239	-47.979716	86.100239	-0.135480	-95.173442
4.450000	-0.167174	-125.056646	-47.734426	84.436682	-47.734426	84.436682	-0.137549	-96.151671
4.500000	-0.169597	-126.276655	-47.493808	82.773081	-47.493808	82.773081	-0.139646	-97.127804
4.550000	-0.172053	-127.494133	-47.257721	81.109744	-47.257721	81.109744	-0.141772	-98.101875
4.600000	-0.174541	-128.709180	-47.026027	79.446956	-47.026027	79.446956	-0.143927	-99.073915
4.650000	-0.177063	-129.921900	-46.798596	77.784971	-46.798596	77.784971	-0.146111	-100.043959
4.700000	-0.179619	-131.132396	-46.575300	76.124024	-46.575300	76.124024	-0.148325	-101.012040
4.750000	-0.182209	-132.340773	-46.356017	74.464323	-46.356017	74.464323	-0.150570	-101.978193
4.800000	-0.184833	-133.547137	-46.140630	72.806058	-46.140630	72.806058	-0.152846	-102.942456
4.850000	-0.187492	-134.751597	-45.929025	71.149397	-45.929025	71.149397	-0.155154	-103.904864
4.900000	-0.190185	-135.954260	-45.721094	69.494489	-45.721094	69.494489	-0.157494	-104.865456
4.950000	-0.192914	-137.155237	-45.516733	67.841467	-45.516733	67.841467	-0.159867	-105.824270
5.000000	-0.195679	-138.354640	-45.315842	66.190445	-45.315842	66.190445	-0.162273	-106.781345
5.050000	-0.198480	-139.552521	-45.118276	64.541620	-45.118276	64.541620	-0.164714	-107.736650
5.100000	-0.201317	-140.749063	-44.923999	62.894988	-44.923999	62.894988	-0.167189	-108.690301
5.150000	-0.204191	-141.944380	-44.732922	61.250622	-44.732922	61.250622	-0.169699	-109.642340
5.200000	-0.207101	-143.138589	-44.544962	59.608581	-44.544962	59.608581	-0.172245	-110.592809
5.250000	-0.210048	-144.331806	-44.360039	57.968914	-44.360039	57.968914	-0.174826	-111.541751
5.300000	-0.213031	-145.524149	-44.178078	56.331662	-44.178078	56.331662	-0.177444	-112.489210
5.350000	-0.216052	-146.715737	-43.999006	54.696854	-43.999006	54.696854	-0.180098	-113.435232
5.400000	-0.219110	-147.906690	-43.822755	53.064515	-43.822755	53.064515	-0.182789	-114.379860
5.450000	-0.222206	-149.097130	-43.649260	51.434661	-43.649260	51.434661	-0.185518	-115.323142
5.500000	-0.225339	-150.287178	-43.478460	49.807303	-43.478460	49.807303	-0.188285	-116.265124
5.550000	-0.228510	-151.476959	-43.310296	48.182447	-43.310296	48.182447	-0.191091	-117.205853
5.600000	-0.231719	-152.666596	-43.144716	46.560094	-43.144716	46.560094	-0.193935	-118.145377
5.650000	-0.234967	-153.856215	-42.981666	44.940244	-42.981666	44.940244	-0.196819	-119.083745
5.700000	-0.238253	-155.045942	-42.821099	43.322891	-42.821099	43.322891	-0.199743	-120.021007
5.750000	-0.241579	-156.235907	-42.662970	41.708031	-42.662970	41.708031	-0.202706	-120.957213
5.800000	-0.244943	-157.426237	-42.507237	40.095657	-42.507237	40.095657	-0.205711	-121.892413
5.850000	-0.248346	-158.617062	-42.353860	38.485761	-42.353860	38.485761	-0.208756	-122.826658
5.900000	-0.251789	-159.808514	-42.202802	36.878339	-42.202802	36.878339	-0.211842	-123.760002
5.950000	-0.255271	-161.000725	-42.054029	35.273383	-42.054029	35.273383	-0.214971	-124.692495
6.000000	-0.258794	-162.193830	-41.907511	33.670891	-41.907511	33.670891	-0.218141	-125.624193
6.050000	-0.262356	-163.387962	-41.763218	32.070861	-41.763218	32.070861	-0.221354	-126.555148
6.100000	-0.265959	-164.583257	-41.621124	30.473296	-41.621124	30.473296	-0.224609	-127.485415
6.150000	-0.269603	-165.779854	-41.481203	28.878201	-41.481203	28.878201	-0.227908	-128.415049
6.200000	-0.273288	-166.977891	-41.343435	27.285584	-41.343435	27.285584	-0.231250	-129.344106
6.250000	-0.277014	-168.177508	-41.207798	25.695461	-41.207798	25.695461	-0.234636	-130.272643
6.300000	-0.280783	-169.378929	-41.074277	24.107960	-41.074277	24.107960	-0.238068	-131.200698
6.350000	-0.284595	-170.582227	-40.942858	22.522999	-40.942858	22.522999	-0.241544	-132.128353
6.400000	-0.288449	-171.787548	-40.813525	20.940609	-40.813525	20.940609	-0.245065	-133.055666
6.450000	-0.292345	-172.995038	-40.686266	19.360829	-40.686266	19.360829	-0.248631	-133.982695
6.500000	-0.296285	-174.204845	-40.561068	17.783704	-40.561068	17.783704	-0.252242	-134.909500
6.550000	-0.300268	-175.417118	-40.437920	16.209286	-40.437920	16.209286	-0.255899	-135.836142
6.600000	-0.304295	-176.632009	-40.316815	14.637635	-40.316815	14.637635	-0.259602	-136.762680
6.650000	-0.308367	-177.849671	-40.197743	13.068819	-40.197743	13.068819	-0.263351	-137.689176
6.700000	-0.312484	-179.070260	-40.080698	11.502914	-40.080698	11.502914	-0.267147	-138.615693
6.750000	-0.316646	179.706067	-39.965672	9.940004	-39.965672	9.940004	-0.270989	-139.542291
6.800000	-0.320855	178.479151	-39.852662	8.380183	-39.852662	8.380183	-0.274878	-140.469036
6.850000	-0.325110	177.248830	-39.741661	6.823553	-39.741661	6.823553	-0.278814	-141.395989
6.900000	-0.329414	176.014940	-39.632666	5.270225	-39.632666	5.270225	-0.282798	-142.323216
6.950000	-0.333765	174.777314	-39.525672	3.720319	-39.525672	3.720319	-0.286829	-143.250782
7.000000	-0.338166	173.535782	-39.420675	2.173966	-39.420675	2.173966	-0.290908	-144.178751
7.050000	-0.342616	172.290173	-39.317672	0.631304	-39.317672	0.631304	-0.295035	-145.107189
7.100000	-0.347118	171.040311	-39.216659	-0.907518	-39.216659	-0.907518	-0.299210	-146.036164
7.150000	-0.351672	169.786017	-39.117633	-2.442341	-39.117633	-2.442341	-0.303434	-146.965742
7.200000	-0.356278	168.527110	-39.020588	-3.972998	-39.020588	-3.972998	-0.307706	-147.895991
7.250000	-0.360940	167.263404	-38.925521	-5.499310	-38.925521	-5.499310	-0.312027	-148.826980
7.300000	-0.365657	165.994708	-38.832427	-7.021092	-38.832427	-7.021092	-0.316396	-149.758777
7.350000	-0.370431	164.720828	-38.741301	-8.538144	-38.741301	-8.538144	-0.320815	-150.691452
7.400000	-0.375265	163.441567	-38.652135	-10.050262	-38.652135	-10.050262	-0.325283	-151.625074
7.450000	-0.380159	162.156718	-38.564922	-11.557229	-38.564922	-11.557229	-0.329800	-152.559714
7.500000	-0.385115	160.866075	-38.479656	-13.058818	-38.479656	-13.058818	-0.334367	-153.495444
7.550000	-0.390139	159.569148	-38.396375	-14.554540	-38.396375	-14.554540	-0.338985	-154.432390
7.600000	-0.395230	158.265967	-38.315022	-16.044382	-38.315022	-16.044382	-0.343653	-155.370575
7.650000	-0.400390	156.956303	-38.235585	-17.528087	-38.235585	-17.528087	-0.348371	-156.310073
7.700000	-0.405623	155.639917	-38.158050	-19.005390	-38.158050	-19.005390	-0.353139	-157.250958
7.750000	-0.410932	154.316563	-38.082402	-20.476017	-38.082402	-20.476017	-0.357956	-158.193303
7.800000	-0.416319	152.985985	-38.008623	-21.939682	-38.008623	-21.939682	-0.362824	-159.137184
7.850000	-0.421790	151.647918	-37.936694	-23.396091	-37.936694	-23.396091	-0.367741	-160.082675
7.900000	-0.427347	150.302083	-37.866595	-24.844938	-37.866595	-24.844938	-0.372709	-161.029851
7.950000	-0.432996	148.948191	-37.798302	-26.285907	-37.798302	-26.285907	-0.377727	-161.978790
8.000000	-0.438742	147.585936	-37.731790	-27.718673	-37.731790	-27.718673	-0.382795	-162.929567
8.050000	-0.444590	146.215001	-37.667031	-29.142895	-37.667031	-29.142895	-0.387913	-163.882261
8.100000	-0.450548	144.835047	-37.603994	-30.558225	-37.603994	-30.558225	-0.393081	-164.836949
8.150000	-0.456621	143.445720	-37.542646	-31.964298	-37.542646	-31.964298	-0.398299	-165.793708
8.200000	-0.462819	142.046641	-37.482949	-33.360735	-37.482949	-33.360735	-0.403568	-166.752618
8.250000	-0.469150	140.637409	-37.424865	-34.747145	-37.424865	-34.747145	-0.408886	-167.713759
8.300000	-0.475624	139.217597	-37.368350	-36.123114	-37.368350	-36.123114	-0.414255	-168.677209
8.350000	-0.482254	137.786746	-37.313357	-37.488214	-37.313357	-37.488214	-0.419673	-169.643049
8.400000	-0.489051	136.344364	-37.259834	-38.841992	-37.259834	-38.841992	-0.425141	-170.611359
8.450000	-0.496031	134.889921	-37.207725	-40.183974	-37.207725	-40.183974	-0.430659	-171.582221
8.500000	-0.503211	133.422843	-37.156970	-41.513655	-37.156970	-41.513655	-0.436226	-172.555717
8.550000	-0.510609	131.942508	-37.107501	-42.830501	-37.107501	-42.830501	-0.441843	-173.531927
8.600000	-0.518248	130.448237	-37.059245	-44.133939	-37.059245	-44.133939	-0.447508	-174.510934
8.650000	-0.526153	128.939287	-37.012123	-45.423355	-37.012123	-45.423355	-0.453224	-175.492820
8.700000	-0.534353	127.414843	-36.966046	-46.698086	-36.966046	-46.698086	-0.458987	-176.477669
8.750000	-0.542882	125.874005	-36.920918	-47.957413	-36.920918	-47.957413	-0.464800	-177.465564
8.800000	-0.551796	124.314969	-36.876653	-49.199800	-36.876653	-49.199800	-0.470663	-178.456727
8.850000	-0.561127	122.737321	-36.833097	-50.425036	-36.833097	-50.425036	-0.476574	-179.451111
8.900000	-0.570931	121.139804	-36.790116	-51.632143	-36.790116	-51.632143	-0.482533	179.551202
8.950000	-0.581272	119.521003	-36.747555	-52.820024	-36.747555	-52.820024	-0.488540	178.550128
9.000000	-0.592225	117.879323	-36.705243	-53.987443	-36.705243	-53.987443	-0.494595	177.545583
9.050000	-0.603882	116.212951	-36.662980	-55.132994	-36.662980	-55.132994	-0.500696	176.537483
9.100000	-0.616350	114.519826	-36.620542	-56.255065	-36.620542	-56.255065	-0.506845	175.525747
9.150000	-0.629760	112.797582	-36.577664	-57.351791	-36.577664	-57.351791	-0.513040	174.510292
9.200000	-0.644198	111.045512	-36.534117	-58.422731	-36.534117	-58.422731	-0.519280	173.491261
9.250000	-0.659922	109.258362	-36.489492	-59.463506	-36.489492	-59.463506	-0.525568	172.468307
9.300000	-0.677220	107.431268	-36.443291	-60.470069	-36.443291	-60.470069	-0.531905	171.441246
9.350000	-0.696329	105.561319	-36.395061	-61.439972	-36.395061	-61.439972	-0.538292	170.410146
9.400000	-0.717611	103.643577	-36.344180	-62.368912	-36.344180	-62.368912	-0.544730	169.374954
9.450000	-0.741512	101.672287	-36.289899	-63.251700	-36.289899	-63.251700	-0.551227	168.335618
9.500000	-0.768741	99.637965	-36.231069	-64.079595	-36.231069	-64.079595	-0.557795	167.291916
9.550000	-0.799902	97.534848	-36.166690	-64.846633	-36.166690	-64.846633	-0.564456	166.243946
9.600000	-0.835938	95.352931	-36.095258	-65.542470	-36.095258	-65.542470	-0.571253	165.191460
9.650000	-0.878463	93.074616	-36.014176	-66.148544	-36.014176	-66.148544	-0.578233	164.133368
9.700000	-0.928964	90.688157	-35.921057	-66.649855	-35.921057	-66.649855	-0.585235	163.068533
9.750000	-0.989681	88.175340	-35.812263	-67.022609	-35.812263	-67.022609	-0.591897	161.997897
9.800000	-1.064319	85.506623	-35.681561	-67.226142	-35.681561	-67.226142	-0.598320	160.924004
9.850000	-1.157473	82.652181	-35.520901	-67.210430	-35.520901	-67.210430	-0.604821	159.846657
9.900000	-1.275177	79.579112	-35.319142	-66.908068	-35.319142	-66.908068	-0.611450	158.764917
9.950000	-1.427764	76.232993	-35.055541	-66.196040	-35.055541	-66.196040	-0.618182	157.678158
10.000000	-1.630350	72.550832	-34.695447	-64.878258	-34.695447	-64.878258	-0.624985	156.586163
