! freq	dB(S11)	phase(S11)	dB(S12)	phase(S12)	
!     	dB(S21)	phase(S21)	dB(S22)	phase(S22)	
!S-par simulation data
#  GHz  S  DB  R 50
0.000000	-0.000000	0.000000	-353.536627	180.000000	-353.536627	180.000000	-0.000000	0.000000
0.050000	-0.006685	-1.662556	-99.755696	86.190697	-99.755696	86.190697	-0.002228	-1.082086
0.100000	-0.013158	-3.385409	-93.812950	85.991257	-93.812950	85.991257	-0.005820	-2.185541
0.150000	-0.016263	-5.117053	-90.345166	85.031300	-90.345166	85.031300	-0.008395	-3.299845
0.200000	-0.018055	-6.845579	-87.911013	83.886689	-87.911013	83.886689	-0.010105	-4.416109
0.250000	-0.019373	-8.570325	-86.053227	82.679103	-86.053227	82.679103	-0.011345	-5.531725
0.300000	-0.020544	-10.291674	-84.567233	81.456154	-84.567233	81.456154	-0.012368	-6.646081
0.350000	-0.021702	-12.009866	-83.343882	80.242050	-83.343882	80.242050	-0.013302	-7.759105
0.400000	-0.022904	-13.724954	-82.318162	79.052620	-82.318162	79.052620	-0.014216	-8.870822
0.450000	-0.024175	-15.436865	-81.448324	77.900438	-81.448324	77.900438	-0.015143	-9.981257
0.500000	-0.025526	-17.145458	-80.706073	76.796991	-80.706073	76.796991	-0.016102	-11.090415
0.550000	-0.026958	-18.850550	-80.071444	75.753791	-80.071444	75.753791	-0.017102	-12.198279
0.600000	-0.028471	-20.551937	-79.529916	74.783087	-79.529916	74.783087	-0.018145	-13.304820
0.650000	-0.030060	-22.249359	-79.071262	73.899512	-79.071262	73.899512	-0.019233	-14.409985
0.700000	-0.031719	-23.942590	-78.687280	73.118993	-78.687280	73.118993	-0.020365	-15.513730
0.750000	-0.033442	-25.631458	-78.371051	72.458446	-78.371051	72.458446	-0.021537	-16.616021
0.800000	-0.035221	-27.315749	-78.117584	71.938716	-78.117584	71.938716	-0.022746	-17.716814
0.850000	-0.037053	-28.994821	-77.927365	71.601731	-77.927365	71.601731	-0.023991	-18.815921
0.900000	-0.038923	-30.669389	-77.787220	71.442508	-77.787220	71.442508	-0.025263	-19.913590
0.950000	-0.040828	-32.338788	-77.699198	71.511994	-77.699198	71.511994	-0.026562	-21.009623
1.000000	-0.042763	-34.002837	-77.660093	71.851085	-77.660093	71.851085	-0.027884	-22.103979
1.050000	-0.044719	-35.661611	-77.664545	72.490830	-77.664545	72.490830	-0.029224	-23.196692
1.100000	-0.046694	-37.314385	-77.711817	73.524290	-77.711817	73.524290	-0.030582	-24.287552
1.150000	-0.048680	-38.961307	-77.792920	74.998308	-77.792920	74.998308	-0.031952	-25.376616
1.200000	-0.050673	-40.602226	-77.898473	76.984637	-77.898473	76.984637	-0.033333	-26.463846
1.250000	-0.052668	-42.237001	-78.015142	79.557276	-78.015142	79.557276	-0.034723	-27.549210
1.300000	-0.054660	-43.865362	-78.123658	82.798491	-78.123658	82.798491	-0.036117	-28.632631
1.350000	-0.056648	-45.487317	-78.198856	86.736801	-78.198856	86.736801	-0.037516	-29.714120
1.400000	-0.058626	-47.102749	-78.210248	91.364732	-78.210248	91.364732	-0.038917	-30.793644
1.450000	-0.060594	-48.711550	-78.124679	96.600464	-78.124679	96.600464	-0.040318	-31.871177
1.500000	-0.062549	-50.313618	-77.912112	102.272598	-77.912112	102.272598	-0.041718	-32.946688
1.550000	-0.064488	-51.908857	-77.553063	108.130549	-77.553063	108.130549	-0.043117	-34.020151
1.600000	-0.066411	-53.497182	-77.044402	113.886285	-77.044402	113.886285	-0.044513	-35.091539
1.650000	-0.068316	-55.078510	-76.400145	119.273172	-76.400145	119.273172	-0.045907	-36.160826
1.700000	-0.070201	-56.652071	-75.631953	124.029156	-75.631953	124.029156	-0.047296	-37.227778
1.750000	-0.072069	-58.219106	-74.801266	128.167528	-74.801266	128.167528	-0.048682	-38.292765
1.800000	-0.073919	-59.778943	-73.923398	131.613825	-73.923398	131.613825	-0.050064	-39.355579
1.850000	-0.075749	-61.331525	-73.023096	134.395721	-73.023096	134.395721	-0.051442	-40.416197
1.900000	-0.077561	-62.876804	-72.119025	136.571813	-72.119025	136.571813	-0.052817	-41.474598
1.950000	-0.079354	-64.414738	-71.224246	138.213238	-71.224246	138.213238	-0.054188	-42.530761
2.000000	-0.081130	-65.945291	-70.347318	139.392052	-70.347318	139.392052	-0.055555	-43.584665
2.050000	-0.082889	-67.468431	-69.493468	140.175078	-69.493468	140.175078	-0.056920	-44.636292
2.100000	-0.084632	-68.984133	-68.665584	140.621330	-68.665584	140.621330	-0.058282	-45.685623
2.150000	-0.086361	-70.492377	-67.864972	140.781496	-67.864972	140.781496	-0.059642	-46.732640
2.200000	-0.088075	-71.993150	-67.091902	140.698426	-67.091902	140.698426	-0.061001	-47.777328
2.250000	-0.089777	-73.486443	-66.345988	140.408043	-66.345988	140.408043	-0.062359	-48.819671
2.300000	-0.091467	-74.972251	-65.626448	139.940356	-65.626448	139.940356	-0.063717	-49.859654
2.350000	-0.093147	-76.450577	-64.932269	139.320415	-64.932269	139.320415	-0.065075	-50.897265
2.400000	-0.094818	-77.921427	-64.262324	138.569161	-64.262324	138.569161	-0.066435	-51.932491
2.450000	-0.096481	-79.384812	-63.615440	137.704143	-63.615440	137.704143	-0.067797	-52.965323
2.500000	-0.098138	-80.840748	-62.990450	136.740116	-62.990450	136.740116	-0.069161	-53.995751
2.550000	-0.099790	-82.288933	-62.385303	135.686258	-62.385303	135.686258	-0.070529	-55.023661
2.600000	-0.101438	-83.729719	-61.799954	134.557185	-61.799954	134.557185	-0.071901	-56.049154
2.650000	-0.103085	-85.163134	-61.233349	133.361680	-61.233349	133.361680	-0.073279	-57.072225
2.700000	-0.104730	-86.589212	-60.684495	132.107252	-60.684495	132.107252	-0.074662	-58.092870
2.750000	-0.106376	-88.007993	-60.152465	130.800343	-60.152465	130.800343	-0.076052	-59.111091
2.800000	-0.108023	-89.419519	-59.636390	129.446489	-59.636390	129.446489	-0.077449	-60.126887
2.850000	-0.109674	-90.823835	-59.135463	128.050466	-59.135463	128.050466	-0.078854	-61.140264
2.900000	-0.111329	-92.220991	-58.648930	126.616395	-58.648930	126.616395	-0.080269	-62.151227
2.950000	-0.112989	-93.611040	-58.176090	125.147839	-58.176090	125.147839	-0.081694	-63.159785
3.000000	-0.114656	-94.994040	-57.716289	123.647877	-57.716289	123.647877	-0.083129	-64.165950
3.050000	-0.116330	-96.370051	-57.268917	122.119168	-57.268917	122.119168	-0.084576	-65.169736
3.100000	-0.118013	-97.739135	-56.833407	120.564002	-56.833407	120.564002	-0.086035	-66.171160
3.150000	-0.119706	-99.101358	-56.409226	118.984340	-56.409226	118.984340	-0.087508	-67.170245
3.200000	-0.121410	-100.456791	-55.995878	117.381850	-55.995878	117.381850	-0.088995	-68.167017
3.250000	-0.123126	-101.805505	-55.592898	115.757933	-55.592898	115.757933	-0.090498	-69.161505
3.300000	-0.124855	-103.147573	-55.199851	114.113744	-55.199851	114.113744	-0.092016	-70.153744
3.350000	-0.126597	-104.483262	-54.816539	112.450738	-54.816539	112.450738	-0.093551	-71.143839
3.400000	-0.128354	-105.812188	-54.442047	110.768294	-54.442047	110.768294	-0.095106	-72.131682
3.450000	-0.130126	-107.134809	-54.076446	109.067982	-54.076446	109.067982	-0.096679	-73.117454
3.500000	-0.131915	-108.451206	-53.719376	107.350059	-53.719376	107.350059	-0.098274	-74.101217
3.550000	-0.133720	-109.761462	-53.370498	105.614570	-53.370498	105.614570	-0.099890	-75.083042
3.600000	-0.135544	-111.065002	-53.028883	103.859343	-53.028883	103.859343	-0.101532	-76.062815
3.650000	-0.137387	-112.362553	-52.694869	102.085729	-52.694869	102.085729	-0.103200	-77.040838
3.700000	-0.139248	-113.654239	-52.368196	100.293089	-52.368196	100.293089	-0.104895	-78.017237
3.750000	-0.141129	-114.940150	-52.048586	98.480369	-52.048586	98.480369	-0.106620	-78.992146
3.800000	-0.143030	-116.220379	-51.735772	96.646154	-51.735772	96.646154	-0.108377	-79.965724
3.850000	-0.144951	-117.495017	-51.429500	94.788608	-51.429500	94.788608	-0.110171	-80.938158
3.900000	-0.146894	-118.763928	-51.129347	92.904142	-51.129347	92.904142	-0.112006	-81.909645
3.950000	-0.148860	-120.027055	-50.834973	90.988348	-50.834973	90.988348	-0.113890	-82.880481
4.000000	-0.150848	-121.284899	-50.546453	89.039116	-50.546453	89.039116	-0.115827	-83.851074
4.050000	-0.152859	-122.537559	-50.263547	87.051326	-50.263547	87.051326	-0.117826	-84.821850
4.100000	-0.154892	-123.785135	-49.986012	85.018444	-49.986012	85.018444	-0.119897	-85.793337
4.150000	-0.156948	-125.027727	-49.713597	82.932068	-49.713597	82.932068	-0.122056	-86.766203
4.200000	-0.159027	-126.265440	-49.446037	80.781273	-49.446037	80.781273	-0.124325	-87.741301
4.250000	-0.161133	-127.497949	-49.182707	78.542605	-49.182707	78.542605	-0.126748	-88.720188
4.300000	-0.163262	-128.725697	-48.923486	76.198518	-48.923486	76.198518	-0.129366	-89.704384
4.350000	-0.165416	-129.948912	-48.668018	73.721821	-48.668018	73.721821	-0.132247	-90.696010
4.400000	-0.167595	-131.167709	-48.415719	71.071081	-48.415719	71.071081	-0.135499	-91.698182
4.450000	-0.169798	-132.382213	-48.165772	68.185606	-48.165772	68.185606	-0.139300	-92.715434
4.500000	-0.172026	-133.592556	-47.916939	64.973108	-47.916939	64.973108	-0.143949	-93.754622
4.550000	-0.174281	-134.798822	-47.666987	61.274010	-47.666987	61.274010	-0.150034	-94.827477
4.600000	-0.176567	-136.001027	-47.411091	56.766593	-47.411091	56.766593	-0.158919	-95.957401
4.650000	-0.178889	-137.199725	-47.141236	50.962544	-47.141236	50.962544	-0.173258	-97.179536
4.700000	-0.181268	-138.395385	-46.836986	42.765279	-46.836986	42.765279	-0.200255	-98.570215
4.750000	-0.183795	-139.588943	-46.430464	29.085500	-46.430464	29.085500	-0.266861	-100.328377
4.800000	-0.186984	-140.782926	-45.658765	-0.076559	-45.658765	-0.076559	-0.508796	-102.898220
4.850000	-0.193979	-141.965345	-43.924829	-86.788521	-43.924829	-86.788521	-1.692607	-102.158616
4.900000	-0.194616	-143.107109	-45.206743	154.184649	-45.206743	154.184649	-0.771583	-94.857664
4.950000	-0.194901	-144.285625	-45.799988	111.101458	-45.799988	111.101458	-0.336194	-97.633464
5.000000	-0.196756	-145.461347	-45.786280	93.405417	-45.786280	93.405417	-0.237974	-99.579666
5.050000	-0.199018	-146.632572	-45.650149	83.612191	-45.650149	83.612191	-0.204346	-101.046009
5.100000	-0.201434	-147.800035	-45.482291	77.067505	-45.482291	77.067505	-0.189884	-102.292535
5.150000	-0.203935	-148.964121	-45.304888	72.181626	-45.304888	72.181626	-0.183151	-103.421479
5.200000	-0.206491	-150.125190	-45.125434	68.216855	-45.125434	68.216855	-0.179987	-104.483083
5.250000	-0.209093	-151.283257	-44.946451	64.862942	-44.946451	64.862942	-0.178864	-105.498819
5.300000	-0.211729	-152.438760	-44.769380	61.872089	-44.769380	61.872089	-0.178811	-106.486520
5.350000	-0.214400	-153.591713	-44.594608	59.155594	-44.594608	59.155594	-0.179498	-107.452479
5.400000	-0.217102	-154.742245	-44.422382	56.638514	-44.422382	56.638514	-0.180682	-108.402132
5.450000	-0.219834	-155.890480	-44.252809	54.271030	-44.252809	54.271030	-0.182216	-109.339124
5.500000	-0.222596	-157.036533	-44.085924	52.018757	-44.085924	52.018757	-0.184008	-110.265996
5.550000	-0.225385	-158.180521	-43.921723	49.857212	-43.921723	49.857212	-0.185996	-111.184570
5.600000	-0.228203	-159.322555	-43.760181	47.768496	-43.760181	47.768496	-0.188140	-112.096194
5.650000	-0.231048	-160.462746	-43.601264	45.739225	-43.601264	45.739225	-0.190411	-113.001889
5.700000	-0.233920	-161.601204	-43.444931	43.759193	-43.444931	43.759193	-0.192790	-113.902443
5.750000	-0.236819	-162.738037	-43.291140	41.820481	-43.291140	41.820481	-0.195260	-114.798478
5.800000	-0.239743	-163.873353	-43.139847	39.916857	-43.139847	39.916857	-0.197812	-115.690492
5.850000	-0.242695	-165.007258	-42.991008	38.043346	-42.991008	38.043346	-0.200437	-116.578892
5.900000	-0.245671	-166.139858	-42.844580	36.195931	-42.844580	36.195931	-0.203129	-117.464015
5.950000	-0.248673	-167.271259	-42.700522	34.371333	-42.700522	34.371333	-0.205883	-118.346145
6.000000	-0.251701	-168.401565	-42.558793	32.566850	-42.558793	32.566850	-0.208696	-119.225523
6.050000	-0.254753	-169.530881	-42.419356	30.780236	-42.419356	30.780236	-0.211564	-120.102356
6.100000	-0.257830	-170.659309	-42.282171	29.009610	-42.282171	29.009610	-0.214485	-120.976826
6.150000	-0.260930	-171.786953	-42.147205	27.253384	-42.147205	27.253384	-0.217458	-121.849093
6.200000	-0.264055	-172.913915	-42.014422	25.510211	-42.014422	25.510211	-0.220482	-122.719301
6.250000	-0.267204	-174.040297	-41.883791	23.778939	-41.883791	23.778939	-0.223554	-123.587579
6.300000	-0.270376	-175.166183	-41.755289	22.059015	-41.755289	22.059015	-0.226676	-124.453970
6.350000	-0.273571	-176.291699	-41.628881	20.349087	-41.628881	20.349087	-0.229846	-125.318664
6.400000	-0.276789	-177.416945	-41.504537	18.648429	-41.504537	18.648429	-0.233063	-126.181762
6.450000	-0.280029	-178.542019	-41.382232	16.956413	-41.382232	16.956413	-0.236327	-127.043356
6.500000	-0.283291	-179.667021	-41.261939	15.272487	-41.261939	15.272487	-0.239637	-127.903532
6.550000	-0.286574	179.207953	-41.143634	13.596171	-41.143634	13.596171	-0.242993	-128.762373
6.600000	-0.289877	178.082805	-41.027295	11.927042	-41.027295	11.927042	-0.246395	-129.619959
6.650000	-0.293201	176.957439	-40.912898	10.264733	-40.912898	10.264733	-0.249843	-130.476364
6.700000	-0.296546	175.831760	-40.800424	8.608919	-40.800424	8.608919	-0.253337	-131.331661
6.750000	-0.299909	174.705672	-40.689852	6.959315	-40.689852	6.959315	-0.256876	-132.185920
6.800000	-0.303292	173.579082	-40.581164	5.315674	-40.581164	5.315674	-0.260462	-133.039210
6.850000	-0.306693	172.451896	-40.474342	3.677777	-40.474342	3.677777	-0.264094	-133.891597
6.900000	-0.310113	171.324022	-40.369370	2.045436	-40.369370	2.045436	-0.267772	-134.743146
6.950000	-0.313550	170.195368	-40.266231	0.418486	-40.266231	0.418486	-0.271497	-135.593921
7.000000	-0.317004	169.065843	-40.164911	-1.203214	-40.164911	-1.203214	-0.275267	-136.443984
7.050000	-0.320474	167.935358	-40.065396	-2.819784	-40.065396	-2.819784	-0.279085	-137.293396
7.100000	-0.323961	166.803823	-39.967671	-4.431327	-39.967671	-4.431327	-0.282949	-138.142220
7.150000	-0.327463	165.671151	-39.871724	-6.037926	-39.871724	-6.037926	-0.286859	-138.990514
7.200000	-0.330979	164.537254	-39.777544	-7.639651	-39.777544	-7.639651	-0.290817	-139.838339
7.250000	-0.334510	163.402046	-39.685118	-9.236555	-39.685118	-9.236555	-0.294822	-140.685754
7.300000	-0.338054	162.265442	-39.594436	-10.828680	-39.594436	-10.828680	-0.298875	-141.532818
7.350000	-0.341611	161.127357	-39.505488	-12.416052	-39.505488	-12.416052	-0.302975	-142.379589
7.400000	-0.345181	159.987709	-39.418262	-13.998688	-39.418262	-13.998688	-0.307123	-143.226125
7.450000	-0.348762	158.846416	-39.332751	-15.576594	-39.332751	-15.576594	-0.311319	-144.072485
7.500000	-0.352354	157.703396	-39.248945	-17.149763	-39.248945	-17.149763	-0.315563	-144.918726
7.550000	-0.355956	156.558489	-39.166874	-18.717974	-39.166874	-18.717974	-0.319857	-145.764907
7.600000	-0.359568	155.411690	-39.086494	-20.281406	-39.086494	-20.281406	-0.324199	-146.611090
7.650000	-0.363189	154.262922	-39.007794	-21.840027	-39.007794	-21.840027	-0.328591	-147.457334
7.700000	-0.366818	153.112111	-38.930767	-23.393796	-38.930767	-23.393796	-0.333031	-148.303695
7.750000	-0.370454	151.959181	-38.855405	-24.942661	-38.855405	-24.942661	-0.337520	-149.150232
7.800000	-0.374097	150.804059	-38.781700	-26.486569	-38.781700	-26.486569	-0.342058	-149.997003
7.850000	-0.377745	149.646674	-38.709644	-28.025455	-38.709644	-28.025455	-0.346646	-150.844065
7.900000	-0.381398	148.486955	-38.639229	-29.559251	-38.639229	-29.559251	-0.351282	-151.691477
7.950000	-0.385056	147.324834	-38.570447	-31.087882	-38.570447	-31.087882	-0.355969	-152.539297
8.000000	-0.388716	146.160244	-38.503290	-32.611267	-38.503290	-32.611267	-0.360705	-153.387584
8.050000	-0.392380	144.993118	-38.437749	-34.129320	-38.437749	-34.129320	-0.365491	-154.236395
8.100000	-0.396044	143.823394	-38.373818	-35.641953	-38.373818	-35.641953	-0.370326	-155.085790
8.150000	-0.399710	142.651009	-38.311487	-37.149068	-38.311487	-37.149068	-0.375212	-155.935827
8.200000	-0.403376	141.475902	-38.250747	-38.650569	-38.250747	-38.650569	-0.380148	-156.786566
8.250000	-0.407041	140.298015	-38.191590	-40.146352	-38.191590	-40.146352	-0.385134	-157.638066
8.300000	-0.410704	139.117290	-38.134007	-41.636311	-38.134007	-41.636311	-0.390170	-158.490386
8.350000	-0.414364	137.933674	-38.077988	-43.120338	-38.077988	-43.120338	-0.395256	-159.343586
8.400000	-0.418021	136.747113	-38.023524	-44.598320	-38.023524	-44.598320	-0.400393	-160.197726
8.450000	-0.421673	135.557555	-37.970604	-46.070144	-37.970604	-46.070144	-0.405580	-161.052867
8.500000	-0.425320	134.364953	-37.919217	-47.535694	-37.919217	-47.535694	-0.410817	-161.909069
8.550000	-0.428961	133.169259	-37.869354	-48.994851	-37.869354	-48.994851	-0.416104	-162.766392
8.600000	-0.432595	131.970428	-37.821003	-50.447498	-37.821003	-50.447498	-0.421442	-163.624897
8.650000	-0.436220	130.768419	-37.774152	-51.893513	-37.774152	-51.893513	-0.426830	-164.484646
8.700000	-0.439837	129.563192	-37.728789	-53.332775	-37.728789	-53.332775	-0.432268	-165.345700
8.750000	-0.443443	128.354708	-37.684902	-54.765163	-37.684902	-54.765163	-0.437756	-166.208121
8.800000	-0.447038	127.142788	-37.642532	-56.190246	-37.642532	-56.190246	-0.443296	-167.072036
8.850000	-0.450622	125.927541	-37.601611	-57.608201	-37.601611	-57.608201	-0.448886	-167.937448
8.900000	-0.454192	124.708938	-37.562127	-59.018907	-37.562127	-59.018907	-0.454525	-168.804420
8.950000	-0.457749	123.486951	-37.524063	-60.422245	-37.524063	-60.422245	-0.460215	-169.673014
9.000000	-0.461291	122.261555	-37.487406	-61.818095	-37.487406	-61.818095	-0.465953	-170.543293
9.050000	-0.464817	121.032729	-37.452140	-63.206339	-37.452140	-63.206339	-0.471741	-171.415321
9.100000	-0.468327	119.800455	-37.418249	-64.586863	-37.418249	-64.586863	-0.477577	-172.289162
9.150000	-0.471820	118.564715	-37.385718	-65.959551	-37.385718	-65.959551	-0.483462	-173.164879
9.200000	-0.475294	117.325498	-37.354530	-67.324292	-37.354530	-67.324292	-0.489396	-174.042538
9.250000	-0.478750	116.082793	-37.324668	-68.680976	-37.324668	-68.680976	-0.495378	-174.922201
9.300000	-0.482185	114.836592	-37.296114	-70.029496	-37.296114	-70.029496	-0.501407	-175.803934
9.350000	-0.485600	113.586893	-37.268852	-71.369747	-37.268852	-71.369747	-0.507484	-176.687802
9.400000	-0.488993	112.333693	-37.242863	-72.701629	-37.242863	-72.701629	-0.513607	-177.573870
9.450000	-0.492364	111.076997	-37.218129	-74.025042	-37.218129	-74.025042	-0.519777	-178.462204
9.500000	-0.495711	109.816809	-37.194632	-75.339893	-37.194632	-75.339893	-0.525994	-179.352869
9.550000	-0.499035	108.553140	-37.172351	-76.646089	-37.172351	-76.646089	-0.532256	179.754068
9.600000	-0.502333	107.286000	-37.151269	-77.943542	-37.151269	-77.943542	-0.538563	178.858543
9.650000	-0.505607	106.015406	-37.131366	-79.232169	-37.131366	-79.232169	-0.544914	177.960487
9.700000	-0.508854	104.741379	-37.112621	-80.511889	-37.112621	-80.511889	-0.551309	177.059836
9.750000	-0.512074	103.463940	-37.095016	-81.782625	-37.095016	-81.782625	-0.557748	176.156521
9.800000	-0.515267	102.183116	-37.078530	-83.044305	-37.078530	-83.044305	-0.564229	175.250476
9.850000	-0.518432	100.898937	-37.063143	-84.296862	-37.063143	-84.296862	-0.570752	174.341634
9.900000	-0.521568	99.611438	-37.048835	-85.540230	-37.048835	-85.540230	-0.577317	173.429928
9.950000	-0.524676	98.320655	-37.035585	-86.774350	-37.035585	-86.774350	-0.583921	172.515290
10.000000	-0.527753	97.026629	-37.023372	-87.999167	-37.023372	-87.999167	-0.590566	171.597653
