! freq	dB(S11)	phase(S11)	dB(S12)	phase(S12)	
!     	dB(S21)	phase(S21)	dB(S22)	phase(S22)	
!S-par simulation data
#  GHz  S  DB  R 50
0.000000	-0.000000	0.000000	-366.010150	180.000000	-366.010150	180.000000	-0.000000	0.000000
0.050000	-0.000097	-0.809408	-110.520831	32.306842	-110.520831	32.306842	-0.000097	-0.809386
0.100000	-0.000384	-1.618591	-108.448332	47.046069	-108.448332	47.046069	-0.000385	-1.618546
0.150000	-0.000851	-2.427343	-106.398469	56.616626	-106.398469	56.616626	-0.000852	-2.427274
0.200000	-0.001480	-3.235488	-104.642348	62.581709	-104.642348	62.581709	-0.001483	-3.235393
0.250000	-0.002262	-4.042825	-103.191739	66.356408	-103.191739	66.356408	-0.002265	-4.042702
0.300000	-0.003160	-4.849313	-102.002896	69.001856	-102.002896	69.001856	-0.003164	-4.849160
0.350000	-0.004160	-5.654839	-101.033895	70.915169	-101.033895	70.915169	-0.004165	-5.654654
0.400000	-0.005239	-6.459353	-100.252671	72.399062	-100.252671	72.399062	-0.005245	-6.459135
0.450000	-0.006378	-7.262833	-99.636128	73.653370	-99.636128	73.653370	-0.006385	-7.262581
0.500000	-0.007560	-8.065277	-99.168406	74.825811	-99.168406	74.825811	-0.007567	-8.064991
0.550000	-0.008769	-8.866700	-98.839263	76.041171	-98.839263	76.041171	-0.008775	-8.866379
0.600000	-0.009992	-9.667124	-98.642801	77.420948	-98.642801	77.420948	-0.009998	-9.666769
0.650000	-0.011220	-10.466581	-98.576361	79.099933	-98.576361	79.099933	-0.011226	-10.466192
0.700000	-0.012446	-11.265102	-98.639236	81.243856	-98.639236	81.243856	-0.012451	-11.264680
0.750000	-0.013663	-12.062716	-98.830563	84.071257	-98.830563	84.071257	-0.013668	-12.062263
0.800000	-0.014868	-12.859452	-99.145060	87.881108	-99.145060	87.881108	-0.014873	-12.858968
0.850000	-0.016059	-13.655334	-99.564099	93.081249	-99.564099	93.081249	-0.016063	-13.654820
0.900000	-0.017234	-14.450382	-100.038009	100.190181	-100.038009	100.190181	-0.017237	-14.449839
0.950000	-0.018393	-15.244609	-100.457498	109.730614	-100.457498	109.730614	-0.018395	-15.244038
1.000000	-0.019535	-16.038026	-100.630628	121.881793	-100.630628	121.881793	-0.019537	-16.037427
1.050000	-0.020661	-16.830639	-100.324750	135.916540	-100.324750	135.916540	-0.020663	-16.830013
1.100000	-0.021773	-17.622449	-99.418296	150.017343	-99.418296	150.017343	-0.021774	-17.621797
1.150000	-0.022871	-18.413454	-98.017869	162.237906	-98.017869	162.237906	-0.022871	-18.412776
1.200000	-0.023956	-19.203650	-96.356931	171.710699	-96.356931	171.710699	-0.023956	-19.202946
1.250000	-0.025029	-19.993029	-94.629872	178.615556	-94.629872	178.615556	-0.025029	-19.992300
1.300000	-0.026092	-20.781545	-92.933385	-176.550977	-92.933385	-176.550977	-0.026091	-20.780790
1.350000	-0.027145	-21.569220	-91.325368	-173.155228	-91.325368	-173.155228	-0.027144	-21.568441
1.400000	-0.028190	-22.356043	-89.816185	-170.806219	-89.816185	-170.806219	-0.028189	-22.355238
1.450000	-0.029228	-23.141998	-88.403235	-169.226009	-88.403235	-169.226009	-0.029227	-23.141169
1.500000	-0.030260	-23.927070	-87.079109	-168.219381	-87.079109	-168.219381	-0.030259	-23.926215
1.550000	-0.031287	-24.711243	-85.835170	-167.648462	-85.835170	-167.648462	-0.031285	-24.710363
1.600000	-0.032309	-25.494499	-84.663026	-167.414568	-84.663026	-167.414568	-0.032308	-25.493595
1.650000	-0.033328	-26.276822	-83.555062	-167.445885	-83.555062	-167.445885	-0.033326	-26.275893
1.700000	-0.034343	-27.057856	-82.480396	-167.744505	-82.480396	-167.744505	-0.034341	-27.056901
1.750000	-0.035356	-27.838387	-81.492247	-168.139155	-81.492247	-168.139155	-0.035355	-27.837407
1.800000	-0.036368	-28.617709	-80.535831	-168.694208	-80.535831	-168.694208	-0.036367	-28.616704
1.850000	-0.037379	-29.396167	-79.629832	-169.363835	-79.629832	-169.363835	-0.037378	-29.395137
1.900000	-0.038390	-30.173551	-78.759029	-170.128832	-78.759029	-170.128832	-0.038388	-30.172495
1.950000	-0.039400	-30.949859	-77.921832	-170.989198	-77.921832	-170.989198	-0.039399	-30.948779
2.000000	-0.040411	-31.725240	-77.122047	-171.906983	-77.122047	-171.906983	-0.040409	-31.724134
2.050000	-0.041422	-32.499322	-76.343332	-172.905155	-76.343332	-172.905155	-0.041421	-32.498192
2.100000	-0.042435	-33.272638	-75.603449	-173.937622	-75.603449	-173.937622	-0.042434	-33.271483
2.150000	-0.043450	-34.044421	-74.875136	-175.038681	-74.875136	-175.038681	-0.043449	-34.043241
2.200000	-0.044466	-34.815611	-74.186517	-176.159461	-74.186517	-176.159461	-0.044465	-34.814406
2.250000	-0.045486	-35.585023	-73.502181	-177.339406	-73.502181	-177.339406	-0.045485	-35.583793
2.300000	-0.046506	-36.354028	-72.857988	-178.529653	-72.857988	-178.529653	-0.046505	-36.352773
2.350000	-0.047533	-37.121000	-72.212437	-179.771405	-72.212437	-179.771405	-0.047532	-37.119720
2.400000	-0.048560	-37.887762	-71.607166	178.982736	-71.607166	178.982736	-0.048559	-37.886458
2.450000	-0.049594	-38.652228	-70.996146	177.691701	-70.996146	177.691701	-0.049593	-38.650900
2.500000	-0.050628	-39.416694	-70.425298	176.400667	-70.425298	176.400667	-0.050627	-39.415341
2.550000	-0.051672	-40.178590	-69.845272	175.069778	-69.845272	175.069778	-0.051671	-40.177214
2.600000	-0.052716	-40.940487	-69.301566	173.738889	-69.301566	173.738889	-0.052715	-40.939088
2.650000	-0.053770	-41.699975	-68.753115	172.378122	-68.753115	172.378122	-0.053769	-41.698551
2.700000	-0.054825	-42.459243	-68.234104	171.014639	-68.234104	171.014639	-0.054824	-42.457796
2.750000	-0.055890	-43.216274	-67.714022	169.628749	-67.714022	169.628749	-0.055889	-43.214804
2.800000	-0.056958	-43.972857	-67.217606	168.238377	-67.217606	168.238377	-0.056956	-43.971365
2.850000	-0.058035	-44.727387	-66.723172	166.831261	-66.723172	166.831261	-0.058034	-44.725872
2.900000	-0.059117	-45.481233	-66.247535	165.418563	-66.247535	165.418563	-0.059115	-45.479695
2.950000	-0.060208	-46.233220	-65.776416	163.993452	-65.776416	163.993452	-0.060207	-46.231660
3.000000	-0.061305	-46.984278	-65.319972	162.562135	-65.319972	162.562135	-0.061303	-46.982696
3.050000	-0.062412	-47.733683	-64.870150	161.121738	-64.870150	161.121738	-0.062410	-47.732079
3.100000	-0.063526	-48.481907	-64.431503	159.674855	-64.431503	159.674855	-0.063524	-48.480281
3.150000	-0.064649	-49.228692	-64.001222	158.221460	-64.001222	158.221460	-0.064647	-49.227045
3.200000	-0.065781	-49.974040	-63.579134	156.761554	-63.579134	156.761554	-0.065779	-49.972372
3.250000	-0.066922	-50.718173	-63.166852	155.297114	-63.166852	155.297114	-0.066920	-50.716483
3.300000	-0.068075	-51.460604	-62.760219	153.826325	-62.760219	153.826325	-0.068072	-51.458894
3.350000	-0.069235	-52.202052	-62.364575	152.352515	-62.364575	152.352515	-0.069232	-52.200322
3.400000	-0.070409	-52.941532	-61.972405	150.872659	-61.972405	150.872659	-0.070406	-52.939781
3.450000	-0.071589	-53.680267	-61.592191	149.390925	-61.592191	149.390925	-0.071586	-53.678496
3.500000	-0.072786	-54.416763	-61.213589	147.903554	-61.213589	147.903554	-0.072784	-54.414972
3.550000	-0.073988	-55.152757	-60.847723	146.415152	-60.847723	146.415152	-0.073986	-55.150947
3.600000	-0.075211	-55.886242	-60.481877	144.921596	-60.481877	144.921596	-0.075208	-55.884412
3.650000	-0.076436	-56.619473	-60.129392	143.427619	-60.129392	143.427619	-0.076433	-56.617623
3.700000	-0.077685	-57.349919	-59.775561	141.929022	-59.775561	141.929022	-0.077682	-57.348051
3.750000	-0.078934	-58.080366	-59.435582	140.430426	-59.435582	140.430426	-0.078931	-58.078479
3.800000	-0.080211	-58.807753	-59.093090	138.927777	-59.093090	138.927777	-0.080208	-58.805848
3.850000	-0.081489	-59.535141	-58.763592	137.425128	-58.763592	137.425128	-0.081486	-59.533217
3.900000	-0.082794	-60.259708	-58.433051	135.919546	-58.433051	135.919546	-0.082790	-60.257765
3.950000	-0.084101	-60.984018	-58.113483	134.413696	-58.113483	134.413696	-0.084098	-60.982058
4.000000	-0.085435	-61.705752	-57.794152	132.905792	-57.794152	132.905792	-0.085432	-61.703774
4.050000	-0.086774	-62.426971	-57.484004	131.397476	-57.484004	131.397476	-0.086771	-62.424975
4.100000	-0.088138	-63.145862	-57.175209	129.887784	-57.175209	129.887784	-0.088135	-63.143849
4.150000	-0.089511	-63.863978	-56.874009	128.377632	-56.874009	128.377632	-0.089507	-63.861947
4.200000	-0.090907	-64.580020	-56.575132	126.866616	-56.575132	126.866616	-0.090903	-64.577972
4.250000	-0.092314	-65.295025	-56.282442	125.355168	-56.282442	125.355168	-0.092311	-65.292960
4.300000	-0.093744	-66.008213	-55.992919	123.843230	-55.992919	123.843230	-0.093740	-66.006131
4.350000	-0.095188	-66.720102	-55.708329	122.330944	-55.708329	122.330944	-0.095185	-66.718004
4.400000	-0.096652	-67.430434	-55.427640	120.818431	-55.427640	120.818431	-0.096649	-67.428320
4.450000	-0.098136	-68.139208	-55.150770	119.305692	-55.150770	119.305692	-0.098132	-68.137077
4.500000	-0.099636	-68.846684	-54.878438	117.792899	-54.878438	117.792899	-0.099633	-68.844538
4.550000	-0.101160	-69.552344	-54.608934	116.280031	-54.608934	116.280031	-0.101157	-69.550182
4.600000	-0.102698	-70.256968	-54.344519	114.767209	-54.344519	114.767209	-0.102695	-70.254790
4.650000	-0.104264	-70.959520	-54.082049	113.254478	-54.082049	113.254478	-0.104261	-70.957326
4.700000	-0.105842	-71.661296	-53.825143	111.741837	-53.825143	111.741837	-0.105838	-71.659088
4.750000	-0.107452	-72.360748	-53.569398	110.229460	-53.569398	110.229460	-0.107449	-72.358524
4.800000	-0.109070	-73.059685	-53.319626	108.717172	-53.319626	108.717172	-0.109067	-73.057446
4.850000	-0.110727	-73.756049	-53.070317	107.205323	-53.070317	107.205323	-0.110723	-73.753795
4.900000	-0.112387	-74.452157	-52.827332	105.693529	-52.827332	105.693529	-0.112384	-74.449888
4.950000	-0.114092	-75.145447	-52.584189	104.182342	-52.584189	104.182342	-0.114088	-75.143165
5.000000	-0.115796	-75.838738	-52.347668	102.671156	-52.347668	102.671156	-0.115793	-75.836441
5.050000	-0.117550	-76.528973	-52.110440	101.160735	-52.110440	101.160735	-0.117547	-76.526662
5.100000	-0.119304	-77.219208	-51.879519	99.650314	-51.879519	99.650314	-0.119301	-77.216883
5.150000	-0.121106	-77.906661	-51.648535	98.140664	-51.648535	98.140664	-0.121102	-77.904323
5.200000	-0.122912	-78.593862	-51.423000	96.631084	-51.423000	96.631084	-0.122908	-78.591510
5.250000	-0.124762	-79.278553	-51.197979	95.122249	-51.197979	95.122249	-0.124758	-79.276187
5.300000	-0.126621	-79.962742	-50.977628	93.613564	-50.977628	93.613564	-0.126618	-79.960363
5.350000	-0.128522	-80.644692	-50.758310	92.105576	-50.758310	92.105576	-0.128518	-80.642301
5.400000	-0.130436	-81.325897	-50.542956	90.597820	-50.542956	90.597820	-0.130433	-81.323492
5.450000	-0.132389	-82.005130	-50.329098	89.090699	-50.329098	89.090699	-0.132386	-82.002713
5.500000	-0.134361	-82.683379	-50.118567	87.583896	-50.118567	87.583896	-0.134357	-82.680949
5.550000	-0.136367	-83.359921	-49.909944	86.077656	-49.909944	86.077656	-0.136364	-83.357480
5.600000	-0.138398	-84.035245	-49.704072	84.571818	-49.704072	84.571818	-0.138395	-84.032792
5.650000	-0.140460	-84.709125	-49.500477	83.066466	-49.500477	83.066466	-0.140456	-84.706659
5.700000	-0.142552	-85.381559	-49.299113	81.561602	-49.299113	81.561602	-0.142548	-85.379082
5.750000	-0.144670	-86.052805	-49.100351	80.057145	-49.100351	80.057145	-0.144666	-86.050316
5.800000	-0.146825	-86.722386	-48.903353	78.553260	-48.903353	78.553260	-0.146821	-86.719886
5.850000	-0.149001	-87.391030	-48.709244	77.049705	-48.709244	77.049705	-0.148998	-87.388519
5.900000	-0.151221	-88.057797	-48.516481	75.546808	-48.516481	75.546808	-0.151217	-88.055275
5.950000	-0.153457	-88.723872	-48.326856	74.044162	-48.326856	74.044162	-0.153454	-88.721339
6.000000	-0.155743	-89.387867	-48.138206	72.542267	-48.138206	72.542267	-0.155740	-89.385324
6.050000	-0.158041	-90.051408	-47.952908	71.040542	-47.952908	71.040542	-0.158038	-90.048855
6.100000	-0.160396	-90.712676	-47.768256	69.539669	-47.768256	69.539669	-0.160392	-90.710112
6.150000	-0.162757	-91.373720	-47.587139	68.038885	-47.587139	68.038885	-0.162753	-91.371146
6.200000	-0.165181	-92.032305	-47.406379	66.539066	-47.406379	66.539066	-0.165178	-92.029722
6.250000	-0.167607	-92.690891	-47.229304	65.039247	-47.229304	65.039247	-0.167603	-92.688298
6.300000	-0.170104	-93.346843	-47.052336	63.540525	-47.052336	63.540525	-0.170100	-93.344241
6.350000	-0.172601	-94.002796	-46.878902	62.041804	-46.878902	62.041804	-0.172598	-94.000184
6.400000	-0.175166	-94.656381	-46.705906	60.544140	-46.705906	60.544140	-0.175163	-94.653760
6.450000	-0.177738	-95.309750	-46.536024	59.046573	-46.536024	59.046573	-0.177734	-95.307121
6.500000	-0.180372	-95.961012	-46.366876	57.550029	-46.366876	57.550029	-0.180368	-95.958374
6.550000	-0.183019	-96.611852	-46.200465	56.053689	-46.200465	56.053689	-0.183015	-96.609205
6.600000	-0.185724	-97.260836	-46.035050	54.558335	-46.035050	54.558335	-0.185720	-97.258181
6.650000	-0.188448	-97.909201	-45.872029	53.063310	-45.872029	53.063310	-0.188445	-97.906538
6.700000	-0.191225	-98.555954	-45.710236	51.569232	-45.710236	51.569232	-0.191222	-98.553283
6.750000	-0.194029	-99.201901	-45.550530	50.075627	-45.550530	50.075627	-0.194026	-99.199222
6.800000	-0.196880	-99.846473	-45.392254	48.582920	-45.392254	48.582920	-0.196877	-99.843786
6.850000	-0.199765	-100.490061	-45.235790	47.090856	-45.235790	47.090856	-0.199761	-100.487367
6.900000	-0.202691	-101.132500	-45.080928	45.599631	-45.080928	45.599631	-0.202687	-101.129799
6.950000	-0.205658	-101.773790	-44.927635	44.109244	-44.927635	44.109244	-0.205655	-101.771082
7.000000	-0.208660	-102.414149	-44.776091	42.619619	-44.776091	42.619619	-0.208657	-102.411434
7.050000	-0.211711	-103.053204	-44.625896	41.131060	-44.625896	41.131060	-0.211708	-103.050482
7.100000	-0.214792	-103.691536	-44.477575	39.643166	-44.477575	39.643166	-0.214789	-103.688807
7.150000	-0.217929	-104.328420	-44.330409	38.156601	-44.330409	38.156601	-0.217926	-104.325686
7.200000	-0.221088	-104.964779	-44.185219	36.670578	-44.185219	36.670578	-0.221085	-104.962038
7.250000	-0.224312	-105.599560	-44.041011	35.186181	-44.041011	35.186181	-0.224310	-105.596813
7.300000	-0.227552	-106.234001	-43.898861	33.702177	-43.898861	33.702177	-0.227549	-106.231248
7.350000	-0.230865	-106.866747	-43.757538	32.220133	-43.757538	32.220133	-0.230862	-106.863988
7.400000	-0.234186	-107.499328	-43.618339	30.738302	-43.618339	30.738302	-0.234184	-107.496564
7.450000	-0.237589	-108.130109	-43.479829	29.258803	-43.479829	29.258803	-0.237587	-108.127340
7.500000	-0.240993	-108.760890	-43.343492	27.779303	-43.343492	27.779303	-0.240991	-108.758115
7.550000	-0.244488	-109.389778	-43.207718	26.302542	-43.207718	26.302542	-0.244486	-109.386998
7.600000	-0.247984	-110.018665	-43.074033	24.825781	-43.074033	24.825781	-0.247982	-110.015881
7.650000	-0.251563	-110.645886	-42.941040	23.351707	-42.941040	23.351707	-0.251562	-110.643097
7.700000	-0.255152	-111.272955	-42.809933	21.877877	-42.809933	21.877877	-0.255151	-111.270161
7.750000	-0.258818	-111.898572	-42.679626	20.406648	-42.679626	20.406648	-0.258817	-111.895773
7.800000	-0.262500	-112.523899	-42.551018	18.935939	-42.551018	18.935939	-0.262500	-112.521095
7.850000	-0.266254	-113.147977	-42.423303	17.467706	-42.423303	17.467706	-0.266253	-113.145169
7.900000	-0.270031	-113.771638	-42.297114	16.000299	-42.297114	16.000299	-0.270031	-113.768826
7.950000	-0.273873	-114.394243	-42.171894	14.535206	-42.171894	14.535206	-0.273873	-114.391426
8.000000	-0.277747	-115.016319	-42.048040	13.071270	-42.048040	13.071270	-0.277747	-115.013498
8.050000	-0.281677	-115.637517	-41.925219	11.609446	-41.925219	11.609446	-0.281678	-115.634693
8.100000	-0.285649	-116.258089	-41.803612	10.149133	-41.803612	10.149133	-0.285650	-116.255261
8.150000	-0.289669	-116.877951	-41.683092	8.690696	-41.683092	8.690696	-0.289671	-116.875118
8.200000	-0.293739	-117.497102	-41.563639	7.234136	-41.563639	7.234136	-0.293741	-117.494266
8.250000	-0.297850	-118.115697	-41.445322	5.779184	-41.445322	5.779184	-0.297852	-118.112857
8.300000	-0.302018	-118.733513	-41.327927	4.326482	-41.327927	4.326482	-0.302021	-118.730669
8.350000	-0.306221	-119.350913	-41.211713	2.875092	-41.211713	2.875092	-0.306224	-119.348065
8.400000	-0.310489	-119.967480	-41.096276	1.426324	-41.096276	1.426324	-0.310493	-119.964629
8.450000	-0.314783	-120.583758	-40.982066	-0.021451	-40.982066	-0.021451	-0.314788	-120.580903
8.500000	-0.319152	-121.199166	-40.868484	-1.466247	-40.868484	-1.466247	-0.319157	-121.196308
8.550000	-0.323539	-121.814396	-40.756174	-2.910380	-40.756174	-2.910380	-0.323544	-121.811534
8.600000	-0.328008	-122.428736	-40.644340	-4.351201	-40.644340	-4.351201	-0.328014	-122.425871
8.650000	-0.332488	-123.042995	-40.533830	-5.791696	-40.533830	-5.791696	-0.332494	-123.040126
8.700000	-0.337058	-123.656360	-40.423634	-7.228587	-40.423634	-7.228587	-0.337065	-123.653487
8.750000	-0.341631	-124.269725	-40.314819	-8.665479	-40.314819	-8.665479	-0.341639	-124.266849
8.800000	-0.346303	-124.882210	-40.206148	-10.098532	-40.206148	-10.098532	-0.346312	-124.879330
8.850000	-0.350978	-125.494696	-40.098820	-11.531584	-40.098820	-11.531584	-0.350987	-125.491812
8.900000	-0.355744	-126.106464	-39.991664	-12.961250	-39.991664	-12.961250	-0.355753	-126.103576
8.950000	-0.360520	-126.718167	-39.885712	-14.390607	-39.885712	-14.390607	-0.360530	-126.715275
9.000000	-0.365379	-127.329301	-39.779961	-15.817052	-39.779961	-15.817052	-0.365390	-127.326405
9.050000	-0.370257	-127.940321	-39.675270	-17.242914	-39.675270	-17.242914	-0.370269	-127.937421
9.100000	-0.375210	-128.550905	-39.570816	-18.666349	-39.570816	-18.666349	-0.375222	-128.548001
9.150000	-0.380190	-129.161344	-39.467271	-20.088976	-39.467271	-20.088976	-0.380203	-129.158436
9.200000	-0.385236	-129.771466	-39.364007	-21.509662	-39.364007	-21.509662	-0.385250	-129.768553
9.250000	-0.390317	-130.381428	-39.261492	-22.929377	-39.261492	-22.929377	-0.390332	-130.378511
9.300000	-0.395456	-130.991174	-39.159311	-24.347622	-39.159311	-24.347622	-0.395472	-130.988252
9.350000	-0.400638	-131.600766	-39.057709	-25.764817	-39.057709	-25.764817	-0.400654	-131.597839
9.400000	-0.405870	-132.210228	-38.956506	-27.180983	-38.956506	-27.180983	-0.405887	-132.207296
9.450000	-0.411152	-132.819559	-38.855702	-28.596121	-38.855702	-28.596121	-0.411170	-132.816621
9.500000	-0.416476	-133.428827	-38.755375	-30.010626	-38.755375	-30.010626	-0.416495	-133.425884
9.550000	-0.421857	-134.038009	-38.655254	-31.424245	-38.655254	-31.424245	-0.421878	-134.035060
9.600000	-0.427273	-134.647179	-38.555703	-32.837562	-38.555703	-32.837562	-0.427294	-134.644224
9.650000	-0.432753	-135.256325	-38.456152	-34.250276	-38.456152	-34.250276	-0.432775	-135.253364
9.700000	-0.438259	-135.865492	-38.357280	-35.662939	-38.357280	-35.662939	-0.438282	-135.862524
9.750000	-0.443836	-136.474720	-38.258190	-37.075448	-38.258190	-37.075448	-0.443860	-136.471745
9.800000	-0.449431	-137.083982	-38.159904	-38.488052	-38.159904	-38.488052	-0.449457	-137.081000
9.850000	-0.455105	-137.693412	-38.061169	-39.901136	-38.061169	-39.901136	-0.455131	-137.690422
9.900000	-0.460789	-138.302869	-37.963380	-41.314340	-37.963380	-41.314340	-0.460817	-138.299872
9.950000	-0.466556	-138.912624	-37.864901	-42.728870	-37.864901	-42.728870	-0.466585	-138.909618
10.000000	-0.472328	-139.522379	-37.767525	-44.143400	-37.767525	-44.143400	-0.472358	-139.519365
