! freq	dB(S11)	phase(S11)	dB(S12)	phase(S12)	
!     	dB(S21)	phase(S21)	dB(S22)	phase(S22)	
!S-par simulation data
#  GHz  S  DB  R 50
0.000000	-0.000000	0.000000	-342.942868	0.000000	-342.942868	0.000000	0.000000	0.000000
0.050000	-0.001103	-1.792755	-103.157266	88.728434	-103.157266	88.728434	-0.000581	-0.870961
0.100000	-0.003824	-3.577816	-97.166445	87.470506	-97.166445	87.470506	-0.001897	-1.737225
0.150000	-0.007110	-5.353525	-93.694338	86.220119	-93.694338	86.220119	-0.003318	-2.598730
0.200000	-0.010278	-7.122060	-91.268916	84.985092	-91.268916	84.985092	-0.004573	-3.457369
0.250000	-0.013159	-8.886689	-89.420482	83.769118	-89.420482	83.769118	-0.005680	-4.314796
0.300000	-0.015745	-10.648719	-87.946797	82.579161	-87.946797	82.579161	-0.006686	-5.171606
0.350000	-0.018099	-12.408894	-86.738677	81.422201	-86.738677	81.422201	-0.007648	-6.028094
0.400000	-0.020288	-14.167382	-85.732090	80.306847	-85.732090	80.306847	-0.008604	-6.884353
0.450000	-0.022362	-15.923872	-84.891270	79.248252	-84.891270	79.248252	-0.009584	-7.740376
0.500000	-0.024372	-17.678260	-84.182040	78.253138	-84.182040	78.253138	-0.010599	-8.596167
0.550000	-0.026345	-19.430225	-83.584995	77.334560	-83.584995	77.334560	-0.011651	-9.451699
0.600000	-0.028299	-21.179440	-83.086207	76.507856	-83.086207	76.507856	-0.012738	-10.306940
0.650000	-0.030246	-22.925585	-82.675496	75.791138	-82.675496	75.791138	-0.013853	-11.161850
0.700000	-0.032195	-24.668352	-82.345328	75.205911	-82.345328	75.205911	-0.014985	-12.016374
0.750000	-0.034152	-26.407214	-82.094065	74.789499	-82.094065	74.789499	-0.016124	-12.870407
0.800000	-0.036120	-28.141885	-81.916962	74.577604	-81.916962	74.577604	-0.017259	-13.723851
0.850000	-0.038100	-29.872586	-81.803223	74.583921	-81.803223	74.583921	-0.018383	-14.576679
0.900000	-0.040094	-31.598580	-81.757253	74.886626	-81.757253	74.886626	-0.019491	-15.428710
0.950000	-0.042100	-33.319816	-81.773230	75.537062	-81.773230	75.537062	-0.020583	-16.279877
1.000000	-0.044116	-35.036081	-81.847082	76.610406	-81.847082	76.610406	-0.021659	-17.130101
1.050000	-0.046141	-36.747178	-81.972803	78.197890	-81.972803	78.197890	-0.022724	-17.979321
1.100000	-0.048173	-38.452924	-82.140919	80.407582	-82.140919	80.407582	-0.023779	-18.827489
1.150000	-0.050209	-40.153145	-82.336314	83.361389	-82.336314	83.361389	-0.024829	-19.674576
1.200000	-0.052246	-41.847681	-82.535449	87.183996	-82.535449	87.183996	-0.025877	-20.520559
1.250000	-0.054283	-43.536382	-82.703584	91.977473	-82.703584	91.977473	-0.026925	-21.365425
1.300000	-0.056317	-45.218976	-82.790722	97.795603	-82.790722	97.795603	-0.027974	-22.209139
1.350000	-0.058345	-46.895460	-82.741980	104.510110	-82.741980	104.510110	-0.029025	-23.051719
1.400000	-0.060366	-48.565715	-82.506279	111.835173	-82.506279	111.835173	-0.030080	-23.893159
1.450000	-0.062377	-50.229629	-82.054593	119.330403	-82.054593	119.330403	-0.031136	-24.733452
1.500000	-0.064378	-51.887102	-81.392064	126.509814	-81.392064	126.509814	-0.032196	-25.572591
1.550000	-0.066366	-53.538039	-80.555100	132.978394	-80.555100	132.978394	-0.033258	-26.410568
1.600000	-0.068341	-55.182355	-79.595993	138.512130	-79.595993	138.512130	-0.034322	-27.247376
1.650000	-0.070302	-56.819973	-78.566435	143.053587	-78.566435	143.053587	-0.035389	-28.083003
1.700000	-0.072246	-58.450157	-77.495291	146.575517	-77.495291	146.575517	-0.036457	-28.917323
1.750000	-0.074176	-60.074097	-76.438005	149.358558	-76.438005	149.358558	-0.037526	-29.750544
1.800000	-0.076089	-61.691152	-75.399356	151.441609	-75.399356	151.441609	-0.038596	-30.582551
1.850000	-0.077987	-63.301275	-74.389988	152.940950	-74.389988	152.940950	-0.039667	-31.413332
1.900000	-0.079869	-64.904424	-73.415369	153.958139	-73.415369	153.958139	-0.040739	-32.242872
1.950000	-0.081735	-66.500565	-72.477696	154.578057	-72.477696	154.578057	-0.041812	-33.071160
2.000000	-0.083586	-68.089672	-71.577199	154.870079	-71.577199	154.870079	-0.042886	-33.898180
2.050000	-0.085422	-69.671722	-70.712975	154.890323	-70.712975	154.890323	-0.043961	-34.723918
2.100000	-0.087244	-71.246700	-69.883515	154.684044	-69.883515	154.684044	-0.045038	-35.548361
2.150000	-0.089053	-72.814599	-69.087019	154.287775	-69.087019	154.287775	-0.046115	-36.371493
2.200000	-0.090850	-74.375414	-68.321590	153.731119	-68.321590	153.731119	-0.047194	-37.193301
2.250000	-0.092635	-75.929148	-67.585341	153.038190	-67.585341	153.038190	-0.048276	-38.013768
2.300000	-0.094409	-77.475809	-66.876458	152.228745	-66.876458	152.228745	-0.049359	-38.832882
2.350000	-0.096175	-79.015411	-66.193230	151.319084	-66.193230	151.319084	-0.050445	-39.650627
2.400000	-0.097932	-80.547973	-65.534063	150.322738	-65.534063	150.322738	-0.051533	-40.466988
2.450000	-0.099682	-82.073519	-64.897484	149.251022	-64.897484	149.251022	-0.052625	-41.281952
2.500000	-0.101427	-83.592078	-64.282135	148.113458	-64.282135	148.113458	-0.053721	-42.095505
2.550000	-0.103167	-85.103383	-63.685873	146.915923	-63.685873	146.915923	-0.054821	-42.907569
2.600000	-0.104905	-86.607776	-63.108572	145.668010	-63.108572	145.668010	-0.055925	-43.718193
2.650000	-0.106641	-88.105302	-62.549167	144.375509	-62.549167	144.375509	-0.057034	-44.527363
2.700000	-0.108376	-89.596009	-62.006682	143.043426	-62.006682	143.043426	-0.058149	-45.335066
2.750000	-0.110113	-91.079948	-61.480220	141.676114	-61.480220	141.676114	-0.059269	-46.141289
2.800000	-0.111852	-92.557176	-60.968956	140.277379	-60.968956	140.277379	-0.060396	-46.946020
2.850000	-0.113595	-94.027753	-60.472128	138.850566	-60.472128	138.850566	-0.061529	-47.749247
2.900000	-0.115343	-95.491743	-59.989034	137.398625	-59.989034	137.398625	-0.062669	-48.550958
2.950000	-0.117097	-96.949213	-59.519025	135.924175	-59.519025	135.924175	-0.063817	-49.351142
3.000000	-0.118858	-98.400235	-59.061496	134.429547	-59.061496	134.429547	-0.064973	-50.149787
3.050000	-0.120629	-99.844883	-58.615887	132.916824	-58.615887	132.916824	-0.066137	-50.946883
3.100000	-0.122409	-101.283235	-58.181677	131.387876	-58.181677	131.387876	-0.067310	-51.742420
3.150000	-0.124200	-102.715372	-57.758378	129.844387	-57.758378	129.844387	-0.068492	-52.536389
3.200000	-0.126004	-104.141376	-57.345533	128.287874	-57.345533	128.287874	-0.069684	-53.328779
3.250000	-0.127821	-105.561336	-56.942716	126.719714	-56.942716	126.719714	-0.070886	-54.119583
3.300000	-0.129653	-106.975339	-56.549524	125.141153	-56.549524	125.141153	-0.072099	-54.908791
3.350000	-0.131500	-108.383479	-56.165580	123.553325	-56.165580	123.553325	-0.073323	-55.696396
3.400000	-0.133363	-109.785849	-55.790528	121.957264	-55.790528	121.957264	-0.074558	-56.482390
3.450000	-0.135245	-111.182546	-55.424033	120.353909	-55.424033	120.353909	-0.075805	-57.266767
3.500000	-0.137144	-112.573669	-55.065774	118.744120	-55.065774	118.744120	-0.077064	-58.049520
3.550000	-0.139063	-113.959319	-54.715453	117.128680	-54.715453	117.128680	-0.078336	-58.830642
3.600000	-0.141002	-115.339600	-54.372783	115.508305	-54.372783	115.508305	-0.079621	-59.610128
3.650000	-0.142962	-116.714616	-54.037494	113.883649	-54.037494	113.883649	-0.080919	-60.387974
3.700000	-0.144944	-118.084474	-53.709327	112.255309	-53.709327	112.255309	-0.082232	-61.164173
3.750000	-0.146948	-119.449282	-53.388038	110.623830	-53.388038	110.623830	-0.083559	-61.938723
3.800000	-0.148976	-120.808942	-53.073187	108.989614	-53.073187	108.989614	-0.084901	-62.711548
3.850000	-0.151029	-122.163784	-52.764778	107.353244	-52.764778	107.353244	-0.086259	-63.482715
3.900000	-0.153106	-123.513922	-52.462598	105.715126	-52.462598	105.715126	-0.087633	-64.252223
3.950000	-0.155208	-124.859470	-52.166442	104.075627	-52.166442	104.075627	-0.089022	-65.020070
4.000000	-0.157336	-126.200545	-51.876116	102.435080	-51.876116	102.435080	-0.090428	-65.786252
4.050000	-0.159490	-127.537263	-51.591434	100.793787	-51.591434	100.793787	-0.091851	-66.550770
4.100000	-0.161671	-128.869742	-51.312218	99.152017	-51.312218	99.152017	-0.093292	-67.313623
4.150000	-0.163879	-130.198102	-51.038299	97.510015	-51.038299	97.510015	-0.094750	-68.074810
4.200000	-0.166114	-131.522462	-50.769515	95.867997	-50.769515	95.867997	-0.096226	-68.834331
4.250000	-0.168377	-132.842943	-50.505710	94.226157	-50.505710	94.226157	-0.097721	-69.592187
4.300000	-0.170669	-134.159667	-50.246738	92.584666	-50.246738	92.584666	-0.099235	-70.348380
4.350000	-0.172989	-135.472756	-49.992457	90.943675	-49.992457	90.943675	-0.100769	-71.102910
4.400000	-0.175338	-136.782333	-49.742733	89.303317	-49.742733	89.303317	-0.102322	-71.855779
4.450000	-0.177715	-138.088522	-49.497435	87.663707	-49.497435	87.663707	-0.103896	-72.606991
4.500000	-0.180123	-139.391448	-49.256443	86.024945	-49.256443	86.024945	-0.105490	-73.356547
4.550000	-0.182559	-140.691234	-49.019637	84.387117	-49.019637	84.387117	-0.107105	-74.104452
4.600000	-0.185025	-141.988007	-48.786907	82.750294	-48.786907	82.750294	-0.108742	-74.850708
4.650000	-0.187521	-143.281892	-48.558146	81.114539	-48.558146	81.114539	-0.110401	-75.595321
4.700000	-0.190046	-144.573015	-48.333251	79.479901	-48.333251	79.479901	-0.112083	-76.338294
4.750000	-0.192601	-145.861501	-48.112125	77.846422	-48.112125	77.846422	-0.113787	-77.079633
4.800000	-0.195186	-147.147479	-47.894676	76.214135	-47.894676	76.214135	-0.115515	-77.819343
4.850000	-0.197801	-148.431075	-47.680816	74.583067	-47.680816	74.583067	-0.117266	-78.557430
4.900000	-0.200446	-149.712415	-47.470461	72.953239	-47.470461	72.953239	-0.119041	-79.293900
4.950000	-0.203120	-150.991627	-47.263531	71.324664	-47.263531	71.324664	-0.120841	-80.028760
5.000000	-0.205824	-152.268839	-47.059949	69.697356	-47.059949	69.697356	-0.122666	-80.762017
5.050000	-0.208559	-153.544102	-46.859587	68.071377	-46.859587	68.071377	-0.124517	-81.493609
5.100000	-0.211323	-154.817631	-46.662438	66.446678	-46.662438	66.446678	-0.126394	-82.223614
5.150000	-0.214116	-156.089553	-46.468439	64.823263	-46.468439	64.823263	-0.128297	-82.952040
5.200000	-0.216938	-157.359997	-46.277527	63.201135	-46.277527	63.201135	-0.130227	-83.678896
5.250000	-0.219789	-158.629089	-46.089642	61.580297	-46.089642	61.580297	-0.132184	-84.404191
5.300000	-0.222669	-159.896956	-45.904727	59.960754	-45.904727	59.960754	-0.134169	-85.127933
5.350000	-0.225577	-161.163727	-45.722730	58.342509	-45.722730	58.342509	-0.136182	-85.850134
5.400000	-0.228513	-162.429528	-45.543598	56.725571	-45.543598	56.725571	-0.138223	-86.570802
5.450000	-0.231477	-163.694486	-45.367284	55.109946	-45.367284	55.109946	-0.140293	-87.289949
5.500000	-0.234469	-164.958729	-45.193741	53.495648	-45.193741	53.495648	-0.142392	-88.007584
5.550000	-0.237488	-166.222382	-45.022924	51.882689	-45.022924	51.882689	-0.144521	-88.723720
5.600000	-0.240533	-167.485573	-44.854792	50.271089	-44.854792	50.271089	-0.146680	-89.438368
5.650000	-0.243605	-168.748427	-44.689304	48.660868	-44.689304	48.660868	-0.148870	-90.151539
5.700000	-0.246703	-170.011070	-44.526422	47.052051	-44.526422	47.052051	-0.151091	-90.863246
5.750000	-0.249826	-171.273628	-44.366108	45.444669	-44.366108	45.444669	-0.153343	-91.573501
5.800000	-0.252975	-172.536226	-44.208327	43.838755	-44.208327	43.838755	-0.155627	-92.282316
5.850000	-0.256149	-173.798989	-44.053045	42.234346	-44.053045	42.234346	-0.157943	-92.989706
5.900000	-0.259347	-175.062040	-43.900229	40.631487	-43.900229	40.631487	-0.160291	-93.695683
5.950000	-0.262570	-176.325505	-43.749847	39.030223	-43.749847	39.030223	-0.162673	-94.400260
6.000000	-0.265815	-177.589507	-43.601867	37.430608	-43.601867	37.430608	-0.165089	-95.103453
6.050000	-0.269084	-178.854168	-43.456260	35.832696	-43.456260	35.832696	-0.167538	-95.805275
6.100000	-0.272375	179.880389	-43.312996	34.236549	-43.312996	34.236549	-0.170021	-96.505741
6.150000	-0.275689	178.614042	-43.172046	32.642231	-43.172046	32.642231	-0.172539	-97.204866
6.200000	-0.279024	177.346670	-43.033381	31.049812	-43.033381	31.049812	-0.175093	-97.902665
6.250000	-0.282380	176.078152	-42.896974	29.459363	-42.896974	29.459363	-0.177682	-98.599154
6.300000	-0.285758	174.808307	-42.762805	27.871056	-42.762805	27.871056	-0.180308	-99.294292
6.350000	-0.289155	173.537065	-42.630841	26.284883	-42.630841	26.284883	-0.182970	-99.988153
6.400000	-0.292573	172.264310	-42.501055	24.700929	-42.501055	24.700929	-0.185670	-100.680753
6.450000	-0.296009	170.989922	-42.373419	23.119280	-42.373419	23.119280	-0.188406	-101.372109
6.500000	-0.299464	169.713785	-42.247906	21.540023	-42.247906	21.540023	-0.191180	-102.062238
6.550000	-0.302937	168.435784	-42.124487	19.963249	-42.124487	19.963249	-0.193992	-102.751156
6.600000	-0.306427	167.155802	-42.003135	18.389050	-42.003135	18.389050	-0.196842	-103.438882
6.650000	-0.309934	165.873727	-41.883821	16.817518	-41.883821	16.817518	-0.199731	-104.125433
6.700000	-0.313458	164.589445	-41.766516	15.248747	-41.766516	15.248747	-0.202659	-104.810828
6.750000	-0.316999	163.302844	-41.651192	13.682830	-41.651192	13.682830	-0.205626	-105.495083
6.800000	-0.320554	162.013814	-41.537819	12.119862	-41.537819	12.119862	-0.208632	-106.178218
6.850000	-0.324125	160.722245	-41.426367	10.559934	-41.426367	10.559934	-0.211679	-106.860252
6.900000	-0.327711	159.428030	-41.316806	9.003137	-41.316806	9.003137	-0.214766	-107.541204
6.950000	-0.331311	158.131060	-41.209105	7.449562	-41.209105	7.449562	-0.217894	-108.221092
7.000000	-0.334924	156.831231	-41.103232	5.899296	-41.103232	5.899296	-0.221063	-108.899937
7.050000	-0.338552	155.528439	-40.999157	4.352422	-40.999157	4.352422	-0.224273	-109.577758
7.100000	-0.342192	154.222582	-40.896847	2.809024	-40.896847	2.809024	-0.227524	-110.254575
7.150000	-0.345845	152.913558	-40.796269	1.269177	-40.796269	1.269177	-0.230818	-110.930408
7.200000	-0.349510	151.601268	-40.697390	-0.267043	-40.697390	-0.267043	-0.234154	-111.605279
7.250000	-0.353188	150.285615	-40.600176	-1.799567	-40.600176	-1.799567	-0.237533	-112.279207
7.300000	-0.356877	148.966505	-40.504593	-3.328333	-40.504593	-3.328333	-0.240954	-112.952214
7.350000	-0.360578	147.643842	-40.410607	-4.853280	-40.410607	-4.853280	-0.244418	-113.624321
7.400000	-0.364290	146.317536	-40.318183	-6.374357	-40.318183	-6.374357	-0.247926	-114.295550
7.450000	-0.368013	144.987498	-40.227285	-7.891516	-40.227285	-7.891516	-0.251478	-114.965922
7.500000	-0.371748	143.653641	-40.137878	-9.404718	-40.137878	-9.404718	-0.255073	-115.635460
7.550000	-0.375493	142.315705	-40.049949	-10.913754	-40.049949	-10.913754	-0.258714	-116.304151
7.600000	-0.379250	140.973776	-39.963438	-12.418773	-39.963438	-12.418773	-0.262399	-116.972054
7.650000	-0.383017	139.627774	-39.878308	-13.919756	-39.878308	-13.919756	-0.266129	-117.639193
7.700000	-0.386796	138.277622	-39.794523	-15.416696	-39.794523	-15.416696	-0.269904	-118.305590
7.750000	-0.390585	136.923247	-39.712046	-16.909590	-39.712046	-16.909590	-0.273724	-118.971268
7.800000	-0.394386	135.564577	-39.630839	-18.398446	-39.630839	-18.398446	-0.277589	-119.636251
7.850000	-0.398197	134.201544	-39.550867	-19.883280	-39.550867	-19.883280	-0.281499	-120.300564
7.900000	-0.402021	132.834084	-39.472092	-21.364117	-39.472092	-21.364117	-0.285454	-120.964229
7.950000	-0.405856	131.462135	-39.394479	-22.840989	-39.394479	-22.840989	-0.289455	-121.627272
8.000000	-0.409704	130.085639	-39.317989	-24.313941	-39.317989	-24.313941	-0.293502	-122.289717
8.050000	-0.413564	128.704540	-39.242589	-25.783023	-39.242589	-25.783023	-0.297594	-122.951589
8.100000	-0.417437	127.318789	-39.168241	-27.248296	-39.168241	-27.248296	-0.301733	-123.612913
8.150000	-0.421324	125.928336	-39.094911	-28.709830	-39.094911	-28.709830	-0.305917	-124.273715
8.200000	-0.425226	124.533140	-39.022564	-30.167706	-39.022564	-30.167706	-0.310147	-124.934020
8.250000	-0.429143	123.133161	-38.951165	-31.622012	-38.951165	-31.622012	-0.314424	-125.593854
8.300000	-0.433076	121.728362	-38.880681	-33.072846	-38.880681	-33.072846	-0.318746	-126.253243
8.350000	-0.437025	120.318714	-38.811078	-34.520316	-38.811078	-34.520316	-0.323115	-126.912214
8.400000	-0.440992	118.904189	-38.742325	-35.964539	-38.742325	-35.964539	-0.327530	-127.570794
8.450000	-0.444978	117.484765	-38.674389	-37.405642	-38.674389	-37.405642	-0.331991	-128.229010
8.500000	-0.448984	116.060425	-38.607240	-38.843758	-38.607240	-38.843758	-0.336499	-128.886890
8.550000	-0.453011	114.631156	-38.540848	-40.279034	-38.540848	-40.279034	-0.341052	-129.544460
8.600000	-0.457060	113.196951	-38.475185	-41.711622	-38.475185	-41.711622	-0.345651	-130.201749
8.650000	-0.461133	111.757807	-38.410222	-43.141685	-38.410222	-43.141685	-0.350297	-130.858786
8.700000	-0.465231	110.313725	-38.345933	-44.569393	-38.345933	-44.569393	-0.354988	-131.515598
8.750000	-0.469356	108.864715	-38.282292	-45.994927	-38.282292	-45.994927	-0.359725	-132.172215
8.800000	-0.473511	107.410576	-38.219281	-47.418397	-38.219281	-47.418397	-0.364510	-132.828660
8.850000	-0.477696	105.951542	-38.156871	-48.840096	-38.156871	-48.840096	-0.369340	-133.484972
8.900000	-0.481912	104.487639	-38.095039	-50.260228	-38.095039	-50.260228	-0.374215	-134.141179
8.950000	-0.486163	103.018897	-38.033765	-51.679008	-38.033765	-51.679008	-0.379135	-134.797314
9.000000	-0.490450	101.545354	-37.973031	-53.096655	-37.973031	-53.096655	-0.384100	-135.453405
9.050000	-0.494775	100.067051	-37.912820	-54.513398	-37.912820	-54.513398	-0.389109	-136.109484
9.100000	-0.499140	98.584039	-37.853117	-55.929472	-37.853117	-55.929472	-0.394163	-136.765582
9.150000	-0.503548	97.096372	-37.793908	-57.345119	-37.793908	-57.345119	-0.399261	-137.421732
9.200000	-0.508001	95.604111	-37.735181	-58.760587	-37.735181	-58.760587	-0.404403	-138.077964
9.250000	-0.512501	94.107325	-37.676927	-60.176131	-37.676927	-60.176131	-0.409587	-138.734311
9.300000	-0.517051	92.606086	-37.619136	-61.592011	-37.619136	-61.592011	-0.414815	-139.390807
9.350000	-0.521653	91.100476	-37.561804	-63.008493	-37.561804	-63.008493	-0.420085	-140.047484
9.400000	-0.526311	89.590581	-37.504926	-64.425848	-37.504926	-64.425848	-0.425398	-140.704376
9.450000	-0.531026	88.076494	-37.448500	-65.844351	-37.448500	-65.844351	-0.430752	-141.361516
9.500000	-0.535803	86.558315	-37.392527	-67.264281	-37.392527	-67.264281	-0.436147	-142.018939
9.550000	-0.540642	85.036151	-37.337009	-68.685923	-37.337009	-68.685923	-0.441583	-142.676680
9.600000	-0.545549	83.510114	-37.281950	-70.109563	-37.281950	-70.109563	-0.447059	-143.334774
9.650000	-0.550525	81.980323	-37.227359	-71.535489	-37.227359	-71.535489	-0.452574	-143.993257
9.700000	-0.555574	80.446904	-37.173244	-72.963994	-37.173244	-72.963994	-0.458128	-144.652164
9.750000	-0.560698	78.909990	-37.119618	-74.395370	-37.119618	-74.395370	-0.463721	-145.311531
9.800000	-0.565902	77.369718	-37.066496	-75.829910	-37.066496	-75.829910	-0.469351	-145.971397
9.850000	-0.571187	75.826233	-37.013895	-77.267909	-37.013895	-77.267909	-0.475018	-146.631798
9.900000	-0.576558	74.279687	-36.961836	-78.709659	-36.961836	-78.709659	-0.480721	-147.292772
9.950000	-0.582017	72.730237	-36.910341	-80.155452	-36.910341	-80.155452	-0.486460	-147.954358
10.000000	-0.587568	71.178045	-36.859437	-81.605577	-36.859437	-81.605577	-0.492233	-148.616593
