! freq	dB(S11)	phase(S11)	dB(S12)	phase(S12)	
!     	dB(S21)	phase(S21)	dB(S22)	phase(S22)	
!S-par simulation data
#  GHz  S  DB  R 50
0.000000	-83.652936	0.000000	-0.000570	0.000000	-0.000570	0.000000	-83.652936	0.000000
0.050000	-35.480974	-92.884689	-0.005826	-3.175832	-0.005826	-3.175832	-35.475787	-92.863590
0.100000	-29.498218	-96.184944	-0.016090	-6.313188	-0.016090	-6.313188	-29.497451	-96.185141
0.150000	-26.021954	-99.441173	-0.027431	-9.429037	-0.027431	-9.429037	-26.022275	-99.462130
0.200000	-23.571385	-102.666638	-0.039951	-12.536241	-0.039951	-12.536241	-23.571807	-102.698993
0.250000	-21.687059	-105.855647	-0.054292	-15.636506	-0.054292	-15.636506	-21.687432	-105.893486
0.300000	-20.162777	-109.012641	-0.070641	-18.729131	-0.070641	-18.729131	-20.163138	-109.053982
0.350000	-18.888046	-112.143754	-0.088906	-21.813140	-0.088906	-21.813140	-18.888436	-112.188402
0.400000	-17.797648	-115.252956	-0.108972	-24.887420	-0.108972	-24.887420	-17.798099	-115.301461
0.450000	-16.851530	-118.341683	-0.130790	-27.950067	-0.130790	-27.950067	-16.852061	-118.394940
0.500000	-16.019241	-121.413266	-0.154032	-31.001139	-0.154032	-31.001139	-16.019853	-121.472117
0.550000	-15.280168	-124.468799	-0.178493	-34.040230	-0.178493	-34.040230	-15.280851	-124.533982
0.600000	-14.619700	-127.508483	-0.204000	-37.066702	-0.204000	-37.066702	-14.620434	-127.580613
0.650000	-14.027410	-130.531878	-0.230373	-40.079667	-0.230373	-40.079667	-14.028167	-130.611431
0.700000	-13.492808	-133.540235	-0.257360	-43.079896	-0.257360	-43.079896	-13.493562	-133.627519
0.750000	-13.008793	-136.533689	-0.284784	-46.067359	-0.284784	-46.067359	-13.009521	-136.628906
0.800000	-12.570678	-139.511642	-0.312464	-49.041449	-0.312464	-49.041449	-12.571361	-139.614922
0.850000	-12.173302	-142.474665	-0.340199	-52.002589	-0.340199	-52.002589	-12.173930	-142.586083
0.900000	-11.812462	-145.423286	-0.367808	-54.951188	-0.367808	-54.951188	-11.813035	-145.542903
0.950000	-11.484980	-148.357851	-0.395109	-57.887503	-0.395109	-57.887503	-11.485503	-148.485736
1.000000	-11.188063	-151.278884	-0.421924	-60.811954	-0.421924	-60.811954	-11.188549	-151.415141
1.050000	-10.919329	-154.187004	-0.448079	-63.725053	-0.448079	-63.725053	-10.919793	-154.331778
1.100000	-10.676737	-157.082915	-0.473407	-66.627405	-0.473407	-66.627405	-10.677198	-157.236407
1.150000	-10.458530	-159.967403	-0.497746	-69.519704	-0.497746	-69.519704	-10.459006	-160.129868
1.200000	-10.263191	-162.841327	-0.520939	-72.402733	-0.520939	-72.402733	-10.263700	-163.013078
1.250000	-10.089414	-165.705615	-0.542843	-75.277359	-0.542843	-75.277359	-10.089973	-165.887019
1.300000	-9.936629	-168.561002	-0.563267	-78.144318	-0.563267	-78.144318	-9.937251	-168.752491
1.350000	-9.803297	-171.408853	-0.582132	-81.004919	-0.582132	-81.004919	-9.803995	-171.610898
1.400000	-9.688597	-174.250258	-0.599324	-83.860259	-0.599324	-83.860259	-9.689379	-174.463379
1.450000	-9.591837	-177.086346	-0.614742	-86.711496	-0.614742	-86.711496	-9.592709	-177.311111
1.500000	-9.512444	-179.918279	-0.628299	-89.559841	-0.628299	-89.559841	-9.513410	179.844695
1.550000	-9.449953	177.252758	-0.639922	-92.406549	-0.639922	-92.406549	-9.451017	177.002799
1.600000	-9.404003	174.425558	-0.649552	-95.252915	-0.649552	-95.252915	-9.405167	174.161941
1.650000	-9.374330	171.598906	-0.657144	-98.100265	-0.657144	-98.100265	-9.375595	171.320841
1.700000	-9.360766	168.771580	-0.662668	-100.949944	-0.662668	-100.949944	-9.362131	168.478207
1.750000	-9.363230	165.942361	-0.666109	-103.803315	-0.666109	-103.803315	-9.364696	165.632742
1.800000	-9.381735	163.110041	-0.667468	-106.661748	-0.667468	-106.661748	-9.383304	162.783150
1.850000	-9.416382	160.273431	-0.666760	-109.526612	-0.666760	-109.526612	-9.418055	159.928140
1.900000	-9.467366	157.431368	-0.664017	-112.399268	-0.664017	-112.399268	-9.469145	157.066436
1.950000	-9.534973	154.582726	-0.659285	-115.281061	-0.659285	-115.281061	-9.536861	154.196782
2.000000	-9.619588	151.726428	-0.652625	-118.173315	-0.652625	-118.173315	-9.621591	151.317952
2.050000	-9.721699	148.861454	-0.644113	-121.077321	-0.644113	-121.077321	-9.723822	148.428753
2.100000	-9.841902	145.986853	-0.633840	-123.994331	-0.633840	-123.994331	-9.844153	145.528042
2.150000	-9.980913	143.101763	-0.621911	-126.925553	-0.621911	-126.925553	-9.983304	142.614725
2.200000	-10.139576	140.205420	-0.608444	-129.872137	-0.608444	-129.872137	-10.142119	139.687775
2.250000	-10.318878	137.297178	-0.593572	-132.835173	-0.593572	-132.835173	-10.321591	136.746240
2.300000	-10.519191	134.377089	-0.577487	-135.814863	-0.577487	-135.814863	-10.522093	133.789969
2.350000	-10.743580	131.443556	-0.560233	-138.813954	-0.560233	-138.813954	-10.746697	130.816599
2.400000	-10.992624	128.497117	-0.542047	-141.832327	-0.542047	-141.832327	-10.995988	127.826333
2.450000	-11.268101	125.537855	-0.523107	-144.870737	-0.523107	-144.870737	-11.271748	124.818646
2.500000	-11.572067	122.566126	-0.503600	-147.929833	-0.503600	-147.929833	-11.576046	121.793156
2.550000	-11.907340	119.582378	-0.483716	-151.010629	-0.483716	-151.010629	-11.911707	118.749257
2.600000	-12.276306	116.587991	-0.463670	-154.113087	-0.463670	-154.113087	-12.281133	115.687321
2.650000	-12.682255	113.584570	-0.443666	-157.237501	-0.443666	-157.237501	-12.687633	112.607556
2.700000	-13.129088	110.574347	-0.423912	-160.384030	-0.423912	-160.384030	-13.135132	109.510429
2.750000	-13.622603	107.560293	-0.404646	-163.553906	-0.404646	-163.553906	-13.629464	106.395849
2.800000	-14.166445	104.546966	-0.386034	-166.744846	-0.386034	-166.744846	-14.174313	103.266619
2.850000	-14.768455	101.539773	-0.368292	-169.957567	-0.368292	-169.957567	-14.777586	100.123656
2.900000	-15.437305	98.546411	-0.351615	-173.191685	-0.351615	-173.191685	-15.448052	96.969252
2.950000	-16.184026	95.577595	-0.336189	-176.446686	-0.336189	-176.446686	-16.196882	93.806587
3.000000	-17.022966	92.648639	-0.322187	-179.721926	-0.322187	-179.721926	-17.038643	90.640133
3.050000	-17.973286	89.782196	-0.309769	176.983359	-0.309769	176.983359	-17.992859	87.476372
3.100000	-19.061422	87.013330	-0.299080	173.670045	-0.299080	173.670045	-19.086592	84.325122
3.150000	-20.325333	84.399579	-0.290244	170.339107	-0.290244	170.339107	-20.358967	81.202192
3.200000	-21.822343	82.042959	-0.283364	166.991607	-0.283364	166.991607	-21.869688	78.135263
3.250000	-23.644898	80.144574	-0.278521	163.628676	-0.278521	163.628676	-23.716723	75.178735
3.300000	-25.955761	79.167732	-0.275771	160.251499	-0.275771	160.251499	-26.078258	72.459568
3.350000	-29.079846	80.330151	-0.275105	156.861513	-0.275105	156.861513	-29.334804	70.328029
3.400000	-33.716825	89.746328	-0.276641	153.459312	-0.276641	153.459312	-34.563721	70.974400
3.450000	-39.059699	136.734400	-0.280272	150.046604	-0.280272	150.046604	-42.649818	143.384570
3.500000	-36.291217	-165.538109	-0.285947	146.624563	-0.285947	146.624563	-38.106647	-139.565159
3.550000	-30.925133	-145.365183	-0.293585	143.194305	-0.293585	143.194305	-31.283575	-131.696678
3.600000	-27.386515	-142.161329	-0.303083	139.756872	-0.303083	139.756872	-27.528422	-133.257320
3.650000	-24.888263	-142.565209	-0.314309	136.313200	-0.314309	136.313200	-24.962464	-135.860856
3.700000	-22.985801	-144.257673	-0.327108	132.864109	-0.327108	132.864109	-23.030523	-138.812701
3.750000	-21.466659	-146.558391	-0.341304	129.410274	-0.341304	129.410274	-21.495987	-141.925840
3.800000	-20.219077	-149.209513	-0.356766	125.951942	-0.356766	125.951942	-20.239464	-145.130935
3.850000	-19.170889	-152.057320	-0.373182	122.489735	-0.373182	122.489735	-19.185543	-148.387107
3.900000	-18.278015	-155.036659	-0.390321	119.023756	-0.390321	119.023756	-18.288764	-151.677009
3.950000	-17.510614	-158.108387	-0.407937	115.553894	-0.407937	115.553894	-17.518569	-154.990238
4.000000	-16.847663	-161.247735	-0.425779	112.079812	-0.425779	112.079812	-16.853532	-158.320262
4.050000	-16.273906	-164.438433	-0.443586	108.600935	-0.443586	108.600935	-16.278155	-161.662878
4.100000	-15.778049	-167.669525	-0.461097	105.116440	-0.461097	105.116440	-15.780990	-165.015376
4.150000	-15.351626	-170.933542	-0.478051	101.625245	-0.478051	101.625245	-15.353471	-168.376049
4.200000	-14.988280	-174.225399	-0.494193	98.126004	-0.494193	98.126004	-14.989172	-171.743896
4.250000	-14.683292	-177.541695	-0.509274	94.617093	-0.509274	94.617093	-14.683318	-175.118416
4.300000	-14.433261	179.119743	-0.523057	91.096611	-0.523057	91.096611	-14.432470	-178.499464
4.350000	-14.235910	175.760189	-0.535322	87.562370	-0.535322	87.562370	-14.234315	178.112878
4.400000	-14.091661	172.379551	-0.545803	84.011227	-0.545803	84.011227	-14.089243	174.718172
4.450000	-14.000343	168.977947	-0.554310	80.440105	-0.554310	80.440105	-13.997047	171.316237
4.500000	-13.960975	165.555887	-0.560764	76.846432	-0.560764	76.846432	-13.956715	167.907350
4.550000	-13.975249	162.113101	-0.565061	73.226766	-0.565061	73.226766	-13.969896	164.491967
4.600000	-14.045986	158.649454	-0.567142	69.577352	-0.567142	69.577352	-14.039359	161.071254
4.650000	-14.177341	155.165231	-0.566996	65.894130	-0.566996	65.894130	-14.169186	157.647497
4.700000	-14.375104	151.661526	-0.564669	62.172737	-0.564669	62.172737	-14.365071	154.224721
4.750000	-14.647166	148.140833	-0.560276	58.408515	-0.560276	58.408515	-14.634762	150.809639
4.800000	-15.004214	144.607966	-0.554005	54.596526	-0.554005	54.596526	-14.988728	147.413151
4.850000	-15.456266	141.071235	-0.546203	50.734536	-0.546203	50.734536	-15.436698	144.049951
4.900000	-16.033737	137.545745	-0.537067	46.810406	-0.537067	46.810406	-16.008423	140.753854
4.950000	-16.759859	134.058430	-0.527205	42.822138	-0.527205	42.822138	-16.726189	137.570320
5.000000	-17.676972	130.656620	-0.517232	38.764031	-0.517232	38.764031	-17.630460	134.581315
5.050000	-18.856059	127.440388	-0.507960	34.627583	-0.507960	34.627583	-18.788061	131.956814
5.100000	-20.403420	124.601300	-0.500315	30.409630	-0.500315	30.409630	-20.295847	130.007931
5.150000	-22.522361	122.604130	-0.495394	26.104853	-0.495394	26.104853	-22.329858	129.467200
5.200000	-25.649215	122.855351	-0.494469	21.708390	-0.494469	21.708390	-25.223130	132.398320
5.250000	-30.934359	132.011670	-0.499002	17.216057	-0.499002	17.216057	-29.521358	146.586601
5.300000	-37.244502	-159.406901	-0.510640	12.624610	-0.510640	12.624610	-32.820384	-162.939366
5.350000	-29.033412	-107.940657	-0.531489	7.929406	-0.531489	7.929406	-27.915980	-120.057392
5.400000	-23.556513	-102.024724	-0.563472	3.131810	-0.563472	3.131810	-23.182143	-109.515519
5.450000	-19.965403	-102.908118	-0.608641	-1.765708	-0.608641	-1.765708	-19.785094	-108.020681
5.500000	-17.289706	-105.837241	-0.669211	-6.759339	-0.669211	-6.759339	-17.184422	-109.620192
5.550000	-15.152840	-109.675119	-0.747418	-11.842817	-0.747418	-11.842817	-15.083894	-112.625757
5.600000	-13.375257	-114.013877	-0.845447	-17.007242	-0.845447	-17.007242	-13.326575	-116.399527
5.650000	-11.857897	-118.669782	-0.965717	-22.241999	-0.965717	-22.241999	-11.821638	-120.650763
5.700000	-10.541953	-123.536222	-1.110081	-27.532149	-1.110081	-27.532149	-10.513866	-125.213964
5.750000	-9.389155	-128.543333	-1.279623	-32.859893	-1.279623	-32.859893	-9.366741	-129.985102
5.800000	-8.372535	-133.643327	-1.475376	-38.206834	-1.475376	-38.206834	-8.354223	-134.896839
5.850000	-7.472495	-138.797695	-1.697897	-43.553413	-1.697897	-43.553413	-7.457250	-139.897948
5.900000	-6.674092	-143.973680	-1.947238	-48.879620	-1.947238	-48.879620	-6.661202	-144.947058
5.950000	-5.965648	-149.142420	-2.223076	-54.165243	-2.223076	-54.165243	-5.954606	-150.009416
6.000000	-5.337841	-154.277453	-2.524620	-59.389908	-2.524620	-59.389908	-5.328277	-155.054360
6.050000	-4.781392	-159.357660	-2.849985	-64.537883	-2.849985	-64.537883	-4.773030	-160.057135
6.100000	-4.288705	-164.365015	-3.197419	-69.594566	-3.197419	-69.594566	-4.281333	-164.997356
6.150000	-3.852977	-169.284812	-3.564916	-74.547869	-3.564916	-74.547869	-3.846432	-169.858497
6.200000	-3.468059	-174.105568	-3.950305	-79.388352	-3.950305	-79.388352	-3.462210	-174.627659
6.250000	-3.128365	-178.818853	-4.351337	-84.109200	-4.351337	-84.109200	-3.123108	-179.295289
6.300000	-2.829735	176.584979	-4.765450	-88.701725	-4.765450	-88.701725	-2.824984	176.149012
6.350000	-2.566522	172.105150	-5.190563	-93.168164	-5.190563	-93.168164	-2.562207	171.705381
6.400000	-2.334574	167.742533	-5.624618	-97.508514	-5.624618	-97.508514	-2.330638	167.375282
6.450000	-2.130174	163.496278	-6.065702	-101.724364	-6.065702	-101.724364	-2.126570	163.158351
6.500000	-1.951537	159.373678	-6.510373	-105.808471	-6.510373	-105.808471	-1.948222	159.062082
6.550000	-1.792773	155.353893	-6.959907	-109.783356	-6.959907	-109.783356	-1.789716	155.066376
6.600000	-1.652642	151.440669	-7.411674	-113.645274	-7.411674	-113.645274	-1.649815	151.175085
6.650000	-1.528854	147.629373	-7.864418	-117.399334	-7.864418	-117.399334	-1.526233	147.383820
6.700000	-1.418512	143.907860	-8.318943	-121.058524	-8.318943	-121.058524	-1.416077	143.680768
6.750000	-1.322395	140.291430	-8.768786	-124.606856	-8.768786	-124.606856	-1.320126	140.081076
6.800000	-1.236553	136.755319	-9.218315	-128.070603	-9.218315	-128.070603	-1.234437	136.560458
6.850000	-1.160764	133.304068	-9.663818	-131.445166	-9.663818	-131.445166	-1.158788	133.123447
6.900000	-1.093361	129.927913	-10.106050	-134.741018	-10.106050	-134.741018	-1.091514	129.760467
6.950000	-1.033556	126.624301	-10.543405	-137.961141	-10.543405	-137.961141	-1.031828	126.469043
7.000000	-0.980728	123.391115	-10.974040	-141.108105	-10.974040	-141.108105	-0.979111	123.247115
7.050000	-0.933579	120.218563	-11.399167	-144.192698	-11.399167	-144.192698	-0.932067	120.085053
7.100000	-0.890852	117.094487	-11.822202	-147.227855	-11.822202	-147.227855	-0.889438	116.970865
7.150000	-0.852544	114.020724	-12.240280	-150.212123	-12.240280	-150.212123	-0.851223	113.906376
7.200000	-0.819533	111.010674	-12.642493	-153.133684	-12.642493	-153.133684	-0.818299	110.904849
7.250000	-0.789561	108.037626	-13.040554	-156.020277	-13.040554	-156.020277	-0.788410	107.939901
7.300000	-0.762463	105.099937	-13.433464	-158.874227	-13.433464	-158.874227	-0.761391	105.009915
7.350000	-0.738870	102.206034	-13.811778	-161.690078	-13.811778	-161.690078	-0.737873	102.123233
7.400000	-0.718178	99.347420	-14.176438	-164.479355	-14.176438	-164.479355	-0.717251	99.271468
7.450000	-0.699630	96.513721	-14.532304	-167.252890	-14.532304	-167.252890	-0.698771	96.444365
7.500000	-0.683141	93.703330	-14.877886	-170.013616	-14.877886	-170.013616	-0.682345	93.640338
7.550000	-0.669767	90.923509	-15.194995	-172.769232	-15.194995	-172.769232	-0.669028	90.866604
7.600000	-0.658250	88.157295	-15.496677	-175.533929	-15.496677	-175.533929	-0.657563	88.106377
7.650000	-0.648602	85.402545	-15.780347	-178.313568	-15.780347	-178.313568	-0.647960	85.357545
7.700000	-0.641367	82.657612	-16.034566	178.874721	-16.034566	178.874721	-0.640763	82.618511
7.750000	-0.636993	79.913259	-16.249453	175.998290	-16.249453	175.998290	-0.636413	79.880183
7.800000	-0.635042	77.162309	-16.430631	173.051018	-16.430631	173.051018	-0.634473	77.135459
7.850000	-0.635716	74.400879	-16.573464	170.019714	-16.573464	170.019714	-0.635142	74.380519
7.900000	-0.641700	71.603958	-16.639254	166.790184	-16.639254	166.790184	-0.641083	71.590811
7.950000	-0.653378	68.759060	-16.631327	163.335917	-16.631327	163.335917	-0.652670	68.754033
8.000000	-0.672008	65.854443	-16.542531	159.615179	-16.542531	159.615179	-0.671143	65.858657
8.050000	-0.701331	62.856929	-16.342310	155.493771	-16.342310	155.493771	-0.700206	62.872120
8.100000	-0.751652	59.693593	-15.973741	150.674973	-15.973741	150.674973	-0.750040	59.722943
8.150000	-0.837530	56.291610	-15.394483	144.833224	-15.394483	144.833224	-0.835016	56.339928
8.200000	-0.990889	52.545361	-14.548627	137.385426	-14.548627	137.385426	-0.986614	52.620305
8.250000	-1.304121	48.304626	-13.329172	126.904003	-13.329172	126.904003	-1.295811	48.420071
8.300000	-2.009441	43.937896	-11.729610	110.684136	-11.729610	110.684136	-1.990286	44.112828
8.350000	-3.511132	44.030408	-10.239646	83.534655	-10.239646	83.534655	-3.459696	44.214802
8.400000	-3.907387	57.291788	-10.707039	45.818417	-10.707039	45.818417	-3.839130	57.123449
8.450000	-2.277779	60.527581	-13.629790	14.170082	-13.629790	14.170082	-2.246108	60.243595
8.500000	-1.398339	56.376106	-16.987304	-6.025910	-16.987304	-6.025910	-1.383231	56.133246
8.550000	-1.019805	51.966604	-19.948361	-20.026105	-19.948361	-20.026105	-1.011342	51.760720
8.600000	-0.840290	48.084374	-22.424328	-31.116766	-22.424328	-31.116766	-0.835023	47.903073
8.650000	-0.748645	44.642991	-24.411421	-40.728557	-24.411421	-40.728557	-0.745139	44.477373
8.700000	-0.697706	41.485352	-25.995505	-49.531887	-25.995505	-49.531887	-0.695323	41.329772
8.750000	-0.668352	38.509132	-27.244455	-57.761755	-27.244455	-57.761755	-0.666770	38.359781
8.800000	-0.652247	35.654876	-28.198562	-65.467999	-28.198562	-65.467999	-0.651290	35.508888
8.850000	-0.645028	32.882121	-28.901553	-72.653931	-28.901553	-72.653931	-0.644599	32.737188
8.900000	-0.644331	30.161903	-29.399063	-79.329497	-29.399063	-79.329497	-0.644383	30.016033
8.950000	-0.648919	27.472164	-29.734991	-85.530796	-29.734991	-85.530796	-0.649441	27.323504
9.000000	-0.658658	24.793942	-29.942135	-91.297320	-29.942135	-91.297320	-0.659674	24.640461
9.050000	-0.672960	22.108044	-30.073292	-96.781463	-30.073292	-96.781463	-0.674529	21.947784
9.100000	-0.692179	19.397859	-30.158922	-102.102647	-30.158922	-102.102647	-0.694395	19.228601
9.150000	-0.717093	16.644900	-30.226286	-107.398207	-30.226286	-107.398207	-0.720106	16.463983
9.200000	-0.749351	13.823888	-30.301139	-112.841885	-30.301139	-112.841885	-0.753407	13.627807
9.250000	-0.791129	10.906700	-30.405937	-118.648499	-30.405937	-118.648499	-0.796621	10.690864
9.300000	-0.846706	7.849993	-30.556673	-125.139189	-30.556673	-125.139189	-0.854324	7.607769
9.350000	-0.923732	4.591455	-30.745091	-132.836712	-30.745091	-132.836712	-0.934778	4.312806
9.400000	-1.035590	1.050192	-30.885745	-142.578399	-30.885745	-142.578399	-1.052649	0.720044
9.450000	-1.219917	-2.943979	-30.607900	-156.405391	-30.607900	-156.405391	-1.249658	-3.350947
9.500000	-1.563008	-7.511094	-28.849616	-177.492590	-28.849616	-177.492590	-1.623764	-8.016866
9.550000	-2.297627	-11.946287	-23.940593	148.443119	-23.940593	148.443119	-2.441997	-12.366624
9.600000	-3.257289	-12.304644	-17.638260	96.121394	-17.638260	96.121394	-3.442800	-11.538403
9.650000	-3.981262	-12.957309	-13.692823	44.011168	-13.692823	44.011168	-3.977242	-11.635006
9.700000	-5.414673	-7.297456	-11.133468	-0.125796	-11.133468	-0.125796	-5.244750	-6.690573
9.750000	-4.727229	5.846441	-10.322568	-39.479521	-10.322568	-39.479521	-4.605045	5.298888
9.800000	-3.146831	5.939706	-10.844176	-68.141505	-10.844176	-68.141505	-3.111085	5.298491
9.850000	-2.363966	1.252534	-11.560131	-87.157550	-11.560131	-87.157550	-2.360395	0.690276
9.900000	-2.041152	-3.546247	-12.059692	-100.595575	-12.059692	-100.595575	-2.051733	-4.063520
9.950000	-1.931071	-7.881733	-12.310110	-111.024065	-12.310110	-111.024065	-1.950323	-8.384399
10.000000	-1.933402	-11.822406	-12.352288	-119.786697	-12.352288	-119.786697	-1.959724	-12.329869
