! freq	dB(S11)	phase(S11)	dB(S12)	phase(S12)	
!     	dB(S21)	phase(S21)	dB(S22)	phase(S22)	
!S-par simulation data
#  GHz  S  DB  R 50
0.000000	-83.849568	0.000000	-0.000558	0.000000	-0.000558	0.000000	-83.849568	0.000000
0.050000	-48.391505	-91.043904	-0.002793	-2.460805	-0.002793	-2.460805	-48.393060	-90.980546
0.100000	-42.433824	-93.618259	-0.007935	-4.906055	-0.007935	-4.906055	-42.434829	-93.490184
0.150000	-39.010273	-96.046110	-0.013581	-7.336101	-0.013581	-7.336101	-39.010589	-95.849652
0.200000	-36.625324	-98.650074	-0.018662	-9.758156	-0.018662	-9.758156	-36.625290	-98.381349
0.250000	-34.793651	-101.455607	-0.023014	-12.177217	-0.023014	-12.177217	-34.793951	-101.113542
0.300000	-33.296144	-104.336085	-0.026798	-14.595722	-0.026798	-14.595722	-33.297245	-103.922911
0.350000	-32.028742	-107.169312	-0.030213	-17.014459	-0.030213	-17.014459	-32.030677	-106.687457
0.400000	-30.936840	-109.919903	-0.033421	-19.433499	-0.033421	-19.433499	-30.939452	-109.370307
0.450000	-29.989850	-112.583489	-0.036499	-21.852755	-0.036499	-21.852755	-29.992990	-111.965970
0.500000	-29.159396	-115.192034	-0.039527	-24.272040	-0.039527	-24.272040	-29.162968	-114.505858
0.550000	-28.429512	-117.759166	-0.042540	-26.691212	-0.042540	-26.691212	-28.433471	-117.003267
0.600000	-27.786255	-120.299286	-0.045564	-29.110144	-0.045564	-29.110144	-27.790590	-119.472442
0.650000	-27.217176	-122.822817	-0.048606	-31.528770	-0.048606	-31.528770	-27.221894	-121.923755
0.700000	-26.713052	-125.335834	-0.051669	-33.947052	-0.051669	-33.947052	-26.718171	-124.363197
0.750000	-26.267846	-127.842092	-0.054749	-36.364972	-0.054749	-36.364972	-26.273393	-126.794368
0.800000	-25.875876	-130.344379	-0.057835	-38.782550	-0.057835	-38.782550	-25.881886	-129.219917
0.850000	-25.532288	-132.844613	-0.060917	-41.199837	-0.060917	-41.199837	-25.538798	-131.641618
0.900000	-25.233450	-135.344118	-0.063981	-43.616901	-0.063981	-43.616901	-25.240501	-134.060615
0.950000	-24.976667	-137.843903	-0.067014	-46.033828	-0.067014	-46.033828	-24.984304	-136.477690
1.000000	-24.759720	-140.344801	-0.070002	-48.450726	-0.070002	-48.450726	-24.767994	-138.893428
1.050000	-24.580901	-142.847544	-0.072932	-50.867718	-0.072932	-50.867718	-24.589867	-141.308270
1.100000	-24.438943	-145.352819	-0.075791	-53.284944	-0.075791	-53.284944	-24.448663	-143.722570
1.150000	-24.332973	-147.861312	-0.078568	-55.702557	-0.078568	-55.702557	-24.343516	-146.136627
1.200000	-24.262485	-150.373744	-0.081253	-58.120721	-0.081253	-58.120721	-24.273928	-148.550709
1.250000	-24.227318	-152.890897	-0.083838	-60.539614	-0.083838	-60.539614	-24.239748	-150.965067
1.300000	-24.228434	-155.413792	-0.086315	-62.959443	-0.086315	-62.959443	-24.241955	-153.379965
1.350000	-24.265608	-157.943334	-0.088682	-65.380384	-0.088682	-65.380384	-24.280337	-155.795648
1.400000	-24.339746	-160.480698	-0.090939	-67.802634	-0.090939	-67.802634	-24.355819	-158.212377
1.450000	-24.452160	-163.027270	-0.093087	-70.226393	-0.093087	-70.226393	-24.469737	-160.630429
1.500000	-24.604618	-165.584710	-0.095130	-72.651861	-0.095130	-72.651861	-24.623890	-163.050104
1.550000	-24.799421	-168.155037	-0.097073	-75.079239	-0.097073	-75.079239	-24.820618	-165.471731
1.600000	-25.039506	-170.740744	-0.098927	-77.508723	-0.098927	-77.508723	-25.062909	-167.895681
1.650000	-25.328585	-173.344960	-0.100702	-79.940506	-0.100702	-79.940506	-25.354542	-170.322376
1.700000	-25.670343	-175.971036	-0.102413	-82.374713	-0.102413	-82.374713	-25.699285	-172.752225
1.750000	-26.073166	-178.625695	-0.104074	-84.811671	-0.104074	-84.811671	-26.105660	-175.186038
1.800000	-26.543208	178.684807	-0.105707	-87.251464	-0.105707	-87.251464	-26.579987	-177.624461
1.850000	-27.091935	175.948812	-0.107331	-89.694352	-0.107331	-89.694352	-27.134000	179.931286
1.900000	-27.728985	173.156313	-0.108970	-92.140268	-0.108970	-92.140268	-27.777676	177.480309
1.950000	-28.471340	170.288767	-0.110646	-94.589328	-0.110646	-94.589328	-28.528561	175.020849
2.000000	-29.346535	167.310327	-0.112388	-97.041866	-0.112388	-97.041866	-29.415195	172.549464
2.050000	-30.386972	164.174617	-0.114223	-99.497863	-0.114223	-99.497863	-30.471615	170.061927
2.100000	-31.644195	160.796002	-0.116177	-101.957411	-0.116177	-101.957411	-31.752529	167.550333
2.150000	-33.200161	157.009997	-0.118283	-104.420581	-0.118283	-104.420581	-33.346647	164.999372
2.200000	-35.194962	152.474075	-0.120567	-106.887372	-0.120567	-106.887372	-35.410738	162.376515
2.250000	-37.900737	146.300497	-0.123059	-109.357796	-0.123059	-109.357796	-38.269884	159.593607
2.300000	-41.928917	135.367801	-0.125788	-111.831844	-0.125788	-111.831844	-42.793717	156.300510
2.350000	-48.377491	101.169083	-0.128780	-114.309485	-0.128780	-114.309485	-53.470387	146.973606
2.400000	-47.436731	17.569516	-0.132064	-116.790668	-0.132064	-116.790668	-49.811656	-21.738196
2.450000	-40.925648	-11.052151	-0.135664	-119.275322	-0.135664	-119.275322	-41.198370	-27.279900
2.500000	-36.817704	-21.006500	-0.139603	-121.763357	-0.139603	-121.763357	-36.863498	-30.403999
2.550000	-33.931599	-26.879404	-0.143910	-124.254707	-0.143910	-124.254707	-33.923488	-33.151996
2.600000	-31.714324	-31.309489	-0.148596	-126.749197	-0.148596	-126.749197	-31.688946	-35.774195
2.650000	-29.914485	-35.056589	-0.153679	-129.246684	-0.153679	-129.246684	-29.883158	-38.338524
2.700000	-28.400248	-38.428881	-0.159170	-131.747010	-0.159170	-131.747010	-28.367176	-40.871944
2.750000	-27.094356	-41.574029	-0.165079	-134.250007	-0.165079	-134.250007	-27.061263	-43.387192
2.800000	-25.947785	-44.571370	-0.171412	-136.755496	-0.171412	-136.755496	-25.915404	-45.891014
2.850000	-24.927529	-47.467226	-0.178169	-139.263292	-0.178169	-139.263292	-24.896161	-48.387271
2.900000	-24.010331	-50.290395	-0.185348	-141.773204	-0.185348	-141.773204	-23.980076	-50.878297
2.950000	-23.179210	-53.059287	-0.192946	-144.285058	-0.192946	-144.285058	-23.150075	-53.365531
3.000000	-22.421437	-55.787079	-0.200949	-146.798649	-0.200949	-146.798649	-22.393385	-55.849942
3.050000	-21.727166	-58.482851	-0.209339	-149.313783	-0.209339	-149.313783	-21.700140	-58.332151
3.100000	-21.088656	-61.152965	-0.218095	-151.830281	-0.218095	-151.830281	-21.062593	-60.812552
3.150000	-20.499726	-63.802107	-0.227191	-154.347975	-0.227191	-154.347975	-20.474564	-63.291400
3.200000	-19.955368	-66.433793	-0.236598	-156.866712	-0.236598	-156.866712	-19.931047	-65.768862
3.250000	-19.451481	-69.050699	-0.246282	-159.386357	-0.246282	-159.386357	-19.427948	-68.245040
3.300000	-18.984673	-71.654895	-0.256204	-161.906795	-0.256204	-161.906795	-18.961879	-70.720005
3.350000	-18.552518	-74.247668	-0.266326	-164.427956	-0.266326	-164.427956	-18.530422	-73.193764
3.400000	-18.152015	-76.830906	-0.276592	-166.949738	-0.276592	-166.949738	-18.130579	-75.666424
3.450000	-17.781419	-79.405376	-0.286956	-169.472128	-0.286956	-169.472128	-17.760610	-78.138000
3.500000	-17.439047	-81.971912	-0.297365	-171.995124	-0.297365	-171.995124	-17.418841	-80.608543
3.550000	-17.123487	-84.531199	-0.307762	-174.518767	-0.307762	-174.518767	-17.103862	-83.078122
3.600000	-16.833551	-87.083813	-0.318089	-177.043133	-0.318089	-177.043133	-16.814491	-85.546827
3.650000	-16.568254	-89.630239	-0.328287	-179.568340	-0.328287	-179.568340	-16.549749	-88.014773
3.700000	-16.326788	-92.170895	-0.338292	177.905447	-0.338292	177.905447	-16.308831	-90.482103
3.750000	-16.108508	-94.706146	-0.348043	175.378020	-0.348043	175.378020	-16.091098	-92.948995
3.800000	-15.913315	-97.236204	-0.357466	172.849081	-0.357466	172.849081	-15.896459	-95.415657
3.850000	-15.740484	-99.761466	-0.366505	170.318345	-0.366505	170.318345	-15.724190	-97.882348
3.900000	-15.589792	-102.282171	-0.375098	167.785448	-0.375098	167.785448	-15.574077	-100.349349
3.950000	-15.461152	-104.798524	-0.383184	165.249971	-0.383184	165.249971	-15.446038	-102.816980
4.000000	-15.354612	-107.310687	-0.390704	162.711443	-0.390704	162.711443	-15.340131	-105.285592
4.050000	-15.270358	-109.818775	-0.397603	160.169335	-0.397603	160.169335	-15.256548	-107.755570
4.100000	-15.208724	-112.322843	-0.403829	157.623064	-0.403829	157.623064	-15.195634	-110.227329
4.150000	-15.170197	-114.822866	-0.409334	155.071987	-0.409334	155.071987	-15.157887	-112.701307
4.200000	-15.155438	-117.318725	-0.414075	152.515408	-0.414075	152.515408	-15.143983	-115.177960
4.250000	-15.165297	-119.810168	-0.418018	149.952570	-0.418018	149.952570	-15.154787	-117.657752
4.300000	-15.200840	-122.296778	-0.421133	147.382663	-0.421133	147.382663	-15.191385	-120.141148
4.350000	-15.263376	-124.777919	-0.423399	144.804821	-0.423399	144.804821	-15.255113	-122.628594
4.400000	-15.354746	-127.252602	-0.424796	142.218042	-0.424796	142.218042	-15.347841	-125.120537
4.450000	-15.476924	-129.719478	-0.425323	139.621325	-0.425323	139.621325	-15.471587	-127.617329
4.500000	-15.632036	-132.176763	-0.424997	137.013720	-0.424997	137.013720	-15.628525	-130.119171
4.550000	-15.822931	-134.621939	-0.423838	134.394153	-0.423838	134.394153	-15.821573	-132.626147
4.600000	-16.053073	-137.051566	-0.421883	131.761509	-0.421883	131.761509	-16.054282	-135.138121
4.650000	-16.326692	-139.460947	-0.419181	129.114633	-0.419181	129.114633	-16.331004	-137.654636
4.700000	-16.649107	-141.843549	-0.415796	126.452293	-0.415796	126.452293	-16.657227	-140.174782
4.750000	-17.027061	-144.190106	-0.411809	123.773165	-0.411809	123.773165	-17.039936	-142.696955
4.800000	-17.468411	-146.488223	-0.407326	121.076139	-0.407326	121.076139	-17.487332	-145.218517
4.850000	-17.983606	-148.719924	-0.402469	118.359970	-0.402469	118.359970	-18.010382	-147.735357
4.900000	-18.586256	-150.859009	-0.397381	115.623412	-0.397381	115.623412	-18.623512	-150.241031
4.950000	-19.294496	-152.866176	-0.392224	112.865228	-0.392224	112.865228	-19.346179	-152.725331
5.000000	-20.133157	-154.680281	-0.387186	110.084209	-0.387186	110.084209	-20.205489	-155.171693
5.050000	-21.138196	-156.196569	-0.382485	107.278909	-0.382485	107.278909	-21.241674	-157.550874
5.100000	-22.360717	-157.240139	-0.378357	104.448462	-0.378357	104.448462	-22.514287	-159.811775
5.150000	-23.880587	-157.475328	-0.375064	101.591833	-0.375064	101.591833	-24.122332	-161.852447
5.200000	-25.827157	-156.189281	-0.372895	98.708078	-0.372895	98.708078	-26.245821	-163.441495
5.250000	-28.413128	-151.616545	-0.372164	95.796377	-0.372164	95.796377	-29.267090	-163.924570
5.300000	-31.886613	-138.502673	-0.373213	92.856049	-0.373213	92.856049	-34.249426	-160.512503
5.350000	-35.017333	-102.571943	-0.376426	89.886341	-0.376426	89.886341	-45.116713	-115.132573
5.400000	-32.800297	-58.461010	-0.382186	86.887094	-0.382186	86.887094	-36.373353	-19.283483
5.450000	-28.655296	-39.604027	-0.390897	83.858299	-0.390897	83.858299	-29.727182	-12.012985
5.500000	-25.344289	-33.157384	-0.402988	80.800116	-0.402988	80.800116	-25.810960	-11.909092
5.550000	-22.765926	-31.242329	-0.418901	77.712982	-0.418901	77.712982	-23.012656	-13.445778
5.600000	-20.677239	-31.328247	-0.439090	74.597629	-0.439090	74.597629	-20.822110	-15.626798
5.650000	-18.925116	-32.461767	-0.464042	71.454972	-0.464042	71.454972	-19.015116	-18.136158
5.700000	-17.416813	-34.209244	-0.494223	68.286433	-0.494223	68.286433	-17.474038	-20.839886
5.750000	-16.093492	-36.348456	-0.530061	65.093912	-0.530061	65.093912	-16.129625	-23.671149
5.800000	-14.915635	-38.755991	-0.571991	61.879517	-0.571991	61.879517	-14.937418	-26.592891
5.850000	-13.855756	-41.356021	-0.620431	58.645713	-0.620431	58.645713	-13.867342	-29.581823
5.900000	-12.894045	-44.098861	-0.675767	55.395305	-0.675767	55.395305	-12.898124	-32.621971
5.950000	-12.015757	-46.950299	-0.738369	52.131402	-0.738369	52.131402	-12.014146	-35.701556
6.000000	-11.209670	-49.885409	-0.808584	48.857434	-0.808584	48.857434	-11.203642	-38.811190
6.050000	-10.467118	-52.884290	-0.886608	45.577219	-0.886608	45.577219	-10.457584	-41.942626
6.100000	-9.781104	-55.931784	-0.972637	42.294681	-0.972637	42.294681	-9.768736	-45.088857
6.150000	-9.145940	-59.015376	-1.066805	39.013910	-1.066805	39.013910	-9.131246	-48.243488
6.200000	-8.556919	-62.124428	-1.169178	35.739109	-1.169178	35.739109	-8.540289	-51.400566
6.250000	-8.010076	-65.249690	-1.279757	32.474531	-1.279757	32.474531	-7.991813	-54.554479
6.300000	-7.502103	-68.382986	-1.398541	29.224621	-1.398541	29.224621	-7.482447	-57.699769
6.350000	-7.029978	-71.516849	-1.525317	25.993434	-1.525317	25.993434	-7.009122	-60.831457
6.400000	-6.591077	-74.644723	-1.659881	22.784997	-1.659881	22.784997	-6.569179	-63.944824
6.450000	-6.183053	-77.760698	-1.801970	19.603151	-1.801970	19.603151	-6.160241	-67.035465
6.500000	-5.803778	-80.859458	-1.951265	16.451497	-1.951265	16.451497	-5.780158	-70.099304
6.550000	-5.451302	-83.936250	-2.107398	13.333356	-2.107398	13.333356	-5.426965	-73.132616
6.600000	-5.123924	-86.986606	-2.269983	10.252061	-2.269983	10.252061	-5.098945	-76.131739
6.650000	-4.819908	-90.006920	-2.438545	7.210120	-2.438545	7.210120	-4.794351	-79.093843
6.700000	-4.537881	-92.993380	-2.612629	4.210579	-2.612629	4.210579	-4.511803	-82.015641
6.750000	-4.275860	-95.944807	-2.791676	1.253514	-2.791676	1.253514	-4.249308	-84.896734
6.800000	-4.032759	-98.858106	-2.975235	-1.658448	-2.975235	-1.658448	-4.005776	-87.734323
6.850000	-3.807286	-101.731427	-3.162797	-4.524047	-3.162797	-4.524047	-3.779908	-90.526944
6.900000	-3.598337	-104.562857	-3.353842	-7.341835	-3.353842	-7.341835	-3.570598	-93.272975
6.950000	-3.404752	-107.351293	-3.547848	-10.111193	-3.547848	-10.111193	-3.376682	-95.971612
7.000000	-3.225334	-110.096472	-3.744337	-12.832336	-3.744337	-12.832336	-3.196959	-98.622895
7.050000	-3.059070	-112.797988	-3.942837	-15.505233	-3.942837	-15.505233	-3.030416	-101.226637
7.100000	-2.905013	-115.455709	-4.142895	-18.130092	-4.142895	-18.130092	-2.876101	-103.782900
7.150000	-2.762275	-118.069749	-4.344081	-20.707334	-4.344081	-20.707334	-2.733126	-106.291969
7.200000	-2.630026	-120.640437	-4.545987	-23.237570	-4.545987	-23.237570	-2.600662	-108.754322
7.250000	-2.507495	-123.168290	-4.748226	-25.721572	-4.748226	-25.721572	-2.477933	-111.170608
7.300000	-2.393961	-125.653983	-4.950441	-28.160248	-4.950441	-28.160248	-2.364220	-113.541620
7.350000	-2.288754	-128.098326	-5.152296	-30.554623	-5.152296	-30.554623	-2.258851	-115.868272
7.400000	-2.191252	-130.502241	-5.353481	-32.905814	-5.353481	-32.905814	-2.161203	-118.151579
7.450000	-2.100877	-132.866742	-5.553711	-35.215014	-5.553711	-35.215014	-2.070700	-120.392636
7.500000	-2.017094	-135.192915	-5.752722	-37.483471	-5.752722	-37.483471	-1.986805	-122.592601
7.550000	-1.939517	-137.481118	-5.950144	-39.711649	-5.950144	-39.711649	-1.909133	-124.751843
7.600000	-1.867563	-139.733372	-6.145885	-41.901755	-6.145885	-41.901755	-1.837101	-126.872497
7.650000	-1.800812	-141.950886	-6.339752	-44.055125	-6.339752	-44.055125	-1.770288	-128.955825
7.700000	-1.738873	-144.134889	-6.531568	-46.173098	-6.531568	-46.173098	-1.708304	-131.003101
7.750000	-1.681386	-146.286614	-6.721175	-48.257011	-6.721175	-48.257011	-1.650789	-133.015599
7.800000	-1.628019	-148.407293	-6.908432	-50.308188	-6.908432	-50.308188	-1.597413	-134.994588
7.850000	-1.578466	-150.498151	-7.093214	-52.327940	-7.093214	-52.327940	-1.547868	-136.941325
7.900000	-1.532446	-152.560399	-7.275410	-54.317553	-7.275410	-54.317553	-1.501873	-138.857050
7.950000	-1.489976	-154.592646	-7.454291	-56.275567	-7.454291	-56.275567	-1.459449	-140.740169
8.000000	-1.450267	-156.601073	-7.630968	-58.208490	-7.630968	-58.208490	-1.419804	-142.597322
8.050000	-1.413364	-158.584421	-7.804804	-60.114990	-7.804804	-60.114990	-1.382985	-144.427065
8.100000	-1.379065	-160.543808	-7.975734	-61.996234	-7.975734	-61.996234	-1.348790	-146.230535
8.150000	-1.347182	-162.480323	-8.143706	-63.853352	-8.143706	-63.853352	-1.317031	-148.008838
8.200000	-1.317540	-164.395024	-8.308671	-65.687442	-8.308671	-65.687442	-1.287536	-149.763048
8.250000	-1.289981	-166.288941	-8.470594	-67.499566	-8.470594	-67.499566	-1.260144	-151.494208
8.300000	-1.264355	-168.163071	-8.629442	-69.290747	-8.629442	-69.290747	-1.234709	-153.203328
8.350000	-1.240436	-170.019401	-8.785527	-71.063065	-8.785527	-71.063065	-1.211003	-154.892537
8.400000	-1.218236	-171.857338	-8.938345	-72.815853	-8.938345	-72.815853	-1.189040	-156.561068
8.450000	-1.197712	-173.676923	-9.087562	-74.549112	-9.087562	-74.549112	-1.168780	-158.208848
8.500000	-1.178558	-175.481280	-9.233939	-76.266125	-9.233939	-76.266125	-1.149914	-159.839307
8.550000	-1.160781	-177.270033	-9.377041	-77.966449	-9.377041	-77.966449	-1.132451	-161.451911
8.600000	-1.144263	-179.044284	-9.516969	-79.651217	-9.516969	-79.651217	-1.116274	-163.047814
8.650000	-1.128875	179.194642	-9.653938	-81.321802	-9.653938	-81.321802	-1.101254	-164.628432
8.700000	-1.114644	177.447264	-9.787440	-82.977596	-9.787440	-82.977596	-1.087421	-166.193050
8.750000	-1.101339	175.710929	-9.918283	-84.621416	-9.918283	-84.621416	-1.074540	-167.744661
8.800000	-1.089095	173.987418	-10.045400	-86.251274	-10.045400	-86.251274	-1.062753	-169.281039
8.850000	-1.077656	172.273667	-10.169865	-87.870455	-10.169865	-87.870455	-1.051798	-170.805714
8.900000	-1.067152	170.571358	-10.290580	-89.477052	-10.290580	-89.477052	-1.041815	-172.316523
8.950000	-1.057324	168.877311	-10.408824	-91.074522	-10.408824	-91.074522	-1.032535	-173.817229
9.000000	-1.048325	167.193422	-10.523298	-92.660695	-10.523298	-92.660695	-1.024121	-175.305341
9.050000	-1.039897	165.516482	-10.635429	-94.239091	-10.635429	-94.239091	-1.016306	-176.784731
9.100000	-1.032020	163.846245	-10.745173	-95.809963	-10.745173	-95.809963	-1.009071	-178.255649
9.150000	-1.024924	162.185450	-10.850552	-97.370145	-10.850552	-97.370145	-1.002663	-179.714419
9.200000	-1.018334	160.530642	-10.953297	-98.923482	-10.953297	-98.923482	-0.996793	178.834686
9.250000	-1.012189	158.881055	-11.053707	-100.470823	-11.053707	-100.470823	-0.991399	177.390731
9.300000	-1.006546	157.237256	-11.151137	-102.011475	-11.151137	-102.011475	-0.986542	175.954582
9.350000	-1.001466	155.599765	-11.244742	-103.544756	-11.244742	-103.544756	-0.982295	174.527187
9.400000	-0.996748	153.966173	-11.336068	-105.073438	-11.336068	-105.073438	-0.978442	173.105350
9.450000	-0.992382	152.336291	-11.425085	-106.597724	-11.425085	-106.597724	-0.974974	171.688869
9.500000	-0.988492	150.711198	-11.510385	-108.116276	-11.510385	-108.116276	-0.972029	170.279537
9.550000	-0.984958	149.089426	-11.592892	-109.630803	-11.592892	-109.630803	-0.969480	168.875399
9.600000	-0.981713	147.470213	-11.673157	-111.142208	-11.673157	-111.142208	-0.967254	167.475385
9.650000	-0.978772	145.853563	-11.750899	-112.650467	-11.750899	-112.650467	-0.965369	166.079621
9.700000	-0.976228	144.239867	-11.824866	-114.155056	-11.824866	-114.155056	-0.963936	164.689136
9.750000	-0.973925	142.627706	-11.896661	-115.657724	-11.896661	-115.657724	-0.962778	163.301646
9.800000	-0.971856	141.016932	-11.966266	-117.158648	-11.966266	-117.158648	-0.961890	161.916986
9.850000	-0.970090	139.407660	-12.032719	-118.657680	-12.032719	-118.657680	-0.961355	160.535743
9.900000	-0.968588	137.799312	-12.096336	-120.155558	-12.096336	-120.155558	-0.961130	159.157140
9.950000	-0.967286	136.191463	-12.157842	-121.652832	-12.157842	-121.652832	-0.961141	157.780344
10.000000	-0.966178	134.583986	-12.217226	-123.149675	-12.217226	-123.149675	-0.961384	156.405204
