! freq	dB(S11)	phase(S11)	dB(S12)	phase(S12)	
!     	dB(S21)	phase(S21)	dB(S22)	phase(S22)	
!S-par simulation data
#  GHz  S  DB  R 50
0.000000	-0.000000	-0.000000	-350.540600	180.000000	-350.540600	180.000000	-0.000000	0.000000
0.050000	-0.000106	-0.808316	-111.866174	88.521447	-111.866174	88.521447	-0.000118	-0.995214
0.100000	-0.000421	-1.616367	-105.928988	87.134747	-105.928988	87.134747	-0.000467	-1.990152
0.150000	-0.000929	-2.423910	-102.535095	85.898458	-102.535095	85.898458	-0.001034	-2.984555
0.200000	-0.001608	-3.230749	-100.197755	84.828858	-100.197755	84.828858	-0.001801	-3.978205
0.250000	-0.002444	-4.036666	-98.454138	83.927098	-98.454138	83.927098	-0.002754	-4.970845
0.300000	-0.003395	-4.841633	-97.085173	83.159968	-97.085173	83.159968	-0.003852	-5.962416
0.350000	-0.004442	-5.645547	-95.985001	82.519158	-95.985001	82.519158	-0.005077	-6.952766
0.400000	-0.005559	-6.448378	-95.089377	81.997008	-95.089377	81.997008	-0.006401	-7.941823
0.450000	-0.006726	-7.250128	-94.358408	81.594964	-94.358408	81.594964	-0.007803	-8.929542
0.500000	-0.007923	-8.050817	-93.766236	81.323625	-93.766236	81.323625	-0.009258	-9.915910
0.550000	-0.009136	-8.850480	-93.295666	81.202682	-93.295666	81.202682	-0.010749	-10.900930
0.600000	-0.010353	-9.649161	-92.935149	81.261429	-92.935149	81.261429	-0.012260	-11.884621
0.650000	-0.011567	-10.446900	-92.676975	81.540182	-92.676975	81.540182	-0.013778	-12.867009
0.700000	-0.012772	-11.243739	-92.516058	82.092830	-92.516058	82.092830	-0.015292	-13.848125
0.750000	-0.013963	-12.039714	-92.448975	82.990777	-92.448975	82.990777	-0.016797	-14.827998
0.800000	-0.015139	-12.834855	-92.472952	84.328526	-92.472952	84.328526	-0.018286	-15.806658
0.850000	-0.016298	-13.629184	-92.584476	86.231042	-92.584476	86.231042	-0.019756	-16.784127
0.900000	-0.017441	-14.422720	-92.777049	88.862285	-92.777049	88.862285	-0.021205	-17.760426
0.950000	-0.018569	-15.215473	-93.037363	92.432166	-93.037363	92.432166	-0.022631	-18.735567
1.000000	-0.019681	-16.007450	-93.338998	97.193835	-93.338998	97.193835	-0.024036	-19.709560
1.050000	-0.020779	-16.798651	-93.633281	103.412809	-93.633281	103.412809	-0.025420	-20.682407
1.100000	-0.021865	-17.589074	-93.839955	111.277071	-93.839955	111.277071	-0.026783	-21.654107
1.150000	-0.022939	-18.378713	-93.847887	120.725177	-93.847887	120.725177	-0.028127	-22.624654
1.200000	-0.024004	-19.167559	-93.543340	131.249959	-93.543340	131.249959	-0.029453	-23.594039
1.250000	-0.025059	-19.955601	-92.867327	141.894623	-92.867327	141.894623	-0.030763	-24.562247
1.300000	-0.026106	-20.742789	-91.839619	151.554247	-91.839619	151.554247	-0.032058	-25.529212
1.350000	-0.027147	-21.529145	-90.588696	159.637266	-90.588696	159.637266	-0.033340	-26.494966
1.400000	-0.028181	-22.314651	-89.228712	166.037679	-89.228712	166.037679	-0.034611	-27.459488
1.450000	-0.029211	-23.099293	-87.842825	170.928863	-87.842825	170.928863	-0.035872	-28.422758
1.500000	-0.030236	-23.883053	-86.480439	174.576276	-86.480439	174.576276	-0.037125	-29.384752
1.550000	-0.031258	-24.665914	-85.166656	177.238261	-85.166656	177.238261	-0.038370	-30.345448
1.600000	-0.032277	-25.447858	-83.911939	179.130884	-83.911939	179.130884	-0.039609	-31.304822
1.650000	-0.033294	-26.228868	-82.718784	-179.576413	-82.718784	-179.576413	-0.040844	-32.262849
1.700000	-0.034309	-27.008925	-81.585671	-178.754230	-81.585671	-178.754230	-0.042074	-33.219506
1.750000	-0.035322	-27.788012	-80.509242	-178.304507	-80.509242	-178.304507	-0.043301	-34.174767
1.800000	-0.036335	-28.566111	-79.485455	-178.152788	-79.485455	-178.152788	-0.044527	-35.128610
1.850000	-0.037346	-29.343204	-78.510163	-178.242142	-78.510163	-178.242142	-0.045750	-36.081010
1.900000	-0.038358	-30.119275	-77.579394	-178.528632	-77.579394	-178.528632	-0.046974	-37.031943
1.950000	-0.039370	-30.894306	-76.689473	-178.977986	-76.689473	-178.977986	-0.048197	-37.981388
2.000000	-0.040382	-31.668279	-75.837061	-179.563192	-75.837061	-179.563192	-0.049420	-38.929321
2.050000	-0.041396	-32.441180	-75.019153	179.737273	-75.019153	179.737273	-0.050646	-39.875720
2.100000	-0.042410	-33.212989	-74.233054	178.940726	-74.233054	178.940726	-0.051872	-40.820565
2.150000	-0.043426	-33.983693	-73.476355	178.061241	-73.476355	178.061241	-0.053101	-41.763835
2.200000	-0.044444	-34.753274	-72.746900	177.110356	-72.746900	177.110356	-0.054333	-42.705509
2.250000	-0.045465	-35.521718	-72.042758	176.097612	-72.042758	176.097612	-0.055569	-43.645569
2.300000	-0.046487	-36.289008	-71.362196	175.030963	-71.362196	175.030963	-0.056808	-44.583996
2.350000	-0.047513	-37.055130	-70.703652	173.917088	-70.703652	173.917088	-0.058051	-45.520773
2.400000	-0.048542	-37.820069	-70.065719	172.761636	-70.065719	172.761636	-0.059299	-46.455882
2.450000	-0.049574	-38.583811	-69.447125	171.569416	-69.447125	171.569416	-0.060552	-47.389307
2.500000	-0.050610	-39.346341	-68.846713	170.344544	-68.846713	170.344544	-0.061811	-48.321034
2.550000	-0.051650	-40.107592	-68.262480	169.089447	-68.262480	169.089447	-0.063075	-49.250972
2.600000	-0.052695	-40.867604	-67.694522	167.808557	-67.694522	167.808557	-0.064347	-50.179181
2.650000	-0.053745	-41.626362	-67.141952	166.504501	-67.141952	166.504501	-0.065625	-51.105650
2.700000	-0.054800	-42.383855	-66.603955	165.179580	-66.603955	165.179580	-0.066910	-52.030365
2.750000	-0.055861	-43.140070	-66.079784	163.835819	-66.079784	163.835819	-0.068203	-52.953315
2.800000	-0.056928	-43.894995	-65.568751	162.475005	-65.568751	162.475005	-0.069505	-53.874490
2.850000	-0.058001	-44.648619	-65.070220	161.098726	-65.070220	161.098726	-0.070815	-54.793880
2.900000	-0.059081	-45.400929	-64.583604	159.708392	-64.583604	159.708392	-0.072134	-55.711477
2.950000	-0.060168	-46.151915	-64.108357	158.305264	-64.108357	158.305264	-0.073462	-56.627272
3.000000	-0.061262	-46.901567	-63.643973	156.890471	-63.643973	156.890471	-0.074800	-57.541258
3.050000	-0.062364	-47.649873	-63.189982	155.465027	-63.189982	155.465027	-0.076149	-58.453429
3.100000	-0.063475	-48.396825	-62.745944	154.029847	-62.745944	154.029847	-0.077509	-59.363779
3.150000	-0.064593	-49.142412	-62.311449	152.585758	-62.311449	152.585758	-0.078880	-60.272302
3.200000	-0.065721	-49.886625	-61.886112	151.133510	-61.886112	151.133510	-0.080263	-61.178996
3.250000	-0.066858	-50.629455	-61.469574	149.673783	-61.469574	149.673783	-0.081658	-62.083856
3.300000	-0.068005	-51.370895	-61.061497	148.207198	-61.061497	148.207198	-0.083066	-62.986880
3.350000	-0.069163	-52.110935	-60.661562	146.734320	-60.661562	146.734320	-0.084488	-63.888066
3.400000	-0.070330	-52.849568	-60.269472	145.255667	-60.269472	145.255667	-0.085923	-64.787414
3.450000	-0.071509	-53.586787	-59.884942	143.771715	-59.884942	143.771715	-0.087372	-65.684922
3.500000	-0.072698	-54.322584	-59.507709	142.282900	-59.507709	142.282900	-0.088837	-66.580592
3.550000	-0.073900	-55.056954	-59.137519	140.789623	-59.137519	140.789623	-0.090316	-67.474424
3.600000	-0.075113	-55.789889	-58.774134	139.292255	-58.774134	139.292255	-0.091812	-68.366421
3.650000	-0.076339	-56.521384	-58.417329	137.791138	-58.417329	137.791138	-0.093323	-69.256586
3.700000	-0.077578	-57.251434	-58.066889	136.286590	-58.066889	136.286590	-0.094852	-70.144921
3.750000	-0.078830	-57.980033	-57.722612	134.778902	-57.722612	134.778902	-0.096398	-71.031432
3.800000	-0.080097	-58.707113	-57.383991	133.268236	-57.383991	133.268236	-0.097962	-71.916044
3.850000	-0.081377	-59.432733	-57.051178	131.754978	-57.051178	131.754978	-0.099546	-72.798843
3.900000	-0.082672	-60.156889	-56.723996	130.239362	-56.723996	130.239362	-0.101148	-73.679834
3.950000	-0.083982	-60.879578	-56.402275	128.721606	-56.402275	128.721606	-0.102769	-74.559026
4.000000	-0.085307	-61.600796	-56.085855	127.201915	-56.085855	127.201915	-0.104411	-75.436426
4.050000	-0.086647	-62.320541	-55.774583	125.680477	-55.774583	125.680477	-0.106073	-76.312042
4.100000	-0.088004	-63.038810	-55.468311	124.157472	-55.468311	124.157472	-0.107756	-77.185885
4.150000	-0.089378	-63.755601	-55.166900	122.633067	-55.166900	122.633067	-0.109461	-78.057965
4.200000	-0.090768	-64.470913	-54.870214	121.107419	-54.870214	121.107419	-0.111188	-78.928291
4.250000	-0.092175	-65.184744	-54.578125	119.580675	-54.578125	119.580675	-0.112937	-79.796876
4.300000	-0.093600	-65.897095	-54.290509	118.052975	-54.290509	118.052975	-0.114710	-80.663732
4.350000	-0.095043	-66.607963	-54.007247	116.524449	-54.007247	116.524449	-0.116506	-81.528871
4.400000	-0.096505	-67.317349	-53.728225	114.995220	-53.728225	114.995220	-0.118327	-82.392306
4.450000	-0.097985	-68.025254	-53.453334	113.465405	-53.453334	113.465405	-0.120172	-83.254053
4.500000	-0.099485	-68.731678	-53.182468	111.935114	-53.182468	111.935114	-0.122043	-84.114126
4.550000	-0.101004	-69.436622	-52.915526	110.404451	-52.915526	110.404451	-0.123940	-84.972541
4.600000	-0.102543	-70.140087	-52.652409	108.873515	-52.652409	108.873515	-0.125862	-85.829312
4.650000	-0.104103	-70.842076	-52.393023	107.342400	-52.393023	107.342400	-0.127812	-86.684458
4.700000	-0.105683	-71.542591	-52.137277	105.811193	-52.137277	105.811193	-0.129789	-87.537996
4.750000	-0.107285	-72.241634	-51.885082	104.279981	-51.885082	104.279981	-0.131794	-88.389943
4.800000	-0.108908	-72.939208	-51.636353	102.748843	-51.636353	102.748843	-0.133827	-89.240319
4.850000	-0.110553	-73.635317	-51.391007	101.217856	-51.391007	101.217856	-0.135889	-90.089142
4.900000	-0.112221	-74.329964	-51.148964	99.687093	-51.148964	99.687093	-0.137980	-90.936433
4.950000	-0.113911	-75.023153	-50.910146	98.156625	-50.910146	98.156625	-0.140101	-91.782211
5.000000	-0.115625	-75.714890	-50.674477	96.626518	-50.674477	96.626518	-0.142252	-92.626499
5.050000	-0.117371	-76.404615	-50.440651	95.097027	-50.440651	95.097027	-0.144446	-93.468752
5.100000	-0.119129	-77.093679	-50.211551	93.567783	-50.211551	93.567783	-0.146656	-94.310349
5.150000	-0.120917	-77.780904	-49.984522	92.039222	-49.984522	92.039222	-0.148905	-95.150117
5.200000	-0.122728	-78.466818	-49.760612	90.511244	-49.760612	90.511244	-0.151185	-95.988611
5.250000	-0.124560	-79.151562	-49.540007	88.983788	-49.540007	88.983788	-0.153491	-96.825966
5.300000	-0.126427	-79.834359	-49.321068	87.457336	-49.321068	87.457336	-0.155843	-97.661469
5.350000	-0.128306	-80.516508	-49.106277	85.931227	-49.106277	85.931227	-0.158210	-98.496360
5.400000	-0.130227	-81.196360	-48.892346	84.406466	-48.892346	84.406466	-0.160634	-99.329115
5.450000	-0.132163	-81.875443	-48.682122	82.882209	-48.682122	82.882209	-0.163077	-100.161174
5.500000	-0.134131	-82.552890	-48.473881	81.359026	-48.473881	81.359026	-0.165561	-100.991749
5.550000	-0.136127	-83.228952	-48.267988	79.836851	-48.267988	79.836851	-0.168082	-101.821101
5.600000	-0.138143	-83.904027	-48.065100	78.315395	-48.065100	78.315395	-0.170629	-102.649579
5.650000	-0.140199	-84.577125	-47.863275	76.795523	-47.863275	76.795523	-0.173229	-103.476353
5.700000	-0.142269	-85.249612	-47.664933	75.276161	-47.664933	75.276161	-0.175846	-104.302607
5.750000	-0.144382	-85.920065	-47.467338	73.758584	-47.467338	73.758584	-0.178521	-105.127152
5.800000	-0.146515	-86.589681	-47.272548	72.241808	-47.272548	72.241808	-0.181220	-105.951011
5.850000	-0.148678	-87.257902	-47.079440	70.726368	-47.079440	70.726368	-0.183961	-106.773726
5.900000	-0.150875	-87.924744	-46.887755	69.212354	-46.887755	69.212354	-0.186744	-107.595332
5.950000	-0.153090	-88.590806	-46.698674	67.699146	-46.698674	67.699146	-0.189552	-108.416310
6.000000	-0.155352	-89.255008	-46.509446	66.187970	-46.509446	66.187970	-0.192421	-109.235808
6.050000	-0.157628	-89.918690	-46.322929	64.677354	-46.322929	64.677354	-0.195308	-110.054888
6.100000	-0.159948	-90.580778	-46.136005	63.168446	-46.136005	63.168446	-0.198251	-110.872682
6.150000	-0.162294	-91.242143	-45.950240	61.660063	-45.950240	61.660063	-0.201225	-111.689853
6.200000	-0.164672	-91.902554	-45.764768	60.152374	-45.764768	60.152374	-0.204237	-112.506201
6.250000	-0.167096	-92.562105	-45.577063	58.643572	-45.577063	58.643572	-0.207295	-113.321610
6.300000	-0.169541	-93.221278	-45.390697	57.134279	-45.390697	57.134279	-0.210374	-114.136606
6.350000	-0.172086	-93.880166	-45.194759	55.613610	-45.194759	55.613610	-0.213510	-114.950391
6.400000	-0.174664	-94.539223	-44.999186	54.087102	-44.999186	54.087102	-0.216657	-115.763946
6.450000	-0.177436	-95.199747	-44.787868	52.521149	-44.787868	52.521149	-0.219834	-116.576602
6.500000	-0.180634	-95.863831	-44.552409	50.855480	-44.552409	50.855480	-0.223011	-117.388599
6.550000	-0.185260	-96.535633	-44.271848	48.850008	-44.271848	48.850008	-0.226123	-118.200134
6.600000	-0.195134	-97.211144	-43.969997	45.630441	-43.969997	45.630441	-0.229062	-119.012548
6.650000	-0.212705	-97.805447	-44.090055	40.537843	-44.090055	40.537843	-0.232328	-119.829568
6.700000	-0.208301	-98.348829	-44.537111	40.662865	-44.537111	40.662865	-0.236732	-120.641307
6.750000	-0.202710	-98.989455	-44.414105	41.341907	-44.414105	41.341907	-0.240560	-121.448990
6.800000	-0.202056	-99.643879	-44.197360	40.747327	-44.197360	40.747327	-0.244170	-122.257232
6.850000	-0.203292	-100.295176	-43.994817	39.668287	-43.994817	39.668287	-0.247776	-123.065770
6.900000	-0.205355	-100.942635	-43.809671	38.388834	-43.809671	38.388834	-0.251425	-123.874329
6.950000	-0.207734	-101.587813	-43.634695	37.039502	-43.634695	37.039502	-0.255115	-124.682830
7.000000	-0.210346	-102.230812	-43.468068	35.642764	-43.468068	35.642764	-0.258854	-125.491250
7.050000	-0.213111	-102.871996	-43.307598	34.219507	-43.307598	34.219507	-0.262642	-126.299596
7.100000	-0.216000	-103.511373	-43.152020	32.779181	-43.152020	32.779181	-0.266488	-127.107894
7.150000	-0.218980	-104.149278	-43.000322	31.328648	-43.000322	31.328648	-0.270386	-127.916175
7.200000	-0.221995	-104.786535	-42.851429	29.875663	-42.851429	29.875663	-0.274312	-128.724485
7.250000	-0.225115	-105.421853	-42.705643	28.415325	-42.705643	28.415325	-0.278315	-129.532877
7.300000	-0.228255	-106.056784	-42.562247	26.954354	-42.562247	26.954354	-0.282337	-130.341319
7.350000	-0.231491	-106.689783	-42.421099	25.490221	-42.421099	25.490221	-0.286446	-131.150010
7.400000	-0.234738	-107.322604	-42.282165	24.026008	-42.282165	24.026008	-0.290565	-131.958743
7.450000	-0.238081	-107.953461	-42.144947	22.560909	-42.144947	22.560909	-0.294781	-132.767935
7.500000	-0.241426	-108.584319	-42.009863	21.095810	-42.009863	21.095810	-0.298999	-133.577126
7.550000	-0.244871	-109.213169	-41.876137	19.631238	-41.876137	19.631238	-0.303323	-134.387027
7.600000	-0.248318	-109.842019	-41.744439	18.166667	-41.744439	18.166667	-0.307650	-135.196927
7.650000	-0.251856	-110.469132	-41.613980	16.703364	-41.613980	16.703364	-0.312075	-136.007675
7.700000	-0.255403	-111.096088	-41.485385	15.240176	-41.485385	15.240176	-0.316510	-136.818501
7.750000	-0.259032	-111.721548	-41.357987	13.778578	-41.357987	13.778578	-0.321037	-137.630282
7.800000	-0.262679	-112.346709	-41.232296	12.317298	-41.232296	12.317298	-0.325584	-138.442254
7.850000	-0.266400	-112.970596	-41.107794	10.857698	-41.107794	10.857698	-0.330213	-139.255256
7.900000	-0.270146	-113.594057	-40.984854	9.398658	-40.984854	9.398658	-0.334872	-140.068602
7.950000	-0.273958	-114.216447	-40.863116	7.941258	-40.863116	7.941258	-0.339605	-140.883020
8.000000	-0.277805	-114.838300	-40.742807	6.484677	-40.742807	6.484677	-0.344376	-141.697973
8.050000	-0.281709	-115.459267	-40.623718	5.029616	-40.623718	5.029616	-0.349214	-142.514003
8.100000	-0.285656	-116.079601	-40.505941	3.575641	-40.505941	3.575641	-0.354099	-143.330802
8.150000	-0.289654	-116.699220	-40.389404	2.123016	-40.389404	2.123016	-0.359043	-144.148647
8.200000	-0.293703	-117.318123	-40.274077	0.671741	-40.274077	0.671741	-0.364043	-144.967536
8.250000	-0.297794	-117.936468	-40.160004	-0.778382	-40.160004	-0.778382	-0.369093	-145.787401
8.300000	-0.301945	-118.554031	-40.047056	-2.226894	-40.047056	-2.226894	-0.374210	-146.608631
8.350000	-0.306131	-119.171176	-39.935372	-3.674472	-39.935372	-3.674472	-0.379367	-147.430727
8.400000	-0.310386	-119.787487	-39.824740	-5.120184	-39.824740	-5.120184	-0.384600	-148.254553
8.450000	-0.314667	-120.403507	-39.715375	-6.565191	-39.715375	-6.565191	-0.389865	-149.079094
8.500000	-0.319026	-121.018656	-39.607004	-8.008085	-39.607004	-8.008085	-0.395216	-149.905778
8.550000	-0.323403	-121.633627	-39.499896	-9.450508	-39.499896	-9.450508	-0.400590	-150.732984
8.600000	-0.327867	-122.247707	-39.393736	-10.890580	-39.393736	-10.890580	-0.406059	-151.562793
8.650000	-0.332342	-122.861705	-39.288828	-12.330417	-39.288828	-12.330417	-0.411541	-152.392886
8.700000	-0.336912	-123.474808	-39.184836	-13.767675	-39.184836	-13.767675	-0.417130	-153.226095
8.750000	-0.341484	-124.087910	-39.082075	-15.204933	-39.082075	-15.204933	-0.422722	-154.059304
8.800000	-0.346161	-124.700130	-38.980212	-16.639393	-38.980212	-16.639393	-0.428429	-154.896192
8.850000	-0.350841	-125.312349	-38.879529	-18.073854	-38.879529	-18.073854	-0.434141	-155.733079
8.900000	-0.355617	-125.923847	-38.779780	-19.505772	-38.779780	-19.505772	-0.439958	-156.573601
8.950000	-0.360404	-126.535280	-38.681143	-20.937459	-38.681143	-20.937459	-0.445789	-157.414453
9.000000	-0.365280	-127.146137	-38.583465	-22.366860	-38.583465	-22.366860	-0.451717	-158.258852
9.050000	-0.370176	-127.756879	-38.486844	-23.795803	-38.486844	-23.795803	-0.457668	-159.103960
9.100000	-0.375153	-128.367178	-38.391200	-25.222715	-38.391200	-25.222715	-0.463706	-159.952485
9.150000	-0.380158	-128.977330	-38.296568	-26.648948	-38.296568	-26.648948	-0.469777	-160.802148
9.200000	-0.385218	-129.587227	-38.202925	-28.073842	-38.202925	-28.073842	-0.475907	-161.654215
9.250000	-0.390340	-130.196861	-38.110259	-29.497238	-38.110259	-29.497238	-0.482103	-162.509052
9.300000	-0.395514	-130.806299	-38.018569	-30.919368	-38.018569	-30.919368	-0.488357	-163.366336
9.350000	-0.400742	-131.415564	-37.927852	-32.340242	-37.927852	-32.340242	-0.494668	-164.226140
9.400000	-0.406023	-132.024682	-37.838100	-33.759868	-37.838100	-33.759868	-0.501036	-165.088537
9.450000	-0.411356	-132.633676	-37.749309	-35.178258	-37.749309	-35.178258	-0.507461	-165.953601
9.500000	-0.416744	-133.242570	-37.661473	-36.595419	-37.661473	-36.595419	-0.513942	-166.821406
9.550000	-0.422184	-133.851389	-37.574590	-38.011360	-37.574590	-38.011360	-0.520480	-167.692026
9.600000	-0.427678	-134.460158	-37.488653	-39.426092	-37.488653	-39.426092	-0.527074	-168.565537
9.650000	-0.433226	-135.068901	-37.403660	-40.839623	-37.403660	-40.839623	-0.533724	-169.442016
9.700000	-0.438826	-135.677645	-37.319607	-42.251962	-37.319607	-42.251962	-0.540429	-170.321539
9.750000	-0.444481	-136.286413	-37.236491	-43.663116	-37.236491	-43.663116	-0.547190	-171.204184
9.800000	-0.450188	-136.895233	-37.154309	-45.073094	-37.154309	-45.073094	-0.554005	-172.090031
9.850000	-0.455950	-137.504129	-37.073059	-46.481904	-37.073059	-46.481904	-0.560875	-172.979157
9.900000	-0.461764	-138.113129	-36.992738	-47.889553	-36.992738	-47.889553	-0.567798	-173.871642
9.950000	-0.467632	-138.722258	-36.913346	-49.296046	-36.913346	-49.296046	-0.574775	-174.767568
10.000000	-0.473553	-139.331543	-36.834879	-50.701392	-36.834879	-50.701392	-0.581805	-175.667014
