! freq	dB(S11)	phase(S11)	dB(S12)	phase(S12)	
!     	dB(S21)	phase(S21)	dB(S22)	phase(S22)	
!S-par simulation data
#  GHz  S  DB  R 50
0.000000	-0.000000	0.000000	-385.316778	0.000000	-385.316778	0.000000	-0.000000	0.000000
0.050000	-0.000087	-0.768612	-108.924499	75.846591	-108.924499	75.846591	-0.000087	-0.768878
0.100000	-0.000347	-1.537033	-104.413392	73.781705	-104.413392	73.781705	-0.000345	-1.537567
0.150000	-0.000774	-2.305067	-101.725160	75.081363	-101.725160	75.081363	-0.000770	-2.305872
0.200000	-0.001345	-3.072592	-99.694886	76.491822	-99.694886	76.491822	-0.001339	-3.073673
0.250000	-0.002050	-3.839463	-98.062314	77.533238	-98.062314	77.533238	-0.002041	-3.840825
0.300000	-0.002881	-4.605493	-96.715618	78.205119	-96.715618	78.205119	-0.002870	-4.607142
0.350000	-0.003802	-5.370739	-95.581721	78.659298	-95.581721	78.659298	-0.003788	-5.372678
0.400000	-0.004807	-6.135025	-94.621204	78.943790	-94.621204	78.943790	-0.004791	-6.137259
0.450000	-0.005871	-6.898401	-93.799314	79.139066	-93.799314	79.139066	-0.005854	-6.900934
0.500000	-0.006982	-7.660820	-93.095832	79.289557	-93.095832	79.289557	-0.006964	-7.663652
0.550000	-0.008124	-8.422291	-92.494150	79.436492	-92.494150	79.436492	-0.008106	-8.425424
0.600000	-0.009285	-9.182830	-91.982095	79.614491	-91.982095	79.614491	-0.009268	-9.186263
0.650000	-0.010456	-9.942459	-91.550388	79.855438	-91.550388	79.855438	-0.010439	-9.946191
0.700000	-0.011627	-10.701205	-91.191824	80.190714	-91.191824	80.190714	-0.011612	-10.705234
0.750000	-0.012794	-11.459094	-90.900687	80.653002	-90.900687	80.653002	-0.012781	-11.463417
0.800000	-0.013950	-12.216153	-90.672267	81.277884	-90.672267	81.277884	-0.013940	-12.220768
0.850000	-0.015092	-12.972272	-90.511323	82.154976	-90.511323	82.154976	-0.015084	-12.977175
0.900000	-0.016217	-13.727573	-90.406994	83.292914	-90.406994	83.292914	-0.016212	-13.732760
0.950000	-0.017335	-14.482478	-90.327674	84.613349	-90.327674	84.613349	-0.017332	-14.487949
1.000000	-0.018426	-15.236198	-90.320128	86.481279	-90.320128	86.481279	-0.018426	-15.241947
1.050000	-0.019513	-15.989660	-90.322665	88.523311	-90.322665	88.523311	-0.019515	-15.995687
1.100000	-0.020572	-16.741835	-90.375779	91.435857	-90.375779	91.435857	-0.020577	-16.748136
1.150000	-0.021629	-17.493881	-90.428225	94.462640	-90.428225	94.462640	-0.021636	-17.500456
1.200000	-0.022659	-18.244516	-90.469996	98.746029	-90.469996	98.746029	-0.022668	-18.251362
1.250000	-0.023689	-18.995151	-90.511969	103.029418	-90.511969	103.029418	-0.023700	-19.002267
1.300000	-0.024700	-19.744621	-90.470414	108.434218	-90.470414	108.434218	-0.024713	-19.752005
1.350000	-0.025701	-20.493335	-90.326776	114.466783	-90.326776	114.466783	-0.025716	-20.500986
1.400000	-0.026693	-21.241284	-90.048676	120.938694	-90.048676	120.938694	-0.026709	-21.249200
1.450000	-0.027677	-21.988456	-89.615871	127.576000	-89.615871	127.576000	-0.027695	-21.996638
1.500000	-0.028655	-22.734838	-89.026534	134.069889	-89.026534	134.069889	-0.028673	-22.743285
1.550000	-0.029626	-23.480417	-88.297453	140.143015	-88.297453	140.143015	-0.029646	-23.489129
1.600000	-0.030593	-24.225179	-87.458124	145.599168	-87.458124	145.599168	-0.030613	-24.234155
1.650000	-0.031555	-24.969109	-86.542422	150.338490	-86.542422	150.338490	-0.031576	-24.978348
1.700000	-0.032514	-25.711887	-85.537858	154.108146	-85.537858	154.108146	-0.032536	-25.721390
1.750000	-0.033472	-26.454218	-84.577284	157.505225	-84.577284	157.505225	-0.033494	-26.463984
1.800000	-0.034428	-27.195470	-83.592137	160.175811	-83.592137	160.175811	-0.034450	-27.205498
1.850000	-0.035382	-27.935950	-82.630696	162.327473	-82.630696	162.327473	-0.035405	-27.946241
1.900000	-0.036337	-28.675470	-81.685793	164.020876	-81.685793	164.020876	-0.036360	-28.686024
1.950000	-0.037291	-29.414029	-80.762351	165.256018	-80.762351	165.256018	-0.037315	-29.424845
2.000000	-0.038247	-30.151758	-79.875034	166.219381	-79.875034	166.219381	-0.038271	-30.162836
2.050000	-0.039203	-30.888324	-79.003250	166.802251	-79.003250	166.802251	-0.039228	-30.899664
2.100000	-0.040161	-31.624203	-78.176393	167.229985	-78.176393	167.229985	-0.040186	-31.635805
2.150000	-0.041122	-32.358708	-77.358287	167.347446	-77.358287	167.347446	-0.041147	-32.370571
2.200000	-0.042084	-33.092680	-76.588760	167.380499	-76.588760	167.380499	-0.042109	-33.104804
2.250000	-0.043051	-33.825055	-75.821653	167.160329	-75.821653	167.160329	-0.043076	-33.837439
2.300000	-0.044018	-34.557064	-75.104309	166.898470	-75.104309	166.898470	-0.044044	-34.569708
2.350000	-0.044992	-35.287244	-74.383948	166.428164	-74.383948	166.428164	-0.045018	-35.300146
2.400000	-0.045966	-36.017235	-73.713333	165.942081	-73.713333	165.942081	-0.045993	-36.030396
2.450000	-0.046949	-36.745156	-73.035213	165.282443	-73.035213	165.282443	-0.046976	-36.758576
2.500000	-0.047931	-37.473078	-72.406223	164.622804	-72.406223	164.622804	-0.047959	-37.486755
2.550000	-0.048923	-38.198681	-71.766103	163.816914	-71.766103	163.816914	-0.048952	-38.212614
2.600000	-0.049915	-38.924284	-71.169937	163.011025	-71.169937	163.011025	-0.049945	-38.938473
2.650000	-0.050918	-39.647709	-70.568269	162.099625	-70.568269	162.099625	-0.050948	-39.662154
2.700000	-0.051921	-40.370937	-70.001869	161.178633	-70.001869	161.178633	-0.051952	-40.385636
2.750000	-0.052935	-41.092140	-69.434405	160.180860	-69.434405	160.180860	-0.052966	-41.107092
2.800000	-0.053951	-41.812938	-68.895045	159.167730	-68.895045	159.167730	-0.053983	-41.828143
2.850000	-0.054977	-42.531876	-68.358172	158.098422	-68.358172	158.098422	-0.055010	-42.547332
2.900000	-0.056007	-43.250194	-67.843443	157.010388	-67.843443	157.010388	-0.056040	-43.265901
2.950000	-0.057046	-43.966826	-67.334074	155.881178	-67.334074	155.881178	-0.057080	-43.982782
3.000000	-0.058090	-44.682615	-66.841859	154.731379	-66.841859	154.731379	-0.058125	-44.698821
3.050000	-0.059144	-45.396903	-66.357339	153.551476	-66.357339	153.551476	-0.059180	-45.413356
3.100000	-0.060204	-46.110120	-65.885772	152.350069	-65.885772	152.350069	-0.060241	-46.126819
3.150000	-0.061273	-46.822029	-65.423809	151.126828	-65.423809	151.126828	-0.061311	-46.838974
3.200000	-0.062351	-47.532630	-64.971242	149.881752	-64.971242	149.881752	-0.062390	-47.549820
3.250000	-0.063437	-48.242127	-64.529843	148.621087	-64.529843	148.621087	-0.063477	-48.259561
3.300000	-0.064533	-48.950075	-64.094812	147.338600	-64.094812	147.338600	-0.064574	-48.967752
3.350000	-0.065637	-49.657128	-63.672232	146.045293	-63.672232	146.045293	-0.065678	-49.675047
3.400000	-0.066753	-50.362389	-63.253432	144.730347	-63.253432	144.730347	-0.066796	-50.380548
3.450000	-0.067875	-51.066970	-62.848136	143.408268	-62.848136	143.408268	-0.067918	-51.085369
3.500000	-0.069013	-51.769512	-62.444395	142.064786	-62.444395	142.064786	-0.069057	-51.788149
3.550000	-0.070155	-52.471595	-62.055022	140.717063	-62.055022	140.717063	-0.070200	-52.490471
3.600000	-0.071315	-53.171389	-61.665282	139.348125	-61.665282	139.348125	-0.071362	-53.190500
3.650000	-0.072478	-53.870951	-61.290617	137.977265	-61.290617	137.977265	-0.072525	-53.890299
3.700000	-0.073663	-54.567972	-60.913912	136.585243	-60.913912	136.585243	-0.073711	-54.587554
3.750000	-0.074848	-55.264992	-60.552868	135.193221	-60.552868	135.193221	-0.074897	-55.284809
3.800000	-0.076059	-55.959218	-60.188312	133.779862	-60.188312	133.779862	-0.076109	-55.979268
3.850000	-0.077270	-56.653444	-59.838442	132.366503	-59.838442	132.366503	-0.077321	-56.673726
3.900000	-0.078506	-57.345093	-59.486672	130.934660	-59.486672	130.934660	-0.078557	-57.365606
3.950000	-0.079744	-58.036507	-59.147247	129.501137	-59.147247	129.501137	-0.079796	-58.057250
4.000000	-0.081006	-58.725565	-58.807323	128.051313	-58.807323	128.051313	-0.081059	-58.746539
4.050000	-0.082273	-59.414153	-58.477650	126.598230	-58.477650	126.598230	-0.082326	-59.435356
4.100000	-0.083562	-60.100614	-58.148700	125.130483	-58.148700	125.130483	-0.083617	-60.122044
4.150000	-0.084859	-60.786365	-57.828116	123.657847	-57.828116	123.657847	-0.084915	-60.808024
4.200000	-0.086177	-61.470223	-57.509320	122.171728	-57.509320	122.171728	-0.086233	-61.492108
4.250000	-0.087506	-62.153133	-57.197170	120.678868	-57.197170	120.678868	-0.087563	-62.175245
4.300000	-0.088855	-62.834386	-56.887743	119.173336	-56.887743	119.173336	-0.088912	-62.856723
4.350000	-0.090217	-63.514456	-56.583370	117.658752	-56.583370	117.658752	-0.090275	-63.537018
4.400000	-0.091597	-64.193107	-56.282544	116.132020	-56.282544	116.132020	-0.091655	-64.215894
4.450000	-0.092994	-64.870341	-55.985257	114.593138	-55.985257	114.593138	-0.093053	-64.893352
4.500000	-0.094406	-65.546400	-55.692259	113.042441	-55.692259	113.042441	-0.094466	-65.569635
4.550000	-0.095839	-66.220813	-55.401307	111.475200	-55.401307	111.475200	-0.095900	-66.244272
4.600000	-0.097286	-66.894294	-55.115329	109.896430	-55.115329	109.896430	-0.097347	-66.917976
4.650000	-0.098757	-67.565911	-54.829843	108.294600	-54.829843	108.294600	-0.098819	-67.589816
4.700000	-0.100238	-68.236839	-54.550006	106.681732	-54.550006	106.681732	-0.100300	-68.260967
4.750000	-0.101749	-68.905699	-54.268920	105.035748	-54.268920	105.035748	-0.101812	-68.930050
4.800000	-0.103267	-69.574110	-53.994208	103.379906	-53.994208	103.379906	-0.103330	-69.598684
4.850000	-0.104819	-70.240275	-53.716112	101.674769	-53.716112	101.674769	-0.104883	-70.265073
4.900000	-0.106375	-70.906225	-53.445285	99.962669	-53.445285	99.962669	-0.106439	-70.931246
4.950000	-0.107969	-71.569797	-53.168160	98.173968	-53.168160	98.173968	-0.108034	-71.595043
5.000000	-0.109565	-72.233368	-52.899604	96.385267	-52.899604	96.385267	-0.109630	-72.258840
5.050000	-0.111197	-72.894898	-52.623949	94.497548	-52.623949	94.497548	-0.111263	-72.920598
5.100000	-0.112850	-73.555513	-52.347743	92.540927	-52.347743	92.540927	-0.112916	-73.581441
5.150000	-0.114524	-74.215252	-52.070394	90.504907	-52.070394	90.504907	-0.114591	-74.241413
5.200000	-0.116226	-74.873972	-51.787767	88.344453	-51.787767	88.344453	-0.116293	-74.900368
5.250000	-0.117965	-75.531857	-51.494449	85.985194	-51.494449	85.985194	-0.118033	-75.558494
5.300000	-0.119731	-76.189379	-51.196651	83.471050	-51.196651	83.471050	-0.119801	-76.216263
5.350000	-0.121555	-76.846652	-50.880104	80.614692	-50.880104	80.614692	-0.121626	-76.873792
5.400000	-0.123469	-77.504436	-50.535381	77.238284	-50.535381	77.238284	-0.123543	-77.531849
5.450000	-0.125523	-78.163613	-50.156367	73.168739	-50.156367	73.168739	-0.125601	-78.191319
5.500000	-0.127964	-78.826846	-49.702663	67.592524	-49.702663	67.592524	-0.128051	-78.854885
5.550000	-0.131276	-79.497440	-49.146226	59.496200	-49.146226	59.496200	-0.131380	-79.525866
5.600000	-0.137615	-80.183464	-48.413299	45.144169	-48.413299	45.144169	-0.137766	-80.212331
5.650000	-0.157205	-80.870528	-47.810033	9.765597	-47.810033	9.765597	-0.157463	-80.899577
5.700000	-0.178656	-81.303797	-53.278436	-89.390932	-53.278436	-89.390932	-0.179019	-81.332416
5.750000	-0.157238	-81.853781	-55.142810	150.747737	-55.142810	150.747737	-0.157523	-81.881467
5.800000	-0.149078	-82.517421	-52.709140	116.187570	-52.709140	116.187570	-0.149266	-82.545285
5.850000	-0.147360	-83.176659	-51.556507	103.024473	-51.556507	103.024473	-0.147506	-83.204860
5.900000	-0.147514	-83.828474	-50.837140	95.156177	-50.837140	95.156177	-0.147638	-83.856993
5.950000	-0.148610	-84.474047	-50.338188	89.980643	-50.338188	89.980643	-0.148724	-84.502854
6.000000	-0.150107	-85.115790	-49.939657	85.980760	-49.939657	85.980760	-0.150214	-85.144865
6.050000	-0.151852	-85.754399	-49.603278	82.714809	-49.603278	82.714809	-0.151955	-85.783726
6.100000	-0.153755	-86.390518	-49.305968	79.903882	-49.305968	79.903882	-0.153855	-86.420087
6.150000	-0.155782	-87.024197	-49.036920	77.430000	-49.036920	77.430000	-0.155880	-87.054000
6.200000	-0.157871	-87.656459	-48.783704	75.109717	-48.783704	75.109717	-0.157968	-87.686490
6.250000	-0.160024	-88.287216	-48.544781	72.938148	-48.544781	72.938148	-0.160120	-88.317472
6.300000	-0.162258	-88.915750	-48.318997	70.928984	-48.318997	70.928984	-0.162354	-88.946226
6.350000	-0.164536	-89.543020	-48.101295	68.989413	-48.101295	68.989413	-0.164632	-89.573715
6.400000	-0.166855	-90.169051	-47.890844	67.112578	-47.890844	67.112578	-0.166951	-90.199963
6.450000	-0.169224	-90.793558	-47.686954	65.300317	-47.686954	65.300317	-0.169320	-90.824684
6.500000	-0.171642	-91.416498	-47.488503	63.540121	-47.488503	63.540121	-0.171739	-91.447837
6.550000	-0.174096	-92.038317	-47.294711	61.811789	-47.294711	61.811789	-0.174193	-92.069868
6.600000	-0.176585	-92.659027	-47.105225	60.112392	-47.105225	60.112392	-0.176683	-92.690790
6.650000	-0.179127	-93.278068	-46.919477	58.449009	-46.919477	58.449009	-0.179225	-93.310040
6.700000	-0.181714	-93.895677	-46.737028	56.810422	-46.737028	56.810422	-0.181813	-93.927858
6.750000	-0.184324	-94.512570	-46.558044	55.184233	-46.558044	55.184233	-0.184424	-94.544959
6.800000	-0.186982	-95.128000	-46.381821	53.578178	-46.381821	53.578178	-0.187083	-95.160598
6.850000	-0.189674	-95.742387	-46.208504	51.986504	-46.208504	51.986504	-0.189776	-95.775192
6.900000	-0.192407	-96.355556	-46.037712	50.408099	-46.037712	50.408099	-0.192510	-96.388569
6.950000	-0.195181	-96.967509	-45.869366	48.842962	-45.869366	48.842962	-0.195284	-97.000728
7.000000	-0.197989	-97.578475	-45.703441	47.286564	-45.703441	47.286564	-0.198094	-97.611901
7.050000	-0.200845	-98.188060	-45.539557	45.742398	-45.539557	45.742398	-0.200951	-98.221693
7.100000	-0.203729	-98.796877	-45.378063	44.203890	-45.378063	44.203890	-0.203836	-98.830716
7.150000	-0.206668	-99.404158	-45.218254	42.676696	-45.218254	42.676696	-0.206776	-99.438204
7.200000	-0.209629	-100.010878	-45.060846	41.153008	-45.060846	41.153008	-0.209738	-100.045130
7.250000	-0.212652	-100.615916	-44.904808	39.639840	-44.904808	39.639840	-0.212763	-100.650374
7.300000	-0.215691	-101.220589	-44.751203	38.128639	-44.751203	38.128639	-0.215802	-101.255254
7.350000	-0.218799	-101.823444	-44.598693	36.627280	-44.598693	36.627280	-0.218912	-101.858315
7.400000	-0.221915	-102.426122	-44.448658	35.126764	-44.448658	35.126764	-0.222030	-102.461199
7.450000	-0.225110	-103.026855	-44.299473	33.635516	-44.299473	33.635516	-0.225226	-103.062138
7.500000	-0.228306	-103.627588	-44.152808	32.144268	-44.152808	32.144268	-0.228423	-103.663078
7.550000	-0.231588	-104.226259	-44.006778	30.661807	-44.006778	30.661807	-0.231706	-104.261956
7.600000	-0.234872	-104.824930	-43.863164	29.179346	-43.863164	29.179346	-0.234991	-104.860834
7.650000	-0.238236	-105.421767	-43.720291	27.703979	-43.720291	27.703979	-0.238356	-105.457879
7.700000	-0.241608	-106.018438	-43.579587	26.229258	-43.579587	26.229258	-0.241730	-106.054758
7.750000	-0.245054	-106.613494	-43.439732	24.760286	-43.439732	24.760286	-0.245178	-106.650022
7.800000	-0.248516	-107.208226	-43.301818	23.292463	-43.301818	23.292463	-0.248642	-107.244963
7.850000	-0.252046	-107.801553	-43.164856	21.829303	-43.164856	21.829303	-0.252173	-107.838499
7.900000	-0.255600	-108.394411	-43.029625	20.367696	-43.029625	20.367696	-0.255728	-108.431566
7.950000	-0.259214	-108.986061	-42.895442	18.909858	-42.895442	18.909858	-0.259344	-109.023427
8.000000	-0.262860	-109.577109	-42.762797	17.453905	-42.762797	17.453905	-0.262991	-109.614685
8.050000	-0.266560	-110.167138	-42.631291	16.000976	-42.631291	16.000976	-0.266693	-110.204925
8.100000	-0.270299	-110.756440	-42.501145	14.550207	-42.501145	14.550207	-0.270433	-110.794439
8.150000	-0.274086	-111.344903	-42.372223	13.101832	-42.372223	13.101832	-0.274221	-111.383115
8.200000	-0.277920	-111.932526	-42.244497	11.655851	-42.244497	11.655851	-0.278057	-111.970952
8.250000	-0.281794	-112.519479	-42.118070	10.211725	-42.118070	10.211725	-0.281932	-112.558119
8.300000	-0.285723	-113.105492	-41.992692	8.770194	-41.992692	8.770194	-0.285864	-113.144347
8.350000	-0.289686	-113.690991	-41.868679	7.330049	-41.868679	7.330049	-0.289828	-113.730062
8.400000	-0.293712	-114.275464	-41.745584	5.892674	-41.745584	5.892674	-0.293855	-114.314752
8.450000	-0.297764	-114.859568	-41.623910	4.456274	-41.623910	4.456274	-0.297909	-114.899074
8.500000	-0.301888	-115.442570	-41.503035	3.022798	-41.503035	3.022798	-0.302034	-115.482295
8.550000	-0.306029	-116.025339	-41.383632	1.589933	-41.383632	1.589933	-0.306178	-116.065284
8.600000	-0.310252	-116.606943	-41.264920	0.160126	-41.264920	0.160126	-0.310402	-116.647109
8.650000	-0.314485	-117.188436	-41.147720	-1.269393	-41.147720	-1.269393	-0.314636	-117.228825
8.700000	-0.318807	-117.768716	-41.031119	-2.695740	-41.031119	-2.695740	-0.318960	-117.809329
8.750000	-0.323131	-118.348995	-40.916063	-4.122086	-40.916063	-4.122086	-0.323286	-118.389832
8.800000	-0.327554	-118.928026	-40.801523	-5.545162	-40.801523	-5.545162	-0.327710	-118.969090
8.850000	-0.331978	-119.507056	-40.688474	-6.968237	-40.688474	-6.968237	-0.332136	-119.548347
8.900000	-0.336494	-120.085011	-40.576028	-8.388477	-40.576028	-8.388477	-0.336653	-120.126533
8.950000	-0.341020	-120.662869	-40.464943	-9.808460	-40.464943	-9.808460	-0.341181	-120.704621
9.000000	-0.345629	-121.239815	-40.354539	-11.226003	-40.354539	-11.226003	-0.345791	-121.281800
9.050000	-0.350256	-121.816578	-40.245377	-12.643059	-40.245377	-12.643059	-0.350421	-121.858797
9.100000	-0.354960	-122.392581	-40.136965	-14.058039	-40.136965	-14.058039	-0.355125	-122.435036
9.150000	-0.359690	-122.968330	-40.029690	-15.472328	-40.029690	-15.472328	-0.359857	-123.011023
9.200000	-0.364488	-123.543457	-39.923224	-16.884875	-39.923224	-16.884875	-0.364657	-123.586390
9.250000	-0.369321	-124.118273	-39.817800	-18.296550	-39.817800	-18.296550	-0.369491	-124.161448
9.300000	-0.374214	-124.692594	-39.713238	-19.706789	-39.713238	-19.706789	-0.374386	-124.736012
9.350000	-0.379150	-125.266560	-39.609634	-21.116002	-39.609634	-21.116002	-0.379324	-125.310225
9.400000	-0.384139	-125.840144	-39.506935	-22.524057	-39.506935	-22.524057	-0.384314	-125.884057
9.450000	-0.389179	-126.413346	-39.405122	-23.930955	-39.405122	-23.930955	-0.389356	-126.457509
9.500000	-0.394263	-126.986265	-39.304249	-25.336949	-39.304249	-25.336949	-0.394442	-127.030681
9.550000	-0.399408	-127.558789	-39.204202	-26.741677	-39.204202	-26.741677	-0.399588	-127.603460
9.600000	-0.404588	-128.131116	-39.105121	-28.145731	-39.105121	-28.145731	-0.404770	-128.176045
9.650000	-0.409836	-128.703050	-39.006815	-29.548437	-39.006815	-29.548437	-0.410021	-128.748240
9.700000	-0.415113	-129.274859	-38.909495	-30.950672	-38.909495	-30.950672	-0.415299	-129.320312
9.750000	-0.420466	-129.846294	-38.812911	-32.351499	-38.812911	-32.351499	-0.420654	-129.892014
9.800000	-0.425838	-130.417662	-38.717322	-33.752037	-38.717322	-33.752037	-0.426028	-130.463649
9.850000	-0.431296	-130.988690	-38.622443	-35.151131	-38.622443	-35.151131	-0.431487	-131.034950
9.900000	-0.436765	-131.559693	-38.528560	-36.550093	-38.528560	-36.550093	-0.436958	-131.606226
9.950000	-0.442326	-132.130409	-38.435370	-37.947600	-38.435370	-37.947600	-0.442522	-132.177222
10.000000	-0.447892	-132.701125	-38.343169	-39.345107	-38.343169	-39.345107	-0.448089	-132.748218
