! freq	dB(S11)	phase(S11)	dB(S12)	phase(S12)	
!     	dB(S21)	phase(S21)	dB(S22)	phase(S22)	
!S-par simulation data
#  GHz  S  DB  R 50
0.000000	-82.299111	0.000000	-0.000667	0.000000	-0.000667	0.000000	-82.299111	0.000000
0.050000	-35.081336	-91.108664	-0.013502	-3.541030	-0.013502	-3.541030	-35.082825	-90.921500
0.100000	-29.106544	-96.234478	-0.022512	-7.049898	-0.022512	-7.049898	-29.106078	-95.862069
0.150000	-25.643116	-100.397239	-0.033726	-10.541456	-0.033726	-10.541456	-25.640577	-99.839154
0.200000	-23.211030	-104.279400	-0.046723	-14.022290	-0.046723	-14.022290	-23.207986	-103.534264
0.250000	-21.344059	-108.033369	-0.061706	-17.494874	-0.061706	-17.494874	-21.341909	-107.100999
0.300000	-19.835313	-111.715652	-0.078803	-20.958910	-0.078803	-20.958910	-19.834625	-110.597081
0.350000	-18.574929	-115.352041	-0.097954	-24.413463	-0.097954	-24.413463	-18.575551	-114.048069
0.400000	-17.498384	-118.954444	-0.119036	-27.857352	-0.119036	-27.857352	-17.499834	-117.464808
0.450000	-16.564980	-122.528755	-0.141896	-31.289233	-0.141896	-31.289233	-16.566736	-120.852162
0.500000	-15.746023	-126.079373	-0.166267	-34.708520	-0.166267	-34.708520	-15.747696	-124.214114
0.550000	-15.021314	-129.608752	-0.191894	-38.114696	-0.191894	-38.114696	-15.022666	-127.553168
0.600000	-14.375993	-133.118512	-0.218526	-41.507390	-0.218526	-41.507390	-14.376910	-130.871201
0.650000	-13.799177	-136.609558	-0.245916	-44.886176	-0.245916	-44.886176	-13.799628	-134.169400
0.700000	-13.281862	-140.083022	-0.273795	-48.251132	-0.273795	-48.251132	-13.281870	-137.449143
0.750000	-12.816664	-143.540007	-0.301907	-51.602613	-0.301907	-51.602613	-12.816279	-140.711682
0.800000	-12.397866	-146.981341	-0.330012	-54.940943	-0.330012	-54.940943	-12.397154	-143.957891
0.850000	-12.021635	-150.407335	-0.357857	-58.266136	-0.357857	-58.266136	-12.020665	-147.188034
0.900000	-11.682901	-153.819614	-0.385232	-61.579438	-0.385232	-61.579438	-11.681742	-150.403699
0.950000	-11.378854	-157.218836	-0.411915	-64.881335	-0.411915	-64.881335	-11.377569	-153.605426
1.000000	-11.106759	-160.606007	-0.437699	-68.172666	-0.437699	-68.172666	-11.105410	-156.794096
1.050000	-10.864310	-163.982212	-0.462391	-71.454378	-0.462391	-71.454378	-10.862951	-159.970658
1.100000	-10.649561	-167.348615	-0.485806	-74.727513	-0.485806	-74.727513	-10.648240	-163.136135
1.150000	-10.460869	-170.706461	-0.507773	-77.993208	-0.507773	-77.993208	-10.459628	-166.291626
1.200000	-10.296854	-174.057071	-0.528135	-81.252686	-0.528135	-81.252686	-10.295730	-169.438308
1.250000	-10.156369	-177.401838	-0.546746	-84.507251	-0.546746	-84.507251	-10.155392	-172.577429
1.300000	-10.038921	179.257835	-0.563430	-87.758241	-0.563430	-87.758241	-10.038116	-175.710199
1.350000	-9.943307	175.920294	-0.578109	-91.007221	-0.578109	-91.007221	-9.942694	-178.838159
1.400000	-9.868953	172.583958	-0.590681	-94.255715	-0.590681	-94.255715	-9.868546	178.037266
1.450000	-9.815448	169.247199	-0.601060	-97.505309	-0.601060	-97.505309	-9.815258	174.914611
1.500000	-9.782542	165.908352	-0.609175	-100.757645	-0.609175	-100.757645	-9.782574	171.792387
1.550000	-9.770134	162.565720	-0.614971	-104.014417	-0.614971	-104.014417	-9.770394	168.669085
1.600000	-9.778284	159.217585	-0.618414	-107.277365	-0.618414	-107.277365	-9.778770	165.543197
1.650000	-9.807204	155.862217	-0.619483	-110.548272	-0.619483	-110.548272	-9.807915	162.413223
1.700000	-9.857272	152.497882	-0.618180	-113.828950	-0.618180	-113.828950	-9.858202	159.277693
1.750000	-9.929036	149.122858	-0.614526	-117.121244	-0.614526	-117.121244	-9.930180	156.135183
1.800000	-10.023232	145.735440	-0.608561	-120.427013	-0.608561	-120.427013	-10.024581	152.984335
1.850000	-10.140799	142.333959	-0.600350	-123.748130	-0.600350	-123.748130	-10.142344	149.823884
1.900000	-10.283155	138.916607	-0.589956	-127.086671	-0.589956	-127.086671	-10.284883	146.652559
1.950000	-10.451744	135.481781	-0.577491	-130.444557	-0.577491	-130.444557	-10.453644	143.469347
2.000000	-10.648047	132.028194	-0.563116	-133.823428	-0.563116	-133.823428	-10.650103	140.273600
2.050000	-10.874135	128.554502	-0.546990	-137.225072	-0.546990	-137.225072	-10.876330	137.064817
2.100000	-11.132491	125.059509	-0.529298	-140.651214	-0.529298	-140.651214	-11.134803	133.842837
2.150000	-11.426096	121.542199	-0.510251	-144.103502	-0.510251	-144.103502	-11.428500	130.607938
2.200000	-11.758538	118.001789	-0.490083	-147.583489	-0.490083	-147.583489	-11.761000	127.360963
2.250000	-12.134169	114.437789	-0.469055	-151.092609	-0.469055	-151.092609	-12.136642	124.103503
2.300000	-12.558303	110.850088	-0.447448	-154.632160	-0.447448	-154.632160	-12.560723	120.838151
2.350000	-13.037510	107.239068	-0.425567	-158.203281	-0.425567	-158.203281	-13.039785	117.568865
2.400000	-13.580017	103.605780	-0.403734	-161.806933	-0.403734	-161.806933	-13.582009	114.301518
2.450000	-14.196304	99.952195	-0.382291	-165.443882	-0.382291	-165.443882	-14.197805	111.044743
2.500000	-14.900002	96.281614	-0.361591	-169.114681	-0.361591	-169.114681	-14.900684	107.811297
2.550000	-15.710215	92.599284	-0.342030	-172.820397	-0.342030	-172.820397	-15.709535	104.621952
2.600000	-16.651179	88.914417	-0.323967	-176.560364	-0.323967	-176.560364	-16.648221	101.506978
2.650000	-17.758744	85.241682	-0.307774	179.665602	-0.307774	179.665602	-17.751864	98.516602
2.700000	-19.086880	81.606785	-0.293826	175.857939	-0.293826	175.857939	-19.072910	95.738199
2.750000	-20.722500	78.058798	-0.282487	172.017340	-0.282487	172.017340	-20.694697	93.337787
2.800000	-22.819409	74.704464	-0.274113	168.144757	-0.274113	168.144757	-22.761172	91.673386
2.850000	-25.691562	71.830277	-0.269045	164.241392	-0.269045	164.241392	-25.551369	91.682320
2.900000	-30.158435	70.583100	-0.267602	160.308691	-0.267602	160.308691	-29.691174	96.785727
2.950000	-39.657893	90.940879	-0.270081	156.348333	-0.270081	156.348333	-36.087869	127.366969
3.000000	-37.660847	-140.979113	-0.276749	152.362209	-0.276749	152.362209	-34.889042	-157.535041
3.050000	-29.098676	-134.016242	-0.287840	148.352411	-0.287840	148.352411	-28.538929	-136.019911
3.100000	-24.782923	-135.843614	-0.303550	144.321201	-0.303550	144.321201	-24.540356	-132.678364
3.150000	-21.882417	-138.986709	-0.324091	140.270809	-0.324091	140.270809	-21.741341	-133.308439
3.200000	-19.697224	-142.580402	-0.349577	136.203850	-0.349577	136.203850	-19.602095	-135.370039
3.250000	-17.947057	-146.383692	-0.379953	132.123297	-0.379953	132.123297	-17.877103	-138.101606
3.300000	-16.491033	-150.307468	-0.415344	128.031498	-0.415344	128.031498	-16.436554	-141.216726
3.350000	-15.248526	-154.304088	-0.455677	123.931229	-0.455677	123.931229	-15.204403	-144.563477
3.400000	-14.168920	-158.347816	-0.500872	119.825115	-0.500872	119.825115	-14.132165	-148.061957
3.450000	-13.218362	-162.422616	-0.550812	115.715708	-0.550812	115.715708	-13.187108	-151.664531
3.500000	-12.373101	-166.517570	-0.605339	111.605483	-0.605339	111.605483	-12.346113	-155.340610
3.550000	-11.615590	-170.624603	-0.664193	107.496762	-0.664193	107.496762	-11.592021	-159.068789
3.600000	-10.932638	-174.737771	-0.727108	103.391664	-0.727108	103.391664	-10.911884	-162.834466
3.650000	-10.314005	-178.852418	-0.793780	99.292099	-0.793780	99.292099	-10.295622	-166.626939
3.700000	-9.751560	177.035173	-0.863869	95.199748	-0.863869	95.199748	-9.735216	-170.438178
3.750000	-9.238719	172.927982	-0.937004	91.116035	-0.937004	91.116035	-9.224161	-174.262073
3.800000	-8.770331	168.828546	-1.012809	87.042292	-1.012809	87.042292	-8.757362	-178.094022
3.850000	-8.341602	164.738623	-1.090822	82.979238	-1.090822	82.979238	-8.330066	178.069692
3.900000	-7.948699	160.659603	-1.170598	78.927442	-1.170598	78.927442	-7.938474	174.231680
3.950000	-7.588354	156.592468	-1.251682	74.887173	-1.251682	74.887173	-7.579341	170.393816
4.000000	-7.257753	152.537823	-1.333600	70.858406	-1.333600	70.858406	-7.249872	166.557340
4.050000	-6.954456	148.495925	-1.415876	66.840813	-1.415876	66.840813	-6.947643	162.722944
4.100000	-6.676342	144.466704	-1.498021	62.833771	-1.498021	62.833771	-6.670545	158.890829
4.150000	-6.421561	140.449784	-1.579544	58.836359	-1.579544	58.836359	-6.416737	155.060760
4.200000	-6.188497	136.444494	-1.659950	54.847363	-1.659950	54.847363	-6.184611	151.232097
4.250000	-5.975742	132.449886	-1.738742	50.865272	-1.738742	50.865272	-5.972767	147.403828
4.300000	-5.782078	128.464740	-1.815419	46.888280	-1.815419	46.888280	-5.779992	143.574592
4.350000	-5.606456	124.487574	-1.889480	42.914279	-1.889480	42.914279	-5.605241	139.742693
4.400000	-5.448140	120.516693	-1.960371	38.940826	-1.960371	38.940826	-5.447784	135.906031
4.450000	-5.306399	116.550014	-2.027569	34.965074	-2.027569	34.965074	-5.306891	132.062170
4.500000	-5.180503	112.585184	-2.090598	30.983904	-2.090598	30.983904	-5.181839	128.208469
4.550000	-5.070032	108.619639	-2.148934	26.993832	-2.148934	26.993832	-5.072207	124.341896
4.600000	-4.974717	104.650525	-2.202043	22.990965	-2.202043	22.990965	-4.977732	120.459068
4.650000	-4.894458	100.674676	-2.249381	18.970952	-2.249381	18.970952	-4.898318	116.556219
4.700000	-4.829335	96.688590	-2.290386	14.928928	-2.290386	14.928928	-4.834048	112.629169
4.750000	-4.779624	92.688397	-2.324483	10.859435	-2.324483	10.859435	-4.785204	108.673281
4.800000	-4.745832	88.669823	-2.351076	6.756336	-2.351076	6.756336	-4.752300	104.683405
4.850000	-4.728730	84.628148	-2.369553	2.612692	-2.369553	2.612692	-4.736116	100.653813
4.900000	-4.729403	80.558166	-2.379280	-1.579371	-2.379280	-1.579371	-4.737751	96.578128
4.950000	-4.749324	76.454142	-2.379610	-5.828838	-2.379610	-5.828838	-4.758692	92.449235
5.000000	-4.790438	72.309786	-2.369882	-10.146016	-2.369882	-10.146016	-4.800912	88.259188
5.050000	-4.856000	68.116784	-2.349134	-14.545303	-2.349134	-14.545303	-4.867701	83.996984
5.100000	-4.948712	63.869055	-2.317034	-19.038415	-2.317034	-19.038415	-4.961811	79.654655
5.150000	-5.072936	59.558929	-2.272988	-23.641434	-2.272988	-23.641434	-5.087675	75.221328
5.200000	-5.234382	55.178722	-2.216490	-28.373170	-2.216490	-28.373170	-5.251111	70.685166
5.250000	-5.440582	50.721399	-2.147180	-33.255702	-2.147180	-33.255702	-5.459818	66.033607
5.300000	-5.701465	46.182017	-2.064970	-38.314558	-2.064970	-38.314558	-5.723983	61.254281
5.350000	-6.032347	41.557699	-1.969771	-43.586220	-1.969771	-43.586220	-6.059375	56.331986
5.400000	-6.451377	36.858853	-1.862719	-49.103881	-1.862719	-49.103881	-6.484866	51.261990
5.450000	-6.984978	32.113182	-1.745620	-54.908882	-1.745620	-54.908882	-7.028189	46.048035
5.500000	-7.673139	27.386663	-1.621451	-61.054023	-1.621451	-61.054023	-7.731907	40.715350
5.550000	-8.573562	22.827030	-1.495261	-67.593884	-1.495261	-67.593884	-8.659058	35.344416
5.600000	-9.774488	18.756733	-1.374620	-74.585620	-1.374620	-74.585620	-9.910260	30.137066
5.650000	-11.419766	15.950042	-1.270707	-82.093910	-1.270707	-82.093910	-11.663684	25.623584
5.700000	-13.728929	16.453158	-1.199179	-90.172488	-1.199179	-90.172488	-14.255267	23.379238
5.750000	-16.858216	26.262313	-1.180074	-98.849321	-1.180074	-98.849321	-18.335607	29.369471
5.800000	-19.053312	57.930272	-1.238658	-108.123441	-1.238658	-108.123441	-22.848157	70.426443
5.850000	-16.264210	90.358896	-1.403042	-117.934419	-1.403042	-117.934419	-18.274535	117.770748
5.900000	-12.348035	99.701300	-1.697491	-128.143438	-1.697491	-128.143438	-13.192479	124.763025
5.950000	-9.324721	98.161328	-2.142498	-138.555673	-2.142498	-138.555673	-9.786123	120.708265
6.000000	-7.099172	92.590643	-2.744530	-148.928611	-2.744530	-148.928611	-7.399998	113.441338
6.050000	-5.454158	85.432146	-3.496540	-159.024178	-3.496540	-159.024178	-5.673305	105.077661
6.100000	-4.234109	77.746198	-4.380137	-168.650454	-4.380137	-168.650454	-4.405932	96.470054
6.150000	-3.329288	70.056275	-5.370790	-177.680209	-5.370790	-177.680209	-3.471118	88.031056
6.200000	-2.656841	62.622335	-6.443384	173.937989	-6.443384	173.937989	-2.778333	79.957171
6.250000	-2.156287	55.560353	-7.575932	166.207870	-7.575932	166.207870	-2.263286	72.327904
6.300000	-1.783229	48.909572	-8.749755	159.104706	-8.749755	159.104706	-1.879502	65.159971
6.350000	-1.502979	42.656089	-9.953814	152.573837	-9.953814	152.573837	-1.591036	58.424042
6.400000	-1.291271	36.769506	-11.180657	146.564265	-11.180657	146.564265	-1.372862	52.079916
6.450000	-1.130440	31.211430	-12.426486	141.029104	-12.426486	141.029104	-1.206828	46.082479
6.500000	-1.007633	25.942292	-13.690412	135.929975	-13.690412	135.929975	-1.079749	40.387482
6.550000	-0.913472	20.924731	-14.973865	131.239607	-14.973865	131.239607	-0.982018	34.954280
6.600000	-0.841088	16.125036	-16.280176	126.943723	-16.280176	126.943723	-0.906600	29.746858
6.650000	-0.785417	11.513532	-17.614315	123.043076	-17.614315	123.043076	-0.848312	24.733944
6.700000	-0.742796	7.065786	-18.981020	119.560791	-18.981020	119.560791	-0.803403	19.890075
6.750000	-0.710321	2.758405	-20.388898	116.537891	-20.388898	116.537891	-0.768897	15.191147
6.800000	-0.685845	-1.428432	-21.847783	114.045898	-21.847783	114.045898	-0.742588	10.616948
6.850000	-0.667950	-5.508181	-23.360460	112.230580	-23.360460	112.230580	-0.723021	6.154025
6.900000	-0.655070	-9.501291	-24.948956	111.220416	-24.948956	111.220416	-0.708583	1.781711
6.950000	-0.646404	-13.418024	-26.616064	111.299753	-26.616064	111.299753	-0.698448	-2.509976
7.000000	-0.641461	-17.265088	-28.338015	112.951783	-28.338015	112.951783	-0.692099	-6.727150
7.050000	-0.639309	-21.059119	-30.114445	116.517707	-30.114445	116.517707	-0.688574	-10.886581
7.100000	-0.639993	-24.799601	-31.772811	123.070911	-31.772811	123.070911	-0.687901	-14.986280
7.150000	-0.642706	-28.502944	-33.199417	132.419110	-33.199417	132.419110	-0.689249	-19.043179
7.200000	-0.647556	-32.169459	-34.008208	144.214438	-34.008208	144.214438	-0.692702	-23.055758
7.250000	-0.654085	-35.809704	-34.141279	156.106731	-34.141279	156.106731	-0.697787	-27.034800
7.300000	-0.662270	-39.427475	-33.679153	165.821803	-33.679153	165.821803	-0.704454	-30.982665
7.350000	-0.671961	-43.028535	-32.908530	172.518345	-32.908530	172.518345	-0.712533	-34.904408
7.400000	-0.683013	-46.618452	-32.056583	176.572333	-32.056583	176.572333	-0.721860	-38.805047
7.450000	-0.695490	-50.201174	-31.225743	178.400748	-31.225743	178.400748	-0.732465	-42.686479
7.500000	-0.709144	-53.781876	-30.464489	178.855073	-30.464489	178.855073	-0.744098	-46.554676
7.550000	-0.724210	-57.365148	-29.784886	178.097715	-29.784886	178.097715	-0.756928	-50.410322
7.600000	-0.740406	-60.954500	-29.178970	176.632959	-29.178970	176.632959	-0.770690	-54.258696
7.650000	-0.757912	-64.555405	-28.643105	174.546980	-28.643105	174.546980	-0.785498	-58.101679
7.700000	-0.776612	-68.170816	-28.165437	172.028945	-28.165437	172.028945	-0.801229	-61.942497
7.750000	-0.796558	-71.805505	-27.738739	169.158765	-27.738739	169.158765	-0.817894	-65.783844
7.800000	-0.817785	-75.464020	-27.355996	165.998909	-27.355996	165.998909	-0.835488	-69.628422
7.850000	-0.840218	-79.148499	-27.009049	162.618833	-27.009049	162.618833	-0.853925	-73.478455
7.900000	-0.864039	-82.867162	-26.695071	159.026632	-26.695071	159.026632	-0.873302	-77.337471
7.950000	-0.889055	-86.618333	-26.406334	155.281691	-26.406334	155.281691	-0.893459	-81.206289
8.000000	-0.915529	-90.413656	-26.141750	151.374711	-26.141750	151.374711	-0.914534	-85.089722
8.050000	-0.943263	-94.250179	-25.895634	147.346582	-25.895634	147.346582	-0.936374	-88.987723
8.100000	-0.972422	-98.137572	-25.666416	143.195394	-25.666416	143.195394	-0.959048	-92.904587
8.150000	-1.002947	-102.077280	-25.451100	138.937977	-25.451100	138.937977	-0.982493	-96.841549
8.200000	-1.034848	-106.073698	-25.247621	134.582598	-25.247621	134.582598	-1.006685	-100.800901
8.250000	-1.068201	-110.134742	-25.054579	130.130569	-25.054579	130.130569	-1.031636	-104.786294
8.300000	-1.102853	-114.257341	-24.869921	125.597988	-24.869921	125.597988	-1.057239	-108.796886
8.350000	-1.138999	-118.457942	-24.693137	120.975211	-24.693137	120.975211	-1.083562	-112.839794
8.400000	-1.176374	-122.726862	-24.522574	116.282015	-24.522574	116.282015	-1.110454	-116.911266
8.450000	-1.215126	-127.081777	-24.357953	111.509028	-24.357953	111.509028	-1.137955	-121.018935
8.500000	-1.255037	-131.515816	-24.198380	106.669506	-24.198380	106.669506	-1.165945	-125.160079
8.550000	-1.296090	-136.039414	-24.043640	101.761327	-24.043640	101.761327	-1.194392	-129.339263
8.600000	-1.338145	-140.654432	-23.893491	96.788823	-23.893491	96.788823	-1.223218	-133.557401
8.650000	-1.381024	-145.360477	-23.747824	91.757382	-23.747824	91.757382	-1.252332	-137.814442
8.700000	-1.424591	-150.169529	-23.606983	86.664277	-23.606983	86.664277	-1.281660	-142.115646
8.750000	-1.468582	-155.068564	-23.470847	81.521239	-23.470847	81.521239	-1.311094	-146.455576
8.800000	-1.512743	-160.080287	-23.340520	76.320294	-23.340520	76.320294	-1.340513	-150.844253
8.850000	-1.556808	-165.183934	-23.215803	71.075654	-23.215803	71.075654	-1.369826	-155.272968
8.900000	-1.600408	-170.390934	-23.097842	65.785447	-23.097842	65.785447	-1.398884	-159.747095
8.950000	-1.643162	-175.698913	-22.987425	60.454483	-22.987425	60.454483	-1.427548	-164.266153
9.000000	-1.684671	178.896168	-22.885379	55.088154	-22.885379	55.088154	-1.455678	-168.829074
9.050000	-1.724500	173.398174	-22.792667	49.691779	-22.792667	49.691779	-1.483122	-173.435048
9.100000	-1.762197	167.812346	-22.710302	44.271328	-22.710302	44.271328	-1.509723	-178.082847
9.150000	-1.797302	162.145363	-22.639314	38.833478	-22.639314	38.833478	-1.535321	177.229189
9.200000	-1.829328	156.404748	-22.580853	33.385630	-22.580853	33.385630	-1.559742	172.502835
9.250000	-1.857850	150.600652	-22.535863	27.936168	-22.535863	27.936168	-1.582829	167.740919
9.300000	-1.882489	144.744419	-22.505189	22.494029	-22.505189	22.494029	-1.604432	162.946701
9.350000	-1.902749	138.847434	-22.490165	17.069690	-22.490165	17.069690	-1.624342	158.122905
9.400000	-1.918663	132.924964	-22.490388	11.671506	-22.490388	11.671506	-1.642543	153.275269
9.450000	-1.930051	126.990100	-22.506325	6.309134	-22.506325	6.309134	-1.658918	148.407913
9.500000	-1.936488	121.056825	-22.539408	0.995810	-22.539408	0.995810	-1.673231	143.524356
9.550000	-1.938126	115.140553	-22.589220	-4.259107	-22.589220	-4.259107	-1.685458	138.630514
9.600000	-1.935031	109.256386	-22.655772	-9.444901	-22.655772	-9.444901	-1.695524	133.731916
9.650000	-1.927368	103.419367	-22.738867	-14.551107	-22.738867	-14.551107	-1.703377	128.834471
9.700000	-1.915450	97.643057	-22.837895	-19.569162	-22.837895	-19.569162	-1.709027	123.944214
9.750000	-1.899617	91.940430	-22.952240	-24.490654	-22.952240	-24.490654	-1.712483	119.067256
9.800000	-1.880264	86.323357	-23.081143	-29.308121	-23.081143	-29.308121	-1.713787	114.209761
9.850000	-1.857830	80.802447	-23.223729	-34.015145	-23.223729	-34.015145	-1.713003	109.377874
9.900000	-1.832747	75.388612	-23.379149	-38.604656	-23.379149	-38.604656	-1.710193	104.578213
9.950000	-1.805481	70.091011	-23.546403	-43.071171	-23.546403	-43.071171	-1.705455	99.817254
10.000000	-1.776694	64.901983	-23.723628	-47.425945	-23.723628	-47.425945	-1.699122	95.095496
