! freq	dB(S11)	phase(S11)	dB(S12)	phase(S12)	
!     	dB(S21)	phase(S21)	dB(S22)	phase(S22)	
!S-par simulation data
#  GHz  S  DB  R 50
0.000000	-0.000000	-0.000000	-374.859476	180.000000	-374.859476	180.000000	-0.000000	-0.000000
0.050000	-0.000500	-0.770869	-108.217999	90.152508	-108.217999	90.152508	-0.001078	-1.628619
0.100000	-0.001663	-1.537845	-102.366903	88.221705	-102.366903	88.221705	-0.003573	-3.248639
0.150000	-0.002959	-2.300697	-98.915284	86.537339	-98.915284	86.537339	-0.006337	-4.859471
0.200000	-0.004133	-3.060942	-96.502576	85.194948	-96.502576	85.194948	-0.008831	-6.464243
0.250000	-0.005180	-3.820062	-94.678990	84.018623	-94.678990	84.018623	-0.011048	-8.066052
0.300000	-0.006131	-4.578637	-93.244921	82.954625	-93.244921	82.954625	-0.013060	-9.665951
0.350000	-0.007030	-5.336972	-92.090212	81.981385	-92.090212	81.981385	-0.014961	-11.264441
0.400000	-0.007909	-6.095175	-91.150296	81.099601	-91.150296	81.099601	-0.016822	-12.861586
0.450000	-0.008792	-6.853250	-90.391583	80.330143	-90.391583	80.330143	-0.018689	-14.457127
0.500000	-0.009688	-7.611178	-89.777273	79.681195	-89.777273	79.681195	-0.020585	-16.051001
0.550000	-0.010601	-8.368914	-89.288726	79.176087	-89.288726	79.176087	-0.022515	-17.642982
0.600000	-0.011532	-9.126406	-88.913173	78.844696	-88.913173	78.844696	-0.024478	-19.232831
0.650000	-0.012478	-9.883599	-88.641929	78.725148	-88.641929	78.725148	-0.026468	-20.820304
0.700000	-0.013435	-10.640433	-88.469206	78.866339	-88.469206	78.866339	-0.028476	-22.405150
0.750000	-0.014401	-11.396819	-88.396857	79.356602	-88.396857	79.356602	-0.030490	-23.986928
0.800000	-0.015370	-12.152692	-88.421250	80.292887	-88.421250	80.292887	-0.032502	-25.565369
0.850000	-0.016340	-12.908000	-88.536214	81.795097	-88.536214	81.795097	-0.034502	-27.140284
0.900000	-0.017308	-13.662731	-88.730008	83.968570	-88.730008	83.968570	-0.036486	-28.711707
0.950000	-0.018274	-14.416802	-88.996222	87.047070	-88.996222	87.047070	-0.038451	-30.279208
1.000000	-0.019235	-15.170166	-89.311525	91.279031	-89.311525	91.279031	-0.040394	-31.842580
1.050000	-0.020192	-15.922782	-89.632035	96.935983	-89.632035	96.935983	-0.042314	-33.401630
1.100000	-0.021146	-16.674618	-89.883262	104.235953	-89.883262	104.235953	-0.044214	-34.956187
1.150000	-0.022096	-17.425644	-89.957384	113.183716	-89.957384	113.183716	-0.046093	-36.506098
1.200000	-0.023044	-18.175837	-89.735407	123.361445	-89.735407	123.361445	-0.047955	-38.051225
1.250000	-0.023989	-18.925178	-89.142371	133.864059	-89.142371	133.864059	-0.049800	-39.591444
1.300000	-0.024934	-19.673615	-88.180471	143.546621	-88.180471	143.546621	-0.051629	-41.126425
1.350000	-0.025878	-20.421171	-86.972230	151.707615	-86.972230	151.707615	-0.053446	-42.656280
1.400000	-0.026822	-21.167837	-85.636299	158.166675	-85.636299	158.166675	-0.055250	-44.180922
1.450000	-0.027766	-21.913604	-84.263048	163.066627	-84.263048	163.066627	-0.057043	-45.700266
1.500000	-0.028710	-22.658462	-82.907624	166.670063	-82.907624	166.670063	-0.058825	-47.214237
1.550000	-0.029656	-23.402406	-81.598680	169.243558	-81.598680	169.243558	-0.060598	-48.722765
1.600000	-0.030602	-24.145427	-80.348599	171.013568	-80.348599	171.013568	-0.062361	-50.225781
1.650000	-0.031550	-24.887518	-79.160812	172.158686	-79.160812	172.158686	-0.064114	-51.723226
1.700000	-0.032499	-25.628780	-78.043542	172.860575	-78.043542	172.860575	-0.065859	-53.215698
1.750000	-0.033449	-26.368945	-76.970663	173.110035	-76.970663	173.110035	-0.067594	-54.701583
1.800000	-0.034401	-27.108226	-75.957141	173.077150	-75.957141	173.077150	-0.069321	-56.182148
1.850000	-0.035354	-27.846501	-74.990564	172.788059	-74.990564	172.788059	-0.071039	-57.656680
1.900000	-0.036309	-28.583817	-74.070614	172.301687	-74.070614	172.301687	-0.072749	-59.125470
1.950000	-0.037265	-29.320166	-73.193255	171.653428	-73.193255	171.653428	-0.074452	-60.588480
2.000000	-0.038223	-30.055480	-72.352423	170.862588	-72.352423	170.862588	-0.076147	-62.045332
2.050000	-0.039183	-30.789864	-71.549994	169.965728	-71.549994	169.965728	-0.077836	-63.496681
2.100000	-0.040145	-31.523132	-70.776274	168.962719	-70.776274	168.962719	-0.079518	-64.941464
2.150000	-0.041109	-32.255471	-70.036037	167.885540	-70.036037	167.885540	-0.081196	-66.380809
2.200000	-0.042076	-32.986690	-69.321022	166.732692	-69.321022	166.732692	-0.082867	-67.813654
2.250000	-0.043045	-33.716919	-68.633652	165.522903	-68.633652	165.522903	-0.084535	-69.240794
2.300000	-0.044018	-34.446064	-67.969752	164.259845	-67.969752	164.259845	-0.086200	-70.661751
2.350000	-0.044993	-35.174136	-67.328334	162.951280	-67.328334	162.951280	-0.087861	-72.076632
2.400000	-0.045972	-35.901164	-66.708852	161.604569	-66.708852	161.604569	-0.089521	-73.485666
2.450000	-0.046954	-36.627032	-66.107761	160.221050	-66.107761	160.221050	-0.091179	-74.888265
2.500000	-0.047940	-37.351898	-65.527257	158.809859	-65.527257	158.809859	-0.092837	-76.285367
2.550000	-0.048931	-38.075514	-64.961871	157.368618	-64.961871	157.368618	-0.094496	-77.675693
2.600000	-0.049926	-38.798107	-64.414838	155.905915	-64.414838	155.905915	-0.096156	-79.060536
2.650000	-0.050926	-39.519490	-63.882350	154.420916	-63.882350	154.420916	-0.097818	-80.438978
2.700000	-0.051931	-40.239763	-63.365300	152.917912	-63.365300	152.917912	-0.099483	-81.811616
2.750000	-0.052942	-40.958870	-62.862251	151.398274	-62.862251	151.398274	-0.101153	-83.178239
2.800000	-0.053958	-41.676777	-62.372241	149.863518	-62.372241	149.863518	-0.102827	-84.538754
2.850000	-0.054980	-42.393565	-61.895711	148.316318	-61.895711	148.316318	-0.104506	-85.893648
2.900000	-0.056009	-43.109061	-61.430230	146.756435	-61.430230	146.756435	-0.106192	-87.242152
2.950000	-0.057044	-43.823465	-60.977497	145.187066	-60.977497	145.187066	-0.107885	-88.585323
3.000000	-0.058087	-44.536531	-60.534618	143.607447	-60.534618	143.607447	-0.109587	-89.922066
3.050000	-0.059137	-45.248462	-60.103172	142.020147	-60.103172	142.020147	-0.111298	-91.253435
3.100000	-0.060195	-45.959105	-59.681394	140.425146	-59.681394	140.425146	-0.113018	-92.578801
3.150000	-0.061261	-46.668522	-59.269498	138.823671	-59.269498	138.823671	-0.114749	-93.898543
3.200000	-0.062335	-47.376704	-58.867068	137.216455	-58.867068	137.216455	-0.116491	-95.212709
3.250000	-0.063418	-48.083570	-58.473201	135.603846	-58.473201	135.603846	-0.118246	-96.521024
3.300000	-0.064509	-48.789256	-58.088582	133.987004	-58.088582	133.987004	-0.120012	-97.824187
3.350000	-0.065612	-49.493459	-57.710939	132.365547	-57.710939	132.365547	-0.121795	-99.120982
3.400000	-0.066723	-50.196523	-57.342247	130.741026	-57.342247	130.741026	-0.123590	-100.412974
3.450000	-0.067844	-50.898290	-56.981242	129.113435	-56.981242	129.113435	-0.125400	-101.699590
3.500000	-0.068976	-51.598755	-56.627651	127.483189	-56.627651	127.483189	-0.127226	-102.980891
3.550000	-0.070118	-52.297909	-56.281216	125.850664	-56.281216	125.850664	-0.129069	-104.256943
3.600000	-0.071272	-52.995745	-55.941690	124.216207	-55.941690	124.216207	-0.130928	-105.527814
3.650000	-0.072437	-53.692257	-55.608843	122.580134	-55.608843	122.580134	-0.132805	-106.793574
3.700000	-0.073613	-54.387437	-55.282455	120.942735	-55.282455	120.942735	-0.134700	-108.054293
3.750000	-0.074802	-55.081281	-54.962317	119.304276	-54.962317	119.304276	-0.136615	-109.310046
3.800000	-0.076004	-55.773723	-54.648000	117.664977	-54.648000	117.664977	-0.138549	-110.560698
3.850000	-0.077219	-56.464816	-54.339566	116.025107	-54.339566	116.025107	-0.140504	-111.806543
3.900000	-0.078447	-57.154555	-54.036834	114.384869	-54.036834	114.384869	-0.142480	-113.047659
3.950000	-0.079689	-57.842935	-53.739631	112.744453	-53.739631	112.744453	-0.144477	-114.284125
4.000000	-0.080944	-58.529952	-53.447792	111.104032	-53.447792	111.104032	-0.146495	-115.516025
4.050000	-0.082214	-59.215601	-53.161162	109.463768	-53.161162	109.463768	-0.148537	-116.743441
4.100000	-0.083499	-59.899879	-52.879590	107.823807	-52.879590	107.823807	-0.150600	-117.966458
4.150000	-0.084798	-60.582781	-52.602933	106.184288	-52.602933	106.184288	-0.152688	-119.185160
4.200000	-0.086113	-61.264305	-52.331054	104.545336	-52.331054	104.545336	-0.154799	-120.399636
4.250000	-0.087444	-61.944448	-52.063822	102.907070	-52.063822	102.907070	-0.156934	-121.609973
4.300000	-0.088791	-62.623207	-51.801113	101.269596	-51.801113	101.269596	-0.159094	-122.816259
4.350000	-0.090155	-63.300579	-51.542806	99.633017	-51.542806	99.633017	-0.161279	-124.018586
4.400000	-0.091535	-63.976564	-51.288785	97.997425	-51.288785	97.997425	-0.163489	-125.217044
4.450000	-0.092933	-64.651158	-51.038942	96.362907	-51.038942	96.362907	-0.165726	-126.411726
4.500000	-0.094349	-65.324361	-50.793170	94.729542	-50.793170	94.729542	-0.167989	-127.602723
4.550000	-0.095782	-65.996172	-50.551368	93.097406	-50.551368	93.097406	-0.170278	-128.790130
4.600000	-0.097234	-66.666590	-50.313437	91.466568	-50.313437	91.466568	-0.172594	-129.974041
4.650000	-0.098705	-67.335614	-50.079285	89.837092	-50.079285	89.837092	-0.174938	-131.154552
4.700000	-0.100196	-68.003245	-49.848821	88.209040	-49.848821	88.209040	-0.177309	-132.331757
4.750000	-0.101706	-68.669482	-49.621959	86.582466	-49.621959	86.582466	-0.179709	-133.505754
4.800000	-0.103236	-69.334326	-49.398615	84.957425	-49.398615	84.957425	-0.182136	-134.676640
4.850000	-0.104786	-69.997777	-49.178708	83.333964	-49.178708	83.333964	-0.184592	-135.844511
4.900000	-0.106358	-70.659838	-48.962162	81.712131	-48.962162	81.712131	-0.187077	-137.009467
4.950000	-0.107950	-71.320508	-48.748903	80.091968	-48.748903	80.091968	-0.189590	-138.171606
5.000000	-0.109565	-71.979790	-48.538857	78.473517	-48.538857	78.473517	-0.192133	-139.331026
5.050000	-0.111203	-72.637625	-48.331880	76.856895	-48.331880	76.856895	-0.194706	-140.487719
5.100000	-0.112863	-73.294077	-48.127987	75.242061	-48.127987	75.242061	-0.197309	-141.641902
5.150000	-0.114546	-73.949147	-47.927115	73.629053	-47.927115	73.629053	-0.199942	-142.793675
5.200000	-0.116253	-74.602839	-47.729201	72.017901	-47.729201	72.017901	-0.202604	-143.943140
5.250000	-0.117984	-75.255155	-47.534184	70.408637	-47.534184	70.408637	-0.205296	-145.090397
5.300000	-0.119739	-75.906099	-47.342006	68.801292	-47.342006	68.801292	-0.208019	-146.235547
5.350000	-0.121519	-76.555675	-47.152610	67.195894	-47.152610	67.195894	-0.210771	-147.378692
5.400000	-0.123324	-77.203887	-46.965942	65.592471	-46.965942	65.592471	-0.213554	-148.519934
5.450000	-0.125154	-77.850738	-46.781950	63.991049	-46.781950	63.991049	-0.216367	-149.659374
5.500000	-0.127011	-78.496234	-46.600581	62.391656	-46.600581	62.391656	-0.219211	-150.797115
5.550000	-0.128894	-79.140380	-46.421786	60.794315	-46.421786	60.794315	-0.222085	-151.933258
5.600000	-0.130804	-79.783179	-46.245518	59.199052	-46.245518	59.199052	-0.224989	-153.067907
5.650000	-0.132741	-80.424639	-46.071730	57.605892	-46.071730	57.605892	-0.227923	-154.201165
5.700000	-0.134706	-81.064763	-45.900376	56.014858	-45.900376	56.014858	-0.230888	-155.333133
5.750000	-0.136700	-81.703559	-45.731413	54.425973	-45.731413	54.425973	-0.233883	-156.463915
5.800000	-0.138722	-82.341033	-45.564798	52.839262	-45.564798	52.839262	-0.236908	-157.593615
5.850000	-0.140773	-82.977190	-45.400491	51.254748	-45.400491	51.254748	-0.239963	-158.722334
5.900000	-0.142853	-83.612038	-45.238449	49.672452	-45.238449	49.672452	-0.243048	-159.850177
5.950000	-0.144963	-84.245585	-45.078636	48.092400	-45.078636	48.092400	-0.246162	-160.977246
6.000000	-0.147104	-84.877836	-44.921011	46.514612	-44.921011	46.514612	-0.249307	-162.103646
6.050000	-0.149276	-85.508800	-44.765538	44.939112	-44.765538	44.939112	-0.252481	-163.229480
6.100000	-0.151478	-86.138484	-44.612180	43.365923	-44.612180	43.365923	-0.255684	-164.354851
6.150000	-0.153712	-86.766898	-44.460902	41.795067	-44.460902	41.795067	-0.258916	-165.479863
6.200000	-0.155978	-87.394049	-44.311669	40.226568	-44.311669	40.226568	-0.262177	-166.604620
6.250000	-0.158277	-88.019946	-44.164446	38.660447	-44.164446	38.660447	-0.265466	-167.729225
6.300000	-0.160609	-88.644545	-44.019180	37.096833	-44.019180	37.096833	-0.268785	-168.853785
6.350000	-0.162975	-89.267910	-43.875859	35.535644	-43.875859	35.535644	-0.272132	-169.978410
6.400000	-0.165374	-89.890051	-43.734452	33.976903	-43.734452	33.976903	-0.275507	-171.103204
6.450000	-0.167807	-90.510978	-43.594925	32.420631	-43.594925	32.420631	-0.278908	-172.228272
6.500000	-0.170274	-91.130702	-43.457246	30.866849	-43.457246	30.866849	-0.282337	-173.353716
6.550000	-0.172776	-91.749233	-43.321381	29.315578	-43.321381	29.315578	-0.285793	-174.479642
6.600000	-0.175312	-92.366584	-43.187298	27.766836	-43.187298	27.766836	-0.289274	-175.606151
6.650000	-0.177884	-92.982766	-43.054965	26.220642	-43.054965	26.220642	-0.292782	-176.733350
6.700000	-0.180495	-93.597659	-42.924317	24.677311	-42.924317	24.677311	-0.296318	-177.861446
6.750000	-0.183135	-94.211647	-42.795405	23.136022	-42.795405	23.136022	-0.299873	-178.990258
6.800000	-0.185810	-94.824496	-42.668135	21.597331	-42.668135	21.597331	-0.303454	179.879955
6.850000	-0.188531	-95.435968	-42.542421	20.061851	-42.542421	20.061851	-0.307064	178.748789
6.900000	-0.191283	-96.046509	-42.418314	18.528579	-42.418314	18.528579	-0.310693	177.616574
6.950000	-0.194066	-96.656124	-42.295771	16.997512	-42.295771	16.997512	-0.314343	176.483264
7.000000	-0.196895	-97.264419	-42.174665	15.469639	-42.174665	15.469639	-0.318021	175.348216
7.050000	-0.199761	-97.871667	-42.054997	13.944328	-42.054997	13.944328	-0.321720	174.211610
7.100000	-0.202659	-98.478043	-41.936754	12.421154	-41.936754	12.421154	-0.325437	173.073619
7.150000	-0.205593	-99.083481	-41.819871	10.900284	-41.819871	10.900284	-0.329175	171.934054
7.200000	-0.208576	-99.687635	-41.704163	9.382537	-41.704163	9.382537	-0.332938	170.792070
7.250000	-0.211593	-100.290990	-41.589685	7.866675	-41.589685	7.866675	-0.336718	169.648407
7.300000	-0.214642	-100.893562	-41.476378	6.352619	-41.476378	6.352619	-0.340514	168.503021
7.350000	-0.217737	-101.495108	-41.364017	4.840792	-41.364017	4.840792	-0.344331	167.355162
7.400000	-0.220876	-102.095767	-41.252454	3.330563	-41.252454	3.330563	-0.348167	166.204835
7.450000	-0.224050	-102.695777	-41.141689	1.821198	-41.141689	1.821198	-0.352017	165.052488
7.500000	-0.227260	-103.295166	-41.031641	0.312476	-41.031641	0.312476	-0.355882	163.898077
7.550000	-0.230533	-103.893707	-40.921401	-1.196873	-40.921401	-1.196873	-0.359766	162.740077
7.600000	-0.233849	-104.491888	-40.811144	-2.708386	-40.811144	-2.708386	-0.363662	161.579753
7.650000	-0.237212	-105.089799	-40.700624	-4.223260	-40.700624	-4.223260	-0.367569	160.417055
7.700000	-0.240644	-105.687566	-40.588842	-5.745078	-40.588842	-5.745078	-0.371488	159.251224
7.750000	-0.244181	-106.285762	-40.474016	-7.283320	-40.474016	-7.283320	-0.375419	158.081833
7.800000	-0.247816	-106.884636	-40.356752	-8.839373	-40.356752	-8.839373	-0.379355	156.910055
7.850000	-0.251673	-107.485381	-40.232999	-10.439460	-40.232999	-10.439460	-0.383300	155.734524
7.900000	-0.255926	-108.089469	-40.100013	-12.119173	-40.100013	-12.119173	-0.387252	154.555428
7.950000	-0.261061	-108.699579	-39.953308	-13.965271	-39.953308	-13.965271	-0.391223	153.372449
8.000000	-0.268325	-109.318985	-39.792505	-16.169371	-39.792505	-16.169371	-0.395252	152.185291
8.050000	-0.282527	-109.944458	-39.660548	-19.348309	-39.660548	-19.348309	-0.399526	150.992892
8.100000	-0.309246	-110.480107	-39.885914	-23.688192	-39.885914	-23.688192	-0.404496	149.797136
8.150000	-0.310957	-110.864748	-40.475228	-23.556406	-40.475228	-23.556406	-0.409760	148.605273
8.200000	-0.297364	-111.408550	-40.407946	-21.983886	-40.407946	-21.983886	-0.413891	147.412054
8.250000	-0.292639	-112.008272	-40.196650	-22.224241	-40.196650	-22.224241	-0.417622	146.211113
8.300000	-0.292537	-112.608565	-40.019297	-23.190999	-40.019297	-23.190999	-0.421430	145.004014
8.350000	-0.294480	-113.203179	-39.877162	-24.417598	-39.877162	-24.417598	-0.425356	143.791246
8.400000	-0.297131	-113.794625	-39.751442	-25.719900	-39.751442	-25.719900	-0.429342	142.575178
8.450000	-0.300423	-114.381899	-39.642985	-27.074185	-39.642985	-27.074185	-0.433398	141.353135
8.500000	-0.303950	-114.967229	-39.542041	-28.440690	-39.542041	-28.440690	-0.437488	140.127172
8.550000	-0.307670	-115.550822	-39.447438	-29.814962	-39.447438	-29.814962	-0.441607	138.897256
8.600000	-0.311574	-116.132517	-39.358846	-31.191416	-39.358846	-31.191416	-0.445758	137.661843
8.650000	-0.315601	-116.712805	-39.274380	-32.565269	-39.274380	-32.565269	-0.449936	136.421148
8.700000	-0.319713	-117.292103	-39.192845	-33.935916	-39.192845	-33.935916	-0.454133	135.176221
8.750000	-0.323903	-117.870478	-39.113941	-35.302694	-39.113941	-35.302694	-0.458350	133.927017
8.800000	-0.328200	-118.447548	-39.038167	-36.661401	-39.038167	-36.661401	-0.462596	132.670604
8.850000	-0.332558	-119.023913	-38.964272	-38.014455	-38.964272	-38.014455	-0.466862	131.409653
8.900000	-0.336974	-119.599599	-38.892156	-39.361652	-38.892156	-39.361652	-0.471147	130.144116
8.950000	-0.341462	-120.174479	-38.821962	-40.700941	-38.821962	-40.700941	-0.475458	128.872634
9.000000	-0.346022	-120.748575	-38.753591	-42.031082	-38.753591	-42.031082	-0.479798	127.594598
9.050000	-0.350634	-121.322134	-38.686614	-43.354171	-38.686614	-43.354171	-0.484161	126.311653
9.100000	-0.355298	-121.895172	-38.620973	-44.670037	-38.620973	-44.670037	-0.488547	125.023749
9.150000	-0.360040	-122.467470	-38.557005	-45.974066	-38.557005	-45.974066	-0.492971	123.727981
9.200000	-0.364835	-123.039290	-38.494278	-47.269191	-38.494278	-47.269191	-0.497426	122.426501
9.250000	-0.369680	-123.610690	-38.432686	-48.555910	-38.432686	-48.555910	-0.501911	121.119718
9.300000	-0.374583	-124.181618	-38.372304	-49.832348	-38.372304	-49.832348	-0.506431	119.806568
9.350000	-0.379555	-124.752019	-38.313234	-51.095278	-38.313234	-51.095278	-0.510999	118.485353
9.400000	-0.384576	-125.322088	-38.255141	-52.348397	-38.255141	-52.348397	-0.515604	117.158460
9.450000	-0.389643	-125.891849	-38.197973	-53.591959	-38.197973	-53.591959	-0.520245	115.826099
9.500000	-0.394778	-126.461193	-38.141931	-54.820298	-38.141931	-54.820298	-0.524944	114.485320
9.550000	-0.399964	-127.030250	-38.086781	-56.036362	-38.086781	-56.036362	-0.529690	113.137971
9.600000	-0.405211	-127.598998	-38.032561	-57.237055	-38.032561	-57.237055	-0.534496	111.782642
9.650000	-0.410508	-128.167519	-37.979113	-58.424365	-37.979113	-58.424365	-0.539355	110.420581
9.700000	-0.415864	-128.735801	-37.926454	-59.594820	-37.926454	-59.594820	-0.544280	109.050309
9.750000	-0.421272	-129.303902	-37.874460	-60.749665	-37.874460	-60.749665	-0.549268	107.672680
9.800000	-0.426736	-129.871837	-37.823081	-61.886607	-37.823081	-61.886607	-0.554325	106.286892
9.850000	-0.432254	-130.439641	-37.772228	-63.004913	-37.772228	-63.004913	-0.559456	104.892899
9.900000	-0.437824	-131.007346	-37.721803	-64.104157	-37.721803	-64.104157	-0.564660	103.490803
9.950000	-0.443451	-131.574977	-37.671707	-65.181072	-37.671707	-65.181072	-0.569947	102.079551
10.000000	-0.449127	-132.142572	-37.621829	-66.237648	-37.621829	-66.237648	-0.575308	100.660254
