! freq	dB(S11)	phase(S11)	dB(S12)	phase(S12)	
!     	dB(S21)	phase(S21)	dB(S22)	phase(S22)	
!S-par simulation data
#  GHz  S  DB  R 50
0.000000	-0.000000	-0.000000	-356.058473	180.000000	-356.058473	180.000000	-0.000000	0.000000
0.050000	-0.000091	-0.762220	-115.847459	91.049044	-115.847459	91.049044	-0.000107	-0.805957
0.100000	-0.000362	-1.524230	-109.669986	90.674510	-109.669986	90.674510	-0.000424	-1.611639
0.150000	-0.000802	-2.285836	-106.102502	89.773511	-106.102502	89.773511	-0.000934	-2.416797
0.200000	-0.001395	-3.046875	-103.640731	88.840610	-103.640731	88.840610	-0.001615	-3.221233
0.250000	-0.002131	-3.807162	-101.801156	87.993830	-101.801156	87.993830	-0.002449	-4.024733
0.300000	-0.002977	-4.566657	-100.357529	87.243997	-100.357529	87.243997	-0.003394	-4.827277
0.350000	-0.003918	-5.325259	-99.198297	86.599731	-99.198297	86.599731	-0.004430	-5.628774
0.400000	-0.004934	-6.082924	-98.256262	86.068146	-98.256262	86.068146	-0.005532	-6.429204
0.450000	-0.006005	-6.839633	-97.489299	85.661681	-97.489299	85.661681	-0.006680	-7.228576
0.500000	-0.007117	-7.595389	-96.869771	85.399140	-96.869771	85.399140	-0.007856	-8.026920
0.550000	-0.008254	-8.350205	-96.379044	85.306610	-96.379044	85.306610	-0.009046	-8.824272
0.600000	-0.009405	-9.104108	-96.004398	85.418950	-96.004398	85.418950	-0.010242	-9.620677
0.650000	-0.010560	-9.857128	-95.737133	85.782097	-95.737133	85.782097	-0.011434	-10.416174
0.700000	-0.011714	-10.609294	-95.571253	86.456440	-95.571253	86.456440	-0.012620	-11.210801
0.750000	-0.012860	-11.360638	-95.502354	87.521538	-95.502354	87.521538	-0.013794	-12.004588
0.800000	-0.013995	-12.111188	-95.526380	89.082408	-95.526380	89.082408	-0.014957	-12.797561
0.850000	-0.015118	-12.860965	-95.637867	91.277278	-95.637867	91.277278	-0.016107	-13.589738
0.900000	-0.016226	-13.609991	-95.827096	94.285481	-95.827096	94.285481	-0.017244	-14.381131
0.950000	-0.017320	-14.358280	-96.075377	98.330939	-96.075377	98.330939	-0.018367	-15.171748
1.000000	-0.018398	-15.105841	-96.347709	103.669568	-96.347709	103.669568	-0.019479	-15.961591
1.050000	-0.019463	-15.852682	-96.583407	110.537492	-96.583407	110.537492	-0.020580	-16.750658
1.100000	-0.020514	-16.598806	-96.689925	119.030475	-96.689925	119.030475	-0.021669	-17.538946
1.150000	-0.021553	-17.344211	-96.553319	128.917085	-96.553319	128.917085	-0.022749	-18.326447
1.200000	-0.022580	-18.088895	-96.079113	139.502757	-96.079113	139.502757	-0.023820	-19.113151
1.250000	-0.023597	-18.832850	-95.247040	149.774484	-95.247040	149.774484	-0.024883	-19.899048
1.300000	-0.024603	-19.576038	-94.110327	158.772113	-94.110327	158.772113	-0.025938	-20.684090
1.350000	-0.025602	-20.318480	-92.801969	166.140446	-92.801969	166.140446	-0.026987	-21.468296
1.400000	-0.026593	-21.060164	-91.422811	171.908274	-91.422811	171.908274	-0.028029	-22.251654
1.450000	-0.027577	-21.801078	-90.040343	176.294239	-90.040343	176.294239	-0.029066	-23.034148
1.500000	-0.028556	-22.541209	-88.692535	179.559850	-88.692535	179.559850	-0.030098	-23.815763
1.550000	-0.029530	-23.280543	-87.397674	-178.057821	-87.397674	-178.057821	-0.031126	-24.596484
1.600000	-0.030500	-24.019066	-86.162614	-176.365774	-86.162614	-176.365774	-0.032150	-25.376293
1.650000	-0.031466	-24.756762	-84.988108	-175.214053	-84.988108	-175.214053	-0.033171	-26.155176
1.700000	-0.032429	-25.493316	-83.843509	-174.596227	-83.843509	-174.596227	-0.034188	-26.932779
1.750000	-0.033391	-26.229426	-82.794695	-174.168931	-82.794695	-174.168931	-0.035203	-27.709885
1.800000	-0.034351	-26.964466	-81.779605	-174.048511	-81.779605	-174.048511	-0.036217	-28.485796
1.850000	-0.035310	-27.698742	-80.820140	-174.147288	-80.820140	-174.147288	-0.037229	-29.260852
1.900000	-0.036268	-28.432066	-79.900025	-174.419984	-79.900025	-174.419984	-0.038240	-30.034848
1.950000	-0.037226	-29.164440	-79.017383	-174.866599	-79.017383	-174.866599	-0.039250	-30.807784
2.000000	-0.038184	-29.895992	-78.176664	-175.413165	-78.176664	-175.413165	-0.040260	-31.579808
2.050000	-0.039143	-30.626396	-77.359749	-176.099662	-77.359749	-176.099662	-0.041271	-32.350554
2.100000	-0.040103	-31.356122	-76.585909	-176.843321	-76.585909	-176.843321	-0.042282	-33.120548
2.150000	-0.041065	-32.084490	-75.825511	-177.701307	-75.825511	-177.701307	-0.043294	-33.889037
2.200000	-0.042028	-32.812333	-75.108599	-178.590880	-75.108599	-178.590880	-0.044307	-34.656945
2.250000	-0.042994	-33.538601	-74.397203	-179.575218	-74.397203	-179.575218	-0.045323	-35.423110
2.300000	-0.043961	-34.264509	-73.729275	179.424531	-73.729275	179.424531	-0.046339	-36.188877
2.350000	-0.044933	-34.988614	-73.060752	178.344717	-73.060752	178.344717	-0.047361	-36.952655
2.400000	-0.045905	-35.712534	-72.435408	177.258762	-72.435408	177.258762	-0.048383	-37.716228
2.450000	-0.046884	-36.434415	-71.804721	176.105264	-71.804721	176.105264	-0.049411	-38.477556
2.500000	-0.047863	-37.156297	-71.216746	174.951765	-71.216746	174.951765	-0.050440	-39.238885
2.550000	-0.048851	-37.875897	-70.619723	173.740387	-70.619723	173.740387	-0.051477	-39.997705
2.600000	-0.049839	-38.595497	-70.061110	172.529009	-70.061110	172.529009	-0.052514	-40.756525
2.650000	-0.050836	-39.312954	-69.497965	171.275337	-69.497965	171.275337	-0.053561	-41.512995
2.700000	-0.051834	-40.030216	-68.965851	170.017819	-68.965851	170.017819	-0.054609	-42.269251
2.750000	-0.052842	-40.745486	-68.432914	168.729274	-68.432914	168.729274	-0.055668	-43.023327
2.800000	-0.053851	-41.460357	-67.924854	167.434523	-67.924854	167.434523	-0.056728	-43.776966
2.850000	-0.054871	-42.173396	-67.419037	166.117010	-67.419037	166.117010	-0.057799	-44.528607
2.900000	-0.055893	-42.885826	-66.932926	164.791911	-66.932926	164.791911	-0.058873	-45.279581
2.950000	-0.056925	-43.596595	-66.451601	163.450188	-66.451601	163.450188	-0.059957	-46.028749
3.000000	-0.057962	-44.306534	-65.985617	162.100154	-65.985617	162.100154	-0.061047	-46.777013
3.050000	-0.059008	-45.014993	-65.526529	160.738098	-65.526529	160.738098	-0.062147	-47.523671
3.100000	-0.060061	-45.722396	-65.079076	159.367454	-65.079076	159.367454	-0.063254	-48.269183
3.150000	-0.061122	-46.428510	-64.640276	157.988258	-64.640276	157.988258	-0.064370	-49.013301
3.200000	-0.062192	-47.133335	-64.209950	156.600510	-64.209950	156.600510	-0.065496	-49.756025
3.250000	-0.063269	-47.837069	-63.789737	155.206838	-63.789737	155.206838	-0.066631	-50.497574
3.300000	-0.064358	-48.539275	-63.375294	153.804871	-63.375294	153.804871	-0.067777	-51.237478
3.350000	-0.065452	-49.240744	-62.973444	152.399557	-62.973444	152.399557	-0.068929	-51.976592
3.400000	-0.066557	-49.940740	-62.577355	150.987549	-62.577355	150.987549	-0.070094	-52.714125
3.450000	-0.067676	-50.639050	-62.185366	149.568991	-62.185366	149.568991	-0.071273	-53.449857
3.500000	-0.068803	-51.336259	-61.802073	148.146661	-61.802073	148.146661	-0.072462	-54.184419
3.550000	-0.069940	-52.032366	-61.427068	146.720733	-61.427068	146.720733	-0.073661	-54.917809
3.600000	-0.071090	-52.726961	-61.057164	145.290361	-61.057164	145.290361	-0.074874	-55.649597
3.650000	-0.072252	-53.420135	-60.692951	143.856388	-60.692951	143.856388	-0.076101	-56.379888
3.700000	-0.073424	-54.112187	-60.336249	142.419838	-60.336249	142.419838	-0.077338	-57.109002
3.750000	-0.074606	-54.803115	-59.986728	140.980857	-59.986728	140.980857	-0.078588	-57.836939
3.800000	-0.075806	-55.492193	-59.639778	139.538511	-59.639778	139.538511	-0.079856	-58.562950
3.850000	-0.077018	-56.180133	-59.299655	138.094468	-59.299655	138.094468	-0.081136	-59.287788
3.900000	-0.078240	-56.866934	-58.966068	136.648854	-58.966068	136.648854	-0.082430	-60.011454
3.950000	-0.079477	-57.552280	-58.637066	135.201523	-58.637066	135.201523	-0.083739	-60.733633
4.000000	-0.080731	-58.236060	-58.311974	133.752825	-58.311974	133.752825	-0.085066	-61.454229
4.050000	-0.081997	-58.918688	-57.992831	132.303382	-57.992831	132.303382	-0.086407	-62.173673
4.100000	-0.083275	-59.600163	-57.679397	130.853322	-57.679397	130.853322	-0.087763	-62.891968
4.150000	-0.084573	-60.279849	-57.368410	129.402827	-57.368410	129.402827	-0.089140	-63.608511
4.200000	-0.085886	-60.958268	-57.062300	127.952458	-57.062300	127.952458	-0.090534	-64.323839
4.250000	-0.087212	-61.635525	-56.761362	126.502404	-56.761362	126.502404	-0.091944	-65.038065
4.300000	-0.088554	-62.311406	-56.464438	125.053009	-56.464438	125.053009	-0.093373	-65.751007
4.350000	-0.089918	-62.985589	-56.169924	123.605161	-56.169924	123.605161	-0.094827	-66.462422
4.400000	-0.091295	-63.658604	-55.880016	122.158874	-55.880016	122.158874	-0.096298	-67.172826
4.450000	-0.092688	-64.330449	-55.594515	120.714393	-55.594515	120.714393	-0.097789	-67.882241
4.500000	-0.094103	-65.000591	-55.310878	119.273428	-55.310878	119.273428	-0.099308	-68.590296
4.550000	-0.095536	-65.669347	-55.030212	117.836454	-55.030212	117.836454	-0.100853	-69.297354
4.600000	-0.096985	-66.336931	-54.753209	116.403551	-54.753209	116.403551	-0.102423	-70.003641
4.650000	-0.098451	-67.003235	-54.479172	114.975720	-54.479172	114.975720	-0.104020	-70.709149
4.700000	-0.099943	-67.667726	-54.205024	113.557788	-54.205024	113.557788	-0.105665	-71.413851
4.750000	-0.101453	-68.331043	-53.933216	112.148555	-53.933216	112.148555	-0.107348	-72.118297
4.800000	-0.102979	-68.993187	-53.663374	110.749281	-53.663374	110.749281	-0.109075	-72.822640
4.850000	-0.104530	-69.653732	-53.392134	109.367334	-53.392134	109.367334	-0.110879	-73.527305
4.900000	-0.106104	-70.312783	-53.117782	108.009100	-53.117782	108.009100	-0.112794	-74.233287
4.950000	-0.107697	-70.970662	-52.840654	106.675674	-52.840654	106.675674	-0.114846	-74.941244
5.000000	-0.109310	-71.627368	-52.559856	105.370586	-52.559856	105.370586	-0.117059	-75.651715
5.050000	-0.110952	-72.282339	-52.259114	104.129655	-52.259114	104.129655	-0.119770	-76.370041
5.100000	-0.112617	-72.936051	-51.934273	102.954725	-51.934273	102.954725	-0.123241	-77.099057
5.150000	-0.114310	-73.588328	-51.552859	101.871581	-51.552859	101.871581	-0.128673	-77.850526
5.200000	-0.116035	-74.239135	-51.038808	100.814365	-51.038808	100.814365	-0.140055	-78.648865
5.250000	-0.117800	-74.888316	-50.177674	98.900282	-50.177674	98.900282	-0.175658	-79.535685
5.300000	-0.119482	-75.534696	-49.017950	87.519055	-49.017950	87.519055	-0.313113	-79.977313
5.350000	-0.120872	-76.183872	-50.985781	79.576768	-50.985781	79.576768	-0.221930	-79.656501
5.400000	-0.122837	-76.830051	-51.350772	84.076985	-51.350772	84.076985	-0.162142	-80.513201
5.450000	-0.124725	-77.474303	-51.149682	85.505601	-51.149682	85.505601	-0.147017	-81.324261
5.500000	-0.126605	-78.117093	-50.890093	85.405941	-50.890093	85.405941	-0.142904	-82.074903
5.550000	-0.128503	-78.758286	-50.637226	84.669772	-50.637226	84.669772	-0.142200	-82.793361
5.600000	-0.130418	-79.398522	-50.393841	83.748677	-50.393841	83.748677	-0.142351	-83.501004
5.650000	-0.132353	-80.037544	-50.160137	82.642947	-50.160137	82.642947	-0.143307	-84.197210
5.700000	-0.134322	-80.674803	-49.934764	81.412117	-49.934764	81.412117	-0.144748	-84.884085
5.750000	-0.136312	-81.311010	-49.715490	80.135893	-49.715490	80.135893	-0.146362	-85.567022
5.800000	-0.138325	-81.946165	-49.501828	78.820030	-49.501828	78.820030	-0.148124	-86.246348
5.850000	-0.140376	-82.579482	-49.292605	77.461896	-49.292605	77.461896	-0.150049	-86.920967
5.900000	-0.142452	-83.211708	-49.087494	76.087674	-49.087494	76.087674	-0.152044	-87.593353
5.950000	-0.144552	-83.842898	-48.886302	74.699360	-48.886302	74.699360	-0.154100	-88.263693
6.000000	-0.146687	-84.472473	-48.688142	73.295000	-48.688142	73.295000	-0.156236	-88.931230
6.050000	-0.148853	-85.100777	-48.493032	71.881799	-48.493032	71.881799	-0.158424	-89.596811
6.100000	-0.151044	-85.728061	-48.301086	70.462376	-48.301086	70.462376	-0.160653	-90.260883
6.150000	-0.153268	-86.353952	-48.111710	69.036003	-48.111710	69.036003	-0.162934	-90.922999
6.200000	-0.155528	-86.978399	-47.924666	67.604368	-47.924666	67.604368	-0.165266	-91.583224
6.250000	-0.157813	-87.601845	-47.740374	66.169688	-47.740374	66.169688	-0.167631	-92.242182
6.300000	-0.160129	-88.224114	-47.558516	64.731846	-47.558516	64.731846	-0.170035	-92.899680
6.350000	-0.162487	-88.844774	-47.378461	63.290813	-47.378461	63.290813	-0.172492	-93.555268
6.400000	-0.164871	-89.464455	-47.200890	61.848260	-47.200890	61.848260	-0.174980	-94.209723
6.450000	-0.167282	-90.083158	-47.025723	60.404288	-47.025723	60.404288	-0.177500	-94.863056
6.500000	-0.169741	-90.700122	-46.851975	58.958495	-46.851975	58.958495	-0.180075	-95.514450
6.550000	-0.172228	-91.316116	-46.680500	57.511997	-46.680500	57.511997	-0.182682	-96.164788
6.600000	-0.174742	-91.931154	-46.511245	56.064855	-46.511245	56.064855	-0.185320	-96.814090
6.650000	-0.177300	-92.544674	-46.343498	54.617002	-46.343498	54.617002	-0.188007	-97.461773
6.700000	-0.179900	-93.156820	-46.177379	53.168831	-46.177379	53.168831	-0.190739	-98.108021
6.750000	-0.182521	-93.768278	-46.013616	51.720500	-46.013616	51.720500	-0.193495	-98.753552
6.800000	-0.185185	-94.378339	-45.851350	50.272144	-45.851350	50.272144	-0.196297	-99.397655
6.850000	-0.187881	-94.987402	-45.690985	48.823769	-45.690985	48.823769	-0.199133	-100.040738
6.900000	-0.190615	-95.595288	-45.532272	47.375598	-45.532272	47.375598	-0.202010	-100.682644
6.950000	-0.193387	-96.201999	-45.375175	45.927629	-45.375175	45.927629	-0.204928	-101.323374
7.000000	-0.196192	-96.807749	-45.219870	44.479973	-45.219870	44.479973	-0.207880	-101.963162
7.050000	-0.199042	-97.412152	-45.065922	43.032755	-45.065922	43.032755	-0.210880	-102.601631
7.100000	-0.201918	-98.015803	-44.913895	41.585875	-44.913895	41.585875	-0.213907	-103.239376
7.150000	-0.204848	-98.617946	-44.762989	40.139673	-44.762989	40.139673	-0.216990	-103.875673
7.200000	-0.207798	-99.219536	-44.614116	38.693777	-44.614116	38.693777	-0.220093	-104.511449
7.250000	-0.210808	-99.819466	-44.466151	37.248798	-44.466151	37.248798	-0.223259	-105.145662
7.300000	-0.213833	-100.419036	-44.320319	35.804049	-44.320319	35.804049	-0.226440	-105.779543
7.350000	-0.216926	-101.016803	-44.175201	34.360451	-44.175201	34.360451	-0.229690	-106.411761
7.400000	-0.220026	-101.614394	-44.032304	32.916978	-44.032304	32.916978	-0.232948	-107.043820
7.450000	-0.223203	-102.210048	-43.889944	31.474879	-43.889944	31.474879	-0.236283	-107.674132
7.500000	-0.226381	-102.805703	-43.749880	30.032780	-43.749880	30.032780	-0.239619	-108.304445
7.550000	-0.229643	-103.399296	-43.610195	28.592265	-43.610195	28.592265	-0.243039	-108.932944
7.600000	-0.232906	-103.992890	-43.472721	27.151749	-43.472721	27.151749	-0.246461	-109.561442
7.650000	-0.236248	-104.584643	-43.335779	25.712733	-43.335779	25.712733	-0.249959	-110.188364
7.700000	-0.239598	-105.176230	-43.200818	24.273854	-43.200818	24.273854	-0.253467	-110.815143
7.750000	-0.243022	-105.766189	-43.066528	22.836359	-43.066528	22.836359	-0.257045	-111.440569
7.800000	-0.246461	-106.355823	-42.934008	21.399141	-42.934008	21.399141	-0.260638	-112.065725
7.850000	-0.249966	-106.944036	-42.802284	19.963168	-42.802284	19.963168	-0.264296	-112.689739
7.900000	-0.253495	-107.531775	-42.672134	18.527610	-42.672134	18.527610	-0.267975	-113.313373
7.950000	-0.257085	-108.118290	-42.542892	17.093140	-42.542892	17.093140	-0.271712	-113.936062
8.000000	-0.260705	-108.704192	-42.415046	15.659214	-42.415046	15.659214	-0.275478	-114.558279
8.050000	-0.264380	-109.289057	-42.288207	14.226207	-42.288207	14.226207	-0.279295	-115.179735
8.100000	-0.268094	-109.873182	-42.162597	12.793857	-42.162597	12.793857	-0.283148	-115.800646
8.150000	-0.271855	-110.456450	-42.038085	11.362254	-42.038085	11.362254	-0.287044	-116.420963
8.200000	-0.275663	-111.038860	-41.914650	9.931398	-41.914650	9.931398	-0.290983	-117.040686
8.250000	-0.279512	-111.620581	-41.792392	8.501116	-41.792392	8.501116	-0.294958	-117.659965
8.300000	-0.283417	-112.201340	-41.671069	7.071638	-41.671069	7.071638	-0.298983	-118.278623
8.350000	-0.287360	-112.781485	-41.550924	5.642631	-41.550924	5.642631	-0.303042	-118.896926
8.400000	-0.291378	-113.360402	-41.431448	4.214564	-41.431448	4.214564	-0.307167	-119.514518
8.450000	-0.295398	-113.939319	-41.313593	2.786498	-41.313593	2.786498	-0.311294	-120.132110
8.500000	-0.299491	-114.517128	-41.196430	1.359147	-41.196430	1.359147	-0.315483	-120.749159
8.550000	-0.303642	-115.094051	-41.080130	-0.067632	-41.080130	-0.067632	-0.319722	-121.365774
8.600000	-0.307795	-115.670974	-40.965365	-1.494411	-40.965365	-1.494411	-0.323963	-121.982390
8.650000	-0.312052	-116.246444	-40.850927	-2.920554	-40.850927	-2.920554	-0.328289	-122.598479
8.700000	-0.316339	-116.821498	-40.737647	-4.346516	-40.737647	-4.346516	-0.332642	-123.214418
8.750000	-0.320628	-117.396553	-40.625826	-5.772478	-40.625826	-5.772478	-0.336996	-123.830357
8.800000	-0.325051	-117.969869	-40.513995	-7.198255	-40.513995	-7.198255	-0.341459	-124.445972
8.850000	-0.329476	-118.543184	-40.403585	-8.624033	-40.403585	-8.624033	-0.345924	-125.061588
8.900000	-0.333934	-119.116144	-40.294253	-10.049962	-40.294253	-10.049962	-0.350414	-125.677226
8.950000	-0.338497	-119.687856	-40.185213	-11.476422	-40.185213	-11.476422	-0.354987	-126.292946
9.000000	-0.343062	-120.259568	-40.077524	-12.902883	-40.077524	-12.902883	-0.359564	-126.908666
9.050000	-0.347690	-120.830629	-39.970555	-14.330191	-39.970555	-14.330191	-0.364188	-127.524677
9.100000	-0.352395	-121.400877	-39.864147	-15.758559	-39.864147	-15.758559	-0.368871	-128.141050
9.150000	-0.357103	-121.971125	-39.759026	-17.186927	-39.759026	-17.186927	-0.373558	-128.757424
9.200000	-0.361904	-122.540494	-39.654272	-18.617773	-39.654272	-18.617773	-0.378314	-129.374727
9.250000	-0.366752	-123.109424	-39.550327	-20.049859	-39.550327	-20.049859	-0.383107	-129.992496
9.300000	-0.371604	-123.678353	-39.447611	-21.481944	-39.447611	-21.481944	-0.387903	-130.610264
9.350000	-0.376580	-124.246244	-39.344889	-22.919861	-39.344889	-22.919861	-0.392789	-131.230234
9.400000	-0.381574	-124.814004	-39.243218	-24.358507	-39.243218	-24.358507	-0.397689	-131.850478
9.450000	-0.386582	-125.381679	-39.142605	-25.798007	-39.142605	-25.798007	-0.402600	-132.471039
9.500000	-0.391685	-125.948660	-39.042210	-27.244341	-39.042210	-27.244341	-0.407576	-133.094137
9.550000	-0.396840	-126.515304	-38.942426	-28.696013	-38.942426	-28.696013	-0.412588	-133.719176
9.600000	-0.402041	-127.081677	-38.843312	-30.153048	-38.843312	-30.153048	-0.417626	-134.346142
9.650000	-0.407290	-127.647766	-38.744805	-31.616705	-38.744805	-31.616705	-0.422693	-134.975471
9.700000	-0.412608	-128.213491	-38.646649	-33.093209	-38.646649	-33.093209	-0.427785	-135.609294
9.750000	-0.417972	-128.779005	-38.549103	-34.581077	-38.549103	-34.581077	-0.432880	-136.247021
9.800000	-0.423380	-129.344317	-38.452175	-36.082049	-38.452175	-36.082049	-0.437967	-136.889214
9.850000	-0.428850	-129.909380	-38.355740	-37.606094	-38.355740	-37.606094	-0.443007	-137.539184
9.900000	-0.434376	-130.474243	-38.260117	-39.162636	-38.260117	-39.162636	-0.447906	-138.199972
9.950000	-0.439948	-131.038968	-38.165802	-40.754192	-38.165802	-40.754192	-0.452572	-138.872412
10.000000	-0.445565	-131.603563	-38.073022	-42.386182	-38.073022	-42.386182	-0.456936	-139.558305
