! freq	dB(S11)	phase(S11)	dB(S12)	phase(S12)	
!     	dB(S21)	phase(S21)	dB(S22)	phase(S22)	
!S-par simulation data
#  GHz  S  DB  R 50
0.000000	0.000000	0.000000	-331.442643	0.000000	-331.442643	0.000000	-0.000000	0.000000
0.050000	-0.000141	-1.442858	-69.545511	-174.267022	-69.545511	-174.267022	-0.000160	-1.492032
0.100000	-0.000560	-2.885410	-69.194500	169.279422	-69.194500	169.279422	-0.000634	-2.983664
0.150000	-0.001250	-4.327349	-68.955143	158.026700	-68.955143	158.026700	-0.001413	-4.474501
0.200000	-0.002191	-5.768416	-68.688215	148.423423	-68.688215	148.423423	-0.002470	-5.964207
0.250000	-0.003380	-7.208281	-68.389222	139.866378	-68.389222	139.866378	-0.003797	-7.452364
0.300000	-0.004771	-8.646831	-68.073559	132.041685	-68.073559	132.041685	-0.005339	-8.938838
0.350000	-0.006350	-10.083830	-67.751701	124.885785	-67.751701	124.885785	-0.007077	-10.423338
0.400000	-0.008093	-11.519117	-67.434253	118.325455	-67.434253	118.325455	-0.008977	-11.905674
0.450000	-0.009972	-12.952563	-67.129442	112.301971	-67.129442	112.301971	-0.011009	-13.385696
0.500000	-0.011964	-14.384068	-66.843206	106.764391	-66.843206	106.764391	-0.013141	-14.863292
0.550000	-0.014045	-15.813559	-66.579556	101.667776	-66.579556	101.667776	-0.015348	-16.338381
0.600000	-0.016192	-17.240983	-66.340988	96.972691	-66.340988	96.972691	-0.017604	-17.810906
0.650000	-0.018386	-18.666308	-66.128855	92.644924	-66.128855	92.644924	-0.019887	-19.280829
0.700000	-0.020609	-20.089514	-65.943686	88.655153	-65.943686	88.655153	-0.022182	-20.748126
0.750000	-0.022848	-21.510593	-65.785425	84.978551	-65.785425	84.978551	-0.024472	-22.212779
0.800000	-0.025089	-22.929545	-65.653617	81.594370	-65.653617	81.594370	-0.026747	-23.674779
0.850000	-0.027322	-24.346373	-65.547539	78.485538	-65.547539	78.485538	-0.028998	-25.134113
0.900000	-0.029540	-25.761084	-65.466289	75.638294	-65.466289	75.638294	-0.031218	-26.590772
0.950000	-0.031736	-27.173684	-65.408853	73.041879	-65.408853	73.041879	-0.033404	-28.044742
1.000000	-0.033905	-28.584179	-65.374129	70.688279	-65.374129	70.688279	-0.035552	-29.496006
1.050000	-0.036045	-29.992575	-65.360953	68.572012	-65.360953	68.572012	-0.037661	-30.944544
1.100000	-0.038154	-31.398873	-65.368088	66.689964	-65.368088	66.689964	-0.039731	-32.390331
1.150000	-0.040230	-32.803073	-65.394215	65.041247	-65.394215	65.041247	-0.041763	-33.833339
1.200000	-0.042274	-34.205173	-65.437901	63.627077	-65.437901	63.627077	-0.043758	-35.273536
1.250000	-0.044286	-35.605168	-65.497556	62.450643	-65.497556	62.450643	-0.045718	-36.710887
1.300000	-0.046266	-37.002958	-65.571866	61.527838	-65.571866	61.527838	-0.047643	-38.145227
1.350000	-0.048216	-38.398624	-65.658029	60.855163	-65.658029	60.855163	-0.049537	-39.576641
1.400000	-0.050139	-39.792156	-65.753564	60.440702	-65.753564	60.440702	-0.051403	-41.005086
1.450000	-0.052037	-41.183541	-65.855534	60.293322	-65.855534	60.293322	-0.053243	-42.430521
1.500000	-0.053911	-42.572767	-65.960465	60.421999	-65.960465	60.421999	-0.055060	-43.852903
1.550000	-0.055763	-43.959819	-66.064260	60.834897	-66.064260	60.834897	-0.056856	-45.272191
1.600000	-0.057596	-45.344683	-66.162134	61.538147	-66.162134	61.538147	-0.058633	-46.688342
1.650000	-0.059412	-46.727346	-66.248599	62.534324	-66.248599	62.534324	-0.060394	-48.101315
1.700000	-0.061212	-48.107794	-66.317516	63.820656	-66.317516	63.820656	-0.062140	-49.511072
1.750000	-0.063000	-49.486016	-66.362238	65.387130	-66.362238	65.387130	-0.063874	-50.917573
1.800000	-0.064777	-50.862001	-66.375886	67.214722	-66.375886	67.214722	-0.065598	-52.320783
1.850000	-0.066544	-52.235737	-66.351743	69.274137	-66.351743	69.274137	-0.067314	-53.720669
1.900000	-0.068305	-53.607218	-66.283752	71.525465	-66.283752	71.525465	-0.069022	-55.117197
1.950000	-0.070060	-54.976436	-66.167065	73.919095	-66.167065	73.919095	-0.070726	-56.510338
2.000000	-0.071811	-56.343387	-65.998531	76.398039	-65.998531	76.398039	-0.072426	-57.900067
2.050000	-0.073561	-57.708068	-65.777040	78.901474	-65.777040	78.901474	-0.074123	-59.286359
2.100000	-0.075310	-59.070479	-65.503633	81.368982	-65.503633	81.368982	-0.075820	-60.669192
2.150000	-0.077060	-60.430622	-65.181348	83.744770	-65.181348	83.744770	-0.077516	-62.048549
2.200000	-0.078812	-61.788502	-64.814849	85.981119	-64.814849	85.981119	-0.079215	-63.424415
2.250000	-0.080569	-63.144126	-64.409911	88.040579	-64.409911	88.040579	-0.080915	-64.796776
2.300000	-0.082330	-64.497503	-63.972873	89.896745	-63.972873	89.896745	-0.082620	-66.165625
2.350000	-0.084098	-65.848646	-63.510145	91.533785	-63.510145	91.533785	-0.084329	-67.530955
2.400000	-0.085873	-67.197570	-63.027827	92.945086	-63.027827	92.945086	-0.086043	-68.892763
2.450000	-0.087657	-68.544294	-62.531452	94.131455	-62.531452	94.131455	-0.087764	-70.251050
2.500000	-0.089451	-69.888837	-62.025854	95.099222	-62.025854	95.099222	-0.089491	-71.605819
2.550000	-0.091255	-71.231133	-61.513740	95.850025	-61.513740	95.850025	-0.091228	-72.956925
2.600000	-0.093072	-72.571302	-61.000105	96.406004	-61.000105	96.406004	-0.092973	-74.304531
2.650000	-0.094902	-73.909375	-60.487627	96.780801	-60.487627	96.780801	-0.094727	-75.648649
2.700000	-0.096746	-75.245385	-59.978418	96.988299	-59.978418	96.988299	-0.096492	-76.989297
2.750000	-0.098604	-76.579369	-59.474106	97.042089	-59.474106	97.042089	-0.098268	-78.326495
2.800000	-0.100478	-77.911365	-58.975923	96.955137	-58.975923	96.955137	-0.100056	-79.660264
2.850000	-0.102368	-79.241417	-58.484773	96.739577	-58.484773	96.739577	-0.101856	-80.990630
2.900000	-0.104276	-80.569570	-58.001302	96.406618	-58.001302	96.406618	-0.103669	-82.317621
2.950000	-0.106202	-81.895871	-57.525949	95.966512	-57.525949	95.966512	-0.105496	-83.641270
3.000000	-0.108147	-83.220374	-57.058990	95.428568	-57.058990	95.428568	-0.107337	-84.961610
3.050000	-0.110112	-84.543131	-56.600578	94.801199	-56.600578	94.801199	-0.109194	-86.278678
3.100000	-0.112097	-85.864201	-56.150768	94.091977	-56.150768	94.091977	-0.111066	-87.592515
3.150000	-0.114104	-87.183645	-55.709541	93.307704	-55.709541	93.307704	-0.112954	-88.903163
3.200000	-0.116133	-88.501525	-55.276825	92.454479	-55.276825	92.454479	-0.114859	-90.210667
3.250000	-0.118185	-89.817910	-54.852510	91.537770	-54.852510	91.537770	-0.116782	-91.515076
3.300000	-0.120262	-91.132869	-54.436453	90.562473	-54.436453	90.562473	-0.118723	-92.816439
3.350000	-0.122362	-92.446474	-54.028496	89.532980	-54.028496	89.532980	-0.120684	-94.114811
3.400000	-0.124489	-93.758801	-53.628466	88.453228	-53.628466	88.453228	-0.122663	-95.410246
3.450000	-0.126641	-95.069929	-53.236182	87.326751	-53.236182	87.326751	-0.124663	-96.702804
3.500000	-0.128821	-96.379941	-52.851461	86.156728	-52.851461	86.156728	-0.126684	-97.992544
3.550000	-0.131028	-97.688921	-52.474120	84.946019	-52.474120	84.946019	-0.128726	-99.279529
3.600000	-0.133264	-98.996957	-52.103977	83.697204	-52.103977	83.697204	-0.130791	-100.563825
3.650000	-0.135529	-100.304139	-51.740854	82.412614	-51.740854	82.412614	-0.132878	-101.845499
3.700000	-0.137825	-101.610562	-51.384578	81.094356	-51.384578	81.094356	-0.134989	-103.124622
3.750000	-0.140152	-102.916323	-51.034979	79.744345	-51.034979	79.744345	-0.137125	-104.401264
3.800000	-0.142512	-104.221502	-50.691596	78.363088	-50.691596	78.363088	-0.139286	-105.675399
3.850000	-0.144904	-105.526230	-50.354603	76.953528	-50.354603	76.953528	-0.141473	-106.947211
3.900000	-0.147330	-106.830616	-50.023849	75.517093	-50.023849	75.517093	-0.143686	-108.216779
3.950000	-0.149791	-108.134766	-49.699189	74.055089	-49.699189	74.055089	-0.145925	-109.484183
4.000000	-0.152287	-109.438795	-49.380485	72.568715	-49.380485	72.568715	-0.148193	-110.749507
4.050000	-0.154818	-110.742818	-49.067604	71.059070	-49.067604	71.059070	-0.150489	-112.012834
4.100000	-0.157387	-112.046952	-48.760419	69.527167	-48.760419	69.527167	-0.152814	-113.274250
4.150000	-0.159993	-113.351319	-48.458808	67.973940	-48.458808	67.973940	-0.155168	-114.533845
4.200000	-0.162638	-114.656044	-48.162654	66.400250	-48.162654	66.400250	-0.157553	-115.791709
4.250000	-0.165322	-115.961254	-47.871844	64.806889	-47.871844	64.806889	-0.159968	-117.047932
4.300000	-0.168046	-117.267081	-47.586271	63.194592	-47.586271	63.194592	-0.162415	-118.302610
4.350000	-0.170811	-118.573657	-47.305829	61.564035	-47.305829	61.564035	-0.164895	-119.555838
4.400000	-0.173618	-119.881119	-47.030416	59.915841	-47.030416	59.915841	-0.167407	-120.807712
4.450000	-0.176468	-121.189608	-46.759935	58.250582	-46.759935	58.250582	-0.169953	-122.058334
4.500000	-0.179361	-122.499267	-46.494289	56.568784	-46.494289	56.568784	-0.172532	-123.307802
4.550000	-0.182298	-123.810241	-46.233383	54.870925	-46.233383	54.870925	-0.175147	-124.556220
4.600000	-0.185281	-125.122682	-45.977125	53.157438	-45.977125	53.157438	-0.177797	-125.803691
4.650000	-0.188309	-126.436742	-45.725425	51.428711	-45.725425	51.428711	-0.180483	-127.050323
4.700000	-0.191385	-127.752576	-45.478190	49.685088	-45.478190	49.685088	-0.183205	-128.296222
4.750000	-0.194507	-129.070346	-45.235332	47.926866	-45.235332	47.926866	-0.185964	-129.541499
4.800000	-0.197678	-130.390213	-44.996762	46.154298	-44.996762	46.154298	-0.188761	-130.786263
4.850000	-0.200899	-131.712344	-44.762388	44.367587	-44.762388	44.367587	-0.191597	-132.030628
4.900000	-0.204169	-133.036911	-44.532122	42.566887	-44.532122	42.566887	-0.194471	-133.274709
4.950000	-0.207490	-134.364085	-44.305871	40.752301	-44.305871	40.752301	-0.197384	-134.518621
5.000000	-0.210862	-135.694045	-44.083543	38.923874	-44.083543	38.923874	-0.200337	-135.762483
5.050000	-0.214289	-137.027110	-43.864973	37.080988	-43.864973	37.080988	-0.203332	-137.006423
5.100000	-0.217769	-138.363345	-43.650143	35.224157	-43.650143	35.224157	-0.206368	-138.250566
5.150000	-0.221303	-139.702938	-43.438954	33.353225	-43.438954	33.353225	-0.209446	-139.495035
5.200000	-0.224892	-141.046085	-43.231302	31.467959	-43.231302	31.467959	-0.212565	-140.739957
5.250000	-0.228536	-142.392982	-43.027080	29.568043	-43.027080	29.568043	-0.215727	-141.985460
5.300000	-0.232236	-143.743834	-42.826178	27.653067	-42.826178	27.653067	-0.218931	-143.231673
5.350000	-0.235993	-145.098846	-42.628479	25.722521	-42.628479	25.722521	-0.222178	-144.478729
5.400000	-0.239808	-146.458231	-42.433862	23.775777	-42.433862	23.775777	-0.225470	-145.726764
5.450000	-0.243681	-147.822207	-42.242196	21.812082	-42.242196	21.812082	-0.228805	-146.975914
5.500000	-0.247614	-149.190995	-42.053346	19.830538	-42.053346	19.830538	-0.232184	-148.226321
5.550000	-0.251606	-150.564825	-41.867164	17.830081	-41.867164	17.830081	-0.235609	-149.478127
5.600000	-0.255660	-151.943931	-41.683493	15.809460	-41.683493	15.809460	-0.239079	-150.731481
5.650000	-0.259775	-153.328555	-41.502160	13.767209	-41.502160	13.767209	-0.242596	-151.986531
5.700000	-0.263954	-154.718944	-41.322978	11.701610	-41.322978	11.701610	-0.246158	-153.243435
5.750000	-0.268197	-156.115357	-41.145739	9.610656	-41.145739	9.610656	-0.249768	-154.502352
5.800000	-0.272505	-157.518059	-40.970212	7.491993	-40.970212	7.491993	-0.253426	-155.763448
5.850000	-0.276879	-158.927325	-40.796136	5.342865	-40.796136	5.342865	-0.257132	-157.026894
5.900000	-0.281323	-160.343445	-40.623215	3.160027	-40.623215	3.160027	-0.260888	-158.292872
5.950000	-0.285836	-161.766718	-40.451109	0.939652	-40.451109	0.939652	-0.264694	-159.561570
6.000000	-0.290423	-163.197463	-40.279422	-1.322800	-40.279422	-1.322800	-0.268553	-160.833190
6.050000	-0.295085	-164.636014	-40.107690	-3.632740	-40.107690	-3.632740	-0.272465	-162.107945
6.100000	-0.299827	-166.082733	-39.935358	-5.996661	-39.935358	-5.996661	-0.276432	-163.386068
6.150000	-0.304654	-167.538005	-39.761761	-8.422414	-39.761761	-8.422414	-0.280459	-164.667810
6.200000	-0.309571	-169.002254	-39.586086	-10.919568	-39.586086	-10.919568	-0.284547	-165.953452
6.250000	-0.314586	-170.475949	-39.407325	-13.499902	-39.407325	-13.499902	-0.288703	-167.243311
6.300000	-0.319716	-171.960079	-39.223774	-16.183224	-39.223774	-16.183224	-0.292937	-168.537967
6.350000	-0.324972	-173.454854	-39.034036	-18.985073	-39.034036	-18.985073	-0.297255	-169.837676
6.400000	-0.330377	-174.961008	-38.835903	-21.930081	-38.835903	-21.930081	-0.301673	-171.142964
6.450000	-0.335962	-176.479434	-38.626426	-25.050481	-38.626426	-25.050481	-0.306211	-172.454493
6.500000	-0.341760	-178.010483	-38.402898	-28.375573	-38.402898	-28.375573	-0.310891	-173.772690
6.550000	-0.347864	-179.556898	-38.157853	-31.983874	-38.157853	-31.983874	-0.315777	-175.099354
6.600000	-0.354381	178.879918	-37.884164	-35.947533	-37.884164	-35.947533	-0.320943	-176.435737
6.650000	-0.361502	177.297184	-37.570083	-40.383027	-37.570083	-40.383027	-0.326526	-177.784068
6.700000	-0.369566	175.690798	-37.197740	-45.463286	-37.197740	-45.463286	-0.332769	-179.147688
6.750000	-0.379239	174.053996	-36.737289	-51.469472	-36.737289	-51.469472	-0.340161	179.467844
6.800000	-0.391804	172.376919	-36.144292	-58.822539	-36.144292	-58.822539	-0.349665	178.054152
6.850000	-0.410614	170.638907	-35.325769	-68.400020	-35.325769	-68.400020	-0.363832	176.593746
6.900000	-0.444735	168.807486	-34.122892	-81.870087	-34.122892	-81.870087	-0.389722	175.057612
6.950000	-0.525075	166.860379	-32.260408	-103.302608	-32.260408	-103.302608	-0.452008	173.418133
7.000000	-0.744341	165.336680	-29.784144	-144.114380	-29.784144	-144.114380	-0.628919	172.077390
7.050000	-0.796919	166.099974	-30.443462	147.141036	-30.443462	147.141036	-0.690826	172.630285
7.100000	-0.561531	164.845241	-34.725790	92.948169	-34.725790	92.948169	-0.504734	171.675508
7.150000	-0.477748	162.829678	-37.556281	57.682866	-37.556281	57.682866	-0.434274	170.055377
7.200000	-0.450901	160.898123	-38.797551	33.191997	-38.797551	33.191997	-0.410635	168.487244
7.250000	-0.442138	159.044011	-39.226929	16.031638	-39.226929	16.031638	-0.402365	166.980355
7.300000	-0.440429	157.230512	-39.314178	3.659003	-39.314178	3.659003	-0.400244	165.509079
7.350000	-0.441893	155.435216	-39.269404	-5.770352	-39.269404	-5.770352	-0.400949	164.056637
7.400000	-0.445057	153.646323	-39.173291	-13.277405	-39.173291	-13.277405	-0.403198	162.614167
7.450000	-0.449200	151.856571	-39.060635	-19.514267	-39.060635	-19.514267	-0.406352	161.176147
7.500000	-0.453953	150.061406	-38.945989	-24.883504	-38.945989	-24.883504	-0.410080	159.739120
7.550000	-0.459130	148.257076	-38.835800	-29.613122	-38.835800	-29.613122	-0.414212	158.300606
7.600000	-0.464565	146.443109	-38.731662	-33.946202	-38.731662	-33.946202	-0.418593	156.859459
7.650000	-0.470225	144.616250	-38.635175	-37.935500	-38.635175	-37.935500	-0.423192	155.414057
7.700000	-0.476043	142.776527	-38.545818	-41.691580	-38.545818	-41.691580	-0.427945	153.963968
7.750000	-0.481994	140.922465	-38.463596	-45.265670	-38.463596	-45.265670	-0.432828	152.508342
7.800000	-0.488059	139.053003	-38.388262	-48.699618	-38.388262	-48.699618	-0.437822	151.046539
7.850000	-0.494215	137.168670	-38.318963	-52.036970	-38.318963	-52.036970	-0.442904	149.578614
7.900000	-0.500463	135.266721	-38.256048	-55.293256	-38.256048	-55.293256	-0.448075	148.103297
7.950000	-0.506783	133.349521	-38.198212	-58.501616	-38.198212	-58.501616	-0.453315	146.621492
8.000000	-0.513185	131.413309	-38.146036	-61.672016	-38.146036	-61.672016	-0.458630	145.131510
8.050000	-0.519654	129.460685	-38.098336	-64.824987	-38.098336	-64.824987	-0.464005	143.634415
8.100000	-0.526197	127.489184	-38.055260	-67.972372	-38.055260	-67.972372	-0.469447	142.129085
8.150000	-0.532810	125.499485	-38.016199	-71.126308	-38.016199	-71.126308	-0.474949	140.615781
8.200000	-0.539496	123.491224	-37.980764	-74.297882	-37.980764	-74.297882	-0.480511	139.094316
8.250000	-0.546263	121.462946	-37.948721	-77.498982	-37.948721	-77.498982	-0.486137	137.564030
8.300000	-0.553107	119.416553	-37.919270	-80.735718	-37.919270	-80.735718	-0.491822	136.025750
8.350000	-0.560045	117.348848	-37.892236	-84.024155	-37.892236	-84.024155	-0.497575	134.478063
8.400000	-0.567081	115.261264	-37.866778	-87.370366	-37.866778	-87.370366	-0.503394	132.921610
8.450000	-0.574225	113.153084	-37.842215	-90.785337	-37.842215	-90.785337	-0.509284	131.356091
8.500000	-0.581493	111.023930	-37.817692	-94.279499	-37.817692	-94.279499	-0.515249	129.781368
8.550000	-0.588900	108.873402	-37.792198	-97.863650	-37.792198	-97.863650	-0.521294	128.197310
8.600000	-0.596468	106.701066	-37.764531	-101.549007	-37.764531	-101.549007	-0.527426	126.603785
8.650000	-0.604221	104.506446	-37.733260	-105.347224	-37.733260	-105.347224	-0.533654	125.000666
8.700000	-0.612189	102.289007	-37.696681	-109.270358	-37.696681	-109.270358	-0.539985	123.387824
8.750000	-0.620411	100.048139	-37.652775	-113.330772	-37.652775	-113.330772	-0.546433	121.765129
8.800000	-0.628939	97.782591	-37.598868	-117.544511	-37.598868	-117.544511	-0.553013	120.132229
8.850000	-0.637823	95.492032	-37.532281	-121.920934	-37.532281	-121.920934	-0.559738	118.489199
8.900000	-0.647134	93.175459	-37.449705	-126.471814	-37.449705	-126.471814	-0.566631	116.835892
8.950000	-0.656956	90.831662	-37.347329	-131.207830	-37.347329	-131.207830	-0.573713	115.172149
9.000000	-0.667396	88.459159	-37.220826	-136.137911	-37.220826	-136.137911	-0.581014	113.497799
9.050000	-0.678587	86.056125	-37.065372	-141.268460	-37.065372	-141.268460	-0.588569	111.812646
9.100000	-0.690698	83.620279	-36.875712	-146.602526	-36.875712	-146.602526	-0.596424	110.116471
9.150000	-0.703946	81.148740	-36.646285	-152.138998	-36.646285	-152.138998	-0.604631	108.409022
9.200000	-0.718594	78.638271	-36.372038	-157.870063	-36.372038	-157.870063	-0.613257	106.690123
9.250000	-0.735085	76.082261	-36.044920	-163.792323	-36.044920	-163.792323	-0.622408	104.958932
9.300000	-0.753777	73.477822	-35.664639	-169.876896	-35.664639	-169.876896	-0.632158	103.215905
9.350000	-0.775522	70.812931	-35.222292	-176.114934	-35.222292	-176.114934	-0.642698	101.459682
9.400000	-0.801283	68.076829	-34.716910	177.521654	-34.716910	177.521654	-0.654218	99.689932
9.450000	-0.832476	65.254082	-34.149782	171.060662	-34.149782	171.060662	-0.666971	97.906128
9.500000	-0.871505	62.319443	-33.523535	164.531018	-33.523535	164.531018	-0.681346	96.107267
9.550000	-0.922527	59.233904	-32.847159	157.975478	-32.847159	157.975478	-0.697910	94.292239
9.600000	-0.992937	55.940090	-32.142610	151.480857	-32.142610	151.480857	-0.717445	92.460321
9.650000	-1.099328	52.337153	-31.448186	145.288176	-31.448186	145.288176	-0.741284	90.610790
9.700000	-1.286479	48.260179	-30.825759	140.242679	-30.825759	140.242679	-0.771917	88.745329
9.750000	-1.687376	43.675261	-30.195651	139.236038	-30.195651	139.236038	-0.813797	86.881402
9.800000	-2.569418	40.734321	-28.087533	144.419492	-28.087533	144.419492	-0.868282	85.102401
9.850000	-3.098104	43.592024	-24.305275	134.603901	-24.305275	134.603901	-0.912252	83.397498
9.900000	-2.942187	43.113663	-22.157630	116.305014	-22.157630	116.305014	-0.965873	81.622621
9.950000	-3.144783	40.318403	-20.675526	99.917169	-20.675526	99.917169	-1.043161	79.958252
10.000000	-3.722348	38.601420	-19.341456	83.503434	-19.341456	83.503434	-1.129189	78.551981
