! freq	dB(S11)	phase(S11)	dB(S12)	phase(S12)	
!     	dB(S21)	phase(S21)	dB(S22)	phase(S22)	
!S-par simulation data
#  GHz  S  DB  R 50
0.000000	-0.000000	-0.000000	-388.907679	180.000000	-388.907679	180.000000	-0.000000	-0.000000
0.050000	-0.000099	-0.893009	-90.698617	-179.402950	-90.698617	-179.402950	-0.000112	-0.893700
0.100000	-0.000393	-1.785796	-90.527509	169.391715	-90.527509	169.391715	-0.000445	-1.787113
0.150000	-0.000872	-2.678153	-90.348110	161.096906	-90.348110	161.096906	-0.000981	-2.679979
0.200000	-0.001521	-3.569903	-90.131036	153.837370	-90.131036	153.837370	-0.001698	-3.572089
0.250000	-0.002331	-4.460836	-89.884901	147.318778	-89.884901	147.318778	-0.002578	-4.463216
0.300000	-0.003269	-5.350898	-89.627603	141.375014	-89.627603	141.375014	-0.003580	-5.353334
0.350000	-0.004319	-6.239960	-89.371641	135.986815	-89.371641	135.986815	-0.004682	-6.242338
0.400000	-0.005462	-7.127956	-89.129437	131.118402	-89.129437	131.118402	-0.005861	-7.130195
0.450000	-0.006678	-8.014841	-88.911442	126.739274	-88.911442	126.739274	-0.007096	-8.016903
0.500000	-0.007948	-8.900595	-88.726277	122.823494	-88.726277	122.823494	-0.008369	-8.902476
0.550000	-0.009258	-9.785213	-88.581049	119.351216	-88.581049	119.351216	-0.009666	-9.786939
0.600000	-0.010593	-10.668703	-88.481717	116.310619	-88.481717	116.310619	-0.010977	-10.670320
0.650000	-0.011943	-11.551079	-88.433413	113.699940	-88.433413	113.699940	-0.012293	-11.552647
0.700000	-0.013298	-12.432361	-88.440690	111.529714	-88.440690	111.529714	-0.013609	-12.433945
0.750000	-0.014652	-13.312570	-88.507646	109.825558	-88.507646	109.825558	-0.014921	-13.314235
0.800000	-0.015998	-14.191725	-88.637875	108.631870	-88.637875	108.631870	-0.016225	-14.193533
0.850000	-0.017334	-15.069844	-88.834125	108.016829	-88.834125	108.016829	-0.017520	-15.071850
0.900000	-0.018656	-15.946942	-89.097487	108.078933	-89.097487	108.078933	-0.018804	-15.949192
0.950000	-0.019963	-16.823030	-89.425733	108.954782	-89.425733	108.954782	-0.020077	-16.825560
1.000000	-0.021253	-17.698115	-89.810234	110.826098	-89.810234	110.826098	-0.021338	-17.700954
1.050000	-0.022527	-18.572202	-90.230632	113.919818	-90.230632	113.919818	-0.022587	-18.575369
1.100000	-0.023785	-19.445291	-90.646720	118.486508	-90.646720	118.486508	-0.023825	-19.448797
1.150000	-0.025027	-20.317378	-90.989074	124.729962	-90.989074	124.729962	-0.025050	-20.321230
1.200000	-0.026253	-21.188458	-91.156132	132.658856	-91.156132	132.658856	-0.026265	-21.192657
1.250000	-0.027465	-22.058523	-91.033878	141.885641	-91.033878	141.885641	-0.027468	-22.063065
1.300000	-0.028663	-22.927517	-90.529351	151.521192	-90.529351	151.521192	-0.028661	-22.932394
1.350000	-0.029848	-23.795471	-89.676390	160.481100	-89.676390	160.481100	-0.029844	-23.800675
1.400000	-0.031022	-24.662371	-88.571171	168.071922	-88.571171	168.071922	-0.031017	-24.667890
1.450000	-0.032185	-25.528201	-87.327344	174.072353	-87.327344	174.072353	-0.032182	-25.534025
1.500000	-0.033339	-26.392945	-86.034830	178.585346	-86.034830	178.585346	-0.033339	-26.399061
1.550000	-0.034484	-27.256584	-84.750441	-178.151796	-84.750441	-178.151796	-0.034488	-27.262981
1.600000	-0.035621	-28.119100	-83.504817	-175.885567	-83.504817	-175.885567	-0.035630	-28.125766
1.650000	-0.036753	-28.980476	-82.311991	-174.395612	-82.311991	-174.395612	-0.036766	-28.987400
1.700000	-0.037878	-29.840690	-81.176611	-173.506123	-81.176611	-173.506123	-0.037897	-29.847862
1.750000	-0.038999	-30.699724	-80.098414	-173.081947	-80.098414	-173.081947	-0.039023	-30.707134
1.800000	-0.040115	-31.557558	-79.074775	-173.020593	-79.074775	-173.020593	-0.040145	-31.565198
1.850000	-0.041229	-32.414172	-78.102072	-173.244470	-78.102072	-173.244470	-0.041263	-32.422034
1.900000	-0.042340	-33.269546	-77.176403	-173.694570	-77.176403	-173.694570	-0.042378	-33.277623
1.950000	-0.043449	-34.123660	-76.293936	-174.325674	-76.293936	-174.325674	-0.043492	-34.131946
2.000000	-0.044557	-34.976494	-75.451078	-175.102817	-75.451078	-175.102817	-0.044604	-34.984985
2.050000	-0.045665	-35.828030	-74.644536	-175.998706	-74.644536	-175.998706	-0.045715	-35.836720
2.100000	-0.046773	-36.678247	-73.871329	-176.991840	-73.871329	-176.991840	-0.046825	-36.687133
2.150000	-0.047883	-37.527127	-73.128778	-178.065126	-73.128778	-178.065126	-0.047937	-37.536205
2.200000	-0.048993	-38.374651	-72.414480	-179.204861	-72.414480	-179.204861	-0.049049	-38.383919
2.250000	-0.050106	-39.220800	-71.726282	179.600024	-71.726282	179.600024	-0.050163	-39.230256
2.300000	-0.051221	-40.065556	-71.062254	178.358536	-71.062254	178.358536	-0.051279	-40.075199
2.350000	-0.052340	-40.908902	-70.420664	177.078055	-70.420664	177.078055	-0.052398	-40.918730
2.400000	-0.053462	-41.750820	-69.799953	175.764657	-69.799953	175.764657	-0.053520	-41.760832
2.450000	-0.054588	-42.591294	-69.198715	174.423379	-69.198715	174.423379	-0.054646	-42.601489
2.500000	-0.055720	-43.430307	-68.615679	173.058410	-68.615679	173.058410	-0.055776	-43.440685
2.550000	-0.056856	-44.267778	-68.048830	171.672515	-68.048830	171.672515	-0.056912	-44.278339
2.600000	-0.057998	-45.103755	-67.498073	170.269591	-67.498073	170.269591	-0.058053	-45.114499
2.650000	-0.059146	-45.938224	-66.962445	168.852061	-66.962445	168.852061	-0.059200	-45.949151
2.700000	-0.060301	-46.771170	-66.441066	167.421972	-66.441066	167.421972	-0.060353	-46.782280
2.750000	-0.061463	-47.602579	-65.933133	165.981059	-65.933133	165.981059	-0.061513	-47.613872
2.800000	-0.062632	-48.432438	-65.437910	164.530795	-65.437910	164.530795	-0.062681	-48.443914
2.850000	-0.063809	-49.260734	-64.954721	163.072434	-64.954721	163.072434	-0.063856	-49.272394
2.900000	-0.064995	-50.087455	-64.482944	161.607043	-64.482944	161.607043	-0.065040	-50.099299
2.950000	-0.066188	-50.912589	-64.022006	160.135529	-64.022006	160.135529	-0.066232	-50.924617
3.000000	-0.067391	-51.736126	-63.571378	158.658667	-63.571378	158.658667	-0.067433	-51.748338
3.050000	-0.068604	-52.558054	-63.130570	157.177116	-63.130570	157.177116	-0.068643	-52.570451
3.100000	-0.069826	-53.378363	-62.699128	155.691437	-62.699128	155.691437	-0.069863	-53.390945
3.150000	-0.071058	-54.197045	-62.276632	154.202108	-62.276632	154.202108	-0.071094	-54.209812
3.200000	-0.072301	-55.014090	-61.862691	152.709535	-61.862691	152.709535	-0.072335	-55.027042
3.250000	-0.073555	-55.829490	-61.456940	151.214062	-61.456940	151.214062	-0.073588	-55.842627
3.300000	-0.074820	-56.643237	-61.059041	149.715981	-61.059041	149.715981	-0.074851	-56.656559
3.350000	-0.076097	-57.455325	-60.668679	148.215539	-60.668679	148.215539	-0.076127	-57.468832
3.400000	-0.077386	-58.265747	-60.285558	146.712943	-60.285558	146.712943	-0.077415	-58.279438
3.450000	-0.078687	-59.074496	-59.909404	145.208369	-59.909404	145.208369	-0.078715	-59.088372
3.500000	-0.080001	-59.881568	-59.539958	143.701963	-59.539958	143.701963	-0.080028	-59.895628
3.550000	-0.081329	-60.686958	-59.176980	142.193850	-59.176980	142.193850	-0.081355	-60.701202
3.600000	-0.082670	-61.490662	-58.820243	140.684132	-58.820243	140.684132	-0.082695	-61.505089
3.650000	-0.084025	-62.292675	-58.469536	139.172896	-58.469536	139.172896	-0.084050	-62.307285
3.700000	-0.085395	-63.092995	-58.124660	137.660214	-58.124660	137.660214	-0.085419	-63.107788
3.750000	-0.086779	-63.891619	-57.785429	136.146147	-57.785429	136.146147	-0.086803	-63.906595
3.800000	-0.088179	-64.688473	-57.451348	134.630692	-57.451348	134.630692	-0.088203	-64.703630
3.850000	-0.089595	-65.483627	-57.122594	133.113952	-57.122594	133.113952	-0.089618	-65.498965
3.900000	-0.091026	-66.277082	-56.799008	131.595965	-56.799008	131.595965	-0.091050	-66.292600
3.950000	-0.092474	-67.068836	-56.480445	130.076766	-56.480445	130.076766	-0.092498	-67.084535
4.000000	-0.093939	-67.858892	-56.166766	128.556387	-56.166766	128.556387	-0.093964	-67.874770
4.050000	-0.095421	-68.647249	-55.857840	127.034859	-55.857840	127.034859	-0.095446	-68.663306
4.100000	-0.096921	-69.433909	-55.553545	125.512213	-55.553545	125.512213	-0.096946	-69.450144
4.150000	-0.098438	-70.218874	-55.253763	123.988479	-55.253763	123.988479	-0.098465	-70.235287
4.200000	-0.099981	-71.001560	-54.956439	122.463338	-54.956439	122.463338	-0.100008	-71.018149
4.250000	-0.101534	-71.783363	-54.666132	120.937658	-54.666132	120.937658	-0.101562	-71.800130
4.300000	-0.103110	-72.563117	-54.378843	119.410800	-54.378843	119.410800	-0.103139	-72.580059
4.350000	-0.104703	-73.341407	-54.096348	117.883101	-54.096348	117.883101	-0.104733	-73.358524
4.400000	-0.106318	-74.117949	-53.817650	116.354486	-53.817650	116.354486	-0.106349	-74.135241
4.450000	-0.107953	-74.892745	-53.542675	114.824956	-53.542675	114.824956	-0.107986	-74.910210
4.500000	-0.109608	-75.666094	-53.272172	113.294757	-53.272172	113.294757	-0.109642	-75.683734
4.550000	-0.111288	-76.437420	-53.004454	111.763622	-53.004454	111.763622	-0.111323	-76.455233
4.600000	-0.112984	-77.207600	-52.741786	110.232042	-52.741786	110.232042	-0.113021	-77.225585
4.650000	-0.114711	-77.975486	-52.481090	108.699570	-52.481090	108.699570	-0.114749	-77.993643
4.700000	-0.116450	-78.742520	-52.225928	107.166841	-52.225928	107.166841	-0.116490	-78.760849
4.750000	-0.118226	-79.507000	-51.972038	105.633343	-51.972038	105.633343	-0.118267	-79.525500
4.800000	-0.120010	-80.270918	-51.724080	104.099731	-51.724080	104.099731	-0.120052	-80.289589
4.850000	-0.121836	-81.032030	-51.476796	102.565559	-51.476796	102.565559	-0.121880	-81.050871
4.900000	-0.123667	-81.792864	-51.235765	101.031363	-51.235765	101.031363	-0.123713	-81.811875
4.950000	-0.125546	-82.550649	-50.994902	99.496913	-50.994902	99.496913	-0.125593	-82.569830
5.000000	-0.127425	-83.308434	-50.760538	97.962462	-50.760538	97.962462	-0.127475	-83.327785
5.050000	-0.129359	-84.062938	-50.525922	96.428167	-50.525922	96.428167	-0.129410	-84.082459
5.100000	-0.131294	-84.817443	-50.297477	94.893872	-50.297477	94.893872	-0.131346	-84.837134
5.150000	-0.133280	-85.568987	-50.069448	93.360147	-50.069448	93.360147	-0.133334	-85.588848
5.200000	-0.135272	-86.320262	-49.846771	91.826474	-49.846771	91.826474	-0.135328	-86.340292
5.250000	-0.137313	-87.068890	-49.625092	90.293733	-49.625092	90.293733	-0.137370	-87.089090
5.300000	-0.139364	-87.816989	-49.408039	88.761178	-49.408039	88.761178	-0.139423	-87.837358
5.350000	-0.141462	-88.562749	-49.192481	87.229849	-49.192481	87.229849	-0.141522	-88.583288
5.400000	-0.143575	-89.307729	-48.980909	85.698928	-48.980909	85.698928	-0.143636	-89.328438
5.450000	-0.145730	-90.050671	-48.771255	84.169450	-48.771255	84.169450	-0.145793	-90.071551
5.500000	-0.147907	-90.792594	-48.565022	82.640693	-48.565022	82.640693	-0.147972	-90.813644
5.550000	-0.150123	-91.532771	-48.361060	81.113511	-48.361060	81.113511	-0.150189	-91.553993
5.600000	-0.152366	-92.271702	-48.160024	79.587453	-48.160024	79.587453	-0.152434	-92.293095
5.650000	-0.154644	-93.009170	-47.961550	78.063011	-47.961550	78.063011	-0.154713	-93.030735
5.700000	-0.156956	-93.745177	-47.765568	76.540184	-47.765568	76.540184	-0.157026	-93.766914
5.750000	-0.159298	-94.479994	-47.572383	75.018919	-47.572383	75.018919	-0.159369	-94.501905
5.800000	-0.161681	-95.213148	-47.381308	73.499843	-47.381308	73.499843	-0.161753	-95.235232
5.850000	-0.164089	-95.945375	-47.193217	71.982182	-47.193217	71.982182	-0.164162	-95.967634
5.900000	-0.166546	-96.675751	-47.006901	70.467354	-47.006901	70.467354	-0.166620	-96.698185
5.950000	-0.169022	-97.405451	-46.823713	68.953705	-46.823713	68.953705	-0.169097	-97.428061
6.000000	-0.171554	-98.133127	-46.642003	67.443593	-46.642003	67.443593	-0.171630	-98.155913
6.050000	-0.174100	-98.860366	-46.463531	65.934340	-46.463531	65.934340	-0.174176	-98.883329
6.100000	-0.176711	-99.585422	-46.286273	64.429376	-46.286273	64.429376	-0.176787	-99.608564
6.150000	-0.179329	-100.310267	-46.112332	62.924874	-46.112332	62.924874	-0.179406	-100.333588
6.200000	-0.182020	-101.032788	-45.939366	61.425442	-45.939366	61.425442	-0.182097	-101.056291
6.250000	-0.184711	-101.755309	-45.769776	59.926011	-45.769776	59.926011	-0.184789	-101.778993
6.300000	-0.187485	-102.475382	-45.600940	58.432443	-45.600940	58.432443	-0.187563	-102.499249
6.350000	-0.190260	-103.195454	-45.435324	56.938876	-45.435324	56.938876	-0.190338	-103.219505
6.400000	-0.193111	-103.913365	-45.270654	55.450934	-45.270654	55.450934	-0.193189	-103.937602
6.450000	-0.195971	-104.631080	-45.108857	53.963503	-45.108857	53.963503	-0.196048	-104.655502
6.500000	-0.198902	-105.346906	-44.948168	52.481360	-44.948168	52.481360	-0.198980	-105.371517
6.550000	-0.201849	-106.062354	-44.790035	51.000274	-44.790035	51.000274	-0.201926	-106.087154
6.600000	-0.204862	-106.776175	-44.633144	49.524051	-44.633144	49.524051	-0.204938	-106.801166
6.650000	-0.207898	-107.489454	-44.478518	48.049450	-44.478518	48.049450	-0.207974	-107.514636
6.700000	-0.210994	-108.201351	-44.325248	46.579214	-44.325248	46.579214	-0.211070	-108.226727
6.750000	-0.214121	-108.912557	-44.173973	45.111162	-44.173973	45.111162	-0.214196	-108.938128
6.800000	-0.217303	-109.622614	-44.024152	43.646926	-44.024152	43.646926	-0.217377	-109.648381
6.850000	-0.220524	-110.331850	-43.876074	42.185415	-43.876074	42.185415	-0.220596	-110.357815
6.900000	-0.223792	-111.040152	-43.729535	40.727131	-43.729535	40.727131	-0.223863	-111.066316
6.950000	-0.227108	-111.747520	-43.584500	39.272074	-43.584500	39.272074	-0.227178	-111.773886
7.000000	-0.230464	-112.454155	-43.441083	37.819638	-43.441083	37.819638	-0.230533	-112.480724
7.050000	-0.233878	-113.159763	-43.298943	36.370872	-43.298943	36.370872	-0.233945	-113.186536
7.100000	-0.237324	-113.864820	-43.158493	34.924121	-43.158493	34.924121	-0.237390	-113.891799
7.150000	-0.240836	-114.568776	-43.019102	33.481403	-43.019102	33.481403	-0.240900	-114.595964
7.200000	-0.244373	-115.272348	-42.881472	32.040116	-42.881472	32.040116	-0.244435	-115.299745
7.250000	-0.247985	-115.974765	-42.744691	30.603127	-42.744691	30.603127	-0.248045	-116.002374
7.300000	-0.251615	-116.676945	-42.609743	29.167026	-42.609743	29.167026	-0.251673	-116.704767
7.350000	-0.255329	-117.377938	-42.475440	27.735371	-42.475440	27.735371	-0.255385	-117.405975
7.400000	-0.259053	-118.078822	-42.343040	26.304121	-42.343040	26.304121	-0.259106	-118.107075
7.450000	-0.262869	-118.778508	-42.211092	24.877332	-42.211092	24.877332	-0.262921	-118.806980
7.500000	-0.266688	-119.478193	-42.081118	23.450543	-42.081118	23.450543	-0.266737	-119.506886
7.550000	-0.270609	-120.176693	-41.951409	22.028083	-41.951409	22.028083	-0.270655	-120.205609
7.600000	-0.274531	-120.875193	-41.823609	20.605623	-41.823609	20.605623	-0.274575	-120.904331
7.650000	-0.278548	-121.572718	-41.696173	19.186577	-41.696173	19.186577	-0.278589	-121.602083
7.700000	-0.282576	-122.270155	-41.570446	17.767841	-41.570446	17.767841	-0.282614	-122.299747
7.750000	-0.286690	-122.966811	-41.445185	16.351653	-41.445185	16.351653	-0.286725	-122.996634
7.800000	-0.290823	-123.663312	-41.321442	14.935975	-41.321442	14.935975	-0.290855	-123.693365
7.850000	-0.295035	-124.359207	-41.198270	13.522046	-41.198270	13.522046	-0.295064	-124.389494
7.900000	-0.299274	-125.054901	-41.076435	12.108701	-41.076435	12.108701	-0.299300	-125.085421
7.950000	-0.303583	-125.750145	-40.955276	10.696394	-40.955276	10.696394	-0.303607	-125.780902
8.000000	-0.307929	-126.445164	-40.835286	9.284606	-40.835286	9.284606	-0.307949	-126.476159
8.050000	-0.312336	-127.139869	-40.716078	7.873247	-40.716078	7.873247	-0.312353	-127.171105
8.100000	-0.316787	-127.834350	-40.597884	6.462193	-40.597884	6.462193	-0.316801	-127.865827
8.150000	-0.321292	-128.528631	-40.480577	5.051076	-40.480577	5.051076	-0.321303	-128.560351
8.200000	-0.325849	-129.222713	-40.364144	3.639896	-40.364144	3.639896	-0.325857	-129.254678
8.250000	-0.330451	-129.916688	-40.248701	2.228290	-40.248701	2.228290	-0.330455	-129.948899
8.300000	-0.335113	-130.610514	-40.134013	0.816089	-40.134013	0.816089	-0.335115	-130.642973
8.350000	-0.339811	-131.304303	-40.020410	-0.596757	-40.020410	-0.596757	-0.339810	-131.337010
8.400000	-0.344578	-131.998018	-39.907467	-2.010895	-39.907467	-2.010895	-0.344573	-132.030977
8.450000	-0.349371	-132.691744	-39.795694	-3.425751	-39.795694	-3.425751	-0.349364	-132.724954
8.500000	-0.354240	-133.385500	-39.684515	-4.842757	-39.684515	-4.842757	-0.354230	-133.418963
8.550000	-0.359128	-134.079288	-39.574576	-6.260397	-39.574576	-6.260397	-0.359115	-134.113005
8.600000	-0.364097	-134.773238	-39.465198	-7.681207	-39.465198	-7.681207	-0.364082	-134.807211
8.650000	-0.369077	-135.467218	-39.357111	-9.102412	-39.357111	-9.102412	-0.369060	-135.501447
8.700000	-0.374145	-136.161521	-39.249593	-10.527953	-39.249593	-10.527953	-0.374126	-136.196007
8.750000	-0.379217	-136.855823	-39.143391	-11.953494	-39.143391	-11.953494	-0.379195	-136.890567
8.800000	-0.384380	-137.550641	-39.037813	-13.384674	-39.037813	-13.384674	-0.384358	-137.585644
8.850000	-0.389547	-138.245459	-38.933503	-14.815854	-38.933503	-14.815854	-0.389523	-138.280721
8.900000	-0.394796	-138.940901	-38.830004	-16.253005	-38.830004	-16.253005	-0.394771	-138.976424
8.950000	-0.400055	-139.636401	-38.727685	-17.690698	-38.727685	-17.690698	-0.400030	-139.672184
9.000000	-0.405386	-140.332612	-38.626351	-19.134507	-38.626351	-19.134507	-0.405361	-140.368656
9.050000	-0.410734	-141.028966	-38.526145	-20.579540	-38.526145	-20.579540	-0.410710	-141.065270
9.100000	-0.416144	-141.726092	-38.427077	-22.030646	-38.427077	-22.030646	-0.416120	-141.762657
9.150000	-0.421576	-142.423475	-38.329125	-23.483778	-38.329125	-23.483778	-0.421554	-142.460302
9.200000	-0.427060	-143.121667	-38.232440	-24.942761	-38.232440	-24.942761	-0.427040	-143.158753
9.250000	-0.432572	-143.820263	-38.136905	-26.404670	-38.136905	-26.404670	-0.432554	-143.857609
9.300000	-0.438126	-144.519675	-38.042734	-27.872035	-38.042734	-27.872035	-0.438111	-144.557280
9.350000	-0.443711	-145.219670	-37.949801	-29.343297	-37.949801	-29.343297	-0.443700	-145.257534
9.400000	-0.449330	-145.920462	-37.858289	-30.819464	-37.858289	-30.819464	-0.449324	-145.958583
9.450000	-0.454982	-146.622049	-37.768163	-32.300536	-37.768163	-32.300536	-0.454982	-146.660426
9.500000	-0.460660	-147.324383	-37.679469	-33.785825	-37.679469	-33.785825	-0.460666	-147.363014
9.550000	-0.466372	-148.027762	-37.592372	-35.277020	-37.592372	-35.277020	-0.466386	-148.066646
9.600000	-0.472103	-148.731806	-37.506666	-36.771640	-37.506666	-36.771640	-0.472126	-148.770941
9.650000	-0.477868	-149.437181	-37.422839	-38.273111	-37.422839	-38.273111	-0.477900	-149.476565
9.700000	-0.483645	-150.143109	-37.340303	-39.777144	-37.340303	-39.777144	-0.483688	-150.182739
9.750000	-0.489452	-150.850692	-37.260000	-41.288863	-37.260000	-41.288863	-0.489508	-150.890565
9.800000	-0.495267	-151.558680	-37.180824	-42.802253	-37.180824	-42.802253	-0.495336	-151.598795
9.850000	-0.501107	-152.268691	-37.104309	-44.323993	-37.104309	-44.323993	-0.501192	-152.309041
9.900000	-0.506953	-152.978923	-37.028692	-45.846531	-37.028692	-45.846531	-0.507054	-153.019508
9.950000	-0.512815	-153.691587	-36.956237	-47.377848	-36.956237	-47.377848	-0.512935	-153.732400
10.000000	-0.518681	-154.404250	-36.884382	-48.909165	-36.884382	-48.909165	-0.518821	-154.445291
