! freq	dB(S11)	phase(S11)	dB(S12)	phase(S12)	
!     	dB(S21)	phase(S21)	dB(S22)	phase(S22)	
!S-par simulation data
#  GHz  S  DB  R 50
0.000000	-0.000000	0.000000	-305.924439	0.000000	-305.924439	0.000000	0.000000	0.000000
0.050000	-0.001458	-2.379817	-79.667288	87.099540	-79.667288	87.099540	-0.002376	-3.502634
0.100000	-0.005092	-4.749469	-73.667730	84.203519	-73.667730	84.203519	-0.007850	-6.985194
0.150000	-0.009555	-7.105829	-70.181633	81.316331	-70.181633	81.316331	-0.013938	-10.444716
0.200000	-0.013933	-9.451881	-67.731154	78.441213	-67.731154	78.441213	-0.019548	-13.887676
0.250000	-0.017893	-11.790356	-65.855192	75.582111	-65.855192	75.582111	-0.024555	-17.317435
0.300000	-0.021411	-14.123132	-64.348093	72.742818	-64.348093	72.742818	-0.029121	-20.734968
0.350000	-0.024583	-16.451048	-63.098525	69.926115	-63.098525	69.926115	-0.033422	-24.140053
0.400000	-0.027495	-18.773948	-62.041119	67.135587	-62.041119	67.135587	-0.037558	-27.531248
0.450000	-0.030218	-21.091040	-61.135268	64.376281	-61.135268	64.376281	-0.041578	-30.906148
0.500000	-0.032819	-23.401896	-60.349999	61.650383	-60.349999	61.650383	-0.045514	-34.263836
0.550000	-0.035337	-25.705775	-59.664685	58.961540	-59.664685	58.961540	-0.049374	-37.602709
0.600000	-0.037801	-28.001533	-59.065813	56.315598	-59.065813	56.315598	-0.053155	-40.920216
0.650000	-0.040233	-30.288696	-58.540367	53.715128	-58.540367	53.715128	-0.056859	-44.215608
0.700000	-0.042647	-32.566667	-58.078929	51.163659	-58.078929	51.163659	-0.060484	-47.487804
0.750000	-0.045053	-34.834486	-57.675396	48.667066	-57.675396	48.667066	-0.064024	-50.734830
0.800000	-0.047457	-37.091539	-57.323799	46.229823	-57.323799	46.229823	-0.067478	-53.955606
0.850000	-0.049861	-39.337372	-57.018899	43.855974	-57.018899	43.855974	-0.070845	-57.149447
0.900000	-0.052265	-41.571481	-56.756615	41.550327	-56.756615	41.550327	-0.074125	-60.315551
0.950000	-0.054671	-43.793321	-56.533701	39.318448	-56.533701	39.318448	-0.077317	-63.453045
1.000000	-0.057074	-46.002431	-56.347257	37.166038	-56.347257	37.166038	-0.080421	-66.561273
1.050000	-0.059473	-48.198388	-56.194759	35.099231	-56.194759	35.099231	-0.083437	-69.639687
1.100000	-0.061865	-50.380802	-56.073971	33.124646	-56.073971	33.124646	-0.086365	-72.687845
1.150000	-0.064246	-52.549320	-55.982877	31.249453	-55.982877	31.249453	-0.089207	-75.705402
1.200000	-0.066612	-54.703622	-55.919612	29.481432	-55.919612	29.481432	-0.091963	-78.692110
1.250000	-0.068961	-56.843422	-55.882415	27.829025	-55.882415	27.829025	-0.094635	-81.647811
1.300000	-0.071288	-58.968138	-55.870053	26.304326	-55.870053	26.304326	-0.097221	-84.571757
1.350000	-0.073590	-61.077864	-55.880220	24.914773	-55.880220	24.914773	-0.099724	-87.464632
1.400000	-0.075864	-63.172405	-55.911100	23.671046	-55.911100	23.671046	-0.102147	-90.326523
1.450000	-0.078108	-65.251599	-55.960742	22.584522	-55.960742	22.584522	-0.104492	-93.157581
1.500000	-0.080319	-67.315308	-56.027000	21.667156	-56.027000	21.667156	-0.106761	-95.958022
1.550000	-0.082496	-69.363421	-56.107455	20.931292	-56.107455	20.931292	-0.108955	-98.728120
1.600000	-0.084636	-71.395853	-56.199348	20.389340	-56.199348	20.389340	-0.111078	-101.468199
1.650000	-0.086739	-73.412543	-56.299507	20.053315	-56.299507	20.053315	-0.113132	-104.178632
1.700000	-0.088804	-75.413451	-56.404277	19.934174	-56.404277	19.934174	-0.115119	-106.859833
1.750000	-0.090830	-77.398563	-56.509471	20.040950	-56.509471	20.040950	-0.117044	-109.512254
1.800000	-0.092817	-79.367881	-56.610357	20.379656	-56.610357	20.379656	-0.118910	-112.136381
1.850000	-0.094766	-81.321430	-56.701676	20.951989	-56.701676	20.951989	-0.120718	-114.732729
1.900000	-0.096675	-83.259082	-56.777509	21.756293	-56.777509	21.756293	-0.122473	-117.301550
1.950000	-0.098547	-85.180900	-56.831739	22.780750	-56.831739	22.780750	-0.124177	-119.843424
2.000000	-0.100382	-87.087132	-56.858655	24.002877	-56.858655	24.002877	-0.125835	-122.359230
2.050000	-0.102181	-88.977874	-56.852790	25.393924	-56.852790	25.393924	-0.127450	-124.849564
2.100000	-0.103947	-90.853231	-56.809495	26.916761	-56.809495	26.916761	-0.129025	-127.315035
2.150000	-0.105680	-92.713326	-56.725341	28.527293	-56.725341	28.527293	-0.130564	-129.756260
2.200000	-0.107382	-94.558292	-56.598437	30.176844	-56.598437	30.176844	-0.132070	-132.173865
2.250000	-0.109055	-96.388276	-56.428600	31.815249	-56.428600	31.815249	-0.133546	-134.568480
2.300000	-0.110701	-98.203434	-56.217342	33.394184	-56.217342	33.394184	-0.134996	-136.940735
2.350000	-0.112322	-100.003933	-55.967678	34.870203	-55.967678	34.870203	-0.136421	-139.291265
2.400000	-0.113920	-101.789950	-55.683790	36.207025	-55.683790	36.207025	-0.137826	-141.620700
2.450000	-0.115498	-103.561669	-55.370622	37.376830	-55.370622	37.376830	-0.139213	-143.929671
2.500000	-0.117057	-105.319282	-55.033473	38.360545	-55.033473	38.360545	-0.140585	-146.218803
2.550000	-0.118600	-107.062692	-54.677014	39.142931	-54.677014	39.142931	-0.141943	-148.488312
2.600000	-0.120128	-108.792412	-54.307042	39.724691	-54.307042	39.724691	-0.143292	-150.739245
2.650000	-0.121646	-110.508655	-53.928100	40.108044	-53.928100	40.108044	-0.144632	-152.972208
2.700000	-0.123153	-112.211638	-53.544163	40.299370	-53.544163	40.299370	-0.145966	-155.187800
2.750000	-0.124654	-113.901583	-53.158620	40.307927	-53.158620	40.307927	-0.147296	-157.386609
2.800000	-0.126149	-115.578718	-52.774286	40.144777	-52.774286	40.144777	-0.148624	-159.569217
2.850000	-0.127641	-117.243272	-52.393450	39.821938	-52.393450	39.821938	-0.149951	-161.736193
2.900000	-0.129132	-118.895478	-52.017934	39.351743	-52.017934	39.351743	-0.151279	-163.888098
2.950000	-0.130624	-120.535573	-51.649160	38.746388	-51.649160	38.746388	-0.152610	-166.025479
3.000000	-0.132119	-122.163794	-51.288211	38.017621	-51.288211	38.017621	-0.153944	-168.148874
3.050000	-0.133619	-123.780382	-50.935892	37.176557	-50.935892	37.176557	-0.155282	-170.258808
3.100000	-0.135125	-125.385579	-50.592778	36.233562	-50.592778	36.233562	-0.156626	-172.355796
3.150000	-0.136639	-126.979508	-50.259231	35.197310	-50.259231	35.197310	-0.157976	-174.440208
3.200000	-0.138164	-128.562423	-49.935524	34.076855	-49.935524	34.076855	-0.159334	-176.512551
3.250000	-0.139699	-130.134689	-49.621817	32.881153	-49.621817	32.881153	-0.160699	-178.573436
3.300000	-0.141248	-131.696550	-49.318141	31.617430	-49.318141	31.617430	-0.162072	179.376675
3.350000	-0.142811	-133.248251	-49.024457	30.292231	-49.024457	30.292231	-0.163453	177.337330
3.400000	-0.144390	-134.790037	-48.740675	28.911472	-48.740675	28.911472	-0.164843	175.308091
3.450000	-0.145985	-136.322151	-48.466667	27.480496	-48.466667	27.480496	-0.166241	173.288533
3.500000	-0.147598	-137.844837	-48.202275	26.004124	-48.202275	26.004124	-0.167648	171.278243
3.550000	-0.149230	-139.358338	-47.947320	24.486703	-47.947320	24.486703	-0.169064	169.276821
3.600000	-0.150882	-140.862894	-47.701612	22.932157	-47.701612	22.932157	-0.170488	167.283880
3.650000	-0.152554	-142.358747	-47.464952	21.344024	-47.464952	21.344024	-0.171920	165.299045
3.700000	-0.154248	-143.846134	-47.237136	19.725498	-47.237136	19.725498	-0.173360	163.321953
3.750000	-0.155965	-145.325294	-47.017960	18.079465	-47.017960	18.079465	-0.174807	161.352256
3.800000	-0.157704	-146.796294	-46.807296	16.408047	-46.807296	16.408047	-0.176262	159.389761
3.850000	-0.159468	-148.259548	-46.604880	14.714185	-46.604880	14.714185	-0.177722	157.433984
3.900000	-0.161255	-149.715286	-46.410518	13.000003	-46.410518	13.000003	-0.179189	155.484612
3.950000	-0.163067	-151.163741	-46.224022	11.267424	-46.224022	11.267424	-0.180660	153.541347
4.000000	-0.164903	-152.605139	-46.045210	9.518195	-46.045210	9.518195	-0.182136	151.603901
4.050000	-0.166765	-154.039708	-45.873911	7.753906	-45.873911	7.753906	-0.183616	149.671998
4.100000	-0.168651	-155.467671	-45.709957	5.976001	-45.709957	5.976001	-0.185098	147.745375
4.150000	-0.170564	-156.889251	-45.553194	4.185796	-45.553194	4.185796	-0.186582	145.823779
4.200000	-0.172504	-158.304082	-45.403905	2.383504	-45.403905	2.383504	-0.188068	143.907420
4.250000	-0.174468	-159.713511	-45.261146	0.572210	-45.261146	0.572210	-0.189554	141.995196
4.300000	-0.176458	-161.117213	-45.125160	-1.248064	-45.125160	-1.248064	-0.191039	140.087311
4.350000	-0.178473	-162.515400	-44.995825	-3.076396	-44.995825	-3.076396	-0.192523	138.183559
4.400000	-0.180510	-163.908948	-44.872404	-4.911105	-44.872404	-4.911105	-0.194005	136.283257
4.450000	-0.182576	-165.296654	-44.756081	-6.753237	-44.756081	-6.753237	-0.195483	134.387262
4.500000	-0.184667	-166.679474	-44.646096	-8.601055	-44.646096	-8.601055	-0.196958	132.494846
4.550000	-0.186783	-168.057611	-44.542359	-10.453892	-44.542359	-10.453892	-0.198427	130.605847
4.600000	-0.188924	-169.431265	-44.444789	-12.311129	-44.444789	-12.311129	-0.199890	128.720116
4.650000	-0.191089	-170.800633	-44.353314	-14.172186	-44.353314	-14.172186	-0.201347	126.837512
4.700000	-0.193278	-172.165911	-44.267868	-16.036522	-44.267868	-16.036522	-0.202796	124.957908
4.750000	-0.195490	-173.527292	-44.188394	-17.903627	-44.188394	-17.903627	-0.204237	123.081183
4.800000	-0.197726	-174.884966	-44.114841	-19.773020	-44.114841	-19.773020	-0.205669	121.207229
4.850000	-0.199984	-176.239120	-44.047167	-21.644243	-44.047167	-21.644243	-0.207092	119.335947
4.900000	-0.202264	-177.589939	-43.985337	-23.516860	-43.985337	-23.516860	-0.208504	117.467248
4.950000	-0.204566	-178.937607	-43.929323	-25.390453	-43.929323	-25.390453	-0.209904	115.601053
5.000000	-0.206889	179.717697	-43.879104	-27.264616	-43.879104	-27.264616	-0.211294	113.737292
5.050000	-0.209233	178.375852	-43.834787	-29.138953	-43.834787	-29.138953	-0.212671	111.875953
5.100000	-0.211596	177.036619	-43.796246	-31.013067	-43.796246	-31.013067	-0.214035	110.016933
5.150000	-0.213980	175.699825	-43.763483	-32.886583	-43.763483	-32.886583	-0.215387	108.160191
5.200000	-0.216382	174.365300	-43.736505	-34.759128	-43.736505	-34.759128	-0.216725	106.305691
5.250000	-0.218802	173.032877	-43.715326	-36.630332	-43.715326	-36.630332	-0.218051	104.453410
5.300000	-0.221240	171.702392	-43.699967	-38.499823	-43.699967	-38.499823	-0.219362	102.603329
5.350000	-0.223695	170.373682	-43.690458	-40.367228	-43.690458	-40.367228	-0.220660	100.755440
5.400000	-0.226166	169.046587	-43.686835	-42.232169	-43.686835	-42.232169	-0.221945	98.909740
5.450000	-0.228653	167.720950	-43.689141	-44.094262	-43.689141	-44.094262	-0.223217	97.066237
5.500000	-0.231155	166.396617	-43.697428	-45.953113	-43.697428	-45.953113	-0.224475	95.224943
5.550000	-0.233671	165.073435	-43.711754	-47.808320	-43.711754	-47.808320	-0.225721	93.385877
5.600000	-0.236201	163.751253	-43.732187	-49.659466	-43.732187	-49.659466	-0.226954	91.549067
5.650000	-0.238745	162.429934	-43.758870	-51.506067	-43.758870	-51.506067	-0.228176	89.714569
5.700000	-0.241301	161.109326	-43.791887	-53.347659	-43.791887	-53.347659	-0.229387	87.882425
5.750000	-0.243869	159.789279	-43.831266	-55.183824	-43.831266	-55.183824	-0.230588	86.052653
5.800000	-0.246449	158.469653	-43.877109	-57.014073	-43.877109	-57.014073	-0.231780	84.225303
5.850000	-0.249039	157.150310	-43.929530	-58.837891	-43.929530	-58.837891	-0.232964	82.400430
5.900000	-0.251639	155.831116	-43.988652	-60.654738	-43.988652	-60.654738	-0.234141	80.578093
5.950000	-0.254249	154.511939	-44.054610	-62.464045	-44.054610	-62.464045	-0.235313	78.758353
6.000000	-0.256868	153.192649	-44.127552	-64.265207	-44.127552	-64.265207	-0.236481	76.941278
6.050000	-0.259495	151.873118	-44.207637	-66.057583	-44.207637	-66.057583	-0.237647	75.126937
6.100000	-0.262131	150.553223	-44.295042	-67.840492	-44.295042	-67.840492	-0.238813	73.315402
6.150000	-0.264773	149.232841	-44.389956	-69.613204	-44.389956	-69.613204	-0.239980	71.506747
6.200000	-0.267423	147.911853	-44.492586	-71.374941	-44.492586	-71.374941	-0.241152	69.701049
6.250000	-0.270079	146.590141	-44.603158	-73.124864	-44.603158	-73.124864	-0.242330	67.898385
6.300000	-0.272742	145.267570	-44.722062	-74.861772	-44.722062	-74.861772	-0.243517	66.098901
6.350000	-0.275410	143.944045	-44.849421	-76.584939	-44.849421	-76.584939	-0.244716	64.302610
6.400000	-0.278083	142.619457	-44.985528	-78.293300	-44.985528	-78.293300	-0.245929	62.509588
6.450000	-0.280760	141.293699	-45.130702	-79.985692	-45.130702	-79.985692	-0.247161	60.719911
6.500000	-0.283443	139.966595	-45.285665	-81.659858	-45.285665	-81.659858	-0.248415	58.933840
6.550000	-0.286129	138.638168	-45.450130	-83.316074	-45.450130	-83.316074	-0.249694	57.151111
6.600000	-0.288819	137.308268	-45.624814	-84.952065	-45.624814	-84.952065	-0.251002	55.371937
6.650000	-0.291512	135.976798	-45.810179	-86.566111	-45.810179	-86.566111	-0.252344	53.596380
6.700000	-0.294208	134.643667	-46.006735	-88.156296	-46.006735	-88.156296	-0.253724	51.824494
6.750000	-0.296907	133.308785	-46.215047	-89.720470	-46.215047	-89.720470	-0.255147	50.056327
6.800000	-0.299609	131.972066	-46.435738	-91.256214	-46.435738	-91.256214	-0.256620	48.291919
6.850000	-0.302313	130.633426	-46.669503	-92.760781	-46.669503	-92.760781	-0.258147	46.531300
6.900000	-0.305019	129.292785	-46.917117	-94.231040	-46.917117	-94.231040	-0.259735	44.774487
6.950000	-0.307727	127.950065	-47.179442	-95.663395	-47.179442	-95.663395	-0.261392	43.021485
7.000000	-0.310437	126.605193	-47.457450	-97.053693	-47.457450	-97.053693	-0.263125	41.272284
7.050000	-0.313148	125.258097	-47.752230	-98.397097	-47.752230	-98.397097	-0.264942	39.526853
7.100000	-0.315862	123.908709	-48.065013	-99.687938	-48.065013	-99.687938	-0.266854	37.785144
7.150000	-0.318576	122.556965	-48.397196	-100.919512	-48.397196	-100.919512	-0.268871	36.047081
7.200000	-0.321293	121.202804	-48.750361	-102.083833	-48.750361	-102.083833	-0.271004	34.312563
7.250000	-0.324010	119.846167	-49.126320	-103.171294	-49.126320	-103.171294	-0.273268	32.581453
7.300000	-0.326730	118.487115	-49.526823	-104.174961	-49.526823	-104.174961	-0.275670	30.853450
7.350000	-0.329451	117.125343	-49.954973	-105.070557	-49.954973	-105.070557	-0.278242	29.128630
7.400000	-0.332173	115.760943	-50.413105	-105.845283	-50.413105	-105.845283	-0.280999	27.406546
7.450000	-0.334898	114.393872	-50.904379	-106.476747	-50.904379	-106.476747	-0.283962	25.686856
7.500000	-0.337625	113.024090	-51.432439	-106.936474	-51.432439	-106.936474	-0.287159	23.969144
7.550000	-0.340354	111.651501	-52.001589	-107.182122	-52.001589	-107.182122	-0.290631	22.252916
7.600000	-0.343086	110.276133	-52.616412	-107.168377	-52.616412	-107.168377	-0.294411	20.537493
7.650000	-0.345820	108.897958	-53.282168	-106.829914	-53.282168	-106.829914	-0.298548	18.822100
7.700000	-0.348558	107.516952	-54.004446	-106.078314	-54.004446	-106.078314	-0.303100	17.105782
7.750000	-0.351301	106.133096	-54.788601	-104.792129	-54.788601	-104.792129	-0.308143	15.387365
7.800000	-0.354047	104.746376	-55.638420	-102.802671	-55.638420	-102.802671	-0.313766	13.665390
7.850000	-0.356799	103.356780	-56.553157	-99.874939	-56.553157	-99.874939	-0.320089	11.938040
7.900000	-0.359558	101.964301	-57.521268	-95.686679	-57.521268	-95.686679	-0.327264	10.203027
7.950000	-0.362323	100.568940	-58.508118	-89.821104	-58.508118	-89.821104	-0.335491	8.457444
8.000000	-0.365098	99.170698	-59.435356	-81.821722	-59.435356	-81.821722	-0.345042	6.697553
8.050000	-0.367882	97.769585	-60.158769	-71.409155	-60.158769	-71.409155	-0.356286	4.918484
8.100000	-0.370679	96.365617	-60.479822	-58.922317	-60.479822	-58.922317	-0.369744	3.113788
8.150000	-0.373491	94.958786	-60.235142	-45.673164	-60.235142	-45.673164	-0.386212	1.274274
8.200000	-0.376322	93.549130	-59.438127	-33.478017	-59.438127	-33.478017	-0.406865	-0.612590
8.250000	-0.379176	92.136733	-58.260404	-23.460087	-58.260404	-23.460087	-0.433467	-2.563760
8.300000	-0.382058	90.721678	-56.879357	-15.806593	-56.879357	-15.806593	-0.468945	-4.604464
8.350000	-0.384972	89.304168	-55.413701	-10.160743	-55.413701	-10.160743	-0.517725	-6.767378
8.400000	-0.387914	87.884269	-53.884712	-6.252189	-53.884712	-6.252189	-0.589995	-9.119725
8.450000	-0.390854	86.462383	-52.293029	-3.769414	-52.293029	-3.769414	-0.703268	-11.746642
8.500000	-0.393702	85.038653	-50.581617	-2.802287	-50.581617	-2.802287	-0.898788	-14.794059
8.550000	-0.396341	83.612481	-48.667313	-4.020997	-48.667313	-4.020997	-1.279442	-18.429620
8.600000	-0.398817	82.182557	-46.491190	-9.533899	-46.491190	-9.533899	-2.141318	-22.325706
8.650000	-0.401343	80.748693	-44.449567	-23.947727	-44.449567	-23.947727	-4.086234	-20.780092
8.700000	-0.404021	79.311810	-44.368916	-47.201661	-44.368916	-47.201661	-4.418042	-0.515422
8.750000	-0.406823	77.872617	-46.735124	-60.915816	-46.735124	-60.915816	-2.099688	3.066361
8.800000	-0.409705	76.431390	-49.038121	-59.839661	-49.038121	-59.839661	-1.077200	-1.839831
8.850000	-0.412638	74.988214	-50.237309	-52.440542	-50.237309	-52.440542	-0.689681	-6.206013
8.900000	-0.415608	73.543131	-50.521927	-44.676994	-50.521927	-44.676994	-0.520627	-9.630664
8.950000	-0.418610	72.096217	-50.305982	-38.564427	-50.305982	-38.564427	-0.436579	-12.440613
9.000000	-0.421640	70.647526	-49.862885	-34.231681	-49.862885	-34.231681	-0.391493	-14.857731
9.050000	-0.424698	69.197136	-49.334695	-31.295752	-49.334695	-31.295752	-0.366109	-17.017191
9.100000	-0.427787	67.745105	-48.785147	-29.385342	-48.785147	-29.385342	-0.351722	-18.997209
9.150000	-0.430906	66.291553	-48.242821	-28.193097	-48.242821	-28.193097	-0.343676	-20.851139
9.200000	-0.434058	64.836630	-47.718826	-27.507198	-47.718826	-27.507198	-0.339511	-22.613632
9.250000	-0.437242	63.380440	-47.216523	-27.201496	-47.216523	-27.201496	-0.337944	-24.304744
9.300000	-0.440465	61.923021	-46.736193	-27.199494	-46.736193	-27.199494	-0.338247	-25.935924
9.350000	-0.443725	60.464549	-46.277322	-27.419715	-46.277322	-27.419715	-0.339800	-27.520687
9.400000	-0.447025	59.005171	-45.838599	-27.811062	-45.838599	-27.811062	-0.342251	-29.067662
9.450000	-0.450367	57.545005	-45.418479	-28.340900	-45.418479	-28.340900	-0.345391	-30.582257
9.500000	-0.453756	56.084133	-45.015265	-28.991493	-45.015265	-28.991493	-0.349104	-32.066702
9.550000	-0.457195	54.622732	-44.627596	-29.737776	-44.627596	-29.737776	-0.353258	-33.525454
9.600000	-0.460676	53.161002	-44.254630	-30.550792	-44.254630	-30.550792	-0.357716	-34.965264
9.650000	-0.464211	51.699011	-43.894781	-31.432922	-43.894781	-31.432922	-0.362490	-36.384196
9.700000	-0.467804	50.236934	-43.546882	-32.375264	-43.546882	-32.375264	-0.367544	-37.783455
9.750000	-0.471453	48.774942	-43.210257	-33.363249	-43.210257	-33.363249	-0.372817	-39.166679
9.800000	-0.475160	47.313175	-42.884064	-34.391223	-42.884064	-34.391223	-0.378289	-40.534954
9.850000	-0.478926	45.851781	-42.567549	-35.454426	-42.567549	-35.454426	-0.383947	-41.889213
9.900000	-0.482754	44.390904	-42.260029	-36.548849	-42.260029	-36.548849	-0.389777	-43.230262
9.950000	-0.486646	42.930693	-41.960890	-37.671106	-41.960890	-37.671106	-0.395771	-44.558799
10.000000	-0.490604	41.471298	-41.669576	-38.818329	-41.669576	-38.818329	-0.401921	-45.875434
