! freq	dB(S11)	phase(S11)	dB(S12)	phase(S12)	
!     	dB(S21)	phase(S21)	dB(S22)	phase(S22)	
!S-par simulation data
#  GHz  S  DB  R 50
0.000000	-0.000000	0.000000	-324.706104	0.000000	-324.706104	0.000000	-0.000000	0.000000
0.050000	-0.002866	-4.331393	-83.348277	87.381586	-83.348277	87.381586	-0.000498	-0.819982
0.100000	-0.009702	-8.636786	-77.353426	84.811989	-77.353426	84.811989	-0.001723	-1.636573
0.150000	-0.017567	-12.908939	-73.866919	82.282383	-73.866919	82.282383	-0.003192	-2.449165
0.200000	-0.024907	-17.152177	-71.411248	79.775619	-71.411248	79.775619	-0.004613	-3.259004
0.250000	-0.031357	-21.369105	-69.525483	77.286529	-69.525483	77.286529	-0.005894	-4.067311
0.300000	-0.037057	-25.559745	-68.004424	74.815928	-68.004424	74.815928	-0.007039	-4.874908
0.350000	-0.042250	-29.723066	-66.737301	72.366011	-66.737301	72.366011	-0.008087	-5.682194
0.400000	-0.047100	-33.855940	-65.658756	69.940259	-65.658756	69.940259	-0.009069	-6.489294
0.450000	-0.051707	-37.953347	-64.727713	67.543498	-64.727713	67.543498	-0.010009	-7.296204
0.500000	-0.056143	-42.013609	-63.913520	65.177699	-63.913520	65.177699	-0.010928	-8.102884
0.550000	-0.060440	-46.033630	-63.195365	62.845955	-63.195365	62.845955	-0.011838	-8.909267
0.600000	-0.064604	-50.008414	-62.559065	60.553083	-62.559065	60.553083	-0.012747	-9.715265
0.650000	-0.068642	-53.936905	-61.991705	58.300640	-61.991705	58.300640	-0.013663	-10.520821
0.700000	-0.072552	-57.817416	-61.483718	56.090823	-61.483718	56.090823	-0.014589	-11.325880
0.750000	-0.076327	-61.646554	-61.028421	53.927542	-61.028421	53.927542	-0.015526	-12.130369
0.800000	-0.079960	-65.422886	-60.619597	51.813148	-60.619597	51.813148	-0.016476	-12.934239
0.850000	-0.083441	-69.142715	-60.253181	49.752417	-60.253181	49.752417	-0.017440	-13.737413
0.900000	-0.086783	-72.811471	-59.922199	47.741444	-59.922199	47.741444	-0.018416	-14.539931
0.950000	-0.089977	-76.426260	-59.624089	45.784441	-59.624089	45.784441	-0.019403	-15.341729
1.000000	-0.093024	-79.986798	-59.355742	43.883296	-59.355742	43.883296	-0.020401	-16.142778
1.050000	-0.095923	-83.493036	-59.114444	42.039817	-59.114444	42.039817	-0.021407	-16.943049
1.100000	-0.098661	-86.939208	-58.899747	40.262493	-58.899747	40.262493	-0.022423	-17.742425
1.150000	-0.101257	-90.331400	-58.707471	38.546963	-58.707471	38.546963	-0.023444	-18.540963
1.200000	-0.103715	-93.670531	-58.535579	36.894470	-58.535579	36.894470	-0.024469	-19.338645
1.250000	-0.106043	-96.957344	-58.382325	35.306575	-58.382325	35.306575	-0.025497	-20.135450
1.300000	-0.108245	-100.192710	-58.246101	33.784783	-58.246101	33.784783	-0.026527	-20.931358
1.350000	-0.110328	-103.377622	-58.125417	32.330546	-58.125417	32.330546	-0.027556	-21.726346
1.400000	-0.112296	-106.511102	-58.019374	30.948281	-58.019374	30.948281	-0.028584	-22.520355
1.450000	-0.114154	-109.593030	-57.926865	29.641649	-57.926865	29.641649	-0.029609	-23.313330
1.500000	-0.115918	-112.628292	-57.845709	28.406784	-57.845709	28.406784	-0.030630	-24.105320
1.550000	-0.117599	-115.619931	-57.774367	27.241921	-57.774367	27.241921	-0.031648	-24.896344
1.600000	-0.119201	-118.567034	-57.712142	26.151782	-57.712142	26.151782	-0.032660	-25.686331
1.650000	-0.120727	-121.467372	-57.658448	25.144032	-57.658448	25.144032	-0.033668	-26.475165
1.700000	-0.122191	-124.325147	-57.611523	24.215270	-57.611523	24.215270	-0.034670	-27.262883
1.750000	-0.123604	-127.145193	-57.569736	23.359900	-57.569736	23.359900	-0.035669	-28.049555
1.800000	-0.124971	-129.926600	-57.532278	22.583036	-57.532278	22.583036	-0.036665	-28.835100
1.850000	-0.126300	-132.670900	-57.497908	21.885104	-57.497908	21.885104	-0.037659	-29.619500
1.900000	-0.127599	-135.379628	-57.465330	21.266103	-57.465330	21.266103	-0.038652	-30.402740
1.950000	-0.128874	-138.054314	-57.433190	20.725338	-57.433190	20.725338	-0.039647	-31.184807
2.000000	-0.130131	-140.696483	-57.400103	20.261164	-57.400103	20.261164	-0.040644	-31.965692
2.050000	-0.131378	-143.307648	-57.364692	19.870844	-57.364692	19.870844	-0.041645	-32.745385
2.100000	-0.132620	-145.889309	-57.325637	19.550582	-57.325637	19.550582	-0.042650	-33.523880
2.150000	-0.133863	-148.442951	-57.281706	19.295681	-57.281706	19.295681	-0.043662	-34.301171
2.200000	-0.135111	-150.970045	-57.231768	19.100721	-57.231768	19.100721	-0.044679	-35.077252
2.250000	-0.136371	-153.472044	-57.174789	18.959686	-57.174789	18.959686	-0.045703	-35.852119
2.300000	-0.137647	-155.950381	-57.109836	18.866017	-57.109836	18.866017	-0.046733	-36.625764
2.350000	-0.138943	-158.406476	-57.036077	18.812628	-57.036077	18.812628	-0.047770	-37.398180
2.400000	-0.140263	-160.841728	-56.952792	18.791933	-56.952792	18.791933	-0.048813	-38.169360
2.450000	-0.141611	-163.257520	-56.859385	18.795895	-56.859385	18.795895	-0.049863	-38.939294
2.500000	-0.142991	-165.655219	-56.755399	18.816108	-56.755399	18.816108	-0.050918	-39.707973
2.550000	-0.144408	-168.035512	-56.639968	18.843834	-56.639968	18.843834	-0.051979	-40.475329
2.600000	-0.145865	-170.400522	-56.513462	18.869611	-56.513462	18.869611	-0.053046	-41.241406
2.650000	-0.147364	-172.751573	-56.375899	18.884755	-56.375899	18.884755	-0.054119	-42.006193
2.700000	-0.148908	-175.089978	-56.227448	18.880814	-56.227448	18.880814	-0.055196	-42.769677
2.750000	-0.150501	-177.417044	-56.068417	18.849706	-56.068417	18.849706	-0.056280	-43.531846
2.800000	-0.152146	-179.734068	-55.899244	18.783843	-55.899244	18.783843	-0.057369	-44.292688
2.850000	-0.153847	177.957652	-55.720477	18.676232	-55.720477	18.676232	-0.058464	-45.052191
2.900000	-0.155606	175.656823	-55.532755	18.520551	-55.532755	18.520551	-0.059565	-45.810344
2.950000	-0.157426	173.362148	-55.336789	18.311194	-55.336789	18.311194	-0.060672	-46.567134
3.000000	-0.159312	171.072325	-55.133340	18.043290	-55.133340	18.043290	-0.061786	-47.322551
3.050000	-0.161267	168.786043	-54.923199	17.712703	-54.923199	17.712703	-0.062907	-48.076584
3.100000	-0.163295	166.501981	-54.707174	17.315999	-54.707174	17.315999	-0.064035	-48.829222
3.150000	-0.165401	164.218799	-54.486068	16.850410	-54.486068	16.850410	-0.065171	-49.580455
3.200000	-0.167588	161.935136	-54.260668	16.313769	-54.260668	16.313769	-0.066315	-50.330273
3.250000	-0.169863	159.649605	-54.031735	15.704450	-54.031735	15.704450	-0.067467	-51.078667
3.300000	-0.172230	157.360789	-53.799991	15.021294	-53.799991	15.021294	-0.068628	-51.825629
3.350000	-0.174696	155.067229	-53.566117	14.263533	-53.566117	14.263533	-0.069799	-52.571148
3.400000	-0.177268	152.767425	-53.330747	13.430718	-53.330747	13.430718	-0.070979	-53.315219
3.450000	-0.179953	150.459822	-53.094463	12.522646	-53.094463	12.522646	-0.072170	-54.057832
3.500000	-0.182760	148.142804	-52.857796	11.539287	-52.857796	11.539287	-0.073371	-54.798980
3.550000	-0.185699	145.814684	-52.621223	10.480725	-52.621223	10.480725	-0.074583	-55.538657
3.600000	-0.188780	143.473691	-52.385172	9.347092	-52.385172	9.347092	-0.075807	-56.276857
3.650000	-0.192015	141.117961	-52.150019	8.138514	-52.150019	8.138514	-0.077043	-57.013572
3.700000	-0.195418	138.745521	-51.916092	6.855054	-51.916092	6.855054	-0.078291	-57.748799
3.750000	-0.199006	136.354269	-51.683672	5.496669	-51.683672	5.496669	-0.079552	-58.482531
3.800000	-0.202805	133.940930	-51.452816	4.059869	-51.452816	4.059869	-0.080827	-59.214698
3.850000	-0.206829	131.503883	-51.223919	2.547474	-51.223919	2.547474	-0.082116	-59.945362
3.900000	-0.211102	129.040492	-50.997130	0.958788	-50.997130	0.958788	-0.083420	-60.674519
3.950000	-0.215651	126.547890	-50.772558	-0.707188	-50.772558	-0.707188	-0.084738	-61.402164
4.000000	-0.220508	124.022946	-50.550272	-2.451803	-50.550272	-2.451803	-0.086071	-62.128296
4.050000	-0.225712	121.462220	-50.330304	-4.276809	-50.330304	-4.276809	-0.087421	-62.852911
4.100000	-0.231305	118.861914	-50.112650	-6.184420	-50.112650	-6.184420	-0.088786	-63.576008
4.150000	-0.237338	116.217810	-49.897265	-8.177375	-49.897265	-8.177375	-0.090168	-64.297584
4.200000	-0.243871	113.525198	-49.684067	-10.259013	-49.684067	-10.259013	-0.091567	-65.017639
4.250000	-0.250976	110.778790	-49.472934	-12.433356	-49.472934	-12.433356	-0.092984	-65.736171
4.300000	-0.258736	107.972612	-49.263697	-14.705216	-49.263697	-14.705216	-0.094419	-66.453181
4.350000	-0.267251	105.099882	-49.056142	-17.080308	-49.056142	-17.080308	-0.095872	-67.168667
4.400000	-0.276643	102.152845	-48.850002	-19.565399	-48.850002	-19.565399	-0.097345	-67.882631
4.450000	-0.287056	99.122585	-48.644952	-22.168473	-48.644952	-22.168473	-0.098837	-68.595073
4.500000	-0.298667	95.998786	-48.440600	-24.898948	-48.440600	-24.898948	-0.100349	-69.305994
4.550000	-0.311693	92.769429	-48.236478	-27.767919	-48.236478	-27.767919	-0.101881	-70.015396
4.600000	-0.326221	89.432549	-48.032551	-30.773692	-48.032551	-30.773692	-0.103433	-70.723412
4.650000	-0.342925	85.947361	-47.827132	-33.961629	-47.827132	-33.961629	-0.105008	-71.429764
4.700000	-0.362051	82.305901	-47.619954	-37.335077	-47.619954	-37.335077	-0.106606	-72.134604
4.750000	-0.384120	78.484345	-47.410108	-40.915823	-47.410108	-40.915823	-0.108226	-72.837934
4.800000	-0.409793	74.453880	-47.196527	-44.729813	-47.196527	-44.729813	-0.109870	-73.539757
4.850000	-0.439915	70.179372	-46.977971	-48.808056	-46.977971	-48.808056	-0.111538	-74.240078
4.900000	-0.475580	65.617604	-46.753006	-53.187738	-46.753006	-53.187738	-0.113231	-74.938899
4.950000	-0.518214	60.714942	-46.520000	-57.913623	-46.520000	-57.913623	-0.114950	-75.636224
5.000000	-0.569688	55.404228	-46.277132	-63.039766	-46.277132	-63.039766	-0.116695	-76.332057
5.050000	-0.632738	49.589481	-46.022037	-68.641664	-46.022037	-68.641664	-0.118468	-77.026373
5.100000	-0.710544	43.168324	-45.753036	-74.792298	-45.753036	-74.792298	-0.120270	-77.719201
5.150000	-0.807531	35.999636	-45.468414	-81.588798	-45.468414	-81.588798	-0.122102	-78.410542
5.200000	-0.929505	27.901256	-45.167236	-89.147884	-45.167236	-89.147884	-0.123965	-79.100392
5.250000	-1.083854	18.638251	-44.850243	-97.607620	-44.850243	-97.607620	-0.125860	-79.788745
5.300000	-1.278978	7.926506	-44.521464	-107.115727	-44.521464	-107.115727	-0.127788	-80.475600
5.350000	-1.524637	-4.642143	-44.189792	-117.867489	-44.189792	-117.867489	-0.129749	-81.160906
5.400000	-1.825174	-19.483490	-43.873203	-130.011877	-43.873203	-130.011877	-0.131741	-81.844656
5.450000	-2.172126	-37.043273	-43.600708	-143.666038	-43.600708	-143.666038	-0.133755	-82.526819
5.500000	-2.527962	-57.573025	-43.412132	-158.812828	-43.412132	-158.812828	-0.135783	-83.207399
5.550000	-2.816648	-80.828915	-43.350385	-175.232719	-43.350385	-175.232719	-0.137811	-83.886447
5.600000	-2.945506	-105.768465	-43.446299	167.526884	-43.446299	167.526884	-0.139832	-84.564066
5.650000	-2.867195	-130.642160	-43.702027	150.091752	-43.702027	150.091752	-0.141847	-85.240381
5.700000	-2.622773	-153.716190	-44.084477	133.104810	-44.084477	133.104810	-0.143870	-85.915489
5.750000	-2.301984	-174.016646	-44.539383	117.057159	-44.539383	117.057159	-0.145917	-86.589422
5.800000	-1.979633	168.631819	-45.012810	102.232882	-45.012810	102.232882	-0.147999	-87.262156
5.850000	-1.694432	153.944939	-45.464462	88.738857	-45.464462	88.738857	-0.150124	-87.933646
5.900000	-1.457655	141.479209	-45.871548	76.559728	-45.871548	76.559728	-0.152293	-88.603852
5.950000	-1.266589	130.786740	-46.226403	65.602639	-46.226403	65.602639	-0.154505	-89.272757
6.000000	-1.114472	121.512411	-46.529652	55.762431	-46.529652	55.762431	-0.156760	-89.940336
6.050000	-0.993013	113.335257	-46.788640	46.890892	-46.788640	46.890892	-0.159054	-90.606617
6.100000	-0.895906	106.038477	-47.010641	38.874800	-47.010641	38.874800	-0.161386	-91.271593
6.150000	-0.817830	99.445186	-47.203557	31.600995	-47.203557	31.600995	-0.163757	-91.935274
6.200000	-0.754650	93.418600	-47.374567	24.968496	-47.374567	24.968496	-0.166164	-92.597673
6.250000	-0.703193	87.852411	-47.529834	18.889101	-47.529834	18.889101	-0.168608	-93.258803
6.300000	-0.661523	82.684162	-47.673925	13.314421	-47.673925	13.314421	-0.171091	-93.918595
6.350000	-0.626591	77.797083	-47.812527	8.112302	-47.812527	8.112302	-0.173607	-94.577261
6.400000	-0.598041	73.184655	-47.947883	3.288694	-47.947883	3.288694	-0.176161	-95.234626
6.450000	-0.574243	68.781486	-48.083167	-1.235720	-48.083167	-1.235720	-0.178751	-95.890824
6.500000	-0.554519	64.561513	-48.220613	-5.489007	-48.220613	-5.489007	-0.181377	-96.545823
6.550000	-0.538267	60.500097	-48.362152	-9.499947	-48.362152	-9.499947	-0.184040	-97.199618
6.600000	-0.524718	56.563333	-48.509193	-13.314169	-48.509193	-13.314169	-0.186739	-97.852315
6.650000	-0.513801	52.748402	-48.663671	-16.930059	-48.663671	-16.930059	-0.189478	-98.503775
6.700000	-0.504814	49.022541	-48.826076	-20.396243	-48.826076	-20.396243	-0.192251	-99.154194
6.750000	-0.497705	45.382534	-48.998058	-23.713875	-48.998058	-23.713875	-0.195064	-99.803471
6.800000	-0.492194	41.814108	-49.180500	-26.903661	-49.180500	-26.903661	-0.197914	-100.451659
6.850000	-0.488099	38.307466	-49.374392	-29.979741	-49.374392	-29.979741	-0.200802	-101.098774
6.900000	-0.485288	34.854666	-49.580796	-32.953842	-49.580796	-32.953842	-0.203730	-101.744825
6.950000	-0.483637	31.448182	-49.800700	-35.837932	-49.800700	-35.837932	-0.206697	-102.389832
7.000000	-0.483036	28.081111	-50.035022	-38.643914	-50.035022	-38.643914	-0.209703	-103.033824
7.050000	-0.483407	24.747893	-50.284812	-41.382186	-50.284812	-41.382186	-0.212749	-103.676823
7.100000	-0.484760	21.445671	-50.551981	-44.059177	-50.551981	-44.059177	-0.215838	-104.318765
7.150000	-0.486884	18.165359	-50.836081	-46.694698	-50.836081	-46.694698	-0.218964	-104.959850
7.200000	-0.489827	14.905756	-51.139321	-49.294587	-51.139321	-49.294587	-0.222130	-105.600003
7.250000	-0.493556	11.663270	-51.463185	-51.871317	-51.463185	-51.871317	-0.225336	-106.239246
7.300000	-0.498046	8.434617	-51.809334	-54.439098	-51.809334	-54.439098	-0.228584	-106.877603
7.350000	-0.503282	5.216771	-52.179638	-57.014619	-52.179638	-57.014619	-0.231873	-107.515096
7.400000	-0.509250	2.006905	-52.576214	-59.617994	-52.576214	-59.617994	-0.235204	-108.151751
7.450000	-0.515946	-1.197641	-53.001459	-62.274016	-53.001459	-62.274016	-0.238576	-108.787592
7.500000	-0.523369	-4.399405	-53.458077	-65.013846	-53.458077	-65.013846	-0.241990	-109.422647
7.550000	-0.531553	-7.600937	-53.949421	-67.885202	-53.949421	-67.885202	-0.245448	-110.056914
7.600000	-0.540476	-10.804747	-54.478316	-70.938298	-54.478316	-70.938298	-0.248949	-110.690460
7.650000	-0.550150	-14.013205	-55.048026	-74.244416	-55.048026	-74.244416	-0.252495	-111.323321
7.700000	-0.560592	-17.228692	-55.661427	-77.898972	-55.661427	-77.898972	-0.256086	-111.955527
7.750000	-0.571824	-20.453629	-56.320072	-82.030638	-56.320072	-82.030638	-0.259728	-112.587099
7.800000	-0.583870	-23.690504	-57.022282	-86.812929	-57.022282	-86.812929	-0.263419	-113.218049
7.850000	-0.596762	-26.941909	-57.759433	-92.476333	-57.759433	-92.476333	-0.267160	-113.848394
7.900000	-0.610538	-30.210569	-58.509119	-99.312926	-58.509119	-99.312926	-0.270947	-114.478170
7.950000	-0.625242	-33.499379	-59.224060	-107.650849	-59.224060	-107.650849	-0.274781	-115.107419
8.000000	-0.640925	-36.811451	-59.818747	-117.753432	-59.818747	-117.753432	-0.278662	-115.736187
8.050000	-0.657651	-40.150152	-60.166350	-129.603623	-60.166350	-129.603623	-0.282590	-116.364520
8.100000	-0.675492	-43.519167	-60.130643	-142.661199	-60.130643	-142.661199	-0.286568	-116.992463
8.150000	-0.694537	-46.922558	-59.637215	-155.877199	-59.637215	-155.877199	-0.290597	-117.620060
8.200000	-0.714889	-50.364840	-58.724593	-168.114240	-58.724593	-168.114240	-0.294677	-118.247360
8.250000	-0.736672	-53.851072	-57.514816	-178.645918	-57.514816	-178.645918	-0.298811	-118.874415
8.300000	-0.760036	-57.386965	-56.139822	172.691694	-56.139822	172.691694	-0.303001	-119.501278
8.350000	-0.785046	-60.975216	-54.710533	165.620746	-54.710533	165.620746	-0.307245	-120.128010
8.400000	-0.812056	-64.627849	-53.258449	159.937694	-53.258449	159.937694	-0.311550	-120.754666
8.450000	-0.841485	-68.358755	-51.799675	155.333287	-51.799675	155.333287	-0.315923	-121.381323
8.500000	-0.873349	-72.167641	-50.374868	151.422341	-50.374868	151.422341	-0.320359	-122.008053
8.550000	-0.908253	-76.073037	-48.966797	148.052083	-48.966797	148.052083	-0.324868	-122.634948
8.600000	-0.946641	-80.086949	-47.577579	145.055957	-47.577579	145.055957	-0.329453	-123.262096
8.650000	-0.988951	-84.219822	-46.211286	142.298847	-46.211286	142.298847	-0.334116	-123.889582
8.700000	-1.036286	-88.501060	-44.847596	139.701012	-44.847596	139.701012	-0.338873	-124.517549
8.750000	-1.089727	-92.955608	-43.482544	137.174359	-43.482544	137.174359	-0.343735	-125.146131
8.800000	-1.150421	-97.606598	-42.119112	134.647764	-42.119112	134.647764	-0.348710	-125.775449
8.850000	-1.220144	-102.490081	-40.752009	132.061450	-40.752009	132.061450	-0.353817	-126.405661
8.900000	-1.301999	-107.668829	-39.363903	129.348664	-39.363903	129.348664	-0.359089	-127.037012
8.950000	-1.398819	-113.187382	-37.962995	126.455057	-37.962995	126.455057	-0.364550	-127.669647
9.000000	-1.515214	-119.120082	-36.545105	123.317717	-36.545105	123.317717	-0.370244	-128.303777
9.050000	-1.659036	-125.590558	-35.095161	119.848296	-35.095161	119.848296	-0.376246	-128.939701
9.100000	-1.839711	-132.723414	-33.617092	115.964455	-33.617092	115.964455	-0.382634	-129.577581
9.150000	-2.070506	-140.679909	-32.115816	111.570928	-32.115816	111.570928	-0.389513	-130.217497
9.200000	-2.375397	-149.753630	-30.580258	106.507581	-30.580258	106.507581	-0.397057	-130.859533
9.250000	-2.786170	-160.286117	-29.022730	100.616713	-29.022730	100.616713	-0.405475	-131.503708
9.300000	-3.352426	-172.810625	-27.457531	93.690429	-27.457531	93.690429	-0.415346	-132.148288
9.350000	-4.139835	171.942969	-25.919906	85.530548	-25.919906	85.530548	-0.426563	-132.788407
9.400000	-5.227777	152.769599	-24.460747	75.945580	-24.460747	75.945580	-0.439164	-133.421159
9.450000	-6.634128	127.963133	-23.159607	64.928295	-23.159607	64.928295	-0.452725	-134.040427
9.500000	-8.096347	95.348823	-22.104839	52.728157	-22.104839	52.728157	-0.465956	-134.641808
9.550000	-8.788566	55.704747	-21.363282	39.963889	-21.363282	39.963889	-0.477078	-135.228396
9.600000	-8.147071	17.114973	-20.942085	27.446088	-20.942085	27.446088	-0.484983	-135.811697
9.650000	-6.869719	-13.565177	-20.782035	15.860052	-20.782035	15.860052	-0.490041	-136.404788
9.700000	-5.679295	-36.709230	-20.791861	5.557524	-20.791861	5.557524	-0.493562	-137.015000
9.750000	-4.769186	-54.709296	-20.883690	-3.452822	-20.883690	-3.452822	-0.496832	-137.642977
9.800000	-4.117097	-69.229440	-20.994470	-11.311540	-20.994470	-11.311540	-0.500670	-138.286864
9.850000	-3.656268	-81.420565	-21.084507	-18.259224	-21.084507	-18.259224	-0.505464	-138.944065
9.900000	-3.333689	-91.958768	-21.132384	-24.495616	-21.132384	-24.495616	-0.511394	-139.613320
9.950000	-3.109622	-101.314797	-21.127965	-30.181519	-21.127965	-30.181519	-0.518548	-140.294368
10.000000	-2.956655	-109.811846	-21.065422	-35.412290	-21.065422	-35.412290	-0.527009	-140.987972
