! freq	dB(S11)	phase(S11)	dB(S12)	phase(S12)	
!     	dB(S21)	phase(S21)	dB(S22)	phase(S22)	
!S-par simulation data
#  GHz  S  DB  R 50
0.000000	0.000000	-0.000000	-308.505603	180.000000	-308.505603	180.000000	-0.000000	-0.000000
0.050000	-0.000731	-1.173439	-104.099607	89.089508	-104.099607	89.089508	-0.000717	-1.171602
0.100000	-0.002489	-2.341652	-98.113501	87.839782	-98.113501	87.839782	-0.002469	-2.338308
0.150000	-0.004560	-3.503799	-94.641760	86.675727	-94.641760	86.675727	-0.004579	-3.499152
0.200000	-0.006518	-4.661660	-92.215757	85.551065	-92.215757	85.551065	-0.006607	-4.655698
0.250000	-0.008288	-5.817471	-90.366179	84.456749	-90.366179	84.456749	-0.008452	-5.810120
0.300000	-0.009885	-6.972168	-88.890724	83.397120	-88.890724	83.397120	-0.010111	-6.963361
0.350000	-0.011361	-8.126292	-87.680108	82.377629	-87.680108	82.377629	-0.011628	-8.115984
0.400000	-0.012760	-9.280029	-86.670143	81.406009	-86.670143	81.406009	-0.013047	-9.268185
0.450000	-0.014115	-10.433341	-85.824721	80.496948	-85.824721	80.496948	-0.014399	-10.419927
0.500000	-0.015450	-11.586171	-85.109693	79.655543	-85.109693	79.655543	-0.015718	-11.571157
0.550000	-0.016779	-12.738396	-84.505511	78.893655	-84.505511	78.893655	-0.017019	-12.721750
0.600000	-0.018109	-13.889883	-83.998118	78.225190	-83.998118	78.225190	-0.018314	-13.871577
0.650000	-0.019445	-15.040500	-83.577220	77.666581	-83.577220	77.666581	-0.019610	-15.020509
0.700000	-0.020788	-16.190120	-83.235189	77.237393	-83.235189	77.237393	-0.020914	-16.168427
0.750000	-0.022141	-17.338549	-82.970161	76.972298	-82.970161	76.972298	-0.022228	-17.315143
0.800000	-0.023504	-18.485671	-82.777395	76.904037	-82.777395	76.904037	-0.023557	-18.460548
0.850000	-0.024877	-19.631406	-82.651801	77.068792	-82.651801	77.068792	-0.024899	-19.604572
0.900000	-0.026259	-20.775769	-82.585940	77.492648	-82.585940	77.492648	-0.026255	-20.747233
0.950000	-0.027649	-21.918594	-82.580507	78.245572	-82.580507	78.245572	-0.027624	-21.888371
1.000000	-0.029048	-23.059803	-82.631829	79.397499	-82.631829	79.397499	-0.029006	-23.027912
1.050000	-0.030453	-24.199325	-82.734595	81.033618	-82.734595	81.033618	-0.030400	-24.165788
1.100000	-0.031865	-25.337095	-82.880487	83.255506	-82.880487	83.255506	-0.031805	-25.301935
1.150000	-0.033281	-26.473051	-83.056222	86.179312	-83.056222	86.179312	-0.033219	-26.436292
1.200000	-0.034701	-27.607141	-83.240993	89.927504	-83.240993	89.927504	-0.034640	-27.568806
1.250000	-0.036124	-28.739311	-83.403669	94.608636	-83.403669	94.608636	-0.036068	-28.699423
1.300000	-0.037549	-29.869427	-83.495706	100.318526	-83.495706	100.318526	-0.037501	-29.828009
1.350000	-0.038976	-30.997530	-83.464479	106.941038	-83.464479	106.941038	-0.038938	-30.954599
1.400000	-0.040402	-32.123577	-83.257734	114.230141	-83.257734	114.230141	-0.040377	-32.079152
1.450000	-0.041828	-33.247532	-82.841417	121.778679	-82.841417	121.778679	-0.041817	-33.201625
1.500000	-0.043253	-34.369357	-82.213352	129.112022	-82.213352	129.112022	-0.043257	-34.321980
1.550000	-0.044677	-35.489018	-81.403522	135.820394	-81.403522	135.820394	-0.044697	-35.440180
1.600000	-0.046099	-36.606482	-80.460953	141.648025	-80.460953	141.648025	-0.046135	-36.556189
1.650000	-0.047519	-37.721720	-79.437293	146.503401	-79.437293	146.503401	-0.047572	-37.669975
1.700000	-0.048936	-38.834701	-78.375960	150.416079	-78.375960	150.416079	-0.049005	-38.781504
1.750000	-0.050351	-39.945398	-77.308508	153.481567	-77.308508	153.481567	-0.050437	-39.890746
1.800000	-0.051764	-41.053783	-76.255576	155.818748	-76.255576	155.818748	-0.051865	-40.997672
1.850000	-0.053174	-42.159830	-75.229489	157.545017	-75.229489	157.545017	-0.053289	-42.102254
1.900000	-0.054581	-43.263516	-74.236866	158.764967	-74.236866	158.764967	-0.054711	-43.204465
1.950000	-0.055987	-44.364817	-73.280656	159.567044	-73.280656	159.567044	-0.056130	-44.304280
2.000000	-0.057391	-45.463709	-72.361560	160.024043	-72.361560	160.024043	-0.057546	-45.401674
2.050000	-0.058794	-46.560171	-71.478959	160.195101	-71.478959	160.195101	-0.058959	-46.496624
2.100000	-0.060195	-47.654184	-70.631505	160.128034	-70.631505	160.128034	-0.060369	-47.589108
2.150000	-0.061596	-48.745726	-69.817481	159.861500	-69.817481	159.861500	-0.061778	-48.679106
2.200000	-0.062996	-49.834780	-69.035021	159.426846	-69.035021	159.426846	-0.063185	-49.766597
2.250000	-0.064397	-50.921327	-68.282236	158.849611	-68.282236	158.849611	-0.064591	-50.851563
2.300000	-0.065799	-52.005350	-67.557293	158.150715	-67.557293	158.150715	-0.065997	-51.933987
2.350000	-0.067202	-53.086835	-66.858446	157.347402	-66.858446	157.347402	-0.067402	-53.013852
2.400000	-0.068607	-54.165765	-66.184061	156.453972	-66.184061	156.453972	-0.068809	-54.091143
2.450000	-0.070015	-55.242127	-65.532622	155.482360	-65.532622	155.482360	-0.070217	-55.165845
2.500000	-0.071426	-56.315909	-64.902724	154.442587	-64.902724	154.442587	-0.071627	-56.237947
2.550000	-0.072841	-57.386984	-64.292104	153.340861	-64.292104	153.340861	-0.073040	-57.307322
2.600000	-0.074261	-58.455454	-63.700671	152.187178	-63.700671	152.187178	-0.074456	-58.374072
2.650000	-0.075686	-59.521310	-63.127315	150.987564	-63.127315	150.987564	-0.075877	-59.438188
2.700000	-0.077118	-60.584543	-62.571019	149.747202	-62.571019	149.747202	-0.077303	-60.499661
2.750000	-0.078556	-61.645145	-62.030848	148.470574	-62.030848	148.470574	-0.078735	-61.558486
2.800000	-0.080001	-62.703110	-61.505942	147.161572	-61.505942	147.161572	-0.080174	-62.614655
2.850000	-0.081455	-63.758432	-60.995508	145.823593	-60.995508	145.823593	-0.081620	-63.668163
2.900000	-0.082917	-64.811108	-60.498814	144.459613	-60.498814	144.459613	-0.083074	-64.719008
2.950000	-0.084389	-65.861133	-60.015186	143.072247	-60.015186	143.072247	-0.084537	-65.767186
3.000000	-0.085871	-66.908506	-59.543997	141.663808	-59.543997	141.663808	-0.086010	-66.812696
3.050000	-0.087365	-67.953226	-59.084669	140.236341	-59.084669	140.236341	-0.087494	-67.855538
3.100000	-0.088869	-68.995293	-58.636662	138.791668	-58.636662	138.791668	-0.088988	-68.895713
3.150000	-0.090386	-70.034708	-58.199476	137.331413	-58.199476	137.331413	-0.090495	-69.933222
3.200000	-0.091916	-71.071474	-57.772645	135.857030	-57.772645	135.857030	-0.092015	-70.968069
3.250000	-0.093459	-72.105595	-57.355733	134.369824	-57.355733	134.369824	-0.093548	-72.000258
3.300000	-0.095017	-73.137074	-56.948334	132.870971	-56.948334	132.870971	-0.095096	-73.029794
3.350000	-0.096590	-74.165918	-56.550066	131.361533	-56.550066	131.361533	-0.096658	-74.056684
3.400000	-0.098178	-75.192134	-56.160574	129.842471	-56.160574	129.842471	-0.098236	-75.080935
3.450000	-0.099783	-76.215729	-55.779521	128.314658	-55.779521	128.314658	-0.099831	-76.102556
3.500000	-0.101404	-77.236714	-55.406593	126.778890	-55.406593	126.778890	-0.101443	-77.121557
3.550000	-0.103043	-78.255099	-55.041493	125.235892	-55.041493	125.235892	-0.103073	-78.137949
3.600000	-0.104700	-79.270894	-54.683942	123.686327	-54.683942	123.686327	-0.104721	-79.151743
3.650000	-0.106376	-80.284113	-54.333677	122.130805	-54.333677	122.130805	-0.106388	-80.162952
3.700000	-0.108071	-81.294770	-53.990447	120.569885	-53.990447	120.569885	-0.108075	-81.171591
3.750000	-0.109786	-82.302878	-53.654017	119.004081	-53.654017	119.004081	-0.109782	-82.177674
3.800000	-0.111522	-83.308345	-53.323906	117.433698	-53.323906	117.433698	-0.111511	-83.181108
3.850000	-0.113280	-84.311299	-53.000183	115.859383	-53.000183	115.859383	-0.113262	-84.182020
3.900000	-0.115059	-85.311757	-52.682645	114.281539	-52.682645	114.281539	-0.115035	-85.180431
3.950000	-0.116861	-86.309740	-52.371098	112.700540	-52.371098	112.700540	-0.116832	-86.176357
4.000000	-0.118685	-87.305267	-52.065360	111.116733	-52.065360	111.116733	-0.118651	-87.169820
4.050000	-0.120533	-88.298359	-51.765255	109.530444	-51.765255	109.530444	-0.120495	-88.160841
4.100000	-0.122405	-89.289040	-51.470616	107.941973	-51.470616	107.941973	-0.122363	-89.149441
4.150000	-0.124302	-90.277332	-51.181284	106.351604	-51.181284	106.351604	-0.124256	-90.135644
4.200000	-0.126224	-91.263260	-50.897108	104.759599	-50.897108	104.759599	-0.126175	-91.119473
4.250000	-0.128171	-92.246848	-50.617942	103.166206	-50.617942	103.166206	-0.128120	-92.100953
4.300000	-0.130144	-93.228125	-50.343647	101.571656	-50.343647	101.571656	-0.130092	-93.080111
4.350000	-0.132144	-94.207116	-50.074089	99.976165	-50.074089	99.976165	-0.132091	-94.056971
4.400000	-0.134171	-95.183850	-49.809141	98.379938	-49.809141	98.379938	-0.134118	-95.031563
4.450000	-0.136226	-96.158356	-49.548680	96.783164	-49.548680	96.783164	-0.136173	-96.003914
4.500000	-0.138309	-97.130665	-49.292588	95.186024	-49.292588	95.186024	-0.138256	-96.974053
4.550000	-0.140420	-98.100807	-49.040753	93.588685	-49.040753	93.588685	-0.140369	-97.942010
4.600000	-0.142561	-99.068814	-48.793065	91.991307	-48.793065	91.991307	-0.142511	-98.907816
4.650000	-0.144731	-100.034719	-48.549421	90.394038	-48.549421	90.394038	-0.144683	-99.871503
4.700000	-0.146932	-100.998557	-48.309718	88.797017	-48.309718	88.797017	-0.146885	-100.833103
4.750000	-0.149163	-101.960361	-48.073860	87.200377	-48.073860	87.200377	-0.149119	-101.792649
4.800000	-0.151425	-102.920166	-47.841754	85.604242	-47.841754	85.604242	-0.151384	-102.750176
4.850000	-0.153718	-103.878010	-47.613308	84.008726	-47.613308	84.008726	-0.153680	-103.705718
4.900000	-0.156044	-104.833929	-47.388437	82.413939	-47.388437	82.413939	-0.156009	-104.659310
4.950000	-0.158402	-105.787962	-47.167055	80.819983	-47.167055	80.819983	-0.158370	-105.610990
5.000000	-0.160793	-106.740146	-46.949082	79.226955	-46.949082	79.226955	-0.160764	-106.560793
5.050000	-0.163218	-107.690445	-46.734354	77.634992	-46.734354	77.634992	-0.163193	-107.508681
5.100000	-0.165678	-108.638979	-46.522887	76.044136	-46.522887	76.044136	-0.165656	-108.454773
5.150000	-0.168172	-109.585790	-46.314609	74.454467	-46.314609	74.454467	-0.168152	-109.399108
5.200000	-0.170700	-110.530920	-46.109447	72.866057	-46.109447	72.866057	-0.170684	-110.341727
5.250000	-0.173264	-111.474412	-45.907333	71.278973	-45.907333	71.278973	-0.173250	-111.282671
5.300000	-0.175863	-112.416308	-45.708200	69.693280	-45.708200	69.693280	-0.175851	-112.221981
5.350000	-0.178498	-113.356653	-45.511983	68.109036	-45.511983	68.109036	-0.178488	-113.159700
5.400000	-0.181170	-114.295492	-45.318622	66.526297	-45.318622	66.526297	-0.181161	-114.095870
5.450000	-0.183878	-115.232871	-45.128054	64.945113	-45.128054	64.945113	-0.183870	-115.030536
5.500000	-0.186624	-116.168836	-44.940222	63.365531	-44.940222	63.365531	-0.186616	-115.963742
5.550000	-0.189408	-117.103434	-44.755069	61.787597	-44.755069	61.787597	-0.189399	-116.895533
5.600000	-0.192229	-118.036713	-44.572541	60.211350	-44.572541	60.211350	-0.192220	-117.825955
5.650000	-0.195089	-118.968721	-44.392585	58.636830	-44.392585	58.636830	-0.195078	-118.755055
5.700000	-0.197988	-119.899507	-44.215149	57.064070	-44.215149	57.064070	-0.197974	-119.682879
5.750000	-0.200926	-120.829121	-44.040186	55.493104	-44.040186	55.493104	-0.200909	-120.609477
5.800000	-0.203904	-121.757614	-43.867646	53.923962	-43.867646	53.923962	-0.203882	-121.534897
5.850000	-0.206929	-122.684867	-43.697322	52.357003	-43.697322	52.357003	-0.206901	-122.459006
5.900000	-0.209996	-123.611058	-43.529298	50.792006	-43.529298	50.792006	-0.209962	-123.381992
5.950000	-0.213085	-124.536766	-43.364009	49.228011	-43.364009	49.228011	-0.213044	-124.304462
6.000000	-0.216238	-125.461027	-43.200471	47.667025	-43.200471	47.667025	-0.216188	-125.225386
6.050000	-0.219406	-126.385005	-43.039683	46.106724	-43.039683	46.106724	-0.219346	-126.146006
6.100000	-0.222646	-127.307570	-42.880485	44.549847	-42.880485	44.549847	-0.222575	-127.065098
6.150000	-0.225895	-128.230015	-42.724031	42.993319	-42.724031	42.993319	-0.225813	-127.984058
6.200000	-0.229225	-129.151126	-42.569036	41.440639	-42.569036	41.440639	-0.229128	-128.901555
6.250000	-0.232555	-130.072237	-42.416759	39.887960	-42.416759	39.887960	-0.232445	-129.819052
6.300000	-0.235975	-130.992141	-42.265841	38.339567	-42.265841	38.339567	-0.235849	-130.735196
6.350000	-0.239397	-131.912046	-42.117501	36.791173	-42.117501	36.791173	-0.239255	-131.651341
6.400000	-0.242902	-132.831074	-41.970636	35.246791	-41.970636	35.246791	-0.242742	-132.566474
6.450000	-0.246416	-133.750024	-41.826123	33.702774	-41.826123	33.702774	-0.246237	-133.481516
6.500000	-0.250007	-134.668393	-41.683177	32.162484	-41.683177	32.162484	-0.249808	-134.395854
6.550000	-0.253614	-135.586646	-41.542389	30.622939	-41.542389	30.622939	-0.253395	-135.310051
6.600000	-0.257293	-136.504574	-41.403237	29.086828	-41.403237	29.086828	-0.257052	-136.223812
6.650000	-0.260996	-137.422394	-41.266080	27.551863	-41.266080	27.551863	-0.260733	-137.137428
6.700000	-0.264747	-138.340109	-41.130709	26.019237	-41.130709	26.019237	-0.264462	-138.050866
6.750000	-0.268553	-139.257764	-40.997056	24.489271	-40.997056	24.489271	-0.268244	-138.964163
6.800000	-0.272406	-140.175447	-40.865160	22.961611	-40.865160	22.961611	-0.272074	-139.877418
6.850000	-0.276307	-141.093220	-40.734999	21.436292	-40.734999	21.436292	-0.275950	-140.790699
6.900000	-0.280255	-142.011149	-40.606552	19.913352	-40.606552	19.913352	-0.279875	-141.704070
6.950000	-0.284251	-142.929298	-40.479797	18.392830	-40.479797	18.392830	-0.283847	-142.617598
7.000000	-0.288295	-143.847733	-40.354716	16.874771	-40.354716	16.874771	-0.287869	-143.531352
7.050000	-0.292389	-144.766521	-40.231288	15.359220	-40.231288	15.359220	-0.291940	-144.445399
7.100000	-0.296531	-145.685727	-40.109495	13.846228	-40.109495	13.846228	-0.296062	-145.359809
7.150000	-0.300722	-146.605419	-39.989320	12.335848	-39.989320	12.335848	-0.300234	-146.274654
7.200000	-0.304964	-147.525666	-39.870744	10.828137	-39.870744	10.828137	-0.304457	-147.190004
7.250000	-0.309255	-148.446535	-39.753752	9.323156	-39.753752	9.323156	-0.308733	-148.105933
7.300000	-0.313596	-149.368097	-39.638326	7.820968	-39.638326	7.820968	-0.313062	-149.022513
7.350000	-0.317988	-150.290421	-39.524450	6.321643	-39.524450	6.321643	-0.317444	-149.939819
7.400000	-0.322431	-151.213577	-39.412109	4.825253	-39.412109	4.825253	-0.321881	-150.857927
7.450000	-0.326924	-152.137638	-39.301287	3.331875	-39.301287	3.331875	-0.326373	-151.776914
7.500000	-0.331469	-153.062673	-39.191969	1.841590	-39.191969	1.841590	-0.330922	-152.696856
7.550000	-0.336068	-153.988806	-39.084147	0.354627	-39.084147	0.354627	-0.335529	-153.617882
7.600000	-0.340719	-154.916066	-38.977801	-1.129060	-38.977801	-1.129060	-0.340195	-154.540031
7.650000	-0.345422	-155.844528	-38.872917	-2.609375	-38.872917	-2.609375	-0.344921	-155.463383
7.700000	-0.350177	-156.774265	-38.769480	-4.086218	-38.769480	-4.086218	-0.349706	-156.388021
7.750000	-0.354985	-157.705353	-38.667476	-5.559487	-38.667476	-5.559487	-0.354553	-157.314028
7.800000	-0.359846	-158.637868	-38.566888	-7.029072	-38.566888	-7.029072	-0.359462	-158.241489
7.850000	-0.364760	-159.571885	-38.467704	-8.494860	-38.467704	-8.494860	-0.364435	-159.170490
7.900000	-0.369727	-160.507482	-38.369907	-9.956736	-38.369907	-9.956736	-0.369472	-160.101118
7.950000	-0.374748	-161.444736	-38.273482	-11.414577	-38.273482	-11.414577	-0.374576	-161.033462
8.000000	-0.379822	-162.383726	-38.178415	-12.868257	-38.178415	-12.868257	-0.379748	-161.967611
8.050000	-0.384951	-163.324530	-38.084690	-14.317646	-38.084690	-14.317646	-0.384989	-162.903657
8.100000	-0.390133	-164.267227	-37.992290	-15.762610	-37.992290	-15.762610	-0.390301	-163.841691
8.150000	-0.395370	-165.211899	-37.901200	-17.203011	-37.901200	-17.203011	-0.395685	-164.781807
8.200000	-0.400661	-166.158625	-37.811403	-18.638707	-37.811403	-18.638707	-0.401144	-165.724100
8.250000	-0.406007	-167.107487	-37.722881	-20.069550	-37.722881	-20.069550	-0.406677	-166.668668
8.300000	-0.411408	-168.058567	-37.635617	-21.495393	-37.635617	-21.495393	-0.412289	-167.615606
8.350000	-0.416863	-169.011948	-37.549594	-22.916080	-37.549594	-22.916080	-0.417980	-168.565016
8.400000	-0.422373	-169.967713	-37.464791	-24.331456	-37.464791	-24.331456	-0.423753	-169.516997
8.450000	-0.427939	-170.925946	-37.381190	-25.741361	-37.381190	-25.741361	-0.429610	-170.471651
8.500000	-0.433559	-171.886732	-37.298772	-27.145631	-37.298772	-27.145631	-0.435553	-171.429082
8.550000	-0.439235	-172.850154	-37.217516	-28.544101	-37.217516	-28.544101	-0.441584	-172.389396
8.600000	-0.444966	-173.816300	-37.137400	-29.936602	-37.137400	-29.936602	-0.447706	-173.352699
8.650000	-0.450753	-174.785256	-37.058402	-31.322963	-37.058402	-31.322963	-0.453921	-174.319099
8.700000	-0.456595	-175.757108	-36.980501	-32.703009	-36.980501	-32.703009	-0.460232	-175.288706
8.750000	-0.462492	-176.731944	-36.903674	-34.076566	-36.903674	-34.076566	-0.466642	-176.261631
8.800000	-0.468447	-177.709990	-36.827911	-35.443157	-36.827911	-35.443157	-0.473159	-177.238142
8.850000	-0.474457	-178.691205	-36.753171	-36.802885	-36.753171	-36.802885	-0.479780	-178.218209
8.900000	-0.480522	-179.675678	-36.679430	-38.155568	-36.679430	-38.155568	-0.486510	-179.201949
8.950000	-0.486643	179.336502	-36.606660	-39.501023	-36.606660	-39.501023	-0.493351	179.810520
9.000000	-0.492819	178.345243	-36.534834	-40.839066	-36.534834	-40.839066	-0.500308	178.819078
9.050000	-0.499050	177.350455	-36.463923	-42.169512	-36.463923	-42.169512	-0.507384	177.823605
9.100000	-0.505335	176.352048	-36.393900	-43.492176	-36.393900	-43.492176	-0.514583	176.823976
9.150000	-0.511676	175.349928	-36.324734	-44.806870	-36.324734	-44.806870	-0.521908	175.820068
9.200000	-0.518071	174.344005	-36.256396	-46.113406	-36.256396	-46.113406	-0.529365	174.811753
9.250000	-0.524520	173.334185	-36.188853	-47.411598	-36.188853	-47.411598	-0.536957	173.798904
9.300000	-0.531023	172.320376	-36.122074	-48.701256	-36.122074	-48.701256	-0.544688	172.781390
9.350000	-0.537580	171.302484	-36.056026	-49.982192	-36.056026	-49.982192	-0.552565	171.759081
9.400000	-0.544191	170.280416	-35.990675	-51.254217	-35.990675	-51.254217	-0.560591	170.731843
9.450000	-0.550855	169.254077	-35.925988	-52.517142	-35.925988	-52.517142	-0.568773	169.699540
9.500000	-0.557572	168.223374	-35.861930	-53.770779	-35.861930	-53.770779	-0.577114	168.662037
9.550000	-0.564341	167.188213	-35.798464	-55.014937	-35.798464	-55.014937	-0.585621	167.619195
9.600000	-0.571162	166.148497	-35.735555	-56.249429	-35.735555	-56.249429	-0.594301	166.570875
9.650000	-0.578035	165.104134	-35.673165	-57.474064	-35.673165	-57.474064	-0.603158	165.516933
9.700000	-0.584959	164.055028	-35.611257	-58.688654	-35.611257	-58.688654	-0.612199	164.457228
9.750000	-0.591933	163.001083	-35.549793	-59.893009	-35.549793	-59.893009	-0.621431	163.391615
9.800000	-0.598957	161.942206	-35.488733	-61.086940	-35.488733	-61.086940	-0.630860	162.319947
9.850000	-0.606031	160.878301	-35.428038	-62.270256	-35.428038	-62.270256	-0.640495	161.242076
9.900000	-0.613154	159.809273	-35.367668	-63.442769	-35.367668	-63.442769	-0.650341	160.157854
9.950000	-0.620324	158.735028	-35.307583	-64.604287	-35.307583	-64.604287	-0.660407	159.067128
10.000000	-0.627542	157.655472	-35.247742	-65.754619	-35.247742	-65.754619	-0.670702	157.969748
