! freq	dB(S11)	phase(S11)	dB(S12)	phase(S12)	
!     	dB(S21)	phase(S21)	dB(S22)	phase(S22)	
!S-par simulation data
#  GHz  S  DB  R 50
0.000000	0.000000	-0.000000	-356.176352	180.000000	-356.176352	180.000000	-0.000000	-0.000000
0.050000	-0.001966	-2.506548	-103.154850	88.556440	-103.154850	88.556440	-0.000516	-0.810153
0.100000	-0.005972	-4.995204	-97.176595	86.849553	-97.176595	86.849553	-0.001737	-1.616405
0.150000	-0.009852	-7.468622	-93.723885	85.219962	-93.723885	85.219962	-0.003128	-2.418365
0.200000	-0.013190	-9.933462	-91.320036	83.630517	-91.320036	83.630517	-0.004424	-3.217597
0.250000	-0.016167	-12.392273	-89.505650	82.082463	-89.505650	82.082463	-0.005573	-4.015420
0.300000	-0.019003	-14.845302	-88.076501	80.583723	-88.076501	80.583723	-0.006611	-4.812635
0.350000	-0.021829	-17.292117	-86.920952	79.142587	-86.920952	79.142587	-0.007587	-5.609612
0.400000	-0.024707	-19.731803	-85.975224	77.771305	-85.975224	77.771305	-0.008532	-6.406471
0.450000	-0.027660	-22.163045	-85.202345	76.488570	-85.202345	76.488570	-0.009468	-7.203221
0.500000	-0.030683	-24.585369	-84.570867	75.307612	-84.570867	75.307612	-0.010408	-7.999831
0.550000	-0.033767	-26.997982	-84.062242	74.248798	-84.062242	74.248798	-0.011356	-8.796246
0.600000	-0.036895	-29.399619	-83.667714	73.345292	-83.667714	73.345292	-0.012314	-9.592381
0.650000	-0.040047	-31.789943	-83.375185	72.624734	-83.375185	72.624734	-0.013282	-10.388172
0.700000	-0.043205	-34.168435	-83.177615	72.124999	-83.177615	72.124999	-0.014258	-11.183550
0.750000	-0.046350	-36.534102	-83.073591	71.906247	-83.073591	71.906247	-0.015240	-11.978428
0.800000	-0.049466	-38.886379	-83.059958	72.037730	-83.059958	72.037730	-0.016226	-12.772737
0.850000	-0.052537	-41.224879	-83.133097	72.605125	-83.133097	72.605125	-0.017214	-13.566420
0.900000	-0.055551	-43.549119	-83.289470	73.723414	-83.289470	73.723414	-0.018205	-14.359421
0.950000	-0.058495	-45.858551	-83.523322	75.545661	-83.523322	75.545661	-0.019197	-15.151690
1.000000	-0.061359	-48.152704	-83.822385	78.264843	-83.822385	78.264843	-0.020191	-15.943180
1.050000	-0.064134	-50.431131	-84.162726	82.113518	-84.162726	82.113518	-0.021185	-16.733855
1.100000	-0.066812	-52.693408	-84.500763	87.338233	-84.500763	87.338233	-0.022181	-17.523683
1.150000	-0.069389	-54.939137	-84.764875	94.123010	-84.764875	94.123010	-0.023178	-18.312636
1.200000	-0.071859	-57.167944	-84.854854	102.439790	-84.854854	102.439790	-0.024176	-19.100691
1.250000	-0.074221	-59.379480	-84.664060	111.871347	-84.664060	111.871347	-0.025176	-19.887829
1.300000	-0.076473	-61.573038	-84.119465	121.568056	-84.119465	121.568056	-0.026178	-20.674011
1.350000	-0.078619	-63.748707	-83.249238	130.553986	-83.249238	130.553986	-0.027181	-21.459244
1.400000	-0.080663	-65.906234	-82.143212	138.182177	-82.143212	138.182177	-0.028185	-22.243515
1.450000	-0.082611	-68.045399	-80.907522	144.240507	-80.907522	144.240507	-0.029191	-23.026810
1.500000	-0.084470	-70.166023	-79.627010	148.825191	-79.627010	148.825191	-0.030198	-23.809119
1.550000	-0.086248	-72.267960	-78.355939	152.163830	-78.355939	152.163830	-0.031207	-24.590432
1.600000	-0.087956	-74.351107	-77.123979	154.501469	-77.123979	154.501469	-0.032216	-25.370737
1.650000	-0.089603	-76.415396	-75.944964	156.052349	-75.944964	156.052349	-0.033226	-26.150024
1.700000	-0.091199	-78.460797	-74.823651	156.988443	-74.823651	156.988443	-0.034237	-26.928284
1.750000	-0.092754	-80.487317	-73.759975	157.442847	-73.759975	157.442847	-0.035248	-27.705506
1.800000	-0.094278	-82.494995	-72.751507	157.517227	-72.751507	157.517227	-0.036260	-28.481679
1.850000	-0.095778	-84.483903	-71.794787	157.289141	-71.794787	157.289141	-0.037272	-29.256792
1.900000	-0.097263	-86.453939	-70.885535	156.815929	-70.885535	156.815929	-0.038286	-30.030824
1.950000	-0.098738	-88.405231	-70.020171	156.144732	-70.020171	156.144732	-0.039299	-30.803762
2.000000	-0.100211	-90.338134	-69.195677	155.313468	-69.195677	155.313468	-0.040314	-31.575608
2.050000	-0.101684	-92.252815	-68.408763	154.349999	-68.408763	154.349999	-0.041329	-32.346349
2.100000	-0.103162	-94.149460	-67.656446	153.276533	-67.656446	153.276533	-0.042346	-33.115975
2.150000	-0.104647	-96.028272	-66.936040	152.110941	-66.936040	152.110941	-0.043363	-33.884474
2.200000	-0.106141	-97.889464	-66.245130	150.867725	-66.245130	150.867725	-0.044383	-34.651833
2.250000	-0.107645	-99.733264	-65.581550	149.558755	-65.581550	149.558755	-0.045403	-35.418042
2.300000	-0.109160	-101.559907	-64.943353	148.193821	-64.943353	148.193821	-0.046426	-36.183088
2.350000	-0.110685	-103.369639	-64.328790	146.781059	-64.328790	146.781059	-0.047451	-36.946960
2.400000	-0.112221	-105.162712	-63.736282	145.327272	-63.736282	145.327272	-0.048479	-37.709645
2.450000	-0.113767	-106.939385	-63.164405	143.838190	-63.164405	143.838190	-0.049510	-38.471132
2.500000	-0.115323	-108.699924	-62.611869	142.318664	-62.611869	142.318664	-0.050543	-39.231410
2.550000	-0.116887	-110.444090	-62.077021	140.772069	-62.077021	140.772069	-0.051581	-39.990425
2.600000	-0.118460	-112.172686	-61.559343	139.202906	-61.559343	139.202906	-0.052623	-40.748206
2.650000	-0.120040	-113.885992	-61.057853	137.614168	-61.057853	137.614168	-0.053669	-41.504742
2.700000	-0.121627	-115.584290	-60.571655	136.008448	-60.571655	136.008448	-0.054720	-42.260021
2.750000	-0.123220	-117.267865	-60.099925	134.387995	-60.099925	134.387995	-0.055776	-43.014032
2.800000	-0.124818	-118.937005	-59.641911	132.754772	-59.641911	132.754772	-0.056838	-43.766764
2.850000	-0.126421	-120.591999	-59.196915	131.110494	-59.196915	131.110494	-0.057905	-44.518206
2.900000	-0.128029	-122.233137	-58.764297	129.456669	-58.764297	129.456669	-0.058979	-45.268347
2.950000	-0.129640	-123.860712	-58.343463	127.794623	-58.343463	127.794623	-0.060060	-46.017179
3.000000	-0.131256	-125.475016	-57.933863	126.125526	-57.933863	126.125526	-0.061148	-46.764689
3.050000	-0.132876	-127.076342	-57.534988	124.450417	-57.534988	124.450417	-0.062244	-47.510869
3.100000	-0.134500	-128.664982	-57.146362	122.770216	-57.146362	122.770216	-0.063348	-48.255709
3.150000	-0.136127	-130.241229	-56.767542	121.085744	-56.767542	121.085744	-0.064460	-48.999200
3.200000	-0.137759	-131.805375	-56.398116	119.397731	-56.398116	119.397731	-0.065581	-49.741332
3.250000	-0.139395	-133.357709	-56.037698	117.706831	-56.037698	117.706831	-0.066711	-50.482098
3.300000	-0.141036	-134.898523	-55.685925	116.013629	-55.685925	116.013629	-0.067851	-51.221488
3.350000	-0.142681	-136.428105	-55.342459	114.318652	-55.342459	114.318652	-0.069002	-51.959495
3.400000	-0.144332	-137.946740	-55.006980	112.622372	-55.006980	112.622372	-0.070162	-52.696112
3.450000	-0.145988	-139.454714	-54.679190	110.925215	-54.679190	110.925215	-0.071334	-53.431330
3.500000	-0.147651	-140.952310	-54.358805	109.227564	-54.358805	109.227564	-0.072517	-54.165143
3.550000	-0.149320	-142.439808	-54.045560	107.529766	-54.045560	107.529766	-0.073711	-54.897543
3.600000	-0.150997	-143.917486	-53.739202	105.832135	-53.739202	105.832135	-0.074918	-55.628526
3.650000	-0.152682	-145.385621	-53.439495	104.134953	-53.439495	104.134953	-0.076137	-56.358085
3.700000	-0.154375	-146.844485	-53.146213	102.438478	-53.146213	102.438478	-0.077369	-57.086213
3.750000	-0.156077	-148.294350	-52.859142	100.742943	-52.859142	100.742943	-0.078615	-57.812907
3.800000	-0.157790	-149.735116	-52.577948	99.048618	-52.577948	99.048618	-0.079875	-58.538098
3.850000	-0.159512	-151.167438	-52.302588	97.355650	-52.302588	97.355650	-0.081149	-59.261845
3.900000	-0.161246	-152.591578	-52.032877	95.664211	-52.032877	95.664211	-0.082437	-59.984143
3.950000	-0.162992	-154.007795	-51.768643	93.974457	-51.768643	93.974457	-0.083741	-60.704988
4.000000	-0.164750	-155.416344	-51.509717	92.286528	-51.509717	92.286528	-0.085059	-61.424377
4.050000	-0.166521	-156.817478	-51.255942	90.600552	-51.255942	90.600552	-0.086394	-62.142308
4.100000	-0.168306	-158.211445	-51.007167	88.916646	-51.007167	88.916646	-0.087744	-62.858778
4.150000	-0.170104	-159.598491	-50.763248	87.234912	-50.763248	87.234912	-0.089112	-63.573783
4.200000	-0.171918	-160.978859	-50.524047	85.555447	-50.524047	85.555447	-0.090496	-64.287324
4.250000	-0.173747	-162.352790	-50.289434	83.878334	-50.289434	83.878334	-0.091897	-64.999397
4.300000	-0.175591	-163.720518	-50.059283	82.203651	-50.059283	82.203651	-0.093316	-65.710003
4.350000	-0.177452	-165.082278	-49.833473	80.531465	-49.833473	80.531465	-0.094753	-66.419140
4.400000	-0.179330	-166.438300	-49.611891	78.861839	-49.611891	78.861839	-0.096209	-67.126807
4.450000	-0.181225	-167.788809	-49.394426	77.194826	-49.394426	77.194826	-0.097683	-67.833006
4.500000	-0.183138	-169.134031	-49.180973	75.530475	-49.180973	75.530475	-0.099177	-68.537736
4.550000	-0.185069	-170.474185	-48.971432	73.868829	-48.971432	73.868829	-0.100690	-69.240998
4.600000	-0.187019	-171.809488	-48.765707	72.209925	-48.765707	72.209925	-0.102224	-69.942793
4.650000	-0.188987	-173.140155	-48.563705	70.553796	-48.563705	70.553796	-0.103777	-70.643123
4.700000	-0.190974	-174.466398	-48.365337	68.900471	-48.365337	68.900471	-0.105352	-71.341989
4.750000	-0.192981	-175.788424	-48.170519	67.249973	-48.170519	67.249973	-0.106948	-72.039394
4.800000	-0.195007	-177.106438	-47.979170	65.602325	-47.979170	65.602325	-0.108565	-72.735340
4.850000	-0.197054	-178.420643	-47.791211	63.957543	-47.791211	63.957543	-0.110204	-73.429829
4.900000	-0.199120	-179.731237	-47.606568	62.315642	-47.606568	62.315642	-0.111866	-74.122866
4.950000	-0.201206	178.961583	-47.425169	60.676635	-47.425169	60.676635	-0.113551	-74.814454
5.000000	-0.203312	177.657623	-47.246947	59.040533	-47.246947	59.040533	-0.115258	-75.504597
5.050000	-0.205439	176.356817	-47.071816	57.407470	-47.071816	57.407470	-0.116991	-76.193236
5.100000	-0.207587	175.058837	-46.899738	55.777326	-46.899738	55.777326	-0.118747	-76.880439
5.150000	-0.209754	173.763498	-46.730652	54.150109	-46.730652	54.150109	-0.120528	-77.566211
5.200000	-0.211942	172.470618	-46.564500	52.525821	-46.564500	52.525821	-0.122333	-78.250558
5.250000	-0.214149	171.180019	-46.401226	50.904467	-46.401226	50.904467	-0.124163	-78.933485
5.300000	-0.216376	169.891524	-46.240777	49.286052	-46.240777	49.286052	-0.126020	-79.614997
5.350000	-0.218623	168.604960	-46.083104	47.670579	-46.083104	47.670579	-0.127902	-80.295103
5.400000	-0.220888	167.320155	-45.928156	46.058052	-45.928156	46.058052	-0.129810	-80.973807
5.450000	-0.223173	166.036941	-45.775888	44.448476	-45.775888	44.448476	-0.131745	-81.651117
5.500000	-0.225476	164.755151	-45.626254	42.841857	-45.626254	42.841857	-0.133707	-82.327041
5.550000	-0.227798	163.474623	-45.479214	41.238203	-45.479214	41.238203	-0.135697	-83.001586
5.600000	-0.230137	162.195195	-45.334726	39.637520	-45.334726	39.637520	-0.137715	-83.674759
5.650000	-0.232494	160.916709	-45.192751	38.039821	-45.192751	38.039821	-0.139761	-84.346570
5.700000	-0.234867	159.639009	-45.053253	36.445116	-45.053253	36.445116	-0.141835	-85.017027
5.750000	-0.237257	158.361942	-44.916196	34.853419	-44.916196	34.853419	-0.143939	-85.686139
5.800000	-0.239662	157.085355	-44.781547	33.264749	-44.781547	33.264749	-0.146073	-86.353915
5.850000	-0.242083	155.809101	-44.649274	31.679124	-44.649274	31.679124	-0.148236	-87.020364
5.900000	-0.244518	154.533033	-44.519346	30.096566	-44.519346	30.096566	-0.150429	-87.685497
5.950000	-0.246967	153.257007	-44.391734	28.517101	-44.391734	28.517101	-0.152653	-88.349324
6.000000	-0.249430	151.980881	-44.266410	26.940758	-44.266410	26.940758	-0.154908	-89.011855
6.050000	-0.251905	150.704517	-44.143348	25.367569	-44.143348	25.367569	-0.157195	-89.673101
6.100000	-0.254391	149.427776	-44.022522	23.797571	-44.022522	23.797571	-0.159513	-90.333074
6.150000	-0.256889	148.150525	-43.903908	22.230802	-43.903908	22.230802	-0.161864	-90.991784
6.200000	-0.259396	146.872631	-43.787484	20.667308	-43.787484	20.667308	-0.164247	-91.649243
6.250000	-0.261913	145.593964	-43.673226	19.107137	-43.673226	19.107137	-0.166663	-92.305465
6.300000	-0.264439	144.314352	-43.561146	17.550490	-43.561146	17.550490	-0.169114	-92.960408
6.350000	-0.266972	143.033703	-43.451195	15.997281	-43.451195	15.997281	-0.171598	-93.614139
6.400000	-0.269511	141.751895	-43.343353	14.447571	-43.343353	14.447571	-0.174117	-94.266672
6.450000	-0.272057	140.468808	-43.237602	12.901427	-43.237602	12.901427	-0.176670	-94.918020
6.500000	-0.274607	139.184323	-43.133924	11.358921	-43.133924	11.358921	-0.179258	-95.568196
6.550000	-0.277161	137.898326	-43.032302	9.820128	-43.032302	9.820128	-0.181882	-96.217216
6.600000	-0.279718	136.610704	-42.932719	8.285128	-42.932719	8.285128	-0.184540	-96.865094
6.650000	-0.282277	135.321346	-42.835159	6.754007	-42.835159	6.754007	-0.187235	-97.511845
6.700000	-0.284837	134.030145	-42.739605	5.226853	-42.739605	5.226853	-0.189966	-98.157484
6.750000	-0.287397	132.736994	-42.646043	3.703762	-42.646043	3.703762	-0.192734	-98.802027
6.800000	-0.289956	131.441791	-42.554458	2.184830	-42.554458	2.184830	-0.195539	-99.445491
6.850000	-0.292513	130.144435	-42.464834	0.670161	-42.464834	0.670161	-0.198381	-100.087891
6.900000	-0.295067	128.844829	-42.377159	-0.840138	-42.377159	-0.840138	-0.201261	-100.729246
6.950000	-0.297618	127.542878	-42.291417	-2.345959	-42.291417	-2.345959	-0.204179	-101.369573
7.000000	-0.300164	126.238489	-42.207594	-3.847186	-42.207594	-3.847186	-0.207136	-102.008890
7.050000	-0.302705	124.931573	-42.125677	-5.343703	-42.125677	-5.343703	-0.210131	-102.647216
7.100000	-0.305239	123.622043	-42.045652	-6.835389	-42.045652	-6.835389	-0.213165	-103.284569
7.150000	-0.307766	122.309814	-41.967506	-8.322120	-41.967506	-8.322120	-0.216238	-103.920971
7.200000	-0.310285	120.994806	-41.891225	-9.803773	-41.891225	-9.803773	-0.219351	-104.556440
7.250000	-0.312795	119.676940	-41.816796	-11.280218	-41.816796	-11.280218	-0.222504	-105.190999
7.300000	-0.315295	118.356141	-41.744206	-12.751327	-41.744206	-12.751327	-0.225698	-105.824669
7.350000	-0.317785	117.032338	-41.673441	-14.216971	-41.673441	-14.216971	-0.228932	-106.457472
7.400000	-0.320265	115.705459	-41.604488	-15.677018	-41.604488	-15.677018	-0.232206	-107.089434
7.450000	-0.322732	114.375441	-41.537335	-17.131339	-41.537335	-17.131339	-0.235522	-107.720576
7.500000	-0.325188	113.042220	-41.471970	-18.579803	-41.471970	-18.579803	-0.238880	-108.350927
7.550000	-0.327630	111.705592	-41.408436	-20.022017	-41.408436	-20.022017	-0.242281	-108.980479
7.600000	-0.330059	110.365642	-41.346666	-21.458109	-41.346666	-21.458109	-0.245723	-109.609296
7.650000	-0.332475	109.022316	-41.286650	-22.887957	-41.286650	-22.887957	-0.249209	-110.237407
7.700000	-0.334877	107.675567	-41.228375	-24.311444	-41.228375	-24.311444	-0.252736	-110.864843
7.750000	-0.337265	106.325349	-41.171832	-25.728457	-41.171832	-25.728457	-0.256307	-111.491637
7.800000	-0.339638	104.971622	-41.117012	-27.138890	-41.117012	-27.138890	-0.259921	-112.117823
7.850000	-0.341998	103.614348	-41.063908	-28.542646	-41.063908	-28.542646	-0.263577	-112.743441
7.900000	-0.344343	102.253492	-41.012514	-29.939637	-41.012514	-29.939637	-0.267278	-113.368528
7.950000	-0.346675	100.889026	-40.962826	-31.329787	-40.962826	-31.329787	-0.271023	-113.993128
8.000000	-0.348992	99.520923	-40.914842	-32.713033	-40.914842	-32.713033	-0.274811	-114.617287
8.050000	-0.351296	98.149161	-40.868565	-34.089330	-40.868565	-34.089330	-0.278645	-115.241056
8.100000	-0.353587	96.773723	-40.823999	-35.458649	-40.823999	-35.458649	-0.282523	-115.864489
8.150000	-0.355865	95.394596	-40.781156	-36.820988	-40.781156	-36.820988	-0.286446	-116.487649
8.200000	-0.358132	94.011769	-40.740050	-38.176368	-40.740050	-38.176368	-0.290415	-117.110601
8.250000	-0.360387	92.625239	-40.700706	-39.524844	-40.700706	-39.524844	-0.294431	-117.733422
8.300000	-0.362633	91.235004	-40.663155	-40.866509	-40.663155	-40.866509	-0.298494	-118.356195
8.350000	-0.364869	89.841283	-40.627337	-42.201874	-40.627337	-42.201874	-0.302602	-118.979007
8.400000	-0.367097	88.443779	-40.593446	-43.530577	-40.593446	-43.530577	-0.306760	-119.601970
8.450000	-0.369318	87.042294	-40.561675	-44.852550	-40.561675	-44.852550	-0.310973	-120.225247
8.500000	-0.371534	85.637343	-40.531864	-46.168957	-40.531864	-46.168957	-0.315235	-120.848938
8.550000	-0.373746	84.228667	-40.504294	-47.479799	-40.504294	-47.479799	-0.319554	-121.473261
8.600000	-0.375955	82.816363	-40.479086	-48.785744	-40.479086	-48.785744	-0.323932	-122.098414
8.650000	-0.378165	81.400602	-40.456357	-50.087680	-40.456357	-50.087680	-0.328372	-122.724615
8.700000	-0.380377	79.981079	-40.436644	-51.386180	-40.436644	-51.386180	-0.332887	-123.352302
8.750000	-0.382592	78.558380	-40.419838	-52.682778	-40.419838	-52.682778	-0.337474	-123.981610
8.800000	-0.384814	77.131815	-40.407175	-53.978740	-40.407175	-53.978740	-0.342168	-124.613489
8.850000	-0.387045	75.702168	-40.398485	-55.275940	-40.398485	-55.275940	-0.346968	-125.248047
8.900000	-0.389287	74.268975	-40.395416	-56.577182	-40.395416	-56.577182	-0.351925	-125.886640
8.950000	-0.391544	72.832623	-40.398691	-57.885100	-40.398691	-57.885100	-0.357074	-126.529992
9.000000	-0.393818	71.393055	-40.410460	-59.204046	-40.410460	-59.204046	-0.362502	-127.179888
9.050000	-0.396113	69.950290	-40.433697	-60.539388	-40.433697	-60.539388	-0.368348	-127.838700
9.100000	-0.398431	68.504650	-40.471596	-61.895785	-40.471596	-61.895785	-0.374794	-128.508807
9.150000	-0.400779	67.055830	-40.533834	-63.283554	-40.533834	-63.283554	-0.382376	-129.197144
9.200000	-0.403157	65.604442	-40.627225	-64.701857	-40.627225	-64.701857	-0.391623	-129.907586
9.250000	-0.405576	64.150098	-40.783170	-66.144830	-40.783170	-66.144830	-0.404823	-130.658756
9.300000	-0.408034	62.693449	-41.032997	-67.542281	-41.032997	-67.542281	-0.424992	-131.462677
9.350000	-0.410543	61.234640	-41.474623	-68.558471	-41.474623	-68.558471	-0.462560	-132.350523
9.400000	-0.413103	59.774646	-42.280877	-67.606327	-42.280877	-67.606327	-0.545154	-133.317180
9.450000	-0.415365	58.319388	-43.162225	-57.835585	-43.162225	-57.835585	-0.734862	-133.948033
9.500000	-0.415513	56.823875	-41.258144	-45.690080	-41.258144	-45.690080	-0.889902	-132.878691
9.550000	-0.420242	55.361172	-39.497881	-51.982899	-39.497881	-51.982899	-0.733066	-132.183905
9.600000	-0.423258	53.892251	-39.109665	-58.670685	-39.109665	-58.670685	-0.600489	-132.765731
9.650000	-0.426168	52.420173	-39.067088	-62.931778	-39.067088	-62.931778	-0.538560	-133.567910
9.700000	-0.429103	50.945809	-39.092199	-65.807032	-39.092199	-65.807032	-0.510338	-134.348761
9.750000	-0.432094	49.469685	-39.123739	-68.006693	-39.123739	-68.006693	-0.496265	-135.090408
9.800000	-0.435165	47.991793	-39.149198	-69.766638	-39.149198	-69.766638	-0.490286	-135.796714
9.850000	-0.438308	46.512720	-39.168567	-71.321737	-39.168567	-71.321737	-0.487662	-136.483880
9.900000	-0.441535	45.032457	-39.181556	-72.708936	-39.181556	-72.708936	-0.487580	-137.154461
9.950000	-0.444854	43.551161	-39.189100	-73.977937	-39.189100	-73.977937	-0.489115	-137.812930
10.000000	-0.448269	42.068989	-39.192156	-75.159524	-39.192156	-75.159524	-0.491736	-138.462421
