! freq	dB(S11)	phase(S11)	dB(S12)	phase(S12)	
!     	dB(S21)	phase(S21)	dB(S22)	phase(S22)	
!S-par simulation data
#  GHz  S  DB  R 50
0.000000	-82.013105	0.000000	-0.000689	0.000000	-0.000689	0.000000	-82.013105	0.000000
0.050000	-48.724746	-91.371122	-0.004245	-2.652121	-0.004245	-2.652121	-48.700360	-90.868071
0.100000	-42.692358	-94.679023	-0.010678	-5.271775	-0.010678	-5.271775	-42.671103	-93.653984
0.150000	-39.154662	-97.634471	-0.016038	-7.870533	-0.016038	-7.870533	-39.136344	-96.071526
0.200000	-36.643096	-100.557857	-0.020161	-10.463112	-0.020161	-10.463112	-36.626139	-98.446807
0.250000	-34.698530	-103.497727	-0.023536	-13.054685	-0.023536	-13.054685	-34.681078	-100.835868
0.300000	-33.117363	-106.459596	-0.026585	-15.646763	-0.026585	-15.646763	-33.097924	-103.250377
0.350000	-31.789114	-109.435261	-0.029575	-18.239420	-0.029575	-18.239420	-31.767110	-105.683862
0.400000	-30.648324	-112.419444	-0.032619	-20.832498	-0.032619	-20.832498	-30.623666	-108.130926
0.450000	-29.652191	-115.407256	-0.035782	-23.425754	-0.035782	-23.425754	-29.625200	-110.585024
0.500000	-28.772580	-118.395290	-0.039113	-26.018946	-0.039113	-26.018946	-28.743850	-113.040527
0.550000	-27.987379	-121.381506	-0.042613	-28.611882	-0.042613	-28.611882	-27.957616	-115.492976
0.600000	-27.280549	-124.365023	-0.046278	-31.204434	-0.046278	-31.204434	-27.250449	-117.939664
0.650000	-26.640142	-127.345477	-0.050102	-33.796512	-0.050102	-33.796512	-26.610356	-120.378727
0.700000	-26.056851	-130.322826	-0.054075	-36.388051	-0.054075	-36.388051	-26.027962	-122.808903
0.750000	-25.523283	-133.297232	-0.058182	-38.979017	-0.058182	-38.979017	-25.495797	-125.229366
0.800000	-25.033797	-136.268921	-0.062412	-41.569383	-0.062412	-41.569383	-25.008158	-127.639347
0.850000	-24.584369	-139.238144	-0.066753	-44.159122	-0.066753	-44.159122	-24.560978	-130.037835
0.900000	-24.169676	-142.205544	-0.071178	-46.748320	-0.071178	-46.748320	-24.148810	-132.425691
0.950000	-23.786309	-145.171543	-0.075670	-49.337025	-0.075670	-49.337025	-23.768184	-134.802933
1.000000	-23.431374	-148.136572	-0.080214	-51.925297	-0.080214	-51.925297	-23.416155	-137.169659
1.050000	-23.102394	-151.101067	-0.084794	-54.513213	-0.084794	-54.513213	-23.090200	-139.526027
1.100000	-22.797225	-154.065464	-0.089394	-57.100856	-0.089394	-57.100856	-22.788138	-141.872243
1.150000	-22.514864	-157.030254	-0.094000	-59.688318	-0.094000	-59.688318	-22.508951	-144.207837
1.200000	-22.253260	-159.995916	-0.098598	-62.275724	-0.098598	-62.275724	-22.250552	-146.533423
1.250000	-22.010453	-162.962855	-0.103176	-64.863193	-0.103176	-64.863193	-22.010952	-148.849721
1.300000	-21.785155	-165.931487	-0.107724	-67.450843	-0.107724	-67.450843	-21.788852	-151.157047
1.350000	-21.576214	-168.902215	-0.112233	-70.038798	-0.112233	-70.038798	-21.583093	-153.455726
1.400000	-21.382594	-171.875435	-0.116696	-72.627182	-0.116696	-72.627182	-21.392634	-155.746097
1.450000	-21.203418	-174.851544	-0.121105	-75.216129	-0.121105	-75.216129	-21.216600	-158.028464
1.500000	-21.038849	-177.831283	-0.125450	-77.805852	-0.125450	-77.805852	-21.055171	-160.302435
1.550000	-20.886963	179.185337	-0.129733	-80.396416	-0.129733	-80.396416	-20.906415	-162.569249
1.600000	-20.747040	176.198006	-0.133953	-82.987948	-0.133953	-82.987948	-20.769625	-164.829282
1.650000	-20.618416	173.206441	-0.138108	-85.580571	-0.138108	-85.580571	-20.644148	-167.082919
1.700000	-20.500122	170.210578	-0.142202	-88.174355	-0.142202	-88.174355	-20.529023	-169.330785
1.750000	-20.392585	167.209668	-0.146227	-90.769568	-0.146227	-90.769568	-20.424705	-171.572626
1.800000	-20.294722	164.203794	-0.150191	-93.366257	-0.150191	-93.366257	-20.330121	-173.809237
1.850000	-20.206011	161.192827	-0.154096	-95.964535	-0.154096	-95.964535	-20.244764	-176.041070
1.900000	-20.126038	158.176635	-0.157945	-98.564530	-0.157945	-98.564530	-20.168237	-178.268559
1.950000	-20.054318	155.155204	-0.161742	-101.166348	-0.161742	-101.166348	-20.100073	179.507784
2.000000	-19.990314	152.128645	-0.165494	-103.770066	-0.165494	-103.770066	-20.039745	177.287385
2.050000	-19.933591	149.097081	-0.169204	-106.375774	-0.169204	-106.375774	-19.986832	175.069689
2.100000	-19.884263	146.060325	-0.172875	-108.983745	-0.172875	-108.983745	-19.941480	172.854220
2.150000	-19.840760	143.019513	-0.176520	-111.593664	-0.176520	-111.593664	-19.902091	170.640040
2.200000	-19.803323	139.974542	-0.180139	-114.205808	-0.180139	-114.205808	-19.868935	168.426669
2.250000	-19.771567	136.925865	-0.183737	-116.820246	-0.183737	-116.820246	-19.841633	166.213380
2.300000	-19.745114	133.874029	-0.187320	-119.437043	-0.187320	-119.437043	-19.819813	163.999389
2.350000	-19.723596	130.819679	-0.190891	-122.056259	-0.190891	-122.056259	-19.803110	161.783855
2.400000	-19.706650	127.763560	-0.194456	-124.677951	-0.194456	-124.677951	-19.791161	159.565872
2.450000	-19.693921	124.706520	-0.198019	-127.302172	-0.198019	-127.302172	-19.783610	157.344465
2.500000	-19.685059	121.649512	-0.201582	-129.928976	-0.201582	-129.928976	-19.780102	155.118591
2.550000	-19.679855	118.593698	-0.205150	-132.558526	-0.205150	-132.558526	-19.780431	152.886831
2.600000	-19.677805	115.540253	-0.208724	-135.190759	-0.208724	-135.190759	-19.784074	150.648172
2.650000	-19.678575	112.490458	-0.212308	-137.825722	-0.212308	-137.825722	-19.790685	148.401335
2.700000	-19.681839	109.445695	-0.215904	-140.463460	-0.215904	-140.463460	-19.799926	146.144961
2.750000	-19.687278	106.407441	-0.219512	-143.104021	-0.219512	-143.104021	-19.811460	143.877617
2.800000	-19.694579	103.377263	-0.223135	-145.747449	-0.223135	-145.747449	-19.824956	141.597799
2.850000	-19.703437	100.356813	-0.226772	-148.393793	-0.226772	-148.393793	-19.840088	139.303937
2.900000	-19.713556	97.347818	-0.230426	-151.043098	-0.230426	-151.043098	-19.856537	136.994399
2.950000	-19.724649	94.352069	-0.234096	-153.695413	-0.234096	-153.695413	-19.873991	134.667497
3.000000	-19.736439	91.371415	-0.237783	-156.350786	-0.237783	-156.350786	-19.892146	132.321500
3.050000	-19.748660	88.407742	-0.241487	-159.009267	-0.241487	-159.009267	-19.910706	129.954642
3.100000	-19.761057	85.462972	-0.245208	-161.670906	-0.245208	-161.670906	-19.929385	127.565134
3.150000	-19.773388	82.539035	-0.248946	-164.335753	-0.248946	-164.335753	-19.947911	125.151174
3.200000	-19.785426	79.637863	-0.252701	-167.003861	-0.252701	-167.003861	-19.966019	122.710968
3.250000	-19.796954	76.761372	-0.256472	-169.675281	-0.256472	-169.675281	-19.983461	120.242737
3.300000	-19.807774	73.911442	-0.260260	-172.350067	-0.260260	-172.350067	-20.000001	117.744740
3.350000	-19.817701	71.089905	-0.264065	-175.028270	-0.264065	-175.028270	-20.015419	115.215285
3.400000	-19.826565	68.298525	-0.267884	-177.709947	-0.267884	-177.709947	-20.029509	112.652749
3.450000	-19.834214	65.538983	-0.271719	179.604850	-0.271719	179.604850	-20.042084	110.055594
3.500000	-19.840514	62.812860	-0.275568	176.916065	-0.275568	176.916065	-20.052973	107.422381
3.550000	-19.845345	60.121624	-0.279430	174.223643	-0.279430	174.223643	-20.062026	104.751790
3.600000	-19.848607	57.466613	-0.283304	171.527525	-0.283304	171.527525	-20.069112	102.042630
3.650000	-19.850219	54.849027	-0.287188	168.827656	-0.287188	168.827656	-20.074121	99.293856
3.700000	-19.850117	52.269911	-0.291083	166.123975	-0.291083	166.123975	-20.076964	96.504577
3.750000	-19.848256	49.730151	-0.294985	163.416422	-0.294985	163.416422	-20.077578	93.674069
3.800000	-19.844535	47.232231	-0.298893	160.704761	-0.298893	160.704761	-20.075823	90.799947
3.850000	-19.839028	44.774960	-0.302804	157.989097	-0.302804	157.989097	-20.071787	87.883652
3.900000	-19.831758	42.358681	-0.306716	155.269361	-0.306716	155.269361	-20.065488	84.925016
3.950000	-19.822765	39.983565	-0.310627	152.545486	-0.310627	152.545486	-20.056972	81.924042
4.000000	-19.812117	37.649612	-0.314534	149.817400	-0.314534	149.817400	-20.046318	78.880908
4.050000	-19.799903	35.356657	-0.318434	147.085028	-0.318434	147.085028	-20.033635	75.795953
4.100000	-19.786240	33.104384	-0.322324	144.348291	-0.322324	144.348291	-20.019069	72.669667
4.150000	-19.771271	30.892333	-0.326200	141.607110	-0.326200	141.607110	-20.002797	69.502675
4.200000	-19.755265	28.716098	-0.330061	138.861849	-0.330061	138.861849	-19.985166	66.299562
4.250000	-19.738211	26.582298	-0.333901	136.111580	-0.333901	136.111580	-19.966154	63.053807
4.300000	-19.720443	24.486697	-0.337716	133.356602	-0.337716	133.356602	-19.946189	59.769813
4.350000	-19.702225	22.428459	-0.341502	130.596817	-0.341502	130.596817	-19.925605	56.448541
4.400000	-19.683851	20.407100	-0.345257	127.832071	-0.345257	127.832071	-19.904776	53.090587
4.450000	-19.665665	18.421715	-0.348974	125.062252	-0.348974	125.062252	-19.884136	49.696951
4.500000	-19.648036	16.471065	-0.352650	122.287302	-0.352650	122.287302	-19.864151	46.268948
4.550000	-19.631367	14.554372	-0.356280	119.507101	-0.356280	119.507101	-19.845329	42.807418
4.600000	-19.616101	12.670968	-0.359860	116.721527	-0.359860	116.721527	-19.828223	39.313084
4.650000	-19.602715	10.820324	-0.363385	113.930446	-0.363385	113.930446	-19.813432	35.786516
4.700000	-19.591725	9.002104	-0.366849	111.133720	-0.366849	111.133720	-19.801602	32.228093
4.750000	-19.583688	7.216204	-0.370248	108.331202	-0.370248	108.331202	-19.793426	28.637960
4.800000	-19.579196	5.462802	-0.373577	105.522736	-0.373577	105.522736	-19.789648	25.015990
4.850000	-19.578881	3.742411	-0.376830	102.708155	-0.376830	102.708155	-19.791062	21.361730
4.900000	-19.583413	2.055940	-0.380001	99.887283	-0.380001	99.887283	-19.798515	17.674358
4.950000	-19.593497	0.404748	-0.383087	97.059932	-0.383087	97.059932	-19.812912	13.952624
5.000000	-19.609880	-1.209276	-0.386081	94.225899	-0.386081	94.225899	-19.835216	10.194785
5.050000	-19.633511	-2.782707	-0.388976	91.384814	-0.388976	91.384814	-19.866673	6.397632
5.100000	-19.665069	-4.313112	-0.391771	88.536592	-0.391771	88.536592	-19.908210	2.558940
5.150000	-19.705401	-5.796443	-0.394461	85.680986	-0.394461	85.680986	-19.961005	-1.325064
5.200000	-19.755382	-7.227722	-0.397043	82.817731	-0.397043	82.817731	-20.026314	-5.259046
5.250000	-19.815908	-8.600892	-0.399516	79.946543	-0.399516	79.946543	-20.105487	-9.248722
5.300000	-19.887889	-9.908650	-0.401878	77.067123	-0.401878	77.067123	-20.199973	-13.301054
5.350000	-19.972241	-11.142240	-0.404131	74.179148	-0.404131	74.179148	-20.311327	-17.424493
5.400000	-20.069862	-12.291213	-0.406277	71.282275	-0.406277	71.282275	-20.441227	-21.629297
5.450000	-20.181613	-13.343141	-0.408321	68.376140	-0.408321	68.376140	-20.591474	-25.927921
5.500000	-20.308279	-14.283284	-0.410270	65.460357	-0.410270	65.460357	-20.764004	-30.335531
5.550000	-20.450519	-15.094199	-0.412135	62.534518	-0.412135	62.534518	-20.960880	-34.870661
5.600000	-20.608793	-15.755309	-0.413929	59.598194	-0.413929	59.598194	-21.184285	-39.556065
5.650000	-20.783385	-16.240217	-0.415671	56.650807	-0.415671	56.650807	-21.436730	-44.422157
5.700000	-20.973939	-16.519526	-0.417383	53.691869	-0.417383	53.691869	-21.720488	-49.505289
5.750000	-21.179296	-16.562027	-0.419095	50.721004	-0.419095	50.721004	-22.037412	-54.847763
5.800000	-21.397479	-16.329926	-0.420838	47.737700	-0.420838	47.737700	-22.389188	-60.505070
5.850000	-21.625170	-15.781019	-0.422653	44.741428	-0.422653	44.741428	-22.776653	-66.546905
5.900000	-21.857241	-14.869804	-0.424586	41.731646	-0.424586	41.731646	-23.199034	-73.060485
5.950000	-22.086198	-13.549986	-0.426690	38.707801	-0.426690	38.707801	-23.652716	-80.153611
6.000000	-22.301611	-11.779055	-0.429026	35.669335	-0.429026	35.669335	-24.129288	-87.955853
6.050000	-22.489698	-9.525640	-0.431666	32.615685	-0.431666	32.615685	-24.612650	-96.614265
6.100000	-22.633328	-6.779831	-0.434686	29.546293	-0.434686	29.546293	-25.075268	-106.276955
6.150000	-22.712836	-3.565505	-0.438175	26.460609	-0.438175	26.460609	-25.474625	-117.054896
6.200000	-22.707978	0.048404	-0.442230	23.358097	-0.442230	23.358097	-25.752865	-128.955271
6.250000	-22.601046	3.942864	-0.446960	20.238245	-0.446960	20.238245	-25.844697	-141.799433
6.300000	-22.377735	7.953628	-0.452501	17.100173	-0.452501	17.100173	-25.690642	-155.176520
6.350000	-22.038171	11.888574	-0.458967	13.943818	-0.458967	13.943818	-25.278227	-168.488587
6.400000	-21.589978	15.570071	-0.466498	10.768788	-0.466498	10.768788	-24.635348	178.813090
6.450000	-21.048647	18.854471	-0.475241	7.574753	-0.475241	7.574753	-23.820510	167.091256
6.500000	-20.436864	21.660992	-0.485313	4.361980	-0.485313	4.361980	-22.903500	156.452740
6.550000	-19.770208	23.916755	-0.496947	1.129337	-0.496947	1.129337	-21.931187	146.922142
6.600000	-19.069806	25.621846	-0.510303	-2.123007	-0.510303	-2.123007	-20.947027	138.358333
6.650000	-18.352501	26.802073	-0.525553	-5.394936	-0.525553	-5.394936	-19.977367	130.603410
6.700000	-17.631464	27.499723	-0.542867	-8.686197	-0.542867	-8.686197	-19.037380	123.508838
6.750000	-16.915513	27.755436	-0.562463	-11.996799	-0.562463	-11.996799	-18.133913	116.957297
6.800000	-16.212066	27.621528	-0.584508	-15.326182	-0.584508	-15.326182	-17.270971	110.840683
6.850000	-15.525846	27.143612	-0.609186	-18.673830	-0.609186	-18.673830	-16.449363	105.077207
6.900000	-14.860009	26.363486	-0.636677	-22.039085	-0.636677	-22.039085	-15.668514	99.601867
6.950000	-14.216568	25.318505	-0.667152	-25.421144	-0.667152	-25.421144	-14.927132	94.363182
7.000000	-13.596721	24.041586	-0.700772	-28.819057	-0.700772	-28.819057	-14.223592	89.320371
7.050000	-13.001099	22.561512	-0.737680	-32.231730	-0.737680	-32.231730	-13.556167	84.441055
7.100000	-12.429885	20.902626	-0.778020	-35.657990	-0.778020	-35.657990	-12.923093	79.700014
7.150000	-11.883053	19.086446	-0.821912	-39.096505	-0.821912	-39.096505	-12.322747	75.076891
7.200000	-11.360527	17.133704	-0.869401	-42.545660	-0.869401	-42.545660	-11.753734	70.554024
7.250000	-10.861976	15.061094	-0.920530	-46.003874	-0.920530	-46.003874	-11.214644	66.118295
7.300000	-10.386997	12.883335	-0.975314	-49.469487	-0.975314	-49.469487	-10.704190	61.759153
7.350000	-9.935141	10.613472	-1.033725	-52.940787	-1.033725	-52.940787	-10.221192	57.468095
7.400000	-9.505935	8.263116	-1.095699	-56.416033	-1.095699	-56.416033	-9.764576	53.238270
7.450000	-9.098895	5.842651	-1.161128	-59.893492	-1.161128	-59.893492	-9.333359	49.064142
7.500000	-8.713534	3.361393	-1.229859	-63.371467	-1.229859	-63.371467	-8.926636	44.941224
7.550000	-8.349460	0.827081	-1.301724	-66.848299	-1.301724	-66.848299	-8.543680	40.866498
7.600000	-8.006136	-1.751889	-1.376436	-70.322478	-1.376436	-70.322478	-8.183657	36.836227
7.650000	-7.683093	-4.368745	-1.453696	-73.792660	-1.453696	-73.792660	-7.845855	32.847889
7.700000	-7.379875	-7.017397	-1.533160	-77.257696	-1.533160	-77.257696	-7.529617	28.899300
7.750000	-7.096046	-9.692379	-1.614434	-80.716674	-1.614434	-80.716674	-7.234340	24.988499
7.800000	-6.831198	-12.388816	-1.697078	-84.168965	-1.697078	-84.168965	-6.959477	21.113642
7.850000	-6.584948	-15.102384	-1.780606	-87.614262	-1.780606	-87.614262	-6.704533	17.272915
7.900000	-6.356954	-17.829292	-1.864487	-91.052625	-1.864487	-91.052625	-6.469076	13.464447
7.950000	-6.147104	-20.566358	-1.948123	-94.484449	-1.948123	-94.484449	-6.252940	9.686647
8.000000	-5.955580	-23.310797	-2.030799	-97.910629	-2.030799	-97.910629	-6.056289	5.937927
8.050000	-5.780609	-26.059748	-2.112124	-101.333108	-2.112124	-101.333108	-5.877218	2.212851
8.100000	-5.623706	-28.811831	-2.191111	-104.753578	-2.191111	-104.753578	-5.717349	-1.488573
8.150000	-5.484011	-31.565452	-2.267214	-108.174768	-2.267214	-108.174768	-5.575781	-5.170796
8.200000	-5.361635	-34.319562	-2.339671	-111.600060	-2.339671	-111.600060	-5.452673	-8.837484
8.250000	-5.257742	-37.073476	-2.407407	-115.034035	-2.407407	-115.034035	-5.349331	-12.492084
8.300000	-5.170790	-39.826859	-2.470239	-118.480415	-2.470239	-118.480415	-5.264179	-16.140393
8.350000	-5.104484	-42.579475	-2.526217	-121.948344	-2.526217	-121.948344	-5.201341	-19.787386
8.400000	-5.056087	-45.331485	-2.575805	-125.440688	-2.575805	-125.440688	-5.157981	-23.439056
8.450000	-5.030254	-48.082817	-2.616765	-128.971511	-2.616765	-128.971511	-5.139397	-27.104104
8.500000	-5.025653	-50.833419	-2.649361	-132.545607	-2.649361	-132.545607	-5.144363	-30.788551
8.550000	-5.046122	-53.582534	-2.672002	-136.178856	-2.672002	-136.178856	-5.177484	-34.503456
8.600000	-5.093825	-56.328545	-2.684049	-139.884096	-2.684049	-139.884096	-5.241632	-38.258469
8.650000	-5.170554	-59.068479	-2.685346	-143.673008	-2.685346	-143.673008	-5.339412	-42.062206
8.700000	-5.283360	-61.795517	-2.674266	-147.572757	-2.674266	-147.572757	-5.479784	-45.931692
8.750000	-5.436788	-64.498884	-2.650806	-151.602779	-2.650806	-151.602779	-5.669310	-49.878200
8.800000	-5.638929	-67.158798	-2.614654	-155.792500	-2.614654	-155.792500	-5.919523	-53.916450
8.850000	-5.898755	-69.743479	-2.566339	-160.171457	-2.566339	-160.171457	-6.244331	-58.056930
8.900000	-6.228777	-72.198495	-2.506857	-164.777286	-2.506857	-164.777286	-6.664388	-62.306864
8.950000	-6.643168	-74.438874	-2.438396	-169.647022	-2.438396	-169.647022	-7.206671	-66.659858
9.000000	-7.161879	-76.313984	-2.364165	-174.831971	-2.364165	-174.831971	-7.914654	-71.088956
9.050000	-7.806354	-77.567872	-2.289577	179.614269	-2.289577	179.614269	-8.853252	-75.509574
9.100000	-8.593620	-77.777240	-2.222624	173.639922	-2.222624	173.639922	-10.124635	-79.709804
9.150000	-9.519277	-76.232660	-2.174633	167.192601	-2.174633	167.192601	-11.907403	-83.144634
9.200000	-10.505339	-71.873943	-2.160931	160.231234	-2.160931	160.231234	-14.539977	-84.206755
9.250000	-11.302635	-63.674824	-2.200590	152.741166	-2.200590	152.741166	-18.672133	-76.725184
9.300000	-11.458304	-52.156646	-2.315892	144.743866	-2.315892	144.743866	-23.125011	-33.717217
9.350000	-10.679920	-40.830018	-2.530008	136.312923	-2.530008	136.312923	-18.563326	14.392172
9.400000	-9.249585	-33.404724	-2.863287	127.580418	-2.863287	127.580418	-13.542120	22.606639
9.450000	-7.664679	-30.575864	-3.329583	118.729013	-3.329583	118.729013	-10.181385	20.158603
9.500000	-6.223771	-31.112848	-3.930549	109.967617	-3.930549	109.967617	-7.821741	14.629221
9.550000	-5.022443	-33.699032	-4.657316	101.492077	-4.657316	101.492077	-6.104146	8.056622
9.600000	-4.062838	-37.385943	-5.492233	93.456512	-5.492233	93.456512	-4.831686	1.253584
9.650000	-3.313618	-41.568950	-6.412951	85.957775	-6.412951	85.957775	-3.880532	-5.392455
9.700000	-2.736004	-45.886275	-7.396248	79.038578	-7.396248	79.038578	-3.165779	-11.692148
9.750000	-2.294105	-50.131701	-8.419833	72.702073	-8.419833	72.702073	-2.626966	-17.560998
9.800000	-1.953601	-54.207175	-9.469809	66.895752	-9.469809	66.895752	-2.215068	-22.998356
9.850000	-1.692764	-58.061892	-10.528950	61.590979	-10.528950	61.590979	-1.900572	-28.005495
9.900000	-1.490414	-61.692093	-11.591185	56.719023	-11.591185	56.719023	-1.656655	-32.629352
9.950000	-1.333038	-65.101456	-12.647253	52.236198	-12.647253	52.236198	-1.466556	-36.903237
10.000000	-1.209877	-68.304683	-13.690560	48.100702	-13.690560	48.100702	-1.317234	-40.865721
