! freq	dB(S11)	phase(S11)	dB(S12)	phase(S12)	
!     	dB(S21)	phase(S21)	dB(S22)	phase(S22)	
!S-par simulation data
#  GHz  S  DB  R 50
0.000000	0.000000	0.000000	-320.162584	0.000000	-320.162584	0.000000	0.000000	0.000000
0.050000	-0.001490	-2.409057	-77.477198	86.870588	-77.477198	86.870588	-0.002307	-3.948715
0.100000	-0.005164	-4.807518	-71.476087	83.748588	-71.476087	83.748588	-0.008267	-7.884348
0.150000	-0.009618	-7.192486	-67.988134	80.636133	-67.988134	80.636133	-0.015963	-11.799995
0.200000	-0.013943	-9.567361	-65.535688	77.534287	-65.535688	77.534287	-0.023770	-15.696200
0.250000	-0.017841	-11.935126	-63.657590	74.446088	-63.657590	74.446088	-0.030895	-19.573878
0.300000	-0.021314	-14.297772	-62.148164	71.375051	-62.148164	71.375051	-0.037109	-23.433966
0.350000	-0.024470	-16.656170	-60.896093	68.323988	-60.896093	68.323988	-0.042521	-27.277070
0.400000	-0.027398	-19.010224	-59.835981	65.296432	-59.835981	65.296432	-0.047286	-31.102234
0.450000	-0.030166	-21.359238	-58.927162	62.297240	-58.927162	62.297240	-0.051551	-34.907159
0.500000	-0.032834	-23.702812	-58.138678	59.328646	-58.138678	59.328646	-0.055477	-38.691199
0.550000	-0.035439	-26.040267	-57.449869	56.394181	-57.449869	56.394181	-0.059166	-42.452713
0.600000	-0.038002	-28.370570	-56.847141	53.499396	-56.847141	53.499396	-0.062683	-46.188870
0.650000	-0.040544	-30.693275	-56.317459	50.646778	-56.317459	50.646778	-0.066090	-49.898946
0.700000	-0.043075	-33.007834	-55.851358	47.839659	-55.851358	47.839659	-0.069422	-53.581797
0.750000	-0.045601	-35.313379	-55.442635	45.083488	-55.442635	45.083488	-0.072701	-57.235235
0.800000	-0.048127	-37.609350	-55.085241	42.382330	-55.085241	42.382330	-0.075942	-60.858128
0.850000	-0.050654	-39.895592	-54.773072	39.738219	-54.773072	39.738219	-0.079156	-64.450602
0.900000	-0.053182	-42.171206	-54.503382	37.157884	-54.503382	37.157884	-0.082343	-68.010495
0.950000	-0.055710	-44.435863	-54.272269	34.645104	-54.272269	34.645104	-0.085507	-71.537452
1.000000	-0.058234	-46.689080	-54.076873	32.204968	-54.076873	32.204968	-0.088643	-75.030690
1.050000	-0.060752	-48.930567	-53.914308	29.841748	-53.914308	29.841748	-0.091750	-78.490027
1.100000	-0.063262	-51.159979	-53.782236	27.560469	-53.782236	27.560469	-0.094823	-81.915140
1.150000	-0.065758	-53.377002	-53.678549	25.366388	-53.678549	25.366388	-0.097859	-85.305832
1.200000	-0.068238	-55.581351	-53.601320	23.265018	-53.601320	23.265018	-0.100851	-88.662024
1.250000	-0.070699	-57.772774	-53.548752	21.262153	-53.548752	21.262153	-0.103797	-91.983744
1.300000	-0.073136	-59.950828	-53.519487	19.365693	-53.519487	19.365693	-0.106690	-95.270565
1.350000	-0.075547	-62.115525	-53.511474	17.580470	-53.511474	17.580470	-0.109527	-98.523280
1.400000	-0.077931	-64.266698	-53.523071	15.913227	-53.523071	15.913227	-0.112306	-101.742202
1.450000	-0.080283	-66.404200	-53.552619	14.371010	-53.552619	14.371010	-0.115024	-104.927723
1.500000	-0.082603	-68.527913	-53.598404	12.961134	-53.598404	12.961134	-0.117678	-108.080306
1.550000	-0.084889	-70.637740	-53.658615	11.691107	-53.658615	11.691107	-0.120266	-111.200475
1.600000	-0.087140	-72.733606	-53.731314	10.568527	-53.731314	10.568527	-0.122788	-114.288813
1.650000	-0.089355	-74.815459	-53.814390	9.600909	-53.814390	9.600909	-0.125243	-117.345950
1.700000	-0.091534	-76.883267	-53.905525	8.795459	-53.905525	8.795459	-0.127630	-120.372560
1.750000	-0.093677	-78.937018	-54.002160	8.158757	-54.002160	8.158757	-0.129951	-123.369356
1.800000	-0.095783	-80.976719	-54.101465	7.696357	-54.101465	7.696357	-0.132205	-126.337079
1.850000	-0.097853	-83.002393	-54.200328	7.412284	-54.200328	7.412284	-0.134395	-129.276499
1.900000	-0.099888	-85.013931	-54.295258	7.310402	-54.295258	7.310402	-0.136520	-132.188119
1.950000	-0.101889	-87.011392	-54.382479	7.389687	-54.382479	7.389687	-0.138584	-135.072774
2.000000	-0.103857	-88.995002	-54.458190	7.643554	-54.458190	7.643554	-0.140589	-137.931585
2.050000	-0.105794	-90.964848	-54.518447	8.063202	-54.518447	8.063202	-0.142537	-140.765383
2.100000	-0.107701	-92.921032	-54.559354	8.635156	-54.559354	8.635156	-0.144431	-143.575004
2.150000	-0.109580	-94.863667	-54.577235	9.341006	-54.577235	9.341006	-0.146275	-146.361287
2.200000	-0.111433	-96.792878	-54.568834	10.157514	-54.568834	10.157514	-0.148070	-149.125069
2.250000	-0.113262	-98.708804	-54.531516	11.057129	-54.531516	11.057129	-0.149821	-151.867185
2.300000	-0.115068	-100.611590	-54.463438	12.008942	-54.463438	12.008942	-0.151531	-154.588463
2.350000	-0.116853	-102.501394	-54.363690	12.980030	-54.363690	12.980030	-0.153202	-157.289725
2.400000	-0.118621	-104.378381	-54.232347	13.937028	-54.232347	13.937028	-0.154839	-159.971783
2.450000	-0.120372	-106.242727	-54.070451	14.847783	-54.070451	14.847783	-0.156444	-162.635437
2.500000	-0.122108	-108.094612	-53.879919	15.682848	-53.879919	15.682848	-0.158021	-165.281474
2.550000	-0.123832	-109.933965	-53.662754	16.414002	-53.662754	16.414002	-0.159573	-167.910320
2.600000	-0.125546	-111.761252	-53.422836	17.022381	-53.422836	17.022381	-0.161103	-170.523116
2.650000	-0.127251	-113.576675	-53.163642	17.492506	-53.163642	17.492506	-0.162616	-173.120601
2.700000	-0.128951	-115.380443	-52.888757	17.813807	-52.888757	17.813807	-0.164113	-175.703500
2.750000	-0.130645	-117.172767	-52.601715	17.980223	-52.601715	17.980223	-0.165599	-178.272518
2.800000	-0.132337	-118.953866	-52.305874	17.989601	-52.305874	17.989601	-0.167076	179.171659
2.850000	-0.134028	-120.723960	-52.004332	17.843020	-52.004332	17.843020	-0.168547	176.628364
2.900000	-0.135720	-122.483273	-51.699879	17.544098	-51.699879	17.544098	-0.170014	174.096949
2.950000	-0.137414	-124.232035	-51.394975	17.098346	-51.394975	17.098346	-0.171481	171.576786
3.000000	-0.139111	-125.970475	-51.091755	16.512611	-51.091755	16.512611	-0.172950	169.067271
3.050000	-0.140814	-127.698826	-50.792042	15.794598	-50.792042	15.794598	-0.174423	166.567818
3.100000	-0.142523	-129.417324	-50.497371	14.952502	-50.497371	14.952502	-0.175903	164.077862
3.150000	-0.144241	-131.126104	-50.209001	13.993546	-50.209001	13.993546	-0.177390	161.596953
3.200000	-0.145967	-132.825411	-49.928028	12.926374	-49.928028	12.926374	-0.178889	159.124554
3.250000	-0.147703	-134.515590	-49.655336	11.760416	-49.655336	11.760416	-0.180399	156.660068
3.300000	-0.149450	-136.196881	-49.391601	10.503554	-49.391601	10.503554	-0.181924	154.203022
3.350000	-0.151209	-137.869525	-49.137359	9.163321	-49.137359	9.163321	-0.183463	151.752960
3.400000	-0.152981	-139.533762	-48.893022	7.746858	-48.893022	7.746858	-0.185020	149.309453
3.450000	-0.154766	-141.189833	-48.658901	6.260902	-48.658901	6.260902	-0.186593	146.872089
3.500000	-0.156566	-142.837980	-48.435225	4.711780	-48.435225	4.711780	-0.188186	144.440482
3.550000	-0.158380	-144.478441	-48.222149	3.105412	-48.222149	3.105412	-0.189798	142.014266
3.600000	-0.160210	-146.111458	-48.019770	1.447329	-48.019770	1.447329	-0.191430	139.593098
3.650000	-0.162055	-147.737269	-47.828137	-0.257318	-47.828137	-0.257318	-0.193083	137.176654
3.700000	-0.163916	-149.356112	-47.647258	-2.003736	-47.647258	-2.003736	-0.194757	134.764635
3.750000	-0.165794	-150.968224	-47.477110	-3.787472	-47.477110	-3.787472	-0.196453	132.356763
3.800000	-0.167688	-152.573705	-47.317815	-5.605030	-47.317815	-5.605030	-0.198171	129.952857
3.850000	-0.169599	-154.172936	-47.169141	-7.451792	-47.169141	-7.451792	-0.199911	127.552594
3.900000	-0.171527	-155.766149	-47.030998	-9.324241	-47.030998	-9.324241	-0.201673	125.155759
3.950000	-0.173472	-157.353574	-46.903285	-11.219126	-46.903285	-11.219126	-0.203456	122.762159
4.000000	-0.175433	-158.935442	-46.785890	-13.133452	-46.785890	-13.133452	-0.205261	120.371621
4.050000	-0.177411	-160.511979	-46.678699	-15.064461	-46.678699	-15.064461	-0.207086	117.983993
4.100000	-0.179406	-162.083411	-46.581595	-17.009620	-46.581595	-17.009620	-0.208933	115.599142
4.150000	-0.181417	-163.649961	-46.494461	-18.966608	-46.494461	-18.966608	-0.210800	113.216954
4.200000	-0.183443	-165.211849	-46.417184	-20.933300	-46.417184	-20.933300	-0.212686	110.837336
4.250000	-0.185486	-166.769296	-46.349659	-22.907757	-46.349659	-22.907757	-0.214592	108.460211
4.300000	-0.187544	-168.322516	-46.291785	-24.888213	-46.291785	-24.888213	-0.216517	106.085523
4.350000	-0.189616	-169.871725	-46.243474	-26.873060	-46.243474	-26.873060	-0.218459	103.713233
4.400000	-0.191704	-171.417094	-46.204750	-28.860856	-46.204750	-28.860856	-0.220420	101.343345
4.450000	-0.193805	-172.958840	-46.175551	-30.850237	-46.175551	-30.850237	-0.222397	98.975854
4.500000	-0.195919	-174.497210	-46.155730	-32.839978	-46.155730	-32.839978	-0.224391	96.610747
4.550000	-0.198047	-176.032408	-46.145258	-34.828997	-46.145258	-34.828997	-0.226400	94.248053
4.600000	-0.200186	-177.564635	-46.144127	-36.816306	-46.144127	-36.816306	-0.228425	91.887815
4.650000	-0.202337	-179.094088	-46.152351	-38.801002	-46.152351	-38.801002	-0.230465	89.530091
4.700000	-0.204498	179.379037	-46.169968	-40.782251	-46.169968	-40.782251	-0.232520	87.174953
4.750000	-0.206670	177.854548	-46.197041	-42.759276	-46.197041	-42.759276	-0.234589	84.822487
4.800000	-0.208851	176.332255	-46.233662	-44.731342	-46.233662	-44.731342	-0.236672	82.472790
4.850000	-0.211040	174.811973	-46.279952	-46.697740	-46.279952	-46.697740	-0.238770	80.125972
4.900000	-0.213236	173.293517	-46.336067	-48.657773	-46.336067	-48.657773	-0.240882	77.782152
4.950000	-0.215439	171.776709	-46.402195	-50.610738	-46.402195	-50.610738	-0.243009	75.441462
5.000000	-0.217648	170.261369	-46.478562	-52.555908	-46.478562	-52.555908	-0.245150	73.104042
5.050000	-0.219862	168.747350	-46.565649	-54.492309	-46.565649	-54.492309	-0.247307	70.770118
5.100000	-0.222079	167.234448	-46.663559	-56.419271	-46.663559	-56.419271	-0.249481	68.439776
5.150000	-0.224299	165.722495	-46.772648	-58.335864	-46.772648	-58.335864	-0.251672	66.113180
5.200000	-0.226521	164.211329	-46.893328	-60.241045	-46.893328	-60.241045	-0.253881	63.790499
5.250000	-0.228744	162.700789	-47.026064	-62.133625	-47.026064	-62.133625	-0.256110	61.471908
5.300000	-0.230967	161.190716	-47.171381	-64.012235	-47.171381	-64.012235	-0.258360	59.157586
5.350000	-0.233188	159.680959	-47.329875	-65.875290	-47.329875	-65.875290	-0.260632	56.847716
5.400000	-0.235406	158.171366	-47.502211	-67.720941	-47.502211	-67.720941	-0.262930	54.542480
5.450000	-0.237621	156.661791	-47.689141	-69.547026	-47.689141	-69.547026	-0.265254	52.242067
5.500000	-0.239832	155.152091	-47.891505	-71.351001	-47.891505	-71.351001	-0.267608	49.946661
5.550000	-0.242036	153.642126	-48.110247	-73.129866	-48.110247	-73.129866	-0.269993	47.656450
5.600000	-0.244233	152.131761	-48.346427	-74.880074	-48.346427	-74.880074	-0.272414	45.371619
5.650000	-0.246422	150.620857	-48.601367	-76.596999	-48.601367	-76.596999	-0.274872	43.092412
5.700000	-0.248602	149.109282	-48.876414	-78.275411	-48.876414	-78.275411	-0.277373	40.819017
5.750000	-0.250771	147.596916	-49.172954	-79.909570	-49.172954	-79.909570	-0.279918	38.551548
5.800000	-0.252929	146.083641	-49.492699	-81.492130	-49.492699	-81.492130	-0.282512	36.290176
5.850000	-0.255073	144.569340	-49.837589	-83.014179	-49.837589	-83.014179	-0.285158	34.035068
5.900000	-0.257203	143.053900	-50.209832	-84.464838	-50.209832	-84.464838	-0.287862	31.786383
5.950000	-0.259318	141.537216	-50.611947	-85.830715	-50.611947	-85.830715	-0.290627	29.544272
6.000000	-0.261417	140.019181	-51.046815	-87.095172	-51.046815	-87.095172	-0.293458	27.308881
6.050000	-0.263498	138.499697	-51.517739	-88.237335	-51.517739	-88.237335	-0.296360	25.080344
6.100000	-0.265560	136.978669	-52.028508	-89.230705	-52.028508	-89.230705	-0.299338	22.858788
6.150000	-0.267602	135.456005	-52.583459	-90.041236	-52.583459	-90.041236	-0.302398	20.644330
6.200000	-0.269624	133.931619	-53.187526	-90.624578	-53.187526	-90.624578	-0.305545	18.437075
6.250000	-0.271623	132.405429	-53.846242	-90.922140	-53.846242	-90.922140	-0.308784	16.237117
6.300000	-0.273598	130.877315	-54.565653	-90.844974	-54.565653	-90.844974	-0.312124	14.044701
6.350000	-0.275548	129.347242	-55.351512	-90.289741	-55.351512	-90.289741	-0.315569	11.859737
6.400000	-0.277474	127.815143	-56.208749	-89.105116	-56.208749	-89.105116	-0.319126	9.682279
6.450000	-0.279372	126.280954	-57.138950	-87.080807	-57.138950	-87.080807	-0.322800	7.512371
6.500000	-0.281244	124.744617	-58.135395	-83.927434	-58.135395	-83.927434	-0.326599	5.350039
6.550000	-0.283086	123.206077	-59.173147	-79.263990	-59.173147	-79.263990	-0.330529	3.195297
6.600000	-0.284900	121.665285	-60.191617	-72.648877	-60.191617	-72.648877	-0.334597	1.048140
6.650000	-0.286683	120.122198	-61.072502	-63.737178	-61.072502	-63.737178	-0.338810	-1.091449
6.700000	-0.288435	118.576776	-61.637387	-52.647935	-61.637387	-52.647935	-0.343176	-3.223506
6.750000	-0.290155	117.028985	-61.714105	-40.361938	-61.714105	-40.361938	-0.347701	-5.348081
6.800000	-0.291842	115.478795	-61.261100	-28.529935	-61.261100	-28.529935	-0.352394	-7.465245
6.850000	-0.293496	113.926183	-60.405695	-18.539466	-60.405695	-18.539466	-0.357263	-9.575084
6.900000	-0.295115	112.371103	-59.336213	-10.900391	-59.336213	-10.900391	-0.362316	-11.677626
6.950000	-0.296700	110.813540	-58.203817	-5.393556	-58.203817	-5.393556	-0.367563	-13.773000
7.000000	-0.298249	109.253513	-57.093446	-1.553191	-57.093446	-1.553191	-0.373010	-15.861429
7.050000	-0.299763	107.691019	-56.041654	1.035106	-56.041654	1.035106	-0.378664	-17.943077
7.100000	-0.301241	106.126060	-55.060735	2.696744	-55.060735	2.696744	-0.384535	-20.018128
7.150000	-0.302683	104.558644	-54.151450	3.671123	-54.151450	3.671123	-0.390632	-22.086788
7.200000	-0.304088	102.988784	-53.309637	4.130916	-53.309637	4.130916	-0.396962	-24.149283
7.250000	-0.305457	101.416497	-52.529396	4.200706	-52.529396	4.200706	-0.403536	-26.205863
7.300000	-0.306789	99.841808	-51.804534	3.971223	-51.804534	3.971223	-0.410363	-28.256798
7.350000	-0.308085	98.264745	-51.129180	3.509421	-51.129180	3.509421	-0.417452	-30.302384
7.400000	-0.309344	96.685342	-50.498013	2.865420	-50.498013	2.865420	-0.424813	-32.342939
7.450000	-0.310567	95.103639	-49.906306	2.077278	-49.906306	2.077278	-0.432456	-34.378807
7.500000	-0.311754	93.519681	-49.349902	1.174280	-49.349902	1.174280	-0.440391	-36.410358
7.550000	-0.312905	91.933470	-48.825125	0.177659	-48.825125	0.177659	-0.448636	-38.437913
7.600000	-0.314021	90.345112	-48.328822	-0.892397	-48.328822	-0.892397	-0.457196	-40.461991
7.650000	-0.315103	88.754668	-47.858176	-2.021788	-47.858176	-2.021788	-0.466082	-42.483049
7.700000	-0.316151	87.162204	-47.410703	-3.199190	-47.410703	-3.199190	-0.475306	-44.501572
7.750000	-0.317167	85.567790	-46.984207	-4.415443	-46.984207	-4.415443	-0.484881	-46.518075
7.800000	-0.318151	83.971504	-46.576736	-5.663104	-46.576736	-5.663104	-0.494818	-48.533110
7.850000	-0.319105	82.373427	-46.186546	-6.936100	-46.186546	-6.936100	-0.505132	-50.547261
7.900000	-0.320029	80.773644	-45.812078	-8.229467	-45.812078	-8.229467	-0.515837	-52.561149
7.950000	-0.320926	79.172247	-45.451924	-9.539145	-45.451924	-9.539145	-0.526947	-54.575433
8.000000	-0.321796	77.569332	-45.104817	-10.861820	-45.104817	-10.861820	-0.538477	-56.590812
8.050000	-0.322641	75.965000	-44.769603	-12.194799	-44.769603	-12.194799	-0.550444	-58.608030
8.100000	-0.323463	74.359355	-44.445235	-13.535909	-44.445235	-13.535909	-0.562864	-60.627872
8.150000	-0.324263	72.752495	-44.130732	-14.883469	-44.130732	-14.883469	-0.575761	-62.651223
8.200000	-0.325044	71.144539	-43.825210	-16.236089	-43.825210	-16.236089	-0.589155	-64.679000
8.250000	-0.325807	69.535618	-43.527881	-17.592686	-43.527881	-17.592686	-0.603059	-66.712109
8.300000	-0.326556	67.925854	-43.238003	-18.952524	-43.238003	-18.952524	-0.617497	-68.751555
8.350000	-0.327292	66.315358	-42.954802	-20.315180	-42.954802	-20.315180	-0.632506	-70.798649
8.400000	-0.328018	64.704317	-42.677945	-21.680129	-42.677945	-21.680129	-0.648054	-72.853619
8.450000	-0.328735	63.092787	-42.406362	-23.047664	-42.406362	-23.047664	-0.664255	-74.919127
8.500000	-0.329448	61.480961	-42.139940	-24.417545	-42.139940	-24.417545	-0.681057	-76.995067
8.550000	-0.330159	59.868959	-41.877895	-25.790223	-41.877895	-25.790223	-0.698538	-79.083696
8.600000	-0.330871	58.256928	-41.619821	-27.166039	-41.619821	-27.166039	-0.716716	-81.186215
8.650000	-0.331586	56.645012	-41.365417	-28.545393	-41.365417	-28.545393	-0.735600	-83.303596
8.700000	-0.332308	55.033382	-41.113864	-29.929342	-41.113864	-29.929342	-0.755295	-85.439071
8.750000	-0.333040	53.422133	-40.865444	-31.317921	-40.865444	-31.317921	-0.775724	-87.591587
8.800000	-0.333787	51.811531	-40.618802	-32.713260	-40.618802	-32.713260	-0.797097	-89.767294
8.850000	-0.334549	50.201601	-40.374607	-34.115027	-40.374607	-34.115027	-0.819287	-91.963659
8.900000	-0.335333	48.592623	-40.131755	-35.525527	-40.131755	-35.525527	-0.842475	-94.186474
8.950000	-0.336140	46.984666	-39.890450	-36.945177	-39.890450	-36.945177	-0.866627	-96.435552
9.000000	-0.336975	45.377936	-39.650190	-38.375743	-39.650190	-38.375743	-0.891838	-98.714456
9.050000	-0.337842	43.772623	-39.410601	-39.818954	-39.410601	-39.818954	-0.918188	-101.026449
9.100000	-0.338743	42.168775	-39.171887	-41.275399	-39.171887	-41.275399	-0.945662	-103.371745
9.150000	-0.339686	40.566784	-38.932991	-42.748871	-38.932991	-42.748871	-0.974486	-105.758431
9.200000	-0.340668	38.966494	-38.694833	-44.238254	-38.694833	-44.238254	-1.004523	-108.182637
9.250000	-0.341701	37.368375	-38.456190	-45.748431	-38.456190	-45.748431	-1.036055	-110.654622
9.300000	-0.342784	35.772477	-38.217297	-47.280469	-38.217297	-47.280469	-1.069095	-113.175609
9.350000	-0.343924	34.178969	-37.978005	-48.836694	-37.978005	-48.836694	-1.103742	-115.749724
9.400000	-0.345122	32.588017	-37.738189	-50.419588	-37.738189	-50.419588	-1.140101	-118.381416
9.450000	-0.346385	30.999790	-37.497752	-52.031802	-37.497752	-52.031802	-1.178282	-121.075485
9.500000	-0.347716	29.414453	-37.256621	-53.676160	-37.256621	-53.676160	-1.218408	-123.837107
9.550000	-0.349118	27.832173	-37.014760	-55.355663	-37.014760	-55.355663	-1.260605	-126.671870
9.600000	-0.350598	26.253131	-36.772129	-57.073701	-36.772129	-57.073701	-1.305020	-129.586216
9.650000	-0.352159	24.677511	-36.528729	-58.833925	-36.528729	-58.833925	-1.351807	-132.587203
9.700000	-0.353805	23.105445	-36.284716	-60.639537	-36.284716	-60.639537	-1.401095	-135.681099
9.750000	-0.355540	21.537094	-36.040228	-62.494296	-36.040228	-62.494296	-1.453040	-138.875475
9.800000	-0.357368	19.972617	-35.795458	-64.402141	-35.795458	-64.402141	-1.507795	-142.178471
9.850000	-0.359294	18.412172	-35.550666	-66.367173	-35.550666	-66.367173	-1.565517	-145.598822
9.900000	-0.361321	16.855914	-35.306188	-68.393636	-35.306188	-68.393636	-1.626357	-149.145871
9.950000	-0.363454	15.303998	-35.062443	-70.485883	-35.062443	-70.485883	-1.690455	-152.829582
10.000000	-0.365697	13.756573	-34.819941	-72.648332	-34.819941	-72.648332	-1.757932	-156.660529
