! freq	dB(S11)	phase(S11)	dB(S12)	phase(S12)	
!     	dB(S21)	phase(S21)	dB(S22)	phase(S22)	
!S-par simulation data
#  GHz  S  DB  R 50
0.000000	-0.000000	0.000000	-303.235368	0.000000	-303.235368	0.000000	-0.000000	0.000000
0.050000	-0.000563	-0.878190	-102.698799	88.754720	-102.698799	88.754720	-0.002307	-2.418823
0.100000	-0.001888	-1.752078	-96.731843	86.926931	-96.731843	86.926931	-0.006108	-4.816274
0.150000	-0.003388	-2.621272	-93.277577	85.241157	-93.277577	85.241157	-0.009326	-7.202121
0.200000	-0.004778	-3.487508	-90.869839	83.625554	-90.869839	83.625554	-0.012162	-9.582694
0.250000	-0.006008	-4.352216	-89.051087	82.068994	-89.051087	82.068994	-0.014922	-11.958690
0.300000	-0.007119	-5.216253	-87.617790	80.572368	-87.617790	80.572368	-0.017747	-14.329366
0.350000	-0.008166	-6.080009	-86.458581	79.139106	-86.458581	79.139106	-0.020666	-16.694051
0.400000	-0.009184	-6.943607	-85.509686	77.778479	-85.509686	77.778479	-0.023667	-19.051953
0.450000	-0.010198	-7.807054	-84.734057	76.507089	-84.734057	76.507089	-0.026725	-21.402062
0.500000	-0.011219	-8.670320	-84.100152	75.336740	-84.100152	75.336740	-0.029807	-23.744193
0.550000	-0.012252	-9.533344	-83.589316	74.286928	-83.589316	74.286928	-0.032891	-26.077867
0.600000	-0.013299	-10.396035	-83.192694	73.390101	-83.192694	73.390101	-0.035956	-28.402195
0.650000	-0.014358	-11.258320	-82.898117	72.673540	-82.898117	72.673540	-0.038990	-30.717061
0.700000	-0.015425	-12.120123	-82.698488	72.174809	-82.698488	72.174809	-0.041984	-33.022157
0.750000	-0.016497	-12.981343	-82.592359	71.953634	-82.592359	71.953634	-0.044933	-35.316764
0.800000	-0.017572	-13.841897	-82.576568	72.078892	-82.576568	72.078892	-0.047833	-37.600495
0.850000	-0.018649	-14.701716	-82.647526	72.635849	-82.647526	72.635849	-0.050685	-39.873084
0.900000	-0.019725	-15.560735	-82.801770	73.738961	-82.801770	73.738961	-0.053488	-42.134178
0.950000	-0.020801	-16.418888	-83.033697	75.540694	-83.033697	75.540694	-0.056243	-44.383357
1.000000	-0.021877	-17.276122	-83.331295	78.233580	-83.331295	78.233580	-0.058949	-46.620258
1.050000	-0.022952	-18.132391	-83.671039	82.050341	-83.671039	82.050341	-0.061605	-48.844533
1.100000	-0.024026	-18.987656	-84.009912	87.239253	-84.009912	87.239253	-0.064210	-51.055849
1.150000	-0.025102	-19.841885	-84.276864	93.989086	-84.276864	93.989086	-0.066760	-53.253890
1.200000	-0.026178	-20.695050	-84.371834	102.280370	-84.371834	102.280370	-0.069252	-55.438355
1.250000	-0.027256	-21.547128	-84.187260	111.705730	-84.187260	111.705730	-0.071681	-57.608960
1.300000	-0.028335	-22.398075	-83.648043	121.419728	-83.648043	121.419728	-0.074039	-59.765120
1.350000	-0.029416	-23.247897	-82.780442	130.438362	-82.780442	130.438362	-0.076321	-61.906882
1.400000	-0.030498	-24.096578	-81.673816	138.102162	-81.673816	138.102162	-0.078522	-64.034000
1.450000	-0.031582	-24.944104	-80.435002	144.189913	-80.435002	144.189913	-0.080634	-66.146242
1.500000	-0.032667	-25.790461	-79.149843	148.794369	-79.149843	148.794369	-0.082654	-68.243384
1.550000	-0.033753	-26.635637	-77.873376	152.143281	-77.873376	152.143281	-0.084578	-70.325216
1.600000	-0.034840	-27.479617	-76.635739	154.483206	-76.635739	154.483206	-0.086406	-72.391541
1.650000	-0.035929	-28.322391	-75.451008	156.030041	-75.451008	156.030041	-0.088140	-74.442183
1.700000	-0.037017	-29.163944	-74.324048	156.957137	-74.324048	156.957137	-0.089787	-76.476987
1.750000	-0.038107	-30.004265	-73.254842	157.398630	-73.254842	157.398630	-0.091355	-78.495832
1.800000	-0.039197	-30.843339	-72.240968	157.456933	-72.240968	157.456933	-0.092859	-80.498631
1.850000	-0.040287	-31.681155	-71.278965	157.210137	-71.278965	157.210137	-0.094313	-82.485341
1.900000	-0.041378	-32.517684	-70.364534	156.715941	-70.364534	156.715941	-0.095733	-84.455788
1.950000	-0.042469	-33.352913	-69.494088	156.021763	-69.494088	156.021763	-0.097137	-86.410023
2.000000	-0.043561	-34.186842	-68.664613	155.165739	-68.664613	155.165739	-0.098541	-88.348314
2.050000	-0.044654	-35.019458	-67.872812	154.175873	-67.872812	154.175873	-0.099958	-90.270790
2.100000	-0.045748	-35.850746	-67.115698	153.074483	-67.115698	153.074483	-0.101399	-92.177615
2.150000	-0.046842	-36.680692	-66.390582	151.879521	-66.390582	151.879521	-0.102873	-94.068974
2.200000	-0.047938	-37.509284	-65.695047	150.605555	-65.695047	150.605555	-0.104385	-95.945073
2.250000	-0.049036	-38.336506	-65.026929	149.264509	-65.026929	149.264509	-0.105937	-97.806127
2.300000	-0.050135	-39.162345	-64.384281	147.866219	-64.384281	147.866219	-0.107530	-99.652360
2.350000	-0.051237	-39.986788	-63.765357	146.418858	-63.765357	146.418858	-0.109162	-101.483998
2.400000	-0.052341	-40.809820	-63.168581	144.929265	-63.168581	144.929265	-0.110831	-103.301272
2.450000	-0.053449	-41.631429	-62.592532	143.403202	-62.592532	143.403202	-0.112532	-105.104412
2.500000	-0.054560	-42.451600	-62.035925	141.845551	-62.035925	141.845551	-0.114263	-106.893647
2.550000	-0.055674	-43.270273	-61.497098	140.259682	-61.497098	140.259682	-0.116019	-108.668768
2.600000	-0.056793	-44.087482	-60.975552	138.650161	-60.975552	138.650161	-0.117795	-110.430462
2.650000	-0.057917	-44.903214	-60.470310	137.020013	-60.470310	137.020013	-0.119589	-112.178960
2.700000	-0.059045	-45.717456	-59.980479	135.371858	-59.980479	135.371858	-0.121395	-113.914496
2.750000	-0.060180	-46.530197	-59.505242	133.707978	-59.505242	133.707978	-0.123211	-115.637303
2.800000	-0.061320	-47.341424	-59.043848	132.030364	-59.043848	132.030364	-0.125035	-117.347618
2.850000	-0.062467	-48.151126	-58.595608	130.340766	-58.595608	130.340766	-0.126864	-119.045680
2.900000	-0.063620	-48.959292	-58.159883	128.640721	-58.159883	128.640721	-0.128695	-120.731728
2.950000	-0.064781	-49.765911	-57.736084	126.931590	-57.736084	126.931590	-0.130529	-122.406007
3.000000	-0.065950	-50.570972	-57.323666	125.214576	-57.323666	125.214576	-0.132362	-124.068759
3.050000	-0.067128	-51.374465	-56.922122	123.490753	-56.922122	123.490753	-0.134195	-125.720232
3.100000	-0.068314	-52.176381	-56.530981	121.761075	-56.530981	121.761075	-0.136027	-127.360672
3.150000	-0.069509	-52.976711	-56.149804	120.026398	-56.149804	120.026398	-0.137857	-128.990329
3.200000	-0.070714	-53.775445	-55.778180	118.287488	-55.778180	118.287488	-0.139685	-130.609452
3.250000	-0.071929	-54.572575	-55.415727	116.545035	-55.415727	116.545035	-0.141511	-132.218294
3.300000	-0.073155	-55.368092	-55.062085	114.799660	-55.062085	114.799660	-0.143336	-133.817106
3.350000	-0.074392	-56.161991	-54.716918	113.051926	-54.716918	113.051926	-0.145159	-135.406140
3.400000	-0.075641	-56.954262	-54.379908	111.302341	-54.379908	111.302341	-0.146981	-136.985648
3.450000	-0.076901	-57.744901	-54.050758	109.551365	-54.050758	109.551365	-0.148802	-138.555882
3.500000	-0.078174	-58.533899	-53.729187	107.799418	-53.729187	107.799418	-0.150624	-140.117093
3.550000	-0.079460	-59.321252	-53.414930	106.046881	-53.414930	106.046881	-0.152446	-141.669534
3.600000	-0.080759	-60.106955	-53.107736	104.294102	-53.107736	104.294102	-0.154270	-143.213455
3.650000	-0.082072	-60.891002	-52.807367	102.541397	-52.807367	102.541397	-0.156096	-144.749104
3.700000	-0.083400	-61.673390	-52.513601	100.789056	-52.513601	100.789056	-0.157924	-146.276731
3.750000	-0.084742	-62.454114	-52.226223	99.037343	-52.226223	99.037343	-0.159757	-147.796581
3.800000	-0.086099	-63.233098	-51.944904	97.286548	-51.944904	97.286548	-0.161594	-149.308586
3.850000	-0.087473	-64.010412	-51.669597	95.536860	-51.669597	95.536860	-0.163437	-150.813327
3.900000	-0.088862	-64.786054	-51.400116	93.788479	-51.400116	93.788479	-0.165287	-152.311046
3.950000	-0.090268	-65.560021	-51.136286	92.041586	-51.136286	92.041586	-0.167143	-153.801982
4.000000	-0.091691	-66.332313	-50.877939	90.296346	-50.877939	90.296346	-0.169007	-155.286374
4.050000	-0.093132	-67.102928	-50.624917	88.552911	-50.624917	88.552911	-0.170880	-156.764459
4.100000	-0.094590	-67.871865	-50.377066	86.811417	-50.377066	86.811417	-0.172763	-158.236469
4.150000	-0.096066	-68.639126	-50.134243	85.071989	-50.134243	85.071989	-0.174656	-159.702638
4.200000	-0.097561	-69.404710	-49.896306	83.334738	-49.896306	83.334738	-0.176560	-161.163193
4.250000	-0.099075	-70.168618	-49.663125	81.599766	-49.663125	81.599766	-0.178476	-162.618363
4.300000	-0.100608	-70.930852	-49.434572	79.867163	-49.434572	79.867163	-0.180404	-164.068372
4.350000	-0.102162	-71.691413	-49.210524	78.137009	-49.210524	78.137009	-0.182345	-165.513441
4.400000	-0.103736	-72.450304	-48.990867	76.409378	-48.990867	76.409378	-0.184300	-166.953792
4.450000	-0.105330	-73.207528	-48.775488	74.684332	-48.775488	74.684332	-0.186269	-168.389642
4.500000	-0.106946	-73.963088	-48.564281	72.961926	-48.564281	72.961926	-0.188253	-169.821204
4.550000	-0.108583	-74.716987	-48.357144	71.242209	-48.357144	71.242209	-0.190252	-171.248691
4.600000	-0.110242	-75.469230	-48.153978	69.525221	-48.153978	69.525221	-0.192266	-172.672313
4.650000	-0.111924	-76.219821	-47.954691	67.810997	-47.954691	67.810997	-0.194297	-174.092277
4.700000	-0.113629	-76.968766	-47.759192	66.099566	-47.759192	66.099566	-0.196343	-175.508786
4.750000	-0.115357	-77.716069	-47.567396	64.390951	-47.567396	64.390951	-0.198407	-176.922044
4.800000	-0.117109	-78.461736	-47.379221	62.685172	-47.379221	62.685172	-0.200487	-178.332248
4.850000	-0.118884	-79.205775	-47.194587	60.982242	-47.194587	60.982242	-0.202584	-179.739595
4.900000	-0.120685	-79.948191	-47.013421	59.282170	-47.013421	59.282170	-0.204698	178.855721
4.950000	-0.122510	-80.688992	-46.835649	57.584965	-46.835649	57.584965	-0.206829	177.453509
5.000000	-0.124361	-81.428185	-46.661204	55.890629	-46.661204	55.890629	-0.208978	176.053581
5.050000	-0.126238	-82.165708	-46.490015	54.199289	-46.490015	54.199289	-0.211144	174.655833
5.100000	-0.128142	-82.901641	-46.322030	52.510818	-46.322030	52.510818	-0.213327	173.259984
5.150000	-0.130073	-83.635992	-46.157190	50.825214	-46.157190	50.825214	-0.215528	171.865853
5.200000	-0.132031	-84.368770	-45.995437	49.142474	-45.995437	49.142474	-0.217745	170.473264
5.250000	-0.134016	-85.099985	-45.836718	47.462592	-45.836718	47.462592	-0.219978	169.082041
5.300000	-0.136029	-85.829646	-45.680980	45.785566	-45.680980	45.785566	-0.222228	167.692013
5.350000	-0.138070	-86.557764	-45.528176	44.111391	-45.528176	44.111391	-0.224493	166.303010
5.400000	-0.140141	-87.284350	-45.378259	42.440066	-45.378259	42.440066	-0.226773	164.914866
5.450000	-0.142240	-88.009415	-45.231185	40.771588	-45.231185	40.771588	-0.229069	163.527417
5.500000	-0.144369	-88.732969	-45.086912	39.105959	-45.086912	39.105959	-0.231379	162.140503
5.550000	-0.146528	-89.455025	-44.945401	37.443181	-44.945401	37.443181	-0.233702	160.753964
5.600000	-0.148718	-90.175595	-44.806616	35.783263	-44.806616	35.783263	-0.236039	159.367645
5.650000	-0.150938	-90.894691	-44.670521	34.126212	-44.670521	34.126212	-0.238388	157.981393
5.700000	-0.153190	-91.612327	-44.537083	32.472043	-44.537083	32.472043	-0.240749	156.595059
5.750000	-0.155473	-92.328514	-44.406271	30.820774	-44.406271	30.820774	-0.243120	155.208494
5.800000	-0.157789	-93.043268	-44.278057	29.172428	-44.278057	29.172428	-0.245502	153.821555
5.850000	-0.160137	-93.756600	-44.152412	27.527032	-44.152412	27.527032	-0.247893	152.434100
5.900000	-0.162518	-94.468527	-44.029312	25.884622	-44.029312	25.884622	-0.250293	151.045989
5.950000	-0.164932	-95.179061	-43.908732	24.245238	-43.908732	24.245238	-0.252700	149.657088
6.000000	-0.167380	-95.888218	-43.790649	22.608925	-43.790649	22.608925	-0.255113	148.267262
6.050000	-0.169862	-96.596013	-43.675042	20.975739	-43.675042	20.975739	-0.257532	146.876383
6.100000	-0.172379	-97.302461	-43.561891	19.345739	-43.561891	19.345739	-0.259955	145.484322
6.150000	-0.174930	-98.007578	-43.451178	17.718995	-43.451178	17.718995	-0.262382	144.090956
6.200000	-0.177518	-98.711380	-43.342884	16.095584	-43.342884	16.095584	-0.264811	142.696164
6.250000	-0.180140	-99.413882	-43.236994	14.475591	-43.236994	14.475591	-0.267240	141.299828
6.300000	-0.182801	-100.115048	-43.133541	12.859267	-43.133541	12.859267	-0.269670	139.901755
6.350000	-0.185498	-100.814950	-43.032465	11.246568	-43.032465	11.246568	-0.272098	138.501902
6.400000	-0.188233	-101.513604	-42.933749	9.637606	-42.933749	9.637606	-0.274524	137.100160
6.450000	-0.191004	-102.211030	-42.837381	8.032503	-42.837381	8.032503	-0.276946	135.696426
6.500000	-0.193814	-102.907244	-42.743347	6.431391	-42.743347	6.431391	-0.279362	134.290597
6.550000	-0.196662	-103.602264	-42.651633	4.834411	-42.651633	4.834411	-0.281773	132.882576
6.600000	-0.199548	-104.296110	-42.562227	3.241714	-42.562227	3.241714	-0.284176	131.472268
6.650000	-0.202474	-104.988798	-42.475114	1.653459	-42.475114	1.653459	-0.286570	130.059582
6.700000	-0.205439	-105.680349	-42.390283	0.069816	-42.390283	0.069816	-0.288954	128.644431
6.750000	-0.208443	-106.370780	-42.307721	-1.509036	-42.307721	-1.509036	-0.291327	127.226731
6.800000	-0.211488	-107.060113	-42.227413	-3.082909	-42.227413	-3.082909	-0.293688	125.806403
6.850000	-0.214573	-107.748365	-42.149346	-4.651605	-42.149346	-4.651605	-0.296035	124.383369
6.900000	-0.217700	-108.435558	-42.073507	-6.214918	-42.073507	-6.214918	-0.298367	122.957558
6.950000	-0.220867	-109.121710	-41.999879	-7.772632	-41.999879	-7.772632	-0.300684	121.528901
7.000000	-0.224076	-109.806843	-41.928449	-9.324524	-41.928449	-9.324524	-0.302983	120.097333
7.050000	-0.227328	-110.490978	-41.859199	-10.870360	-41.859199	-10.870360	-0.305264	118.662795
7.100000	-0.230621	-111.174134	-41.792114	-12.409902	-41.792114	-12.409902	-0.307527	117.225229
7.150000	-0.233958	-111.856334	-41.727174	-13.942900	-41.727174	-13.942900	-0.309769	115.784584
7.200000	-0.237337	-112.537598	-41.664363	-15.469100	-41.664363	-15.469100	-0.311990	114.340811
7.250000	-0.240760	-113.217948	-41.603659	-16.988240	-41.603659	-16.988240	-0.314189	112.893868
7.300000	-0.244227	-113.897406	-41.545042	-18.500051	-41.545042	-18.500051	-0.316366	111.443716
7.350000	-0.247738	-114.575995	-41.488490	-20.004259	-41.488490	-20.004259	-0.318519	109.990320
7.400000	-0.251293	-115.253736	-41.433980	-21.500583	-41.433980	-21.500583	-0.320648	108.533649
7.450000	-0.254894	-115.930651	-41.381487	-22.988738	-41.381487	-22.988738	-0.322752	107.073680
7.500000	-0.258539	-116.606765	-41.330985	-24.468435	-41.330985	-24.468435	-0.324831	105.610391
7.550000	-0.262232	-117.282067	-41.282521	-25.938985	-41.282521	-25.938985	-0.326883	104.143621
7.600000	-0.265970	-117.956616	-41.235992	-27.400456	-41.235992	-27.400456	-0.328910	102.673506
7.650000	-0.269755	-118.630434	-41.191367	-28.852549	-41.191367	-28.852549	-0.330910	101.200038
7.700000	-0.273586	-119.303546	-41.148617	-30.294959	-41.148617	-30.294959	-0.332884	99.723220
7.750000	-0.277464	-119.975977	-41.107707	-31.727380	-41.107707	-31.727380	-0.334832	98.243055
7.800000	-0.281389	-120.647749	-41.068604	-33.149503	-41.068604	-33.149503	-0.336753	96.759554
7.850000	-0.285361	-121.318888	-41.031271	-34.561020	-41.031271	-34.561020	-0.338649	95.272732
7.900000	-0.289381	-121.989419	-40.995674	-35.961620	-40.995674	-35.961620	-0.340520	93.782611
7.950000	-0.293448	-122.659366	-40.961773	-37.350992	-40.961773	-37.350992	-0.342365	92.289216
8.000000	-0.297564	-123.328755	-40.929529	-38.728823	-40.929529	-38.728823	-0.344186	90.792579
8.050000	-0.301728	-123.997611	-40.898903	-40.094804	-40.898903	-40.094804	-0.345984	89.292736
8.100000	-0.305941	-124.665961	-40.869852	-41.448621	-40.869852	-41.448621	-0.347760	87.789731
8.150000	-0.310202	-125.333829	-40.842335	-42.789965	-40.842335	-42.789965	-0.349514	86.283610
8.200000	-0.314513	-126.001243	-40.816307	-44.118524	-40.816307	-44.118524	-0.351247	84.774427
8.250000	-0.318873	-126.668229	-40.791726	-45.433987	-40.791726	-45.433987	-0.352962	83.262242
8.300000	-0.323282	-127.334813	-40.768545	-46.736047	-40.768545	-46.736047	-0.354660	81.747118
8.350000	-0.327741	-128.001023	-40.746720	-48.024392	-40.746720	-48.024392	-0.356342	80.229125
8.400000	-0.332250	-128.666885	-40.726203	-49.298716	-40.726203	-49.298716	-0.358011	78.708339
8.450000	-0.336809	-129.332428	-40.706948	-50.558709	-40.706948	-50.558709	-0.359668	77.184840
8.500000	-0.341418	-129.997679	-40.688908	-51.804065	-40.688908	-51.804065	-0.361315	75.658716
8.550000	-0.346078	-130.662665	-40.672035	-53.034475	-40.672035	-53.034475	-0.362956	74.130058
8.600000	-0.350788	-131.327416	-40.656282	-54.249632	-40.656282	-54.249632	-0.364592	72.598963
8.650000	-0.355548	-131.991960	-40.641600	-55.449227	-40.641600	-55.449227	-0.366227	71.065535
8.700000	-0.360360	-132.656326	-40.627942	-56.632950	-40.627942	-56.632950	-0.367863	69.529881
8.750000	-0.365223	-133.320542	-40.615259	-57.800491	-40.615259	-57.800491	-0.369503	67.992115
8.800000	-0.370138	-133.984635	-40.603543	-58.950805	-40.603543	-58.950805	-0.371150	66.452275
8.850000	-0.375105	-134.648639	-40.592705	-60.084279	-40.592705	-60.084279	-0.372809	64.910577
8.900000	-0.380123	-135.312586	-40.582699	-61.200596	-40.582699	-61.200596	-0.374482	63.367151
8.950000	-0.385192	-135.976506	-40.573479	-62.299432	-40.573479	-62.299432	-0.376174	61.822131
9.000000	-0.390313	-136.640429	-40.565000	-63.380461	-40.565000	-63.380461	-0.377888	60.275656
9.050000	-0.395485	-137.304385	-40.557220	-64.443351	-40.557220	-64.443351	-0.379628	58.727870
9.100000	-0.400708	-137.968406	-40.550095	-65.487764	-40.550095	-65.487764	-0.381398	57.178921
9.150000	-0.405982	-138.632524	-40.543586	-66.513355	-40.543586	-66.513355	-0.383202	55.628964
9.200000	-0.411308	-139.296769	-40.537653	-67.519771	-40.537653	-67.519771	-0.385045	54.078154
9.250000	-0.416685	-139.961174	-40.532259	-68.506653	-40.532259	-68.506653	-0.386932	52.526653
9.300000	-0.422113	-140.625772	-40.527369	-69.473629	-40.527369	-69.473629	-0.388867	50.974627
9.350000	-0.427593	-141.290594	-40.522950	-70.420321	-40.522950	-70.420321	-0.390854	49.422244
9.400000	-0.433123	-141.955673	-40.518971	-71.346336	-40.518971	-71.346336	-0.392898	47.869676
9.450000	-0.438704	-142.621044	-40.515406	-72.251272	-40.515406	-72.251272	-0.395005	46.317101
9.500000	-0.444337	-143.286739	-40.512230	-73.134713	-40.512230	-73.134713	-0.397179	44.764696
9.550000	-0.450020	-143.952792	-40.509421	-73.996230	-40.509421	-73.996230	-0.399426	43.212644
9.600000	-0.455753	-144.619238	-40.506963	-74.835380	-40.506963	-74.835380	-0.401750	41.661131
9.650000	-0.461537	-145.286111	-40.504842	-75.651703	-40.504842	-75.651703	-0.404156	40.110342
9.700000	-0.467371	-145.953446	-40.503050	-76.444727	-40.503050	-76.444727	-0.406650	38.560469
9.750000	-0.473254	-146.621279	-40.501582	-77.213960	-40.501582	-77.213960	-0.409237	37.011703
9.800000	-0.479188	-147.289644	-40.500442	-77.958896	-40.500442	-77.958896	-0.411922	35.464238
9.850000	-0.485170	-147.958578	-40.499634	-78.679012	-40.499634	-78.679012	-0.414710	33.918269
9.900000	-0.491202	-148.628117	-40.499174	-79.373768	-40.499174	-79.373768	-0.417607	32.373992
9.950000	-0.497283	-149.298299	-40.499082	-80.042607	-40.499082	-80.042607	-0.420618	30.831606
10.000000	-0.503411	-149.969159	-40.499385	-80.684957	-40.499385	-80.684957	-0.423747	29.291310
