! freq	dB(S11)	phase(S11)	dB(S12)	phase(S12)	
!     	dB(S21)	phase(S21)	dB(S22)	phase(S22)	
!S-par simulation data
#  GHz  S  DB  R 50
0.000000	-0.000000	0.000000	-337.126249	180.000000	-337.126249	180.000000	-0.000000	-0.000000
0.050000	-0.000711	-0.959918	-95.967819	88.024571	-95.967819	88.024571	-0.002338	-3.154229
0.100000	-0.002181	-1.913842	-89.984113	86.037381	-89.984113	86.037381	-0.007338	-6.286967
0.150000	-0.003654	-2.862929	-86.520785	84.046652	-86.520785	84.046652	-0.012466	-9.398628
0.200000	-0.004973	-3.809704	-84.099517	82.064299	-84.099517	82.064299	-0.017030	-12.495807
0.250000	-0.006185	-4.755336	-82.259428	80.101060	-82.259428	80.101060	-0.021128	-15.580906
0.300000	-0.007352	-5.700244	-80.795101	78.167530	-80.795101	78.167530	-0.024973	-18.653708
0.350000	-0.008509	-6.644565	-79.594745	76.272700	-79.594745	76.272700	-0.028707	-21.713366
0.400000	-0.009668	-7.588319	-78.593658	74.426596	-78.593658	74.426596	-0.032391	-24.758202
0.450000	-0.010837	-8.531484	-77.752933	72.641948	-77.752933	72.641948	-0.036048	-27.785742
0.500000	-0.012014	-9.474085	-77.041393	70.925628	-77.041393	70.925628	-0.039679	-30.795188
0.550000	-0.013199	-10.416115	-76.439351	69.287472	-76.439351	69.287472	-0.043276	-33.785034
0.600000	-0.014389	-11.357535	-75.935372	67.742945	-75.935372	67.742945	-0.046822	-36.752784
0.650000	-0.015584	-12.298343	-75.516631	66.301728	-75.516631	66.301728	-0.050305	-39.697784
0.700000	-0.016781	-13.238518	-75.174482	64.977154	-75.174482	64.977154	-0.053715	-42.618991
0.750000	-0.017978	-14.178005	-74.904604	63.790748	-74.904604	63.790748	-0.057036	-45.514413
0.800000	-0.019174	-15.116761	-74.701984	62.763891	-74.701984	62.763891	-0.060260	-48.382941
0.850000	-0.020369	-16.054750	-74.562017	61.920381	-74.562017	61.920381	-0.063380	-51.223843
0.900000	-0.021561	-16.991924	-74.481341	61.290372	-74.481341	61.290372	-0.066394	-54.036246
0.950000	-0.022749	-17.928229	-74.457294	60.911691	-74.457294	60.911691	-0.069298	-56.819192
1.000000	-0.023934	-18.863615	-74.486924	60.829238	-74.486924	60.829238	-0.072092	-59.571932
1.050000	-0.025116	-19.798031	-74.566751	61.097024	-74.566751	61.097024	-0.074776	-62.293825
1.100000	-0.026294	-20.731430	-74.692132	61.779392	-74.692132	61.779392	-0.077354	-64.984335
1.150000	-0.027470	-21.663765	-74.856378	62.951527	-74.856378	62.951527	-0.079829	-67.643031
1.200000	-0.028643	-22.594994	-75.049558	64.698230	-75.049558	64.698230	-0.082205	-70.269580
1.250000	-0.029814	-23.525077	-75.256968	67.109156	-75.256968	67.109156	-0.084488	-72.863748
1.300000	-0.030984	-24.453951	-75.456534	70.285399	-75.456534	70.285399	-0.086679	-75.424684
1.350000	-0.032154	-25.381605	-75.618643	74.265985	-75.618643	74.265985	-0.088787	-77.953040
1.400000	-0.033323	-26.308010	-75.706632	79.043208	-75.706632	79.043208	-0.090816	-80.448843
1.450000	-0.034494	-27.233135	-75.680475	84.513194	-75.680475	84.513194	-0.092770	-82.912196
1.500000	-0.035665	-28.156954	-75.504861	90.456555	-75.504861	90.456555	-0.094654	-85.343266
1.550000	-0.036838	-29.079443	-75.159336	96.557634	-75.159336	96.557634	-0.096472	-87.742283
1.600000	-0.038012	-30.000578	-74.645262	102.467665	-74.645262	102.467665	-0.098227	-90.109531
1.650000	-0.039188	-30.920337	-73.984989	107.884935	-73.984989	107.884935	-0.099924	-92.445345
1.700000	-0.040367	-31.838700	-73.213822	112.610689	-73.213822	112.610689	-0.101566	-94.750104
1.750000	-0.041547	-32.755648	-72.369941	116.559992	-72.369941	116.559992	-0.103156	-97.024226
1.800000	-0.042731	-33.671162	-71.487064	119.737951	-71.487064	119.737951	-0.104696	-99.268163
1.850000	-0.043916	-34.585224	-70.591274	122.204433	-70.591274	122.204433	-0.106190	-101.482398
1.900000	-0.045104	-35.497802	-69.700131	124.038052	-69.700131	124.038052	-0.107640	-103.667131
1.950000	-0.046295	-36.408877	-68.825947	125.330859	-68.825947	125.330859	-0.109050	-105.822910
2.000000	-0.047488	-37.318451	-67.976693	126.172516	-67.976693	126.172516	-0.110421	-107.950606
2.050000	-0.048684	-38.226508	-67.156163	126.635720	-67.156163	126.635720	-0.111757	-110.050785
2.100000	-0.049883	-39.133032	-66.366020	126.782267	-66.366020	126.782267	-0.113061	-112.124028
2.150000	-0.051085	-40.038010	-65.606566	126.663773	-65.606566	126.663773	-0.114335	-114.170924
2.200000	-0.052290	-40.941427	-64.877272	126.322973	-64.877272	126.322973	-0.115582	-116.192070
2.250000	-0.053498	-41.843270	-64.177120	125.795122	-64.177120	125.795122	-0.116805	-118.188068
2.300000	-0.054709	-42.743524	-63.504828	125.109291	-63.504828	125.109291	-0.118006	-120.159525
2.350000	-0.055924	-43.642177	-62.858995	124.289502	-62.858995	124.289502	-0.119187	-122.107048
2.400000	-0.057143	-44.539215	-62.238184	123.355665	-62.238184	123.355665	-0.120352	-124.031242
2.450000	-0.058365	-45.434627	-61.640980	122.324343	-61.640980	122.324343	-0.121503	-125.932715
2.500000	-0.059592	-46.328400	-61.066020	121.209380	-61.066020	121.209380	-0.122643	-127.812068
2.550000	-0.060823	-47.220486	-60.511699	120.021057	-60.511699	120.021057	-0.123773	-129.669445
2.600000	-0.062059	-48.110909	-59.977167	118.770882	-59.977167	118.770882	-0.124897	-131.505921
2.650000	-0.063301	-48.999657	-59.461278	117.467070	-59.461278	117.467070	-0.126016	-133.322084
2.700000	-0.064547	-49.886719	-58.962968	116.116620	-58.962968	116.116620	-0.127134	-135.118512
2.750000	-0.065799	-50.772084	-58.481250	114.725516	-58.481250	114.725516	-0.128251	-136.895779
2.800000	-0.067057	-51.655742	-58.015208	113.298899	-58.015208	113.298899	-0.129371	-138.654451
2.850000	-0.068320	-52.537681	-57.563996	111.841200	-57.563996	111.841200	-0.130496	-140.395083
2.900000	-0.069589	-53.417891	-57.126830	110.356252	-57.126830	110.356252	-0.131626	-142.118224
2.950000	-0.070863	-54.296361	-56.702984	108.847383	-56.702984	108.847383	-0.132765	-143.824412
3.000000	-0.072142	-55.173082	-56.291784	107.317493	-56.291784	107.317493	-0.133913	-145.514176
3.050000	-0.073424	-56.048047	-55.892606	105.769115	-55.892606	105.769115	-0.135073	-147.188038
3.100000	-0.074707	-56.921253	-55.504871	104.204468	-55.504871	104.204468	-0.136245	-148.846506
3.150000	-0.075990	-57.792684	-55.127979	102.625367	-55.127979	102.625367	-0.137431	-150.489925
3.200000	-0.077268	-58.662361	-54.761444	101.033582	-54.761444	101.033582	-0.138633	-152.118803
3.250000	-0.078540	-59.530344	-54.404859	99.430774	-54.404859	99.430774	-0.139851	-153.733780
3.300000	-0.079809	-60.396694	-54.057789	97.818278	-54.057789	97.818278	-0.141087	-155.335329
3.350000	-0.081085	-61.261423	-53.719707	96.197063	-53.719707	96.197063	-0.142342	-156.923547
3.400000	-0.082382	-62.124703	-53.390646	94.568926	-53.390646	94.568926	-0.143615	-158.500160
3.450000	-0.083719	-62.986220	-53.069640	92.933746	-53.069640	92.933746	-0.144908	-160.063706
3.500000	-0.085097	-63.846094	-52.756860	91.293202	-52.756860	91.293202	-0.146222	-161.616230
3.550000	-0.086515	-64.704103	-52.451724	89.647630	-52.451724	89.647630	-0.147556	-163.157268
3.600000	-0.087962	-65.560239	-52.154002	87.997795	-52.154002	87.997795	-0.148912	-164.687446
3.650000	-0.089430	-66.414572	-51.863528	86.344451	-51.863528	86.344451	-0.150289	-166.207577
3.700000	-0.090917	-67.266939	-51.579786	84.687826	-51.579786	84.687826	-0.151689	-167.717076
3.750000	-0.092417	-68.117646	-51.302911	83.028840	-51.302911	83.028840	-0.153109	-169.217838
3.800000	-0.093933	-68.966323	-51.032189	81.367449	-51.032189	81.367449	-0.154554	-170.708252
3.850000	-0.095462	-69.813372	-50.767863	79.704483	-50.767863	79.704483	-0.156018	-172.190624
3.900000	-0.097007	-70.658528	-50.509419	78.040055	-50.509419	78.040055	-0.157506	-173.663966
3.950000	-0.098567	-71.501972	-50.256840	76.374616	-50.256840	76.374616	-0.159015	-175.129439
4.000000	-0.100143	-72.343646	-50.009876	74.708432	-50.009876	74.708432	-0.160546	-176.587080
4.050000	-0.101738	-73.183522	-49.768327	73.041764	-49.768327	73.041764	-0.162098	-178.037081
4.100000	-0.103350	-74.021745	-49.532131	71.374888	-49.532131	71.374888	-0.163670	-179.480333
4.150000	-0.104982	-74.858086	-49.300970	69.708023	-49.300970	69.708023	-0.165265	179.083776
4.200000	-0.106633	-75.692855	-49.074885	68.041360	-49.074885	68.041360	-0.166877	177.653776
4.250000	-0.108306	-76.525725	-48.853551	66.375155	-48.853551	66.375155	-0.168512	176.230574
4.300000	-0.109999	-77.357005	-48.636986	64.709504	-48.636986	64.709504	-0.170165	174.812813
4.350000	-0.111714	-78.186504	-48.424974	63.044647	-48.424974	63.044647	-0.171837	173.400865
4.400000	-0.113452	-79.014331	-48.217434	61.380687	-48.217434	61.380687	-0.173528	171.994123
4.450000	-0.115212	-79.840495	-48.014249	59.717764	-48.014249	59.717764	-0.175237	170.592307
4.500000	-0.116997	-80.664909	-47.815287	58.056077	-47.815287	58.056077	-0.176963	169.195420
4.550000	-0.118804	-81.487777	-47.620482	56.395600	-47.620482	56.395600	-0.178706	167.802662
4.600000	-0.120639	-82.308822	-47.429691	54.736688	-47.429691	54.736688	-0.180467	166.414513
4.650000	-0.122496	-83.128374	-47.242857	53.079165	-47.242857	53.079165	-0.182242	165.029927
4.700000	-0.124382	-83.946162	-47.059871	51.423407	-47.059871	51.423407	-0.184033	163.649310
4.750000	-0.126292	-84.762418	-46.880653	49.769283	-46.880653	49.769283	-0.185839	162.271931
4.800000	-0.128230	-85.577030	-46.705122	48.117019	-46.705122	48.117019	-0.187660	160.897807
4.850000	-0.130196	-86.390045	-46.533200	46.466665	-46.533200	46.466665	-0.189494	159.526638
4.900000	-0.132188	-87.201536	-46.364804	44.818229	-46.364804	44.818229	-0.191342	158.158087
4.950000	-0.134211	-88.011369	-46.199885	43.171984	-46.199885	43.171984	-0.193203	156.792175
5.000000	-0.136260	-88.819797	-46.038330	41.527680	-46.038330	41.527680	-0.195076	155.428320
5.050000	-0.138341	-89.626570	-45.880133	39.885766	-45.880133	39.885766	-0.196962	154.066684
5.100000	-0.140452	-90.431832	-45.725205	38.246139	-45.725205	38.246139	-0.198859	152.706870
5.150000	-0.142593	-91.235598	-45.573487	36.608867	-45.573487	36.608867	-0.200768	151.348672
5.200000	-0.144765	-92.037887	-45.424922	34.974017	-45.424922	34.974017	-0.202687	149.991888
5.250000	-0.146968	-92.838717	-45.279456	33.341658	-45.279456	33.341658	-0.204617	148.636322
5.300000	-0.149203	-93.638107	-45.137036	31.711856	-45.137036	31.711856	-0.206557	147.281781
5.350000	-0.151471	-94.436075	-44.997613	30.084676	-44.997613	30.084676	-0.208506	145.928077
5.400000	-0.153771	-95.232642	-44.861140	28.460185	-44.861140	28.460185	-0.210465	144.575029
5.450000	-0.156105	-96.027828	-44.727572	26.838449	-44.727572	26.838449	-0.212433	143.222456
5.500000	-0.158472	-96.821653	-44.596865	25.219536	-44.596865	25.219536	-0.214409	141.870184
5.550000	-0.160873	-97.614139	-44.468978	23.603513	-44.468978	23.603513	-0.216394	140.518045
5.600000	-0.163308	-98.405306	-44.343871	21.990451	-44.343871	21.990451	-0.218387	139.165871
5.650000	-0.165779	-99.195178	-44.221508	20.380421	-44.221508	20.380421	-0.220388	137.813502
5.700000	-0.168285	-99.983776	-44.101852	18.773496	-44.101852	18.773496	-0.222397	136.460780
5.750000	-0.170827	-100.771123	-43.984870	17.169751	-43.984870	17.169751	-0.224413	135.107552
5.800000	-0.173405	-101.557244	-43.870528	15.569265	-43.870528	15.569265	-0.226436	133.753670
5.850000	-0.176020	-102.342162	-43.758795	13.972118	-43.758795	13.972118	-0.228466	132.398988
5.900000	-0.178672	-103.125902	-43.649642	12.378396	-43.649642	12.378396	-0.230503	131.043366
5.950000	-0.181362	-103.908487	-43.543040	10.788184	-43.543040	10.788184	-0.232546	129.686666
6.000000	-0.184089	-104.689945	-43.438962	9.201576	-43.438962	9.201576	-0.234596	128.328757
6.050000	-0.186855	-105.470300	-43.337382	7.618666	-43.337382	7.618666	-0.236651	126.969510
6.100000	-0.189660	-106.249578	-43.238274	6.039556	-43.238274	6.039556	-0.238713	125.608800
6.150000	-0.192504	-107.027807	-43.141615	4.464350	-43.141615	4.464350	-0.240780	124.246505
6.200000	-0.195388	-107.805013	-43.047382	2.893158	-43.047382	2.893158	-0.242853	122.882509
6.250000	-0.198311	-108.581224	-42.955551	1.326095	-42.955551	1.326095	-0.244931	121.516700
6.300000	-0.201277	-109.356427	-42.866166	-0.236527	-42.866166	-0.236527	-0.247014	120.148879
6.350000	-0.204284	-110.130694	-42.779144	-1.794759	-42.779144	-1.794759	-0.249103	118.779020
6.400000	-0.207331	-110.904054	-42.694464	-3.348468	-42.694464	-3.348468	-0.251197	117.407022
6.450000	-0.210421	-111.676536	-42.612105	-4.897514	-42.612105	-4.897514	-0.253295	116.032789
6.500000	-0.213552	-112.448170	-42.532047	-6.441749	-42.532047	-6.441749	-0.255398	114.656226
6.550000	-0.216726	-113.218986	-42.454271	-7.981022	-42.454271	-7.981022	-0.257506	113.277244
6.600000	-0.219943	-113.989015	-42.378755	-9.515171	-42.378755	-9.515171	-0.259618	111.895757
6.650000	-0.223202	-114.758288	-42.305480	-11.044030	-42.305480	-11.044030	-0.261735	110.511683
6.700000	-0.226506	-115.526835	-42.234425	-12.567426	-42.234425	-12.567426	-0.263857	109.124942
6.750000	-0.229853	-116.294690	-42.165568	-14.085177	-42.165568	-14.085177	-0.265983	107.735461
6.800000	-0.233244	-117.061884	-42.098888	-15.597096	-42.098888	-15.597096	-0.268115	106.343166
6.850000	-0.236680	-117.828451	-42.034362	-17.102991	-42.034362	-17.102991	-0.270251	104.947991
6.900000	-0.240161	-118.594422	-41.971966	-18.602660	-41.971966	-18.602660	-0.272392	103.549870
6.950000	-0.243688	-119.359833	-41.911676	-20.095897	-41.911676	-20.095897	-0.274539	102.148743
7.000000	-0.247260	-120.124716	-41.853465	-21.582490	-41.853465	-21.582490	-0.276692	100.744551
7.050000	-0.250878	-120.889106	-41.797306	-23.062223	-41.797306	-23.062223	-0.278851	99.337241
7.100000	-0.254542	-121.653038	-41.743168	-24.534874	-41.743168	-24.534874	-0.281017	97.926760
7.150000	-0.258253	-122.416548	-41.691020	-26.000216	-41.691020	-26.000216	-0.283191	96.513062
7.200000	-0.262011	-123.179671	-41.640829	-27.458022	-41.640829	-27.458022	-0.285374	95.096101
7.250000	-0.265817	-123.942442	-41.592557	-28.908059	-41.592557	-28.908059	-0.287566	93.675834
7.300000	-0.269670	-124.704899	-41.546165	-30.350096	-41.546165	-30.350096	-0.289769	92.252224
7.350000	-0.273571	-125.467079	-41.501611	-31.783901	-41.501611	-31.783901	-0.291984	90.825232
7.400000	-0.277521	-126.229018	-41.458849	-33.209243	-41.458849	-33.209243	-0.294213	89.394826
7.450000	-0.281519	-126.990754	-41.417829	-34.625894	-41.417829	-34.625894	-0.296457	87.960973
7.500000	-0.285566	-127.752327	-41.378498	-36.033631	-41.378498	-36.033631	-0.298719	86.523644
7.550000	-0.289664	-128.513770	-41.340859	-37.431833	-41.340859	-37.431833	-0.301003	85.082659
7.600000	-0.293812	-129.275130	-41.304782	-38.820682	-41.304782	-38.820682	-0.303309	83.638142
7.650000	-0.298010	-130.036447	-41.270199	-40.199984	-41.270199	-40.199984	-0.305642	82.190069
7.700000	-0.302258	-130.797760	-41.237035	-41.569564	-41.237035	-41.569564	-0.308006	80.738418
7.750000	-0.306556	-131.559110	-41.205208	-42.929264	-41.205208	-42.929264	-0.310404	79.283165
7.800000	-0.310905	-132.320538	-41.174629	-44.278948	-41.174629	-44.278948	-0.312841	77.824288
7.850000	-0.315304	-133.082085	-41.145204	-45.618510	-41.145204	-45.618510	-0.315324	76.361762
7.900000	-0.319755	-133.843792	-41.116826	-46.947874	-41.116826	-46.947874	-0.317857	74.895565
7.950000	-0.324257	-134.605702	-41.089382	-48.267007	-41.089382	-48.267007	-0.320450	73.425668
8.000000	-0.328811	-135.367857	-41.062749	-49.575919	-41.062749	-49.575919	-0.323109	71.952044
8.050000	-0.333417	-136.130301	-41.036789	-50.874677	-41.036789	-50.874677	-0.325844	70.474657
8.100000	-0.338074	-136.893076	-41.011355	-52.163409	-41.011355	-52.163409	-0.328667	68.993470
8.150000	-0.342784	-137.656227	-40.986282	-53.442324	-40.986282	-53.442324	-0.331589	67.508436
8.200000	-0.347546	-138.419797	-40.961391	-54.711720	-40.961391	-54.711720	-0.334626	66.019502
8.250000	-0.352360	-139.183832	-40.936483	-55.972003	-40.936483	-55.972003	-0.337795	64.526601
8.300000	-0.357227	-139.948376	-40.911336	-57.223710	-40.911336	-57.223710	-0.341114	63.029654
8.350000	-0.362144	-140.713439	-40.885759	-58.467926	-40.885759	-58.467926	-0.344596	61.528814
8.400000	-0.367115	-141.479114	-40.859429	-59.704872	-40.859429	-59.704872	-0.348282	60.023624
8.450000	-0.372142	-142.245490	-40.831929	-60.935461	-40.831929	-60.935461	-0.352222	58.513667
8.500000	-0.377220	-143.012524	-40.803082	-62.161820	-40.803082	-62.161820	-0.356422	56.999372
8.550000	-0.382352	-143.780318	-40.772357	-63.385429	-40.772357	-63.385429	-0.360952	55.480161
8.600000	-0.387536	-144.548904	-40.739334	-64.608544	-40.739334	-64.608544	-0.365863	53.955863
8.650000	-0.392772	-145.318299	-40.703585	-65.833904	-40.703585	-65.833904	-0.371212	52.426351
8.700000	-0.398062	-146.088633	-40.664166	-67.065488	-40.664166	-67.065488	-0.377138	50.890676
8.750000	-0.403400	-146.859812	-40.620983	-68.306403	-40.620983	-68.306403	-0.383657	49.349285
8.800000	-0.408795	-147.632090	-40.572104	-69.565531	-40.572104	-69.565531	-0.391078	47.800122
8.850000	-0.414236	-148.405302	-40.517700	-70.846400	-40.517700	-70.846400	-0.399408	46.243946
8.900000	-0.419728	-149.179656	-40.455435	-72.163359	-40.455435	-72.163359	-0.409071	44.678538
8.950000	-0.425267	-149.955093	-40.384596	-73.525952	-40.384596	-73.525952	-0.420278	43.103591
9.000000	-0.430851	-150.731704	-40.302906	-74.954591	-40.302906	-74.954591	-0.433579	41.517232
9.050000	-0.436477	-151.509554	-40.207806	-76.476308	-40.207806	-76.476308	-0.449699	39.917450
9.100000	-0.442138	-152.288593	-40.097700	-78.118370	-40.097700	-78.118370	-0.469363	38.303315
9.150000	-0.447830	-153.069036	-39.966525	-79.955987	-39.966525	-79.955987	-0.494683	36.670483
9.200000	-0.453536	-153.850695	-39.814572	-82.028107	-39.814572	-82.028107	-0.526758	35.020611
9.250000	-0.459237	-154.633844	-39.633708	-84.503699	-39.633708	-84.503699	-0.570444	33.351578
9.300000	-0.464894	-155.418516	-39.423513	-87.571177	-39.423513	-87.571177	-0.631199	31.673574
9.350000	-0.470442	-156.205004	-39.190000	-91.572233	-39.190000	-91.572233	-0.718585	30.019075
9.400000	-0.475782	-156.994119	-38.964566	-97.050157	-38.964566	-97.050157	-0.845842	28.481553
9.450000	-0.480870	-157.788454	-38.860285	-104.951576	-38.860285	-104.951576	-1.025515	27.326407
9.500000	-0.486372	-158.592066	-39.210675	-116.166173	-39.210675	-116.166173	-1.220896	27.075669
9.550000	-0.493727	-159.398732	-40.697604	-129.250860	-40.697604	-129.250860	-1.266360	27.880966
9.600000	-0.501794	-160.196538	-43.793313	-136.245306	-43.793313	-136.245306	-1.051495	28.266346
9.650000	-0.509162	-160.990952	-47.222280	-126.418776	-47.222280	-126.418776	-0.778521	27.180588
9.700000	-0.516029	-161.787235	-48.363044	-105.647641	-48.363044	-105.647641	-0.593622	25.318510
9.750000	-0.522692	-162.586448	-47.560244	-91.673246	-47.560244	-91.673246	-0.490281	23.300418
9.800000	-0.529297	-163.388511	-46.531683	-85.385190	-46.531683	-85.385190	-0.434082	21.333730
9.850000	-0.535904	-164.193354	-45.717645	-82.839863	-45.717645	-82.839863	-0.403954	19.454671
9.900000	-0.542540	-165.000759	-45.106217	-81.870177	-45.106217	-81.870177	-0.387550	17.650093
9.950000	-0.549215	-165.810739	-44.644677	-81.663499	-44.644677	-81.663499	-0.379309	15.906164
10.000000	-0.555935	-166.623289	-44.288022	-81.832226	-44.288022	-81.832226	-0.375978	14.209225
