! freq	dB(S11)	phase(S11)	dB(S12)	phase(S12)	
!     	dB(S21)	phase(S21)	dB(S22)	phase(S22)	
!S-par simulation data
#  GHz  S  DB  R 50
0.000000	-81.725578	0.000000	-0.000712	0.000000	-0.000712	0.000000	-81.725579	0.000000
0.050000	-46.997267	-86.166607	-0.004838	-2.911681	-0.004838	-2.911681	-47.100323	-88.078596
0.100000	-41.121650	-90.818592	-0.011449	-5.786818	-0.011449	-5.786818	-41.181194	-95.044442
0.150000	-37.639391	-93.686538	-0.016763	-8.645947	-0.016763	-8.645947	-37.695277	-100.050350
0.200000	-35.167049	-96.082876	-0.021239	-11.502339	-0.021239	-11.502339	-35.225112	-104.559201
0.250000	-33.255189	-98.262667	-0.025440	-14.358819	-0.025440	-14.358819	-33.316217	-108.845550
0.300000	-31.700811	-100.333770	-0.029703	-17.215347	-0.029703	-17.215347	-31.763958	-113.029279
0.350000	-30.394351	-102.338522	-0.034132	-20.071338	-0.034132	-20.071338	-30.458452	-117.159772
0.400000	-29.269919	-104.298265	-0.038742	-22.926315	-0.038742	-22.926315	-29.333858	-121.262716
0.450000	-28.287609	-106.216380	-0.043540	-25.779623	-0.043540	-25.779623	-28.350123	-125.349717
0.500000	-27.415980	-108.105524	-0.048448	-28.631349	-0.048448	-28.631349	-27.476137	-129.432196
0.550000	-26.635491	-109.965960	-0.053413	-31.481345	-0.053413	-31.481345	-26.692291	-133.515245
0.600000	-25.931057	-111.798654	-0.058368	-34.329765	-0.058368	-34.329765	-25.983506	-137.602769
0.650000	-25.289652	-113.607271	-0.063258	-37.177118	-0.063258	-37.177118	-25.336973	-141.696445
0.700000	-24.704040	-115.387596	-0.068027	-40.023805	-0.068027	-40.023805	-24.745257	-145.798908
0.750000	-24.165446	-117.142637	-0.072673	-42.870516	-0.072673	-42.870516	-24.199902	-149.909934
0.800000	-23.668065	-118.871721	-0.077211	-45.717839	-0.077211	-45.717839	-23.695255	-154.030120
0.850000	-23.207894	-120.571838	-0.081678	-48.566398	-0.081678	-48.566398	-23.227436	-158.160997
0.900000	-22.780245	-122.243806	-0.086150	-51.416520	-0.086150	-51.416520	-22.792103	-162.303132
0.950000	-22.381756	-123.886652	-0.090698	-54.268372	-0.090698	-54.268372	-22.386144	-166.458290
1.000000	-22.009473	-125.499714	-0.095390	-57.121915	-0.095390	-57.121915	-22.006812	-170.628678
1.050000	-21.660833	-127.082460	-0.100271	-59.976968	-0.100271	-59.976968	-21.651670	-174.816824
1.100000	-21.333581	-128.634515	-0.105363	-62.833285	-0.105363	-62.833285	-21.318497	-179.025305
1.150000	-21.025710	-130.155679	-0.110667	-65.690633	-0.110667	-65.690633	-21.005247	176.743517
1.200000	-20.735411	-131.645933	-0.116165	-68.548836	-0.116165	-68.548836	-20.710015	172.487678
1.250000	-20.461035	-133.105431	-0.121829	-71.407808	-0.121829	-71.407808	-20.431036	168.205699
1.300000	-20.201188	-134.533849	-0.127629	-74.267568	-0.127629	-74.267568	-20.166793	163.895987
1.350000	-19.954313	-135.932356	-0.133532	-77.128183	-0.133532	-77.128183	-19.915633	159.558607
1.400000	-19.719095	-137.301611	-0.139511	-79.989796	-0.139511	-79.989796	-19.676165	155.193446
1.450000	-19.494302	-138.642439	-0.145546	-82.852588	-0.145546	-82.852588	-19.447113	150.800736
1.500000	-19.278778	-139.955835	-0.151624	-85.716762	-0.151624	-85.716762	-19.227298	146.381003
1.550000	-19.071437	-141.242973	-0.157736	-88.582532	-0.157736	-88.582532	-19.015634	141.935049
1.600000	-18.871259	-142.505222	-0.163881	-91.450111	-0.163881	-91.450111	-18.811117	137.463921
1.650000	-18.677288	-143.744151	-0.170061	-94.319704	-0.170061	-94.319704	-18.612821	132.968903
1.700000	-18.488634	-144.961542	-0.176282	-97.191502	-0.176282	-97.191502	-18.419890	128.451508
1.750000	-18.304467	-146.159389	-0.182553	-100.065684	-0.182553	-100.065684	-18.231539	123.913462
1.800000	-18.124022	-147.339902	-0.188888	-102.942406	-0.188888	-102.942406	-18.047047	119.356702
1.850000	-17.946599	-148.505495	-0.195299	-105.821809	-0.195299	-105.821809	-17.865757	114.783362
1.900000	-17.771544	-149.658675	-0.201803	-108.704046	-0.201803	-108.704046	-17.687062	110.195627
1.950000	-17.598272	-150.802324	-0.208416	-111.589221	-0.208416	-111.589221	-17.510419	105.596064
2.000000	-17.426299	-151.939516	-0.215153	-114.477387	-0.215153	-114.477387	-17.335380	100.987450
2.050000	-17.255194	-153.073310	-0.222031	-117.368609	-0.222031	-117.368609	-17.161547	96.372518
2.100000	-17.084597	-154.206845	-0.229063	-120.262937	-0.229063	-120.262937	-16.988586	91.754081
2.150000	-16.914213	-155.343303	-0.236266	-123.160404	-0.236266	-123.160404	-16.816226	87.135000
2.200000	-16.743818	-156.485872	-0.243654	-126.061032	-0.243654	-126.061032	-16.644255	82.518150
2.250000	-16.573248	-157.637704	-0.251238	-128.964827	-0.251238	-128.964827	-16.472524	77.906384
2.300000	-16.402406	-158.801875	-0.259031	-131.871785	-0.259031	-131.871785	-16.300936	73.302499
2.350000	-16.231250	-159.981349	-0.267042	-134.781893	-0.267042	-134.781893	-16.129453	68.709206
2.400000	-16.059796	-161.178936	-0.275279	-137.695127	-0.275279	-137.695127	-15.958085	64.129093
2.450000	-15.888108	-162.397270	-0.283750	-140.611457	-0.283750	-140.611457	-15.786886	59.564599
2.500000	-15.716294	-163.638773	-0.292458	-143.530848	-0.292458	-143.530848	-15.615957	55.017989
2.550000	-15.544437	-164.906235	-0.301411	-146.453322	-0.301411	-146.453322	-15.445372	50.491810
2.600000	-15.372796	-166.201078	-0.310607	-149.378769	-0.310607	-149.378769	-15.275367	45.987512
2.650000	-15.201585	-167.524967	-0.320042	-152.307142	-0.320042	-152.307142	-15.106141	41.506705
2.700000	-15.031039	-168.879300	-0.329714	-155.238394	-0.329714	-155.238394	-14.937910	37.050760
2.750000	-14.861409	-170.265206	-0.339618	-158.172481	-0.339618	-158.172481	-14.770911	32.620806
2.800000	-14.692957	-171.683551	-0.349747	-161.109357	-0.349747	-161.109357	-14.605390	28.217729
2.850000	-14.525950	-173.134938	-0.360091	-164.048983	-0.360091	-164.048983	-14.441602	23.842169
2.900000	-14.360661	-174.619724	-0.370640	-166.991324	-0.370640	-166.991324	-14.279806	19.494528
2.950000	-14.197357	-176.138027	-0.381381	-169.936349	-0.381381	-169.936349	-14.120263	15.174977
3.000000	-14.036302	-177.689743	-0.392299	-172.884037	-0.392299	-172.884037	-13.963227	10.883461
3.050000	-13.877753	-179.274560	-0.403379	-175.834373	-0.403379	-175.834373	-13.808951	6.619709
3.100000	-13.721953	179.108026	-0.414601	-178.787352	-0.414601	-178.787352	-13.657678	2.383248
3.150000	-13.569144	177.458360	-0.425949	178.256990	-0.425949	178.256990	-13.509651	-1.826311
3.200000	-13.419555	175.777314	-0.437401	175.298636	-0.437401	175.298636	-13.365105	-6.009855
3.250000	-13.273388	174.066231	-0.448934	172.337584	-0.448934	172.337584	-13.224239	-10.168710
3.300000	-13.130832	172.326236	-0.460525	169.373789	-0.460525	169.373789	-13.087250	-14.304074
3.350000	-12.992058	170.558567	-0.472149	166.407193	-0.472149	166.407193	-12.954318	-18.417297
3.400000	-12.857223	168.764570	-0.483784	163.437722	-0.483784	163.437722	-12.825609	-22.509872
3.450000	-12.726467	166.945680	-0.495402	160.465288	-0.495402	160.465288	-12.701273	-26.583430
3.500000	-12.599913	165.103419	-0.506980	157.489783	-0.506980	157.489783	-12.581446	-30.639730
3.550000	-12.477667	163.239382	-0.518491	154.511086	-0.518491	154.511086	-12.466250	-34.680653
3.600000	-12.359821	161.355236	-0.529910	151.529055	-0.529910	151.529055	-12.355790	-38.708203
3.650000	-12.246452	159.452707	-0.541210	148.543532	-0.541210	148.543532	-12.250157	-42.724494
3.700000	-12.137619	157.533583	-0.552367	145.554339	-0.552367	145.554339	-12.149428	-46.731755
3.750000	-12.033366	155.599706	-0.563357	142.561279	-0.563357	142.561279	-12.053664	-50.732323
3.800000	-11.933802	153.652735	-0.574149	139.564043	-0.574149	139.564043	-11.963002	-54.728611
3.850000	-11.838869	151.694941	-0.584727	136.562479	-0.584727	136.562479	-11.877390	-58.723328
3.900000	-11.748564	149.728322	-0.595068	133.556330	-0.595068	133.556330	-11.796844	-62.719142
3.950000	-11.662871	147.754926	-0.605152	130.545322	-0.605152	130.545322	-11.721365	-66.718828
4.000000	-11.581757	145.776849	-0.614963	127.529159	-0.614963	127.529159	-11.650937	-70.725271
4.050000	-11.505174	143.796235	-0.624483	124.507527	-0.624483	124.507527	-11.585530	-74.741461
4.100000	-11.433053	141.815277	-0.633699	121.480095	-0.633699	121.480095	-11.525094	-78.770500
4.150000	-11.365313	139.836215	-0.642601	118.446509	-0.642601	118.446509	-11.469561	-82.815597
4.200000	-11.301849	137.861337	-0.651180	115.406402	-0.651180	115.406402	-11.418846	-86.880067
4.250000	-11.242538	135.892975	-0.659430	112.359386	-0.659430	112.359386	-11.372837	-90.967335
4.300000	-11.187235	133.933502	-0.667351	109.305058	-0.667351	109.305058	-11.331403	-95.080924
4.350000	-11.135770	131.985328	-0.674944	106.242999	-0.674944	106.242999	-11.294384	-99.224459
4.400000	-11.087983	130.051072	-0.682212	103.172681	-0.682212	103.172681	-11.261635	-103.402060
4.450000	-11.043643	128.133282	-0.689165	100.093643	-0.689165	100.093643	-11.232928	-107.617655
4.500000	-11.002460	126.234282	-0.695822	97.005513	-0.695822	97.005513	-11.207960	-111.874742
4.550000	-10.964143	124.356542	-0.702203	93.907823	-0.702203	93.907823	-11.186436	-116.177230
4.600000	-10.928370	122.502505	-0.708333	90.800096	-0.708333	90.800096	-11.168015	-120.529054
4.650000	-10.894779	120.674568	-0.714242	87.681850	-0.714242	87.681850	-11.152310	-124.934138
4.700000	-10.862967	118.875053	-0.719966	84.552599	-0.719966	84.552599	-11.138883	-129.396364
4.750000	-10.832490	117.106173	-0.725547	81.411859	-0.725547	81.411859	-11.127244	-133.919522
4.800000	-10.802860	115.369995	-0.731031	78.259149	-0.731031	78.259149	-11.116840	-138.507262
4.850000	-10.773542	113.668394	-0.736473	75.093997	-0.736473	75.093997	-11.107060	-143.163023
4.900000	-10.743958	112.003003	-0.741932	71.915946	-0.741932	71.915946	-11.097231	-147.889968
4.950000	-10.713483	110.375158	-0.747475	68.724563	-0.747475	68.724563	-11.086613	-152.690896
5.000000	-10.681452	108.785837	-0.753175	65.519453	-0.753175	65.519453	-11.074408	-157.568152
5.050000	-10.647090	107.236448	-0.759126	62.299967	-0.759126	62.299967	-11.059681	-162.525251
5.100000	-10.609693	105.726185	-0.765430	59.066124	-0.765430	59.066124	-11.041552	-167.561613
5.150000	-10.568496	104.254523	-0.772233	55.817575	-0.772233	55.817575	-11.019065	-172.677537
5.200000	-10.522722	102.820320	-0.779689	52.553550	-0.779689	52.553550	-10.991234	-177.872444
5.250000	-10.471593	101.421763	-0.787853	49.273070	-0.787853	49.273070	-10.957065	176.855221
5.300000	-10.414345	100.056336	-0.796717	45.975968	-0.796717	45.975968	-10.915571	171.508065
5.350000	-10.350247	98.720788	-0.806369	42.662626	-0.806369	42.662626	-10.865801	166.089804
5.400000	-10.278620	97.411138	-0.816963	39.333216	-0.816963	39.333216	-10.806869	160.605281
5.450000	-10.198852	96.122698	-0.828654	35.987715	-0.828654	35.987715	-10.737975	155.060451
5.500000	-10.110427	94.850118	-0.841586	32.626097	-0.841586	32.626097	-10.658443	149.462327
5.550000	-10.012934	93.587470	-0.855897	29.248406	-0.855897	29.248406	-10.567745	143.818870
5.600000	-9.906091	92.328349	-0.871719	25.854774	-0.871719	25.854774	-10.465526	138.138846
5.650000	-9.789634	91.065893	-0.889205	22.445258	-0.889205	22.445258	-10.351477	132.431456
5.700000	-9.663567	89.792922	-0.908485	19.020187	-0.908485	19.020187	-10.225640	126.706820
5.750000	-9.528181	88.502507	-0.929668	15.580142	-0.929668	15.580142	-10.088422	120.975173
5.800000	-9.383806	87.187840	-0.952870	12.125627	-0.952870	12.125627	-9.940299	115.246350
5.850000	-9.230916	85.842434	-0.978204	8.657233	-0.978204	8.657233	-9.781940	109.529848
5.900000	-9.070129	84.460277	-1.005769	5.175634	-1.005769	5.175634	-9.614192	103.834614
5.950000	-8.902181	83.035966	-1.035656	1.681590	-1.035656	1.681590	-9.438055	98.168869
6.000000	-8.727914	81.564814	-1.067941	-1.824066	-1.067941	-1.824066	-9.254649	92.539970
6.050000	-8.548255	80.042933	-1.102683	-5.340432	-1.102683	-5.340432	-9.065189	86.954311
6.100000	-8.364189	78.467284	-1.139926	-8.866548	-1.139926	-8.866548	-8.870949	81.417270
6.150000	-8.176744	76.835699	-1.179693	-12.401404	-1.179693	-12.401404	-8.673232	75.933193
6.200000	-7.986964	75.146877	-1.221985	-15.943958	-1.221985	-15.943958	-8.473348	70.505409
6.250000	-7.795891	73.400351	-1.266781	-19.493147	-1.266781	-19.493147	-8.272582	65.136273
6.300000	-7.604475	71.595221	-1.314081	-23.048005	-1.314081	-23.048005	-8.072116	59.828545
6.350000	-7.413827	69.733834	-1.363763	-26.607339	-1.363763	-26.607339	-7.873259	54.581490
6.400000	-7.224892	67.817925	-1.415725	-30.170143	-1.415725	-30.170143	-7.677131	49.394887
6.450000	-7.038557	65.849789	-1.469840	-33.735466	-1.469840	-33.735466	-7.484775	44.267828
6.500000	-6.855652	63.832199	-1.525952	-37.302444	-1.525952	-37.302444	-7.297156	39.198784
6.550000	-6.676936	61.768327	-1.583878	-40.870315	-1.583878	-40.870315	-7.115157	34.185668
6.600000	-6.503107	59.661662	-1.643406	-44.438451	-1.643406	-44.438451	-6.939586	29.225876
6.650000	-6.334793	57.515943	-1.704298	-48.006374	-1.704298	-48.006374	-6.771177	24.316331
6.700000	-6.172511	55.335511	-1.766283	-51.573800	-1.766283	-51.573800	-6.610520	19.452932
6.750000	-6.016987	53.122653	-1.829090	-55.140605	-1.829090	-55.140605	-6.458563	14.634154
6.800000	-5.868433	50.883689	-1.892374	-58.706987	-1.892374	-58.706987	-6.315497	9.852587
6.850000	-5.727139	48.622553	-1.955834	-62.273314	-1.955834	-62.273314	-6.181697	5.103587
6.900000	-5.594034	46.341710	-2.019042	-65.840368	-2.019042	-65.840368	-6.058478	0.384440
6.950000	-5.468720	44.047446	-2.081719	-69.409048	-2.081719	-69.409048	-5.945287	-4.313934
7.000000	-5.351937	41.742757	-2.143409	-72.980814	-2.143409	-72.980814	-5.843247	-8.996161
7.050000	-5.243932	39.432232	-2.203694	-76.557522	-2.203694	-76.557522	-5.752815	-13.670041
7.100000	-5.144397	37.120009	-2.262333	-80.140756	-2.262333	-80.140756	-5.673692	-18.343143
7.150000	-5.054598	34.810532	-2.318595	-83.734272	-2.318595	-83.734272	-5.607924	-23.024957
7.200000	-4.973838	32.507891	-2.372360	-87.340106	-2.372360	-87.340106	-5.554752	-27.724379
7.250000	-4.902496	30.216289	-2.423192	-90.961820	-2.423192	-90.961820	-5.515045	-32.451632
7.300000	-4.841460	27.941708	-2.470437	-94.605169	-2.470437	-94.605169	-5.490576	-37.222190
7.350000	-4.789948	25.687106	-2.514139	-98.272465	-2.514139	-98.272465	-5.480617	-42.044567
7.400000	-4.749097	23.459869	-2.553593	-101.971524	-2.553593	-101.971524	-5.487576	-46.939475
7.450000	-4.718801	21.265330	-2.588655	-105.707728	-2.588655	-105.707728	-5.512061	-51.923134
7.500000	-4.698716	19.107590	-2.619357	-109.485152	-2.619357	-109.485152	-5.554329	-57.008617
7.550000	-4.690276	16.999043	-2.645009	-113.316840	-2.645009	-113.316840	-5.618072	-62.232865
7.600000	-4.693053	14.946119	-2.665830	-117.208768	-2.665830	-117.208768	-5.703979	-67.616776
7.650000	-4.707190	12.959038	-2.681878	-121.170456	-2.681878	-121.170456	-5.814118	-73.192494
7.700000	-4.732713	11.049752	-2.693362	-125.212373	-2.693362	-125.212373	-5.950831	-78.998014
7.750000	-4.769666	9.234311	-2.700613	-129.347937	-2.700613	-129.347937	-6.117259	-85.084853
7.800000	-4.817390	7.528118	-2.704353	-133.588456	-2.704353	-133.588456	-6.315834	-91.504887
7.850000	-4.874913	5.949775	-2.705542	-137.946856	-2.705542	-137.946856	-6.549288	-98.323553
7.900000	-4.940651	4.520678	-2.705473	-142.437101	-2.705473	-142.437101	-6.820192	-105.621734
7.950000	-5.012147	3.267186	-2.705904	-147.076015	-2.705904	-147.076015	-7.130694	-113.508651
8.000000	-5.085517	2.212756	-2.709127	-151.877209	-2.709127	-151.877209	-7.480268	-122.103790
8.050000	-5.155418	1.378491	-2.717953	-156.853173	-2.717953	-156.853173	-7.864728	-131.547226
8.100000	-5.214756	0.781352	-2.735828	-162.015945	-2.735828	-162.015945	-8.273670	-142.004712
8.150000	-5.254303	0.429763	-2.767035	-167.376881	-2.767035	-167.376881	-8.685832	-153.663912
8.200000	-5.263321	0.311214	-2.816481	-172.941219	-2.816481	-172.941219	-9.064229	-166.675787
8.250000	-5.231030	0.385840	-2.889387	-178.706202	-2.889387	-178.706202	-9.355426	178.922565
8.300000	-5.147216	0.587770	-2.991717	175.335164	-2.991717	175.335164	-9.492802	163.268122
8.350000	-5.004965	0.821692	-3.129582	169.199556	-3.129582	169.199556	-9.416371	146.776105
8.400000	-4.803704	0.975750	-3.308241	162.915909	-3.308241	162.915909	-9.104592	130.090732
8.450000	-4.548312	0.938441	-3.532711	156.520262	-3.532711	156.520262	-8.582289	113.875942
8.500000	-4.249399	0.614517	-3.806988	150.057600	-3.806988	150.057600	-7.912125	98.633206
8.550000	-3.922484	-0.050607	-4.132500	143.579847	-4.132500	143.579847	-7.170842	84.582990
8.600000	-3.583369	-1.076728	-4.509447	137.139938	-4.509447	137.139938	-6.420306	71.756805
8.650000	-3.246692	-2.452335	-4.936368	130.791078	-4.936368	130.791078	-5.703118	60.088571
8.700000	-2.924401	-4.130955	-5.409233	124.578463	-5.409233	124.578463	-5.044109	49.442152
8.750000	-2.624588	-6.058221	-5.923272	118.540032	-5.923272	118.540032	-4.453877	39.699248
8.800000	-2.352363	-8.178301	-6.472744	112.708148	-6.472744	112.708148	-3.935193	30.766193
8.850000	-2.109374	-10.432011	-7.051421	107.098140	-7.051421	107.098140	-3.484446	22.537057
8.900000	-1.895450	-12.771406	-7.653300	101.719351	-7.653300	101.719351	-3.095932	14.934283
8.950000	-1.709422	-15.157335	-8.272201	96.576824	-8.272201	96.576824	-2.763465	7.898418
9.000000	-1.548898	-17.557983	-8.902754	91.665102	-8.902754	91.665102	-2.479900	1.367674
9.050000	-1.410575	-19.950582	-9.541649	86.967668	-9.541649	86.967668	-2.237519	-4.724407
9.100000	-1.292605	-22.317980	-10.183119	82.481579	-10.183119	82.481579	-2.031760	-10.404583
9.150000	-1.192023	-24.649014	-10.824518	78.188373	-10.824518	78.188373	-1.856680	-15.722048
9.200000	-1.106320	-26.936827	-11.463569	74.070979	-11.463569	74.070979	-1.707456	-20.716374
9.250000	-1.033396	-29.177245	-12.098099	70.113866	-12.098099	70.113866	-1.580180	-25.419803
9.300000	-0.971415	-31.368213	-12.726348	66.301746	-12.726348	66.301746	-1.471536	-29.861096
9.350000	-0.918786	-33.509177	-13.346896	62.619878	-13.346896	62.619878	-1.378717	-34.065884
9.400000	-0.874264	-35.599786	-13.957706	59.056038	-13.957706	59.056038	-1.299549	-38.053670
9.450000	-0.836644	-37.641295	-14.557883	55.596477	-14.557883	55.596477	-1.231971	-41.845667
9.500000	-0.804822	-39.636196	-15.147611	52.227017	-15.147611	52.227017	-1.174120	-45.463454
9.550000	-0.777976	-41.586370	-15.726301	48.936361	-15.726301	48.936361	-1.124608	-48.923009
9.600000	-0.755410	-43.493815	-16.293462	45.714082	-16.293462	45.714082	-1.082267	-52.238583
9.650000	-0.736828	-45.356913	-16.844241	42.555255	-16.844241	42.555255	-1.046598	-55.411621
9.700000	-0.721151	-47.184518	-17.386423	39.441749	-17.386423	39.441749	-1.015810	-58.475064
9.750000	-0.708232	-48.975440	-17.915968	36.370006	-17.915968	36.370006	-0.989654	-61.429021
9.800000	-0.697712	-50.731539	-18.432546	33.332728	-18.432546	33.332728	-0.967531	-64.282596
9.850000	-0.689284	-52.454576	-18.935828	30.323310	-18.935828	30.323310	-0.948930	-67.043971
9.900000	-0.682684	-54.146213	-19.425480	27.335807	-19.425480	27.335807	-0.933413	-69.720517
9.950000	-0.677687	-55.808002	-19.901156	24.364923	-19.901156	24.364923	-0.920603	-72.318882
10.000000	-0.674099	-57.441394	-20.362491	21.405997	-20.362491	21.405997	-0.910177	-74.845078
