! freq	dB(S11)	phase(S11)	dB(S12)	phase(S12)	
!     	dB(S21)	phase(S21)	dB(S22)	phase(S22)	
!S-par simulation data
#  GHz  S  DB  R 50
0.000000	-0.000000	0.000000	-343.869837	0.000000	-343.869837	0.000000	-0.000000	0.000000
0.050000	-0.000121	-0.923547	-110.027440	88.377752	-110.027440	88.377752	-0.000132	-1.108379
0.100000	-0.000479	-1.846786	-104.102377	86.890813	-104.102377	86.890813	-0.000525	-2.216432
0.150000	-0.001058	-2.769437	-100.720975	85.604966	-100.720975	85.604966	-0.001163	-3.323855
0.200000	-0.001833	-3.691269	-98.392573	84.514632	-98.392573	84.514632	-0.002025	-4.430387
0.250000	-0.002788	-4.612026	-96.654038	83.595757	-96.654038	83.595757	-0.003095	-5.535727
0.300000	-0.003875	-5.531669	-95.288072	82.799813	-95.288072	82.799813	-0.004327	-6.639799
0.350000	-0.005072	-6.450070	-94.190749	82.113926	-94.190749	82.113926	-0.005699	-7.742424
0.400000	-0.006351	-7.367187	-93.299414	81.531689	-93.299414	81.531689	-0.007182	-8.843507
0.450000	-0.007688	-8.283011	-92.575318	81.058745	-92.575318	81.058745	-0.008748	-9.942992
0.500000	-0.009061	-9.197558	-91.993413	80.710930	-91.993413	80.710930	-0.010373	-11.040855
0.550000	-0.010454	-10.110859	-91.537129	80.513528	-91.537129	80.513528	-0.012036	-12.137089
0.600000	-0.011852	-11.022954	-91.195479	80.501833	-91.195479	80.501833	-0.013719	-13.231708
0.650000	-0.013247	-11.933886	-90.961330	80.723081	-90.961330	80.723081	-0.015408	-14.324732
0.700000	-0.014631	-12.843694	-90.830234	81.239888	-90.830234	81.239888	-0.017092	-15.416184
0.750000	-0.016000	-13.752412	-90.799445	82.135490	-90.799445	82.135490	-0.018763	-16.506089
0.800000	-0.017351	-14.660070	-90.866799	83.521211	-90.866799	83.521211	-0.020416	-17.594468
0.850000	-0.018684	-15.566687	-91.029028	85.546396	-91.029028	85.546396	-0.022046	-18.681339
0.900000	-0.019997	-16.472280	-91.278829	88.410033	-91.278829	88.410033	-0.023651	-19.766711
0.950000	-0.021291	-17.376856	-91.599613	92.369796	-91.599613	92.369796	-0.025231	-20.850591
1.000000	-0.022568	-18.280416	-91.956604	97.735393	-91.956604	97.735393	-0.026786	-21.932977
1.050000	-0.023828	-19.182958	-92.284103	104.815908	-92.284103	104.815908	-0.028316	-23.013864
1.100000	-0.025072	-20.084474	-92.474592	113.774213	-92.474592	113.774213	-0.029822	-24.093239
1.150000	-0.026303	-20.984951	-92.388408	124.373624	-92.388408	124.373624	-0.031307	-25.171087
1.200000	-0.027521	-21.884376	-91.907607	135.769320	-91.907607	135.769320	-0.032771	-26.247388
1.250000	-0.028729	-22.782731	-91.012887	146.701361	-91.012887	146.701361	-0.034217	-27.322118
1.300000	-0.029926	-23.679949	-89.783250	156.038130	-89.783250	156.038130	-0.035645	-28.395180
1.350000	-0.031115	-24.576055	-88.383295	163.458658	-88.383295	163.458658	-0.037058	-29.466614
1.400000	-0.032296	-25.471028	-86.928207	169.089222	-86.928207	169.089222	-0.038457	-30.536390
1.450000	-0.033471	-26.364844	-85.488216	173.236280	-85.488216	173.236280	-0.039845	-31.604476
1.500000	-0.034640	-27.257481	-84.098939	176.218508	-84.098939	176.218508	-0.041223	-32.670840
1.550000	-0.035805	-28.148915	-82.775141	178.304652	-82.775141	178.304652	-0.042592	-33.735449
1.600000	-0.036965	-29.039122	-81.520502	179.703409	-81.520502	179.703409	-0.043953	-34.798271
1.650000	-0.038122	-29.928079	-80.333312	-179.428370	-80.333312	-179.428370	-0.045308	-35.859271
1.700000	-0.039277	-30.815762	-79.209511	-178.973889	-79.209511	-178.973889	-0.046657	-36.918417
1.750000	-0.040429	-31.702148	-78.144220	-178.845974	-78.144220	-178.845974	-0.048002	-37.975678
1.800000	-0.041579	-32.587212	-77.132492	-178.979025	-77.132492	-178.979025	-0.049344	-39.031020
1.850000	-0.042729	-33.470934	-76.169642	-179.323140	-76.169642	-179.323140	-0.050683	-40.084412
1.900000	-0.043877	-34.353289	-75.251387	-179.839902	-75.251387	-179.839902	-0.052020	-41.135824
1.950000	-0.045026	-35.234256	-74.373874	179.500619	-74.373874	179.500619	-0.053356	-42.185227
2.000000	-0.046174	-36.113814	-73.533666	178.722020	-73.533666	178.722020	-0.054691	-43.232592
2.050000	-0.047323	-36.991941	-72.727711	177.843112	-72.727711	177.843112	-0.056027	-44.277890
2.100000	-0.048473	-37.868616	-71.953299	176.879052	-71.953299	176.879052	-0.057364	-45.321095
2.150000	-0.049625	-38.743820	-71.208021	175.842175	-71.208021	175.842175	-0.058702	-46.362181
2.200000	-0.050778	-39.617533	-70.489732	174.742609	-70.489732	174.742609	-0.060042	-47.401124
2.250000	-0.051933	-40.489735	-69.796517	173.588745	-69.796517	173.588745	-0.061385	-48.437901
2.300000	-0.053091	-41.360409	-69.126661	172.387593	-69.126661	172.387593	-0.062731	-49.472488
2.350000	-0.054252	-42.229535	-68.478624	171.145046	-68.478624	171.145046	-0.064080	-50.504865
2.400000	-0.055416	-43.097097	-67.851019	169.866101	-67.851019	169.866101	-0.065434	-51.535011
2.450000	-0.056584	-43.963077	-67.242591	168.555016	-67.242591	168.555016	-0.066792	-52.562908
2.500000	-0.057756	-44.827460	-66.652202	167.215445	-66.652202	167.215445	-0.068155	-53.588538
2.550000	-0.058933	-45.690158	-66.077918	165.849569	-66.077918	165.849569	-0.069524	-54.611785
2.600000	-0.060115	-46.551226	-65.519795	164.461309	-65.519795	164.461309	-0.070899	-55.632731
2.650000	-0.061302	-47.410649	-64.976958	163.053007	-64.976958	163.053007	-0.072281	-56.651363
2.700000	-0.062495	-48.268413	-64.448609	161.626719	-64.448609	161.626719	-0.073670	-57.667668
2.750000	-0.063695	-49.124504	-63.934009	160.184256	-63.934009	160.184256	-0.075067	-58.681635
2.800000	-0.064901	-49.978911	-63.432482	158.727219	-63.432482	158.727219	-0.076471	-59.693252
2.850000	-0.066115	-50.831620	-62.943402	157.257031	-62.943402	157.257031	-0.077885	-60.702511
2.900000	-0.067336	-51.682619	-62.466189	155.774958	-62.466189	155.774958	-0.079307	-61.709403
2.950000	-0.068565	-52.531898	-62.000306	154.282133	-62.000306	154.282133	-0.080739	-62.713921
3.000000	-0.069803	-53.379447	-61.545254	152.779572	-61.545254	152.779572	-0.082182	-63.716059
3.050000	-0.071050	-54.225254	-61.100568	151.268188	-61.100568	151.268188	-0.083635	-64.715813
3.100000	-0.072306	-55.069311	-60.665813	149.748805	-60.665813	149.748805	-0.085099	-65.713179
3.150000	-0.073572	-55.911609	-60.240584	148.222169	-60.240584	148.222169	-0.086576	-66.708154
3.200000	-0.074849	-56.752140	-59.824502	146.688955	-59.824502	146.688955	-0.088064	-67.700737
3.250000	-0.076136	-57.590896	-59.417211	145.149778	-59.417211	145.149778	-0.089566	-68.690927
3.300000	-0.077435	-58.427870	-59.018375	143.605197	-59.018375	143.605197	-0.091081	-69.678725
3.350000	-0.078745	-59.263057	-58.627682	142.055724	-58.627682	142.055724	-0.092610	-70.664133
3.400000	-0.080068	-60.096449	-58.244833	140.501827	-58.244833	140.501827	-0.094153	-71.647154
3.450000	-0.081403	-60.928042	-57.869551	138.943933	-57.869551	138.943933	-0.095712	-72.627792
3.500000	-0.082752	-61.757831	-57.501570	137.382437	-57.501570	137.382437	-0.097287	-73.606051
3.550000	-0.084114	-62.585812	-57.140642	135.817702	-57.140642	135.817702	-0.098878	-74.581937
3.600000	-0.085490	-63.411982	-56.786529	134.250061	-56.786529	134.250061	-0.100485	-75.555458
3.650000	-0.086881	-64.236339	-56.439009	132.679822	-56.439009	132.679822	-0.102110	-76.526622
3.700000	-0.088287	-65.058878	-56.097868	131.107271	-56.097868	131.107271	-0.103753	-77.495437
3.750000	-0.089708	-65.879600	-55.762905	129.532673	-55.762905	129.532673	-0.105415	-78.461913
3.800000	-0.091146	-66.698424	-55.433647	127.956204	-55.433647	127.956204	-0.107097	-79.425961
3.850000	-0.092600	-67.515428	-55.110215	126.378178	-55.110215	126.378178	-0.108798	-80.387695
3.900000	-0.094072	-68.330613	-54.792431	124.798805	-54.792431	124.798805	-0.110520	-81.347127
3.950000	-0.095560	-69.143979	-54.480130	123.218281	-54.480130	123.218281	-0.112263	-82.304272
4.000000	-0.097067	-69.955528	-54.173152	121.636786	-54.173152	121.636786	-0.114027	-83.259144
4.050000	-0.098592	-70.765261	-53.871343	120.054491	-53.871343	120.054491	-0.115813	-84.211759
4.100000	-0.100136	-71.573181	-53.574558	118.471556	-53.574558	118.471556	-0.117621	-85.162134
4.150000	-0.101699	-72.379291	-53.282659	116.888128	-53.282659	116.888128	-0.119453	-86.110287
4.200000	-0.103282	-73.183595	-52.995511	115.304347	-52.995511	115.304347	-0.121309	-87.056235
4.250000	-0.104885	-73.986097	-52.712988	113.720343	-52.712988	113.720343	-0.123189	-87.999999
4.300000	-0.106508	-74.786801	-52.434966	112.136239	-52.434966	112.136239	-0.125093	-88.941598
4.350000	-0.108153	-75.585712	-52.161328	110.552151	-52.161328	110.552151	-0.127023	-89.881054
4.400000	-0.109819	-76.382837	-51.891963	108.968186	-51.891963	108.968186	-0.128979	-90.818388
4.450000	-0.111507	-77.178181	-51.626761	107.384447	-51.626761	107.384447	-0.130961	-91.753623
4.500000	-0.113218	-77.971752	-51.365619	105.801030	-51.365619	105.801030	-0.132971	-92.686783
4.550000	-0.114952	-78.763557	-51.108437	104.218025	-51.108437	104.218025	-0.135007	-93.617892
4.600000	-0.116709	-79.553603	-50.855119	102.635519	-50.855119	102.635519	-0.137072	-94.546975
4.650000	-0.118490	-80.341899	-50.605572	101.053591	-50.605572	101.053591	-0.139165	-95.474059
4.700000	-0.120295	-81.128454	-50.359708	99.472320	-50.359708	99.472320	-0.141288	-96.399169
4.750000	-0.122124	-81.913277	-50.117441	97.891778	-50.117441	97.891778	-0.143439	-97.322333
4.800000	-0.123979	-82.696378	-49.878687	96.312033	-49.878687	96.312033	-0.145621	-98.243581
4.850000	-0.125860	-83.477768	-49.643368	94.733151	-49.643368	94.733151	-0.147834	-99.162939
4.900000	-0.127767	-84.257457	-49.411407	93.155194	-49.411407	93.155194	-0.150078	-100.080439
4.950000	-0.129700	-85.035457	-49.182729	91.578222	-49.182729	91.578222	-0.152353	-100.996111
5.000000	-0.131660	-85.811779	-48.957262	90.002291	-48.957262	90.002291	-0.154660	-101.909986
5.050000	-0.133649	-86.586365	-48.734828	88.427504	-48.734828	88.427504	-0.157001	-102.822020
5.100000	-0.135666	-87.359299	-48.515477	86.853868	-48.515477	86.853868	-0.159375	-103.732324
5.150000	-0.137711	-88.130596	-48.299144	85.281432	-48.299144	85.281432	-0.161783	-104.640932
5.200000	-0.139784	-88.900268	-48.085766	83.710242	-48.085766	83.710242	-0.164225	-105.547877
5.250000	-0.141887	-89.668331	-47.875282	82.140344	-47.875282	82.140344	-0.166701	-106.453195
5.300000	-0.144020	-90.434798	-47.667634	80.571781	-47.667634	80.571781	-0.169212	-107.356921
5.350000	-0.146183	-91.199685	-47.462764	79.004594	-47.462764	79.004594	-0.171759	-108.259090
5.400000	-0.148376	-91.963008	-47.260617	77.438825	-47.260617	77.438825	-0.174342	-109.159739
5.450000	-0.150600	-92.724782	-47.061139	75.874510	-47.061139	75.874510	-0.176960	-110.058906
5.500000	-0.152856	-93.485024	-46.864278	74.311690	-46.864278	74.311690	-0.179616	-110.956628
5.550000	-0.155143	-94.243750	-46.669984	72.750399	-46.669984	72.750399	-0.182308	-111.852944
5.600000	-0.157463	-95.000978	-46.478209	71.190674	-46.478209	71.190674	-0.185039	-112.747894
5.650000	-0.159815	-95.756726	-46.288904	69.632548	-46.288904	69.632548	-0.187807	-113.641516
5.700000	-0.162201	-96.511010	-46.102024	68.076056	-46.102024	68.076056	-0.190614	-114.533851
5.750000	-0.164620	-97.263851	-45.917524	66.521231	-45.917524	66.521231	-0.193459	-115.424941
5.800000	-0.167073	-98.015267	-45.735361	64.968105	-45.735361	64.968105	-0.196344	-116.314826
5.850000	-0.169566	-98.765038	-45.555247	63.417019	-45.555247	63.417019	-0.199276	-117.203360
5.900000	-0.172096	-99.513363	-45.377337	61.867773	-45.377337	61.867773	-0.202249	-118.090727
5.950000	-0.174644	-100.260984	-45.202304	60.319475	-45.202304	60.319475	-0.205244	-118.977550
6.000000	-0.177248	-101.006491	-45.028692	58.774019	-45.028692	58.774019	-0.208302	-119.862742
6.050000	-0.179865	-101.751543	-44.858053	57.229217	-44.858053	57.229217	-0.211376	-120.747604
6.100000	-0.182545	-102.494323	-44.688602	55.687683	-44.688602	55.687683	-0.214521	-121.630815
6.150000	-0.185232	-103.236883	-44.522195	54.146487	-44.522195	54.146487	-0.217675	-122.513878
6.200000	-0.187990	-103.977031	-44.356777	52.609007	-44.356777	52.609007	-0.220909	-123.395309
6.250000	-0.190748	-104.717179	-44.194450	51.071526	-44.194450	51.071526	-0.224143	-124.276740
6.300000	-0.193586	-105.454792	-44.032942	49.538230	-44.032942	49.538230	-0.227467	-125.156596
6.350000	-0.196424	-106.192406	-43.874382	48.004935	-43.874382	48.004935	-0.230793	-126.036451
6.400000	-0.199336	-106.927791	-43.716835	46.475598	-43.716835	46.475598	-0.234201	-126.915054
6.450000	-0.202256	-107.662973	-43.561931	44.946621	-43.561931	44.946621	-0.237618	-127.793543
6.500000	-0.205244	-108.396215	-43.408207	43.421358	-43.408207	43.421358	-0.241112	-128.671073
6.550000	-0.208247	-109.129070	-43.256854	41.896838	-43.256854	41.896838	-0.244622	-129.548412
6.600000	-0.211313	-109.860261	-43.106821	40.375769	-43.106821	40.375769	-0.248203	-130.425052
6.650000	-0.214401	-110.590898	-42.958919	38.855851	-42.958919	38.855851	-0.251809	-131.301459
6.700000	-0.217546	-111.320131	-42.812452	37.339104	-42.812452	37.339104	-0.255479	-132.177395
6.750000	-0.220720	-112.048662	-42.667903	35.823942	-42.667903	35.823942	-0.259181	-133.053096
6.800000	-0.223946	-112.776031	-42.524883	34.311651	-42.524883	34.311651	-0.262940	-133.928519
6.850000	-0.227209	-113.502572	-42.383593	32.801411	-42.383593	32.801411	-0.266740	-134.803743
6.900000	-0.230517	-114.228177	-42.243908	31.293722	-42.243908	31.293722	-0.270590	-135.678847
6.950000	-0.233870	-114.952847	-42.105787	29.788584	-42.105787	29.788584	-0.274490	-136.553829
7.000000	-0.237261	-115.676789	-41.969327	28.285657	-41.969327	28.285657	-0.278433	-137.428811
7.050000	-0.240706	-116.399712	-41.834288	26.785824	-41.834288	26.785824	-0.282434	-138.303792
7.100000	-0.244182	-117.122096	-41.700950	25.287836	-41.700950	25.287836	-0.286470	-139.178854
7.150000	-0.247720	-117.843399	-41.568907	23.793535	-41.568907	23.793535	-0.290574	-140.054078
7.200000	-0.251282	-118.564331	-41.438591	22.300683	-41.438591	22.300683	-0.294705	-140.929425
7.250000	-0.254916	-119.284148	-41.309461	20.812175	-41.309461	20.812175	-0.298914	-141.805142
7.300000	-0.258566	-120.003741	-41.182070	19.324683	-41.182070	19.324683	-0.303141	-142.680984
7.350000	-0.262296	-120.722208	-41.055770	17.842272	-41.055770	17.842272	-0.307455	-143.557450
7.400000	-0.266035	-121.440575	-40.931211	16.360398	-40.931211	16.360398	-0.311780	-144.434001
7.450000	-0.269863	-122.157837	-40.807659	14.884441	-40.807659	14.884441	-0.316201	-145.311477
7.500000	-0.273693	-122.875099	-40.685841	13.408484	-40.685841	13.408484	-0.320625	-146.188953
7.550000	-0.277596	-123.591550	-40.565136	11.937630	-40.565136	11.937630	-0.325129	-147.067353
7.600000	-0.281548	-124.307533	-40.445740	10.470191	-40.445740	10.470191	-0.329686	-147.946430
7.650000	-0.285549	-125.023084	-40.327629	9.006293	-40.327629	9.006293	-0.334296	-148.826247
7.700000	-0.289599	-125.738241	-40.210781	7.546075	-40.210781	7.546075	-0.338959	-149.706867
7.750000	-0.293699	-126.453043	-40.095172	6.089692	-40.095172	6.089692	-0.343677	-150.588355
7.800000	-0.297849	-127.167532	-39.980776	4.637317	-39.980776	4.637317	-0.348449	-151.470775
7.850000	-0.302049	-127.881749	-39.867569	3.189144	-39.867569	3.189144	-0.353276	-152.354194
7.900000	-0.306300	-128.595740	-39.755521	1.745389	-39.755521	1.745389	-0.358158	-153.238678
7.950000	-0.310603	-129.309549	-39.644605	0.306300	-39.644605	0.306300	-0.363096	-154.124294
8.000000	-0.314958	-130.023226	-39.534788	-1.127845	-39.534788	-1.127845	-0.368090	-155.011112
8.050000	-0.319365	-130.736824	-39.426035	-2.556729	-39.426035	-2.556729	-0.373141	-155.899200
8.100000	-0.323826	-131.450397	-39.318307	-3.979986	-39.318307	-3.979986	-0.378249	-156.788629
8.150000	-0.328342	-132.164006	-39.211559	-5.397199	-39.211559	-5.397199	-0.383416	-157.679469
8.200000	-0.332913	-132.877716	-39.105740	-6.807881	-39.105740	-6.807881	-0.388641	-158.571794
8.250000	-0.337540	-133.591599	-39.000791	-8.211469	-39.000791	-8.211469	-0.393926	-159.465676
8.300000	-0.342226	-134.305734	-38.896639	-9.607300	-38.896639	-9.607300	-0.399271	-160.361191
8.350000	-0.346975	-135.020241	-38.793160	-10.994017	-38.793160	-10.994017	-0.404681	-161.258520
8.400000	-0.351775	-135.735090	-38.690422	-12.373228	-38.690422	-12.373228	-0.410141	-162.157285
8.450000	-0.356662	-136.450695	-38.587913	-13.738433	-38.587913	-13.738433	-0.415684	-163.058509
8.500000	-0.361610	-137.166948	-38.485781	-15.093050	-38.485781	-15.093050	-0.421282	-163.961410
8.550000	-0.366624	-137.883931	-38.383918	-16.436317	-38.383918	-16.436317	-0.426937	-164.866024
8.600000	-0.371736	-138.602139	-38.281674	-17.761899	-38.281674	-17.761899	-0.432669	-165.773071
8.650000	-0.376975	-139.322143	-38.178174	-19.064143	-38.178174	-19.064143	-0.438484	-166.682830
8.700000	-0.382264	-140.042817	-38.074965	-20.357890	-38.074965	-20.357890	-0.444331	-167.593536
8.750000	-0.387801	-140.767099	-37.967570	-21.609585	-37.967570	-21.609585	-0.450296	-168.508189
8.800000	-0.393476	-141.493190	-37.858352	-22.842794	-37.858352	-22.842794	-0.456303	-169.424180
8.850000	-0.399459	-142.223394	-37.743458	-24.033988	-37.743458	-24.033988	-0.462399	-170.343212
8.900000	-0.405975	-142.959255	-37.618391	-25.177717	-37.618391	-25.177717	-0.468569	-171.264871
8.950000	-0.412895	-143.699393	-37.486408	-26.285559	-37.486408	-26.285559	-0.474796	-172.188518
9.000000	-0.421050	-144.449412	-37.332128	-27.331445	-37.332128	-27.331445	-0.481091	-173.115141
9.050000	-0.431773	-145.213870	-37.136277	-28.329267	-37.136277	-28.329267	-0.487428	-174.044933
9.100000	-0.447779	-145.993858	-36.869747	-29.397910	-36.869747	-29.397910	-0.493720	-174.977636
9.150000	-0.473144	-146.779133	-36.505612	-30.828258	-36.505612	-30.828258	-0.499842	-175.913266
9.200000	-0.518780	-147.480649	-36.026189	-33.931238	-36.026189	-33.931238	-0.505457	-176.854893
9.250000	-0.561255	-147.881530	-35.838546	-39.817283	-35.838546	-39.817283	-0.510929	-177.809710
9.300000	-0.544656	-148.237856	-36.286266	-44.224565	-36.286266	-44.224565	-0.518383	-178.776043
9.350000	-0.514390	-148.870149	-36.701529	-45.163759	-36.701529	-45.163759	-0.527362	-179.738883
9.400000	-0.498488	-149.613451	-36.871145	-45.164431	-36.871145	-45.164431	-0.536374	179.299222
9.450000	-0.493264	-150.372727	-36.896401	-45.249072	-36.896401	-45.249072	-0.545459	178.332170
9.500000	-0.492320	-151.127546	-36.870035	-45.462275	-36.870035	-45.462275	-0.554977	177.358552
9.550000	-0.494131	-151.877007	-36.809439	-45.736396	-36.809439	-45.736396	-0.565262	176.377167
9.600000	-0.497634	-152.621464	-36.723351	-45.994201	-36.723351	-45.994201	-0.576754	175.386885
9.650000	-0.502224	-153.362017	-36.613073	-46.166873	-36.613073	-46.166873	-0.589909	174.387082
9.700000	-0.507750	-154.098870	-36.457755	-46.124985	-36.457755	-46.124985	-0.606471	173.374496
9.750000	-0.514052	-154.832093	-36.219183	-45.793495	-36.219183	-45.793495	-0.628960	172.351800
9.800000	-0.521049	-155.560305	-35.839918	-45.253946	-35.839918	-45.253946	-0.660837	171.332409
9.850000	-0.528533	-156.277492	-35.187584	-45.086105	-35.187584	-45.086105	-0.709550	170.372391
9.900000	-0.534274	-156.975585	-34.216707	-47.444858	-34.216707	-47.444858	-0.772359	169.647695
9.950000	-0.533993	-157.680735	-33.435588	-54.758731	-33.435588	-54.758731	-0.793131	169.278173
10.000000	-0.533760	-158.433148	-33.516241	-63.228385	-33.516241	-63.228385	-0.736102	168.709774
