! freq	dB(S11)	phase(S11)	dB(S12)	phase(S12)	
!     	dB(S21)	phase(S21)	dB(S22)	phase(S22)	
!S-par simulation data
#  GHz  S  DB  R 50
0.000000	-0.000000	0.000000	-300.696581	0.000000	-300.696581	0.000000	-0.000000	0.000000
0.050000	-0.000925	-2.256068	-70.665855	87.275184	-70.665855	87.275184	-0.003406	-2.967863
0.100000	-0.003405	-4.507066	-64.639620	84.600089	-64.639620	84.600089	-0.007679	-5.958173
0.150000	-0.006792	-6.750669	-61.116544	81.982467	-61.116544	81.982467	-0.011425	-8.946657
0.200000	-0.010505	-8.987167	-58.624653	79.403308	-58.624653	79.403308	-0.015244	-11.927050
0.250000	-0.014185	-11.218113	-56.702015	76.842078	-56.702015	76.842078	-0.019241	-14.898320
0.300000	-0.017677	-13.445021	-55.141947	74.286812	-55.141947	74.286812	-0.023337	-17.860203
0.350000	-0.020956	-15.669068	-53.833061	71.733002	-53.833061	71.733002	-0.027429	-20.813017
0.400000	-0.024051	-17.890895	-52.708180	69.180470	-52.708180	69.180470	-0.031451	-23.757280
0.450000	-0.026987	-20.110570	-51.725285	66.631046	-51.725285	66.631046	-0.035357	-26.692489
0.500000	-0.029807	-22.328095	-50.854791	64.087202	-50.854791	64.087202	-0.039134	-29.618754
0.550000	-0.032544	-24.543355	-50.075450	61.551221	-50.075450	61.551221	-0.042787	-32.536156
0.600000	-0.035225	-26.756085	-49.371989	59.025434	-49.371989	59.025434	-0.046328	-35.444350
0.650000	-0.037868	-28.966045	-48.732563	56.511696	-48.732563	56.511696	-0.049774	-38.343119
0.700000	-0.040490	-31.172972	-48.148024	54.011666	-48.148024	54.011666	-0.053141	-41.232128
0.750000	-0.043100	-33.376492	-47.611478	51.527315	-47.611478	51.527315	-0.056443	-44.110656
0.800000	-0.045707	-35.576686	-47.116017	49.058373	-47.116017	49.058373	-0.059698	-46.979285
0.850000	-0.048315	-37.772938	-46.657992	46.607715	-46.657992	46.607715	-0.062911	-49.836479
0.900000	-0.050929	-39.965259	-46.232714	44.175250	-46.232714	44.175250	-0.066094	-52.682506
0.950000	-0.053549	-42.153544	-45.836616	41.761401	-45.836616	41.761401	-0.069253	-55.517232
1.000000	-0.056177	-44.337584	-45.466929	39.367054	-45.466929	39.367054	-0.072391	-58.340211
1.050000	-0.058812	-46.516945	-45.121717	36.994102	-45.121717	36.994102	-0.075510	-61.150370
1.100000	-0.061453	-48.691850	-44.798056	34.641445	-44.798056	34.641445	-0.078612	-63.948412
1.150000	-0.064099	-50.862202	-44.494045	32.309444	-44.494045	32.309444	-0.081697	-66.734151
1.200000	-0.066747	-53.027712	-44.208333	29.999332	-44.208333	29.999332	-0.084764	-69.506877
1.250000	-0.069397	-55.188279	-43.939409	27.711496	-43.939409	27.711496	-0.087811	-72.266385
1.300000	-0.072044	-57.344083	-43.685538	25.445065	-43.685538	25.445065	-0.090837	-75.013213
1.350000	-0.074689	-59.495090	-43.445510	23.200152	-43.445510	23.200152	-0.093841	-77.747318
1.400000	-0.077328	-61.640918	-43.218675	20.978422	-43.218675	20.978422	-0.096818	-80.467746
1.450000	-0.079960	-63.781825	-43.003632	18.778690	-43.003632	18.778690	-0.099768	-83.175229
1.500000	-0.082583	-65.917910	-42.799339	16.600486	-42.799339	16.600486	-0.102689	-85.870076
1.550000	-0.085197	-68.049138	-42.605004	14.443944	-42.605004	14.443944	-0.105579	-88.552247
1.600000	-0.087797	-70.175204	-42.420156	12.310404	-42.420156	12.310404	-0.108434	-91.221002
1.650000	-0.090386	-72.296550	-42.243627	10.197883	-42.243627	10.197883	-0.111256	-93.877543
1.700000	-0.092961	-74.413205	-42.074760	8.106234	-42.074760	8.106234	-0.114043	-96.521995
1.750000	-0.095522	-76.525112	-41.913005	6.035683	-41.913005	6.035683	-0.116794	-99.154270
1.800000	-0.098069	-78.632401	-41.757695	3.985616	-41.757695	3.985616	-0.119509	-101.774760
1.850000	-0.100602	-80.735169	-41.608237	1.955561	-41.608237	1.955561	-0.122188	-104.383769
1.900000	-0.103121	-82.833476	-41.464096	-0.054815	-41.464096	-0.054815	-0.124831	-106.981514
1.950000	-0.105626	-84.927447	-41.324725	-2.046144	-41.324725	-2.046144	-0.127440	-109.568371
2.000000	-0.108118	-87.017258	-41.189583	-4.019318	-41.189583	-4.019318	-0.130016	-112.144849
2.050000	-0.110598	-89.103050	-41.058186	-5.975098	-41.058186	-5.975098	-0.132561	-114.711364
2.100000	-0.113067	-91.184974	-40.930069	-7.914317	-40.930069	-7.914317	-0.135077	-117.268356
2.150000	-0.115527	-93.263191	-40.804786	-9.837890	-40.804786	-9.837890	-0.137566	-119.816288
2.200000	-0.117978	-95.337869	-40.681914	-11.746814	-40.681914	-11.746814	-0.140032	-122.355644
2.250000	-0.120423	-97.409188	-40.561047	-13.642168	-40.561047	-13.642168	-0.142477	-124.886931
2.300000	-0.122863	-99.477337	-40.441795	-15.525117	-40.441795	-15.525117	-0.144905	-127.410674
2.350000	-0.125299	-101.542512	-40.323790	-17.396913	-40.323790	-17.396913	-0.147318	-129.927416
2.400000	-0.127733	-103.604917	-40.206679	-19.258893	-40.206679	-19.258893	-0.149722	-132.437720
2.450000	-0.130168	-105.664767	-40.090129	-21.112477	-40.090129	-21.112477	-0.152118	-134.942164
2.500000	-0.132605	-107.722283	-39.973826	-22.959172	-39.973826	-22.959172	-0.154512	-137.441343
2.550000	-0.135046	-109.777652	-39.857432	-24.800484	-39.857432	-24.800484	-0.156907	-139.935777
2.600000	-0.137494	-111.831162	-39.740701	-26.638232	-39.740701	-26.638232	-0.159308	-142.426205
2.650000	-0.139950	-113.883057	-39.623378	-28.474152	-39.623378	-28.474152	-0.161717	-144.913263
2.700000	-0.142417	-115.933586	-39.505228	-30.310046	-39.505228	-30.310046	-0.164140	-147.397597
2.750000	-0.144896	-117.983007	-39.386039	-32.147772	-39.386039	-32.147772	-0.166579	-149.879867
2.800000	-0.147390	-120.031582	-39.265620	-33.989236	-39.265620	-33.989236	-0.169039	-152.360739
2.850000	-0.149900	-122.079579	-39.143801	-35.836384	-39.143801	-35.836384	-0.171523	-154.840891
2.900000	-0.152429	-124.127274	-39.020438	-37.691189	-39.020438	-37.691189	-0.174035	-157.321007
2.950000	-0.154978	-126.174945	-38.895405	-39.555642	-38.895405	-39.555642	-0.176578	-159.801779
3.000000	-0.157549	-128.222878	-38.768600	-41.431742	-38.768600	-41.431742	-0.179155	-162.283905
3.050000	-0.160145	-130.271361	-38.639945	-43.321480	-38.639945	-43.321480	-0.181769	-164.768088
3.100000	-0.162766	-132.320690	-38.509381	-45.226830	-38.509381	-45.226830	-0.184423	-167.255036
3.150000	-0.165415	-134.371177	-38.376826	-47.149952	-38.376826	-47.149952	-0.187119	-169.745507
3.200000	-0.168093	-136.423135	-38.242263	-49.092812	-38.242263	-49.092812	-0.189861	-172.240238
3.250000	-0.170801	-138.476858	-38.105737	-51.057070	-38.105737	-51.057070	-0.192649	-174.739909
3.300000	-0.173542	-140.532653	-37.967269	-53.044513	-37.967269	-53.044513	-0.195486	-177.245235
3.350000	-0.176315	-142.590833	-37.826897	-55.056857	-37.826897	-55.056857	-0.198374	-179.756935
3.400000	-0.179123	-144.651712	-37.684674	-57.095739	-37.684674	-57.095739	-0.201313	177.724277
3.450000	-0.181966	-146.715605	-37.540666	-59.162709	-37.540666	-59.162709	-0.204305	175.197686
3.500000	-0.184845	-148.782831	-37.394951	-61.259225	-37.394951	-61.259225	-0.207351	172.662581
3.550000	-0.187762	-150.853708	-37.247617	-63.386648	-37.247617	-63.386648	-0.210453	170.118255
3.600000	-0.190716	-152.928557	-37.098761	-65.546242	-37.098761	-65.546242	-0.213610	167.564005
3.650000	-0.193708	-155.007697	-36.948488	-67.739164	-36.948488	-67.739164	-0.216824	164.999137
3.700000	-0.196739	-157.091450	-36.796906	-69.966472	-36.796906	-69.966472	-0.220095	162.422960
3.750000	-0.199809	-159.180134	-36.644129	-72.229119	-36.644129	-72.229119	-0.223423	159.834793
3.800000	-0.202919	-161.274191	-36.490193	-74.528759	-36.490193	-74.528759	-0.226809	157.233676
3.850000	-0.206068	-163.373831	-36.335298	-76.865369	-36.335298	-76.865369	-0.230253	154.619210
3.900000	-0.209256	-165.479368	-36.179564	-79.239593	-36.179564	-79.239593	-0.233755	151.990747
3.950000	-0.212483	-167.591116	-36.023105	-81.651981	-36.023105	-81.651981	-0.237314	149.347655
4.000000	-0.215749	-169.709383	-35.866037	-84.102994	-35.866037	-84.102994	-0.240930	146.689317
4.050000	-0.219052	-171.834475	-35.708472	-86.593001	-35.708472	-86.593001	-0.244603	144.015132
4.100000	-0.222393	-173.966693	-35.550519	-89.122290	-35.550519	-89.122290	-0.248332	141.324519
4.150000	-0.225769	-176.106333	-35.392282	-91.691067	-35.392282	-91.691067	-0.252119	138.616917
4.200000	-0.229181	-178.253685	-35.233863	-94.299461	-35.233863	-94.299461	-0.255961	135.891788
4.250000	-0.232627	179.590969	-35.075359	-96.947530	-35.075359	-96.947530	-0.259858	133.148618
4.300000	-0.236106	177.427350	-34.916862	-99.635261	-34.916862	-99.635261	-0.263811	130.386920
4.350000	-0.239617	175.255193	-34.758460	-102.362575	-34.758460	-102.362575	-0.267818	127.606235
4.400000	-0.243157	173.074139	-34.600209	-105.129754	-34.600209	-105.129754	-0.271880	124.805920
4.450000	-0.246726	170.883931	-34.442191	-107.936586	-34.442191	-107.936586	-0.275997	121.985569
4.500000	-0.250320	168.684427	-34.284511	-110.782373	-34.284511	-110.782373	-0.280166	119.145035
4.550000	-0.253939	166.475401	-34.127242	-113.666788	-34.127242	-113.666788	-0.284388	116.284001
4.600000	-0.257579	164.256637	-33.970454	-116.589450	-33.970454	-116.589450	-0.288662	113.402189
4.650000	-0.261239	162.027938	-33.814211	-119.549919	-33.814211	-119.549919	-0.292988	110.499364
4.700000	-0.264915	159.789116	-33.658579	-122.547700	-33.658579	-122.547700	-0.297364	107.575338
4.750000	-0.268606	157.540001	-33.503620	-125.582243	-33.503620	-125.582243	-0.301792	104.629968
4.800000	-0.272309	155.280438	-33.349394	-128.652939	-33.349394	-128.652939	-0.306269	101.663163
4.850000	-0.276020	153.010292	-33.195960	-131.759127	-33.195960	-131.759127	-0.310796	98.674886
4.900000	-0.279737	150.729443	-33.043377	-134.900085	-33.043377	-134.900085	-0.315372	95.665151
4.950000	-0.283457	148.437794	-32.891704	-138.075032	-32.891704	-138.075032	-0.319998	92.634033
5.000000	-0.287176	146.135264	-32.740998	-141.283129	-32.740998	-141.283129	-0.324671	89.581663
5.050000	-0.290891	143.821559	-32.591288	-144.524155	-32.591288	-144.524155	-0.329395	86.507781
5.100000	-0.294599	141.496881	-32.442667	-147.796423	-32.442667	-147.796423	-0.334166	83.413109
5.150000	-0.298296	139.161222	-32.295196	-151.098902	-32.295196	-151.098902	-0.338986	80.297970
5.200000	-0.301980	136.814596	-32.148935	-154.430500	-32.148935	-154.430500	-0.343853	77.162750
5.250000	-0.305645	134.457044	-32.003947	-157.790060	-32.003947	-157.790060	-0.348769	74.007901
5.300000	-0.309290	132.088631	-31.860292	-161.176360	-31.860292	-161.176360	-0.353732	70.833940
5.350000	-0.312910	129.709452	-31.718036	-164.588115	-31.718036	-164.588115	-0.358745	67.641452
5.400000	-0.316502	127.319627	-31.577241	-168.023974	-31.577241	-168.023974	-0.363806	64.431083
5.450000	-0.320063	124.919306	-31.437971	-171.482526	-31.437971	-171.482526	-0.368917	61.203544
5.500000	-0.323588	122.508668	-31.300290	-174.962297	-31.300290	-174.962297	-0.374079	57.959609
5.550000	-0.327076	120.087921	-31.164262	-178.461754	-31.164262	-178.461754	-0.379291	54.700113
5.600000	-0.330522	117.657305	-31.029950	178.020691	-31.029950	178.020691	-0.384556	51.425949
5.650000	-0.333922	115.216987	-30.897415	174.486520	-30.897415	174.486520	-0.389875	48.137926
5.700000	-0.337275	112.767278	-30.766721	170.937485	-30.766721	170.937485	-0.395249	44.837082
5.750000	-0.340577	110.308615	-30.637929	167.375501	-30.637929	167.375501	-0.400680	41.524618
5.800000	-0.343826	107.841362	-30.511094	163.802348	-30.511094	163.802348	-0.406169	38.201630
5.850000	-0.347019	105.365914	-30.386268	160.219834	-30.386268	160.219834	-0.411719	34.869252
5.900000	-0.350154	102.882693	-30.263500	156.629798	-30.263500	156.629798	-0.417330	31.528655
5.950000	-0.353229	100.392156	-30.142835	153.034097	-30.142835	153.034097	-0.423007	28.181037
6.000000	-0.356243	97.894785	-30.024310	149.434602	-30.024310	149.434602	-0.428751	24.827620
6.050000	-0.359193	95.391093	-29.907961	145.833189	-29.907961	145.833189	-0.434565	21.469642
6.100000	-0.362079	92.881620	-29.793815	142.231732	-29.793815	142.231732	-0.440452	18.108355
6.150000	-0.364901	90.366982	-29.681885	138.632051	-29.681885	138.632051	-0.446413	14.745020
6.200000	-0.367657	87.847645	-29.572211	135.036091	-29.572211	135.036091	-0.452455	11.380868
6.250000	-0.370346	85.324309	-29.464788	131.445639	-29.464788	131.445639	-0.458578	8.017178
6.300000	-0.372970	82.797585	-29.359630	127.862580	-29.359630	127.862580	-0.464788	4.655215
6.350000	-0.375528	80.268178	-29.256723	124.288600	-29.256723	124.288600	-0.471086	1.296187
6.400000	-0.378023	77.736769	-29.156056	120.725394	-29.156056	120.725394	-0.477476	-2.058721
6.450000	-0.380455	75.204055	-29.057609	117.174603	-29.057609	117.174603	-0.483962	-5.408352
6.500000	-0.382824	72.670752	-28.961389	113.638227	-28.961389	113.638227	-0.490548	-8.751388
6.550000	-0.385136	70.137607	-28.867310	110.117073	-28.867310	110.117073	-0.497235	-12.087080
6.600000	-0.387391	67.605342	-28.775359	106.612882	-28.775359	106.612882	-0.504027	-15.414264
6.650000	-0.389593	65.074705	-28.685491	103.127019	-28.685491	103.127019	-0.510926	-18.731963
6.700000	-0.391745	62.546448	-28.597659	99.660771	-28.597659	99.660771	-0.517937	-22.039252
6.750000	-0.393849	60.021328	-28.511808	96.215339	-28.511808	96.215339	-0.525062	-25.335268
6.800000	-0.395911	57.500104	-28.427880	92.791844	-28.427880	92.791844	-0.532304	-28.619206
6.850000	-0.397934	54.983533	-28.345812	89.391318	-28.345812	89.391318	-0.539664	-31.890326
6.900000	-0.399922	52.472438	-28.265548	86.014978	-28.265548	86.014978	-0.547148	-35.147797
6.950000	-0.401881	49.967593	-28.187016	82.663711	-28.187016	82.663711	-0.554755	-38.390991
7.000000	-0.403815	47.469682	-28.110134	79.338026	-28.110134	79.338026	-0.562488	-41.619517
7.050000	-0.405731	44.979436	-28.034824	76.038605	-28.034824	76.038605	-0.570348	-44.832906
7.100000	-0.407633	42.497573	-27.961011	72.766049	-27.961011	72.766049	-0.578335	-48.030754
7.150000	-0.409527	40.024797	-27.888615	69.520877	-27.888615	69.520877	-0.586451	-51.212727
7.200000	-0.411420	37.561797	-27.817555	66.303530	-27.817555	66.303530	-0.594696	-54.378557
7.250000	-0.413317	35.109242	-27.747752	63.114373	-27.747752	63.114373	-0.603070	-57.528040
7.300000	-0.415224	32.667782	-27.679124	59.953696	-27.679124	59.953696	-0.611573	-60.661037
7.350000	-0.417147	30.238044	-27.611588	56.821724	-27.611588	56.821724	-0.620205	-63.777474
7.400000	-0.419094	27.820635	-27.545065	53.718610	-27.545065	53.718610	-0.628965	-66.877334
7.450000	-0.421069	25.416133	-27.479471	50.644450	-27.479471	50.644450	-0.637850	-69.960661
7.500000	-0.423080	23.025093	-27.414727	47.599278	-27.414727	47.599278	-0.646861	-73.027553
7.550000	-0.425134	20.648359	-27.350757	44.583701	-27.350757	44.583701	-0.655996	-76.077816
7.600000	-0.427237	18.286136	-27.287472	41.597014	-27.287472	41.597014	-0.665252	-79.112015
7.650000	-0.429394	15.938894	-27.224794	38.639094	-27.224794	38.639094	-0.674625	-82.130407
7.700000	-0.431612	13.607073	-27.162645	35.709772	-27.162645	35.709772	-0.684113	-85.133294
7.750000	-0.433898	11.291084	-27.100947	32.808842	-27.100947	32.808842	-0.693710	-88.121024
7.800000	-0.436257	8.991308	-27.039624	29.936058	-27.039624	29.936058	-0.703414	-91.093982
7.850000	-0.438696	6.708095	-26.978599	27.091141	-26.978599	27.091141	-0.713220	-94.052593
7.900000	-0.441220	4.441766	-26.917798	24.273779	-26.917798	24.273779	-0.723124	-96.997316
7.950000	-0.443835	2.192613	-26.857147	21.483633	-26.857147	21.483633	-0.733119	-99.928642
8.000000	-0.446547	-0.039105	-26.796571	18.720339	-26.796571	18.720339	-0.743200	-102.847093
8.050000	-0.449361	-2.253154	-26.735998	15.983509	-26.735998	15.983509	-0.753361	-105.753217
8.100000	-0.452283	-4.449333	-26.675354	13.272734	-26.675354	13.272734	-0.763596	-108.647585
8.150000	-0.455320	-6.627270	-26.614560	10.587859	-26.614560	10.587859	-0.773897	-111.530679
8.200000	-0.458477	-8.786815	-26.553541	7.928425	-26.553541	7.928425	-0.784259	-114.403133
8.250000	-0.461757	-10.928048	-26.492231	5.293691	-26.492231	5.293691	-0.794671	-117.265701
8.300000	-0.465167	-13.050877	-26.430556	2.683185	-26.430556	2.683185	-0.805126	-120.119027
8.350000	-0.468714	-15.154703	-26.368418	0.097092	-26.368418	0.097092	-0.815615	-122.963543
8.400000	-0.472389	-17.241386	-26.305841	-2.467457	-26.305841	-2.467457	-0.826128	-125.800712
8.450000	-0.476220	-19.308025	-26.242594	-5.007404	-26.242594	-5.007404	-0.836657	-128.630049
8.500000	-0.480191	-21.357132	-26.178747	-7.526312	-26.178747	-7.526312	-0.847192	-131.453179
8.550000	-0.484318	-23.387309	-26.114135	-10.023003	-26.114135	-10.023003	-0.857721	-134.270300
8.600000	-0.488603	-25.398962	-26.048705	-12.498425	-26.048705	-12.498425	-0.868235	-137.082206
8.650000	-0.493044	-27.392874	-25.982431	-14.953921	-25.982431	-14.953921	-0.878723	-139.889766
8.700000	-0.497662	-29.367366	-25.915092	-17.388076	-25.915092	-17.388076	-0.889168	-142.693264
8.750000	-0.502435	-31.325362	-25.846846	-19.804489	-25.846846	-19.804489	-0.899570	-145.493901
8.800000	-0.507394	-33.264096	-25.777353	-22.200627	-25.777353	-22.200627	-0.909903	-148.291868
8.850000	-0.512534	-35.184940	-25.706635	-24.578376	-25.706635	-24.578376	-0.920161	-151.088036
8.900000	-0.517858	-37.088054	-25.634603	-26.938309	-25.634603	-26.938309	-0.930329	-153.883055
8.950000	-0.523372	-38.973611	-25.561165	-29.281007	-25.561165	-29.281007	-0.940395	-156.677557
9.000000	-0.529079	-40.841798	-25.486227	-31.607058	-25.486227	-31.607058	-0.950345	-159.472163
9.050000	-0.534985	-42.692815	-25.409691	-33.917060	-25.409691	-33.917060	-0.960165	-162.267474
9.100000	-0.541095	-44.526873	-25.331457	-36.211620	-25.331457	-36.211620	-0.969841	-165.064073
9.150000	-0.547413	-46.344195	-25.251420	-38.491356	-25.251420	-38.491356	-0.979358	-167.862519
9.200000	-0.553947	-48.144857	-25.169444	-40.756769	-25.169444	-40.756769	-0.988701	-170.663381
9.250000	-0.560702	-49.929187	-25.085426	-43.008585	-25.085426	-43.008585	-0.997855	-173.467166
9.300000	-0.567682	-51.697515	-24.999259	-45.247532	-24.999259	-45.247532	-1.006807	-176.274348
9.350000	-0.574893	-53.450102	-24.910822	-47.474288	-24.910822	-47.474288	-1.015541	-179.085379
9.400000	-0.582340	-55.187214	-24.819984	-49.689549	-24.819984	-49.689549	-1.024045	178.099319
9.450000	-0.590031	-56.909124	-24.726611	-51.894035	-24.726611	-51.894035	-1.032303	175.279358
9.500000	-0.597972	-58.616113	-24.630561	-54.088487	-24.630561	-54.088487	-1.040301	172.454386
9.550000	-0.606169	-60.308465	-24.531688	-56.273676	-24.531688	-56.273676	-1.048026	169.624089
9.600000	-0.614631	-61.986404	-24.429813	-58.450366	-24.429813	-58.450366	-1.055463	166.788166
9.650000	-0.623367	-63.650161	-24.324748	-60.619374	-24.324748	-60.619374	-1.062598	163.946351
9.700000	-0.632383	-65.300173	-24.216359	-62.781656	-24.216359	-62.781656	-1.069421	161.098514
9.750000	-0.641686	-66.936744	-24.104465	-64.938135	-24.104465	-64.938135	-1.075920	158.244512
9.800000	-0.651285	-68.560179	-23.988873	-67.089778	-23.988873	-67.089778	-1.082085	155.384254
9.850000	-0.661190	-70.170784	-23.869380	-69.237611	-23.869380	-69.237611	-1.087907	152.517694
9.900000	-0.671410	-71.768870	-23.745773	-71.382723	-23.745773	-71.382723	-1.093376	149.644838
9.950000	-0.681954	-73.354748	-23.617823	-73.526272	-23.617823	-73.526272	-1.098485	146.765744
10.000000	-0.692834	-74.928733	-23.485289	-75.669497	-23.485289	-75.669497	-1.103227	143.880523
