! freq	dB(S11)	phase(S11)	dB(S12)	phase(S12)	
!     	dB(S21)	phase(S21)	dB(S22)	phase(S22)	
!S-par simulation data
#  GHz  S  DB  R 50
0.000000	-0.000000	0.000000	-389.773164	0.000000	-389.773164	0.000000	-0.000000	0.000000
0.050000	-0.000869	-1.362086	-108.994856	88.936337	-108.994856	88.936337	-0.000565	-0.882648
0.100000	-0.002939	-2.717763	-103.017192	87.880744	-103.017192	87.880744	-0.001885	-1.761004
0.150000	-0.005343	-4.066115	-99.567368	86.841628	-99.567368	86.841628	-0.003377	-2.634674
0.200000	-0.007590	-5.409343	-97.175148	85.830033	-97.175148	85.830033	-0.004744	-3.505284
0.250000	-0.009612	-6.750082	-95.367641	84.851812	-95.367641	84.851812	-0.005966	-4.374538
0.300000	-0.011439	-8.089381	-93.944515	83.918977	-93.944515	83.918977	-0.007075	-5.243116
0.350000	-0.013136	-9.427821	-92.797209	83.043755	-92.797209	83.043755	-0.008118	-6.111389
0.400000	-0.014759	-10.765575	-91.862809	82.241509	-91.862809	82.241509	-0.009134	-6.979496
0.450000	-0.016344	-12.102541	-91.109130	81.539823	-91.109130	81.539823	-0.010145	-7.847443
0.500000	-0.017918	-13.438653	-90.500333	80.952428	-90.500333	80.952428	-0.011166	-8.715207
0.550000	-0.019492	-14.773739	-90.018490	80.505838	-90.018490	80.505838	-0.012199	-9.582727
0.600000	-0.021072	-16.107615	-89.651413	80.233198	-89.651413	80.233198	-0.013247	-10.449934
0.650000	-0.022660	-17.440098	-89.390921	80.176521	-89.390921	80.176521	-0.014305	-11.316749
0.700000	-0.024256	-18.771005	-89.231688	80.389784	-89.231688	80.389784	-0.015372	-12.183091
0.750000	-0.025861	-20.100048	-89.176211	80.969952	-89.176211	80.969952	-0.016444	-13.048841
0.800000	-0.027473	-21.427050	-89.221158	82.026032	-89.221158	82.026032	-0.017519	-13.913910
0.850000	-0.029091	-22.751894	-89.360253	83.695025	-89.360253	83.695025	-0.018593	-14.778235
0.900000	-0.030712	-24.074600	-89.580992	86.100497	-89.580992	86.100497	-0.019668	-15.641806
0.950000	-0.032337	-25.394913	-89.875191	89.510140	-89.875191	89.510140	-0.020741	-16.504519
1.000000	-0.033965	-26.712709	-90.214678	94.210227	-90.214678	94.210227	-0.021813	-17.366320
1.050000	-0.035593	-28.027875	-90.545683	100.504912	-90.545683	100.504912	-0.022885	-18.227166
1.100000	-0.037222	-29.340306	-90.777283	108.607956	-90.777283	108.607956	-0.023956	-19.087018
1.150000	-0.038851	-30.649907	-90.782601	118.430836	-90.782601	118.430836	-0.025028	-19.945846
1.200000	-0.040479	-31.956590	-90.435675	129.347510	-90.435675	129.347510	-0.026102	-20.803625
1.250000	-0.042105	-33.260274	-89.682722	140.228410	-89.682722	140.228410	-0.027176	-21.660332
1.300000	-0.043729	-34.560746	-88.565852	149.861853	-88.565852	149.861853	-0.028253	-22.515901
1.350000	-0.045350	-35.858069	-87.237351	157.709969	-87.237351	157.709969	-0.029331	-23.370364
1.400000	-0.046968	-37.152176	-85.820108	163.759874	-85.820108	163.759874	-0.030411	-24.223706
1.450000	-0.048582	-38.443007	-84.396420	168.258528	-84.396420	168.258528	-0.031493	-25.075914
1.500000	-0.050191	-39.730507	-83.011449	171.512823	-83.011449	171.512823	-0.032576	-25.926976
1.550000	-0.051796	-41.014620	-81.686009	173.799489	-81.686009	173.799489	-0.033660	-26.776879
1.600000	-0.053396	-42.295297	-80.427233	175.340433	-80.427233	175.340433	-0.034746	-27.625612
1.650000	-0.054991	-43.572489	-79.235266	176.305171	-79.235266	176.305171	-0.035832	-28.473163
1.700000	-0.056581	-44.846152	-78.106994	176.820957	-78.106994	176.820957	-0.036919	-29.319520
1.750000	-0.058166	-46.116243	-77.037984	176.983116	-77.037984	176.983116	-0.038007	-30.164670
1.800000	-0.059745	-47.382720	-76.023469	176.863462	-76.023469	176.863462	-0.039096	-31.008602
1.850000	-0.061320	-48.645545	-75.058807	176.516605	-75.058807	176.516605	-0.040185	-31.851302
1.900000	-0.062889	-49.904683	-74.139684	175.984538	-74.139684	175.984538	-0.041274	-32.692758
1.950000	-0.064454	-51.160098	-73.262188	175.299922	-73.262188	175.299922	-0.042364	-33.532958
2.000000	-0.066014	-52.411757	-72.422808	174.488457	-72.422808	174.488457	-0.043455	-34.371887
2.050000	-0.067571	-53.659631	-71.618416	173.570590	-71.618416	173.570590	-0.044547	-35.209533
2.100000	-0.069124	-54.903690	-70.846229	172.562757	-70.846229	172.562757	-0.045639	-36.045882
2.150000	-0.070674	-56.143907	-70.103770	171.478304	-70.103770	171.478304	-0.046733	-36.880921
2.200000	-0.072221	-57.380258	-69.388834	170.328164	-69.388834	170.328164	-0.047828	-37.714638
2.250000	-0.073766	-58.612720	-68.699450	169.121376	-68.699450	169.121376	-0.048926	-38.547017
2.300000	-0.075310	-59.841271	-68.033854	167.865466	-68.033854	167.865466	-0.050025	-39.378047
2.350000	-0.076854	-61.065893	-67.390463	166.566755	-67.390463	166.566755	-0.051127	-40.207713
2.400000	-0.078397	-62.286567	-66.767850	165.230580	-66.767850	165.230580	-0.052231	-41.036004
2.450000	-0.079941	-63.503278	-66.164727	163.861485	-66.164727	163.861485	-0.053339	-41.862905
2.500000	-0.081486	-64.716012	-65.579925	162.463354	-65.579925	162.463354	-0.054450	-42.688404
2.550000	-0.083034	-65.924585	-65.011525	161.038551	-65.011525	161.038551	-0.055566	-43.512426
2.600000	-0.084585	-67.129159	-64.459515	159.591174	-64.459515	159.591174	-0.056686	-44.335020
2.650000	-0.086139	-68.329727	-63.922999	158.123693	-63.922999	158.123693	-0.057811	-45.156174
2.700000	-0.087698	-69.526284	-63.401157	156.638269	-63.401157	156.638269	-0.058942	-45.975875
2.750000	-0.089262	-70.718825	-62.893235	155.136799	-62.893235	155.136799	-0.060078	-46.794114
2.800000	-0.090832	-71.907348	-62.398540	153.620957	-62.398540	153.620957	-0.061221	-47.610877
2.850000	-0.092410	-73.091855	-61.916431	152.092223	-61.916431	152.092223	-0.062370	-48.426154
2.900000	-0.093994	-74.272346	-61.446318	150.551912	-61.446318	150.551912	-0.063527	-49.239936
2.950000	-0.095588	-75.448826	-60.987651	149.001196	-60.987651	149.001196	-0.064692	-50.052211
3.000000	-0.097190	-76.621300	-60.539920	147.441121	-60.539920	147.441121	-0.065865	-50.862969
3.050000	-0.098803	-77.789776	-60.102652	145.872626	-60.102652	145.872626	-0.067046	-51.672203
3.100000	-0.100426	-78.954264	-59.675403	144.296554	-59.675403	144.296554	-0.068237	-52.479901
3.150000	-0.102060	-80.114774	-59.257762	142.713665	-59.257762	142.713665	-0.069437	-53.286057
3.200000	-0.103707	-81.271320	-58.849341	141.124645	-58.849341	141.124645	-0.070647	-54.090662
3.250000	-0.105367	-82.423916	-58.449778	139.530115	-58.449778	139.530115	-0.071868	-54.893708
3.300000	-0.107041	-83.572580	-58.058734	137.930641	-58.058734	137.930641	-0.073100	-55.695188
3.350000	-0.108729	-84.717328	-57.675889	136.326734	-57.675889	136.326734	-0.074344	-56.495095
3.400000	-0.110432	-85.858182	-57.300942	134.718864	-57.300942	134.718864	-0.075599	-57.293423
3.450000	-0.112151	-86.995163	-56.933609	133.107455	-56.933609	133.107455	-0.076867	-58.090166
3.500000	-0.113886	-88.128294	-56.573624	131.492900	-56.573624	131.492900	-0.078148	-58.885319
3.550000	-0.115639	-89.257600	-56.220733	129.875557	-56.220733	129.875557	-0.079442	-59.678877
3.600000	-0.117409	-90.383107	-55.874697	128.255754	-55.874697	128.255754	-0.080750	-60.470836
3.650000	-0.119198	-91.504845	-55.535290	126.633794	-55.535290	126.633794	-0.082072	-61.261191
3.700000	-0.121006	-92.622841	-55.202296	125.009956	-55.202296	125.009956	-0.083408	-62.049939
3.750000	-0.122833	-93.737127	-54.875513	123.384497	-54.875513	123.384497	-0.084760	-62.837078
3.800000	-0.124682	-94.847578	-54.554493	121.757604	-54.554493	121.757604	-0.086128	-63.622535
3.850000	-0.126552	-95.954389	-54.239326	120.129567	-54.239326	120.129567	-0.087513	-64.406377
3.900000	-0.128443	-97.057594	-53.929836	118.500586	-53.929836	118.500586	-0.088913	-65.188604
3.950000	-0.130356	-98.157232	-53.625852	116.870849	-53.625852	116.870849	-0.090331	-65.969215
4.000000	-0.132292	-99.253340	-53.327216	115.240531	-53.327216	115.240531	-0.091766	-66.748208
4.050000	-0.134251	-100.345958	-53.033773	113.609793	-53.033773	113.609793	-0.093219	-67.525585
4.100000	-0.136233	-101.435125	-52.745378	111.978788	-52.745378	111.978788	-0.094690	-68.301346
4.150000	-0.138240	-102.520885	-52.461889	110.347655	-52.461889	110.347655	-0.096180	-69.075492
4.200000	-0.140271	-103.603280	-52.183175	108.716528	-52.183175	108.716528	-0.097689	-69.848025
4.250000	-0.142327	-104.682354	-51.909105	107.085528	-51.909105	107.085528	-0.099217	-70.618946
4.300000	-0.144409	-105.758153	-51.639558	105.454772	-51.639558	105.454772	-0.100766	-71.388259
4.350000	-0.146517	-106.830723	-51.374415	103.824369	-51.374415	103.824369	-0.102335	-72.155965
4.400000	-0.148652	-107.900111	-51.113565	102.194418	-51.113565	102.194418	-0.103924	-72.922070
4.450000	-0.150813	-108.966366	-50.856899	100.565016	-50.856899	100.565016	-0.105535	-73.686576
4.500000	-0.153002	-110.029537	-50.604312	98.936253	-50.604312	98.936253	-0.107168	-74.449488
4.550000	-0.155219	-111.089675	-50.355704	97.308212	-50.355704	97.308212	-0.108823	-75.210811
4.600000	-0.157464	-112.146831	-50.110980	95.680973	-50.110980	95.680973	-0.110501	-75.970551
4.650000	-0.159737	-113.201057	-49.870047	94.054610	-49.870047	94.054610	-0.112201	-76.728712
4.700000	-0.162039	-114.252406	-49.632816	92.429195	-49.632816	92.429195	-0.113925	-77.485303
4.750000	-0.164371	-115.300932	-49.399201	90.804792	-49.399201	90.804792	-0.115673	-78.240328
4.800000	-0.166732	-116.346691	-49.169119	89.181465	-49.169119	89.181465	-0.117445	-78.993796
4.850000	-0.169123	-117.389736	-48.942491	87.559273	-48.942491	87.559273	-0.119241	-79.745714
4.900000	-0.171545	-118.430126	-48.719239	85.938272	-48.719239	85.938272	-0.121063	-80.496090
4.950000	-0.173997	-119.467916	-48.499290	84.318514	-48.499290	84.318514	-0.122911	-81.244933
5.000000	-0.176480	-120.503165	-48.282571	82.700049	-48.282571	82.700049	-0.124784	-81.992251
5.050000	-0.178996	-121.535825	-48.068923	81.082984	-48.068923	81.082984	-0.126685	-82.737989
5.100000	-0.181543	-122.566067	-47.858377	79.467308	-47.858377	79.467308	-0.128613	-83.482223
5.150000	-0.184123	-123.593950	-47.650867	77.853061	-47.650867	77.853061	-0.130569	-84.224962
5.200000	-0.186734	-124.619535	-47.446331	76.240284	-47.446331	76.240284	-0.132552	-84.966218
5.250000	-0.189378	-125.642883	-47.244707	74.629012	-47.244707	74.629012	-0.134563	-85.706002
5.300000	-0.192054	-126.664055	-47.045936	73.019281	-47.045936	73.019281	-0.136603	-86.444325
5.350000	-0.194764	-127.683113	-46.849962	71.411124	-46.849962	71.411124	-0.138672	-87.181199
5.400000	-0.197506	-128.700121	-46.656729	69.804572	-46.656729	69.804572	-0.140771	-87.916636
5.450000	-0.200282	-129.715140	-46.466182	68.199654	-46.466182	68.199654	-0.142900	-88.650650
5.500000	-0.203091	-130.728236	-46.278272	66.596398	-46.278272	66.596398	-0.145059	-89.383252
5.550000	-0.205935	-131.739472	-46.092946	64.994828	-46.092946	64.994828	-0.147248	-90.114457
5.600000	-0.208812	-132.748913	-45.910156	63.394970	-45.910156	63.394970	-0.149469	-90.844279
5.650000	-0.211723	-133.756624	-45.729854	61.796846	-45.729854	61.796846	-0.151722	-91.572731
5.700000	-0.214668	-134.762670	-45.551995	60.200477	-45.551995	60.200477	-0.154007	-92.299829
5.750000	-0.217648	-135.767118	-45.376535	58.605883	-45.376535	58.605883	-0.156324	-93.025586
5.800000	-0.220663	-136.770033	-45.203428	57.013082	-45.203428	57.013082	-0.158675	-93.750019
5.850000	-0.223712	-137.771482	-45.032635	55.422091	-45.032635	55.422091	-0.161059	-94.473143
5.900000	-0.226797	-138.771533	-44.864113	53.832925	-44.864113	53.832925	-0.163476	-95.194975
5.950000	-0.229916	-139.770253	-44.697824	52.245599	-44.697824	52.245599	-0.165928	-95.915530
6.000000	-0.233070	-140.767709	-44.533729	50.660126	-44.533729	50.660126	-0.168415	-96.634825
6.050000	-0.236259	-141.763969	-44.371789	49.076519	-44.371789	49.076519	-0.170937	-97.352878
6.100000	-0.239484	-142.759103	-44.211970	47.494787	-44.211970	47.494787	-0.173495	-98.069705
6.150000	-0.242744	-143.753179	-44.054236	45.914942	-44.054236	45.914942	-0.176089	-98.785325
6.200000	-0.246039	-144.746265	-43.898553	44.336991	-43.898553	44.336991	-0.178719	-99.499756
6.250000	-0.249370	-145.738431	-43.744886	42.760944	-43.744886	42.760944	-0.181386	-100.213016
6.300000	-0.252738	-146.729714	-43.593177	41.186889	-43.593177	41.186889	-0.184092	-100.925074
6.350000	-0.256141	-147.720222	-43.443424	39.614749	-43.443424	39.614749	-0.186836	-101.636001
6.400000	-0.259580	-148.710026	-43.295598	38.044531	-43.295598	38.044531	-0.189618	-102.345817
6.450000	-0.263055	-149.699196	-43.149668	36.476238	-43.149668	36.476238	-0.192439	-103.054540
6.500000	-0.266564	-150.687802	-43.005607	34.909874	-43.005607	34.909874	-0.195299	-103.762191
6.550000	-0.270110	-151.675917	-42.863385	33.345440	-42.863385	33.345440	-0.198198	-104.468791
6.600000	-0.273690	-152.663610	-42.722976	31.782940	-42.722976	31.782940	-0.201138	-105.174360
6.650000	-0.277306	-153.650952	-42.584354	30.222373	-42.584354	30.222373	-0.204117	-105.878920
6.700000	-0.280958	-154.638016	-42.447492	28.663742	-42.447492	28.663742	-0.207138	-106.582491
6.750000	-0.284644	-155.624872	-42.312367	27.107045	-42.312367	27.107045	-0.210200	-107.285095
6.800000	-0.288366	-156.611592	-42.178954	25.552283	-42.178954	25.552283	-0.213304	-107.986754
6.850000	-0.292122	-157.598249	-42.047229	23.999454	-42.047229	23.999454	-0.216449	-108.687492
6.900000	-0.295914	-158.584914	-41.917171	22.448557	-41.917171	22.448557	-0.219638	-109.387329
6.950000	-0.299740	-159.571659	-41.788756	20.899590	-41.788756	20.899590	-0.222869	-110.086289
7.000000	-0.303600	-160.558556	-41.661965	19.352551	-41.661965	19.352551	-0.226143	-110.784396
7.050000	-0.307495	-161.545679	-41.536777	17.807438	-41.536777	17.807438	-0.229461	-111.481672
7.100000	-0.311425	-162.533100	-41.413172	16.264246	-41.413172	16.264246	-0.232824	-112.178142
7.150000	-0.315388	-163.520891	-41.291130	14.722975	-41.291130	14.722975	-0.236231	-112.873829
7.200000	-0.319385	-164.509124	-41.170633	13.183620	-41.170633	13.183620	-0.239682	-113.568759
7.250000	-0.323415	-165.497874	-41.051663	11.646178	-41.051663	11.646178	-0.243180	-114.262955
7.300000	-0.327479	-166.487212	-40.934203	10.110646	-40.934203	10.110646	-0.246723	-114.956443
7.350000	-0.331575	-167.477211	-40.818237	8.577021	-40.818237	8.577021	-0.250312	-115.649248
7.400000	-0.335704	-168.467946	-40.703747	7.045299	-40.703747	7.045299	-0.253947	-116.341396
7.450000	-0.339866	-169.459487	-40.590719	5.515478	-40.590719	5.515478	-0.257630	-117.032912
7.500000	-0.344059	-170.451910	-40.479138	3.987554	-40.479138	3.987554	-0.261360	-117.723823
7.550000	-0.348285	-171.445331	-40.368990	2.461606	-40.368990	2.461606	-0.265139	-118.414131
7.600000	-0.352543	-172.439786	-40.260263	0.937550	-40.260263	0.937550	-0.268967	-119.103891
7.650000	-0.356831	-173.435347	-40.152943	-0.584616	-40.152943	-0.584616	-0.272843	-119.793127
7.700000	-0.361149	-174.432088	-40.047017	-2.104894	-40.047017	-2.104894	-0.276768	-120.481869
7.750000	-0.365497	-175.430081	-39.942472	-3.623285	-39.942472	-3.623285	-0.280742	-121.170144
7.800000	-0.369875	-176.429400	-39.839298	-5.139791	-39.839298	-5.139791	-0.284765	-121.857980
7.850000	-0.374282	-177.430118	-39.737483	-6.654410	-39.737483	-6.654410	-0.288839	-122.545405
7.900000	-0.378717	-178.432306	-39.637015	-8.167144	-39.637015	-8.167144	-0.292962	-123.232449
7.950000	-0.383179	-179.436038	-39.537885	-9.677990	-39.537885	-9.677990	-0.297136	-123.919139
8.000000	-0.387669	179.558613	-39.440083	-11.186947	-39.440083	-11.186947	-0.301361	-124.605506
8.050000	-0.392186	178.551575	-39.343598	-12.694012	-39.343598	-12.694012	-0.305637	-125.291579
8.100000	-0.396728	177.542776	-39.248423	-14.199182	-39.248423	-14.199182	-0.309964	-125.977388
8.150000	-0.401296	176.532144	-39.154549	-15.702452	-39.154549	-15.702452	-0.314343	-126.662964
8.200000	-0.405888	175.519607	-39.061967	-17.203817	-39.061967	-17.203817	-0.318775	-127.348336
8.250000	-0.410505	174.505093	-38.970669	-18.703270	-38.970669	-18.703270	-0.323258	-128.033537
8.300000	-0.415144	173.488531	-38.880649	-20.200805	-38.880649	-20.200805	-0.327795	-128.718596
8.350000	-0.419806	172.469849	-38.791899	-21.696412	-38.791899	-21.696412	-0.332384	-129.403546
8.400000	-0.424490	171.448977	-38.704412	-23.190081	-38.704412	-23.190081	-0.337026	-130.088419
8.450000	-0.429194	170.425843	-38.618183	-24.681802	-38.618183	-24.681802	-0.341722	-130.773247
8.500000	-0.433918	169.400379	-38.533205	-26.171563	-38.533205	-26.171563	-0.346472	-131.458063
8.550000	-0.438661	168.372513	-38.449473	-27.659350	-38.449473	-27.659350	-0.351275	-132.142899
8.600000	-0.443423	167.342177	-38.366980	-29.145147	-38.366980	-29.145147	-0.356132	-132.827789
8.650000	-0.448201	166.309301	-38.285723	-30.628940	-38.285723	-30.628940	-0.361044	-133.512767
8.700000	-0.452995	165.273817	-38.205697	-32.110709	-38.205697	-32.110709	-0.366011	-134.197867
8.750000	-0.457805	164.235656	-38.126897	-33.590436	-38.126897	-33.590436	-0.371032	-134.883122
8.800000	-0.462629	163.194628	-38.049341	-35.068009	-38.049341	-35.068009	-0.376110	-135.568579
8.850000	-0.467466	162.150784	-37.973005	-36.543495	-37.973005	-36.543495	-0.381244	-136.254265
8.900000	-0.472314	161.104055	-37.897884	-38.016869	-37.897884	-38.016869	-0.386432	-136.940216
8.950000	-0.477173	160.054378	-37.823976	-39.488105	-37.823976	-39.488105	-0.391677	-137.626468
9.000000	-0.482041	159.001685	-37.751276	-40.957177	-37.751276	-40.957177	-0.396976	-138.313057
9.050000	-0.486917	157.945914	-37.679781	-42.424056	-37.679781	-42.424056	-0.402332	-139.000020
9.100000	-0.491800	156.887001	-37.609488	-43.888710	-37.609488	-43.888710	-0.407743	-139.687395
9.150000	-0.496689	155.824881	-37.540394	-45.351108	-37.540394	-45.351108	-0.413209	-140.375219
9.200000	-0.501581	154.759495	-37.472497	-46.811215	-37.472497	-46.811215	-0.418732	-141.063529
9.250000	-0.506477	153.690779	-37.405794	-48.268995	-37.405794	-48.268995	-0.424311	-141.752365
9.300000	-0.511373	152.618675	-37.340282	-49.724412	-37.340282	-49.724412	-0.429946	-142.441766
9.350000	-0.516269	151.543123	-37.275958	-51.177426	-37.275958	-51.177426	-0.435636	-143.131770
9.400000	-0.521164	150.464065	-37.212821	-52.627996	-37.212821	-52.627996	-0.441383	-143.822418
9.450000	-0.526055	149.381444	-37.150867	-54.076079	-37.150867	-54.076079	-0.447186	-144.513749
9.500000	-0.530941	148.295203	-37.090094	-55.521633	-37.090094	-55.521633	-0.453044	-145.205804
9.550000	-0.535821	147.205287	-37.030501	-56.964609	-37.030501	-56.964609	-0.458959	-145.898625
9.600000	-0.540692	146.111645	-36.972084	-58.404962	-36.972084	-58.404962	-0.464929	-146.592254
9.650000	-0.545554	145.014222	-36.914842	-59.842642	-36.914842	-59.842642	-0.470955	-147.286731
9.700000	-0.550404	143.912968	-36.858772	-61.277599	-36.858772	-61.277599	-0.477037	-147.982100
9.750000	-0.555240	142.807834	-36.803871	-62.709779	-36.803871	-62.709779	-0.483174	-148.678404
9.800000	-0.560062	141.698771	-36.750137	-64.139129	-36.750137	-64.139129	-0.489366	-149.375687
9.850000	-0.564866	140.585734	-36.697568	-65.565595	-36.697568	-65.565595	-0.495614	-150.073992
9.900000	-0.569651	139.468677	-36.646160	-66.989119	-36.646160	-66.989119	-0.501916	-150.773364
9.950000	-0.574416	138.347557	-36.595912	-68.409642	-36.595912	-68.409642	-0.508273	-151.473849
10.000000	-0.579157	137.222332	-36.546820	-69.827107	-36.546820	-69.827107	-0.514684	-152.175492
