! freq	dB(S11)	phase(S11)	dB(S12)	phase(S12)	
!     	dB(S21)	phase(S21)	dB(S22)	phase(S22)	
!S-par simulation data
#  GHz  S  DB  R 50
0.000000	-0.000000	0.000000	-338.974854	0.000000	-338.974854	0.000000	-0.000000	0.000000
0.050000	-0.000112	-0.973685	-112.103333	89.182270	-112.103333	89.182270	-0.000111	-0.973623
0.100000	-0.000443	-1.947110	-106.127452	88.371344	-106.127452	88.371344	-0.000442	-1.946987
0.150000	-0.000984	-2.920033	-102.680533	87.574697	-102.680533	87.574697	-0.000981	-2.919850
0.200000	-0.001714	-3.892243	-100.286789	86.800824	-100.286789	86.800824	-0.001711	-3.892004
0.250000	-0.002626	-4.863496	-98.490390	86.062689	-98.490390	86.062689	-0.002621	-4.863203
0.300000	-0.003678	-5.833727	-97.079031	85.370319	-97.079031	85.370319	-0.003672	-5.833383
0.350000	-0.004856	-6.802786	-95.948246	84.740883	-95.948246	84.740883	-0.004848	-6.802394
0.400000	-0.006134	-7.770592	-95.034779	84.193818	-95.034779	84.193818	-0.006124	-7.770153
0.450000	-0.007490	-8.737094	-94.299023	83.752922	-94.299023	83.752922	-0.007479	-8.736612
0.500000	-0.008903	-9.702268	-93.715197	83.447637	-93.715197	83.447637	-0.008891	-9.701742
0.550000	-0.010354	-10.666108	-93.266249	83.314924	-93.266249	83.314924	-0.010343	-10.665540
0.600000	-0.011829	-11.628622	-92.940972	83.401976	-92.940972	83.401976	-0.011817	-11.628012
0.650000	-0.013314	-12.589829	-92.732215	83.770122	-92.732215	83.770122	-0.013302	-12.589176
0.700000	-0.014799	-13.549751	-92.635583	84.500415	-92.635583	84.500415	-0.014788	-13.549055
0.750000	-0.016277	-14.508412	-92.648196	85.701550	-92.648196	85.701550	-0.016266	-14.507673
0.800000	-0.017741	-15.465835	-92.767041	87.520727	-92.767041	87.520727	-0.017730	-15.465052
0.850000	-0.019187	-16.422041	-92.986197	90.157366	-92.986197	90.157366	-0.019177	-16.421212
0.900000	-0.020614	-17.377046	-93.291784	93.876683	-93.291784	93.876683	-0.020605	-17.376170
0.950000	-0.022020	-18.330861	-93.652910	99.011569	-93.652910	99.011569	-0.022011	-18.329937
1.000000	-0.023403	-19.283492	-94.007461	105.921992	-94.007461	105.921992	-0.023395	-19.282521
1.050000	-0.024765	-20.234943	-94.246788	114.855685	-94.246788	114.855685	-0.024758	-20.233923
1.100000	-0.026107	-21.185211	-94.218376	125.670634	-94.218376	125.670634	-0.026100	-21.184141
1.150000	-0.027428	-22.134289	-93.778493	137.548296	-93.778493	137.548296	-0.027422	-22.133168
1.200000	-0.028731	-23.082167	-92.885343	149.110595	-92.885343	149.110595	-0.028726	-23.080996
1.250000	-0.030017	-24.028831	-91.634233	159.118597	-91.634233	159.118597	-0.030012	-24.027609
1.300000	-0.031287	-24.974210	-90.169645	166.960678	-90.169645	166.960678	-0.031283	-24.972938
1.350000	-0.032544	-25.918339	-88.645796	172.849974	-88.645796	172.849974	-0.032539	-25.917016
1.400000	-0.033788	-26.861196	-87.141494	177.141964	-87.141494	177.141964	-0.033783	-26.859822
1.450000	-0.035021	-27.802759	-85.695076	-179.802535	-85.695076	-179.802535	-0.035017	-27.801335
1.500000	-0.036245	-28.743004	-84.321367	-177.685987	-84.321367	-177.685987	-0.036240	-28.741530
1.550000	-0.037460	-29.681907	-83.023191	-176.281653	-83.023191	-176.281653	-0.037456	-29.680383
1.600000	-0.038669	-30.619442	-81.797807	-175.421770	-81.797807	-175.421770	-0.038664	-30.617870
1.650000	-0.039872	-31.555584	-80.640209	-174.983030	-80.640209	-174.983030	-0.039867	-31.553963
1.700000	-0.041070	-32.490307	-79.544736	-174.874388	-79.544736	-174.874388	-0.041065	-32.488638
1.750000	-0.042264	-33.423585	-78.505806	-175.027957	-78.505806	-175.027957	-0.042259	-33.421868
1.800000	-0.043455	-34.355392	-77.518232	-175.392489	-77.518232	-175.392489	-0.043450	-34.353628
1.850000	-0.044645	-35.285703	-76.577333	-175.928795	-76.577333	-175.928795	-0.044639	-35.283891
1.900000	-0.045833	-36.214491	-75.678936	-176.606516	-75.678936	-176.606516	-0.045827	-36.212633
1.950000	-0.047021	-37.141732	-74.819351	-177.401840	-74.819351	-177.401840	-0.047015	-37.139829
2.000000	-0.048209	-38.067401	-73.995317	-178.295867	-73.995317	-178.295867	-0.048203	-38.065453
2.050000	-0.049398	-38.991474	-73.203953	-179.273427	-73.203953	-179.273427	-0.049391	-38.989481
2.100000	-0.050588	-39.913928	-72.442712	179.677775	-72.442712	179.677775	-0.050581	-39.911891
2.150000	-0.051780	-40.834740	-71.709331	178.567808	-71.709331	178.567808	-0.051772	-40.832658
2.200000	-0.052974	-41.753886	-71.001795	177.404987	-71.001795	177.404987	-0.052967	-41.751762
2.250000	-0.054171	-42.671347	-70.318308	176.196235	-70.318308	176.196235	-0.054164	-42.669179
2.300000	-0.055372	-43.587100	-69.657257	174.947361	-69.657257	174.947361	-0.055364	-43.584890
2.350000	-0.056577	-44.501126	-69.017194	173.663276	-69.017194	173.663276	-0.056568	-44.498873
2.400000	-0.057785	-45.413405	-68.396810	172.348157	-68.396810	172.348157	-0.057777	-45.411110
2.450000	-0.058999	-46.323918	-67.794921	171.005579	-67.794921	171.005579	-0.058990	-46.321582
2.500000	-0.060217	-47.232648	-67.210453	169.638618	-67.210453	169.638618	-0.060209	-47.230270
2.550000	-0.061442	-48.139498	-66.641530	168.249105	-66.641530	168.249105	-0.061433	-48.137079
2.600000	-0.062672	-49.044530	-66.088250	166.840371	-66.088250	166.840371	-0.062663	-49.042070
2.650000	-0.063908	-49.947727	-65.549781	165.414409	-65.549781	165.414409	-0.063900	-49.945227
2.700000	-0.065152	-50.849076	-65.025362	163.972969	-65.025362	163.972969	-0.065143	-50.846535
2.750000	-0.066402	-51.748562	-64.514291	162.517594	-64.514291	162.517594	-0.066393	-51.745981
2.800000	-0.067660	-52.646172	-64.015922	161.049656	-64.015922	161.049656	-0.067651	-52.643552
2.850000	-0.068926	-53.541894	-63.529655	159.570369	-63.529655	159.570369	-0.068917	-53.539234
2.900000	-0.070200	-54.435716	-63.054937	158.080822	-63.054937	158.080822	-0.070191	-54.433016
2.950000	-0.071484	-55.327627	-62.591252	156.581984	-62.591252	156.581984	-0.071475	-55.324888
3.000000	-0.072776	-56.217617	-62.138122	155.074729	-62.138122	155.074729	-0.072767	-56.214839
3.050000	-0.074078	-57.105677	-61.695099	153.559841	-61.695099	153.559841	-0.074069	-57.102859
3.100000	-0.075390	-57.991799	-61.261767	152.038029	-61.261767	152.038029	-0.075381	-57.988942
3.150000	-0.076712	-58.875973	-60.837734	150.509935	-60.837734	150.509935	-0.076703	-58.873078
3.200000	-0.078045	-59.758194	-60.422635	148.976139	-60.422635	148.976139	-0.078036	-59.755260
3.250000	-0.079390	-60.638456	-60.016126	147.437170	-60.016126	147.437170	-0.079381	-60.635483
3.300000	-0.080746	-61.516752	-59.617885	145.893509	-59.617885	145.893509	-0.080737	-61.513741
3.350000	-0.082114	-62.393077	-59.227607	144.345597	-59.227607	144.345597	-0.082106	-62.390028
3.400000	-0.083496	-63.267429	-58.845007	142.793835	-58.845007	142.793835	-0.083487	-63.264342
3.450000	-0.084890	-64.139803	-58.469813	141.238592	-58.469813	141.238592	-0.084881	-64.136678
3.500000	-0.086298	-65.010197	-58.101771	139.680205	-58.101771	139.680205	-0.086289	-65.007034
3.550000	-0.087720	-65.878609	-57.740638	138.118986	-57.740638	138.118986	-0.087711	-65.875408
3.600000	-0.089156	-66.745037	-57.386186	136.555221	-57.386186	136.555221	-0.089147	-66.741799
3.650000	-0.090607	-67.609482	-57.038196	134.989175	-57.038196	134.989175	-0.090599	-67.606206
3.700000	-0.092074	-68.471943	-56.696464	133.421092	-56.696464	133.421092	-0.092066	-68.468631
3.750000	-0.093557	-69.332422	-56.360793	131.851197	-56.360793	131.851197	-0.093548	-69.329072
3.800000	-0.095057	-70.190834	-56.030709	130.279640	-56.030709	130.279640	-0.095048	-70.187448
3.850000	-0.096574	-71.047268	-55.706345	128.706691	-55.706345	128.706691	-0.096565	-71.043844
3.900000	-0.098109	-71.901726	-55.387529	127.132528	-55.387529	127.132528	-0.098100	-71.898266
3.950000	-0.099661	-72.754213	-55.074099	125.557319	-55.074099	125.557319	-0.099652	-72.750717
4.000000	-0.101232	-73.604733	-54.765900	123.981217	-54.765900	123.981217	-0.101223	-73.601201
4.050000	-0.102822	-74.453291	-54.462784	122.404368	-54.462784	122.404368	-0.102812	-74.449722
4.100000	-0.104431	-75.299893	-54.164608	120.826905	-54.164608	120.826905	-0.104421	-75.296288
4.150000	-0.106060	-76.144545	-53.871239	119.248956	-53.871239	119.248956	-0.106050	-76.140904
4.200000	-0.107709	-76.987253	-53.582545	117.670638	-53.582545	117.670638	-0.107700	-76.983577
4.250000	-0.109380	-77.828027	-53.298403	116.092061	-53.298403	116.092061	-0.109370	-77.824315
4.300000	-0.111072	-78.666874	-53.018694	114.513329	-53.018694	114.513329	-0.111062	-78.663127
4.350000	-0.112785	-79.503802	-52.743303	112.934539	-52.743303	112.934539	-0.112775	-79.500020
4.400000	-0.114521	-80.338822	-52.472121	111.355783	-52.472121	111.355783	-0.114511	-80.335005
4.450000	-0.116280	-81.171943	-52.205043	109.777147	-52.205043	109.777147	-0.116270	-81.168091
4.500000	-0.118063	-82.003177	-51.941967	108.198711	-51.941967	108.198711	-0.118052	-81.999290
4.550000	-0.119869	-82.832534	-51.682797	106.620553	-51.682797	106.620553	-0.119858	-82.828612
4.600000	-0.121700	-83.660026	-51.427438	105.042742	-51.427438	105.042742	-0.121688	-83.656070
4.650000	-0.123555	-84.485666	-51.175801	103.465349	-51.175801	103.465349	-0.123544	-84.481676
4.700000	-0.125436	-85.309467	-50.927798	101.888436	-50.927798	101.888436	-0.125424	-85.305442
4.750000	-0.127343	-86.131442	-50.683347	100.312065	-50.683347	100.312065	-0.127330	-86.127384
4.800000	-0.129275	-86.951606	-50.442367	98.736293	-50.442367	98.736293	-0.129263	-86.947513
4.850000	-0.131235	-87.769973	-50.204779	97.161174	-50.204779	97.161174	-0.131223	-87.765847
4.900000	-0.133222	-88.586559	-49.970509	95.586760	-49.970509	95.586760	-0.133209	-88.582398
4.950000	-0.135237	-89.401379	-49.739484	94.013100	-49.739484	94.013100	-0.135224	-89.397184
5.000000	-0.137280	-90.214450	-49.511635	92.440241	-49.511635	92.440241	-0.137266	-90.210221
5.050000	-0.139367	-91.024820	-49.285371	90.868729	-49.285371	90.868729	-0.139354	-91.020558
5.100000	-0.141456	-91.835189	-49.064853	89.297218	-49.064853	89.297218	-0.141442	-91.830894
5.150000	-0.143600	-92.642317	-48.844943	87.727488	-48.844943	87.727488	-0.143586	-92.637988
5.200000	-0.145750	-93.449151	-48.630033	86.157921	-48.630033	86.157921	-0.145736	-93.444788
5.250000	-0.147953	-94.253105	-48.416194	84.590108	-48.416194	84.590108	-0.147939	-94.248709
5.300000	-0.150167	-95.056484	-48.206689	83.022645	-48.206689	83.022645	-0.150153	-95.052054
5.350000	-0.152430	-95.857337	-47.998656	81.456871	-47.998656	81.456871	-0.152416	-95.852874
5.400000	-0.154710	-96.657348	-47.794363	79.891659	-47.794363	79.891659	-0.154695	-96.652851
5.450000	-0.157035	-97.455175	-47.591890	78.328035	-47.591890	78.328035	-0.157020	-97.450644
5.500000	-0.159383	-98.251909	-47.392625	76.765205	-47.392625	76.765205	-0.159367	-98.247344
5.550000	-0.161771	-99.046787	-47.195481	75.203835	-47.195481	75.203835	-0.161755	-99.042188
5.600000	-0.164188	-99.840339	-47.001072	73.643507	-47.001072	73.643507	-0.164172	-99.835706
5.650000	-0.166641	-100.632350	-46.809039	72.084484	-46.809039	72.084484	-0.166625	-100.627684
5.700000	-0.169130	-101.422820	-46.619321	70.526766	-46.619321	70.526766	-0.169114	-101.418120
5.750000	-0.171650	-102.212050	-46.432196	68.970176	-46.432196	68.970176	-0.171633	-102.207315
5.800000	-0.174212	-102.999542	-46.247014	67.415165	-46.247014	67.415165	-0.174195	-102.994773
5.850000	-0.176799	-103.786077	-46.064605	65.861086	-46.064605	65.861086	-0.176782	-103.781273
5.900000	-0.179436	-104.570698	-45.883808	64.308870	-45.883808	64.308870	-0.179419	-104.565860
5.950000	-0.182093	-105.354630	-45.705934	62.757373	-45.705934	62.757373	-0.182076	-105.349757
6.000000	-0.184808	-106.136492	-45.529383	61.208031	-45.529383	61.208031	-0.184790	-106.131585
6.050000	-0.187535	-106.917914	-45.355873	59.659180	-45.355873	59.659180	-0.187518	-106.912972
6.100000	-0.190328	-107.697134	-45.183432	58.112780	-45.183432	58.112780	-0.190310	-107.692156
6.150000	-0.193128	-108.476144	-45.014125	56.566632	-45.014125	56.566632	-0.193110	-108.471130
6.200000	-0.196001	-109.252840	-44.845664	55.023235	-44.845664	55.023235	-0.195983	-109.247791
6.250000	-0.198875	-110.029537	-44.680408	53.479839	-44.680408	53.479839	-0.198857	-110.024451
6.300000	-0.201830	-110.803833	-44.515804	51.939498	-44.515804	51.939498	-0.201812	-110.798712
6.350000	-0.204786	-111.578130	-44.354261	50.399157	-44.354261	50.399157	-0.204768	-111.572972
6.400000	-0.207817	-112.350343	-44.193588	48.861655	-44.193588	48.861655	-0.207799	-112.345149
6.450000	-0.210857	-113.122368	-44.035648	47.324411	-44.035648	47.324411	-0.210838	-113.117136
6.500000	-0.213966	-113.892607	-43.878767	45.789778	-43.878767	45.789778	-0.213947	-113.887338
6.550000	-0.217091	-114.662489	-43.724323	44.255666	-43.724323	44.255666	-0.217072	-114.657182
6.600000	-0.220279	-115.430866	-43.571101	42.723921	-43.571101	42.723921	-0.220260	-115.425521
6.650000	-0.223490	-116.198742	-43.420051	41.192966	-43.420051	41.192966	-0.223471	-116.193359
6.700000	-0.226759	-116.965371	-43.270361	39.664126	-43.270361	39.664126	-0.226740	-116.959949
6.750000	-0.230058	-117.731377	-43.122608	38.136343	-43.122608	38.136343	-0.230039	-117.725917
6.800000	-0.233409	-118.496376	-42.976332	36.610415	-42.976332	36.610415	-0.233389	-118.490876
6.850000	-0.236797	-119.260656	-42.831780	35.085811	-42.831780	35.085811	-0.236778	-119.255116
6.900000	-0.240231	-120.024144	-42.688803	33.562796	-42.688803	33.562796	-0.240211	-120.018565
6.950000	-0.243710	-120.786842	-42.547363	32.041368	-42.547363	32.041368	-0.243690	-120.781222
7.000000	-0.247227	-121.548943	-42.407577	30.521259	-42.407577	30.521259	-0.247207	-121.543282
7.050000	-0.250798	-122.310208	-42.269162	29.002995	-42.269162	29.002995	-0.250778	-122.304507
7.100000	-0.254401	-123.071046	-42.132464	27.485777	-42.132464	27.485777	-0.254381	-123.065304
7.150000	-0.258065	-123.831032	-41.996990	25.970654	-41.996990	25.970654	-0.258045	-123.825247
7.200000	-0.261754	-124.590736	-41.863282	24.456307	-41.863282	24.456307	-0.261733	-124.584909
7.250000	-0.265513	-125.349597	-41.730670	22.944291	-41.730670	22.944291	-0.265492	-125.343728
7.300000	-0.269288	-126.108298	-41.599858	21.432786	-41.599858	21.432786	-0.269267	-126.102386
7.350000	-0.273143	-126.866195	-41.470030	19.923834	-41.470030	19.923834	-0.273122	-126.860240
7.400000	-0.277007	-127.624026	-41.342025	18.415133	-41.342025	18.415133	-0.276985	-127.618027
7.450000	-0.280958	-128.381122	-41.214910	16.909192	-41.214910	16.909192	-0.280936	-128.375080
7.500000	-0.284911	-129.138219	-41.089628	15.403251	-41.089628	15.403251	-0.284889	-129.132132
7.550000	-0.288959	-129.894682	-40.965154	13.900256	-40.965154	13.900256	-0.288937	-129.888550
7.600000	-0.293010	-130.651145	-40.842440	12.397261	-40.842440	12.397261	-0.292988	-130.644968
7.650000	-0.297150	-131.407183	-40.720617	10.896898	-40.720617	10.896898	-0.297127	-131.400962
7.700000	-0.301299	-132.163183	-40.600406	9.396774	-40.600406	9.396774	-0.301276	-132.156916
7.750000	-0.305530	-132.918943	-40.481158	7.898972	-40.481158	7.898972	-0.305507	-132.912630
7.800000	-0.309779	-133.674654	-40.363392	6.401635	-40.363392	6.401635	-0.309756	-133.668295
7.850000	-0.314102	-134.430283	-40.246647	4.906315	-40.246647	4.906315	-0.314079	-134.423877
7.900000	-0.318452	-135.185884	-40.131268	3.411667	-40.131268	3.411667	-0.318428	-135.179432
7.950000	-0.322868	-135.941533	-40.016957	1.918743	-40.016957	1.918743	-0.322844	-135.935034
8.000000	-0.327319	-136.697206	-39.903913	0.426680	-39.903913	0.426680	-0.327295	-136.690659
8.050000	-0.331829	-137.453029	-39.791973	-1.063943	-39.791973	-1.063943	-0.331804	-137.446435
8.100000	-0.336381	-138.208959	-39.681213	-2.553538	-39.681213	-2.553538	-0.336356	-138.202317
8.150000	-0.340985	-138.965113	-39.571585	-4.041961	-39.571585	-4.041961	-0.340960	-138.958423
8.200000	-0.345640	-139.721491	-39.463063	-5.529212	-39.463063	-5.529212	-0.345615	-139.714753
8.250000	-0.350339	-140.478136	-39.355690	-7.015542	-39.355690	-7.015542	-0.350313	-140.471349
8.300000	-0.355097	-141.235155	-39.249364	-8.500584	-39.249364	-8.500584	-0.355070	-141.228320
8.350000	-0.359890	-141.992453	-39.144194	-9.984936	-39.144194	-9.984936	-0.359864	-141.985570
8.400000	-0.364752	-142.750311	-39.040025	-11.467910	-39.040025	-11.467910	-0.364725	-142.743379
8.450000	-0.369640	-143.508429	-38.937010	-12.950406	-38.937010	-12.950406	-0.369613	-143.501448
8.500000	-0.374606	-144.267328	-38.834962	-14.431462	-38.834962	-14.431462	-0.374578	-144.260298
8.550000	-0.379590	-145.026435	-38.734058	-15.912226	-38.734058	-15.912226	-0.379562	-145.019356
8.600000	-0.384659	-145.786582	-38.634101	-17.391522	-38.634101	-17.391522	-0.384631	-145.779454
8.650000	-0.389739	-146.546850	-38.535266	-18.870685	-38.535266	-18.870685	-0.389711	-146.539673
8.700000	-0.394912	-147.308454	-38.437374	-20.348381	-38.437374	-20.348381	-0.394883	-147.301229
8.750000	-0.400088	-148.070059	-38.340573	-21.826078	-38.340573	-21.826078	-0.400059	-148.062785
8.800000	-0.405365	-148.833337	-38.244722	-23.302342	-38.244722	-23.302342	-0.405336	-148.826015
8.850000	-0.410645	-149.596615	-38.149917	-24.778606	-38.149917	-24.778606	-0.410616	-149.589244
8.900000	-0.416017	-150.361629	-38.056093	-26.253712	-38.056093	-26.253712	-0.415988	-150.354209
8.950000	-0.421401	-151.126800	-37.963267	-27.728713	-37.963267	-27.728713	-0.421372	-151.119332
9.000000	-0.426869	-151.893736	-37.871444	-29.202803	-37.871444	-29.202803	-0.426840	-151.886221
9.050000	-0.432357	-152.661025	-37.780586	-30.676711	-37.780586	-30.676711	-0.432327	-152.653462
9.100000	-0.437920	-153.430074	-37.690742	-32.149929	-37.690742	-32.149929	-0.437891	-153.422463
9.150000	-0.443510	-154.199709	-37.601842	-33.622916	-37.601842	-33.622916	-0.443481	-154.192052
9.200000	-0.449168	-154.971065	-37.513959	-35.095402	-37.513959	-35.095402	-0.449139	-154.963362
9.250000	-0.454861	-155.743282	-37.427015	-36.567637	-37.427015	-36.567637	-0.454833	-155.735532
9.300000	-0.460613	-156.517143	-37.341079	-38.039530	-37.341079	-38.039530	-0.460585	-156.509348
9.350000	-0.466407	-157.292179	-37.256091	-39.511178	-37.256091	-39.511178	-0.466380	-157.284339
9.400000	-0.472252	-158.068747	-37.172093	-40.982614	-37.172093	-40.982614	-0.472226	-158.060863
9.450000	-0.478148	-158.846848	-37.089066	-42.453836	-37.089066	-42.453836	-0.478122	-158.838919
9.500000	-0.484085	-159.626328	-37.006999	-43.924945	-37.006999	-43.924945	-0.484060	-159.618357
9.550000	-0.490080	-160.407742	-36.925944	-45.395892	-36.925944	-45.395892	-0.490056	-160.399728
9.600000	-0.496109	-161.190345	-36.845808	-46.866796	-36.845808	-46.866796	-0.496086	-161.182290
9.650000	-0.502203	-161.975327	-36.766739	-48.337612	-36.766739	-48.337612	-0.502181	-161.967231
9.700000	-0.508322	-162.761266	-36.688534	-49.808426	-36.688534	-49.808426	-0.508302	-162.753130
9.750000	-0.514512	-163.550077	-36.611472	-51.279238	-36.611472	-51.279238	-0.514493	-163.541902
9.800000	-0.520720	-164.339569	-36.535203	-52.750068	-36.535203	-52.750068	-0.520703	-164.331356
9.850000	-0.527005	-165.132474	-36.460172	-54.220990	-36.460172	-54.220990	-0.526990	-165.124224
9.900000	-0.533300	-165.925742	-36.385850	-55.691929	-36.385850	-55.691929	-0.533288	-165.917456
9.950000	-0.539677	-166.723012	-36.312878	-57.163057	-36.312878	-57.163057	-0.539667	-166.714692
10.000000	-0.546059	-167.520282	-36.240514	-58.634185	-36.240514	-58.634185	-0.546051	-167.511928
