! freq	dB(S11)	phase(S11)	dB(S12)	phase(S12)	
!     	dB(S21)	phase(S21)	dB(S22)	phase(S22)	
!S-par simulation data
#  GHz  S  DB  R 50
0.000000	-0.000000	-0.000000	-347.428555	180.000000	-347.428555	180.000000	-0.000000	0.000000
0.050000	-0.000430	-0.770968	-97.929337	88.257945	-97.929337	88.257945	-0.001758	-2.835844
0.100000	-0.001552	-1.541121	-91.938270	86.519583	-91.938270	86.519583	-0.006117	-5.659101
0.150000	-0.003031	-2.309557	-88.465693	84.788805	-88.465693	84.788805	-0.011409	-8.466546
0.200000	-0.004587	-3.075859	-86.034327	83.069444	-86.034327	83.069444	-0.016572	-11.261672
0.250000	-0.006060	-3.840062	-84.183439	81.366530	-84.183439	81.366530	-0.021230	-14.048029
0.300000	-0.007379	-4.602575	-82.707786	79.685877	-82.707786	79.685877	-0.025373	-16.827930
0.350000	-0.008539	-5.363919	-81.495753	78.032867	-81.495753	78.032867	-0.029125	-19.602399
0.400000	-0.009557	-6.124456	-80.482470	76.414526	-80.482470	76.414526	-0.032590	-22.371290
0.450000	-0.010455	-6.884429	-79.628651	74.840913	-79.628651	74.840913	-0.035849	-25.133724
0.500000	-0.011268	-7.644032	-78.903072	73.318834	-78.903072	73.318834	-0.038974	-27.889218
0.550000	-0.012022	-8.403348	-78.285888	71.857933	-78.285888	71.857933	-0.042011	-30.636940
0.600000	-0.012739	-9.162403	-77.765461	70.472957	-77.765461	70.472957	-0.044985	-33.375613
0.650000	-0.013437	-9.921206	-77.329146	69.174247	-77.329146	69.174247	-0.047923	-36.104711
0.700000	-0.014133	-10.679736	-76.968478	67.975095	-76.968478	67.975095	-0.050838	-38.823583
0.750000	-0.014837	-11.437946	-76.679319	66.895878	-76.679319	66.895878	-0.053739	-41.531179
0.800000	-0.015560	-12.195786	-76.457023	65.956957	-76.457023	65.956957	-0.056631	-44.226847
0.850000	-0.016308	-12.953201	-76.297456	65.180913	-76.297456	65.180913	-0.059517	-46.910120
0.900000	-0.017085	-13.710136	-76.197816	64.596194	-76.197816	64.596194	-0.062397	-49.580485
0.950000	-0.017894	-14.466528	-76.156147	64.238602	-76.156147	64.238602	-0.065269	-52.237392
1.000000	-0.018736	-15.222317	-76.170417	64.151135	-76.170417	64.151135	-0.068133	-54.880395
1.050000	-0.019610	-15.977449	-76.238338	64.386371	-76.238338	64.386371	-0.070983	-57.509092
1.100000	-0.020516	-16.731870	-76.356814	65.008407	-76.356814	65.008407	-0.073817	-60.123133
1.150000	-0.021449	-17.485535	-76.521138	66.094608	-76.521138	66.094608	-0.076632	-62.722210
1.200000	-0.022408	-18.238399	-76.723822	67.736370	-76.723822	67.736370	-0.079422	-65.306061
1.250000	-0.023389	-18.990429	-76.952953	70.037320	-76.952953	70.037320	-0.082185	-67.874467
1.300000	-0.024388	-19.741573	-77.189487	73.125043	-77.189487	73.125043	-0.084916	-70.426905
1.350000	-0.025401	-20.491826	-77.405053	77.079389	-77.405053	77.079389	-0.087613	-72.963573
1.400000	-0.026424	-21.241167	-77.561550	81.946572	-77.561550	81.946572	-0.090273	-75.484373
1.450000	-0.027455	-21.989581	-77.612637	87.678224	-77.612637	87.678224	-0.092893	-77.989238
1.500000	-0.028490	-22.737055	-77.511274	94.088240	-77.511274	94.088240	-0.095471	-80.478140
1.550000	-0.029526	-23.483579	-77.222623	100.846703	-77.222623	100.846703	-0.098006	-82.951080
1.600000	-0.030561	-24.229147	-76.736641	107.537907	-76.736641	107.537907	-0.100497	-85.408091
1.650000	-0.031594	-24.973753	-76.071939	113.765836	-76.071939	113.765836	-0.102943	-87.849235
1.700000	-0.032622	-25.717390	-75.267924	119.248047	-75.267924	119.248047	-0.105344	-90.274602
1.750000	-0.033646	-26.460055	-74.371118	123.849977	-74.371118	123.849977	-0.107699	-92.684307
1.800000	-0.034664	-27.201742	-73.423856	127.561677	-73.423856	127.561677	-0.110011	-95.078491
1.850000	-0.035675	-27.942447	-72.458940	130.450465	-72.458940	130.450465	-0.112278	-97.457317
1.900000	-0.036680	-28.682154	-71.498188	132.611480	-71.498188	132.611480	-0.114503	-99.820805
1.950000	-0.037679	-29.420856	-70.556474	134.156410	-70.556474	134.156410	-0.116687	-102.169169
2.000000	-0.038672	-30.158557	-69.643104	135.192705	-69.643104	135.192705	-0.118831	-104.502797
2.050000	-0.039660	-30.895250	-68.762287	135.806587	-68.762287	135.806587	-0.120939	-106.821931
2.100000	-0.040643	-31.630926	-67.915685	136.070277	-67.915685	136.070277	-0.123011	-109.126828
2.150000	-0.041622	-32.365577	-67.103395	136.043239	-67.103395	136.043239	-0.125051	-111.417758
2.200000	-0.042597	-33.099193	-66.324598	135.774045	-66.324598	135.774045	-0.127061	-113.695008
2.250000	-0.043569	-33.831763	-65.577966	135.302279	-65.577966	135.302279	-0.129043	-115.958874
2.300000	-0.044540	-34.563278	-64.861918	134.660230	-64.861918	134.660230	-0.131000	-118.209665
2.350000	-0.045509	-35.293727	-64.174779	133.874319	-64.174779	133.874319	-0.132935	-120.447698
2.400000	-0.046478	-36.023096	-63.514870	132.966261	-63.514870	132.966261	-0.134850	-122.673301
2.450000	-0.047448	-36.751376	-62.880566	131.953991	-62.880566	131.953991	-0.136749	-124.886810
2.500000	-0.048418	-37.478554	-62.270322	130.852406	-62.270322	130.852406	-0.138633	-127.088566
2.550000	-0.049391	-38.204594	-61.682318	129.672513	-61.682318	129.672513	-0.140506	-129.278679
2.600000	-0.050366	-38.929506	-61.115639	128.426579	-61.115639	128.426579	-0.142369	-131.457759
2.650000	-0.051345	-39.653280	-60.569024	127.123328	-60.569024	127.123328	-0.144227	-133.626165
2.700000	-0.052328	-40.375902	-60.041311	125.770171	-60.041311	125.770171	-0.146081	-135.784259
2.750000	-0.053315	-41.097360	-59.531429	124.373437	-59.531429	124.373437	-0.147934	-137.932409
2.800000	-0.054308	-41.817644	-59.038392	122.938557	-59.038392	122.938557	-0.149787	-140.070983
2.850000	-0.055306	-42.536740	-58.561291	121.470208	-58.561291	121.470208	-0.151644	-142.200350
2.900000	-0.056311	-43.254637	-58.099289	119.972443	-58.099289	119.972443	-0.153506	-144.320884
2.950000	-0.057323	-43.971323	-57.651616	118.448782	-57.651616	118.448782	-0.155376	-146.432956
3.000000	-0.058343	-44.686788	-57.217559	116.902301	-57.217559	116.902301	-0.157255	-148.536940
3.050000	-0.059370	-45.401021	-56.796460	115.335694	-56.796460	115.335694	-0.159145	-150.633207
3.100000	-0.060406	-46.114009	-56.387712	113.751332	-56.387712	113.751332	-0.161047	-152.722130
3.150000	-0.061451	-46.825731	-55.990681	112.151160	-55.990681	112.151160	-0.162965	-154.804006
3.200000	-0.062505	-47.536174	-55.604863	110.537090	-55.604863	110.537090	-0.164897	-156.879217
3.250000	-0.063569	-48.245343	-55.229844	108.910932	-55.229844	108.910932	-0.166847	-158.948206
3.300000	-0.064644	-48.953228	-54.865173	107.274151	-54.865173	107.274151	-0.168815	-161.011336
3.350000	-0.065729	-49.659821	-54.510427	105.628063	-54.510427	105.628063	-0.170803	-163.068968
3.400000	-0.066825	-50.365112	-54.165215	103.973851	-54.165215	103.973851	-0.172810	-165.121460
3.450000	-0.067932	-51.069094	-53.829170	102.312585	-53.829170	102.312585	-0.174838	-167.169166
3.500000	-0.069051	-51.771757	-53.501950	100.645238	-53.501950	100.645238	-0.176888	-169.212436
3.550000	-0.070182	-52.473095	-53.183236	98.972693	-53.183236	98.972693	-0.178960	-171.251616
3.600000	-0.071325	-53.173100	-52.872727	97.295761	-52.872727	97.295761	-0.181055	-173.287046
3.650000	-0.072481	-53.871765	-52.570145	95.615185	-52.570145	95.615185	-0.183173	-175.319064
3.700000	-0.073650	-54.569083	-52.275224	93.931653	-52.275224	93.931653	-0.185314	-177.348001
3.750000	-0.074833	-55.265049	-51.987719	92.245801	-51.987719	92.245801	-0.187478	-179.374182
3.800000	-0.076030	-55.959626	-51.707356	90.558196	-51.707356	90.558196	-0.189667	178.602119
3.850000	-0.077240	-56.652839	-51.433965	88.869442	-51.433965	88.869442	-0.191879	176.580528
3.900000	-0.078465	-57.344682	-51.167341	87.180058	-51.167341	87.180058	-0.194114	174.560737
3.950000	-0.079705	-58.035150	-50.907287	85.490534	-50.907287	85.490534	-0.196372	172.542448
4.000000	-0.080960	-58.724240	-50.653619	83.801336	-50.653619	83.801336	-0.198654	170.525366
4.050000	-0.082230	-59.411946	-50.406161	82.112910	-50.406161	82.112910	-0.200957	168.509204
4.100000	-0.083516	-60.098266	-50.164748	80.425682	-50.164748	80.425682	-0.203283	166.493685
4.150000	-0.084818	-60.783196	-49.929222	78.740063	-49.929222	78.740063	-0.205630	164.478537
4.200000	-0.086136	-61.466732	-49.699435	77.056449	-49.699435	77.056449	-0.207998	162.463496
4.250000	-0.087471	-62.148873	-49.475244	75.375228	-49.475244	75.375228	-0.210386	160.448308
4.300000	-0.088823	-62.829615	-49.256515	73.696776	-49.256515	73.696776	-0.212794	158.432727
4.350000	-0.090192	-63.508957	-49.043118	72.021462	-49.043118	72.021462	-0.215221	156.416515
4.400000	-0.091579	-64.186882	-48.834932	70.349692	-48.834932	70.349692	-0.217666	154.399431
4.450000	-0.092984	-64.863388	-48.631843	68.681837	-48.631843	68.681837	-0.220129	152.381248
4.500000	-0.094407	-65.538490	-48.433737	67.018213	-48.433737	67.018213	-0.222608	150.361769
4.550000	-0.095850	-66.212186	-48.240505	65.359172	-48.240505	65.359172	-0.225102	148.340792
4.600000	-0.097311	-66.884477	-48.052042	63.705066	-48.052042	63.705066	-0.227611	146.318130
4.650000	-0.098791	-67.555362	-47.868246	62.056245	-47.868246	62.056245	-0.230134	144.293603
4.700000	-0.100291	-68.224842	-47.689019	60.413058	-47.689019	60.413058	-0.232669	142.267044
4.750000	-0.101811	-68.892916	-47.514266	58.775858	-47.514266	58.775858	-0.235216	140.238295
4.800000	-0.103352	-69.559587	-47.343895	57.144998	-47.343895	57.144998	-0.237774	138.207211
4.850000	-0.104913	-70.224854	-47.177817	55.520832	-47.177817	55.520832	-0.240342	136.173656
4.900000	-0.106495	-70.888720	-47.015943	53.903717	-47.015943	53.903717	-0.242919	134.137507
4.950000	-0.108099	-71.551185	-46.858188	52.294013	-46.858188	52.294013	-0.245504	132.098654
5.000000	-0.109724	-72.212253	-46.704468	50.692083	-46.704468	50.692083	-0.248096	130.056997
5.050000	-0.111373	-72.871894	-46.554730	49.098480	-46.554730	49.098480	-0.250694	128.012383
5.100000	-0.113043	-73.530142	-46.408864	47.513405	-46.408864	47.513405	-0.253298	125.964802
5.150000	-0.114737	-74.187000	-46.266790	45.937232	-46.266790	45.937232	-0.255907	123.914191
5.200000	-0.116454	-74.842470	-46.128427	44.370341	-46.128427	44.370341	-0.258519	121.860501
5.250000	-0.118194	-75.496556	-45.993694	42.813113	-45.993694	42.813113	-0.261135	119.803699
5.300000	-0.119959	-76.149262	-45.862511	41.265934	-45.862511	41.265934	-0.263753	117.743761
5.350000	-0.121748	-76.800591	-45.734800	39.729195	-45.734800	39.729195	-0.266374	115.680678
5.400000	-0.123562	-77.450548	-45.610478	38.203291	-45.610478	38.203291	-0.268996	113.614454
5.450000	-0.125401	-78.099136	-45.489464	36.688619	-45.489464	36.688619	-0.271619	111.545107
5.500000	-0.127266	-78.746361	-45.371678	35.185581	-45.371678	35.185581	-0.274242	109.472667
5.550000	-0.129156	-79.392226	-45.257036	33.694582	-45.257036	33.694582	-0.276867	107.397180
5.600000	-0.131074	-80.036738	-45.145453	32.216029	-45.145453	32.216029	-0.279491	105.318702
5.650000	-0.133018	-80.679887	-45.036861	30.750476	-45.036861	30.750476	-0.282116	103.237274
5.700000	-0.134989	-81.321678	-44.931172	29.298348	-44.931172	29.298348	-0.284742	101.152983
5.750000	-0.136988	-81.962132	-44.828279	27.859917	-44.828279	27.859917	-0.287368	99.065961
5.800000	-0.139015	-82.601255	-44.728089	26.435597	-44.728089	26.435597	-0.289995	96.976317
5.850000	-0.141071	-83.239053	-44.630507	25.025797	-44.630507	25.025797	-0.292623	94.884178
5.900000	-0.143155	-83.875532	-44.535438	23.630927	-44.535438	23.630927	-0.295253	92.789680
5.950000	-0.145268	-84.510699	-44.442779	22.251392	-44.442779	22.251392	-0.297885	90.692974
6.000000	-0.147411	-85.144561	-44.352427	20.887594	-44.352427	20.887594	-0.300521	88.594221
6.050000	-0.149584	-85.777125	-44.264275	19.539925	-44.264275	19.539925	-0.303161	86.493595
6.100000	-0.151788	-86.408398	-44.178213	18.208771	-44.178213	18.208771	-0.305805	84.391283
6.150000	-0.154022	-87.038388	-44.094126	16.894508	-44.094126	16.894508	-0.308456	82.287482
6.200000	-0.156287	-87.667101	-44.011894	15.597497	-44.011894	15.597497	-0.311115	80.182400
6.250000	-0.158584	-88.294546	-43.931396	14.318086	-43.931396	14.318086	-0.313783	78.076255
6.300000	-0.160913	-88.920704	-43.852520	13.056999	-43.852520	13.056999	-0.316461	75.969264
6.350000	-0.163275	-89.545611	-43.775113	11.814161	-43.775113	11.814161	-0.319152	73.861688
6.400000	-0.165669	-90.169274	-43.699038	10.589852	-43.699038	10.589852	-0.321857	71.753776
6.450000	-0.168097	-90.791703	-43.624153	9.384326	-43.624153	9.384326	-0.324579	69.645784
6.500000	-0.170559	-91.412906	-43.550311	8.197805	-43.550311	8.197805	-0.327319	67.537977
6.550000	-0.173054	-92.032892	-43.477363	7.030473	-43.477363	7.030473	-0.330079	65.430626
6.600000	-0.175584	-92.651670	-43.405152	5.882477	-43.405152	5.882477	-0.332862	63.324008
6.650000	-0.178148	-93.269250	-43.333519	4.753917	-43.333519	4.753917	-0.335671	61.218410
6.700000	-0.180747	-93.885641	-43.262300	3.644847	-43.262300	3.644847	-0.338508	59.114119
6.750000	-0.183383	-94.500853	-43.191328	2.555268	-43.191328	2.555268	-0.341375	57.011430
6.800000	-0.186053	-95.114895	-43.120433	1.485122	-43.120433	1.485122	-0.344277	54.910643
6.850000	-0.188761	-95.727778	-43.049440	0.434290	-43.049440	0.434290	-0.347214	52.812057
6.900000	-0.191505	-96.339499	-42.978164	-0.597206	-42.978164	-0.597206	-0.350192	50.716007
6.950000	-0.194287	-96.950070	-42.906420	-1.609630	-42.906420	-1.609630	-0.353212	48.622811
7.000000	-0.197106	-97.559512	-42.834042	-2.603525	-42.834042	-2.603525	-0.356279	46.532748
7.050000	-0.199963	-98.167838	-42.760851	-3.579296	-42.760851	-3.579296	-0.359395	44.446124
7.100000	-0.202858	-98.775057	-42.686673	-4.537433	-42.686673	-4.537433	-0.362563	42.363248
7.150000	-0.205792	-99.381181	-42.611334	-5.478502	-42.611334	-5.478502	-0.365787	40.284423
7.200000	-0.208764	-99.986222	-42.534666	-6.403153	-42.534666	-6.403153	-0.369070	38.209955
7.250000	-0.211776	-100.590189	-42.456503	-7.312116	-42.456503	-7.312116	-0.372416	36.140144
7.300000	-0.214827	-101.193096	-42.376688	-8.206203	-42.376688	-8.206203	-0.375829	34.075289
7.350000	-0.217919	-101.794954	-42.295071	-9.086303	-42.295071	-9.086303	-0.379311	32.015683
7.400000	-0.221050	-102.395774	-42.211510	-9.953382	-42.211510	-9.953382	-0.382867	29.961616
7.450000	-0.224222	-102.995570	-42.125873	-10.808477	-42.125873	-10.808477	-0.386500	27.913373
7.500000	-0.227436	-103.594352	-42.038041	-11.652690	-42.038041	-11.652690	-0.390214	25.871231
7.550000	-0.230691	-104.192112	-41.947833	-12.487000	-41.947833	-12.487000	-0.394013	23.835609
7.600000	-0.233988	-104.788885	-41.855222	-13.312862	-41.855222	-13.312862	-0.397901	21.806638
7.650000	-0.237327	-105.384684	-41.760128	-14.131537	-41.760128	-14.131537	-0.401880	19.784575
7.700000	-0.240708	-105.979520	-41.662489	-14.944317	-41.662489	-14.944317	-0.405954	17.769671
7.750000	-0.244131	-106.573409	-41.562255	-15.752519	-41.562255	-15.752519	-0.410128	15.762166
7.800000	-0.247598	-107.166362	-41.459397	-16.557471	-41.459397	-16.557471	-0.414403	13.762293
7.850000	-0.251107	-107.758394	-41.353898	-17.360504	-41.353898	-17.360504	-0.418784	11.770274
7.900000	-0.254660	-108.349518	-41.245758	-18.162937	-41.245758	-18.162937	-0.423275	9.786323
7.950000	-0.258257	-108.939748	-41.134994	-18.966071	-41.134994	-18.966071	-0.427878	7.810644
8.000000	-0.261898	-109.529098	-41.021638	-19.771174	-41.021638	-19.771174	-0.432597	5.843430
8.050000	-0.265583	-110.117582	-40.905737	-20.579475	-40.905737	-20.579475	-0.437436	3.884865
8.100000	-0.269313	-110.705214	-40.787351	-21.392150	-40.787351	-21.392150	-0.442398	1.935121
8.150000	-0.273087	-111.292001	-40.666509	-22.210388	-40.666509	-22.210388	-0.447487	-0.005541
8.200000	-0.276908	-111.877958	-40.543296	-23.035273	-40.543296	-23.035273	-0.452707	-1.936965
8.250000	-0.280774	-112.463108	-40.417853	-23.867719	-40.417853	-23.867719	-0.458059	-3.859109
8.300000	-0.284685	-113.047467	-40.290284	-24.708619	-40.290284	-24.708619	-0.463547	-5.771846
8.350000	-0.288643	-113.631028	-40.160589	-25.559076	-40.160589	-25.559076	-0.469178	-7.674779
8.400000	-0.292644	-114.213886	-40.029280	-26.418774	-40.029280	-26.418774	-0.474941	-9.568793
8.450000	-0.296695	-114.795937	-39.895884	-27.289978	-39.895884	-27.289978	-0.480860	-11.452284
8.500000	-0.300791	-115.377300	-39.761037	-28.171779	-39.761037	-28.171779	-0.486920	-13.326487
8.550000	-0.304934	-115.957933	-39.624577	-29.065521	-39.624577	-29.065521	-0.493133	-15.190570
8.600000	-0.309124	-116.537868	-39.486704	-29.971364	-39.486704	-29.971364	-0.499502	-17.044663
8.650000	-0.313359	-117.117147	-39.347674	-30.889141	-39.347674	-30.889141	-0.506021	-18.889100
8.700000	-0.317645	-117.695723	-39.207282	-31.820285	-39.207282	-31.820285	-0.512710	-20.722875
8.750000	-0.321974	-118.273713	-39.066162	-32.762996	-39.066162	-32.762996	-0.519547	-22.547510
8.800000	-0.326356	-118.851001	-38.923738	-33.720082	-38.923738	-33.720082	-0.526568	-24.360848
8.850000	-0.330781	-119.427736	-38.780801	-34.688844	-38.780801	-34.688844	-0.533742	-26.165021
8.900000	-0.335258	-120.003842	-38.636971	-35.671238	-38.636971	-35.671238	-0.541097	-27.958473
8.950000	-0.339781	-120.579395	-38.492641	-36.665950	-38.492641	-36.665950	-0.548620	-29.742189
9.000000	-0.344353	-121.154390	-38.347785	-37.673351	-38.347785	-37.673351	-0.556319	-31.515802
9.050000	-0.348974	-121.728836	-38.202435	-38.693523	-38.202435	-38.693523	-0.564202	-33.279147
9.100000	-0.353641	-122.302793	-38.056882	-39.725323	-38.056882	-39.725323	-0.572257	-35.033038
9.150000	-0.358360	-122.876211	-37.910825	-40.770179	-37.910825	-40.770179	-0.580511	-36.776176
9.200000	-0.363124	-123.449195	-37.764793	-41.825780	-37.764793	-41.825780	-0.588936	-38.510341
9.250000	-0.367942	-124.021673	-37.618330	-42.894132	-37.618330	-42.894132	-0.597569	-40.233697
9.300000	-0.372805	-124.593746	-37.471937	-43.972980	-37.471937	-43.972980	-0.606382	-41.948021
9.350000	-0.377720	-125.165382	-37.325354	-45.063362	-37.325354	-45.063362	-0.615399	-43.652267
9.400000	-0.382683	-125.736627	-37.178762	-46.164378	-37.178762	-46.164378	-0.624613	-45.347083
9.450000	-0.387694	-126.307502	-37.032185	-47.275772	-37.032185	-47.275772	-0.634025	-47.032565
9.500000	-0.392757	-126.878005	-36.885499	-48.397894	-36.885499	-48.397894	-0.643650	-48.708269
9.550000	-0.397866	-127.448200	-36.739002	-49.529330	-36.739002	-49.529330	-0.653469	-50.375386
9.600000	-0.403029	-128.018052	-36.592276	-50.671574	-36.592276	-50.671574	-0.663519	-52.032433
9.650000	-0.408238	-128.587641	-36.445796	-51.822539	-36.445796	-51.822539	-0.673766	-53.681291
9.700000	-0.413499	-129.156943	-36.299130	-52.983691	-36.299130	-52.983691	-0.684246	-55.320530
9.750000	-0.418808	-129.726014	-36.152606	-54.153600	-36.152606	-54.153600	-0.694937	-56.951481
9.800000	-0.424168	-130.294861	-36.006017	-55.332836	-36.006017	-55.332836	-0.705858	-58.573611
9.850000	-0.429577	-130.863511	-35.859398	-56.521107	-35.859398	-56.521107	-0.717007	-60.187232
9.900000	-0.435035	-131.431994	-35.712824	-57.717981	-35.712824	-57.717981	-0.728382	-61.792815
9.950000	-0.440546	-132.000321	-35.566028	-58.924258	-35.566028	-58.924258	-0.740005	-63.389723
10.000000	-0.446101	-132.568537	-35.419380	-60.138543	-35.419380	-60.138543	-0.751848	-64.979359
