! freq	dB(S11)	phase(S11)	dB(S12)	phase(S12)	
!     	dB(S21)	phase(S21)	dB(S22)	phase(S22)	
!S-par simulation data
#  GHz  S  DB  R 50
0.000000	-0.000000	0.000000	-325.538493	0.000000	-325.538493	0.000000	-0.000000	0.000000
0.050000	-0.036806	-3.003459	-80.583672	88.819725	-80.583672	88.819725	-0.031517	-3.908854
0.100000	-0.037147	-6.015727	-74.619687	84.088110	-74.619687	84.088110	-0.043219	-8.013505
0.150000	-0.037672	-9.021261	-71.164811	80.158925	-71.164811	80.158925	-0.046963	-12.088203
0.200000	-0.038396	-12.019766	-68.755924	76.454831	-68.755924	76.454831	-0.049061	-16.133894
0.250000	-0.039315	-15.009539	-66.931984	72.864235	-66.931984	72.864235	-0.050785	-20.151695
0.300000	-0.040421	-17.988675	-65.487232	69.355516	-65.487232	69.355516	-0.052482	-24.139482
0.350000	-0.041706	-20.955140	-64.312339	65.920392	-64.312339	65.920392	-0.054265	-28.093612
0.400000	-0.043160	-23.907102	-63.341194	62.558172	-63.341194	62.558172	-0.056170	-32.010523
0.450000	-0.044770	-26.842785	-62.531155	59.272152	-62.531155	59.272152	-0.058201	-35.886632
0.500000	-0.046523	-29.760460	-61.853201	56.067753	-61.853201	56.067753	-0.060350	-39.718455
0.550000	-0.048407	-32.658485	-61.286611	52.951581	-61.286611	52.951581	-0.062603	-43.502785
0.600000	-0.050407	-35.535312	-60.816090	49.931128	-60.816090	49.931128	-0.064941	-47.236734
0.650000	-0.052510	-38.389364	-60.430370	47.015304	-60.430370	47.015304	-0.067344	-50.917462
0.700000	-0.054702	-41.219277	-60.120434	44.213435	-60.120434	44.213435	-0.069793	-54.542754
0.750000	-0.056967	-44.023941	-59.878853	41.535151	-59.878853	41.535151	-0.072267	-58.111079
0.800000	-0.059291	-46.802233	-59.699960	38.991872	-59.699960	38.991872	-0.074748	-61.620968
0.850000	-0.061661	-49.553139	-59.579160	36.596533	-59.579160	36.596533	-0.077218	-65.071286
0.900000	-0.064063	-52.275750	-59.512667	34.363933	-59.512667	34.363933	-0.079662	-68.461215
0.950000	-0.066485	-54.969188	-59.497431	32.311708	-59.497431	32.311708	-0.082066	-71.790070
1.000000	-0.068915	-57.632588	-59.530912	30.461157	-59.530912	30.461157	-0.084416	-75.057275
1.050000	-0.071341	-60.264926	-59.611068	28.839708	-59.611068	28.839708	-0.086703	-78.262023
1.100000	-0.073753	-62.867219	-59.733299	27.462938	-59.733299	27.462938	-0.088919	-81.407547
1.150000	-0.076142	-65.438244	-59.896168	26.368972	-59.896168	26.368972	-0.091057	-84.492636
1.200000	-0.078500	-67.977696	-60.096531	25.595108	-60.096531	25.595108	-0.093112	-87.517921
1.250000	-0.080819	-70.485355	-60.330399	25.184312	-60.330399	25.184312	-0.095080	-90.484196
1.300000	-0.083092	-72.960389	-60.592701	25.195289	-60.592701	25.195289	-0.096957	-93.391156
1.350000	-0.085313	-75.403432	-60.875387	25.673384	-60.875387	25.673384	-0.098743	-96.241145
1.400000	-0.087479	-77.814499	-61.168279	26.673057	-61.168279	26.673057	-0.100440	-99.035321
1.450000	-0.089585	-80.193672	-61.457687	28.244133	-61.457687	28.244133	-0.102047	-101.774927
1.500000	-0.091630	-82.541093	-61.725848	30.422078	-61.725848	30.422078	-0.103569	-104.461271
1.550000	-0.093610	-84.856960	-61.950970	33.214166	-61.950970	33.214166	-0.105007	-107.095711
1.600000	-0.095525	-87.141520	-62.108459	36.583278	-62.108459	36.583278	-0.106364	-109.679648
1.650000	-0.097374	-89.395071	-62.173756	40.434308	-62.173756	40.434308	-0.107646	-112.214509
1.700000	-0.099157	-91.617949	-62.126648	44.611014	-62.126648	44.611014	-0.108855	-114.701740
1.750000	-0.100874	-93.810529	-61.955857	48.910142	-61.955857	48.910142	-0.109998	-117.142796
1.800000	-0.102528	-95.973218	-61.661926	53.112485	-61.661926	53.112485	-0.111078	-119.539131
1.850000	-0.104119	-98.106455	-61.256927	57.020509	-61.256927	57.020509	-0.112101	-121.892197
1.900000	-0.105649	-100.210393	-60.760021	60.481855	-60.760021	60.481855	-0.113072	-124.202994
1.950000	-0.107121	-102.285536	-60.195458	63.411523	-60.195458	63.411523	-0.113996	-126.472994
2.000000	-0.108537	-104.332703	-59.587467	65.789986	-59.587467	65.789986	-0.114877	-128.704052
2.050000	-0.109901	-106.352418	-58.955689	67.633186	-58.955689	67.633186	-0.115723	-130.897545
2.100000	-0.111215	-108.345214	-58.315541	68.981373	-58.315541	68.981373	-0.116536	-133.054826
2.150000	-0.112484	-110.311637	-57.678361	69.886314	-57.678361	69.886314	-0.117322	-135.177215
2.200000	-0.113710	-112.252241	-57.052036	70.402653	-57.052036	70.402653	-0.118086	-137.266006
2.250000	-0.114897	-114.167584	-56.441765	70.582850	-56.441765	70.582850	-0.118832	-139.322456
2.300000	-0.116049	-116.058232	-55.850754	70.474655	-55.850754	70.474655	-0.119565	-141.347795
2.350000	-0.117169	-117.924749	-55.280790	70.120169	-55.280790	70.120169	-0.120287	-143.343215
2.400000	-0.118260	-119.767703	-54.732676	69.555804	-54.732676	69.555804	-0.121003	-145.309878
2.450000	-0.119326	-121.587660	-54.206546	68.812689	-54.206546	68.812689	-0.121716	-147.248911
2.500000	-0.120372	-123.385185	-53.702102	67.917267	-53.702102	67.917267	-0.122431	-149.161407
2.550000	-0.121398	-125.160376	-53.218647	66.889545	-53.218647	66.889545	-0.123149	-151.047895
2.600000	-0.122411	-126.914278	-52.755610	65.751567	-52.755610	65.751567	-0.123874	-152.909979
2.650000	-0.123412	-128.647444	-52.312136	64.519199	-52.312136	64.519199	-0.124608	-154.748651
2.700000	-0.124405	-130.360419	-51.887334	63.205905	-51.887334	63.205905	-0.125355	-156.564873
2.750000	-0.125393	-132.053743	-51.480310	61.823134	-51.480310	61.823134	-0.126116	-158.359575
2.800000	-0.126378	-133.727948	-51.090182	60.380646	-51.090182	60.380646	-0.126892	-160.133656
2.850000	-0.127364	-135.383562	-50.716100	58.886785	-50.716100	58.886785	-0.127687	-161.887988
2.900000	-0.128354	-137.021099	-50.357250	57.348702	-50.357250	57.348702	-0.128502	-163.623413
2.950000	-0.129348	-138.641070	-50.012859	55.772542	-50.012859	55.772542	-0.129338	-165.340745
3.000000	-0.130351	-140.243976	-49.682198	54.163601	-49.682198	54.163601	-0.130196	-167.040774
3.050000	-0.131364	-141.830307	-49.364581	52.526454	-49.364581	52.526454	-0.131079	-168.724261
3.100000	-0.132389	-143.400547	-49.059363	50.865063	-49.059363	50.865063	-0.131986	-170.391942
3.150000	-0.133429	-144.955006	-48.765959	49.182674	-48.765959	49.182674	-0.132919	-172.044376
3.200000	-0.134485	-146.494162	-48.483811	47.482362	-48.483811	47.482362	-0.133879	-173.682275
3.250000	-0.135558	-148.018642	-48.212373	45.766935	-48.212373	45.766935	-0.134866	-175.306468
3.300000	-0.136651	-149.528890	-47.951151	44.038644	-47.951151	44.038644	-0.135881	-176.917601
3.350000	-0.137767	-151.024187	-47.699886	42.298687	-47.699886	42.298687	-0.136926	-178.515277
3.400000	-0.138902	-152.507449	-47.457722	40.550541	-47.457722	40.550541	-0.137997	179.897688
3.450000	-0.140061	-153.977752	-47.224474	38.794683	-47.224474	38.794683	-0.139097	178.321915
3.500000	-0.141244	-155.435504	-46.999766	37.032442	-46.999766	37.032442	-0.140226	176.756837
3.550000	-0.142452	-156.881107	-46.783246	35.264982	-46.783246	35.264982	-0.141383	175.201905
3.600000	-0.143686	-158.314951	-46.574587	33.493322	-46.574587	33.493322	-0.142570	173.656587
3.650000	-0.144947	-159.737421	-46.373483	31.718355	-46.373483	31.718355	-0.143785	172.120365
3.700000	-0.146235	-161.148890	-46.179645	29.940862	-46.179645	29.940862	-0.145028	170.592740
3.750000	-0.147552	-162.549725	-45.992808	28.161524	-45.992808	28.161524	-0.146300	169.073225
3.800000	-0.148898	-163.939853	-45.812848	26.380909	-45.812848	26.380909	-0.147601	167.561660
3.850000	-0.150273	-165.320085	-45.639407	24.599604	-45.639407	24.599604	-0.148930	166.057236
3.900000	-0.151677	-166.690762	-45.472268	22.818052	-45.472268	22.818052	-0.150287	164.559511
3.950000	-0.153111	-168.052217	-45.311226	21.036637	-45.311226	21.036637	-0.151670	163.068054
4.000000	-0.154574	-169.404775	-45.156091	19.255691	-45.156091	19.255691	-0.153080	161.582449
4.050000	-0.156066	-170.748754	-45.006685	17.475499	-45.006685	17.475499	-0.154515	160.102289
4.100000	-0.157589	-172.084466	-44.862845	15.696305	-44.862845	15.696305	-0.155977	158.627180
4.150000	-0.159141	-173.412212	-44.724416	13.918319	-44.724416	13.918319	-0.157463	157.156736
4.200000	-0.160722	-174.732292	-44.591256	12.141716	-44.591256	12.141716	-0.158973	155.690584
4.250000	-0.162333	-176.044993	-44.463233	10.366644	-44.463233	10.366644	-0.160508	154.228360
4.300000	-0.163973	-177.350600	-44.340225	8.593227	-44.340225	8.593227	-0.162065	152.769710
4.350000	-0.165641	-178.649390	-44.222120	6.821567	-44.222120	6.821567	-0.163645	151.314288
4.400000	-0.167338	-179.941633	-44.108813	5.051746	-44.108813	5.051746	-0.165247	149.861758
4.450000	-0.169063	178.772406	-44.000209	3.283830	-44.000209	3.283830	-0.166870	148.411791
4.500000	-0.170816	177.492468	-43.896222	1.517873	-43.896222	1.517873	-0.168514	146.964069
4.550000	-0.172596	176.218301	-43.796773	-0.246087	-43.796773	-0.246087	-0.170178	145.518278
4.600000	-0.174403	174.949657	-43.701790	-2.008019	-43.701790	-2.008019	-0.171861	144.074115
4.650000	-0.176237	173.686295	-43.611209	-3.767900	-43.611209	-3.767900	-0.173562	142.631283
4.700000	-0.178096	172.427978	-43.524972	-5.525715	-43.524972	-5.525715	-0.175282	141.189491
4.750000	-0.179980	171.174476	-43.443031	-7.281453	-43.443031	-7.281453	-0.177019	139.748456
4.800000	-0.181889	169.925562	-43.365341	-9.035108	-43.365341	-9.035108	-0.178772	138.307902
4.850000	-0.183822	168.681015	-43.291864	-10.786673	-43.291864	-10.786673	-0.180541	136.867559
4.900000	-0.185779	167.440619	-43.222571	-12.536145	-43.222571	-12.536145	-0.182326	135.427162
4.950000	-0.187758	166.204163	-43.157436	-14.283519	-43.157436	-14.283519	-0.184126	133.986454
5.000000	-0.189759	164.971440	-43.096440	-16.028789	-43.096440	-16.028789	-0.185939	132.545182
5.050000	-0.191782	163.742392	-43.039735	-17.771853	-43.039735	-17.771853	-0.187767	131.103052
5.100000	-0.193827	162.516660	-42.987154	-19.512790	-42.987154	-19.512790	-0.189608	129.659850
5.150000	-0.195891	161.294050	-42.938696	-21.251581	-42.938696	-21.251581	-0.191461	128.215340
5.200000	-0.197974	160.074374	-42.894365	-22.988202	-42.894365	-22.988202	-0.193325	126.769292
5.250000	-0.200076	158.857448	-42.854170	-24.722620	-42.854170	-24.722620	-0.195201	125.321481
5.300000	-0.202195	157.643089	-42.818128	-26.454798	-42.818128	-26.454798	-0.197089	123.871688
5.350000	-0.204331	156.431123	-42.786259	-28.184686	-42.786259	-28.184686	-0.198986	122.419695
5.400000	-0.206484	155.221376	-42.758590	-29.912225	-42.758590	-29.912225	-0.200893	120.965294
5.450000	-0.208652	154.013678	-42.735154	-31.637347	-42.735154	-31.637347	-0.202811	119.508278
5.500000	-0.210835	152.807866	-42.715987	-33.359970	-42.715987	-33.359970	-0.204737	118.048445
5.550000	-0.213032	151.603776	-42.701134	-35.080001	-42.701134	-35.080001	-0.206673	116.585598
5.600000	-0.215242	150.401251	-42.690643	-36.797329	-42.690643	-36.797329	-0.208617	115.119544
5.650000	-0.217465	149.200136	-42.684569	-38.511833	-42.684569	-38.511833	-0.210570	113.650095
5.700000	-0.219699	148.000279	-42.682973	-40.223372	-42.682973	-40.223372	-0.212531	112.177065
5.750000	-0.221944	146.801534	-42.685922	-41.931790	-42.685922	-41.931790	-0.214500	110.700275
5.800000	-0.224199	145.603756	-42.693490	-43.636910	-42.693490	-43.636910	-0.216478	109.219547
5.850000	-0.226464	144.406802	-42.705756	-45.338536	-42.705756	-45.338536	-0.218464	107.734710
5.900000	-0.228738	143.210537	-42.722806	-47.036453	-42.722806	-47.036453	-0.220458	106.245594
5.950000	-0.231020	142.014824	-42.744735	-48.730418	-42.744735	-48.730418	-0.222461	104.752034
6.000000	-0.233309	140.819534	-42.771642	-50.420167	-42.771642	-50.420167	-0.224472	103.253870
6.050000	-0.235605	139.624536	-42.803637	-52.105408	-42.803637	-52.105408	-0.226492	101.750944
6.100000	-0.237906	138.429707	-42.840836	-53.785821	-42.840836	-53.785821	-0.228521	100.243102
6.150000	-0.240213	137.234924	-42.883364	-55.461054	-42.883364	-55.461054	-0.230559	98.730195
6.200000	-0.242525	136.040069	-42.931355	-57.130722	-42.931355	-57.130722	-0.232608	97.212076
6.250000	-0.244840	134.845026	-42.984954	-58.794404	-42.984954	-58.794404	-0.234667	95.688602
6.300000	-0.247159	133.649663	-43.044552	-60.451335	-43.044552	-60.451335	-0.236737	94.159388
6.350000	-0.249481	132.453881	-43.110084	-62.101265	-43.110084	-62.101265	-0.238820	92.624532
6.400000	-0.251805	131.257574	-43.181728	-63.743635	-43.181728	-63.743635	-0.240915	91.083901
6.450000	-0.254130	130.060637	-43.259674	-65.377834	-43.259674	-65.377834	-0.243025	89.537368
6.500000	-0.256456	128.862973	-43.344125	-67.003191	-43.344125	-67.003191	-0.245148	87.984805
6.550000	-0.258782	127.664485	-43.435300	-68.618973	-43.435300	-68.618973	-0.247288	86.426092
6.600000	-0.261109	126.465078	-43.533436	-70.224373	-43.533436	-70.224373	-0.249445	84.861109
6.650000	-0.263435	125.264664	-43.638784	-71.818504	-43.638784	-71.818504	-0.251620	83.289741
6.700000	-0.265760	124.063156	-43.751619	-73.400388	-43.751619	-73.400388	-0.253815	81.711874
6.750000	-0.268083	122.860470	-43.872233	-74.968947	-43.872233	-74.968947	-0.256031	80.127398
6.800000	-0.270405	121.656527	-44.000946	-76.522986	-44.000946	-76.522986	-0.258270	78.536207
6.850000	-0.272724	120.451250	-44.138100	-78.061182	-44.138100	-78.061182	-0.260535	76.938196
6.900000	-0.275042	119.244566	-44.284069	-79.582060	-44.284069	-79.582060	-0.262826	75.333263
6.950000	-0.277356	118.036408	-44.439256	-81.083975	-44.439256	-81.083975	-0.265146	73.721311
7.000000	-0.279667	116.826708	-44.604101	-82.565084	-44.604101	-82.565084	-0.267497	72.102242
7.050000	-0.281976	115.615407	-44.779082	-84.023319	-44.779082	-84.023319	-0.269882	70.475962
7.100000	-0.284282	114.402448	-44.964722	-85.456345	-44.964722	-85.456345	-0.272303	68.842380
7.150000	-0.286585	113.187778	-45.161591	-86.861516	-45.161591	-86.861516	-0.274763	67.201405
7.200000	-0.288886	111.971349	-45.370313	-88.235826	-45.370313	-88.235826	-0.277265	65.552951
7.250000	-0.291185	110.753119	-45.591575	-89.575838	-45.591575	-89.575838	-0.279811	63.896931
7.300000	-0.293483	109.533050	-45.826129	-90.877608	-45.826129	-90.877608	-0.282405	62.233260
7.350000	-0.295782	108.311109	-46.074803	-92.136587	-46.074803	-92.136587	-0.285050	60.561856
7.400000	-0.298083	107.087269	-46.338512	-93.347498	-46.338512	-93.347498	-0.287749	58.882637
7.450000	-0.300389	105.861509	-46.618262	-94.504190	-46.618262	-94.504190	-0.290508	57.195521
7.500000	-0.302703	104.633813	-46.915166	-95.599448	-46.915166	-95.599448	-0.293328	55.500429
7.550000	-0.305030	103.404086	-47.230783	-96.621234	-47.230783	-96.621234	-0.296218	53.796928
7.600000	-0.307377	102.172407	-47.566130	-97.561845	-47.566130	-97.561845	-0.299179	52.085283
7.650000	-0.309751	100.938771	-47.922690	-98.408846	-47.922690	-98.408846	-0.302216	50.365415
7.700000	-0.312162	99.703175	-48.302087	-99.147221	-48.302087	-99.147221	-0.305333	48.637245
7.750000	-0.314623	98.465609	-48.706080	-99.758707	-48.706080	-99.758707	-0.308536	46.900691
7.800000	-0.317149	97.226051	-49.136556	-100.220929	-49.136556	-100.220929	-0.311830	45.155669
7.850000	-0.319759	95.984459	-49.595493	-100.506263	-49.595493	-100.506263	-0.315219	43.402098
7.900000	-0.322473	94.740758	-50.084887	-100.580375	-50.084887	-100.580375	-0.318711	41.639889
7.950000	-0.325312	93.494828	-50.606618	-100.400321	-50.606618	-100.400321	-0.322311	39.868954
8.000000	-0.328292	92.246498	-51.162206	-99.912134	-51.162206	-99.912134	-0.326024	38.089203
8.050000	-0.331424	90.995545	-51.752385	-99.047880	-51.752385	-99.047880	-0.329859	36.300538
8.100000	-0.334710	89.741708	-52.376386	-97.722305	-52.376386	-97.722305	-0.333821	34.502862
8.150000	-0.338134	88.484716	-53.030749	-95.829684	-53.030749	-95.829684	-0.337917	32.696070
8.200000	-0.341667	87.224339	-53.707431	-93.242429	-53.707431	-93.242429	-0.342155	30.880052
8.250000	-0.345265	85.960428	-54.390988	-89.814938	-54.390988	-89.814938	-0.346544	29.054695
8.300000	-0.348877	84.692957	-55.054865	-85.399176	-55.054865	-85.399176	-0.351090	27.219876
8.350000	-0.352459	83.422118	-55.662534	-79.913837	-55.662534	-79.913837	-0.355797	25.375749
8.400000	-0.355966	82.147885	-56.146691	-73.253971	-56.146691	-73.253971	-0.360686	23.521487
8.450000	-0.359378	80.870723	-56.449534	-65.643253	-56.449534	-65.643253	-0.365757	21.657505
8.500000	-0.362686	79.590912	-56.516001	-57.452745	-56.516001	-57.452745	-0.371018	19.783655
8.550000	-0.365896	78.308711	-56.321993	-49.218816	-56.321993	-49.218816	-0.376480	17.899779
8.600000	-0.369010	77.024120	-55.861599	-41.601041	-55.861599	-41.601041	-0.382175	16.004562
8.650000	-0.372056	75.737552	-55.220021	-34.958222	-55.220021	-34.958222	-0.388095	14.098867
8.700000	-0.375054	74.449141	-54.463571	-29.430570	-54.463571	-29.430570	-0.394248	12.182560
8.750000	-0.378021	73.158979	-53.647835	-24.997054	-53.647835	-24.997054	-0.400646	10.255432
8.800000	-0.380974	71.867135	-52.813095	-21.545982	-52.813095	-21.545982	-0.407301	8.317259
8.850000	-0.383926	70.573664	-51.985299	-18.933599	-51.985299	-18.933599	-0.414226	6.367800
8.900000	-0.386889	69.278546	-51.177830	-17.042093	-51.177830	-17.042093	-0.421446	4.406292
8.950000	-0.389877	67.981781	-50.398700	-15.748614	-50.398700	-15.748614	-0.428985	2.432055
9.000000	-0.392895	66.683529	-49.654403	-14.904622	-49.654403	-14.904622	-0.436838	0.445643
9.050000	-0.395947	65.383964	-48.947160	-14.401538	-48.947160	-14.401538	-0.444987	-1.552064
9.100000	-0.399047	64.082831	-48.271174	-14.243629	-48.271174	-14.243629	-0.453522	-3.564160
9.150000	-0.402196	62.780358	-47.627742	-14.336189	-47.627742	-14.336189	-0.462418	-5.589478
9.200000	-0.405397	61.476605	-47.014802	-14.638707	-47.014802	-14.638707	-0.471693	-7.628408
9.250000	-0.408657	60.171580	-46.429723	-15.125539	-46.429723	-15.125539	-0.481384	-9.682036
9.300000	-0.411978	58.865396	-45.870962	-15.763173	-45.870962	-15.763173	-0.491499	-11.750366
9.350000	-0.415361	57.558139	-45.336702	-16.528564	-45.336702	-16.528564	-0.502052	-13.833707
9.400000	-0.418813	56.249861	-44.824894	-17.407375	-44.824894	-17.407375	-0.513079	-15.933042
9.450000	-0.422334	54.940646	-44.333942	-18.384534	-44.333942	-18.384534	-0.524604	-18.048966
9.500000	-0.425927	53.630610	-43.862580	-19.445417	-43.862580	-19.445417	-0.536638	-20.181615
9.550000	-0.429594	52.319834	-43.409362	-20.581246	-43.409362	-20.581246	-0.549212	-22.331840
9.600000	-0.433341	51.008392	-42.972894	-21.785756	-42.972894	-21.785756	-0.562373	-24.500964
9.650000	-0.437166	49.696415	-42.552347	-23.048936	-42.552347	-23.048936	-0.576125	-26.688906
9.700000	-0.441071	48.384000	-42.146715	-24.365121	-42.146715	-24.365121	-0.590497	-28.896430
9.750000	-0.445066	47.071232	-41.754810	-25.732733	-41.754810	-25.732733	-0.605569	-31.125911
9.800000	-0.449144	45.758251	-41.376214	-27.143228	-41.376214	-27.143228	-0.621320	-33.376491
9.850000	-0.453311	44.445155	-41.010061	-28.594660	-41.010061	-28.594660	-0.637808	-35.649829
9.900000	-0.457566	43.132060	-40.655831	-30.082337	-40.655831	-30.082337	-0.655044	-37.946055
9.950000	-0.461920	41.819089	-40.312672	-31.606955	-40.312672	-31.606955	-0.673142	-40.268623
10.000000	-0.466360	40.506333	-39.980456	-33.160944	-39.980456	-33.160944	-0.692020	-42.614750
