! freq	dB(S11)	phase(S11)	dB(S12)	phase(S12)	
!     	dB(S21)	phase(S21)	dB(S22)	phase(S22)	
!S-par simulation data
#  GHz  S  DB  R 50
0.000000	-83.969870	0.000000	-0.000550	0.000000	-0.000550	0.000000	-83.969870	0.000000
0.050000	-44.433627	-90.715301	-0.004409	-2.431859	-0.004409	-2.431859	-44.432002	-90.376799
0.100000	-38.550190	-94.221882	-0.009804	-4.830359	-0.009804	-4.830359	-38.538126	-93.010719
0.150000	-35.081950	-97.437140	-0.014203	-7.217991	-0.014203	-7.217991	-35.073247	-95.527795
0.200000	-32.618092	-100.468703	-0.018306	-9.602839	-0.018306	-9.602839	-32.610442	-97.913688
0.250000	-30.710821	-103.400076	-0.022520	-11.985891	-0.022520	-11.985891	-30.702867	-100.215291
0.300000	-29.158533	-106.270016	-0.026957	-14.367058	-0.026957	-14.367058	-29.149963	-102.460617
0.350000	-27.851915	-109.102258	-0.031611	-16.746495	-0.031611	-16.746495	-27.842909	-104.668709
0.400000	-26.726168	-111.907328	-0.036472	-19.124294	-0.036472	-19.124294	-26.717052	-106.847856
0.450000	-25.740262	-114.691468	-0.041540	-21.500492	-0.041540	-21.500492	-25.731415	-109.002665
0.500000	-24.864728	-117.461334	-0.046790	-23.875343	-0.046790	-23.875343	-24.856447	-111.139436
0.550000	-24.079077	-120.220177	-0.052212	-26.248948	-0.052212	-26.248948	-24.071588	-113.261337
0.600000	-23.368492	-122.970091	-0.057802	-28.621335	-0.057802	-28.621335	-23.361966	-115.370488
0.650000	-22.722085	-125.712553	-0.063561	-30.992465	-0.063561	-30.992465	-22.716652	-117.468438
0.700000	-22.130243	-128.449332	-0.069468	-33.362415	-0.069468	-33.362415	-22.125971	-119.557461
0.750000	-21.585826	-131.181377	-0.075513	-35.731174	-0.075513	-35.731174	-21.582757	-121.638734
0.800000	-21.083898	-133.909192	-0.081693	-38.098624	-0.081693	-38.098624	-21.082067	-123.712711
0.850000	-20.619682	-136.633540	-0.087993	-40.464741	-0.087993	-40.464741	-20.619109	-125.780281
0.900000	-20.188884	-139.355123	-0.094394	-42.829547	-0.094394	-42.829547	-20.189578	-127.842270
0.950000	-19.788460	-142.074374	-0.100883	-45.192989	-0.100883	-45.192989	-19.790431	-129.899006
1.000000	-19.415658	-144.791737	-0.107446	-47.555050	-0.107446	-47.555050	-19.418918	-131.950834
1.050000	-19.068117	-147.507615	-0.114067	-49.915723	-0.114067	-49.915723	-19.072683	-133.998019
1.100000	-18.743795	-150.222367	-0.120729	-52.275011	-0.120729	-52.275011	-18.749689	-136.040769
1.150000	-18.440911	-152.936323	-0.127418	-54.632933	-0.127418	-54.632933	-18.448161	-138.079247
1.200000	-18.157900	-155.649775	-0.134118	-56.989517	-0.134118	-56.989517	-18.166543	-140.113589
1.250000	-17.893379	-158.362986	-0.140812	-59.344805	-0.140812	-59.344805	-17.903458	-142.143911
1.300000	-17.646325	-161.076196	-0.147487	-61.698828	-0.147487	-61.698828	-17.657894	-144.170238
1.350000	-17.415424	-163.789612	-0.154127	-64.051678	-0.154127	-64.051678	-17.428539	-146.192766
1.400000	-17.199684	-166.503412	-0.160719	-66.403434	-0.160719	-66.403434	-17.214410	-148.211608
1.450000	-16.998212	-169.217746	-0.167249	-68.754182	-0.167249	-68.754182	-17.014617	-150.226889
1.500000	-16.810197	-171.932741	-0.173705	-71.104018	-0.173705	-71.104018	-16.828354	-152.238751
1.550000	-16.634901	-174.648498	-0.180075	-73.453046	-0.180075	-73.453046	-16.654885	-154.247355
1.600000	-16.471648	-177.365095	-0.186349	-75.801376	-0.186349	-75.801376	-16.493539	-156.252883
1.650000	-16.319817	179.917415	-0.192518	-78.149124	-0.192518	-78.149124	-16.343697	-158.255544
1.700000	-16.178836	177.199001	-0.198571	-80.496413	-0.198571	-80.496413	-16.204789	-160.255575
1.750000	-16.048177	174.479660	-0.204501	-82.843367	-0.204501	-82.843367	-16.076288	-162.253240
1.800000	-15.927349	171.759414	-0.210302	-85.190115	-0.210302	-85.190115	-15.957705	-164.248835
1.850000	-15.815894	169.038310	-0.215967	-87.536788	-0.215967	-87.536788	-15.848583	-166.242687
1.900000	-15.713464	166.316418	-0.221490	-89.883520	-0.221490	-89.883520	-15.748578	-168.235148
1.950000	-15.619652	163.593853	-0.226867	-92.230449	-0.226867	-92.230449	-15.657283	-170.226628
2.000000	-15.533995	160.870765	-0.232098	-94.577707	-0.232098	-94.577707	-15.574236	-172.217577
2.050000	-15.456135	158.147332	-0.237179	-96.925426	-0.237179	-96.925426	-15.499081	-174.208468
2.100000	-15.385731	155.423772	-0.242112	-99.273735	-0.242112	-99.273735	-15.431481	-176.199809
2.150000	-15.322461	152.700340	-0.246895	-101.622764	-0.246895	-101.622764	-15.371115	-178.192154
2.200000	-15.266013	149.977336	-0.251530	-103.972638	-0.251530	-103.972638	-15.317675	179.813907
2.250000	-15.216089	147.255108	-0.256020	-106.323479	-0.256020	-106.323479	-15.270868	177.817737
2.300000	-15.172404	144.534049	-0.260366	-108.675407	-0.260366	-108.675407	-15.230410	175.818657
2.350000	-15.134678	141.814610	-0.264573	-111.028537	-0.264573	-111.028537	-15.196028	173.815940
2.400000	-15.102642	139.097292	-0.268645	-113.382981	-0.268645	-113.382981	-15.167457	171.808812
2.450000	-15.076032	136.382657	-0.272586	-115.738846	-0.272586	-115.738846	-15.144438	169.796448
2.500000	-15.054591	133.671331	-0.276403	-118.096234	-0.276403	-118.096234	-15.126719	167.777972
2.550000	-15.038164	130.964103	-0.280099	-120.455280	-0.280099	-120.455280	-15.114154	165.752277
2.600000	-15.026392	128.261664	-0.283683	-122.816044	-0.283683	-122.816044	-15.106383	163.718505
2.650000	-15.019025	125.564843	-0.287162	-125.178615	-0.287162	-125.178615	-15.103163	161.675608
2.700000	-15.015818	122.874542	-0.290544	-127.543074	-0.290544	-127.543074	-15.104251	159.622478
2.750000	-15.016524	120.191738	-0.293836	-129.909502	-0.293836	-129.909502	-15.109405	157.557946
2.800000	-15.020898	117.517481	-0.297046	-132.277971	-0.297046	-132.277971	-15.118380	155.480782
2.850000	-15.028691	114.852900	-0.300182	-134.648551	-0.300182	-134.648551	-15.130932	153.389691
2.900000	-15.039655	112.199201	-0.303253	-137.021307	-0.303253	-137.021307	-15.146812	151.283315
2.950000	-15.053538	109.557665	-0.306267	-139.396300	-0.306267	-139.396300	-15.165766	149.160230
3.000000	-15.070085	106.929651	-0.309232	-141.773587	-0.309232	-141.773587	-15.187538	147.018952
3.050000	-15.089037	104.316591	-0.312157	-144.153221	-0.312157	-144.153221	-15.211863	144.857932
3.100000	-15.110128	101.719989	-0.315050	-146.535253	-0.315050	-146.535253	-15.238471	142.675562
3.150000	-15.133104	99.141632	-0.317919	-148.919755	-0.317919	-148.919755	-15.267100	140.469908
3.200000	-15.157678	96.583210	-0.320774	-151.306772	-0.320774	-151.306772	-15.297453	138.239194
3.250000	-15.183544	94.046224	-0.323623	-153.696320	-0.323623	-153.696320	-15.329209	135.981903
3.300000	-15.210409	91.532415	-0.326474	-156.088437	-0.326474	-156.088437	-15.362060	133.696230
3.350000	-15.237976	89.044342	-0.329337	-158.483236	-0.329337	-158.483236	-15.395692	131.379408
3.400000	-15.265910	86.581024	-0.332217	-160.880480	-0.332217	-160.880480	-15.429747	129.032921
3.450000	-15.293894	84.148649	-0.335127	-163.280617	-0.335127	-163.280617	-15.463888	126.649716
3.500000	-15.321614	81.745079	-0.338072	-165.683315	-0.338072	-165.683315	-15.497774	124.232626
3.550000	-15.348680	79.374524	-0.341062	-168.088817	-0.341062	-168.088817	-15.530984	121.777009
3.600000	-15.374746	77.038117	-0.344106	-170.497098	-0.344106	-170.497098	-15.563140	119.281830
3.650000	-15.399471	74.736555	-0.347210	-172.908106	-0.347210	-172.908106	-15.593872	116.746552
3.700000	-15.422432	72.472351	-0.350386	-175.321942	-0.350386	-175.321942	-15.622718	114.168543
3.750000	-15.443070	70.249481	-0.353646	-177.738807	-0.353646	-177.738807	-15.649065	111.543532
3.800000	-15.461128	68.066314	-0.356995	179.841492	-0.356995	179.841492	-15.672631	108.873620
3.850000	-15.476193	65.924007	-0.360443	177.418932	-0.360443	177.418932	-15.692961	106.157713
3.900000	-15.487838	63.823540	-0.363998	174.993488	-0.363998	174.993488	-15.709589	103.394916
3.950000	-15.495631	61.765687	-0.367670	172.565138	-0.367670	172.565138	-15.722038	100.584560
4.000000	-15.499130	59.750990	-0.371471	170.133857	-0.371471	170.133857	-15.729827	97.726232
4.050000	-15.497444	57.783462	-0.375423	167.699371	-0.375423	167.699371	-15.731987	94.815685
4.100000	-15.490333	55.860647	-0.379533	165.261820	-0.379533	165.261820	-15.728256	91.855838
4.150000	-15.477503	53.980815	-0.383807	162.821278	-0.383807	162.821278	-15.718320	88.848776
4.200000	-15.458521	52.143235	-0.388259	160.377730	-0.388259	160.377730	-15.701715	85.795468
4.250000	-15.432969	50.346834	-0.392902	157.931163	-0.392902	157.931163	-15.677996	82.697250
4.300000	-15.400451	48.590181	-0.397750	155.481569	-0.397750	155.481569	-15.646745	79.555839
4.350000	-15.360487	46.871989	-0.402821	153.028899	-0.402821	153.028899	-15.607462	76.372788
4.400000	-15.312234	45.192047	-0.408145	150.572970	-0.408145	150.572970	-15.559260	73.148490
4.450000	-15.255952	43.545014	-0.413722	148.114011	-0.413722	148.114011	-15.502444	69.888851
4.500000	-15.191397	41.928020	-0.419569	145.652030	-0.419569	145.652030	-15.436779	66.597080
4.550000	-15.117906	40.339104	-0.425719	143.186892	-0.425719	143.186892	-15.361593	63.275400
4.600000	-15.035721	38.773489	-0.432178	140.718751	-0.432178	140.718751	-15.277179	59.929008
4.650000	-14.944846	37.227324	-0.438964	138.247658	-0.438964	138.247658	-15.183580	56.562080
4.700000	-14.844947	35.697208	-0.446107	135.773556	-0.446107	135.773556	-15.080488	53.178285
4.750000	-14.736176	34.178805	-0.453625	133.296523	-0.453625	133.296523	-14.968108	49.782248
4.800000	-14.618917	32.667792	-0.461531	130.816688	-0.461531	130.816688	-14.846889	46.378537
4.850000	-14.493209	31.160231	-0.469852	128.334073	-0.469852	128.334073	-14.716920	42.971289
4.900000	-14.359089	29.652005	-0.478621	125.848697	-0.478621	125.848697	-14.578289	39.564799
4.950000	-14.217311	28.139280	-0.487840	123.360763	-0.487840	123.360763	-14.431825	36.163031
5.000000	-14.068270	26.618528	-0.497533	120.870374	-0.497533	120.870374	-14.277979	32.769617
5.050000	-13.911497	25.085017	-0.507768	118.377427	-0.507768	118.377427	-14.116319	29.389415
5.100000	-13.749136	23.537957	-0.518479	115.882450	-0.518479	115.882450	-13.949078	26.023201
5.150000	-13.580288	21.972045	-0.529769	113.385255	-0.529769	113.385255	-13.775379	22.676407
5.200000	-13.406390	20.386559	-0.541603	110.886199	-0.541603	110.886199	-13.596716	19.349753
5.250000	-13.227692	18.778498	-0.554024	108.385387	-0.554024	108.385387	-13.413373	16.046318
5.300000	-13.044648	17.145558	-0.567061	105.882979	-0.567061	105.882979	-13.225836	12.768485
5.350000	-12.858451	15.488177	-0.580685	103.379291	-0.580685	103.379291	-13.035327	9.515844
5.400000	-12.668742	13.801592	-0.594992	100.874377	-0.594992	100.874377	-12.841508	6.293385
5.450000	-12.477293	12.089704	-0.609890	98.368648	-0.609890	98.368648	-12.646164	3.097178
5.500000	-12.283491	10.346512	-0.625512	95.862203	-0.625512	95.862203	-12.448702	-0.066374
5.550000	-12.088926	8.576684	-0.641756	93.355401	-0.641756	93.355401	-12.250706	-3.201952
5.600000	-11.893529	6.776860	-0.658705	90.848478	-0.658705	90.848478	-12.052118	-6.305758
5.650000	-11.698111	4.948888	-0.676326	88.341716	-0.676326	88.341716	-11.853744	-9.379451
5.700000	-11.503167	3.093152	-0.694620	85.835407	-0.694620	85.835407	-11.656074	-12.423076
5.750000	-11.308964	1.208598	-0.713625	83.329888	-0.713625	83.329888	-11.459374	-15.435054
5.800000	-11.116313	-0.700918	-0.733262	80.825355	-0.733262	80.825355	-11.264434	-18.419168
5.850000	-10.925170	-2.639143	-0.753633	78.322342	-0.753633	78.322342	-11.071221	-21.370620
5.900000	-10.736368	-4.600179	-0.774609	75.820873	-0.774609	75.820873	-10.880532	-24.295555
5.950000	-10.549957	-6.587279	-0.796281	73.321589	-0.796281	73.321589	-10.692427	-27.189446
6.000000	-10.366455	-8.596152	-0.818550	70.824519	-0.818550	70.824519	-10.507397	-30.056692
6.050000	-10.186097	-10.627399	-0.841441	68.330168	-0.841441	68.330168	-10.325673	-32.895705
6.100000	-10.009173	-12.679431	-0.864919	65.838794	-0.864919	65.838794	-10.147530	-35.707601
6.150000	-9.835938	-14.750280	-0.888935	63.350579	-0.888935	63.350579	-9.973209	-38.494000
6.200000	-9.666660	-16.840548	-0.913505	60.866148	-0.913505	60.866148	-9.802977	-41.252973
6.250000	-9.501430	-18.946317	-0.938527	58.385203	-0.938527	58.385203	-9.636903	-43.989029
6.300000	-9.340682	-21.069826	-0.964048	55.908862	-0.964048	55.908862	-9.475430	-46.697445
6.350000	-9.184294	-23.206589	-0.989950	53.436477	-0.989950	53.436477	-9.318415	-49.383959
6.400000	-9.032688	-25.357599	-1.016242	50.968949	-1.016242	50.968949	-9.166290	-52.045366
6.450000	-8.885807	-27.520405	-1.042854	48.506016	-1.042854	48.506016	-9.018989	-54.684385
6.500000	-8.743871	-29.694250	-1.069754	46.048010	-1.069754	46.048010	-8.876744	-57.300518
6.550000	-8.607053	-31.878086	-1.096905	43.595128	-1.096905	43.595128	-8.739743	-59.893636
6.600000	-8.475239	-34.069908	-1.124263	41.147017	-1.124263	41.147017	-8.607885	-62.465650
6.650000	-8.348986	-36.269269	-1.151820	38.704309	-1.151820	38.704309	-8.481792	-65.013519
6.700000	-8.227878	-38.473433	-1.179557	36.266071	-1.179557	36.266071	-8.361081	-67.540380
6.750000	-8.112415	-40.680722	-1.207523	33.832480	-1.207523	33.832480	-8.246392	-70.042961
6.800000	-8.002643	-42.887666	-1.235827	31.402830	-1.235827	31.402830	-8.137964	-72.519773
6.850000	-7.898719	-45.088749	-1.264751	28.976217	-1.264751	28.976217	-8.036325	-74.966140
6.900000	-7.800747	-47.273001	-1.294986	26.551386	-1.294986	26.551386	-7.942348	-77.370566
6.950000	-7.707911	-49.415329	-1.328371	24.127847	-1.328371	24.127847	-7.856924	-79.702916
7.000000	-7.613714	-51.458503	-1.369906	21.717516	-1.369906	21.717516	-7.776889	-81.878896
7.050000	-7.477865	-53.367817	-1.429091	19.444652	-1.429091	19.444652	-7.658789	-83.728781
7.100000	-7.289217	-56.033570	-1.436390	17.519083	-1.436390	17.519083	-7.424352	-86.236705
7.150000	-7.245754	-58.847437	-1.408614	15.086855	-1.408614	15.086855	-7.344399	-89.333659
7.200000	-7.211941	-61.218806	-1.419852	12.596260	-1.419852	12.596260	-7.306620	-91.920363
7.250000	-7.167615	-63.503258	-1.439326	10.162969	-1.439326	10.162969	-7.262675	-94.340809
7.300000	-7.120425	-65.773867	-1.459993	7.763705	-1.459993	7.763705	-7.215940	-96.700965
7.350000	-7.074596	-68.046365	-1.480154	5.383831	-1.480154	5.383831	-7.170045	-99.032258
7.400000	-7.032024	-70.323885	-1.499349	3.016507	-1.499349	3.016507	-7.126900	-101.344498
7.450000	-6.993648	-72.607015	-1.517404	0.658180	-1.517404	0.658180	-7.087518	-103.641515
7.500000	-6.959985	-74.895828	-1.534227	-1.693258	-1.534227	-1.693258	-7.052481	-105.925151
7.550000	-6.931469	-77.190495	-1.549719	-4.039128	-1.549719	-4.039128	-7.022258	-108.196244
7.600000	-6.908214	-79.491017	-1.563848	-6.380628	-1.563848	-6.380628	-6.996997	-110.455833
7.650000	-6.890387	-81.797623	-1.576559	-8.718629	-1.576559	-8.718629	-6.976879	-112.704530
7.700000	-6.878125	-84.110638	-1.587800	-11.053904	-1.587800	-11.053904	-6.962050	-114.942870
7.750000	-6.871558	-86.430478	-1.597523	-13.387168	-1.597523	-13.387168	-6.952638	-117.171350
7.800000	-6.870810	-88.757644	-1.605680	-15.719112	-1.605680	-15.719112	-6.948765	-119.390436
7.850000	-6.876008	-91.092716	-1.612230	-18.050410	-1.612230	-18.050410	-6.950550	-121.600574
7.900000	-6.887287	-93.436348	-1.617134	-20.381736	-1.617134	-20.381736	-6.958117	-123.802192
7.950000	-6.904791	-95.789268	-1.620359	-22.713764	-1.620359	-22.713764	-6.971597	-125.995692
8.000000	-6.928675	-98.152277	-1.621877	-25.047177	-1.621877	-25.047177	-6.991131	-128.181457
8.050000	-6.959111	-100.526247	-1.621664	-27.382665	-1.621664	-27.382665	-7.016871	-130.359839
8.100000	-6.996286	-102.912123	-1.619702	-29.720931	-1.619702	-29.720931	-7.048983	-132.531159
8.150000	-7.040482	-105.311075	-1.615963	-32.062734	-1.615963	-32.062734	-7.087722	-134.695629
8.200000	-7.091930	-107.724239	-1.610440	-34.408827	-1.610440	-34.408827	-7.133292	-136.853492
8.250000	-7.150808	-110.152655	-1.603154	-36.759907	-1.603154	-36.759907	-7.185844	-139.005004
8.300000	-7.217389	-112.597586	-1.594114	-39.116723	-1.594114	-39.116723	-7.245622	-141.150283
8.350000	-7.291978	-115.060388	-1.583336	-41.480034	-1.583336	-41.480034	-7.312888	-143.289377
8.400000	-7.374905	-117.542510	-1.570841	-43.850604	-1.570841	-43.850604	-7.387936	-145.422248
8.450000	-7.466536	-120.045509	-1.556659	-46.229205	-1.556659	-46.229205	-7.471084	-147.548762
8.500000	-7.567272	-122.571054	-1.540827	-48.616613	-1.540827	-48.616613	-7.562682	-149.668670
8.550000	-7.677554	-125.120943	-1.523389	-51.013607	-1.523389	-51.013607	-7.663111	-151.781594
8.600000	-7.797867	-127.697116	-1.504396	-53.420964	-1.504396	-53.420964	-7.772790	-153.887004
8.650000	-7.928743	-130.301672	-1.483908	-55.839460	-1.483908	-55.839460	-7.892177	-155.984192
8.700000	-8.070767	-132.936893	-1.461992	-58.269864	-1.461992	-58.269864	-8.021771	-158.072248
8.750000	-8.224584	-135.605271	-1.438723	-60.712938	-1.438723	-60.712938	-8.162121	-160.150023
8.800000	-8.391119	-138.310388	-1.414155	-63.169741	-1.414155	-63.169741	-8.314023	-162.215795
8.850000	-8.570955	-141.054565	-1.388412	-65.640734	-1.388412	-65.640734	-8.477944	-164.268012
8.900000	-8.764957	-143.841180	-1.361592	-68.126634	-1.361592	-68.126634	-8.654600	-166.304513
8.950000	-8.974086	-146.674013	-1.333802	-70.628138	-1.333802	-70.628138	-8.844777	-168.322682
9.000000	-9.199404	-149.557328	-1.305159	-73.145918	-1.305159	-73.145918	-9.049332	-170.319368
9.050000	-9.442094	-152.495975	-1.275785	-75.680621	-1.275785	-75.680621	-9.269208	-172.290784
9.100000	-9.703470	-155.495514	-1.245810	-78.232858	-1.245810	-78.232858	-9.505436	-174.232384
9.150000	-9.985005	-158.562382	-1.215375	-80.803210	-1.215375	-80.803210	-9.759149	-176.138712
9.200000	-10.288063	-161.702157	-1.184630	-83.391775	-1.184630	-83.391775	-10.031339	-178.004377
9.250000	-10.615183	-164.928378	-1.153712	-86.000139	-1.153712	-86.000139	-10.323986	-179.818761
9.300000	-10.968041	-168.249160	-1.122797	-88.628121	-1.122797	-88.628121	-10.638217	178.426280
9.350000	-11.348984	-171.677365	-1.092052	-91.276124	-1.092052	-91.276124	-10.975666	176.742324
9.400000	-11.760666	-175.228702	-1.061651	-93.944497	-1.061651	-93.944497	-11.338109	175.143449
9.450000	-12.206092	-178.922586	-1.031775	-96.633535	-1.031775	-96.633535	-11.727473	173.646849
9.500000	-12.688659	177.216683	-1.002607	-99.343473	-1.002607	-99.343473	-12.145825	172.273642
9.550000	-13.212202	173.158299	-0.974341	-102.074484	-0.974341	-102.074484	-12.595345	171.049906
9.600000	-13.781595	168.844512	-0.947246	-104.828008	-0.947246	-104.828008	-13.078691	170.022037
9.650000	-14.399994	164.268107	-0.921335	-107.600700	-0.921335	-107.600700	-13.596914	169.196310
9.700000	-15.073752	159.301755	-0.897044	-110.396315	-0.897044	-110.396315	-14.152838	168.668673
9.750000	-15.807093	153.919992	-0.874332	-113.211380	-0.874332	-113.211380	-14.747429	168.453359
9.800000	-16.604192	147.941218	-0.853610	-116.048259	-0.853610	-116.048259	-15.380638	168.674287
9.850000	-17.466222	141.215807	-0.835016	-118.905779	-0.835016	-118.905779	-16.050107	169.418043
9.900000	-18.388315	133.515565	-0.818758	-121.783606	-0.818758	-121.783606	-16.749468	170.808869
9.950000	-19.352810	124.543845	-0.805047	-124.681326	-0.805047	-124.681326	-17.465725	172.992367
10.000000	-20.317758	113.948992	-0.794092	-127.598449	-0.794092	-127.598449	-18.175609	176.124878
