! freq	dB(S11)	phase(S11)	dB(S12)	phase(S12)	
!     	dB(S21)	phase(S21)	dB(S22)	phase(S22)	
!S-par simulation data
#  GHz  S  DB  R 50
0.000000	-0.000000	0.000000	-285.929534	0.000000	-285.929534	0.000000	-0.000000	0.000000
0.050000	-0.001061	-1.668940	-107.287774	88.957621	-107.287774	88.957621	-0.000501	-0.810282
0.100000	-0.003616	-3.330035	-101.310717	87.678634	-101.310717	87.678634	-0.001716	-1.616976
0.150000	-0.006600	-4.982084	-97.858644	86.470138	-97.858644	86.470138	-0.003148	-2.419539
0.200000	-0.009404	-6.627660	-95.462415	85.303398	-95.462415	85.303398	-0.004504	-3.219219
0.250000	-0.011932	-8.269952	-93.649773	84.175075	-93.649773	84.175075	-0.005730	-4.017558
0.300000	-0.014212	-9.910198	-92.220143	83.094447	-92.220143	83.094447	-0.006837	-4.815225
0.350000	-0.016321	-11.549072	-91.064858	82.071797	-91.064858	82.071797	-0.007859	-5.612611
0.400000	-0.018325	-13.186736	-90.120830	81.120806	-90.120830	81.120806	-0.008829	-6.409864
0.450000	-0.020269	-14.822967	-89.355366	80.266777	-89.355366	80.266777	-0.009766	-7.206991
0.500000	-0.022189	-16.457666	-88.732853	79.521374	-88.732853	79.521374	-0.010691	-8.003959
0.550000	-0.024101	-18.090575	-88.235174	78.908213	-88.235174	78.908213	-0.011612	-8.800697
0.600000	-0.026014	-19.721425	-87.849942	78.456556	-87.849942	78.456556	-0.012534	-9.597134
0.650000	-0.027933	-21.349947	-87.568777	78.203118	-87.568777	78.203118	-0.013460	-10.393194
0.700000	-0.029860	-22.975886	-87.386185	78.194537	-87.386185	78.194537	-0.014393	-11.188809
0.750000	-0.031796	-24.598809	-87.304421	78.514460	-87.304421	78.514460	-0.015334	-11.983880
0.800000	-0.033740	-26.218472	-87.320507	79.254710	-87.320507	79.254710	-0.016284	-12.778344
0.850000	-0.035691	-27.834720	-87.429309	80.529164	-87.429309	80.529164	-0.017242	-13.572158
0.900000	-0.037647	-29.447609	-87.620410	82.439050	-87.620410	82.439050	-0.018208	-14.365326
0.950000	-0.039606	-31.056755	-87.890170	85.210129	-87.890170	85.210129	-0.019182	-15.157767
1.000000	-0.041566	-32.661979	-88.219480	89.089801	-88.219480	89.089801	-0.020164	-15.949445
1.050000	-0.043526	-34.263306	-88.574365	94.286999	-88.574365	94.286999	-0.021151	-16.740362
1.100000	-0.045483	-35.860166	-88.882364	101.237578	-88.882364	101.237578	-0.022146	-17.530406
1.150000	-0.047436	-37.452645	-89.037550	109.951909	-89.037550	109.951909	-0.023145	-18.319594
1.200000	-0.049384	-39.040612	-88.911312	120.110131	-88.911312	120.110131	-0.024149	-19.107901
1.250000	-0.051324	-40.623944	-88.406972	130.849896	-88.406972	130.849896	-0.025156	-19.895306
1.300000	-0.053256	-42.202424	-87.513298	140.991583	-87.513298	140.991583	-0.026167	-20.681767
1.350000	-0.055178	-43.776048	-86.336144	149.668266	-86.336144	149.668266	-0.027181	-21.467286
1.400000	-0.057089	-45.344719	-85.002674	156.575334	-85.002674	156.575334	-0.028196	-22.251845
1.450000	-0.058989	-46.908348	-83.615903	161.814267	-83.615903	161.814267	-0.029213	-23.035428
1.500000	-0.060877	-48.466853	-82.240365	165.656296	-82.240365	165.656296	-0.030231	-23.818019
1.550000	-0.062754	-50.020157	-80.909959	168.391533	-80.909959	168.391533	-0.031250	-24.599605
1.600000	-0.064617	-51.568190	-79.639520	170.268753	-79.639520	170.268753	-0.032269	-25.380171
1.650000	-0.066469	-53.110889	-78.433421	171.483533	-78.433421	171.483533	-0.033288	-26.159703
1.700000	-0.068307	-54.647662	-77.282714	172.143907	-77.282714	172.143907	-0.034307	-26.938086
1.750000	-0.070135	-56.179457	-76.200376	172.447502	-76.200376	172.447502	-0.035326	-27.715500
1.800000	-0.071950	-57.705759	-75.173857	172.431703	-75.173857	172.431703	-0.036345	-28.491843
1.850000	-0.073755	-59.226524	-74.198702	172.160074	-74.198702	172.160074	-0.037363	-29.267101
1.900000	-0.075549	-60.741717	-73.270618	171.681265	-73.270618	171.681265	-0.038381	-30.041263
1.950000	-0.077334	-62.251305	-72.385628	171.032912	-72.385628	171.032912	-0.039400	-30.814317
2.000000	-0.079109	-63.755261	-71.540123	170.244459	-71.540123	170.244459	-0.040418	-31.586250
2.050000	-0.080876	-65.253562	-70.730860	169.339194	-70.730860	169.339194	-0.041436	-32.357051
2.100000	-0.082636	-66.746190	-69.954939	168.335734	-69.954939	168.335734	-0.042455	-33.126708
2.150000	-0.084389	-68.233133	-69.209776	167.249108	-69.209776	167.249108	-0.043475	-33.895209
2.200000	-0.086137	-69.714381	-68.493061	166.091563	-68.493061	166.091563	-0.044496	-34.662542
2.250000	-0.087880	-71.189929	-67.802733	164.873170	-67.802733	164.873170	-0.045518	-35.428696
2.300000	-0.089619	-72.659777	-67.136946	163.602275	-67.136946	163.602275	-0.046541	-36.193659
2.350000	-0.091356	-74.123930	-66.494041	162.285851	-66.494041	162.285851	-0.047567	-36.957419
2.400000	-0.093092	-75.582395	-65.872527	160.929762	-65.872527	160.929762	-0.048594	-37.719964
2.450000	-0.094827	-77.035185	-65.271056	159.538973	-65.271056	159.538973	-0.049625	-38.481284
2.500000	-0.096562	-78.482316	-64.688409	158.117717	-64.688409	158.117717	-0.050658	-39.241367
2.550000	-0.098300	-79.923563	-64.122654	156.668598	-64.122654	156.668598	-0.051695	-40.000146
2.600000	-0.100040	-81.359197	-63.573706	155.196002	-63.573706	155.196002	-0.052736	-40.757665
2.650000	-0.101783	-82.789246	-63.040632	153.702586	-63.040632	153.702586	-0.053781	-41.513911
2.700000	-0.103531	-84.213741	-62.522579	152.190666	-62.522579	152.190666	-0.054830	-42.268876
2.750000	-0.105285	-85.632719	-62.018767	150.662267	-62.018767	150.662267	-0.055885	-43.022547
2.800000	-0.107046	-87.046217	-61.528475	149.119172	-61.528475	149.119172	-0.056945	-43.774914
2.850000	-0.108814	-88.454278	-61.051042	147.562952	-61.051042	147.562952	-0.058012	-44.525966
2.900000	-0.110590	-89.856947	-60.585856	145.994998	-60.585856	145.994998	-0.059084	-45.275695
2.950000	-0.112377	-91.254272	-60.132349	144.416548	-60.132349	144.416548	-0.060164	-46.024089
3.000000	-0.114173	-92.646305	-59.689997	142.828704	-59.689997	142.828704	-0.061250	-46.771138
3.050000	-0.115981	-94.033100	-59.258311	141.232451	-59.258311	141.232451	-0.062345	-47.516834
3.100000	-0.117800	-95.414716	-58.836837	139.628675	-58.836837	139.628675	-0.063447	-48.261167
3.150000	-0.119633	-96.791213	-58.425149	138.018171	-58.425149	138.018171	-0.064558	-49.004129
3.200000	-0.121480	-98.162654	-58.022853	136.401658	-58.022853	136.401658	-0.065677	-49.745709
3.250000	-0.123341	-99.529104	-57.629576	134.779784	-57.629576	134.779784	-0.066807	-50.485900
3.300000	-0.125217	-100.890633	-57.244970	133.153141	-57.244970	133.153141	-0.067945	-51.224694
3.350000	-0.127110	-102.247311	-56.868709	131.522263	-56.868709	131.522263	-0.069094	-51.962083
3.400000	-0.129020	-103.599211	-56.500486	129.887640	-56.500486	129.887640	-0.070254	-52.698059
3.450000	-0.130947	-104.946410	-56.140010	128.249718	-56.140010	128.249718	-0.071425	-53.432615
3.500000	-0.132893	-106.288986	-55.787010	126.608906	-55.787010	126.608906	-0.072607	-54.165744
3.550000	-0.134858	-107.627018	-55.441228	124.965580	-55.441228	124.965580	-0.073800	-54.897439
3.600000	-0.136843	-108.960590	-55.102419	123.320085	-55.102419	123.320085	-0.075007	-55.627694
3.650000	-0.138848	-110.289785	-54.770354	121.672740	-54.770354	121.672740	-0.076225	-56.356503
3.700000	-0.140874	-111.614690	-54.444814	120.023840	-54.444814	120.023840	-0.077457	-57.083861
3.750000	-0.142923	-112.935393	-54.125591	118.373656	-54.125591	118.373656	-0.078702	-57.809761
3.800000	-0.144995	-114.251810	-53.812265	116.722406	-53.812265	116.722406	-0.079962	-58.534136
3.850000	-0.147090	-115.564215	-53.504893	115.070380	-53.504893	115.070380	-0.081236	-59.257043
3.900000	-0.149209	-116.872703	-53.203295	113.417793	-53.203295	113.417793	-0.082525	-59.978480
3.950000	-0.151352	-118.177369	-52.907300	111.764845	-52.907300	111.764845	-0.083828	-60.698441
4.000000	-0.153520	-119.478309	-52.616744	110.111726	-52.616744	110.111726	-0.085147	-61.416924
4.050000	-0.155713	-120.775622	-52.331472	108.458611	-52.331472	108.458611	-0.086483	-62.133925
4.100000	-0.157933	-122.069407	-52.051335	106.805663	-52.051335	106.805663	-0.087834	-62.849441
4.150000	-0.160179	-123.359767	-51.776189	105.153037	-51.776189	105.153037	-0.089202	-63.563470
4.200000	-0.162452	-124.646803	-51.505900	103.500877	-51.505900	103.500877	-0.090587	-64.276010
4.250000	-0.164753	-125.930618	-51.240336	101.849317	-51.240336	101.849317	-0.091989	-64.987058
4.300000	-0.167082	-127.211319	-50.979372	100.198485	-50.979372	100.198485	-0.093410	-65.696615
4.350000	-0.169439	-128.489010	-50.722889	98.548501	-50.722889	98.548501	-0.094848	-66.404678
4.400000	-0.171826	-129.763800	-50.470771	96.899475	-50.470771	96.899475	-0.096305	-67.111246
4.450000	-0.174242	-131.035796	-50.222908	95.251512	-50.222908	95.251512	-0.097781	-67.816320
4.500000	-0.176687	-132.305107	-49.979193	93.604713	-49.979193	93.604713	-0.099277	-68.519900
4.550000	-0.179163	-133.571845	-49.739524	91.959168	-49.739524	91.959168	-0.100792	-69.221985
4.600000	-0.181670	-134.836119	-49.503803	90.314966	-49.503803	90.314966	-0.102327	-69.922577
4.650000	-0.184207	-136.098042	-49.271935	88.672187	-49.271935	88.672187	-0.103883	-70.621676
4.700000	-0.186776	-137.357726	-49.043828	87.030910	-49.043828	87.030910	-0.105460	-71.319285
4.750000	-0.189377	-138.615287	-48.819395	85.391205	-48.819395	85.391205	-0.107058	-72.015404
4.800000	-0.192010	-139.870837	-48.598552	83.753141	-48.598552	83.753141	-0.108678	-72.710036
4.850000	-0.194675	-141.124492	-48.381215	82.116780	-48.381215	82.116780	-0.110320	-73.403184
4.900000	-0.197372	-142.376368	-48.167307	80.482183	-48.167307	80.482183	-0.111984	-74.094849
4.950000	-0.200103	-143.626582	-47.956752	78.849403	-47.956752	78.849403	-0.113671	-74.785036
5.000000	-0.202866	-144.875250	-47.749475	77.218493	-47.749475	77.218493	-0.115382	-75.473747
5.050000	-0.205665	-146.122435	-47.545338	75.589586	-47.545338	75.589586	-0.117117	-76.160924
5.100000	-0.208497	-147.368322	-47.344347	73.962646	-47.344347	73.962646	-0.118876	-76.846633
5.150000	-0.211362	-148.613030	-47.146436	72.337715	-47.146436	72.337715	-0.120660	-77.530879
5.200000	-0.214262	-149.856679	-46.951541	70.714831	-46.951541	70.714831	-0.122468	-78.213668
5.250000	-0.217196	-151.099388	-46.759600	69.094031	-46.759600	69.094031	-0.124302	-78.895005
5.300000	-0.220164	-152.341279	-46.570552	67.475347	-46.570552	67.475347	-0.126161	-79.574894
5.350000	-0.223166	-153.582473	-46.384341	65.858812	-46.384341	65.858812	-0.128047	-80.253342
5.400000	-0.226202	-154.823091	-46.200910	64.244453	-46.200910	64.244453	-0.129959	-80.930355
5.450000	-0.229273	-156.063255	-46.020206	62.632300	-46.020206	62.632300	-0.131897	-81.605939
5.500000	-0.232379	-157.303087	-45.842176	61.022376	-45.842176	61.022376	-0.133863	-82.280101
5.550000	-0.235519	-158.542710	-45.666771	59.414706	-45.666771	59.414706	-0.135857	-82.952849
5.600000	-0.238694	-159.782248	-45.493941	57.809313	-45.493941	57.809313	-0.137878	-83.624189
5.650000	-0.241903	-161.021823	-45.323642	56.206218	-45.323642	56.206218	-0.139928	-84.294128
5.700000	-0.245146	-162.261560	-45.155826	54.605441	-45.155826	54.605441	-0.142007	-84.962676
5.750000	-0.248424	-163.501581	-44.990451	53.007001	-44.990451	53.007001	-0.144115	-85.629841
5.800000	-0.251736	-164.742012	-44.827476	51.410918	-44.827476	51.410918	-0.146252	-86.295630
5.850000	-0.255082	-165.982977	-44.666859	49.817210	-44.666859	49.817210	-0.148420	-86.960052
5.900000	-0.258462	-167.224601	-44.508563	48.225896	-44.508563	48.225896	-0.150618	-87.623118
5.950000	-0.261876	-168.467008	-44.352550	46.636993	-44.352550	46.636993	-0.152847	-88.284836
6.000000	-0.265324	-169.710324	-44.198784	45.050521	-44.198784	45.050521	-0.155106	-88.945216
6.050000	-0.268805	-170.954673	-44.047231	43.466498	-44.047231	43.466498	-0.157398	-89.604268
6.100000	-0.272319	-172.200181	-43.897857	41.884943	-43.897857	41.884943	-0.159722	-90.262003
6.150000	-0.275866	-173.446973	-43.750631	40.305879	-43.750631	40.305879	-0.162078	-90.918430
6.200000	-0.279446	-174.695175	-43.605522	38.729325	-43.605522	38.729325	-0.164466	-91.573562
6.250000	-0.283058	-175.944912	-43.462501	37.155305	-43.462501	37.155305	-0.166888	-92.227408
6.300000	-0.286703	-177.196387	-43.321531	35.583955	-43.321531	35.583955	-0.169346	-92.879926
6.350000	-0.290380	-178.449660	-43.182597	34.015192	-43.182597	34.015192	-0.171837	-93.531183
6.400000	-0.294088	-179.704855	-43.045673	32.449044	-43.045673	32.449044	-0.174363	-94.181191
6.450000	-0.297827	179.037903	-42.910735	30.885541	-42.910735	30.885541	-0.176923	-94.829962
6.500000	-0.301597	177.778487	-42.777759	29.324716	-42.777759	29.324716	-0.179519	-95.477510
6.550000	-0.305396	176.516775	-42.646722	27.766605	-42.646722	27.766605	-0.182151	-96.123846
6.600000	-0.309224	175.252640	-42.517602	26.211245	-42.517602	26.211245	-0.184819	-96.768985
6.650000	-0.313082	173.985959	-42.390379	24.658679	-42.390379	24.658679	-0.187524	-97.412938
6.700000	-0.316968	172.716608	-42.265033	23.108949	-42.265033	23.108949	-0.190265	-98.055721
6.750000	-0.320882	171.444464	-42.141544	21.562104	-42.141544	21.562104	-0.193044	-98.697346
6.800000	-0.324823	170.169402	-42.019894	20.018195	-42.019894	20.018195	-0.195861	-99.337828
6.850000	-0.328792	168.891302	-41.900066	18.477276	-41.900066	18.477276	-0.198715	-99.977181
6.900000	-0.332786	167.610040	-41.782043	16.939408	-41.782043	16.939408	-0.201609	-100.615421
6.950000	-0.336806	166.325495	-41.665808	15.404651	-41.665808	15.404651	-0.204542	-101.252561
7.000000	-0.340850	165.037547	-41.551347	13.873073	-41.551347	13.873073	-0.207514	-101.888618
7.050000	-0.344919	163.746075	-41.438644	12.344746	-41.438644	12.344746	-0.210526	-102.523606
7.100000	-0.349012	162.450961	-41.327684	10.819744	-41.327684	10.819744	-0.213578	-103.157542
7.150000	-0.353127	161.152086	-41.218455	9.298147	-41.218455	9.298147	-0.216672	-103.790441
7.200000	-0.357265	159.849332	-41.110942	7.780041	-41.110942	7.780041	-0.219806	-104.422319
7.250000	-0.361424	158.542584	-41.005132	6.265515	-41.005132	6.265515	-0.222982	-105.053194
7.300000	-0.365604	157.231726	-40.901012	4.754661	-40.901012	4.754661	-0.226200	-105.683081
7.350000	-0.369804	155.916645	-40.798571	3.247580	-40.798571	3.247580	-0.229461	-106.311998
7.400000	-0.374024	154.597228	-40.697795	1.744375	-40.697795	1.744375	-0.232764	-106.939963
7.450000	-0.378262	153.273364	-40.598673	0.245154	-40.598673	0.245154	-0.236111	-107.566992
7.500000	-0.382518	151.944944	-40.501193	-1.249969	-40.501193	-1.249969	-0.239502	-108.193104
7.550000	-0.386792	150.611651	-40.405368	-2.740688	-40.405368	-2.740688	-0.242938	-108.818278
7.600000	-0.391082	149.273578	-40.311163	-4.227056	-40.311163	-4.227056	-0.246420	-109.442573
7.650000	-0.395387	147.930621	-40.218567	-5.708944	-40.218567	-5.708944	-0.249946	-110.066007
7.700000	-0.399708	146.582677	-40.127567	-7.186221	-40.127567	-7.186221	-0.253518	-110.688600
7.750000	-0.404042	145.229648	-40.038152	-8.658748	-40.038152	-8.658748	-0.257136	-111.310370
7.800000	-0.408390	143.871434	-39.950310	-10.126381	-39.950310	-10.126381	-0.260801	-111.931337
7.850000	-0.412750	142.507943	-39.864027	-11.588976	-39.864027	-11.588976	-0.264512	-112.551521
7.900000	-0.417122	141.139079	-39.779292	-13.046379	-39.779292	-13.046379	-0.268271	-113.170942
7.950000	-0.421506	139.764754	-39.696091	-14.498437	-39.696091	-14.498437	-0.272077	-113.789620
8.000000	-0.425899	138.384881	-39.614412	-15.944988	-39.614412	-15.944988	-0.275932	-114.407576
8.050000	-0.430303	136.999375	-39.534241	-17.385870	-39.534241	-17.385870	-0.279835	-115.024830
8.100000	-0.434716	135.608156	-39.455564	-18.820915	-39.455564	-18.820915	-0.283788	-115.641404
8.150000	-0.439137	134.211145	-39.378368	-20.249953	-39.378368	-20.249953	-0.287790	-116.257320
8.200000	-0.443566	132.808269	-39.302636	-21.672810	-39.302636	-21.672810	-0.291842	-116.872598
8.250000	-0.448003	131.399458	-39.228355	-23.089307	-39.228355	-23.089307	-0.295944	-117.487262
8.300000	-0.452447	129.984644	-39.155509	-24.499265	-39.155509	-24.499265	-0.300098	-118.101333
8.350000	-0.456897	128.563764	-39.084081	-25.902501	-39.084081	-25.902501	-0.304303	-118.714835
8.400000	-0.461353	127.136762	-39.014055	-27.298828	-39.014055	-27.298828	-0.308560	-119.327789
8.450000	-0.465814	125.703581	-38.945415	-28.688061	-38.945415	-28.688061	-0.312869	-119.940220
8.500000	-0.470281	124.264173	-38.878141	-30.070007	-38.878141	-30.070007	-0.317231	-120.552151
8.550000	-0.474752	122.818494	-38.812216	-31.444476	-38.812216	-31.444476	-0.321647	-121.163605
8.600000	-0.479228	121.366502	-38.747622	-32.811275	-38.747622	-32.811275	-0.326116	-121.774608
8.650000	-0.483709	119.908164	-38.684339	-34.170209	-38.684339	-34.170209	-0.330640	-122.385184
8.700000	-0.488194	118.443450	-38.622347	-35.521081	-38.622347	-35.521081	-0.335218	-122.995358
8.750000	-0.492683	116.972336	-38.561625	-36.863697	-38.561625	-36.863697	-0.339852	-123.605154
8.800000	-0.497176	115.494525	-38.502189	-38.197480	-38.502189	-38.197480	-0.344544	-124.214585
8.850000	-0.501674	114.010282	-38.443981	-39.522594	-38.443981	-39.522594	-0.349292	-124.823693
8.900000	-0.506176	112.519604	-38.386977	-40.838840	-38.386977	-40.838840	-0.354097	-125.432505
8.950000	-0.510683	111.022491	-38.331157	-42.146021	-38.331157	-42.146021	-0.358960	-126.041046
9.000000	-0.515195	109.518951	-38.276495	-43.443939	-38.276495	-43.443939	-0.363880	-126.649345
9.050000	-0.519712	108.008998	-38.222969	-44.732398	-38.222969	-44.732398	-0.368859	-127.257428
9.100000	-0.524235	106.492653	-38.170555	-46.011201	-38.170555	-46.011201	-0.373896	-127.865324
9.150000	-0.528765	104.969944	-38.119227	-47.280153	-38.119227	-47.280153	-0.378993	-128.473061
9.200000	-0.533302	103.440908	-38.068961	-48.539060	-38.068961	-48.539060	-0.384150	-129.080668
9.250000	-0.537847	101.905586	-38.019731	-49.787729	-38.019731	-49.787729	-0.389368	-129.688173
9.300000	-0.542401	100.364030	-37.971512	-51.025968	-37.971512	-51.025968	-0.394647	-130.295606
9.350000	-0.546964	98.816297	-37.924278	-52.253587	-37.924278	-52.253587	-0.399987	-130.902998
9.400000	-0.551539	97.262453	-37.878002	-53.470398	-37.878002	-53.470398	-0.405389	-131.510378
9.450000	-0.556125	95.702573	-37.832658	-54.676212	-37.832658	-54.676212	-0.410855	-132.117777
9.500000	-0.560726	94.136738	-37.788219	-55.870846	-37.788219	-55.870846	-0.416384	-132.725227
9.550000	-0.565340	92.565039	-37.744658	-57.054114	-37.744658	-57.054114	-0.421976	-133.332759
9.600000	-0.569972	90.987574	-37.701949	-58.225837	-37.701949	-58.225837	-0.427633	-133.940406
9.650000	-0.574621	89.404449	-37.660065	-59.385834	-37.660065	-59.385834	-0.433356	-134.548199
9.700000	-0.579290	87.815782	-37.618978	-60.533927	-37.618978	-60.533927	-0.439144	-135.156174
9.750000	-0.583980	86.221694	-37.578661	-61.669941	-37.578661	-61.669941	-0.444998	-135.764362
9.800000	-0.588694	84.622319	-37.539089	-62.793702	-37.539089	-62.793702	-0.450920	-136.372798
9.850000	-0.593434	83.017797	-37.500233	-63.905038	-37.500233	-63.905038	-0.456909	-136.981518
9.900000	-0.598201	81.408278	-37.462067	-65.003779	-37.462067	-65.003779	-0.462967	-137.590556
9.950000	-0.602999	79.793920	-37.424566	-66.089758	-37.424566	-66.089758	-0.469094	-138.199947
10.000000	-0.607829	78.174889	-37.387702	-67.162808	-37.387702	-67.162808	-0.475290	-138.809730
