! freq	dB(S11)	phase(S11)	dB(S12)	phase(S12)	
!     	dB(S21)	phase(S21)	dB(S22)	phase(S22)	
!S-par simulation data
#  GHz  S  DB  R 50
0.000000	-0.000000	0.000000	-377.785625	180.000000	-377.785625	180.000000	-0.000000	0.000000
0.050000	-0.000100	-0.764864	-116.641039	84.253379	-116.641039	84.253379	-0.000106	-0.803311
0.100000	-0.000398	-1.529479	-111.249121	82.554013	-111.249121	82.554013	-0.000419	-1.606359
0.150000	-0.000878	-2.293618	-108.165469	82.466201	-108.165469	82.466201	-0.000925	-2.408901
0.200000	-0.001520	-3.057097	-105.987546	82.616785	-105.987546	82.616785	-0.001602	-3.210743
0.250000	-0.002311	-3.819712	-104.336394	82.711835	-104.336394	82.711835	-0.002435	-4.011668
0.300000	-0.003210	-4.581438	-103.037905	82.750240	-103.037905	82.750240	-0.003383	-4.811647
0.350000	-0.004199	-5.342180	-102.007271	82.774202	-102.007271	82.774202	-0.004426	-5.610579
0.400000	-0.005256	-6.101910	-101.191718	82.837694	-101.191718	82.837694	-0.005540	-6.408434
0.450000	-0.006359	-6.860631	-100.558146	82.996982	-100.558146	82.996982	-0.006703	-7.205213
0.500000	-0.007491	-7.618366	-100.085519	83.313304	-100.085519	83.313304	-0.007896	-8.000937
0.550000	-0.008638	-8.375148	-99.760817	83.858624	-99.760817	83.858624	-0.009105	-8.795641
0.600000	-0.009790	-9.131019	-99.576624	84.723555	-99.576624	84.723555	-0.010319	-9.589367
0.650000	-0.010938	-9.886022	-99.529373	86.028358	-99.529373	86.028358	-0.011529	-10.382159
0.700000	-0.012078	-10.640195	-99.617526	87.938747	-99.617526	87.938747	-0.012730	-11.174056
0.750000	-0.013205	-11.393575	-99.838689	90.688395	-99.838689	90.688395	-0.013918	-11.965095
0.800000	-0.014317	-12.146191	-100.183869	94.608000	-100.183869	94.608000	-0.015090	-12.755306
0.850000	-0.015414	-12.898068	-100.625593	100.150357	-100.625593	100.150357	-0.016246	-13.544712
0.900000	-0.016496	-13.649222	-101.095326	107.866950	-101.095326	107.866950	-0.017386	-14.333331
0.950000	-0.017562	-14.399667	-101.451648	118.223584	-101.451648	118.223584	-0.018509	-15.121174
1.000000	-0.018615	-15.149408	-101.470847	131.131603	-101.470847	131.131603	-0.019618	-15.908248
1.050000	-0.019655	-15.898450	-100.933476	145.399050	-100.933476	145.399050	-0.020713	-16.694554
1.100000	-0.020682	-16.646789	-99.799089	158.937033	-99.799089	158.937033	-0.021796	-17.480089
1.150000	-0.021700	-17.394423	-98.249578	170.076067	-98.249578	170.076067	-0.022867	-18.264849
1.200000	-0.022707	-18.141344	-96.524067	178.410228	-96.524067	178.410228	-0.023928	-19.048823
1.250000	-0.023707	-18.887543	-94.785873	-175.646523	-94.785873	-175.646523	-0.024980	-19.832002
1.300000	-0.024698	-19.632976	-93.104837	-171.556801	-93.104837	-171.556801	-0.026024	-20.614336
1.350000	-0.025684	-20.377662	-91.521935	-168.735369	-91.521935	-168.735369	-0.027061	-21.395846
1.400000	-0.026664	-21.121587	-90.040354	-166.834626	-90.040354	-166.834626	-0.028092	-22.176516
1.450000	-0.027640	-21.864738	-88.654397	-165.610793	-88.654397	-165.610793	-0.029119	-22.956331
1.500000	-0.028611	-22.607098	-87.355462	-164.893254	-87.355462	-164.893254	-0.030141	-23.735274
1.550000	-0.029580	-23.348653	-86.134580	-164.561373	-86.134580	-164.561373	-0.031160	-24.513327
1.600000	-0.030546	-24.089387	-84.983387	-164.528531	-84.983387	-164.528531	-0.032176	-25.290473
1.650000	-0.031509	-24.829284	-83.894438	-164.731450	-83.894438	-164.731450	-0.033189	-26.066694
1.700000	-0.032471	-25.568023	-82.837889	-165.172301	-82.837889	-165.172301	-0.034200	-26.841637
1.750000	-0.033432	-26.306312	-81.865134	-165.698658	-81.865134	-165.698658	-0.035211	-27.616082
1.800000	-0.034393	-27.043515	-80.923293	-166.367794	-80.923293	-166.367794	-0.036221	-28.389329
1.850000	-0.035352	-27.779944	-80.030452	-167.138914	-80.030452	-167.138914	-0.037229	-29.161720
1.900000	-0.036312	-28.515408	-79.171907	-167.994712	-79.171907	-167.994712	-0.038238	-29.933046
1.950000	-0.037272	-29.249907	-78.346109	-168.935187	-78.346109	-168.935187	-0.039247	-30.703307
2.000000	-0.038233	-29.983574	-77.556800	-169.926416	-77.556800	-169.926416	-0.040257	-31.472650
2.050000	-0.039195	-30.716076	-76.788082	-170.988700	-76.788082	-170.988700	-0.041267	-32.240708
2.100000	-0.040157	-31.447892	-76.057271	-172.081118	-76.057271	-172.081118	-0.042279	-33.008008
2.150000	-0.041122	-32.178332	-75.337805	-173.233804	-75.337805	-173.233804	-0.043292	-33.773791
2.200000	-0.042088	-32.908240	-74.657120	-174.403698	-74.657120	-174.403698	-0.044307	-34.538989
2.250000	-0.043057	-33.636555	-73.980661	-175.625220	-73.980661	-175.625220	-0.045325	-35.302430
2.300000	-0.044027	-34.364505	-73.343457	-176.855664	-73.343457	-176.855664	-0.046344	-36.065469
2.350000	-0.045001	-35.090631	-72.704939	-178.130718	-72.704939	-178.130718	-0.047367	-36.826501
2.400000	-0.045976	-35.816571	-72.105853	-179.409302	-72.105853	-179.409302	-0.048391	-37.587327
2.450000	-0.046958	-36.540451	-71.501111	179.273281	-71.501111	179.273281	-0.049422	-38.345887
2.500000	-0.047939	-37.264331	-70.935748	177.955863	-70.935748	177.955863	-0.050453	-39.104446
2.550000	-0.048929	-37.985907	-70.361313	176.604431	-70.361313	176.604431	-0.051493	-39.860473
2.600000	-0.049919	-38.707483	-69.822523	175.252999	-69.822523	175.252999	-0.052532	-40.616500
2.650000	-0.050917	-39.426897	-69.278971	173.876231	-69.278971	173.876231	-0.053581	-41.370153
2.700000	-0.051917	-40.146115	-68.764341	172.497160	-68.764341	172.497160	-0.054631	-42.123590
2.750000	-0.052925	-40.863324	-68.248531	171.099186	-68.248531	171.099186	-0.055690	-42.874823
2.800000	-0.053936	-41.580131	-67.755987	169.697432	-67.755987	169.697432	-0.056752	-43.625615
2.850000	-0.054956	-42.295092	-67.265251	168.281606	-67.265251	168.281606	-0.057823	-44.374385
2.900000	-0.055979	-43.009438	-66.792996	166.861088	-66.792996	166.861088	-0.058898	-45.122481
2.950000	-0.057011	-43.722112	-66.325046	165.430156	-66.325046	165.430156	-0.059983	-45.868747
3.000000	-0.058048	-44.433950	-65.871512	163.994017	-65.871512	163.994017	-0.061072	-46.614098
3.050000	-0.059094	-45.144300	-65.424370	162.550254	-65.424370	162.550254	-0.062171	-47.357821
3.100000	-0.060147	-45.853585	-64.988178	161.101046	-64.988178	161.101046	-0.063277	-48.100382
3.150000	-0.061208	-46.561574	-64.560121	159.646352	-64.560121	159.646352	-0.064393	-48.841527
3.200000	-0.062277	-47.268264	-64.140049	158.186172	-64.140049	158.186172	-0.065517	-49.581255
3.250000	-0.063355	-47.973858	-63.729569	156.722146	-63.729569	156.722146	-0.066649	-50.319787
3.300000	-0.064443	-48.677915	-63.324531	155.252736	-63.324531	155.252736	-0.067793	-51.056645
3.350000	-0.065538	-49.381082	-62.930295	153.780735	-62.930295	153.780735	-0.068945	-51.792533
3.400000	-0.066646	-50.082468	-62.539317	152.303554	-62.539317	152.303554	-0.070110	-52.526483
3.450000	-0.067760	-50.783178	-62.160144	150.824738	-62.160144	150.824738	-0.071282	-53.259698
3.500000	-0.068890	-51.481859	-61.782353	149.341019	-61.782353	149.341019	-0.072471	-53.990709
3.550000	-0.070024	-52.180085	-61.417190	147.856385	-61.417190	147.856385	-0.073664	-54.721225
3.600000	-0.071177	-52.876031	-61.051794	146.367179	-61.051794	146.367179	-0.074877	-55.449267
3.650000	-0.072333	-53.571747	-60.699700	144.877590	-60.699700	144.877590	-0.076093	-56.177060
3.700000	-0.073512	-54.264929	-60.345983	143.383796	-60.345983	143.383796	-0.077334	-56.902108
3.750000	-0.074690	-54.958111	-60.006108	141.890003	-60.006108	141.890003	-0.078574	-57.627156
3.800000	-0.075895	-55.648503	-59.663416	140.392399	-59.663416	140.392399	-0.079843	-58.349188
3.850000	-0.077100	-56.338896	-59.333734	138.894795	-59.333734	138.894795	-0.081112	-59.071219
3.900000	-0.078331	-57.026711	-59.002734	137.394318	-59.002734	137.394318	-0.082409	-59.790468
3.950000	-0.079564	-57.714291	-58.682715	135.893578	-58.682715	135.893578	-0.083708	-60.509464
4.000000	-0.080822	-58.399512	-58.362695	134.390716	-58.362695	134.390716	-0.085033	-61.225917
4.050000	-0.082086	-59.084261	-58.051853	132.887430	-58.051853	132.887430	-0.086364	-61.941862
4.100000	-0.083372	-59.766873	-57.742165	131.382619	-57.742165	131.382619	-0.087720	-62.655508
4.150000	-0.084667	-60.448773	-57.440054	129.877300	-57.440054	129.877300	-0.089085	-63.368389
4.200000	-0.085984	-61.128765	-57.140107	128.370930	-57.140107	128.370930	-0.090473	-64.079222
4.250000	-0.087311	-61.807802	-56.846311	126.864033	-56.846311	126.864033	-0.091872	-64.789030
4.300000	-0.088659	-62.485163	-56.555565	125.356450	-56.555565	125.356450	-0.093294	-65.497042
4.350000	-0.090022	-63.161326	-56.269701	123.848377	-56.269701	123.848377	-0.094731	-66.203772
4.400000	-0.091403	-63.836048	-55.987660	122.339894	-55.987660	122.339894	-0.096187	-66.908961
4.450000	-0.092802	-64.509329	-55.709371	120.831000	-55.709371	120.831000	-0.097663	-67.612610
4.500000	-0.094216	-65.181406	-55.435579	119.321897	-55.435579	119.321897	-0.099156	-68.314975
4.550000	-0.095653	-65.851799	-55.164534	117.812500	-55.164534	117.812500	-0.100672	-69.015543
4.600000	-0.097104	-66.521228	-54.898572	116.303030	-54.898572	116.303030	-0.102203	-69.715086
4.650000	-0.098580	-67.188729	-54.634459	114.793414	-54.634459	114.793414	-0.103762	-70.412578
4.700000	-0.100068	-67.855508	-54.375938	113.283807	-54.375938	113.283807	-0.105332	-71.109303
4.750000	-0.101586	-68.520118	-54.118471	111.774225	-54.118471	111.774225	-0.106934	-71.803726
4.800000	-0.103111	-69.184246	-53.867032	110.264688	-53.867032	110.264688	-0.108545	-72.497638
4.850000	-0.104672	-69.845967	-53.615939	108.755372	-53.615939	108.755372	-0.110194	-73.189002
4.900000	-0.106238	-70.507448	-53.371248	107.246094	-53.371248	107.246094	-0.111847	-73.880111
4.950000	-0.107844	-71.166284	-53.126275	105.737249	-53.126275	105.737249	-0.113543	-74.568428
5.000000	-0.109450	-71.825121	-52.888022	104.228404	-52.888022	104.228404	-0.115240	-75.256745
5.050000	-0.111102	-72.481082	-52.648932	102.720218	-52.648932	102.720218	-0.116985	-75.942032
5.100000	-0.112755	-73.137042	-52.416248	101.212032	-52.416248	101.212032	-0.118732	-76.627319
5.150000	-0.114451	-73.790375	-52.183399	99.704608	-52.183399	99.704608	-0.120524	-77.309846
5.200000	-0.116152	-74.443469	-51.956077	98.197252	-51.956077	98.197252	-0.122321	-77.992121
5.250000	-0.117894	-75.094185	-51.729194	96.690718	-51.729194	96.690718	-0.124162	-78.671906
5.300000	-0.119645	-75.744425	-51.507043	95.184349	-51.507043	95.184349	-0.126013	-79.351192
5.350000	-0.121434	-76.392536	-51.285870	93.678827	-51.285870	93.678827	-0.127903	-80.028254
5.400000	-0.123236	-77.039938	-51.068706	92.173588	-51.068706	92.173588	-0.129808	-80.704576
5.450000	-0.125073	-77.685458	-50.853002	90.669189	-50.853002	90.669189	-0.131751	-81.378938
5.500000	-0.126929	-78.330038	-50.640653	89.165211	-50.640653	89.165211	-0.133712	-82.052322
5.550000	-0.128816	-78.972984	-50.430194	87.662039	-50.430194	87.662039	-0.135707	-82.724009
5.600000	-0.130726	-79.614763	-50.222497	86.159444	-50.222497	86.159444	-0.137726	-83.394485
5.650000	-0.132665	-80.255151	-50.017071	84.657597	-50.017071	84.657597	-0.139776	-84.063524
5.700000	-0.134631	-80.894150	-49.813871	83.156497	-49.813871	83.156497	-0.141855	-84.731124
5.750000	-0.136623	-81.532001	-49.613281	81.656065	-49.613281	81.656065	-0.143960	-85.397541
5.800000	-0.138648	-82.168244	-49.414432	80.156566	-49.414432	80.156566	-0.146101	-86.062302
5.850000	-0.140693	-82.803577	-49.218490	78.657633	-49.218490	78.657633	-0.148264	-86.726128
5.900000	-0.142778	-83.437091	-49.023852	77.159833	-49.023852	77.159833	-0.150469	-87.388085
5.950000	-0.144879	-84.069930	-48.832383	75.662480	-48.832383	75.662480	-0.152690	-88.049352
6.000000	-0.147025	-84.700743	-48.641824	74.166469	-48.641824	74.166469	-0.154960	-88.708547
6.050000	-0.149183	-85.331111	-48.454663	72.670771	-48.454663	72.670771	-0.157241	-89.367288
6.100000	-0.151393	-85.959254	-48.268056	71.176636	-48.268056	71.176636	-0.159578	-90.023762
6.150000	-0.153609	-86.587177	-48.085045	69.682664	-48.085045	69.682664	-0.161921	-90.680013
6.200000	-0.155884	-87.212682	-47.902271	68.190484	-47.902271	68.190484	-0.164326	-91.333810
6.250000	-0.158160	-87.838187	-47.723263	66.698305	-47.723263	66.698305	-0.166732	-91.987608
6.300000	-0.160502	-88.461089	-47.544205	65.208157	-47.544205	65.208157	-0.169208	-92.638776
6.350000	-0.162844	-89.083990	-47.368765	63.718009	-47.368765	63.718009	-0.171685	-93.289943
6.400000	-0.165249	-89.704538	-47.193610	62.229787	-47.193610	62.229787	-0.174227	-93.938745
6.450000	-0.167660	-90.324873	-47.021634	60.741741	-47.021634	60.741741	-0.176776	-94.587332
6.500000	-0.170129	-90.943099	-46.850248	59.255502	-46.850248	59.255502	-0.179386	-95.233811
6.550000	-0.172610	-91.560905	-46.681638	57.769624	-46.681638	57.769624	-0.182009	-95.879867
6.600000	-0.175144	-92.176843	-46.513890	56.285418	-46.513890	56.285418	-0.184688	-96.524066
6.650000	-0.177697	-92.792159	-46.348553	54.801769	-46.348553	54.801769	-0.187386	-97.167646
6.700000	-0.180299	-93.405843	-46.184323	53.319646	-46.184323	53.319646	-0.190136	-97.809610
6.750000	-0.182925	-94.018712	-46.022167	51.838284	-46.022167	51.838284	-0.192912	-98.450767
6.800000	-0.185595	-94.630178	-45.861338	50.358288	-45.861338	50.358288	-0.195734	-99.090545
6.850000	-0.188296	-95.240642	-45.702278	48.879266	-45.702278	48.879266	-0.198588	-99.729336
6.900000	-0.191036	-95.849927	-45.544738	47.401438	-45.544738	47.401438	-0.201483	-100.366975
6.950000	-0.193814	-96.458033	-45.388689	45.924805	-45.388689	45.924805	-0.204419	-101.003460
7.000000	-0.196625	-97.065175	-45.234334	44.449184	-45.234334	44.449184	-0.207389	-101.639009
7.050000	-0.199481	-97.670967	-45.081216	42.974981	-45.081216	42.974981	-0.210406	-102.273247
7.100000	-0.202364	-98.276006	-44.929945	41.501601	-44.929945	41.501601	-0.213452	-102.906758
7.150000	-0.205300	-98.879534	-44.779681	40.029867	-44.779681	40.029867	-0.216554	-103.538813
7.200000	-0.208257	-99.482509	-44.631397	38.558758	-44.631397	38.558758	-0.219677	-104.170338
7.250000	-0.211275	-100.083824	-44.483911	37.089526	-44.483911	37.089526	-0.222865	-104.800273
7.300000	-0.214307	-100.684778	-44.338523	35.620714	-44.338523	35.620714	-0.226067	-105.429866
7.350000	-0.217408	-101.283929	-44.193742	34.154010	-44.193742	34.154010	-0.229341	-106.057747
7.400000	-0.220516	-101.882904	-44.051163	32.687519	-44.051163	32.687519	-0.232624	-106.685463
7.450000	-0.223701	-102.479945	-43.909018	31.223364	-43.909018	31.223364	-0.235987	-107.311358
7.500000	-0.226888	-103.076986	-43.769162	29.759209	-43.769162	29.759209	-0.239351	-107.937253
7.550000	-0.230159	-103.671971	-43.629585	28.297617	-43.629585	28.297617	-0.242804	-108.561231
7.600000	-0.233431	-104.266955	-43.492216	26.836025	-43.492216	26.836025	-0.246258	-109.185209
7.650000	-0.236782	-104.860107	-43.355298	25.376790	-43.355298	25.376790	-0.249795	-109.807495
7.700000	-0.240142	-105.453091	-43.220353	23.917768	-43.220353	23.917768	-0.253341	-110.429627
7.750000	-0.243575	-106.044456	-43.086015	22.460889	-43.086015	22.460889	-0.256964	-111.050281
7.800000	-0.247024	-106.635497	-42.953436	21.004438	-42.953436	21.004438	-0.260603	-111.670640
7.850000	-0.250540	-107.225125	-42.821603	19.549908	-42.821603	19.549908	-0.264312	-112.289724
7.900000	-0.254079	-107.814281	-42.691331	18.096019	-42.691331	18.096019	-0.268046	-112.908383
7.950000	-0.257679	-108.402221	-42.561930	16.643828	-42.561930	16.643828	-0.271843	-113.525960
8.000000	-0.261310	-108.989552	-42.433910	15.192485	-42.433910	15.192485	-0.275673	-114.142995
8.050000	-0.264994	-109.575855	-42.306872	13.742613	-42.306872	13.742613	-0.279559	-114.759129
8.100000	-0.268718	-110.161423	-42.181048	12.293791	-42.181048	12.293791	-0.283486	-115.374619
8.150000	-0.272489	-110.746140	-42.056308	10.846213	-42.056308	10.846213	-0.287462	-115.989374
8.200000	-0.276307	-111.330007	-41.932629	9.399879	-41.932629	9.399879	-0.291487	-116.603397
8.250000	-0.280166	-111.913191	-41.810122	7.954563	-41.810122	7.954563	-0.295554	-117.216841
8.300000	-0.284079	-112.495421	-41.688538	6.510672	-41.688538	6.510672	-0.299679	-117.829477
8.350000	-0.288026	-113.077126	-41.568204	5.067579	-41.568204	5.067579	-0.303839	-118.441677
8.400000	-0.292036	-113.657784	-41.448667	3.626079	-41.448667	3.626079	-0.308065	-119.053008
8.450000	-0.296072	-114.238065	-41.330448	2.185162	-41.330448	2.185162	-0.312317	-119.664034
8.500000	-0.300181	-114.817218	-41.212912	0.745990	-41.212912	0.745990	-0.316645	-120.274144
8.550000	-0.304307	-115.396131	-41.096752	-0.692806	-41.096752	-0.692806	-0.320992	-120.884065
8.600000	-0.308514	-115.973846	-40.981173	-2.129723	-40.981173	-2.129723	-0.325423	-121.493040
8.650000	-0.312731	-116.551447	-40.867020	-3.566459	-40.867020	-3.566459	-0.329865	-122.101927
8.700000	-0.317039	-117.127794	-40.753356	-5.001205	-40.753356	-5.001205	-0.334400	-122.709853
8.750000	-0.321348	-117.704142	-40.641160	-6.435951	-40.641160	-6.435951	-0.338937	-123.317779
8.800000	-0.325756	-118.279192	-40.529371	-7.868620	-40.529371	-7.868620	-0.343577	-123.924745
8.850000	-0.330166	-118.854242	-40.419003	-9.301290	-40.419003	-9.301290	-0.348220	-124.531711
8.900000	-0.334668	-119.428169	-40.309134	-10.732151	-40.309134	-10.732151	-0.352957	-125.137880
8.950000	-0.339181	-120.001994	-40.200559	-12.162848	-40.200559	-12.162848	-0.357706	-125.743976
9.000000	-0.343777	-120.574859	-40.092566	-13.591998	-40.092566	-13.591998	-0.362541	-126.349424
9.050000	-0.348392	-121.147532	-39.985751	-15.020837	-39.985751	-15.020837	-0.367396	-126.954742
9.100000	-0.353084	-121.719398	-39.879593	-16.448379	-39.879593	-16.448379	-0.372331	-127.559547
9.150000	-0.357802	-122.290994	-39.774507	-17.875487	-39.774507	-17.875487	-0.377293	-128.164181
9.200000	-0.362589	-122.861923	-39.670146	-19.301531	-39.670146	-19.301531	-0.382327	-128.768422
9.250000	-0.367412	-123.432519	-39.566761	-20.727042	-39.566761	-20.727042	-0.387397	-129.372466
9.300000	-0.372295	-124.002577	-39.464161	-22.151707	-39.464161	-22.151707	-0.392530	-129.976224
9.350000	-0.377223	-124.572250	-39.362454	-23.575768	-39.362454	-23.575768	-0.397709	-130.579776
9.400000	-0.382203	-125.141501	-39.261582	-24.999180	-39.261582	-24.999180	-0.402942	-131.183132
9.450000	-0.387236	-125.710330	-39.161530	-26.421943	-39.161530	-26.421943	-0.408230	-131.786292
9.500000	-0.392313	-126.278842	-39.062357	-27.844233	-39.062357	-27.844233	-0.413563	-132.389329
9.550000	-0.397452	-126.846908	-38.963943	-29.265862	-38.963943	-29.265862	-0.418960	-132.992196
9.600000	-0.402627	-127.414748	-38.866442	-30.687170	-38.866442	-30.687170	-0.424394	-133.594999
9.650000	-0.407872	-127.982134	-38.769650	-32.107835	-38.769650	-32.107835	-0.429900	-134.197675
9.700000	-0.413144	-128.549371	-38.673797	-33.528303	-38.673797	-33.528303	-0.435435	-134.800330
9.750000	-0.418495	-129.116160	-38.578615	-34.948182	-38.578615	-34.948182	-0.441051	-135.402921
9.800000	-0.423866	-129.682864	-38.484391	-36.367960	-38.484391	-36.367960	-0.446687	-136.005516
9.850000	-0.429323	-130.249142	-38.390812	-37.787236	-38.390812	-37.787236	-0.452411	-136.608128
9.900000	-0.434792	-130.815384	-38.298198	-39.206478	-38.298198	-39.206478	-0.458148	-137.210750
9.950000	-0.440356	-131.381238	-38.206217	-40.625339	-38.206217	-40.625339	-0.463981	-137.813491
10.000000	-0.445923	-131.947092	-38.115201	-42.044200	-38.115201	-42.044200	-0.469819	-138.416233
