! freq	dB(S11)	phase(S11)	dB(S12)	phase(S12)	
!     	dB(S21)	phase(S21)	dB(S22)	phase(S22)	
!S-par simulation data
#  GHz  S  DB  R 50
0.000000	-0.000000	0.000000	-328.729045	0.000000	-328.729045	0.000000	-0.000000	0.000000
0.050000	-0.001242	-2.186601	-76.918715	87.223016	-76.918715	87.223016	-0.001893	-3.352529
0.100000	-0.004492	-4.368947	-70.909507	84.486367	-70.909507	84.486367	-0.006941	-6.695204
0.150000	-0.008794	-6.544752	-67.411156	81.760431	-67.411156	81.760431	-0.013808	-10.021539
0.200000	-0.013265	-8.713788	-64.948240	79.042521	-64.948240	79.042521	-0.021101	-13.328061
0.250000	-0.017456	-10.878143	-63.053847	76.334397	-63.053847	76.334397	-0.027956	-16.617227
0.300000	-0.021192	-13.039057	-61.523290	73.639583	-61.523290	73.639583	-0.033967	-19.888761
0.350000	-0.024469	-15.197852	-60.246503	70.961023	-60.246503	70.961023	-0.039043	-23.143050
0.400000	-0.027352	-17.355475	-59.158069	68.301730	-59.158069	68.301730	-0.043267	-26.379645
0.450000	-0.029912	-19.512546	-58.217928	65.666573	-58.217928	65.666573	-0.046763	-29.595881
0.500000	-0.032270	-21.669499	-57.394132	63.055931	-57.394132	63.055931	-0.049791	-32.792228
0.550000	-0.034495	-23.826526	-56.665928	60.472110	-56.665928	60.472110	-0.052503	-35.967095
0.600000	-0.036642	-25.983733	-56.017942	57.917323	-56.017942	57.917323	-0.055020	-39.118791
0.650000	-0.038754	-28.141168	-55.438452	55.393705	-55.438452	55.393705	-0.057434	-42.245616
0.700000	-0.040865	-30.298853	-54.918307	52.903320	-54.918307	52.903320	-0.059810	-45.345928
0.750000	-0.043002	-32.456803	-54.451642	50.450471	-54.451642	50.450471	-0.062192	-48.416379
0.800000	-0.045187	-34.615010	-54.032279	48.037215	-54.032279	48.037215	-0.064608	-51.455542
0.850000	-0.047432	-36.773457	-53.654676	45.664775	-53.654676	45.664775	-0.067066	-54.462811
0.900000	-0.049743	-38.932124	-53.313150	43.332113	-53.313150	43.332113	-0.069563	-57.439437
0.950000	-0.052128	-41.091026	-53.005573	41.043601	-53.005573	41.043601	-0.072094	-60.382644
1.000000	-0.054588	-43.250173	-52.728971	38.801311	-52.728971	38.801311	-0.074649	-63.291644
1.050000	-0.057126	-45.409587	-52.480769	36.607361	-52.480769	36.607361	-0.077215	-66.165805
1.100000	-0.059737	-47.569303	-52.258711	34.463924	-52.258711	34.463924	-0.079776	-69.004642
1.150000	-0.062418	-49.729371	-52.060797	32.373244	-52.060797	32.373244	-0.082320	-71.807811
1.200000	-0.065163	-51.889857	-51.885238	30.337644	-51.885238	30.337644	-0.084831	-74.575094
1.250000	-0.067967	-54.050843	-51.730413	28.359531	-51.730413	28.359531	-0.087300	-77.306392
1.300000	-0.070823	-56.212462	-51.595528	26.444135	-51.595528	26.444135	-0.089711	-80.000156
1.350000	-0.073721	-58.374811	-51.478431	24.591551	-51.478431	24.591551	-0.092060	-82.658069
1.400000	-0.076654	-60.538029	-51.377814	22.804460	-51.377814	22.804460	-0.094340	-85.280336
1.450000	-0.079614	-62.702269	-51.292428	21.085607	-51.292428	21.085607	-0.096546	-87.867240
1.500000	-0.082595	-64.867703	-51.221062	19.437787	-51.221062	19.437787	-0.098674	-90.419134
1.550000	-0.085589	-67.034516	-51.162525	17.863817	-51.162525	17.863817	-0.100725	-92.936431
1.600000	-0.088591	-69.202910	-51.115631	16.366503	-51.115631	16.366503	-0.102696	-95.419600
1.650000	-0.091596	-71.373097	-51.079184	14.948588	-51.079184	14.948588	-0.104589	-97.869156
1.700000	-0.094600	-73.545305	-51.051968	13.612705	-51.051968	13.612705	-0.106407	-100.285659
1.750000	-0.097600	-75.719771	-51.032731	12.361298	-51.032731	12.361298	-0.108151	-102.669701
1.800000	-0.100592	-77.896742	-51.020181	11.196552	-51.020181	11.196552	-0.109824	-105.021909
1.850000	-0.103577	-80.076477	-51.012975	10.120291	-51.012975	10.120291	-0.111431	-107.342934
1.900000	-0.106553	-82.259241	-51.009717	9.133875	-51.009717	9.133875	-0.112976	-109.633451
1.950000	-0.109520	-84.445308	-51.008956	8.238085	-51.008956	8.238085	-0.114464	-111.894151
2.000000	-0.112478	-86.634960	-51.009190	7.432992	-51.009190	7.432992	-0.115898	-114.125742
2.050000	-0.115430	-88.828483	-51.008870	6.717833	-51.008870	6.717833	-0.117284	-116.328942
2.100000	-0.118377	-91.026174	-51.006420	6.090879	-51.006420	6.090879	-0.118627	-118.504480
2.150000	-0.121320	-93.228333	-51.000244	5.549316	-51.000244	5.549316	-0.119932	-120.653088
2.200000	-0.124263	-95.435267	-50.988757	5.089143	-50.988757	5.089143	-0.121203	-122.775505
2.250000	-0.127208	-97.647289	-50.970413	4.705097	-50.970413	4.705097	-0.122446	-124.872471
2.300000	-0.130158	-99.864717	-50.943732	4.390615	-50.943732	4.390615	-0.123664	-126.944725
2.350000	-0.133116	-102.087875	-50.907342	4.137846	-50.907342	4.137846	-0.124862	-128.993005
2.400000	-0.136086	-104.317092	-50.860012	3.937714	-50.860012	3.937714	-0.126045	-131.018046
2.450000	-0.139069	-106.552704	-50.800689	3.780042	-50.800689	3.780042	-0.127217	-133.020580
2.500000	-0.142070	-108.795050	-50.728533	3.653735	-50.728533	3.653735	-0.128381	-135.001332
2.550000	-0.145091	-111.044799	-50.642293	3.547284	-50.642293	3.547284	-0.129541	-136.960140
2.600000	-0.148137	-113.302010	-50.542228	3.447115	-50.542228	3.447115	-0.130702	-138.898661
2.650000	-0.151208	-115.567036	-50.428281	3.340968	-50.428281	3.340968	-0.131865	-140.817600
2.700000	-0.154308	-117.840238	-50.300652	3.216845	-50.300652	3.216845	-0.133035	-142.717653
2.750000	-0.157439	-120.121979	-50.159783	3.063294	-50.159783	3.063294	-0.134214	-144.599505
2.800000	-0.160603	-122.412626	-50.006336	2.869662	-50.006336	2.869662	-0.135405	-146.463834
2.850000	-0.163803	-124.712548	-49.841161	2.626294	-49.841161	2.626294	-0.136610	-148.311310
2.900000	-0.167039	-127.022119	-49.665257	2.324685	-49.665257	2.324685	-0.137833	-150.142590
2.950000	-0.170315	-129.341713	-49.479738	1.957564	-49.479738	1.957564	-0.139074	-151.958325
3.000000	-0.173631	-131.671706	-49.285792	1.518925	-49.285792	1.518925	-0.140336	-153.759153
3.050000	-0.176988	-134.012476	-49.084648	1.004014	-49.084648	1.004014	-0.141621	-155.545707
3.100000	-0.180388	-136.364398	-48.877546	0.409262	-48.877546	0.409262	-0.142931	-157.318605
3.150000	-0.183830	-138.727849	-48.665705	-0.267802	-48.665705	-0.267802	-0.144266	-159.078461
3.200000	-0.187316	-141.103204	-48.450305	-1.028662	-48.450305	-1.028662	-0.145630	-160.825876
3.250000	-0.190845	-143.490832	-48.232471	-1.873942	-48.232471	-1.873942	-0.147023	-162.561444
3.300000	-0.194418	-145.891102	-48.013260	-2.803533	-48.013260	-2.803533	-0.148447	-164.285749
3.350000	-0.198034	-148.304375	-47.793654	-3.816718	-47.793654	-3.816718	-0.149902	-165.999367
3.400000	-0.201692	-150.731008	-47.574557	-4.912291	-47.574557	-4.912291	-0.151391	-167.702867
3.450000	-0.205391	-153.171348	-47.356792	-6.088662	-47.356792	-6.088662	-0.152913	-169.396808
3.500000	-0.209131	-155.625734	-47.141107	-7.343961	-47.141107	-7.343961	-0.154471	-171.081743
3.550000	-0.212910	-158.094495	-46.928176	-8.676115	-46.928176	-8.676115	-0.156064	-172.758217
3.600000	-0.216725	-160.577947	-46.718600	-10.082924	-46.718600	-10.082924	-0.157694	-174.426769
3.650000	-0.220576	-163.076392	-46.512918	-11.562116	-46.512918	-11.562116	-0.159363	-176.087930
3.700000	-0.224459	-165.590116	-46.311610	-13.111403	-46.311610	-13.111403	-0.161069	-177.742227
3.750000	-0.228372	-168.119389	-46.115103	-14.728513	-46.115103	-14.728513	-0.162816	-179.390181
3.800000	-0.232312	-170.665158	-45.923840	-16.413978	-45.923840	-16.413978	-0.164604	178.967923
3.850000	-0.236276	-173.226971	-45.738143	-18.162717	-45.738143	-18.162717	-0.166434	177.331299
3.900000	-0.240259	-175.805031	-45.558307	-19.972692	-45.558307	-19.972692	-0.168305	175.699439
3.950000	-0.244258	-178.399512	-45.384597	-21.841972	-45.384597	-21.841972	-0.170219	174.071841
4.000000	-0.248269	178.989439	-45.217251	-23.768743	-45.217251	-23.768743	-0.172177	172.448006
4.050000	-0.252286	176.361704	-45.056479	-25.751310	-45.056479	-25.751310	-0.174179	170.827436
4.100000	-0.256305	173.717200	-44.902476	-27.788104	-44.902476	-27.788104	-0.176227	169.209635
4.150000	-0.260321	171.055876	-44.755417	-29.877678	-44.755417	-29.877678	-0.178320	167.594109
4.200000	-0.264329	168.377721	-44.615464	-32.018713	-44.615464	-32.018713	-0.180461	165.980363
4.250000	-0.268323	165.682761	-44.482764	-34.210014	-44.482764	-34.210014	-0.182649	164.367905
4.300000	-0.272297	162.971062	-44.357458	-36.450510	-44.357458	-36.450510	-0.184887	162.756239
4.350000	-0.276245	160.242738	-44.239677	-38.739250	-44.239677	-38.739250	-0.187175	161.144869
4.400000	-0.280161	157.497944	-44.129545	-41.075408	-44.129545	-41.075408	-0.189514	159.533297
4.450000	-0.284039	154.736883	-44.027181	-43.458274	-44.027181	-43.458274	-0.191907	157.921022
4.500000	-0.287871	151.959810	-43.932699	-45.887259	-43.932699	-45.887259	-0.194353	156.307537
4.550000	-0.291651	149.167026	-43.846211	-48.361892	-43.846211	-48.361892	-0.196856	154.692334
4.600000	-0.295373	146.358889	-43.767823	-50.881823	-43.767823	-50.881823	-0.199415	153.074897
4.650000	-0.299030	143.535807	-43.697642	-53.446819	-43.697642	-53.446819	-0.202034	151.454703
4.700000	-0.302615	140.698243	-43.635771	-56.056774	-43.635771	-56.056774	-0.204714	149.831222
4.750000	-0.306121	137.846716	-43.582310	-58.711703	-43.582310	-58.711703	-0.207457	148.203917
4.800000	-0.309542	134.981799	-43.537357	-61.411752	-43.537357	-61.411752	-0.210266	146.572236
4.850000	-0.312872	132.104122	-43.501010	-64.157201	-43.501010	-64.157201	-0.213143	144.935622
4.900000	-0.316103	129.214370	-43.473361	-66.948469	-43.473361	-66.948469	-0.216091	143.293500
4.950000	-0.319231	126.313282	-43.454500	-69.786124	-43.454500	-69.786124	-0.219113	141.645284
5.000000	-0.322250	123.401652	-43.444512	-72.670888	-43.444512	-72.670888	-0.222212	139.990370
5.050000	-0.325148	120.479949	-43.443870	-75.605788	-43.443870	-75.605788	-0.225396	138.327789
5.100000	-0.327927	117.549534	-43.452259	-78.589867	-43.452259	-78.589867	-0.228665	136.657190
5.150000	-0.330581	114.611362	-43.469738	-81.624409	-43.469738	-81.624409	-0.232024	134.977907
5.200000	-0.333107	111.666432	-43.496359	-84.710903	-43.496359	-84.710903	-0.235478	133.289250
5.250000	-0.335502	108.715787	-43.532157	-87.851060	-43.532157	-87.851060	-0.239031	131.590503
5.300000	-0.337762	105.760509	-43.577153	-91.046830	-43.577153	-91.046830	-0.242690	129.880919
5.350000	-0.339887	102.801717	-43.631348	-94.300419	-43.631348	-94.300419	-0.246461	128.159720
5.400000	-0.341874	99.840562	-43.694721	-97.614306	-43.694721	-97.614306	-0.250352	126.426089
5.450000	-0.343723	96.878225	-43.767221	-100.991266	-43.767221	-100.991266	-0.254370	124.679173
5.500000	-0.345433	93.915908	-43.848762	-104.434386	-43.848762	-104.434386	-0.258523	122.918071
5.550000	-0.347007	90.954834	-43.939220	-107.947081	-43.939220	-107.947081	-0.262821	121.141836
5.600000	-0.348444	87.996239	-44.038420	-111.533114	-44.038420	-111.533114	-0.267276	119.349465
5.650000	-0.349748	85.041371	-44.146131	-115.196608	-44.146131	-115.196608	-0.271897	117.539897
5.700000	-0.350921	82.091478	-44.262052	-118.942049	-44.262052	-118.942049	-0.276699	115.712004
5.750000	-0.351967	79.147809	-44.385803	-122.774290	-44.385803	-122.774290	-0.281695	113.864587
5.800000	-0.352889	76.211609	-44.516908	-126.698536	-44.516908	-126.698536	-0.286901	111.996362
5.850000	-0.353694	73.284109	-44.654782	-130.720321	-44.654782	-130.720321	-0.292335	110.105960
5.900000	-0.354387	70.366524	-44.798712	-134.845460	-44.798712	-134.845460	-0.298016	108.191906
5.950000	-0.354973	67.460050	-44.947838	-139.079981	-44.947838	-139.079981	-0.303966	106.252616
6.000000	-0.355460	64.565856	-45.101136	-143.430020	-45.101136	-143.430020	-0.310210	104.286381
6.050000	-0.355855	61.685082	-45.257395	-147.901686	-45.257395	-147.901686	-0.316776	102.291352
6.100000	-0.356165	58.818833	-45.415203	-152.500869	-45.415203	-152.500869	-0.323692	100.265521
6.150000	-0.356398	55.968178	-45.572926	-157.233012	-45.572926	-157.233012	-0.330996	98.206704
6.200000	-0.356563	53.134143	-45.728704	-162.102811	-45.728704	-162.102811	-0.338724	96.112520
6.250000	-0.356668	50.317711	-45.880447	-167.113873	-45.880447	-167.113873	-0.346921	93.980361
6.300000	-0.356720	47.520664	-46.025357	-172.274545	-46.025357	-172.274545	-0.355663	91.805439
6.350000	-0.356731	44.743116	-46.161221	-177.578556	-46.161221	-177.578556	-0.364985	89.586209
6.400000	-0.356710	41.985892	-46.285405	176.976671	-46.285405	176.976671	-0.374955	87.319137
6.450000	-0.356666	39.249768	-46.395223	171.396548	-46.395223	171.396548	-0.385648	85.000302
6.500000	-0.356608	36.535460	-46.488040	165.689616	-46.488040	165.689616	-0.397149	82.625338
6.550000	-0.356545	33.843634	-46.561396	159.867669	-46.561396	159.867669	-0.409558	80.189372
6.600000	-0.356486	31.174895	-46.613142	153.945665	-46.613142	153.945665	-0.422991	77.686936
6.650000	-0.356440	28.529797	-46.641586	147.941382	-46.641586	147.941382	-0.437581	75.111879
6.700000	-0.356414	25.907886	-46.646588	141.876410	-46.646588	141.876410	-0.453427	72.460616
6.750000	-0.356417	23.310909	-46.626381	135.768372	-46.626381	135.768372	-0.470777	69.721140
6.800000	-0.356458	20.738790	-46.581766	129.640114	-46.581766	129.640114	-0.489815	66.886141
6.850000	-0.356544	18.191862	-46.513880	123.512434	-46.513880	123.512434	-0.510788	63.945580
6.900000	-0.356685	15.671294	-46.423979	117.405594	-46.423979	117.405594	-0.534074	60.883436
6.950000	-0.356889	13.177336	-46.315061	111.337058	-46.315061	111.337058	-0.560057	57.684968
7.000000	-0.357161	10.709286	-46.191419	105.318049	-46.191419	105.318049	-0.589087	54.338479
7.050000	-0.357502	8.265694	-46.057676	99.352641	-46.057676	99.352641	-0.621427	50.837154
7.100000	-0.357928	5.849347	-45.917502	93.450696	-45.917502	93.450696	-0.658070	47.141550
7.150000	-0.358440	3.459165	-45.776788	87.608811	-45.776788	87.608811	-0.699602	43.233976
7.200000	-0.359046	1.095377	-45.641701	81.822276	-45.641701	81.822276	-0.746981	39.082448
7.250000	-0.359753	-1.241606	-45.519681	76.082370	-45.519681	76.082370	-0.801468	34.645361
7.300000	-0.360564	-3.552535	-45.418800	70.375027	-45.418800	70.375027	-0.864282	29.886378
7.350000	-0.361485	-5.837521	-45.348826	64.685096	-45.348826	64.685096	-0.937093	24.754337
7.400000	-0.362521	-8.096704	-45.321807	58.996181	-45.321807	58.996181	-1.021933	19.187630
7.450000	-0.363678	-10.330257	-45.353114	53.292730	-45.353114	53.292730	-1.121261	13.111876
7.500000	-0.364960	-12.538375	-45.463029	47.563768	-45.463029	47.563768	-1.238007	6.437201
7.550000	-0.366378	-14.720635	-45.682657	41.809729	-45.682657	41.809729	-1.376124	-0.965974
7.600000	-0.367935	-16.877936	-46.049865	36.060012	-46.049865	36.060012	-1.538918	-9.213525
7.650000	-0.369635	-19.010536	-46.623500	30.401445	-46.623500	30.401445	-1.730015	-18.460412
7.700000	-0.371488	-21.118340	-47.499260	25.061262	-47.499260	25.061262	-1.952426	-28.904803
7.750000	-0.373497	-23.201948	-48.825438	20.593275	-48.825438	20.593275	-2.205569	-40.727902
7.800000	-0.375666	-25.261658	-50.863145	18.503197	-50.863145	18.503197	-2.483424	-54.117166
7.850000	-0.377997	-27.297622	-54.028857	23.829699	-54.028857	23.829699	-2.770201	-69.221497
7.900000	-0.380489	-29.310246	-57.573518	53.983071	-57.573518	53.983071	-3.037006	-86.048349
7.950000	-0.383139	-31.299752	-54.797730	98.565004	-54.797730	98.565004	-3.243097	-104.398180
8.000000	-0.385940	-33.266555	-49.833365	110.766461	-49.833365	110.766461	-3.347870	-123.770527
8.050000	-0.388885	-35.211101	-46.152896	109.512095	-46.152896	109.512095	-3.329825	-143.429387
8.100000	-0.391969	-37.133801	-43.438140	104.065138	-43.438140	104.065138	-3.198776	-162.588167
8.150000	-0.395190	-39.035012	-41.359190	97.143634	-41.359190	97.143634	-2.990653	179.380059
8.200000	-0.398547	-40.915175	-39.716456	89.783779	-39.716456	89.783779	-2.750108	162.814814
8.250000	-0.402040	-42.774804	-38.380850	82.439181	-38.380850	82.439181	-2.513891	147.781661
8.300000	-0.405673	-44.614326	-37.263559	75.307245	-37.263559	75.307245	-2.305313	134.175008
8.350000	-0.409447	-46.434112	-36.301046	68.455489	-36.301046	68.455489	-2.136597	121.801043
8.400000	-0.413365	-48.234525	-35.446761	61.878526	-35.446761	61.878526	-2.013127	110.429022
8.450000	-0.417428	-50.016051	-34.666336	55.527199	-34.666336	55.527199	-1.937017	99.816335
8.500000	-0.421634	-51.779070	-33.934373	49.328440	-33.934373	49.328440	-1.910579	89.730097
8.550000	-0.425979	-53.523666	-33.231423	43.189898	-33.231423	43.189898	-1.939273	79.939841
8.600000	-0.430450	-55.250692	-32.544852	37.001148	-32.544852	37.001148	-2.030330	70.199391
8.650000	-0.435031	-56.960391	-31.865913	30.635470	-31.865913	30.635470	-2.199218	60.251987
8.700000	-0.439693	-58.652795	-31.190320	23.931128	-31.190320	23.931128	-2.473881	49.775621
8.750000	-0.444390	-60.328476	-30.522697	16.701852	-30.522697	16.701852	-2.897002	38.371167
8.800000	-0.449050	-61.987824	-29.878691	8.719681	-29.878691	8.719681	-3.541824	25.470009
8.850000	-0.453583	-63.631743	-29.292732	-0.247973	-29.292732	-0.247973	-4.523985	10.242582
8.900000	-0.457906	-65.261548	-28.824408	-10.390867	-28.824408	-10.390867	-6.022942	-8.729716
8.950000	-0.462005	-66.879035	-28.564848	-21.744493	-28.564848	-21.744493	-8.255745	-34.498241
9.000000	-0.466053	-68.486381	-28.618343	-33.982498	-28.618343	-33.982498	-10.985196	-73.847979
9.050000	-0.470410	-70.084649	-29.065683	-46.360175	-29.065683	-46.360175	-11.702300	-129.510098
9.100000	-0.475437	-71.672982	-29.917144	-57.886787	-29.917144	-57.886787	-9.290032	-175.378771
9.150000	-0.481252	-73.249440	-31.106661	-67.718356	-31.106661	-67.718356	-6.798534	155.771635
9.200000	-0.487734	-74.812505	-32.535187	-75.370607	-32.535187	-75.370607	-5.045250	135.934602
9.250000	-0.494680	-76.361797	-34.109497	-80.664459	-34.109497	-80.664459	-3.870024	120.967665
9.300000	-0.501924	-77.897740	-35.756070	-83.541388	-35.756070	-83.541388	-3.073879	109.035710
9.350000	-0.509364	-79.421052	-37.410379	-83.920764	-37.410379	-83.920764	-2.521976	99.172042
9.400000	-0.516951	-80.932440	-38.993914	-81.661800	-38.993914	-81.661800	-2.130059	90.794082
9.450000	-0.524657	-82.432861	-40.407600	-76.766210	-40.407600	-76.766210	-1.843316	83.491889
9.500000	-0.532478	-83.922511	-41.486792	-69.421498	-41.486792	-69.421498	-1.631312	77.035971
9.550000	-0.540407	-85.401904	-42.093324	-60.602700	-42.093324	-60.602700	-1.471649	71.230128
9.600000	-0.548438	-86.872128	-42.226118	-51.709521	-42.226118	-51.709521	-1.347775	65.904360
9.650000	-0.556575	-88.332977	-41.941000	-43.928421	-41.941000	-43.928421	-1.252300	60.989252
9.700000	-0.564827	-89.784483	-41.390427	-37.930587	-41.390427	-37.930587	-1.178647	56.411628
9.750000	-0.573206	-91.227368	-40.721996	-33.598880	-40.721996	-33.598880	-1.120985	52.094384
9.800000	-0.581746	-92.661790	-40.016213	-30.682445	-40.016213	-30.682445	-1.076156	47.994870
9.850000	-0.590520	-94.087478	-39.316692	-28.935252	-39.316692	-28.935252	-1.042305	44.087800
9.900000	-0.599597	-95.505198	-38.647870	-28.031343	-38.647870	-28.031343	-1.017144	40.335777
9.950000	-0.609026	-96.915879	-38.017709	-27.747468	-38.017709	-27.747468	-0.999110	36.711353
10.000000	-0.618827	-98.320316	-37.427454	-27.938574	-37.427454	-27.938574	-0.987226	33.195981
