! freq	dB(S11)	phase(S11)	dB(S12)	phase(S12)	
!     	dB(S21)	phase(S21)	dB(S22)	phase(S22)	
!S-par simulation data
#  GHz  S  DB  R 50
0.000000	-81.012300	0.000000	-0.000773	0.000000	-0.000773	0.000000	-81.012300	0.000000
0.050000	-38.648393	-93.138349	-0.003178	-3.436714	-0.003178	-3.436714	-38.643777	-92.846741
0.100000	-32.643856	-96.941188	-0.009719	-6.864064	-0.009719	-6.864064	-32.639423	-96.355383
0.150000	-29.149519	-100.594896	-0.019102	-10.277289	-0.019102	-10.277289	-29.145398	-99.710287
0.200000	-26.686977	-104.214019	-0.029951	-13.678145	-0.029951	-13.678145	-26.683263	-103.024252
0.250000	-24.795660	-107.819325	-0.041564	-17.068717	-0.041564	-17.068717	-24.792463	-106.315443
0.300000	-23.269859	-111.418717	-0.053578	-20.451536	-0.053578	-20.451536	-23.267282	-109.589269
0.350000	-21.997482	-115.016342	-0.065843	-23.828945	-0.065843	-23.828945	-21.995595	-112.848515
0.400000	-20.916904	-118.614498	-0.078377	-27.201232	-0.078377	-27.201232	-20.915792	-116.091053
0.450000	-19.980569	-122.214785	-0.091153	-30.569623	-0.091153	-30.569623	-19.980246	-119.319020
0.500000	-19.165365	-125.819566	-0.104220	-33.933422	-0.104220	-33.933422	-19.165827	-122.528379
0.550000	-18.445427	-129.429803	-0.117520	-37.293358	-0.117520	-37.293358	-18.446572	-125.721221
0.600000	-17.808025	-133.047912	-0.131032	-40.649073	-0.131032	-40.649073	-17.809636	-128.895168
0.650000	-17.241830	-136.676353	-0.144697	-44.000556	-0.144697	-44.000556	-17.243496	-132.048943
0.700000	-16.737302	-140.317787	-0.158433	-47.347992	-0.158433	-47.347992	-16.738358	-135.181485
0.750000	-16.287320	-143.975715	-0.172155	-50.691578	-0.172155	-50.691578	-16.286804	-138.290687
0.800000	-15.886115	-147.654679	-0.185767	-54.031609	-0.185767	-54.031609	-15.882810	-141.373423
0.850000	-15.529740	-151.362002	-0.199160	-57.368391	-0.199160	-57.368391	-15.522372	-144.424339
0.900000	-15.212193	-155.104528	-0.212251	-60.702601	-0.212251	-60.702601	-15.200197	-147.440542
0.950000	-14.929184	-158.892298	-0.224937	-64.034759	-0.224937	-64.034759	-14.913885	-150.417106
1.000000	-14.674246	-162.725260	-0.237127	-67.365551	-0.237127	-67.365551	-14.661056	-153.350861
1.050000	-14.441581	-166.567187	-0.248735	-70.695746	-0.248735	-70.695746	-14.439712	-156.239680
1.100000	-14.235438	-170.363543	-0.259685	-74.026193	-0.259685	-74.026193	-14.248075	-159.081928
1.150000	-14.066134	-174.143441	-0.269908	-77.357810	-0.269908	-77.357810	-14.084508	-161.875816
1.200000	-13.932445	-177.980580	-0.279349	-80.691575	-0.279349	-80.691575	-13.947505	-164.618962
1.250000	-13.827612	178.098818	-0.287964	-84.028523	-0.287964	-84.028523	-13.835683	-167.308199
1.300000	-13.747946	174.092752	-0.295702	-87.369851	-0.295702	-87.369851	-13.748259	-169.938150
1.350000	-13.690916	170.003397	-0.302566	-90.716605	-0.302566	-90.716605	-13.683556	-172.505086
1.400000	-13.655345	165.827290	-0.308554	-94.069925	-0.308554	-94.069925	-13.640483	-175.003279
1.450000	-13.640293	161.557986	-0.313680	-97.430968	-0.313680	-97.430968	-13.617985	-177.426160
1.500000	-13.644861	157.186928	-0.317974	-100.800891	-0.317974	-100.800891	-13.615010	-179.766293
1.550000	-13.668105	152.703959	-0.321481	-104.180848	-0.321481	-104.180848	-13.630463	177.984646
1.600000	-13.708974	148.097606	-0.324260	-107.571978	-0.324260	-107.571978	-13.663161	175.835883
1.650000	-13.766258	143.355242	-0.326389	-110.975389	-0.326389	-110.975389	-13.711774	173.797528
1.700000	-13.838527	138.463242	-0.327960	-114.392155	-0.327960	-114.392155	-13.774772	171.880510
1.750000	-13.924062	133.407160	-0.329078	-117.823301	-0.329078	-117.823301	-13.850348	170.096432
1.800000	-14.020780	128.172005	-0.329866	-121.269791	-0.329866	-121.269791	-13.936352	168.457323
1.850000	-14.126145	122.742651	-0.330456	-124.732522	-0.330456	-124.732522	-14.030209	166.975244
1.900000	-14.237085	117.102007	-0.330999	-128.212506	-0.330999	-128.212506	-14.128841	165.663661
1.950000	-14.349761	111.236344	-0.331657	-131.710493	-0.331657	-131.710493	-14.228462	164.533000
2.000000	-14.459715	105.137269	-0.332601	-135.226921	-0.332601	-135.226921	-14.324745	163.588937
2.050000	-14.561842	98.798142	-0.334010	-138.762307	-0.334010	-138.762307	-14.412797	162.835124
2.100000	-14.650397	92.218059	-0.336067	-142.317057	-0.336067	-142.317057	-14.487187	162.269839
2.150000	-14.719142	85.403676	-0.338964	-145.891453	-0.338964	-145.891453	-14.542105	161.884425
2.200000	-14.761613	78.370888	-0.342893	-149.485656	-0.342893	-149.485656	-14.571612	161.661914
2.250000	-14.771503	71.146034	-0.348048	-153.099698	-0.348048	-153.099698	-14.570001	161.576144
2.300000	-14.743153	63.766191	-0.354624	-156.733482	-0.354624	-156.733482	-14.532231	161.591692
2.350000	-14.672072	56.278248	-0.362809	-160.386782	-0.362809	-160.386782	-14.454373	161.664887
2.400000	-14.555415	48.736593	-0.372787	-164.059244	-0.372787	-164.059244	-14.334016	161.745982
2.450000	-14.392310	41.199605	-0.384736	-167.750392	-0.384736	-167.750392	-14.170525	161.782282
2.500000	-14.183956	33.725453	-0.398822	-171.459630	-0.398822	-171.459630	-13.965109	161.721797
2.550000	-13.932485	26.371547	-0.415250	-175.186613	-0.415250	-175.186613	-13.719753	161.512726
2.600000	-13.643731	19.181908	-0.434114	-178.930135	-0.434114	-178.930135	-13.439817	161.117210
2.650000	-13.323484	12.191889	-0.455536	177.310704	-0.455536	177.310704	-13.130578	160.504378
2.700000	-12.978026	5.426240	-0.479621	173.536878	-0.479621	173.536878	-12.797766	159.652952
2.750000	-12.613660	-1.100338	-0.506456	169.749425	-0.506456	169.749425	-12.447153	158.550772
2.800000	-12.236348	-7.381848	-0.536107	165.949426	-0.536107	165.949426	-12.084229	157.193646
2.850000	-11.851468	-13.419273	-0.568620	162.137994	-0.568620	162.137994	-11.713981	155.583844
2.900000	-11.463695	-19.218791	-0.604021	158.316258	-0.604021	158.316258	-11.340778	153.728515
2.950000	-11.076958	-24.790153	-0.642314	154.485344	-0.642314	154.485344	-10.968322	151.638225
3.000000	-10.694465	-30.145331	-0.683484	150.646364	-0.683484	150.646364	-10.599668	149.325699
3.050000	-10.318770	-35.297451	-0.727494	146.800399	-0.727494	146.800399	-10.237265	146.804830
3.100000	-9.951845	-40.260032	-0.774292	142.948488	-0.774292	142.948488	-9.883029	144.089924
3.150000	-9.595142	-45.044673	-0.823828	139.091572	-0.823828	139.091572	-9.538388	141.193367
3.200000	-9.249786	-49.664661	-0.876010	135.230598	-0.876010	135.230598	-9.204461	138.129304
3.250000	-8.916547	-54.134037	-0.930705	131.366460	-0.930705	131.366460	-8.882023	134.912629
3.300000	-8.595872	-58.464127	-0.987792	127.499920	-0.987792	127.499920	-8.571544	131.555448
3.350000	-8.287999	-62.665439	-1.047139	123.631653	-1.047139	123.631653	-8.273286	128.068986
3.400000	-7.993001	-66.747677	-1.108602	119.762248	-1.108602	119.762248	-7.987351	124.463588
3.450000	-7.710822	-70.719791	-1.172025	115.892202	-1.172025	115.892202	-7.713716	120.748753
3.500000	-7.441315	-74.590034	-1.237244	112.021926	-1.237244	112.021926	-7.452260	116.933180
3.550000	-7.184264	-78.366026	-1.304085	108.151740	-1.304085	108.151740	-7.202798	113.024831
3.600000	-6.939404	-82.054830	-1.372364	104.281877	-1.372364	104.281877	-6.965092	109.030993
3.650000	-6.706441	-85.663007	-1.441890	100.412483	-1.441890	100.412483	-6.738875	104.958342
3.700000	-6.485067	-89.196685	-1.512463	96.543622	-1.512463	96.543622	-6.523862	100.813006
3.750000	-6.274968	-92.661613	-1.583872	92.675269	-1.583872	92.675269	-6.319762	96.600619
3.800000	-6.075973	-96.061958	-1.655890	88.807322	-1.655890	88.807322	-6.126425	92.325139
3.850000	-5.887657	-99.404343	-1.728276	84.939570	-1.728276	84.939570	-5.943447	87.992794
3.900000	-5.709742	-102.693666	-1.800783	81.071720	-1.800783	81.071720	-5.770570	83.607991
3.950000	-5.541979	-105.934634	-1.873144	77.203382	-1.873144	77.203382	-5.607565	79.174807
4.000000	-5.384149	-109.131798	-1.945076	73.334055	-1.945076	73.334055	-5.454231	74.697005
4.050000	-5.236068	-112.289592	-2.016273	69.463116	-2.016273	69.463116	-5.310403	70.178051
4.100000	-5.097596	-115.412368	-2.086404	65.589800	-2.086404	65.589800	-5.175959	65.621114
4.150000	-4.968636	-118.504427	-2.155110	61.713178	-2.155110	61.713178	-5.050822	61.029063
4.200000	-4.849145	-121.570055	-2.221999	57.832122	-2.221999	57.832122	-4.934968	56.404453
4.250000	-4.739136	-124.613564	-2.286644	53.945277	-2.286644	53.945277	-4.828432	51.749506
4.300000	-4.638689	-127.639326	-2.348577	50.051010	-2.348577	50.051010	-4.731314	47.066077
4.350000	-4.547958	-130.651825	-2.407285	46.147358	-2.407285	46.147358	-4.643794	42.355618
4.400000	-4.467290	-133.655658	-2.462153	42.231807	-2.462153	42.231807	-4.566242	37.618844
4.450000	-4.397048	-136.655851	-2.512544	38.301412	-2.512544	38.301412	-4.499052	32.856227
4.500000	-4.337604	-139.657648	-2.557823	34.352862	-2.557823	34.352862	-4.442629	28.067884
4.550000	-4.289577	-142.666555	-2.597242	30.382030	-2.597242	30.382030	-4.397625	23.252956
4.600000	-4.253763	-145.688525	-2.629987	26.383958	-2.629987	26.383958	-4.364881	18.409782
4.650000	-4.231182	-148.730048	-2.655167	22.352693	-2.655167	22.352693	-4.345466	13.535769
4.700000	-4.223132	-151.798273	-2.671814	18.281073	-2.671814	18.281073	-4.340736	8.627236
4.750000	-4.231264	-154.901134	-2.678877	14.160479	-2.678877	14.160479	-4.352415	3.679234
4.800000	-4.257686	-158.047494	-2.675229	9.980512	-2.675229	9.980512	-4.382702	-1.314671
4.850000	-4.305103	-161.247293	-2.659663	5.728607	-2.659663	5.728607	-4.434418	-6.362646
4.900000	-4.377012	-164.511700	-2.630912	1.389534	-2.630912	1.389534	-4.511211	-11.474884
4.950000	-4.477975	-167.853217	-2.587666	-3.055215	-2.587666	-3.055215	-4.617848	-16.663913
5.000000	-4.614020	-171.285694	-2.528615	-7.628199	-2.528615	-7.628199	-4.760637	-21.944917
5.050000	-4.796768	-174.832863	-2.451159	-12.370702	-2.451159	-12.370702	-4.951715	-27.345468
5.100000	-5.029678	-178.490853	-2.357295	-17.287246	-2.357295	-17.287246	-5.194895	-32.866157
5.150000	-5.333630	177.712711	-2.244188	-22.440879	-2.244188	-22.440879	-5.512145	-38.545279
5.200000	-5.730526	173.770440	-2.112025	-27.882572	-2.112025	-27.882572	-5.926862	-44.406388
5.250000	-6.251645	169.691187	-1.962304	-33.672105	-1.962304	-33.672105	-6.472851	-50.466797
5.300000	-6.945398	165.517984	-1.798149	-39.885459	-1.798149	-39.885459	-7.203260	-56.728535
5.350000	-7.887691	161.379764	-1.625701	-46.612245	-1.625701	-46.612245	-8.203700	-63.143704
5.400000	-9.203670	157.619989	-1.455665	-53.953750	-1.455665	-53.953750	-9.622092	-69.525353
5.450000	-11.115634	155.215995	-1.305750	-62.023556	-1.305750	-62.023556	-11.746990	-75.235530
5.500000	-14.007597	157.252381	-1.202254	-70.906899	-1.202254	-70.906899	-15.217423	-77.828525
5.550000	-18.089065	175.699714	-1.181762	-80.653987	-1.181762	-80.653987	-21.590639	-61.767560
5.600000	-18.277543	-135.666707	-1.289131	-91.221792	-1.289131	-91.221792	-21.200310	16.533862
5.650000	-13.310858	-113.532814	-1.570426	-102.433388	-1.570426	-102.433388	-13.887871	31.743351
5.700000	-9.442298	-112.726766	-2.061145	-113.970053	-2.061145	-113.970053	-9.612807	26.636572
5.750000	-6.798160	-118.115844	-2.771742	-125.421993	-2.771742	-125.421993	-6.865036	17.675402
5.800000	-4.967489	-125.436768	-3.684904	-136.404555	-3.684904	-136.404555	-4.999986	7.818254
5.850000	-3.695369	-133.166533	-4.765108	-146.621141	-4.765108	-146.621141	-3.715209	-1.906014
5.900000	-2.803019	-140.652116	-5.967818	-155.958816	-5.967818	-155.958816	-2.818014	-11.075686
5.950000	-2.180195	-147.621301	-7.249818	-164.371477	-7.249818	-164.371477	-2.193562	-19.515792
6.000000	-1.737993	-154.026347	-8.584242	-171.955942	-8.584242	-171.955942	-1.750990	-27.243436
6.050000	-1.424180	-159.872896	-9.945273	-178.786132	-9.945273	-178.786132	-1.437284	-34.293428
6.100000	-1.199575	-165.218906	-11.317989	175.032550	-11.317989	175.032550	-1.212881	-40.744426
6.150000	-1.033765	-170.164977	-12.712692	169.360912	-12.712692	169.360912	-1.047200	-46.716570
6.200000	-0.913035	-174.747098	-14.113972	164.151304	-14.113972	164.151304	-0.926438	-52.248941
6.250000	-0.824333	-179.027260	-15.523896	159.327859	-15.523896	159.327859	-0.837489	-57.409789
6.300000	-0.757942	176.931249	-16.958389	154.815134	-16.958389	154.815134	-0.770625	-62.269772
6.350000	-0.708289	173.089017	-18.425440	150.569193	-18.425440	150.569193	-0.720253	-66.871021
6.400000	-0.671975	169.422061	-19.920759	146.569219	-19.920759	146.569219	-0.682939	-71.235281
6.450000	-0.645746	165.899031	-21.452747	142.788821	-21.452747	142.788821	-0.655396	-75.393518
6.500000	-0.625824	162.470082	-23.089360	139.166550	-23.089360	139.166550	-0.633900	-79.409621
6.550000	-0.611921	159.133686	-24.824420	135.721789	-24.824420	135.721789	-0.618093	-83.276679
6.600000	-0.603301	155.878314	-26.661195	132.483083	-26.661195	132.483083	-0.607149	-86.998138
6.650000	-0.598289	152.675055	-28.689270	129.451867	-28.689270	129.451867	-0.599409	-90.611421
6.700000	-0.596534	149.513374	-30.969855	126.738465	-30.969855	126.738465	-0.594442	-94.121583
6.750000	-0.596977	146.375058	-33.724239	124.444645	-33.724239	124.444645	-0.591259	-97.560096
6.800000	-0.599872	143.257481	-37.192692	122.885083	-37.192692	122.885083	-0.589975	-100.917119
6.850000	-0.605357	140.147194	-41.941147	125.623435	-41.941147	125.623435	-0.590480	-104.188857
6.900000	-0.612488	137.032487	-47.709263	172.260161	-47.709263	172.260161	-0.591996	-107.409082
6.950000	-0.621226	133.909268	-51.295762	-106.043185	-51.295762	-106.043185	-0.594439	-110.580731
7.000000	-0.632214	130.760603	-43.479139	-90.756189	-43.479139	-90.756189	-0.598001	-113.690604
7.050000	-0.645041	127.578492	-39.680925	-86.890537	-39.680925	-86.890537	-0.602308	-116.757981
7.100000	-0.659473	124.362093	-37.223783	-87.985746	-37.223783	-87.985746	-0.607189	-119.792554
7.150000	-0.675696	121.102846	-35.481464	-90.217023	-35.481464	-90.217023	-0.612647	-122.794209
7.200000	-0.694657	117.765163	-34.216029	-92.980950	-34.216029	-92.980950	-0.618804	-125.757309
7.250000	-0.715123	114.381354	-33.187021	-95.908219	-33.187021	-95.908219	-0.625280	-128.703886
7.300000	-0.738440	110.904937	-32.381984	-99.061818	-32.381984	-99.061818	-0.632291	-131.624360
7.350000	-0.764477	107.336211	-31.728003	-102.366811	-31.728003	-102.366811	-0.639723	-134.526950
7.400000	-0.793425	103.666449	-31.189406	-105.806171	-31.189406	-105.806171	-0.647538	-137.415874
7.450000	-0.825937	99.871018	-30.750728	-109.392599	-30.750728	-109.392599	-0.655756	-140.293495
7.500000	-0.861879	95.954715	-30.386582	-113.109851	-30.386582	-113.109851	-0.664310	-143.164582
7.550000	-0.902564	91.870220	-30.098578	-117.001219	-30.098578	-117.001219	-0.673273	-146.031547
7.600000	-0.947633	87.632448	-29.867315	-121.047694	-29.867315	-121.047694	-0.682569	-148.898363
7.650000	-0.998454	83.193809	-29.696240	-125.296097	-29.696240	-125.296097	-0.692260	-151.768655
7.700000	-1.055207	78.550890	-29.577527	-129.750561	-29.577527	-129.750561	-0.702320	-154.645486
7.750000	-1.118914	73.670095	-29.512292	-134.447994	-29.512292	-134.447994	-0.712782	-157.532761
7.800000	-1.190167	68.533839	-29.499433	-139.411258	-29.499433	-139.411258	-0.723653	-160.433511
7.850000	-1.270476	63.090338	-29.545359	-144.703789	-29.545359	-144.703789	-0.734992	-163.352875
7.900000	-1.360536	57.315930	-29.652171	-150.365380	-29.652171	-150.365380	-0.746820	-166.294317
7.950000	-1.461229	51.176923	-29.825268	-156.454915	-29.825268	-156.454915	-0.759175	-169.261819
8.000000	-1.573410	44.634551	-30.072367	-163.050219	-30.072367	-163.050219	-0.772109	-172.259736
8.050000	-1.697720	37.648185	-30.403035	-170.252050	-30.403035	-170.252050	-0.785682	-175.292679
8.100000	-1.834411	30.176551	-30.828430	-178.194493	-30.828430	-178.194493	-0.799963	-178.365544
8.150000	-1.983240	22.170010	-31.361716	172.918629	-31.361716	172.918629	-0.815050	178.515561
8.200000	-2.142756	13.591530	-32.012215	162.812315	-32.012215	162.812315	-0.831041	175.344738
8.250000	-2.310065	4.424143	-32.778688	151.124684	-32.778688	151.124684	-0.848035	172.116694
8.300000	-2.480807	-5.343483	-33.636984	137.334894	-33.636984	137.334894	-0.866156	168.824863
8.350000	-2.648795	-15.701110	-34.508669	120.813558	-34.508669	120.813558	-0.885552	165.462128
8.400000	-2.806129	-26.609748	-35.219715	101.093118	-35.219715	101.093118	-0.906387	162.020747
8.450000	-2.943470	-37.998833	-35.496569	78.556133	-35.496569	78.556133	-0.928864	158.491450
8.500000	-3.050838	-49.757813	-35.117587	55.165509	-35.117587	55.165509	-0.953238	154.862940
8.550000	-3.121257	-61.727000	-34.167890	33.436485	-34.167890	33.436485	-0.979712	151.127286
8.600000	-3.150147	-73.736898	-32.912766	14.621743	-32.912766	14.621743	-1.008563	147.273288
8.650000	-3.136829	-85.612618	-31.589764	-1.338212	-31.589764	-1.338212	-1.040099	143.288617
8.700000	-3.084558	-97.192082	-30.328929	-15.025063	-30.328929	-15.025063	-1.074666	139.159694
8.750000	-2.999666	-108.341133	-29.181113	-27.026223	-29.181113	-27.026223	-1.112648	134.871542
8.800000	-2.889577	-118.941929	-28.157453	-37.759777	-28.157453	-37.759777	-1.154609	130.400979
8.850000	-2.763739	-128.953620	-27.252286	-47.591080	-27.252286	-47.591080	-1.200897	125.735159
8.900000	-2.629635	-138.353410	-26.453254	-56.739143	-26.453254	-56.739143	-1.252009	120.853833
8.950000	-2.493355	-147.144691	-25.747407	-65.362828	-25.747407	-65.362828	-1.308469	115.734739
9.000000	-2.359449	-155.349380	-25.123008	-73.581278	-25.123008	-73.581278	-1.370813	110.353496
9.050000	-2.231043	-163.001120	-24.570164	-81.486834	-24.570164	-81.486834	-1.439566	104.683542
9.100000	-2.110254	-170.127737	-24.081824	-89.148328	-24.081824	-89.148328	-1.515387	98.687173
9.150000	-1.998029	-176.782242	-23.651464	-96.631049	-23.651464	-96.631049	-1.598571	92.337844
9.200000	-1.894650	176.988748	-23.274566	-103.984423	-23.274566	-103.984423	-1.689293	85.605863
9.250000	-1.800025	171.144893	-22.948414	-111.246474	-22.948414	-111.246474	-1.787543	78.457920
9.300000	-1.713784	165.648580	-22.671577	-118.446778	-22.671577	-118.446778	-1.892966	70.860953
9.350000	-1.635399	160.465307	-22.443683	-125.607069	-22.443683	-125.607069	-2.004738	62.783810
9.400000	-1.564358	155.568154	-22.266010	-132.741450	-22.266010	-132.741450	-2.121471	54.190485
9.450000	-1.499987	150.927729	-22.139791	-139.857718	-22.139791	-139.857718	-2.240930	45.060957
9.500000	-1.441518	146.514204	-22.065811	-146.957710	-22.065811	-146.957710	-2.360183	35.396885
9.550000	-1.388317	142.305196	-22.046064	-154.038267	-22.046064	-154.038267	-2.475749	25.207121
9.600000	-1.339776	138.280642	-22.083159	-161.092828	-22.083159	-161.092828	-2.583831	14.520718
9.650000	-1.295317	134.422323	-22.180748	-168.111951	-22.180748	-168.111951	-2.680837	3.390663
9.700000	-1.254466	130.716598	-22.345944	-175.080123	-22.345944	-175.080123	-2.763783	-8.111943
9.750000	-1.216677	127.145506	-22.587340	178.030716	-22.587340	178.030716	-2.831998	-19.878339
9.800000	-1.181559	123.695658	-22.920791	171.290752	-22.920791	171.290752	-2.887004	-31.791251
9.850000	-1.148855	120.355532	-23.369032	164.885430	-23.369032	164.885430	-2.933235	-43.721946
9.900000	-1.118400	117.110950	-23.942736	159.211997	-23.942736	159.211997	-2.978290	-55.543074
9.950000	-1.090273	113.951245	-24.597445	154.908894	-24.597445	154.908894	-3.031780	-67.139295
10.000000	-1.064751	110.867487	-25.175513	152.321085	-25.175513	152.321085	-3.104828	-78.409546
