! freq	dB(S11)	phase(S11)	dB(S12)	phase(S12)	
!     	dB(S21)	phase(S21)	dB(S22)	phase(S22)	
!S-par simulation data
#  GHz  S  DB  R 50
0.000000	-0.000000	-0.000000	-348.234303	180.000000	-348.234303	180.000000	-0.000000	0.000000
0.050000	-0.000104	-0.866594	-115.682634	87.476195	-115.682634	87.476195	-0.000103	-0.760387
0.100000	-0.000411	-1.732947	-109.881968	85.521704	-109.881968	85.521704	-0.000405	-1.520514
0.150000	-0.000911	-2.598835	-106.634090	84.236372	-106.634090	84.236372	-0.000894	-2.280147
0.200000	-0.001585	-3.464068	-104.419497	83.427273	-104.419497	83.427273	-0.001547	-3.039096
0.250000	-0.002423	-4.328428	-102.775272	82.915132	-102.775272	82.915132	-0.002347	-3.797156
0.300000	-0.003386	-5.191867	-101.489883	82.558834	-101.489883	82.558834	-0.003255	-4.554307
0.350000	-0.004459	-6.054260	-100.468459	82.322178	-100.468459	82.322178	-0.004251	-5.310457
0.400000	-0.005617	-6.915551	-99.654550	82.196130	-99.654550	82.196130	-0.005312	-6.065586
0.450000	-0.006841	-7.775710	-99.014127	82.196949	-99.014127	82.196949	-0.006415	-6.819705
0.500000	-0.008110	-8.634733	-98.525955	82.358618	-98.525955	82.358618	-0.007545	-7.572840
0.550000	-0.009408	-9.492632	-98.176841	82.731242	-98.176841	82.731242	-0.008687	-8.325033
0.600000	-0.010721	-10.349430	-97.959041	83.383639	-97.959041	83.383639	-0.009831	-9.076328
0.650000	-0.012040	-11.205157	-97.868591	84.409639	-97.868591	84.409639	-0.010970	-9.826769
0.700000	-0.013355	-12.059846	-97.903841	85.938616	-97.903841	85.938616	-0.012099	-10.576399
0.750000	-0.014660	-12.913527	-98.063496	88.151382	-98.063496	88.151382	-0.013215	-11.325253
0.800000	-0.015951	-13.766231	-98.343052	91.302131	-98.343052	91.302131	-0.014317	-12.073361
0.850000	-0.017225	-14.617982	-98.727599	95.742956	-98.727599	95.742956	-0.015403	-12.820745
0.900000	-0.018481	-15.468801	-99.177675	101.931835	-99.177675	101.931835	-0.016474	-13.567422
0.950000	-0.019718	-16.318703	-99.605476	110.364942	-99.605476	110.364942	-0.017531	-14.313404
1.000000	-0.020936	-17.167698	-99.850317	121.321958	-99.850317	121.321958	-0.018575	-15.058695
1.050000	-0.022137	-18.015793	-99.695747	134.383188	-99.695747	134.383188	-0.019606	-15.803298
1.100000	-0.023320	-18.862987	-98.983286	148.090599	-98.983286	148.090599	-0.020626	-16.547210
1.150000	-0.024487	-19.709279	-97.749364	160.519930	-97.749364	160.519930	-0.021637	-17.290426
1.200000	-0.025640	-20.554661	-96.192641	170.487289	-96.192641	170.487289	-0.022639	-18.032938
1.250000	-0.026780	-21.399126	-94.517090	177.894650	-94.517090	177.894650	-0.023633	-18.774736
1.300000	-0.027907	-22.242620	-92.839977	-176.873426	-92.839977	-176.873426	-0.024621	-19.515777
1.350000	-0.029025	-23.085169	-91.235650	-173.186566	-91.235650	-173.186566	-0.025602	-20.256079
1.400000	-0.030133	-23.926758	-89.723034	-170.633293	-89.723034	-170.633293	-0.026579	-20.995627
1.450000	-0.031233	-24.767369	-88.303891	-168.913514	-88.303891	-168.913514	-0.027552	-21.734408
1.500000	-0.032327	-25.606985	-86.972933	-167.814009	-86.972933	-167.814009	-0.028521	-22.472407
1.550000	-0.033415	-26.445586	-85.722508	-167.183547	-85.722508	-167.183547	-0.029487	-23.209608
1.600000	-0.034499	-27.283155	-84.544645	-166.913846	-84.544645	-166.913846	-0.030451	-23.945996
1.650000	-0.035579	-28.119670	-83.431870	-166.926256	-83.431870	-166.926256	-0.031413	-24.681555
1.700000	-0.036655	-28.954728	-82.353348	-167.220551	-82.353348	-167.220551	-0.032373	-25.415968
1.750000	-0.037730	-29.789220	-81.362157	-167.615854	-81.362157	-167.615854	-0.033332	-26.149935
1.800000	-0.038804	-30.622346	-80.403574	-168.177902	-80.403574	-168.177902	-0.034291	-26.882829
1.850000	-0.039877	-31.454497	-79.496009	-168.859055	-79.496009	-168.859055	-0.035249	-27.614955
1.900000	-0.040950	-32.285433	-78.624309	-169.637890	-78.624309	-169.637890	-0.036207	-28.346127
1.950000	-0.042022	-33.115156	-77.786725	-170.514406	-77.786725	-170.514406	-0.037165	-29.076345
2.000000	-0.043096	-33.943832	-76.986993	-171.448868	-76.986993	-171.448868	-0.038124	-29.805740
2.050000	-0.044172	-34.771041	-76.208798	-172.464454	-76.208798	-172.464454	-0.039083	-30.533984
2.100000	-0.045248	-35.597606	-75.476006	-173.506803	-75.476006	-173.506803	-0.040044	-31.261720
2.150000	-0.046327	-36.422496	-74.755679	-174.615528	-74.755679	-174.615528	-0.041006	-31.988141
2.200000	-0.047408	-37.246119	-74.059350	-175.765073	-74.059350	-175.765073	-0.041969	-32.713566
2.250000	-0.048493	-38.068457	-73.385403	-176.950474	-73.385403	-176.950474	-0.042935	-33.437982
2.300000	-0.049580	-38.889494	-72.732387	-178.167528	-72.732387	-178.167528	-0.043903	-34.161373
2.350000	-0.050672	-39.709213	-72.098995	-179.412647	-72.098995	-179.412647	-0.044874	-34.883727
2.400000	-0.051767	-40.527597	-71.484045	179.317244	-71.484045	179.317244	-0.045847	-35.605030
2.450000	-0.052867	-41.344630	-70.886464	178.024804	-70.886464	178.024804	-0.046824	-36.325269
2.500000	-0.053971	-42.160299	-70.305278	176.712337	-70.305278	176.712337	-0.047804	-37.044430
2.550000	-0.055081	-42.974526	-69.738671	175.381156	-69.738671	175.381156	-0.048789	-37.762454
2.600000	-0.056196	-43.787357	-69.186843	174.033862	-69.186843	174.033862	-0.049777	-38.479374
2.650000	-0.057317	-44.598779	-68.649034	172.671983	-68.649034	172.671983	-0.050770	-39.195178
2.700000	-0.058444	-45.408778	-68.124547	171.296873	-68.124547	171.296873	-0.051768	-39.909854
2.750000	-0.059578	-46.217342	-67.612736	169.909734	-67.612736	169.909734	-0.052771	-40.623391
2.800000	-0.060718	-47.024458	-67.113007	168.511638	-67.113007	168.511638	-0.053779	-41.335776
2.850000	-0.061866	-47.830114	-66.624806	167.103547	-66.624806	167.103547	-0.054794	-42.046999
2.900000	-0.063021	-48.634300	-66.147623	165.686322	-66.147623	165.686322	-0.055814	-42.757049
2.950000	-0.064184	-49.437004	-65.680980	164.260742	-65.680980	164.260742	-0.056841	-43.465914
3.000000	-0.065355	-50.238216	-65.224431	162.827508	-65.224431	162.827508	-0.057875	-44.173585
3.050000	-0.066535	-51.037926	-64.777563	161.387256	-64.777563	161.387256	-0.058916	-44.880052
3.100000	-0.067724	-51.836125	-64.339985	159.940566	-64.339985	159.940566	-0.059965	-45.585304
3.150000	-0.068923	-52.632805	-63.911334	158.487963	-63.911334	158.487963	-0.061022	-46.289331
3.200000	-0.070131	-53.427957	-63.491268	157.029927	-63.491268	157.029927	-0.062087	-46.992126
3.250000	-0.071349	-54.221572	-63.079465	155.566900	-63.079465	155.566900	-0.063161	-47.693677
3.300000	-0.072579	-55.013644	-62.675623	154.099285	-62.675623	154.099285	-0.064243	-48.393978
3.350000	-0.073821	-55.803895	-62.277654	152.626818	-62.277654	152.626818	-0.065337	-49.092797
3.400000	-0.075075	-56.592521	-61.886817	151.150316	-61.886817	151.150316	-0.066441	-49.790293
3.450000	-0.076335	-57.380330	-61.507834	149.672073	-61.507834	149.672073	-0.067550	-50.487120
3.500000	-0.077615	-58.165686	-61.130392	148.188604	-61.130392	148.188604	-0.068676	-51.181942
3.550000	-0.078899	-58.950495	-60.765594	146.704166	-60.765594	146.704166	-0.069806	-51.876312
3.600000	-0.080205	-59.732561	-60.400737	145.214881	-60.400737	145.214881	-0.070954	-52.568428
3.650000	-0.081515	-60.514352	-60.049161	143.725193	-60.049161	143.725193	-0.072105	-53.260316
3.700000	-0.082851	-61.293112	-59.696156	142.231076	-59.696156	142.231076	-0.073279	-53.949697
3.750000	-0.084187	-62.071872	-59.356938	140.736960	-59.356938	140.736960	-0.074453	-54.639078
3.800000	-0.085553	-62.847313	-59.015117	139.238861	-59.015117	139.238861	-0.075653	-55.325699
3.850000	-0.086920	-63.622755	-58.686240	137.740763	-58.686240	137.740763	-0.076853	-56.012320
3.900000	-0.088318	-64.395147	-58.356233	136.239690	-58.356233	136.239690	-0.078079	-56.696390
3.950000	-0.089718	-65.167261	-58.037156	134.738348	-58.037156	134.738348	-0.079308	-57.380228
4.000000	-0.091147	-65.936601	-57.718239	133.234837	-57.718239	133.234837	-0.080561	-58.061730
4.050000	-0.092582	-66.705385	-57.408468	131.730894	-57.408468	131.730894	-0.081819	-58.742765
4.100000	-0.094044	-67.471673	-57.099984	130.225423	-57.099984	130.225423	-0.083100	-59.421684
4.150000	-0.095516	-68.237128	-56.799061	128.719443	-56.799061	128.719443	-0.084389	-60.099898
4.200000	-0.097014	-69.000367	-56.500410	127.212437	-56.500410	127.212437	-0.085701	-60.776222
4.250000	-0.098524	-69.762498	-56.207914	125.704918	-56.207914	125.704918	-0.087023	-61.451601
4.300000	-0.100059	-70.522694	-55.918548	124.196759	-55.918548	124.196759	-0.088365	-62.125320
4.350000	-0.101610	-71.281510	-55.634088	122.688143	-55.634088	122.688143	-0.089722	-62.797852
4.400000	-0.103183	-72.038674	-55.353503	121.179173	-55.353503	121.179173	-0.091097	-63.468956
4.450000	-0.104778	-72.794187	-55.076716	119.669850	-55.076716	119.669850	-0.092490	-64.138632
4.500000	-0.106391	-73.548331	-54.804453	118.160379	-54.804453	118.160379	-0.093898	-64.807115
4.550000	-0.108030	-74.300559	-54.535002	116.650700	-54.535002	116.650700	-0.095329	-65.473929
4.600000	-0.109685	-75.051698	-54.270633	115.141007	-54.270633	115.141007	-0.096773	-66.139787
4.650000	-0.111371	-75.800662	-54.008203	113.631286	-54.008203	113.631286	-0.098243	-66.803735
4.700000	-0.113069	-76.548816	-53.751336	112.121624	-53.751336	112.121624	-0.099724	-67.466966
4.750000	-0.114804	-77.294541	-53.495633	110.612143	-53.495633	110.612143	-0.101235	-68.128047
4.800000	-0.116547	-78.039731	-53.245905	109.102744	-53.245905	109.102744	-0.102754	-68.788650
4.850000	-0.118332	-78.782245	-52.996654	107.593758	-52.996654	107.593758	-0.104308	-69.446865
4.900000	-0.120122	-79.524495	-52.753727	106.084832	-52.753727	106.084832	-0.105866	-70.104842
4.950000	-0.121960	-80.263832	-52.510671	104.576572	-52.510671	104.576572	-0.107465	-70.760197
5.000000	-0.123798	-81.003170	-52.274232	103.068312	-52.274232	103.068312	-0.109063	-71.415551
5.050000	-0.125691	-81.739366	-52.037129	101.560988	-52.037129	101.560988	-0.110708	-72.068052
5.100000	-0.127584	-82.475562	-51.806327	100.053664	-51.806327	100.053664	-0.112353	-72.720552
5.150000	-0.129529	-83.208916	-51.575509	98.547374	-51.575509	98.547374	-0.114042	-73.370444
5.200000	-0.131478	-83.942012	-51.350136	97.041179	-51.350136	97.041179	-0.115734	-74.020099
5.250000	-0.133476	-84.672560	-51.125326	95.536070	-51.125326	95.536070	-0.117468	-74.667393
5.300000	-0.135484	-85.402599	-50.905186	94.031178	-50.905186	94.031178	-0.119210	-75.314215
5.350000	-0.137537	-86.130380	-50.686123	92.527386	-50.686123	92.527386	-0.120991	-75.958923
5.400000	-0.139606	-86.857409	-50.471031	91.023960	-50.471031	91.023960	-0.122784	-76.602925
5.450000	-0.141716	-87.582465	-50.257474	89.521610	-50.257474	89.521610	-0.124612	-77.245059
5.500000	-0.143846	-88.306536	-50.047255	88.019799	-50.047255	88.019799	-0.126459	-77.886259
5.550000	-0.146015	-89.028911	-49.838976	86.519009	-49.838976	86.519009	-0.128336	-78.525834
5.600000	-0.148210	-89.750077	-49.633464	85.018950	-49.633464	85.018950	-0.130237	-79.164249
5.650000	-0.150438	-90.469818	-49.430251	83.519831	-49.430251	83.519831	-0.132166	-79.801283
5.700000	-0.152699	-91.188137	-49.229288	82.021653	-49.229288	82.021653	-0.134123	-80.436934
5.750000	-0.154988	-91.905294	-49.030941	80.524307	-49.030941	80.524307	-0.136104	-81.071444
5.800000	-0.157318	-92.620826	-48.834379	79.028127	-48.834379	79.028127	-0.138119	-81.704356
5.850000	-0.159670	-93.335451	-48.640709	77.532652	-48.640709	77.532652	-0.140154	-82.336362
5.900000	-0.162069	-94.048261	-48.448408	76.038583	-48.448408	76.038583	-0.142229	-82.966558
5.950000	-0.164486	-94.760407	-48.259238	74.545067	-48.259238	74.545067	-0.144319	-83.596082
6.000000	-0.166957	-95.470563	-48.071062	73.053213	-48.071062	73.053213	-0.146454	-84.223590
6.050000	-0.169440	-96.180287	-47.886225	71.561744	-47.886225	71.561744	-0.148601	-84.850655
6.100000	-0.171984	-96.887858	-47.702047	70.072201	-47.702047	70.072201	-0.150800	-85.475503
6.150000	-0.174536	-97.595220	-47.521386	68.582859	-47.521386	68.582859	-0.153005	-86.100133
6.200000	-0.177155	-98.300281	-47.341084	67.095719	-47.341084	67.095719	-0.155268	-86.722354
6.250000	-0.179775	-99.005341	-47.164449	65.608580	-47.164449	65.608580	-0.157533	-87.344575
6.300000	-0.182472	-99.707968	-46.987908	64.123930	-46.987908	64.123930	-0.159863	-87.964201
6.350000	-0.185169	-100.410594	-46.814883	62.639280	-46.814883	62.639280	-0.162193	-88.583827
6.400000	-0.187938	-101.111062	-46.642266	61.156986	-46.642266	61.156986	-0.164586	-89.201106
6.450000	-0.190715	-101.811334	-46.472749	59.674906	-46.472749	59.674906	-0.166985	-89.818172
6.500000	-0.193558	-102.509713	-46.303921	58.195032	-46.303921	58.195032	-0.169441	-90.433135
6.550000	-0.196415	-103.207714	-46.137811	56.715598	-46.137811	56.715598	-0.171910	-91.047677
6.600000	-0.199333	-103.904074	-45.972644	55.238202	-45.972644	55.238202	-0.174432	-91.660356
6.650000	-0.202273	-104.599888	-45.809847	53.761486	-45.809847	53.761486	-0.176972	-92.272413
6.700000	-0.205269	-105.294304	-45.648218	52.286625	-45.648218	52.286625	-0.179560	-92.882840
6.750000	-0.208292	-105.988020	-45.488644	50.812693	-45.488644	50.812693	-0.182173	-93.492452
6.800000	-0.211366	-106.680566	-45.330437	49.340421	-45.330437	49.340421	-0.184830	-94.100662
6.850000	-0.214476	-107.372276	-45.173999	47.869336	-45.173999	47.869336	-0.187518	-94.707870
6.900000	-0.217630	-108.063029	-45.019104	46.399702	-45.019104	46.399702	-0.190245	-95.313898
6.950000	-0.220828	-108.752827	-44.865718	44.931521	-44.865718	44.931521	-0.193009	-95.918746
7.000000	-0.224063	-109.441867	-44.714030	43.464572	-44.714030	43.464572	-0.195806	-96.522630
7.050000	-0.227350	-110.129849	-44.563617	41.999349	-44.563617	41.999349	-0.198649	-97.125162
7.100000	-0.230667	-110.817259	-44.415035	40.535128	-44.415035	40.535128	-0.201518	-97.726938
7.150000	-0.234046	-111.503526	-44.267517	39.072912	-44.267517	39.072912	-0.204440	-98.327202
7.200000	-0.237448	-112.189389	-44.121947	37.611459	-44.121947	37.611459	-0.207383	-98.926910
7.250000	-0.240919	-112.874042	-43.977251	36.152295	-43.977251	36.152295	-0.210387	-99.524952
7.300000	-0.244406	-113.558444	-43.834601	34.693646	-43.834601	34.693646	-0.213405	-100.122632
7.350000	-0.247972	-114.241590	-43.692655	33.237574	-43.692655	33.237574	-0.216491	-100.718502
7.400000	-0.251546	-114.924619	-43.552839	31.781762	-43.552839	31.781762	-0.219585	-101.314195
7.450000	-0.255208	-115.606365	-43.413576	30.328816	-43.413576	30.328816	-0.222756	-101.907944
7.500000	-0.258871	-116.288111	-43.276510	28.875870	-43.276510	28.875870	-0.225928	-102.501693
7.550000	-0.262630	-116.968569	-43.139863	27.426081	-43.139863	27.426081	-0.229184	-103.093372
7.600000	-0.266390	-117.649026	-43.005332	25.976292	-43.005332	25.976292	-0.232442	-103.685051
7.650000	-0.270241	-118.328408	-42.871375	24.529419	-42.871375	24.529419	-0.235779	-104.274882
7.700000	-0.274101	-119.007691	-42.739320	23.082812	-42.739320	23.082812	-0.239124	-104.864546
7.750000	-0.278044	-119.686092	-42.607975	21.638872	-42.607975	21.638872	-0.242542	-105.452574
7.800000	-0.282005	-120.364318	-42.478337	20.195466	-42.478337	20.195466	-0.245976	-106.040276
7.850000	-0.286042	-121.041839	-42.349532	18.754472	-42.349532	18.754472	-0.249477	-106.626550
7.900000	-0.290106	-121.719126	-42.222256	17.314282	-42.222256	17.314282	-0.253001	-107.212346
7.950000	-0.294239	-122.395869	-42.095920	15.876241	-42.095920	15.876241	-0.256586	-107.796911
8.000000	-0.298406	-123.072340	-41.970953	14.439274	-41.970953	14.439274	-0.260201	-108.380860
8.050000	-0.302635	-123.748408	-41.847019	13.004190	-41.847019	13.004190	-0.263871	-108.963766
8.100000	-0.306909	-124.424189	-41.724309	11.570450	-41.724309	11.570450	-0.267580	-109.545926
8.150000	-0.311236	-125.099688	-41.602714	10.138322	-41.602714	10.138322	-0.271335	-110.127221
8.200000	-0.315616	-125.774906	-41.482211	8.707805	-41.482211	8.707805	-0.275138	-110.707651
8.250000	-0.320042	-126.449945	-41.362894	7.278628	-41.362894	7.278628	-0.278981	-111.287387
8.300000	-0.324531	-127.124733	-41.244552	5.851325	-41.244552	5.851325	-0.282880	-111.866149
8.350000	-0.329058	-127.799421	-41.127453	4.425088	-41.127453	4.425088	-0.286811	-112.444376
8.400000	-0.333657	-128.473912	-41.011226	3.000983	-41.011226	3.000983	-0.290806	-113.021533
8.450000	-0.338285	-129.148363	-40.896291	1.577672	-40.896291	1.577672	-0.294826	-113.598304
8.500000	-0.342996	-129.822695	-40.782136	0.156743	-40.782136	0.156743	-0.298919	-114.173918
8.550000	-0.347727	-130.497024	-40.669311	-1.263662	-40.669311	-1.263662	-0.303029	-114.749287
8.600000	-0.352550	-131.171338	-40.557187	-2.681443	-40.557187	-2.681443	-0.307221	-115.323424
8.650000	-0.357385	-131.845663	-40.446422	-4.098966	-40.446422	-4.098966	-0.311422	-115.897443
8.700000	-0.362322	-132.520103	-40.336289	-5.513634	-40.336289	-5.513634	-0.315714	-116.470169
8.750000	-0.367263	-133.194542	-40.227535	-6.928303	-40.227535	-6.928303	-0.320007	-117.042895
8.800000	-0.372315	-133.869255	-40.119357	-8.339900	-40.119357	-8.339900	-0.324399	-117.614278
8.850000	-0.377371	-134.543968	-40.012510	-9.751497	-40.012510	-9.751497	-0.328794	-118.185660
8.900000	-0.382531	-135.219069	-39.906311	-11.160321	-39.906311	-11.160321	-0.333280	-118.755873
8.950000	-0.387704	-135.894206	-39.801336	-12.568893	-39.801336	-12.568893	-0.337776	-119.325980
9.000000	-0.392973	-136.569825	-39.697074	-13.974989	-39.697074	-13.974989	-0.342356	-119.895083
9.050000	-0.398263	-137.245540	-39.593941	-15.380590	-39.593941	-15.380590	-0.346954	-120.463985
9.100000	-0.403641	-137.921807	-39.491574	-16.784006	-39.491574	-16.784006	-0.351629	-121.032036
9.150000	-0.409051	-138.598258	-39.390254	-18.186695	-39.390254	-18.186695	-0.356331	-121.599804
9.200000	-0.414540	-139.275307	-39.289746	-19.587484	-39.289746	-19.587484	-0.361102	-122.166864
9.250000	-0.420070	-139.952656	-39.190211	-20.987325	-39.190211	-20.987325	-0.365908	-122.733570
9.300000	-0.425670	-140.630625	-39.091526	-22.385544	-39.091526	-22.385544	-0.370774	-123.299700
9.350000	-0.431321	-141.309037	-38.993753	-23.782607	-38.993753	-23.782607	-0.375685	-123.865418
9.400000	-0.437033	-141.988065	-38.896857	-25.178317	-38.896857	-25.178317	-0.380647	-124.430680
9.450000	-0.442806	-142.667709	-38.800822	-26.572676	-38.800822	-26.572676	-0.385663	-124.995486
9.500000	-0.448632	-143.347938	-38.705686	-27.965941	-38.705686	-27.965941	-0.390723	-125.559943
9.550000	-0.454528	-144.028988	-38.611369	-29.357675	-38.611369	-29.357675	-0.395843	-126.123912
9.600000	-0.460467	-144.710566	-38.517964	-30.748563	-38.517964	-30.748563	-0.401000	-126.687629
9.650000	-0.466488	-145.393199	-38.425349	-32.137755	-38.425349	-32.137755	-0.406227	-127.250840
9.700000	-0.472542	-146.076273	-38.333648	-33.526334	-38.333648	-33.526334	-0.411481	-127.813881
9.750000	-0.478687	-146.760671	-38.242718	-34.913071	-38.242718	-34.913071	-0.416813	-128.376413
9.800000	-0.484856	-147.445395	-38.152699	-36.299413	-38.152699	-36.299413	-0.422165	-128.938845
9.850000	-0.491126	-148.131744	-38.063443	-37.683783	-38.063443	-37.683783	-0.427603	-129.500779
9.900000	-0.497411	-148.818272	-37.975084	-39.067963	-37.975084	-39.067963	-0.433052	-130.062669
9.950000	-0.503807	-149.506764	-37.887491	-40.450056	-37.887491	-40.450056	-0.438596	-130.624087
10.000000	-0.510208	-150.195256	-37.800773	-41.832149	-37.800773	-41.832149	-0.444143	-131.185505
