! freq	dB(S11)	phase(S11)	dB(S12)	phase(S12)	
!     	dB(S21)	phase(S21)	dB(S22)	phase(S22)	
!S-par simulation data
#  GHz  S  DB  R 50
0.000000	-0.000000	0.000000	-310.392605	0.000000	-310.392605	0.000000	0.000000	0.000000
0.050000	-0.001060	-1.652514	-95.584186	88.353979	-95.584186	88.353979	-0.001063	-1.652420
0.100000	-0.003573	-3.296978	-89.587783	86.820686	-89.587783	86.820686	-0.003577	-3.296735
0.150000	-0.006451	-4.932460	-86.105129	85.262296	-86.105129	85.262296	-0.006448	-4.932055
0.200000	-0.009116	-6.561767	-83.664959	83.700860	-83.664959	83.700860	-0.009100	-6.561222
0.250000	-0.011508	-8.188032	-81.799411	82.145333	-81.799411	82.145333	-0.011481	-8.187370
0.300000	-0.013673	-9.812423	-80.305712	80.603589	-80.305712	80.603589	-0.013636	-9.811655
0.350000	-0.015693	-11.435540	-79.074523	79.083481	-79.074523	79.083481	-0.015649	-11.434669
0.400000	-0.017635	-13.057508	-78.041349	77.593350	-78.041349	77.593350	-0.017587	-13.056527
0.450000	-0.019541	-14.678097	-77.168993	76.145621	-77.168993	76.145621	-0.019493	-14.676999
0.500000	-0.021441	-16.297218	-76.423720	74.745360	-76.423720	74.745360	-0.021395	-16.295993
0.550000	-0.023347	-17.914629	-75.785480	73.401406	-75.785480	73.401406	-0.023306	-17.913269
0.600000	-0.025265	-19.530081	-75.239675	72.123397	-75.239675	72.123397	-0.025229	-19.528581
0.650000	-0.027196	-21.143329	-74.775434	70.922057	-74.775434	70.922057	-0.027166	-21.141683
0.700000	-0.029138	-22.754135	-74.384529	69.809526	-74.384529	69.809526	-0.029116	-22.752341
0.750000	-0.031092	-24.362099	-74.063868	68.807073	-74.063868	68.807073	-0.031076	-24.360155
0.800000	-0.033052	-25.966996	-73.808202	67.933139	-73.808202	67.933139	-0.033043	-25.964902
0.850000	-0.035016	-27.568684	-73.612333	67.206838	-73.612333	67.206838	-0.035014	-27.566440
0.900000	-0.036980	-29.167218	-73.469406	66.640010	-73.469406	66.640010	-0.036984	-29.164826
0.950000	-0.038943	-30.762241	-73.379910	66.269899	-73.379910	66.269899	-0.038952	-30.759703
1.000000	-0.040901	-32.353588	-73.341470	66.131150	-73.341470	66.131150	-0.040914	-32.350907
1.050000	-0.042853	-33.941285	-73.349705	66.250394	-73.349705	66.250394	-0.042869	-33.938464
1.100000	-0.044795	-35.524802	-73.406144	66.708718	-73.406144	66.708718	-0.044814	-35.521844
1.150000	-0.046728	-37.104221	-73.504149	67.549754	-73.504149	67.549754	-0.046748	-37.101130
1.200000	-0.048649	-38.679422	-73.637857	68.842597	-73.637857	68.842597	-0.048670	-38.676202
1.250000	-0.050558	-40.250295	-73.798553	70.665285	-73.798553	70.665285	-0.050578	-40.246949
1.300000	-0.052454	-41.816589	-73.973161	73.123365	-73.973161	73.123365	-0.052472	-41.813121
1.350000	-0.054336	-43.378350	-74.141622	76.278219	-74.141622	76.278219	-0.054352	-43.374764
1.400000	-0.056205	-44.935490	-74.277756	80.184207	-74.277756	80.184207	-0.056218	-44.931790
1.450000	-0.058060	-46.487929	-74.348574	84.844466	-74.348574	84.844466	-0.058070	-46.484117
1.500000	-0.059901	-48.035591	-74.317209	90.179613	-74.317209	90.179613	-0.059908	-48.031670
1.550000	-0.061730	-49.578407	-74.149479	96.007451	-74.149479	96.007451	-0.061733	-49.574381
1.600000	-0.063546	-51.116314	-73.822755	102.053343	-73.822755	102.053343	-0.063546	-51.112184
1.650000	-0.065351	-52.649253	-73.333087	107.998795	-73.333087	107.998795	-0.065346	-52.645022
1.700000	-0.067144	-54.177171	-72.696244	113.550011	-72.696244	113.550011	-0.067135	-54.172842
1.750000	-0.068927	-55.700021	-71.942078	118.493243	-71.942078	118.493243	-0.068914	-55.695595
1.800000	-0.070700	-57.217760	-71.105793	122.715420	-71.105793	122.715420	-0.070683	-57.213237
1.850000	-0.072464	-58.730348	-70.220521	126.192286	-70.220521	126.192286	-0.072443	-58.725730
1.900000	-0.074221	-60.237752	-69.313281	128.960530	-69.313281	128.960530	-0.074197	-60.233041
1.950000	-0.075971	-61.739943	-68.403994	131.089476	-68.403994	131.089476	-0.075943	-61.735139
2.000000	-0.077715	-63.236897	-67.506243	132.660090	-67.506243	132.660090	-0.077684	-63.232000
2.050000	-0.079454	-64.728592	-66.628665	133.752347	-66.628665	133.752347	-0.079421	-64.723603
2.100000	-0.081189	-66.215013	-65.776333	134.438988	-65.776333	134.438988	-0.081154	-66.209932
2.150000	-0.082922	-67.696149	-64.951885	134.783252	-64.951885	134.783252	-0.082884	-67.690976
2.200000	-0.084652	-69.171992	-64.156352	134.838750	-64.156352	134.838750	-0.084613	-69.166726
2.250000	-0.086382	-70.642538	-63.389745	134.650309	-63.389745	134.650309	-0.086342	-70.637180
2.300000	-0.088111	-72.107788	-62.651451	134.255170	-62.651451	134.255170	-0.088071	-72.102338
2.350000	-0.089842	-73.567748	-61.940493	133.684202	-61.940493	133.684202	-0.089801	-73.562205
2.400000	-0.091574	-75.022426	-61.255696	132.963012	-61.255696	132.963012	-0.091533	-75.016790
2.450000	-0.093309	-76.471835	-60.595804	132.112896	-60.595804	132.112896	-0.093268	-76.466106
2.500000	-0.095048	-77.915992	-59.959540	131.151630	-59.959540	131.151630	-0.095008	-77.910168
2.550000	-0.096791	-79.354690	-59.344754	130.090512	-59.344754	130.090512	-0.096752	-79.348773
2.600000	-0.098541	-80.788184	-58.751287	128.946636	-58.751287	128.946636	-0.098503	-80.782172
2.650000	-0.100296	-82.216500	-58.177975	127.730402	-58.177975	127.730402	-0.100259	-82.210393
2.700000	-0.102058	-83.639672	-57.623726	126.450679	-57.623726	126.450679	-0.102024	-83.633471
2.750000	-0.103829	-85.057734	-57.087521	125.115063	-57.087521	125.115063	-0.103796	-85.051438
2.800000	-0.105608	-86.470726	-56.568413	123.730092	-56.568413	123.730092	-0.105577	-86.464336
2.850000	-0.107396	-87.878689	-56.065521	122.301422	-56.065521	122.301422	-0.107368	-87.872205
2.900000	-0.109195	-89.281670	-55.578028	120.833965	-55.578028	120.833965	-0.109169	-89.275092
2.950000	-0.111005	-90.679717	-55.105178	119.332007	-55.105178	119.332007	-0.110982	-90.673046
3.000000	-0.112827	-92.072882	-54.646266	117.799307	-54.646266	117.799307	-0.112806	-92.066119
3.050000	-0.114661	-93.461220	-54.200640	116.239173	-54.200640	116.239173	-0.114642	-93.454366
3.100000	-0.116508	-94.844790	-53.767695	114.654527	-53.767695	114.654527	-0.116492	-94.837844
3.150000	-0.118369	-96.223651	-53.346865	113.047965	-53.346865	113.047965	-0.118356	-96.216616
3.200000	-0.120244	-97.597868	-52.937626	111.421795	-52.937626	111.421795	-0.120234	-97.590745
3.250000	-0.122135	-98.967507	-52.539486	109.778085	-52.539486	109.778085	-0.122128	-98.960297
3.300000	-0.124042	-100.332637	-52.151988	108.118688	-52.151988	108.118688	-0.124037	-100.325342
3.350000	-0.125966	-101.693331	-51.774703	106.445270	-51.774703	106.445270	-0.125963	-101.685952
3.400000	-0.127907	-103.049662	-51.407229	104.759338	-51.407229	104.759338	-0.127907	-103.042201
3.450000	-0.129866	-104.401707	-51.049188	103.062256	-51.049188	103.062256	-0.129868	-104.394167
3.500000	-0.131843	-105.749546	-50.700227	101.355260	-50.700227	101.355260	-0.131848	-105.741927
3.550000	-0.133840	-107.093259	-50.360010	99.639477	-50.360010	99.639477	-0.133846	-107.085565
3.600000	-0.135857	-108.432930	-50.028222	97.915935	-50.028222	97.915935	-0.135865	-108.425163
3.650000	-0.137894	-109.768646	-49.704566	96.185570	-49.704566	96.185570	-0.137905	-109.760808
3.700000	-0.139953	-111.100493	-49.388760	94.449244	-49.388760	94.449244	-0.139965	-111.092588
3.750000	-0.142034	-112.428563	-49.080536	92.707741	-49.080536	92.707741	-0.142047	-112.420592
3.800000	-0.144138	-113.752791	-48.779507	90.961622	-48.779507	90.961622	-0.144153	-113.744757
3.850000	-0.146266	-115.073435	-48.485588	89.211766	-48.485588	89.211766	-0.146282	-115.065341
3.900000	-0.148418	-116.390592	-48.198546	87.458774	-48.198546	87.458774	-0.148434	-116.382441
3.950000	-0.150594	-117.704358	-47.918162	85.703199	-47.918162	85.703199	-0.150611	-117.696153
4.000000	-0.152795	-119.014834	-47.644225	83.945546	-47.644225	83.945546	-0.152813	-119.006578
4.050000	-0.155022	-120.322120	-47.376535	82.186282	-47.376535	82.186282	-0.155041	-120.313816
4.100000	-0.157276	-121.626318	-47.114900	80.425831	-47.114900	80.425831	-0.157295	-121.617970
4.150000	-0.159557	-122.927534	-46.859137	78.664582	-46.859137	78.664582	-0.159576	-122.919144
4.200000	-0.161865	-124.225873	-46.609070	76.902890	-46.609070	76.902890	-0.161884	-124.217444
4.250000	-0.164201	-125.521441	-46.364531	75.141077	-46.364531	75.141077	-0.164220	-125.512976
4.300000	-0.166567	-126.814347	-46.125360	73.379435	-46.125360	73.379435	-0.166585	-126.805850
4.350000	-0.168961	-128.104701	-45.891403	71.618228	-45.891403	71.618228	-0.168980	-128.096175
4.400000	-0.171386	-129.392614	-45.662512	69.857693	-45.662512	69.857693	-0.171404	-129.384061
4.450000	-0.173841	-130.678198	-45.438545	68.098040	-45.438545	68.098040	-0.173858	-130.669622
4.500000	-0.176327	-131.961568	-45.219367	66.339456	-45.219367	66.339456	-0.176344	-131.952971
4.550000	-0.178845	-133.242837	-45.004848	64.582105	-45.004848	64.582105	-0.178860	-133.234223
4.600000	-0.181395	-134.522121	-44.794864	62.826129	-44.794864	62.826129	-0.181409	-134.513493
4.650000	-0.183978	-135.799538	-44.589294	61.071649	-44.589294	61.071649	-0.183991	-135.790899
4.700000	-0.186593	-137.075206	-44.388027	59.318768	-44.388027	59.318768	-0.186605	-137.066558
4.750000	-0.189242	-138.349244	-44.190952	57.567571	-44.190952	57.567571	-0.189253	-138.340589
4.800000	-0.191926	-139.621771	-43.997965	55.818123	-43.997965	55.818123	-0.191935	-139.613113
4.850000	-0.194643	-140.892910	-43.808968	54.070476	-43.808968	54.070476	-0.194652	-140.884251
4.900000	-0.197396	-142.162781	-43.623865	52.324666	-43.623865	52.324666	-0.197403	-142.154124
4.950000	-0.200184	-143.431509	-43.442567	50.580714	-43.442567	50.580714	-0.200190	-143.422856
5.000000	-0.203008	-144.699217	-43.264988	48.838630	-43.264988	48.838630	-0.203013	-144.690570
5.050000	-0.205869	-145.965997	-43.091055	47.098491	-43.091055	47.098491	-0.205873	-145.957358
5.100000	-0.208767	-147.232018	-42.920689	45.360201	-42.920689	45.360201	-0.208770	-147.223390
5.150000	-0.211702	-148.497408	-42.753818	43.623737	-42.753818	43.623737	-0.211703	-148.488793
5.200000	-0.214674	-149.762294	-42.590374	41.889064	-42.590374	41.889064	-0.214674	-149.753694
5.250000	-0.217684	-151.026805	-42.430293	40.156143	-42.430293	40.156143	-0.217683	-151.018220
5.300000	-0.220731	-152.291068	-42.273515	38.424929	-42.273515	38.424929	-0.220729	-152.282501
5.350000	-0.223816	-153.555214	-42.119984	36.695370	-42.119984	36.695370	-0.223814	-153.546666
5.400000	-0.226940	-154.819373	-41.969650	34.967411	-41.969650	34.967411	-0.226936	-154.810846
5.450000	-0.230102	-156.083676	-41.822464	33.240995	-41.822464	33.240995	-0.230098	-156.075171
5.500000	-0.233302	-157.348255	-41.678382	31.516062	-41.678382	31.516062	-0.233298	-157.339773
5.550000	-0.236542	-158.613242	-41.537364	29.792552	-41.537364	29.792552	-0.236537	-158.604784
5.600000	-0.239820	-159.878770	-41.399375	28.070408	-41.399375	28.070408	-0.239815	-159.870338
5.650000	-0.243138	-161.144974	-41.264382	26.349572	-41.264382	26.349572	-0.243132	-161.136568
5.700000	-0.246495	-162.411987	-41.132355	24.629989	-41.132355	24.629989	-0.246489	-162.403608
5.750000	-0.249891	-163.679944	-41.003270	22.911611	-41.003270	22.911611	-0.249885	-163.671593
5.800000	-0.253326	-164.948981	-40.877105	21.194394	-40.877105	21.194394	-0.253320	-164.940658
5.850000	-0.256800	-166.219233	-40.753840	19.478299	-40.753840	19.478299	-0.256795	-166.210939
5.900000	-0.260314	-167.490838	-40.633461	17.763297	-40.633461	17.763297	-0.260310	-167.482573
5.950000	-0.263868	-168.763931	-40.515954	16.049367	-40.515954	16.049367	-0.263863	-168.755696
6.000000	-0.267460	-170.038650	-40.401311	14.336499	-40.401311	14.336499	-0.267457	-170.030446
6.050000	-0.271091	-171.315134	-40.289525	12.624693	-40.289525	12.624693	-0.271089	-171.306960
6.100000	-0.274762	-172.593520	-40.180591	10.913961	-40.180591	10.913961	-0.274761	-172.585378
6.150000	-0.278471	-173.873948	-40.074508	9.204329	-40.074508	9.204329	-0.278471	-173.865836
6.200000	-0.282219	-175.156555	-39.971278	7.495838	-39.971278	7.495838	-0.282221	-175.148475
6.250000	-0.286006	-176.441482	-39.870902	5.788543	-39.870902	5.788543	-0.286009	-176.433434
6.300000	-0.289833	-177.728981	-39.773465	4.082575	-39.773465	4.082575	-0.289837	-177.720966
6.350000	-0.293697	-179.019092	-39.678902	2.377974	-39.678902	2.377974	-0.293704	-179.011109
6.400000	-0.297600	179.688045	-39.587221	0.674848	-39.587221	0.674848	-0.297608	179.695995
6.450000	-0.301540	178.392291	-39.498431	-1.026673	-39.498431	-1.026673	-0.301550	178.400207
6.500000	-0.305517	177.093505	-39.412543	-2.726443	-39.412543	-2.726443	-0.305530	177.101387
6.550000	-0.309532	175.791547	-39.329570	-4.424294	-39.329570	-4.424294	-0.309546	175.799393
6.600000	-0.313582	174.486276	-39.249524	-6.120038	-39.249524	-6.120038	-0.313600	174.494086
6.650000	-0.317669	173.177551	-39.172418	-7.813466	-39.172418	-7.813466	-0.317689	173.185324
6.700000	-0.321792	171.865234	-39.098264	-9.504348	-39.098264	-9.504348	-0.321814	171.872968
6.750000	-0.325950	170.549183	-39.027077	-11.192434	-39.027077	-11.192434	-0.325975	170.556878
6.800000	-0.330143	169.229259	-38.958870	-12.877450	-38.958870	-12.877450	-0.330171	169.236912
6.850000	-0.334371	167.905323	-38.893653	-14.559103	-38.893653	-14.559103	-0.334401	167.912933
6.900000	-0.338633	166.577235	-38.831441	-16.237076	-38.831441	-16.237076	-0.338666	166.584799
6.950000	-0.342928	165.244858	-38.772242	-17.911033	-38.772242	-17.911033	-0.342964	165.252373
7.000000	-0.347256	163.908051	-38.716067	-19.580618	-38.716067	-19.580618	-0.347295	163.915516
7.050000	-0.351617	162.566680	-38.662924	-21.245452	-38.662924	-21.245452	-0.351659	162.574090
7.100000	-0.356010	161.220606	-38.612820	-22.905137	-38.612820	-22.905137	-0.356055	161.227958
7.150000	-0.360435	159.869694	-38.565758	-24.559258	-38.565758	-24.559258	-0.360483	159.876983
7.200000	-0.364891	158.513808	-38.521742	-26.207378	-38.521742	-26.207378	-0.364941	158.521032
7.250000	-0.369377	157.152816	-38.480772	-27.849045	-38.480772	-27.849045	-0.369430	157.159968
7.300000	-0.373893	155.786585	-38.442847	-29.483789	-38.442847	-29.483789	-0.373949	155.793659
7.350000	-0.378438	154.414982	-38.407961	-31.111122	-38.407961	-31.111122	-0.378497	154.421974
7.400000	-0.383013	153.037879	-38.376108	-32.730544	-38.376108	-32.730544	-0.383074	153.044780
7.450000	-0.387615	151.655146	-38.347278	-34.341539	-38.347278	-34.341539	-0.387679	151.661951
7.500000	-0.392246	150.266658	-38.321459	-35.943578	-38.321459	-35.943578	-0.392312	150.273357
7.550000	-0.396905	148.872027	-38.298761	-37.535678	-38.298761	-37.535678	-0.396974	148.878612
7.600000	-0.401590	147.471382	-38.279039	-39.117676	-38.279039	-39.117676	-0.401662	147.477843
7.650000	-0.406302	146.064601	-38.262270	-40.689004	-38.262270	-40.689004	-0.406376	146.070928
7.700000	-0.411040	144.651568	-38.248430	-42.249086	-38.248430	-42.249086	-0.411115	144.657750
7.750000	-0.415803	143.232167	-38.237491	-43.797338	-38.237491	-43.797338	-0.415880	143.238191
7.800000	-0.420590	141.806285	-38.229421	-45.333165	-38.229421	-45.333165	-0.420670	141.812139
7.850000	-0.425403	140.373812	-38.224188	-46.855962	-38.224188	-46.855962	-0.425484	140.379482
7.900000	-0.430239	138.934642	-38.221755	-48.365117	-38.221755	-48.365117	-0.430322	138.940114
7.950000	-0.435099	137.488672	-38.222084	-49.860008	-38.222084	-49.860008	-0.435184	137.493929
8.000000	-0.439983	136.035801	-38.225133	-51.340003	-38.225133	-51.340003	-0.440069	136.040827
8.050000	-0.444889	134.575935	-38.230861	-52.804460	-38.230861	-52.804460	-0.444977	134.580711
8.100000	-0.449819	133.108981	-38.239221	-54.252726	-38.239221	-54.252726	-0.449908	133.113488
8.150000	-0.454771	131.634851	-38.250168	-55.684132	-38.250168	-55.684132	-0.454862	131.639069
8.200000	-0.459746	130.153462	-38.263653	-57.097995	-38.263653	-57.097995	-0.459838	130.157370
8.250000	-0.464744	128.664737	-38.279627	-58.493614	-38.279627	-58.493614	-0.464837	128.668311
8.300000	-0.469764	127.168601	-38.298041	-59.870266	-38.298041	-59.870266	-0.469859	127.171817
8.350000	-0.474807	125.664986	-38.318844	-61.227203	-38.318844	-61.227203	-0.474903	125.667819
8.400000	-0.479873	124.153830	-38.341987	-62.563647	-38.341987	-62.563647	-0.479970	124.156252
8.450000	-0.484961	122.635075	-38.367418	-63.878784	-38.367418	-63.878784	-0.485060	122.637059
8.500000	-0.490073	121.108671	-38.395090	-65.171757	-38.395090	-65.171757	-0.490173	121.110186
8.550000	-0.495208	119.574573	-38.424955	-66.441660	-38.424955	-66.441660	-0.495310	119.575589
8.600000	-0.500368	118.032743	-38.456968	-67.687526	-38.456968	-67.687526	-0.500471	118.033227
8.650000	-0.505552	116.483150	-38.491086	-68.908317	-38.491086	-68.908317	-0.505657	116.483068
8.700000	-0.510761	114.925771	-38.527271	-70.102912	-38.527271	-70.102912	-0.510869	114.925086
8.750000	-0.515996	113.360588	-38.565491	-71.270092	-38.565491	-71.270092	-0.516106	113.359263
8.800000	-0.521259	111.787254	-38.605793	-72.407198	-38.605793	-72.407198	-0.521372	111.785249
8.850000	-0.526550	110.206108	-38.648079	-73.513921	-38.648079	-73.513921	-0.526667	110.203381
8.900000	-0.531869	108.617159	-38.692339	-74.588593	-38.692339	-74.588593	-0.531990	108.613669
8.950000	-0.537219	107.020424	-38.738576	-75.629338	-38.738576	-75.629338	-0.537344	107.016126
9.000000	-0.542599	105.415929	-38.786807	-76.634041	-38.786807	-76.634041	-0.542730	105.410779
9.050000	-0.548013	103.803711	-38.837068	-77.600294	-38.837068	-77.600294	-0.548149	103.797660
9.100000	-0.553460	102.183814	-38.889421	-78.525345	-38.889421	-78.525345	-0.553604	102.176814
9.150000	-0.558943	100.556292	-38.943953	-79.406018	-38.943953	-79.406018	-0.559095	100.548292
9.200000	-0.564464	98.921209	-39.000792	-80.238634	-39.000792	-80.238634	-0.564624	98.912158
9.250000	-0.570024	97.278641	-39.060113	-81.018896	-39.060113	-81.018896	-0.570194	97.268485
9.300000	-0.575625	95.628672	-39.122151	-81.741757	-39.122151	-81.741757	-0.575807	95.617356
9.350000	-0.581270	93.971397	-39.187227	-82.401246	-39.187227	-82.401246	-0.581464	93.958864
9.400000	-0.586955	92.307846	-39.255316	-83.000538	-39.255316	-83.000538	-0.587163	92.294046
9.450000	-0.592694	90.636195	-39.327836	-83.510960	-39.327836	-83.510960	-0.592917	90.621060
9.500000	-0.598483	88.957591	-39.405136	-83.932098	-39.405136	-83.932098	-0.598724	88.941060
9.550000	-0.604326	87.272172	-39.488244	-84.251405	-39.488244	-84.251405	-0.604586	87.254183
9.600000	-0.610225	85.580089	-39.578557	-84.453490	-39.578557	-84.453490	-0.610505	85.560579
9.650000	-0.616183	83.881504	-39.677999	-84.519344	-39.677999	-84.519344	-0.616486	83.860408
9.700000	-0.622202	82.176590	-39.789247	-84.425319	-39.789247	-84.425319	-0.622531	82.153842
9.750000	-0.628286	80.465531	-39.916085	-84.141824	-39.916085	-84.141824	-0.628643	80.441065
9.800000	-0.634438	78.748523	-40.063954	-83.631677	-40.063954	-83.631677	-0.634825	78.722271
9.850000	-0.640662	77.025773	-40.240815	-82.848135	-40.240815	-82.848135	-0.641082	76.997666
9.900000	-0.646960	75.297500	-40.458570	-81.732803	-40.458570	-81.732803	-0.647415	75.267468
9.950000	-0.653336	73.563932	-40.735393	-80.214171	-40.735393	-80.214171	-0.653830	73.531906
10.000000	-0.659793	71.825310	-41.099700	-78.208865	-41.099700	-78.208865	-0.660329	71.791220
