! freq	dB(S11)	phase(S11)	dB(S12)	phase(S12)	
!     	dB(S21)	phase(S21)	dB(S22)	phase(S22)	
!S-par simulation data
#  GHz  S  DB  R 50
0.000000	-0.000000	0.000000	-350.668281	0.000000	-350.668281	0.000000	-0.000000	0.000000
0.050000	-0.000689	-1.341833	-103.034229	88.688159	-103.034229	88.688159	-0.001055	-1.345264
0.100000	-0.002393	-2.678880	-97.048529	87.382161	-97.048529	87.382161	-0.003186	-2.681436
0.150000	-0.004478	-4.009849	-93.587184	86.089504	-93.587184	86.089504	-0.005242	-4.010267
0.200000	-0.006544	-5.336515	-91.168589	84.816255	-91.168589	84.816255	-0.007022	-5.335883
0.250000	-0.008461	-6.660346	-89.334998	83.571780	-89.334998	83.571780	-0.008617	-6.659954
0.300000	-0.010228	-7.982370	-87.889325	82.370618	-87.889325	82.370618	-0.010141	-7.982944
0.350000	-0.011923	-9.303520	-86.703086	81.210332	-86.703086	81.210332	-0.011668	-9.305174
0.400000	-0.013572	-10.623870	-85.720566	80.105327	-85.720566	80.105327	-0.013226	-10.626476
0.450000	-0.015208	-11.943490	-84.903019	79.069059	-84.903019	79.069059	-0.014833	-11.946722
0.500000	-0.016858	-13.262264	-84.232079	78.127826	-84.232079	78.127826	-0.016501	-13.265676
0.550000	-0.018531	-14.580221	-83.677967	77.287621	-83.677967	77.287621	-0.018217	-14.583445
0.600000	-0.020227	-15.897274	-83.227215	76.567850	-83.227215	76.567850	-0.019976	-15.899991
0.650000	-0.021945	-17.213324	-82.870257	75.991934	-82.870257	75.991934	-0.021772	-17.215285
0.700000	-0.023678	-18.528271	-82.600333	75.588347	-82.600333	75.588347	-0.023597	-18.529306
0.750000	-0.025422	-19.842008	-82.412755	75.391884	-82.412755	75.391884	-0.025443	-19.842033
0.800000	-0.027170	-21.154427	-82.304396	75.445175	-82.304396	75.445175	-0.027299	-21.153442
0.850000	-0.028912	-22.465175	-82.284664	75.863263	-82.284664	75.863263	-0.029155	-22.463286
0.900000	-0.030642	-23.774290	-82.341558	76.702856	-82.341558	76.702856	-0.030997	-23.771668
0.950000	-0.032357	-25.081714	-82.468859	78.054673	-82.468859	78.054673	-0.032816	-25.078562
1.000000	-0.034053	-26.387349	-82.660366	80.044908	-82.660366	80.044908	-0.034602	-26.383884
1.050000	-0.035731	-27.691102	-82.905090	82.826147	-82.905090	82.826147	-0.036350	-27.687539
1.100000	-0.037388	-28.992886	-83.183953	86.573155	-83.183953	86.573155	-0.038055	-28.989419
1.150000	-0.039026	-30.292623	-83.465473	91.470488	-83.465473	91.470488	-0.039715	-30.289413
1.200000	-0.040645	-31.590049	-83.687622	97.805829	-83.687622	97.805829	-0.041326	-31.587221
1.250000	-0.042247	-32.885063	-83.749810	105.587391	-83.749810	105.587391	-0.042894	-32.882684
1.300000	-0.043837	-34.177824	-83.574800	114.322873	-83.574800	114.322873	-0.044430	-34.175915
1.350000	-0.045416	-35.468290	-83.111534	123.396482	-83.111534	123.396482	-0.045940	-35.466844
1.400000	-0.046986	-36.756423	-82.363836	132.124394	-82.363836	132.124394	-0.047430	-36.755410
1.450000	-0.048551	-38.042189	-81.385580	139.927974	-81.385580	139.927974	-0.048908	-38.041569
1.500000	-0.050111	-39.325560	-80.255739	146.458343	-80.255739	146.458343	-0.050379	-39.325283
1.550000	-0.051668	-40.606453	-79.046412	151.609982	-79.046412	151.609982	-0.051849	-40.606470
1.600000	-0.053224	-41.884491	-77.796146	155.373947	-77.796146	155.373947	-0.053324	-41.884745
1.650000	-0.054780	-43.160052	-76.573817	158.172181	-76.573817	158.172181	-0.054805	-43.160503
1.700000	-0.056337	-44.433216	-75.399244	160.204938	-75.399244	160.204938	-0.056294	-44.433830
1.750000	-0.057896	-45.703758	-74.270329	161.563813	-74.270329	161.563813	-0.057795	-45.704504
1.800000	-0.059458	-46.971707	-73.192348	162.399860	-73.192348	162.399860	-0.059307	-46.972562
1.850000	-0.061024	-48.237048	-72.164855	162.818145	-72.164855	162.818145	-0.060830	-48.237991
1.900000	-0.062593	-49.499765	-71.185750	162.900380	-71.185750	162.900380	-0.062366	-49.500780
1.950000	-0.064166	-50.759841	-70.252192	162.710066	-70.252192	162.710066	-0.063913	-50.760917
2.000000	-0.065743	-52.017263	-69.361091	162.296758	-69.361091	162.296758	-0.065472	-52.018390
2.050000	-0.067326	-53.272019	-68.509375	161.699393	-68.509375	161.699393	-0.067042	-53.273190
2.100000	-0.068913	-54.524097	-67.694120	160.948816	-67.694120	160.948816	-0.068622	-54.525306
2.150000	-0.070506	-55.773487	-66.912612	160.069677	-66.912612	160.069677	-0.070213	-55.774728
2.200000	-0.072104	-57.020179	-66.162362	159.081848	-66.162362	159.081848	-0.071813	-57.021449
2.250000	-0.073708	-58.264167	-65.441110	158.001489	-65.441110	158.001489	-0.073424	-58.265462
2.300000	-0.075319	-59.505443	-64.746804	156.841851	-64.746804	156.841851	-0.075043	-59.506760
2.350000	-0.076936	-60.744005	-64.077591	155.613885	-64.077591	155.613885	-0.076671	-60.745340
2.400000	-0.078561	-61.979847	-63.431795	154.326711	-63.431795	154.326711	-0.078309	-61.981199
2.450000	-0.080192	-63.212969	-62.807897	152.987976	-62.807897	152.987976	-0.079955	-63.214335
2.500000	-0.081831	-64.443372	-62.204523	151.604137	-62.204523	151.604137	-0.081609	-64.444749
2.550000	-0.083479	-65.670938	-61.619558	150.179177	-61.619558	150.179177	-0.083273	-65.672325
2.600000	-0.085135	-66.895791	-61.052840	148.719644	-61.052840	148.719644	-0.084947	-66.897185
2.650000	-0.086800	-68.117935	-60.503322	147.229491	-60.503322	147.229491	-0.086629	-68.119336
2.700000	-0.088475	-69.337377	-59.970043	145.712138	-59.970043	145.712138	-0.088321	-69.338784
2.750000	-0.090160	-70.554128	-59.452127	144.170557	-59.452127	144.170557	-0.090022	-70.555539
2.800000	-0.091856	-71.768197	-58.948769	142.607346	-58.948769	142.607346	-0.091734	-71.769612
2.850000	-0.093563	-72.979597	-58.459230	141.024782	-58.459230	141.024782	-0.093456	-72.981016
2.900000	-0.095281	-74.188343	-57.982828	139.424868	-57.982828	139.424868	-0.095190	-74.189766
2.950000	-0.097012	-75.394451	-57.518933	137.809377	-57.518933	137.809377	-0.096935	-75.395878
3.000000	-0.098756	-76.597939	-57.066963	136.179879	-57.066963	136.179879	-0.098692	-76.599370
3.050000	-0.100513	-77.798827	-56.626378	134.537772	-56.626378	134.537772	-0.100462	-77.800264
3.100000	-0.102284	-78.997136	-56.196675	132.884302	-56.196675	132.884302	-0.102245	-78.998580
3.150000	-0.104071	-80.192889	-55.777389	131.220587	-55.777389	131.220587	-0.104042	-80.194343
3.200000	-0.105873	-81.386113	-55.368083	129.547629	-55.368083	129.547629	-0.105853	-81.387577
3.250000	-0.107691	-82.576833	-54.968351	127.866331	-54.968351	127.866331	-0.107680	-82.578309
3.300000	-0.109525	-83.765079	-54.577812	126.177507	-54.577812	126.177507	-0.109523	-83.766570
3.350000	-0.111378	-84.950880	-54.196110	124.481895	-54.196110	124.481895	-0.111383	-84.952389
3.400000	-0.113249	-86.134269	-53.822910	122.780162	-53.822910	122.780162	-0.113260	-86.135798
3.450000	-0.115138	-87.315279	-53.457898	121.072916	-53.457898	121.072916	-0.115156	-87.316832
3.500000	-0.117048	-88.493947	-53.100779	119.360712	-53.100779	119.360712	-0.117070	-88.495525
3.550000	-0.118978	-89.670309	-52.751272	117.644054	-52.751272	117.644054	-0.119004	-89.671916
3.600000	-0.120929	-90.844403	-52.409116	115.923405	-52.409116	115.923405	-0.120958	-90.846044
3.650000	-0.122901	-92.016272	-52.074062	114.199187	-52.074062	114.199187	-0.122933	-92.017948
3.700000	-0.124896	-93.185955	-51.745875	112.471790	-51.745875	112.471790	-0.124931	-93.187671
3.750000	-0.126915	-94.353498	-51.424333	110.741571	-51.424333	110.741571	-0.126951	-94.355257
3.800000	-0.128958	-95.518857	-51.109007	109.008764	-51.109007	109.008764	-0.128996	-95.520661
3.850000	-0.131027	-96.682171	-50.799937	107.273792	-50.799937	107.273792	-0.131065	-96.684025
3.900000	-0.133120	-97.843490	-50.496930	105.536933	-50.496930	105.536933	-0.133158	-97.845397
3.950000	-0.135240	-99.002864	-50.199805	103.798442	-50.199805	103.798442	-0.135278	-99.004827
4.000000	-0.137387	-100.160343	-49.908387	102.058557	-49.908387	102.058557	-0.137424	-100.162367
4.050000	-0.139561	-101.315982	-49.622512	100.317498	-49.622512	100.317498	-0.139598	-101.318069
4.100000	-0.141763	-102.469835	-49.342022	98.575469	-49.342022	98.575469	-0.141799	-102.471989
4.150000	-0.143994	-103.621959	-49.066767	96.832659	-49.066767	96.832659	-0.144030	-103.624182
4.200000	-0.146255	-104.772410	-48.796605	95.089245	-48.796605	95.089245	-0.146289	-104.774706
4.250000	-0.148546	-105.921248	-48.531397	93.345391	-48.531397	93.345391	-0.148579	-105.923620
4.300000	-0.150868	-107.068533	-48.271015	91.601248	-48.271015	91.601248	-0.150899	-107.070984
4.350000	-0.153222	-108.214328	-48.015331	89.856959	-48.015331	89.856959	-0.153251	-108.216861
4.400000	-0.155607	-109.358695	-47.764227	88.112655	-47.764227	88.112655	-0.155635	-109.361313
4.450000	-0.158026	-110.501699	-47.517587	86.368458	-47.517587	86.368458	-0.158052	-110.504404
4.500000	-0.160477	-111.643406	-47.275303	84.624485	-47.275303	84.624485	-0.160502	-111.646201
4.550000	-0.162963	-112.783883	-47.037267	82.880840	-47.037267	82.880840	-0.162987	-112.786771
4.600000	-0.165484	-113.923200	-46.803380	81.137622	-46.803380	81.137622	-0.165506	-113.926183
4.650000	-0.168039	-115.061425	-46.573544	79.394924	-46.573544	79.394924	-0.168060	-115.064506
4.700000	-0.170630	-116.198631	-46.347665	77.652832	-46.347665	77.652832	-0.170650	-116.201812
4.750000	-0.173258	-117.334889	-46.125656	75.911423	-46.125656	75.911423	-0.173276	-117.338173
4.800000	-0.175922	-118.470275	-45.907428	74.170774	-45.907428	74.170774	-0.175939	-118.473663
4.850000	-0.178624	-119.604862	-45.692900	72.430951	-45.692900	72.430951	-0.178640	-119.608357
4.900000	-0.181364	-120.738727	-45.481992	70.692017	-45.481992	70.692017	-0.181378	-120.742332
4.950000	-0.184142	-121.871949	-45.274628	68.954033	-45.274628	68.954033	-0.184156	-121.875664
5.000000	-0.186959	-123.004605	-45.070735	67.217051	-45.070735	67.217051	-0.186972	-123.008434
5.050000	-0.189817	-124.136759	-44.870188	65.481169	-44.870188	65.481169	-0.189829	-124.140703
5.100000	-0.192715	-125.268517	-44.672981	63.746389	-44.672981	63.746389	-0.192726	-125.272578
5.150000	-0.195653	-126.399961	-44.479047	62.012753	-44.479047	62.012753	-0.195664	-126.404142
5.200000	-0.198632	-127.531176	-44.288323	60.280299	-44.288323	60.280299	-0.198643	-127.535478
5.250000	-0.201652	-128.662246	-44.100749	58.549061	-44.100749	58.549061	-0.201663	-128.666672
5.300000	-0.204713	-129.793258	-43.916266	56.819072	-43.916266	56.819072	-0.204724	-129.797809
5.350000	-0.207816	-130.924299	-43.734818	55.090361	-43.734818	55.090361	-0.207828	-130.928978
5.400000	-0.210962	-132.055458	-43.556351	53.362953	-43.556351	53.362953	-0.210974	-132.060266
5.450000	-0.214151	-133.186825	-43.380813	51.636874	-43.380813	51.636874	-0.214163	-133.191765
5.500000	-0.217382	-134.318490	-43.208154	49.912143	-43.208154	49.912143	-0.217394	-134.323563
5.550000	-0.220656	-135.450545	-43.038327	48.188782	-43.038327	48.188782	-0.220670	-135.455755
5.600000	-0.223975	-136.583084	-42.871286	46.466807	-42.871286	46.466807	-0.223989	-136.588432
5.650000	-0.227337	-137.716201	-42.706986	44.746234	-42.706986	44.746234	-0.227352	-137.721689
5.700000	-0.230743	-138.849991	-42.545386	43.027078	-42.545386	43.027078	-0.230759	-138.855622
5.750000	-0.234194	-139.984550	-42.386445	41.309351	-42.386445	41.309351	-0.234210	-139.990327
5.800000	-0.237689	-141.119977	-42.230125	39.593065	-42.230125	39.593065	-0.237707	-141.125901
5.850000	-0.241229	-142.256370	-42.076388	37.878231	-42.076388	37.878231	-0.241248	-142.262444
5.900000	-0.244815	-143.393828	-41.925200	36.164859	-41.925200	36.164859	-0.244835	-143.400055
5.950000	-0.248445	-144.532452	-41.776527	34.452958	-41.776527	34.452958	-0.248466	-144.538836
6.000000	-0.252121	-145.672344	-41.630337	32.742536	-41.630337	32.742536	-0.252144	-145.678887
6.050000	-0.255842	-146.813607	-41.486599	31.033602	-41.486599	31.033602	-0.255867	-146.820312
6.100000	-0.259609	-147.956345	-41.345284	29.326164	-41.345284	29.326164	-0.259635	-147.963215
6.150000	-0.263422	-149.100662	-41.206366	27.620231	-41.206366	27.620231	-0.263450	-149.107701
6.200000	-0.267281	-150.246665	-41.069818	25.915811	-41.069818	25.915811	-0.267310	-150.253875
6.250000	-0.271186	-151.394460	-40.935614	24.212913	-40.935614	24.212913	-0.271217	-151.401846
6.300000	-0.275138	-152.544243	-40.803748	22.511615	-40.803748	22.511615	-0.275171	-152.551808
6.350000	-0.279137	-153.696045	-40.674187	20.811860	-40.674187	20.811860	-0.279171	-153.703793
6.400000	-0.283182	-154.849976	-40.546909	19.113660	-40.546909	19.113660	-0.283218	-154.857911
6.450000	-0.287272	-156.006146	-40.421897	17.417029	-40.421897	17.417029	-0.287310	-156.014273
6.500000	-0.291409	-157.164667	-40.299132	15.721981	-40.299132	15.721981	-0.291448	-157.172990
6.550000	-0.295591	-158.325652	-40.178597	14.028531	-40.178597	14.028531	-0.295633	-158.334175
6.600000	-0.299819	-159.489215	-40.060277	12.336699	-40.060277	12.336699	-0.299863	-159.497942
6.650000	-0.304093	-160.655468	-39.944158	10.646502	-39.944158	10.646502	-0.304138	-160.664406
6.700000	-0.308413	-161.824529	-39.830227	8.957965	-39.830227	8.957965	-0.308460	-161.833681
6.750000	-0.312778	-162.996511	-39.718472	7.271111	-39.718472	7.271111	-0.312826	-163.005883
6.800000	-0.317187	-164.171533	-39.608882	5.585968	-39.608882	5.585968	-0.317238	-164.181130
6.850000	-0.321642	-165.349711	-39.501448	3.902564	-39.501448	3.902564	-0.321695	-165.359539
6.900000	-0.326142	-166.531164	-39.396161	2.220934	-39.396161	2.220934	-0.326197	-166.541228
6.950000	-0.330686	-167.716010	-39.293015	0.541114	-39.293015	0.541114	-0.330743	-167.726316
7.000000	-0.335274	-168.904368	-39.192002	-1.136857	-39.192002	-1.136857	-0.335333	-168.914922
7.050000	-0.339907	-170.096358	-39.093117	-2.812937	-39.093117	-2.812937	-0.339968	-170.107166
7.100000	-0.344582	-171.292101	-38.996357	-4.487077	-38.996357	-4.487077	-0.344645	-171.303170
7.150000	-0.349301	-172.491718	-38.901718	-6.159228	-38.901718	-6.159228	-0.349366	-172.503054
7.200000	-0.354062	-173.695330	-38.809197	-7.829334	-38.809197	-7.829334	-0.354130	-173.706939
7.250000	-0.358866	-174.903058	-38.718794	-9.497336	-38.718794	-9.497336	-0.358936	-174.914949
7.300000	-0.363711	-176.115026	-38.630507	-11.163170	-38.630507	-11.163170	-0.363783	-176.127204
7.350000	-0.368598	-177.331355	-38.544338	-12.826767	-38.544338	-12.826767	-0.368672	-177.343828
7.400000	-0.373525	-178.552168	-38.460287	-14.488055	-38.460287	-14.488055	-0.373602	-178.564943
7.450000	-0.378493	-179.777588	-38.378358	-16.146954	-38.378358	-16.146954	-0.378572	-179.790672
7.500000	-0.383500	178.992262	-38.298553	-17.803381	-38.298553	-17.803381	-0.383582	178.978861
7.550000	-0.388548	177.757044	-38.220940	-19.457129	-38.220940	-19.457129	-0.388632	177.743317
7.600000	-0.393633	176.516838	-38.145463	-21.108211	-38.145463	-21.108211	-0.393720	176.502779
7.650000	-0.398756	175.271524	-38.072130	-22.756524	-38.072130	-22.756524	-0.398846	175.257123
7.700000	-0.403916	174.020978	-38.000945	-24.401960	-38.000945	-24.401960	-0.404008	174.006228
7.750000	-0.409111	172.765079	-37.931917	-26.044403	-37.931917	-26.044403	-0.409206	172.749971
7.800000	-0.414341	171.503705	-37.865054	-27.683733	-37.865054	-27.683733	-0.414439	171.488231
7.850000	-0.419606	170.236735	-37.800364	-29.319821	-37.800364	-29.319821	-0.419707	170.220886
7.900000	-0.424903	168.964048	-37.737858	-30.952529	-37.737858	-30.952529	-0.425007	168.947816
7.950000	-0.430233	167.685526	-37.677546	-32.581715	-37.677546	-32.581715	-0.430340	167.668902
8.000000	-0.435594	166.401049	-37.619440	-34.207227	-37.619440	-34.207227	-0.435704	166.384024
8.050000	-0.440984	165.110500	-37.563551	-35.828904	-37.563551	-35.828904	-0.441099	165.093064
8.100000	-0.446404	163.813762	-37.509894	-37.446578	-37.509894	-37.446578	-0.446522	163.795908
8.150000	-0.451852	162.510720	-37.458483	-39.060069	-37.458483	-39.060069	-0.451973	162.492438
8.200000	-0.457326	161.201261	-37.409331	-40.669190	-37.409331	-40.669190	-0.457451	161.182541
8.250000	-0.462826	159.885271	-37.362457	-42.273742	-37.362457	-42.273742	-0.462955	159.866105
8.300000	-0.468349	158.562642	-37.317876	-43.873513	-37.317876	-43.873513	-0.468482	158.543020
8.350000	-0.473895	157.233264	-37.275607	-45.468283	-37.275607	-45.468283	-0.474033	157.213177
8.400000	-0.479463	155.897030	-37.235668	-47.057816	-37.235668	-47.057816	-0.479605	155.876470
8.450000	-0.485051	154.553838	-37.198082	-48.641863	-37.198082	-48.641863	-0.485197	154.532795
8.500000	-0.490657	153.203584	-37.162868	-50.220161	-37.162868	-50.220161	-0.490807	153.182049
8.550000	-0.496279	151.846171	-37.130049	-51.792429	-37.130049	-51.792429	-0.496434	151.824134
8.600000	-0.501918	150.481502	-37.099651	-53.358371	-37.099651	-53.358371	-0.502077	150.458954
8.650000	-0.507569	149.109483	-37.071698	-54.917668	-37.071698	-54.917668	-0.507734	149.086416
8.700000	-0.513233	147.730026	-37.046217	-56.469983	-37.046217	-56.469983	-0.513403	147.706429
8.750000	-0.518907	146.343043	-37.023237	-58.014955	-37.023237	-58.014955	-0.519082	146.318909
8.800000	-0.524590	144.948117	-37.002898	-59.551841	-37.002898	-59.551841	-0.524769	144.923437
8.850000	-0.530279	143.545498	-36.985126	-61.080541	-36.985126	-61.080541	-0.530464	143.520263
8.900000	-0.535973	142.135112	-36.969953	-62.600602	-36.969953	-62.600602	-0.536163	142.109313
8.950000	-0.541669	140.716889	-36.957415	-64.111537	-36.957415	-64.111537	-0.541864	140.690517
9.000000	-0.547366	139.290765	-36.947548	-65.612820	-36.947548	-65.612820	-0.547567	139.263813
9.050000	-0.553062	137.856679	-36.940391	-67.103879	-36.940391	-67.103879	-0.553268	137.829139
9.100000	-0.558755	136.414578	-36.935984	-68.584092	-36.935984	-68.584092	-0.558967	136.386442
9.150000	-0.564442	134.964413	-36.934368	-70.052784	-36.934368	-70.052784	-0.564659	134.935674
9.200000	-0.570122	133.506140	-36.935585	-71.509214	-36.935585	-71.509214	-0.570345	133.476790
9.250000	-0.575793	132.039723	-36.939678	-72.952573	-36.939678	-72.952573	-0.576021	132.009756
9.300000	-0.581452	130.565130	-36.946692	-74.381976	-36.946692	-74.381976	-0.581685	130.534539
9.350000	-0.587097	129.082338	-36.956670	-75.796446	-36.956670	-75.796446	-0.587335	129.051116
9.400000	-0.592725	127.591329	-36.969655	-77.194909	-36.969655	-77.194909	-0.592969	127.559471
9.450000	-0.598336	126.092093	-36.985688	-78.576182	-36.985688	-78.576182	-0.598584	126.059593
9.500000	-0.603925	124.584628	-37.004806	-79.938957	-37.004806	-79.938957	-0.604179	124.551480
9.550000	-0.609492	123.068938	-37.027044	-81.281787	-37.027044	-81.281787	-0.609751	123.035139
9.600000	-0.615034	121.545036	-37.052426	-82.603074	-37.052426	-82.603074	-0.615297	121.510581
9.650000	-0.620549	120.012945	-37.080969	-83.901047	-37.080969	-83.901047	-0.620816	119.977830
9.700000	-0.626034	118.472693	-37.112678	-85.173747	-37.112678	-85.173747	-0.626305	118.436915
9.750000	-0.631486	116.924319	-37.147539	-86.419009	-37.147539	-86.419009	-0.631761	116.887875
9.800000	-0.636905	115.367872	-37.185516	-87.634441	-37.185516	-87.634441	-0.637184	115.330759
9.850000	-0.642288	113.803406	-37.226546	-88.817406	-37.226546	-88.817406	-0.642569	113.765623
9.900000	-0.647632	112.230990	-37.270527	-89.965011	-37.270527	-89.965011	-0.647916	112.192536
9.950000	-0.652935	110.650699	-37.317315	-91.074088	-37.317315	-91.074088	-0.653221	110.611572
10.000000	-0.658196	109.062619	-37.366705	-92.141193	-37.366705	-92.141193	-0.658484	109.022820
