! freq	dB(S11)	phase(S11)	dB(S12)	phase(S12)	
!     	dB(S21)	phase(S21)	dB(S22)	phase(S22)	
!S-par simulation data
#  GHz  S  DB  R 50
0.000000	-139.545898	0.000000	-0.000000	0.000000	0.000001	0.000000	-145.566498	0.000000
0.050000	-32.328369	-93.095962	-0.005925	-2.971525	-0.005925	-2.971525	-32.328848	-93.169904
0.100000	-26.332635	-96.166010	-0.019932	-5.912025	-0.019932	-5.912025	-26.333368	-96.312880
0.150000	-22.849968	-99.190324	-0.038196	-8.827193	-0.038196	-8.827193	-22.850917	-99.409044
0.200000	-20.401259	-102.159917	-0.059918	-11.728411	-0.059918	-11.728411	-20.402268	-102.450332
0.250000	-18.521264	-105.074726	-0.085353	-14.618965	-0.085353	-14.618965	-18.522198	-105.437761
0.300000	-17.001870	-107.940573	-0.114705	-17.497927	-0.114705	-17.497927	-17.002706	-108.377713
0.350000	-15.731718	-110.765627	-0.147975	-20.363215	-0.147975	-20.363215	-15.732543	-111.278272
0.400000	-14.644931	-113.556922	-0.185118	-23.212273	-0.185118	-23.212273	-14.645884	-114.146051
0.450000	-13.698973	-116.320464	-0.225954	-26.042926	-0.225954	-26.042926	-13.700185	-116.986583
0.500000	-12.864979	-119.060351	-0.270245	-28.853302	-0.270245	-28.853302	-12.866528	-119.803693
0.550000	-12.122759	-121.778641	-0.317766	-31.641484	-0.317766	-31.641484	-12.124653	-122.599430
0.600000	-11.457145	-124.476470	-0.368205	-34.406209	-0.368205	-34.406209	-11.459329	-125.375165
0.650000	-10.856614	-127.154006	-0.421245	-37.146490	-0.421245	-37.146490	-10.858989	-128.131455
0.700000	-10.312318	-129.810666	-0.476580	-39.861365	-0.476580	-39.861365	-10.314762	-130.868186
0.750000	-9.817134	-132.445618	-0.533892	-42.550178	-0.533892	-42.550178	-9.819530	-133.584998
0.800000	-9.365256	-135.057913	-0.592858	-45.212481	-0.592858	-45.212481	-9.367508	-136.281362
0.850000	-8.951948	-137.646501	-0.653164	-47.847894	-0.653164	-47.847894	-8.953993	-138.956576
0.900000	-8.573226	-140.210419	-0.714494	-50.456221	-0.714494	-50.456221	-8.575037	-141.609938
0.950000	-8.225472	-142.749227	-0.776533	-53.037825	-0.776533	-53.037825	-8.227065	-144.241134
1.000000	-7.905716	-145.262439	-0.838986	-55.592962	-0.838986	-55.592962	-7.907137	-146.849758
1.050000	-7.611377	-147.749762	-0.901571	-58.122021	-0.901571	-58.122021	-7.612699	-149.435544
1.100000	-7.340198	-150.211089	-0.964015	-60.625516	-0.964015	-60.625516	-7.341511	-151.998384
1.150000	-7.090194	-152.646492	-1.026061	-63.104068	-1.026061	-63.104068	-7.091594	-154.538348
1.200000	-6.859610	-155.056206	-1.087464	-65.558393	-1.087464	-65.558393	-6.861192	-157.055683
1.250000	-6.646885	-157.440613	-1.147994	-67.989292	-1.147994	-67.989292	-6.648735	-159.550816
1.300000	-6.450792	-159.799873	-1.207409	-70.397327	-1.207409	-70.397327	-6.452982	-162.024042
1.350000	-6.269911	-162.134982	-1.265529	-72.783773	-1.265529	-72.783773	-6.272495	-164.476450
1.400000	-6.103523	-164.445790	-1.322086	-75.148872	-1.322086	-75.148872	-6.106535	-166.908226
1.450000	-5.949739	-166.735074	-1.377081	-77.495368	-1.377081	-77.495368	-5.953194	-169.322061
1.500000	-5.808211	-169.002491	-1.430248	-79.823289	-1.430248	-79.823289	-5.812108	-171.718096
1.550000	-5.678307	-171.248549	-1.481397	-82.133392	-1.481397	-82.133392	-5.682632	-174.097242
1.600000	-5.558609	-173.475766	-1.530574	-84.428090	-1.530574	-84.428090	-5.563337	-176.462018
1.650000	-5.449630	-175.682517	-1.577325	-86.706422	-1.577325	-86.706422	-5.454728	-178.811853
1.700000	-5.349476	-177.872701	-1.621933	-88.971841	-1.621933	-88.971841	-5.354910	178.849765
1.750000	-5.258462	179.954533	-1.664034	-91.224048	-1.664034	-91.224048	-5.264197	176.522710
1.800000	-5.175879	177.797645	-1.703615	-93.464619	-1.703615	-93.464619	-5.181884	174.205167
1.850000	-5.101302	175.655623	-1.740597	-95.694722	-1.740597	-95.694722	-5.107550	171.895676
1.900000	-5.034423	173.527599	-1.774880	-97.915442	-1.774880	-97.915442	-5.040898	169.592826
1.950000	-4.974898	171.412547	-1.806403	-100.127986	-1.806403	-100.127986	-4.981592	167.295101
2.000000	-4.922352	169.309340	-1.835148	-102.333617	-1.835148	-102.333617	-4.929267	165.000970
2.050000	-4.876520	167.217025	-1.861073	-104.533495	-1.861073	-104.533495	-4.883670	162.708976
2.100000	-4.837172	165.134672	-1.884143	-106.728768	-1.884143	-106.728768	-4.844582	160.417669
2.150000	-4.804107	163.061383	-1.904334	-108.920580	-1.904334	-108.920580	-4.811812	158.125601
2.200000	-4.777154	160.996287	-1.921626	-111.110064	-1.921626	-111.110064	-4.785200	155.831330
2.250000	-4.756167	158.938550	-1.936010	-113.298345	-1.936010	-113.298345	-4.764610	153.533414
2.300000	-4.741029	156.887374	-1.947482	-115.486536	-1.947482	-115.486536	-4.749932	151.230409
2.350000	-4.731644	154.842002	-1.956044	-117.675741	-1.956044	-117.675741	-4.741079	148.920870
2.400000	-4.727940	152.801721	-1.961706	-119.867053	-1.961706	-119.867053	-4.737988	146.603344
2.450000	-4.729867	150.765865	-1.964485	-122.061552	-1.964485	-122.061552	-4.740614	144.276369
2.500000	-4.737399	148.733817	-1.964402	-124.260308	-1.964402	-124.260308	-4.748936	141.938469
2.550000	-4.750648	146.705073	-1.961427	-126.464519	-1.961427	-126.464519	-4.763074	139.587849
2.600000	-4.769506	144.679052	-1.955658	-128.675135	-1.955658	-128.675135	-4.782923	137.223231
2.650000	-4.794007	142.655318	-1.947136	-130.893188	-1.947136	-130.893188	-4.808520	134.843080
2.700000	-4.824203	140.633502	-1.935909	-133.119696	-1.935909	-133.119696	-4.839921	132.445827
2.750000	-4.860165	138.613313	-1.922033	-135.355659	-1.922033	-135.355659	-4.877202	130.029876
2.800000	-4.901984	136.594539	-1.905568	-137.602067	-1.905568	-137.602067	-4.920459	127.593589
2.850000	-4.949769	134.577053	-1.886582	-139.859890	-1.886582	-139.859890	-4.969804	125.135286
2.900000	-5.003647	132.560829	-1.865147	-142.130081	-1.865147	-142.130081	-5.025373	122.653241
2.950000	-5.063764	130.545942	-1.841344	-144.413578	-1.841344	-144.413578	-5.087317	120.145670
3.000000	-5.130285	128.532582	-1.815261	-146.711294	-1.815261	-146.711294	-5.155811	117.610728
3.050000	-5.203393	126.521067	-1.786989	-149.024123	-1.786989	-149.024123	-5.231050	115.046503
3.100000	-5.283291	124.511852	-1.756630	-151.352934	-1.756630	-151.352934	-5.313250	112.451001
3.150000	-5.370268	122.505585	-1.724267	-153.698765	-1.724267	-153.698765	-5.402717	109.821756
3.200000	-5.464567	120.503075	-1.690018	-156.062456	-1.690018	-156.062456	-5.499716	107.156509
3.250000	-5.566379	118.505268	-1.654027	-158.444608	-1.654027	-158.444608	-5.604462	104.453323
3.300000	-5.675983	116.513350	-1.616420	-160.845970	-1.616420	-160.845970	-5.717262	101.709766
3.350000	-5.793674	114.528737	-1.577333	-163.267253	-1.577333	-163.267253	-5.838447	98.923262
3.400000	-5.919769	112.553108	-1.536905	-165.709128	-1.536905	-165.709128	-5.968374	96.091067
3.450000	-6.054601	110.588425	-1.495285	-168.172223	-1.495285	-168.172223	-6.107424	93.210244
3.500000	-6.198520	108.636976	-1.452627	-170.657119	-1.452627	-170.657119	-6.256005	90.277636
3.550000	-6.351896	106.701411	-1.409090	-173.164343	-1.409090	-173.164343	-6.414552	87.289835
3.600000	-6.515111	104.784786	-1.364840	-175.694369	-1.364840	-175.694369	-6.583525	84.243137
3.650000	-6.688563	102.890613	-1.320050	-178.247611	-1.320050	-178.247611	-6.763409	81.133504
3.700000	-6.872661	101.022924	-1.274897	179.175580	-1.274897	179.175580	-6.954715	77.956499
3.750000	-7.067820	99.186334	-1.229561	176.574923	-1.229561	176.574923	-7.157978	74.707233
3.800000	-7.274603	97.387050	-1.184228	173.949679	-1.184228	173.949679	-7.373913	71.378449
3.850000	-7.493268	95.630482	-1.139097	171.300239	-1.139097	171.300239	-7.602925	67.965618
3.900000	-7.724206	93.923575	-1.094359	168.626552	-1.094359	168.626552	-7.845591	64.461897
3.950000	-7.967782	92.274244	-1.050209	165.928651	-1.050209	165.928651	-8.102490	60.859577
4.000000	-8.224312	90.691502	-1.006842	163.206654	-1.006842	163.206654	-8.374189	57.149929
4.050000	-8.494046	89.185598	-0.964451	160.460769	-0.964451	160.460769	-8.661228	53.323029
4.100000	-8.777130	87.768161	-0.923230	157.691292	-0.923230	157.691292	-8.964092	49.367565
4.150000	-9.073574	86.452346	-0.883371	154.898611	-0.883371	154.898611	-9.283185	45.270600
4.200000	-9.383196	85.252978	-0.845059	152.083203	-0.845059	152.083203	-9.618780	41.017323
4.250000	-9.705560	84.186665	-0.808478	149.245638	-0.808478	149.245638	-9.970964	36.590781
4.300000	-10.039887	83.271869	-0.773803	146.386573	-0.773803	146.386573	-10.339549	31.971596
4.350000	-10.384958	82.528881	-0.741203	143.506753	-0.741203	143.506753	-10.723973	27.137721
4.400000	-10.738890	81.982026	-0.710862	140.606796	-0.710862	140.606796	-11.123078	22.061337
4.450000	-11.099040	81.655341	-0.682935	137.687643	-0.682935	137.687643	-11.534933	16.713632
4.500000	-11.462010	81.570449	-0.657537	134.750490	-0.657537	134.750490	-11.956760	11.066692
4.550000	-11.823273	81.750255	-0.634793	131.796383	-0.634793	131.796383	-12.384494	5.088278
4.600000	-12.177078	82.214963	-0.614815	128.826426	-0.614815	128.826426	-12.812499	-1.253960
4.650000	-12.516356	82.979484	-0.597699	125.841771	-0.597699	125.841771	-13.233233	-7.989745
4.700000	-12.832760	84.050157	-0.583528	122.843608	-0.583528	122.843608	-13.637010	-15.142008
4.750000	-13.116895	85.421027	-0.572370	119.833157	-0.572370	119.833157	-14.011948	-22.721173
4.800000	-13.358819	87.070246	-0.564275	116.811657	-0.564275	116.811657	-14.344306	-30.718254
4.850000	-13.548838	88.957500	-0.559278	113.780355	-0.559278	113.780355	-14.619367	-39.097918
4.900000	-13.678528	91.023564	-0.557398	110.740496	-0.557398	110.740496	-14.822949	-47.793641
4.950000	-13.741832	93.192885	-0.558638	107.693310	-0.558638	107.693310	-14.943407	-56.707606
5.000000	-13.735944	95.379396	-0.562985	104.640005	-0.562985	104.640005	-14.973647	-65.717361
5.050000	-13.660587	97.491738	-0.570467	101.581690	-0.570467	101.581690	-14.910954	-74.685757
5.100000	-13.521593	99.448444	-0.580985	98.519601	-0.580985	98.519601	-14.762261	-83.483683
5.150000	-13.326331	101.182464	-0.594483	95.454814	-0.594483	95.454814	-14.537915	-92.005134
5.200000	-13.083928	102.644937	-0.610892	92.388346	-0.610892	92.388346	-14.251416	-100.174353
5.250000	-12.804185	103.805986	-0.630135	89.321143	-0.630135	89.321143	-13.917358	-107.947601
5.300000	-12.496672	104.652915	-0.652121	86.254082	-0.652121	86.254082	-13.549741	-115.309402
5.350000	-12.170098	105.186922	-0.676753	83.187960	-0.676753	83.187960	-13.160899	-122.265922
5.400000	-11.831975	105.419328	-0.703927	80.123493	-0.703927	80.123493	-12.761027	-128.837849
5.450000	-11.488366	105.365540	-0.733553	77.061342	-0.733553	77.061342	-12.357990	-135.051124
5.500000	-11.144366	105.049054	-0.765501	74.002049	-0.765501	74.002049	-11.958013	-140.940902
5.550000	-10.803831	104.494429	-0.799642	70.946060	-0.799642	70.946060	-11.565517	-146.542187
5.600000	-10.469567	103.724837	-0.835855	67.893743	-0.835855	67.893743	-11.183500	-151.886865
5.650000	-10.143595	102.762502	-0.874019	64.845381	-0.874019	64.845381	-10.813933	-157.004452
5.700000	-9.827305	101.625303	-0.914041	61.801258	-0.914041	61.801258	-10.458034	-161.918376
5.750000	-9.521643	100.334261	-0.955785	58.761453	-0.955785	58.761453	-10.116474	-166.654859
5.800000	-9.227034	98.917209	-0.999023	55.725650	-0.999023	55.725650	-9.789297	-171.247162
5.850000	-8.943803	97.373796	-1.043804	52.694316	-1.043804	52.694316	-9.476622	-175.695885
5.900000	-8.671996	95.722420	-1.089972	49.667217	-1.089972	49.667217	-9.178166	179.977207
5.950000	-8.411446	93.976929	-1.137406	46.644114	-1.137406	46.644114	-8.893461	175.755809
6.000000	-8.161902	92.148057	-1.186008	43.624771	-1.186008	43.624771	-8.621996	171.627266
6.050000	-7.923034	90.245297	-1.235688	40.608892	-1.235688	40.608892	-8.363202	167.580388
6.100000	-7.694459	88.277034	-1.286360	37.596128	-1.286360	37.596128	-8.116480	163.605243
6.150000	-7.475758	86.250680	-1.337949	34.586080	-1.337949	34.586080	-7.881222	159.692983
6.200000	-7.266493	84.172781	-1.390383	31.578304	-1.390383	31.578304	-7.656818	155.835687
6.250000	-7.066215	82.049133	-1.443603	28.572316	-1.443603	28.572316	-7.442670	152.026232
6.300000	-6.874531	79.884343	-1.497560	25.567605	-1.497560	25.567605	-7.238260	148.258693
6.350000	-6.690934	77.683597	-1.552202	22.563590	-1.552202	22.563590	-7.042954	144.526555
6.400000	-6.514984	75.450903	-1.607493	19.559685	-1.607493	19.559685	-6.856209	140.824502
6.450000	-6.346251	73.189823	-1.663406	16.555282	-1.663406	16.555282	-6.677507	137.147661
6.500000	-6.184320	70.903525	-1.719923	13.549750	-1.719923	13.549750	-6.506352	133.491538
6.550000	-6.028789	68.594825	-1.777033	10.542441	-1.777033	10.542441	-6.342274	129.851976
6.600000	-5.879272	66.266232	-1.834735	7.532688	-1.834735	7.532688	-6.184826	126.225109
6.650000	-5.735398	63.919979	-1.893039	4.519816	-1.893039	4.519816	-6.033586	122.607330
6.700000	-5.596903	61.557607	-1.951967	1.502989	-1.951967	1.502989	-5.888252	118.995336
6.750000	-5.463268	59.181790	-2.011534	-1.518231	-2.011534	-1.518231	-5.748249	115.385707
6.800000	-5.334254	56.793648	-2.071780	-4.544653	-2.071780	-4.544653	-5.613315	111.775619
6.850000	-5.209552	54.394576	-2.132749	-7.576976	-2.132749	-7.576976	-5.483112	108.162256
6.900000	-5.088889	51.985715	-2.194500	-10.615979	-2.194500	-10.615979	-5.357347	104.542860
6.950000	-4.971979	49.568185	-2.257097	-13.662379	-2.257097	-13.662379	-5.235714	100.914829
7.000000	-4.858531	47.143036	-2.320609	-16.716794	-2.320609	-16.716794	-5.117904	97.275848
7.050000	-4.748291	44.711093	-2.385118	-19.779903	-2.385118	-19.779903	-5.003654	93.623659
7.100000	-4.641022	42.273064	-2.450716	-22.852376	-2.450716	-22.852376	-4.892714	89.956122
7.150000	-4.536495	39.829555	-2.517504	-25.934867	-2.517504	-25.934867	-4.784852	86.271213
7.200000	-4.434498	37.381073	-2.585592	-29.028015	-2.585592	-29.028015	-4.679852	82.567016
7.250000	-4.334830	34.928033	-2.655101	-32.132440	-2.655101	-32.132440	-4.577511	78.841723
7.300000	-4.237303	32.470762	-2.726162	-35.248738	-2.726162	-35.248738	-4.477643	75.093634
7.350000	-4.141741	30.009505	-2.798915	-38.377479	-2.798915	-38.377479	-4.380072	71.321155
7.400000	-4.047979	27.544432	-2.873510	-41.519204	-2.873510	-41.519204	-4.284641	67.522803
7.450000	-3.955868	25.075634	-2.950108	-44.674422	-2.950108	-44.674422	-4.191203	63.697201
7.500000	-3.865269	22.603138	-3.028879	-47.843604	-3.028879	-47.843604	-4.099625	59.843084
7.550000	-3.776062	20.126816	-3.110044	-51.027503	-3.110044	-51.027503	-4.009804	55.958632
7.600000	-3.688124	17.646641	-3.193761	-54.226197	-3.193761	-54.226197	-3.921616	52.043440
7.650000	-3.601354	15.162447	-3.280233	-57.440019	-3.280233	-57.440019	-3.834967	48.096604
7.700000	-3.515665	12.674012	-3.369672	-60.669245	-3.369672	-60.669245	-3.749778	44.117343
7.750000	-3.430982	10.181066	-3.462298	-63.914095	-3.462298	-63.914095	-3.665981	40.105005
7.800000	-3.347245	7.683294	-3.558344	-67.174721	-3.558344	-67.174721	-3.583522	36.059071
7.850000	-3.264407	5.180341	-3.658051	-70.451208	-3.658051	-70.451208	-3.502359	31.979156
7.900000	-3.182432	2.671815	-3.761669	-73.743569	-3.761669	-73.743569	-3.422459	27.865018
7.950000	-3.101302	0.157297	-3.869457	-77.051734	-3.869457	-77.051734	-3.343805	23.716554
8.000000	-3.021008	-2.363656	-3.981685	-80.375553	-3.981685	-80.375553	-3.266388	19.533811
8.050000	-2.941558	-4.891502	-4.098626	-83.714787	-4.098626	-83.714787	-3.190211	15.316983
8.100000	-2.862971	-7.426712	-4.220566	-87.069106	-4.220566	-87.069106	-3.115287	11.066416
8.150000	-2.785282	-9.969846	-4.347834	-90.438237	-4.347834	-90.438237	-3.041645	6.782253
8.200000	-2.708540	-12.521389	-4.480732	-93.821633	-4.480732	-93.821633	-2.969319	2.465172
8.250000	-2.632801	-15.081709	-4.619524	-97.218501	-4.619524	-97.218501	-2.898341	-1.883654
8.300000	-2.558135	-17.651242	-4.764517	-100.628100	-4.764517	-100.628100	-2.828756	-6.263261
8.350000	-2.484607	-20.230149	-4.915925	-104.049317	-4.915925	-104.049317	-2.760594	-10.671842
8.400000	-2.412331	-22.819230	-5.074237	-107.481712	-5.074237	-107.481712	-2.693950	-15.109429
8.450000	-2.341397	-25.418666	-5.239710	-110.924022	-5.239710	-110.924022	-2.628870	-19.574137
8.500000	-2.271918	-28.028810	-5.412690	-114.375111	-5.412690	-114.375111	-2.565423	-24.064564
8.550000	-2.204000	-30.649817	-5.593469	-117.833622	-5.593469	-117.833622	-2.503662	-28.578844
8.600000	-2.137757	-33.281874	-5.782373	-121.298172	-5.782373	-121.298172	-2.443650	-33.115221
8.650000	-2.073325	-35.925236	-5.979778	-124.767305	-5.979778	-124.767305	-2.385463	-37.672032
8.700000	-2.010783	-38.579675	-6.185906	-128.239349	-6.185906	-128.239349	-2.329117	-42.246829
8.750000	-1.950272	-41.245396	-6.401162	-131.712685	-6.401162	-131.712685	-2.274687	-46.837914
8.800000	-1.891949	-43.922615	-6.625967	-135.185469	-6.625967	-135.185469	-2.222256	-51.443460
8.850000	-1.835890	-46.611006	-6.860576	-138.655778	-6.860576	-138.655778	-2.171831	-56.060971
8.900000	-1.782201	-49.310451	-7.105339	-142.121616	-7.105339	-142.121616	-2.123443	-60.688276
8.950000	-1.730981	-52.020792	-7.360609	-145.580890	-7.360609	-145.580890	-2.077114	-65.323184
9.000000	-1.682320	-54.741852	-7.626749	-149.031403	-7.626749	-149.031403	-2.032859	-69.963504
9.050000	-1.636297	-57.473432	-7.904133	-152.470857	-7.904133	-152.470857	-1.990684	-74.607056
9.100000	-1.592906	-60.215030	-8.193084	-155.897323	-8.193084	-155.897323	-1.950525	-79.251721
9.150000	-1.552372	-62.967116	-8.494140	-159.307295	-8.494140	-159.307295	-1.912493	-83.895369
9.200000	-1.514644	-65.729110	-8.807624	-162.698681	-8.807624	-162.698681	-1.876488	-88.535926
9.250000	-1.479794	-68.500999	-9.133976	-166.068408	-9.133976	-166.068408	-1.842501	-93.171332
9.300000	-1.447821	-71.282588	-9.473629	-169.413711	-9.473629	-169.413711	-1.810472	-97.799708
9.350000	-1.418741	-74.073831	-9.827048	-172.731494	-9.827048	-172.731494	-1.780347	-102.419232
9.400000	-1.392557	-76.874745	-10.194721	-176.018479	-10.194721	-176.018479	-1.752068	-107.028184
9.450000	-1.369266	-79.685424	-10.577159	-179.271191	-10.577159	-179.271191	-1.725565	-111.624945
9.500000	-1.348854	-82.506046	-10.974894	177.514067	-10.974894	177.514067	-1.700764	-116.208007
9.550000	-1.331305	-85.336879	-11.388483	174.341236	-11.388483	174.341236	-1.677584	-120.775980
9.600000	-1.316607	-88.178341	-11.818477	171.214774	-11.818477	171.214774	-1.655941	-125.327506
9.650000	-1.304747	-91.030964	-12.265423	168.139544	-12.265423	168.139544	-1.635748	-129.861326
9.700000	-1.295669	-93.895220	-12.729963	165.119975	-12.729963	165.119975	-1.616888	-134.376572
9.750000	-1.289344	-96.771791	-13.212705	162.161325	-13.212705	162.161325	-1.599254	-138.872336
9.800000	-1.285746	-99.661463	-13.714255	159.269289	-13.714255	159.269289	-1.582728	-143.347822
9.850000	-1.284848	-102.565124	-14.235200	156.450055	-14.235200	156.450055	-1.567187	-147.802344
9.900000	-1.286633	-105.483766	-14.776093	153.710389	-14.776093	153.710389	-1.552496	-152.235307
9.950000	-1.291084	-108.418474	-15.337427	151.057725	-15.337427	151.057725	-1.538508	-156.646197
10.000000	-1.298194	-111.370425	-15.919608	148.500298	-15.919608	148.500298	-1.525060	-161.034554
