! freq	dB(S11)	phase(S11)	dB(S12)	phase(S12)	
!     	dB(S21)	phase(S21)	dB(S22)	phase(S22)	
!S-par simulation data
#  GHz  S  DB  R 50
0.000000	-0.000000	-0.000000	-353.243197	180.000000	-353.243197	180.000000	-0.000000	0.000000
0.050000	-0.012952	-1.624728	-97.160706	83.098173	-97.160706	83.098173	-0.014062	-1.676482
0.100000	-0.013986	-3.284817	-91.336021	83.991462	-91.336021	83.991462	-0.014509	-3.370938
0.150000	-0.014567	-4.937463	-87.896466	83.332565	-87.896466	83.332565	-0.014980	-5.061167
0.200000	-0.015208	-6.587598	-85.476973	82.236915	-85.476973	82.236915	-0.015593	-6.749947
0.250000	-0.015977	-8.236291	-83.631467	80.978147	-83.631467	80.978147	-0.016360	-8.437757
0.300000	-0.016888	-9.883799	-82.158552	79.650076	-82.158552	79.650076	-0.017284	-10.124656
0.350000	-0.017933	-11.530242	-80.947353	78.303308	-80.947353	78.303308	-0.018348	-11.810666
0.400000	-0.019124	-13.175447	-79.940558	76.965696	-79.940558	76.965696	-0.019565	-13.495595
0.450000	-0.020431	-14.819554	-79.086750	75.653968	-79.086750	75.653968	-0.020901	-15.179544
0.500000	-0.021868	-16.462247	-78.369467	74.392024	-78.369467	74.392024	-0.022371	-16.862214
0.550000	-0.023406	-18.103676	-77.758671	73.186687	-77.758671	73.186687	-0.023946	-18.543735
0.600000	-0.025065	-19.743347	-77.257853	72.077752	-77.257853	72.077752	-0.025644	-20.223657
0.650000	-0.026794	-21.381781	-76.832329	71.051237	-76.832329	71.051237	-0.027414	-21.902456
0.700000	-0.028593	-23.018897	-76.476027	70.118563	-76.476027	70.118563	-0.029256	-23.580059
0.750000	-0.030482	-24.654016	-76.207164	69.354119	-76.207164	69.354119	-0.031190	-25.255859
0.800000	-0.032431	-26.287449	-76.007341	68.766471	-76.007341	68.766471	-0.033184	-26.930145
0.850000	-0.034425	-27.919431	-75.863243	68.352578	-75.863243	68.352578	-0.035226	-28.603135
0.900000	-0.036463	-29.549810	-75.777238	68.150197	-75.777238	68.150197	-0.037312	-30.274699
0.950000	-0.038551	-31.177868	-75.769200	68.338029	-75.769200	68.338029	-0.039449	-31.944218
1.000000	-0.040662	-32.804406	-75.807787	68.848996	-75.807787	68.848996	-0.041611	-33.612411
1.050000	-0.042796	-34.429418	-75.890983	69.717802	-75.890983	69.717802	-0.043795	-35.279279
1.100000	-0.044951	-36.052337	-76.028123	71.175083	-76.028123	71.175083	-0.046002	-36.944348
1.150000	-0.047121	-37.673301	-76.198543	73.341173	-76.198543	73.341173	-0.048223	-38.607757
1.200000	-0.049298	-39.292729	-76.381005	76.150329	-76.381005	76.150329	-0.050453	-40.269879
1.250000	-0.051480	-40.910624	-76.566662	79.651777	-76.566662	79.651777	-0.052688	-41.930720
1.300000	-0.053665	-42.526028	-76.689331	84.445457	-76.689331	84.445457	-0.054927	-43.589521
1.350000	-0.055849	-44.139926	-76.718425	89.990590	-76.718425	89.990590	-0.057165	-45.247113
1.400000	-0.058031	-45.752328	-76.631517	96.185868	-76.631517	96.185868	-0.059401	-46.903514
1.450000	-0.060207	-47.362844	-76.354913	102.982966	-76.354913	102.982966	-0.061633	-48.558434
1.500000	-0.062377	-48.971376	-75.833121	109.754049	-75.833121	109.754049	-0.063858	-50.211840
1.550000	-0.064540	-50.578480	-75.155229	116.154276	-75.155229	116.154276	-0.066079	-51.864178
1.600000	-0.066697	-52.184167	-74.352507	122.027875	-74.352507	122.027875	-0.068293	-53.515469
1.650000	-0.068844	-53.787718	-73.378160	126.718911	-73.378160	126.718911	-0.070498	-55.165232
1.700000	-0.070985	-55.389989	-72.378928	130.647776	-72.378928	130.647776	-0.072698	-56.814114
1.750000	-0.073118	-56.990620	-71.346205	133.641043	-71.346205	133.641043	-0.074891	-58.461894
1.800000	-0.075244	-58.589749	-70.316067	135.855956	-70.316067	135.855956	-0.077079	-60.108705
1.850000	-0.077364	-60.187420	-69.305045	137.406273	-69.305045	137.406273	-0.079261	-61.754618
1.900000	-0.079479	-61.783684	-68.322807	138.399758	-68.322807	138.399758	-0.081439	-63.399706
1.950000	-0.081589	-63.378593	-67.374388	138.930739	-67.374388	138.930739	-0.083615	-65.044049
2.000000	-0.083697	-64.972203	-66.461864	139.078441	-66.461864	139.078441	-0.085789	-66.687730
2.050000	-0.085803	-66.564573	-65.585502	138.908002	-65.585502	138.908002	-0.087963	-68.330836
2.100000	-0.087908	-68.155767	-64.744511	138.472442	-64.744511	138.472442	-0.090137	-69.973459
2.150000	-0.090014	-69.745851	-63.937518	137.814773	-63.937518	137.814773	-0.092315	-71.615694
2.200000	-0.092123	-71.334897	-63.162860	136.969916	-63.162860	136.969916	-0.094497	-73.257642
2.250000	-0.094235	-72.922978	-62.418764	135.966311	-62.418764	135.966311	-0.096685	-74.899410
2.300000	-0.096354	-74.510173	-61.703454	134.827223	-61.703454	134.827223	-0.098881	-76.541108
2.350000	-0.098479	-76.096564	-61.015206	133.571786	-61.015206	133.571786	-0.101085	-78.182851
2.400000	-0.100612	-77.682238	-60.352385	132.215820	-60.352385	132.215820	-0.103301	-79.824760
2.450000	-0.102756	-79.267285	-59.713461	130.772485	-59.713461	130.772485	-0.105530	-81.466960
2.500000	-0.104912	-80.851801	-59.097007	129.252782	-59.097007	129.252782	-0.107773	-83.109583
2.550000	-0.107081	-82.435871	-58.500860	127.663409	-58.500860	127.663409	-0.110033	-84.752796
2.600000	-0.109266	-84.019623	-57.924776	126.015323	-57.924776	126.015323	-0.112312	-86.396723
2.650000	-0.111467	-85.603165	-57.367619	124.315021	-57.367619	124.315021	-0.114610	-88.041514
2.700000	-0.113686	-87.186610	-56.828342	122.568050	-56.828342	122.568050	-0.116929	-89.687321
2.750000	-0.115925	-88.770077	-56.305986	120.779163	-56.305986	120.779163	-0.119272	-91.334304
2.800000	-0.118184	-90.353689	-55.799664	118.952446	-55.799664	118.952446	-0.121639	-92.982630
2.850000	-0.120466	-91.937573	-55.308563	117.091419	-55.308563	117.091419	-0.124034	-94.632470
2.900000	-0.122772	-93.521861	-54.831934	115.199118	-54.831934	115.199118	-0.126456	-96.284001
2.950000	-0.125103	-95.106690	-54.369082	113.278170	-54.369082	113.278170	-0.128907	-97.937407
3.000000	-0.127461	-96.692203	-53.919370	111.330844	-53.919370	111.330844	-0.131391	-99.592878
3.050000	-0.129846	-98.278546	-53.482204	109.359100	-53.482204	109.359100	-0.133906	-101.250609
3.100000	-0.132261	-99.865872	-53.057039	107.364630	-53.057039	107.364630	-0.136457	-102.910804
3.150000	-0.134706	-101.454338	-52.643367	105.348891	-52.643367	105.348891	-0.139043	-104.573671
3.200000	-0.137183	-103.044106	-52.240718	103.313128	-52.240718	103.313128	-0.141666	-106.239425
3.250000	-0.139693	-104.635343	-51.848655	101.258403	-51.848655	101.258403	-0.144328	-107.908288
3.300000	-0.142236	-106.228223	-51.466773	99.185607	-51.466773	99.185607	-0.147031	-109.580487
3.350000	-0.144815	-107.822924	-51.094696	97.095482	-51.094696	97.095482	-0.149775	-111.256258
3.400000	-0.147430	-109.419628	-50.732074	94.988631	-50.732074	94.988631	-0.152561	-112.935841
3.450000	-0.150082	-111.018526	-50.378582	92.865526	-50.378582	92.865526	-0.155392	-114.619486
3.500000	-0.152773	-112.619811	-50.033919	90.726523	-50.033919	90.726523	-0.158269	-116.307446
3.550000	-0.155503	-114.223684	-49.697803	88.571860	-49.697803	88.571860	-0.161192	-117.999984
3.600000	-0.158273	-115.830351	-49.369976	86.401669	-49.369976	86.401669	-0.164164	-119.697367
3.650000	-0.161084	-117.440024	-49.050195	84.215971	-49.050195	84.215971	-0.167184	-121.399872
3.700000	-0.163937	-119.052921	-48.738238	82.014684	-48.738238	82.014684	-0.170255	-123.107780
3.750000	-0.166834	-120.669266	-48.433898	79.797618	-48.433898	79.797618	-0.173378	-124.821381
3.800000	-0.169776	-122.289459	-48.136871	77.563755	-48.136871	77.563755	-0.176556	-126.541246
3.850000	-0.172762	-123.913591	-47.847126	75.313351	-47.847126	75.313351	-0.179788	-128.267431
3.900000	-0.175794	-125.541904	-47.564502	73.045853	-47.564502	73.045853	-0.183074	-130.000248
3.950000	-0.178872	-127.174650	-47.288852	70.760574	-47.288852	70.760574	-0.186417	-131.740015
4.000000	-0.181997	-128.812089	-47.020045	68.456685	-47.020045	68.456685	-0.189816	-133.487057
4.050000	-0.185170	-130.454487	-46.757964	66.133193	-46.757964	66.133193	-0.193274	-135.241708
4.100000	-0.188391	-132.102120	-46.502503	63.788922	-46.502503	63.788922	-0.196790	-137.004306
4.150000	-0.191661	-133.755271	-46.253572	61.422493	-46.253572	61.422493	-0.200366	-138.775198
4.200000	-0.194981	-135.414234	-46.011095	59.032282	-46.011095	59.032282	-0.204003	-140.554739
4.250000	-0.198351	-137.079312	-45.775006	56.616391	-45.775006	56.616391	-0.207702	-142.343289
4.300000	-0.201773	-138.750820	-45.545256	54.172592	-45.545256	54.172592	-0.211462	-144.141217
4.350000	-0.205246	-140.429085	-45.321810	51.698267	-45.321810	51.698267	-0.215287	-145.948899
4.400000	-0.208773	-142.114449	-45.104644	49.190335	-45.104644	49.190335	-0.219175	-147.766717
4.450000	-0.212353	-143.807270	-44.893753	46.645147	-44.893753	46.645147	-0.223128	-149.595061
4.500000	-0.215988	-145.507924	-44.689144	44.058370	-44.689144	44.058370	-0.227146	-151.434330
4.550000	-0.219679	-147.216809	-44.490839	41.424818	-44.490839	41.424818	-0.231232	-153.284931
4.600000	-0.223429	-148.934349	-44.298877	38.738253	-44.298877	38.738253	-0.235385	-155.147276
4.650000	-0.227238	-150.661001	-44.113310	35.991112	-44.113310	35.991112	-0.239607	-157.021791
4.700000	-0.231111	-152.397259	-43.934202	33.174143	-43.934202	33.174143	-0.243899	-158.908907
4.750000	-0.235050	-154.143665	-43.761627	30.275931	-43.761627	30.275931	-0.248263	-160.809068
4.800000	-0.239061	-155.900826	-43.595659	27.282238	-43.595659	27.282238	-0.252700	-162.722731
4.850000	-0.243150	-157.669424	-43.436361	24.175107	-43.436361	24.175107	-0.257214	-164.650367
4.900000	-0.247328	-159.450250	-43.283761	20.931592	-43.283761	20.931592	-0.261808	-166.592465
4.950000	-0.251607	-161.244236	-43.137809	17.521963	-43.137809	17.521963	-0.266486	-168.549539
5.000000	-0.256008	-163.052508	-42.998301	13.907092	-42.998301	13.907092	-0.271255	-170.522133
5.050000	-0.260576	-164.877975	-42.864964	10.005345	-42.864964	10.005345	-0.276133	-172.512261
5.100000	-0.265332	-166.719824	-42.736111	5.790004	-42.736111	5.790004	-0.281119	-174.517950
5.150000	-0.270364	-168.581833	-42.609646	1.132928	-42.609646	1.132928	-0.286243	-176.541226
5.200000	-0.275818	-170.468622	-42.480638	-4.147450	-42.480638	-4.147450	-0.291549	-178.583855
5.250000	-0.281841	-172.381893	-42.341263	-10.182781	-42.341263	-10.182781	-0.297067	179.355396
5.300000	-0.288904	-174.332845	-42.170939	-17.415108	-42.170939	-17.415108	-0.302929	177.272698
5.350000	-0.297789	-176.333475	-41.929600	-26.363743	-41.929600	-26.363743	-0.309322	175.166431
5.400000	-0.310215	-178.405850	-41.530934	-37.869300	-41.530934	-37.869300	-0.316642	173.033211
5.450000	-0.330668	179.404961	-40.775970	-53.324518	-40.775970	-53.324518	-0.325866	170.866191
5.500000	-0.373182	177.003062	-39.227216	-74.754224	-39.227216	-74.754224	-0.339818	168.652823
5.550000	-0.494935	174.197053	-36.102745	-105.175042	-36.102745	-105.175042	-0.368848	166.376743
5.600000	-0.992388	171.638345	-30.813115	-155.030249	-30.813115	-155.030249	-0.455110	164.217964
5.650000	-1.123205	175.961102	-29.339520	124.479608	-29.339520	124.479608	-0.451957	163.009791
5.700000	-0.579010	174.083815	-32.794784	78.746214	-32.794784	78.746214	-0.369790	160.721610
5.750000	-0.437409	171.289685	-35.021535	56.803001	-35.021535	56.803001	-0.354105	158.323985
5.800000	-0.391648	168.815793	-36.293538	43.089055	-36.293538	43.089055	-0.352971	155.974860
5.850000	-0.373952	166.519725	-37.049323	33.325138	-37.049323	33.325138	-0.355750	153.640637
5.900000	-0.366331	164.306284	-37.540424	25.660243	-37.540424	25.660243	-0.359815	151.303689
5.950000	-0.363644	162.136706	-37.866373	19.370593	-37.866373	19.370593	-0.364457	148.956137
6.000000	-0.363538	159.988425	-38.089596	14.002572	-38.089596	14.002572	-0.369369	146.593723
6.050000	-0.364948	157.848645	-38.244275	9.302125	-38.244275	9.302125	-0.374417	144.213226
6.100000	-0.367219	155.709653	-38.356584	5.050598	-38.356584	5.050598	-0.379527	141.815057
6.150000	-0.370088	153.566702	-38.437475	1.161261	-38.437475	1.161261	-0.384665	139.397333
6.200000	-0.373356	151.416422	-38.496330	-2.447354	-38.496330	-2.447354	-0.389807	136.959478
6.250000	-0.376899	149.256472	-38.539542	-5.833128	-38.539542	-5.833128	-0.394936	134.501140
6.300000	-0.380637	147.084617	-38.571254	-9.031807	-38.571254	-9.031807	-0.400038	132.021223
6.350000	-0.384503	144.900087	-38.595229	-12.083210	-38.595229	-12.083210	-0.405104	129.520562
6.400000	-0.388456	142.701985	-38.613731	-15.010279	-38.613731	-15.010279	-0.410124	126.999199
6.450000	-0.392465	140.489630	-38.628446	-17.830712	-38.628446	-17.830712	-0.415092	124.457260
6.500000	-0.396505	138.262504	-38.640639	-20.558316	-38.640639	-20.558316	-0.420000	121.894952
6.550000	-0.400558	136.020220	-38.651260	-23.203971	-38.651260	-23.203971	-0.424841	119.312552
6.600000	-0.404608	133.762495	-38.661020	-25.776321	-38.661020	-25.776321	-0.429609	116.710412
6.650000	-0.408639	131.489135	-38.670444	-28.282293	-38.670444	-28.282293	-0.434299	114.088950
6.700000	-0.412645	129.201569	-38.679880	-30.733032	-38.679880	-30.733032	-0.438913	111.450450
6.750000	-0.416608	126.896823	-38.689615	-33.122176	-38.689615	-33.122176	-0.443430	108.792000
6.800000	-0.420522	124.576279	-38.699807	-35.458838	-38.699807	-35.458838	-0.447853	106.115861
6.850000	-0.424378	122.240001	-38.710526	-37.746138	-38.710526	-37.746138	-0.452178	103.422717
6.900000	-0.428168	119.887945	-38.721776	-39.986230	-38.721776	-39.986230	-0.456399	100.713142
6.950000	-0.431885	117.520291	-38.733488	-42.181454	-38.733488	-42.181454	-0.460515	97.987974
7.000000	-0.435523	115.137435	-38.745531	-44.334312	-38.745531	-44.334312	-0.464524	95.248260
7.050000	-0.439075	112.739651	-38.757731	-46.446622	-38.757731	-46.446622	-0.468424	92.494929
7.100000	-0.442538	110.327262	-38.769865	-48.520098	-38.769865	-48.520098	-0.472215	89.728968
7.150000	-0.445905	107.900636	-38.781671	-50.556408	-38.781671	-50.556408	-0.475899	86.951414
7.200000	-0.449174	105.460189	-38.792848	-52.557227	-38.792848	-52.557227	-0.479476	84.163355
7.250000	-0.452341	103.006378	-38.803056	-54.524280	-38.803056	-54.524280	-0.482949	81.365923
7.300000	-0.455402	100.539707	-38.811920	-56.459383	-38.811920	-56.459383	-0.486324	78.560292
7.350000	-0.458356	98.060722	-38.819031	-58.364477	-38.819031	-58.364477	-0.489605	75.747672
7.400000	-0.461201	95.570012	-38.823942	-60.241654	-38.823942	-60.241654	-0.492800	72.929305
7.450000	-0.463936	93.068203	-38.826168	-62.093187	-38.826168	-62.093187	-0.495919	70.106454
7.500000	-0.466562	90.555963	-38.825178	-63.921553	-38.825178	-63.921553	-0.498974	67.280405
7.550000	-0.469077	88.033801	-38.820290	-65.729083	-38.820290	-65.729083	-0.501978	64.452441
7.600000	-0.471486	85.502687	-38.810920	-67.519267	-38.810920	-67.519267	-0.504949	61.623928
7.650000	-0.473793	82.963392	-38.796323	-69.295393	-38.796323	-69.295393	-0.507910	58.796157
7.700000	-0.476001	80.416721	-38.775640	-71.061107	-38.775640	-71.061107	-0.510887	55.970403
7.750000	-0.478117	77.863503	-38.747852	-72.820502	-38.747852	-72.820502	-0.513910	53.147910
7.800000	-0.480149	75.304587	-38.711725	-74.578256	-38.711725	-74.578256	-0.517021	50.329883
7.850000	-0.482108	72.740844	-38.665723	-76.339852	-38.665723	-76.339852	-0.520270	47.517466
7.900000	-0.484008	70.173154	-38.607884	-78.111938	-38.607884	-78.111938	-0.523723	44.711727
7.950000	-0.485864	67.602403	-38.535644	-79.902923	-38.535644	-79.902923	-0.527469	41.913629
8.000000	-0.487702	65.029476	-38.445563	-81.723984	-38.445563	-81.723984	-0.531626	39.123994
8.050000	-0.489553	62.455241	-38.332912	-83.590812	-38.332912	-83.590812	-0.536367	36.343462
8.100000	-0.491463	59.880539	-38.191020	-85.526768	-38.191020	-85.526768	-0.541945	33.572423
8.150000	-0.493503	57.306174	-38.009584	-87.570661	-38.009584	-87.570661	-0.548773	30.811039
8.200000	-0.495788	54.732892	-37.773291	-89.788816	-37.773291	-89.788816	-0.557534	28.058941
8.250000	-0.498515	52.161327	-37.459343	-92.300273	-37.459343	-92.300273	-0.569403	25.315305
8.300000	-0.502056	49.592131	-37.030561	-95.347366	-37.030561	-95.347366	-0.586672	22.579894
8.350000	-0.507124	47.026462	-36.435125	-99.421597	-36.435125	-99.421597	-0.613730	19.856910
8.400000	-0.515531	44.469907	-35.583095	-105.898887	-35.583095	-105.898887	-0.661729	17.180383
8.450000	-0.530561	41.952453	-34.503024	-118.406399	-34.503024	-118.406399	-0.749708	14.747840
8.500000	-0.544453	39.587108	-34.403002	-144.121031	-34.403002	-144.121031	-0.816559	13.254095
8.550000	-0.520251	37.217719	-38.508357	-168.968130	-38.508357	-168.968130	-0.645801	11.500516
8.600000	-0.501809	34.651835	-43.841863	-161.532314	-43.841863	-161.532314	-0.535867	8.547192
8.650000	-0.497387	32.090880	-45.526838	-138.699701	-45.526838	-138.699701	-0.509216	5.649554
8.700000	-0.497173	29.562279	-45.016729	-125.274009	-45.016729	-125.274009	-0.505071	2.915612
8.750000	-0.498250	27.058786	-44.300995	-119.773040	-44.300995	-119.773040	-0.507090	0.287226
8.800000	-0.499806	24.576150	-43.761591	-117.891499	-43.761591	-117.891499	-0.510969	-2.269232
8.850000	-0.501553	22.111149	-43.382268	-117.581747	-43.382268	-117.581747	-0.515385	-4.775060
8.900000	-0.503375	19.662883	-43.120481	-118.081187	-43.120481	-118.081187	-0.519939	-7.239769
8.950000	-0.505207	17.231231	-42.943797	-119.034443	-42.943797	-119.034443	-0.524463	-9.668777
9.000000	-0.507020	14.816540	-42.830319	-120.259961	-42.830319	-120.259961	-0.528867	-12.065118
9.050000	-0.508818	12.419374	-42.765432	-121.657177	-42.765432	-121.657177	-0.533121	-14.430351
9.100000	-0.510635	10.040311	-42.739234	-123.166343	-42.739234	-123.166343	-0.537265	-16.765288
9.150000	-0.512516	7.679833	-42.744882	-124.749698	-42.744882	-124.749698	-0.541383	-19.070584
9.200000	-0.514504	5.338308	-42.777549	-126.381999	-42.777549	-126.381999	-0.545558	-21.346961
9.250000	-0.516634	3.016022	-42.833768	-128.045466	-42.833768	-128.045466	-0.549847	-23.595152
9.300000	-0.518932	0.713218	-42.911011	-129.726946	-42.911011	-129.726946	-0.554282	-25.815819
9.350000	-0.521412	-1.569884	-43.007409	-131.416242	-43.007409	-131.416242	-0.558875	-28.009514
9.400000	-0.524093	-3.832379	-43.122088	-133.104838	-43.122088	-133.104838	-0.563639	-30.175804
9.450000	-0.526982	-6.074319	-43.253721	-134.785397	-43.253721	-134.785397	-0.568578	-32.315460
9.500000	-0.530083	-8.295642	-43.401390	-136.451645	-43.401390	-136.451645	-0.573691	-34.429041
9.550000	-0.533384	-10.497911	-43.563505	-138.099862	-43.563505	-138.099862	-0.578969	-36.519022
9.600000	-0.536925	-12.677399	-43.741732	-139.720935	-43.741732	-139.720935	-0.584445	-38.581372
9.650000	-0.540670	-14.837995	-43.933615	-141.315081	-43.933615	-141.315081	-0.590087	-40.621263
9.700000	-0.544662	-16.975986	-44.140757	-142.871896	-44.140757	-142.871896	-0.595930	-42.634783
9.750000	-0.548872	-19.094138	-44.361775	-144.391455	-44.361775	-144.391455	-0.601951	-44.625574
9.800000	-0.553324	-21.190794	-44.597323	-145.865631	-44.597323	-145.865631	-0.608168	-46.592161
9.850000	-0.558016	-23.266349	-44.847304	-147.290198	-44.847304	-147.290198	-0.614579	-48.535379
9.900000	-0.562941	-25.321629	-45.111547	-148.661814	-45.111547	-148.661814	-0.621180	-50.456500
9.950000	-0.568127	-27.354645	-45.390853	-149.969094	-45.390853	-149.969094	-0.627989	-52.353730
10.000000	-0.573538	-29.368692	-45.684563	-151.215814	-45.684563	-151.215814	-0.634981	-54.230902
