! freq	dB(S11)	phase(S11)	dB(S12)	phase(S12)	
!     	dB(S21)	phase(S21)	dB(S22)	phase(S22)	
!S-par simulation data
#  GHz  S  DB  R 50
0.000000	-157.607697	0.000000	-0.000000	0.000000	0.000000	0.000000	-163.628297	0.000000
0.050000	-34.052480	-93.197748	-0.003255	-2.954603	-0.003255	-2.954603	-33.885753	-92.771181
0.100000	-28.045590	-96.388439	-0.012378	-5.898970	-0.012378	-5.898970	-27.924589	-95.586155
0.150000	-24.546073	-99.565940	-0.026103	-8.828227	-0.026103	-8.828227	-24.473853	-98.441229
0.200000	-22.077609	-102.725682	-0.043317	-11.742494	-0.043317	-11.742494	-22.042732	-101.299798
0.250000	-20.177203	-105.864688	-0.063389	-14.643616	-0.063389	-14.643616	-20.165592	-104.131113
0.300000	-18.638247	-108.981609	-0.086039	-17.533096	-0.086039	-17.533096	-18.638923	-106.924408
0.350000	-17.349787	-112.076829	-0.111104	-20.411717	-0.111104	-20.411717	-17.355792	-109.682353
0.400000	-16.246605	-115.150062	-0.138622	-23.278784	-0.138622	-23.278784	-16.253816	-112.409168
0.450000	-15.285302	-118.202958	-0.168447	-26.134005	-0.168447	-26.134005	-15.291621	-115.110922
0.500000	-14.437317	-121.235854	-0.200563	-28.976093	-0.200563	-28.976093	-14.441742	-117.790365
0.550000	-13.681429	-124.250040	-0.234810	-31.804382	-0.234810	-31.804382	-13.683645	-120.450034
0.600000	-13.002536	-127.245958	-0.271079	-34.617752	-0.271079	-34.617752	-13.002579	-123.090683
0.650000	-12.388809	-130.224305	-0.309197	-37.415497	-0.309197	-37.415497	-12.386900	-125.712852
0.700000	-11.831140	-133.185515	-0.348988	-40.196925	-0.348988	-40.196925	-11.827578	-128.316566
0.750000	-11.322392	-136.129797	-0.390274	-42.961348	-0.390274	-42.961348	-11.317498	-130.901520
0.800000	-10.856463	-139.057665	-0.432840	-45.708590	-0.432840	-45.708590	-10.850540	-133.467749
0.850000	-10.428854	-141.968995	-0.476506	-48.437964	-0.476506	-48.437964	-10.422180	-136.014584
0.900000	-10.035094	-144.864497	-0.521044	-51.149819	-0.521044	-51.149819	-10.027904	-138.542386
0.950000	-9.672309	-147.743837	-0.566269	-53.843449	-0.566269	-53.843449	-9.664804	-141.050298
1.000000	-9.337063	-150.607894	-0.611967	-56.519586	-0.611967	-56.519586	-9.329400	-143.538990
1.050000	-9.027279	-153.456518	-0.657941	-59.177844	-0.657941	-59.177844	-9.019584	-146.007870
1.100000	-8.740453	-156.290476	-0.704001	-61.818928	-0.704001	-61.818928	-8.732819	-148.457530
1.150000	-8.474904	-159.109966	-0.749955	-64.442901	-0.749955	-64.442901	-8.467396	-150.887825
1.200000	-8.228827	-161.915645	-0.795628	-67.050379	-0.795628	-67.050379	-8.221487	-153.299217
1.250000	-8.000771	-164.708056	-0.840846	-69.641839	-0.840846	-69.641839	-7.993621	-155.691998
1.300000	-7.789461	-167.487780	-0.885443	-72.217801	-0.885443	-72.217801	-7.782509	-158.066492
1.350000	-7.593634	-170.255613	-0.929271	-74.779030	-0.929271	-74.779030	-7.586872	-160.423305
1.400000	-7.412467	-173.012051	-0.972159	-77.325907	-0.972159	-77.325907	-7.405878	-162.762559
1.450000	-7.244726	-175.758216	-1.014000	-79.859571	-1.014000	-79.859571	-7.238286	-165.085288
1.500000	-7.089384	-178.495105	-1.054700	-82.381018	-1.054700	-82.381018	-7.083061	-167.392377
1.550000	-6.945780	178.776539	-1.094134	-84.890891	-1.094134	-84.890891	-6.939542	-169.684258
1.600000	-6.813820	176.056280	-1.132086	-87.389327	-1.132086	-87.389327	-6.807626	-171.960602
1.650000	-6.692138	173.342515	-1.168586	-89.878088	-1.168586	-89.878088	-6.685949	-174.223297
1.700000	-6.580218	170.634352	-1.203542	-92.357956	-1.203542	-92.357956	-6.573996	-176.472923
1.750000	-6.477753	167.930915	-1.236833	-94.829604	-1.236833	-94.829604	-6.471458	-178.709849
1.800000	-6.384178	165.231103	-1.268407	-97.294046	-1.268407	-97.294046	-6.377771	179.065066
1.850000	-6.299051	162.533851	-1.298206	-99.752213	-1.298206	-99.752213	-6.292494	176.851086
1.900000	-6.222047	159.838083	-1.326159	-102.204994	-1.326159	-102.204994	-6.215303	174.647576
1.950000	-6.152791	157.142668	-1.352224	-104.653360	-1.352224	-104.653360	-6.145824	172.453778
2.000000	-6.090870	154.446490	-1.376389	-107.098305	-1.376389	-107.098305	-6.083647	170.268846
2.050000	-6.035978	151.748441	-1.398628	-109.540763	-1.398628	-109.540763	-6.028467	168.092061
2.100000	-5.987838	149.047411	-1.418924	-111.981658	-1.418924	-111.981658	-5.980008	165.922710
2.150000	-5.946197	146.342288	-1.437267	-114.421910	-1.437267	-114.421910	-5.938019	163.760095
2.200000	-5.910824	143.631961	-1.453654	-116.862425	-1.453654	-116.862425	-5.902269	161.603533
2.250000	-5.881509	140.915325	-1.468088	-119.304099	-1.468088	-119.304099	-5.872550	159.452356
2.300000	-5.858061	138.191278	-1.480579	-121.747813	-1.480579	-121.747813	-5.848671	157.305917
2.350000	-5.840305	135.458728	-1.491143	-124.194435	-1.491143	-124.194435	-5.830459	155.163588
2.400000	-5.828084	132.716590	-1.499805	-126.644812	-1.499805	-126.644812	-5.817754	153.024764
2.450000	-5.821253	129.963791	-1.506591	-129.099776	-1.506591	-129.099776	-5.810412	150.888860
2.500000	-5.819682	127.199274	-1.511535	-131.560139	-1.511535	-131.560139	-5.808302	148.755317
2.550000	-5.823358	124.421693	-1.514640	-134.026843	-1.514640	-134.026843	-5.811410	146.623629
2.600000	-5.832060	121.630275	-1.515990	-136.500540	-1.515990	-136.500540	-5.819513	144.493239
2.650000	-5.845685	118.824016	-1.515635	-138.981973	-1.515635	-138.981973	-5.832509	142.363665
2.700000	-5.864142	116.001929	-1.513629	-141.471862	-1.513629	-141.471862	-5.850301	140.234456
2.750000	-5.887344	113.163053	-1.510031	-143.970899	-1.510031	-143.970899	-5.872802	138.105184
2.800000	-5.915211	110.306451	-1.504906	-146.479753	-1.504906	-146.479753	-5.899927	135.975450
2.850000	-5.947664	107.431213	-1.498318	-148.999064	-1.498318	-148.999064	-5.931597	133.844884
2.900000	-5.984630	104.536461	-1.490341	-151.529442	-1.490341	-151.529442	-5.967732	131.713139
2.950000	-6.026036	101.621348	-1.481047	-154.071469	-1.481047	-154.071469	-6.008257	129.579895
3.000000	-6.071809	98.685063	-1.470515	-156.625697	-1.470515	-156.625697	-6.053095	127.444856
3.050000	-6.121877	95.726833	-1.458824	-159.192648	-1.458824	-159.192648	-6.102167	125.307749
3.100000	-6.176164	92.745926	-1.446057	-161.772808	-1.446057	-161.772808	-6.155394	123.168321
3.150000	-6.234629	89.741394	-1.432291	-164.366790	-1.432291	-164.366790	-6.212728	121.026307
3.200000	-6.297183	86.712578	-1.417614	-166.975029	-1.417614	-166.975029	-6.274076	118.881479
3.250000	-6.363694	83.659148	-1.402127	-169.597767	-1.402127	-169.597767	-6.339300	116.733656
3.300000	-6.434061	80.580579	-1.385920	-172.235358	-1.385920	-172.235358	-6.408293	114.582637
3.350000	-6.508176	77.476404	-1.369083	-174.888126	-1.369083	-174.888126	-6.480942	112.428219
3.400000	-6.585918	74.346224	-1.351710	-177.556360	-1.351710	-177.556360	-6.557119	110.270195
3.450000	-6.667155	71.189709	-1.333890	179.759684	-1.333890	179.759684	-6.636686	108.108345
3.500000	-6.751739	68.006605	-1.315717	177.059779	-1.315717	177.059779	-6.719490	105.942429
3.550000	-6.839507	64.796742	-1.297281	174.343734	-1.297281	174.343734	-6.805363	103.772179
3.600000	-6.930280	61.560036	-1.278673	171.611382	-1.278673	171.611382	-6.894120	101.597289
3.650000	-7.023859	58.296500	-1.259981	168.862591	-1.259981	168.862591	-6.985557	99.417402
3.700000	-7.120025	55.006246	-1.241293	166.097252	-1.241293	166.097252	-7.079451	97.232103
3.750000	-7.218538	51.689497	-1.222695	163.315282	-1.222695	163.315282	-7.175559	95.040901
3.800000	-7.319146	48.346034	-1.204274	160.516259	-1.204274	160.516259	-7.273627	92.843067
3.850000	-7.421535	44.976903	-1.186111	157.700509	-1.186111	157.700509	-7.373339	90.638045
3.900000	-7.525391	41.582709	-1.168283	154.868013	-1.168283	154.868013	-7.474383	88.425037
3.950000	-7.630375	38.164196	-1.150865	152.018768	-1.150865	152.018768	-7.576421	86.203117
4.000000	-7.736121	34.722256	-1.133930	149.152785	-1.133930	149.152785	-7.679093	83.971211
4.050000	-7.842237	31.257933	-1.117545	146.270081	-1.117545	146.270081	-7.782013	81.728090
4.100000	-7.948305	27.772432	-1.101776	143.370681	-1.101776	143.370681	-7.884772	79.472351
4.150000	-8.053881	24.267126	-1.086686	140.454613	-1.086686	140.454613	-7.986935	77.202406
4.200000	-8.158493	20.743553	-1.072331	137.521901	-1.072331	137.521901	-8.088048	74.916473
4.250000	-8.261646	17.203421	-1.058769	134.572566	-1.058769	134.572566	-8.187633	72.612566
4.300000	-8.362823	13.648609	-1.046051	131.606620	-1.046051	131.606620	-8.285191	70.288489
4.350000	-8.461483	10.081161	-1.034227	128.624060	-1.034227	128.624060	-8.380209	67.941836
4.400000	-8.557016	6.503190	-1.023353	125.624687	-1.023353	125.624687	-8.472104	65.569682
4.450000	-8.648831	2.917132	-1.013478	122.608462	-1.013478	122.608462	-8.560315	63.169101
4.500000	-8.736381	-0.674412	-1.004632	119.575502	-1.004632	119.575502	-8.644330	60.737338
4.550000	-8.819068	-4.268843	-0.996859	116.525716	-0.996859	116.525716	-8.723587	58.271188
4.600000	-8.896284	-7.863479	-0.990199	113.458982	-0.990199	113.458982	-8.797517	55.767293
4.650000	-8.967421	-11.455584	-0.984694	110.375147	-0.984694	110.375147	-8.865551	53.222172
4.700000	-9.031869	-15.042406	-0.980384	107.274020	-0.980384	107.274020	-8.927121	50.632257
4.750000	-9.089026	-18.621215	-0.977315	104.155374	-0.977315	104.155374	-8.981666	47.993927
4.800000	-9.138300	-22.189352	-0.975530	101.018941	-0.975530	101.018941	-9.028633	45.303563
4.850000	-9.179113	-25.744276	-0.975080	97.864413	-0.975080	97.864413	-9.067482	42.557592
4.900000	-9.210905	-29.283617	-0.976018	94.691441	-0.976018	94.691441	-9.097689	39.752546
4.950000	-9.233143	-32.805233	-0.978401	91.499634	-0.978401	91.499634	-9.118749	36.885117
5.000000	-9.245321	-36.307257	-0.982294	88.288559	-0.982294	88.288559	-9.130183	33.952216
5.050000	-9.246730	-39.787675	-0.987804	85.057302	-0.987804	85.057302	-9.131309	30.949494
5.100000	-9.237156	-43.245797	-0.994981	81.805768	-0.994981	81.805768	-9.121916	27.875927
5.150000	-9.216216	-46.680939	-1.003913	78.533406	-1.003913	78.533406	-9.101621	24.729468
5.200000	-9.183572	-50.092896	-1.014702	75.239635	-1.014702	75.239635	-9.070082	21.508513
5.250000	-9.138945	-53.481960	-1.027460	71.923842	-1.027460	71.923842	-9.027004	18.211944
5.300000	-9.082116	-56.848948	-1.042312	68.585393	-1.042312	68.585393	-8.972145	14.839164
5.350000	-9.012930	-60.195207	-1.059399	65.223635	-1.059399	65.223635	-8.905320	11.390112
5.400000	-8.931308	-63.522606	-1.078874	61.837904	-1.078874	61.837904	-8.826407	7.865282
5.450000	-8.837243	-66.833523	-1.100909	58.427534	-1.100909	58.427534	-8.735357	4.265718
5.500000	-8.730813	-70.130808	-1.125692	54.991863	-1.125692	54.991863	-8.632192	0.592999
5.550000	-8.612175	-73.417742	-1.153429	51.530245	-1.153429	51.530245	-8.517018	-3.150785
5.600000	-8.481576	-76.697977	-1.184346	48.042059	-1.184346	48.042059	-8.390022	-6.963071
5.650000	-8.339199	-79.975488	-1.218724	44.526422	-1.218724	44.526422	-8.251332	-10.841544
5.700000	-8.185470	-83.254606	-1.256837	40.982786	-1.256837	40.982786	-8.101314	-14.782718
5.750000	-8.021050	-86.539695	-1.298937	37.410985	-1.298937	37.410985	-7.940574	-18.782194
5.800000	-7.846534	-89.835137	-1.345328	33.810635	-1.345328	33.810635	-7.769658	-22.836048
5.850000	-7.662597	-93.145278	-1.396338	30.181452	-1.396338	30.181452	-7.589194	-26.940184
5.900000	-7.469984	-96.474337	-1.452314	26.523258	-1.452314	26.523258	-7.399890	-31.090396
5.950000	-7.269506	-99.826328	-1.513623	22.836005	-1.513623	22.836005	-7.202527	-35.282428
6.000000	-7.062029	-103.204986	-1.580648	19.119790	-1.580648	19.119790	-6.997948	-39.512023
6.050000	-6.848466	-106.613698	-1.653792	15.374864	-1.653792	15.374864	-6.787048	-43.774970
6.100000	-6.629766	-110.055447	-1.733472	11.601657	-1.733472	11.601657	-6.570768	-48.067136
6.150000	-6.406900	-113.532763	-1.820118	7.800782	-1.820118	7.800782	-6.350078	-52.384496
6.200000	-6.180856	-117.047693	-1.914171	3.973056	-1.914171	3.973056	-6.125971	-56.723143
6.250000	-5.952624	-120.601769	-2.016083	0.119504	-2.016083	0.119504	-5.899445	-61.079304
6.300000	-5.723047	-124.196887	-2.126466	-3.759128	-2.126466	-3.759128	-5.671360	-65.449557
6.350000	-5.493270	-127.832638	-2.245631	-7.660794	-2.245631	-7.660794	-5.442880	-69.830017
6.400000	-5.264227	-131.508946	-2.374033	-11.583783	-2.374033	-11.583783	-5.214963	-74.217299
6.450000	-5.036817	-135.225232	-2.512122	-15.526163	-2.512122	-15.526163	-4.988535	-78.608130
6.500000	-4.811960	-138.979415	-2.660128	-19.485373	-2.660128	-19.485373	-4.764543	-82.999405
6.550000	-4.590300	-142.771891	-2.818867	-23.459878	-2.818867	-23.459878	-4.543659	-87.388019
6.600000	-4.372649	-146.600170	-2.988653	-27.446828	-2.988653	-27.446828	-4.326724	-91.770882
6.650000	-4.159705	-150.461737	-3.169847	-31.443390	-3.169847	-31.443390	-4.114467	-96.145060
6.700000	-3.952078	-154.353881	-3.362811	-35.446646	-3.362811	-35.446646	-3.907526	-100.507723
6.750000	-3.750307	-158.273715	-3.567912	-39.453586	-3.567912	-39.453586	-3.706468	-104.856103
6.800000	-3.554856	-162.218128	-3.785496	-43.461094	-3.785496	-43.461094	-3.511783	-109.187517
6.850000	-3.366118	-166.183840	-4.015893	-47.465979	-4.015893	-47.465979	-3.323890	-113.499374
6.900000	-3.184433	-170.167526	-4.259451	-51.464954	-4.259451	-51.464954	-3.143151	-117.789056
6.950000	-3.010061	-174.165650	-4.516458	-55.454707	-4.516458	-55.454707	-2.969847	-122.054155
7.000000	-2.843165	-178.174612	-4.787167	-59.432021	-4.787167	-59.432021	-2.804159	-126.292561
7.050000	-2.683862	177.809069	-5.071860	-63.393677	-5.071860	-63.393677	-2.646218	-130.502188
7.100000	-2.532333	173.788802	-5.370914	-67.335979	-5.370914	-67.335979	-2.496225	-134.680324
7.150000	-2.388364	169.768057	-5.684433	-71.256676	-5.684433	-71.256676	-2.353964	-138.826576
7.200000	-2.251995	165.749961	-6.012814	-75.152394	-6.012814	-75.152394	-2.219488	-142.938802
7.250000	-2.123131	161.737580	-6.356392	-79.020192	-6.356392	-79.020192	-2.092706	-147.015633
7.300000	-2.001637	157.733813	-6.715543	-82.857206	-6.715543	-82.857206	-1.973484	-151.055899
7.350000	-1.887344	153.741379	-7.090691	-86.660641	-7.090691	-86.660641	-1.861655	-155.058628
7.400000	-1.780053	149.762805	-7.482324	-90.427748	-7.482324	-90.427748	-1.757016	-159.023052
7.450000	-1.679543	145.800424	-7.891012	-94.155800	-7.891012	-94.155800	-1.659343	-162.948597
7.500000	-1.585575	141.856369	-8.317419	-97.842055	-8.317419	-97.842055	-1.568388	-166.834884
7.550000	-1.498005	137.933058	-8.762233	-101.482666	-8.762233	-101.482666	-1.484007	-170.680857
7.600000	-1.416449	134.031823	-9.226428	-105.075584	-9.226428	-105.075584	-1.405801	-174.487360
7.650000	-1.340637	130.154205	-9.711099	-108.617633	-9.711099	-108.617633	-1.333488	-178.254544
7.700000	-1.270293	126.301569	-10.217539	-112.105305	-10.217539	-112.105305	-1.266782	178.017289
7.750000	-1.205144	122.475109	-10.747290	-115.534627	-10.747290	-115.534627	-1.205398	174.327703
7.800000	-1.144919	118.675860	-11.302183	-118.900975	-11.302183	-118.900975	-1.149053	170.676137
7.850000	-1.089352	114.904709	-11.884404	-122.198847	-11.884404	-122.198847	-1.097468	167.061923
7.900000	-1.038186	111.162401	-12.496576	-125.421542	-12.496576	-125.421542	-1.050372	163.484298
7.950000	-0.991168	107.449556	-13.141853	-128.560737	-13.141853	-128.560737	-1.007501	159.942415
8.000000	-0.948057	103.766673	-13.824057	-131.605892	-13.824057	-131.605892	-0.968601	156.435357
8.050000	-0.908623	100.114144	-14.547849	-134.543403	-14.547849	-134.543403	-0.933427	152.962150
8.100000	-0.872645	96.492258	-15.318961	-137.355385	-15.318961	-137.355385	-0.901747	149.521773
8.150000	-0.839945	92.901549	-16.144287	-140.015848	-16.144287	-140.015848	-0.873372	146.113498
8.200000	-0.810320	89.342130	-17.032681	-142.490290	-17.032681	-142.490290	-0.848085	142.736199
8.250000	-0.783551	85.813694	-17.995681	-144.732697	-17.995681	-144.732697	-0.825657	139.388422
8.300000	-0.759465	82.316194	-19.047866	-146.673715	-19.047866	-146.673715	-0.805903	136.069041
8.350000	-0.737898	78.849517	-20.208232	-148.208798	-20.208232	-148.208798	-0.788649	132.776926
8.400000	-0.718700	75.413483	-21.501712	-149.173824	-21.501712	-149.173824	-0.773735	129.510942
8.450000	-0.701732	72.007853	-22.960880	-149.298610	-22.960880	-149.298610	-0.761013	126.269957
8.500000	-0.686864	68.632326	-24.626372	-148.113870	-24.626372	-148.113870	-0.750345	123.052841
8.550000	-0.673981	65.286547	-26.539420	-144.759855	-26.539420	-144.759855	-0.741607	119.858473
8.600000	-0.662974	61.970103	-28.698563	-137.622020	-28.698563	-137.622020	-0.734684	116.685738
8.650000	-0.653747	58.682528	-30.882982	-124.004189	-30.882982	-124.004189	-0.729472	113.533531
8.700000	-0.646215	55.423300	-32.250209	-102.071962	-32.250209	-102.071962	-0.725881	110.400757
8.750000	-0.640302	52.191843	-31.742122	-77.827433	-31.742122	-77.827433	-0.723829	107.286328
8.800000	-0.635974	48.988102	-29.888064	-60.987148	-29.888064	-60.987148	-0.723276	104.189518
8.850000	-0.633141	45.810782	-27.843280	-51.716536	-27.843280	-51.716536	-0.724133	101.108856
8.900000	-0.631759	42.659136	-26.007378	-47.064315	-26.007378	-47.064315	-0.726350	98.043277
8.950000	-0.631794	39.532357	-24.427910	-45.023039	-24.427910	-45.023039	-0.729893	94.991720
9.000000	-0.633221	36.429581	-23.069644	-44.509746	-23.069644	-44.509746	-0.734738	91.953123
9.050000	-0.636028	33.349879	-21.889319	-44.941599	-21.889319	-44.941599	-0.740873	88.926425
9.100000	-0.640213	30.292259	-20.850701	-45.989639	-20.850701	-45.989639	-0.748300	85.910561
9.150000	-0.645787	27.255663	-19.925695	-47.457983	-19.925695	-47.457983	-0.757031	82.904457
9.200000	-0.652771	24.238961	-19.092804	-49.224206	-19.092804	-49.224206	-0.767097	79.907033
9.250000	-0.661202	21.240953	-18.335470	-51.208601	-18.335470	-51.208601	-0.778539	76.917194
9.300000	-0.671129	18.260363	-17.640772	-53.357504	-17.640772	-53.357504	-0.791419	73.933832
9.350000	-0.682617	15.295833	-16.998470	-55.633811	-16.998470	-55.633811	-0.805812	70.955824
9.400000	-0.695768	12.346070	-16.400315	-58.012236	-16.400315	-58.012236	-0.821834	67.982058
9.450000	-0.710686	9.409495	-15.839546	-60.473626	-15.839546	-60.473626	-0.839606	65.011333
9.500000	-0.727474	6.484329	-15.310599	-63.003712	-15.310599	-63.003712	-0.859253	62.042419
9.550000	-0.746277	3.568862	-14.808811	-65.593040	-14.808811	-65.593040	-0.880942	59.074115
9.600000	-0.767265	0.661286	-14.330225	-68.234947	-14.330225	-68.234947	-0.904869	56.105204
9.650000	-0.790635	-2.240306	-13.871448	-70.924935	-13.871448	-70.924935	-0.931260	53.134457
9.700000	-0.816617	-5.137919	-13.429537	-73.660227	-13.429537	-73.660227	-0.960375	50.160640
9.750000	-0.845476	-8.033662	-13.001916	-76.439468	-13.001916	-76.439468	-0.992515	47.182525
9.800000	-0.877515	-10.929747	-12.586315	-79.262515	-12.586315	-79.262515	-1.028021	44.198899
9.850000	-0.913085	-13.828485	-12.180713	-82.130302	-12.180713	-82.130302	-1.067282	41.208588
9.900000	-0.952589	-16.732283	-11.783304	-85.044752	-11.783304	-85.044752	-1.110739	38.210475
9.950000	-0.996485	-19.643637	-11.392465	-88.008728	-11.392465	-88.008728	-1.158891	35.203530
10.000000	-1.045300	-22.565121	-11.006735	-91.026022	-11.006735	-91.026022	-1.212300	32.186852
