! freq	dB(S11)	phase(S11)	dB(S12)	phase(S12)	
!     	dB(S21)	phase(S21)	dB(S22)	phase(S22)	
!S-par simulation data
#  GHz  S  DB  R 50
0.000000	-0.000000	0.000000	-383.361181	0.000000	-383.361181	0.000000	-0.000000	0.000000
0.050000	-0.000101	-0.762185	-113.324405	87.970991	-113.324405	87.970991	-0.000121	-1.054950
0.100000	-0.000400	-1.524118	-107.444735	86.172700	-107.444735	86.172700	-0.000482	-2.109617
0.150000	-0.000882	-2.285570	-104.125146	84.715089	-104.125146	84.715089	-0.001069	-3.163737
0.200000	-0.001527	-3.046356	-101.864303	83.584093	-101.864303	83.584093	-0.001864	-4.217082
0.250000	-0.002320	-3.806271	-100.195271	82.731576	-100.195271	82.731576	-0.002855	-5.269384
0.300000	-0.003221	-4.565292	-98.896435	82.069058	-98.896435	82.069058	-0.004000	-6.320573
0.350000	-0.004212	-5.323325	-97.865845	81.566972	-97.865845	81.566972	-0.005281	-7.370483
0.400000	-0.005268	-6.080345	-97.042470	81.207043	-97.042470	81.207043	-0.006672	-8.419028
0.450000	-0.006371	-6.836356	-96.389596	80.991343	-96.389596	80.991343	-0.008147	-9.466151
0.500000	-0.007501	-7.591384	-95.884376	80.939097	-95.884376	80.939097	-0.009685	-10.511824
0.550000	-0.008646	-8.345463	-95.512531	81.085468	-95.512531	81.085468	-0.011264	-11.556041
0.600000	-0.009794	-9.098636	-95.265457	81.482841	-95.265457	81.482841	-0.012870	-12.598811
0.650000	-0.010939	-9.850947	-95.138470	82.204862	-95.138470	82.204862	-0.014486	-13.640152
0.700000	-0.012074	-10.602436	-95.129466	83.353727	-95.129466	83.353727	-0.016102	-14.680090
0.750000	-0.013196	-11.353138	-95.237448	85.071630	-95.237448	85.071630	-0.017710	-15.718650
0.800000	-0.014305	-12.103083	-95.460168	87.557226	-95.460168	87.557226	-0.019304	-16.755858
0.850000	-0.015397	-12.852296	-95.789603	91.086361	-95.789603	91.086361	-0.020878	-17.791736
0.900000	-0.016475	-13.600792	-96.203054	96.029226	-96.203054	96.029226	-0.022431	-18.826302
0.950000	-0.017537	-14.348585	-96.646918	102.834991	-96.646918	102.834991	-0.023960	-19.859569
1.000000	-0.018586	-15.095680	-97.013559	111.913169	-97.013559	111.913169	-0.025466	-20.891544
1.050000	-0.019622	-15.842081	-97.128786	123.318834	-97.128786	123.318834	-0.026948	-21.922232
1.100000	-0.020647	-16.587786	-96.797487	136.305978	-96.797487	136.305978	-0.028407	-22.951630
1.150000	-0.021661	-17.332790	-95.928952	149.259794	-95.928952	149.259794	-0.029844	-23.979732
1.200000	-0.022665	-18.077086	-94.619329	160.531166	-94.619329	160.531166	-0.031262	-25.006528
1.250000	-0.023662	-18.820664	-93.066681	169.368310	-93.066681	169.368310	-0.032660	-26.032003
1.300000	-0.024651	-19.563482	-91.428936	175.805743	-91.428936	175.805743	-0.034042	-27.056083
1.350000	-0.025635	-20.305557	-89.822118	-179.577741	-89.822118	-179.577741	-0.035408	-28.078805
1.400000	-0.026613	-21.046877	-88.288249	-176.330348	-88.288249	-176.330348	-0.036760	-29.100148
1.450000	-0.027586	-21.787426	-86.840998	-174.097164	-86.840998	-174.097164	-0.038101	-30.120089
1.500000	-0.028556	-22.527190	-85.480779	-172.617877	-85.480779	-172.617877	-0.039431	-31.138604
1.550000	-0.029523	-23.266154	-84.202494	-171.705651	-84.202494	-171.705651	-0.040753	-32.155668
1.600000	-0.030487	-24.004302	-82.999185	-171.226457	-82.999185	-171.226457	-0.042067	-33.171256
1.650000	-0.031449	-24.741618	-81.863664	-171.083255	-81.863664	-171.083255	-0.043375	-34.185341
1.700000	-0.032409	-25.478086	-80.789185	-171.204827	-80.789185	-171.204827	-0.044677	-35.197898
1.750000	-0.033369	-26.213691	-79.769674	-171.538109	-79.769674	-171.538109	-0.045976	-36.208901
1.800000	-0.034327	-26.948416	-78.799770	-172.042952	-78.799770	-172.042952	-0.047272	-37.218323
1.850000	-0.035285	-27.682246	-77.874777	-172.688531	-77.874777	-172.688531	-0.048565	-38.226139
1.900000	-0.036243	-28.415166	-76.990599	-173.450844	-76.990599	-173.450844	-0.049858	-39.232325
1.950000	-0.037202	-29.147159	-76.143653	-174.310958	-76.143653	-174.310958	-0.051150	-40.236856
2.000000	-0.038161	-29.878211	-75.330807	-175.253757	-75.330807	-175.253757	-0.052442	-41.239707
2.050000	-0.039121	-30.608307	-74.549305	-176.267040	-74.549305	-176.267040	-0.053736	-42.240857
2.100000	-0.040082	-31.337430	-73.796721	-177.340853	-73.796721	-177.340853	-0.055031	-43.240282
2.150000	-0.041044	-32.065568	-73.070904	-178.466999	-73.070904	-178.466999	-0.056328	-44.237962
2.200000	-0.042009	-32.792704	-72.369945	-179.638671	-72.369945	-179.638671	-0.057629	-45.233874
2.250000	-0.042975	-33.518826	-71.692137	179.149833	-71.692137	179.149833	-0.058932	-46.228000
2.300000	-0.043944	-34.243918	-71.035954	177.903323	-71.035954	177.903323	-0.060240	-47.220321
2.350000	-0.044916	-34.967967	-70.400021	176.625886	-70.400021	176.625886	-0.061552	-48.210819
2.400000	-0.045890	-35.690960	-69.783097	175.321018	-69.783097	175.321018	-0.062870	-49.199476
2.450000	-0.046868	-36.412882	-69.184059	173.991727	-69.184059	173.991727	-0.064193	-50.186276
2.500000	-0.047850	-37.133722	-68.601885	172.640615	-68.601885	172.640615	-0.065521	-51.171205
2.550000	-0.048836	-37.853417	-68.034737	171.269188	-68.034737	171.269188	-0.066857	-52.154166
2.600000	-0.049825	-38.572002	-67.482765	169.880337	-67.482765	169.880337	-0.068199	-53.135228
2.650000	-0.050820	-39.289465	-66.945177	168.475772	-66.945177	168.475772	-0.069549	-54.114377
2.700000	-0.051819	-40.005793	-66.421247	167.057003	-66.421247	167.057003	-0.070907	-55.091604
2.750000	-0.052824	-40.720976	-65.910305	165.625370	-65.910305	165.625370	-0.072273	-56.066898
2.800000	-0.053834	-41.435001	-65.411733	164.182063	-65.411733	164.182063	-0.073647	-57.040250
2.850000	-0.054850	-42.147857	-64.924959	162.728150	-64.924959	162.728150	-0.075032	-58.011653
2.900000	-0.055873	-42.859533	-64.449452	161.264583	-64.449452	161.264583	-0.076425	-58.981098
2.950000	-0.056901	-43.570018	-63.984718	159.792222	-63.984718	159.792222	-0.077829	-59.948581
3.000000	-0.057937	-44.279302	-63.530298	158.311841	-63.530298	158.311841	-0.079244	-60.914097
3.050000	-0.058980	-44.987375	-63.085762	156.824140	-63.085762	156.824140	-0.080670	-61.877640
3.100000	-0.060031	-45.694227	-62.650710	155.329754	-62.650710	155.329754	-0.082107	-62.839208
3.150000	-0.061090	-46.399847	-62.224765	153.829260	-62.224765	153.829260	-0.083557	-63.798800
3.200000	-0.062157	-47.104228	-61.807576	152.323184	-61.807576	152.323184	-0.085019	-64.756413
3.250000	-0.063232	-47.807359	-61.398811	150.812008	-61.398811	150.812008	-0.086495	-65.712047
3.300000	-0.064317	-48.509232	-60.998158	149.296171	-60.998158	149.296171	-0.087984	-66.665704
3.350000	-0.065411	-49.209839	-60.605324	147.776076	-60.605324	147.776076	-0.089488	-67.617384
3.400000	-0.066515	-49.909171	-60.220033	146.252095	-60.220033	146.252095	-0.091006	-68.567091
3.450000	-0.067629	-50.607221	-59.842021	144.724570	-59.842021	144.724570	-0.092539	-69.514828
3.500000	-0.068753	-51.303980	-59.471043	143.193816	-59.471043	143.193816	-0.094088	-70.460599
3.550000	-0.069888	-51.999443	-59.106864	141.660125	-59.106864	141.660125	-0.095654	-71.404409
3.600000	-0.071035	-52.693601	-58.749260	140.123766	-58.749260	140.123766	-0.097236	-72.346266
3.650000	-0.072193	-53.386449	-58.398022	138.584990	-58.398022	138.584990	-0.098836	-73.286176
3.700000	-0.073362	-54.077979	-58.052949	137.044029	-58.052949	137.044029	-0.100454	-74.224147
3.750000	-0.074545	-54.768186	-57.713851	135.501099	-57.713851	135.501099	-0.102091	-75.160187
3.800000	-0.075740	-55.457006	-57.380243	133.956333	-57.380243	133.956333	-0.103747	-76.094225
3.850000	-0.076948	-56.144491	-57.052277	132.410002	-57.052277	132.410002	-0.105423	-77.026354
3.900000	-0.078170	-56.830637	-56.729786	130.862280	-56.729786	130.862280	-0.107119	-77.956587
3.950000	-0.079406	-57.515438	-56.412613	129.313330	-56.412613	129.313330	-0.108836	-78.884935
4.000000	-0.080656	-58.198889	-56.100605	127.763303	-56.100605	127.763303	-0.110574	-79.811411
4.050000	-0.081920	-58.880988	-55.793617	126.212341	-55.793617	126.212341	-0.112335	-80.736031
4.100000	-0.083199	-59.561730	-55.491511	124.660578	-55.491511	124.660578	-0.114118	-81.658810
4.150000	-0.084494	-60.241111	-55.194154	123.108139	-55.194154	123.108139	-0.115924	-82.579762
4.200000	-0.085804	-60.919129	-54.901418	121.555142	-54.901418	121.555142	-0.117753	-83.498905
4.250000	-0.087131	-61.595779	-54.613183	120.001698	-54.613183	120.001698	-0.119607	-84.416255
4.300000	-0.088473	-62.271061	-54.329331	118.447911	-54.329331	118.447911	-0.121485	-85.331832
4.350000	-0.089833	-62.944971	-54.049750	116.893878	-54.049750	116.893878	-0.123389	-86.245655
4.400000	-0.091209	-63.617508	-53.774331	115.339694	-53.774331	115.339694	-0.125318	-87.157742
4.450000	-0.092604	-64.288669	-53.502973	113.785444	-53.502973	113.785444	-0.127274	-88.068116
4.500000	-0.094016	-64.958454	-53.235574	112.231212	-53.235574	112.231212	-0.129257	-88.976796
4.550000	-0.095446	-65.626861	-52.972039	110.677076	-52.972039	110.677076	-0.131268	-89.883806
4.600000	-0.096895	-66.293890	-52.712276	109.123109	-52.712276	109.123109	-0.133306	-90.789168
4.650000	-0.098364	-66.959539	-52.456196	107.569382	-52.456196	107.569382	-0.135373	-91.692906
4.700000	-0.099851	-67.623810	-52.203713	106.015960	-52.203713	106.015960	-0.137469	-92.595044
4.750000	-0.101359	-68.286701	-51.954745	104.462906	-51.954745	104.462906	-0.139595	-93.495608
4.800000	-0.102886	-68.948213	-51.709213	102.910279	-51.709213	102.910279	-0.141751	-94.394623
4.850000	-0.104435	-69.608347	-51.467038	101.358136	-51.467038	101.358136	-0.143938	-95.292116
4.900000	-0.106004	-70.267104	-51.228148	99.806530	-51.228148	99.806530	-0.146156	-96.188115
4.950000	-0.107595	-70.924485	-50.992471	98.255513	-50.992471	98.255513	-0.148406	-97.082647
5.000000	-0.109207	-71.580491	-50.759936	96.705132	-50.759936	96.705132	-0.150689	-97.975741
5.050000	-0.110843	-72.235065	-50.530350	95.155465	-50.530350	95.155465	-0.153005	-98.867367
5.100000	-0.112501	-72.888269	-50.303783	93.606529	-50.303783	93.606529	-0.155355	-99.757618
5.150000	-0.114182	-73.540104	-50.080173	92.058364	-50.080173	92.058364	-0.157739	-100.646524
5.200000	-0.115886	-74.190573	-49.859459	90.511010	-49.859459	90.511010	-0.160157	-101.534118
5.250000	-0.117614	-74.839680	-49.641582	88.964505	-49.641582	88.964505	-0.162610	-102.420432
5.300000	-0.119366	-75.487428	-49.426485	87.418884	-49.426485	87.418884	-0.165099	-103.305499
5.350000	-0.121143	-76.133819	-49.214112	85.874182	-49.214112	85.874182	-0.167624	-104.189352
5.400000	-0.122945	-76.778857	-49.004411	84.330432	-49.004411	84.330432	-0.170184	-105.072026
5.450000	-0.124772	-77.422547	-48.797328	82.787666	-48.797328	82.787666	-0.172782	-105.953555
5.500000	-0.126624	-78.064893	-48.592814	81.245912	-48.592814	81.245912	-0.175417	-106.833977
5.550000	-0.128503	-78.705898	-48.390820	79.705201	-48.390820	79.705201	-0.178090	-107.713327
5.600000	-0.130408	-79.345568	-48.191298	78.165559	-48.191298	78.165559	-0.180801	-108.591642
5.650000	-0.132340	-79.983907	-47.994203	76.627012	-47.994203	76.627012	-0.183551	-109.468960
5.700000	-0.134299	-80.620921	-47.799490	75.089588	-47.799490	75.089588	-0.186340	-110.345320
5.750000	-0.136286	-81.256615	-47.607115	73.553308	-47.607115	73.553308	-0.189169	-111.220759
5.800000	-0.138300	-81.890994	-47.417036	72.018197	-47.417036	72.018197	-0.192038	-112.095319
5.850000	-0.140348	-82.523839	-47.228902	70.484491	-47.228902	70.484491	-0.194955	-112.968906
5.900000	-0.142427	-83.155326	-47.042922	68.952051	-47.042922	68.952051	-0.197914	-113.841660
5.950000	-0.144521	-83.786138	-46.859956	67.420263	-46.859956	67.420263	-0.200895	-114.714036
6.000000	-0.146660	-84.414929	-46.678171	65.890429	-46.678171	65.890429	-0.203942	-115.585278
6.050000	-0.148811	-85.043276	-46.499560	64.361043	-46.499560	64.361043	-0.207003	-116.456300
6.100000	-0.151014	-85.669402	-46.321840	62.833897	-46.321840	62.833897	-0.210139	-117.326219
6.150000	-0.153223	-86.295309	-46.147425	61.306981	-46.147425	61.306981	-0.213282	-118.196043
6.200000	-0.155490	-86.918801	-45.973648	59.782599	-45.973648	59.782599	-0.216508	-119.064832
6.250000	-0.157759	-87.542294	-45.803280	58.258218	-45.803280	58.258218	-0.219735	-119.933620
6.300000	-0.160093	-88.163186	-45.633329	56.736671	-45.633329	56.736671	-0.223054	-120.801478
6.350000	-0.162428	-88.784078	-45.466639	55.215124	-45.466639	55.215124	-0.226374	-121.669336
6.400000	-0.164825	-89.402620	-45.300630	53.696234	-45.300630	53.696234	-0.229778	-122.536530
6.450000	-0.167229	-90.020948	-45.137515	52.177587	-45.137515	52.177587	-0.233192	-123.403663
6.500000	-0.169690	-90.637169	-44.975313	50.661405	-44.975313	50.661405	-0.236685	-124.270368
6.550000	-0.172163	-91.252969	-44.815673	49.145716	-44.815673	49.145716	-0.240195	-125.136988
6.600000	-0.174690	-91.866903	-44.657149	47.632289	-44.657149	47.632289	-0.243777	-126.003385
6.650000	-0.177235	-92.480214	-44.500890	46.119615	-44.500890	46.119615	-0.247385	-126.869708
6.700000	-0.179828	-93.091893	-44.345925	44.608984	-44.345925	44.608984	-0.251058	-127.735981
6.750000	-0.182447	-93.702756	-44.192955	43.099375	-44.192955	43.099375	-0.254764	-128.602230
6.800000	-0.185108	-94.312216	-44.041434	41.591581	-44.041434	41.591581	-0.258529	-129.468569
6.850000	-0.187802	-94.920674	-43.891668	40.085083	-43.891668	40.085083	-0.262337	-130.334973
6.900000	-0.190533	-95.527950	-43.743481	38.580162	-43.743481	38.580162	-0.266195	-131.201571
6.950000	-0.193303	-96.134046	-43.596836	37.076818	-43.596836	37.076818	-0.270104	-132.068364
7.000000	-0.196105	-96.739176	-43.451881	35.574804	-43.451881	35.574804	-0.274057	-132.935419
7.050000	-0.198953	-97.342955	-43.308279	34.074652	-43.308279	34.074652	-0.278070	-133.802842
7.100000	-0.201828	-97.945978	-43.166457	32.575574	-43.166457	32.575574	-0.282119	-134.670557
7.150000	-0.204756	-98.547487	-43.025821	31.078648	-43.025821	31.078648	-0.286237	-135.538856
7.200000	-0.207704	-99.148442	-42.887040	29.582535	-42.887040	29.582535	-0.290383	-136.407437
7.250000	-0.210713	-99.747730	-42.749299	28.088865	-42.749299	28.088865	-0.294607	-137.276865
7.300000	-0.213736	-100.346657	-42.613470	26.595741	-42.613470	26.595741	-0.298851	-138.146524
7.350000	-0.216828	-100.943775	-42.478555	25.105352	-42.478555	25.105352	-0.303183	-139.017339
7.400000	-0.219928	-101.540716	-42.345593	23.615239	-42.345593	23.615239	-0.307526	-139.888292
7.450000	-0.223104	-102.135714	-42.213439	22.128154	-42.213439	22.128154	-0.311967	-140.760758
7.500000	-0.226281	-102.730713	-42.083265	20.641070	-42.083265	20.641070	-0.316411	-141.633225
7.550000	-0.229543	-103.323644	-41.953807	19.157307	-41.953807	19.157307	-0.320962	-142.507615
7.600000	-0.232806	-103.916576	-41.826251	17.673545	-41.826251	17.673545	-0.325515	-143.382004
7.650000	-0.236148	-104.507663	-41.699525	16.192840	-41.699525	16.192840	-0.330169	-144.258410
7.700000	-0.239499	-105.098582	-41.574530	14.712414	-41.574530	14.712414	-0.334834	-145.135000
7.750000	-0.242922	-105.687871	-41.450461	13.234776	-41.450461	13.234776	-0.339590	-146.013659
7.800000	-0.246361	-106.276834	-41.327973	11.757696	-41.327973	11.757696	-0.344368	-146.892731
7.850000	-0.249867	-106.864371	-41.206493	10.283130	-41.206493	10.283130	-0.349229	-147.773884
7.900000	-0.253397	-107.451434	-41.086460	8.809402	-41.086460	8.809402	-0.354119	-148.655729
7.950000	-0.256971	-108.037571	-40.967638	7.337352	-40.967638	7.337352	-0.359067	-149.539085
8.000000	-0.260598	-108.622679	-40.849960	5.867187	-40.849960	5.867187	-0.364078	-150.424201
8.050000	-0.264268	-109.206928	-40.733485	4.398630	-40.733485	4.398630	-0.369145	-151.310904
8.100000	-0.267983	-109.790331	-40.618201	2.931678	-40.618201	2.931678	-0.374267	-152.199264
8.150000	-0.271743	-110.372903	-40.504096	1.466331	-40.504096	1.466331	-0.379445	-153.089353
8.200000	-0.275549	-110.954657	-40.391155	0.002586	-40.391155	0.002586	-0.384678	-153.981241
8.250000	-0.279399	-111.535607	-40.279369	-1.459559	-40.279369	-1.459559	-0.389968	-154.875002
8.300000	-0.283296	-112.115769	-40.168724	-2.920106	-40.168724	-2.920106	-0.395313	-155.770708
8.350000	-0.287239	-112.695156	-40.059209	-4.379058	-40.059209	-4.379058	-0.400714	-156.668433
8.400000	-0.291227	-113.273784	-39.950813	-5.836419	-39.950813	-5.836419	-0.406171	-157.568252
8.450000	-0.295263	-113.851667	-39.843526	-7.292193	-39.843526	-7.292193	-0.411685	-158.470239
8.500000	-0.299345	-114.428820	-39.737336	-8.746384	-39.737336	-8.746384	-0.417255	-159.374472
8.550000	-0.303474	-115.005259	-39.632234	-10.198996	-39.632234	-10.198996	-0.422881	-160.281026
8.600000	-0.307650	-115.580998	-39.528210	-11.650034	-39.528210	-11.650034	-0.428564	-161.189979
8.650000	-0.311874	-116.156053	-39.425254	-13.099503	-39.425254	-13.099503	-0.434303	-162.101409
8.700000	-0.316145	-116.730439	-39.323357	-14.547410	-39.323357	-14.547410	-0.440099	-163.015396
8.750000	-0.320465	-117.304173	-39.222510	-15.993759	-39.222510	-15.993759	-0.445951	-163.932019
8.800000	-0.324834	-117.877242	-39.122699	-17.438491	-39.122699	-17.438491	-0.451862	-164.851479
8.850000	-0.329252	-118.449692	-39.023924	-18.881678	-39.023924	-18.881678	-0.457830	-165.773745
8.900000	-0.333718	-119.021539	-38.926174	-20.323328	-38.926174	-20.323328	-0.463854	-166.698897
8.950000	-0.338232	-119.592798	-38.829444	-21.763447	-38.829444	-21.763447	-0.469934	-167.627018
9.000000	-0.342796	-120.163487	-38.733724	-23.202043	-38.733724	-23.202043	-0.476070	-168.558192
9.050000	-0.347408	-120.733621	-38.639009	-24.639123	-38.639009	-24.639123	-0.482262	-169.492502
9.100000	-0.352070	-121.303219	-38.545291	-26.074694	-38.545291	-26.074694	-0.488510	-170.430034
9.150000	-0.356781	-121.872295	-38.452563	-27.508764	-38.452563	-27.508764	-0.494814	-171.370872
9.200000	-0.361541	-122.440868	-38.360820	-28.941340	-38.360820	-28.941340	-0.501174	-172.315103
9.250000	-0.366351	-123.008955	-38.270056	-30.372430	-38.270056	-30.372430	-0.507588	-173.262813
9.300000	-0.371210	-123.576573	-38.180264	-31.802042	-38.180264	-31.802042	-0.514058	-174.214090
9.350000	-0.376119	-124.143739	-38.091440	-33.230183	-38.091440	-33.230183	-0.520582	-175.169021
9.400000	-0.381078	-124.710472	-38.003578	-34.656861	-38.003578	-34.656861	-0.527160	-176.127695
9.450000	-0.386086	-125.276788	-37.916674	-36.082083	-37.916674	-36.082083	-0.533793	-177.090202
9.500000	-0.391145	-125.842707	-37.830724	-37.505857	-37.830724	-37.505857	-0.540479	-178.056630
9.550000	-0.396253	-126.408245	-37.745722	-38.928191	-37.745722	-38.928191	-0.547218	-179.027071
9.600000	-0.401412	-126.973422	-37.661665	-40.349091	-37.661665	-40.349091	-0.554009	179.998385
9.650000	-0.406621	-127.538256	-37.578550	-41.768563	-37.578550	-41.768563	-0.560853	179.019646
9.700000	-0.411879	-128.102765	-37.496373	-43.186616	-37.496373	-43.186616	-0.567749	178.036622
9.750000	-0.417188	-128.666969	-37.415131	-44.603254	-37.415131	-44.603254	-0.574695	177.049218
9.800000	-0.422547	-129.230885	-37.334821	-46.018484	-37.334821	-46.018484	-0.581692	176.057344
9.850000	-0.427956	-129.794535	-37.255441	-47.432311	-37.255441	-47.432311	-0.588738	175.060905
9.900000	-0.433414	-130.357936	-37.176988	-48.844740	-37.176988	-48.844740	-0.595833	174.059808
9.950000	-0.438923	-130.921108	-37.099461	-50.255775	-37.099461	-50.255775	-0.602977	173.053959
10.000000	-0.444482	-131.484071	-37.022857	-51.665422	-37.022857	-51.665422	-0.610167	172.043265
