! freq	dB(S11)	phase(S11)	dB(S12)	phase(S12)	
!     	dB(S21)	phase(S21)	dB(S22)	phase(S22)	
!S-par simulation data
#  GHz  S  DB  R 50
0.000000	-0.000000	0.000000	-314.222944	180.000000	-314.222944	180.000000	0.000000	0.000000
0.050000	-0.000123	-1.007533	-108.413086	87.405843	-108.413086	87.405843	-0.000091	-0.831972
0.100000	-0.000486	-2.014768	-102.571066	85.243398	-102.571066	85.243398	-0.000362	-1.663748
0.150000	-0.001077	-3.021429	-99.279137	83.651386	-99.279137	83.651386	-0.000805	-2.495140
0.200000	-0.001873	-4.027281	-97.019234	82.526764	-97.019234	82.526764	-0.001405	-3.325990
0.250000	-0.002860	-5.032055	-95.318642	81.729905	-95.318642	81.729905	-0.002156	-4.156107
0.300000	-0.003995	-6.035689	-93.961191	81.108900	-93.961191	81.108900	-0.003026	-4.985440
0.350000	-0.005256	-7.038030	-92.846058	80.604798	-92.846058	80.604798	-0.004003	-5.813872
0.400000	-0.006617	-8.039004	-91.913406	80.180203	-91.913406	80.180203	-0.005068	-6.641337
0.450000	-0.008051	-9.038572	-91.126308	79.821529	-91.126308	79.821529	-0.006203	-7.467795
0.500000	-0.009538	-10.036721	-90.460452	79.529647	-90.460452	79.529647	-0.007390	-8.293226
0.550000	-0.011057	-11.033461	-89.899052	79.314451	-89.899052	79.314451	-0.008615	-9.117626
0.600000	-0.012592	-12.028811	-89.430120	79.192113	-89.430120	79.192113	-0.009864	-9.941004
0.650000	-0.014131	-13.022801	-89.044885	79.184003	-89.044885	79.184003	-0.011126	-10.763376
0.700000	-0.015666	-14.015461	-88.736807	79.316645	-88.736807	79.316645	-0.012392	-11.584765
0.750000	-0.017187	-15.006819	-88.500904	79.622353	-88.500904	79.622353	-0.013655	-12.405195
0.800000	-0.018692	-15.996903	-88.333215	80.140405	-88.333215	80.140405	-0.014909	-13.224693
0.850000	-0.020177	-16.985733	-88.230319	80.918659	-88.230319	80.918659	-0.016151	-14.043281
0.900000	-0.021640	-17.973323	-88.188786	82.015550	-88.188786	82.015550	-0.017378	-14.860980
0.950000	-0.023082	-18.959685	-88.204490	83.502285	-88.204490	83.502285	-0.018588	-15.677808
1.000000	-0.024501	-19.944820	-88.271629	85.464831	-88.271629	85.464831	-0.019780	-16.493780
1.050000	-0.025899	-20.928728	-88.381342	88.004694	-88.381342	88.004694	-0.020954	-17.308906
1.100000	-0.027277	-21.911401	-88.519755	91.236544	-88.519755	91.236544	-0.022111	-18.123193
1.150000	-0.028637	-22.892829	-88.665493	95.279136	-88.665493	95.279136	-0.023251	-18.936645
1.200000	-0.029980	-23.872997	-88.787072	100.234255	-88.787072	100.234255	-0.024375	-19.749261
1.250000	-0.031307	-24.851887	-88.841550	106.148261	-88.841550	106.148261	-0.025485	-20.561040
1.300000	-0.032619	-25.829421	-88.769343	112.984331	-88.769343	112.984331	-0.026580	-21.371938
1.350000	-0.033920	-26.805633	-88.522914	120.451005	-88.522914	120.451005	-0.027663	-22.181985
1.400000	-0.035209	-27.780498	-88.070297	128.144580	-88.070297	128.144580	-0.028736	-22.991172
1.450000	-0.036489	-28.753990	-87.410800	135.601593	-87.410800	135.601593	-0.029799	-23.799487
1.500000	-0.037760	-29.726083	-86.574596	142.426976	-86.574596	142.426976	-0.030854	-24.606918
1.550000	-0.039025	-30.696751	-85.609738	148.377317	-85.609738	148.377317	-0.031902	-25.413452
1.600000	-0.040283	-31.665966	-84.566424	153.367684	-84.566424	153.367684	-0.032943	-26.219075
1.650000	-0.041536	-32.633701	-83.486753	157.428751	-83.486753	157.428751	-0.033980	-27.023773
1.700000	-0.042785	-33.599928	-82.401363	160.653931	-82.401363	160.653931	-0.035013	-27.827529
1.750000	-0.044031	-34.564621	-81.330362	163.158910	-81.330362	163.158910	-0.036044	-28.630331
1.800000	-0.045274	-35.527752	-80.285819	165.058007	-80.285819	165.058007	-0.037072	-29.432161
1.850000	-0.046515	-36.489296	-79.274263	166.453321	-79.274263	166.453321	-0.038098	-30.233005
1.900000	-0.047755	-37.449226	-78.298642	167.431446	-78.298642	167.431446	-0.039125	-31.032849
1.950000	-0.048994	-38.407516	-77.359694	168.063863	-77.359694	168.063863	-0.040151	-31.831676
2.000000	-0.050234	-39.364142	-76.456853	168.408814	-76.456853	168.408814	-0.041178	-32.629474
2.050000	-0.051474	-40.319081	-75.588826	168.513512	-75.588826	168.513512	-0.042207	-33.426228
2.100000	-0.052715	-41.272307	-74.753945	168.416224	-74.753945	168.416224	-0.043238	-34.221925
2.150000	-0.053958	-42.223799	-73.950388	168.148050	-73.950388	168.148050	-0.044271	-35.016552
2.200000	-0.055202	-43.173534	-73.176305	167.734378	-73.176305	167.734378	-0.045307	-35.810097
2.250000	-0.056450	-44.121492	-72.429889	167.196046	-72.429889	167.196046	-0.046347	-36.602548
2.300000	-0.057700	-45.067651	-71.709423	166.550257	-71.709423	166.550257	-0.047390	-37.393897
2.350000	-0.058953	-46.011993	-71.013291	165.811304	-71.013291	165.811304	-0.048438	-38.184132
2.400000	-0.060211	-46.954498	-70.339992	164.991129	-70.339992	164.991129	-0.049490	-38.973246
2.450000	-0.061473	-47.895148	-69.688133	164.099777	-69.688133	164.099777	-0.050548	-39.761230
2.500000	-0.062740	-48.833927	-69.056433	163.145740	-69.056433	163.145740	-0.051611	-40.548080
2.550000	-0.064012	-49.770734	-68.442662	162.134117	-68.442662	162.134117	-0.052681	-41.333738
2.600000	-0.065290	-50.705636	-67.846897	161.073679	-67.846897	161.073679	-0.053756	-42.118252
2.650000	-0.066575	-51.638619	-67.268122	159.969628	-67.268122	159.969628	-0.054839	-42.901620
2.700000	-0.067866	-52.569668	-66.705400	158.826465	-66.705400	158.826465	-0.055928	-43.683839
2.750000	-0.069164	-53.498770	-66.157866	157.648096	-66.157866	157.648096	-0.057025	-44.464912
2.800000	-0.070469	-54.425914	-65.624725	156.437927	-65.624725	156.437927	-0.058130	-45.244841
2.850000	-0.071783	-55.351088	-65.105240	155.198935	-65.105240	155.198935	-0.059244	-46.023631
2.900000	-0.073105	-56.274281	-64.598727	153.933732	-64.598727	153.933732	-0.060366	-46.801289
2.950000	-0.074436	-57.195485	-64.104553	152.644615	-64.104553	152.644615	-0.061497	-47.577824
3.000000	-0.075777	-58.114690	-63.622128	151.333608	-63.622128	151.333608	-0.062638	-48.353249
3.050000	-0.077128	-59.031888	-63.150904	150.002498	-63.150904	150.002498	-0.063790	-49.127578
3.100000	-0.078489	-59.947072	-62.690366	148.652863	-62.690366	148.652863	-0.064952	-49.900830
3.150000	-0.079861	-60.860236	-62.240035	147.286099	-62.240035	147.286099	-0.066126	-50.673028
3.200000	-0.081244	-61.771374	-61.799459	145.903436	-61.799459	145.903436	-0.067312	-51.444197
3.250000	-0.082639	-62.680482	-61.368213	144.505957	-61.368213	144.505957	-0.068511	-52.214368
3.300000	-0.084047	-63.587555	-60.945898	143.094615	-60.945898	143.094615	-0.069723	-52.983580
3.350000	-0.085469	-64.492355	-60.530838	141.668853	-60.530838	141.668853	-0.070952	-53.751777
3.400000	-0.086904	-65.395262	-60.124865	140.231614	-60.124865	140.231614	-0.072195	-54.519165
3.450000	-0.088354	-66.296049	-59.726338	138.782434	-59.726338	138.782434	-0.073456	-55.285745
3.500000	-0.089813	-67.195406	-59.338407	137.325200	-59.338407	137.325200	-0.074728	-56.051778
3.550000	-0.091295	-68.091705	-58.952701	135.851844	-58.952701	135.851844	-0.076030	-56.816849
3.600000	-0.092784	-68.987067	-58.579139	134.373637	-58.579139	134.373637	-0.077342	-57.581666
3.650000	-0.094297	-69.879326	-58.207294	132.879676	-58.207294	132.879676	-0.078688	-58.345782
3.700000	-0.095822	-70.770208	-57.844729	131.378758	-57.844729	131.378758	-0.080052	-59.109752
3.750000	-0.097365	-71.658927	-57.487661	129.866907	-57.487661	129.866907	-0.081444	-59.873493
3.800000	-0.098927	-72.545344	-57.135122	128.342983	-57.135122	128.342983	-0.082874	-60.637365
3.850000	-0.100501	-73.430536	-56.791442	126.812639	-56.791442	126.812639	-0.084323	-61.401307
3.900000	-0.102104	-74.312509	-56.447888	125.263938	-56.447888	125.263938	-0.085838	-62.166168
3.950000	-0.103716	-75.193560	-56.113680	123.709440	-56.113680	123.709440	-0.087376	-62.931500
4.000000	-0.105356	-76.071749	-55.780520	122.136210	-55.780520	122.136210	-0.088991	-63.698590
4.050000	-0.107012	-76.948396	-55.453287	120.550691	-55.453287	120.550691	-0.090663	-64.467378
4.100000	-0.108687	-77.823117	-55.130253	118.949809	-55.130253	118.949809	-0.092407	-65.238289
4.150000	-0.110389	-78.695401	-54.808336	117.323706	-54.808336	117.323706	-0.094286	-66.013723
4.200000	-0.112102	-79.566682	-54.493770	115.687218	-54.493770	115.687218	-0.096220	-66.791018
4.250000	-0.113851	-80.434649	-54.174780	114.003033	-54.174780	114.003033	-0.098445	-67.578519
4.300000	-0.115612	-81.301724	-53.862250	112.300275	-53.862250	112.300275	-0.100799	-68.370452
4.350000	-0.117403	-82.166222	-53.546786	110.541835	-53.546786	110.541835	-0.103548	-69.175780
4.400000	-0.119209	-83.029467	-53.234224	108.743251	-53.234224	108.743251	-0.106619	-69.991377
4.450000	-0.121044	-83.890412	-52.916334	106.856247	-52.916334	106.856247	-0.110452	-70.829989
4.500000	-0.122903	-84.749490	-52.593028	104.861477	-52.593028	104.861477	-0.115340	-71.697364
4.550000	-0.124786	-85.606683	-52.259908	102.705315	-52.259908	102.705315	-0.122025	-72.608217
4.600000	-0.126695	-86.461916	-51.908585	100.277750	-51.908585	100.277750	-0.132237	-73.592043
4.650000	-0.128628	-87.315366	-51.530548	97.418295	-51.530548	97.418295	-0.149151	-74.690134
4.700000	-0.130584	-88.166976	-51.104531	93.693726	-51.104531	93.693726	-0.182664	-76.008425
4.750000	-0.132562	-89.016814	-50.601373	87.950837	-50.601373	87.950837	-0.267428	-77.793696
4.800000	-0.134557	-89.865062	-50.088473	75.960252	-50.088473	75.960252	-0.584797	-80.606903
4.850000	-0.136676	-90.712304	-52.924123	40.468238	-52.924123	40.468238	-2.082602	-78.366669
4.900000	-0.138955	-91.555508	-57.928365	109.738166	-57.928365	109.738166	-0.823576	-69.893889
4.950000	-0.140991	-92.397625	-53.437156	107.196767	-53.437156	107.196767	-0.330734	-72.904180
5.000000	-0.143094	-93.238452	-52.114839	102.347578	-52.114839	102.347578	-0.216544	-74.859366
5.050000	-0.145245	-94.077624	-51.414135	98.860662	-51.414135	98.860662	-0.176304	-76.246579
5.100000	-0.147434	-94.915128	-50.926582	96.090154	-50.926582	96.090154	-0.158327	-77.373271
5.150000	-0.149658	-95.750948	-50.538311	93.719151	-50.538311	93.719151	-0.149397	-78.360398
5.200000	-0.151915	-96.585151	-50.203255	91.580571	-50.203255	91.580571	-0.144663	-79.267669
5.250000	-0.154208	-97.417654	-49.902329	89.600651	-49.902329	89.600651	-0.142331	-80.120726
5.300000	-0.156533	-98.248637	-49.622774	87.717006	-49.622774	87.717006	-0.141257	-80.940834
5.350000	-0.158891	-99.078055	-49.359346	85.907071	-49.359346	85.907071	-0.141052	-81.735555
5.400000	-0.161283	-99.905933	-49.108119	84.151351	-49.108119	84.151351	-0.141426	-82.511399
5.450000	-0.163721	-100.731779	-48.866886	82.446781	-48.866886	82.446781	-0.142295	-83.269074
5.500000	-0.166178	-101.556844	-48.633052	80.760254	-48.633052	80.760254	-0.143334	-84.020296
5.550000	-0.168677	-102.380141	-48.405720	79.102180	-48.405720	79.102180	-0.144621	-84.760972
5.600000	-0.171207	-103.202174	-48.184446	77.464428	-48.184446	77.464428	-0.146084	-85.494113
5.650000	-0.173775	-104.022751	-47.968072	75.842816	-47.968072	75.842816	-0.147681	-86.220944
5.700000	-0.176380	-104.841871	-47.756376	74.237342	-47.756376	74.237342	-0.149411	-86.941464
5.750000	-0.179018	-105.659829	-47.548853	72.641357	-47.548853	72.641357	-0.151220	-87.658048
5.800000	-0.181700	-106.476161	-47.344993	71.058657	-47.344993	71.058657	-0.153139	-88.369121
5.850000	-0.184409	-107.291605	-47.144977	69.481603	-47.144977	69.481603	-0.155107	-89.077706
5.900000	-0.187170	-108.105274	-46.947840	67.915843	-46.947840	67.915843	-0.157172	-89.781315
5.950000	-0.189951	-108.918311	-46.754411	66.353378	-46.754411	66.353378	-0.159269	-90.483388
6.000000	-0.192793	-109.729452	-46.563237	64.800799	-46.563237	64.800799	-0.161457	-91.180852
6.050000	-0.195649	-110.540193	-46.375728	63.249999	-46.375728	63.249999	-0.163665	-91.877444
6.100000	-0.198573	-111.348940	-46.189965	61.708088	-46.189965	61.708088	-0.165962	-92.569680
6.150000	-0.201506	-112.157500	-46.007868	60.166921	-46.007868	60.166921	-0.168269	-93.261537
6.200000	-0.204514	-112.963995	-45.827096	58.633945	-45.827096	58.633945	-0.170667	-93.949218
6.250000	-0.207523	-113.770489	-45.650010	57.100969	-45.650010	57.100969	-0.173066	-94.636900
6.300000	-0.210618	-114.574877	-45.473897	55.575704	-45.473897	55.575704	-0.175560	-95.320540
6.350000	-0.213713	-115.379264	-45.301283	54.050440	-45.301283	54.050440	-0.178055	-96.004180
6.400000	-0.216888	-116.181855	-45.129765	52.531441	-45.129765	52.531441	-0.180635	-96.684489
6.450000	-0.220071	-116.984284	-44.961366	51.013012	-44.961366	51.013012	-0.183224	-97.364496
6.500000	-0.223328	-117.785207	-44.794195	49.499748	-44.794195	49.499748	-0.185888	-98.041756
6.550000	-0.226601	-118.585829	-44.629793	47.987518	-44.629793	47.987518	-0.188569	-98.718468
6.600000	-0.229941	-119.385214	-44.466751	46.479589	-44.466751	46.479589	-0.191318	-99.392926
6.650000	-0.233305	-120.184187	-44.306158	44.973094	-44.306158	44.973094	-0.194090	-100.066634
6.700000	-0.236730	-120.982167	-44.147049	43.470198	-44.147049	43.470198	-0.196925	-100.738513
6.750000	-0.240186	-121.779651	-43.990100	41.969102	-43.990100	41.969102	-0.199790	-101.409478
6.800000	-0.243697	-122.576362	-43.834749	40.471016	-43.834749	40.471016	-0.202711	-102.078984
6.850000	-0.247248	-123.372521	-43.681294	38.975080	-43.681294	38.975080	-0.205670	-102.747448
6.900000	-0.250846	-124.168103	-43.529540	37.481642	-43.529540	37.481642	-0.208678	-103.414779
6.950000	-0.254493	-124.963106	-43.379443	35.990703	-43.379443	35.990703	-0.211735	-104.080977
7.000000	-0.258180	-125.757700	-43.231137	34.501805	-43.231137	34.501805	-0.214833	-104.746328
7.050000	-0.261924	-126.551720	-43.084273	33.015763	-43.084273	33.015763	-0.217988	-105.410493
7.100000	-0.265701	-127.345470	-42.939276	31.531339	-42.939276	31.531339	-0.221179	-106.074062
7.150000	-0.269544	-128.138682	-42.795526	30.050149	-42.795526	30.050149	-0.224438	-106.736436
7.200000	-0.273412	-128.931737	-42.653708	28.570174	-42.653708	28.570174	-0.227724	-107.398427
7.250000	-0.277355	-129.724320	-42.512958	27.093843	-42.512958	27.093843	-0.231091	-108.059269
7.300000	-0.281316	-130.516830	-42.374193	25.618331	-42.374193	25.618331	-0.234477	-108.719903
7.350000	-0.285361	-131.308969	-42.236332	24.146915	-42.236332	24.146915	-0.237958	-109.379498
7.400000	-0.289415	-132.101087	-42.100501	22.675918	-42.100501	22.675918	-0.241449	-110.039016
7.450000	-0.293563	-132.892969	-41.965417	21.209531	-41.965417	21.209531	-0.245052	-110.697690
7.500000	-0.297712	-133.684851	-41.832401	19.743143	-41.832401	19.743143	-0.248656	-111.356364
7.550000	-0.301964	-134.476668	-41.699978	18.281963	-41.699978	18.281963	-0.252392	-112.014502
7.600000	-0.306218	-135.268484	-41.569543	16.820783	-41.569543	16.820783	-0.256130	-112.672641
7.650000	-0.310566	-136.060419	-41.439772	15.364617	-41.439772	15.364617	-0.260003	-113.330722
7.700000	-0.314926	-136.852364	-41.311797	13.908906	-41.311797	13.908906	-0.263890	-113.988797
7.750000	-0.319372	-137.644584	-41.184536	12.458065	-41.184536	12.458065	-0.267919	-114.647320
7.800000	-0.323838	-138.436858	-41.058886	11.008197	-41.058886	11.008197	-0.271978	-115.305932
7.850000	-0.328384	-139.229530	-40.933973	9.563109	-40.933973	9.563109	-0.276190	-115.965542
7.900000	-0.332958	-140.022335	-40.810483	8.119614	-40.810483	8.119614	-0.280455	-116.625485
7.950000	-0.337603	-140.815632	-40.687723	6.680874	-40.687723	6.680874	-0.284894	-117.287045
8.000000	-0.342286	-141.609176	-40.566180	5.244510	-40.566180	5.244510	-0.289420	-117.949414
8.050000	-0.347032	-142.403273	-40.445323	3.812952	-40.445323	3.812952	-0.294152	-118.614126
8.100000	-0.351824	-143.197765	-40.325426	2.384827	-40.325426	2.384827	-0.299031	-119.280511
8.150000	-0.356672	-143.992840	-40.206123	0.961646	-40.206123	0.961646	-0.304168	-119.950119
8.200000	-0.361574	-144.788496	-40.087412	-0.456590	-40.087412	-0.456590	-0.309564	-120.622950
8.250000	-0.366524	-145.584729	-39.969134	-1.869653	-39.969134	-1.869653	-0.315307	-121.300115
8.300000	-0.371538	-146.381769	-39.850832	-3.275476	-39.850832	-3.275476	-0.321537	-121.983348
8.350000	-0.376578	-147.179154	-39.733283	-4.677919	-39.733283	-4.677919	-0.328053	-122.669956
8.400000	-0.381690	-147.977589	-39.614616	-6.069807	-39.614616	-6.069807	-0.335527	-123.367618
8.450000	-0.386860	-148.776932	-39.494528	-7.451529	-39.494528	-7.451529	-0.344200	-124.077827
8.500000	-0.392081	-149.577118	-39.372537	-8.823026	-39.372537	-8.823026	-0.354409	-124.802533
8.550000	-0.397357	-150.378272	-39.246847	-10.182140	-39.246847	-10.182140	-0.367177	-125.548365
8.600000	-0.402685	-151.180426	-39.115255	-11.528785	-39.115255	-11.528785	-0.383972	-126.322286
8.650000	-0.408064	-151.983576	-38.974529	-12.866611	-38.974529	-12.866611	-0.407236	-127.132296
8.700000	-0.413496	-152.787861	-38.816788	-14.209912	-38.816788	-14.209912	-0.443245	-127.993633
8.750000	-0.418977	-153.593282	-38.630512	-15.613740	-38.630512	-15.613740	-0.503930	-128.907863
8.800000	-0.424509	-154.399870	-38.398148	-17.271205	-38.398148	-17.271205	-0.616472	-129.804476
8.850000	-0.430093	-155.207594	-38.133883	-19.727342	-38.133883	-19.727342	-0.816599	-130.249776
8.900000	-0.435756	-156.016445	-38.027131	-23.391997	-38.027131	-23.391997	-0.997105	-129.223740
8.950000	-0.441534	-156.826743	-38.220080	-26.166609	-38.220080	-26.166609	-0.868063	-127.920466
9.000000	-0.447380	-157.638897	-38.366601	-27.209310	-38.366601	-27.209310	-0.661530	-128.186158
9.050000	-0.453247	-158.452751	-38.377992	-27.932651	-38.377992	-27.932651	-0.545134	-129.062330
9.100000	-0.459145	-159.268125	-38.325629	-28.799308	-38.325629	-28.799308	-0.486907	-129.989557
9.150000	-0.465088	-160.085063	-38.247899	-29.821689	-38.247899	-29.821689	-0.457471	-130.865526
9.200000	-0.471088	-160.903860	-38.159965	-30.962190	-38.159965	-30.962190	-0.443275	-131.682230
9.250000	-0.477137	-161.724180	-38.069464	-32.162133	-38.069464	-32.162133	-0.435273	-132.464107
9.300000	-0.483239	-162.546281	-37.977888	-33.410519	-37.977888	-33.410519	-0.431778	-133.215488
9.350000	-0.489395	-163.370229	-37.886442	-34.691959	-37.886442	-34.691959	-0.431022	-133.944499
9.400000	-0.495606	-164.196090	-37.795671	-35.996498	-37.795671	-35.996498	-0.432026	-134.656920
9.450000	-0.501871	-165.023927	-37.705827	-37.317528	-37.705827	-37.317528	-0.434218	-135.356848
9.500000	-0.508191	-165.853805	-37.617022	-38.650532	-37.617022	-38.650532	-0.437245	-136.047223
9.550000	-0.514563	-166.685786	-37.529302	-39.992340	-37.529302	-39.992340	-0.440883	-136.730198
9.600000	-0.520990	-167.519936	-37.442679	-41.340669	-37.442679	-41.340669	-0.444982	-137.407379
9.650000	-0.527469	-168.356317	-37.357150	-42.693838	-37.357150	-42.693838	-0.449440	-138.079985
9.700000	-0.534001	-169.194996	-37.272702	-44.050585	-37.272702	-44.050585	-0.454187	-138.748963
9.750000	-0.540585	-170.036036	-37.189320	-45.409948	-37.189320	-45.409948	-0.459171	-139.415057
9.800000	-0.547222	-170.879503	-37.106989	-46.771176	-37.106989	-46.771176	-0.464355	-140.078864
9.850000	-0.553910	-171.725464	-37.025693	-48.133682	-37.025693	-48.133682	-0.469713	-140.740870
9.900000	-0.560649	-172.573984	-36.945416	-49.496994	-36.945416	-49.496994	-0.475222	-141.401477
9.950000	-0.567439	-173.425129	-36.866144	-50.860733	-36.866144	-50.860733	-0.480868	-142.061019
10.000000	-0.574279	-174.278968	-36.787865	-52.224590	-36.787865	-52.224590	-0.486639	-142.719782
