! freq	dB(S11)	phase(S11)	dB(S12)	phase(S12)	
!     	dB(S21)	phase(S21)	dB(S22)	phase(S22)	
!S-par simulation data
#  GHz  S  DB  R 50
0.000000	-82.762673	0.000000	-0.000632	0.000000	-0.000632	0.000000	-82.762673	0.000000
0.050000	-48.112818	-87.802596	-0.004239	-2.658148	-0.004239	-2.658148	-48.033242	-87.053685
0.100000	-42.188180	-93.637309	-0.011343	-5.293796	-0.011343	-5.293796	-42.169829	-91.779060
0.150000	-38.699210	-97.726415	-0.017794	-7.912551	-0.017794	-7.912551	-38.692793	-94.942014
0.200000	-36.230053	-101.349810	-0.022714	-10.524486	-0.022714	-10.524486	-36.226379	-97.648846
0.250000	-34.324499	-104.797398	-0.026644	-13.134811	-0.026644	-13.134811	-34.320649	-100.178726
0.300000	-32.778195	-108.150597	-0.030022	-15.744958	-0.030022	-15.744958	-32.772822	-102.611790
0.350000	-31.482414	-111.445883	-0.033146	-18.355301	-0.033146	-18.355301	-31.474754	-104.983907
0.400000	-30.372097	-114.703247	-0.036208	-20.965794	-0.036208	-20.965794	-30.361716	-107.314458
0.450000	-29.403839	-117.935198	-0.039311	-23.576287	-0.039311	-23.576287	-29.390579	-109.615543
0.500000	-28.548664	-121.147870	-0.042504	-26.186643	-0.042504	-26.186643	-28.532520	-111.892619
0.550000	-27.786980	-124.344779	-0.045823	-28.796721	-0.045823	-28.796721	-27.768062	-114.148001
0.600000	-27.102316	-127.530179	-0.049271	-31.406444	-0.049271	-31.406444	-27.080881	-116.385375
0.650000	-26.483591	-130.706183	-0.052854	-34.015735	-0.052854	-34.015735	-26.459995	-118.605620
0.700000	-25.921477	-133.875110	-0.056563	-36.624562	-0.056563	-36.624562	-25.896168	-120.810078
0.750000	-25.408738	-137.038883	-0.060388	-39.232909	-0.060388	-39.232909	-25.382240	-122.999579
0.800000	-24.939536	-140.199277	-0.064316	-41.840783	-0.064316	-41.840783	-24.912433	-125.174779
0.850000	-24.509167	-143.357970	-0.068333	-44.448207	-0.068333	-44.448207	-24.482095	-127.336170
0.900000	-24.113747	-146.516600	-0.072424	-47.055221	-0.072424	-47.055221	-24.087380	-129.484188
0.950000	-23.749826	-149.676728	-0.076572	-49.661887	-0.076572	-49.661887	-23.724851	-131.619414
1.000000	-23.414624	-152.839841	-0.080762	-52.268274	-0.080762	-52.268274	-23.391737	-133.742273
1.050000	-23.105782	-156.007367	-0.084979	-54.874466	-0.084979	-54.874466	-23.085679	-135.853166
1.100000	-22.821288	-159.180663	-0.089207	-57.480554	-0.089207	-57.480554	-22.804655	-137.952477
1.150000	-22.559617	-162.361141	-0.093434	-60.086642	-0.093434	-60.086642	-22.547137	-140.040414
1.200000	-22.319405	-165.550129	-0.097645	-62.692847	-0.097645	-62.692847	-22.311747	-142.117222
1.250000	-22.097784	-168.747627	-0.101832	-65.299257	-0.101832	-65.299257	-22.095490	-144.184430
1.300000	-21.896529	-171.956793	-0.105977	-67.906060	-0.105977	-67.906060	-21.900298	-146.240111
1.350000	-21.711786	-175.176270	-0.110080	-70.513300	-0.110080	-70.513300	-21.722107	-148.286679
1.400000	-21.544269	-178.408165	-0.114126	-73.121163	-0.114126	-73.121163	-21.561700	-150.323168
1.450000	-21.393093	178.346904	-0.118109	-75.729781	-0.118109	-75.729781	-21.418155	-152.349844
1.500000	-21.257404	175.088518	-0.122024	-78.339283	-0.122024	-78.339283	-21.290580	-154.366972
1.550000	-21.136620	171.816200	-0.125865	-80.949807	-0.125865	-80.949807	-21.178369	-156.374631
1.600000	-21.030223	168.529586	-0.129629	-83.561492	-0.129629	-83.561492	-21.080980	-158.372862
1.650000	-20.937751	165.228429	-0.133313	-86.174475	-0.133313	-86.174475	-20.997934	-160.361671
1.700000	-20.859199	161.912120	-0.136913	-88.788947	-0.136913	-88.788947	-20.929225	-162.340727
1.750000	-20.793418	158.581552	-0.140434	-91.404949	-0.140434	-91.404949	-20.873657	-164.310570
1.800000	-20.740440	155.236405	-0.143873	-94.022657	-0.143873	-94.022657	-20.831264	-166.270877
1.850000	-20.699962	151.876900	-0.147232	-96.642203	-0.147232	-96.642203	-20.801733	-168.221602
1.900000	-20.671835	148.503227	-0.150512	-99.263739	-0.150512	-99.263739	-20.784913	-170.162612
1.950000	-20.655802	145.115865	-0.153715	-101.887393	-0.153715	-101.887393	-20.780536	-172.093919
2.000000	-20.651500	141.715555	-0.156846	-104.513267	-0.156846	-104.513267	-20.788230	-174.015695
2.050000	-20.658721	138.303007	-0.159909	-107.141478	-0.159909	-107.141478	-20.807782	-175.928088
2.100000	-20.677273	134.879063	-0.162908	-109.772141	-0.162908	-109.772141	-20.838997	-177.831343
2.150000	-20.706987	131.444695	-0.165847	-112.405368	-0.165847	-112.405368	-20.881703	-179.725833
2.200000	-20.747710	128.001017	-0.168732	-115.041265	-0.168732	-115.041265	-20.935749	178.387922
2.250000	-20.799313	124.549294	-0.171568	-117.679936	-0.171568	-117.679936	-21.001006	176.509225
2.300000	-20.861686	121.090946	-0.174359	-120.321481	-0.174359	-120.321481	-21.077373	174.637175
2.350000	-20.934745	117.627568	-0.177113	-122.965997	-0.177113	-122.965997	-21.164773	172.770639
2.400000	-21.018432	114.160943	-0.179834	-125.613578	-0.179834	-125.613578	-21.263164	170.908226
2.450000	-21.112719	110.693060	-0.182526	-128.264315	-0.182526	-128.264315	-21.372539	169.048250
2.500000	-21.217611	107.226135	-0.185197	-130.918297	-0.185197	-130.918297	-21.492934	167.188707
2.550000	-21.333349	103.762775	-0.187849	-133.575685	-0.187849	-133.575685	-21.624629	165.327128
2.600000	-21.459816	100.305737	-0.190489	-136.236494	-0.190489	-136.236494	-21.767559	163.460722
2.650000	-21.597152	96.858119	-0.193122	-138.900807	-0.193122	-138.900807	-21.921927	161.586272
2.700000	-21.745551	93.423384	-0.195750	-141.568710	-0.195750	-141.568710	-22.088011	159.700081
2.750000	-21.905274	90.005416	-0.198380	-144.240285	-0.198380	-144.240285	-22.266168	157.797922
2.800000	-22.076654	86.608574	-0.201013	-146.915617	-0.201013	-146.915617	-22.456851	155.874973
2.850000	-22.260104	83.237774	-0.203653	-149.594793	-0.203653	-149.594793	-22.660615	153.925743
2.900000	-22.456130	79.898575	-0.206304	-152.277899	-0.206304	-152.277899	-22.878134	151.943976
2.950000	-22.665341	76.597291	-0.208968	-154.965027	-0.208968	-154.965027	-23.110214	149.922533
3.000000	-22.888460	73.341130	-0.211648	-157.656269	-0.211648	-157.656269	-23.357808	147.853246
3.050000	-23.126336	70.138366	-0.214346	-160.351723	-0.214346	-160.351723	-23.622036	145.726718
3.100000	-23.379961	66.998553	-0.217065	-163.051489	-0.217065	-163.051489	-23.904202	143.532076
3.150000	-23.650577	63.933756	-0.219806	-165.755724	-0.219806	-165.755724	-24.205924	141.255599
3.200000	-23.939504	60.957522	-0.222573	-168.464542	-0.222573	-168.464542	-24.528953	138.881772
3.250000	-24.248131	58.084628	-0.225367	-171.178013	-0.225367	-171.178013	-24.875170	136.393519
3.300000	-24.578126	55.333672	-0.228191	-173.896260	-0.228191	-173.896260	-25.246829	133.769238
3.350000	-24.931332	52.727051	-0.231048	-176.619415	-0.231048	-176.619415	-25.646460	130.982624
3.400000	-25.309746	50.291995	-0.233941	-179.347614	-0.233941	-179.347614	-26.076862	128.001251
3.450000	-25.715469	48.061916	-0.236874	177.918997	-0.236874	177.918997	-26.541062	124.784642
3.500000	-26.150601	46.078163	-0.239851	175.180268	-0.239851	175.180268	-27.042209	121.281655
3.550000	-26.617049	44.392303	-0.242878	172.436038	-0.242878	172.436038	-27.583346	117.426962
3.600000	-27.116187	43.068979	-0.245961	169.686140	-0.245961	169.686140	-28.166959	113.136370
3.650000	-27.648265	42.189366	-0.249107	166.930400	-0.249107	166.930400	-28.794124	108.300877
3.700000	-28.211407	41.854892	-0.252325	164.168637	-0.252325	164.168637	-29.462936	102.779784
3.750000	-28.799976	42.190289	-0.255626	161.400661	-0.255626	161.400661	-30.165742	96.394558
3.800000	-29.400892	43.365061	-0.259022	158.626132	-0.259022	158.626132	-30.882760	88.899409
3.850000	-29.991739	45.527136	-0.262525	155.844983	-0.262525	155.844983	-31.577819	80.076891
3.900000	-30.535186	48.822350	-0.266150	153.057005	-0.266150	153.057005	-32.188648	69.739399
3.950000	-30.976548	53.319734	-0.269915	150.261985	-0.269915	150.261985	-32.625448	57.879580
4.000000	-31.247756	58.922947	-0.273838	147.459702	-0.273838	147.459702	-32.787972	44.833659
4.050000	-31.283461	65.295826	-0.277941	144.649935	-0.277941	144.649935	-32.607227	31.327201
4.100000	-31.046675	71.883375	-0.282247	141.832458	-0.282247	141.832458	-32.085977	18.256249
4.150000	-30.547307	78.066925	-0.286782	139.007042	-0.286782	139.007042	-31.296967	6.324444
4.200000	-29.837069	83.364764	-0.291575	136.173457	-0.291575	136.173457	-30.340974	-4.156505
4.250000	-28.985572	87.538266	-0.296656	133.331473	-0.296656	133.331473	-29.306493	-13.207977
4.300000	-28.057190	90.566151	-0.302059	130.480860	-0.302059	130.480860	-28.254286	-21.021467
4.350000	-27.100123	92.556115	-0.307820	127.621389	-0.307820	127.621389	-27.219912	-27.831590
4.400000	-26.144934	93.657215	-0.313984	124.752735	-0.313984	124.752735	-26.220890	-33.847603
4.450000	-25.210603	94.032799	-0.320593	121.874667	-0.320593	121.874667	-25.265452	-39.251784
4.500000	-24.307724	93.830703	-0.327688	118.987068	-0.327688	118.987068	-24.356347	-44.189740
4.550000	-23.440521	93.165209	-0.335317	116.089727	-0.335317	116.089727	-23.492563	-48.767159
4.600000	-22.611118	92.135568	-0.343514	113.182689	-0.343514	113.182689	-22.672557	-53.070604
4.650000	-21.817074	90.799780	-0.352357	110.265323	-0.352357	110.265323	-21.891839	-57.151564
4.700000	-21.057748	89.222419	-0.361895	107.337603	-0.361895	107.337603	-21.148070	-61.063779
4.750000	-20.331157	87.448796	-0.372189	104.399293	-0.372189	104.399293	-20.438241	-64.845006
4.800000	-19.635562	85.517095	-0.383295	101.450313	-0.383295	101.450313	-19.759886	-68.526403
4.850000	-18.968954	83.456338	-0.395277	98.490508	-0.395277	98.490508	-19.110540	-72.131721
4.900000	-18.329416	81.289937	-0.408199	95.519739	-0.408199	95.519739	-18.487986	-75.680061
4.950000	-17.715160	79.036903	-0.422129	92.537876	-0.422129	92.537876	-17.890241	-79.186919
5.000000	-17.124537	76.712784	-0.437139	89.544805	-0.437139	89.544805	-17.315535	-82.664960
5.050000	-16.555874	74.329860	-0.453312	86.540303	-0.453312	86.540303	-16.762138	-86.124510
5.100000	-16.007992	71.899430	-0.470711	83.524403	-0.470711	83.524403	-16.228815	-89.574466
5.150000	-15.479637	69.430258	-0.489413	80.497034	-0.489413	80.497034	-15.714302	-93.021982
5.200000	-14.969670	66.929681	-0.509494	77.458138	-0.509494	77.458138	-15.217464	-96.473053
5.250000	-14.477054	64.403863	-0.531035	74.407671	-0.531035	74.407671	-14.737281	-99.932717
5.300000	-14.000845	61.858004	-0.554116	71.345602	-0.554116	71.345602	-14.272829	-103.405226
5.350000	-13.540108	59.296406	-0.578833	68.271821	-0.578833	68.271821	-13.823204	-106.894334
5.400000	-13.094115	56.722920	-0.605263	65.186386	-0.605263	65.186386	-13.387704	-110.403030
5.450000	-12.662026	54.140621	-0.633521	62.089117	-0.633521	62.089117	-12.965520	-113.934297
5.500000	-12.243504	51.552455	-0.663618	58.980540	-0.663618	58.980540	-12.556325	-117.489263
5.550000	-11.837784	48.960492	-0.695669	55.860497	-0.695669	55.860497	-12.159390	-121.070083
5.600000	-11.444163	46.366610	-0.729805	52.728779	-0.729805	52.728779	-11.774038	-124.678904
5.650000	-11.062180	43.772467	-0.766107	49.585535	-0.766107	49.585535	-11.399819	-128.316811
5.700000	-10.691352	41.179421	-0.804668	46.430830	-0.804668	46.430830	-11.036267	-131.984877
5.750000	-10.331256	38.588579	-0.845576	43.264799	-0.845576	43.264799	-10.682965	-135.683795
5.800000	-9.981467	36.000843	-0.888928	40.087522	-0.888928	40.087522	-10.339493	-139.414240
5.850000	-9.641591	33.416939	-0.934826	36.899093	-0.934826	36.899093	-10.005457	-143.176724
5.900000	-9.311259	30.837436	-0.983376	33.699611	-0.983376	33.699611	-9.680486	-146.971612
5.950000	-8.990119	28.262775	-1.034691	30.489157	-1.034691	30.489157	-9.364220	-150.799221
6.000000	-8.677838	25.693292	-1.088897	27.267797	-1.088897	27.267797	-9.056316	-154.659828
6.050000	-8.374139	23.129139	-1.146090	24.035753	-1.146090	24.035753	-8.756483	-158.553141
6.100000	-8.078734	20.570411	-1.206390	20.793171	-1.206390	20.793171	-8.464424	-162.479015
6.150000	-7.791355	18.017120	-1.269919	17.540215	-1.269919	17.540215	-8.179859	-166.437192
6.200000	-7.511748	15.469205	-1.336807	14.277061	-1.336807	14.277061	-7.902523	-170.427303
6.250000	-7.239669	12.926554	-1.407188	11.003910	-1.407188	11.003910	-7.632167	-174.448865
6.300000	-6.974879	10.389068	-1.481235	7.720879	-1.481235	7.720879	-7.368544	-178.501616
6.350000	-6.717169	7.856517	-1.559062	4.428325	-1.559062	4.428325	-7.111456	177.415496
6.400000	-6.466325	5.328736	-1.640821	1.126526	-1.640821	1.126526	-6.860702	173.303287
6.450000	-6.222144	2.805587	-1.726669	-2.184207	-1.726669	-2.184207	-6.616096	169.162691
6.500000	-5.984433	0.286988	-1.816770	-5.503525	-1.816770	-5.503525	-6.377468	164.994752
6.550000	-5.753015	-2.227076	-1.911295	-8.831036	-1.911295	-8.831036	-6.144666	160.800630
6.600000	-5.527735	-4.736507	-2.010451	-12.166364	-2.010451	-12.166364	-5.917549	156.581407
6.650000	-5.308461	-7.241206	-2.114403	-15.508969	-2.114403	-15.508969	-5.696001	152.338632
6.700000	-5.095088	-9.741033	-2.223331	-18.858286	-2.223331	-18.858286	-5.479916	148.073878
6.750000	-4.887538	-12.235853	-2.337430	-22.213710	-2.337430	-22.213710	-5.269202	143.788764
6.800000	-4.685763	-14.725596	-2.456901	-25.574574	-2.456901	-25.574574	-5.063782	139.485018
6.850000	-4.489731	-17.210288	-2.581952	-28.940145	-2.581952	-28.940145	-4.863594	135.164474
6.900000	-4.299431	-19.690043	-2.712815	-32.309637	-2.712815	-32.309637	-4.668590	130.828997
6.950000	-4.114850	-22.165108	-2.849708	-35.682157	-2.849708	-35.682157	-4.478738	126.480653
7.000000	-3.935960	-24.635827	-2.992829	-39.056737	-2.992829	-39.056737	-4.294004	122.121640
7.050000	-3.762734	-27.102551	-3.142402	-42.432352	-3.142402	-42.432352	-4.114372	117.754156
7.100000	-3.595137	-29.565633	-3.298656	-45.807907	-3.298656	-45.807907	-3.939832	113.380463
7.150000	-3.433126	-32.025400	-3.461821	-49.182234	-3.461821	-49.182234	-3.770381	109.002884
7.200000	-3.276752	-34.482037	-3.632271	-52.553962	-3.632271	-52.553962	-3.606095	104.623813
7.250000	-3.125789	-36.935966	-3.809985	-55.921977	-3.809985	-55.921977	-3.446853	100.245686
7.300000	-2.980261	-39.387273	-3.995325	-59.284839	-3.995325	-59.284839	-3.292718	95.870864
7.350000	-2.840112	-41.836086	-4.188536	-62.641125	-4.188536	-62.641125	-3.143699	91.501754
7.400000	-2.705287	-44.282487	-4.389871	-65.989359	-4.389871	-65.989359	-2.999803	87.140746
7.450000	-2.575729	-46.726518	-4.599589	-69.328019	-4.599589	-69.328019	-2.861036	82.790197
7.500000	-2.451381	-49.168192	-4.817960	-72.655543	-4.817960	-72.655543	-2.727399	78.452412
7.550000	-2.332245	-51.607458	-5.045311	-75.970096	-5.045311	-75.970096	-2.598943	74.129917
7.600000	-2.218204	-54.044326	-5.281884	-79.270233	-5.281884	-79.270233	-2.475608	69.824652
7.650000	-2.109199	-56.478756	-5.527992	-82.554303	-5.527992	-82.554303	-2.357380	65.538668
7.700000	-2.005165	-58.910709	-5.783972	-85.820631	-5.783972	-85.820631	-2.244234	61.273899
7.750000	-1.906140	-61.340078	-6.050250	-89.066949	-6.050250	-89.066949	-2.136240	57.032819
7.800000	-1.811872	-63.766962	-6.327115	-92.292509	-6.327115	-92.292509	-2.033181	52.815938
7.850000	-1.722370	-66.191301	-6.615067	-95.495142	-6.615067	-95.495142	-1.935090	48.625254
7.900000	-1.637558	-68.613112	-6.914610	-98.673059	-6.914610	-98.673059	-1.841912	44.462102
7.950000	-1.557359	-71.032446	-7.226311	-101.824416	-7.226311	-101.824416	-1.753587	40.327640
8.000000	-1.481690	-73.449394	-7.550819	-104.947292	-7.550819	-104.947292	-1.670050	36.222840
8.050000	-1.410466	-75.864094	-7.888875	-108.039656	-7.888875	-108.039656	-1.591227	32.148483
8.100000	-1.343600	-78.276738	-8.241339	-111.099326	-8.241339	-111.099326	-1.517043	28.105149
8.150000	-1.281042	-80.687566	-8.609209	-114.123499	-8.609209	-114.123499	-1.447460	24.093556
8.200000	-1.222698	-83.096917	-8.993639	-117.109397	-8.993639	-117.109397	-1.382397	20.113872
8.250000	-1.168432	-85.505221	-9.395988	-120.054305	-9.395988	-120.054305	-1.321726	16.165696
8.300000	-1.118149	-87.912977	-9.817861	-122.954597	-9.817861	-122.954597	-1.265364	12.248754
8.350000	-1.071754	-90.320781	-10.261159	-125.805926	-10.261159	-125.805926	-1.213229	8.362555
8.400000	-1.029154	-92.729331	-10.728139	-128.602977	-10.728139	-128.602977	-1.165244	4.506390
8.450000	-0.990257	-95.139444	-11.221506	-131.339123	-11.221506	-131.339123	-1.121336	0.679327
8.500000	-0.954975	-97.552057	-11.744513	-134.005951	-11.744513	-134.005951	-1.081438	-3.119790
8.550000	-0.923226	-99.968241	-12.301104	-136.592585	-12.301104	-136.592585	-1.045491	-6.892344
8.600000	-0.894933	-102.389211	-12.896099	-139.084724	-12.896099	-139.084724	-1.013448	-10.639946
8.650000	-0.870031	-104.816334	-13.535439	-141.463210	-13.535439	-141.463210	-0.985273	-14.364448
8.700000	-0.848462	-107.251142	-14.226521	-143.701886	-14.226521	-143.701886	-0.960944	-18.067939
8.750000	-0.830185	-109.695340	-14.978659	-145.764272	-14.978659	-145.764272	-0.940457	-21.752760
8.800000	-0.815242	-112.151114	-15.803744	-147.591531	-15.803744	-147.591531	-0.923910	-25.421228
8.850000	-0.803557	-114.620364	-16.716998	-149.108428	-16.716998	-149.108428	-0.911262	-29.076637
8.900000	-0.795148	-117.105404	-17.738203	-150.194025	-17.738203	-150.194025	-0.902577	-32.722163
8.950000	-0.790060	-119.608771	-18.893029	-150.655665	-18.893029	-150.655665	-0.897953	-36.361280
9.000000	-0.788370	-122.133233	-20.214032	-150.171957	-20.214032	-150.171957	-0.897521	-39.997783
9.050000	-0.790192	-124.681806	-21.738564	-148.179472	-21.738564	-148.179472	-0.901455	-43.635808
9.100000	-0.795687	-127.257758	-23.492585	-143.649496	-23.492585	-143.649496	-0.909975	-47.279861
9.150000	-0.805066	-129.864623	-25.418987	-134.736372	-25.418987	-134.736372	-0.923357	-50.934838
9.200000	-0.818495	-132.505301	-27.178546	-119.094448	-27.178546	-119.094448	-0.941814	-54.605543
9.250000	-0.836564	-135.186034	-27.742063	-96.417807	-27.742063	-96.417807	-0.966071	-58.298961
9.300000	-0.859558	-137.909997	-26.550637	-75.024528	-26.550637	-75.024528	-0.996460	-62.020837
9.350000	-0.887992	-140.681800	-24.463578	-61.162417	-24.463578	-61.162417	-1.033592	-65.778008
9.400000	-0.922491	-143.506294	-22.318570	-53.745827	-22.318570	-53.745827	-1.078198	-69.577892
9.450000	-0.963800	-146.388536	-20.378008	-50.255741	-20.378008	-50.255741	-1.131154	-73.428528
9.500000	-1.012810	-149.333739	-18.664498	-49.074238	-18.664498	-49.074238	-1.193502	-77.338617
9.550000	-1.070565	-152.347210	-17.145393	-49.319456	-17.145393	-49.319456	-1.266487	-81.317562
9.600000	-1.138346	-155.434630	-15.783337	-50.510891	-15.783337	-50.510891	-1.351647	-85.375927
9.650000	-1.217660	-158.601653	-14.547341	-52.372111	-14.547341	-52.372111	-1.450832	-89.525265
9.700000	-1.310074	-161.852435	-13.414204	-54.732664	-13.414204	-54.732664	-1.566018	-93.776487
9.750000	-1.417486	-165.191336	-12.365814	-57.492525	-12.365814	-57.492525	-1.699672	-98.142005
9.800000	-1.542054	-168.621972	-11.388570	-60.588361	-11.388570	-60.588361	-1.854703	-102.634929
9.850000	-1.686204	-172.146912	-10.472326	-63.979562	-10.472326	-63.979562	-2.034530	-107.269002
9.900000	-1.852643	-175.767353	-9.609617	-67.639928	-9.609617	-67.639928	-2.243163	-112.058504
9.950000	-2.044346	-179.482751	-8.795109	-71.552419	-8.795109	-71.552419	-2.485281	-117.018145
10.000000	-2.264548	176.709562	-8.025202	-75.705609	-8.025202	-75.705609	-2.766326	-122.162964
