! freq	dB(S11)	phase(S11)	dB(S12)	phase(S12)	
!     	dB(S21)	phase(S21)	dB(S22)	phase(S22)	
!S-par simulation data
#  GHz  S  DB  R 50
0.000000	-83.451665	0.000000	-0.000584	0.000000	-0.000584	0.000000	-83.451665	0.000000
0.050000	-40.295063	-92.845799	-0.005905	-2.930722	-0.005905	-2.930722	-40.277517	-91.376491
0.100000	-34.344552	-96.701236	-0.012749	-5.819234	-0.012749	-5.819234	-34.323430	-93.724447
0.150000	-30.876264	-100.562756	-0.018919	-8.697180	-0.018919	-8.697180	-30.853640	-96.083261
0.200000	-28.423115	-104.390379	-0.025390	-11.570898	-0.025390	-11.570898	-28.399058	-98.412593
0.250000	-26.529618	-108.177849	-0.032443	-14.440683	-0.032443	-14.440683	-26.504050	-100.697989
0.300000	-24.993562	-111.932888	-0.040101	-17.306591	-0.040101	-17.306591	-24.966638	-102.940126
0.350000	-23.705129	-115.666634	-0.048295	-20.169236	-0.048295	-20.169236	-23.677165	-105.145687
0.400000	-22.599697	-119.386159	-0.057005	-23.028930	-0.057005	-23.028930	-22.571024	-107.317262
0.450000	-21.636903	-123.097769	-0.066255	-25.885791	-0.066255	-25.885791	-21.607827	-109.454793
0.500000	-20.785974	-126.807734	-0.075964	-28.740361	-0.075964	-28.740361	-20.756708	-111.563678
0.550000	-20.028196	-130.520724	-0.086151	-31.592589	-0.086151	-31.592589	-19.998888	-113.642136
0.600000	-19.347514	-134.240798	-0.096756	-34.442729	-0.096756	-34.442729	-19.318232	-115.692251
0.650000	-18.732860	-137.971845	-0.107740	-37.290841	-0.107740	-37.290841	-18.703617	-117.713380
0.700000	-18.174967	-141.717034	-0.119043	-40.137058	-0.119043	-40.137058	-18.145734	-119.705654
0.750000	-17.666854	-145.479659	-0.130608	-42.981459	-0.130608	-42.981459	-17.637571	-121.668097
0.800000	-17.202680	-149.262720	-0.142370	-45.824151	-0.142370	-45.824151	-17.173271	-123.599774
0.850000	-16.777983	-153.069736	-0.154266	-48.665218	-0.154266	-48.665218	-16.748360	-125.498758
0.900000	-16.388078	-156.902640	-0.166230	-51.504861	-0.166230	-51.504861	-16.358150	-127.364943
0.950000	-16.029854	-160.764817	-0.178210	-54.343220	-0.178210	-54.343220	-15.999529	-129.196122
1.000000	-15.700374	-164.659268	-0.190156	-57.180510	-0.190156	-57.180510	-15.669562	-130.990528
1.050000	-15.397074	-168.589053	-0.202026	-60.017000	-0.202026	-60.017000	-15.365685	-132.746269
1.100000	-15.117690	-172.557304	-0.213783	-62.853018	-0.213783	-62.853018	-15.085636	-134.461345
1.150000	-14.860194	-176.567224	-0.225399	-65.688955	-0.225399	-65.688955	-14.827388	-136.133669
1.200000	-14.622749	179.377913	-0.236850	-68.525260	-0.236850	-68.525260	-14.589101	-137.761088
1.250000	-14.403667	175.274774	-0.248119	-71.362436	-0.248119	-71.362436	-14.369087	-139.341402
1.300000	-14.201615	171.118781	-0.259190	-74.201075	-0.259190	-74.201075	-14.166003	-140.871267
1.350000	-14.014839	166.907584	-0.270061	-77.041749	-0.270061	-77.041749	-13.978092	-142.349494
1.400000	-13.841918	162.637802	-0.280733	-79.885077	-0.280733	-79.885077	-13.803923	-143.773916
1.450000	-13.681478	158.306111	-0.291215	-82.731697	-0.291215	-82.731697	-13.642112	-145.142454
1.500000	-13.532172	153.909291	-0.301522	-85.582265	-0.301522	-85.582265	-13.491300	-146.453163
1.550000	-13.392665	149.444290	-0.311676	-88.437441	-0.311676	-88.437441	-13.350138	-147.704289
1.600000	-13.261625	144.908294	-0.321710	-91.297887	-0.321710	-91.297887	-13.217280	-148.894342
1.650000	-13.137710	140.298808	-0.331663	-94.164261	-0.331663	-94.164261	-13.091369	-150.022163
1.700000	-13.019563	135.613748	-0.341584	-97.037209	-0.341584	-97.037209	-12.971037	-151.087017
1.750000	-12.905809	130.851540	-0.351531	-99.917360	-0.351531	-99.917360	-12.854897	-152.088678
1.800000	-12.795053	126.011233	-0.361572	-102.805319	-0.361572	-102.805319	-12.741546	-153.027530
1.850000	-12.685883	121.092604	-0.371782	-105.701664	-0.371782	-105.701664	-12.629570	-153.904664
1.900000	-12.576853	116.095448	-0.382250	-108.607042	-0.382250	-108.607042	-12.517522	-154.721358
1.950000	-12.466498	111.021428	-0.393074	-111.521968	-0.393074	-111.521968	-12.403946	-155.480530
2.000000	-12.353439	105.874082	-0.404354	-114.446800	-0.404354	-114.446800	-12.287484	-156.186656
2.050000	-12.236326	100.657222	-0.416200	-117.381936	-0.416200	-117.381936	-12.166813	-156.844575
2.100000	-12.113881	95.375817	-0.428731	-120.327719	-0.428731	-120.327719	-12.040688	-157.460161
2.150000	-11.984920	90.036001	-0.442071	-123.284427	-0.442071	-123.284427	-11.907971	-158.040293
2.200000	-11.848386	84.645027	-0.456351	-126.252271	-0.456351	-126.252271	-11.767655	-158.592796
2.250000	-11.703375	79.211182	-0.471706	-129.231385	-0.471706	-129.231385	-11.618893	-159.126325
2.300000	-11.549164	73.743652	-0.488277	-132.221830	-0.488277	-132.221830	-11.461023	-159.650215
2.350000	-11.385229	68.252343	-0.506207	-135.223583	-0.506207	-135.223583	-11.293586	-160.174283
2.400000	-11.211267	62.747668	-0.525639	-138.236536	-0.525639	-138.236536	-11.116337	-160.708609
2.450000	-11.027196	57.240305	-0.546721	-141.260496	-0.546721	-141.260496	-10.929253	-161.263292
2.500000	-10.833159	51.740950	-0.569597	-144.295180	-0.569597	-144.295180	-10.732527	-161.848201
2.550000	-10.629211	46.260697	-0.594455	-147.340431	-0.594455	-147.340431	-10.526260	-162.473803
2.600000	-10.416228	40.809330	-0.621396	-150.395547	-0.621396	-150.395547	-10.311354	-163.148110
2.650000	-10.194953	35.396125	-0.650556	-153.459972	-0.650556	-153.459972	-10.088569	-163.878906
2.700000	-9.966273	30.029519	-0.682063	-156.533067	-0.682063	-156.533067	-9.858798	-164.672970
2.750000	-9.731188	24.717004	-0.716039	-159.614108	-0.716039	-159.614108	-9.623033	-165.535980
2.800000	-9.490773	19.465063	-0.752597	-162.702296	-0.752597	-162.702296	-9.382334	-166.472478
2.850000	-9.246151	14.279148	-0.791840	-165.796758	-0.791840	-165.796758	-9.137799	-167.485867
2.900000	-8.998457	9.163695	-0.833859	-168.896557	-0.833859	-168.896557	-8.890532	-168.578452
2.950000	-8.748819	4.122177	-0.878733	-172.000700	-0.878733	-172.000700	-8.641623	-169.751504
3.000000	-8.498326	-0.842830	-0.926529	-175.108141	-0.926529	-175.108141	-8.392123	-171.005352
3.050000	-8.248018	-5.729560	-0.977300	-178.217799	-0.977300	-178.217799	-8.143030	-172.339483
3.100000	-7.998866	-10.536961	-1.031083	178.671441	-1.031083	178.671441	-7.895273	-173.752655
3.150000	-7.751720	-15.263733	-1.087930	175.560726	-1.087930	175.560726	-7.649666	-175.243821
3.200000	-7.507421	-19.909983	-1.147848	172.451239	-1.147848	172.451239	-7.407010	-176.810519
3.250000	-7.266745	-24.477129	-1.210799	169.344120	-1.210799	169.344120	-7.168044	-178.449121
3.300000	-7.030324	-28.966066	-1.276760	166.240499	-1.276760	166.240499	-6.933369	179.843464
3.350000	-6.798705	-33.377967	-1.345693	163.141483	-1.345693	163.141483	-6.703503	178.070535
3.400000	-6.572349	-37.714221	-1.417547	160.048146	-1.417547	160.048146	-6.478884	176.235533
3.450000	-6.351642	-41.976380	-1.492257	156.961522	-1.492257	156.961522	-6.259875	174.341969
3.500000	-6.136892	-46.166123	-1.569745	153.882595	-1.569745	153.882595	-6.046769	172.393371
3.550000	-5.928343	-50.285215	-1.649923	150.812293	-1.649923	150.812293	-5.839793	170.393237
3.600000	-5.726174	-54.335482	-1.732692	147.751477	-1.732692	147.751477	-5.639116	168.345000
3.650000	-5.530506	-58.318792	-1.817943	144.700945	-1.817943	144.700945	-5.444851	166.251994
3.700000	-5.341414	-62.237037	-1.905561	141.661415	-1.905561	141.661415	-5.257064	164.117428
3.750000	-5.158924	-66.092120	-1.995423	138.633534	-1.995423	138.633534	-5.075777	161.944374
3.800000	-4.983093	-69.884661	-2.087422	135.618141	-2.087422	135.618141	-4.901042	159.735039
3.850000	-4.813812	-73.617938	-2.181397	132.615463	-2.181397	132.615463	-4.732752	157.493002
3.900000	-4.651002	-77.293846	-2.277212	129.625895	-2.277212	129.625895	-4.570825	155.220836
3.950000	-4.494559	-80.914271	-2.374731	126.649755	-2.374731	126.649755	-4.415158	152.920943
4.000000	-4.344358	-84.481085	-2.473819	123.687278	-2.473819	123.687278	-4.265627	150.595554
4.050000	-4.200253	-87.996150	-2.574337	120.738623	-2.574337	120.738623	-4.122088	148.246735
4.100000	-4.062089	-91.461312	-2.676154	117.803873	-2.676154	117.803873	-3.984388	145.876384
4.150000	-3.929697	-94.878403	-2.779136	114.883041	-2.779136	114.883041	-3.852358	143.486244
4.200000	-3.802898	-98.249242	-2.883157	111.976070	-2.883157	111.976070	-3.725824	141.077904
4.250000	-3.681509	-101.575632	-2.988092	109.082839	-2.988092	109.082839	-3.604604	138.652811
4.300000	-3.565343	-104.859364	-3.093824	106.203165	-3.093824	106.203165	-3.488513	136.212273
4.350000	-3.454208	-108.102214	-3.200240	103.336811	-3.200240	103.336811	-3.377362	133.757470
4.400000	-3.347950	-111.305537	-3.307223	100.483624	-3.307223	100.483624	-3.270998	131.289328
4.450000	-3.246376	-114.471139	-3.414670	97.643254	-3.414670	97.643254	-3.169228	128.808826
4.500000	-3.149258	-117.601176	-3.522496	94.815176	-3.522496	94.815176	-3.071828	126.316942
4.550000	-3.056408	-120.697363	-3.630616	91.998968	-3.630616	91.998968	-2.978612	123.814422
4.600000	-2.967906	-123.758779	-3.738846	89.195115	-3.738846	89.195115	-2.889652	121.301113
4.650000	-2.883004	-126.792814	-3.847336	86.401087	-3.847336	86.401087	-2.804219	118.779351
4.700000	-2.801834	-129.798017	-3.955911	83.617482	-3.955911	83.617482	-2.722437	116.248679
4.750000	-2.724225	-132.776043	-4.064515	80.843766	-4.064515	80.843766	-2.644137	113.709543
4.800000	-2.650013	-135.728531	-4.173102	78.079381	-4.173102	78.079381	-2.569153	111.162331
4.850000	-2.579036	-138.657106	-4.281631	75.323758	-4.281631	75.323758	-2.497328	108.607382
4.900000	-2.511142	-141.563376	-4.390072	72.576309	-4.390072	72.576309	-2.428508	106.044988
4.950000	-2.446182	-144.448935	-4.498400	69.836439	-4.498400	69.836439	-2.362544	103.475403
5.000000	-2.384013	-147.315361	-4.606599	67.103541	-4.606599	67.103541	-2.299297	100.898845
5.050000	-2.324671	-150.162927	-4.714540	64.377468	-4.714540	64.377468	-2.238795	98.314963
5.100000	-2.267651	-152.996043	-4.822481	61.656575	-4.822481	61.656575	-2.180548	95.725079
5.150000	-2.213150	-155.813866	-4.930200	58.941090	-4.930200	58.941090	-2.124741	93.128323
5.200000	-2.160854	-158.619256	-5.037855	56.229926	-5.037855	56.229926	-2.071072	90.525441
5.250000	-2.110723	-161.413249	-5.145413	53.522627	-5.145413	53.522627	-2.019496	87.916304
5.300000	-2.062747	-164.196830	-5.252826	50.818742	-5.252826	50.818742	-1.969999	85.300661
5.350000	-2.016601	-166.972665	-5.360305	48.117277	-5.360305	48.117277	-1.922269	82.679381
5.400000	-1.972274	-169.741703	-5.467829	45.417800	-5.467829	45.417800	-1.876292	80.052254
5.450000	-1.929673	-172.505358	-5.575448	42.719731	-5.575448	42.719731	-1.831977	77.419363
5.500000	-1.888839	-175.264807	-5.683119	40.022514	-5.683119	40.022514	-1.789358	74.780273
5.550000	-1.849581	-178.021887	-5.790994	37.325453	-5.790994	37.325453	-1.748252	72.135459
5.600000	-1.811788	179.221906	-5.899179	34.627962	-5.899179	34.627962	-1.708549	69.485140
5.650000	-1.775383	176.465171	-6.007757	31.929479	-6.007757	31.929479	-1.670176	66.829399
5.700000	-1.740297	173.706507	-6.116820	29.229446	-6.116820	29.229446	-1.633064	64.168320
5.750000	-1.706461	170.944508	-6.226469	26.527311	-6.226469	26.527311	-1.597145	61.501991
5.800000	-1.673836	168.177611	-6.336798	23.822444	-6.336798	23.822444	-1.562380	58.830375
5.850000	-1.642423	165.403799	-6.447901	21.114015	-6.447901	21.114015	-1.528765	56.153232
5.900000	-1.612069	162.622105	-6.559971	18.401739	-6.559971	18.401739	-1.496156	53.471128
5.950000	-1.582720	159.831092	-6.673152	15.685081	-6.673152	15.685081	-1.464497	50.784156
6.000000	-1.554326	157.029309	-6.787597	12.963509	-6.787597	12.963509	-1.433738	48.092406
6.050000	-1.526840	154.215287	-6.903473	10.236495	-6.903473	10.236495	-1.403832	45.395972
6.100000	-1.500216	151.387540	-7.020963	7.503514	-7.020963	7.503514	-1.374733	42.694941
6.150000	-1.474466	148.543321	-7.140287	4.763526	-7.140287	4.763526	-1.346443	39.989071
6.200000	-1.449524	145.681345	-7.261676	2.016139	-7.261676	2.016139	-1.318897	37.278591
6.250000	-1.425324	142.800703	-7.385357	-0.738880	-7.385357	-0.738880	-1.292026	34.563764
6.300000	-1.401833	139.899789	-7.511582	-3.502045	-7.511582	-3.502045	-1.265796	31.844650
6.350000	-1.379025	136.976958	-7.640629	-6.273863	-7.640629	-6.273863	-1.240170	29.121297
6.400000	-1.356872	134.030521	-7.772800	-9.054838	-7.772800	-9.054838	-1.215116	26.393741
6.450000	-1.335358	131.058576	-7.908436	-11.845529	-7.908436	-11.845529	-1.190606	23.661975
6.500000	-1.314522	128.056276	-8.048102	-14.647542	-8.048102	-14.647542	-1.166655	20.925558
6.550000	-1.294287	125.024589	-8.192045	-17.460272	-8.192045	-17.460272	-1.143185	18.184925
6.600000	-1.274646	121.961570	-8.340708	-20.284178	-8.340708	-20.284178	-1.120170	15.440022
6.650000	-1.255594	118.865192	-8.494586	-23.119696	-8.494586	-23.119696	-1.097587	12.690767
6.700000	-1.237168	115.731108	-8.654417	-25.967965	-8.654417	-25.967965	-1.075436	9.936773
6.750000	-1.219337	112.559557	-8.820615	-28.828494	-8.820615	-28.828494	-1.053672	7.178207
6.800000	-1.202130	109.347018	-8.993964	-31.701960	-8.993964	-31.701960	-1.032288	4.414735
6.850000	-1.185565	106.090819	-9.175252	-34.588618	-9.175252	-34.588618	-1.011271	1.646110
6.900000	-1.169570	102.794576	-9.364653	-37.486877	-9.364653	-37.486877	-0.990570	-1.127211
6.950000	-1.154316	99.442244	-9.564571	-40.400428	-9.564571	-40.400428	-0.970260	-3.907109
7.000000	-1.139711	96.037432	-9.775466	-43.327243	-9.775466	-43.327243	-0.950293	-6.693234
7.050000	-1.125789	92.577232	-9.998644	-46.266960	-9.998644	-46.266960	-0.930671	-9.486072
7.100000	-1.112646	89.058471	-10.235605	-49.218919	-10.235605	-49.218919	-0.911399	-12.286183
7.150000	-1.100416	85.477443	-10.488081	-52.182067	-10.488081	-52.182067	-0.892490	-15.094202
7.200000	-1.089235	81.829929	-10.758088	-55.154820	-10.758088	-55.154820	-0.873963	-17.910853
7.250000	-1.079233	78.111330	-11.047980	-58.134886	-11.047980	-58.134886	-0.855846	-20.736949
7.300000	-1.070553	74.316701	-11.360536	-61.119008	-11.360536	-61.119008	-0.838176	-23.573402
7.350000	-1.063361	70.440701	-11.699054	-64.102615	-11.699054	-64.102615	-0.821003	-26.421230
7.400000	-1.057853	66.477519	-12.067485	-67.079318	-12.067485	-67.079318	-0.804389	-29.281562
7.450000	-1.054262	62.420796	-12.470608	-70.040178	-12.470608	-70.040178	-0.788416	-32.155645
7.500000	-1.052867	58.263536	-12.914264	-72.972644	-12.914264	-72.972644	-0.773184	-35.044851
7.550000	-1.054087	53.994270	-13.406499	-75.856543	-13.406499	-75.856543	-0.758848	-37.951265
7.600000	-1.058194	49.609575	-13.955299	-78.668069	-13.955299	-78.668069	-0.745523	-40.875729
7.650000	-1.065629	45.100293	-14.572019	-81.370636	-14.572019	-81.370636	-0.733390	-43.819937
7.700000	-1.077092	40.450226	-15.272830	-83.900364	-15.272830	-83.900364	-0.722735	-46.786673
7.750000	-1.093145	35.650530	-16.076453	-86.170687	-16.076453	-86.170687	-0.713811	-49.777462
7.800000	-1.114451	30.690698	-17.007880	-88.047549	-17.007880	-88.047549	-0.706921	-52.793959
7.850000	-1.142035	25.551771	-18.102405	-89.282622	-18.102405	-89.282622	-0.702528	-55.838977
7.900000	-1.177046	20.214705	-19.404992	-89.433426	-19.404992	-89.433426	-0.701168	-58.915035
7.950000	-1.220471	14.667272	-20.965969	-87.755519	-20.965969	-87.755519	-0.703331	-62.023213
8.000000	-1.273793	8.887182	-22.814947	-82.740231	-22.814947	-82.740231	-0.709733	-65.165641
8.050000	-1.339213	2.839226	-24.777047	-71.234024	-24.777047	-71.234024	-0.721446	-68.345474
8.100000	-1.418154	-3.490683	-26.051548	-50.802579	-26.051548	-50.802579	-0.739208	-71.561958
8.150000	-1.512815	-10.131509	-25.383197	-26.709070	-25.383197	-26.709070	-0.764128	-74.815293
8.200000	-1.626544	-17.132187	-23.108130	-10.323020	-23.108130	-10.323020	-0.797894	-78.106056
8.250000	-1.761601	-24.517295	-20.600013	-2.576951	-20.600013	-2.576951	-0.841680	-81.430110
8.300000	-1.921347	-32.332584	-18.334239	-0.191592	-18.334239	-0.191592	-0.897214	-84.782807
8.350000	-2.109242	-40.626982	-16.366064	-0.850900	-16.366064	-0.850900	-0.966292	-88.156172
8.400000	-2.328709	-49.454876	-14.656517	-3.354243	-14.656517	-3.354243	-1.050728	-91.538171
8.450000	-2.582303	-58.866598	-13.161856	-7.066486	-13.161856	-7.066486	-1.151931	-94.912192
8.500000	-2.871776	-68.920192	-11.846945	-11.647847	-11.846945	-11.647847	-1.271017	-98.256864
8.550000	-3.196710	-79.663964	-10.686977	-16.884149	-10.686977	-16.884149	-1.408162	-101.547076
8.600000	-3.554663	-91.179143	-9.664795	-22.655183	-9.664795	-22.655183	-1.563198	-104.749813
8.650000	-3.937493	-103.501379	-8.769241	-28.846420	-8.769241	-28.846420	-1.733644	-107.833100
8.700000	-4.331638	-116.659410	-7.992310	-35.372861	-7.992310	-35.372861	-1.915526	-110.764966
8.750000	-4.716796	-130.646077	-7.328075	-42.158277	-7.328075	-42.158277	-2.102965	-113.519005
8.800000	-5.065957	-145.401960	-6.772126	-49.132225	-6.772126	-49.132225	-2.288251	-116.078276
8.850000	-5.349821	-160.778674	-6.319276	-56.225823	-6.319276	-56.225823	-2.462638	-118.444778
8.900000	-5.541246	-176.551618	-5.964864	-63.377377	-5.964864	-63.377377	-2.617120	-120.637544
8.950000	-5.624065	167.570752	-5.702998	-70.531784	-5.702998	-70.531784	-2.743983	-122.696354
9.000000	-5.595443	151.892402	-5.528559	-77.643086	-5.528559	-77.643086	-2.837259	-124.674130
9.050000	-5.468581	136.673166	-5.435420	-84.675614	-5.435420	-84.675614	-2.894185	-126.633305
9.100000	-5.264470	122.100819	-5.419795	-91.601628	-5.419795	-91.601628	-2.914008	-128.637246
9.150000	-5.010131	108.246144	-5.476359	-98.405996	-5.476359	-98.405996	-2.899655	-130.742036
9.200000	-4.728809	95.114429	-5.603231	-105.078173	-5.603231	-105.078173	-2.854820	-132.995295
9.250000	-4.439955	82.651142	-5.800417	-111.612360	-5.800417	-111.612360	-2.784268	-135.434865
9.300000	-4.158303	70.755418	-6.069516	-118.006535	-6.069516	-118.006535	-2.693415	-138.085616
9.350000	-3.894472	59.317564	-6.416869	-124.252738	-6.416869	-124.252738	-2.587107	-140.969325
9.400000	-3.655758	48.204162	-6.850638	-130.338991	-6.850638	-130.338991	-2.470360	-144.094465
9.450000	-3.448111	37.290706	-7.386188	-136.230502	-7.386188	-136.230502	-2.347408	-147.473343
9.500000	-3.277768	26.446017	-8.047430	-141.851007	-8.047430	-141.851007	-2.222486	-151.121412
9.550000	-3.151357	15.529835	-8.867185	-147.053617	-8.867185	-147.053617	-2.100287	-155.050430
9.600000	-3.077857	4.394089	-9.892694	-151.539130	-9.892694	-151.539130	-1.986325	-159.275686
9.650000	-3.068412	-7.113668	-11.184060	-154.721892	-11.184060	-154.721892	-1.887332	-163.807019
9.700000	-3.139029	-19.159788	-12.802132	-155.363521	-12.802132	-155.363521	-1.812112	-168.653540
9.750000	-3.311267	-31.926264	-14.700808	-150.861263	-14.700808	-150.861263	-1.772182	-173.812771
9.800000	-3.608962	-45.583809	-16.314769	-137.537191	-16.314769	-137.537191	-1.780425	-179.251321
9.850000	-4.059542	-60.311639	-16.197397	-117.502158	-16.197397	-117.502158	-1.851092	175.096930
9.900000	-4.687522	-76.287797	-14.158738	-103.587741	-14.158738	-103.587741	-1.997092	169.347280
9.950000	-5.499917	-93.642194	-11.735509	-99.785204	-11.735509	-99.785204	-2.223986	163.666181
10.000000	-6.477187	-112.394641	-9.670183	-102.207642	-9.670183	-102.207642	-2.526365	158.245370
