! freq	dB(S11)	phase(S11)	dB(S12)	phase(S12)	
!     	dB(S21)	phase(S21)	dB(S22)	phase(S22)	
!S-par simulation data
#  GHz  S  DB  R 50
0.000000	-0.000000	0.000000	-352.817625	0.000000	-352.817625	0.000000	-0.000000	0.000000
0.050000	-0.006349	-2.372748	-102.845619	87.262071	-102.845619	87.262071	-0.001620	-0.823360
0.100000	-0.010641	-4.695577	-96.948208	86.201366	-96.948208	86.201366	-0.003226	-1.632337
0.150000	-0.012705	-7.017019	-93.512854	84.966683	-93.512854	84.966683	-0.004109	-2.439032
0.200000	-0.014309	-9.339836	-91.107881	83.653370	-91.107881	83.653370	-0.004758	-3.245960
0.250000	-0.015907	-11.662662	-89.285091	82.318233	-89.285091	82.318233	-0.005357	-4.053116
0.300000	-0.017637	-13.984434	-87.838676	80.991996	-87.838676	80.991996	-0.005977	-4.860265
0.350000	-0.019560	-16.304153	-86.667299	79.698984	-86.667299	79.698984	-0.006650	-5.667179
0.400000	-0.021668	-18.621354	-85.701361	78.454117	-85.701361	78.454117	-0.007380	-6.473723
0.450000	-0.023954	-20.935583	-84.900013	77.272916	-84.900013	77.272916	-0.008168	-7.279791
0.500000	-0.026410	-23.246290	-84.239425	76.176321	-84.239425	76.176321	-0.009013	-8.085272
0.550000	-0.029010	-25.553247	-83.698183	75.181470	-83.698183	75.181470	-0.009909	-8.890116
0.600000	-0.031734	-27.856221	-83.262104	74.309417	-83.262104	74.309417	-0.010849	-9.694280
0.650000	-0.034566	-30.154842	-82.924096	73.591864	-82.924096	73.591864	-0.011828	-10.497700
0.700000	-0.037484	-32.448889	-82.677546	73.064145	-82.677546	73.064145	-0.012842	-11.300340
0.750000	-0.040469	-34.738312	-82.515505	72.763040	-82.515505	72.763040	-0.013882	-12.102196
0.800000	-0.043504	-37.022898	-82.435625	72.744450	-82.435625	72.744450	-0.014945	-12.903235
0.850000	-0.046575	-39.302349	-82.437835	73.090565	-82.437835	73.090565	-0.016026	-13.703413
0.900000	-0.049666	-41.576782	-82.515646	73.874258	-82.515646	73.874258	-0.017120	-14.502752
0.950000	-0.052765	-43.846112	-82.664940	75.204799	-82.664940	75.204799	-0.018223	-15.301242
1.000000	-0.055862	-46.109992	-82.880942	77.264708	-82.880942	77.264708	-0.019332	-16.098826
1.050000	-0.058947	-48.368622	-83.145669	80.199694	-83.145669	80.199694	-0.020444	-16.895537
1.100000	-0.062014	-50.621992	-83.433210	84.200497	-83.433210	84.200497	-0.021557	-17.691373
1.150000	-0.065055	-52.869887	-83.697689	89.504659	-83.697689	89.504659	-0.022668	-18.486294
1.200000	-0.068066	-55.112383	-83.869398	96.199752	-83.869398	96.199752	-0.023776	-19.280306
1.250000	-0.071045	-57.349599	-83.864649	104.147599	-83.864649	104.147599	-0.024880	-20.073420
1.300000	-0.073987	-59.581454	-83.596719	112.935233	-83.596719	112.935233	-0.025979	-20.865612
1.350000	-0.076892	-61.807884	-83.017115	121.818024	-83.017115	121.818024	-0.027071	-21.656856
1.400000	-0.079759	-64.029139	-82.162875	130.030180	-82.162875	130.030180	-0.028157	-22.447178
1.450000	-0.082588	-66.245261	-81.106666	137.063082	-81.106666	137.063082	-0.029236	-23.236568
1.500000	-0.085378	-68.456059	-79.922816	142.658673	-79.922816	142.658673	-0.030309	-24.024965
1.550000	-0.088133	-70.661901	-78.697687	146.958082	-78.697687	146.958082	-0.031375	-24.812411
1.600000	-0.090853	-72.862879	-77.477285	150.135338	-77.477285	150.135338	-0.032434	-25.598895
1.650000	-0.093540	-75.058896	-76.283310	152.353043	-76.283310	152.353043	-0.033487	-26.384363
1.700000	-0.096196	-77.250206	-75.134195	153.825296	-75.134195	153.825296	-0.034535	-27.168826
1.750000	-0.098825	-79.437021	-74.037007	154.712211	-74.037007	154.712211	-0.035577	-27.952290
1.800000	-0.101427	-81.619423	-72.991315	155.124327	-72.991315	155.124327	-0.036614	-28.734725
1.850000	-0.104007	-83.797577	-71.995838	155.156202	-71.995838	155.156202	-0.037647	-29.516119
1.900000	-0.106567	-85.971618	-71.047504	154.878516	-71.047504	154.878516	-0.038677	-30.296444
1.950000	-0.109110	-88.141743	-70.143515	154.349797	-70.143515	154.349797	-0.039704	-31.075687
2.000000	-0.111639	-90.308203	-69.281361	153.617286	-69.281361	153.617286	-0.040728	-31.853844
2.050000	-0.114157	-92.471214	-68.457975	152.715667	-68.457975	152.715667	-0.041750	-32.630900
2.100000	-0.116667	-94.631008	-67.670483	151.672555	-67.670483	151.672555	-0.042771	-33.406839
2.150000	-0.119173	-96.787829	-66.916238	150.510128	-66.916238	150.510128	-0.043792	-34.181648
2.200000	-0.121676	-98.941936	-66.192827	149.246345	-66.192827	149.246345	-0.044813	-34.955309
2.250000	-0.124180	-101.093599	-65.498064	147.895868	-65.498064	147.895868	-0.045835	-35.727809
2.300000	-0.126687	-103.243103	-64.829971	146.470760	-64.829971	146.470760	-0.046857	-36.499133
2.350000	-0.129201	-105.390743	-64.186762	144.981017	-64.186762	144.981017	-0.047882	-37.269264
2.400000	-0.131725	-107.536829	-63.566822	143.434979	-63.566822	143.434979	-0.048909	-38.038189
2.450000	-0.134260	-109.681685	-62.968690	141.839652	-62.968690	141.839652	-0.049939	-38.805892
2.500000	-0.136809	-111.825645	-62.391044	140.200950	-62.391044	140.200950	-0.050972	-39.572359
2.550000	-0.139375	-113.969053	-61.832322	138.523164	-61.832322	138.523164	-0.052009	-40.337548
2.600000	-0.141961	-116.112290	-61.291846	136.811481	-61.291846	136.811481	-0.053051	-41.101471
2.650000	-0.144569	-118.255728	-60.768614	135.069543	-60.768614	135.069543	-0.054098	-41.864116
2.700000	-0.147201	-120.399753	-60.261711	133.300489	-60.261711	133.300489	-0.055150	-42.625469
2.750000	-0.149858	-122.544762	-59.770302	131.507034	-59.770302	131.507034	-0.056208	-43.385516
2.800000	-0.152544	-124.691162	-59.293623	129.691533	-59.293623	129.691533	-0.057273	-44.144244
2.850000	-0.155260	-126.839375	-58.830970	127.856039	-58.830970	127.856039	-0.058344	-44.901642
2.900000	-0.158009	-128.989832	-58.381699	126.002342	-58.381699	126.002342	-0.059422	-45.657696
2.950000	-0.160791	-131.142974	-57.945215	124.132008	-57.945215	124.132008	-0.060508	-46.412395
3.000000	-0.163609	-133.299255	-57.520970	122.246411	-57.520970	122.246411	-0.061601	-47.165728
3.050000	-0.166465	-135.459139	-57.108459	120.346758	-57.108459	120.346758	-0.062704	-47.917684
3.100000	-0.169359	-137.623101	-56.707215	118.434108	-56.707215	118.434108	-0.063814	-48.668252
3.150000	-0.172295	-139.791679	-56.316733	116.509275	-56.316733	116.509275	-0.064934	-49.417406
3.200000	-0.175274	-141.965385	-55.936632	114.573106	-55.936632	114.573106	-0.066064	-50.165137
3.250000	-0.178296	-144.144674	-55.566618	112.626453	-55.566618	112.626453	-0.067203	-50.911450
3.300000	-0.181363	-146.330060	-55.206346	110.669952	-55.206346	110.669952	-0.068353	-51.656336
3.350000	-0.184476	-148.522063	-54.855499	108.704166	-54.855499	108.704166	-0.069513	-52.399788
3.400000	-0.187636	-150.721216	-54.513780	106.729590	-54.513780	106.729590	-0.070684	-53.141796
3.450000	-0.190844	-152.928056	-54.180917	104.746666	-54.180917	104.746666	-0.071866	-53.882354
3.500000	-0.194101	-155.143129	-53.856658	102.755780	-53.856658	102.755780	-0.073060	-54.621454
3.550000	-0.197408	-157.366987	-53.540768	100.757279	-53.540768	100.757279	-0.074265	-55.359089
3.600000	-0.200766	-159.600191	-53.233034	98.751466	-53.233034	98.751466	-0.075483	-56.095253
3.650000	-0.204175	-161.843305	-52.933256	96.738613	-52.933256	96.738613	-0.076714	-56.829941
3.700000	-0.207635	-164.096899	-52.641253	94.718962	-52.641253	94.718962	-0.077957	-57.563146
3.750000	-0.211147	-166.361546	-52.356858	92.692729	-52.356858	92.692729	-0.079214	-58.294864
3.800000	-0.214713	-168.638092	-52.079892	90.659973	-52.079892	90.659973	-0.080485	-59.025057
3.850000	-0.218331	-170.926878	-51.810258	88.621013	-51.810258	88.621013	-0.081770	-59.753754
3.900000	-0.222001	-173.228484	-51.547832	86.576010	-51.547832	86.576010	-0.083070	-60.480952
3.950000	-0.225723	-175.543495	-51.292500	84.525113	-51.292500	84.525113	-0.084384	-61.206646
4.000000	-0.229497	-177.872492	-51.044163	82.468465	-51.044163	82.468465	-0.085714	-61.930833
4.050000	-0.233323	179.783945	-50.802733	80.406200	-50.802733	80.406200	-0.087059	-62.653513
4.100000	-0.237199	177.425237	-50.568133	78.338452	-50.568133	78.338452	-0.088420	-63.374681
4.150000	-0.241124	175.050812	-50.340297	76.265357	-50.340297	76.265357	-0.089797	-64.094337
4.200000	-0.245099	172.660104	-50.119171	74.187051	-50.119171	74.187051	-0.091191	-64.812479
4.250000	-0.249121	170.252554	-49.904711	72.103679	-49.904711	72.103679	-0.092603	-65.529107
4.300000	-0.253189	167.827613	-49.696885	70.015394	-49.696885	70.015394	-0.094032	-66.244219
4.350000	-0.257302	165.384743	-49.495668	67.922360	-49.495668	67.922360	-0.095479	-66.957816
4.400000	-0.261458	162.923215	-49.301074	65.824712	-49.301074	65.824712	-0.096944	-67.669881
4.450000	-0.265656	160.442503	-49.113110	63.722655	-49.113110	63.722655	-0.098429	-68.380416
4.500000	-0.269891	157.942321	-48.931759	61.616462	-48.931759	61.616462	-0.099932	-69.089436
4.550000	-0.274163	155.422201	-48.757037	59.506379	-48.757037	59.506379	-0.101456	-69.796944
4.600000	-0.278468	152.881699	-48.588970	57.392682	-48.588970	57.392682	-0.102999	-70.502941
4.650000	-0.282802	150.320399	-48.427593	55.275681	-48.427593	55.275681	-0.104564	-71.207429
4.700000	-0.287164	147.737912	-48.272949	53.155721	-48.272949	53.155721	-0.106149	-71.910411
4.750000	-0.291550	145.133882	-48.125091	51.033188	-48.125091	51.033188	-0.107756	-72.611888
4.800000	-0.295955	142.507989	-47.984082	48.908512	-47.984082	48.908512	-0.109384	-73.311865
4.850000	-0.300376	139.859952	-47.849993	46.782174	-47.849993	46.782174	-0.111035	-74.010343
4.900000	-0.304808	137.189531	-47.722902	44.654708	-47.722902	44.654708	-0.112709	-74.707327
4.950000	-0.309248	134.496532	-47.602898	42.526709	-47.602898	42.526709	-0.114406	-75.402821
5.000000	-0.313691	131.780809	-47.490077	40.398834	-47.490077	40.398834	-0.116127	-76.096829
5.050000	-0.318131	129.041772	-47.384679	38.271852	-47.384679	38.271852	-0.117873	-76.789322
5.100000	-0.322564	126.279882	-47.286694	36.146570	-47.286694	36.146570	-0.119643	-77.480339
5.150000	-0.326985	123.495165	-47.196241	34.023886	-47.196241	34.023886	-0.121438	-78.169883
5.200000	-0.331387	120.687708	-47.113449	31.904785	-47.113449	31.904785	-0.123259	-78.857962
5.250000	-0.335766	117.857668	-47.038452	29.790352	-47.038452	29.790352	-0.125106	-79.544579
5.300000	-0.340116	115.005267	-46.971390	27.681779	-46.971390	27.681779	-0.126979	-80.229741
5.350000	-0.344432	112.130801	-46.912411	25.580370	-46.912411	25.580370	-0.128880	-80.913455
5.400000	-0.348708	109.234640	-46.861667	23.487557	-46.861667	23.487557	-0.130807	-81.595727
5.450000	-0.352938	106.317228	-46.819317	21.404901	-46.819317	21.404901	-0.132762	-82.276564
5.500000	-0.357118	103.379092	-46.785523	19.334111	-46.785523	19.334111	-0.134746	-82.955972
5.550000	-0.361241	100.420836	-46.760451	17.277050	-46.760451	17.277050	-0.136758	-83.633959
5.600000	-0.365302	97.443145	-46.744272	15.235750	-46.744272	15.235750	-0.138799	-84.310534
5.650000	-0.369296	94.446594	-46.737256	13.212647	-46.737256	13.212647	-0.140869	-84.985688
5.700000	-0.373218	91.432064	-46.739580	11.210242	-46.739580	11.210242	-0.142970	-85.659430
5.750000	-0.377065	88.400693	-46.751317	9.230978	-46.751317	9.230978	-0.145101	-86.331785
5.800000	-0.380832	85.353498	-46.772632	7.277727	-46.772632	7.277727	-0.147262	-87.002760
5.850000	-0.384516	82.291571	-46.803688	5.353611	-46.803688	5.353611	-0.149455	-87.672365
5.900000	-0.388114	79.216082	-46.844639	3.462026	-46.844639	3.462026	-0.151679	-88.340610
5.950000	-0.391624	76.128271	-46.895630	1.606664	-46.895630	1.606664	-0.153934	-89.007504
6.000000	-0.395043	73.029448	-46.956791	-0.208464	-46.956791	-0.208464	-0.156222	-89.673058
6.050000	-0.398372	69.920987	-47.028237	-1.978994	-47.028237	-1.978994	-0.158542	-90.337281
6.100000	-0.401609	66.804319	-47.110057	-3.700189	-47.110057	-3.700189	-0.160894	-91.000185
6.150000	-0.404754	63.680927	-47.202312	-5.366900	-47.202312	-5.366900	-0.163280	-91.661779
6.200000	-0.407809	60.552345	-47.305026	-6.973536	-47.305026	-6.973536	-0.165700	-92.322076
6.250000	-0.410775	57.420142	-47.418178	-8.514030	-47.418178	-8.514030	-0.168153	-92.981087
6.300000	-0.413652	54.285915	-47.541870	-9.980061	-47.541870	-9.980061	-0.170641	-93.638795
6.350000	-0.416447	51.151375	-47.675746	-11.365904	-47.675746	-11.365904	-0.173164	-94.295242
6.400000	-0.419162	48.018167	-47.819562	-12.663831	-47.819562	-12.663831	-0.175722	-94.950439
6.450000	-0.421802	44.887945	-47.972966	-13.865527	-47.972966	-13.865527	-0.178315	-95.604399
6.500000	-0.424373	41.762364	-48.135475	-14.962080	-48.135475	-14.962080	-0.180944	-96.257135
6.550000	-0.426880	38.643070	-48.306445	-15.944006	-48.306445	-15.944006	-0.183608	-96.908659
6.600000	-0.429331	35.531692	-48.485043	-16.801287	-48.485043	-16.801287	-0.186309	-97.558986
6.650000	-0.431732	32.429838	-48.670207	-17.523468	-48.670207	-17.523468	-0.189047	-98.208129
6.700000	-0.434090	29.339081	-48.860605	-18.099800	-48.860605	-18.099800	-0.191822	-98.856102
6.750000	-0.436415	26.260957	-49.054593	-18.519462	-49.054593	-18.519462	-0.194633	-99.502918
6.800000	-0.438713	23.196957	-49.250168	-18.771884	-49.250168	-18.771884	-0.197483	-100.148593
6.850000	-0.440994	20.148518	-49.444929	-18.847179	-49.444929	-18.847179	-0.200371	-100.793140
6.900000	-0.443266	17.117221	-49.635919	-18.734622	-49.635919	-18.734622	-0.203297	-101.436564
6.950000	-0.445540	14.104425	-49.819738	-18.427435	-49.819738	-18.427435	-0.206263	-102.078878
7.000000	-0.447824	11.111193	-49.992726	-17.924081	-49.992726	-17.924081	-0.209268	-102.720111
7.050000	-0.450127	8.138698	-50.150752	-17.224888	-50.150752	-17.224888	-0.212313	-103.360279
7.100000	-0.452459	5.188041	-50.289399	-16.335065	-50.289399	-16.335065	-0.215397	-103.999396
7.150000	-0.454829	2.260243	-50.404124	-15.265574	-50.404124	-15.265574	-0.218521	-104.637480
7.200000	-0.457245	-0.643752	-50.490478	-14.033762	-50.490478	-14.033762	-0.221687	-105.274545
7.250000	-0.459717	-3.523080	-50.544368	-12.663539	-50.544368	-12.663539	-0.224893	-105.910609
7.300000	-0.462252	-6.376958	-50.562348	-11.184985	-50.562348	-11.184985	-0.228140	-106.545688
7.350000	-0.464860	-9.204682	-50.541895	-9.633284	-50.541895	-9.633284	-0.231430	-107.179799
7.400000	-0.467547	-12.005631	-50.481621	-8.047035	-50.481621	-8.047035	-0.234761	-107.812958
7.450000	-0.470323	-14.779260	-50.381401	-6.466107	-50.381401	-6.466107	-0.238135	-108.445183
7.500000	-0.473193	-17.525103	-50.242371	-4.929311	-50.242371	-4.929311	-0.241552	-109.076492
7.550000	-0.476168	-20.242149	-50.066001	-3.474670	-50.066001	-3.474670	-0.245013	-109.706881
7.600000	-0.479251	-22.930689	-49.856431	-2.131424	-49.856431	-2.131424	-0.248518	-110.336390
7.650000	-0.482448	-25.590482	-49.617561	-0.923614	-49.617561	-0.923614	-0.252066	-110.965036
7.700000	-0.485766	-28.221352	-49.353647	0.131231	-49.353647	0.131231	-0.255659	-111.592837
7.750000	-0.489210	-30.823191	-49.069030	1.021880	-49.069030	1.021880	-0.259297	-112.219810
7.800000	-0.492784	-33.395950	-48.767927	1.742761	-48.767927	1.742761	-0.262981	-112.845976
7.850000	-0.496493	-35.939637	-48.454270	2.293072	-48.454270	2.293072	-0.266709	-113.471351
7.900000	-0.500342	-38.454319	-48.131608	2.675804	-48.131608	2.675804	-0.270484	-114.095955
7.950000	-0.504333	-40.940111	-47.803056	2.896778	-47.803056	2.896778	-0.274305	-114.719806
8.000000	-0.508471	-43.397177	-47.471290	2.963787	-47.471290	2.963787	-0.278173	-115.342924
8.050000	-0.512759	-45.825725	-47.138556	2.885875	-47.138556	2.885875	-0.282088	-115.965328
8.100000	-0.517198	-48.226006	-46.806708	2.672751	-46.806708	2.672751	-0.286051	-116.587036
8.150000	-0.521795	-50.598008	-46.477156	2.333104	-46.477156	2.333104	-0.290062	-117.208062
8.200000	-0.526550	-52.942064	-46.151138	1.877101	-46.151138	1.877101	-0.294122	-117.828426
8.250000	-0.531464	-55.258836	-45.829689	1.315592	-45.829689	1.315592	-0.298230	-118.448154
8.300000	-0.536539	-57.548710	-45.513516	0.657595	-45.513516	0.657595	-0.302388	-119.067268
8.350000	-0.541776	-59.812096	-45.203143	-0.088430	-45.203143	-0.088430	-0.306594	-119.685785
8.400000	-0.547177	-62.049428	-44.898946	-0.914618	-44.898946	-0.914618	-0.310851	-120.303728
8.450000	-0.552742	-64.261162	-44.601180	-1.813708	-44.601180	-1.813708	-0.315158	-120.921117
8.500000	-0.558473	-66.447769	-44.310003	-2.779038	-44.310003	-2.779038	-0.319515	-121.537971
8.550000	-0.564371	-68.609739	-44.025492	-3.804514	-44.025492	-3.804514	-0.323923	-122.154312
8.600000	-0.570435	-70.747573	-43.747665	-4.884586	-43.747665	-4.884586	-0.328382	-122.770160
8.650000	-0.576667	-72.861787	-43.476489	-6.014206	-43.476489	-6.014206	-0.332893	-123.385537
8.700000	-0.583066	-74.952903	-43.211895	-7.188795	-43.211895	-7.188795	-0.337456	-124.000463
8.750000	-0.589634	-77.021454	-42.953785	-8.404203	-42.953785	-8.404203	-0.342071	-124.614960
8.800000	-0.596374	-79.067512	-42.702019	-9.657395	-42.702019	-9.657395	-0.346739	-125.229041
8.850000	-0.603282	-81.092114	-42.456491	-10.944106	-42.456491	-10.944106	-0.351460	-125.842737
8.900000	-0.610358	-83.095806	-42.217052	-12.261276	-42.217052	-12.261276	-0.356234	-126.456070
8.950000	-0.617603	-85.079139	-41.983546	-13.606138	-41.983546	-13.606138	-0.361062	-127.069061
9.000000	-0.625016	-87.042666	-41.755815	-14.976187	-41.755815	-14.976187	-0.365944	-127.681733
9.050000	-0.632598	-88.986939	-41.533698	-16.369156	-41.533698	-16.369156	-0.370879	-128.294107
9.100000	-0.640347	-90.912509	-41.317035	-17.782991	-41.317035	-17.782991	-0.375869	-128.906207
9.150000	-0.648265	-92.819927	-41.105665	-19.215833	-41.105665	-19.215833	-0.380913	-129.518055
9.200000	-0.656350	-94.709743	-40.899434	-20.665997	-40.899434	-20.665997	-0.386012	-130.129673
9.250000	-0.664602	-96.582501	-40.698188	-22.131954	-40.698188	-22.131954	-0.391166	-130.741084
9.300000	-0.673022	-98.438744	-40.501779	-23.612319	-40.501779	-23.612319	-0.396375	-131.352312
9.350000	-0.681609	-100.279013	-40.310063	-25.105834	-40.310063	-25.105834	-0.401640	-131.963379
9.400000	-0.690364	-102.103679	-40.122907	-26.611477	-40.122907	-26.611477	-0.406961	-132.574308
9.450000	-0.699287	-103.913292	-39.940178	-28.128177	-39.940178	-28.128177	-0.412338	-133.185122
9.500000	-0.708376	-105.708543	-39.761744	-29.654869	-39.761744	-29.654869	-0.417771	-133.795848
9.550000	-0.717631	-107.489954	-39.587482	-31.190699	-39.587482	-31.190699	-0.423261	-134.406509
9.600000	-0.727064	-109.256932	-39.417334	-32.735545	-39.417334	-32.735545	-0.428812	-135.017128
9.650000	-0.736647	-111.012378	-39.251062	-34.287259	-39.251062	-34.287259	-0.434414	-135.627734
9.700000	-0.746395	-112.755498	-39.088624	-35.846001	-39.088624	-35.846001	-0.440072	-136.238347
9.750000	-0.756308	-114.486790	-38.929917	-37.411179	-38.929917	-37.411179	-0.445787	-136.848991
9.800000	-0.766384	-116.206747	-38.774845	-38.982254	-38.774845	-38.982254	-0.451560	-137.459692
9.850000	-0.776624	-117.915853	-38.623317	-40.558729	-38.623317	-40.558729	-0.457389	-138.070475
9.900000	-0.787026	-119.614589	-38.475244	-42.140154	-38.475244	-42.140154	-0.463275	-138.681365
9.950000	-0.797592	-121.303428	-38.330544	-43.726113	-38.330544	-43.726113	-0.469218	-139.292386
10.000000	-0.808320	-122.982839	-38.189140	-45.316224	-38.189140	-45.316224	-0.475219	-139.903565
