! freq	dB(S11)	phase(S11)	dB(S12)	phase(S12)	
!     	dB(S21)	phase(S21)	dB(S22)	phase(S22)	
!S-par simulation data
#  GHz  S  DB  R 50
0.000000	-0.000000	0.000000	-358.472003	180.000000	-358.472003	180.000000	-0.000000	0.000000
0.050000	-0.000128	-1.313218	-74.842705	-166.143144	-74.842705	-166.143144	-0.000128	-1.312730
0.100000	-0.000508	-2.626148	-74.383625	177.104802	-74.383625	177.104802	-0.000508	-2.625173
0.150000	-0.001132	-3.938513	-74.251720	166.917705	-74.251720	166.917705	-0.001131	-3.937052
0.200000	-0.001983	-5.250067	-74.161131	158.616674	-74.161131	158.616674	-0.001981	-5.248121
0.250000	-0.003058	-6.560504	-74.077966	151.261326	-74.077966	151.261326	-0.003054	-6.558076
0.300000	-0.004316	-7.869716	-73.997319	144.452971	-73.997319	144.452971	-0.004311	-7.866807
0.350000	-0.005744	-9.177482	-73.921352	138.101322	-73.921352	138.101322	-0.005737	-9.174095
0.400000	-0.007318	-10.483650	-73.853899	132.144338	-73.853899	132.144338	-0.007310	-10.479788
0.450000	-0.009017	-11.788097	-73.799338	126.549410	-73.799338	126.549410	-0.009006	-11.783762
0.500000	-0.010816	-13.090727	-73.762038	121.297160	-73.762038	121.297160	-0.010804	-13.085922
0.550000	-0.012694	-14.391466	-73.746153	116.374937	-73.746153	116.374937	-0.012680	-14.386193
0.600000	-0.014632	-15.690260	-73.755554	111.774253	-73.755554	111.774253	-0.014616	-15.684523
0.650000	-0.016611	-16.987072	-73.793850	107.489977	-73.793850	107.489977	-0.016594	-16.980874
0.700000	-0.018616	-18.281877	-73.864440	103.520384	-73.864440	103.520384	-0.018598	-18.275221
0.750000	-0.020634	-19.574661	-73.970590	99.867664	-73.970590	99.867664	-0.020614	-19.567548
0.800000	-0.022654	-20.865414	-74.115510	96.538798	-74.115510	96.538798	-0.022633	-20.857848
0.850000	-0.024666	-22.154130	-74.302426	93.546763	-74.302426	93.546763	-0.024643	-22.146114
0.900000	-0.026663	-23.440807	-74.534629	90.912181	-74.534629	90.912181	-0.026640	-23.432343
0.950000	-0.028640	-24.725441	-74.815480	88.665541	-74.815480	88.665541	-0.028615	-24.716532
1.000000	-0.030593	-26.008027	-75.148329	86.850232	-75.148329	86.850232	-0.030567	-25.998677
1.050000	-0.032519	-27.288558	-75.536286	85.526650	-75.536286	85.526650	-0.032492	-27.278770
1.100000	-0.034416	-28.567028	-75.981722	84.777688	-75.981722	84.777688	-0.034388	-28.556803
1.150000	-0.036283	-29.843423	-76.485251	84.715751	-76.485251	84.715751	-0.036254	-29.832765
1.200000	-0.038121	-31.117729	-77.043832	85.490882	-77.043832	85.490882	-0.038091	-31.106641
1.250000	-0.039929	-32.389931	-77.647312	87.297826	-77.647312	87.297826	-0.039899	-32.378416
1.300000	-0.041708	-33.659914	-78.269435	90.442679	-78.269435	90.442679	-0.041677	-33.647976
1.350000	-0.043460	-34.927749	-78.862059	95.131776	-78.862059	95.131776	-0.043428	-34.915391
1.400000	-0.045187	-36.193411	-79.345902	101.524263	-79.345902	101.524263	-0.045154	-36.180636
1.450000	-0.046890	-37.456876	-79.613421	109.506443	-79.613421	109.506443	-0.046856	-37.443688
1.500000	-0.048571	-38.718117	-79.560059	118.524403	-79.560059	118.524403	-0.048537	-38.704520
1.550000	-0.050232	-39.977107	-79.138365	127.655255	-79.138365	127.655255	-0.050197	-39.963103
1.600000	-0.051875	-41.233816	-78.388055	135.975098	-78.388055	135.975098	-0.051840	-41.219411
1.650000	-0.053501	-42.488218	-77.408598	142.910544	-77.408598	142.910544	-0.053466	-42.473414
1.700000	-0.055113	-43.740284	-76.306648	148.307831	-76.306648	148.307831	-0.055077	-43.725085
1.750000	-0.056713	-44.989985	-75.163446	152.291696	-75.163446	152.291696	-0.056676	-44.974396
1.800000	-0.058302	-46.237294	-74.029365	155.098084	-74.029365	155.098084	-0.058264	-46.221319
1.850000	-0.059881	-47.482184	-72.931227	156.970343	-72.931227	156.970343	-0.059843	-47.465826
1.900000	-0.061453	-48.724629	-71.881121	158.117002	-71.881121	158.117002	-0.061414	-48.707893
1.950000	-0.063018	-49.964604	-70.882865	158.703276	-70.882865	158.703276	-0.062979	-49.947494
2.000000	-0.064580	-51.202085	-69.935974	158.855752	-69.935974	158.855752	-0.064540	-51.184605
2.050000	-0.066137	-52.437050	-69.037902	158.670271	-69.037902	158.670271	-0.066097	-52.419205
2.100000	-0.067694	-53.669478	-68.185252	158.219338	-68.185252	158.219338	-0.067652	-53.651271
2.150000	-0.069249	-54.899349	-67.374400	157.558067	-67.374400	157.558067	-0.069207	-54.880786
2.200000	-0.070805	-56.126646	-66.601814	156.728660	-66.601814	156.728660	-0.070762	-56.107730
2.250000	-0.072362	-57.351353	-65.864193	155.763718	-65.864193	155.763718	-0.072319	-57.332088
2.300000	-0.073923	-58.573455	-65.158520	154.688644	-65.158520	154.688644	-0.073879	-58.553847
2.350000	-0.075487	-59.792941	-64.482077	153.523412	-64.482077	153.523412	-0.075443	-59.772993
2.400000	-0.077056	-61.009799	-63.832428	152.283852	-63.832428	152.283852	-0.077011	-60.989517
2.450000	-0.078631	-62.224022	-63.207397	150.982610	-63.207397	150.982610	-0.078585	-62.203410
2.500000	-0.080212	-63.435603	-62.605041	149.629860	-62.605041	149.629860	-0.080166	-63.414665
2.550000	-0.081801	-64.644423	-62.022836	148.232271	-62.022836	148.232271	-0.081754	-64.623164
2.600000	-0.083398	-65.850595	-61.460115	146.798612	-61.460115	146.798612	-0.083351	-65.829019
2.650000	-0.085005	-67.054118	-60.915479	145.334245	-60.915479	145.334245	-0.084957	-67.032231
2.700000	-0.086621	-68.254996	-60.387675	143.843594	-60.387675	143.843594	-0.086572	-68.232800
2.750000	-0.088248	-69.453231	-59.875578	142.330327	-59.875578	142.330327	-0.088199	-69.430733
2.800000	-0.089887	-70.648831	-59.378174	140.797491	-59.378174	140.797491	-0.089836	-70.626034
2.850000	-0.091537	-71.841804	-58.894550	139.247632	-58.894550	139.247632	-0.091486	-71.818713
2.900000	-0.093200	-73.032160	-58.423880	137.682877	-58.423880	137.682877	-0.093148	-73.008779
2.950000	-0.094876	-74.219913	-57.965414	136.105015	-57.965414	136.105015	-0.094824	-74.196247
3.000000	-0.096567	-75.405076	-57.518473	134.515548	-57.518473	134.515548	-0.096514	-75.381129
3.050000	-0.098272	-76.587667	-57.082439	132.915744	-57.082439	132.915744	-0.098218	-76.563444
3.100000	-0.099992	-77.767705	-56.656747	131.306676	-56.656747	131.306676	-0.099938	-77.743209
3.150000	-0.101728	-78.945210	-56.240882	129.689253	-56.240882	129.689253	-0.101673	-78.920447
3.200000	-0.103481	-80.120205	-55.834374	128.064247	-55.834374	128.064247	-0.103426	-80.095178
3.250000	-0.105251	-81.292716	-55.436790	126.432317	-55.436790	126.432317	-0.105195	-81.267429
3.300000	-0.107039	-82.462768	-55.047735	124.794025	-55.047735	124.794025	-0.106982	-82.437227
3.350000	-0.108845	-83.630392	-54.666844	123.149855	-54.666844	123.149855	-0.108788	-83.604599
3.400000	-0.110670	-84.795617	-54.293783	121.500223	-54.293783	121.500223	-0.110613	-84.769578
3.450000	-0.112515	-85.958477	-53.928242	119.845490	-53.928242	119.845490	-0.112457	-85.932195
3.500000	-0.114380	-87.119006	-53.569937	118.185971	-53.569937	118.185971	-0.114321	-87.092486
3.550000	-0.116267	-88.277242	-53.218603	116.521944	-53.218603	116.521944	-0.116207	-88.250486
3.600000	-0.118174	-89.433221	-52.873998	114.853654	-52.873998	114.853654	-0.118114	-89.406235
3.650000	-0.120104	-90.586985	-52.535895	113.181321	-52.535895	113.181321	-0.120043	-90.559772
3.700000	-0.122056	-91.738575	-52.204084	111.505146	-52.204084	111.505146	-0.121995	-91.711139
3.750000	-0.124032	-92.888037	-51.878371	109.825311	-51.878371	109.825311	-0.123970	-92.860381
3.800000	-0.126033	-94.035326	-51.558323	108.141843	-51.558323	108.141843	-0.125971	-94.007455
3.850000	-0.128058	-95.180583	-51.244045	106.455062	-51.244045	106.455062	-0.127996	-95.152501
3.900000	-0.130109	-96.323858	-50.935379	104.765119	-50.935379	104.765119	-0.130046	-96.295568
3.950000	-0.132186	-97.465202	-50.632176	103.072164	-50.632176	103.072164	-0.132122	-97.436708
4.000000	-0.134289	-98.604668	-50.334299	101.376342	-50.334299	101.376342	-0.134225	-98.575973
4.050000	-0.136420	-99.742311	-50.041617	99.677796	-50.041617	99.677796	-0.136355	-99.713418
4.100000	-0.138578	-100.878185	-49.754008	97.976671	-49.754008	97.976671	-0.138513	-100.849099
4.150000	-0.140765	-102.012350	-49.471357	96.273110	-49.471357	96.273110	-0.140700	-101.983073
4.200000	-0.142981	-103.144865	-49.193556	94.567258	-49.193556	94.567258	-0.142915	-103.115401
4.250000	-0.145227	-104.275791	-48.920502	92.859263	-48.920502	92.859263	-0.145161	-104.246142
4.300000	-0.147503	-105.405190	-48.652097	91.149276	-48.652097	91.149276	-0.147437	-105.375361
4.350000	-0.149810	-106.533127	-48.388249	89.437447	-48.388249	89.437447	-0.149743	-106.503120
4.400000	-0.152149	-107.659667	-48.128870	87.723932	-48.128870	87.723932	-0.152082	-107.629485
4.450000	-0.154520	-108.784878	-47.873875	86.008888	-47.873875	86.008888	-0.154453	-108.754525
4.500000	-0.156924	-109.908828	-47.623184	84.292476	-47.623184	84.292476	-0.156857	-109.878306
4.550000	-0.159362	-111.031589	-47.376720	82.574856	-47.376720	82.574856	-0.159294	-111.000901
4.600000	-0.161834	-112.153230	-47.134407	80.856195	-47.134407	80.856195	-0.161765	-112.122379
4.650000	-0.164340	-113.273827	-46.896173	79.136658	-46.896173	79.136658	-0.164272	-113.242816
4.700000	-0.166882	-114.393453	-46.661949	77.416411	-46.661949	77.416411	-0.166814	-114.362284
4.750000	-0.169461	-115.512184	-46.431665	75.695624	-46.431665	75.695624	-0.169392	-115.480861
4.800000	-0.172075	-116.630099	-46.205257	73.974464	-46.205257	73.974464	-0.172006	-116.598623
4.850000	-0.174727	-117.747276	-45.982659	72.253100	-45.982659	72.253100	-0.174658	-117.715650
4.900000	-0.177417	-118.863796	-45.763809	70.531697	-45.763809	70.531697	-0.177347	-118.832023
4.950000	-0.180145	-119.979741	-45.548643	68.810423	-45.548643	68.810423	-0.180075	-119.947822
5.000000	-0.182913	-121.095194	-45.337101	67.089440	-45.337101	67.089440	-0.182842	-121.063132
5.050000	-0.185721	-122.210225	-45.129063	65.368937	-45.129063	65.368937	-0.185651	-122.178024
5.100000	-0.188570	-123.324944	-44.924539	63.649057	-44.924539	63.649057	-0.188499	-123.292604
5.150000	-0.191459	-124.439437	-44.723471	61.929953	-44.723471	61.929953	-0.191388	-124.406960
5.200000	-0.194390	-125.553793	-44.525799	60.211774	-44.525799	60.211774	-0.194319	-125.521183
5.250000	-0.197362	-126.668104	-44.331466	58.494661	-44.331466	58.494661	-0.197291	-126.635361
5.300000	-0.200377	-127.782460	-44.140415	56.778752	-44.140415	56.778752	-0.200305	-127.749587
5.350000	-0.203435	-128.896956	-43.952590	55.064177	-43.952590	55.064177	-0.203362	-128.863954
5.400000	-0.206535	-130.011685	-43.767935	53.351061	-43.767935	53.351061	-0.206463	-129.978556
5.450000	-0.209680	-131.126745	-43.586395	51.639519	-43.586395	51.639519	-0.209607	-131.093490
5.500000	-0.212869	-132.242231	-43.407914	49.929660	-43.407914	49.929660	-0.212796	-132.208853
5.550000	-0.216102	-133.358244	-43.232439	48.221584	-43.232439	48.221584	-0.216029	-133.324743
5.600000	-0.219381	-134.474882	-43.059917	46.515384	-43.059917	46.515384	-0.219307	-134.441261
5.650000	-0.222705	-135.592249	-42.890295	44.811144	-42.890295	44.811144	-0.222631	-135.558509
5.700000	-0.226075	-136.710447	-42.723520	43.108937	-42.723520	43.108937	-0.226001	-136.676588
5.750000	-0.229492	-137.829580	-42.559542	41.408829	-42.559542	41.408829	-0.229417	-137.795605
5.800000	-0.232955	-138.949754	-42.398311	39.710877	-42.398311	39.710877	-0.232880	-138.915663
5.850000	-0.236465	-140.071077	-42.239776	38.015128	-42.239776	38.015128	-0.236390	-140.036872
5.900000	-0.240023	-141.193657	-42.083889	36.321620	-42.083889	36.321620	-0.239947	-141.159339
5.950000	-0.243628	-142.317605	-41.930604	34.630381	-41.930604	34.630381	-0.243552	-142.283174
6.000000	-0.247282	-143.443032	-41.779872	32.941430	-41.779872	32.941430	-0.247206	-143.408489
6.050000	-0.250984	-144.570052	-41.631650	31.254780	-41.631650	31.254780	-0.250907	-144.535397
6.100000	-0.254735	-145.698778	-41.485892	29.570432	-41.485892	29.570432	-0.254658	-145.664013
6.150000	-0.258534	-146.829327	-41.342555	27.888380	-41.342555	27.888380	-0.258457	-146.794453
6.200000	-0.262383	-147.961816	-41.201599	26.208610	-41.201599	26.208610	-0.262305	-147.926834
6.250000	-0.266281	-149.096366	-41.062983	24.531099	-41.062983	24.531099	-0.266203	-149.061274
6.300000	-0.270232	-150.233196	-40.926676	22.855914	-40.926676	22.855914	-0.270153	-150.197997
6.350000	-0.274232	-151.372340	-40.792635	21.182919	-40.792635	21.182919	-0.274152	-151.337033
6.400000	-0.278282	-152.513921	-40.660825	19.512071	-40.660825	19.512071	-0.278202	-152.478507
6.450000	-0.282382	-153.658066	-40.531212	17.843323	-40.531212	17.843323	-0.282302	-153.622544
6.500000	-0.286533	-154.804901	-40.403764	16.176619	-40.403764	16.176619	-0.286452	-154.769272
6.550000	-0.290734	-155.954555	-40.278449	14.511903	-40.278449	14.511903	-0.290653	-155.918819
6.600000	-0.294986	-157.107157	-40.155239	12.849113	-40.155239	12.849113	-0.294905	-157.071314
6.650000	-0.299289	-158.262841	-40.034106	11.188184	-40.034106	11.188184	-0.299207	-158.226891
6.700000	-0.303642	-159.421740	-39.915025	9.529051	-39.915025	9.529051	-0.303560	-159.385682
6.750000	-0.308047	-160.583988	-39.797972	7.871645	-39.797972	7.871645	-0.307964	-160.547823
6.800000	-0.312503	-161.749722	-39.682925	6.215898	-39.682925	6.215898	-0.312419	-161.713449
6.850000	-0.317009	-162.919081	-39.569864	4.561742	-39.569864	4.561742	-0.316925	-162.882700
6.900000	-0.321567	-164.092205	-39.458771	2.909111	-39.458771	2.909111	-0.321483	-164.055715
6.950000	-0.326176	-165.269236	-39.349629	1.257941	-39.349629	1.257941	-0.326091	-165.232637
7.000000	-0.330836	-166.450317	-39.242425	-0.391829	-39.242425	-0.391829	-0.330750	-166.413608
7.050000	-0.335547	-167.635593	-39.137146	-2.040257	-39.137146	-2.040257	-0.335461	-167.598774
7.100000	-0.340309	-168.825211	-39.033779	-3.687395	-39.033779	-3.687395	-0.340223	-168.788280
7.150000	-0.345123	-170.019320	-38.932318	-5.333288	-38.932318	-5.333288	-0.345036	-169.982277
7.200000	-0.349987	-171.218069	-38.832753	-6.977975	-38.832753	-6.977975	-0.349899	-171.180913
7.250000	-0.354903	-172.421611	-38.735079	-8.621487	-38.735079	-8.621487	-0.354814	-172.384341
7.300000	-0.359869	-173.630098	-38.639292	-10.263846	-38.639292	-10.263846	-0.359780	-173.592713
7.350000	-0.364886	-174.843686	-38.545389	-11.905063	-38.545389	-11.905063	-0.364796	-174.806185
7.400000	-0.369954	-176.062532	-38.453370	-13.545139	-38.453370	-13.545139	-0.369864	-176.024914
7.450000	-0.375072	-177.286795	-38.363234	-15.184063	-38.363234	-15.184063	-0.374982	-177.249057
7.500000	-0.380241	-178.516633	-38.274984	-16.821809	-38.274984	-16.821809	-0.380150	-178.478775
7.550000	-0.385463	-179.752466	-38.188668	-18.458282	-38.188668	-18.458282	-0.385371	-179.714487
7.600000	-0.390735	179.005785	-38.104249	-20.093479	-38.104249	-20.093479	-0.390642	179.043888
7.650000	-0.396057	177.757956	-38.021732	-21.727325	-38.021732	-21.727325	-0.395964	177.796183
7.700000	-0.401429	176.503880	-37.941125	-23.359733	-37.941125	-23.359733	-0.401335	176.542233
7.750000	-0.406851	175.243389	-37.862433	-24.990593	-37.862433	-24.990593	-0.406757	175.281870
7.800000	-0.412323	173.976315	-37.785666	-26.619779	-37.785666	-26.619779	-0.412228	174.014926
7.850000	-0.417845	172.702487	-37.710833	-28.247145	-37.710833	-28.247145	-0.417749	172.741229
7.900000	-0.423416	171.421733	-37.637944	-29.872524	-37.637944	-29.872524	-0.423320	171.460608
7.950000	-0.429036	170.133880	-37.567010	-31.495729	-37.567010	-31.495729	-0.428939	170.172891
8.000000	-0.434706	168.838755	-37.498041	-33.116551	-37.498041	-33.116551	-0.434608	168.877904
8.050000	-0.440425	167.536182	-37.431050	-34.734758	-37.431050	-34.734758	-0.440327	167.575471
8.100000	-0.446193	166.225986	-37.366048	-36.350096	-37.366048	-36.350096	-0.446094	166.265417
8.150000	-0.452009	164.907991	-37.303048	-37.962290	-37.303048	-37.962290	-0.451910	164.947566
8.200000	-0.457875	163.582018	-37.242063	-39.571041	-37.242063	-39.571041	-0.457774	163.621740
8.250000	-0.463789	162.247889	-37.183107	-41.176026	-37.183107	-41.176026	-0.463688	162.287761
8.300000	-0.469751	160.905428	-37.126192	-42.776901	-37.126192	-42.776901	-0.469649	160.945451
8.350000	-0.475762	159.554454	-37.071333	-44.373300	-37.071333	-44.373300	-0.475659	159.594632
8.400000	-0.481822	158.194789	-37.018544	-45.964835	-37.018544	-45.964835	-0.481718	158.235124
8.450000	-0.487930	156.826254	-36.967840	-47.551095	-36.967840	-47.551095	-0.487825	156.866750
8.500000	-0.494086	155.448671	-36.919236	-49.131653	-36.919236	-49.131653	-0.493980	155.489330
8.550000	-0.500290	154.061862	-36.872746	-50.706060	-36.872746	-50.706060	-0.500183	154.102687
8.600000	-0.506542	152.665649	-36.828389	-52.273850	-36.828389	-52.273850	-0.506435	152.706643
8.650000	-0.512843	151.259856	-36.786179	-53.834544	-36.786179	-53.834544	-0.512735	151.301022
8.700000	-0.519192	149.844307	-36.746135	-55.387646	-36.746135	-55.387646	-0.519083	149.885649
8.750000	-0.525590	148.418828	-36.708275	-56.932653	-36.708275	-56.932653	-0.525479	148.460349
8.800000	-0.532038	146.982800	-36.672710	-58.468650	-36.672710	-58.468650	-0.531926	147.024503
8.850000	-0.538535	145.536484	-36.639371	-59.995470	-36.639371	-59.995470	-0.538421	145.578373
8.900000	-0.545080	144.079712	-36.608280	-61.512593	-36.608280	-61.512593	-0.544966	144.121790
8.950000	-0.551675	142.612319	-36.579460	-63.019499	-36.579460	-63.019499	-0.551559	142.654590
9.000000	-0.558319	141.134143	-36.552935	-64.515674	-36.552935	-64.515674	-0.558202	141.176610
9.050000	-0.565013	139.645024	-36.528729	-66.000616	-36.528729	-66.000616	-0.564895	139.687691
9.100000	-0.571757	138.144808	-36.506869	-67.473837	-36.506869	-67.473837	-0.571637	138.187679
9.150000	-0.578552	136.633343	-36.487381	-68.934867	-36.487381	-68.934867	-0.578430	136.676422
9.200000	-0.585398	135.110484	-36.470293	-70.383259	-36.470293	-70.383259	-0.585274	135.153774
9.250000	-0.592295	133.576088	-36.455635	-71.818596	-36.455635	-71.818596	-0.592170	133.619594
9.300000	-0.599244	132.030020	-36.443434	-73.240493	-36.443434	-73.240493	-0.599118	132.073745
9.350000	-0.606247	130.472150	-36.433721	-74.648599	-36.433721	-74.648599	-0.606118	130.516099
9.400000	-0.613303	128.902355	-36.426523	-76.042608	-36.426523	-76.042608	-0.613172	128.946530
9.450000	-0.620413	127.320517	-36.421868	-77.422254	-36.421868	-77.422254	-0.620281	127.364924
9.500000	-0.627579	125.726528	-36.419783	-78.787320	-36.419783	-78.787320	-0.627445	125.771171
9.550000	-0.634801	124.120287	-36.420291	-80.137638	-36.420291	-80.137638	-0.634665	124.165170
9.600000	-0.642080	122.501703	-36.423415	-81.473092	-36.423415	-81.473092	-0.641942	122.546829
9.650000	-0.649418	120.870691	-36.429171	-82.793616	-36.429171	-82.793616	-0.649278	120.916066
9.700000	-0.656816	119.227180	-36.437574	-84.099196	-36.437574	-84.099196	-0.656674	119.272806
9.750000	-0.664275	117.571105	-36.448634	-85.389871	-36.448634	-85.389871	-0.664131	117.616988
9.800000	-0.671796	115.902417	-36.462353	-86.665727	-36.462353	-86.665727	-0.671651	115.948560
9.850000	-0.679381	114.221075	-36.478730	-87.926897	-36.478730	-87.926897	-0.679234	114.267483
9.900000	-0.687033	112.527052	-36.497756	-89.173556	-36.497756	-89.173556	-0.686883	112.573728
9.950000	-0.694751	110.820334	-36.519415	-90.405920	-36.519415	-90.405920	-0.694600	110.867281
10.000000	-0.702539	109.100920	-36.543685	-91.624236	-36.543685	-91.624236	-0.702385	109.148143
