! freq	dB(S11)	phase(S11)	dB(S12)	phase(S12)	
!     	dB(S21)	phase(S21)	dB(S22)	phase(S22)	
!S-par simulation data
#  GHz  S  DB  R 50
0.000000	-0.000000	0.000000	-365.260242	0.000000	-365.260242	0.000000	-0.000000	0.000000
0.050000	-0.000097	-0.760865	-93.302907	30.261105	-93.302907	30.261105	-0.000183	-2.028002
0.100000	-0.000383	-1.521499	-91.630917	42.047320	-91.630917	42.047320	-0.000728	-4.055492
0.150000	-0.000849	-2.281683	-89.837425	50.948301	-89.837425	50.948301	-0.001627	-6.081953
0.200000	-0.001473	-3.041245	-88.188974	56.781989	-88.188974	56.781989	-0.002858	-8.106932
0.250000	-0.002237	-3.800031	-86.743270	60.543564	-86.743270	60.543564	-0.004402	-10.129968
0.300000	-0.003117	-4.557935	-85.490800	62.985755	-85.490800	62.985755	-0.006235	-12.150638
0.350000	-0.004091	-5.314888	-84.405766	64.574229	-84.405766	64.574229	-0.008328	-14.168557
0.400000	-0.005135	-6.070854	-83.462730	65.596181	-83.462730	65.596181	-0.010651	-16.183376
0.450000	-0.006229	-6.825827	-82.640398	66.234820	-82.640398	66.234820	-0.013173	-18.194783
0.500000	-0.007357	-7.579821	-81.921776	66.612245	-81.921776	66.612245	-0.015861	-20.202507
0.550000	-0.008504	-8.332864	-81.293482	66.813753	-81.293482	66.813753	-0.018687	-22.206308
0.600000	-0.009658	-9.084992	-80.744980	66.901937	-80.744980	66.901937	-0.021620	-24.205984
0.650000	-0.010811	-9.836234	-80.268390	66.924919	-80.268390	66.924919	-0.024635	-26.201308
0.700000	-0.011957	-10.586631	-79.857087	66.923335	-79.857087	66.923335	-0.027705	-28.192126
0.750000	-0.013091	-11.336226	-79.505252	66.931769	-79.505252	66.931769	-0.030808	-30.178358
0.800000	-0.014212	-12.085049	-79.208502	66.981338	-79.208502	66.981338	-0.033926	-32.159893
0.850000	-0.015317	-12.833124	-78.963178	67.102139	-78.963178	67.102139	-0.037043	-34.136637
0.900000	-0.016406	-13.580472	-78.766126	67.324645	-78.766126	67.324645	-0.040143	-36.108507
0.950000	-0.017480	-14.327104	-78.614474	67.680872	-78.614474	67.680872	-0.043217	-38.075429
1.000000	-0.018540	-15.073032	-78.505411	68.205401	-78.505411	68.205401	-0.046256	-40.037336
1.050000	-0.019585	-15.818258	-78.435929	68.936258	-78.435929	68.936258	-0.049251	-41.994171
1.100000	-0.020618	-16.562784	-78.402506	69.915584	-78.402506	69.915584	-0.052200	-43.945877
1.150000	-0.021639	-17.306607	-78.400714	71.189953	-78.400714	71.189953	-0.055097	-45.892406
1.200000	-0.022650	-18.049720	-78.424728	72.810040	-78.424728	72.810040	-0.057940	-47.833711
1.250000	-0.023651	-18.792117	-78.466723	74.829155	-78.466723	74.829155	-0.060730	-49.769751
1.300000	-0.024644	-19.533772	-78.516035	77.310853	-78.516035	77.310853	-0.063463	-51.700371
1.350000	-0.025631	-20.274688	-78.558197	80.291554	-78.558197	80.291554	-0.066142	-53.625652
1.400000	-0.026611	-21.014852	-78.575425	83.799035	-78.575425	83.799035	-0.068769	-55.545565
1.450000	-0.027585	-21.754252	-78.546572	87.830639	-78.546572	87.830639	-0.071345	-57.460085
1.500000	-0.028556	-22.492873	-78.448630	92.339211	-78.448630	92.339211	-0.073872	-59.369190
1.550000	-0.029523	-23.230699	-78.259663	97.223238	-78.259663	97.223238	-0.076353	-61.272865
1.600000	-0.030486	-23.967716	-77.962787	102.327998	-77.962787	102.327998	-0.078790	-63.171102
1.650000	-0.031448	-24.703908	-77.549955	107.462171	-77.549955	107.462171	-0.081187	-65.063895
1.700000	-0.032407	-25.439258	-77.023915	112.427348	-77.023915	112.427348	-0.083546	-66.951247
1.750000	-0.033365	-26.173753	-76.397331	117.050249	-76.397331	117.050249	-0.085871	-68.833167
1.800000	-0.034323	-26.907374	-75.689530	121.205693	-75.689530	121.205693	-0.088163	-70.709669
1.850000	-0.035280	-27.640107	-74.922387	124.824071	-74.922387	124.824071	-0.090427	-72.580775
1.900000	-0.036236	-28.371926	-74.115806	127.879345	-74.115806	127.879345	-0.092665	-74.446457
1.950000	-0.037193	-29.102814	-73.288138	130.388957	-73.288138	130.388957	-0.094880	-76.306753
2.000000	-0.038151	-29.832767	-72.454681	132.398037	-72.454681	132.398037	-0.097075	-78.161765
2.050000	-0.039110	-30.561768	-71.625871	133.955560	-71.625871	133.955560	-0.099253	-80.011546
2.100000	-0.040070	-31.289802	-70.809038	135.112980	-70.809038	135.112980	-0.101417	-81.856153
2.150000	-0.041032	-32.016856	-70.009069	135.919822	-70.009069	135.919822	-0.103569	-83.695656
2.200000	-0.041995	-32.742913	-69.229033	136.421426	-69.229033	136.421426	-0.105712	-85.530127
2.250000	-0.042961	-33.467961	-68.470683	136.658068	-68.470683	136.658068	-0.107847	-87.359650
2.300000	-0.043930	-34.191983	-67.734846	136.664874	-67.734846	136.664874	-0.109979	-89.184315
2.350000	-0.044901	-34.914968	-67.021720	136.472145	-67.021720	136.472145	-0.112108	-91.004218
2.400000	-0.045875	-35.636900	-66.331080	136.105858	-66.331080	136.105858	-0.114238	-92.819466
2.450000	-0.046853	-36.357766	-65.662426	135.588224	-65.662426	135.588224	-0.116369	-94.630171
2.500000	-0.047834	-37.077554	-65.015087	134.938220	-65.015087	134.938220	-0.118505	-96.436453
2.550000	-0.048820	-37.796226	-64.387773	134.169869	-64.387773	134.169869	-0.120647	-98.238350
2.600000	-0.049810	-38.513793	-63.780270	133.299810	-63.780270	133.299810	-0.122798	-100.036092
2.650000	-0.050804	-39.230244	-63.191732	132.339866	-63.191732	132.339866	-0.124958	-101.829822
2.700000	-0.051804	-39.945564	-62.621320	131.300231	-62.621320	131.300231	-0.127130	-103.619690
2.750000	-0.052809	-40.659744	-62.068218	130.189717	-62.068218	130.189717	-0.129315	-105.405851
2.800000	-0.053819	-41.372771	-61.531638	129.015972	-61.531638	129.015972	-0.131516	-107.188469
2.850000	-0.054835	-42.084634	-61.010828	127.785648	-61.010828	127.785648	-0.133732	-108.967714
2.900000	-0.055857	-42.795323	-60.505073	126.504551	-60.505073	126.504551	-0.135967	-110.743761
2.950000	-0.056886	-43.504826	-60.013696	125.177762	-60.013696	125.177762	-0.138221	-112.516794
3.000000	-0.057922	-44.213133	-59.536056	123.809742	-59.536056	123.809742	-0.140496	-114.287001
3.050000	-0.058965	-44.920235	-59.071549	122.404412	-59.071549	122.404412	-0.142794	-116.054578
3.100000	-0.060015	-45.626120	-58.619608	120.965230	-58.619608	120.965230	-0.145114	-117.819726
3.150000	-0.061075	-46.330607	-58.178259	119.491295	-58.178259	119.491295	-0.147463	-119.582370
3.200000	-0.062141	-47.034018	-57.749858	117.993284	-57.749858	117.993284	-0.149835	-121.343300
3.250000	-0.063216	-47.736186	-57.332513	116.469564	-57.332513	116.469564	-0.152234	-123.102447
3.300000	-0.064300	-48.437102	-56.925775	114.922244	-56.925775	114.922244	-0.154661	-124.860034
3.350000	-0.065394	-49.136758	-56.529222	113.353188	-56.529222	113.353188	-0.157117	-126.616292
3.400000	-0.066496	-49.835146	-56.142456	111.764042	-56.142456	111.764042	-0.159603	-128.371456
3.450000	-0.067609	-50.532258	-55.765102	110.156256	-55.765102	110.156256	-0.162121	-130.125768
3.500000	-0.068732	-51.228087	-55.396805	108.531103	-55.396805	108.531103	-0.164670	-131.879473
3.550000	-0.069866	-51.922626	-55.037231	106.889691	-55.037231	106.889691	-0.167253	-133.632824
3.600000	-0.071011	-52.615869	-54.686064	105.232980	-54.686064	105.232980	-0.169870	-135.386076
3.650000	-0.072167	-53.307808	-54.343007	103.561790	-54.343007	103.561790	-0.172521	-137.139492
3.700000	-0.073335	-53.998438	-54.007776	101.876808	-54.007776	101.876808	-0.175209	-138.893338
3.750000	-0.074515	-54.687754	-53.680106	100.178599	-53.680106	100.178599	-0.177932	-140.647887
3.800000	-0.075708	-55.375692	-53.359548	98.467065	-53.359548	98.467065	-0.180695	-142.403471
3.850000	-0.076914	-56.062304	-53.046085	96.743087	-53.046085	96.743087	-0.183495	-144.160343
3.900000	-0.078133	-56.747587	-52.739487	95.006855	-52.739487	95.006855	-0.186335	-145.918792
3.950000	-0.079365	-57.431535	-52.439539	93.258439	-52.439539	93.258439	-0.189213	-147.679111
4.000000	-0.080611	-58.114218	-52.146228	91.498453	-52.146228	91.498453	-0.192130	-149.441471
4.050000	-0.081872	-58.795501	-51.859003	89.725523	-51.859003	89.725523	-0.195089	-151.206387
4.100000	-0.083147	-59.475440	-51.577845	87.939856	-51.577845	87.939856	-0.198090	-152.974082
4.150000	-0.084438	-60.154032	-51.302580	86.140976	-51.302580	86.140976	-0.201133	-154.744872
4.200000	-0.085744	-60.831274	-51.033047	84.328232	-51.033047	84.328232	-0.204219	-156.519082
4.250000	-0.087066	-61.507166	-50.769090	82.500779	-50.769090	82.500779	-0.207349	-158.297043
4.300000	-0.088404	-62.181704	-50.510564	80.657548	-50.510564	80.657548	-0.210524	-160.079097
4.350000	-0.089758	-62.854890	-50.257330	78.797202	-50.257330	78.797202	-0.213744	-161.865594
4.400000	-0.091130	-63.526707	-50.009238	76.917864	-50.009238	76.917864	-0.217012	-163.656951
4.450000	-0.092519	-64.197156	-49.766168	75.017419	-49.766168	75.017419	-0.220329	-165.453555
4.500000	-0.093926	-64.866254	-49.528027	73.093534	-49.528027	73.093534	-0.223695	-167.255745
4.550000	-0.095351	-65.534002	-49.294701	71.143084	-49.294701	71.143084	-0.227114	-169.063930
4.600000	-0.096794	-66.200404	-49.066084	69.162196	-49.066084	69.162196	-0.230587	-170.878545
4.650000	-0.098256	-66.865463	-48.842075	67.146043	-48.842075	67.146043	-0.234118	-172.700050
4.700000	-0.099738	-67.529186	-48.622573	65.088558	-48.622573	65.088558	-0.237711	-174.528949
4.750000	-0.101239	-68.191579	-48.407480	62.982033	-48.407480	62.982033	-0.241372	-176.365790
4.800000	-0.102760	-68.852653	-48.196696	60.816559	-48.196696	60.816559	-0.245109	-178.211193
4.850000	-0.104302	-69.512420	-47.990115	58.579206	-47.990115	58.579206	-0.248934	179.934136
4.900000	-0.105865	-70.170899	-47.787617	56.252820	-47.787617	56.252820	-0.252861	178.069361
4.950000	-0.107450	-70.828112	-47.589057	53.814181	-47.589057	53.814181	-0.256916	176.193466
5.000000	-0.109057	-71.484091	-47.394245	51.231136	-47.394245	51.231136	-0.261133	174.305173
5.050000	-0.110689	-72.138831	-47.202853	48.446374	-47.202853	48.446374	-0.265581	172.402060
5.100000	-0.112346	-72.792482	-47.014467	45.402243	-47.014467	45.402243	-0.270343	170.482674
5.150000	-0.114032	-73.445140	-46.828325	41.998749	-46.828325	41.998749	-0.275570	168.543777
5.200000	-0.115752	-74.096934	-46.642904	38.057613	-46.642904	38.057613	-0.281564	166.579583
5.250000	-0.117524	-74.748148	-46.454553	33.230924	-46.454553	33.230924	-0.289012	164.579444
5.300000	-0.119376	-75.399356	-46.255718	26.985012	-46.255718	26.985012	-0.299244	162.528822
5.350000	-0.121389	-76.051538	-46.027620	18.229315	-46.027620	18.229315	-0.315491	160.398514
5.400000	-0.123902	-76.707343	-45.695201	3.631223	-45.695201	3.631223	-0.350410	158.107820
5.450000	-0.128481	-77.372067	-44.957484	-26.218887	-44.957484	-26.218887	-0.458331	155.524421
5.500000	-0.143420	-78.009054	-42.837357	-106.625323	-42.837357	-106.625323	-0.899598	154.089612
5.550000	-0.139781	-78.536021	-43.463658	140.251135	-43.463658	140.251135	-0.623204	155.746934
5.600000	-0.134494	-79.186221	-44.498215	94.577043	-44.498215	94.577043	-0.402336	153.102951
5.650000	-0.134430	-79.835974	-44.741361	75.396056	-44.741361	75.396056	-0.352656	150.638726
5.700000	-0.135596	-80.479479	-44.761470	64.675377	-44.761470	64.675377	-0.337408	148.368927
5.750000	-0.137188	-81.118968	-44.704653	57.581104	-44.704653	57.581104	-0.332693	146.188379
5.800000	-0.138965	-81.755851	-44.618445	52.211752	-44.618445	52.211752	-0.331881	144.046796
5.850000	-0.140865	-82.390310	-44.516410	48.017227	-44.516410	48.017227	-0.333251	141.926301
5.900000	-0.142833	-83.023078	-44.408783	44.418499	-44.408783	44.418499	-0.335551	139.812038
5.950000	-0.144863	-83.654032	-44.298263	41.296965	-44.298263	41.296965	-0.338501	137.698017
6.000000	-0.146939	-84.283513	-44.187362	38.467748	-44.187362	38.467748	-0.341804	135.580250
6.050000	-0.149058	-84.911481	-44.077155	35.870084	-44.077155	35.870084	-0.345357	133.455682
6.100000	-0.151216	-85.538020	-43.968381	33.445075	-43.968381	33.445075	-0.349080	131.322618
6.150000	-0.153410	-86.163224	-43.861487	31.149194	-43.861487	31.149194	-0.352918	129.180118
6.200000	-0.155642	-86.786994	-43.756843	28.967297	-43.756843	28.967297	-0.356847	127.026244
6.250000	-0.157907	-87.409562	-43.654482	26.865214	-43.654482	26.865214	-0.360836	124.862012
6.300000	-0.160211	-88.030668	-43.554795	24.845424	-43.554795	24.845424	-0.364878	122.684395
6.350000	-0.162546	-88.650608	-43.457565	22.882341	-43.457565	22.882341	-0.368954	120.495557
6.400000	-0.164919	-89.269200	-43.363064	20.977176	-43.363064	20.977176	-0.373059	118.293275
6.450000	-0.167325	-89.886580	-43.271150	19.118656	-43.271150	19.118656	-0.377185	116.078556
6.500000	-0.169767	-90.502713	-43.181879	17.303778	-43.181879	17.303778	-0.381327	113.850742
6.550000	-0.172244	-91.117588	-43.095258	15.529606	-43.095258	15.529606	-0.385482	111.609477
6.600000	-0.174755	-91.731311	-43.011113	13.790306	-43.011113	13.790306	-0.389646	109.355724
6.650000	-0.177305	-92.343732	-42.929620	12.088455	-42.929620	12.088455	-0.393817	107.087688
6.700000	-0.179888	-92.955048	-42.850444	10.417042	-42.850444	10.417042	-0.397994	104.807454
6.750000	-0.182508	-93.565148	-42.773676	8.778201	-42.773676	8.778201	-0.402176	102.513735
6.800000	-0.185165	-94.174077	-42.699172	7.170044	-42.699172	7.170044	-0.406362	100.207016
6.850000	-0.187859	-94.781848	-42.626822	5.591917	-42.626822	5.591917	-0.410554	97.887431
6.900000	-0.190591	-95.388458	-42.556517	4.043718	-42.556517	4.043718	-0.414751	95.555012
6.950000	-0.193361	-95.993919	-42.488115	2.525211	-42.488115	2.525211	-0.418956	93.209965
7.000000	-0.196169	-96.598254	-42.421443	1.036006	-42.421443	1.036006	-0.423170	90.852658
7.050000	-0.199015	-97.201475	-42.356329	-0.423838	-42.356329	-0.423838	-0.427397	88.483347
7.100000	-0.201901	-97.803593	-42.292583	-1.854163	-42.292583	-1.854163	-0.431641	86.102317
7.150000	-0.204825	-98.404619	-42.229994	-3.254732	-42.229994	-3.254732	-0.435905	83.709877
7.200000	-0.207789	-99.004564	-42.168331	-4.625246	-42.168331	-4.625246	-0.440197	81.306360
7.250000	-0.210793	-99.603440	-42.107340	-5.965368	-42.107340	-5.965368	-0.444522	78.892120
7.300000	-0.213838	-100.201258	-42.046743	-7.274736	-42.046743	-7.274736	-0.448889	76.467531
7.350000	-0.216923	-100.798030	-41.986234	-8.552985	-41.986234	-8.552985	-0.453307	74.032983
7.400000	-0.220050	-101.393767	-41.925481	-9.799760	-41.925481	-9.799760	-0.457786	71.588881
7.450000	-0.223218	-101.988481	-41.864119	-11.014739	-41.864119	-11.014739	-0.462339	69.135639
7.500000	-0.226428	-102.582184	-41.801748	-12.197649	-41.801748	-12.197649	-0.466981	66.673679
7.550000	-0.229682	-103.174866	-41.737881	-13.347585	-41.737881	-13.347585	-0.471732	64.203252
7.600000	-0.232978	-103.766559	-41.672068	-14.465143	-41.672068	-14.465143	-0.476611	61.724966
7.650000	-0.236318	-104.357277	-41.603784	-15.550343	-41.603784	-15.550343	-0.481640	59.239229
7.700000	-0.239703	-104.947029	-41.532452	-16.603348	-41.532452	-16.603348	-0.486847	56.746427
7.750000	-0.243131	-105.535826	-41.457439	-17.624502	-41.457439	-17.624502	-0.492265	54.246919
7.800000	-0.246603	-106.123677	-41.378047	-18.614357	-41.378047	-18.614357	-0.497934	51.741023
7.850000	-0.250121	-106.710592	-41.293502	-19.573718	-41.293502	-19.573718	-0.503899	49.229002
7.900000	-0.253681	-107.296581	-41.202944	-20.503690	-41.202944	-20.503690	-0.510217	46.711047
7.950000	-0.257282	-107.881658	-41.105412	-21.405737	-41.105412	-21.405737	-0.516955	44.187254
8.000000	-0.260921	-108.465866	-40.999819	-22.281759	-40.999819	-22.281759	-0.524199	41.657596
8.050000	-0.264598	-109.049301	-40.884929	-23.134187	-40.884929	-23.134187	-0.532053	39.121890
8.100000	-0.268335	-109.632019	-40.759317	-23.966122	-40.759317	-23.966122	-0.540649	36.579743
8.150000	-0.272148	-110.213898	-40.621140	-24.781391	-40.621140	-24.781391	-0.550169	34.030411
8.200000	-0.276027	-110.794840	-40.468332	-25.585297	-40.468332	-25.585297	-0.560843	31.472834
8.250000	-0.279961	-111.374878	-40.298640	-26.384753	-40.298640	-26.384753	-0.572964	28.905576
8.300000	-0.283949	-111.954049	-40.109105	-27.188699	-40.109105	-27.188699	-0.586938	26.326484
8.350000	-0.287996	-112.532382	-39.896351	-28.008968	-39.896351	-28.008968	-0.603306	23.732717
8.400000	-0.292104	-113.109877	-39.655597	-28.862219	-39.655597	-28.862219	-0.622878	21.120068
8.450000	-0.296282	-113.686516	-39.380421	-29.773139	-39.380421	-29.773139	-0.646880	18.482538
8.500000	-0.300537	-114.262256	-39.061450	-30.781057	-39.061450	-30.781057	-0.677311	15.811193
8.550000	-0.304878	-114.837059	-38.688677	-31.942238	-38.688677	-31.942238	-0.717022	13.095390
8.600000	-0.309319	-115.410814	-38.246862	-33.351333	-38.246862	-33.351333	-0.770987	10.319885
8.650000	-0.313875	-115.983334	-37.717664	-35.160248	-37.717664	-35.160248	-0.847410	7.467340
8.700000	-0.318571	-116.554130	-37.066956	-37.690761	-37.066956	-37.690761	-0.964262	4.516708
8.750000	-0.323409	-117.122354	-36.265181	-41.513066	-36.265181	-41.513066	-1.154731	1.487838
8.800000	-0.328290	-117.686086	-35.297049	-47.865648	-35.297049	-47.865648	-1.491328	-1.399342
8.850000	-0.332631	-118.242465	-34.308746	-59.057841	-34.308746	-59.057841	-2.078529	-3.005740
8.900000	-0.334645	-118.794981	-34.040378	-77.694332	-34.040378	-77.694332	-2.677107	0.022543
8.950000	-0.334674	-119.368254	-35.837563	-98.372721	-35.837563	-98.372721	-2.183103	4.936976
9.000000	-0.337392	-119.958002	-39.307745	-107.564767	-39.307745	-107.564767	-1.327166	3.540817
9.050000	-0.342212	-120.541474	-42.587264	-102.204071	-42.587264	-102.204071	-0.886797	-0.259055
9.100000	-0.347475	-121.117797	-44.456093	-88.589927	-44.456093	-88.589927	-0.693973	-3.979665
9.150000	-0.352729	-121.690118	-44.874251	-75.167554	-44.874251	-75.167554	-0.605822	-7.323865
9.200000	-0.357917	-122.260197	-44.547172	-65.737333	-44.547172	-65.737333	-0.563588	-10.367231
9.250000	-0.363056	-122.828876	-44.000270	-59.849419	-44.000270	-59.849419	-0.543241	-13.198450
9.300000	-0.368170	-123.396579	-43.438839	-56.259343	-43.438839	-56.259343	-0.534133	-15.880226
9.350000	-0.373278	-123.963522	-42.920126	-54.101729	-42.920126	-54.101729	-0.531298	-18.451672
9.400000	-0.378395	-124.529818	-42.454047	-52.865692	-42.454047	-52.865692	-0.532205	-20.936857
9.450000	-0.383529	-125.095598	-42.033477	-52.186250	-42.033477	-52.186250	-0.535236	-23.359406
9.500000	-0.388689	-125.660872	-41.652996	-51.929395	-41.652996	-51.929395	-0.539786	-25.725484
9.550000	-0.393877	-126.225736	-41.303483	-51.939988	-41.303483	-51.939988	-0.545244	-28.049240
9.600000	-0.399102	-126.790152	-40.981599	-52.185013	-40.981599	-52.185013	-0.551455	-30.329581
9.650000	-0.404362	-127.354226	-40.680307	-52.576560	-40.680307	-52.576560	-0.558117	-32.578363
9.700000	-0.409663	-127.917921	-40.397573	-53.105610	-40.397573	-53.105610	-0.565190	-34.793245
9.750000	-0.415003	-128.481309	-40.129504	-53.731469	-40.129504	-53.731469	-0.572552	-36.980994
9.800000	-0.420387	-129.044388	-39.874293	-54.443587	-39.874293	-54.443587	-0.580173	-39.141539
9.850000	-0.425813	-129.607186	-39.630055	-55.226907	-39.630055	-55.226907	-0.588016	-41.277051
9.900000	-0.431283	-130.169735	-39.395235	-56.068555	-39.395235	-56.068555	-0.596051	-43.389826
9.950000	-0.436799	-130.732033	-39.168922	-56.965791	-39.168922	-56.965791	-0.604281	-45.478780
10.000000	-0.442357	-131.294135	-38.949880	-57.904627	-38.949880	-57.904627	-0.612669	-47.548241
