! freq	dB(S11)	phase(S11)	dB(S12)	phase(S12)	
!     	dB(S21)	phase(S21)	dB(S22)	phase(S22)	
!S-par simulation data
#  GHz  S  DB  R 50
0.000000	-83.455237	0.000000	-0.000584	0.000000	-0.000584	0.000000	-83.455237	0.000000
0.050000	-42.681715	-92.159597	-0.002484	-2.677623	-0.002484	-2.677623	-42.682946	-92.164496
0.100000	-36.668070	-95.105525	-0.007303	-5.343464	-0.007303	-5.343464	-36.669026	-95.114385
0.150000	-33.158080	-97.868259	-0.013431	-7.994949	-0.013431	-7.994949	-33.158761	-97.879895
0.200000	-30.676765	-100.579805	-0.019836	-10.635673	-0.019836	-10.635673	-30.677244	-100.593501
0.250000	-28.761937	-103.268434	-0.026166	-13.270098	-0.026166	-13.270098	-28.762293	-103.283894
0.300000	-27.207717	-105.944251	-0.032423	-15.901245	-0.032423	-15.901245	-27.208014	-105.961391
0.350000	-25.904306	-108.611897	-0.038708	-18.530696	-0.038708	-18.530696	-25.904596	-108.630706
0.400000	-24.786245	-111.274074	-0.045119	-21.159116	-0.045119	-21.159116	-24.786579	-111.294567
0.450000	-23.811615	-113.933224	-0.051726	-23.786675	-0.051726	-23.786675	-23.812054	-113.955473
0.500000	-22.951719	-116.593074	-0.058566	-26.413311	-0.058566	-26.413311	-22.952341	-116.617331
0.550000	-22.185982	-119.260088	-0.065654	-29.038863	-0.065654	-29.038863	-22.186863	-119.287004
0.600000	-21.498567	-121.943958	-0.072987	-31.663140	-0.072987	-31.663140	-21.499713	-121.974741
0.650000	-20.875735	-124.652414	-0.080555	-34.285953	-0.080555	-34.285953	-20.876971	-124.688243
0.700000	-20.305253	-127.378065	-0.088336	-36.907139	-0.088336	-36.907139	-20.306285	-127.418633
0.750000	-19.778764	-130.095535	-0.096306	-39.526567	-0.096306	-39.526567	-19.779487	-130.139068
0.800000	-19.292858	-132.784374	-0.104435	-42.144141	-0.104435	-42.144141	-19.293408	-132.829676
0.850000	-18.846031	-135.443986	-0.112692	-44.759784	-0.112692	-44.759784	-18.846556	-135.491062
0.900000	-18.435681	-138.084247	-0.121043	-47.373498	-0.121043	-47.373498	-18.436240	-138.133492
0.950000	-18.058861	-140.713396	-0.129453	-49.985284	-0.129453	-49.985284	-18.059460	-140.765109
1.000000	-17.712644	-143.336349	-0.137886	-52.595177	-0.137886	-52.595177	-17.713274	-143.390679
1.050000	-17.394573	-145.955548	-0.146305	-55.203235	-0.146305	-55.203235	-17.395223	-146.012546
1.100000	-17.101658	-148.572258	-0.154678	-57.809648	-0.154678	-57.809648	-17.102319	-148.631927
1.150000	-16.832395	-151.186930	-0.162969	-60.414501	-0.162969	-60.414501	-16.833063	-151.249252
1.200000	-16.585155	-153.799842	-0.171145	-63.017953	-0.171145	-63.017953	-16.585828	-153.864791
1.250000	-16.358545	-156.411172	-0.179173	-65.620185	-0.179173	-65.620185	-16.359221	-156.478715
1.300000	-16.151666	-159.021040	-0.187016	-68.221384	-0.187016	-68.221384	-16.152345	-159.091143
1.350000	-15.963173	-161.629642	-0.194650	-70.821801	-0.194650	-70.821801	-15.963855	-161.702268
1.400000	-15.792164	-164.237158	-0.202045	-73.421678	-0.202045	-73.421678	-15.792849	-164.312269
1.450000	-15.637856	-166.843795	-0.209177	-76.021274	-0.209177	-76.021274	-15.638545	-166.921350
1.500000	-15.499568	-169.449787	-0.216021	-78.620861	-0.216021	-78.620861	-15.500262	-169.529742
1.550000	-15.376709	-172.055391	-0.222556	-81.220726	-0.222556	-81.220726	-15.377409	-172.137697
1.600000	-15.268770	-174.660886	-0.228762	-83.821166	-0.228762	-83.821166	-15.269476	-174.745491
1.650000	-15.175316	-177.266570	-0.234621	-86.422489	-0.234621	-86.422489	-15.176028	-177.353415
1.700000	-15.095736	-179.872740	-0.240127	-89.024983	-0.240127	-89.024983	-15.096455	-179.961762
1.750000	-15.030919	177.520186	-0.245230	-91.629126	-0.245230	-91.629126	-15.031646	177.429063
1.800000	-14.978704	174.912020	-0.249977	-94.234996	-0.249977	-94.234996	-14.979439	174.818872
1.850000	-14.940425	172.302267	-0.254316	-96.843161	-0.254316	-96.843161	-14.941167	172.207183
1.900000	-14.915177	169.690670	-0.258263	-99.453822	-0.258263	-99.453822	-14.915927	169.593747
1.950000	-14.902871	167.076874	-0.261815	-102.067323	-0.261815	-102.067323	-14.903630	166.978220
2.000000	-14.904227	164.460381	-0.264950	-104.684184	-0.264950	-104.684184	-14.904994	164.360121
2.050000	-14.917738	161.841159	-0.267714	-107.304353	-0.267714	-107.304353	-14.918512	161.739418
2.100000	-14.945745	159.218302	-0.270044	-109.928832	-0.270044	-109.928832	-14.946526	159.115244
2.150000	-14.985825	156.592126	-0.272022	-112.557183	-0.272022	-112.557183	-14.986612	156.487903
2.200000	-15.040436	153.961620	-0.273589	-115.190515	-0.273589	-115.190515	-15.041229	153.856435
2.250000	-15.107695	151.327118	-0.274816	-117.828404	-0.274816	-117.828404	-15.108494	151.221163
2.300000	-15.189488	148.687761	-0.275671	-120.471788	-0.275671	-120.471788	-15.190290	148.581280
2.350000	-15.285587	146.043424	-0.276187	-123.120784	-0.276187	-123.120784	-15.286393	145.936678
2.400000	-15.396413	143.393804	-0.276379	-125.775717	-0.276379	-125.775717	-15.397220	143.287088
2.450000	-15.522462	140.738614	-0.276268	-128.436910	-0.276268	-128.436910	-15.523270	140.632261
2.500000	-15.664317	138.077584	-0.275874	-131.104680	-0.275874	-131.104680	-15.665123	137.971969
2.550000	-15.822859	135.410370	-0.275216	-133.779439	-0.275216	-133.779439	-15.823662	135.305924
2.600000	-15.998678	132.736830	-0.274323	-136.461397	-0.274323	-136.461397	-15.999476	132.634037
2.650000	-16.192688	130.056759	-0.273222	-139.150850	-0.273222	-139.150850	-16.193478	129.956171
2.700000	-16.405943	127.369982	-0.271939	-141.848088	-0.271939	-141.848088	-16.406724	127.272229
2.750000	-16.639670	124.676356	-0.270504	-144.553394	-0.270504	-144.553394	-16.640437	124.582163
2.800000	-16.895290	121.975777	-0.268948	-147.267043	-0.268948	-147.267043	-16.896039	121.885978
2.850000	-17.174458	119.268183	-0.267301	-149.989302	-0.267301	-149.989302	-17.175186	119.183749
2.900000	-17.479112	116.553568	-0.265598	-152.720433	-0.265598	-152.720433	-17.479814	116.475630
2.950000	-17.811690	113.831927	-0.263873	-155.460780	-0.263873	-155.460780	-17.812359	113.761828
3.000000	-18.174821	111.103439	-0.262161	-158.210549	-0.262161	-158.210549	-18.175450	111.042767
3.050000	-18.571647	108.368390	-0.260499	-160.969935	-0.260499	-160.969935	-18.572227	108.319032
3.100000	-19.006041	105.627170	-0.258925	-163.739171	-0.258925	-163.739171	-19.006560	105.591403
3.150000	-19.482714	102.880355	-0.257476	-166.518483	-0.257476	-166.518483	-19.483157	102.860954
3.200000	-20.007461	100.128773	-0.256190	-169.308091	-0.256190	-169.308091	-20.007809	100.129168
3.250000	-20.587516	97.373605	-0.255109	-172.108208	-0.255109	-172.108208	-20.587743	97.398098
3.300000	-21.232055	94.616548	-0.254272	-174.919045	-0.254272	-174.919045	-21.232124	94.670628
3.350000	-21.953775	91.860200	-0.253732	-177.741181	-0.253732	-177.741181	-21.953636	91.951338
3.400000	-22.767105	89.108251	-0.253513	179.425804	-0.253513	179.425804	-22.766683	89.245952
3.450000	-23.694009	86.366440	-0.253665	176.581463	-0.253665	176.581463	-23.693187	86.564062
3.500000	-24.764750	83.643964	-0.254231	173.725603	-0.254231	173.725603	-24.763342	83.920704
3.550000	-26.024001	80.956432	-0.255255	170.858030	-0.255255	170.858030	-26.021682	81.341299
3.600000	-27.541694	78.332447	-0.256782	167.978555	-0.256782	167.978555	-27.537844	78.872295
3.650000	-29.436499	75.830349	-0.258859	165.086986	-0.258859	165.086986	-29.429781	76.608193
3.700000	-31.935056	73.589515	-0.261530	162.183136	-0.261530	162.183136	-31.921966	74.774117
3.750000	-35.561935	72.038926	-0.264845	159.266812	-0.264845	159.266812	-35.529756	74.059375
3.800000	-42.102440	73.803343	-0.268867	156.337545	-0.268867	156.337545	-41.949403	78.588564
3.850000	-52.145718	-167.588678	-0.273634	153.395411	-0.273634	153.395411	-50.780371	-177.111076
3.900000	-39.440995	-127.443112	-0.279198	150.440215	-0.279198	150.440215	-39.350591	-131.961920
3.950000	-33.926809	-127.170049	-0.285610	147.471760	-0.285610	147.471760	-33.902064	-129.756513
4.000000	-30.513711	-129.037558	-0.292927	144.489842	-0.292927	144.489842	-30.502675	-130.940821
4.050000	-28.023247	-131.465532	-0.301205	141.494259	-0.301205	141.494259	-28.017243	-133.020097
4.100000	-26.053484	-134.131279	-0.310505	138.484801	-0.310505	138.484801	-26.049864	-135.475220
4.150000	-24.418709	-136.924845	-0.320887	135.461257	-0.320887	135.461257	-24.416399	-138.128450
4.200000	-23.018219	-139.797450	-0.332395	132.423689	-0.332395	132.423689	-23.016700	-140.900877
4.250000	-21.789581	-142.727502	-0.345146	129.371250	-0.345146	129.371250	-21.788572	-143.756984
4.300000	-20.693589	-145.699972	-0.359185	126.304070	-0.359185	126.304070	-20.692923	-146.672486
4.350000	-19.702754	-148.706949	-0.374587	123.221928	-0.374587	123.221928	-19.702328	-149.634405
4.400000	-18.797263	-151.743575	-0.391439	120.124519	-0.391439	120.124519	-18.797007	-152.634662
4.450000	-17.962500	-154.806529	-0.409826	117.011617	-0.409826	117.011617	-17.962367	-155.667723
4.500000	-17.187398	-157.893454	-0.429828	113.883089	-0.429828	113.883089	-17.187354	-158.729670
4.550000	-16.463252	-161.002820	-0.451539	110.738719	-0.451539	110.738719	-16.463271	-161.817885
4.600000	-15.783145	-164.133545	-0.475057	107.578304	-0.475057	107.578304	-15.783209	-164.930480
4.650000	-15.141498	-167.284847	-0.500488	104.401645	-0.500488	104.401645	-15.141592	-168.066066
4.700000	-14.533717	-170.456208	-0.527948	101.208514	-0.527948	101.208514	-14.533830	-171.223659
4.750000	-13.955978	-173.647299	-0.557566	97.998653	-0.557566	97.998653	-13.956102	-174.402567
4.800000	-13.405215	-176.857629	-0.589451	94.772047	-0.589451	94.772047	-13.405341	-177.601993
4.850000	-12.878767	179.913070	-0.623732	91.528576	-0.623732	91.528576	-12.878891	179.178566
4.900000	-12.374379	176.665030	-0.660548	88.268146	-0.660548	88.268146	-12.374496	175.939529
4.950000	-11.890128	173.398463	-0.700043	84.990699	-0.700043	84.990699	-11.890235	172.681269
5.000000	-11.424366	170.113583	-0.742369	81.696218	-0.742369	81.696218	-11.424458	169.404129
5.050000	-10.975567	166.810327	-0.787731	78.384451	-0.787731	78.384451	-10.975644	166.108148
5.100000	-10.542633	163.489247	-0.836255	75.055759	-0.836255	75.055759	-10.542692	162.793980
5.150000	-10.124507	160.150634	-0.888111	71.710281	-0.888111	71.710281	-10.124548	159.461993
5.200000	-9.720277	156.794826	-0.943478	68.348222	-0.943478	68.348222	-9.720298	156.112590
5.250000	-9.329155	153.422217	-1.002542	64.969858	-1.002542	64.969858	-9.329157	152.746222
5.300000	-8.950462	150.033265	-1.065492	61.575544	-1.065492	61.575544	-8.950444	149.363393
5.350000	-8.583721	146.628954	-1.132411	58.166166	-1.132411	58.166166	-8.583683	145.965130
5.400000	-8.228176	143.208884	-1.203737	54.741260	-1.203737	54.741260	-8.228120	142.551065
5.450000	-7.883544	139.774312	-1.279542	51.302004	-1.279542	51.302004	-7.883469	139.122487
5.500000	-7.549456	136.326028	-1.360029	47.849127	-1.360029	47.849127	-7.549363	135.680209
5.550000	-7.225600	132.864917	-1.445397	44.383466	-1.445397	44.383466	-7.225490	132.225139
5.600000	-6.911709	129.391969	-1.535847	40.905968	-1.535847	40.905968	-6.911583	128.758283
5.650000	-6.607557	125.908225	-1.631599	37.417639	-1.631599	37.417639	-6.607417	125.280696
5.700000	-6.312964	122.414908	-1.732843	33.919676	-1.732843	33.919676	-6.312810	121.793613
5.750000	-6.027779	118.913387	-1.839740	30.413430	-1.839740	30.413430	-6.027611	118.298410
5.800000	-5.751866	115.405081	-1.952464	26.900303	-1.952464	26.900303	-5.751687	114.796513
5.850000	-5.485112	111.891510	-2.071179	23.381809	-2.071179	23.381809	-5.484923	111.289448
5.900000	-5.227418	108.374299	-2.196036	19.859566	-2.196036	19.859566	-5.227219	107.778839
5.950000	-4.978701	104.855161	-2.327183	16.335288	-2.327183	16.335288	-4.978494	104.266402
6.000000	-4.738896	101.335926	-2.464762	12.810803	-2.464762	12.810803	-4.738682	100.753967
6.050000	-4.507911	97.818493	-2.608839	9.288016	-2.608839	9.288016	-4.507691	97.243428
6.100000	-4.285667	94.304809	-2.759493	5.768877	-2.759493	5.768877	-4.285442	93.736732
6.150000	-4.072121	90.796966	-2.916827	2.255480	-2.916827	2.255480	-4.071892	90.235964
6.200000	-3.867089	87.296794	-3.080779	-1.250336	-3.080779	-1.250336	-3.866857	86.742950
6.250000	-3.670527	83.806458	-3.251429	-4.746405	-3.251429	-4.746405	-3.670294	83.259851
6.300000	-3.482427	80.328344	-3.428836	-8.230344	-3.428836	-8.230344	-3.482193	79.789046
6.350000	-3.302586	76.864309	-3.612891	-11.700291	-3.612891	-11.700291	-3.302353	76.332385
6.400000	-3.130874	73.416400	-3.803544	-15.154200	-3.803544	-15.154200	-3.130643	72.891908
6.450000	-2.967147	69.986626	-4.000718	-18.590064	-4.000718	-18.590064	-2.966918	69.469618
6.500000	-2.811248	66.576942	-4.204318	-22.005932	-4.204318	-22.005932	-2.811024	66.067463
6.550000	-2.663008	63.189235	-4.414228	-25.399921	-4.414228	-25.399921	-2.662789	62.687320
6.600000	-2.522245	59.825309	-4.630312	-28.770230	-4.630312	-28.770230	-2.522032	59.330989
6.650000	-2.388764	56.486875	-4.852419	-32.115150	-4.852419	-32.115150	-2.388559	56.000172
6.700000	-2.262362	53.175538	-5.080382	-35.433078	-5.080382	-35.433078	-2.262165	52.696469
6.750000	-2.142824	49.892793	-5.314018	-38.722521	-5.314018	-38.722521	-2.142637	49.421365
6.800000	-2.029928	46.640012	-5.553137	-41.982103	-5.553137	-41.982103	-2.029751	46.176227
6.850000	-1.923444	43.418441	-5.797535	-45.210574	-5.797535	-45.210574	-1.923279	42.962295
6.900000	-1.823190	40.229558	-6.046976	-48.406446	-6.046976	-48.406446	-1.823038	39.781040
6.950000	-1.728925	37.074379	-6.301229	-51.568692	-6.301229	-51.568692	-1.728785	36.633471
7.000000	-1.640351	33.953394	-6.560096	-54.696801	-6.560096	-54.696801	-1.640225	33.520073
7.050000	-1.557228	30.867317	-6.823359	-57.790039	-6.823359	-57.790039	-1.557116	30.441553
7.100000	-1.479313	27.816732	-7.090798	-60.847795	-7.090798	-60.847795	-1.479216	27.398490
7.150000	-1.406368	24.802100	-7.362196	-63.869577	-7.362196	-63.869577	-1.406285	24.391339
7.200000	-1.338156	21.823761	-7.637339	-66.855009	-7.637339	-66.855009	-1.338088	21.420435
7.250000	-1.274446	18.881943	-7.916020	-69.803823	-7.916020	-69.803823	-1.274392	18.486001
7.300000	-1.215012	15.976763	-8.198036	-72.715859	-8.198036	-72.715859	-1.214972	15.588149
7.350000	-1.159634	13.108241	-8.483192	-75.591050	-8.483192	-75.591050	-1.159608	12.726894
7.400000	-1.108099	10.276299	-8.771300	-78.429423	-8.771300	-78.429423	-1.108085	9.902153
7.450000	-1.060202	7.480775	-9.062183	-81.231088	-9.062183	-81.231088	-1.060200	7.113760
7.500000	-1.015745	4.721426	-9.355673	-83.996235	-9.355673	-83.996235	-1.015754	4.361467
7.550000	-0.974601	1.998707	-9.651440	-86.724343	-9.651440	-86.724343	-0.974620	1.645724
7.600000	-0.936520	-0.688554	-9.949495	-89.416537	-9.949495	-89.416537	-0.936549	-1.034645
7.650000	-0.901330	-3.340801	-10.249704	-92.073205	-10.249704	-92.073205	-0.901367	-3.680085
7.700000	-0.868869	-5.958528	-10.551943	-94.694789	-10.551943	-94.694789	-0.868912	-6.291095
7.750000	-0.838980	-8.542277	-10.856099	-97.281778	-10.856099	-97.281778	-0.839029	-8.868220
7.800000	-0.811517	-11.092627	-11.162073	-99.834704	-11.162073	-99.834704	-0.811571	-11.412044
7.850000	-0.786343	-13.610195	-11.469776	-102.354140	-11.469776	-102.354140	-0.786401	-13.923183
7.900000	-0.763326	-16.095624	-11.779129	-104.840688	-11.779129	-104.840688	-0.763387	-16.402286
7.950000	-0.742344	-18.549587	-12.090069	-107.294986	-12.090069	-107.294986	-0.742407	-18.850026
8.000000	-0.723283	-20.972775	-12.402540	-109.717698	-12.402540	-109.717698	-0.723347	-21.267096
8.050000	-0.706033	-23.365896	-12.716503	-112.109511	-12.716503	-112.109511	-0.706098	-23.654207
8.100000	-0.690494	-25.729677	-13.031925	-114.471138	-13.031925	-114.471138	-0.690558	-26.012086
8.150000	-0.676586	-28.064550	-13.348678	-116.802999	-13.348678	-116.802999	-0.676651	-28.341168
8.200000	-0.664219	-30.371286	-13.666753	-119.105873	-13.666753	-119.105873	-0.664284	-30.642226
8.250000	-0.653293	-32.650951	-13.986265	-121.380853	-13.986265	-121.380853	-0.653358	-32.916323
8.300000	-0.643731	-34.904303	-14.307231	-123.628730	-14.307231	-123.628730	-0.643795	-35.164219
8.350000	-0.635565	-37.129963	-14.628771	-125.848112	-14.628771	-125.848112	-0.635630	-37.384544
8.400000	-0.628500	-39.333313	-14.952853	-128.044573	-14.952853	-128.044573	-0.628566	-39.582658
8.450000	-0.622599	-41.512630	-15.278514	-130.216399	-15.278514	-130.216399	-0.622666	-41.756852
8.500000	-0.617802	-43.668687	-15.605817	-132.364459	-15.605817	-132.364459	-0.617872	-43.907896
8.550000	-0.614013	-45.803186	-15.935300	-134.490584	-15.935300	-134.490584	-0.614087	-46.037487
8.600000	-0.611279	-47.914778	-16.266018	-136.593548	-16.266018	-136.593548	-0.611357	-48.144287
8.650000	-0.609497	-50.005447	-16.598647	-138.675523	-16.598647	-138.675523	-0.609580	-50.230272
8.700000	-0.608623	-52.075967	-16.933305	-140.737490	-16.933305	-140.737490	-0.608713	-52.296217
8.750000	-0.608618	-54.127117	-17.270120	-142.780466	-17.270120	-142.780466	-0.608716	-54.342898
8.800000	-0.609471	-56.159092	-17.608883	-144.804955	-17.608883	-144.804955	-0.609578	-56.370515
8.850000	-0.611121	-58.173311	-17.950107	-146.812694	-17.950107	-146.812694	-0.611238	-58.380483
8.900000	-0.613537	-60.170561	-18.293970	-148.804849	-18.293970	-148.804849	-0.613665	-60.373588
8.950000	-0.616692	-62.151632	-18.640663	-150.782649	-18.640663	-150.782649	-0.616833	-62.350621
9.000000	-0.620563	-64.117317	-18.990395	-152.747397	-18.990395	-152.747397	-0.620716	-64.312376
9.050000	-0.625127	-66.068418	-19.343397	-154.700476	-19.343397	-154.700476	-0.625295	-66.259654
9.100000	-0.630369	-68.005741	-19.699915	-156.643366	-19.699915	-156.643366	-0.630551	-68.193265
9.150000	-0.636272	-69.930099	-20.060219	-158.577658	-20.060219	-158.577658	-0.636469	-70.114023
9.200000	-0.642825	-71.842316	-20.424601	-160.505066	-20.424601	-160.505066	-0.643039	-72.022753
9.250000	-0.650022	-73.743220	-20.793379	-162.427453	-20.793379	-162.427453	-0.650251	-73.920290
9.300000	-0.657856	-75.633653	-21.166894	-164.346846	-21.166894	-164.346846	-0.658103	-75.807476
9.350000	-0.666329	-77.514465	-21.545517	-166.265470	-21.545517	-166.265470	-0.666594	-77.685167
9.400000	-0.675442	-79.386518	-21.929651	-168.185773	-21.929651	-168.185773	-0.675726	-79.554230
9.450000	-0.685205	-81.250683	-22.319728	-170.110464	-22.319728	-170.110464	-0.685509	-81.415544
9.500000	-0.695630	-83.107847	-22.716219	-172.042557	-22.716219	-172.042557	-0.695955	-83.270000
9.550000	-0.706733	-84.958906	-23.119631	-173.985423	-23.119631	-173.985423	-0.707082	-85.118504
9.600000	-0.718536	-86.804770	-23.530514	-175.942846	-23.530514	-175.942846	-0.718912	-86.961974
9.650000	-0.731069	-88.646363	-23.949461	-177.919102	-23.949461	-177.919102	-0.731475	-88.801342
9.700000	-0.744364	-90.484619	-24.377113	-179.919041	-24.377113	-179.919041	-0.744806	-90.637552
9.750000	-0.758462	-92.320486	-24.814159	178.051803	-24.814159	178.051803	-0.758945	-92.471563
9.800000	-0.773409	-94.154923	-25.261343	175.987090	-25.261343	175.987090	-0.773941	-94.304347
9.850000	-0.789261	-95.988903	-25.719460	173.879514	-25.719460	173.879514	-0.789851	-96.136884
9.900000	-0.806078	-97.823405	-26.189359	171.720620	-26.189359	171.720620	-0.806739	-97.970167
9.950000	-0.823931	-99.659421	-26.671943	169.500570	-26.671943	169.500570	-0.824677	-99.805199
10.000000	-0.842900	-101.497946	-27.168154	167.207864	-27.168154	167.207864	-0.843749	-101.642988
