! freq	dB(S11)	phase(S11)	dB(S12)	phase(S12)	
!     	dB(S21)	phase(S21)	dB(S22)	phase(S22)	
!S-par simulation data
#  GHz  S  DB  R 50
0.000000	-0.000000	-0.000000	-357.187770	180.000000	-357.187770	180.000000	-0.000000	-0.000000
0.050000	-0.001063	-1.080220	-106.848195	86.868113	-106.848195	86.868113	-0.001171	-1.081010
0.100000	-0.002994	-2.150634	-100.829896	86.964673	-100.829896	86.964673	-0.003176	-2.151046
0.150000	-0.004638	-3.214778	-97.355807	86.373549	-97.355807	86.373549	-0.004786	-3.214828
0.200000	-0.005913	-4.276702	-94.928575	85.619042	-94.928575	85.619042	-0.005999	-4.276689
0.250000	-0.006981	-5.337999	-93.084542	84.818272	-93.084542	84.818272	-0.007009	-5.338091
0.300000	-0.007963	-6.399018	-91.620117	84.014519	-91.620117	84.014519	-0.007944	-6.399278
0.350000	-0.008934	-7.459763	-90.421004	83.232177	-90.421004	83.232177	-0.008880	-7.460196
0.400000	-0.009944	-8.519946	-89.443030	82.504577	-89.443030	82.504577	-0.009862	-8.520528
0.450000	-0.010968	-9.579944	-88.585632	81.795379	-88.585632	81.795379	-0.010862	-9.580664
0.500000	-0.012077	-10.638797	-87.907389	81.205103	-87.907389	81.205103	-0.011955	-10.639613
0.550000	-0.013209	-11.697259	-87.308001	80.659747	-87.308001	80.659747	-0.013073	-11.698161
0.600000	-0.014408	-12.754563	-86.829663	80.248729	-86.829663	80.248729	-0.014265	-12.755521
0.650000	-0.015647	-13.810971	-86.433925	79.960536	-86.433925	79.960536	-0.015498	-13.811973
0.700000	-0.016924	-14.866485	-86.110965	79.795166	-86.110965	79.795166	-0.016773	-14.867516
0.750000	-0.018250	-15.920463	-85.888308	79.891398	-85.888308	79.891398	-0.018100	-15.921508
0.800000	-0.019592	-16.973905	-85.701391	80.081863	-85.701391	80.081863	-0.019444	-16.974960
0.850000	-0.020980	-18.025218	-85.630524	80.740424	-85.630524	80.740424	-0.020838	-18.026272
0.900000	-0.022378	-19.075848	-85.592132	81.598505	-85.592132	81.598505	-0.022242	-19.076899
0.950000	-0.023800	-20.124822	-85.631532	82.941138	-85.631532	82.941138	-0.023672	-20.125866
1.000000	-0.025233	-21.172428	-85.720899	84.825359	-85.720899	84.825359	-0.025114	-21.173463
1.050000	-0.026676	-22.218940	-85.851652	87.142851	-85.851652	87.142851	-0.026567	-22.219965
1.100000	-0.028127	-23.263348	-86.020057	90.572860	-86.020057	90.572860	-0.028028	-23.264362
1.150000	-0.029580	-24.307071	-86.195601	94.392123	-86.195601	94.392123	-0.029491	-24.308075
1.200000	-0.031035	-25.348356	-86.327476	99.796740	-86.327476	99.796740	-0.030956	-25.349350
1.250000	-0.032487	-26.388690	-86.389693	105.799838	-86.389693	105.799838	-0.032418	-26.389674
1.300000	-0.033937	-27.427234	-86.318201	112.928080	-86.318201	112.928080	-0.033878	-27.428210
1.350000	-0.035380	-28.464056	-86.018328	120.567228	-86.018328	120.567228	-0.035330	-28.465025
1.400000	-0.036819	-29.499782	-85.590483	128.531500	-85.590483	128.531500	-0.036779	-29.500745
1.450000	-0.038247	-30.532981	-84.801593	135.904968	-84.801593	135.904968	-0.038215	-30.533940
1.500000	-0.039671	-31.565407	-83.972910	142.960335	-83.972910	142.960335	-0.039648	-31.566363
1.550000	-0.041081	-32.595287	-82.901411	148.566753	-82.901411	148.566753	-0.041066	-32.596241
1.600000	-0.042486	-33.623949	-81.827304	153.457630	-81.827304	153.457630	-0.042478	-33.624902
1.650000	-0.043880	-34.650804	-80.714151	157.287533	-80.714151	157.287533	-0.043879	-34.651758
1.700000	-0.045263	-35.675390	-79.573158	160.091780	-79.573158	160.091780	-0.045268	-35.676347
1.750000	-0.046641	-36.698842	-78.496916	162.383199	-78.496916	162.383199	-0.046651	-36.699802
1.800000	-0.048008	-37.720077	-77.432404	163.995184	-77.432404	163.995184	-0.048023	-37.721042
1.850000	-0.049367	-38.739729	-76.416362	165.121859	-76.416362	165.121859	-0.049386	-38.740700
1.900000	-0.050719	-39.757437	-75.436891	165.863338	-75.436891	165.863338	-0.050742	-39.758415
1.950000	-0.052063	-40.773199	-74.494051	166.219620	-74.494051	166.219620	-0.052089	-40.774186
2.000000	-0.053402	-41.787304	-73.597196	166.360402	-73.597196	166.360402	-0.053431	-41.788301
2.050000	-0.054733	-42.799090	-72.725527	166.199482	-72.725527	166.199482	-0.054764	-42.800099
2.100000	-0.056061	-43.809522	-71.902907	165.919583	-71.902907	165.919583	-0.056094	-43.810543
2.150000	-0.057383	-44.817248	-71.095827	165.401729	-71.095827	165.401729	-0.057417	-44.818282
2.200000	-0.058704	-45.823938	-70.338191	164.820486	-70.338191	164.820486	-0.058739	-45.824987
2.250000	-0.060020	-46.827524	-69.588395	164.049080	-69.588395	164.049080	-0.060055	-46.828589
2.300000	-0.061336	-47.830407	-68.887280	163.246854	-68.887280	163.246854	-0.061372	-47.831489
2.350000	-0.062650	-48.829779	-68.188006	162.290526	-68.188006	162.290526	-0.062686	-48.830879
2.400000	-0.063965	-49.828794	-67.536136	161.322702	-67.536136	161.322702	-0.064000	-49.829912
2.450000	-0.065281	-50.823883	-66.881488	160.228407	-66.881488	160.228407	-0.065315	-50.825022
2.500000	-0.066597	-51.818973	-66.272740	159.134113	-66.272740	159.134113	-0.066630	-51.820131
2.550000	-0.067919	-52.809717	-65.657682	157.934907	-65.657682	157.934907	-0.067950	-52.810897
2.600000	-0.069241	-53.800462	-65.083310	156.735700	-65.083310	156.735700	-0.069271	-53.801664
2.650000	-0.070571	-54.787174	-64.507188	155.462216	-64.507188	155.462216	-0.070599	-54.788398
2.700000	-0.071902	-55.773519	-63.963728	154.181980	-63.963728	154.181980	-0.071929	-55.774767
2.750000	-0.073243	-56.756159	-63.422073	152.848933	-63.422073	152.848933	-0.073268	-56.757430
2.800000	-0.074587	-57.738057	-62.906539	151.505324	-62.906539	151.505324	-0.074610	-57.739352
2.850000	-0.075943	-58.716591	-62.395603	150.124176	-62.395603	150.124176	-0.075964	-58.717911
2.900000	-0.077304	-59.694003	-61.905415	148.730514	-61.905415	148.730514	-0.077323	-59.695348
2.950000	-0.078677	-60.668404	-61.422024	147.310302	-61.422024	147.310302	-0.078694	-60.669774
3.000000	-0.080057	-61.641300	-60.954939	145.876814	-60.954939	145.876814	-0.080072	-61.642695
3.050000	-0.081451	-62.611547	-60.496384	144.424741	-60.496384	144.424741	-0.081463	-62.612968
3.100000	-0.082854	-63.579904	-60.050442	142.959393	-60.050442	142.959393	-0.082864	-63.581350
3.150000	-0.084270	-64.545984	-59.614390	141.481256	-59.614390	141.481256	-0.084278	-64.547455
3.200000	-0.085699	-65.509789	-59.187866	139.990330	-59.187866	139.990330	-0.085705	-65.511285
3.250000	-0.087140	-66.471695	-58.772295	138.490832	-58.772295	138.490832	-0.087144	-66.473216
3.300000	-0.088599	-67.430943	-58.363661	136.979333	-58.363661	136.979333	-0.088601	-67.432489
3.350000	-0.090068	-68.388675	-57.966806	135.462314	-57.966806	135.462314	-0.090068	-68.390246
3.400000	-0.091558	-69.343373	-57.574703	133.934256	-57.574703	133.934256	-0.091556	-69.344968
3.450000	-0.093057	-70.296937	-57.195015	132.402869	-57.195015	132.402869	-0.093053	-70.298555
3.500000	-0.094582	-71.247099	-56.818227	130.861494	-56.818227	130.861494	-0.094577	-71.248740
3.550000	-0.096113	-72.196509	-56.454335	129.318336	-56.454335	129.318336	-0.096107	-72.198173
3.600000	-0.097676	-73.142159	-56.091773	127.766267	-56.091773	127.766267	-0.097668	-73.143845
3.650000	-0.099242	-74.087437	-55.742462	126.213483	-55.742462	126.213483	-0.099232	-74.089144
3.700000	-0.100844	-75.028609	-55.393141	124.652847	-55.393141	124.652847	-0.100834	-75.030336
3.750000	-0.102447	-75.969781	-55.057327	123.092211	-55.057327	123.092211	-0.102435	-75.971528
3.800000	-0.104092	-76.906518	-54.720359	121.524731	-54.720359	121.524731	-0.104079	-76.908284
3.850000	-0.105737	-77.843255	-54.395977	119.957251	-54.395977	119.957251	-0.105724	-77.845039
3.900000	-0.107423	-78.775975	-54.071652	118.384776	-54.071652	118.384776	-0.107409	-78.777775
3.950000	-0.109113	-79.708330	-53.757984	116.811847	-53.757984	116.811847	-0.109098	-79.710146
4.000000	-0.110843	-80.637084	-53.445418	115.235311	-53.445418	115.235311	-0.110827	-80.638914
4.050000	-0.112580	-81.565118	-53.141811	113.658054	-53.141811	113.658054	-0.112564	-81.566962
4.100000	-0.114354	-82.489965	-52.840207	112.078224	-52.840207	112.078224	-0.114339	-82.491820
4.150000	-0.116141	-83.413749	-52.546067	110.497537	-52.546067	110.497537	-0.116125	-83.415616
4.200000	-0.117962	-84.334755	-52.254708	108.915039	-52.254708	108.915039	-0.117947	-84.336632
4.250000	-0.119801	-85.254371	-51.969489	107.331635	-51.969489	107.331635	-0.119786	-85.256257
4.300000	-0.121671	-86.171608	-51.687727	105.746974	-51.687727	105.746974	-0.121656	-86.173501
4.350000	-0.123563	-87.087146	-51.410934	104.161415	-51.410934	104.161415	-0.123549	-87.089045
4.400000	-0.125484	-88.000694	-51.138182	102.574997	-51.138182	102.574997	-0.125470	-88.002598
4.450000	-0.127433	-88.912253	-50.869362	100.987721	-50.869362	100.987721	-0.127419	-88.914161
4.500000	-0.129405	-89.822201	-50.605087	99.399869	-50.605087	99.399869	-0.129393	-89.824111
4.550000	-0.131412	-90.729891	-50.343826	97.811212	-50.343826	97.811212	-0.131401	-90.731802
4.600000	-0.133439	-91.636331	-50.087545	96.222181	-50.087545	96.222181	-0.133428	-91.638242
4.650000	-0.135506	-92.540271	-49.833464	94.632402	-49.833464	94.632402	-0.135497	-92.542180
4.700000	-0.137589	-93.443306	-49.584739	93.042391	-49.584739	93.042391	-0.137580	-93.445213
4.750000	-0.139718	-94.343625	-49.337493	91.451684	-49.337493	91.451684	-0.139711	-94.345527
4.800000	-0.141859	-95.243364	-49.095921	89.860849	-49.095921	89.860849	-0.141853	-95.245261
4.850000	-0.144052	-96.140201	-48.855194	88.269365	-48.855194	88.269365	-0.144048	-96.142091
4.900000	-0.146252	-97.036760	-48.620409	86.677826	-48.620409	86.677826	-0.146249	-97.038643
4.950000	-0.148512	-97.930264	-48.385911	85.085680	-48.385911	85.085680	-0.148510	-97.932138
5.000000	-0.150773	-98.823769	-48.157578	83.493534	-48.157578	83.493534	-0.150773	-98.825633
5.050000	-0.153102	-99.714101	-47.929044	81.900817	-47.929044	81.900817	-0.153103	-99.715953
5.100000	-0.155431	-100.604433	-47.706369	80.308101	-47.706369	80.308101	-0.155434	-100.606274
5.150000	-0.157825	-101.492016	-47.484039	78.714934	-47.484039	78.714934	-0.157829	-101.493843
5.200000	-0.160225	-102.379348	-47.266795	77.121727	-47.266795	77.121727	-0.160230	-102.381161
5.250000	-0.162685	-103.264333	-47.050383	75.528170	-47.050383	75.528170	-0.162692	-103.266132
5.300000	-0.165158	-104.148849	-46.838361	73.934542	-46.838361	73.934542	-0.165166	-104.150633
5.350000	-0.167686	-105.031400	-46.627602	72.340653	-46.627602	72.340653	-0.167697	-105.033168
5.400000	-0.170234	-105.913297	-46.420603	70.746676	-46.420603	70.746676	-0.170246	-105.915048
5.450000	-0.172833	-106.793589	-46.215247	69.152512	-46.215247	69.152512	-0.172847	-106.795323
5.500000	-0.175458	-107.673077	-46.013084	67.558256	-46.013084	67.558256	-0.175473	-107.674795
5.550000	-0.178130	-108.551294	-45.812896	65.963878	-45.812896	65.963878	-0.178146	-108.552994
5.600000	-0.180835	-109.428602	-45.615386	64.369414	-45.615386	64.369414	-0.180852	-109.430284
5.650000	-0.183581	-110.304942	-45.420140	62.774880	-45.420140	62.774880	-0.183600	-110.306607
5.700000	-0.186368	-111.180314	-45.227104	61.180278	-45.227104	61.180278	-0.186388	-111.181962
5.750000	-0.189190	-112.054989	-45.036582	59.585644	-45.036582	59.585644	-0.189212	-112.056620
5.800000	-0.192062	-112.928689	-44.847840	57.990965	-44.847840	57.990965	-0.192085	-112.930304
5.850000	-0.194964	-113.801927	-44.661826	56.396276	-44.661826	56.396276	-0.194988	-113.803527
5.900000	-0.197924	-114.674243	-44.477191	54.801565	-44.477191	54.801565	-0.197949	-114.675828
5.950000	-0.200907	-115.546291	-44.295470	53.206849	-44.295470	53.206849	-0.200934	-115.547863
6.000000	-0.203958	-116.417537	-44.114743	51.612118	-44.114743	51.612118	-0.203986	-116.419097
6.050000	-0.207026	-117.288662	-43.937098	50.017376	-43.937098	50.017376	-0.207055	-117.290211
6.100000	-0.210172	-118.159183	-43.760061	48.422581	-43.760061	48.422581	-0.210202	-118.160726
6.150000	-0.213328	-119.029677	-43.586265	46.827770	-43.586265	46.827770	-0.213358	-119.031213
6.200000	-0.216573	-119.899860	-43.412676	45.232783	-43.412676	45.232783	-0.216605	-119.901394
6.250000	-0.219820	-120.770043	-43.242488	43.637796	-43.242488	43.637796	-0.219853	-120.771575
6.300000	-0.223170	-121.640320	-43.072068	42.042359	-43.072068	42.042359	-0.223203	-121.641857
6.350000	-0.226522	-122.510596	-42.904926	40.446922	-42.904926	40.446922	-0.226556	-122.512140
6.400000	-0.229973	-123.381408	-42.737650	38.850666	-42.737650	38.850666	-0.230008	-123.382966
6.450000	-0.233435	-124.252269	-42.573241	37.254335	-42.573241	37.254335	-0.233471	-124.253843
6.500000	-0.236995	-125.124089	-42.408744	35.656658	-42.408744	35.656658	-0.237032	-125.125688
6.550000	-0.240576	-125.996101	-42.246688	34.058712	-42.246688	34.058712	-0.240613	-125.997728
6.600000	-0.244251	-126.869473	-42.084546	32.458717	-42.084546	32.458717	-0.244290	-126.871141
6.650000	-0.247960	-127.743299	-41.924377	30.858038	-41.924377	30.858038	-0.248000	-127.745010
6.700000	-0.251754	-128.618686	-41.764365	29.254726	-41.764365	29.254726	-0.251795	-128.620454
6.750000	-0.255592	-129.494854	-41.605901	27.650098	-41.605901	27.650098	-0.255634	-129.496685
6.800000	-0.259549	-130.373648	-41.446371	26.040457	-41.446371	26.040457	-0.259592	-130.375563
6.850000	-0.263543	-131.253339	-41.288488	24.428929	-41.288488	24.428929	-0.263589	-131.255345
6.900000	-0.267653	-132.135935	-41.129576	22.811127	-41.129576	22.811127	-0.267701	-132.138054
6.950000	-0.271839	-133.020620	-40.970928	21.188205	-40.970928	21.188205	-0.271890	-133.022870
7.000000	-0.276114	-133.907776	-40.812117	19.559231	-40.812117	19.559231	-0.276168	-133.910174
7.050000	-0.280527	-134.799077	-40.651298	17.918712	-40.651298	17.918712	-0.280585	-134.801659
7.100000	-0.284995	-135.691974	-40.491569	16.273754	-40.491569	16.273754	-0.285057	-135.694752
7.150000	-0.289688	-136.592008	-40.326653	14.606208	-40.326653	14.606208	-0.289756	-136.595042
7.200000	-0.294456	-137.494436	-40.162105	12.930089	-40.162105	12.930089	-0.294532	-137.497749
7.250000	-0.299437	-138.403746	-39.992981	11.229205	-39.992981	11.229205	-0.299522	-138.407400
7.300000	-0.304606	-139.319094	-39.820291	9.503598	-39.820291	9.503598	-0.304703	-139.323148
7.350000	-0.309954	-140.240156	-39.644666	7.754604	-39.644666	7.754604	-0.310064	-140.244665
7.400000	-0.315680	-141.173097	-39.459070	5.950243	-39.459070	5.950243	-0.315809	-141.178188
7.450000	-0.321545	-142.110278	-39.272605	4.125579	-39.272605	4.125579	-0.321696	-142.115996
7.500000	-0.328063	-143.066871	-39.067765	2.197819	-39.067765	2.197819	-0.328246	-143.073443
7.550000	-0.334892	-144.031891	-38.857525	0.219001	-38.857525	0.219001	-0.335112	-144.039426
7.600000	-0.342422	-145.016061	-38.629833	-1.875856	-38.629833	-1.875856	-0.342693	-145.024809
7.650000	-0.350854	-146.022344	-38.380652	-4.123785	-38.380652	-4.123785	-0.351195	-146.032628
7.700000	-0.359972	-147.045347	-38.118398	-6.487450	-38.118398	-6.487450	-0.360398	-147.057412
7.750000	-0.370594	-148.101451	-37.822466	-9.106188	-37.822466	-9.106188	-0.371142	-148.115837
7.800000	-0.383434	-149.201991	-37.479280	-12.095796	-37.479280	-12.095796	-0.384163	-149.219485
7.850000	-0.399273	-150.355902	-37.078201	-15.571061	-37.078201	-15.571061	-0.400270	-150.377545
7.900000	-0.418967	-151.571504	-36.611096	-19.646462	-36.611096	-19.646462	-0.420356	-151.598602
7.950000	-0.445723	-152.885825	-36.028939	-24.754435	-36.028939	-24.754435	-0.447755	-152.920669
8.000000	-0.483631	-154.332374	-35.288732	-31.346105	-35.288732	-31.346105	-0.486747	-154.378341
8.050000	-0.541998	-155.977300	-34.296862	-40.312633	-34.296862	-40.312633	-0.547111	-156.039926
8.100000	-0.640051	-157.917989	-32.905785	-53.053331	-32.905785	-53.053331	-0.649175	-158.006000
8.150000	-0.826421	-160.304071	-30.844744	-72.074463	-30.844744	-72.074463	-0.844663	-160.429435
8.200000	-1.238551	-163.182841	-27.712167	-101.811944	-27.712167	-101.811944	-1.280562	-163.339801
8.250000	-2.197263	-164.842573	-23.506361	-149.538098	-23.506361	-149.538098	-2.295949	-164.795941
8.300000	-3.255555	-158.713605	-20.364690	142.319234	-20.364690	142.319234	-3.319062	-157.727035
8.350000	-3.020691	-149.855960	-20.506698	73.343115	-20.506698	73.343115	-2.917832	-149.208755
8.400000	-1.953502	-146.502465	-23.357925	21.592763	-23.357925	21.592763	-1.874676	-146.564711
8.450000	-1.211437	-148.416377	-26.839241	-8.012156	-26.839241	-8.012156	-1.176598	-148.568568
8.500000	-0.872522	-150.965861	-29.664329	-23.502695	-29.664329	-23.502695	-0.856003	-151.085049
8.550000	-0.710398	-153.148099	-31.739498	-31.761709	-31.739498	-31.761709	-0.701500	-153.234484
8.600000	-0.624752	-154.980776	-33.226071	-36.318200	-33.226071	-36.318200	-0.619417	-155.044366
8.650000	-0.576023	-156.566876	-34.279476	-38.950996	-34.279476	-38.950996	-0.572534	-156.615118
8.700000	-0.546302	-157.990554	-35.036892	-40.630966	-35.036892	-40.630966	-0.543878	-158.028094
8.750000	-0.528090	-159.296413	-35.570849	-41.816604	-35.570849	-41.816604	-0.526307	-159.326379
8.800000	-0.516950	-160.518075	-35.945492	-42.783245	-35.945492	-42.783245	-0.515576	-160.542529
8.850000	-0.510017	-161.683851	-36.216979	-43.675219	-36.216979	-43.675219	-0.508924	-161.704069
8.900000	-0.506135	-162.805424	-36.408301	-44.554277	-36.408301	-44.554277	-0.505240	-162.822356
8.950000	-0.504424	-163.893161	-36.540307	-45.454843	-36.540307	-45.454843	-0.503671	-163.907496
9.000000	-0.504725	-164.947331	-36.616121	-46.408982	-36.616121	-46.408982	-0.504069	-164.959713
9.050000	-0.505487	-165.993606	-36.679475	-47.379728	-36.679475	-47.379728	-0.504917	-166.004181
9.100000	-0.507727	-167.013823	-36.702026	-48.419803	-36.702026	-48.419803	-0.507213	-167.023063
9.150000	-0.510357	-168.027100	-36.714431	-49.484905	-36.714431	-49.484905	-0.509892	-168.035127
9.200000	-0.513677	-169.028099	-36.708800	-50.594287	-36.708800	-50.594287	-0.513250	-169.035128
9.250000	-0.517468	-170.021094	-36.691853	-51.740169	-36.691853	-51.740169	-0.517070	-170.027268
9.300000	-0.521542	-171.009288	-36.668169	-52.907951	-36.668169	-52.907951	-0.521170	-171.014691
9.350000	-0.526105	-171.990061	-36.633986	-54.118550	-36.633986	-54.118550	-0.525753	-171.994833
9.400000	-0.530795	-172.969123	-36.597409	-55.340561	-36.597409	-55.340561	-0.530461	-172.973298
9.450000	-0.535841	-173.943836	-36.554282	-56.596179	-36.554282	-56.596179	-0.535520	-173.947509
9.500000	-0.541027	-174.917411	-36.509152	-57.865515	-36.509152	-57.865515	-0.540718	-174.920615
9.550000	-0.546408	-175.889392	-36.461171	-59.154057	-36.461171	-59.154057	-0.546109	-175.892174
9.600000	-0.551974	-176.860771	-36.411065	-60.461440	-36.411065	-60.461440	-0.551683	-176.863171
9.650000	-0.557628	-177.831868	-36.360131	-61.777668	-36.360131	-61.777668	-0.557345	-177.833904
9.700000	-0.563497	-178.803508	-36.307390	-63.116223	-36.307390	-63.116223	-0.563220	-178.805221
9.750000	-0.569422	-179.775549	-36.254577	-64.460366	-36.254577	-64.460366	-0.569151	-179.776947
9.800000	-0.575501	179.251016	-36.201069	-65.820755	-36.201069	-65.820755	-0.575235	179.249909
9.850000	-0.581663	178.276284	-36.147624	-67.189690	-36.147624	-67.189690	-0.581402	178.275457
9.900000	-0.587916	177.300102	-36.094212	-68.568178	-36.094212	-68.568178	-0.587659	177.299543
9.950000	-0.594282	176.321282	-36.041141	-69.958591	-36.041141	-69.958591	-0.594029	176.320982
10.000000	-0.600691	175.341516	-35.988398	-71.353279	-35.988398	-71.353279	-0.600441	175.341471
