! freq	dB(S11)	phase(S11)	dB(S12)	phase(S12)	
!     	dB(S21)	phase(S21)	dB(S22)	phase(S22)	
!S-par simulation data
#  GHz  S  DB  R 50
0.000000	-0.000000	0.000000	-338.823752	0.000000	-338.823752	0.000000	-0.000000	0.000000
0.050000	-0.000081	-0.773092	-109.698842	24.431750	-109.698842	24.431750	-0.000081	-0.773090
0.100000	-0.000322	-1.546018	-108.145624	39.728485	-108.145624	39.728485	-0.000322	-1.546014
0.150000	-0.000720	-2.318605	-106.431961	50.145019	-106.431961	50.145019	-0.000720	-2.318600
0.200000	-0.001255	-3.090743	-104.874316	57.162490	-104.874316	57.162490	-0.001254	-3.090736
0.250000	-0.001918	-3.862299	-103.532550	61.940545	-103.532550	61.940545	-0.001918	-3.862290
0.300000	-0.002708	-4.633094	-102.407548	65.233406	-102.407548	65.233406	-0.002707	-4.633085
0.350000	-0.003588	-5.403169	-101.468810	67.763523	-101.468810	67.763523	-0.003588	-5.403159
0.400000	-0.004558	-6.172350	-100.702914	69.724125	-100.702914	69.724125	-0.004557	-6.172339
0.450000	-0.005594	-6.940668	-100.084653	71.388174	-100.084653	71.388174	-0.005593	-6.940657
0.500000	-0.006684	-7.708062	-99.604405	72.899026	-99.604405	72.899026	-0.006683	-7.708051
0.550000	-0.007814	-8.474528	-99.252269	74.392245	-99.252269	74.392245	-0.007813	-8.474516
0.600000	-0.008972	-9.240065	-99.022376	75.990583	-99.022376	75.990583	-0.008971	-9.240053
0.650000	-0.010148	-10.004683	-98.911350	77.822567	-98.911350	77.822567	-0.010146	-10.004671
0.700000	-0.011332	-10.768398	-98.917271	80.037555	-98.917271	80.037555	-0.011330	-10.768386
0.750000	-0.012517	-11.531227	-99.037980	82.822670	-99.037980	82.822670	-0.012516	-11.531215
0.800000	-0.013698	-12.293191	-99.267905	86.422627	-99.267905	86.422627	-0.013697	-12.293179
0.850000	-0.014868	-13.054169	-99.591186	91.483861	-99.591186	91.483861	-0.014866	-13.054157
0.900000	-0.016024	-13.814286	-99.971875	98.165472	-99.971875	98.165472	-0.016023	-13.814273
0.950000	-0.017174	-14.573986	-100.297669	105.952836	-100.297669	105.952836	-0.017172	-14.573973
1.000000	-0.018298	-15.332437	-100.414289	117.057460	-100.414289	117.057460	-0.018297	-15.332424
1.050000	-0.019418	-16.090617	-100.366583	128.461211	-100.366583	128.461211	-0.019417	-16.090604
1.100000	-0.020508	-16.847447	-99.538114	141.360595	-99.538114	141.360595	-0.020507	-16.847433
1.150000	-0.021596	-17.604144	-98.691610	153.948901	-98.691610	153.948901	-0.021595	-17.604129
1.200000	-0.022654	-18.359371	-97.060888	163.115360	-97.060888	163.115360	-0.022653	-18.359356
1.250000	-0.023712	-19.114598	-95.688467	172.281818	-95.688467	172.281818	-0.023712	-19.114582
1.300000	-0.024748	-19.868620	-94.063028	178.085956	-94.063028	178.085956	-0.024747	-19.868603
1.350000	-0.025771	-20.621866	-92.486954	-177.690312	-92.486954	-177.690312	-0.025770	-20.621849
1.400000	-0.026783	-21.374329	-90.987650	-174.655778	-90.987650	-174.655778	-0.026782	-21.374310
1.450000	-0.027784	-22.125999	-89.572526	-172.510980	-89.572526	-172.510980	-0.027783	-22.125979
1.500000	-0.028776	-22.876866	-88.239813	-171.036710	-88.239813	-171.036710	-0.028776	-22.876844
1.550000	-0.029760	-23.626917	-86.984014	-170.074421	-86.984014	-170.074421	-0.029760	-23.626895
1.600000	-0.030737	-24.376141	-85.798483	-169.509069	-85.798483	-169.509069	-0.030737	-24.376117
1.650000	-0.031709	-25.124523	-84.676574	-169.256299	-84.676574	-169.256299	-0.031709	-25.124498
1.700000	-0.032674	-25.871743	-83.586889	-169.318468	-83.586889	-169.318468	-0.032674	-25.871717
1.750000	-0.033638	-26.618511	-82.585524	-169.493762	-82.585524	-169.493762	-0.033638	-26.618483
1.800000	-0.034598	-27.364191	-81.615661	-169.857786	-81.615661	-169.857786	-0.034598	-27.364162
1.850000	-0.035557	-28.109094	-80.697035	-170.356617	-80.697035	-170.356617	-0.035557	-28.109063
1.900000	-0.036514	-28.853029	-79.813953	-170.967516	-79.813953	-170.967516	-0.036514	-28.852996
1.950000	-0.037470	-29.595995	-78.964933	-171.690482	-78.964933	-171.690482	-0.037471	-29.595961
2.000000	-0.038427	-30.338125	-78.153982	-172.480882	-78.153982	-172.480882	-0.038428	-30.338089
2.050000	-0.039385	-31.079083	-77.364252	-173.365690	-77.364252	-173.365690	-0.039385	-31.079046
2.100000	-0.040344	-31.819348	-76.614190	-174.290783	-76.614190	-174.290783	-0.040344	-31.819309
2.150000	-0.041306	-32.558227	-75.875611	-175.296447	-75.875611	-175.296447	-0.041306	-32.558186
2.200000	-0.042269	-33.296567	-75.177673	-176.325298	-75.177673	-176.325298	-0.042269	-33.296525
2.250000	-0.043236	-34.033295	-74.483750	-177.423710	-74.483750	-177.423710	-0.043236	-34.033251
2.300000	-0.044205	-34.769652	-73.830985	-178.534249	-73.830985	-178.534249	-0.044205	-34.769607
2.350000	-0.045180	-35.504160	-73.176462	-179.705425	-73.176462	-179.705425	-0.045181	-35.504113
2.400000	-0.046157	-36.238477	-72.563275	179.118557	-72.563275	179.118557	-0.046157	-36.238428
2.450000	-0.047141	-36.970699	-71.943841	177.889271	-71.943841	177.889271	-0.047142	-36.970649
2.500000	-0.048126	-37.702921	-71.365657	176.659985	-71.365657	176.659985	-0.048126	-37.702869
2.550000	-0.049122	-38.432793	-70.777733	175.383634	-70.777733	175.383634	-0.049122	-38.432739
2.600000	-0.050118	-39.162665	-70.227093	174.107283	-70.227093	174.107283	-0.050118	-39.162609
2.650000	-0.051125	-39.890328	-69.671339	172.795606	-69.671339	172.795606	-0.051125	-39.890270
2.700000	-0.052133	-40.617789	-69.145774	171.480717	-69.145774	171.480717	-0.052133	-40.617730
2.750000	-0.053152	-41.343195	-68.618923	170.139316	-68.618923	170.139316	-0.053152	-41.343133
2.800000	-0.054173	-42.068189	-68.116315	168.792612	-68.116315	168.792612	-0.054173	-42.068126
2.850000	-0.055206	-42.791291	-67.615597	167.426099	-67.615597	167.426099	-0.055206	-42.791227
2.900000	-0.056242	-43.513764	-67.134110	166.052982	-67.134110	166.052982	-0.056241	-43.513697
2.950000	-0.057288	-44.234521	-66.657148	164.665196	-66.657148	164.665196	-0.057288	-44.234453
3.000000	-0.058339	-44.954421	-66.195179	163.270075	-66.195179	163.270075	-0.058339	-44.954351
3.050000	-0.059401	-45.672793	-65.739918	161.864246	-65.739918	161.864246	-0.059401	-45.672721
3.100000	-0.060469	-46.390074	-65.296053	160.450770	-65.296053	160.450770	-0.060469	-46.390000
3.150000	-0.061546	-47.106023	-64.860700	159.029642	-64.860700	159.029642	-0.061546	-47.105947
3.200000	-0.062632	-47.820641	-64.433685	157.600864	-64.433685	157.600864	-0.062632	-47.820563
3.250000	-0.063726	-48.534132	-64.016666	156.166784	-64.016666	156.166784	-0.063726	-48.534053
3.300000	-0.064831	-49.246047	-63.605377	154.725283	-63.605377	154.725283	-0.064831	-49.245965
3.350000	-0.065943	-49.957048	-63.205299	153.280273	-63.205299	153.280273	-0.065942	-49.956965
3.400000	-0.067068	-50.666223	-62.808723	151.828242	-62.808723	151.828242	-0.067067	-50.666138
3.450000	-0.068198	-51.374705	-62.424348	150.374048	-62.424348	150.374048	-0.068198	-51.374617
3.500000	-0.069344	-52.081107	-62.041568	148.913361	-62.041568	148.913361	-0.069344	-52.081017
3.550000	-0.070494	-52.787041	-61.671789	147.451499	-61.671789	147.451499	-0.070494	-52.786949
3.600000	-0.071663	-53.490640	-61.301970	145.983759	-61.301970	145.983759	-0.071663	-53.490546
3.650000	-0.072834	-54.194002	-60.945790	144.515547	-60.945790	144.515547	-0.072834	-54.193906
3.700000	-0.074027	-54.894771	-60.588166	143.042128	-60.588166	143.042128	-0.074027	-54.894673
3.750000	-0.075220	-55.595539	-60.244687	141.568710	-60.244687	141.568710	-0.075220	-55.595439
3.800000	-0.076438	-56.293454	-59.898557	140.090786	-59.898557	140.090786	-0.076438	-56.293352
3.850000	-0.077657	-56.991369	-59.565693	138.612862	-59.565693	138.612862	-0.077656	-56.991265
3.900000	-0.078900	-57.686650	-59.231678	137.131724	-59.231678	137.131724	-0.078899	-57.686543
3.950000	-0.080145	-58.381691	-58.908857	135.650293	-58.908857	135.650293	-0.080144	-58.381581
4.000000	-0.081414	-59.074322	-58.586190	134.166645	-58.586190	134.166645	-0.081413	-59.074210
4.050000	-0.082687	-59.766472	-58.272880	132.682552	-58.272880	132.682552	-0.082687	-59.766357
4.100000	-0.083983	-60.456442	-57.960861	131.196994	-57.960861	131.196994	-0.083982	-60.456325
4.150000	-0.085287	-61.145685	-57.656569	129.710948	-57.656569	129.710948	-0.085286	-61.145566
4.200000	-0.086611	-61.832984	-57.354559	128.223989	-57.354559	128.223989	-0.086611	-61.832861
4.250000	-0.087946	-62.519310	-57.058824	126.736574	-57.058824	126.736574	-0.087946	-62.519185
4.300000	-0.089301	-63.203929	-56.766237	125.248639	-56.766237	125.248639	-0.089300	-63.203801
4.350000	-0.090670	-63.887328	-56.478631	123.760333	-56.478631	123.760333	-0.090669	-63.887198
4.400000	-0.092056	-64.569262	-56.194930	122.271771	-56.194930	122.271771	-0.092055	-64.569129
4.450000	-0.093460	-65.249730	-55.915056	120.782955	-55.915056	120.782955	-0.093459	-65.249594
4.500000	-0.094879	-65.928974	-55.639747	119.294050	-55.639747	119.294050	-0.094878	-65.928835
4.550000	-0.096320	-66.606506	-55.367235	117.805020	-55.367235	117.805020	-0.096319	-66.606364
4.600000	-0.097773	-67.283059	-55.099864	116.315992	-55.099864	116.315992	-0.097773	-67.282915
4.650000	-0.099253	-67.957655	-54.834368	114.826970	-54.834368	114.826970	-0.099252	-67.957508
4.700000	-0.100743	-68.631517	-54.574517	113.337990	-54.574517	113.337990	-0.100742	-68.631367
4.750000	-0.102263	-69.303179	-54.315718	111.849133	-54.315718	111.849133	-0.102262	-69.303025
4.800000	-0.103791	-69.974352	-54.063003	110.360322	-54.063003	110.360322	-0.103790	-69.974196
4.850000	-0.105353	-70.643084	-53.810605	108.871735	-53.810605	108.871735	-0.105353	-70.642924
4.900000	-0.106920	-71.311572	-53.564670	107.383175	-53.564670	107.383175	-0.106919	-71.311409
4.950000	-0.108528	-71.977381	-53.318400	105.894917	-53.318400	105.894917	-0.108527	-71.977215
5.000000	-0.110135	-72.643190	-53.078919	104.406658	-53.078919	104.406658	-0.110134	-72.643021
5.050000	-0.111789	-73.306086	-52.838523	102.918750	-52.838523	102.918750	-0.111788	-73.305913
5.100000	-0.113443	-73.968981	-52.604601	101.430843	-52.604601	101.430843	-0.113442	-73.968805
5.150000	-0.115142	-74.629217	-52.370441	99.943254	-52.370441	99.943254	-0.115141	-74.629037
5.200000	-0.116844	-75.289211	-52.141864	98.455694	-52.141864	98.455694	-0.116843	-75.289028
5.250000	-0.118588	-75.946798	-51.913663	96.968405	-51.913663	96.968405	-0.118587	-75.946612
5.300000	-0.120341	-76.603904	-51.690234	95.481171	-51.690234	95.481171	-0.120340	-76.603714
5.350000	-0.122133	-77.258856	-51.467737	93.994157	-51.467737	93.994157	-0.122132	-77.258663
5.400000	-0.123938	-77.913091	-51.249277	92.507216	-51.249277	92.507216	-0.123937	-77.912895
5.450000	-0.125779	-78.565424	-51.032248	91.020448	-51.032248	91.020448	-0.125778	-78.565224
5.500000	-0.127638	-79.216806	-50.818594	89.533767	-50.818594	89.533767	-0.127637	-79.216603
5.550000	-0.129530	-79.866536	-50.606818	88.047220	-50.606818	88.047220	-0.129529	-79.866329
5.600000	-0.131445	-80.515086	-50.397817	86.560768	-50.397817	86.560768	-0.131444	-80.514876
5.650000	-0.133389	-81.162232	-50.191096	85.074424	-50.191096	85.074424	-0.133387	-81.162019
5.700000	-0.135362	-81.807974	-49.986611	83.588186	-49.986611	83.588186	-0.135360	-81.807757
5.750000	-0.137359	-82.452556	-49.784761	82.102036	-49.784761	82.102036	-0.137358	-82.452336
5.800000	-0.139392	-83.095515	-49.584667	80.616012	-49.584667	80.616012	-0.139390	-83.095291
5.850000	-0.141445	-83.737555	-49.387521	79.130067	-49.387521	79.130067	-0.141443	-83.737327
5.900000	-0.143538	-84.377758	-49.191702	77.644282	-49.191702	77.644282	-0.143537	-84.377527
5.950000	-0.145648	-85.017279	-48.999102	76.158569	-48.999102	76.158569	-0.145646	-85.017045
6.000000	-0.147805	-85.654756	-48.807454	74.673076	-48.807454	74.673076	-0.147803	-85.654519
6.050000	-0.149972	-86.291785	-48.619255	73.187646	-48.619255	73.187646	-0.149970	-86.291544
6.100000	-0.152193	-86.926568	-48.431680	71.702531	-48.431680	71.702531	-0.152192	-86.926324
6.150000	-0.154421	-87.561130	-48.247747	70.217457	-48.247747	70.217457	-0.154419	-87.560882
6.200000	-0.156708	-88.193254	-48.064152	68.732843	-48.064152	68.732843	-0.156706	-88.193003
6.250000	-0.158996	-88.825377	-47.884357	67.248229	-47.884357	67.248229	-0.158994	-88.825123
6.300000	-0.161351	-89.454878	-47.704657	65.764277	-47.704657	65.764277	-0.161349	-89.454621
6.350000	-0.163706	-90.084379	-47.528599	64.280324	-47.528599	64.280324	-0.163704	-90.084118
6.400000	-0.166125	-90.711510	-47.352992	62.797161	-47.352992	62.797161	-0.166123	-90.711247
6.450000	-0.168549	-91.338427	-47.180594	61.314070	-47.180594	61.314070	-0.168547	-91.338159
6.500000	-0.171032	-91.963223	-47.008961	59.831896	-47.008961	59.831896	-0.171030	-91.962952
6.550000	-0.173528	-92.587595	-46.840147	58.349905	-46.840147	58.349905	-0.173525	-92.587321
6.600000	-0.176076	-93.210092	-46.672374	56.868949	-46.672374	56.868949	-0.176074	-93.209815
6.650000	-0.178643	-93.831964	-46.507068	55.388338	-46.507068	55.388338	-0.178641	-93.831683
6.700000	-0.181259	-94.452198	-46.343041	53.908856	-46.343041	53.908856	-0.181257	-94.451915
6.750000	-0.183899	-95.071615	-46.181166	52.429938	-46.181166	52.429938	-0.183897	-95.071328
6.800000	-0.186582	-95.689626	-46.020772	50.952211	-46.020772	50.952211	-0.186580	-95.689336
6.850000	-0.189296	-96.306635	-45.862248	49.475334	-45.862248	49.475334	-0.189295	-96.306341
6.900000	-0.192048	-96.922464	-45.705375	47.999666	-45.705375	47.999666	-0.192047	-96.922167
6.950000	-0.194838	-97.537114	-45.550116	46.525207	-45.550116	46.525207	-0.194836	-97.536814
7.000000	-0.197660	-98.150804	-45.396650	45.051921	-45.396650	45.051921	-0.197658	-98.150500
7.050000	-0.200526	-98.763148	-45.244565	43.580278	-45.244565	43.580278	-0.200524	-98.762841
7.100000	-0.203418	-99.374742	-45.094391	42.109712	-45.094391	42.109712	-0.203417	-99.374432
7.150000	-0.206362	-99.984836	-44.945381	40.641301	-44.945381	40.641301	-0.206360	-99.984522
7.200000	-0.209325	-100.594380	-44.798380	39.173804	-44.798380	39.173804	-0.209324	-100.594063
7.250000	-0.212347	-101.202279	-44.652338	37.709050	-44.652338	37.709050	-0.212346	-101.201958
7.300000	-0.215383	-101.809822	-44.508388	36.244976	-44.508388	36.244976	-0.215382	-101.809497
7.350000	-0.218484	-102.415586	-44.365197	34.784303	-44.365197	34.784303	-0.218483	-102.415257
7.400000	-0.221592	-103.021176	-44.224171	33.324005	-44.224171	33.324005	-0.221591	-103.020844
7.450000	-0.224773	-103.624867	-44.083704	31.867830	-44.083704	31.867830	-0.224772	-103.624530
7.500000	-0.227955	-104.228557	-43.945472	30.411655	-43.945472	30.411655	-0.227955	-104.228216
7.550000	-0.231217	-104.830238	-43.807590	28.960375	-43.807590	28.960375	-0.231216	-104.829893
7.600000	-0.234480	-105.431919	-43.671862	27.509095	-43.671862	27.509095	-0.234479	-105.431569
7.650000	-0.237816	-106.031820	-43.536568	26.062641	-43.536568	26.062641	-0.237816	-106.031465
7.700000	-0.241161	-106.631559	-43.403200	24.616625	-43.403200	24.616625	-0.241160	-106.631200
7.750000	-0.244572	-107.229737	-43.270333	23.175271	-43.270333	23.175271	-0.244572	-107.229373
7.800000	-0.247999	-107.827603	-43.139169	21.734849	-43.139169	21.734849	-0.247998	-107.827234
7.850000	-0.251486	-108.424118	-43.008563	20.298832	-43.008563	20.298832	-0.251486	-108.423743
7.900000	-0.254995	-109.020183	-42.879434	18.864284	-42.879434	18.864284	-0.254995	-109.019803
7.950000	-0.258559	-109.615098	-42.750916	17.433795	-42.750916	17.433795	-0.258559	-109.614711
8.000000	-0.262152	-110.209436	-42.623641	16.005338	-42.623641	16.005338	-0.262151	-110.209044
8.050000	-0.265792	-110.802814	-42.497033	14.580518	-42.497033	14.580518	-0.265792	-110.802415
8.100000	-0.269468	-111.395504	-42.371419	13.158297	-42.371419	13.158297	-0.269468	-111.395099
8.150000	-0.273186	-111.987410	-42.246535	11.739225	-42.246535	11.739225	-0.273186	-111.986998
8.200000	-0.276947	-112.578532	-42.122376	10.323303	-42.122376	10.323303	-0.276946	-112.578113
8.250000	-0.280743	-113.169035	-41.999026	8.909993	-41.999026	8.909993	-0.280742	-113.168608
8.300000	-0.284588	-113.758672	-41.876105	7.500338	-41.876105	7.500338	-0.284586	-113.758237
8.350000	-0.288462	-114.347842	-41.754093	6.092726	-41.754093	6.092726	-0.288460	-114.347400
8.400000	-0.292392	-114.936080	-41.632180	4.689201	-41.632180	4.689201	-0.292390	-114.935629
8.450000	-0.296344	-115.523990	-41.511304	3.287144	-41.511304	3.287144	-0.296342	-115.523530
8.500000	-0.300360	-116.110918	-41.390160	1.889494	-41.390160	1.889494	-0.300357	-116.110449
8.550000	-0.304392	-116.697644	-41.270214	0.492760	-41.270214	0.492760	-0.304388	-116.697165
8.600000	-0.308494	-117.283354	-41.149588	-0.899397	-41.149588	-0.899397	-0.308489	-117.282865
8.650000	-0.312604	-117.868971	-41.030361	-2.291140	-41.030361	-2.291140	-0.312599	-117.868472
8.700000	-0.316793	-118.453560	-40.909993	-3.678326	-40.909993	-3.678326	-0.316787	-118.453050
8.750000	-0.320984	-119.038149	-40.791270	-5.065512	-40.791270	-5.065512	-0.320976	-119.037628
8.800000	-0.325259	-119.621714	-40.670889	-6.448402	-40.670889	-6.448402	-0.325251	-119.621181
8.850000	-0.329537	-120.205280	-40.552153	-7.831291	-40.552153	-7.831291	-0.329527	-120.204735
8.900000	-0.333893	-120.788001	-40.431779	-9.211013	-40.431779	-9.211013	-0.333882	-120.787444
8.950000	-0.338259	-121.370646	-40.312759	-10.590447	-40.312759	-10.590447	-0.338246	-121.370076
9.000000	-0.342696	-121.952612	-40.192154	-11.967851	-40.192154	-11.967851	-0.342681	-121.952028
9.050000	-0.347149	-122.534441	-40.072571	-13.344849	-40.072571	-13.344849	-0.347133	-122.533843
9.100000	-0.351668	-123.115742	-39.951497	-14.720932	-39.951497	-14.720932	-0.351649	-123.115129
9.150000	-0.356211	-123.696866	-39.831063	-16.096711	-39.831063	-16.096711	-0.356189	-123.696239
9.200000	-0.360812	-124.277594	-39.709280	-17.472632	-39.709280	-17.472632	-0.360788	-124.276952
9.250000	-0.365444	-124.858126	-39.587702	-18.848624	-39.587702	-18.848624	-0.365417	-124.857468
9.300000	-0.370128	-125.438379	-39.464968	-20.225712	-39.464968	-20.225712	-0.370097	-125.437705
9.350000	-0.374849	-126.018435	-39.341948	-21.603583	-39.341948	-21.603583	-0.374816	-126.017744
9.400000	-0.379617	-126.598312	-39.218023	-22.983358	-39.218023	-22.983358	-0.379579	-126.597605
9.450000	-0.384429	-127.178013	-39.093257	-24.365035	-39.093257	-24.365035	-0.384388	-127.177288
9.500000	-0.389281	-127.757618	-38.967903	-25.749220	-38.967903	-25.749220	-0.389235	-127.756875
9.550000	-0.394185	-128.337088	-38.841085	-27.136918	-38.841085	-27.136918	-0.394135	-128.336327
9.600000	-0.399121	-128.916525	-38.714066	-28.527466	-38.714066	-28.527466	-0.399066	-128.915746
9.650000	-0.404119	-129.495895	-38.584889	-29.923717	-38.584889	-29.923717	-0.404058	-129.495097
9.700000	-0.409140	-130.075273	-38.455975	-31.322829	-38.455975	-31.322829	-0.409074	-130.074457
9.750000	-0.414231	-130.654676	-38.324132	-32.730524	-38.324132	-32.730524	-0.414159	-130.653840
9.800000	-0.419340	-131.234108	-38.193098	-34.140676	-38.193098	-34.140676	-0.419261	-131.233252
9.850000	-0.424526	-131.813682	-38.058290	-35.563110	-38.058290	-35.563110	-0.424439	-131.812807
9.900000	-0.429722	-132.393283	-37.924922	-36.987084	-37.924922	-36.987084	-0.429628	-132.392388
9.950000	-0.435004	-132.973172	-37.786858	-38.428000	-37.786858	-38.428000	-0.434902	-132.972257
10.000000	-0.440289	-133.553061	-37.650953	-39.868917	-37.650953	-39.868917	-0.440179	-133.552126
