! freq	dB(S11)	phase(S11)	dB(S12)	phase(S12)	
!     	dB(S21)	phase(S21)	dB(S22)	phase(S22)	
!S-par simulation data
#  GHz  S  DB  R 50
0.000000	-0.000000	0.000000	-384.943013	0.000000	-384.943013	0.000000	-0.000000	0.000000
0.050000	-0.000132	-1.057692	-111.370780	83.441073	-111.370780	83.441073	-0.000097	-0.760281
0.100000	-0.000524	-2.115049	-105.985028	79.306023	-105.985028	79.306023	-0.000386	-1.520326
0.150000	-0.001159	-3.171758	-103.111486	77.452543	-103.111486	77.452543	-0.000853	-2.279920
0.200000	-0.002012	-4.227558	-101.161279	76.824632	-101.161279	76.824632	-0.001480	-3.038886
0.250000	-0.003069	-5.282151	-99.688346	76.733720	-99.688346	76.733720	-0.002252	-3.797025
0.300000	-0.004278	-6.335471	-98.510525	76.805090	-98.510525	76.805090	-0.003135	-4.554307
0.350000	-0.005618	-7.387352	-97.554034	76.938595	-97.554034	76.938595	-0.004109	-5.310634
0.400000	-0.007059	-8.437718	-96.775666	77.103354	-96.775666	77.103354	-0.005153	-6.065973
0.450000	-0.008572	-9.486528	-96.149378	77.312587	-96.149378	77.312587	-0.006247	-6.820320
0.500000	-0.010134	-10.533773	-95.658583	77.601029	-95.658583	77.601029	-0.007373	-7.573690
0.550000	-0.011726	-11.579463	-95.292658	78.017260	-95.292658	78.017260	-0.008517	-8.326113
0.600000	-0.013329	-12.623620	-95.045132	78.623177	-95.045132	78.623177	-0.009668	-9.077623
0.650000	-0.014933	-13.666274	-94.912560	79.497611	-94.912560	79.497611	-0.010819	-9.828262
0.700000	-0.016528	-14.707452	-94.893592	80.743351	-94.893592	80.743351	-0.011961	-10.578066
0.750000	-0.018107	-15.747182	-94.987837	82.497958	-94.987837	82.497958	-0.013093	-11.327070
0.800000	-0.019667	-16.785487	-95.193921	84.949123	-95.193921	84.949123	-0.014211	-12.075304
0.850000	-0.021204	-17.822380	-95.505694	88.354296	-95.505694	88.354296	-0.015313	-12.822793
0.900000	-0.022717	-18.857872	-95.904695	93.058946	-95.904695	93.058946	-0.016401	-13.569556
0.950000	-0.024206	-19.891964	-96.346144	99.491279	-96.346144	99.491279	-0.017472	-14.315607
1.000000	-0.025673	-20.924653	-96.737642	108.075373	-96.737642	108.075373	-0.018530	-15.060954
1.050000	-0.027118	-21.955929	-96.922436	118.972348	-96.922436	118.972348	-0.019573	-15.805602
1.100000	-0.028542	-22.985776	-96.707118	131.654683	-96.707118	131.654683	-0.020604	-16.549550
1.150000	-0.029947	-24.014177	-95.969499	144.699752	-95.969499	144.699752	-0.021624	-17.292797
1.200000	-0.031334	-25.041107	-94.762775	156.409882	-94.762775	156.409882	-0.022633	-18.035336
1.250000	-0.032706	-26.066542	-93.268967	165.813399	-93.268967	165.813399	-0.023634	-18.777159
1.300000	-0.034064	-27.090386	-91.654844	172.775629	-91.654844	172.775629	-0.024626	-19.518225
1.350000	-0.035409	-28.112672	-90.052014	177.823613	-90.052014	177.823613	-0.025611	-20.258552
1.400000	-0.036742	-29.133371	-88.512536	-178.587400	-88.512536	-178.587400	-0.026590	-20.998128
1.450000	-0.038067	-30.152448	-87.055620	-176.085292	-87.055620	-176.085292	-0.027564	-21.736939
1.500000	-0.039382	-31.169872	-85.684467	-174.392375	-85.684467	-174.392375	-0.028534	-22.474971
1.550000	-0.040691	-32.185609	-84.395294	-173.307865	-84.395294	-173.307865	-0.029500	-23.212208
1.600000	-0.041993	-33.199625	-83.181720	-172.687360	-83.181720	-172.687360	-0.030464	-23.948635
1.650000	-0.043289	-34.211887	-82.036771	-172.426302	-82.036771	-172.426302	-0.031425	-24.684238
1.700000	-0.044582	-35.222362	-80.953743	-172.448039	-80.953743	-172.448039	-0.032384	-25.418999
1.750000	-0.045870	-36.231018	-79.926526	-172.695558	-79.926526	-172.695558	-0.033342	-26.152903
1.800000	-0.047156	-37.237822	-78.949690	-173.125803	-78.949690	-173.125803	-0.034299	-26.885935
1.850000	-0.048439	-38.242744	-78.018465	-173.705779	-78.018465	-173.705779	-0.035255	-27.618078
1.900000	-0.049720	-39.245751	-77.128677	-174.409841	-77.128677	-174.409841	-0.036212	-28.349317
1.950000	-0.051001	-40.246815	-76.276676	-175.217797	-76.276676	-175.217797	-0.037168	-29.079636
2.000000	-0.052281	-41.245907	-75.459264	-176.113549	-75.459264	-176.113549	-0.038126	-29.809020
2.050000	-0.053560	-42.242997	-74.673634	-177.084117	-74.673634	-177.084117	-0.039084	-30.537454
2.100000	-0.054841	-43.238059	-73.917309	-178.118928	-73.917309	-178.118928	-0.040044	-31.264922
2.150000	-0.056122	-44.231067	-73.188098	-179.209285	-73.188098	-179.209285	-0.041005	-31.991409
2.200000	-0.057405	-45.221995	-72.484056	179.652031	-72.484056	179.652031	-0.041968	-32.716902
2.250000	-0.058690	-46.210818	-71.803447	178.471063	-71.803447	178.471063	-0.042933	-33.441386
2.300000	-0.059978	-47.197513	-71.144715	177.252904	-71.144715	177.252904	-0.043901	-34.164846
2.350000	-0.061268	-48.182058	-70.506463	176.001883	-70.506463	176.001883	-0.044872	-34.887268
2.400000	-0.062562	-49.164430	-69.887430	174.721698	-69.887430	174.721698	-0.045846	-35.608639
2.450000	-0.063860	-50.144610	-69.286475	173.415534	-69.286475	173.415534	-0.046823	-36.328946
2.500000	-0.065162	-51.122578	-68.702562	172.086144	-68.702562	172.086144	-0.047804	-37.048175
2.550000	-0.066469	-52.098218	-68.133836	170.735117	-68.133836	170.735117	-0.048789	-37.766265
2.600000	-0.067781	-53.071608	-67.580437	169.365521	-67.580437	169.365521	-0.049778	-38.483251
2.650000	-0.069099	-54.042732	-67.041565	167.979166	-67.041565	167.979166	-0.050772	-39.199119
2.700000	-0.070423	-55.011575	-66.516483	166.577653	-66.516483	166.577653	-0.051771	-39.913859
2.750000	-0.071755	-55.978123	-66.004512	165.162402	-66.004512	165.162402	-0.052775	-40.627458
2.800000	-0.073093	-56.942361	-65.505028	163.734679	-65.505028	163.734679	-0.053785	-41.339905
2.850000	-0.074439	-57.904278	-65.017451	162.295616	-65.017451	162.295616	-0.054801	-42.051188
2.900000	-0.075794	-58.863862	-64.541244	160.846227	-64.541244	160.846227	-0.055823	-42.761296
2.950000	-0.077157	-59.821104	-64.075907	159.387426	-64.075907	159.387426	-0.056851	-43.470219
3.000000	-0.078530	-60.775993	-63.620976	157.920039	-63.620976	157.920039	-0.057886	-44.177946
3.050000	-0.079912	-61.728520	-63.176017	156.444813	-63.176017	156.444813	-0.058929	-44.884467
3.100000	-0.081305	-62.678680	-62.740625	154.962425	-62.740625	154.962425	-0.059979	-45.589772
3.150000	-0.082708	-63.626465	-62.314420	153.473494	-62.314420	153.473494	-0.061037	-46.293852
3.200000	-0.084123	-64.571869	-61.897045	151.978583	-61.897045	151.978583	-0.062104	-46.996697
3.250000	-0.085550	-65.514888	-61.488167	150.478207	-61.488167	150.478207	-0.063179	-47.698298
3.300000	-0.086989	-66.455519	-61.087470	148.972840	-61.087470	148.972840	-0.064263	-48.398646
3.350000	-0.088442	-67.393758	-60.694658	147.462917	-60.694658	147.462917	-0.065356	-49.097734
3.400000	-0.089907	-68.329604	-60.309451	145.948836	-60.309451	145.948836	-0.066459	-49.795552
3.450000	-0.091387	-69.263057	-59.931585	144.430967	-59.931585	144.430967	-0.067572	-50.492093
3.500000	-0.092881	-70.194115	-59.560809	142.909651	-59.560809	142.909651	-0.068695	-51.187350
3.550000	-0.094391	-71.122781	-59.196886	141.385204	-59.196886	141.385204	-0.069829	-51.881315
3.600000	-0.095916	-72.049055	-58.839593	139.857918	-58.839593	139.857918	-0.070974	-52.573982
3.650000	-0.097457	-72.972942	-58.488714	138.328065	-58.488714	138.328065	-0.072131	-53.265343
3.700000	-0.099015	-73.894444	-58.144049	136.795897	-58.144049	136.795897	-0.073300	-53.955393
3.750000	-0.100590	-74.813566	-57.805404	135.261650	-57.805404	135.261650	-0.074480	-54.644125
3.800000	-0.102183	-75.730210	-57.472296	133.725472	-57.472296	133.725472	-0.075674	-55.331476
3.850000	-0.103795	-76.644486	-57.144871	132.187655	-57.144871	132.187655	-0.076881	-56.017497
3.900000	-0.105426	-77.556403	-56.822962	130.648391	-56.822962	130.648391	-0.078101	-56.702184
3.950000	-0.107076	-78.465966	-56.506407	129.107855	-56.506407	129.107855	-0.079335	-57.385533
4.000000	-0.108746	-79.373186	-56.195052	127.566215	-56.195052	127.566215	-0.080583	-58.067537
4.050000	-0.110436	-80.278072	-55.888751	126.023626	-55.888751	126.023626	-0.081845	-58.748194
4.100000	-0.112148	-81.180635	-55.587363	124.480234	-55.587363	124.480234	-0.083122	-59.427500
4.150000	-0.113880	-82.080886	-55.290754	122.936176	-55.290754	122.936176	-0.084415	-60.105450
4.200000	-0.115635	-82.978836	-54.998794	121.391582	-54.998794	121.391582	-0.085723	-60.782043
4.250000	-0.117412	-83.874499	-54.711360	119.846573	-54.711360	119.846573	-0.087047	-61.457273
4.300000	-0.119212	-84.767889	-54.428333	118.301263	-54.428333	118.301263	-0.088387	-62.131140
4.350000	-0.121036	-85.659020	-54.149599	116.755759	-54.149599	116.755759	-0.089744	-62.803641
4.400000	-0.122884	-86.547906	-53.875049	115.210163	-53.875049	115.210163	-0.091118	-63.474773
4.450000	-0.124756	-87.434564	-53.604578	113.664570	-53.604578	113.664570	-0.092509	-64.144536
4.500000	-0.126653	-88.319010	-53.338083	112.119071	-53.338083	112.119071	-0.093919	-64.812926
4.550000	-0.128575	-89.201261	-53.075469	110.573749	-53.075469	110.573749	-0.095346	-65.479945
4.600000	-0.130524	-90.081336	-52.816640	109.028686	-52.816640	109.028686	-0.096793	-66.145589
4.650000	-0.132499	-90.959253	-52.561507	107.483957	-52.561507	107.483957	-0.098258	-66.809860
4.700000	-0.134500	-91.835032	-52.309982	105.939634	-52.309982	105.939634	-0.099742	-67.472756
4.750000	-0.136529	-92.708691	-52.061981	104.395784	-52.061981	104.395784	-0.101247	-68.134277
4.800000	-0.138586	-93.580253	-51.817424	102.852471	-51.817424	102.852471	-0.102771	-68.794425
4.850000	-0.140671	-94.449738	-51.576232	101.309755	-51.576232	101.309755	-0.104316	-69.453199
4.900000	-0.142785	-95.317168	-51.338330	99.767694	-51.338330	99.767694	-0.105882	-70.110600
4.950000	-0.144929	-96.182565	-51.103644	98.226342	-51.103644	98.226342	-0.107470	-70.766630
5.000000	-0.147102	-97.045954	-50.872104	96.685751	-50.872104	96.685751	-0.109079	-71.421289
5.050000	-0.149306	-97.907272	-50.643516	95.146005	-50.643516	95.146005	-0.110711	-72.074521
5.100000	-0.151541	-98.766631	-50.417948	93.607119	-50.417948	93.607119	-0.112365	-72.726386
5.150000	-0.153807	-99.624056	-50.195336	92.069134	-50.195336	92.069134	-0.114043	-73.376887
5.200000	-0.156104	-100.479573	-49.975618	90.532093	-49.975618	90.532093	-0.115743	-74.026026
5.250000	-0.158434	-101.333209	-49.758735	88.996035	-49.758735	88.996035	-0.117468	-74.673806
5.300000	-0.160795	-102.184989	-49.544627	87.460996	-49.544627	87.460996	-0.119216	-75.320231
5.350000	-0.163190	-103.034940	-49.333238	85.927012	-49.333238	85.927012	-0.120989	-75.965303
5.400000	-0.165618	-103.883092	-49.124515	84.394117	-49.124515	84.394117	-0.122787	-76.609026
5.450000	-0.168091	-104.728869	-48.917618	82.862746	-48.917618	82.862746	-0.124619	-77.250938
5.500000	-0.170582	-105.573732	-48.714375	81.331972	-48.714375	81.331972	-0.126464	-77.892150
5.550000	-0.173115	-106.416523	-48.513171	79.802647	-48.513171	79.802647	-0.128341	-78.531736
5.600000	-0.175678	-107.257834	-48.314702	78.274360	-48.314702	78.274360	-0.130241	-79.170162
5.650000	-0.178278	-108.097436	-48.118566	76.747373	-48.118566	76.747373	-0.132169	-79.807205
5.700000	-0.180916	-108.935329	-47.924708	75.221689	-47.924708	75.221689	-0.134125	-80.442865
5.750000	-0.183585	-109.771854	-47.733437	73.697133	-47.733437	73.697133	-0.136106	-81.077383
5.800000	-0.186297	-110.606465	-47.544034	72.174159	-47.544034	72.174159	-0.138120	-81.710301
5.850000	-0.189036	-111.440029	-47.357438	70.652120	-47.357438	70.652120	-0.140154	-82.342314
5.900000	-0.191827	-112.271499	-47.172345	69.131952	-47.172345	69.131952	-0.142228	-82.972515
5.950000	-0.194637	-113.102219	-46.990244	67.612509	-46.990244	67.612509	-0.144318	-83.602044
6.000000	-0.197507	-113.930693	-46.809324	66.095238	-46.809324	66.095238	-0.146453	-84.229555
6.050000	-0.200390	-114.758693	-46.631550	64.578465	-46.631550	64.578465	-0.148599	-84.856623
6.100000	-0.203340	-115.584320	-46.454670	63.064175	-46.454670	63.064175	-0.150798	-85.481473
6.150000	-0.206298	-116.409722	-46.281065	61.550141	-46.281065	61.550141	-0.153002	-86.106104
6.200000	-0.209330	-117.232655	-46.108103	60.038911	-46.108103	60.038911	-0.155266	-86.728325
6.250000	-0.212363	-118.055589	-45.938517	58.527681	-45.938517	58.527681	-0.157529	-87.350546
6.300000	-0.215479	-118.875985	-45.769354	57.019585	-45.769354	57.019585	-0.159859	-87.970171
6.350000	-0.218596	-119.696381	-45.603422	55.511488	-45.603422	55.511488	-0.162190	-88.589795
6.400000	-0.221790	-120.514599	-45.438170	54.006328	-45.438170	54.006328	-0.164582	-89.207071
6.450000	-0.224993	-121.332619	-45.275788	52.501435	-45.275788	52.501435	-0.166981	-89.824134
6.500000	-0.228266	-122.148795	-45.114314	50.999267	-45.114314	50.999267	-0.169437	-90.439092
6.550000	-0.231556	-122.964602	-44.955381	49.497645	-44.955381	49.497645	-0.171906	-91.053630
6.600000	-0.234910	-123.778876	-44.797558	47.998523	-44.797558	47.998523	-0.174428	-91.666303
6.650000	-0.238288	-124.592638	-44.641980	46.500235	-44.641980	46.500235	-0.176968	-92.278355
6.700000	-0.241724	-125.405151	-44.487688	45.004212	-44.487688	45.004212	-0.179557	-92.888775
6.750000	-0.245192	-126.217040	-44.335375	43.509321	-44.335375	43.509321	-0.182170	-93.498381
6.800000	-0.248711	-127.027937	-44.184499	42.016447	-44.184499	42.016447	-0.184827	-94.106583
6.850000	-0.252269	-127.838126	-44.035366	40.525013	-44.035366	40.525013	-0.187516	-94.713784
6.900000	-0.255874	-128.647554	-43.887799	39.035338	-43.887799	39.035338	-0.190242	-95.319805
6.950000	-0.259524	-129.456221	-43.741762	37.547421	-43.741762	37.547421	-0.193007	-95.924645
7.000000	-0.263213	-130.264329	-43.597401	36.060993	-43.597401	36.060993	-0.195805	-96.528520
7.050000	-0.266957	-131.071656	-43.454384	34.576650	-43.454384	34.576650	-0.198648	-97.131045
7.100000	-0.270733	-131.878597	-43.313133	33.093517	-43.313133	33.093517	-0.201518	-97.732813
7.150000	-0.274572	-132.684766	-43.173059	31.612805	-43.173059	31.612805	-0.204441	-98.333069
7.200000	-0.278436	-133.490694	-43.034825	30.133013	-43.034825	30.133013	-0.207384	-98.932770
7.250000	-0.282370	-134.295894	-42.897624	28.655986	-42.897624	28.655986	-0.210388	-99.530805
7.300000	-0.286322	-135.100964	-42.762320	27.179583	-42.762320	27.179583	-0.213407	-100.128478
7.350000	-0.290354	-135.905386	-42.627923	25.706296	-42.627923	25.706296	-0.216494	-100.724342
7.400000	-0.294396	-136.709758	-42.495465	24.233325	-42.495465	24.233325	-0.219589	-101.320030
7.450000	-0.298526	-137.513595	-42.363807	22.763830	-42.363807	22.763830	-0.222761	-101.913774
7.500000	-0.302657	-138.317431	-42.234114	21.294336	-42.234114	21.294336	-0.225933	-102.507519
7.550000	-0.306887	-139.120879	-42.105132	19.828686	-42.105132	19.828686	-0.229191	-103.099196
7.600000	-0.311118	-139.924326	-41.978037	18.363036	-41.978037	18.363036	-0.232449	-103.690874
7.650000	-0.315439	-140.727601	-41.851763	16.900956	-41.851763	16.900956	-0.235787	-104.280706
7.700000	-0.319770	-141.530860	-41.727208	15.439201	-41.727208	15.439201	-0.239133	-104.870371
7.750000	-0.324185	-142.334131	-41.603569	13.980732	-41.603569	13.980732	-0.242553	-105.458404
7.800000	-0.328617	-143.137404	-41.481499	12.522920	-41.481499	12.522920	-0.245988	-106.046111
7.850000	-0.333125	-143.940843	-41.360425	11.068101	-41.360425	11.068101	-0.249490	-106.632392
7.900000	-0.337660	-144.744336	-41.240787	9.614280	-41.240787	9.614280	-0.253016	-107.218198
7.950000	-0.342262	-145.548116	-41.122211	8.163148	-41.122211	8.163148	-0.256602	-107.802776
8.000000	-0.346899	-146.352039	-41.004955	6.713362	-41.004955	6.713362	-0.260219	-108.386740
8.050000	-0.351596	-147.156336	-40.888813	5.265954	-40.888813	5.265954	-0.263891	-108.969664
8.100000	-0.356337	-147.960900	-40.773889	3.820245	-40.773889	3.820245	-0.267601	-109.551845
8.150000	-0.361130	-148.765893	-40.660120	2.376594	-40.660120	2.376594	-0.271359	-110.133165
8.200000	-0.365974	-149.571314	-40.547481	0.935003	-40.547481	0.935003	-0.275164	-110.713624
8.250000	-0.370863	-150.377184	-40.436027	-0.504857	-40.436027	-0.504857	-0.279009	-111.293391
8.300000	-0.375812	-151.183680	-40.325627	-1.942294	-40.325627	-1.942294	-0.282909	-111.872190
8.350000	-0.380797	-151.990609	-40.216430	-3.378334	-40.216430	-3.378334	-0.286843	-112.450457
8.400000	-0.385852	-152.798402	-40.108227	-4.811581	-40.108227	-4.811581	-0.290840	-113.027660
8.450000	-0.390934	-153.606576	-40.001234	-6.243774	-40.001234	-6.243774	-0.294863	-113.604480
8.500000	-0.396093	-154.415890	-39.895184	-7.672801	-39.895184	-7.672801	-0.298959	-114.180152
8.550000	-0.401272	-155.225496	-39.790343	-9.101121	-39.790343	-9.101121	-0.303072	-114.755579
8.600000	-0.406537	-156.036560	-39.686407	-10.525900	-39.686407	-10.525900	-0.307267	-115.329786
8.650000	-0.411814	-156.847789	-39.583669	-11.950324	-39.583669	-11.950324	-0.311472	-115.903876
8.700000	-0.417184	-157.660832	-39.481806	-13.370833	-39.481806	-13.370833	-0.315767	-116.476685
8.750000	-0.422558	-158.473876	-39.381124	-14.791341	-39.381124	-14.791341	-0.320064	-117.049494
8.800000	-0.428034	-159.289134	-39.281298	-16.207559	-39.281298	-16.207559	-0.324461	-117.620974
8.850000	-0.433513	-160.104391	-39.182605	-17.623776	-39.182605	-17.623776	-0.328860	-118.192455
8.900000	-0.439087	-160.921896	-39.084800	-19.036045	-39.084800	-19.036045	-0.333350	-118.762782
8.950000	-0.444672	-161.739605	-38.988063	-20.447955	-38.988063	-20.447955	-0.337851	-119.333004
9.000000	-0.450342	-162.559557	-38.892234	-21.856266	-38.892234	-21.856266	-0.342437	-119.902237
9.050000	-0.456032	-163.379957	-38.797420	-23.263857	-38.797420	-23.263857	-0.347041	-120.471272
9.100000	-0.461799	-164.202559	-38.703527	-24.668203	-38.703527	-24.668203	-0.351722	-121.039472
9.150000	-0.467594	-165.025894	-38.610603	-26.071468	-38.610603	-26.071468	-0.356431	-121.607393
9.200000	-0.473457	-165.851350	-38.518606	-27.471846	-38.518606	-27.471846	-0.361208	-122.174622
9.250000	-0.479356	-166.677867	-38.427544	-28.870781	-38.427544	-28.870781	-0.366021	-122.741504
9.300000	-0.485314	-167.506385	-38.337404	-30.267190	-38.337404	-30.267190	-0.370896	-123.307824
9.350000	-0.491317	-168.336333	-38.248174	-31.661796	-38.248174	-31.661796	-0.375814	-123.873743
9.400000	-0.497370	-169.168123	-38.159857	-33.054240	-38.159857	-33.054240	-0.380786	-124.439219
9.450000	-0.503474	-170.001754	-38.072432	-34.444521	-38.072432	-34.444521	-0.385811	-125.004252
9.500000	-0.509622	-170.837027	-37.985902	-35.833005	-37.985902	-35.833005	-0.390881	-125.568948
9.550000	-0.515827	-171.674598	-37.900258	-37.218972	-37.900258	-37.218972	-0.396012	-126.133173
9.600000	-0.522060	-172.513207	-37.815473	-38.603863	-37.815473	-38.603863	-0.401172	-126.697213
9.650000	-0.528355	-173.354524	-37.731571	-39.985975	-37.731571	-39.985975	-0.406400	-127.260783
9.700000	-0.534699	-174.197932	-37.648534	-41.366030	-37.648534	-41.366030	-0.411680	-127.824029
9.750000	-0.541089	-175.043490	-37.566354	-42.744032	-37.566354	-42.744032	-0.417011	-128.386971
9.800000	-0.547525	-175.891258	-37.485026	-44.119987	-37.485026	-44.119987	-0.422394	-128.949626
9.850000	-0.554008	-176.741298	-37.404544	-45.493898	-37.404544	-45.493898	-0.427828	-129.512016
9.900000	-0.560537	-177.593670	-37.324902	-46.865771	-37.324902	-46.865771	-0.433315	-130.074158
9.950000	-0.567110	-178.448436	-37.246094	-48.235611	-37.246094	-48.235611	-0.438853	-130.636072
10.000000	-0.573728	-179.305656	-37.168116	-49.603423	-37.168116	-49.603423	-0.444443	-131.197779
