! freq	dB(S11)	phase(S11)	dB(S12)	phase(S12)	
!     	dB(S21)	phase(S21)	dB(S22)	phase(S22)	
!S-par simulation data
#  GHz  S  DB  R 50
0.000000	-88.529893	0.000000	-0.000325	0.000000	-0.000325	0.000000	-88.529893	0.000000
0.050000	-31.252410	-93.239776	-0.007063	-3.058061	-0.007063	-3.058061	-31.252566	-93.241021
0.100000	-25.278111	-96.459140	-0.023114	-6.079375	-0.023114	-6.079375	-25.278200	-96.462167
0.150000	-21.810560	-99.521927	-0.044296	-9.070762	-0.044296	-9.070762	-21.810630	-99.526952
0.200000	-19.368093	-102.506594	-0.070022	-12.043685	-0.070022	-12.043685	-19.368175	-102.513544
0.250000	-17.489111	-105.453473	-0.100692	-15.000946	-0.100692	-15.000946	-17.489216	-105.462239
0.300000	-15.969238	-108.378034	-0.136492	-17.941216	-0.136492	-17.941216	-15.969364	-108.388542
0.350000	-14.700482	-111.283422	-0.177502	-20.861355	-0.177502	-20.861355	-14.700627	-111.295635
0.400000	-13.616994	-114.169439	-0.223364	-23.759291	-0.223364	-23.759291	-13.617155	-114.183341
0.450000	-12.676829	-117.033883	-0.273809	-26.632510	-0.273809	-26.632510	-12.677002	-117.049472
0.500000	-11.852292	-119.873082	-0.328673	-29.477452	-0.328673	-29.477452	-11.852475	-119.890363
0.550000	-11.121782	-122.685414	-0.387426	-32.293016	-0.387426	-32.293016	-11.121975	-122.704395
0.600000	-10.469591	-125.469201	-0.449623	-35.077973	-0.449623	-35.077973	-10.469792	-125.489894
0.650000	-9.884539	-128.221893	-0.514915	-37.830108	-0.514915	-37.830108	-9.884747	-128.244312
0.700000	-9.357266	-130.942122	-0.582846	-40.548408	-0.582846	-40.548408	-9.357481	-130.966282
0.750000	-8.879683	-133.629854	-0.652921	-43.233163	-0.652921	-43.233163	-8.879904	-133.655773
0.800000	-8.445955	-136.284060	-0.724731	-45.883575	-0.724731	-45.883575	-8.446182	-136.311754
0.850000	-8.051632	-138.903259	-0.797864	-48.498359	-0.797864	-48.498359	-8.051865	-138.932749
0.900000	-7.691600	-141.488921	-0.871872	-51.079193	-0.871872	-51.079193	-7.691838	-141.520227
0.950000	-7.362290	-144.041205	-0.946373	-53.626390	-0.946373	-53.626390	-7.362534	-144.074349
1.000000	-7.061478	-146.558726	-1.020952	-56.138696	-1.020952	-56.138696	-7.061727	-146.593732
1.050000	-6.785686	-149.043681	-1.095267	-58.618439	-1.095267	-58.618439	-6.785941	-149.080574
1.100000	-6.532557	-151.496930	-1.168991	-61.066581	-1.168991	-61.066581	-6.532818	-151.535735
1.150000	-6.300580	-153.918206	-1.241747	-63.482962	-1.241747	-63.482962	-6.300847	-153.958953
1.200000	-6.087738	-156.309009	-1.313248	-65.869167	-1.313248	-65.869167	-6.088011	-156.351726
1.250000	-5.892192	-158.671054	-1.383257	-68.226985	-1.383257	-68.226985	-5.892471	-158.715773
1.300000	-5.712803	-161.004951	-1.451473	-70.557106	-1.451473	-70.557106	-5.713089	-161.051705
1.350000	-5.548527	-163.311500	-1.517605	-72.860408	-1.517605	-72.860408	-5.548819	-163.360325
1.400000	-5.397837	-165.593013	-1.581527	-75.139247	-1.581527	-75.139247	-5.398136	-165.643947
1.450000	-5.259807	-167.850722	-1.643037	-77.394909	-1.643037	-77.394909	-5.260113	-167.903802
1.500000	-5.134068	-170.084865	-1.701790	-79.627726	-1.701790	-79.627726	-5.134381	-170.140136
1.550000	-5.019299	-172.298099	-1.757785	-81.840366	-1.757785	-81.840366	-5.019620	-172.355604
1.600000	-4.914827	-174.491798	-1.810876	-84.034249	-1.810876	-84.034249	-4.915155	-174.551584
1.650000	-4.820414	-176.666599	-1.860778	-86.210094	-1.860778	-86.210094	-4.820751	-176.728717
1.700000	-4.735274	-178.824477	-1.907456	-88.369898	-1.907456	-88.369898	-4.735619	-178.888980
1.750000	-4.658792	179.032874	-1.950861	-90.515379	-1.950861	-90.515379	-4.659146	178.965931
1.800000	-4.590660	176.904249	-1.990847	-92.647796	-1.990847	-92.647796	-4.591023	176.834806
1.850000	-4.530499	174.788197	-2.027330	-94.768637	-2.027330	-94.768637	-4.530871	174.716192
1.900000	-4.478056	172.683380	-2.060199	-96.879288	-2.060199	-96.879288	-4.478438	172.608745
1.950000	-4.433040	170.588313	-2.089389	-98.981272	-2.089389	-98.981272	-4.433432	170.510976
2.000000	-4.395131	168.501450	-2.114890	-101.076162	-2.114890	-101.076162	-4.395533	168.421335
2.050000	-4.364126	166.421372	-2.136660	-103.165411	-2.136660	-103.165411	-4.364539	166.338399
2.100000	-4.339860	164.346670	-2.154667	-105.250465	-2.154667	-105.250465	-4.340285	164.260754
2.150000	-4.322204	162.275947	-2.168886	-107.332760	-2.168886	-107.332760	-4.322641	162.186995
2.200000	-4.311063	160.207811	-2.179302	-109.413726	-2.179302	-109.413726	-4.311512	160.115727
2.250000	-4.306375	158.140881	-2.185907	-111.494783	-2.185907	-111.494783	-4.306838	158.045560
2.300000	-4.308113	156.073785	-2.188701	-113.577349	-2.188701	-113.577349	-4.308590	155.975117
2.350000	-4.316281	154.005158	-2.187692	-115.662833	-2.187692	-115.662833	-4.316772	153.903024
2.400000	-4.330914	151.933644	-2.182897	-117.752642	-2.182897	-117.752642	-4.331421	151.827916
2.450000	-4.352082	149.857893	-2.174339	-119.848179	-2.174339	-119.848179	-4.352605	149.748436
2.500000	-4.379888	147.776564	-2.162049	-121.950844	-2.162049	-121.950844	-4.380428	147.663231
2.550000	-4.414616	145.688143	-2.145987	-124.062254	-2.145987	-124.062254	-4.415174	145.570771
2.600000	-4.456298	143.591425	-2.126283	-126.183653	-2.126283	-126.183653	-4.456876	143.469845
2.650000	-4.505146	141.485093	-2.102993	-128.316439	-2.102993	-128.316439	-4.505744	141.359121
2.700000	-4.561409	139.367844	-2.076182	-130.462010	-2.076182	-130.462010	-4.562030	139.237280
2.750000	-4.625381	137.238382	-2.045926	-132.621763	-2.045926	-132.621763	-4.626026	137.103012
2.800000	-4.697398	135.095430	-2.012309	-134.797095	-2.012309	-134.797095	-4.698068	134.955019
2.850000	-4.777845	132.937726	-1.975427	-136.989401	-1.975427	-136.989401	-4.778542	132.792019
2.900000	-4.867158	130.764030	-1.935384	-139.200075	-1.935384	-139.200075	-4.867885	130.612749
2.950000	-4.965829	128.573130	-1.892298	-141.430503	-1.892298	-141.430503	-4.966588	128.415972
3.000000	-5.074414	126.363846	-1.846299	-143.682067	-1.846299	-143.682067	-5.075207	126.200477
3.050000	-5.193534	124.135037	-1.797528	-145.956137	-1.797528	-145.956137	-5.194366	123.965092
3.100000	-5.323888	121.885616	-1.746142	-148.254069	-1.746142	-148.254069	-5.324762	121.708689
3.150000	-5.466371	119.614306	-1.692281	-150.577487	-1.692281	-150.577487	-5.467290	119.429945
3.200000	-5.621874	117.320124	-1.636138	-152.927746	-1.636138	-152.927746	-5.622844	117.127826
3.250000	-5.791276	115.002447	-1.577944	-155.305849	-1.577944	-155.305849	-5.792302	114.801656
3.300000	-5.975680	112.660532	-1.517918	-157.713032	-1.517918	-157.713032	-5.976770	112.450624
3.350000	-6.176329	110.293769	-1.456296	-160.150477	-1.456296	-160.150477	-6.177489	110.074044
3.400000	-6.394620	107.901711	-1.393332	-162.619310	-1.393332	-162.619310	-6.395860	107.671378
3.450000	-6.632134	105.484113	-1.329298	-165.120581	-1.329298	-165.120581	-6.633464	105.242271
3.500000	-6.890663	103.040967	-1.264485	-167.655253	-1.264485	-167.655253	-6.892097	102.786589
3.550000	-7.172249	100.572559	-1.199202	-170.224189	-1.199202	-170.224189	-7.173803	100.304464
3.600000	-7.479230	98.079535	-1.133775	-172.828136	-1.133775	-172.828136	-7.480922	97.796355
3.650000	-7.814298	95.562977	-1.068551	-175.467705	-1.068551	-175.467705	-7.816153	95.263117
3.700000	-8.180579	93.024514	-1.003892	-178.143357	-1.003892	-178.143357	-8.182626	92.706101
3.750000	-8.581728	90.466461	-0.940174	179.144617	-0.940174	179.144617	-8.584004	90.127269
3.800000	-9.022492	87.891746	-0.877821	176.395325	-0.877821	176.395325	-9.025045	87.529038
3.850000	-9.507637	85.305216	-0.817227	173.609677	-0.817227	173.609677	-9.510530	84.915723
3.900000	-10.043404	82.712833	-0.758807	170.788022	-0.758807	170.788022	-10.046718	82.292531
3.950000	-10.637453	80.122685	-0.702981	167.930950	-0.702981	167.930950	-10.641300	79.666538
4.000000	-11.299357	77.545848	-0.650172	165.039307	-0.650172	165.039307	-11.303892	77.047444
4.050000	-12.041326	74.997789	-0.600800	162.114211	-0.600800	162.114211	-12.046769	74.448789
4.100000	-12.879311	72.500677	-0.555280	159.157053	-0.555280	159.157053	-12.885987	71.889958
4.150000	-13.834757	70.087438	-0.514013	156.169507	-0.514013	156.169507	-13.843169	69.399715
4.200000	-14.937523	67.809285	-0.477384	153.153526	-0.477384	153.153526	-14.948483	67.022761
4.250000	-16.230986	65.750767	-0.445755	150.111335	-0.445755	150.111335	-16.245904	64.832890
4.300000	-17.781679	64.062704	-0.419461	147.045420	-0.419461	147.045420	-17.803217	62.961897
4.350000	-19.699044	63.043274	-0.398801	143.958509	-0.398801	143.958509	-19.732868	61.671254
4.400000	-22.180383	63.406057	-0.384105	140.853388	-0.384105	140.853388	-22.240990	61.591624
4.450000	-25.620473	67.292438	-0.375596	137.733305	-0.375596	137.733305	-25.757228	64.656056
4.500000	-30.758580	83.979277	-0.373379	134.601750	-0.373379	134.601750	-31.233901	79.923497
4.550000	-34.016207	144.090531	-0.377571	131.462129	-0.377571	131.462129	-35.075049	145.820618
4.600000	-28.689750	-173.533662	-0.388237	128.317914	-0.388237	128.317914	-28.984892	-170.034984
4.650000	-24.226926	-163.245831	-0.405388	125.172600	-0.405388	125.172600	-24.329184	-160.984022
4.700000	-21.167202	-160.957734	-0.428983	122.029656	-0.428983	122.029656	-21.217436	-159.353724
4.750000	-18.892568	-161.197004	-0.458928	118.892488	-0.458928	118.892488	-18.922332	-159.965575
4.800000	-17.098029	-162.524749	-0.495081	115.764391	-0.495081	115.764391	-17.117766	-161.529732
4.850000	-15.625302	-164.411658	-0.537251	112.648513	-0.537251	112.648513	-15.639405	-163.579361
4.900000	-14.383322	-166.617939	-0.585206	109.547823	-0.585206	109.547823	-14.393950	-165.904354
4.950000	-13.315196	-169.018812	-0.638677	106.465076	-0.638677	106.465076	-13.323533	-168.395657
5.000000	-12.383057	-171.542568	-0.697359	103.402798	-0.697359	103.402798	-12.389802	-170.990629
5.050000	-11.560867	-174.145841	-0.761009	100.363802	-0.761009	100.363802	-11.566465	-173.651271
5.100000	-10.828873	-176.797612	-0.829167	97.349639	-0.829167	97.349639	-10.833614	-176.350499
5.150000	-10.172565	-179.478295	-0.901461	94.362031	-0.901461	94.362031	-10.176649	-179.071125
5.200000	-9.580730	177.826085	-0.977510	91.402438	-0.977510	91.402438	-9.584300	178.199142
5.250000	-9.044501	175.125751	-1.056926	88.472054	-1.056926	88.472054	-9.047661	175.469305
5.300000	-8.556730	172.428316	-1.139320	85.571819	-1.139320	85.571819	-8.559557	172.746072
5.350000	-8.111550	169.739512	-1.224302	82.702432	-1.224302	82.702432	-8.114104	170.034495
5.400000	-7.704082	167.063680	-1.311493	79.864364	-1.311493	79.864364	-7.706408	167.338390
5.450000	-7.330212	164.404103	-1.400518	77.057874	-1.400518	77.057874	-7.332346	164.660625
5.500000	-6.986433	161.763238	-1.491017	74.283025	-1.491017	74.283025	-6.988405	162.003336
5.550000	-6.669731	159.142896	-1.582642	71.539708	-1.582642	71.539708	-6.671563	159.368068
5.600000	-6.377488	156.544362	-1.675058	68.827653	-1.675058	68.827653	-6.379199	156.755897
5.650000	-6.107554	153.968757	-1.767941	66.146780	-1.767941	66.146780	-6.109161	154.167776
5.700000	-5.857896	151.416610	-1.860981	63.496536	-1.860981	63.496536	-5.859412	151.604088
5.750000	-5.626598	148.887897	-1.953901	60.875940	-1.953901	60.875940	-5.628033	149.064677
5.800000	-5.412084	146.382616	-2.046439	58.284259	-2.046439	58.284259	-5.413447	146.549441
5.850000	-5.212948	143.900577	-2.138350	55.720687	-2.138350	55.720687	-5.214248	144.058104
5.900000	-5.027933	141.441439	-2.229403	53.184353	-2.229403	53.184353	-5.029176	141.590253
5.950000	-4.855910	139.004736	-2.319388	50.674339	-2.319388	50.674339	-4.857101	139.145358
6.000000	-4.695862	136.589901	-2.408108	48.189688	-2.408108	48.189688	-4.697007	136.722799
6.050000	-4.546872	134.196288	-2.495384	45.729413	-2.495384	45.729413	-4.547975	134.321884
6.100000	-4.408111	131.823189	-2.581050	43.292505	-2.581050	43.292505	-4.409176	131.941862
6.150000	-4.278828	129.469845	-2.664955	40.877945	-2.664955	40.877945	-4.279857	129.581940
6.200000	-4.158340	127.135462	-2.746961	38.484703	-2.746961	38.484703	-4.159337	127.241293
6.250000	-4.046027	124.819221	-2.826943	36.111749	-2.826943	36.111749	-4.046994	124.919072
6.300000	-3.941454	122.520640	-2.904723	33.758453	-2.904723	33.758453	-3.942394	122.614778
6.350000	-3.843964	120.238478	-2.980261	31.423353	-2.980261	31.423353	-3.844879	120.327140
6.400000	-3.753092	117.971883	-3.053464	29.105441	-3.053464	29.105441	-3.753983	118.055288
6.450000	-3.668411	115.720005	-3.124250	26.803721	-3.124250	26.803721	-3.669279	115.798355
6.500000	-3.589531	113.482001	-3.192545	24.517213	-3.192545	24.517213	-3.590379	113.555483
6.550000	-3.516099	111.257035	-3.258284	22.244954	-3.258284	22.244954	-3.516927	111.325821
6.600000	-3.447790	109.044285	-3.321407	19.985999	-3.321407	19.985999	-3.448599	109.108533
6.650000	-3.384307	106.842938	-3.381864	17.739421	-3.381864	17.739421	-3.385099	106.902798
6.700000	-3.325381	104.652199	-3.439608	15.504313	-3.439608	15.504313	-3.326155	104.707810
6.750000	-3.270765	102.471290	-3.494600	13.279787	-3.494600	13.279787	-3.271522	102.522780
6.800000	-3.220233	100.299446	-3.546804	11.064976	-3.546804	11.064976	-3.220975	100.346937
6.850000	-3.173580	98.135924	-3.596191	8.859032	-3.596191	8.859032	-3.174307	98.179527
6.900000	-3.130657	95.980068	-3.642700	6.661204	-3.642700	6.661204	-3.131368	96.019891
6.950000	-3.091289	93.831145	-3.686310	4.470655	-3.686310	4.470655	-3.091986	93.867289
7.000000	-3.055287	91.688380	-3.727036	2.286505	-3.727036	2.286505	-3.055969	91.720938
7.050000	-3.022512	89.551096	-3.764862	0.107983	-3.764862	0.107983	-3.023181	89.580157
7.100000	-2.992842	87.418634	-3.799776	-2.065671	-3.799776	-2.065671	-2.993497	87.444281
7.150000	-2.966165	85.290350	-3.831767	-4.235198	-3.831767	-4.235198	-2.966806	85.312662
7.200000	-2.942384	83.165613	-3.860827	-6.401325	-3.860827	-6.401325	-2.943011	83.184664
7.250000	-2.921411	81.043807	-3.886949	-8.564767	-3.886949	-8.564767	-2.922025	81.059669
7.300000	-2.903173	78.924328	-3.910129	-10.726226	-3.910129	-10.726226	-2.903773	78.937068
7.350000	-2.887604	76.806584	-3.930363	-12.886392	-3.930363	-12.886392	-2.888190	76.816266
7.400000	-2.874650	74.689993	-3.947650	-15.045946	-3.947650	-15.045946	-2.875222	74.696678
7.450000	-2.864267	72.573983	-3.961988	-17.205562	-3.961988	-17.205562	-2.864826	72.577729
7.500000	-2.856422	70.457989	-3.973379	-19.365905	-3.973379	-19.365905	-2.856966	70.458851
7.550000	-2.851172	68.341420	-3.981726	-21.527699	-3.981726	-21.527699	-2.851701	68.339454
7.600000	-2.848419	66.223720	-3.987128	-23.691579	-3.987128	-23.691579	-2.848934	66.218975
7.650000	-2.848159	64.104341	-3.989587	-25.858199	-3.989587	-25.858199	-2.848660	64.096866
7.700000	-2.850399	61.982738	-3.989106	-28.028210	-3.989106	-28.028210	-2.850884	61.972579
7.750000	-2.855152	59.858367	-3.985686	-30.202264	-3.985686	-30.202264	-2.855622	59.845567
7.800000	-2.862443	57.730684	-3.979332	-32.381017	-3.979332	-32.381017	-2.862897	57.715285
7.850000	-2.872308	55.599141	-3.970047	-34.565126	-3.970047	-34.565126	-2.872746	55.581183
7.900000	-2.884792	53.463190	-3.957834	-36.755257	-3.957834	-36.755257	-2.885214	53.442711
7.950000	-2.899952	51.322274	-3.942698	-38.952082	-3.942698	-38.952082	-2.900356	51.299310
8.000000	-2.917854	49.175834	-3.924642	-41.156286	-3.924642	-41.156286	-2.918242	49.150420
8.050000	-2.938580	47.023300	-3.903671	-43.368562	-3.903671	-43.368562	-2.938950	46.995468
8.100000	-2.962222	44.864093	-3.879789	-45.589619	-3.879789	-45.589619	-2.962574	44.833874
8.150000	-2.988489	42.698650	-3.853392	-47.818846	-3.853392	-47.818846	-2.988822	42.666069
8.200000	-3.018315	40.524307	-3.823673	-50.059680	-3.823673	-50.059680	-3.018630	40.489395
8.250000	-3.051422	38.341469	-3.791061	-52.311548	-3.791061	-52.311548	-3.051718	38.304251
8.300000	-3.087963	36.149505	-3.755560	-54.575241	-3.755560	-54.575241	-3.088241	36.110004
8.350000	-3.128112	33.947764	-3.717180	-56.851580	-3.717180	-56.851580	-3.128369	33.906002
8.400000	-3.172059	31.735580	-3.675928	-59.141412	-3.675928	-59.141412	-3.172297	31.691575
8.450000	-3.220020	29.512266	-3.631816	-61.445621	-3.631816	-61.445621	-3.220238	29.466035
8.500000	-3.272232	27.277115	-3.584854	-63.765125	-3.584854	-63.765125	-3.272431	27.228673
8.550000	-3.328962	25.029401	-3.535057	-66.100885	-3.535057	-66.100885	-3.329140	24.978760
8.600000	-3.390501	22.768377	-3.482443	-68.453902	-3.482443	-68.453902	-3.390660	22.715547
8.650000	-3.457179	20.493275	-3.427030	-70.825227	-3.427030	-70.825227	-3.457317	20.438264
8.700000	-3.529356	18.203311	-3.368843	-73.215960	-3.368843	-73.215960	-3.529475	18.146123
8.750000	-3.607436	15.897682	-3.307910	-75.627257	-3.307910	-75.627257	-3.607536	15.838319
8.800000	-3.691998	13.575193	-3.244195	-78.060834	-3.244195	-78.060834	-3.692079	13.513654
8.850000	-3.783428	11.235358	-3.177807	-80.517525	-3.177807	-80.517525	-3.783490	11.171638
8.900000	-3.882283	8.877347	-3.108794	-82.998677	-3.108794	-82.998677	-3.882329	8.811438
8.950000	-3.989188	6.500333	-3.037211	-85.505708	-3.037211	-85.505708	-3.989217	6.432224
9.000000	-4.104838	4.103508	-2.963124	-88.040109	-2.963124	-88.040109	-4.104851	4.033183
9.050000	-4.230011	1.686089	-2.886611	-90.603445	-2.886611	-90.603445	-4.230009	1.613529
9.100000	-4.365580	-0.752657	-2.807762	-93.197364	-2.807762	-93.197364	-4.365565	-0.827477
9.150000	-4.512527	-3.213395	-2.726683	-95.823592	-2.726683	-95.823592	-4.512500	-3.290503
9.200000	-4.671958	-5.696686	-2.643497	-98.483938	-2.643497	-98.483938	-4.671921	-5.776117
9.250000	-4.845122	-8.202956	-2.558347	-101.180294	-2.558347	-101.180294	-4.845077	-8.284750
9.300000	-5.033436	-10.732442	-2.471398	-103.914630	-2.471398	-103.914630	-5.033384	-10.816647
9.350000	-5.238509	-13.285132	-2.382841	-106.688995	-2.382841	-106.688995	-5.238452	-13.371802
9.400000	-5.462335	-15.860919	-2.292872	-109.505990	-2.292872	-109.505990	-5.462276	-15.950118
9.450000	-5.707062	-18.458975	-2.201753	-112.367873	-2.201753	-112.367873	-5.707000	-18.550778
9.500000	-5.974976	-21.077641	-2.109797	-115.276422	-2.109797	-115.276422	-5.974914	-21.172135
9.550000	-6.268895	-23.714729	-2.017335	-118.233905	-2.017335	-118.233905	-6.268833	-23.812016
9.600000	-6.592099	-26.367018	-1.924743	-121.242602	-1.924743	-121.242602	-6.592035	-26.467220
9.650000	-6.948434	-29.029917	-1.832442	-124.304779	-1.832442	-124.304779	-6.948367	-29.133181
9.700000	-7.342451	-31.696990	-1.740909	-127.422655	-1.740909	-127.422655	-7.342376	-31.803494
9.750000	-7.779578	-34.359292	-1.650673	-130.598361	-1.650673	-130.598361	-7.779488	-34.469259
9.800000	-8.266366	-37.004418	-1.562327	-133.833893	-1.562327	-133.833893	-8.266251	-37.118131
9.850000	-8.810815	-39.615086	-1.476525	-137.131057	-1.476525	-137.131057	-8.810660	-39.732911
9.900000	-9.422842	-42.166987	-1.393984	-140.491402	-1.393984	-140.491402	-9.422625	-42.289409
9.950000	-10.114947	-44.625386	-1.315487	-143.916152	-1.315487	-143.916152	-10.114638	-44.753067
10.000000	-10.903193	-46.939559	-1.241881	-147.406122	-1.241881	-147.406122	-10.902753	-47.073425
