! freq	dB(S11)	phase(S11)	dB(S12)	phase(S12)	
!     	dB(S21)	phase(S21)	dB(S22)	phase(S22)	
!S-par simulation data
#  GHz  S  DB  R 50
0.000000	-0.000000	0.000000	-363.763094	0.000000	-363.763094	0.000000	0.000000	0.000000
0.050000	-0.000108	-0.840576	-115.465857	87.341717	-115.465857	87.341717	-0.000108	-0.840584
0.100000	-0.000427	-1.680886	-109.715014	86.011634	-109.715014	86.011634	-0.000428	-1.680902
0.150000	-0.000945	-2.520687	-106.431647	85.400815	-106.431647	85.400815	-0.000946	-2.520709
0.200000	-0.001638	-3.359778	-104.146608	84.986448	-104.146608	84.986448	-0.001640	-3.359806
0.250000	-0.002494	-4.197935	-102.430323	84.617974	-102.430323	84.617974	-0.002496	-4.197966
0.300000	-0.003470	-5.035120	-101.085170	84.275275	-101.085170	84.275275	-0.003473	-5.035154
0.350000	-0.004549	-5.871221	-100.015849	83.979602	-100.015849	83.979602	-0.004552	-5.871257
0.400000	-0.005704	-6.706197	-99.164077	83.762169	-99.164077	83.762169	-0.005708	-6.706234
0.450000	-0.006914	-7.540040	-98.493500	83.660598	-98.493500	83.660598	-0.006918	-7.540077
0.500000	-0.008159	-8.372761	-97.980827	83.719653	-97.980827	83.719653	-0.008163	-8.372798
0.550000	-0.009424	-9.204390	-97.611213	83.994574	-97.611213	83.994574	-0.009428	-9.204428
0.600000	-0.010696	-10.034964	-97.375585	84.556287	-97.375585	84.556287	-0.010700	-10.035001
0.650000	-0.011967	-10.864520	-97.268864	85.498974	-97.268864	85.498974	-0.011971	-10.864559
0.700000	-0.013229	-11.693099	-97.288394	86.951033	-97.288394	86.951033	-0.013233	-11.693139
0.750000	-0.014478	-12.520735	-97.431889	89.090735	-97.431889	89.090735	-0.014481	-12.520777
0.800000	-0.015711	-13.347458	-97.693817	92.167184	-97.693817	92.167184	-0.015714	-13.347501
0.850000	-0.016927	-14.173290	-98.058286	96.522807	-98.058286	96.522807	-0.016930	-14.173337
0.900000	-0.018126	-14.998251	-98.485367	102.598502	-98.485367	102.598502	-0.018128	-14.998301
0.950000	-0.019307	-15.822351	-98.888638	110.865193	-98.888638	110.865193	-0.019309	-15.822404
1.000000	-0.020472	-16.645597	-99.112834	121.579736	-99.112834	121.579736	-0.020473	-16.645654
1.050000	-0.021621	-17.467989	-98.951103	134.332967	-98.951103	134.332967	-0.021622	-17.468051
1.100000	-0.022755	-18.289526	-98.251279	147.737129	-98.251279	147.737129	-0.022756	-18.289592
1.150000	-0.023877	-19.110200	-97.043828	159.952410	-97.043828	159.952410	-0.023878	-19.110271
1.200000	-0.024987	-19.930003	-95.515228	169.812454	-95.515228	169.812454	-0.024988	-19.930078
1.250000	-0.026087	-20.748921	-93.862422	177.181798	-93.862422	177.181798	-0.026087	-20.749001
1.300000	-0.027177	-21.566900	-92.201690	-177.593155	-92.201690	-177.593155	-0.027177	-21.566986
1.350000	-0.028259	-22.383965	-90.608705	-173.904912	-90.608705	-173.904912	-0.028259	-22.384055
1.400000	-0.029335	-23.200096	-89.103968	-171.350594	-89.103968	-171.350594	-0.029335	-23.200192
1.450000	-0.030404	-24.015277	-87.690415	-169.633198	-87.690415	-169.633198	-0.030404	-24.015377
1.500000	-0.031469	-24.829488	-86.363546	-168.540197	-86.363546	-168.540197	-0.031469	-24.829593
1.550000	-0.032529	-25.642710	-85.116225	-167.920116	-85.116225	-167.920116	-0.032529	-25.642820
1.600000	-0.033586	-26.454923	-83.940813	-167.664129	-83.940813	-167.664129	-0.033586	-26.455038
1.650000	-0.034640	-27.266108	-82.830056	-167.693001	-82.830056	-167.693001	-0.034640	-27.266228
1.700000	-0.035691	-28.075871	-81.753337	-168.006533	-81.753337	-168.006533	-0.035692	-28.075996
1.750000	-0.036742	-28.885081	-80.763649	-168.422067	-80.763649	-168.422067	-0.036742	-28.885210
1.800000	-0.037791	-29.692956	-79.806511	-169.005891	-79.806511	-169.005891	-0.037791	-29.693091
1.850000	-0.038839	-30.499879	-78.900261	-169.709923	-78.900261	-169.709923	-0.038840	-30.500018
1.900000	-0.039888	-31.305617	-78.029857	-170.512413	-78.029857	-170.512413	-0.039888	-31.305760
1.950000	-0.040936	-32.110168	-77.193536	-171.413362	-77.193536	-171.413362	-0.040936	-32.110316
2.000000	-0.041985	-32.913698	-76.395043	-172.372614	-76.395043	-172.372614	-0.041985	-32.913851
2.050000	-0.043035	-33.715797	-75.618124	-173.413489	-75.618124	-173.413489	-0.043035	-33.715954
2.100000	-0.044085	-34.517266	-74.886517	-174.481244	-74.886517	-174.481244	-0.044086	-34.517427
2.150000	-0.045138	-35.317100	-74.167468	-175.615641	-74.167468	-175.615641	-0.045139	-35.317266
2.200000	-0.046193	-36.115698	-73.472435	-176.790956	-73.472435	-176.790956	-0.046193	-36.115868
2.250000	-0.047250	-36.913042	-72.799804	-178.002167	-72.799804	-178.002167	-0.047250	-36.913217
2.300000	-0.048309	-37.709116	-72.148128	-179.245024	-72.148128	-179.245024	-0.048310	-37.709295
2.350000	-0.049372	-38.503902	-71.516100	179.484098	-71.516100	179.484098	-0.049373	-38.504086
2.400000	-0.050438	-39.297386	-70.902537	178.188307	-70.902537	178.188307	-0.050439	-39.297575
2.450000	-0.051508	-40.089552	-70.306369	176.870287	-70.306369	176.870287	-0.051508	-40.089745
2.500000	-0.052581	-40.880383	-69.726619	175.532366	-69.726619	175.532366	-0.052582	-40.880581
2.550000	-0.053660	-41.669807	-69.161482	174.175877	-69.161482	174.175877	-0.053660	-41.670009
2.600000	-0.054743	-42.457866	-68.611146	172.803434	-68.611146	172.803434	-0.054743	-42.458073
2.650000	-0.055831	-43.244548	-68.074852	171.416574	-68.074852	171.416574	-0.055832	-43.244759
2.700000	-0.056925	-44.029837	-67.551901	170.016660	-67.551901	170.016660	-0.056925	-44.030053
2.750000	-0.058024	-44.813722	-67.041647	168.604902	-67.041647	168.604902	-0.058025	-44.813943
2.800000	-0.059130	-45.596188	-66.543495	167.182379	-66.543495	167.182379	-0.059130	-45.596414
2.850000	-0.060242	-46.377225	-66.056892	165.750054	-66.056892	165.750054	-0.060243	-46.377456
2.900000	-0.061361	-47.156820	-65.581323	164.308795	-65.581323	164.308795	-0.061362	-47.157056
2.950000	-0.062488	-47.934962	-65.116312	162.859380	-65.116312	162.859380	-0.062489	-47.935203
3.000000	-0.063622	-48.711639	-64.661413	161.402513	-64.661413	161.402513	-0.063623	-48.711885
3.050000	-0.064765	-49.486841	-64.216209	159.938831	-64.216209	159.938831	-0.064765	-49.487092
3.100000	-0.065916	-50.260558	-63.780311	158.468912	-63.780311	158.468912	-0.065916	-50.260814
3.150000	-0.067075	-51.032779	-63.353354	156.993282	-63.353354	156.993282	-0.067076	-51.033041
3.200000	-0.068245	-51.803496	-62.934996	155.512419	-62.934996	155.512419	-0.068245	-51.803763
3.250000	-0.069423	-52.572700	-62.524913	154.026763	-62.524913	154.026763	-0.069424	-52.572972
3.300000	-0.070612	-53.340382	-62.122803	152.536714	-62.122803	152.536714	-0.070613	-53.340660
3.350000	-0.071814	-54.106265	-61.726607	151.042040	-61.726607	151.042040	-0.071814	-54.106548
3.400000	-0.073026	-54.870544	-61.337559	149.543531	-61.337559	149.543531	-0.073027	-54.870832
3.450000	-0.074245	-55.634014	-60.960298	148.043376	-60.960298	148.043376	-0.074245	-55.634308
3.500000	-0.075482	-56.395057	-60.584677	146.538287	-60.584677	146.538287	-0.075482	-56.395357
3.550000	-0.076723	-57.155557	-60.221606	145.032289	-60.221606	145.032289	-0.076724	-57.155863
3.600000	-0.077986	-57.913338	-59.858599	143.521754	-59.858599	143.521754	-0.077987	-57.913650
3.650000	-0.079252	-58.670846	-59.508754	142.010844	-59.508754	142.010844	-0.079252	-58.671163
3.700000	-0.080542	-59.425342	-59.157625	140.495830	-59.157625	140.495830	-0.080543	-59.425665
3.750000	-0.081833	-60.179838	-58.820141	138.980816	-58.820141	138.980816	-0.081834	-60.180167
3.800000	-0.083154	-60.931029	-58.480220	137.462155	-58.480220	137.462155	-0.083154	-60.931364
3.850000	-0.084474	-61.682221	-58.153102	135.943493	-58.153102	135.943493	-0.084475	-61.682561
3.900000	-0.085824	-62.430369	-57.824992	134.422146	-57.824992	134.422146	-0.085824	-62.430715
3.950000	-0.087176	-63.178240	-57.507699	132.900555	-57.507699	132.900555	-0.087176	-63.178593
4.000000	-0.088555	-63.923335	-57.190674	131.377042	-57.190674	131.377042	-0.088556	-63.923694
4.050000	-0.089941	-64.667875	-56.882708	129.853144	-56.882708	129.853144	-0.089941	-64.668240
4.100000	-0.091352	-65.409911	-56.576111	128.327924	-56.576111	128.327924	-0.091353	-65.410282
4.150000	-0.092773	-66.151112	-56.277013	126.802264	-56.277013	126.802264	-0.092773	-66.151489
4.200000	-0.094218	-66.890084	-55.980243	125.275746	-55.980243	125.275746	-0.094218	-66.890468
4.250000	-0.095675	-67.627942	-55.689590	123.748799	-55.689590	123.748799	-0.095676	-67.628332
4.300000	-0.097155	-68.363850	-55.402099	122.221346	-55.402099	122.221346	-0.097156	-68.364246
4.350000	-0.098652	-69.098365	-55.119499	120.693533	-55.119499	120.693533	-0.098652	-69.098768
4.400000	-0.100168	-69.831211	-54.840784	119.165471	-54.840784	119.165471	-0.100169	-69.831620
4.450000	-0.101705	-70.562388	-54.565872	117.637162	-54.565872	117.637162	-0.101706	-70.562803
4.500000	-0.103260	-71.292176	-54.295472	116.108783	-54.295472	116.108783	-0.103260	-71.292598
4.550000	-0.104839	-72.020020	-54.027910	114.580307	-54.027910	114.580307	-0.104840	-72.020449
4.600000	-0.106433	-72.746758	-53.765399	113.051873	-53.765399	113.051873	-0.106434	-72.747193
4.650000	-0.108057	-73.471282	-53.504871	111.523524	-53.504871	111.523524	-0.108058	-73.471724
4.700000	-0.109692	-74.194980	-53.249856	109.995272	-53.249856	109.995272	-0.109693	-74.195428
4.750000	-0.111362	-74.916198	-52.996068	108.467312	-52.996068	108.467312	-0.111363	-74.916653
4.800000	-0.113040	-75.636868	-52.748185	106.939457	-52.748185	106.939457	-0.113041	-75.637330
4.850000	-0.114757	-76.354798	-52.500861	105.412122	-52.500861	105.412122	-0.114758	-76.355267
4.900000	-0.116479	-77.072456	-52.259774	103.884856	-52.259774	103.884856	-0.116480	-77.072932
4.950000	-0.118247	-77.787120	-52.018656	102.358359	-52.018656	102.358359	-0.118248	-77.787603
5.000000	-0.120015	-78.501784	-51.784051	100.831862	-51.784051	100.831862	-0.120015	-78.502274
5.050000	-0.121833	-79.213207	-51.548897	99.306394	-51.548897	99.306394	-0.121834	-79.213703
5.100000	-0.123653	-79.924629	-51.319942	97.780927	-51.319942	97.780927	-0.123654	-79.925133
5.150000	-0.125521	-80.633106	-51.091066	96.256564	-51.091066	96.256564	-0.125522	-80.633617
5.200000	-0.127393	-81.341315	-50.867552	94.732302	-50.867552	94.732302	-0.127394	-81.341833
5.250000	-0.129312	-82.046872	-50.644676	93.209177	-50.644676	93.209177	-0.129313	-82.047397
5.300000	-0.131240	-82.751899	-50.426407	91.686279	-50.426407	91.686279	-0.131241	-82.752431
5.350000	-0.133210	-83.454566	-50.209272	90.164514	-50.209272	90.164514	-0.133211	-83.455105
5.400000	-0.135195	-84.156445	-49.996061	88.643127	-49.996061	88.643127	-0.135196	-84.156992
5.450000	-0.137219	-84.856251	-49.784425	87.122837	-49.784425	87.122837	-0.137220	-84.856805
5.500000	-0.139263	-85.555020	-49.576098	85.603096	-49.576098	85.603096	-0.139264	-85.555582
5.550000	-0.141341	-86.251999	-49.369734	84.084386	-49.369734	84.084386	-0.141343	-86.252568
5.600000	-0.143446	-86.947699	-49.166124	82.566414	-49.166124	82.566414	-0.143447	-86.948275
5.650000	-0.145581	-87.641885	-48.964819	81.049383	-48.964819	81.049383	-0.145582	-87.642469
5.700000	-0.147748	-88.334559	-48.765768	79.533295	-48.765768	79.533295	-0.147749	-88.335150
5.750000	-0.149941	-89.025990	-48.569322	78.018037	-48.569322	78.018037	-0.149942	-89.026589
5.800000	-0.152172	-89.715683	-48.374681	76.503939	-48.374681	76.503939	-0.152173	-89.716290
5.850000	-0.154425	-90.404400	-48.182906	74.990538	-48.182906	74.990538	-0.154426	-90.405014
5.900000	-0.156721	-91.091162	-47.992532	73.478531	-47.992532	73.478531	-0.156723	-91.091783
5.950000	-0.159035	-91.777204	-47.805250	71.967069	-47.805250	71.967069	-0.159037	-91.777833
6.000000	-0.161400	-92.461086	-47.619007	70.457243	-47.619007	70.457243	-0.161401	-92.461723
6.050000	-0.163776	-93.144497	-47.436051	68.947795	-47.436051	68.947795	-0.163777	-93.145143
6.100000	-0.166210	-93.825554	-47.253811	67.440238	-47.253811	67.440238	-0.166211	-93.826207
6.150000	-0.168650	-94.506380	-47.075022	65.932876	-47.075022	65.932876	-0.168651	-94.507041
6.200000	-0.171155	-95.184668	-46.896661	64.427667	-46.896661	64.427667	-0.171156	-95.185337
6.250000	-0.173660	-95.862956	-46.721890	62.922457	-46.721890	62.922457	-0.173662	-95.863633
6.300000	-0.176238	-96.538534	-46.547290	61.419670	-46.547290	61.419670	-0.176239	-96.539220
6.350000	-0.178816	-97.214113	-46.376132	59.916883	-46.376132	59.916883	-0.178818	-97.214806
6.400000	-0.181462	-97.887263	-46.205443	58.416379	-46.205443	58.416379	-0.181464	-97.887966
6.450000	-0.184116	-98.560194	-46.037791	56.916083	-46.037791	56.916083	-0.184117	-98.560904
6.500000	-0.186832	-99.230970	-45.870877	55.417916	-45.870877	55.417916	-0.186833	-99.231689
6.550000	-0.189561	-99.901316	-45.706631	53.920174	-45.706631	53.920174	-0.189562	-99.902044
6.600000	-0.192348	-100.569774	-45.543360	52.424391	-45.543360	52.424391	-0.192350	-100.570509
6.650000	-0.195155	-101.237601	-45.382422	50.929262	-45.382422	50.929262	-0.195157	-101.238346
6.700000	-0.198015	-101.903796	-45.222670	49.435908	-45.222670	49.435908	-0.198017	-101.904549
6.750000	-0.200902	-102.569174	-45.064948	47.943442	-45.064948	47.943442	-0.200904	-102.569936
6.800000	-0.203836	-103.233165	-44.908597	46.452557	-44.908597	46.452557	-0.203838	-103.233935
6.850000	-0.206805	-103.896164	-44.753999	44.962801	-44.753999	44.962801	-0.206806	-103.896943
6.900000	-0.209814	-104.558010	-44.600936	43.474420	-44.600936	43.474420	-0.209816	-104.558798
6.950000	-0.212865	-105.218702	-44.449375	41.987415	-44.449375	41.987415	-0.212867	-105.219499
7.000000	-0.215951	-105.878465	-44.299493	40.501569	-44.299493	40.501569	-0.215953	-105.879271
7.050000	-0.219087	-106.536926	-44.150886	39.017347	-44.150886	39.017347	-0.219088	-106.537741
7.100000	-0.222251	-107.194668	-44.004082	37.534061	-44.004082	37.534061	-0.222253	-107.195492
7.150000	-0.225472	-107.850974	-43.858347	36.052650	-43.858347	36.052650	-0.225474	-107.851807
7.200000	-0.228716	-108.506761	-43.714523	34.571945	-43.714523	34.571945	-0.228718	-108.507603
7.250000	-0.232025	-109.160991	-43.571582	33.093364	-43.571582	33.093364	-0.232027	-109.161842
7.300000	-0.235349	-109.814888	-43.430644	31.615256	-43.430644	31.615256	-0.235351	-109.815749
7.350000	-0.238747	-110.467123	-43.290421	30.139516	-43.290421	30.139516	-0.238749	-110.467992
7.400000	-0.242153	-111.119198	-43.152279	28.664013	-43.152279	28.664013	-0.242155	-111.120077
7.450000	-0.245642	-111.769520	-43.014701	27.191120	-43.014701	27.191120	-0.245644	-111.770408
7.500000	-0.249131	-112.419841	-42.879269	25.718226	-42.879269	25.718226	-0.249133	-112.420739
7.550000	-0.252711	-113.068335	-42.744265	24.248175	-42.744265	24.248175	-0.252713	-113.069242
7.600000	-0.256293	-113.716829	-42.611328	22.778123	-42.611328	22.778123	-0.256295	-113.717746
7.650000	-0.259958	-114.363726	-42.478962	21.310664	-42.478962	21.310664	-0.259961	-114.364652
7.700000	-0.263633	-115.010479	-42.348455	19.843441	-42.348455	19.843441	-0.263636	-115.011414
7.750000	-0.267386	-115.655853	-42.218646	18.378556	-42.218646	18.378556	-0.267388	-115.656798
7.800000	-0.271155	-116.300952	-42.090507	16.914139	-42.090507	16.914139	-0.271158	-116.301907
7.850000	-0.274996	-116.944879	-41.963179	15.451802	-41.963179	15.451802	-0.274998	-116.945843
7.900000	-0.278861	-117.588415	-41.837346	13.990159	-41.837346	13.990159	-0.278864	-117.589389
7.950000	-0.282791	-118.230971	-41.712426	12.530336	-41.712426	12.530336	-0.282793	-118.231954
8.000000	-0.286753	-118.873036	-41.588841	11.071424	-41.588841	11.071424	-0.286756	-118.874029
8.050000	-0.290773	-119.514298	-41.466258	9.614074	-41.466258	9.614074	-0.290775	-119.515301
8.100000	-0.294833	-120.154986	-41.344865	8.157841	-41.344865	8.157841	-0.294836	-120.155999
8.150000	-0.298944	-120.795034	-41.224552	6.702915	-41.224552	6.702915	-0.298947	-120.796057
8.200000	-0.303104	-121.434441	-41.105297	5.249296	-41.105297	5.249296	-0.303107	-121.435474
8.250000	-0.307307	-122.073355	-40.987189	3.796736	-40.987189	3.796736	-0.307310	-122.074398
8.300000	-0.311568	-122.711579	-40.870020	2.345658	-40.870020	2.345658	-0.311571	-122.712632
8.350000	-0.315863	-123.349442	-40.754057	0.895399	-40.754057	0.895399	-0.315866	-123.350504
8.400000	-0.320225	-123.986582	-40.638925	-0.553225	-40.638925	-0.553225	-0.320229	-123.987654
8.450000	-0.324615	-124.623476	-40.525049	-2.001259	-40.525049	-2.001259	-0.324618	-124.624558
8.500000	-0.329079	-125.259633	-40.411907	-3.447525	-40.411907	-3.447525	-0.329083	-125.260725
8.550000	-0.333563	-125.895644	-40.300062	-4.893415	-40.300062	-4.893415	-0.333567	-125.896746
8.600000	-0.338131	-126.530922	-40.188865	-6.337432	-40.188865	-6.337432	-0.338135	-126.532034
8.650000	-0.342710	-127.166136	-40.079000	-7.781271	-40.079000	-7.781271	-0.342714	-127.167257
8.700000	-0.347383	-127.800640	-39.969706	-9.223159	-39.969706	-9.223159	-0.347387	-127.801771
8.750000	-0.352057	-128.435144	-39.861771	-10.665046	-39.861771	-10.665046	-0.352062	-128.436285
8.800000	-0.356835	-129.068982	-39.754343	-12.104935	-39.754343	-12.104935	-0.356839	-129.070132
8.850000	-0.361614	-129.702819	-39.648227	-13.544825	-39.648227	-13.544825	-0.361619	-129.703979
8.900000	-0.366489	-130.336145	-39.542692	-14.983012	-39.542692	-14.983012	-0.366493	-130.337315
8.950000	-0.371374	-130.969424	-39.438361	-16.421046	-39.438361	-16.421046	-0.371378	-130.970604
9.000000	-0.376346	-131.602332	-39.334678	-17.857659	-39.334678	-17.857659	-0.376350	-131.603521
9.050000	-0.381337	-132.235165	-39.232101	-19.293989	-39.232101	-19.293989	-0.381342	-132.236364
9.100000	-0.386407	-132.867747	-39.130230	-20.729163	-39.130230	-20.729163	-0.386412	-132.868956
9.150000	-0.391504	-133.500247	-39.029378	-22.163952	-39.029378	-22.163952	-0.391510	-133.501465
9.200000	-0.396672	-134.132601	-38.929285	-23.597830	-38.929285	-23.597830	-0.396678	-134.133829
9.250000	-0.401877	-134.764882	-38.830135	-25.031251	-38.830135	-25.031251	-0.401882	-134.766119
9.300000	-0.407143	-135.397105	-38.731786	-26.463980	-38.731786	-26.463980	-0.407149	-135.398351
9.350000	-0.412455	-136.029285	-38.634315	-27.896215	-38.634315	-27.896215	-0.412460	-136.030541
9.400000	-0.417820	-136.661475	-38.537683	-29.327952	-38.537683	-29.327952	-0.417825	-136.662740
9.450000	-0.423238	-137.293674	-38.441875	-30.759190	-38.441875	-30.759190	-0.423244	-137.294948
9.500000	-0.428702	-137.925932	-38.346934	-32.190095	-38.346934	-32.190095	-0.428708	-137.927215
9.550000	-0.434228	-138.558272	-38.252773	-33.620533	-38.252773	-33.620533	-0.434234	-138.559564
9.600000	-0.439790	-139.190700	-38.159501	-35.050771	-38.159501	-35.050771	-0.439796	-139.192001
9.650000	-0.445422	-139.823305	-38.066980	-36.480612	-38.066980	-36.480612	-0.445428	-139.824615
9.700000	-0.451083	-140.456007	-37.975358	-37.910354	-37.975358	-37.910354	-0.451089	-140.457326
9.750000	-0.456822	-141.089003	-37.884470	-39.339804	-37.884470	-39.339804	-0.456828	-141.090330
9.800000	-0.462580	-141.722086	-37.794484	-40.769224	-37.794484	-40.769224	-0.462587	-141.723422
9.850000	-0.468425	-142.355602	-37.705228	-42.198494	-37.705228	-42.198494	-0.468431	-142.356946
9.900000	-0.474282	-142.989172	-37.616867	-43.627766	-37.616867	-43.627766	-0.474288	-142.990525
9.950000	-0.480232	-143.623340	-37.529247	-45.057067	-37.529247	-45.057067	-0.480238	-143.624700
10.000000	-0.486186	-144.257508	-37.442502	-46.486368	-37.442502	-46.486368	-0.486192	-144.258876
