! freq	dB(S11)	phase(S11)	dB(S12)	phase(S12)	
!     	dB(S21)	phase(S21)	dB(S22)	phase(S22)	
!S-par simulation data
#  GHz  S  DB  R 50
0.000000	-0.000000	0.000000	-362.650050	0.000000	-362.650050	0.000000	-0.000000	0.000000
0.050000	-0.000537	-0.821616	-106.978080	88.805875	-106.978080	88.805875	-0.001078	-1.733980
0.100000	-0.001776	-1.638988	-101.005655	87.588780	-101.005655	87.588780	-0.003719	-3.460220
0.150000	-0.003142	-2.451910	-97.559001	86.365757	-97.559001	86.365757	-0.006872	-5.177176
0.200000	-0.004369	-3.262048	-95.166969	85.162896	-95.166969	85.162896	-0.009885	-6.887107
0.250000	-0.005458	-4.070985	-93.357539	83.993334	-93.357539	83.993334	-0.012617	-8.593232
0.300000	-0.006447	-4.879325	-91.930668	82.871197	-91.930668	82.871197	-0.015072	-10.296806
0.350000	-0.007386	-5.687386	-90.778020	81.809014	-90.778020	81.809014	-0.017320	-11.998529
0.400000	-0.008311	-6.495284	-89.836742	80.821541	-89.836742	80.821541	-0.019425	-13.698540
0.450000	-0.009249	-7.303031	-89.074380	79.935069	-89.074380	79.935069	-0.021435	-15.396514
0.500000	-0.010208	-8.110620	-88.455351	79.161413	-88.455351	79.161413	-0.023396	-17.092338
0.550000	-0.011193	-8.918019	-87.961624	78.524728	-87.961624	78.524728	-0.025327	-18.785685
0.600000	-0.012200	-9.725181	-87.580879	78.054969	-87.580879	78.054969	-0.027245	-20.476214
0.650000	-0.013225	-10.532049	-87.304783	77.789779	-87.304783	77.789779	-0.029158	-22.163593
0.700000	-0.014260	-11.338557	-87.127870	77.777069	-87.127870	77.777069	-0.031073	-23.847500
0.750000	-0.015298	-12.144595	-87.052421	78.102950	-87.052421	78.102950	-0.032994	-25.527381
0.800000	-0.016334	-12.950072	-87.075339	78.862050	-87.075339	78.862050	-0.034923	-27.202934
0.850000	-0.017364	-13.754910	-87.191190	80.171807	-87.191190	80.171807	-0.036861	-28.873966
0.900000	-0.018386	-14.559083	-87.389088	82.136491	-87.389088	82.136491	-0.038807	-30.540564
0.950000	-0.019401	-15.362483	-87.664436	84.988102	-87.664436	84.988102	-0.040760	-32.202228
1.000000	-0.020408	-16.165053	-87.996378	88.978817	-87.996378	88.978817	-0.042719	-33.858730
1.050000	-0.021411	-16.966783	-88.348515	94.317446	-88.348515	94.317446	-0.044683	-35.510104
1.100000	-0.022410	-17.767551	-88.643449	101.430804	-88.643449	101.430804	-0.046649	-37.155603
1.150000	-0.023409	-18.567376	-88.771957	110.291462	-88.771957	110.291462	-0.048615	-38.795338
1.200000	-0.024407	-19.366240	-88.606200	120.519619	-88.606200	120.519619	-0.050580	-40.429136
1.250000	-0.025407	-20.164129	-88.058098	131.202846	-88.058098	131.202846	-0.052540	-42.056835
1.300000	-0.026408	-20.961010	-87.128895	141.167873	-87.128895	141.167873	-0.054494	-43.678143
1.350000	-0.027413	-21.756895	-85.931160	149.611564	-85.931160	149.611564	-0.056440	-45.293052
1.400000	-0.028420	-22.551776	-84.590794	156.286802	-84.590794	156.286802	-0.058377	-46.901432
1.450000	-0.029429	-23.345646	-83.206279	161.323839	-83.206279	161.323839	-0.060301	-48.503160
1.500000	-0.030441	-24.138496	-81.838031	165.000131	-81.838031	165.000131	-0.062214	-50.098125
1.550000	-0.031455	-24.930320	-80.517256	167.601821	-80.517256	167.601821	-0.064112	-51.686222
1.600000	-0.032471	-25.721109	-79.257288	169.371114	-79.257288	169.371114	-0.065995	-53.267356
1.650000	-0.033489	-26.510854	-78.061735	170.497470	-78.061735	170.497470	-0.067863	-54.841438
1.700000	-0.034508	-27.299441	-76.921504	171.085179	-76.921504	171.085179	-0.069713	-56.407685
1.750000	-0.035527	-28.087056	-75.849009	171.325831	-75.849009	171.325831	-0.071548	-57.967346
1.800000	-0.036548	-28.873597	-74.831882	171.255495	-74.831882	171.255495	-0.073367	-59.519738
1.850000	-0.037569	-29.659052	-73.865683	170.935807	-73.865683	170.935807	-0.075169	-61.064802
1.900000	-0.038591	-30.443411	-72.946156	170.414009	-72.946156	170.414009	-0.076954	-62.602487
1.950000	-0.039614	-31.226662	-72.069366	169.726706	-72.069366	169.726706	-0.078723	-64.132748
2.000000	-0.040637	-32.008793	-71.231749	168.902578	-71.231749	168.902578	-0.080477	-65.655547
2.050000	-0.041661	-32.789792	-70.430100	167.964342	-70.430100	167.964342	-0.082216	-67.170852
2.100000	-0.042686	-33.569647	-69.661559	166.930182	-69.661559	166.930182	-0.083940	-68.678638
2.150000	-0.043713	-34.348344	-68.923572	165.814799	-68.923572	165.814799	-0.085651	-70.178884
2.200000	-0.044740	-35.125871	-68.213859	164.630189	-68.213859	164.630189	-0.087350	-71.671576
2.250000	-0.045769	-35.902215	-67.530381	163.386230	-67.530381	163.386230	-0.089036	-73.156705
2.300000	-0.046800	-36.677364	-66.871314	162.091118	-66.871314	162.091118	-0.090713	-74.634267
2.350000	-0.047833	-37.451305	-66.235016	160.751707	-66.235016	160.751707	-0.092379	-76.104265
2.400000	-0.048869	-38.224025	-65.620012	159.373771	-65.620012	159.373771	-0.094038	-77.566706
2.450000	-0.049907	-38.995511	-65.024966	157.962206	-65.024966	157.962206	-0.095689	-79.021601
2.500000	-0.050949	-39.765750	-64.448671	156.521187	-64.448671	156.521187	-0.097334	-80.468966
2.550000	-0.051994	-40.534675	-63.889237	155.053317	-63.889237	155.053317	-0.098974	-81.908498
2.600000	-0.053044	-41.302327	-63.346551	153.562907	-63.346551	153.562907	-0.100611	-83.340551
2.650000	-0.054098	-42.068695	-62.819688	152.052589	-62.819688	152.052589	-0.102246	-84.765155
2.700000	-0.055157	-42.833765	-62.307800	150.524660	-62.307800	150.524660	-0.103880	-86.182345
2.750000	-0.056221	-43.597527	-61.810110	148.981133	-61.810110	148.981133	-0.105514	-87.592159
2.800000	-0.057291	-44.359969	-61.325902	147.423779	-61.325902	147.423779	-0.107150	-88.994641
2.850000	-0.058367	-45.121079	-60.854517	145.854163	-60.854517	145.854163	-0.108788	-90.389836
2.900000	-0.059449	-45.880846	-60.395344	144.273672	-60.395344	144.273672	-0.110431	-91.777795
2.950000	-0.060539	-46.639260	-59.947818	142.683537	-59.947818	142.683537	-0.112079	-93.158570
3.000000	-0.061636	-47.396309	-59.511415	141.084861	-59.511415	141.084861	-0.113732	-94.532220
3.050000	-0.062740	-48.151984	-59.085646	139.478626	-59.085646	139.478626	-0.115394	-95.898802
3.100000	-0.063854	-48.906275	-58.670056	137.865716	-58.670056	137.865716	-0.117064	-97.258381
3.150000	-0.064975	-49.659172	-58.264220	136.246926	-58.264220	136.246926	-0.118743	-98.611023
3.200000	-0.066106	-50.410665	-57.867740	134.622973	-57.867740	134.622973	-0.120433	-99.956795
3.250000	-0.067247	-51.160746	-57.480245	132.994503	-57.480245	132.994503	-0.122135	-101.295770
3.300000	-0.068397	-51.909407	-57.101384	131.362105	-57.101384	131.362105	-0.123849	-102.628020
3.350000	-0.069558	-52.656639	-56.730829	129.726311	-56.730829	129.726311	-0.125577	-103.953624
3.400000	-0.070730	-53.402433	-56.368270	128.087605	-56.368270	128.087605	-0.127319	-105.272658
3.450000	-0.071913	-54.146784	-56.013417	126.446430	-56.013417	126.446430	-0.129077	-106.585204
3.500000	-0.073108	-54.889682	-55.665994	124.803189	-55.665994	124.803189	-0.130850	-107.891345
3.550000	-0.074314	-55.631123	-55.325740	123.158250	-55.325740	123.158250	-0.132641	-109.191166
3.600000	-0.075534	-56.371099	-54.992410	121.511951	-54.992410	121.511951	-0.134449	-110.484754
3.650000	-0.076766	-57.109604	-54.665772	119.864602	-54.665772	119.864602	-0.136276	-111.772196
3.700000	-0.078011	-57.846633	-54.345602	118.216487	-54.345602	118.216487	-0.138122	-113.053584
3.750000	-0.079270	-58.582180	-54.031693	116.567866	-54.031693	116.567866	-0.139988	-114.329009
3.800000	-0.080544	-59.316177	-53.723635	114.918981	-53.723635	114.918981	-0.141875	-115.598314
3.850000	-0.081832	-60.048682	-53.421467	113.270070	-53.421467	113.270070	-0.143784	-116.861852
3.900000	-0.083135	-60.779692	-53.125007	111.621337	-53.125007	111.621337	-0.145714	-118.119720
3.950000	-0.084454	-61.509203	-52.834083	109.972968	-52.834083	109.972968	-0.147666	-119.372016
4.000000	-0.085788	-62.237213	-52.548528	108.325135	-52.548528	108.325135	-0.149641	-120.618837
4.050000	-0.087139	-62.963717	-52.268185	106.677997	-52.268185	106.677997	-0.151640	-121.860283
4.100000	-0.088506	-63.688715	-51.992903	105.031702	-51.992903	105.031702	-0.153662	-123.096455
4.150000	-0.089889	-64.412203	-51.722538	103.386385	-51.722538	103.386385	-0.155709	-124.327454
4.200000	-0.091291	-65.134181	-51.456953	101.742174	-51.456953	101.742174	-0.157780	-125.553382
4.250000	-0.092710	-65.854646	-51.196015	100.099185	-51.196015	100.099185	-0.159876	-126.774342
4.300000	-0.094147	-66.573598	-50.939599	98.457527	-50.939599	98.457527	-0.161997	-127.990438
4.350000	-0.095602	-67.291037	-50.687583	96.817300	-50.687583	96.817300	-0.164145	-129.201774
4.400000	-0.097077	-68.006962	-50.439852	95.178598	-50.439852	95.178598	-0.166318	-130.408454
4.450000	-0.098570	-68.721374	-50.196294	93.541506	-50.196294	93.541506	-0.168517	-131.610585
4.500000	-0.100084	-69.434273	-49.956803	91.906106	-49.956803	91.906106	-0.170744	-132.808272
4.550000	-0.101617	-70.145661	-49.721276	90.272471	-49.721276	90.272471	-0.172997	-134.001620
4.600000	-0.103171	-70.855538	-49.489615	88.640672	-49.489615	88.640672	-0.175277	-135.190738
4.650000	-0.104746	-71.563907	-49.261724	87.010772	-49.261724	87.010772	-0.177584	-136.375731
4.700000	-0.106342	-72.270769	-49.037513	85.382832	-49.037513	85.382832	-0.179919	-137.556707
4.750000	-0.107960	-72.976127	-48.816895	83.756906	-48.816895	83.756906	-0.182282	-138.733773
4.800000	-0.109600	-73.679984	-48.599784	82.133048	-48.599784	82.133048	-0.184672	-139.907036
4.850000	-0.111262	-74.382344	-48.386100	80.511305	-48.386100	80.511305	-0.187090	-141.076605
4.900000	-0.112948	-75.083208	-48.175764	78.891722	-48.175764	78.891722	-0.189537	-142.242588
4.950000	-0.114656	-75.782583	-47.968702	77.274341	-47.968702	77.274341	-0.192011	-143.405091
5.000000	-0.116388	-76.480471	-47.764840	75.659203	-47.764840	75.659203	-0.194514	-144.564224
5.050000	-0.118146	-77.176813	-47.564043	74.046443	-47.564043	74.046443	-0.197047	-145.719958
5.100000	-0.119927	-77.871679	-47.366316	72.435999	-47.366316	72.435999	-0.199608	-146.872546
5.150000	-0.121734	-78.565074	-47.171593	70.827902	-47.171593	70.827902	-0.202197	-148.022097
5.200000	-0.123566	-79.257004	-46.979810	69.222184	-46.979810	69.222184	-0.204815	-149.168720
5.250000	-0.125424	-79.947474	-46.790908	67.618873	-46.790908	67.618873	-0.207461	-150.312521
5.300000	-0.127308	-80.636491	-46.604827	66.017995	-46.604827	66.017995	-0.210136	-151.453608
5.350000	-0.129218	-81.324062	-46.421510	64.419577	-46.421510	64.419577	-0.212839	-152.592089
5.400000	-0.131156	-82.010192	-46.240902	62.823643	-46.240902	62.823643	-0.215571	-153.728071
5.450000	-0.133120	-82.694891	-46.062951	61.230217	-46.062951	61.230217	-0.218332	-154.861662
5.500000	-0.135113	-83.378164	-45.887606	59.639321	-45.887606	59.639321	-0.221120	-155.992969
5.550000	-0.137134	-84.060020	-45.714816	58.050978	-45.714816	58.050978	-0.223937	-157.122097
5.600000	-0.139183	-84.740467	-45.544534	56.465208	-45.544534	56.465208	-0.226783	-158.249155
5.650000	-0.141261	-85.419513	-45.376713	54.882033	-45.376713	54.882033	-0.229656	-159.374249
5.700000	-0.143369	-86.097168	-45.211310	53.301473	-45.211310	53.301473	-0.232558	-160.497483
5.750000	-0.145506	-86.773439	-45.048281	51.723548	-45.048281	51.723548	-0.235487	-161.618966
5.800000	-0.147673	-87.448336	-44.887584	50.148278	-44.887584	50.148278	-0.238444	-162.738801
5.850000	-0.149872	-88.121870	-44.729178	48.575684	-44.729178	48.575684	-0.241430	-163.857095
5.900000	-0.152101	-88.794048	-44.573025	47.005785	-44.573025	47.005785	-0.244442	-164.973952
5.950000	-0.154362	-89.464883	-44.419086	45.438602	-44.419086	45.438602	-0.247483	-166.089478
6.000000	-0.156654	-90.134383	-44.267325	43.874155	-44.267325	43.874155	-0.250550	-167.203777
6.050000	-0.158979	-90.802560	-44.117707	42.312465	-44.117707	42.312465	-0.253645	-168.316952
6.100000	-0.161337	-91.469424	-43.970197	40.753554	-43.970197	40.753554	-0.256767	-169.429108
6.150000	-0.163727	-92.134987	-43.824761	39.197443	-43.824761	39.197443	-0.259916	-170.540348
6.200000	-0.166151	-92.799260	-43.681367	37.644156	-43.681367	37.644156	-0.263091	-171.650775
6.250000	-0.168609	-93.462255	-43.539985	36.093715	-43.539985	36.093715	-0.266293	-172.760493
6.300000	-0.171103	-94.123928	-43.400573	34.546270	-43.400573	34.546270	-0.269522	-173.869582
6.350000	-0.173632	-94.784348	-43.263115	33.001724	-43.263115	33.001724	-0.272777	-174.978175
6.400000	-0.176196	-95.443527	-43.127582	31.460101	-43.127582	31.460101	-0.276058	-176.086374
6.450000	-0.178795	-96.101477	-42.993947	29.921430	-42.993947	29.921430	-0.279364	-177.194280
6.500000	-0.181430	-96.758212	-42.862184	28.385739	-42.862184	28.385739	-0.282696	-178.301995
6.550000	-0.184102	-97.413745	-42.732264	26.853058	-42.732264	26.853058	-0.286053	-179.409618
6.600000	-0.186811	-98.068088	-42.604165	25.323417	-42.604165	25.323417	-0.289435	179.482749
6.650000	-0.189556	-98.721256	-42.477859	23.796850	-42.477859	23.796850	-0.292842	178.375007
6.700000	-0.192340	-99.373263	-42.353324	22.273389	-42.353324	22.273389	-0.296273	177.267055
6.750000	-0.195161	-100.024121	-42.230537	20.753072	-42.230537	20.753072	-0.299728	176.158796
6.800000	-0.198021	-100.673845	-42.109473	19.235936	-42.109473	19.235936	-0.303207	175.050129
6.850000	-0.200919	-101.322451	-41.990112	17.722019	-41.990112	17.722019	-0.306710	173.940956
6.900000	-0.203857	-101.969951	-41.872432	16.211364	-41.872432	16.211364	-0.310236	172.831180
6.950000	-0.206834	-102.616362	-41.756411	14.704014	-41.756411	14.704014	-0.313786	171.720701
7.000000	-0.209851	-103.261699	-41.642029	13.200013	-41.642029	13.200013	-0.317358	170.609422
7.050000	-0.212909	-103.905975	-41.529266	11.699412	-41.529266	11.699412	-0.320953	169.497246
7.100000	-0.216007	-104.549208	-41.418103	10.202259	-41.418103	10.202259	-0.324571	168.384076
7.150000	-0.219146	-105.191412	-41.308521	8.708608	-41.308521	8.708608	-0.328210	167.269816
7.200000	-0.222327	-105.832603	-41.200500	7.218515	-41.200500	7.218515	-0.331872	166.154367
7.250000	-0.225550	-106.472798	-41.094022	5.732040	-41.094022	5.732040	-0.335555	165.037636
7.300000	-0.228815	-107.112013	-40.989070	4.249244	-40.989070	4.249244	-0.339259	163.919524
7.350000	-0.232122	-107.750264	-40.885626	2.770194	-40.885626	2.770194	-0.342985	162.799936
7.400000	-0.235473	-108.387568	-40.783672	1.294960	-40.783672	1.294960	-0.346732	161.678777
7.450000	-0.238867	-109.023941	-40.683191	-0.176385	-40.683191	-0.176385	-0.350500	160.555951
7.500000	-0.242304	-109.659400	-40.584167	-1.643762	-40.584167	-1.643762	-0.354288	159.431361
7.550000	-0.245788	-110.293926	-40.486597	-3.106909	-40.486597	-3.106909	-0.358098	158.304827
7.600000	-0.249315	-110.927574	-40.390453	-4.565908	-40.390453	-4.565908	-0.361928	157.176329
7.650000	-0.252888	-111.560363	-40.295716	-6.020665	-40.295716	-6.020665	-0.365778	156.045772
7.700000	-0.256505	-112.192309	-40.202372	-7.471078	-40.202372	-7.471078	-0.369648	154.913058
7.750000	-0.260168	-112.823432	-40.110403	-8.917040	-40.110403	-8.917040	-0.373539	153.778091
7.800000	-0.263877	-113.453750	-40.019794	-10.358434	-40.019794	-10.358434	-0.377449	152.640774
7.850000	-0.267632	-114.083279	-39.930527	-11.795136	-39.930527	-11.795136	-0.381380	151.501007
7.900000	-0.271433	-114.712041	-39.842588	-13.227013	-39.842588	-13.227013	-0.385332	150.358691
7.950000	-0.275281	-115.340052	-39.755958	-14.653919	-39.755958	-14.653919	-0.389304	149.213727
8.000000	-0.279175	-115.967331	-39.670621	-16.075698	-39.670621	-16.075698	-0.393297	148.066012
8.050000	-0.283118	-116.593899	-39.586560	-17.492182	-39.586560	-17.492182	-0.397311	146.915442
8.100000	-0.287107	-117.219774	-39.503758	-18.903185	-39.503758	-18.903185	-0.401347	145.761911
8.150000	-0.291145	-117.844975	-39.422196	-20.308506	-39.422196	-20.308506	-0.405406	144.605310
8.200000	-0.295230	-118.469522	-39.341855	-21.707924	-39.341855	-21.707924	-0.409488	143.445529
8.250000	-0.299365	-119.093436	-39.262715	-23.101197	-39.262715	-23.101197	-0.413594	142.282451
8.300000	-0.303547	-119.716735	-39.184756	-24.488056	-39.184756	-24.488056	-0.417727	141.115957
8.350000	-0.307782	-120.339408	-39.107982	-25.867788	-39.107982	-25.867788	-0.421888	139.945703
8.400000	-0.312057	-120.961612	-39.032256	-27.241865	-39.032256	-27.241865	-0.426073	138.772491
8.450000	-0.316396	-121.583091	-38.957782	-28.606169	-38.957782	-28.606169	-0.430298	137.594253
8.500000	-0.320778	-122.204123	-38.884319	-29.963687	-38.884319	-29.963687	-0.434555	136.412600
8.550000	-0.325203	-122.824718	-38.811840	-31.314209	-38.811840	-31.314209	-0.438843	135.227460
8.600000	-0.329685	-123.444741	-38.740445	-32.654592	-38.740445	-32.654592	-0.443179	134.037367
8.650000	-0.334222	-124.064261	-38.670049	-33.984588	-38.670049	-33.984588	-0.447568	132.842360
8.700000	-0.338803	-124.683403	-38.600521	-35.305865	-38.600521	-35.305865	-0.452003	131.643325
8.750000	-0.343427	-125.302176	-38.531832	-36.618101	-38.531832	-36.618101	-0.456489	130.440167
8.800000	-0.348121	-125.920387	-38.464057	-37.913776	-38.464057	-37.913776	-0.461073	129.229754
8.850000	-0.352859	-126.538280	-38.396958	-39.197987	-38.396958	-39.197987	-0.465734	128.014534
8.900000	-0.357642	-127.155865	-38.330482	-40.470116	-38.330482	-40.470116	-0.470479	126.794339
8.950000	-0.362481	-127.773078	-38.264558	-41.725496	-38.264558	-41.725496	-0.475347	125.567441
9.000000	-0.367379	-128.389928	-38.198961	-42.959971	-38.198961	-42.959971	-0.480389	124.332571
9.050000	-0.372323	-129.006532	-38.133560	-44.177064	-38.133560	-44.177064	-0.485590	123.091311
9.100000	-0.377312	-129.622898	-38.068259	-45.375663	-38.068259	-45.375663	-0.490968	121.843367
9.150000	-0.382370	-130.238933	-38.002354	-46.540436	-38.002354	-46.540436	-0.496708	120.583701
9.200000	-0.387466	-130.854811	-37.936027	-47.684010	-37.936027	-47.684010	-0.502704	119.316952
9.250000	-0.392627	-131.470431	-37.868026	-48.785508	-37.868026	-48.785508	-0.509251	118.036457
9.300000	-0.397839	-132.085877	-37.798061	-49.848280	-37.798061	-49.848280	-0.516376	116.743660
9.350000	-0.403108	-132.701146	-37.724607	-50.858785	-37.724607	-50.858785	-0.524383	115.434561
9.400000	-0.408433	-133.316264	-37.646265	-51.809573	-37.646265	-51.809573	-0.533545	114.107031
9.450000	-0.413814	-133.931245	-37.560606	-52.687676	-37.560606	-52.687676	-0.544349	112.757069
9.500000	-0.419254	-134.546091	-37.463657	-53.474027	-37.463657	-53.474027	-0.557611	111.378394
9.550000	-0.424758	-135.160796	-37.348104	-54.142087	-37.348104	-54.142087	-0.574873	109.961195
9.600000	-0.430324	-135.775348	-37.204587	-54.675400	-37.204587	-54.675400	-0.598256	108.496471
9.650000	-0.435954	-136.389699	-37.016613	-55.057423	-37.016613	-55.057423	-0.631754	106.970087
9.700000	-0.441653	-137.003724	-36.751022	-55.297209	-36.751022	-55.297209	-0.684192	105.361395
9.750000	-0.447413	-137.617183	-36.354638	-55.547564	-36.354638	-55.547564	-0.773145	103.665684
9.800000	-0.453193	-138.229580	-35.751310	-56.379640	-35.751310	-56.379640	-0.935646	101.969972
9.850000	-0.458812	-138.840145	-34.923070	-59.379400	-34.923070	-59.379400	-1.227768	100.808962
9.900000	-0.463712	-139.449887	-34.230528	-66.614165	-34.230528	-66.614165	-1.552007	101.678634
9.950000	-0.467889	-140.067443	-34.347462	-75.689133	-34.347462	-75.689133	-1.452120	103.755712
10.000000	-0.473223	-140.692152	-35.034140	-81.256216	-35.034140	-81.256216	-1.113762	103.620848
