! freq	dB(S11)	phase(S11)	dB(S12)	phase(S12)	
!     	dB(S21)	phase(S21)	dB(S22)	phase(S22)	
!S-par simulation data
#  GHz  S  DB  R 50
0.000000	-86.652020	0.000000	-0.000404	0.000000	-0.000404	0.000000	-86.652020	0.000000
0.050000	-35.605093	-92.559136	-0.003647	-2.632849	-0.003647	-2.632849	-35.605085	-92.558890
0.100000	-29.597131	-95.352427	-0.012198	-5.253598	-0.012198	-5.253598	-29.597117	-95.351948
0.150000	-26.095475	-98.076270	-0.023970	-7.859127	-0.023970	-7.859127	-26.095453	-98.075583
0.200000	-23.623804	-100.766591	-0.037605	-10.452194	-0.037605	-10.452194	-23.623775	-100.765719
0.250000	-21.718407	-103.429954	-0.052618	-13.036335	-0.052618	-13.036335	-21.718371	-103.428914
0.300000	-20.172605	-106.068882	-0.069018	-15.613315	-0.069018	-15.613315	-20.172566	-106.067680
0.350000	-18.875954	-108.685685	-0.086938	-18.183628	-0.086938	-18.183628	-18.875914	-108.684317
0.400000	-17.762235	-111.282915	-0.106470	-20.747122	-0.106470	-20.747122	-17.762196	-111.281373
0.450000	-16.789104	-113.862391	-0.127704	-23.303108	-0.127704	-23.303108	-16.789067	-113.860662
0.500000	-15.927316	-116.426073	-0.150633	-25.850970	-0.150633	-25.850970	-15.927281	-116.424144
0.550000	-15.156210	-118.975245	-0.175235	-28.389962	-0.175235	-28.389962	-15.156177	-118.973105
0.600000	-14.460629	-121.510755	-0.201469	-30.919300	-0.201469	-30.919300	-14.460597	-121.508393
0.650000	-13.828809	-124.033403	-0.229237	-33.438462	-0.229237	-33.438462	-13.828777	-124.030813
0.700000	-13.251919	-126.543394	-0.258465	-35.946720	-0.258465	-35.946720	-13.251886	-126.540572
0.750000	-12.722699	-129.041033	-0.289036	-38.443646	-0.289036	-38.443646	-12.722664	-129.037976
0.800000	-12.235354	-131.526407	-0.320834	-40.928819	-0.320834	-40.928819	-12.235317	-131.523114
0.850000	-11.785294	-133.999351	-0.353752	-43.401708	-0.353752	-43.401708	-11.785254	-133.995824
0.900000	-11.368371	-136.460027	-0.387648	-45.862225	-0.387648	-45.862225	-11.368327	-136.456269
0.950000	-10.981375	-138.908252	-0.422402	-48.310023	-0.422402	-48.310023	-10.981327	-138.904264
1.000000	-10.621538	-141.343892	-0.457889	-50.744863	-0.457889	-50.744863	-10.621486	-141.339680
1.050000	-10.286340	-143.767003	-0.493972	-53.166753	-0.493972	-53.166753	-10.286283	-143.762571
1.100000	-9.973677	-146.177569	-0.530523	-55.575655	-0.530523	-55.575655	-9.973618	-146.172921
1.150000	-9.681716	-148.575602	-0.567416	-57.971592	-0.567416	-57.971592	-9.681653	-148.570744
1.200000	-9.408841	-150.961157	-0.604525	-60.354641	-0.604525	-60.354641	-9.408776	-150.956093
1.250000	-9.153628	-153.334322	-0.641729	-62.724932	-0.641729	-62.724932	-9.153560	-153.329057
1.300000	-8.914905	-155.695098	-0.678906	-65.082509	-0.678906	-65.082509	-8.914837	-155.689636
1.350000	-8.691438	-158.043789	-0.715942	-67.427737	-0.715942	-67.427737	-8.691369	-158.038134
1.400000	-8.482208	-160.380602	-0.752725	-69.760883	-0.752725	-69.760883	-8.482141	-160.374758
1.450000	-8.286303	-162.705781	-0.789149	-72.082252	-0.789149	-72.082252	-8.286237	-162.699753
1.500000	-8.102894	-165.019605	-0.825113	-74.392186	-0.825113	-74.392186	-8.102831	-165.013395
1.550000	-7.931234	-167.322382	-0.860519	-76.691056	-0.860519	-76.691056	-7.931175	-167.315993
1.600000	-7.770705	-169.614368	-0.895268	-78.979182	-0.895268	-78.979182	-7.770650	-169.607802
1.650000	-7.620640	-171.895991	-0.929276	-81.257055	-0.929276	-81.257055	-7.620591	-171.889252
1.700000	-7.480592	-174.167491	-0.962444	-83.524978	-0.962444	-83.524978	-7.480548	-174.160581
1.750000	-7.349726	-176.429701	-0.994738	-85.783832	-0.994738	-85.783832	-7.349690	-176.422620
1.800000	-7.227752	-178.682809	-1.026064	-88.033866	-1.026064	-88.033866	-7.227724	-178.675560
1.850000	-7.114239	179.072734	-1.056353	-90.275584	-1.056353	-90.275584	-7.114218	179.080150
1.900000	-7.008859	176.836546	-1.085532	-92.509421	-1.085532	-92.509421	-7.008847	176.844128
1.950000	-6.911244	174.608132	-1.113541	-94.735923	-1.113541	-94.735923	-6.911241	174.615879
2.000000	-6.820989	172.386912	-1.140340	-96.955711	-1.140340	-96.955711	-6.820995	172.394824
2.050000	-6.737789	170.172386	-1.165884	-99.169325	-1.165884	-99.169325	-6.737804	170.180463
2.100000	-6.661364	167.964047	-1.190129	-101.377315	-1.190129	-101.377315	-6.661388	167.972288
2.150000	-6.591459	165.761380	-1.213037	-103.580230	-1.213037	-103.580230	-6.591492	165.769785
2.200000	-6.527840	163.563867	-1.234574	-105.778624	-1.234574	-105.778624	-6.527881	163.572436
2.250000	-6.470294	161.370986	-1.254710	-107.973051	-1.254710	-107.973051	-6.470343	161.379718
2.300000	-6.418627	159.182213	-1.273420	-110.164064	-1.273420	-110.164064	-6.418684	159.191109
2.350000	-6.372664	156.997024	-1.290681	-112.352216	-1.290681	-112.352216	-6.372727	157.006083
2.400000	-6.332245	154.814895	-1.306476	-114.538056	-1.306476	-114.538056	-6.332314	154.824117
2.450000	-6.297228	152.635303	-1.320791	-116.722132	-1.320791	-116.722132	-6.297301	152.644687
2.500000	-6.267484	150.457727	-1.333614	-118.904987	-1.333614	-118.904987	-6.267561	150.467273
2.550000	-6.243009	148.281672	-1.344905	-121.087156	-1.344905	-121.087156	-6.243090	148.291378
2.600000	-6.223593	146.106580	-1.354694	-123.269200	-1.354694	-123.269200	-6.223675	146.116446
2.650000	-6.209149	143.931943	-1.362979	-125.451645	-1.362979	-125.451645	-6.209232	143.941967
2.700000	-6.199605	141.757260	-1.369764	-127.635013	-1.369764	-127.635013	-6.199686	141.767440
2.750000	-6.194900	139.582035	-1.375053	-129.819817	-1.375053	-129.819817	-6.194979	139.592368
2.800000	-6.194985	137.405780	-1.378855	-132.006566	-1.378855	-132.006566	-6.195061	137.416262
2.850000	-6.199824	135.228013	-1.381180	-134.195759	-1.381180	-134.195759	-6.199895	135.238641
2.900000	-6.209391	133.048262	-1.382043	-136.387887	-1.382043	-136.387887	-6.209456	133.059032
2.950000	-6.223673	130.866063	-1.381459	-138.583437	-1.381459	-138.583437	-6.223729	130.876970
3.000000	-6.242665	128.680963	-1.379447	-140.782882	-1.379447	-140.782882	-6.242713	128.692000
3.050000	-6.266378	126.492519	-1.376029	-142.986691	-1.376029	-142.986691	-6.266415	126.503679
3.100000	-6.294830	124.300296	-1.371228	-145.195324	-1.371228	-145.195324	-6.294856	124.311572
3.150000	-6.328102	122.103824	-1.365056	-147.409291	-1.365056	-147.409291	-6.328116	122.115206
3.200000	-6.366238	119.902679	-1.357541	-149.629050	-1.357541	-149.629050	-6.366238	119.914157
3.250000	-6.409241	117.696512	-1.348728	-151.854973	-1.348728	-151.854973	-6.409227	117.708074
3.300000	-6.457177	115.484940	-1.338651	-154.087483	-1.338651	-154.087483	-6.457148	115.496573
3.350000	-6.510125	113.267596	-1.327343	-156.326991	-1.327343	-156.326991	-6.510079	113.279286
3.400000	-6.568174	111.044127	-1.314842	-158.573901	-1.314842	-158.573901	-6.568112	111.055857
3.450000	-6.631429	108.814196	-1.301186	-160.828604	-1.301186	-160.828604	-6.631351	108.825948
3.500000	-6.700007	106.577483	-1.286415	-163.091483	-1.286415	-163.091483	-6.699912	106.589237
3.550000	-6.774040	104.333686	-1.270573	-165.362909	-1.270573	-165.362909	-6.773928	104.345421
3.600000	-6.853674	102.082521	-1.253702	-167.643244	-1.253702	-167.643244	-6.853547	102.094212
3.650000	-6.939073	99.823725	-1.235851	-169.932839	-1.235851	-169.932839	-6.938929	99.835347
3.700000	-7.030415	97.557056	-1.217065	-172.232033	-1.217065	-172.232033	-7.030256	97.568579
3.750000	-7.127898	95.282295	-1.197396	-174.541155	-1.197396	-174.541155	-7.127725	95.293689
3.800000	-7.231854	92.999063	-1.176877	-176.860751	-1.176877	-176.860751	-7.231668	93.010292
3.850000	-7.342411	90.707369	-1.155582	-179.190910	-1.155582	-179.190910	-7.342212	90.718396
3.900000	-7.459828	88.407076	-1.133564	178.468075	-1.133564	178.468075	-7.459619	88.417859
3.950000	-7.584392	86.098076	-1.110882	176.115925	-1.110882	176.115925	-7.584174	86.108571
4.000000	-7.716415	83.780295	-1.087592	173.752373	-1.087592	173.752373	-7.716191	83.790453
4.050000	-7.856239	81.453696	-1.063756	171.377163	-1.063756	171.377163	-7.856010	81.463464
4.100000	-8.004238	79.118281	-1.039435	168.990056	-1.039435	168.990056	-8.004007	79.127602
4.150000	-8.160822	76.774098	-1.014691	166.590823	-1.014691	166.590823	-8.160592	76.782907
4.200000	-8.326442	74.421242	-0.989590	164.179251	-0.989590	164.179251	-8.326216	74.429471
4.250000	-8.501593	72.059863	-0.964196	161.755142	-0.964196	161.755142	-8.501373	72.067435
4.300000	-8.686817	69.690173	-0.938578	159.318311	-0.938578	159.318311	-8.686608	69.697004
4.350000	-8.882717	67.312450	-0.912803	156.868589	-0.912803	156.868589	-8.882521	67.318449
4.400000	-9.090029	64.926977	-0.886942	154.405680	-0.886942	154.405680	-9.089851	64.932040
4.450000	-9.309497	62.534220	-0.861068	151.929441	-0.861068	151.929441	-9.309341	62.538232
4.500000	-9.541867	60.134822	-0.835255	149.439895	-0.835255	149.439895	-9.541736	60.137658
4.550000	-9.788052	57.729468	-0.809577	146.936939	-0.809577	146.936939	-9.787953	57.730986
4.600000	-10.049078	55.318983	-0.784109	144.420487	-0.784109	144.420487	-10.049014	55.319026
4.650000	-10.326094	52.904368	-0.758927	141.890472	-0.758927	141.890472	-10.326071	52.902756
4.700000	-10.620402	50.486825	-0.734108	139.346842	-0.734108	139.346842	-10.620426	50.483357
4.750000	-10.933477	48.067809	-0.709729	136.789569	-0.709729	136.789569	-10.933555	48.062253
4.800000	-11.267006	45.649076	-0.685871	134.218638	-0.685871	134.218638	-11.267145	45.641169
4.850000	-11.622923	43.232765	-0.662611	131.634058	-0.662611	131.634058	-11.623133	43.222201
4.900000	-12.003468	40.821485	-0.640030	129.035857	-0.640030	129.035857	-12.003757	40.807910
4.950000	-12.411247	38.418453	-0.618210	126.424080	-0.618210	126.424080	-12.411627	38.401451
5.000000	-12.849323	36.027664	-0.597231	123.798798	-0.597231	123.798798	-12.849807	36.006744
5.050000	-13.321551	33.654657	-0.577196	121.159811	-0.577196	121.159811	-13.322158	33.629219
5.100000	-13.832067	31.305671	-0.558170	118.507525	-0.558170	118.507525	-13.832818	31.275002
5.150000	-14.386136	28.989128	-0.540235	115.842075	-0.540235	115.842075	-14.387060	28.952356
5.200000	-14.990217	26.716125	-0.523474	113.163617	-0.523474	113.163617	-14.991352	26.672172
5.250000	-15.652353	24.501600	-0.507969	110.472333	-0.507969	110.472333	-15.653751	24.449106
5.300000	-16.382732	22.366138	-0.493802	107.768426	-0.493802	107.768426	-16.384465	22.303364
5.350000	-17.194512	20.338935	-0.481055	105.052121	-0.481055	105.052121	-17.196688	20.263602
5.400000	-18.105083	18.462802	-0.469810	102.323670	-0.469810	102.323670	-18.107864	18.371858
5.450000	-19.138050	16.803122	-0.460148	99.583346	-0.460148	99.583346	-19.141692	16.692353
5.500000	-20.326485	15.464802	-0.452148	96.831450	-0.452148	96.831450	-20.331416	15.328193
5.550000	-21.718477	14.626851	-0.445891	94.068303	-0.445891	94.068303	-21.725467	14.455471
5.600000	-23.386961	14.619447	-0.441456	91.294255	-0.441456	91.294255	-23.397519	14.399449
5.650000	-25.446759	16.142096	-0.438934	88.509597	-0.438934	88.509597	-25.464236	15.850949
5.700000	-28.075929	20.874968	-0.438405	85.714737	-0.438405	85.714737	-28.109053	20.478000
5.750000	-31.449766	33.458696	-0.439927	82.910187	-0.439927	82.910187	-31.524715	32.946013
5.800000	-34.595411	65.192917	-0.443573	80.096397	-0.443573	80.096397	-34.756872	64.978708
5.850000	-33.355607	107.665902	-0.449414	77.273841	-0.449414	77.273841	-33.481392	108.223177
5.900000	-29.670072	129.030601	-0.457518	74.443020	-0.457518	74.443020	-29.725644	129.616929
5.950000	-26.542476	136.885321	-0.468035	71.604205	-0.468035	71.604205	-26.570758	137.360254
6.000000	-24.111116	139.865452	-0.480877	68.758438	-0.480877	68.758438	-24.127940	140.255868
6.050000	-22.157655	140.541261	-0.496174	65.906063	-0.496174	65.906063	-22.168856	140.873784
6.100000	-20.536327	140.036422	-0.513983	63.047677	-0.513983	63.047677	-20.544384	140.328255
6.150000	-19.154661	138.852316	-0.534359	60.183901	-0.534359	60.183901	-19.160782	139.114401
6.200000	-17.952862	137.243146	-0.557355	57.315378	-0.557355	57.315378	-17.957701	137.482699
6.250000	-16.890686	135.350852	-0.583016	54.442774	-0.583016	54.442774	-16.894627	135.572828
6.300000	-15.939904	133.257771	-0.611446	51.566717	-0.611446	51.566717	-15.943185	133.465752
6.350000	-15.080247	131.022975	-0.642626	48.688003	-0.642626	48.688003	-15.083024	131.219522
6.400000	-14.296505	128.683531	-0.676548	45.807380	-0.676548	45.807380	-14.298885	128.870554
6.450000	-13.577009	126.261754	-0.713314	42.925535	-0.713314	42.925535	-13.579067	126.440772
6.500000	-12.912709	123.776999	-0.752922	40.043251	-0.752922	40.043251	-12.914498	123.949187
6.550000	-12.296393	121.242774	-0.795392	37.161298	-0.795392	37.161298	-12.297955	121.409072
6.600000	-11.722255	118.669147	-0.840761	34.280476	-0.840761	34.280476	-11.723620	118.830320
6.650000	-11.185522	116.064480	-0.889024	31.401586	-0.889024	31.401586	-11.186714	116.221150
6.700000	-10.682233	113.435284	-0.940179	28.525426	-0.940179	28.525426	-10.683273	113.587966
6.750000	-10.209071	110.786784	-0.994225	25.652806	-0.994225	25.652806	-10.209974	110.935910
6.800000	-9.763225	108.123322	-1.051155	22.784541	-1.051155	22.784541	-9.764005	108.269258
6.850000	-9.342293	105.448562	-1.110956	19.921444	-1.110956	19.921444	-9.342961	105.591621
6.900000	-8.944225	102.765618	-1.173623	17.064368	-1.173623	17.064368	-8.944790	102.906068
6.950000	-8.567224	100.077257	-1.239130	14.214138	-1.239130	14.214138	-8.567697	100.215334
7.000000	-8.209697	97.385914	-1.307434	11.371528	-1.307434	11.371528	-8.210087	97.521823
7.050000	-7.870258	94.693716	-1.378498	8.537337	-1.378498	8.537337	-7.870572	94.827638
7.100000	-7.547783	92.002638	-1.452331	5.712595	-1.452331	5.712595	-7.548028	92.134738
7.150000	-7.240990	89.314342	-1.528794	2.897670	-1.528794	2.897670	-7.241174	89.444763
7.200000	-6.948975	86.630417	-1.607873	0.093497	-1.607873	0.093497	-6.949106	86.759293
7.250000	-6.670854	83.952309	-1.689510	-2.699183	-1.689510	-2.699183	-6.670937	84.079760
7.300000	-6.405822	81.281346	-1.773642	-5.479644	-1.773642	-5.479644	-6.405863	81.407485
7.350000	-6.153148	78.618757	-1.860200	-8.247186	-1.860200	-8.247186	-6.153154	78.743689
7.400000	-5.912112	75.965567	-1.949095	-11.001285	-1.949095	-11.001285	-5.912089	76.089389
7.450000	-5.682228	73.323119	-2.040287	-13.740901	-2.040287	-13.740901	-5.682182	73.445926
7.500000	-5.462852	70.692240	-2.133669	-16.465630	-2.133669	-16.465630	-5.462788	70.814119
7.550000	-5.253510	68.073987	-2.229165	-19.174700	-2.229165	-19.174700	-5.253433	68.195024
7.600000	-5.053663	65.469082	-2.326672	-21.867706	-2.326672	-21.867706	-5.053577	65.589355
7.650000	-4.862856	62.878309	-2.426096	-24.544111	-2.426096	-24.544111	-4.862766	62.997896
7.700000	-4.680662	60.302398	-2.527340	-27.203409	-2.527340	-27.203409	-4.680571	60.421370
7.750000	-4.506682	57.742019	-2.630306	-29.845130	-2.630306	-29.845130	-4.506595	57.860447
7.800000	-4.340541	55.197792	-2.734892	-32.468834	-2.734892	-32.468834	-4.340460	55.315741
7.850000	-4.181920	52.670424	-2.840994	-35.073962	-2.840994	-35.073962	-4.181847	52.787959
7.900000	-4.030459	50.160349	-2.948504	-37.660238	-2.948504	-37.660238	-4.030396	50.277528
7.950000	-3.885909	47.668335	-3.057311	-40.227003	-3.057311	-40.227003	-3.885858	47.785215
8.000000	-3.747785	45.194019	-3.167313	-42.774797	-3.167313	-42.774797	-3.747746	45.310650
8.050000	-3.615905	42.738210	-3.278401	-45.302881	-3.278401	-45.302881	-3.615879	42.854642
8.100000	-3.489999	40.301242	-3.390464	-47.811016	-3.390464	-47.811016	-3.489986	40.417518
8.150000	-3.369849	37.883618	-3.503385	-50.298776	-3.503385	-50.298776	-3.369850	37.999778
8.200000	-3.255206	35.485594	-3.617050	-52.765980	-3.617050	-52.765980	-3.255219	35.601672
8.250000	-3.145792	33.107169	-3.731356	-55.212707	-3.731356	-55.212707	-3.145816	33.223197
8.300000	-3.041381	30.748513	-3.846195	-57.638845	-3.846195	-57.638845	-3.041415	30.864516
8.350000	-2.941659	28.409180	-3.961492	-60.044911	-3.961492	-60.044911	-2.941700	28.525178
8.400000	-2.846637	26.090497	-4.077070	-62.429577	-4.077070	-62.429577	-2.846684	26.206505
8.450000	-2.756004	23.791878	-4.192857	-64.793486	-4.192857	-64.793486	-2.756054	23.907908
8.500000	-2.669649	21.513840	-4.308710	-67.136137	-4.308710	-67.136137	-2.669700	21.629897
8.550000	-2.587252	19.255508	-4.424590	-69.458456	-4.424590	-69.458456	-2.587301	19.371592
8.600000	-2.508722	17.017340	-4.540358	-71.759986	-4.540358	-71.759986	-2.508767	17.133446
8.650000	-2.433781	14.798503	-4.655982	-74.041593	-4.655982	-74.041593	-2.433818	14.914624
8.700000	-2.362556	12.600842	-4.771187	-76.301380	-4.771187	-76.301380	-2.362585	12.716963
8.750000	-2.294460	10.421180	-4.886168	-78.542619	-4.886168	-78.542619	-2.294476	10.537285
8.800000	-2.229938	8.263577	-5.000406	-80.761115	-5.000406	-80.761115	-2.229940	8.379641
8.850000	-2.168281	6.123706	-5.114240	-82.961317	-5.114240	-82.961317	-2.168267	6.239706
8.900000	-2.109767	4.004398	-5.227250	-85.140284	-5.227250	-85.140284	-2.109734	4.120306
8.950000	-2.054029	1.903597	-5.339555	-87.300117	-5.339555	-87.300117	-2.053976	2.019382
9.000000	-2.001046	-0.178174	-5.450980	-89.440247	-5.450980	-89.440247	-2.000972	-0.062544
9.050000	-1.950756	-2.240781	-5.561389	-91.560504	-5.561389	-91.560504	-1.950660	-2.125340
9.100000	-1.902878	-4.285904	-5.670884	-93.662597	-5.670884	-93.662597	-1.902760	-4.170685
9.150000	-1.857614	-6.311327	-5.779043	-95.744181	-5.779043	-95.744181	-1.857473	-6.196367
9.200000	-1.814498	-8.320463	-5.886223	-97.808772	-5.886223	-97.808772	-1.814334	-8.205793
9.250000	-1.773845	-10.310164	-5.991842	-99.853037	-5.991842	-99.853037	-1.773659	-10.195818
9.300000	-1.735221	-12.283775	-6.096274	-101.880431	-6.096274	-101.880431	-1.735013	-12.169778
9.350000	-1.698777	-14.239600	-6.199131	-103.889128	-6.199131	-103.889128	-1.698550	-14.125980
9.400000	-1.664332	-16.178932	-6.300490	-105.880439	-6.300490	-105.880439	-1.664087	-16.065708
9.450000	-1.631820	-18.102087	-6.400275	-107.854650	-6.400275	-107.854650	-1.631559	-17.989274
9.500000	-1.601284	-20.008448	-6.498245	-109.811060	-6.498245	-109.811060	-1.601009	-19.896054
9.550000	-1.572463	-21.900187	-6.594655	-111.751925	-6.594655	-111.751925	-1.572176	-21.788213
9.600000	-1.545604	-23.774931	-6.688926	-113.674676	-6.688926	-113.674676	-1.545308	-23.663366
9.650000	-1.520334	-25.635969	-6.781546	-115.582778	-6.781546	-115.582778	-1.520029	-25.524797
9.700000	-1.496895	-27.481041	-6.871928	-117.473776	-6.871928	-117.473776	-1.496585	-27.370230
9.750000	-1.475031	-29.312462	-6.960399	-119.350118	-6.960399	-119.350118	-1.474715	-29.201971
9.800000	-1.454828	-31.129464	-7.046652	-121.210949	-7.046652	-121.210949	-1.454509	-31.019236
9.850000	-1.436228	-32.932649	-7.130671	-123.056900	-7.130671	-123.056900	-1.435904	-32.822616
9.900000	-1.419143	-34.722873	-7.212500	-124.888879	-7.212500	-124.888879	-1.418814	-34.612952
9.950000	-1.403698	-36.499185	-7.291761	-126.705860	-7.291761	-126.705860	-1.403361	-36.389268
10.000000	-1.389643	-38.263899	-7.368865	-128.510347	-7.368865	-128.510347	-1.389294	-38.153880
