! freq	dB(S11)	phase(S11)	dB(S12)	phase(S12)	
!     	dB(S21)	phase(S21)	dB(S22)	phase(S22)	
!S-par simulation data
#  GHz  S  DB  R 50
0.000000	-0.000000	0.000000	-347.613060	180.000000	-347.613060	180.000000	-0.000000	0.000000
0.050000	-0.000275	-0.812695	-91.446561	-176.235063	-91.446561	-176.235063	-0.000133	-1.338808
0.100000	-0.001022	-1.623858	-91.015200	167.510279	-91.015200	167.510279	-0.000531	-2.677308
0.150000	-0.002060	-2.432686	-90.611995	156.363151	-90.611995	156.363151	-0.001182	-4.015205
0.200000	-0.003218	-3.239193	-90.152454	147.183418	-90.152454	147.183418	-0.002070	-5.352233
0.250000	-0.004387	-4.043666	-89.657923	139.407746	-89.657923	139.407746	-0.003190	-6.688068
0.300000	-0.005516	-4.846765	-89.163394	132.646921	-89.163394	132.646921	-0.004500	-8.022595
0.350000	-0.006596	-5.648782	-88.689264	126.786913	-88.689264	126.786913	-0.005985	-9.355577
0.400000	-0.007632	-6.449973	-88.252083	121.694337	-88.252083	121.694337	-0.007622	-10.686854
0.450000	-0.008636	-7.250489	-87.863016	117.263501	-87.863016	117.263501	-0.009385	-12.016295
0.500000	-0.009621	-8.050405	-87.529447	113.412604	-87.529447	113.412604	-0.011250	-13.343798
0.550000	-0.010596	-8.849751	-87.256329	110.081665	-87.256329	110.081665	-0.013195	-14.669284
0.600000	-0.011570	-9.648526	-87.047164	107.230911	-87.047164	107.230911	-0.015198	-15.992696
0.650000	-0.012547	-10.446716	-86.904664	104.839764	-86.904664	104.839764	-0.017243	-17.313994
0.700000	-0.013532	-11.244295	-86.831157	102.906708	-86.831157	102.906708	-0.019311	-18.633151
0.750000	-0.014526	-12.041238	-86.828751	101.450346	-86.828751	101.450346	-0.021390	-19.950149
0.800000	-0.015530	-12.837516	-86.899257	100.511907	-86.899257	100.511907	-0.023468	-21.264977
0.850000	-0.016544	-13.633102	-87.043775	100.159475	-87.043775	100.159475	-0.025536	-22.577627
0.900000	-0.017567	-14.427969	-87.261744	100.494002	-87.261744	100.494002	-0.027586	-23.888092
0.950000	-0.018598	-15.222093	-87.549073	101.656535	-87.549073	101.656535	-0.029614	-25.196367
1.000000	-0.019636	-16.015452	-87.894744	103.834122	-87.894744	103.834122	-0.031615	-26.502444
1.050000	-0.020679	-16.808026	-88.275079	107.257147	-88.275079	107.257147	-0.033586	-27.806312
1.100000	-0.021727	-17.599794	-88.645328	112.171599	-88.645328	112.171599	-0.035526	-29.107959
1.150000	-0.022777	-18.390740	-88.930796	118.758037	-88.930796	118.758037	-0.037434	-30.407370
1.200000	-0.023830	-19.180845	-89.026521	126.972688	-89.026521	126.972688	-0.039311	-31.704526
1.250000	-0.024883	-19.970094	-88.821808	136.354633	-88.821808	136.354633	-0.041157	-32.999407
1.300000	-0.025937	-20.758434	-88.236102	145.962108	-88.236102	145.962108	-0.042972	-34.291886
1.350000	-0.026989	-21.545886	-87.317586	154.753561	-87.317586	154.753561	-0.044758	-35.582038
1.400000	-0.028040	-22.332437	-86.167695	162.115000	-86.167695	162.115000	-0.046518	-36.869832
1.450000	-0.029088	-23.118072	-84.896975	167.888712	-84.896975	167.888712	-0.048253	-38.155241
1.500000	-0.030135	-23.902778	-83.589462	172.207071	-83.589462	172.207071	-0.049966	-39.438232
1.550000	-0.031178	-24.686541	-82.296966	175.312813	-82.296966	175.312813	-0.051657	-40.718774
1.600000	-0.032219	-25.469346	-81.046875	177.454239	-81.046875	177.454239	-0.053330	-41.996834
1.650000	-0.033256	-26.251180	-79.851370	178.843826	-79.851370	178.843826	-0.054986	-43.272380
1.700000	-0.034291	-27.032030	-78.714125	179.650131	-78.714125	179.650131	-0.056627	-44.545380
1.750000	-0.035323	-27.811881	-77.634401	-179.997413	-77.634401	-179.997413	-0.058255	-45.815801
1.800000	-0.036352	-28.590719	-76.609359	179.999452	-76.609359	179.999452	-0.059872	-47.083611
1.850000	-0.037379	-29.368531	-75.635299	179.715286	-75.635299	179.715286	-0.061480	-48.348781
1.900000	-0.038404	-30.145301	-74.708307	179.206957	-74.708307	179.206957	-0.063079	-49.611280
1.950000	-0.039427	-30.921016	-73.824570	178.518188	-73.824570	178.518188	-0.064673	-50.871080
2.000000	-0.040448	-31.695662	-72.980526	177.682908	-72.980526	177.682908	-0.066261	-52.128154
2.050000	-0.041468	-32.469224	-72.172916	176.727695	-72.172916	176.727695	-0.067847	-53.382477
2.100000	-0.042488	-33.241688	-71.398791	175.673571	-71.398791	175.673571	-0.069431	-54.634023
2.150000	-0.043507	-34.013040	-70.655503	174.537314	-70.655503	174.537314	-0.071014	-55.882771
2.200000	-0.044527	-34.783264	-69.940674	173.332427	-69.940674	173.332427	-0.072597	-57.128701
2.250000	-0.045547	-35.552348	-69.252175	172.069870	-69.252175	172.069870	-0.074183	-58.371794
2.300000	-0.046568	-36.320277	-68.588096	170.758600	-68.588096	170.758600	-0.075771	-59.612032
2.350000	-0.047591	-37.087037	-67.946720	169.405990	-67.946720	169.405990	-0.077363	-60.849402
2.400000	-0.048616	-37.852614	-67.326502	168.018147	-67.326502	168.018147	-0.078959	-62.083891
2.450000	-0.049643	-38.616995	-66.726048	166.600156	-66.726048	166.600156	-0.080562	-63.315488
2.500000	-0.050674	-39.380165	-66.144096	165.156278	-66.144096	165.156278	-0.082171	-64.544185
2.550000	-0.051708	-40.142058	-65.578665	163.689268	-65.578665	163.689268	-0.083788	-65.769849
2.600000	-0.052746	-40.902712	-65.029644	162.203211	-65.029644	162.203211	-0.085414	-66.992602
2.650000	-0.053789	-41.662116	-64.496078	160.700623	-64.496078	160.700623	-0.087048	-68.212442
2.700000	-0.054837	-42.420257	-63.977090	159.183651	-63.977090	159.183651	-0.088692	-69.429371
2.750000	-0.055890	-43.177121	-63.471882	157.654132	-63.471882	157.654132	-0.090347	-70.643390
2.800000	-0.056949	-43.932698	-62.979720	156.113643	-62.979720	156.113643	-0.092013	-71.854504
2.850000	-0.058014	-44.686974	-62.499930	154.563538	-62.499930	154.563538	-0.093691	-73.062721
2.900000	-0.059086	-45.439939	-62.031893	153.004988	-62.031893	153.004988	-0.095382	-74.268050
2.950000	-0.060165	-46.191582	-61.575035	151.439002	-61.575035	151.439002	-0.097085	-75.470501
3.000000	-0.061252	-46.941891	-61.128828	149.866455	-61.128828	149.866455	-0.098803	-76.670089
3.050000	-0.062347	-47.690857	-60.692783	148.288107	-60.692783	148.288107	-0.100535	-77.866828
3.100000	-0.063451	-48.438468	-60.266445	146.704616	-60.266445	146.704616	-0.102282	-79.060736
3.150000	-0.064563	-49.184715	-59.849392	145.116558	-59.849392	145.116558	-0.104044	-80.251834
3.200000	-0.065685	-49.929589	-59.441234	143.524431	-59.441234	143.524431	-0.105823	-81.440141
3.250000	-0.066816	-50.673080	-59.041603	141.928674	-59.041603	141.928674	-0.107618	-82.625683
3.300000	-0.067958	-51.415179	-58.650160	140.329670	-58.650160	140.329670	-0.109431	-83.808485
3.350000	-0.069110	-52.155880	-58.266586	138.727754	-58.266586	138.727754	-0.111262	-84.988574
3.400000	-0.070273	-52.895172	-57.890583	137.123222	-57.890583	137.123222	-0.113111	-86.165981
3.450000	-0.071448	-53.633049	-57.521874	135.516333	-57.521874	135.516333	-0.114979	-87.340735
3.500000	-0.072634	-54.369504	-57.160196	133.907317	-57.160196	133.907317	-0.116867	-88.512872
3.550000	-0.073832	-55.104529	-56.805305	132.296379	-56.805305	132.296379	-0.118775	-89.682425
3.600000	-0.075043	-55.838119	-56.456971	130.683700	-56.456971	130.683700	-0.120704	-90.849432
3.650000	-0.076267	-56.570267	-56.114977	129.069443	-56.114977	129.069443	-0.122654	-92.013933
3.700000	-0.077504	-57.300968	-55.779119	127.453754	-55.779119	127.453754	-0.124626	-93.175966
3.750000	-0.078754	-58.030216	-55.449205	125.836764	-55.449205	125.836764	-0.126620	-94.335575
3.800000	-0.080020	-58.757943	-55.124780	124.218549	-55.124780	124.218549	-0.128639	-95.492703
3.850000	-0.081300	-59.484207	-54.805969	122.599274	-54.805969	122.599274	-0.130681	-96.647500
3.900000	-0.082594	-60.209005	-54.492608	120.979040	-54.492608	120.979040	-0.132747	-97.800014
3.950000	-0.083904	-60.932334	-54.184543	119.357942	-54.184543	119.357942	-0.134838	-98.950295
4.000000	-0.085230	-61.654189	-53.881628	117.736067	-53.881628	117.736067	-0.136955	-100.098393
4.050000	-0.086571	-62.374568	-53.583724	116.113501	-53.583724	116.113501	-0.139097	-101.244360
4.100000	-0.087929	-63.093469	-53.290701	114.490325	-53.290701	114.490325	-0.141267	-102.388251
4.150000	-0.089304	-63.810889	-53.002433	112.866615	-53.002433	112.866615	-0.143463	-103.530121
4.200000	-0.090696	-64.526826	-52.718802	111.242447	-52.718802	111.242447	-0.145687	-104.670026
4.250000	-0.092105	-65.241281	-52.439694	109.617895	-52.439694	109.617895	-0.147939	-105.808024
4.300000	-0.093532	-65.954251	-52.165001	107.993032	-52.165001	107.993032	-0.150220	-106.944177
4.350000	-0.094978	-66.665736	-51.894621	106.367930	-51.894621	106.367930	-0.152531	-108.078543
4.400000	-0.096442	-67.375736	-51.628455	104.742659	-51.628455	104.742659	-0.154872	-109.211187
4.450000	-0.097925	-68.084250	-51.366410	103.117291	-51.366410	103.117291	-0.157243	-110.342173
4.500000	-0.099428	-68.791281	-51.108393	101.491896	-51.108393	101.491896	-0.159646	-111.471564
4.550000	-0.100950	-69.496828	-50.854320	99.866545	-50.854320	99.866545	-0.162080	-112.599428
4.600000	-0.102493	-70.200893	-50.604107	98.241309	-50.604107	98.241309	-0.164547	-113.725832
4.650000	-0.104056	-70.903477	-50.357673	96.616259	-50.357673	96.616259	-0.167046	-114.850846
4.700000	-0.105641	-71.604583	-50.114941	94.991466	-50.114941	94.991466	-0.169580	-115.974539
4.750000	-0.107246	-72.304212	-49.875838	93.367002	-49.875838	93.367002	-0.172147	-117.096984
4.800000	-0.108874	-73.002368	-49.640292	91.742938	-49.640292	91.742938	-0.174749	-118.218253
4.850000	-0.110524	-73.699054	-49.408232	90.119345	-49.408232	90.119345	-0.177386	-119.338420
4.900000	-0.112196	-74.394272	-49.179592	88.496294	-49.179592	88.496294	-0.180058	-120.457561
4.950000	-0.113891	-75.088027	-48.954307	86.873857	-48.954307	86.873857	-0.182767	-121.575751
5.000000	-0.115610	-75.780323	-48.732312	85.252103	-48.732312	85.252103	-0.185513	-122.693067
5.050000	-0.117354	-76.471100	-48.513450	83.631139	-48.513450	83.631139	-0.188297	-123.809559
5.100000	-0.119121	-77.160428	-48.297766	82.011004	-48.297766	82.011004	-0.191120	-124.925343
5.150000	-0.120914	-77.848311	-48.085202	80.391765	-48.085202	80.391765	-0.193980	-126.040500
5.200000	-0.122731	-78.534754	-47.875701	78.773491	-47.875701	78.773491	-0.196879	-127.155113
5.250000	-0.124574	-79.219764	-47.669207	77.156246	-47.669207	77.156246	-0.199818	-128.269265
5.300000	-0.126443	-79.903345	-47.465665	75.540094	-47.465665	75.540094	-0.202796	-129.383039
5.350000	-0.128338	-80.585506	-47.265023	73.925097	-47.265023	73.925097	-0.205814	-130.496521
5.400000	-0.130260	-81.266251	-47.067228	72.311316	-47.067228	72.311316	-0.208873	-131.609798
5.450000	-0.132209	-81.945588	-46.872229	70.698810	-46.872229	70.698810	-0.211972	-132.722957
5.500000	-0.134185	-82.623524	-46.679977	69.087633	-46.679977	69.087633	-0.215113	-133.836085
5.550000	-0.136190	-83.300066	-46.490424	67.477840	-46.490424	67.477840	-0.218295	-134.949273
5.600000	-0.138222	-83.975223	-46.303520	65.869481	-46.303520	65.869481	-0.221520	-136.062610
5.650000	-0.140284	-84.649002	-46.119220	64.262605	-46.119220	64.262605	-0.224786	-137.176189
5.700000	-0.142375	-85.321411	-45.937477	62.657258	-45.937477	62.657258	-0.228096	-138.290102
5.750000	-0.144495	-85.992459	-45.758247	61.053482	-45.758247	61.053482	-0.231448	-139.404441
5.800000	-0.146645	-86.662155	-45.581487	59.451315	-45.581487	59.451315	-0.234843	-140.519301
5.850000	-0.148826	-87.330508	-45.407151	57.850796	-45.407151	57.850796	-0.238281	-141.634778
5.900000	-0.151037	-87.997527	-45.235200	56.251957	-45.235200	56.251957	-0.241763	-142.750968
5.950000	-0.153280	-88.663222	-45.065591	54.654827	-45.065591	54.654827	-0.245289	-143.867968
6.000000	-0.155555	-89.327603	-44.898284	53.059435	-44.898284	53.059435	-0.248859	-144.985877
6.050000	-0.157861	-89.990680	-44.733240	51.465802	-44.733240	51.465802	-0.252472	-146.104793
6.100000	-0.160200	-90.652462	-44.570419	49.873950	-44.570419	49.873950	-0.256130	-147.224816
6.150000	-0.162572	-91.312962	-44.409785	48.283896	-44.409785	48.283896	-0.259832	-148.346049
6.200000	-0.164978	-91.972189	-44.251300	46.695654	-44.251300	46.695654	-0.263578	-149.468591
6.250000	-0.167417	-92.630154	-44.094929	45.109234	-44.094929	45.109234	-0.267369	-150.592548
6.300000	-0.169891	-93.286816	-43.940608	43.524725	-43.940608	43.524725	-0.271205	-151.718093
6.350000	-0.172401	-93.942240	-43.788335	41.942052	-43.788335	41.942052	-0.275085	-152.845270
6.400000	-0.174945	-94.596439	-43.638077	40.361218	-43.638077	40.361218	-0.279010	-153.974184
6.450000	-0.177525	-95.249424	-43.489801	38.782222	-43.489801	38.782222	-0.282978	-155.104943
6.500000	-0.180141	-95.901208	-43.343476	37.205062	-43.343476	37.205062	-0.286990	-156.237653
6.550000	-0.182792	-96.551803	-43.199073	35.629734	-43.199073	35.629734	-0.291046	-157.372424
6.600000	-0.185481	-97.201221	-43.056561	34.056230	-43.056561	34.056230	-0.295145	-158.509365
6.650000	-0.188207	-97.849477	-42.915913	32.484543	-42.915913	32.484543	-0.299287	-159.648585
6.700000	-0.190970	-98.496582	-42.777101	30.914664	-42.777101	30.914664	-0.303472	-160.790197
6.750000	-0.193771	-99.142551	-42.640100	29.346583	-42.640100	29.346583	-0.307699	-161.934311
6.800000	-0.196610	-99.787396	-42.504883	27.780288	-42.504883	27.780288	-0.311968	-163.081042
6.850000	-0.199488	-100.431133	-42.371427	26.215769	-42.371427	26.215769	-0.316279	-164.230501
6.900000	-0.202404	-101.073773	-42.239708	24.653013	-42.239708	24.653013	-0.320631	-165.382804
6.950000	-0.205361	-101.715333	-42.109706	23.092010	-42.109706	23.092010	-0.325024	-166.538066
7.000000	-0.208357	-102.355825	-41.981398	21.532750	-41.981398	21.532750	-0.329456	-167.696403
7.050000	-0.211393	-102.995266	-41.854764	19.975224	-41.854764	19.975224	-0.333929	-168.857931
7.100000	-0.214470	-103.633669	-41.729787	18.419422	-41.729787	18.419422	-0.338441	-170.022769
7.150000	-0.217587	-104.271049	-41.606448	16.865341	-41.606448	16.865341	-0.342991	-171.191033
7.200000	-0.220746	-104.907423	-41.484730	15.312975	-41.484730	15.312975	-0.347578	-172.362844
7.250000	-0.223947	-105.542805	-41.364617	13.762325	-41.364617	13.762325	-0.352203	-173.538320
7.300000	-0.227190	-106.177210	-41.246095	12.213393	-41.246095	12.213393	-0.356864	-174.717583
7.350000	-0.230475	-106.810655	-41.129150	10.666184	-41.129150	10.666184	-0.361561	-175.900752
7.400000	-0.233803	-107.443156	-41.013768	9.120709	-41.013768	9.120709	-0.366293	-177.087950
7.450000	-0.237174	-108.074729	-40.899938	7.576982	-40.899938	7.576982	-0.371059	-178.279298
7.500000	-0.240588	-108.705389	-40.787649	6.035025	-40.787649	6.035025	-0.375858	-179.474919
7.550000	-0.244048	-109.335117	-40.676896	4.494940	-40.676896	4.494940	-0.380690	179.324866
7.600000	-0.247553	-109.963968	-40.567667	2.956684	-40.567667	2.956684	-0.385554	178.120121
7.650000	-0.251101	-110.591959	-40.459953	1.420295	-40.459953	1.420295	-0.390449	176.910720
7.700000	-0.254695	-111.219108	-40.353746	-0.114181	-40.353746	-0.114181	-0.395373	175.696539
7.750000	-0.258334	-111.845431	-40.249040	-1.646690	-40.249040	-1.646690	-0.400326	174.477453
7.800000	-0.262018	-112.470947	-40.145828	-3.177171	-40.145828	-3.177171	-0.405306	173.253337
7.850000	-0.265748	-113.095674	-40.044103	-4.705554	-40.044103	-4.705554	-0.410314	172.024066
7.900000	-0.269525	-113.719628	-39.943862	-6.231760	-39.943862	-6.231760	-0.415348	170.789512
7.950000	-0.273347	-114.342830	-39.845098	-7.755702	-39.845098	-7.755702	-0.420406	169.549551
8.000000	-0.277217	-114.965296	-39.747808	-9.277281	-39.747808	-9.277281	-0.425489	168.304056
8.050000	-0.281133	-115.587046	-39.651987	-10.796388	-39.651987	-10.796388	-0.430596	167.052900
8.100000	-0.285097	-116.208099	-39.557633	-12.312906	-39.557633	-12.312906	-0.435725	165.795958
8.150000	-0.289109	-116.828473	-39.464741	-13.826704	-39.464741	-13.826704	-0.440876	164.533101
8.200000	-0.293168	-117.448188	-39.373309	-15.337641	-39.373309	-15.337641	-0.446048	163.264204
8.250000	-0.297275	-118.067264	-39.283333	-16.845563	-39.283333	-16.845563	-0.451240	161.989141
8.300000	-0.301431	-118.685719	-39.194810	-18.350305	-39.194810	-18.350305	-0.456452	160.707783
8.350000	-0.305636	-119.303574	-39.107737	-19.851690	-39.107737	-19.851690	-0.461683	159.420005
8.400000	-0.309889	-119.920849	-39.022111	-21.349526	-39.022111	-21.349526	-0.466933	158.125680
8.450000	-0.314192	-120.537564	-38.937930	-22.843609	-38.937930	-22.843609	-0.472201	156.824682
8.500000	-0.318544	-121.153740	-38.855188	-24.333724	-38.855188	-24.333724	-0.477488	155.516884
8.550000	-0.322946	-121.769397	-38.773883	-25.819638	-38.773883	-25.819638	-0.482792	154.202160
8.600000	-0.327398	-122.384557	-38.694010	-27.301107	-38.694010	-27.301107	-0.488114	152.880383
8.650000	-0.331900	-122.999241	-38.615565	-28.777873	-38.615565	-28.777873	-0.493453	151.551427
8.700000	-0.336453	-123.613470	-38.538543	-30.249662	-38.538543	-30.249662	-0.498811	150.215166
8.750000	-0.341056	-124.227265	-38.462938	-31.716188	-38.462938	-31.716188	-0.504187	148.871474
8.800000	-0.345711	-124.840633	-38.388778	-33.176891	-38.388778	-33.176891	-0.509583	147.519890
8.850000	-0.350418	-125.453613	-38.316024	-34.631683	-38.316024	-34.631683	-0.514998	146.160609
8.900000	-0.355176	-126.066229	-38.244668	-36.080229	-38.244668	-36.080229	-0.520433	144.793506
8.950000	-0.359986	-126.678502	-38.174702	-37.522183	-38.174702	-37.522183	-0.525890	143.418451
9.000000	-0.364847	-127.290457	-38.106118	-38.957181	-38.106118	-38.957181	-0.531369	142.035318
9.050000	-0.369760	-127.902115	-38.038905	-40.384846	-38.038905	-40.384846	-0.536871	140.643977
9.100000	-0.374724	-128.513501	-37.973054	-41.804787	-37.973054	-41.804787	-0.542398	139.244297
9.150000	-0.379741	-129.124639	-37.908553	-43.216595	-37.908553	-43.216595	-0.547951	137.836148
9.200000	-0.384810	-129.735551	-37.845391	-44.619849	-37.845391	-44.619849	-0.553532	136.419396
9.250000	-0.389931	-130.346262	-37.783556	-46.014113	-37.783556	-46.014113	-0.559142	134.993906
9.300000	-0.395105	-130.956798	-37.723035	-47.398936	-37.723035	-47.398936	-0.564782	133.559542
9.350000	-0.400332	-131.567182	-37.663815	-48.773853	-37.663815	-48.773853	-0.570454	132.116162
9.400000	-0.405611	-132.177439	-37.605882	-50.138383	-37.605882	-50.138383	-0.576159	130.663624
9.450000	-0.410943	-132.787596	-37.549223	-51.492033	-37.549223	-51.492033	-0.581897	129.201783
9.500000	-0.416328	-133.397677	-37.493823	-52.834295	-37.493823	-52.834295	-0.587669	127.730489
9.550000	-0.421766	-134.007709	-37.439669	-54.164645	-37.439669	-54.164645	-0.593474	126.249588
9.600000	-0.427257	-134.617718	-37.386747	-55.482550	-37.386747	-55.482550	-0.599311	124.758922
9.650000	-0.432802	-135.227730	-37.335043	-56.787459	-37.335043	-56.787459	-0.605179	123.258330
9.700000	-0.438399	-135.837772	-37.284544	-58.078809	-37.284544	-58.078809	-0.611073	121.747644
9.750000	-0.444051	-136.447872	-37.235238	-59.356026	-37.235238	-59.356026	-0.616990	120.226694
9.800000	-0.449755	-137.058057	-37.187114	-60.618521	-37.187114	-60.618521	-0.622921	118.695305
9.850000	-0.455513	-137.668354	-37.140161	-61.865694	-37.140161	-61.865694	-0.628858	117.153299
9.900000	-0.461325	-138.278793	-37.094373	-63.096932	-37.094373	-63.096932	-0.634790	115.600496
9.950000	-0.467190	-138.889401	-37.049741	-64.311614	-37.049741	-64.311614	-0.640701	114.036715
10.000000	-0.473109	-139.500208	-37.006261	-65.509105	-37.006261	-65.509105	-0.646575	112.461776
