! freq	dB(S11)	phase(S11)	dB(S12)	phase(S12)	
!     	dB(S21)	phase(S21)	dB(S22)	phase(S22)	
!S-par simulation data
#  GHz  S  DB  R 50
0.000000	-0.000000	0.000000	-390.124875	0.000000	-390.124875	0.000000	-0.000000	0.000000
0.050000	-0.000054	-0.761238	-103.241959	162.858174	-103.241959	162.858174	-0.000110	-0.865425
0.100000	-0.000215	-1.522392	-102.091730	145.152967	-102.091730	145.152967	-0.000434	-1.730582
0.150000	-0.000481	-2.283381	-100.708999	132.435896	-100.708999	132.435896	-0.000960	-2.595225
0.200000	-0.000849	-3.044128	-99.355396	123.163650	-99.355396	123.163650	-0.001666	-3.459150
0.250000	-0.001320	-3.804537	-98.129155	116.359190	-98.129155	116.359190	-0.002538	-4.322126
0.300000	-0.001880	-4.564568	-97.059245	111.047204	-97.059245	111.047204	-0.003536	-5.184113
0.350000	-0.002530	-5.324140	-96.138609	106.853210	-96.138609	106.853210	-0.004639	-6.044991
0.400000	-0.003263	-6.083192	-95.355738	103.470446	-95.355738	103.470446	-0.005822	-6.904714
0.450000	-0.004072	-6.841668	-94.698312	100.706153	-94.698312	100.706153	-0.007064	-7.763268
0.500000	-0.004951	-7.599517	-94.155616	98.440294	-94.155616	98.440294	-0.008343	-8.620661
0.550000	-0.005894	-8.356694	-93.719136	96.601136	-93.719136	96.601136	-0.009645	-9.476918
0.600000	-0.006893	-9.113160	-93.382514	95.151266	-93.382514	95.151266	-0.010956	-10.332073
0.650000	-0.007941	-9.868882	-93.141298	94.080091	-93.141298	94.080091	-0.012266	-11.186164
0.700000	-0.009032	-10.623831	-92.992622	93.400617	-92.992622	93.400617	-0.013568	-12.039228
0.750000	-0.010159	-11.377983	-92.934814	93.149439	-92.934814	93.149439	-0.014858	-12.891300
0.800000	-0.011316	-12.131321	-92.966838	93.389508	-92.966838	93.389508	-0.016131	-13.742410
0.850000	-0.012497	-12.883828	-93.087403	94.215560	-93.087403	94.215560	-0.017387	-14.592580
0.900000	-0.013695	-13.635494	-93.293375	95.762006	-93.293375	95.762006	-0.018624	-15.441830
0.950000	-0.014907	-14.386310	-93.576907	98.211926	-93.576907	98.211926	-0.019843	-16.290170
1.000000	-0.016128	-15.136270	-93.920343	101.802377	-93.920343	101.802377	-0.021044	-17.137609
1.050000	-0.017352	-15.885370	-94.287891	106.812894	-94.287891	106.812894	-0.022229	-17.984146
1.100000	-0.018577	-16.633609	-94.614408	113.509408	-94.614408	113.509408	-0.023399	-18.829779
1.150000	-0.019800	-17.380984	-94.797302	122.004242	-94.797302	122.004242	-0.024554	-19.674501
1.200000	-0.021017	-18.127497	-94.708511	132.028007	-94.708511	132.028007	-0.025698	-20.518303
1.250000	-0.022226	-18.873147	-94.244879	142.763452	-94.244879	142.763452	-0.026829	-21.361171
1.300000	-0.023424	-19.617896	-93.375856	152.987373	-93.375856	152.987373	-0.027951	-22.203049
1.350000	-0.024611	-20.361784	-92.214033	161.784115	-92.214033	161.784115	-0.029064	-23.043962
1.400000	-0.025786	-21.104811	-90.888279	168.829618	-90.888279	168.829618	-0.030169	-23.883890
1.450000	-0.026946	-21.846976	-89.504108	174.213288	-89.504108	174.213288	-0.031268	-24.722815
1.500000	-0.028092	-22.588278	-88.128124	178.199377	-88.128124	178.199377	-0.032362	-25.560717
1.550000	-0.029223	-23.328716	-86.795605	-178.924232	-86.795605	-178.924232	-0.033451	-26.397577
1.600000	-0.030340	-24.068288	-85.522183	-176.908087	-85.522183	-176.908087	-0.034536	-27.233372
1.650000	-0.031441	-24.806991	-84.312636	-175.554900	-84.312636	-175.554900	-0.035618	-28.068084
1.700000	-0.032523	-25.544516	-83.137370	-174.840715	-83.137370	-174.840715	-0.036697	-28.901295
1.750000	-0.033598	-26.281584	-82.063797	-174.352807	-82.063797	-174.352807	-0.037775	-29.733923
1.800000	-0.034656	-27.017575	-81.029031	-174.216975	-81.029031	-174.216975	-0.038851	-30.565144
1.850000	-0.035703	-27.752797	-80.053907	-174.332627	-80.053907	-174.332627	-0.039927	-31.395361
1.900000	-0.036737	-28.487081	-79.122294	-174.639561	-79.122294	-174.639561	-0.041003	-32.224328
1.950000	-0.037759	-29.220426	-78.231376	-175.137776	-78.231376	-175.137776	-0.042079	-33.052044
2.000000	-0.038771	-29.952976	-77.385248	-175.741553	-77.385248	-175.741553	-0.043155	-33.878684
2.050000	-0.039772	-30.684410	-76.565646	-176.493117	-76.565646	-176.493117	-0.044232	-34.703815
2.100000	-0.040768	-31.415357	-75.797363	-177.290664	-75.797363	-177.290664	-0.045310	-35.528282
2.150000	-0.041753	-32.145044	-75.045368	-178.201301	-75.045368	-178.201301	-0.046390	-36.351027
2.200000	-0.042731	-32.873780	-74.321338	-179.178542	-74.321338	-179.178542	-0.047473	-37.172469
2.250000	-0.043703	-33.601556	-73.623188	179.787422	-73.623188	179.787422	-0.048557	-37.992591
2.300000	-0.044670	-34.328360	-72.949051	178.704673	-72.949051	178.704673	-0.049645	-38.811374
2.350000	-0.045634	-35.054180	-72.297250	177.579917	-72.297250	177.579917	-0.050736	-39.628803
2.400000	-0.046594	-35.779004	-71.666278	176.418754	-71.666278	176.418754	-0.051830	-40.444860
2.450000	-0.047553	-36.502819	-71.054771	175.225891	-71.054771	175.225891	-0.052928	-41.259530
2.500000	-0.048511	-37.225612	-70.461499	174.005302	-70.461499	174.005302	-0.054030	-42.072796
2.550000	-0.049469	-37.947326	-69.884425	172.759439	-69.884425	172.759439	-0.055137	-42.884582
2.600000	-0.050428	-38.667992	-69.323541	171.492326	-69.323541	171.492326	-0.056249	-43.694934
2.650000	-0.051389	-39.387595	-68.777907	170.206381	-68.777907	170.206381	-0.057367	-44.503838
2.700000	-0.052353	-40.106124	-68.246663	168.903686	-68.246663	168.903686	-0.058490	-45.311279
2.750000	-0.053321	-40.823565	-67.729020	167.586044	-67.729020	167.586044	-0.059619	-46.117245
2.800000	-0.054293	-41.539904	-67.224256	166.255014	-67.224256	166.255014	-0.060754	-46.921724
2.850000	-0.055270	-42.255128	-66.731702	164.911954	-66.731702	164.911954	-0.061897	-47.724701
2.900000	-0.056254	-42.969224	-66.250744	163.558046	-66.250744	163.558046	-0.063046	-48.526167
2.950000	-0.057244	-43.682179	-65.780813	162.194323	-65.780813	162.194323	-0.064203	-49.326108
3.000000	-0.058242	-44.393979	-65.321383	160.821690	-65.321383	160.821690	-0.065368	-50.124516
3.050000	-0.059248	-45.104611	-64.871965	159.440940	-64.871965	159.440940	-0.066542	-50.921378
3.100000	-0.060263	-45.814063	-64.432104	158.052770	-64.432104	158.052770	-0.067724	-51.716686
3.150000	-0.061287	-46.522322	-64.001378	156.657793	-64.001378	156.657793	-0.068916	-52.510429
3.200000	-0.062321	-47.229376	-63.579392	155.256551	-63.579392	155.256551	-0.070117	-53.302599
3.250000	-0.063366	-47.935212	-63.165779	153.849522	-63.165779	153.849522	-0.071328	-54.093187
3.300000	-0.064422	-48.639819	-62.760194	152.437127	-62.760194	152.437127	-0.072550	-54.882185
3.350000	-0.065492	-49.342965	-62.360480	151.018972	-62.360480	151.018972	-0.073784	-55.669306
3.400000	-0.066575	-50.044803	-61.967893	149.595967	-61.967893	149.595967	-0.075030	-56.454753
3.450000	-0.067664	-50.745978	-61.587204	148.170791	-61.587204	148.170791	-0.076283	-57.239356
3.500000	-0.068774	-51.445161	-61.207896	146.739104	-61.207896	146.739104	-0.077554	-58.021430
3.550000	-0.069888	-52.143894	-60.841296	145.306136	-60.841296	145.306136	-0.078830	-58.802938
3.600000	-0.071027	-52.840376	-60.474363	143.866764	-60.474363	143.866764	-0.080128	-59.581616
3.650000	-0.072168	-53.536630	-60.120823	142.426818	-60.120823	142.426818	-0.081429	-60.360010
3.700000	-0.073336	-54.230370	-59.765462	140.980560	-59.765462	140.980560	-0.082756	-61.135272
3.750000	-0.074505	-54.924110	-59.424070	139.534301	-59.424070	139.534301	-0.084083	-61.910534
3.800000	-0.075705	-55.615069	-59.079566	138.081807	-59.079566	138.081807	-0.085441	-62.682365
3.850000	-0.076906	-56.306028	-58.748207	136.629312	-58.748207	136.629312	-0.086799	-63.454196
3.900000	-0.078136	-56.994405	-58.415226	135.171600	-58.415226	135.171600	-0.088186	-64.222872
3.950000	-0.079370	-57.682548	-58.093332	133.713414	-58.093332	133.713414	-0.089577	-64.991261
4.000000	-0.080632	-58.368319	-57.771145	132.250875	-57.771145	132.250875	-0.090996	-65.756776
4.050000	-0.081899	-59.053615	-57.458208	130.787465	-57.458208	130.787465	-0.092421	-66.521716
4.100000	-0.083193	-59.736757	-57.146163	129.320453	-57.146163	129.320453	-0.093873	-67.284067
4.150000	-0.084496	-60.419180	-56.841725	127.852241	-56.841725	127.852241	-0.095334	-68.045556
4.200000	-0.085823	-61.099673	-56.539235	126.381086	-56.539235	126.381086	-0.096821	-68.804745
4.250000	-0.087163	-61.779201	-56.242884	124.908461	-56.242884	124.908461	-0.098321	-69.562784
4.300000	-0.088523	-62.457031	-55.949420	123.433483	-55.949420	123.433483	-0.099844	-70.318815
4.350000	-0.089900	-63.133647	-55.660784	121.956824	-55.660784	121.956824	-0.101383	-71.073410
4.400000	-0.091296	-63.808801	-55.375866	120.478339	-55.375866	120.478339	-0.102944	-71.826289
4.450000	-0.092710	-64.482493	-55.094609	118.998028	-55.094609	118.998028	-0.104526	-72.577450
4.500000	-0.094141	-65.154963	-54.817803	117.516359	-54.817803	117.516359	-0.106126	-73.327187
4.550000	-0.095595	-65.825724	-54.543616	116.032789	-54.543616	116.032789	-0.107752	-74.074929
4.600000	-0.097063	-66.495507	-54.274525	114.548271	-54.274525	114.548271	-0.109393	-74.821537
4.650000	-0.098557	-67.163334	-54.007129	113.061858	-54.007129	113.061858	-0.111065	-75.565877
4.700000	-0.100061	-67.830430	-53.745390	111.574846	-53.745390	111.574846	-0.112748	-76.309372
4.750000	-0.101596	-68.495329	-53.484526	110.086037	-53.484526	110.086037	-0.114467	-77.050332
4.800000	-0.103139	-69.159742	-53.229805	108.596909	-53.229805	108.596909	-0.116195	-77.790733
4.850000	-0.104716	-69.821724	-52.975234	107.106186	-52.975234	107.106186	-0.117964	-78.528339
4.900000	-0.106298	-70.483463	-52.727222	105.615349	-52.727222	105.615349	-0.119738	-79.265668
4.950000	-0.107919	-71.142544	-52.478721	104.123240	-52.478721	104.123240	-0.121558	-79.999948
5.000000	-0.109541	-71.801625	-52.237132	102.631131	-52.237132	102.631131	-0.123379	-80.734229
5.050000	-0.111207	-72.457829	-51.994490	101.138211	-51.994490	101.138211	-0.125252	-81.465218
5.100000	-0.112873	-73.114033	-51.758443	99.645291	-51.758443	99.645291	-0.127126	-82.196208
5.150000	-0.114582	-73.767630	-51.522072	98.152204	-51.522072	98.152204	-0.129050	-82.924213
5.200000	-0.116294	-74.420990	-51.291382	96.659102	-51.291382	96.659102	-0.130979	-83.651947
5.250000	-0.118047	-75.072013	-51.061018	95.166425	-51.061018	95.166425	-0.132956	-84.377002
5.300000	-0.119808	-75.722569	-50.835507	93.673832	-50.835507	93.673832	-0.134942	-85.101521
5.350000	-0.121605	-76.371060	-50.610897	92.182192	-50.610897	92.182192	-0.136972	-85.823662
5.400000	-0.123416	-77.018863	-50.390388	90.690869	-50.390388	90.690869	-0.139017	-86.545010
5.450000	-0.125260	-77.664871	-50.171288	89.200953	-50.171288	89.200953	-0.141102	-87.264275
5.500000	-0.127122	-78.309982	-49.955604	87.711741	-49.955604	87.711741	-0.143208	-87.982498
5.550000	-0.129015	-78.953566	-49.741773	86.224306	-49.741773	86.224306	-0.145350	-88.698929
5.600000	-0.130931	-79.596060	-49.530729	84.738139	-49.530729	84.738139	-0.147518	-89.414079
5.650000	-0.132875	-80.237289	-49.321929	83.254021	-49.321929	83.254021	-0.149719	-90.127718
5.700000	-0.134846	-80.877256	-49.115334	81.771952	-49.115334	81.771952	-0.151951	-90.839847
5.750000	-0.136843	-81.516214	-48.911324	80.292089	-48.911324	80.292089	-0.154211	-91.550742
5.800000	-0.138873	-82.153763	-48.708968	78.815314	-48.708968	78.815314	-0.156510	-92.259907
5.850000	-0.140924	-82.790550	-48.509501	77.340766	-48.509501	77.340766	-0.158831	-92.968104
5.900000	-0.143016	-83.425814	-48.311154	75.870673	-48.311154	75.870673	-0.161198	-93.674364
5.950000	-0.145125	-84.060549	-48.115970	74.402660	-48.115970	74.402660	-0.163582	-94.379914
6.000000	-0.147282	-84.693695	-47.921365	72.940889	-47.921365	72.940889	-0.166019	-95.083332
6.050000	-0.149450	-85.326524	-47.730185	71.480838	-47.730185	71.480838	-0.168468	-95.786288
6.100000	-0.151677	-85.957762	-47.539008	70.029386	-47.539008	70.029386	-0.170975	-96.486929
6.150000	-0.153910	-86.588863	-47.351521	68.579002	-47.351521	68.579002	-0.173490	-97.187344
6.200000	-0.156210	-87.218464	-47.163383	67.140367	-47.163383	67.140367	-0.176072	-97.885276
6.250000	-0.158512	-87.848065	-46.979234	65.701732	-46.979234	65.701732	-0.178654	-98.583207
6.300000	-0.160894	-88.476389	-46.793630	64.279154	-46.793630	64.279154	-0.181310	-99.278499
6.350000	-0.163278	-89.104714	-46.611910	62.856577	-46.611910	62.856577	-0.183968	-99.973791
6.400000	-0.165745	-89.732324	-46.428644	61.452721	-46.428644	61.452721	-0.186695	-100.666728
6.450000	-0.168221	-90.359869	-46.248695	60.050566	-46.248695	60.050566	-0.189430	-101.359452
6.500000	-0.170787	-90.987362	-46.066915	58.670540	-46.066915	58.670540	-0.192230	-102.050097
6.550000	-0.173373	-91.614844	-45.887787	57.294939	-45.887787	57.294939	-0.195044	-102.740326
6.600000	-0.176062	-92.243095	-45.706260	55.946016	-45.706260	55.946016	-0.197919	-103.428738
6.650000	-0.178787	-92.871601	-45.526483	54.605984	-45.526483	54.605984	-0.200814	-104.116545
6.700000	-0.181629	-93.501721	-45.344020	53.295554	-45.344020	53.295554	-0.203761	-104.802913
6.750000	-0.184530	-94.132647	-45.162211	51.999925	-45.162211	51.999925	-0.206733	-105.488561
6.800000	-0.187656	-94.767557	-44.973109	50.756441	-44.973109	50.756441	-0.209772	-106.172429
6.850000	-0.190877	-95.404252	-44.783784	49.532289	-44.783784	49.532289	-0.212830	-106.855798
6.900000	-0.194421	-96.047110	-44.584534	48.372109	-44.584534	48.372109	-0.215949	-107.537654
6.950000	-0.198320	-96.696318	-44.376563	47.265646	-44.376563	47.265646	-0.219102	-108.218656
7.000000	-0.202638	-97.353029	-44.158254	46.222668	-44.158254	46.222668	-0.222298	-108.898648
7.050000	-0.207749	-98.022320	-43.920390	45.269085	-43.920390	45.269085	-0.225537	-109.577616
7.100000	-0.214310	-98.712039	-43.648446	44.442655	-43.648446	44.442655	-0.228828	-110.255352
7.150000	-0.223853	-99.435621	-43.315115	43.776505	-43.315115	43.776505	-0.232171	-110.931776
7.200000	-0.238670	-100.206299	-42.891679	43.255121	-42.891679	43.255121	-0.235553	-111.606895
7.250000	-0.266731	-101.059956	-42.285779	42.764706	-42.285779	42.764706	-0.238954	-112.280222
7.300000	-0.332693	-102.033634	-41.316156	41.496649	-41.316156	41.496649	-0.242247	-112.950862
7.350000	-0.514339	-102.877083	-39.788198	35.519582	-39.788198	35.519582	-0.244812	-113.618208
7.400000	-0.729468	-101.601524	-39.163160	16.818002	-39.163160	16.818002	-0.245861	-114.295855
7.450000	-0.502707	-100.737363	-41.263748	6.044452	-41.263748	6.044452	-0.249687	-114.983490
7.500000	-0.357643	-101.538957	-42.623979	8.183731	-42.623979	8.183731	-0.254304	-115.658525
7.550000	-0.303649	-102.423925	-43.044471	11.100895	-43.044471	11.100895	-0.258503	-116.329378
7.600000	-0.280900	-103.223798	-43.113089	12.743273	-43.113089	12.743273	-0.262500	-116.999004
7.650000	-0.270557	-103.959487	-43.054179	13.398972	-43.054179	13.398972	-0.266422	-117.667909
7.700000	-0.265757	-104.655037	-42.947956	13.445535	-42.947956	13.445535	-0.270328	-118.336213
7.750000	-0.264033	-105.322587	-42.821448	13.079574	-42.821448	13.079574	-0.274243	-119.003908
7.800000	-0.263882	-105.972991	-42.688062	12.470468	-42.688062	12.470468	-0.278182	-119.671064
7.850000	-0.264802	-106.610187	-42.551932	11.680762	-42.551932	11.680762	-0.282152	-120.337672
7.900000	-0.266429	-107.237582	-42.415482	10.762764	-42.415482	10.762764	-0.286157	-121.003750
7.950000	-0.268657	-107.855574	-42.279645	9.728911	-42.279645	9.728911	-0.290216	-121.669151
8.000000	-0.271091	-108.470230	-42.145445	8.654739	-42.145445	8.654739	-0.294297	-122.334294
8.050000	-0.273826	-109.079443	-42.012784	7.520353	-42.012784	7.520353	-0.298431	-122.998885
8.100000	-0.276777	-109.684767	-41.881764	6.342956	-41.881764	6.342956	-0.302602	-123.663081
8.150000	-0.279892	-110.286824	-41.752410	5.133537	-41.752410	5.133537	-0.306821	-124.326863
8.200000	-0.283174	-110.885614	-41.624679	3.892098	-41.624679	3.892098	-0.311088	-124.990229
8.250000	-0.286555	-111.482348	-41.498571	2.632910	-41.498571	2.632910	-0.315395	-125.653302
8.300000	-0.290076	-112.076202	-41.373955	1.348876	-41.373955	1.348876	-0.319758	-126.315963
8.350000	-0.293671	-112.668546	-41.250873	0.053471	-41.250873	0.053471	-0.324161	-126.978409
8.400000	-0.297413	-113.257869	-41.129059	-1.264674	-41.129059	-1.264674	-0.328640	-127.640424
8.450000	-0.301157	-113.847192	-41.008929	-2.582819	-41.008929	-2.582819	-0.333121	-128.302438
8.500000	-0.305020	-114.434158	-40.889986	-3.916537	-40.889986	-3.916537	-0.337676	-128.964173
8.550000	-0.308981	-115.019239	-40.772291	-5.262712	-40.772291	-5.262712	-0.342290	-129.625684
8.600000	-0.312943	-115.604320	-40.656171	-6.608888	-40.656171	-6.608888	-0.346907	-130.287195
8.650000	-0.317060	-116.186598	-40.540960	-7.971949	-40.540960	-7.971949	-0.351627	-130.948536
8.700000	-0.321223	-116.768074	-40.427083	-9.339836	-40.427083	-9.339836	-0.356378	-131.609827
8.750000	-0.325388	-117.349550	-40.314679	-10.707722	-40.314679	-10.707722	-0.361132	-132.271119
8.800000	-0.329749	-117.927827	-40.202980	-12.094674	-40.202980	-12.094674	-0.366020	-132.932510
8.850000	-0.334113	-118.506103	-40.092699	-13.481627	-40.092699	-13.481627	-0.370911	-133.593902
8.900000	-0.338523	-119.083730	-39.983659	-14.872823	-39.983659	-14.872823	-0.375833	-134.255399
8.950000	-0.343091	-119.659083	-39.875485	-16.278876	-39.875485	-16.278876	-0.380862	-134.917265
9.000000	-0.347661	-120.234437	-39.768641	-17.684929	-39.768641	-17.684929	-0.385893	-135.579131
9.050000	-0.352327	-120.808584	-39.662874	-19.100672	-39.662874	-19.100672	-0.390987	-136.241417
9.100000	-0.357112	-121.381224	-39.558103	-20.528528	-39.558103	-20.528528	-0.396159	-136.904227
9.150000	-0.361899	-121.953864	-39.454582	-21.956384	-39.454582	-21.956384	-0.401334	-137.567036
9.200000	-0.366837	-122.524820	-39.352046	-23.403092	-39.352046	-23.403092	-0.406605	-138.230902
9.250000	-0.371852	-123.094934	-39.250592	-24.859226	-39.250592	-24.859226	-0.411926	-138.895295
9.300000	-0.376870	-123.665048	-39.150308	-26.315361	-39.150308	-26.315361	-0.417250	-139.559689
9.350000	-0.382097	-124.233108	-39.051027	-27.808725	-39.051027	-27.808725	-0.422716	-140.226376
9.400000	-0.387353	-124.800912	-38.952850	-29.306743	-38.952850	-29.306743	-0.428203	-140.893350
9.450000	-0.392630	-125.368553	-38.855778	-30.809705	-38.855778	-30.809705	-0.433708	-141.560630
9.500000	-0.398058	-125.934891	-38.759841	-32.352222	-38.759841	-32.352222	-0.439335	-142.230357
9.550000	-0.403578	-126.500510	-38.665166	-33.931123	-38.665166	-33.931123	-0.445063	-142.902277
9.600000	-0.409172	-127.065580	-38.571932	-35.553310	-38.571932	-35.553310	-0.450909	-143.576729
9.650000	-0.414827	-127.630194	-38.480526	-37.233728	-38.480526	-37.233728	-0.456918	-144.254474
9.700000	-0.420524	-128.194495	-38.391280	-38.978470	-38.391280	-38.978470	-0.463114	-144.935758
9.750000	-0.426231	-128.758523	-38.306492	-40.854913	-38.306492	-40.854913	-0.469739	-145.623968
9.800000	-0.431877	-129.322455	-38.229644	-42.909922	-38.229644	-42.909922	-0.477056	-146.321035
9.850000	-0.437353	-129.886280	-38.169570	-45.249070	-38.169570	-45.249070	-0.485714	-147.031274
9.900000	-0.442437	-130.449422	-38.159815	-48.144358	-38.159815	-48.144358	-0.497889	-147.764227
9.950000	-0.446943	-131.010156	-38.293656	-51.921608	-38.293656	-51.921608	-0.518488	-148.523903
10.000000	-0.450793	-131.564003	-38.982364	-56.444433	-38.982364	-56.444433	-0.563333	-149.261499
