! freq	dB(S11)	phase(S11)	dB(S12)	phase(S12)	
!     	dB(S21)	phase(S21)	dB(S22)	phase(S22)	
!S-par simulation data
#  GHz  S  DB  R 50
0.000000	-0.000000	0.000000	-314.777897	0.000000	-314.777897	0.000000	-0.000000	0.000000
0.050000	-0.000530	-0.809192	-102.379515	88.722081	-102.379515	88.722081	-0.002242	-2.282933
0.100000	-0.001757	-1.614206	-96.398250	87.100201	-96.398250	87.100201	-0.005796	-4.545315
0.150000	-0.003112	-2.414821	-92.936249	85.568579	-92.936249	85.568579	-0.008776	-6.797546
0.200000	-0.004344	-3.212776	-90.518995	84.077427	-90.518995	84.077427	-0.011448	-9.045309
0.250000	-0.005424	-4.009403	-88.686853	82.623529	-88.686853	82.623529	-0.014093	-11.289049
0.300000	-0.006402	-4.805455	-87.235323	81.211690	-87.235323	81.211690	-0.016819	-13.528068
0.350000	-0.007332	-5.601261	-86.052926	79.847671	-86.052926	79.847671	-0.019634	-15.761822
0.400000	-0.008249	-6.396922	-85.075486	78.540645	-85.075486	78.540645	-0.022516	-17.989699
0.450000	-0.009176	-7.192452	-84.265074	77.304779	-84.265074	77.304779	-0.025436	-20.210917
0.500000	-0.010124	-7.987838	-83.590384	76.149520	-83.590384	76.149520	-0.028363	-22.425400
0.550000	-0.011095	-8.783044	-83.032296	75.089602	-83.032296	75.089602	-0.031278	-24.632802
0.600000	-0.012090	-9.578012	-82.580778	74.148920	-82.580778	74.148920	-0.034162	-26.832435
0.650000	-0.013101	-10.372689	-82.223441	73.346148	-82.223441	73.346148	-0.037009	-29.024235
0.700000	-0.014123	-11.167013	-81.952568	72.706606	-81.952568	72.706606	-0.039812	-31.207966
0.750000	-0.015150	-11.960895	-81.765549	72.270221	-81.765549	72.270221	-0.042570	-33.383042
0.800000	-0.016175	-12.754253	-81.658640	72.080897	-81.658640	72.080897	-0.045283	-35.549142
0.850000	-0.017196	-13.547012	-81.628234	72.191058	-81.628234	72.191058	-0.047952	-37.706036
0.900000	-0.018210	-14.339097	-81.671755	72.669588	-81.671755	72.669588	-0.050579	-39.853415
0.950000	-0.019217	-15.130438	-81.786561	73.606754	-81.786561	73.606754	-0.053166	-41.990911
1.000000	-0.020218	-15.920978	-81.967851	75.115911	-81.967851	75.115911	-0.055713	-44.118200
1.050000	-0.021213	-16.710670	-82.206888	77.338634	-82.206888	77.338634	-0.058221	-46.234963
1.100000	-0.022204	-17.499477	-82.487759	80.444865	-82.487759	80.444865	-0.060689	-48.340894
1.150000	-0.023194	-18.287373	-82.782660	84.621855	-82.782660	84.621855	-0.063115	-50.435699
1.200000	-0.024184	-19.074336	-83.046294	90.038860	-83.046294	90.038860	-0.065498	-52.519095
1.250000	-0.025175	-19.860351	-83.212355	96.771835	-83.212355	96.771835	-0.067835	-54.590813
1.300000	-0.026167	-20.645385	-83.193283	104.704820	-83.193283	104.704820	-0.070120	-56.650333
1.350000	-0.027161	-21.429450	-82.917273	113.354871	-82.917273	113.354871	-0.072352	-58.697666
1.400000	-0.028158	-22.212536	-82.352420	122.028787	-82.352420	122.028787	-0.074525	-60.732584
1.450000	-0.029157	-22.994638	-81.526074	130.030842	-81.526074	130.030842	-0.076637	-62.754871
1.500000	-0.030158	-23.775747	-80.508526	136.897628	-80.508526	136.897628	-0.078684	-64.764325
1.550000	-0.031161	-24.555856	-79.379875	142.465402	-79.379875	142.465402	-0.080664	-66.760755
1.600000	-0.032167	-25.334957	-78.206181	146.790449	-78.206181	146.790449	-0.082574	-68.743989
1.650000	-0.033174	-26.113042	-77.032384	150.034898	-77.032384	150.034898	-0.084416	-70.713867
1.700000	-0.034182	-26.890103	-75.885183	152.385839	-75.885183	152.385839	-0.086191	-72.670247
1.750000	-0.035191	-27.666129	-74.778599	154.015606	-74.778599	154.015606	-0.087902	-74.613010
1.800000	-0.036202	-28.441111	-73.718782	155.068536	-73.718782	155.068536	-0.089556	-76.542057
1.850000	-0.037213	-29.215040	-72.707333	155.660310	-72.707333	155.660310	-0.091159	-78.457314
1.900000	-0.038226	-29.987892	-71.742764	155.878659	-71.742764	155.878659	-0.092720	-80.358585
1.950000	-0.039239	-30.759656	-70.823160	155.796492	-70.823160	155.796492	-0.094248	-82.245855
2.000000	-0.040253	-31.530333	-69.946455	155.472528	-69.946455	155.472528	-0.095755	-84.119289
2.050000	-0.041267	-32.299912	-69.109735	154.949852	-69.109735	154.949852	-0.097251	-85.978933
2.100000	-0.042283	-33.068379	-68.310141	154.262622	-68.310141	154.262622	-0.098746	-87.824858
2.150000	-0.043300	-33.835724	-67.544964	153.438132	-67.544964	153.438132	-0.100249	-89.657164
2.200000	-0.044319	-34.601933	-66.811691	152.498365	-66.811691	152.498365	-0.101767	-91.475973
2.250000	-0.045339	-35.366996	-66.108018	151.461169	-66.108018	151.461169	-0.103308	-93.281424
2.300000	-0.046361	-36.130899	-65.431847	150.341149	-65.431847	150.341149	-0.104874	-95.073675
2.350000	-0.047385	-36.893630	-64.781272	149.150348	-64.781272	149.150348	-0.106470	-96.852894
2.400000	-0.048412	-37.655177	-64.154563	147.898771	-64.154563	147.898771	-0.108098	-98.619260
2.450000	-0.049441	-38.415528	-63.550155	146.594783	-63.550155	146.594783	-0.109757	-100.372959
2.500000	-0.050474	-39.174670	-62.966626	145.245425	-62.966626	145.245425	-0.111447	-102.114181
2.550000	-0.051511	-39.932550	-62.402129	143.855527	-62.402129	143.855527	-0.113167	-103.842726
2.600000	-0.052551	-40.689197	-61.856121	142.431604	-61.856121	142.431604	-0.114914	-105.559198
2.650000	-0.053596	-41.444598	-61.327518	140.977944	-61.327518	140.977944	-0.116686	-107.263796
2.700000	-0.054646	-42.198742	-60.815335	139.498243	-60.815335	139.498243	-0.118480	-108.956720
2.750000	-0.055701	-42.951616	-60.318666	137.995704	-60.318666	137.995704	-0.120293	-110.638172
2.800000	-0.056761	-43.703210	-59.836682	136.473115	-59.836682	136.473115	-0.122123	-112.308353
2.850000	-0.057827	-44.453512	-59.368621	134.932911	-59.368621	134.932911	-0.123967	-113.967468
2.900000	-0.058900	-45.202512	-58.913781	133.377230	-58.913781	133.377230	-0.125823	-115.615722
2.950000	-0.059980	-45.950199	-58.471515	131.807953	-58.471515	131.807953	-0.127689	-117.253322
3.000000	-0.061067	-46.696562	-58.041222	130.226745	-58.041222	130.226745	-0.129563	-118.880474
3.050000	-0.062161	-47.441591	-57.622347	128.635081	-57.622347	128.635081	-0.131443	-120.497389
3.100000	-0.063264	-48.185277	-57.214374	127.034274	-57.214374	127.034274	-0.133329	-122.104277
3.150000	-0.064375	-48.927609	-56.816822	125.425496	-56.816822	125.425496	-0.135219	-123.701350
3.200000	-0.065495	-49.668579	-56.429244	123.809794	-56.429244	123.809794	-0.137112	-125.288822
3.250000	-0.066625	-50.408178	-56.051221	122.188111	-56.051221	122.188111	-0.139009	-126.866908
3.300000	-0.067764	-51.146396	-55.682363	120.561291	-55.682363	120.561291	-0.140909	-128.435822
3.350000	-0.068913	-51.883227	-55.322301	118.930100	-55.322301	118.930100	-0.142812	-129.995783
3.400000	-0.070073	-52.618661	-54.970694	117.295226	-54.970694	117.295226	-0.144717	-131.547007
3.450000	-0.071244	-53.352691	-54.627216	115.657294	-54.627216	115.657294	-0.146626	-133.089713
3.500000	-0.072426	-54.085310	-54.291564	114.016872	-54.291564	114.016872	-0.148538	-134.624119
3.550000	-0.073620	-54.816511	-53.963450	112.374473	-53.963450	112.374473	-0.150454	-136.150445
3.600000	-0.074827	-55.546288	-53.642604	110.730567	-53.642604	110.730567	-0.152375	-137.668908
3.650000	-0.076046	-56.274634	-53.328770	109.085582	-53.328770	109.085582	-0.154301	-139.179730
3.700000	-0.077278	-57.001543	-53.021704	107.439906	-53.021704	107.439906	-0.156233	-140.683129
3.750000	-0.078523	-57.727011	-52.721179	105.793895	-52.721179	105.793895	-0.158173	-142.179323
3.800000	-0.079783	-58.450968	-52.426817	104.147890	-52.426817	104.147890	-0.160120	-143.668238
3.850000	-0.081057	-59.173473	-52.138588	102.502196	-52.138588	102.502196	-0.162077	-145.150404
3.900000	-0.082345	-59.894522	-51.856294	100.857085	-51.856294	100.857085	-0.164043	-146.626039
3.950000	-0.083649	-60.614110	-51.579747	99.212802	-51.579747	99.212802	-0.166021	-148.095360
4.000000	-0.084968	-61.332234	-51.308769	97.569572	-51.308769	97.569572	-0.168010	-149.558580
4.050000	-0.086303	-62.048891	-51.043187	95.927602	-51.043187	95.927602	-0.170012	-151.015915
4.100000	-0.087654	-62.764079	-50.782840	94.287081	-50.782840	94.287081	-0.172029	-152.467578
4.150000	-0.089022	-63.477793	-50.527573	92.648183	-50.527573	92.648183	-0.174060	-153.913780
4.200000	-0.090407	-64.190034	-50.277237	91.011064	-50.277237	91.011064	-0.176108	-155.354733
4.250000	-0.091809	-64.900798	-50.031691	89.375871	-50.031691	89.375871	-0.178172	-156.790647
4.300000	-0.093229	-65.610084	-49.790801	87.742735	-49.790801	87.742735	-0.180255	-158.221727
4.350000	-0.094667	-66.317892	-49.554436	86.111778	-49.554436	86.111778	-0.182357	-159.648183
4.400000	-0.096124	-67.024221	-49.322474	84.483109	-49.322474	84.483109	-0.184479	-161.070218
4.450000	-0.097599	-67.729071	-49.094796	82.856830	-49.094796	82.856830	-0.186622	-162.488036
4.500000	-0.099094	-68.432441	-48.871290	81.233032	-48.871290	81.233032	-0.188787	-163.901838
4.550000	-0.100609	-69.134333	-48.651846	79.611798	-48.651846	79.611798	-0.190974	-165.311826
4.600000	-0.102144	-69.834746	-48.436363	77.993207	-48.436363	77.993207	-0.193185	-166.718197
4.650000	-0.103699	-70.533683	-48.224740	76.377326	-48.224740	76.377326	-0.195420	-168.121148
4.700000	-0.105276	-71.231144	-48.016882	74.764222	-48.016882	74.764222	-0.197681	-169.520875
4.750000	-0.106873	-71.927132	-47.812699	73.153951	-47.812699	73.153951	-0.199967	-170.917571
4.800000	-0.108493	-72.621648	-47.612103	71.546568	-47.612103	71.546568	-0.202280	-172.311428
4.850000	-0.110134	-73.314696	-47.415012	69.942123	-47.415012	69.942123	-0.204619	-173.702634
4.900000	-0.111798	-74.006278	-47.221344	68.340662	-47.221344	68.340662	-0.206987	-175.091380
4.950000	-0.113485	-74.696397	-47.031024	66.742228	-47.031024	66.742228	-0.209382	-176.477849
5.000000	-0.115195	-75.385057	-46.843978	65.146863	-46.843978	65.146863	-0.211806	-177.862228
5.050000	-0.116930	-76.072199	-46.660106	63.554740	-46.660106	63.554740	-0.214261	-179.244623
5.100000	-0.118690	-76.757889	-46.479376	61.965765	-46.479376	61.965765	-0.216745	179.374693
5.150000	-0.120473	-77.442134	-46.301723	60.379974	-46.301723	60.379974	-0.219259	177.995542
5.200000	-0.122282	-78.124938	-46.127086	58.797402	-46.127086	58.797402	-0.221802	176.617748
5.250000	-0.124116	-78.806305	-45.955404	57.218085	-45.955404	57.218085	-0.224376	175.241135
5.300000	-0.125976	-79.486242	-45.786621	55.642060	-45.786621	55.642060	-0.226981	173.865531
5.350000	-0.127862	-80.164753	-45.620681	54.069363	-45.620681	54.069363	-0.229616	172.490764
5.400000	-0.129774	-80.841846	-45.457534	52.500032	-45.457534	52.500032	-0.232282	171.116667
5.450000	-0.131714	-81.517527	-45.297127	50.934108	-45.297127	50.934108	-0.234978	169.743070
5.500000	-0.133681	-82.191801	-45.139413	49.371633	-45.139413	49.371633	-0.237705	168.369809
5.550000	-0.135676	-82.864677	-44.984346	47.812650	-44.984346	47.812650	-0.240463	166.996721
5.600000	-0.137699	-83.536161	-44.831880	46.257206	-44.831880	46.257206	-0.243251	165.623645
5.650000	-0.139750	-84.206262	-44.681974	44.705350	-44.681974	44.705350	-0.246069	164.250420
5.700000	-0.141831	-84.874986	-44.534584	43.157137	-44.534584	43.157137	-0.248918	162.876890
5.750000	-0.143941	-85.542341	-44.389673	41.612620	-44.389673	41.612620	-0.251796	161.502899
5.800000	-0.146081	-86.208337	-44.247201	40.071861	-44.247201	40.071861	-0.254704	160.128294
5.850000	-0.148251	-86.872982	-44.107131	38.534923	-44.107131	38.534923	-0.257641	158.752924
5.900000	-0.150451	-87.536284	-43.969427	37.001873	-43.969427	37.001873	-0.260607	157.376639
5.950000	-0.152683	-88.198253	-43.834054	35.472784	-43.834054	35.472784	-0.263601	155.999292
6.000000	-0.154947	-88.858898	-43.700979	33.947731	-43.700979	33.947731	-0.266623	154.620738
6.050000	-0.157242	-89.518229	-43.570168	32.426794	-43.570168	32.426794	-0.269672	153.240834
6.100000	-0.159569	-90.176256	-43.441589	30.910059	-43.441589	30.910059	-0.272749	151.859441
6.150000	-0.161930	-90.832989	-43.315210	29.397615	-43.315210	29.397615	-0.275852	150.476419
6.200000	-0.164323	-91.488437	-43.191000	27.889555	-43.191000	27.889555	-0.278980	149.091633
6.250000	-0.166750	-92.142613	-43.068930	26.385978	-43.068930	26.385978	-0.282134	147.704948
6.300000	-0.169212	-92.795472	-42.948988	24.887192	-42.948988	24.887192	-0.285313	146.316140
6.350000	-0.171709	-93.447081	-42.831127	23.393108	-42.831127	23.393108	-0.288516	144.925162
6.400000	-0.174240	-94.097451	-42.715318	21.903839	-42.715318	21.903839	-0.291743	143.531888
6.450000	-0.176807	-94.746594	-42.601532	20.419500	-42.601532	20.419500	-0.294992	142.136195
6.500000	-0.179409	-95.394522	-42.489738	18.940213	-42.489738	18.940213	-0.298262	140.737963
6.550000	-0.182048	-96.041246	-42.379908	17.466100	-42.379908	17.466100	-0.301554	139.337072
6.600000	-0.184722	-96.686780	-42.272011	15.997290	-42.272011	15.997290	-0.304866	137.933408
6.650000	-0.187434	-97.331134	-42.166018	14.533913	-42.166018	14.533913	-0.308198	136.526858
6.700000	-0.190183	-97.974323	-42.061899	13.076103	-42.061899	13.076103	-0.311549	135.117312
6.750000	-0.192969	-98.616359	-41.959623	11.623996	-41.959623	11.623996	-0.314919	133.704665
6.800000	-0.195793	-99.257255	-41.859160	10.177732	-41.859160	10.177732	-0.318306	132.288812
6.850000	-0.198656	-99.897025	-41.760480	8.737454	-41.760480	8.737454	-0.321710	130.869653
6.900000	-0.201558	-100.535681	-41.663550	7.303303	-41.663550	7.303303	-0.325130	129.447092
6.950000	-0.204498	-101.173239	-41.568338	5.875426	-41.568338	5.875426	-0.328567	128.021034
7.000000	-0.207479	-101.809711	-41.474813	4.453969	-41.474813	4.453969	-0.332018	126.591389
7.050000	-0.210499	-102.445111	-41.382941	3.039080	-41.382941	3.039080	-0.335484	125.158070
7.100000	-0.213559	-103.079455	-41.292688	1.630906	-41.292688	1.630906	-0.338965	123.720995
7.150000	-0.216661	-103.712757	-41.204020	0.229596	-41.204020	0.229596	-0.342459	122.280083
7.200000	-0.219803	-104.345031	-41.116902	-1.164702	-41.116902	-1.164702	-0.345966	120.835261
7.250000	-0.222987	-104.976293	-41.031299	-2.551840	-41.031299	-2.551840	-0.349487	119.386455
7.300000	-0.226212	-105.606557	-40.947173	-3.931671	-40.947173	-3.931671	-0.353020	117.933599
7.350000	-0.229480	-106.235838	-40.864488	-5.304050	-40.864488	-5.304050	-0.356565	116.476629
7.400000	-0.232791	-106.864153	-40.783206	-6.668833	-40.783206	-6.668833	-0.360123	115.015488
7.450000	-0.236144	-107.491517	-40.703288	-8.025876	-40.703288	-8.025876	-0.363692	113.550119
7.500000	-0.239540	-108.117946	-40.624695	-9.375041	-40.624695	-9.375041	-0.367274	112.080474
7.550000	-0.242982	-108.743416	-40.547412	-10.715834	-40.547412	-10.715834	-0.370869	110.606317
7.600000	-0.246468	-109.367985	-40.471371	-12.048465	-40.471371	-12.048465	-0.374476	109.127795
7.650000	-0.249999	-109.991669	-40.396530	-13.372802	-40.396530	-13.372802	-0.378096	107.644873
7.700000	-0.253574	-110.614485	-40.322847	-14.688718	-40.322847	-14.688718	-0.381729	106.157522
7.750000	-0.257194	-111.236449	-40.250279	-15.996088	-40.250279	-15.996088	-0.385375	104.665716
7.800000	-0.260859	-111.857579	-40.178782	-17.294794	-40.178782	-17.294794	-0.389036	103.169438
7.850000	-0.264570	-112.477891	-40.108312	-18.584720	-40.108312	-18.584720	-0.392712	101.668673
7.900000	-0.268327	-113.097404	-40.038822	-19.865755	-40.038822	-19.865755	-0.396403	100.163413
7.950000	-0.272130	-113.716134	-39.970268	-21.137793	-39.970268	-21.137793	-0.400111	98.653656
8.000000	-0.275979	-114.334099	-39.902603	-22.400732	-39.902603	-22.400732	-0.403837	97.139405
8.050000	-0.279875	-114.951317	-39.835780	-23.654474	-39.835780	-23.654474	-0.407582	95.620670
8.100000	-0.283819	-115.567807	-39.769752	-24.898930	-39.769752	-24.898930	-0.411347	94.097466
8.150000	-0.287810	-116.183586	-39.704471	-26.134012	-39.704471	-26.134012	-0.415134	92.569814
8.200000	-0.291848	-116.798673	-39.639888	-27.359639	-39.639888	-27.359639	-0.418945	91.037743
8.250000	-0.295935	-117.413087	-39.575955	-28.575736	-39.575955	-28.575736	-0.422781	89.501286
8.300000	-0.300070	-118.026846	-39.512621	-29.782231	-39.512621	-29.782231	-0.426644	87.960484
8.350000	-0.304253	-118.639970	-39.449838	-30.979061	-39.449838	-30.979061	-0.430537	86.415384
8.400000	-0.308484	-119.252477	-39.387554	-32.166164	-39.387554	-32.166164	-0.434461	84.866039
8.450000	-0.312765	-119.864388	-39.325720	-33.343488	-39.325720	-33.343488	-0.438420	83.312510
8.500000	-0.317095	-120.475721	-39.264285	-34.510983	-39.264285	-34.510983	-0.442415	81.754863
8.550000	-0.321474	-121.086496	-39.203197	-35.668606	-39.203197	-35.668606	-0.446449	80.193172
8.600000	-0.325903	-121.696734	-39.142405	-36.816318	-39.142405	-36.816318	-0.450526	78.627518
8.650000	-0.330381	-122.306454	-39.081857	-37.954086	-39.081857	-37.954086	-0.454648	77.057987
8.700000	-0.334910	-122.915677	-39.021500	-39.081882	-39.021500	-39.081882	-0.458818	75.484675
8.750000	-0.339488	-123.524423	-38.961283	-40.199683	-38.961283	-40.199683	-0.463041	73.907681
8.800000	-0.344119	-124.132694	-38.901136	-41.307035	-38.901136	-41.307035	-0.467321	72.326965
8.850000	-0.348800	-124.740532	-38.841018	-42.404359	-38.841018	-42.404359	-0.471660	70.742801
8.900000	-0.353532	-125.347957	-38.780875	-43.491647	-38.780875	-43.491647	-0.476062	69.155312
8.950000	-0.358315	-125.954993	-38.720655	-44.568895	-38.720655	-44.568895	-0.480531	67.564628
9.000000	-0.363148	-126.561658	-38.660302	-45.636104	-38.660302	-45.636104	-0.485072	65.970885
9.050000	-0.368033	-127.167977	-38.599764	-46.693277	-38.599764	-46.693277	-0.489687	64.374225
9.100000	-0.372968	-127.773970	-38.538985	-47.740423	-38.538985	-47.740423	-0.494383	62.774797
9.150000	-0.377955	-128.379660	-38.477911	-48.777554	-38.477911	-48.777554	-0.499162	61.172758
9.200000	-0.382992	-128.985068	-38.416486	-49.804685	-38.416486	-49.804685	-0.504030	59.568270
9.250000	-0.388081	-129.590219	-38.354657	-50.821834	-38.354657	-50.821834	-0.508991	57.961500
9.300000	-0.393221	-130.195133	-38.292366	-51.829024	-38.292366	-51.829024	-0.514049	56.352624
9.350000	-0.398413	-130.799836	-38.229558	-52.826279	-38.229558	-52.826279	-0.519211	54.741822
9.400000	-0.403656	-131.404349	-38.166176	-53.813625	-38.166176	-53.813625	-0.524480	53.129281
9.450000	-0.408950	-132.008696	-38.102164	-54.791093	-38.102164	-54.791093	-0.529862	51.515192
9.500000	-0.414295	-132.612902	-38.037463	-55.758714	-38.037463	-55.758714	-0.535361	49.899752
9.550000	-0.419692	-133.216989	-37.972016	-56.716523	-37.972016	-56.716523	-0.540983	48.283164
9.600000	-0.425140	-133.820983	-37.905765	-57.664554	-37.905765	-57.664554	-0.546733	46.665636
9.650000	-0.430639	-134.424907	-37.838651	-58.602845	-37.838651	-58.602845	-0.552615	45.047380
9.700000	-0.436189	-135.028786	-37.770612	-59.531434	-37.770612	-59.531434	-0.558634	43.428612
9.750000	-0.441790	-135.632645	-37.701589	-60.450361	-37.701589	-60.450361	-0.564797	41.809554
9.800000	-0.447442	-136.236510	-37.631521	-61.359665	-37.631521	-61.359665	-0.571107	40.190431
9.850000	-0.453145	-136.840406	-37.560345	-62.259389	-37.560345	-62.259389	-0.577570	38.571471
9.900000	-0.458898	-137.444358	-37.487998	-63.149572	-37.487998	-63.149572	-0.584191	36.952906
9.950000	-0.464702	-138.048393	-37.414415	-64.030256	-37.414415	-64.030256	-0.590975	35.334971
10.000000	-0.470555	-138.652537	-37.339530	-64.901482	-37.339530	-64.901482	-0.597926	33.717904
