! freq	dB(S11)	phase(S11)	dB(S12)	phase(S12)	
!     	dB(S21)	phase(S21)	dB(S22)	phase(S22)	
!S-par simulation data
#  GHz  S  DB  R 50
0.000000	-0.000000	0.000000	-333.804324	0.000000	-333.804324	0.000000	-0.000000	0.000000
0.050000	-0.000112	-1.088016	-98.630022	25.123621	-98.630022	25.123621	-0.000112	-1.088023
0.100000	-0.000444	-2.175784	-97.177585	38.396455	-97.177585	38.396455	-0.000444	-2.175799
0.150000	-0.000989	-3.263067	-95.541500	48.118289	-95.541500	48.118289	-0.000988	-3.263089
0.200000	-0.001730	-4.349654	-94.006690	54.635472	-94.006690	54.635472	-0.001730	-4.349683
0.250000	-0.002663	-5.435292	-92.651516	58.900518	-92.651516	58.900518	-0.002662	-5.435328
0.300000	-0.003751	-6.519893	-91.483560	61.878201	-91.483560	61.878201	-0.003751	-6.519938
0.350000	-0.004981	-7.603283	-90.481938	63.952526	-90.481938	63.952526	-0.004981	-7.603335
0.400000	-0.006333	-8.685345	-89.626337	65.433138	-89.626337	65.433138	-0.006333	-8.685405
0.450000	-0.007784	-9.765991	-88.898816	66.523014	-88.898816	66.523014	-0.007784	-9.766059
0.500000	-0.009315	-10.845157	-88.284846	67.362054	-88.284846	67.362054	-0.009315	-10.845233
0.550000	-0.010906	-11.922798	-87.773077	68.052760	-87.773077	68.052760	-0.010906	-11.922883
0.600000	-0.012540	-12.998889	-87.354829	68.675759	-87.354829	68.675759	-0.012540	-12.998982
0.650000	-0.014202	-14.073414	-87.023567	69.299738	-87.023567	69.299738	-0.014202	-14.073515
0.700000	-0.015879	-15.146371	-86.774439	69.988341	-86.774439	69.988341	-0.015879	-15.146480
0.750000	-0.017561	-16.217761	-86.603852	70.805540	-86.603852	70.805540	-0.017561	-16.217878
0.800000	-0.019238	-17.287590	-86.509044	71.820359	-86.509044	71.820359	-0.019238	-17.287715
0.850000	-0.020904	-18.355866	-86.487556	73.111540	-86.487556	73.111540	-0.020904	-18.355998
0.900000	-0.022553	-19.422595	-86.536506	74.772451	-86.536506	74.772451	-0.022554	-19.422735
0.950000	-0.024182	-20.487782	-86.651466	76.916147	-86.651466	76.916147	-0.024183	-20.487930
1.000000	-0.025789	-21.551431	-86.824689	79.679769	-86.824689	79.679769	-0.025790	-21.551586
1.050000	-0.027371	-22.613541	-87.042322	83.225785	-87.042322	83.225785	-0.027372	-22.613703
1.100000	-0.028928	-23.674108	-87.280336	87.734574	-87.280336	87.734574	-0.028929	-23.674278
1.150000	-0.030459	-24.733126	-87.499450	93.378090	-87.499450	93.378090	-0.030461	-24.733304
1.200000	-0.031967	-25.790585	-87.641076	100.260723	-87.641076	100.260723	-0.031968	-25.790769
1.250000	-0.033450	-26.846470	-87.629616	108.321062	-87.629616	108.321062	-0.033452	-26.846662
1.300000	-0.034910	-27.900695	-87.375569	117.235105	-87.375569	117.235105	-0.034912	-27.900895
1.350000	-0.036350	-28.953310	-86.842722	126.321593	-86.842722	126.321593	-0.036351	-28.953518
1.400000	-0.037770	-30.004293	-86.043653	134.891072	-86.043653	134.891072	-0.037771	-30.004508
1.450000	-0.039172	-31.053620	-85.038101	142.435465	-85.038101	142.435465	-0.039173	-31.053843
1.500000	-0.040558	-32.101266	-83.903074	148.728413	-83.903074	148.728413	-0.040559	-32.101497
1.550000	-0.041930	-33.147204	-82.706893	153.774059	-82.706893	153.774059	-0.041931	-33.147444
1.600000	-0.043289	-34.191408	-81.498681	157.703476	-81.498681	157.703476	-0.043290	-34.191657
1.650000	-0.044637	-35.233849	-80.309109	160.690883	-80.309109	160.690883	-0.044638	-35.234107
1.700000	-0.045975	-36.274499	-79.155205	162.906818	-79.155205	162.906818	-0.045976	-36.274765
1.750000	-0.047306	-37.313327	-78.045166	164.499043	-78.045166	164.499043	-0.047306	-37.313603
1.800000	-0.048629	-38.350306	-76.981911	165.588435	-76.981911	165.588435	-0.048630	-38.350591
1.850000	-0.049947	-39.385405	-75.965385	166.271254	-75.965385	166.271254	-0.049948	-39.385701
1.900000	-0.051261	-40.418597	-74.993953	166.623325	-74.993953	166.623325	-0.051262	-40.418903
1.950000	-0.052573	-41.449853	-74.065225	166.704265	-74.065225	166.704265	-0.052573	-41.450168
2.000000	-0.053882	-42.479144	-73.176515	166.561091	-73.176515	166.561091	-0.053882	-42.479470
2.050000	-0.055191	-43.506443	-72.325097	166.231099	-72.325097	166.231099	-0.055191	-43.506780
2.100000	-0.056500	-44.531723	-71.508340	165.744092	-71.508340	165.744092	-0.056500	-44.532071
2.150000	-0.057810	-45.554959	-70.723773	165.124071	-70.723773	165.124071	-0.057810	-45.555318
2.200000	-0.059123	-46.576124	-69.969112	164.390524	-69.969112	164.390524	-0.059122	-46.576495
2.250000	-0.060438	-47.595196	-69.242265	163.559402	-69.242265	163.559402	-0.060437	-47.595579
2.300000	-0.061757	-48.612150	-68.541325	162.643863	-68.541325	162.643863	-0.061756	-48.612545
2.350000	-0.063080	-49.626964	-67.864559	161.654842	-67.864559	161.654842	-0.063079	-49.627371
2.400000	-0.064408	-50.639617	-67.210390	160.601493	-67.210390	160.601493	-0.064408	-50.640036
2.450000	-0.065742	-51.650088	-66.577388	159.491528	-66.577388	159.491528	-0.065742	-51.650520
2.500000	-0.067082	-52.658359	-65.964251	158.331487	-65.964251	158.331487	-0.067082	-52.658804
2.550000	-0.068430	-53.664314	-65.368842	157.125238	-65.368842	157.125238	-0.068430	-53.664772
2.600000	-0.069785	-54.668032	-64.791143	155.879643	-64.791143	155.879643	-0.069785	-54.668503
2.650000	-0.071148	-55.669498	-64.230152	154.598752	-64.230152	154.598752	-0.071148	-55.669982
2.700000	-0.072520	-56.668696	-63.684951	153.286078	-63.684951	153.286078	-0.072519	-56.669194
2.750000	-0.073900	-57.665615	-63.154701	151.944682	-63.154701	151.944682	-0.073900	-57.666126
2.800000	-0.075290	-58.660242	-62.638629	150.577244	-62.638629	150.577244	-0.075290	-58.660766
2.850000	-0.076690	-59.652565	-62.136023	149.186116	-62.136023	149.186116	-0.076691	-59.653103
2.900000	-0.078101	-60.642576	-61.646226	147.773370	-61.646226	147.773370	-0.078101	-60.643128
2.950000	-0.079522	-61.630266	-61.168633	146.340834	-61.168633	146.340834	-0.079523	-61.630832
3.000000	-0.080955	-62.615628	-60.702680	144.890131	-60.702680	144.890131	-0.080955	-62.616208
3.050000	-0.082399	-63.598655	-60.247844	143.422698	-60.247844	143.422698	-0.082400	-63.599250
3.100000	-0.083855	-64.579344	-59.803640	141.939813	-59.803640	141.939813	-0.083857	-64.579952
3.150000	-0.085324	-65.557689	-59.369616	140.442613	-59.369616	140.442613	-0.085326	-65.558312
3.200000	-0.086806	-66.533689	-58.945348	138.932110	-58.945348	138.932110	-0.086808	-66.534326
3.250000	-0.088302	-67.507342	-58.530441	137.409204	-58.530441	137.409204	-0.088303	-67.507993
3.300000	-0.089811	-68.478648	-58.124526	135.874696	-58.124526	135.874696	-0.089813	-68.479314
3.350000	-0.091334	-69.447609	-57.727255	134.329295	-57.727255	134.329295	-0.091336	-69.448289
3.400000	-0.092872	-70.414225	-57.338301	132.773627	-57.338301	132.773627	-0.092875	-70.414920
3.450000	-0.094425	-71.378501	-56.957357	131.208241	-56.957357	131.208241	-0.094428	-71.379211
3.500000	-0.095994	-72.340442	-56.584135	129.633615	-56.584135	129.633615	-0.095996	-72.341166
3.550000	-0.097578	-73.300051	-56.218360	128.050159	-56.218360	128.050159	-0.097581	-73.300790
3.600000	-0.099179	-74.257337	-55.859776	126.458217	-55.859776	126.458217	-0.099182	-74.258091
3.650000	-0.100796	-75.212308	-55.508136	124.858070	-55.508136	124.858070	-0.100800	-75.213076
3.700000	-0.102431	-76.164971	-55.163210	123.249934	-55.163210	123.249934	-0.102435	-76.165754
3.750000	-0.104083	-77.115338	-54.824778	121.633965	-54.824778	121.633965	-0.104087	-77.116136
3.800000	-0.105754	-78.063322	-54.492352	120.009911	-54.492352	120.009911	-0.105759	-78.064134
3.850000	-0.107444	-79.009034	-54.166035	118.378121	-54.166035	118.378121	-0.107448	-79.009861
3.900000	-0.109152	-79.952488	-53.845634	116.738525	-53.845634	116.738525	-0.109157	-79.953331
3.950000	-0.110880	-80.893701	-53.530967	115.090968	-53.530967	115.090968	-0.110886	-80.894558
4.000000	-0.112628	-81.832687	-53.221859	113.435203	-53.221859	113.435203	-0.112634	-81.833560
4.050000	-0.114397	-82.769466	-52.918142	111.770872	-52.918142	111.770872	-0.114402	-82.770354
4.100000	-0.116186	-83.704056	-52.619656	110.097491	-52.619656	110.097491	-0.116192	-83.704959
4.150000	-0.117996	-84.636479	-52.326246	108.414428	-52.326246	108.414428	-0.118002	-84.637396
4.200000	-0.119829	-85.566755	-52.037764	106.720867	-52.037764	106.720867	-0.119835	-85.567688
4.250000	-0.121683	-86.494911	-51.754065	105.015775	-51.754065	105.015775	-0.121689	-86.495859
4.300000	-0.123560	-87.420971	-51.475012	103.297845	-51.475012	103.297845	-0.123566	-87.421935
4.350000	-0.125460	-88.344965	-51.200469	101.565426	-51.200469	101.565426	-0.125466	-88.345944
4.400000	-0.127384	-89.266924	-50.930306	99.816426	-50.930306	99.816426	-0.127390	-89.267919
4.450000	-0.129331	-90.186884	-50.664398	98.048183	-50.664398	98.048183	-0.129338	-90.187894
4.500000	-0.131304	-91.104883	-50.402621	96.257279	-50.402621	96.257279	-0.131310	-91.105909
4.550000	-0.133301	-92.020966	-50.144857	94.439282	-50.144857	94.439282	-0.133308	-92.022008
4.600000	-0.135324	-92.935186	-49.890996	92.588366	-49.890996	92.588366	-0.135331	-92.936243
4.650000	-0.137374	-93.847603	-49.640934	90.696746	-49.640934	90.696746	-0.137380	-93.848677
4.700000	-0.139451	-94.758295	-49.394584	88.753820	-49.394584	88.753820	-0.139457	-94.759384
4.750000	-0.141556	-95.667358	-49.151889	86.744804	-49.151889	86.744804	-0.141562	-95.668463
4.800000	-0.143692	-96.574918	-48.912845	84.648510	-48.912845	84.648510	-0.143698	-96.576039
4.850000	-0.145862	-97.481152	-48.677558	82.433528	-48.677558	82.433528	-0.145868	-97.482289
4.900000	-0.148072	-98.386317	-48.446370	80.051366	-48.446370	80.051366	-0.148078	-98.387470
4.950000	-0.150334	-99.290810	-48.220144	77.423328	-48.220144	77.423328	-0.150339	-99.291979
5.000000	-0.152675	-100.195294	-48.000997	74.413585	-48.000997	74.413585	-0.152679	-100.196480
5.050000	-0.155187	-101.101315	-47.796755	70.660731	-47.796755	70.660731	-0.155190	-101.102519
5.100000	-0.158036	-102.011062	-47.623558	65.738592	-47.623558	65.738592	-0.158038	-102.012285
5.150000	-0.162019	-102.931021	-47.557822	57.996312	-47.557822	57.996312	-0.162019	-102.932272
5.200000	-0.171485	-103.875272	-48.075652	41.690769	-48.075652	41.690769	-0.171489	-103.876572
5.250000	-0.205967	-104.715601	-56.532061	-14.058569	-56.532061	-14.058569	-0.205971	-104.716657
5.300000	-0.188609	-105.385791	-50.275807	119.434050	-50.275807	119.434050	-0.188591	-105.387268
5.350000	-0.177973	-106.302518	-47.673083	95.953381	-47.673083	95.953381	-0.177978	-106.303965
5.400000	-0.176706	-107.211824	-46.951282	86.361574	-46.951282	86.361574	-0.176715	-107.213245
5.450000	-0.177671	-108.109974	-46.550470	80.659818	-46.550470	80.659818	-0.177680	-108.111392
5.500000	-0.179477	-109.001019	-46.258043	76.671870	-46.258043	76.671870	-0.179486	-109.002443
5.550000	-0.181641	-109.887742	-46.009227	73.482783	-46.009227	73.482783	-0.181650	-109.889178
5.600000	-0.184004	-110.771371	-45.783439	70.746895	-45.783439	70.746895	-0.184013	-110.772821
5.650000	-0.186516	-111.652114	-45.572703	68.334305	-45.572703	68.334305	-0.186524	-111.653580
5.700000	-0.189095	-112.531448	-45.370420	66.059138	-45.370420	66.059138	-0.189103	-112.532931
5.750000	-0.191771	-113.408419	-45.175799	63.953181	-45.175799	63.953181	-0.191779	-113.409919
5.800000	-0.194481	-114.284586	-44.986402	61.903170	-44.986402	61.903170	-0.194489	-114.286105
5.850000	-0.197289	-115.158217	-44.802162	59.980766	-44.802162	59.980766	-0.197296	-115.159755
5.900000	-0.200123	-116.031180	-44.621725	58.083065	-44.621725	58.083065	-0.200130	-116.032737
5.950000	-0.203020	-116.902519	-44.444904	56.245355	-44.444904	56.245355	-0.203027	-116.904096
6.000000	-0.205962	-117.772716	-44.271247	54.440021	-44.271247	54.440021	-0.205969	-117.774314
6.050000	-0.208942	-118.642001	-44.100708	52.660587	-44.100708	52.660587	-0.208949	-118.643619
6.100000	-0.211988	-119.509765	-43.932698	50.915721	-43.932698	50.915721	-0.211994	-119.511404
6.150000	-0.215055	-120.377055	-43.767626	49.181125	-43.767626	49.181125	-0.215061	-120.378714
6.200000	-0.218193	-121.242806	-43.604685	47.475708	-43.604685	47.475708	-0.218199	-121.244487
6.250000	-0.221360	-122.108032	-43.444369	45.778928	-43.444369	45.778928	-0.221366	-122.109734
6.300000	-0.224577	-122.972270	-43.286265	44.098386	-43.286265	44.098386	-0.224583	-122.973994
6.350000	-0.227843	-123.835682	-43.130336	42.430080	-43.130336	42.430080	-0.227849	-123.837428
6.400000	-0.231140	-124.698568	-42.976748	40.769561	-42.976748	40.769561	-0.231145	-124.700336
6.450000	-0.234505	-125.560407	-42.824932	39.123515	-42.824932	39.123515	-0.234511	-125.562197
6.500000	-0.237893	-126.421953	-42.675460	37.481478	-42.675460	37.481478	-0.237898	-126.423764
6.550000	-0.241348	-127.282601	-42.527682	35.851474	-42.527682	35.851474	-0.241353	-127.284436
6.600000	-0.244836	-128.142894	-42.382005	34.226318	-42.382005	34.226318	-0.244840	-128.144750
6.650000	-0.248371	-129.002657	-42.238189	32.608351	-42.238189	32.608351	-0.248376	-129.004536
6.700000	-0.251966	-129.861893	-42.096093	30.998060	-42.096093	30.998060	-0.251971	-129.863795
6.750000	-0.255592	-130.720866	-41.955978	29.391607	-41.955978	29.391607	-0.255597	-130.722790
6.800000	-0.259274	-131.579460	-41.817547	27.791587	-41.817547	27.791587	-0.259279	-131.581408
6.850000	-0.262998	-132.437785	-41.680909	26.196161	-41.680909	26.196161	-0.263002	-132.439755
6.900000	-0.266771	-133.295900	-41.545975	24.605620	-41.545975	24.605620	-0.266776	-133.297894
6.950000	-0.270594	-134.153807	-41.412699	23.019965	-41.412699	23.019965	-0.270599	-134.155823
7.000000	-0.274459	-135.011637	-41.281135	21.437974	-41.281135	21.437974	-0.274464	-135.013677
7.050000	-0.278383	-135.869360	-41.151118	19.861113	-41.151118	19.861113	-0.278387	-135.871422
7.100000	-0.282341	-136.727100	-41.022812	18.286925	-41.022812	18.286925	-0.282345	-136.729186
7.150000	-0.286365	-137.584877	-40.895964	16.718084	-40.895964	16.718084	-0.286370	-137.586986
7.200000	-0.290417	-138.442727	-40.770812	15.151093	-40.770812	15.151093	-0.290422	-138.444860
7.250000	-0.294544	-139.300800	-40.647052	13.589649	-40.647052	13.589649	-0.294549	-139.302956
7.300000	-0.298690	-140.158963	-40.524960	12.029354	-40.524960	12.029354	-0.298695	-140.161142
7.350000	-0.302920	-141.017578	-40.404216	10.474800	-40.404216	10.474800	-0.302925	-141.019781
7.400000	-0.307161	-141.876259	-40.285101	8.920786	-40.285101	8.920786	-0.307166	-141.878485
7.450000	-0.311496	-142.735669	-40.167310	7.372705	-40.167310	7.372705	-0.311501	-142.737918
7.500000	-0.315833	-143.595078	-40.051094	5.824623	-40.051094	5.824623	-0.315838	-143.597350
7.550000	-0.320272	-144.455537	-39.936197	4.282669	-39.936197	4.282669	-0.320278	-144.457833
7.600000	-0.324714	-145.315996	-39.822801	2.740715	-39.822801	2.740715	-0.324720	-145.318315
7.650000	-0.329250	-146.177657	-39.710760	1.204116	-39.710760	1.204116	-0.329256	-146.179999
7.700000	-0.333798	-147.039427	-39.600137	-0.331997	-39.600137	-0.331997	-0.333804	-147.041793
7.750000	-0.338432	-147.902512	-39.490892	-1.863438	-39.490892	-1.863438	-0.338438	-147.904900
7.800000	-0.343086	-148.765859	-39.383002	-3.393946	-39.383002	-3.393946	-0.343092	-148.768271
7.850000	-0.347818	-149.630593	-39.276500	-4.920393	-39.276500	-4.920393	-0.347824	-149.633028
7.900000	-0.352578	-150.495789	-39.171308	-6.445488	-39.171308	-6.445488	-0.352585	-150.498247
7.950000	-0.357392	-151.362024	-39.067460	-7.967942	-39.067460	-7.967942	-0.357399	-151.364505
8.000000	-0.362266	-152.229487	-38.964954	-9.487452	-38.964954	-9.487452	-0.362272	-152.231990
8.050000	-0.367191	-153.098076	-38.863771	-11.004489	-38.863771	-11.004489	-0.367198	-153.100602
8.100000	-0.372168	-153.967857	-38.763904	-12.519076	-38.763904	-12.519076	-0.372175	-153.970406
8.150000	-0.377197	-154.838895	-38.665346	-14.031232	-38.665346	-14.031232	-0.377204	-154.841467
8.200000	-0.382278	-155.711258	-38.568091	-15.540973	-38.568091	-15.540973	-0.382285	-155.713853
8.250000	-0.387410	-156.585012	-38.472133	-17.048310	-38.472133	-17.048310	-0.387417	-156.587629
8.300000	-0.392594	-157.460225	-38.377467	-18.553252	-38.377467	-18.553252	-0.392602	-157.462865
8.350000	-0.397833	-158.337059	-38.284105	-20.055667	-38.284105	-20.055667	-0.397841	-158.339721
8.400000	-0.403115	-159.215178	-38.191967	-21.556145	-38.191967	-21.556145	-0.403122	-159.217862
8.450000	-0.408464	-160.095492	-38.101210	-23.053483	-38.101210	-23.053483	-0.408471	-160.098199
8.500000	-0.413857	-160.977302	-38.011685	-24.548785	-38.011685	-24.548785	-0.413865	-160.980031
8.550000	-0.419295	-161.860638	-37.923374	-26.042046	-37.923374	-26.042046	-0.419302	-161.863390
8.600000	-0.424793	-162.746141	-37.836392	-27.532512	-37.836392	-27.532512	-0.424800	-162.748915
8.650000	-0.430346	-163.633773	-37.750717	-29.020347	-37.750717	-29.020347	-0.430353	-163.636569
8.700000	-0.435943	-164.523134	-37.666246	-30.506101	-37.666246	-30.506101	-0.435951	-164.525952
8.750000	-0.441585	-165.414254	-37.582964	-31.989765	-37.582964	-31.989765	-0.441592	-165.417095
8.800000	-0.447297	-166.308397	-37.501132	-33.469963	-37.501132	-33.469963	-0.447305	-166.311260
8.850000	-0.453054	-167.204475	-37.420496	-34.948010	-37.420496	-34.948010	-0.453061	-167.207361
8.900000	-0.458855	-168.102522	-37.341041	-36.423891	-37.341041	-36.423891	-0.458862	-168.105429
8.950000	-0.464710	-169.003145	-37.262885	-37.896985	-37.262885	-37.896985	-0.464717	-169.006075
9.000000	-0.470624	-169.906653	-37.186085	-39.367032	-37.186085	-39.367032	-0.470631	-169.909605
9.050000	-0.476582	-170.812342	-37.110459	-40.834809	-37.110459	-40.834809	-0.476589	-170.815317
9.100000	-0.482584	-171.720247	-37.035995	-42.300297	-37.035995	-42.300297	-0.482590	-171.723244
9.150000	-0.488651	-172.631704	-36.962987	-43.762173	-36.962987	-43.762173	-0.488657	-172.634724
9.200000	-0.494764	-173.545771	-36.891197	-45.221435	-36.891197	-45.221435	-0.494770	-173.548814
9.250000	-0.500921	-174.462273	-36.820563	-46.678270	-36.820563	-46.678270	-0.500926	-174.465339
9.300000	-0.507128	-175.381714	-36.751185	-48.132196	-36.751185	-48.132196	-0.507133	-175.384802
9.350000	-0.513394	-176.304910	-36.683238	-49.582443	-36.683238	-49.582443	-0.513399	-176.308021
9.400000	-0.519704	-177.230766	-36.616442	-51.030100	-36.616442	-51.030100	-0.519708	-177.233901
9.450000	-0.526055	-178.159318	-36.550786	-52.475138	-36.550786	-52.475138	-0.526060	-178.162475
9.500000	-0.532466	-179.091906	-36.486567	-53.916277	-36.486567	-53.916277	-0.532470	-179.095086
9.550000	-0.538925	179.972112	-36.423613	-55.354149	-36.423613	-55.354149	-0.538928	179.968907
9.600000	-0.545425	179.033203	-36.361793	-56.789210	-36.361793	-56.789210	-0.545428	179.029975
9.650000	-0.551970	178.091053	-36.301162	-58.221162	-36.301162	-58.221162	-0.551973	178.087801
9.700000	-0.558575	177.144157	-36.242050	-59.648570	-36.242050	-59.648570	-0.558577	177.140881
9.750000	-0.565220	176.194100	-36.184065	-61.072953	-36.184065	-61.072953	-0.565222	176.190799
9.800000	-0.571905	175.240844	-36.127196	-62.494275	-36.127196	-62.494275	-0.571907	175.237519
9.850000	-0.578643	174.283127	-36.071713	-63.911328	-36.071713	-63.911328	-0.578644	174.279777
9.900000	-0.585428	173.321118	-36.017554	-65.324268	-36.017554	-65.324268	-0.585429	173.317742
9.950000	-0.592253	172.355670	-35.964501	-66.733912	-35.964501	-66.733912	-0.592252	172.352269
10.000000	-0.599115	171.386748	-35.912546	-68.140223	-35.912546	-68.140223	-0.599115	171.383321
