! freq	dB(S11)	phase(S11)	dB(S12)	phase(S12)	
!     	dB(S21)	phase(S21)	dB(S22)	phase(S22)	
!S-par simulation data
#  GHz  S  DB  R 50
0.000000	-85.574338	0.000000	-0.000457	0.000000	-0.000457	0.000000	-85.574338	0.000000
0.050000	-31.922614	-93.069659	-0.007128	-3.240096	-0.007128	-3.240096	-31.895104	-93.408213
0.100000	-25.921536	-96.296635	-0.021799	-6.441644	-0.021799	-6.441644	-25.909321	-96.952353
0.150000	-22.422849	-99.404422	-0.040687	-9.619627	-0.040687	-9.619627	-22.433903	-100.402115
0.200000	-19.983505	-102.383411	-0.063983	-12.783113	-0.063983	-12.783113	-19.988145	-103.794641
0.250000	-18.103903	-105.481999	-0.092020	-15.932537	-0.092020	-15.932537	-18.107506	-107.148201
0.300000	-16.579717	-108.513119	-0.124773	-19.066059	-0.124773	-19.066059	-16.585812	-110.472814
0.350000	-15.306510	-111.500694	-0.162140	-22.181244	-0.162140	-22.181244	-15.314142	-113.772380
0.400000	-14.218356	-114.455547	-0.203769	-25.276593	-0.203769	-25.276593	-14.226842	-117.048753
0.450000	-13.273646	-117.380267	-0.249482	-28.349778	-0.249482	-28.349778	-13.282650	-120.301088
0.500000	-12.442598	-120.276979	-0.298837	-31.400095	-0.298837	-31.400095	-12.451991	-123.529522
0.550000	-11.705296	-123.144719	-0.351613	-34.425433	-0.351613	-34.425433	-11.715046	-126.732381
0.600000	-11.045659	-125.983922	-0.407375	-37.425490	-0.407375	-37.425490	-11.055772	-129.909732
0.650000	-10.452454	-128.793229	-0.465832	-40.398738	-0.465832	-40.398738	-10.462949	-133.060377
0.700000	-9.916114	-131.572471	-0.526588	-43.344915	-0.526588	-43.344915	-9.927007	-136.184385
0.750000	-9.429450	-134.320780	-0.589301	-46.263247	-0.589301	-46.263247	-9.440753	-139.281335
0.800000	-8.986403	-137.037769	-0.653610	-49.153460	-0.653610	-49.153460	-8.998122	-142.351307
0.850000	-8.582344	-139.722496	-0.719168	-52.014833	-0.719168	-52.014833	-8.594480	-145.393979
0.900000	-8.212365	-142.376154	-0.785602	-54.848578	-0.785602	-54.848578	-8.224919	-148.410851
0.950000	-7.873257	-144.998199	-0.852593	-57.654380	-0.852593	-57.654380	-7.886229	-151.401987
1.000000	-7.561989	-147.588822	-0.919820	-60.432607	-0.919820	-60.432607	-7.575380	-154.368097
1.050000	-7.275941	-150.148358	-0.986972	-63.183770	-0.986972	-63.183770	-7.289755	-157.310030
1.100000	-7.012833	-152.677263	-1.053758	-65.908518	-1.053758	-65.908518	-7.027079	-160.228764
1.150000	-6.770670	-155.176105	-1.119897	-68.607620	-1.119897	-68.607620	-6.785360	-163.125392
1.200000	-6.547695	-157.645549	-1.185131	-71.281957	-1.185131	-71.281957	-6.562845	-166.001112
1.250000	-6.342356	-160.086337	-1.249212	-73.932506	-1.249212	-73.932506	-6.357988	-168.857217
1.300000	-6.153518	-162.498695	-1.311870	-76.559865	-1.311870	-76.559865	-6.169658	-171.694724
1.350000	-5.979688	-164.884113	-1.372929	-79.165697	-1.372929	-79.165697	-5.996365	-174.515519
1.400000	-5.819772	-167.243498	-1.432196	-81.751208	-1.432196	-81.751208	-5.837020	-177.321130
1.450000	-5.672792	-169.577784	-1.489491	-84.317662	-1.489491	-84.317662	-5.690650	179.886854
1.500000	-5.537873	-171.887924	-1.544651	-86.866366	-1.544651	-86.866366	-5.556381	177.106790
1.550000	-5.414228	-174.174879	-1.597528	-89.398665	-1.597528	-89.398665	-5.433432	174.336985
1.600000	-5.301153	-176.439612	-1.647985	-91.915932	-1.647985	-91.915932	-5.321101	171.575698
1.650000	-5.198016	-178.683077	-1.695902	-94.419565	-1.695902	-94.419565	-5.218758	168.821148
1.700000	-5.104247	179.093787	-1.741168	-96.910977	-1.741168	-96.910977	-5.125839	166.071513
1.750000	-5.019338	176.890062	-1.783687	-99.391596	-1.783687	-99.391596	-5.041837	163.324930
1.800000	-4.942832	174.704858	-1.823372	-101.862855	-1.823372	-101.862855	-4.966299	160.579501
1.850000	-4.874322	172.537318	-1.860150	-104.326194	-1.860150	-104.326194	-4.898822	157.833287
1.900000	-4.813519	170.386796	-1.893921	-106.783000	-1.893921	-106.783000	-4.839121	155.084257
1.950000	-4.760092	168.252493	-1.924632	-109.234764	-1.924632	-109.234764	-4.786870	152.330323
2.000000	-4.713680	166.133504	-1.952273	-111.682993	-1.952273	-111.682993	-4.741711	149.569450
2.050000	-4.674032	164.029158	-1.976809	-114.129124	-1.976809	-114.129124	-4.703399	146.799525
2.100000	-4.641472	161.940014	-1.997939	-116.574675	-1.997939	-116.574675	-4.672271	144.017183
2.150000	-4.614648	159.863013	-2.016237	-119.020997	-2.016237	-119.020997	-4.646966	141.222580
2.200000	-4.594023	157.799046	-2.031383	-121.469466	-2.031383	-121.469466	-4.627961	138.412314
2.250000	-4.579458	155.747711	-2.043379	-123.921498	-2.043379	-123.921498	-4.615128	135.584041
2.300000	-4.570842	153.708693	-2.052234	-126.378503	-2.052234	-126.378503	-4.608364	132.735346
2.350000	-4.568083	151.681761	-2.057966	-128.841890	-2.057966	-128.841890	-4.607589	129.863733
2.400000	-4.571111	149.666786	-2.060603	-131.313060	-2.060603	-131.313060	-4.612745	126.966617
2.450000	-4.579877	147.663744	-2.060180	-133.793410	-2.060180	-133.793410	-4.623799	124.041315
2.500000	-4.594350	145.672723	-2.056741	-136.284336	-2.056741	-136.284336	-4.640733	121.085036
2.550000	-4.614758	143.694489	-2.050210	-138.787813	-2.050210	-138.787813	-4.663804	118.093254
2.600000	-4.640856	141.728895	-2.040783	-141.304767	-2.040783	-141.304767	-4.692782	115.064254
2.650000	-4.672661	139.776467	-2.028530	-143.836580	-2.028530	-143.836580	-4.727706	111.994828
2.700000	-4.710201	137.837902	-2.013533	-146.384629	-2.013533	-146.384629	-4.768631	108.881606
2.750000	-4.753211	135.913239	-1.996024	-148.949281	-1.996024	-148.949281	-4.815307	105.723743
2.800000	-4.802285	134.004985	-1.975840	-151.533619	-1.975840	-151.533619	-4.868390	102.512893
2.850000	-4.857234	132.113806	-1.953211	-154.138261	-1.953211	-154.138261	-4.927717	99.247099
2.900000	-4.918116	130.241238	-1.928257	-156.764556	-1.928257	-156.764556	-4.993389	95.922177
2.950000	-4.984989	128.389078	-1.901111	-159.413845	-1.901111	-159.413845	-5.065512	92.533682
3.000000	-5.057906	126.559413	-1.871917	-162.087451	-1.871917	-162.087451	-5.144195	89.076889
3.050000	-5.136914	124.754645	-1.840833	-164.786685	-1.840833	-164.786685	-5.229545	85.546765
3.100000	-5.222044	122.977517	-1.808027	-167.512834	-1.808027	-167.512834	-5.321661	81.937945
3.150000	-5.313361	121.231515	-1.773665	-170.267481	-1.773665	-170.267481	-5.420692	78.243712
3.200000	-5.410840	119.520282	-1.737950	-173.051902	-1.737950	-173.051902	-5.526697	74.457728
3.250000	-5.514362	117.847442	-1.701112	-175.866984	-1.701112	-175.866984	-5.639644	70.574345
3.300000	-5.623813	116.217397	-1.663376	-178.713878	-1.663376	-178.713878	-5.759520	66.586556
3.350000	-5.739011	114.635007	-1.624984	178.406313	-1.624984	178.406313	-5.886252	62.486892
3.400000	-5.859693	113.105591	-1.586190	175.492548	-1.586190	175.492548	-6.019695	58.267414
3.450000	-5.985492	111.634915	-1.547268	172.543853	-1.547268	172.543853	-6.159606	53.919707
3.500000	-6.115917	110.229165	-1.508502	169.559329	-1.508502	169.559329	-6.305620	49.434910
3.550000	-6.250327	108.894881	-1.470196	166.538169	-1.470196	166.538169	-6.457225	44.803755
3.600000	-6.387906	107.638864	-1.432667	163.479662	-1.432667	163.479662	-6.613727	40.016652
3.650000	-6.527633	106.468028	-1.396247	160.383212	-1.396247	160.383212	-6.774211	35.063824
3.700000	-6.668253	105.389202	-1.361282	157.248342	-1.361282	157.248342	-6.937507	29.935498
3.750000	-6.808249	104.408855	-1.328131	154.074716	-1.328131	154.074716	-7.102144	24.622184
3.800000	-6.945676	103.535123	-1.297219	150.861296	-1.297219	150.861296	-7.266185	19.110655
3.850000	-7.078486	102.770380	-1.268892	147.608908	-1.268892	147.608908	-7.427466	13.397354
3.900000	-7.204274	102.117424	-1.243540	144.317710	-1.243540	144.317710	-7.583389	7.476534
3.950000	-7.320368	101.576760	-1.221559	140.988042	-1.221559	140.988042	-7.730965	1.345028
4.000000	-7.423876	101.145982	-1.203351	137.620442	-1.203351	137.620442	-7.866845	-4.996912
4.050000	-7.511772	100.819196	-1.189316	134.215645	-1.189316	134.215645	-7.987389	-11.544735
4.100000	-7.581007	100.586541	-1.179853	130.774597	-1.179853	130.774597	-8.088789	-18.288759
4.150000	-7.628662	100.433903	-1.175356	127.298453	-1.175356	127.298453	-8.167239	-25.213522
4.200000	-7.652111	100.342916	-1.176212	123.788579	-1.176212	123.788579	-8.219152	-32.297454
4.250000	-7.649205	100.291305	-1.182791	120.246546	-1.182791	120.246546	-8.241405	-39.513000
4.300000	-7.618432	100.253619	-1.195453	116.674130	-1.195453	116.674130	-8.231587	-46.827315
4.350000	-7.559047	100.202308	-1.214535	113.073295	-1.214535	113.073295	-8.188215	-54.203525
4.400000	-7.470834	100.108286	-1.240427	109.445923	-1.240427	109.445923	-8.110509	-61.602270
4.450000	-7.354773	99.943053	-1.273427	105.794402	-1.273427	105.794402	-7.999227	-68.982865
4.500000	-7.212949	99.681727	-1.313719	102.121466	-1.313719	102.121466	-7.856597	-76.307716
4.550000	-7.047783	99.302278	-1.361530	98.429680	-1.361530	98.429680	-7.685388	-83.543224
4.600000	-6.862181	98.786776	-1.417055	94.721695	-1.417055	94.721695	-7.489063	-90.660819
4.650000	-6.659355	98.121774	-1.480453	91.000219	-1.480453	91.000219	-7.271521	-97.637656
4.700000	-6.442639	97.298344	-1.551850	87.267992	-1.551850	87.267992	-7.036850	-104.456771
4.750000	-6.215342	96.311802	-1.631338	83.527754	-1.631338	83.527754	-6.789107	-111.106770
4.800000	-5.980615	95.161227	-1.718975	79.782215	-1.718975	79.782215	-6.532143	-117.581213
4.850000	-5.741366	93.848856	-1.814786	76.034028	-1.814786	76.034028	-6.269484	-123.877812
4.900000	-5.500201	92.379441	-1.918770	72.285763	-1.918770	72.285763	-6.004255	-129.997590
4.950000	-5.259397	90.759615	-2.030896	68.539880	-2.030896	68.539880	-5.739152	-135.944072
5.000000	-5.020893	88.997329	-2.151109	64.798714	-2.151109	64.798714	-5.476443	-141.722565
5.050000	-4.786288	87.098667	-2.279464	61.064648	-2.279464	61.064648	-5.217949	-147.336226
5.100000	-4.556975	85.075943	-2.415725	57.339596	-2.415725	57.339596	-4.965258	-152.795950
5.150000	-4.333980	82.938445	-2.559789	53.625401	-2.559789	53.625401	-4.719506	-158.109299
5.200000	-4.118088	80.695307	-2.711542	49.923728	-2.711542	49.923728	-4.481538	-163.283897
5.250000	-3.909876	78.355336	-2.870871	46.236062	-2.870871	46.236062	-4.251960	-168.327256
5.300000	-3.709743	75.926897	-3.037659	42.563710	-3.037659	42.563710	-4.031171	-173.246654
5.350000	-3.517939	73.417838	-3.211798	38.907799	-3.211798	38.907799	-3.819399	-178.049060
5.400000	-3.334588	70.835446	-3.393186	35.269288	-3.393186	35.269288	-3.616738	177.258903
5.450000	-3.159715	68.186433	-3.581735	31.648975	-3.581735	31.648975	-3.423169	172.670979
5.500000	-2.993264	65.476934	-3.777372	28.047504	-3.777372	28.047504	-3.238589	168.181276
5.550000	-2.835114	62.712528	-3.980044	24.465382	-3.980044	24.465382	-3.062825	163.784263
5.600000	-2.685094	59.898253	-4.189720	20.902987	-4.189720	20.902987	-2.895653	159.474751
5.650000	-2.543057	57.038195	-4.406412	17.360807	-4.406412	17.360807	-2.736871	155.248718
5.700000	-2.408768	54.136536	-4.630133	13.839010	-4.630133	13.839010	-2.586190	151.101456
5.750000	-2.281914	51.197359	-4.860922	10.337459	-4.860922	10.337459	-2.443247	147.027805
5.800000	-2.162227	48.223853	-5.098871	6.856166	-5.098871	6.856166	-2.307726	143.023762
5.850000	-2.049439	45.218841	-5.344110	3.395090	-5.344110	3.395090	-2.179310	139.085566
5.900000	-1.943277	42.184811	-5.596810	-0.045847	-5.596810	-0.045847	-2.057680	135.209678
5.950000	-1.843475	39.123948	-5.857187	-3.466746	-5.857187	-3.466746	-1.942525	131.392764
6.000000	-1.749769	36.038161	-6.125507	-6.867714	-6.125507	-6.867714	-1.833542	127.631685
6.050000	-1.661907	32.929111	-6.402085	-10.248850	-6.402085	-10.248850	-1.730435	123.923476
6.100000	-1.579644	29.798233	-6.687298	-13.610230	-6.687298	-13.610230	-1.632923	120.265338
6.150000	-1.502747	26.646760	-6.981586	-16.951888	-6.981586	-16.951888	-1.540736	116.654622
6.200000	-1.430994	23.475741	-7.285458	-20.273796	-7.285458	-20.273796	-1.453617	113.088825
6.250000	-1.364176	20.286059	-7.599503	-23.575849	-7.599503	-23.575849	-1.371324	109.565571
6.300000	-1.302186	17.078067	-7.924380	-26.857393	-7.924380	-26.857393	-1.293708	106.083436
6.350000	-1.244746	13.852756	-8.260886	-30.118509	-8.260886	-30.118509	-1.220468	102.639362
6.400000	-1.191686	10.610584	-8.609917	-33.358680	-8.609917	-33.358680	-1.151405	99.231324
6.450000	-1.142847	7.351893	-8.972500	-36.577185	-8.972500	-36.577185	-1.086332	95.857392
6.500000	-1.098084	4.076915	-9.349817	-39.773048	-9.349817	-39.773048	-1.025076	92.515725
6.550000	-1.057264	0.785782	-9.743230	-42.944973	-9.743230	-42.944973	-0.967478	89.204565
6.600000	-1.020267	-2.521471	-10.154312	-46.091270	-10.154312	-46.091270	-0.913391	85.922228
6.650000	-0.986983	-5.844902	-10.584889	-49.209743	-10.584889	-49.209743	-0.862683	82.667101
6.700000	-0.957253	-9.184357	-11.037105	-52.298195	-11.037105	-52.298195	-0.815178	79.437201
6.750000	-0.931300	-12.541587	-11.513407	-55.349640	-11.513407	-55.349640	-0.771028	76.233149
6.800000	-0.908554	-15.914487	-12.016834	-58.364727	-12.016834	-58.364727	-0.729719	73.050137
6.850000	-0.889344	-19.305447	-12.550853	-61.332362	-12.550853	-61.332362	-0.691494	69.889338
6.900000	-0.873423	-22.713953	-13.119708	-64.247204	-13.119708	-64.247204	-0.656118	66.748191
6.950000	-0.860750	-26.140594	-13.728532	-67.098410	-13.728532	-67.098410	-0.623527	63.625375
7.000000	-0.851481	-29.587142	-14.383638	-69.867050	-14.383638	-69.867050	-0.593824	60.520628
7.050000	-0.845222	-33.052102	-15.092807	-72.543862	-15.092807	-72.543862	-0.566663	57.430764
7.100000	-0.842526	-36.539904	-15.866063	-75.080090	-15.866063	-75.080090	-0.542470	54.357175
7.150000	-0.842769	-40.047436	-16.715937	-77.463663	-16.715937	-77.463663	-0.520721	51.295867
7.200000	-0.846531	-43.579656	-17.659190	-79.599362	-17.659190	-79.599362	-0.501867	48.247855
7.250000	-0.853397	-47.134608	-18.717903	-81.431322	-18.717903	-81.431322	-0.485556	45.210315
7.300000	-0.863660	-50.715500	-19.922223	-82.780096	-19.922223	-82.780096	-0.472015	42.182840
7.350000	-0.877309	-54.323261	-21.314104	-83.404065	-21.314104	-83.404065	-0.461221	39.164021
7.400000	-0.894278	-57.958374	-22.952472	-82.883131	-22.952472	-82.883131	-0.453115	36.152320
7.450000	-0.914983	-61.625360	-24.909005	-80.128932	-24.909005	-80.128932	-0.448027	33.147133
7.500000	-0.938975	-65.321217	-27.271575	-73.779415	-27.271575	-73.779415	-0.445587	30.146381
7.550000	-0.967139	-69.054959	-29.771365	-58.327009	-29.771365	-58.327009	-0.446521	27.149643
7.600000	-0.998822	-72.821363	-31.388424	-31.843830	-31.388424	-31.843830	-0.450289	24.154961
7.650000	-1.034766	-76.628383	-30.185040	-3.501449	-30.185040	-3.501449	-0.457512	21.161310
7.700000	-1.074764	-80.474659	-27.602132	13.927394	-27.602132	13.927394	-0.468020	18.167322
7.750000	-1.119168	-84.364388	-25.078337	22.015882	-25.078337	22.015882	-0.482119	15.171624
7.800000	-1.168205	-88.300357	-22.928687	25.197868	-22.928687	25.197868	-0.500008	12.172890
7.850000	-1.222126	-92.285613	-21.119155	25.948667	-21.119155	25.948667	-0.521918	9.169683
7.900000	-1.280986	-96.320779	-19.572482	25.352119	-19.572482	25.352119	-0.547903	6.160964
7.950000	-1.345662	-100.415502	-18.221894	23.855955	-18.221894	23.855955	-0.578756	3.144528
8.000000	-1.415834	-104.565942	-17.027387	21.842620	-17.027387	21.842620	-0.614208	0.119992
8.050000	-1.492224	-108.779595	-15.954243	19.431013	-15.954243	19.431013	-0.654921	-2.914500
8.100000	-1.575303	-113.061030	-14.978962	16.727728	-14.978962	16.727728	-0.701354	-5.960419
8.150000	-1.665038	-117.408723	-14.085514	13.812445	-14.085514	13.812445	-0.753489	-9.018019
8.200000	-1.762689	-121.835632	-13.258426	10.704499	-13.258426	10.704499	-0.812535	-12.090048
8.250000	-1.868142	-126.338695	-12.489248	7.451574	-12.489248	7.451574	-0.878415	-15.176223
8.300000	-1.981977	-130.922381	-11.769769	4.070846	-11.769769	4.070846	-0.951703	-18.277461
8.350000	-2.105439	-135.598538	-11.092629	0.567748	-11.092629	0.567748	-1.033668	-21.395868
8.400000	-2.238286	-140.361412	-10.454239	-3.034522	-10.454239	-3.034522	-1.124095	-24.530069
8.450000	-2.381859	-145.223123	-9.849603	-6.737034	-9.849603	-6.737034	-1.224383	-27.681713
8.500000	-2.536698	-150.186232	-9.275802	-10.531284	-9.275802	-10.531284	-1.335150	-30.850352
8.550000	-2.702974	-155.248465	-8.730650	-14.407701	-8.730650	-14.407701	-1.456606	-34.034595
8.600000	-2.882708	-160.429018	-8.211154	-18.374077	-8.211154	-18.374077	-1.591028	-37.235800
8.650000	-3.075461	-165.717836	-7.716488	-22.416524	-7.716488	-22.416524	-1.738013	-40.450648
8.700000	-3.282347	-171.122788	-7.245031	-26.535507	-7.245031	-26.535507	-1.898902	-43.678055
8.750000	-3.504624	-176.654085	-6.795710	-30.732116	-6.795710	-30.732116	-2.075346	-46.916117
8.800000	-3.742046	177.697292	-6.367843	-34.996374	-6.367843	-34.996374	-2.267182	-50.161105
8.850000	-3.996214	171.916227	-5.960789	-39.332291	-5.960789	-39.332291	-2.476674	-53.410130
8.900000	-4.267169	166.007182	-5.574127	-43.732735	-5.574127	-43.732735	-2.704214	-56.658622
8.950000	-4.555121	159.973710	-5.207243	-48.192016	-5.207243	-48.192016	-2.950371	-59.902435
9.000000	-4.861382	153.797963	-4.860530	-52.713522	-4.860530	-52.713522	-3.217825	-63.134882
9.050000	-5.185120	147.498065	-4.533039	-57.284976	-4.533039	-57.284976	-3.505856	-66.351673
9.100000	-5.526818	141.067043	-4.224875	-61.905031	-4.224875	-61.905031	-3.816245	-69.545917
9.150000	-5.886253	134.504422	-3.936111	-66.569093	-3.936111	-66.569093	-4.150158	-72.709917
9.200000	-6.262905	127.824288	-3.665661	-71.268568	-3.665661	-71.268568	-4.507674	-75.839993
9.250000	-6.656225	121.018079	-3.414415	-76.001682	-3.414415	-76.001682	-4.890837	-78.924843
9.300000	-7.065484	114.105483	-3.180876	-80.759394	-3.180876	-80.759394	-5.299614	-81.962496
9.350000	-7.489623	107.089498	-2.965229	-85.537583	-2.965229	-85.537583	-5.735461	-84.944208
9.400000	-7.927408	99.982300	-2.767022	-90.330505	-2.767022	-90.330505	-6.199381	-87.863932
9.450000	-8.377552	92.799479	-2.585678	-95.132684	-2.585678	-95.132684	-6.692490	-90.716631
9.500000	-8.839037	85.560837	-2.420325	-99.939074	-2.420325	-99.939074	-7.216133	-93.499567
9.550000	-9.310825	78.288222	-2.270242	-104.745390	-2.270242	-104.745390	-7.772056	-96.210120
9.600000	-9.792108	71.007346	-2.134664	-109.547947	-2.134664	-109.547947	-8.362466	-98.847029
9.650000	-10.282423	63.748007	-2.012786	-114.343733	-2.012786	-114.343733	-8.990197	-101.410584
9.700000	-10.781599	56.545079	-1.903884	-119.130364	-1.903884	-119.130364	-9.658862	-103.902231
9.750000	-11.289863	49.440393	-1.807298	-123.906081	-1.807298	-123.906081	-10.373081	-106.325048
9.800000	-11.808963	42.475943	-1.721928	-128.670402	-1.721928	-128.670402	-11.139498	-108.687316
9.850000	-12.340810	35.700205	-1.646999	-133.423339	-1.646999	-133.423339	-11.966744	-110.998141
9.900000	-12.887936	29.167259	-1.581789	-138.165607	-1.581789	-138.165607	-12.866505	-113.269914
9.950000	-13.453365	22.937853	-1.525640	-142.898572	-1.525640	-142.898572	-13.854868	-115.519381
10.000000	-14.040375	17.081047	-1.477974	-147.624183	-1.477974	-147.624183	-14.954468	-117.769570
