! freq	dB(S11)	phase(S11)	dB(S12)	phase(S12)	
!     	dB(S21)	phase(S21)	dB(S22)	phase(S22)	
!S-par simulation data
#  GHz  S  DB  R 50
0.000000	-0.000000	0.000000	-362.343750	0.000000	-362.343750	0.000000	-0.000000	0.000000
0.050000	-0.001469	-0.796023	-92.684642	-172.582487	-92.684642	-172.582487	-0.000099	-0.992484
0.100000	-0.003301	-1.605687	-92.280170	171.649264	-92.280170	171.649264	-0.000393	-1.984761
0.150000	-0.004423	-2.419067	-91.990733	161.339784	-91.990733	161.339784	-0.000876	-2.976635
0.200000	-0.005195	-3.232250	-91.671505	152.877438	-91.671505	152.877438	-0.001533	-3.967930
0.250000	-0.005842	-4.044577	-91.323264	145.609090	-91.323264	145.609090	-0.002362	-4.958433
0.300000	-0.006476	-4.856121	-90.967509	139.182380	-90.967509	139.182380	-0.003331	-5.948074
0.350000	-0.007132	-5.666896	-90.619693	133.515474	-90.619693	133.515474	-0.004430	-6.936703
0.400000	-0.007830	-6.476933	-90.294332	128.517274	-90.294332	128.517274	-0.005639	-7.924225
0.450000	-0.008576	-7.286241	-90.002796	124.117647	-90.002796	124.117647	-0.006941	-8.910564
0.500000	-0.009372	-8.094816	-89.753779	120.261976	-89.753779	120.261976	-0.008318	-9.895669
0.550000	-0.010215	-8.902642	-89.553957	116.910111	-89.553957	116.910111	-0.009753	-10.879503
0.600000	-0.011102	-9.709703	-89.408602	114.036557	-89.408602	114.036557	-0.011230	-11.862046
0.650000	-0.012029	-10.515979	-89.322058	111.631213	-89.322058	111.631213	-0.012738	-12.843288
0.700000	-0.012991	-11.321451	-89.298057	109.700739	-89.298057	109.700739	-0.014262	-13.823231
0.750000	-0.013985	-12.126101	-89.339843	108.270837	-89.339843	108.270837	-0.015795	-14.801880
0.800000	-0.015004	-12.929913	-89.450046	107.389776	-89.450046	107.389776	-0.017327	-15.779245
0.850000	-0.016046	-13.732873	-89.630184	107.133458	-89.630184	107.133458	-0.018853	-16.755339
0.900000	-0.017106	-14.534966	-89.879539	107.612052	-89.879539	107.612052	-0.020366	-17.730174
0.950000	-0.018180	-15.336183	-90.192973	108.977253	-90.192973	108.977253	-0.021863	-18.703759
1.000000	-0.019265	-16.136512	-90.557011	111.426715	-90.557011	111.426715	-0.023342	-19.676106
1.050000	-0.020357	-16.935943	-90.943426	115.196353	-90.943426	115.196353	-0.024801	-20.647219
1.100000	-0.021455	-17.734469	-91.300436	120.520947	-91.300436	120.520947	-0.026238	-21.617104
1.150000	-0.022555	-18.532081	-91.545134	127.533614	-91.545134	127.533614	-0.027654	-22.585762
1.200000	-0.023657	-19.328772	-91.568455	136.090890	-91.568455	136.090890	-0.029049	-23.553189
1.250000	-0.024757	-20.124532	-91.268285	145.603957	-91.268285	145.603957	-0.030423	-24.519381
1.300000	-0.025855	-20.919315	-90.587475	155.056310	-90.587475	155.056310	-0.031776	-25.484276
1.350000	-0.026949	-21.713150	-89.597864	163.492452	-89.597864	163.492452	-0.033110	-26.447918
1.400000	-0.028040	-22.506032	-88.407920	170.430717	-88.407920	170.430717	-0.034428	-27.410293
1.450000	-0.029125	-23.297950	-87.122437	175.810955	-87.122437	175.810955	-0.035729	-28.371387
1.500000	-0.030205	-24.088895	-85.816144	179.807781	-85.816144	179.807781	-0.037016	-29.331183
1.550000	-0.031280	-24.878858	-84.533255	-177.330122	-84.533255	-177.330122	-0.038289	-30.289663
1.600000	-0.032349	-25.667829	-83.296317	-175.364060	-83.296317	-175.364060	-0.039552	-31.246809
1.650000	-0.033412	-26.455797	-82.114797	-174.094901	-82.114797	-174.094901	-0.040804	-32.202601
1.700000	-0.034470	-27.242750	-80.990981	-173.366344	-80.990981	-173.366344	-0.042047	-33.157017
1.750000	-0.035523	-28.028679	-79.923492	-173.058821	-79.923492	-173.058821	-0.043283	-34.110037
1.800000	-0.036571	-28.813570	-78.909245	-173.081598	-78.909245	-173.081598	-0.044513	-35.061638
1.850000	-0.037614	-29.597411	-77.944501	-173.365739	-77.944501	-173.365739	-0.045738	-36.011799
1.900000	-0.038653	-30.380190	-77.025399	-173.858562	-77.025399	-173.858562	-0.046960	-36.960496
1.950000	-0.039688	-31.161894	-76.148223	-174.519472	-76.148223	-174.519472	-0.048179	-37.907710
2.000000	-0.040720	-31.942510	-75.309521	-175.316903	-75.309521	-175.316903	-0.049396	-38.853416
2.050000	-0.041750	-32.722024	-74.506143	-176.226074	-74.506143	-176.226074	-0.050613	-39.797593
2.100000	-0.042777	-33.500423	-73.735244	-177.227356	-73.735244	-177.227356	-0.051830	-40.740221
2.150000	-0.043803	-34.277694	-72.994265	-178.305057	-72.994265	-178.305057	-0.053048	-41.681277
2.200000	-0.044829	-35.053823	-72.280914	-179.446535	-72.280914	-179.446535	-0.054269	-42.620742
2.250000	-0.045854	-35.828795	-71.593132	179.358479	-71.593132	179.358479	-0.055492	-43.558594
2.300000	-0.046879	-36.602598	-70.929074	178.118380	-70.929074	178.118380	-0.056719	-44.494816
2.350000	-0.047905	-37.375218	-70.287078	176.840079	-70.287078	176.840079	-0.057951	-45.429387
2.400000	-0.048932	-38.146640	-69.665649	175.529300	-69.665649	175.529300	-0.059187	-46.362290
2.450000	-0.049962	-38.916852	-69.063434	174.190806	-69.063434	174.190806	-0.060428	-47.293507
2.500000	-0.050994	-39.685840	-68.479212	172.828581	-68.479212	172.828581	-0.061676	-48.223022
2.550000	-0.052029	-40.453537	-67.910994	171.445220	-67.910994	171.445220	-0.062931	-49.150742
2.600000	-0.053068	-41.219982	-67.358736	170.044513	-67.358736	170.044513	-0.064193	-50.076728
2.650000	-0.054112	-41.985163	-66.821507	168.628802	-66.821507	168.628802	-0.065463	-51.000964
2.700000	-0.055160	-42.749068	-66.298456	167.200077	-66.298456	167.200077	-0.066741	-51.923438
2.750000	-0.056214	-43.511683	-65.788803	165.760036	-65.788803	165.760036	-0.068027	-52.844137
2.800000	-0.057274	-44.272997	-65.291834	164.310132	-65.291834	164.310132	-0.069323	-53.763049
2.850000	-0.058340	-45.032999	-64.806890	162.851606	-64.806890	162.851606	-0.070628	-54.680163
2.900000	-0.059413	-45.791676	-64.333368	161.385527	-64.333368	161.385527	-0.071943	-55.595469
2.950000	-0.060493	-46.549018	-63.870708	159.912811	-63.870708	159.912811	-0.073268	-56.508958
3.000000	-0.061581	-47.305013	-63.418393	158.434245	-63.418393	158.434245	-0.074605	-57.420623
3.050000	-0.062677	-48.059652	-62.975945	156.950510	-62.975945	156.950510	-0.075952	-58.330454
3.100000	-0.063783	-48.812924	-62.542921	155.462189	-62.542921	155.462189	-0.077310	-59.238447
3.150000	-0.064897	-49.564819	-62.118908	153.969787	-62.118908	153.969787	-0.078681	-60.144596
3.200000	-0.066021	-50.315329	-61.703523	152.473740	-61.703523	152.473740	-0.080064	-61.048895
3.250000	-0.067155	-51.064443	-61.296409	150.974424	-61.296409	150.974424	-0.081460	-61.951341
3.300000	-0.068300	-51.812154	-60.897233	149.472164	-60.897233	149.472164	-0.082868	-62.851931
3.350000	-0.069455	-52.558453	-60.505684	147.967241	-60.505684	147.967241	-0.084290	-63.750663
3.400000	-0.070622	-53.303333	-60.121472	146.459899	-60.121472	146.459899	-0.085726	-64.647536
3.450000	-0.071801	-54.046785	-59.744324	144.950349	-59.744324	144.950349	-0.087176	-65.542549
3.500000	-0.072992	-54.788804	-59.373985	143.438774	-59.373985	143.438774	-0.088641	-66.435704
3.550000	-0.074195	-55.529381	-59.010218	141.925334	-59.010218	141.925334	-0.090121	-67.327000
3.600000	-0.075412	-56.268511	-58.652797	140.410169	-58.652797	140.410169	-0.091616	-68.216441
3.650000	-0.076641	-57.006189	-58.301512	138.893403	-58.301512	138.893403	-0.093127	-69.104029
3.700000	-0.077885	-57.742408	-57.956166	137.375143	-57.956166	137.375143	-0.094655	-69.989769
3.750000	-0.079143	-58.477164	-57.616571	135.855486	-57.616571	135.855486	-0.096199	-70.873665
3.800000	-0.080415	-59.210388	-57.282237	134.334466	-57.282237	134.334466	-0.097761	-71.755643
3.850000	-0.081703	-59.942139	-56.953336	132.812222	-56.953336	132.812222	-0.099340	-72.635790
3.900000	-0.083006	-60.672414	-56.629709	131.288826	-56.629709	131.288826	-0.100938	-73.514112
3.950000	-0.084325	-61.401210	-56.311207	129.764344	-56.311207	129.764344	-0.102554	-74.390619
4.000000	-0.085659	-62.128523	-55.997691	128.238840	-55.997691	128.238840	-0.104189	-75.265319
4.050000	-0.087011	-62.854351	-55.689028	126.712374	-55.689028	126.712374	-0.105844	-76.138221
4.100000	-0.088379	-63.578692	-55.385090	125.185007	-55.385090	125.185007	-0.107519	-77.009336
4.150000	-0.089764	-64.301544	-55.085759	123.656797	-55.085759	123.656797	-0.109214	-77.878675
4.200000	-0.091167	-65.022905	-54.790921	122.127801	-54.790921	122.127801	-0.110930	-78.746251
4.250000	-0.092587	-65.742776	-54.500469	120.598078	-54.500469	120.598078	-0.112667	-79.612075
4.300000	-0.094026	-66.461155	-54.214299	119.067689	-54.214299	119.067689	-0.114427	-80.476161
4.350000	-0.095484	-67.178042	-53.932315	117.536692	-53.932315	117.536692	-0.116209	-81.338524
4.400000	-0.096961	-67.893438	-53.654422	116.005151	-53.654422	116.005151	-0.118014	-82.199178
4.450000	-0.098457	-68.607342	-53.380532	114.473130	-53.380532	114.473130	-0.119842	-83.058139
4.500000	-0.099973	-69.319757	-53.110559	112.940694	-53.110559	112.940694	-0.121695	-83.915423
4.550000	-0.101509	-70.030682	-52.844422	111.407911	-52.844422	111.407911	-0.123572	-84.771047
4.600000	-0.103066	-70.740121	-52.582042	109.874853	-52.582042	109.874853	-0.125474	-85.625029
4.650000	-0.104644	-71.448075	-52.323344	108.341591	-52.323344	108.341591	-0.127403	-86.477388
4.700000	-0.106243	-72.154547	-52.068256	106.808199	-52.068256	106.808199	-0.129357	-87.328142
4.750000	-0.107864	-72.859540	-51.816707	105.274756	-51.816707	105.274756	-0.131339	-88.177312
4.800000	-0.109507	-73.563056	-51.568630	103.741340	-51.568630	103.741340	-0.133348	-89.024917
4.850000	-0.111172	-74.265099	-51.323960	102.208031	-51.323960	102.208031	-0.135385	-89.870980
4.900000	-0.112861	-74.965673	-51.082633	100.674912	-51.082633	100.674912	-0.137451	-90.715521
4.950000	-0.114573	-75.664783	-50.844588	99.142068	-50.844588	99.142068	-0.139545	-91.558564
5.000000	-0.116308	-76.362433	-50.609765	97.609583	-50.609765	97.609583	-0.141670	-92.400131
5.050000	-0.118068	-77.058565	-50.377976	96.077567	-50.377976	96.077567	-0.143827	-93.240185
5.100000	-0.119853	-77.753247	-50.149304	94.546093	-50.149304	94.546093	-0.146014	-94.078814
5.150000	-0.121663	-78.446486	-49.923692	93.015248	-49.923692	93.015248	-0.148233	-94.916043
5.200000	-0.123499	-79.138287	-49.701085	91.485121	-49.701085	91.485121	-0.150484	-95.751899
5.250000	-0.125360	-79.828657	-49.481431	89.955798	-49.481431	89.955798	-0.152768	-96.586408
5.300000	-0.127247	-80.517601	-49.264676	88.427369	-49.264676	88.427369	-0.155086	-97.419596
5.350000	-0.129160	-81.205128	-49.050768	86.899918	-49.050768	86.899918	-0.157437	-98.251493
5.400000	-0.131101	-81.891245	-48.839657	85.373533	-48.839657	85.373533	-0.159823	-99.082126
5.450000	-0.133078	-82.575473	-48.630518	83.848737	-48.630518	83.848737	-0.162257	-99.911109
5.500000	-0.135070	-83.258973	-48.425152	82.324569	-48.425152	82.324569	-0.164709	-100.739459
5.550000	-0.137096	-83.940787	-48.221975	80.802038	-48.221975	80.802038	-0.167206	-101.566395
5.600000	-0.139147	-84.621399	-48.021659	79.280676	-48.021659	79.280676	-0.169734	-102.392320
5.650000	-0.141229	-85.300586	-47.823818	77.760882	-47.823818	77.760882	-0.172302	-103.217104
5.700000	-0.143341	-85.978347	-47.628387	76.242657	-47.628387	76.242657	-0.174910	-104.040744
5.750000	-0.145479	-86.654939	-47.435670	74.725865	-47.435670	74.725865	-0.177551	-104.863493
5.800000	-0.147654	-87.329891	-47.244962	73.211079	-47.244962	73.211079	-0.180239	-105.684994
5.850000	-0.149850	-88.003922	-47.057165	71.697529	-47.057165	71.697529	-0.182955	-106.505831
5.900000	-0.152089	-88.676108	-46.871019	70.186452	-46.871019	70.186452	-0.185727	-107.325342
5.950000	-0.154345	-89.347615	-46.687946	68.676361	-46.687946	68.676361	-0.188520	-108.144396
6.000000	-0.156650	-90.017081	-46.506202	67.169226	-46.506202	67.169226	-0.191378	-108.962076
6.050000	-0.158968	-90.686102	-46.327662	65.662781	-46.327662	65.662781	-0.194250	-109.779478
6.100000	-0.161341	-91.352895	-46.150163	64.159782	-46.150163	64.159782	-0.197195	-110.595490
6.150000	-0.163721	-92.019471	-45.975974	62.657140	-45.975974	62.657140	-0.200149	-111.411378
6.200000	-0.166165	-92.683642	-45.802564	61.158429	-45.802564	61.158429	-0.203184	-112.225894
6.250000	-0.168609	-93.347814	-45.632549	59.659717	-45.632549	59.659717	-0.206220	-113.040411
6.300000	-0.171124	-94.009417	-45.463076	58.165401	-45.463076	58.165401	-0.209347	-113.853610
6.350000	-0.173640	-94.671019	-45.296847	56.671085	-45.296847	56.671085	-0.212475	-114.666809
6.400000	-0.176223	-95.330317	-45.131381	55.180857	-45.131381	55.180857	-0.215688	-115.478971
6.450000	-0.178813	-95.989405	-44.968799	53.691001	-44.968799	53.691001	-0.218910	-116.291038
6.500000	-0.181465	-96.646446	-44.807174	52.204881	-44.807174	52.204881	-0.222211	-117.102325
6.550000	-0.184131	-97.303077	-44.648103	50.719509	-44.648103	50.719509	-0.225528	-117.913455
6.600000	-0.186853	-97.957910	-44.490161	49.237488	-44.490161	49.237488	-0.228918	-118.724035
6.650000	-0.189596	-98.612144	-44.334472	47.756583	-44.334472	47.756583	-0.232332	-119.534431
6.700000	-0.192391	-99.264820	-44.180061	46.278624	-44.180061	46.278624	-0.235812	-120.344478
6.750000	-0.195213	-99.916717	-44.027630	44.802136	-44.027630	44.802136	-0.239326	-121.154351
6.800000	-0.198082	-100.567289	-43.876611	43.328179	-43.876611	43.328179	-0.242897	-121.964048
6.850000	-0.200985	-101.216913	-43.727319	41.856029	-43.727319	41.856029	-0.246510	-122.773620
6.900000	-0.203929	-101.865435	-43.579560	40.385995	-43.579560	40.385995	-0.250175	-123.583158
6.950000	-0.206914	-102.512852	-43.433298	38.918079	-43.433298	38.918079	-0.253889	-124.392661
7.000000	-0.209935	-103.159378	-43.288676	37.451877	-43.288676	37.451877	-0.257647	-125.202236
7.050000	-0.213005	-103.804657	-43.145343	35.988076	-43.145343	35.988076	-0.261465	-126.011914
7.100000	-0.216104	-104.449245	-43.003744	34.525607	-43.003744	34.525607	-0.265317	-126.821736
7.150000	-0.219260	-105.092454	-42.863248	33.065800	-42.863248	33.065800	-0.269238	-127.631845
7.200000	-0.222439	-105.735163	-42.724567	31.606962	-42.724567	31.606962	-0.273187	-128.442129
7.250000	-0.225683	-106.376374	-42.586824	30.151032	-42.586824	30.151032	-0.277213	-129.252940
7.300000	-0.228943	-107.017264	-42.450968	28.695733	-42.450968	28.695733	-0.281258	-130.063915
7.350000	-0.232277	-107.656550	-42.315904	27.243583	-42.315904	27.243583	-0.285389	-130.875713
7.400000	-0.235619	-108.295682	-42.182786	25.791743	-42.182786	25.791743	-0.289532	-131.687618
7.450000	-0.239045	-108.933120	-42.050339	24.343310	-42.050339	24.343310	-0.293771	-132.500705
7.500000	-0.242471	-109.570558	-41.919882	22.894878	-41.919882	22.894878	-0.298012	-133.313793
7.550000	-0.245989	-110.206225	-41.789998	21.450147	-41.789998	21.450147	-0.302359	-134.128492
7.600000	-0.249509	-110.841892	-41.662027	20.005416	-41.662027	20.005416	-0.306708	-134.943192
7.650000	-0.253114	-111.476008	-41.534767	18.564126	-41.534767	18.564126	-0.311156	-135.759683
7.700000	-0.256728	-112.109984	-41.409242	17.123150	-41.409242	17.123150	-0.315615	-136.576338
7.750000	-0.260421	-112.742618	-41.284552	15.685416	-41.284552	15.685416	-0.320165	-137.394929
7.800000	-0.264132	-113.374984	-41.161439	14.248332	-41.161439	14.248332	-0.324735	-138.213908
7.850000	-0.267914	-114.006205	-41.039272	12.814350	-41.039272	12.814350	-0.329390	-139.034927
7.900000	-0.271722	-114.637045	-40.918544	11.381403	-40.918544	11.381403	-0.334074	-139.856626
7.950000	-0.275596	-115.266924	-40.798858	9.951463	-40.798858	9.951463	-0.338835	-140.680425
8.000000	-0.279503	-115.896323	-40.680497	8.523027	-40.680497	8.523027	-0.343635	-141.505274
8.050000	-0.283469	-116.524934	-40.563255	7.097530	-40.563255	7.097530	-0.348505	-142.332233
8.100000	-0.287477	-117.152980	-40.447242	5.674133	-40.447242	5.674133	-0.353426	-143.160699
8.150000	-0.291535	-117.780395	-40.332410	4.253610	-40.332410	4.253610	-0.358409	-143.991230
8.200000	-0.295645	-118.407179	-40.218732	2.835960	-40.218732	2.835960	-0.363454	-144.823826
8.250000	-0.299798	-119.033474	-40.106277	1.421088	-40.106277	1.421088	-0.368555	-145.658379
8.300000	-0.304011	-119.659087	-39.994918	0.010104	-39.994918	0.010104	-0.373732	-146.495671
8.350000	-0.308254	-120.284397	-39.884828	-1.398748	-39.884828	-1.398748	-0.378949	-147.334421
8.400000	-0.312555	-120.909104	-39.775841	-2.803336	-39.775841	-2.803336	-0.384243	-148.176089
8.450000	-0.316922	-121.533172	-39.667932	-4.202426	-39.667932	-4.202426	-0.389629	-149.021399
8.500000	-0.321332	-122.156851	-39.561190	-5.597569	-39.561190	-5.597569	-0.395079	-149.869252
8.550000	-0.325786	-122.780152	-39.455594	-6.988592	-39.455594	-6.988592	-0.400594	-150.719727
8.600000	-0.330299	-123.402962	-39.351079	-8.373514	-39.351079	-8.373514	-0.406201	-151.574000
8.650000	-0.334868	-124.025350	-39.247647	-9.752038	-39.247647	-9.752038	-0.411901	-152.432128
8.700000	-0.339481	-124.647423	-39.145313	-11.125141	-39.145313	-11.125141	-0.417679	-153.293459
8.750000	-0.344138	-125.269192	-39.044054	-12.492596	-39.044054	-12.492596	-0.423538	-154.158089
8.800000	-0.348868	-125.890508	-38.943775	-13.849670	-38.943775	-13.849670	-0.429537	-155.028612
8.850000	-0.353643	-126.511577	-38.844521	-15.199619	-38.844521	-15.199619	-0.435633	-155.903071
8.900000	-0.358462	-127.132408	-38.746265	-16.542130	-38.746265	-16.542130	-0.441831	-156.781605
8.950000	-0.363339	-127.752961	-38.648942	-17.874468	-38.648942	-17.874468	-0.448165	-157.665631
9.000000	-0.368277	-128.373256	-38.552489	-19.194588	-38.552489	-19.194588	-0.454664	-158.556128
9.050000	-0.373261	-128.993384	-38.456920	-20.504966	-38.456920	-20.504966	-0.461297	-159.451729
9.100000	-0.378291	-129.613355	-38.362205	-21.805200	-38.362205	-21.805200	-0.468072	-160.352619
9.150000	-0.383390	-130.233128	-38.268165	-23.088078	-38.268165	-23.088078	-0.475089	-161.262485
9.200000	-0.388539	-130.852793	-38.174828	-24.357257	-38.174828	-24.357257	-0.482307	-162.179413
9.250000	-0.393735	-131.472375	-38.082173	-25.613206	-38.082173	-25.613206	-0.489723	-163.103170
9.300000	-0.398984	-132.091879	-37.990090	-26.852570	-37.990090	-26.852570	-0.497393	-164.035506
9.350000	-0.404300	-132.711332	-37.898352	-28.069130	-37.898352	-28.069130	-0.505429	-164.979764
9.400000	-0.409663	-133.330778	-37.807066	-29.268515	-37.807066	-29.268515	-0.513758	-165.933149
9.450000	-0.415072	-133.950228	-37.716186	-30.450019	-37.716186	-30.450019	-0.522401	-166.896119
9.500000	-0.420548	-134.569724	-37.625323	-31.603077	-37.625323	-31.603077	-0.531566	-167.874693
9.550000	-0.426079	-135.189296	-37.534491	-32.730311	-37.534491	-32.730311	-0.541247	-168.867997
9.600000	-0.431656	-135.808951	-37.443751	-33.834284	-37.443751	-33.834284	-0.551421	-169.874969
9.650000	-0.437285	-136.428715	-37.352952	-34.911603	-37.352952	-34.911603	-0.562180	-170.897942
9.700000	-0.442984	-137.048685	-37.261419	-35.946650	-37.261419	-35.946650	-0.573955	-171.947986
9.750000	-0.448720	-137.668779	-37.169899	-36.958713	-37.169899	-36.958713	-0.586337	-173.013619
9.800000	-0.454520	-138.289122	-37.077500	-37.926817	-37.077500	-37.926817	-0.599941	-174.110601
9.850000	-0.460374	-138.909712	-36.984307	-38.853676	-36.984307	-38.853676	-0.614814	-175.239527
9.900000	-0.466282	-139.530570	-36.890226	-39.737325	-36.890226	-39.737325	-0.631148	-176.404909
9.950000	-0.472247	-140.151756	-36.794889	-40.569172	-36.794889	-40.569172	-0.649411	-177.618476
10.000000	-0.478263	-140.773252	-36.698477	-41.352739	-36.698477	-41.352739	-0.669676	-178.882122
