! freq	dB(S11)	phase(S11)	dB(S12)	phase(S12)	
!     	dB(S21)	phase(S21)	dB(S22)	phase(S22)	
!S-par simulation data
#  GHz  S  DB  R 50
0.000000	-0.000000	0.000000	-392.889141	0.000000	-392.889141	0.000000	-0.000000	0.000000
0.050000	-0.000093	-0.803186	-107.493233	71.922279	-107.493233	71.922279	-0.000104	-0.968382
0.100000	-0.000367	-1.606168	-103.430312	67.589757	-103.430312	67.589757	-0.000413	-1.936534
0.150000	-0.000814	-2.408751	-101.151536	68.490139	-101.151536	68.490139	-0.000917	-2.904241
0.200000	-0.001419	-3.210773	-99.411557	70.233180	-99.411557	70.233180	-0.001603	-3.871311
0.250000	-0.002174	-4.012042	-97.986012	71.747960	-97.986012	71.747960	-0.002463	-4.837518
0.300000	-0.003045	-4.812510	-96.794716	72.920538	-96.794716	72.920538	-0.003462	-5.802792
0.350000	-0.004020	-5.612064	-95.793870	73.795922	-95.793870	73.795922	-0.004588	-6.766985
0.400000	-0.005078	-6.410647	-94.953159	74.460851	-94.953159	74.460851	-0.005818	-7.730007
0.450000	-0.006200	-7.208227	-94.250671	74.996602	-94.250671	74.996602	-0.007134	-8.691793
0.500000	-0.007369	-8.004792	-93.670339	75.473385	-93.670339	75.473385	-0.008514	-9.652305
0.550000	-0.008571	-8.800347	-93.200405	75.953326	-93.200405	75.953326	-0.009943	-10.611519
0.600000	-0.009792	-9.594907	-92.832368	76.494973	-92.832368	76.494973	-0.011404	-11.569431
0.650000	-0.011022	-10.388497	-92.560211	77.157857	-92.560211	77.157857	-0.012884	-12.526043
0.700000	-0.012252	-11.181144	-92.379772	78.007092	-92.379772	78.007092	-0.014373	-13.481367
0.750000	-0.013477	-11.972875	-92.288143	79.118385	-92.288143	79.118385	-0.015860	-14.435420
0.800000	-0.014691	-12.763717	-92.282960	80.583849	-92.282960	80.583849	-0.017340	-15.388219
0.850000	-0.015891	-13.553695	-92.361369	82.518934	-92.361369	82.518934	-0.018806	-16.339780
0.900000	-0.017075	-14.342830	-92.518326	85.070262	-92.518326	85.070262	-0.020256	-17.290118
0.950000	-0.018243	-15.131139	-92.743732	88.422774	-92.743732	88.422774	-0.021686	-18.239245
1.000000	-0.019394	-15.918634	-93.017655	92.801077	-93.017655	92.801077	-0.023095	-19.187171
1.050000	-0.020527	-16.705324	-93.303135	98.452802	-93.303135	98.452802	-0.024482	-20.133899
1.100000	-0.021645	-17.491214	-93.537600	105.591326	-93.537600	105.591326	-0.025848	-21.079431
1.150000	-0.022746	-18.276304	-93.628772	114.272136	-93.628772	114.272136	-0.027192	-22.023764
1.200000	-0.023834	-19.060593	-93.468252	124.215113	-93.468252	124.215113	-0.028517	-22.966893
1.250000	-0.024908	-19.844076	-92.973270	134.701336	-92.973270	134.701336	-0.029822	-23.908807
1.300000	-0.025970	-20.626709	-92.118943	144.700434	-92.118943	144.700434	-0.031108	-24.849441
1.350000	-0.027022	-21.408518	-90.999011	153.433597	-90.999011	153.433597	-0.032379	-25.788832
1.400000	-0.028064	-22.189490	-89.721730	160.591071	-89.721730	160.591071	-0.033634	-26.726962
1.450000	-0.029098	-22.969613	-88.380014	166.213613	-88.380014	166.213613	-0.034877	-27.663812
1.500000	-0.030124	-23.748872	-87.036027	170.509242	-87.036027	170.509242	-0.036107	-28.599363
1.550000	-0.031145	-24.527253	-85.725050	173.724041	-85.725050	173.724041	-0.037328	-29.533591
1.600000	-0.032161	-25.304738	-84.464335	176.081748	-84.464335	176.081748	-0.038539	-30.466474
1.650000	-0.033173	-26.081312	-83.260538	177.765557	-83.260538	177.765557	-0.039743	-31.397988
1.700000	-0.034181	-26.856957	-82.114578	178.918702	-82.114578	178.918702	-0.040941	-32.328109
1.750000	-0.035187	-27.631657	-81.024491	179.651128	-81.024491	179.651128	-0.042133	-33.256813
1.800000	-0.036192	-28.405392	-79.987010	-179.953120	-79.987010	-179.953120	-0.043321	-34.184074
1.850000	-0.037195	-29.178147	-78.998403	-179.829584	-78.998403	-179.829584	-0.044506	-35.109868
1.900000	-0.038198	-29.949902	-78.054908	-179.928464	-78.054908	-179.928464	-0.045690	-36.034170
1.950000	-0.039201	-30.720641	-77.152943	179.789067	-77.152943	179.789067	-0.046872	-36.956955
2.000000	-0.040204	-31.490346	-76.289193	179.353585	-76.289193	179.353585	-0.048053	-37.878199
2.050000	-0.041209	-32.259000	-75.460639	178.789416	-75.460639	178.789416	-0.049236	-38.797879
2.100000	-0.042215	-33.026586	-74.664557	178.116104	-74.664557	178.116104	-0.050419	-39.715970
2.150000	-0.043224	-33.793086	-73.898498	177.349503	-73.898498	177.349503	-0.051604	-40.632450
2.200000	-0.044234	-34.558484	-73.160264	176.502593	-73.160264	176.502593	-0.052792	-41.547297
2.250000	-0.045248	-35.322764	-72.447879	175.586091	-72.447879	175.586091	-0.053983	-42.460488
2.300000	-0.046264	-36.085910	-71.759569	174.608920	-71.759569	174.608920	-0.055177	-43.372002
2.350000	-0.047284	-36.847906	-71.093736	173.578564	-71.093736	173.578564	-0.056375	-44.281819
2.400000	-0.048308	-37.608737	-70.448938	172.501347	-70.448938	172.501347	-0.057579	-45.189920
2.450000	-0.049336	-38.368388	-69.823869	171.382646	-69.823869	171.382646	-0.058787	-46.096284
2.500000	-0.050369	-39.126844	-69.217347	170.227065	-69.217347	170.227065	-0.060001	-47.000895
2.550000	-0.051406	-39.884038	-68.627323	169.037299	-68.627323	169.037299	-0.061221	-47.903655
2.600000	-0.052449	-40.640007	-68.053892	167.818317	-68.053892	167.818317	-0.062447	-48.804626
2.650000	-0.053496	-41.394740	-67.496146	166.573053	-67.496146	166.573053	-0.063680	-49.703790
2.700000	-0.054550	-42.148221	-66.953251	165.304081	-66.953251	165.304081	-0.064921	-50.601134
2.750000	-0.055610	-42.900439	-66.424445	164.013666	-66.424445	164.013666	-0.066169	-51.496642
2.800000	-0.056676	-43.651381	-65.909022	162.703807	-65.909022	162.703807	-0.067425	-52.390301
2.850000	-0.057748	-44.401036	-65.406334	161.376283	-65.406334	161.376283	-0.068689	-53.282099
2.900000	-0.058827	-45.149392	-64.915781	160.032675	-64.915781	160.032675	-0.069962	-54.172023
2.950000	-0.059914	-45.896437	-64.436807	158.674398	-64.436807	158.674398	-0.071245	-55.060063
3.000000	-0.061008	-46.642162	-63.968895	157.302722	-63.968895	157.302722	-0.072536	-55.946208
3.050000	-0.062110	-47.386555	-63.511566	155.918790	-63.511566	155.918790	-0.073838	-56.830448
3.100000	-0.063221	-48.129607	-63.064371	154.523633	-63.064371	154.523633	-0.075150	-57.712775
3.150000	-0.064340	-48.871308	-62.626893	153.118187	-62.626893	153.118187	-0.076472	-58.593181
3.200000	-0.065467	-49.611648	-62.198739	151.703299	-62.198739	151.703299	-0.077805	-59.471659
3.250000	-0.066604	-50.350620	-61.779544	150.279743	-61.779544	150.279743	-0.079150	-60.348202
3.300000	-0.067751	-51.088214	-61.368963	148.848224	-61.368963	148.848224	-0.080507	-61.222805
3.350000	-0.068907	-51.824423	-60.966673	147.409387	-60.966673	147.409387	-0.081875	-62.095463
3.400000	-0.070073	-52.559238	-60.572369	145.963825	-60.572369	145.963825	-0.083257	-62.966172
3.450000	-0.071251	-53.292653	-60.185763	144.512082	-60.185763	144.512082	-0.084651	-63.834929
3.500000	-0.072439	-54.024660	-59.806586	143.054659	-59.806586	143.054659	-0.086059	-64.701730
3.550000	-0.073638	-54.755253	-59.434580	141.592017	-59.434580	141.592017	-0.087480	-65.566574
3.600000	-0.074849	-55.484426	-59.069502	140.124586	-59.069502	140.124586	-0.088916	-66.429460
3.650000	-0.076073	-56.212173	-58.711124	138.652760	-58.711124	138.652760	-0.090367	-67.290388
3.700000	-0.077308	-56.938488	-58.359226	137.176908	-58.359226	137.176908	-0.091832	-68.149357
3.750000	-0.078557	-57.663367	-58.013601	135.697368	-58.013601	135.697368	-0.093314	-69.006369
3.800000	-0.079819	-58.386741	-57.673742	134.214328	-57.673742	134.214328	-0.094812	-69.861341
3.850000	-0.081095	-59.108670	-57.339795	132.728238	-57.339795	132.728238	-0.096327	-70.714359
3.900000	-0.082385	-59.829148	-57.011579	131.239373	-57.011579	131.239373	-0.097859	-71.565428
3.950000	-0.083690	-60.548173	-56.688924	129.747987	-56.688924	129.747987	-0.099409	-72.414551
4.000000	-0.085009	-61.265742	-56.371664	128.254319	-56.371664	128.254319	-0.100976	-73.261732
4.050000	-0.086343	-61.981851	-56.059643	126.758591	-56.059643	126.758591	-0.102562	-74.106977
4.100000	-0.087694	-62.696498	-55.752712	125.261013	-55.752712	125.261013	-0.104167	-74.950292
4.150000	-0.089060	-63.409681	-55.450726	123.761781	-55.450726	123.761781	-0.105792	-75.791682
4.200000	-0.090442	-64.121398	-55.153550	122.261079	-55.153550	122.261079	-0.107437	-76.631156
4.250000	-0.091842	-64.831648	-54.861051	120.759078	-54.861051	120.759078	-0.109102	-77.468720
4.300000	-0.093259	-65.540429	-54.573103	119.255942	-54.573103	119.255942	-0.110789	-78.304382
4.350000	-0.094693	-66.247742	-54.289586	117.751824	-54.289586	117.751824	-0.112496	-79.138153
4.400000	-0.096146	-66.953585	-54.010383	116.246865	-54.010383	116.246865	-0.114226	-79.970041
4.450000	-0.097617	-67.657959	-53.735384	114.741202	-53.735384	114.741202	-0.115979	-80.800056
4.500000	-0.099107	-68.360865	-53.464480	113.234961	-53.464480	113.234961	-0.117755	-81.628209
4.550000	-0.100616	-69.062301	-53.197569	111.728262	-53.197569	111.728262	-0.119554	-82.454512
4.600000	-0.102146	-69.762271	-52.934552	110.221218	-52.934552	110.221218	-0.121377	-83.278976
4.650000	-0.103695	-70.460775	-52.675333	108.713936	-52.675333	108.713936	-0.123225	-84.101614
4.700000	-0.105265	-71.157814	-52.419821	107.206515	-52.419821	107.206515	-0.125098	-84.922438
4.750000	-0.106856	-71.853392	-52.167926	105.699050	-52.167926	105.699050	-0.126997	-85.741462
4.800000	-0.108468	-72.547509	-51.919564	104.191631	-51.919564	104.191631	-0.128922	-86.558700
4.850000	-0.110103	-73.240170	-51.674651	102.684341	-51.674651	102.684341	-0.130873	-87.374168
4.900000	-0.111759	-73.931376	-51.433110	101.177261	-51.433110	101.177261	-0.132852	-88.187879
4.950000	-0.113438	-74.621132	-51.194862	99.670465	-51.194862	99.670465	-0.134859	-88.999850
5.000000	-0.115141	-75.309441	-50.959834	98.164024	-50.959834	98.164024	-0.136893	-89.810097
5.050000	-0.116880	-75.995494	-50.726244	96.658285	-50.726244	96.658285	-0.138973	-90.617683
5.100000	-0.118620	-76.681546	-50.498772	95.152546	-50.498772	95.152546	-0.141053	-91.425268
5.150000	-0.120406	-77.364857	-50.271638	93.647865	-50.271638	93.647865	-0.143189	-92.229659
5.200000	-0.122196	-78.047918	-50.049809	92.143281	-50.049809	92.143281	-0.145332	-93.033761
5.250000	-0.124031	-78.728505	-49.828835	90.639859	-49.828835	90.639859	-0.147527	-93.835026
5.300000	-0.125874	-79.408598	-49.612433	89.136669	-49.612433	89.136669	-0.149733	-94.635724
5.350000	-0.127758	-80.086482	-49.397343	87.634687	-49.397343	87.634687	-0.151989	-95.433935
5.400000	-0.129656	-80.763631	-49.186166	86.133107	-49.186166	86.133107	-0.154261	-96.231317
5.450000	-0.131591	-81.438836	-48.976702	84.632730	-48.976702	84.632730	-0.156579	-97.026547
5.500000	-0.133545	-82.113070	-48.770559	83.132953	-48.770559	83.132953	-0.158920	-97.820702
5.550000	-0.135533	-82.785620	-48.566481	81.634329	-48.566481	81.634329	-0.161302	-98.613031
5.600000	-0.137545	-83.456969	-48.365193	80.136530	-48.365193	80.136530	-0.163713	-99.404055
5.650000	-0.139587	-84.126892	-48.166276	78.639798	-48.166276	78.639798	-0.166160	-100.193563
5.700000	-0.141660	-84.795389	-47.969673	77.144135	-47.969673	77.144135	-0.168643	-100.981555
5.750000	-0.143757	-85.462713	-47.775708	75.649423	-47.775708	75.649423	-0.171157	-101.768326
5.800000	-0.145891	-86.128395	-47.583632	74.156041	-47.583632	74.156041	-0.173715	-102.553390
5.850000	-0.148046	-86.793152	-47.394422	72.663464	-47.394422	72.663464	-0.176298	-103.337513
5.900000	-0.150243	-87.456057	-47.206722	71.172498	-47.206722	71.172498	-0.178931	-104.119756
5.950000	-0.152456	-88.118279	-47.022083	69.682168	-47.022083	69.682168	-0.181584	-104.901322
6.000000	-0.154718	-88.778449	-46.838617	68.193743	-46.838617	68.193743	-0.184295	-105.680857
6.050000	-0.156992	-89.438170	-46.658377	66.705762	-46.658377	66.705762	-0.187020	-106.459960
6.100000	-0.159320	-90.095649	-46.479012	65.219996	-46.479012	65.219996	-0.189810	-107.236903
6.150000	-0.161655	-90.752906	-46.303009	63.734462	-46.303009	63.734462	-0.192608	-108.013640
6.200000	-0.164052	-91.407739	-46.127618	62.251468	-46.127618	62.251468	-0.195480	-108.788112
6.250000	-0.166449	-92.062572	-45.955700	60.768474	-45.955700	60.768474	-0.198352	-109.562584
6.300000	-0.168916	-92.714807	-45.784165	59.288361	-45.784165	59.288361	-0.201306	-110.334709
6.350000	-0.171383	-93.367043	-45.615952	57.808247	-45.615952	57.808247	-0.204262	-111.106834
6.400000	-0.173916	-94.016945	-45.448395	56.330871	-45.448395	56.330871	-0.207293	-111.876927
6.450000	-0.176455	-94.666634	-45.283783	54.853744	-45.283783	54.853744	-0.210333	-112.646834
6.500000	-0.179055	-95.314247	-45.120068	53.379192	-45.120068	53.379192	-0.213444	-113.415005
6.550000	-0.181667	-95.961443	-44.958957	51.905155	-44.958957	51.905155	-0.216569	-114.182828
6.600000	-0.184335	-96.606812	-44.798956	50.433513	-44.798956	50.433513	-0.219759	-114.949190
6.650000	-0.187022	-97.251572	-44.641251	48.962670	-44.641251	48.962670	-0.222972	-115.715066
6.700000	-0.189759	-97.894745	-44.484842	47.494025	-44.484842	47.494025	-0.226244	-116.479738
6.750000	-0.192522	-98.537125	-44.330455	46.026480	-44.330455	46.026480	-0.229545	-117.243808
6.800000	-0.195331	-99.178153	-44.177524	44.560920	-44.177524	44.560920	-0.232899	-118.006909
6.850000	-0.198172	-99.818214	-44.026368	43.096777	-44.026368	43.096777	-0.236291	-118.769318
6.900000	-0.201052	-100.457147	-43.876807	41.634389	-43.876807	41.634389	-0.239729	-119.530972
6.950000	-0.203973	-101.094951	-43.728802	40.173755	-43.728802	40.173755	-0.243212	-120.291871
7.000000	-0.206927	-101.731842	-43.582507	38.714628	-43.582507	38.714628	-0.246734	-121.052205
7.050000	-0.209928	-102.367455	-43.437576	37.257611	-43.437576	37.257611	-0.250310	-121.811748
7.100000	-0.212956	-103.002359	-43.294450	35.801837	-43.294450	35.801837	-0.253918	-122.570891
7.150000	-0.216039	-103.635846	-43.152518	34.348548	-43.152518	34.348548	-0.257588	-123.329235
7.200000	-0.219144	-104.268819	-43.012469	32.896219	-43.012469	32.896219	-0.261282	-124.087321
7.250000	-0.222310	-104.900250	-42.873466	31.446769	-42.873466	31.446769	-0.265048	-124.844630
7.300000	-0.225491	-105.531350	-42.736405	29.997979	-42.736405	29.997979	-0.268830	-125.601795
7.350000	-0.228743	-106.160796	-42.600262	28.552485	-42.600262	28.552485	-0.272692	-126.358236
7.400000	-0.232002	-106.790083	-42.466106	27.107331	-42.466106	27.107331	-0.276563	-127.114619
7.450000	-0.235340	-107.417618	-42.332757	25.665909	-42.332757	25.665909	-0.280523	-127.870364
7.500000	-0.238678	-108.045153	-42.201425	24.224487	-42.201425	24.224487	-0.284484	-128.626108
7.550000	-0.242103	-108.670852	-42.070808	22.787257	-42.070808	22.787257	-0.288542	-129.381333
7.600000	-0.245529	-109.296551	-41.942126	21.350026	-41.942126	21.350026	-0.292602	-130.136557
7.650000	-0.249035	-109.920639	-41.814276	19.916749	-41.814276	19.916749	-0.296752	-130.891470
7.700000	-0.252550	-110.544580	-41.688187	18.483831	-41.688187	18.483831	-0.300912	-131.646355
7.750000	-0.256139	-111.167123	-41.563028	17.054609	-41.563028	17.054609	-0.305155	-132.401112
7.800000	-0.259744	-111.789387	-41.439475	15.626125	-41.439475	15.626125	-0.309416	-133.155843
7.850000	-0.263416	-112.410454	-41.316935	14.201060	-41.316935	14.201060	-0.313753	-133.910602
7.900000	-0.267112	-113.031122	-41.195863	12.777135	-41.195863	12.777135	-0.318116	-134.665369
7.950000	-0.270868	-113.650782	-41.075871	11.356329	-41.075871	11.356329	-0.322548	-135.420292
8.000000	-0.274656	-114.269939	-40.957227	9.937084	-40.957227	9.937084	-0.327015	-136.175291
8.050000	-0.278499	-114.888266	-40.839716	8.520642	-40.839716	8.520642	-0.331542	-136.930543
8.100000	-0.282380	-115.505999	-40.723447	7.106200	-40.723447	7.106200	-0.336113	-137.685974
8.150000	-0.286308	-116.123064	-40.608352	5.694221	-40.608352	5.694221	-0.340737	-138.441725
8.200000	-0.290284	-116.739463	-40.494406	4.284705	-40.494406	4.284705	-0.345414	-139.197794
8.250000	-0.294299	-117.355343	-40.381663	2.877292	-40.381663	2.877292	-0.350136	-139.954217
8.300000	-0.298370	-117.970497	-40.269989	1.472821	-40.269989	1.472821	-0.354919	-140.711135
8.350000	-0.302473	-118.585269	-40.159537	0.070071	-40.159537	0.070071	-0.359739	-141.468408
8.400000	-0.306640	-119.199274	-40.050085	-1.329237	-40.050085	-1.329237	-0.364631	-142.226391
8.450000	-0.310833	-119.813016	-39.941863	-2.727226	-39.941863	-2.727226	-0.369551	-142.984695
8.500000	-0.315097	-120.425967	-39.834583	-4.121258	-39.834583	-4.121258	-0.374551	-143.743964
8.550000	-0.319379	-121.038760	-39.728533	-5.514392	-39.728533	-5.514392	-0.379571	-144.503486
8.600000	-0.323741	-121.650757	-39.623376	-6.903038	-39.623376	-6.903038	-0.384681	-145.264269
8.650000	-0.328113	-122.262683	-39.519441	-8.291226	-39.519441	-8.291226	-0.389803	-146.025198
8.700000	-0.332573	-122.873827	-39.416358	-9.674381	-39.416358	-9.674381	-0.395025	-146.787729
8.750000	-0.337036	-123.484971	-39.314483	-11.057536	-39.314483	-11.057536	-0.400250	-147.550260
8.800000	-0.341596	-124.095365	-39.213425	-12.435101	-39.213425	-12.435101	-0.405584	-148.314778
8.850000	-0.346159	-124.705759	-39.113529	-13.812665	-39.113529	-13.812665	-0.410921	-149.079296
8.900000	-0.350811	-125.315564	-39.014474	-15.185022	-39.014474	-15.185022	-0.416360	-149.845861
8.950000	-0.355474	-125.925316	-38.916510	-16.556904	-38.916510	-16.556904	-0.421811	-150.612611
9.000000	-0.360219	-126.534622	-38.819405	-17.923981	-38.819405	-17.923981	-0.427355	-151.381433
9.050000	-0.364982	-127.143840	-38.723327	-19.290097	-38.723327	-19.290097	-0.432921	-152.150668
9.100000	-0.369820	-127.752741	-38.628118	-20.651829	-38.628118	-20.651829	-0.438573	-152.921961
9.150000	-0.374685	-128.361537	-38.533881	-22.012100	-38.533881	-22.012100	-0.444255	-153.693939
9.200000	-0.379617	-128.970129	-38.440515	-23.368429	-38.440515	-23.368429	-0.450015	-154.467924
9.250000	-0.384583	-129.578618	-38.348073	-24.722788	-38.348073	-24.722788	-0.455815	-155.242911
9.300000	-0.389609	-130.186998	-38.256500	-26.073663	-38.256500	-26.073663	-0.461684	-156.019813
9.350000	-0.394677	-130.795298	-38.165808	-27.422049	-38.165808	-27.422049	-0.467603	-156.798081
9.400000	-0.399797	-131.403565	-38.075977	-28.767426	-38.075977	-28.767426	-0.473582	-157.578130
9.450000	-0.404968	-132.011798	-37.986991	-30.109791	-37.986991	-30.109791	-0.479621	-158.359959
9.500000	-0.410183	-132.620055	-37.898854	-31.449632	-37.898854	-31.449632	-0.485712	-159.143392
9.550000	-0.415457	-133.228344	-37.811529	-32.785938	-37.811529	-32.785938	-0.491874	-159.929068
9.600000	-0.420766	-133.836696	-37.725038	-34.120215	-37.725038	-34.120215	-0.498078	-160.716126
9.650000	-0.426142	-134.445169	-37.639330	-35.450433	-37.639330	-35.450433	-0.504362	-161.505944
9.700000	-0.431547	-135.053722	-37.554439	-36.779126	-37.554439	-36.779126	-0.510681	-162.296874
9.750000	-0.437026	-135.662511	-37.470306	-38.103239	-37.470306	-38.103239	-0.517090	-163.091136
9.800000	-0.442525	-136.271376	-37.386968	-39.426335	-37.386968	-39.426335	-0.523524	-163.886191
9.850000	-0.448108	-136.880615	-37.304368	-40.744338	-37.304368	-40.744338	-0.530060	-164.685207
9.900000	-0.453702	-137.489903	-37.222541	-42.061833	-37.222541	-42.061833	-0.536610	-165.484646
9.950000	-0.459387	-138.099730	-37.141430	-43.373733	-37.141430	-43.373733	-0.543274	-166.288735
10.000000	-0.465076	-138.709558	-37.061071	-44.685632	-37.061071	-44.685632	-0.549943	-167.092823
