! freq	dB(S11)	phase(S11)	dB(S12)	phase(S12)	
!     	dB(S21)	phase(S21)	dB(S22)	phase(S22)	
!S-par simulation data
#  GHz  S  DB  R 50
0.000000	-83.061682	0.000000	-0.000611	0.000000	-0.000611	0.000000	-83.061682	0.000000
0.050000	-35.532601	-93.137863	-0.006299	-3.329339	-0.006299	-3.329339	-35.551641	-92.875308
0.100000	-29.555134	-96.811628	-0.016688	-6.617134	-0.016688	-6.617134	-29.556622	-96.142948
0.150000	-26.073450	-100.437852	-0.027955	-9.886231	-0.027955	-9.886231	-26.068833	-99.353944
0.200000	-23.613181	-104.016060	-0.040590	-13.148786	-0.040590	-13.148786	-23.607346	-102.549139
0.250000	-21.714498	-107.551744	-0.055156	-16.406632	-0.055156	-16.406632	-21.708729	-105.724305
0.300000	-20.172438	-111.056011	-0.071842	-19.659490	-0.071842	-19.659490	-20.166856	-108.875913
0.350000	-18.877098	-114.538975	-0.090568	-22.907135	-0.090568	-22.907135	-18.871583	-112.005215
0.400000	-17.763458	-118.006582	-0.111277	-26.149273	-0.111277	-26.149273	-17.757895	-115.114184
0.450000	-16.790204	-121.462363	-0.133963	-29.385474	-0.133963	-29.385474	-16.784519	-118.204470
0.500000	-15.927931	-124.909398	-0.158436	-32.615918	-0.158436	-32.615918	-15.922099	-121.279081
0.550000	-15.156221	-128.349188	-0.184600	-35.840527	-0.184600	-35.840527	-15.150238	-124.339503
0.600000	-14.460593	-131.782498	-0.212427	-39.058965	-0.212427	-39.058965	-14.454468	-127.386187
0.650000	-13.829019	-135.210373	-0.241754	-42.271426	-0.241754	-42.271426	-13.822762	-130.420328
0.700000	-13.252379	-138.633549	-0.272461	-45.477996	-0.272461	-45.477996	-13.245994	-133.442479
0.750000	-12.723896	-142.052588	-0.304473	-48.678574	-0.304473	-48.678574	-12.717379	-136.452540
0.800000	-12.237696	-145.468268	-0.337667	-51.873331	-0.337667	-51.873331	-12.231034	-139.450716
0.850000	-11.788476	-148.881507	-0.371890	-55.062718	-0.371890	-55.062718	-11.781649	-142.437602
0.900000	-11.372931	-152.293087	-0.407076	-58.246721	-0.407076	-58.246721	-11.365910	-145.412614
0.950000	-10.987315	-155.704087	-0.443084	-61.425892	-0.443084	-61.425892	-10.980067	-148.376199
1.000000	-10.628767	-159.115620	-0.479802	-64.600697	-0.479802	-64.600697	-10.621256	-151.328447
1.050000	-10.294712	-162.528888	-0.517117	-67.771729	-0.517117	-67.771729	-10.286896	-154.269602
1.100000	-9.982814	-165.945136	-0.554922	-70.939686	-0.554922	-70.939686	-9.974654	-157.200044
1.150000	-9.691509	-169.365926	-0.593124	-74.105225	-0.593124	-74.105225	-9.682959	-160.119657
1.200000	-9.418929	-172.792750	-0.631625	-77.269243	-0.631625	-77.269243	-9.409940	-163.028931
1.250000	-9.163358	-176.227075	-0.670337	-80.432680	-0.670337	-80.432680	-9.153880	-165.928438
1.300000	-8.923610	-179.670791	-0.709184	-83.596535	-0.709184	-83.596535	-8.913585	-168.818390
1.350000	-8.698587	176.873990	-0.748091	-86.761966	-0.748091	-86.761966	-8.687950	-171.699081
1.400000	-8.486851	173.405713	-0.787005	-89.930093	-0.787005	-89.930093	-8.475534	-174.571332
1.450000	-8.287412	169.922289	-0.825875	-93.102153	-0.825875	-93.102153	-8.275336	-177.435610
1.500000	-8.099681	166.420520	-0.864649	-96.279798	-0.864649	-96.279798	-8.086751	179.707924
1.550000	-7.922389	162.898928	-0.903313	-99.464197	-0.903313	-99.464197	-7.908504	176.858294
1.600000	-7.754730	159.355036	-0.941853	-102.656828	-0.941853	-102.656828	-7.739779	174.014941
1.650000	-7.596193	155.784970	-0.980250	-105.859767	-0.980250	-105.859767	-7.580041	171.177515
1.700000	-7.445790	152.186940	-1.018529	-109.074290	-1.018529	-109.074290	-7.428297	168.345152
1.750000	-7.303184	148.555299	-1.056697	-112.303337	-1.056697	-112.303337	-7.284174	165.517527
1.800000	-7.167093	144.891134	-1.094825	-115.546888	-1.094825	-115.546888	-7.146403	162.693473
1.850000	-7.037387	141.186566	-1.132945	-118.808945	-1.132945	-118.808945	-7.014806	159.872743
1.900000	-6.913201	137.440015	-1.171142	-122.090661	-1.171142	-122.090661	-6.888511	157.054484
1.950000	-6.793917	133.647276	-1.209508	-125.394410	-1.209508	-125.394410	-6.766875	154.237990
2.000000	-6.679087	129.800927	-1.248166	-128.724130	-1.248166	-128.724130	-6.649408	151.422601
2.050000	-6.567812	125.902379	-1.287232	-132.079470	-1.287232	-132.079470	-6.535221	148.607474
2.100000	-6.459795	121.935917	-1.326937	-135.468523	-1.326937	-135.468523	-6.423919	145.791727
2.150000	-6.354118	117.908170	-1.367385	-138.888297	-1.367385	-138.888297	-6.314628	142.974641
2.200000	-6.250268	113.800597	-1.408940	-142.348431	-1.408940	-142.348431	-6.206715	140.154875
2.250000	-6.147529	109.616735	-1.451752	-145.847433	-1.451752	-145.847433	-6.099493	137.331705
2.300000	-6.045163	105.342719	-1.496245	-149.392698	-1.496245	-149.392698	-5.992128	134.503538
2.350000	-5.942445	100.972234	-1.542776	-152.987800	-1.542776	-152.987800	-5.883859	131.669001
2.400000	-5.838668	96.500409	-1.591721	-156.635615	-1.591721	-156.635615	-5.773950	128.826651
2.450000	-5.732717	91.906919	-1.643865	-160.347158	-1.643865	-160.347158	-5.661147	125.973516
2.500000	-5.624300	87.200025	-1.699361	-164.118533	-1.699361	-164.118533	-5.545231	123.108949
2.550000	-5.511765	82.347908	-1.759524	-167.967126	-1.759524	-167.967126	-5.424332	120.227842
2.600000	-5.394374	77.346360	-1.825050	-171.895925	-1.825050	-171.895925	-5.297703	117.327355
2.650000	-5.271042	72.181557	-1.897040	-175.913226	-1.897040	-175.913226	-5.164188	114.402983
2.700000	-5.140615	66.838378	-1.976829	179.971689	-1.976829	179.971689	-5.022564	111.449202
2.750000	-5.001880	61.300304	-2.066042	175.748418	-2.066042	175.748418	-4.871552	108.459237
2.800000	-4.853572	55.549317	-2.166667	171.405300	-2.166667	171.405300	-4.709831	105.424793
2.850000	-4.694397	49.565828	-2.281155	166.929267	-2.281155	166.929267	-4.536066	102.335744
2.900000	-4.523066	43.328618	-2.412542	162.305716	-2.412542	162.305716	-4.348947	99.179787
2.950000	-4.338168	36.811921	-2.564839	157.516642	-2.564839	157.516642	-4.147052	95.941104
3.000000	-4.138662	29.992138	-2.742824	152.544519	-2.742824	152.544519	-3.929390	92.601884
3.050000	-3.923792	22.844786	-2.952488	147.370580	-2.952488	147.370580	-3.695309	89.141364
3.100000	-3.693126	15.343095	-3.201571	141.974034	-3.201571	141.974034	-3.444524	85.534944
3.150000	-3.446829	7.460013	-3.499994	136.333562	-3.499994	136.333562	-3.177412	81.754632
3.200000	-3.185900	-0.830728	-3.860557	130.428610	-3.860557	130.428610	-2.895257	77.769469
3.250000	-2.912457	-9.552989	-4.299888	124.241598	-4.299888	124.241598	-2.600530	73.546564
3.300000	-2.630044	-18.724761	-4.839560	117.762236	-4.839560	117.762236	-2.297204	69.053688
3.350000	-2.343687	-28.364746	-5.510037	110.987267	-5.510037	110.987267	-1.990783	64.255511
3.400000	-2.060658	-38.463077	-6.348702	103.945597	-6.348702	103.945597	-1.689077	59.134509
3.450000	-1.789604	-49.003613	-7.409935	96.696458	-7.409935	96.696458	-1.401271	53.678281
3.500000	-1.540672	-59.948859	-8.773077	89.366735	-8.773077	89.366735	-1.138053	47.890968
3.550000	-1.323946	-71.227447	-10.558141	82.211946	-10.558141	82.211946	-0.909957	41.805867
3.600000	-1.148695	-82.748726	-12.978169	75.783580	-12.978169	75.783580	-0.726633	35.474758
3.650000	-1.022434	-94.399841	-16.473679	71.663909	-16.473679	71.663909	-0.595912	28.969801
3.700000	-0.947735	-106.051924	-22.163626	76.743903	-22.163626	76.743903	-0.520448	22.381413
3.750000	-0.923657	-117.579304	-28.688504	139.939441	-28.688504	139.939441	-0.499300	15.799026
3.800000	-0.946090	-128.862374	-21.292485	-173.721636	-21.292485	-173.721636	-0.528290	9.306423
3.850000	-1.006374	-139.811911	-16.522106	-171.184843	-16.522106	-171.184843	-0.598459	2.966843
3.900000	-1.095219	-150.361783	-13.622316	-175.243914	-13.622316	-175.243914	-0.700205	-3.177070
3.950000	-1.203026	-160.471232	-11.651985	179.003002	-11.651985	179.003002	-0.823563	-9.103348
4.000000	-1.320772	-170.123167	-10.229778	172.737351	-10.229778	172.737351	-0.959112	-14.808442
4.050000	-1.440713	-179.319531	-9.166964	166.366292	-9.166964	166.366292	-1.098690	-20.302825
4.100000	-1.556939	171.913549	-8.352883	160.051063	-8.352883	160.051063	-1.235978	-25.610322
4.150000	-1.664982	163.556776	-7.722725	153.859591	-7.722725	153.859591	-1.366155	-30.752427
4.200000	-1.761604	155.584074	-7.232807	147.818585	-7.232807	147.818585	-1.485652	-35.753580
4.250000	-1.844896	147.961544	-6.851501	141.931077	-6.851501	141.931077	-1.592266	-40.639933
4.300000	-1.913886	140.655824	-6.556345	136.189562	-6.556345	136.189562	-1.684776	-45.435326
4.350000	-1.968207	133.636458	-6.331286	130.582513	-6.331286	130.582513	-1.762606	-50.160545
4.400000	-2.007983	126.874708	-6.164403	125.096528	-6.164403	125.096528	-1.825705	-54.833806
4.450000	-2.033680	120.343905	-6.046743	119.717886	-6.046743	119.717886	-1.874398	-59.470790
4.500000	-2.046007	114.019577	-5.971543	114.433397	-5.971543	114.433397	-1.909278	-64.084817
4.550000	-2.045824	107.879463	-5.933675	109.230824	-5.933675	109.230824	-1.931116	-68.687082
4.600000	-2.034044	101.904137	-5.929417	104.099377	-5.929417	104.099377	-1.940748	-73.286933
4.650000	-2.011652	96.075866	-5.955973	99.029306	-5.955973	99.029306	-1.939103	-77.892218
4.700000	-1.979802	90.376927	-6.010916	94.011323	-6.010916	94.011323	-1.927299	-82.509194
4.750000	-1.939541	84.792914	-6.092761	89.037985	-6.092761	89.037985	-1.906353	-87.142903
4.800000	-1.891908	79.311017	-6.200527	84.102952	-6.200527	84.102952	-1.877281	-91.797361
4.850000	-1.837921	73.919887	-6.333662	79.200931	-6.333662	79.200931	-1.841086	-96.475697
4.900000	-1.778508	68.610522	-6.492293	74.327965	-6.492293	74.327965	-1.798675	-101.180684
4.950000	-1.714622	63.374528	-6.676754	69.480837	-6.676754	69.480837	-1.750990	-105.914321
5.000000	-1.647627	58.196992	-6.885025	64.654499	-6.885025	64.654499	-1.699457	-110.674300
5.050000	-1.577699	53.084014	-7.122287	59.852038	-7.122287	59.852038	-1.644124	-115.467405
5.100000	-1.506294	48.018038	-7.385167	55.068260	-7.385167	55.068260	-1.586570	-120.287425
5.150000	-1.433918	43.001999	-7.678053	50.306587	-7.678053	50.306587	-1.527207	-125.138527
5.200000	-1.361458	38.027436	-8.000658	45.566057	-8.000658	45.566057	-1.466976	-130.017146
5.250000	-1.289621	33.092597	-8.355625	40.849625	-8.355625	40.849625	-1.406560	-134.923220
5.300000	-1.219095	28.195477	-8.745658	36.160924	-8.745658	36.160924	-1.346631	-139.855779
5.350000	-1.150425	23.331151	-9.172066	31.501963	-9.172066	31.501963	-1.287780	-144.811130
5.400000	-1.084424	18.502503	-9.640578	26.883256	-9.640578	26.883256	-1.230723	-149.790285
5.450000	-1.021224	13.702667	-10.152143	22.305088	-10.152143	22.305088	-1.175707	-154.787322
5.500000	-0.961846	8.936835	-10.714747	17.787020	-10.714747	17.787020	-1.123608	-159.803215
5.550000	-0.906140	4.199131	-11.331537	13.331397	-11.331537	13.331397	-1.074399	-164.832445
5.600000	-0.854744	-0.508226	-12.011084	8.959962	-12.011084	8.959962	-1.028651	-169.873413
5.650000	-0.808012	-5.185034	-12.762729	4.696572	-12.762729	4.696572	-0.986701	-174.923163
5.700000	-0.766115	-9.831812	-13.598033	0.570888	-13.598033	0.570888	-0.948733	-179.978399
5.750000	-0.729247	-14.448409	-14.532535	-3.372513	-14.532535	-3.372513	-0.914934	174.963980
5.800000	-0.697551	-19.034637	-15.587121	-7.067343	-15.587121	-7.067343	-0.885445	169.907087
5.850000	-0.671145	-23.590166	-16.790649	-10.407701	-16.790649	-10.407701	-0.860380	164.854040
5.900000	-0.650106	-28.114716	-18.184092	-13.214134	-18.184092	-13.214134	-0.839809	159.807960
5.950000	-0.634388	-32.608546	-19.827817	-15.175308	-19.827817	-15.175308	-0.823700	154.771740
6.000000	-0.624088	-37.071006	-21.810934	-15.614153	-21.810934	-15.614153	-0.812133	149.748548
6.050000	-0.618912	-41.503678	-24.262111	-13.121129	-24.262111	-13.121129	-0.804860	144.740499
6.100000	-0.618899	-45.906228	-27.286351	-4.177651	-27.286351	-4.177651	-0.801910	139.750325
6.150000	-0.623742	-50.280408	-30.347721	18.351529	-30.347721	18.351529	-0.803022	134.779565
6.200000	-0.633790	-54.624250	-30.375859	54.100534	-30.375859	54.100534	-0.808486	129.832330
6.250000	-0.648163	-58.943095	-27.637713	78.949995	-27.637713	78.949995	-0.817561	124.906837
6.300000	-0.667465	-63.233861	-24.650452	87.997029	-24.650452	87.997029	-0.830758	120.008499
6.350000	-0.691226	-67.499913	-22.260897	90.646986	-22.260897	90.646986	-0.847690	115.136933
6.400000	-0.719305	-71.742981	-20.349399	90.429007	-20.349399	90.429007	-0.868251	110.293059
6.450000	-0.751566	-75.965023	-18.780186	88.755110	-18.780186	88.755110	-0.892349	105.477456
6.500000	-0.787890	-80.168220	-17.459479	86.259986	-17.459479	86.259986	-0.919913	100.690330
6.550000	-0.828337	-84.354360	-16.325336	83.248671	-16.325336	83.248671	-0.951044	95.932691
6.600000	-0.872386	-88.527802	-15.333404	79.938361	-15.333404	79.938361	-0.985337	91.200525
6.650000	-0.920576	-92.689365	-14.455515	76.385772	-14.455515	76.385772	-1.023354	86.496996
6.700000	-0.972344	-96.843648	-13.667716	72.687067	-13.667716	72.687067	-1.064664	81.816358
6.750000	-1.028097	-100.993000	-12.954529	68.865439	-12.954529	68.865439	-1.109760	77.158852
6.800000	-1.087829	-105.141099	-12.302711	64.951790	-12.302711	64.951790	-1.158771	72.520671
6.850000	-1.151705	-109.291583	-11.701989	60.962836	-11.701989	60.962836	-1.212019	67.897867
6.900000	-1.220019	-113.448400	-11.144017	56.907955	-11.144017	56.907955	-1.269993	63.285512
6.950000	-1.293136	-117.615723	-10.621749	52.792196	-10.621749	52.792196	-1.333301	58.677144
7.000000	-1.371505	-121.797713	-10.129187	48.617003	-10.129187	48.617003	-1.402683	54.064823
7.050000	-1.455785	-125.998767	-9.661135	44.379585	-9.661135	44.379585	-1.479175	49.438829
7.100000	-1.546851	-130.223420	-9.212951	40.073722	-9.212951	40.073722	-1.564143	44.787063
7.150000	-1.645864	-134.476276	-8.780391	35.689570	-8.780391	35.689570	-1.659396	40.094385
7.200000	-1.754368	-138.761877	-8.359483	31.213148	-8.359483	31.213148	-1.767358	35.341732
7.250000	-1.874425	-143.084447	-7.946431	26.625467	-7.946431	26.625467	-1.891308	30.504880
7.300000	-2.008811	-147.447424	-7.537544	21.901197	-7.537544	21.901197	-2.035764	25.552727
7.350000	-2.161307	-151.852556	-7.129201	17.006679	-7.129201	17.006679	-2.207065	20.444858
7.400000	-2.336821	-156.297855	-6.718179	11.900158	-6.718179	11.900158	-2.413822	15.131228
7.450000	-2.543309	-160.775935	-6.300482	6.514013	-6.300482	6.514013	-2.670588	9.533248
7.500000	-2.790700	-165.264314	-5.873808	0.769601	-5.873808	0.769601	-2.997385	3.557268
7.550000	-3.094276	-169.712708	-5.436502	-5.453633	-5.436502	-5.453633	-3.428345	-2.939762
7.600000	-3.473644	-174.016208	-4.991021	-12.305753	-4.991021	-12.305753	-4.016875	-10.141256
7.650000	-3.954892	-177.957233	-4.545904	-20.000461	-4.545904	-20.000461	-4.858585	-18.318318
7.700000	-4.565216	178.932648	-4.123520	-28.844917	-4.123520	-28.844917	-6.142527	-27.897377
7.750000	-5.295464	177.515891	-3.772117	-39.173274	-3.772117	-39.173274	-8.258298	-39.493335
7.800000	-5.996743	179.156813	-3.587017	-51.353850	-3.587017	-51.353850	-12.291639	-54.585711
7.850000	-6.215084	-175.736891	-3.725740	-65.484378	-3.725740	-65.484378	-24.067805	-89.237996
7.900000	-5.511390	-170.736044	-4.386776	-81.007061	-4.386776	-81.007061	-15.941912	109.749517
7.950000	-4.245448	-170.574583	-5.725293	-96.493319	-5.725293	-96.493319	-8.651396	87.201344
8.000000	-3.096140	-175.143574	-7.758070	-110.114427	-7.758070	-110.114427	-5.287121	69.929899
8.050000	-2.308237	178.046526	-10.404721	-120.379791	-10.404721	-120.379791	-3.479683	55.548146
8.100000	-1.832087	170.710881	-13.598620	-125.978647	-13.598620	-125.978647	-2.466121	43.699016
8.150000	-1.559947	163.556571	-17.314637	-124.599152	-17.314637	-124.599152	-1.879667	33.915205
8.200000	-1.411011	156.775243	-21.134600	-110.581252	-21.134600	-110.581252	-1.532972	25.741623
8.250000	-1.332082	150.353125	-23.057057	-81.843607	-23.057057	-81.843607	-1.321046	18.752392
8.300000	-1.294452	144.239979	-21.753548	-57.465818	-21.753548	-57.465818	-1.190737	12.672601
8.350000	-1.280919	138.382261	-19.683939	-47.166709	-19.683939	-47.166709	-1.111330	7.304433
8.400000	-1.280058	132.715893	-17.987601	-43.892434	-17.987601	-43.892434	-1.061966	2.455738
8.450000	-1.286240	127.207437	-16.690810	-43.913628	-16.690810	-43.913628	-1.032585	-1.970434
8.500000	-1.295690	121.827562	-15.694802	-45.494129	-15.694802	-45.494129	-1.016189	-6.057620
8.550000	-1.306077	116.554837	-14.915742	-47.874202	-14.915742	-47.874202	-1.008295	-9.868408
8.600000	-1.315955	111.373883	-14.295511	-50.689296	-14.295511	-50.689296	-1.005967	-13.450432
8.650000	-1.324438	106.273874	-13.794561	-53.749330	-13.794561	-53.749330	-1.007247	-16.840519
8.700000	-1.330994	101.247396	-13.385520	-56.948301	-13.385520	-56.948301	-1.010810	-20.067578
8.750000	-1.335333	96.289575	-13.048969	-60.223788	-13.048969	-60.223788	-1.015750	-23.154636
8.800000	-1.337271	91.398807	-12.771645	-63.537603	-12.771645	-63.537603	-1.021454	-26.117997
8.850000	-1.336842	86.572068	-12.541900	-66.864190	-12.541900	-66.864190	-1.027476	-28.975708
8.900000	-1.334107	81.808798	-12.351790	-70.187623	-12.351790	-70.187623	-1.033539	-31.740203
8.950000	-1.329180	77.109119	-12.195131	-73.496994	-12.195131	-73.496994	-1.039460	-34.421894
9.000000	-1.322215	72.473619	-12.067024	-76.784637	-12.067024	-76.784637	-1.045124	-37.029580
9.050000	-1.313389	67.903177	-11.963517	-80.045039	-11.963517	-80.045039	-1.050471	-39.570765
9.100000	-1.302898	63.398828	-11.881374	-83.274154	-11.881374	-83.274154	-1.055477	-42.051892
9.150000	-1.290947	58.961665	-11.817902	-86.468960	-11.817902	-86.468960	-1.060146	-44.478529
9.200000	-1.277766	54.591500	-11.770577	-89.627871	-11.770577	-89.627871	-1.064507	-46.856329
9.250000	-1.263476	50.295642	-11.738671	-92.745598	-11.738671	-92.745598	-1.068577	-49.185607
9.300000	-1.248420	46.064841	-11.718588	-95.826500	-11.718588	-95.826500	-1.072442	-51.476302
9.350000	-1.232703	41.907974	-11.710271	-98.864931	-11.710271	-98.864931	-1.076133	-53.726999
9.400000	-1.216549	37.821481	-11.711797	-101.862516	-11.711797	-101.862516	-1.079721	-55.942759
9.450000	-1.200133	33.805748	-11.722010	-104.818714	-11.722010	-104.818714	-1.083266	-58.126158
9.500000	-1.183607	29.865167	-11.740340	-107.730714	-11.740340	-107.730714	-1.086831	-60.277682
9.550000	-1.167125	25.991449	-11.765004	-110.603220	-11.765004	-110.603220	-1.090470	-62.402801
9.600000	-1.150839	22.197035	-11.796210	-113.428736	-11.796210	-113.428736	-1.094262	-64.498643
9.650000	-1.134829	18.467819	-11.832088	-116.215527	-11.832088	-116.215527	-1.098231	-66.571907
9.700000	-1.119257	14.815932	-11.872700	-118.956314	-11.872700	-118.956314	-1.102468	-68.619936
9.750000	-1.104156	11.231320	-11.916819	-121.657048	-11.916819	-121.657048	-1.106984	-70.647226
9.800000	-1.089644	7.718988	-11.964044	-124.314750	-11.964044	-124.314750	-1.111847	-72.653421
9.850000	-1.075779	4.277063	-12.013712	-126.930579	-12.013712	-126.930579	-1.117091	-74.640117
9.900000	-1.062596	0.902323	-12.065172	-129.506534	-12.065172	-129.506534	-1.122735	-76.609162
9.950000	-1.050222	-2.399069	-12.117989	-132.039099	-12.117989	-132.039099	-1.128853	-78.559905
10.000000	-1.038592	-5.638238	-12.171533	-134.535015	-12.171533	-134.535015	-1.135401	-80.495909
