! freq	dB(S11)	phase(S11)	dB(S12)	phase(S12)	
!     	dB(S21)	phase(S21)	dB(S22)	phase(S22)	
!S-par simulation data
#  GHz  S  DB  R 50
0.000000	-85.322898	0.000000	-0.000471	0.000000	-0.000471	0.000000	-85.322898	0.000000
0.050000	-36.533345	-92.859668	-0.003806	-2.856252	-0.003806	-2.856252	-36.531388	-92.548590
0.100000	-30.521585	-96.030553	-0.012168	-5.694695	-0.012168	-5.694695	-30.519351	-95.409091
0.150000	-27.014243	-99.124906	-0.022965	-8.514533	-0.022965	-8.514533	-27.011614	-98.194468
0.200000	-24.534919	-102.192845	-0.034921	-11.323145	-0.034921	-11.323145	-24.531868	-100.955180
0.250000	-22.621298	-105.242034	-0.047845	-14.125853	-0.047845	-14.125853	-22.617875	-103.699076
0.300000	-21.067159	-108.274114	-0.061887	-16.925246	-0.061887	-16.925246	-21.063493	-106.427706
0.350000	-19.761712	-111.289995	-0.077176	-19.722095	-0.077176	-19.722095	-19.757976	-109.141629
0.400000	-18.639093	-114.289711	-0.093839	-22.516212	-0.093839	-22.516212	-18.635472	-111.840528
0.450000	-17.657198	-117.272842	-0.112012	-25.306964	-0.112012	-25.306964	-17.653857	-114.523690
0.500000	-16.786124	-120.240760	-0.131651	-28.093974	-0.131651	-28.093974	-16.783162	-117.192271
0.550000	-16.005001	-123.194208	-0.152754	-30.876749	-0.152754	-30.876749	-16.002446	-119.847050
0.600000	-15.298881	-126.133484	-0.175361	-33.654616	-0.175361	-33.654616	-15.296690	-122.488635
0.650000	-14.655586	-129.060141	-0.199378	-36.427362	-0.199378	-36.427362	-14.653660	-125.119016
0.700000	-14.065881	-131.975350	-0.224740	-39.194742	-0.224740	-39.194742	-14.064088	-127.739924
0.750000	-13.522817	-134.879824	-0.251421	-41.956349	-0.251421	-41.956349	-13.521019	-130.352773
0.800000	-13.020517	-137.774607	-0.279347	-44.712019	-0.279347	-44.712019	-13.018598	-132.959211
0.850000	-12.554101	-140.660713	-0.308427	-47.461716	-0.308427	-47.461716	-12.551988	-135.560718
0.900000	-12.119613	-143.538928	-0.338582	-50.205402	-0.338582	-50.205402	-12.117281	-138.158442
0.950000	-11.713797	-146.409860	-0.369738	-52.943059	-0.369738	-52.943059	-11.711273	-140.753258
1.000000	-11.333870	-149.274032	-0.401815	-55.674744	-0.401815	-55.674744	-11.331227	-143.345840
1.050000	-10.977461	-152.131848	-0.434735	-58.400565	-0.434735	-58.400565	-10.974802	-145.936672
1.100000	-10.642523	-154.983604	-0.468418	-61.120679	-0.468418	-61.120679	-10.639971	-148.526101
1.150000	-10.327277	-157.829502	-0.502788	-63.835291	-0.502788	-63.835291	-10.324963	-151.114379
1.200000	-10.030163	-160.669663	-0.537771	-66.544649	-0.537771	-66.544649	-10.028208	-153.701711
1.250000	-9.749800	-163.504141	-0.573295	-69.249043	-0.573295	-69.249043	-9.748310	-156.288291
1.300000	-9.485102	-166.332815	-0.609296	-71.948713	-0.609296	-71.948713	-9.484162	-158.874326
1.350000	-9.234807	-169.155776	-0.645701	-74.644136	-0.645701	-74.644136	-9.234469	-161.460088
1.400000	-8.997910	-171.972971	-0.682450	-77.335719	-0.682450	-77.335719	-8.998197	-164.045891
1.450000	-8.773496	-174.784337	-0.719484	-80.023898	-0.719484	-80.023898	-8.774405	-166.632109
1.500000	-8.560724	-177.589818	-0.756752	-82.709144	-0.756752	-82.709144	-8.562227	-169.219188
1.550000	-8.358819	179.610629	-0.794205	-85.391953	-0.794205	-85.391953	-8.360866	-171.807642
1.600000	-8.167062	176.817026	-0.831801	-88.072850	-0.831801	-88.072850	-8.169589	-174.398055
1.650000	-7.984780	174.029362	-0.869501	-90.752384	-0.869501	-90.752384	-7.987716	-176.991077
1.700000	-7.811834	171.248163	-0.907260	-93.431098	-0.907260	-93.431098	-7.815096	-179.587809
1.750000	-7.646686	168.472250	-0.945069	-96.109709	-0.945069	-96.109709	-7.650204	177.811618
1.800000	-7.489236	165.702007	-0.982898	-98.788753	-0.982898	-98.788753	-7.492944	175.206101
1.850000	-7.338959	162.937256	-1.020729	-101.468861	-1.020729	-101.468861	-7.342801	172.594760
1.900000	-7.194847	160.177122	-1.058573	-104.150372	-1.058573	-104.150372	-7.198784	169.977679
1.950000	-7.057529	157.422735	-1.096374	-106.834518	-1.096374	-106.834518	-7.061533	167.351917
2.000000	-6.925967	154.673029	-1.134156	-109.521742	-1.134156	-109.521742	-6.930035	164.717413
2.050000	-6.799737	151.927645	-1.171923	-112.212743	-1.171923	-112.212743	-6.803885	162.073126
2.100000	-6.678687	149.186474	-1.209671	-114.908697	-1.209671	-114.908697	-6.682958	159.416921
2.150000	-6.561881	146.448409	-1.247446	-117.609401	-1.247446	-117.609401	-6.566330	156.749852
2.200000	-6.449263	143.713351	-1.285253	-120.316042	-1.285253	-120.316042	-6.453965	154.069713
2.250000	-6.340484	140.980790	-1.323118	-123.029374	-1.323118	-123.029374	-6.345533	151.375349
2.300000	-6.235132	138.250135	-1.361076	-125.749790	-1.361076	-125.749790	-6.240631	148.666329
2.350000	-6.133081	135.520956	-1.399161	-128.478877	-1.399161	-128.478877	-6.139157	145.939832
2.400000	-6.033915	132.792565	-1.437424	-131.217008	-1.437424	-131.217008	-6.040698	143.195507
2.450000	-5.937345	130.064350	-1.475916	-133.964990	-1.475916	-133.964990	-5.944970	140.432130
2.500000	-5.843094	127.335681	-1.514697	-136.723642	-1.514697	-136.723642	-5.851699	137.648466
2.550000	-5.750917	124.605874	-1.553838	-139.494068	-1.553838	-139.494068	-5.760642	134.842774
2.600000	-5.660531	121.874275	-1.593412	-142.276889	-1.593412	-142.276889	-5.671507	132.014243
2.650000	-5.571692	119.140209	-1.633499	-145.072968	-1.633499	-145.072968	-5.584043	129.161618
2.700000	-5.484163	116.402984	-1.674191	-147.883190	-1.674191	-147.883190	-5.498004	126.283643
2.750000	-5.397717	113.661897	-1.715587	-150.708451	-1.715587	-150.708451	-5.413148	123.379063
2.800000	-5.312132	110.916223	-1.757794	-153.549667	-1.757794	-153.549667	-5.329239	120.446628
2.850000	-5.227194	108.165222	-1.800931	-156.407773	-1.800931	-156.407773	-5.246046	117.485095
2.900000	-5.142691	105.408127	-1.845126	-159.283721	-1.845126	-159.283721	-5.163343	114.493230
2.950000	-5.058346	102.643402	-1.890626	-162.180407	-1.890626	-162.180407	-5.080838	111.466627
3.000000	-4.974075	99.871522	-1.937397	-165.095302	-1.937397	-165.095302	-4.998420	108.409971
3.050000	-4.889634	97.091031	-1.985688	-168.031040	-1.985688	-168.031040	-4.915833	105.319356
3.100000	-4.804829	94.301008	-2.035677	-170.988656	-2.035677	-170.988656	-4.832870	102.193627
3.150000	-4.719471	91.500472	-2.087559	-173.969204	-2.087559	-173.969204	-4.749330	99.031654
3.200000	-4.633375	88.688377	-2.141544	-176.973762	-2.141544	-176.973762	-4.665015	95.832340
3.250000	-4.546361	85.863599	-2.197861	179.996571	-2.197861	179.996571	-4.579738	92.594623
3.300000	-4.458254	83.024929	-2.256759	176.940674	-2.256759	176.940674	-4.493318	89.317479
3.350000	-4.369024	80.172043	-2.318346	173.859077	-2.318346	173.859077	-4.405723	86.002338
3.400000	-4.278331	77.302275	-2.383115	170.748352	-2.383115	170.748352	-4.316607	82.644928
3.450000	-4.185849	74.412842	-2.451589	167.605435	-2.451589	167.605435	-4.225648	79.241793
3.500000	-4.091794	71.504634	-2.523701	164.433205	-2.523701	164.433205	-4.133065	75.797858
3.550000	-3.995824	68.574280	-2.600083	161.228010	-2.600083	161.228010	-4.038517	72.308995
3.600000	-3.897887	65.620295	-2.681076	157.989245	-2.681076	157.989245	-3.941958	68.775338
3.650000	-3.798013	62.641591	-2.766963	154.716981	-2.766963	154.716981	-3.843419	65.197971
3.700000	-3.695820	59.633386	-2.858664	151.406538	-2.858664	151.406538	-3.742522	61.571896
3.750000	-3.591782	56.597893	-2.955952	148.062333	-2.955952	148.062333	-3.639739	57.903721
3.800000	-3.485153	53.525930	-3.060537	144.675018	-3.060537	144.675018	-3.534321	54.183072
3.850000	-3.376683	50.422047	-3.171857	141.251607	-3.171857	141.251607	-3.427014	50.419537
3.900000	-3.265849	47.277654	-3.291614	137.784288	-3.291614	137.784288	-3.317283	46.605077
3.950000	-3.153063	44.093590	-3.419962	134.275717	-3.419962	134.275717	-3.205528	42.743921
4.000000	-3.038531	40.868443	-3.557488	130.726012	-3.557488	130.726012	-3.091942	38.837251
4.050000	-2.922060	37.594602	-3.705942	127.129424	-3.705942	127.129424	-2.976303	34.879941
4.100000	-2.803966	34.270534	-3.866118	123.486324	-3.866118	123.486324	-2.858905	30.873588
4.150000	-2.684698	30.897027	-4.038466	119.799067	-4.038466	119.799067	-2.740182	26.821703
4.200000	-2.564408	27.469351	-4.224553	116.065067	-4.224553	116.065067	-2.620252	22.722616
4.250000	-2.443182	23.978752	-4.426896	112.278771	-4.426896	112.278771	-2.499154	18.571840
4.300000	-2.321709	20.430468	-4.645519	108.446295	-4.645519	108.446295	-2.377575	14.376315
4.350000	-2.200335	16.822127	-4.882040	104.567345	-4.882040	104.567345	-2.255839	10.136461
4.400000	-2.079312	13.141375	-5.140396	100.634597	-5.140396	100.634597	-2.134128	5.846065
4.450000	-1.959273	9.393541	-5.421219	96.654146	-5.421219	96.654146	-2.013085	1.511381
4.500000	-1.840690	5.578495	-5.726495	92.627952	-5.726495	92.627952	-1.893176	-2.865495
4.550000	-1.724076	1.689824	-6.059990	88.554144	-6.059990	88.554144	-1.774875	-7.286244
4.600000	-1.610017	-2.275269	-6.425220	84.433902	-6.425220	84.433902	-1.658748	-11.750082
4.650000	-1.499142	-6.318358	-6.826013	80.269929	-6.826013	80.269929	-1.545415	-16.255353
4.700000	-1.391968	-10.437758	-7.266089	76.067166	-7.266089	76.067166	-1.435404	-20.798838
4.750000	-1.289273	-14.638913	-7.751864	71.828148	-7.751864	71.828148	-1.329462	-25.380722
4.800000	-1.191545	-18.919053	-8.288806	67.560575	-8.288806	67.560575	-1.228097	-29.997193
4.850000	-1.099480	-23.280316	-8.885164	63.271922	-8.885164	63.271922	-1.131994	-34.646637
4.900000	-1.013770	-27.723691	-9.550907	58.973485	-9.550907	58.973485	-1.041840	-39.326674
4.950000	-0.934818	-32.246351	-10.297614	54.680339	-10.297614	54.680339	-0.958052	-44.033549
5.000000	-0.863622	-36.852767	-11.142926	50.415873	-11.142926	50.415873	-0.881599	-48.765664
5.050000	-0.800347	-41.537533	-12.107078	46.210734	-12.107078	46.210734	-0.812674	-53.518297
5.100000	-0.745753	-46.302128	-13.221033	42.116677	-13.221033	42.116677	-0.752015	-58.288584
5.150000	-0.700423	-51.145844	-14.528808	38.221769	-14.528808	38.221769	-0.700201	-63.072748
5.200000	-0.664677	-56.065855	-16.097078	34.683270	-16.097078	34.683270	-0.657553	-67.866510
5.250000	-0.638288	-61.056115	-18.035867	31.742450	-18.035867	31.742450	-0.623870	-72.665745
5.300000	-0.622873	-66.123902	-20.545961	30.286637	-20.545961	30.286637	-0.600711	-77.466509
5.350000	-0.617022	-71.255660	-24.037668	32.002631	-24.037668	32.002631	-0.586740	-82.264718
5.400000	-0.622148	-76.457351	-29.325878	46.237552	-29.325878	46.237552	-0.583325	-87.055755
5.450000	-0.637879	-81.723443	-32.937319	106.822198	-32.937319	106.822198	-0.590132	-91.835440
5.500000	-0.664091	-87.050651	-27.158169	147.656404	-27.158169	147.656404	-0.607069	-96.599712
5.550000	-0.700609	-92.435886	-22.668596	155.115070	-22.668596	155.115070	-0.633996	-101.344635
5.600000	-0.747147	-97.875962	-19.633441	155.165357	-19.633441	155.165357	-0.670684	-106.066500
5.650000	-0.803519	-103.368737	-17.392956	152.802872	-17.392956	152.802872	-0.717010	-110.761194
5.700000	-0.868820	-108.908650	-15.636055	149.425920	-15.636055	149.425920	-0.772157	-115.426891
5.750000	-0.942684	-114.493610	-14.204178	145.496644	-14.204178	145.496644	-0.835853	-120.060172
5.800000	-1.024150	-120.118616	-13.004781	141.254984	-13.004781	141.254984	-0.907239	-124.660215
5.850000	-1.112936	-125.783248	-11.983965	136.803737	-11.983965	136.803737	-0.986193	-129.222386
5.900000	-1.207726	-131.481361	-11.101864	132.226224	-11.101864	132.226224	-1.071526	-133.747723
5.950000	-1.307515	-137.208734	-10.331522	127.563945	-10.331522	127.563945	-1.162373	-138.236465
6.000000	-1.411355	-142.961869	-9.654236	122.842836	-9.654236	122.842836	-1.257954	-142.688354
6.050000	-1.518167	-148.737586	-9.057661	118.080736	-9.057661	118.080736	-1.357445	-147.102113
6.100000	-1.626630	-154.529489	-8.528158	113.294442	-8.528158	113.294442	-1.459629	-151.482388
6.150000	-1.735623	-160.332955	-8.057016	108.493127	-8.057016	108.493127	-1.563558	-155.831581
6.200000	-1.843853	-166.143069	-7.638463	103.683702	-7.638463	103.683702	-1.668186	-160.151736
6.250000	-1.949962	-171.953628	-7.266821	98.872077	-7.266821	98.872077	-1.772357	-164.447266
6.300000	-2.052914	-177.758600	-6.935965	94.062257	-6.935965	94.062257	-1.875114	-168.724256
6.350000	-2.151600	176.448018	-6.641957	89.256944	-6.641957	89.256944	-1.975491	-172.988031
6.400000	-2.244391	170.674463	-6.383239	84.458668	-6.383239	84.458668	-2.072130	-177.244614
6.450000	-2.330532	164.927192	-6.155534	79.668380	-6.155534	79.668380	-2.164268	178.498090
6.500000	-2.409241	159.212577	-5.955970	74.886507	-5.955970	74.886507	-2.251145	174.232796
6.550000	-2.479595	153.537912	-5.782733	70.113252	-5.782733	70.113252	-2.331884	169.951701
6.600000	-2.540140	147.914142	-5.635514	65.348839	-5.635514	65.348839	-2.405149	165.644194
6.650000	-2.591038	142.344566	-5.511017	60.591829	-5.511017	60.591829	-2.470869	161.303427
6.700000	-2.631771	136.835763	-5.408115	55.841255	-5.408115	55.841255	-2.528432	156.921012
6.750000	-2.661705	131.395661	-5.326285	51.095941	-5.326285	51.095941	-2.577093	152.487077
6.800000	-2.680727	126.029249	-5.264463	46.354250	-5.264463	46.354250	-2.616522	147.993581
6.850000	-2.688756	120.741352	-5.221974	41.614434	-5.221974	41.614434	-2.646395	143.432460
6.900000	-2.685714	115.536853	-5.198532	36.874596	-5.198532	36.874596	-2.666374	138.795280
6.950000	-2.671765	110.418808	-5.193831	32.132724	-5.193831	32.132724	-2.676313	134.074948
7.000000	-2.647291	105.388219	-5.207555	27.386856	-5.207555	27.386856	-2.676268	129.266224
7.050000	-2.612651	100.445926	-5.239779	22.635073	-5.239779	22.635073	-2.666274	124.363916
7.100000	-2.568285	95.591703	-5.290774	17.875559	-5.290774	17.875559	-2.646451	119.363772
7.150000	-2.514706	90.824263	-5.361018	13.106667	-5.361018	13.106667	-2.617003	114.262516
7.200000	-2.452496	86.141289	-5.451217	8.326983	-5.451217	8.326983	-2.578225	109.057855
7.250000	-2.382292	81.539465	-5.562329	3.535404	-5.562329	3.535404	-2.530502	103.748442
7.300000	-2.304785	77.014509	-5.695607	-1.268775	-5.695607	-1.268775	-2.474313	98.333790
7.350000	-2.220715	72.561191	-5.852657	-6.085760	-5.852657	-6.085760	-2.410241	92.814113
7.400000	-2.130865	68.173324	-6.035519	-10.915115	-6.035519	-10.915115	-2.338976	87.190086
7.450000	-2.036066	63.843702	-6.246801	-15.755564	-6.246801	-15.755564	-2.261332	81.462494
7.500000	-1.937198	59.563948	-6.489861	-20.604657	-6.489861	-20.604657	-2.178258	75.631714
7.550000	-1.835141	55.324722	-6.769694	-25.458151	-6.769694	-25.458151	-2.090803	69.695044
7.600000	-1.731020	51.113198	-7.091835	-30.308681	-7.091835	-30.308681	-2.000438	63.651190
7.650000	-1.626017	46.914615	-7.464337	-35.144181	-7.464337	-35.144181	-1.908855	57.493865
7.700000	-1.521548	42.709992	-7.899598	-39.942671	-7.899598	-39.942671	-1.818262	51.208256
7.750000	-1.419570	38.473356	-8.415503	-44.662900	-8.415503	-44.662900	-1.731857	44.770609
7.800000	-1.323013	34.168719	-9.039333	-49.223093	-9.039333	-49.223093	-1.654550	38.142055
7.850000	-1.237135	29.740671	-9.817674	-53.436328	-9.817674	-53.436328	-1.595174	31.251648
7.900000	-1.171477	25.112087	-10.822738	-56.879964	-10.822738	-56.879964	-1.569461	23.996896
7.950000	-1.148556	20.152350	-12.176925	-58.313024	-12.176925	-58.313024	-1.613952	16.187328
8.000000	-1.215788	14.717285	-13.949919	-54.374231	-13.949919	-54.374231	-1.804893	7.602688
8.050000	-1.497303	8.753337	-15.192742	-37.045489	-15.192742	-37.045489	-2.346321	-1.885454
8.100000	-2.238834	3.335788	-12.717771	-16.605774	-12.717771	-16.605774	-3.690446	-10.655117
8.150000	-3.437646	3.187871	-8.843289	-20.764079	-8.843289	-20.764079	-6.001619	-9.411748
8.200000	-3.747038	9.791752	-6.968036	-38.281719	-6.968036	-38.281719	-6.201320	5.908671
8.250000	-3.001051	12.644292	-6.778844	-54.665155	-6.778844	-54.665155	-4.411067	9.406110
8.300000	-2.291358	11.017540	-7.254869	-66.849009	-7.254869	-66.849009	-3.155053	4.694335
8.350000	-1.818167	7.897140	-7.910206	-75.981635	-7.910206	-75.981635	-2.432101	-1.576127
8.400000	-1.503660	4.463233	-8.594764	-83.276278	-8.594764	-83.276278	-1.989264	-7.806036
8.450000	-1.284763	1.046139	-9.269740	-89.424352	-9.269740	-89.424352	-1.696982	-13.714295
8.500000	-1.124567	-2.266731	-9.928226	-94.823343	-9.928226	-94.823343	-1.490890	-19.289503
8.550000	-1.002566	-5.458696	-10.571760	-99.699120	-10.571760	-99.699120	-1.338170	-24.568493
8.600000	-0.905675	-8.539891	-11.207072	-104.206089	-11.207072	-104.206089	-1.219271	-29.604067
8.650000	-0.827489	-11.515879	-11.836252	-108.416634	-11.836252	-108.416634	-1.124827	-34.421505
8.700000	-0.763302	-14.395758	-12.462522	-112.386928	-12.462522	-112.386928	-1.048237	-39.046804
8.750000	-0.709953	-17.187680	-13.088533	-116.155107	-13.088533	-116.155107	-0.985195	-43.500378
8.800000	-0.665372	-19.897055	-13.715573	-119.744608	-13.715573	-119.744608	-0.932946	-47.795477
8.850000	-0.627754	-22.531763	-14.346447	-123.178842	-14.346447	-123.178842	-0.889176	-51.949031
8.900000	-0.595909	-25.096969	-14.982757	-126.472015	-14.982757	-126.472015	-0.852396	-55.972149
8.950000	-0.568916	-27.597200	-15.625980	-129.634949	-15.625980	-129.634949	-0.821485	-59.874400
9.000000	-0.546050	-30.036474	-16.277535	-132.676009	-16.277535	-132.676009	-0.795587	-63.664193
9.050000	-0.526727	-32.418406	-16.938847	-135.601703	-16.938847	-135.601703	-0.774035	-67.349036
9.100000	-0.510469	-34.746281	-17.611402	-138.417071	-17.611402	-138.417071	-0.756304	-70.935727
9.150000	-0.496885	-37.023113	-18.296794	-141.125933	-18.296794	-141.125933	-0.741982	-74.430483
9.200000	-0.485648	-39.251686	-18.996780	-143.731036	-18.996780	-143.731036	-0.730741	-77.839038
9.250000	-0.476485	-41.434586	-19.713328	-146.234121	-19.713328	-146.234121	-0.722328	-81.166706
9.300000	-0.469168	-43.574230	-20.448686	-148.635926	-20.448686	-148.635926	-0.716542	-84.418436
9.350000	-0.463505	-45.672881	-21.205448	-150.936115	-21.205448	-150.936115	-0.713235	-87.598849
9.400000	-0.459525	-47.727467	-21.980347	-153.118140	-21.980347	-153.118140	-0.712622	-90.703397
9.450000	-0.456709	-49.750279	-22.788897	-155.207111	-22.788897	-155.207111	-0.714001	-93.753776
9.500000	-0.455139	-51.738128	-23.629682	-157.184666	-23.629682	-157.184666	-0.717638	-96.745024
9.550000	-0.454722	-53.692789	-24.507860	-159.043508	-24.507860	-159.043508	-0.723516	-99.680668
9.600000	-0.455382	-55.615934	-25.429744	-160.773132	-25.429744	-160.773132	-0.731645	-102.564000
9.650000	-0.457057	-57.509142	-26.403172	-162.358549	-26.403172	-162.358549	-0.742052	-105.398085
9.700000	-0.459700	-59.373901	-27.438029	-163.778299	-27.438029	-163.778299	-0.754785	-108.185769
9.750000	-0.463273	-61.211617	-28.547019	-165.001210	-28.547019	-165.001210	-0.769904	-110.929684
9.800000	-0.467750	-63.023614	-29.746811	-165.980962	-29.746811	-165.980962	-0.787487	-113.632254
9.850000	-0.473110	-64.811141	-31.059816	-166.646516	-31.059816	-166.646516	-0.807623	-116.295704
9.900000	-0.479345	-66.575374	-32.517033	-166.884339	-32.517033	-166.884339	-0.830411	-118.922057
9.950000	-0.486450	-68.317420	-34.162702	-166.503327	-34.162702	-166.503327	-0.855958	-121.513144
10.000000	-0.494426	-70.038319	-36.062077	-165.160483	-36.062077	-165.160483	-0.884379	-124.070604
