! freq	dB(S11)	phase(S11)	dB(S12)	phase(S12)	
!     	dB(S21)	phase(S21)	dB(S22)	phase(S22)	
!S-par simulation data
#  GHz  S  DB  R 50
0.000000	-0.000000	0.000000	-384.202670	180.000000	-384.202670	180.000000	-0.000000	0.000000
0.050000	-0.000102	-0.762290	-118.015979	88.420349	-118.015979	88.420349	-0.000102	-0.762276
0.100000	-0.000404	-1.524323	-112.149049	87.302832	-112.149049	87.302832	-0.000404	-1.524295
0.150000	-0.000897	-2.285843	-108.811039	86.582003	-108.811039	86.582003	-0.000896	-2.285803
0.200000	-0.001548	-3.046704	-106.503676	86.050241	-106.503676	86.050241	-0.001546	-3.046653
0.250000	-0.002338	-3.806740	-104.776518	85.619880	-104.776518	85.619880	-0.002335	-3.806681
0.300000	-0.003253	-4.565755	-103.442575	85.271377	-103.442575	85.271377	-0.003248	-4.565690
0.350000	-0.004246	-5.323855	-102.380308	85.000134	-102.380308	85.000134	-0.004241	-5.323785
0.400000	-0.005309	-6.080876	-101.546379	84.842964	-101.546379	84.842964	-0.005303	-6.080803
0.450000	-0.006414	-6.836919	-100.893735	84.825423	-100.893735	84.825423	-0.006408	-6.836843
0.500000	-0.007545	-7.591968	-100.404168	84.998601	-100.404168	84.998601	-0.007539	-7.591889
0.550000	-0.008690	-8.346070	-100.062361	85.421948	-100.062361	85.421948	-0.008684	-8.345988
0.600000	-0.009837	-9.099269	-99.859834	86.176117	-99.859834	86.176117	-0.009831	-9.099184
0.650000	-0.010980	-9.851611	-99.792096	87.371154	-99.792096	87.371154	-0.010974	-9.851522
0.700000	-0.012112	-10.603135	-99.856776	89.160287	-99.856776	89.160287	-0.012107	-10.603042
0.750000	-0.013231	-11.353879	-100.050878	91.759751	-100.050878	91.759751	-0.013227	-11.353780
0.800000	-0.014336	-12.103871	-100.365574	95.474385	-100.365574	95.474385	-0.014332	-12.103766
0.850000	-0.015422	-12.853013	-100.765199	101.143140	-100.765199	101.143140	-0.015419	-12.852901
0.900000	-0.016493	-13.601414	-101.195264	108.958279	-101.195264	108.958279	-0.016490	-13.601294
0.950000	-0.017557	-14.349452	-101.510668	118.029640	-101.510668	118.029640	-0.017554	-14.349325
1.000000	-0.018599	-15.096402	-101.424323	130.869670	-101.424323	130.869670	-0.018597	-15.096266
1.050000	-0.019637	-15.843110	-101.124081	143.674583	-101.124081	143.674583	-0.019635	-15.842966
1.100000	-0.020655	-16.588612	-99.864331	156.303918	-99.864331	156.303918	-0.020653	-16.588458
1.150000	-0.021672	-17.333990	-98.678114	168.507001	-98.678114	168.507001	-0.021670	-17.333827
1.200000	-0.022671	-18.078016	-96.835392	176.021328	-96.835392	176.021328	-0.022670	-18.077844
1.250000	-0.023671	-18.822042	-95.316007	-176.464346	-95.316007	-176.464346	-0.023670	-18.821861
1.300000	-0.024659	-19.564934	-93.646783	-172.105012	-93.646783	-172.105012	-0.024659	-19.564743
1.350000	-0.025642	-20.307084	-92.067286	-169.066686	-92.067286	-169.066686	-0.025641	-20.306884
1.400000	-0.026619	-21.048478	-90.584812	-166.992918	-90.584812	-166.992918	-0.026619	-21.048269
1.450000	-0.027593	-21.789102	-89.195871	-165.630155	-89.195871	-165.630155	-0.027592	-21.788884
1.500000	-0.028563	-22.528941	-87.893028	-164.799583	-87.893028	-164.799583	-0.028562	-22.528713
1.550000	-0.029529	-23.267979	-86.667922	-164.374271	-86.667922	-164.374271	-0.029529	-23.267742
1.600000	-0.030494	-24.006200	-85.512500	-164.262908	-85.512500	-164.262908	-0.030494	-24.005955
1.650000	-0.031456	-24.743589	-84.419476	-164.398750	-84.419476	-164.398750	-0.031456	-24.743336
1.700000	-0.032417	-25.479828	-83.358858	-164.783607	-83.358858	-164.783607	-0.032417	-25.479567
1.750000	-0.033377	-26.215620	-82.382594	-165.257900	-82.382594	-165.257900	-0.033377	-26.215349
1.800000	-0.034336	-26.950332	-81.437371	-165.881148	-81.437371	-165.881148	-0.034336	-26.950054
1.850000	-0.035295	-27.684274	-80.541441	-166.610792	-80.541441	-166.610792	-0.035295	-27.683988
1.900000	-0.036254	-28.417258	-79.680003	-167.428496	-79.680003	-167.428496	-0.036254	-28.416964
1.950000	-0.037213	-29.149284	-78.851502	-168.334261	-78.851502	-168.334261	-0.037213	-29.148981
2.000000	-0.038173	-29.880483	-78.059704	-169.292649	-78.059704	-169.292649	-0.038172	-29.880173
2.050000	-0.039133	-30.610525	-77.288605	-170.324710	-77.288605	-170.324710	-0.039133	-30.610207
2.100000	-0.040095	-31.339884	-76.555628	-171.387931	-76.555628	-171.387931	-0.040094	-31.339559
2.150000	-0.041058	-32.067879	-75.834044	-172.513470	-75.834044	-172.513470	-0.041058	-32.067546
2.200000	-0.042023	-32.795345	-75.151452	-173.656761	-75.151452	-173.656761	-0.042022	-32.795005
2.250000	-0.042990	-33.521229	-74.473083	-174.853306	-74.473083	-174.853306	-0.042990	-33.520882
2.300000	-0.043959	-34.246751	-73.834177	-176.059034	-73.834177	-176.059034	-0.043958	-34.246396
2.350000	-0.044932	-34.970463	-73.193915	-177.310679	-73.193915	-177.310679	-0.044931	-34.970101
2.400000	-0.045905	-35.693989	-72.593288	-178.565952	-72.593288	-178.565952	-0.045905	-35.693620
2.450000	-0.046885	-36.415471	-71.986932	-179.861123	-71.986932	-179.861123	-0.046885	-36.415095
2.500000	-0.047865	-37.136953	-71.420157	178.843705	-71.420157	178.843705	-0.047864	-37.136569
2.550000	-0.048853	-37.856148	-70.844208	177.513636	-70.844208	177.513636	-0.048852	-37.855758
2.600000	-0.049841	-38.575344	-70.304087	176.183568	-70.304087	176.183568	-0.049840	-38.574946
2.650000	-0.050838	-39.292393	-69.759121	174.827534	-69.759121	174.827534	-0.050837	-39.291989
2.700000	-0.051835	-40.009248	-69.243219	173.469139	-69.243219	173.469139	-0.051834	-40.008836
2.750000	-0.052842	-40.724108	-68.726075	172.091385	-68.726075	172.091385	-0.052841	-40.723690
2.800000	-0.053850	-41.438570	-68.232304	170.709760	-68.232304	170.709760	-0.053849	-41.438144
2.850000	-0.054868	-42.151200	-67.740295	169.313723	-67.740295	169.313723	-0.054867	-42.150768
2.900000	-0.055889	-42.863220	-67.266847	167.912883	-67.266847	167.912883	-0.055888	-42.862780
2.950000	-0.056919	-43.573580	-66.797673	166.501375	-66.797673	166.501375	-0.056918	-43.573133
3.000000	-0.057953	-44.283110	-66.342967	165.084532	-66.342967	165.084532	-0.057953	-44.282657
3.050000	-0.058997	-44.991162	-65.894639	163.659872	-65.894639	163.659872	-0.058997	-44.990702
3.100000	-0.060047	-45.698159	-65.457289	162.229628	-65.457289	162.229628	-0.060047	-45.697692
3.150000	-0.061106	-46.403867	-65.028077	160.793749	-65.028077	160.793749	-0.061106	-46.403394
3.200000	-0.062173	-47.108288	-64.606855	159.352235	-64.606855	159.352235	-0.062173	-47.107808
3.250000	-0.063248	-47.811619	-64.195241	157.906761	-64.195241	157.906761	-0.063248	-47.811132
3.300000	-0.064334	-48.513424	-63.789054	156.455741	-63.789054	156.455741	-0.064333	-48.512931
3.350000	-0.065426	-49.214346	-63.393702	155.002045	-63.393702	155.002045	-0.065426	-49.213846
3.400000	-0.066532	-49.913500	-63.001575	153.542995	-63.001575	153.542995	-0.066532	-49.912993
3.450000	-0.067643	-50.611982	-62.621299	152.082247	-62.621299	152.082247	-0.067643	-50.611469
3.500000	-0.068771	-51.308451	-62.242352	150.616409	-62.242352	150.616409	-0.068771	-51.307931
3.550000	-0.069903	-52.004466	-61.876096	149.149616	-61.876096	149.149616	-0.069902	-52.003939
3.600000	-0.071053	-52.698217	-61.509538	147.678046	-61.509538	147.678046	-0.071053	-52.697684
3.650000	-0.072206	-53.391740	-61.156357	146.206073	-61.156357	146.206073	-0.072206	-53.391200
3.700000	-0.073382	-54.082746	-60.801469	144.729674	-60.801469	144.729674	-0.073382	-54.082200
3.750000	-0.074558	-54.773752	-60.460513	143.253274	-60.460513	143.253274	-0.074558	-54.773200
3.800000	-0.075760	-55.461987	-60.116641	141.772824	-60.116641	141.772824	-0.075760	-55.461429
3.850000	-0.076963	-56.150222	-59.785866	140.292373	-59.785866	140.292373	-0.076962	-56.149658
3.900000	-0.078191	-56.835897	-59.453690	138.808826	-59.453690	138.808826	-0.078190	-56.835326
3.950000	-0.079421	-57.521338	-59.132567	137.324998	-59.132567	137.324998	-0.079421	-57.520762
4.000000	-0.080676	-58.204435	-58.811376	135.838844	-58.811376	135.838844	-0.080676	-58.203853
4.050000	-0.081937	-58.887063	-58.499419	134.352225	-58.499419	134.352225	-0.081937	-58.886475
4.100000	-0.083220	-59.567568	-58.188565	132.863898	-58.188565	132.863898	-0.083220	-59.566974
4.150000	-0.084512	-60.247365	-57.885327	131.375003	-57.885327	131.375003	-0.084512	-60.246765
4.200000	-0.085826	-60.925266	-57.584218	129.884891	-57.584218	129.884891	-0.085825	-60.924660
4.250000	-0.087150	-61.602218	-57.289285	128.394171	-57.289285	128.394171	-0.087150	-61.601606
4.300000	-0.088495	-62.277503	-56.997383	126.902620	-56.997383	126.902620	-0.088495	-62.276886
4.350000	-0.089854	-62.951599	-56.710372	125.410477	-56.710372	125.410477	-0.089854	-62.950976
4.400000	-0.091232	-63.624262	-56.427180	123.917799	-56.427180	123.917799	-0.091232	-63.623633
4.450000	-0.092627	-64.295492	-56.147737	122.424587	-56.147737	122.424587	-0.092627	-64.294858
4.500000	-0.094039	-64.965525	-55.872800	120.931062	-55.872800	120.931062	-0.094039	-64.964886
4.550000	-0.095472	-65.633884	-55.600594	119.437099	-55.600594	119.437099	-0.095472	-65.633239
4.600000	-0.096919	-66.301284	-55.333492	117.942980	-55.333492	117.942980	-0.096919	-66.300634
4.650000	-0.098392	-66.966767	-55.068215	116.448551	-55.068215	116.448551	-0.098392	-66.966113
4.700000	-0.099876	-67.631532	-54.808561	114.954068	-54.808561	114.954068	-0.099875	-67.630872
4.750000	-0.101390	-68.294140	-54.549925	113.459428	-54.549925	113.459428	-0.101390	-68.293476
4.800000	-0.102912	-68.956270	-54.297361	111.964792	-54.297361	111.964792	-0.102911	-68.955600
4.850000	-0.104469	-69.616004	-54.045097	110.470173	-54.045097	110.470173	-0.104468	-69.615330
4.900000	-0.106030	-70.275500	-53.799290	108.975574	-53.799290	108.975574	-0.106030	-70.274821
4.950000	-0.107632	-70.932366	-53.553147	107.481186	-53.553147	107.481186	-0.107631	-70.931682
5.000000	-0.109234	-71.589231	-53.313787	105.986798	-53.313787	105.986798	-0.109233	-71.588543
5.050000	-0.110881	-72.243235	-53.073528	104.492834	-53.073528	104.492834	-0.110881	-72.242542
5.100000	-0.112530	-72.897239	-52.839736	102.998869	-52.839736	102.998869	-0.112529	-72.896542
5.150000	-0.114222	-73.548629	-52.605730	101.505453	-52.605730	101.505453	-0.114221	-73.547927
5.200000	-0.115918	-74.199780	-52.377303	100.012086	-52.377303	100.012086	-0.115917	-74.199074
5.250000	-0.117655	-74.848565	-52.149277	98.519353	-52.149277	98.519353	-0.117655	-74.847855
5.300000	-0.119401	-75.496877	-51.926022	97.026746	-51.926022	97.026746	-0.119400	-75.496163
5.350000	-0.121185	-76.143069	-51.703720	95.534820	-51.703720	95.534820	-0.121184	-76.142351
5.400000	-0.122981	-76.788555	-51.485457	94.043121	-51.485457	94.043121	-0.122981	-76.787833
5.450000	-0.124814	-77.432169	-51.268639	92.552119	-51.268639	92.552119	-0.124813	-77.431443
5.500000	-0.126663	-78.074846	-51.055196	91.061466	-51.055196	91.061466	-0.126663	-78.074116
5.550000	-0.128545	-78.715896	-50.843637	89.571497	-50.843637	89.571497	-0.128545	-78.715162
5.600000	-0.130450	-79.355783	-50.634852	88.082017	-50.634852	88.082017	-0.130449	-79.355046
5.650000	-0.132382	-79.994286	-50.428341	86.593184	-50.428341	86.593184	-0.132382	-79.993546
5.700000	-0.134343	-80.631405	-50.224061	85.104997	-50.224061	85.104997	-0.134343	-80.630661
5.750000	-0.136328	-81.267381	-50.022401	83.617395	-50.022401	83.617395	-0.136328	-81.266633
5.800000	-0.138347	-81.901755	-49.822480	82.130611	-49.822480	82.130611	-0.138347	-81.901004
5.850000	-0.140386	-82.535223	-49.625484	80.644331	-49.625484	80.644331	-0.140385	-82.534469
5.900000	-0.142464	-83.166878	-49.429782	79.159055	-49.429782	79.159055	-0.142464	-83.166121
5.950000	-0.144558	-83.797860	-49.237274	77.674181	-49.237274	77.674181	-0.144558	-83.797100
6.000000	-0.146698	-84.426823	-49.045660	76.190511	-49.045660	76.190511	-0.146698	-84.426061
6.050000	-0.148848	-85.055343	-48.857475	74.707124	-48.857475	74.707124	-0.148848	-85.054578
6.100000	-0.151051	-85.681645	-48.669822	73.225151	-48.669822	73.225151	-0.151051	-85.680877
6.150000	-0.153260	-86.307728	-48.485803	71.743326	-48.485803	71.743326	-0.153260	-86.306957
6.200000	-0.155528	-86.931400	-48.301992	70.263136	-48.301992	70.263136	-0.155527	-86.930627
6.250000	-0.157796	-87.555071	-48.121990	68.782945	-48.121990	68.782945	-0.157796	-87.554296
6.300000	-0.160130	-88.176147	-47.941906	67.304617	-47.941906	67.304617	-0.160130	-88.175369
6.350000	-0.162464	-88.797222	-47.765480	65.826290	-47.765480	65.826290	-0.162464	-88.796442
6.400000	-0.164861	-89.415950	-47.589314	64.349738	-47.589314	64.349738	-0.164861	-89.415168
6.450000	-0.167263	-90.034465	-47.416360	62.873348	-47.416360	62.873348	-0.167263	-90.033681
6.500000	-0.169724	-90.650876	-47.243977	61.398631	-47.243977	61.398631	-0.169724	-90.650090
6.550000	-0.172196	-91.266867	-47.074398	59.924249	-47.074398	59.924249	-0.172196	-91.266079
6.600000	-0.174722	-91.880994	-46.905668	58.451420	-46.905668	58.451420	-0.174722	-91.880205
6.650000	-0.177265	-92.494500	-46.739369	56.979110	-46.739369	56.979110	-0.177265	-92.493709
6.700000	-0.179858	-93.106377	-46.574170	55.508220	-46.574170	55.508220	-0.179858	-93.105585
6.750000	-0.182474	-93.717439	-46.411061	54.038040	-46.411061	54.038040	-0.182475	-93.716646
6.800000	-0.185135	-94.327101	-46.249275	52.569135	-46.249275	52.569135	-0.185135	-94.326306
6.850000	-0.187826	-94.935762	-46.089267	51.101139	-46.089267	51.101139	-0.187826	-94.934966
6.900000	-0.190556	-95.543244	-45.930784	49.634260	-45.930784	49.634260	-0.190556	-95.542447
6.950000	-0.193323	-96.149547	-45.773794	48.168498	-45.773794	48.168498	-0.193324	-96.148750
7.000000	-0.196124	-96.754888	-45.618507	46.703683	-45.618507	46.703683	-0.196124	-96.754089
7.050000	-0.198969	-97.358879	-45.464454	45.240195	-45.464454	45.240195	-0.198970	-97.358080
7.100000	-0.201842	-97.962116	-45.312261	43.777477	-45.312261	43.777477	-0.201842	-97.961317
7.150000	-0.204767	-98.563844	-45.161066	42.316300	-45.161066	42.316300	-0.204767	-98.563044
7.200000	-0.207712	-99.165017	-45.011871	40.855708	-45.011871	40.855708	-0.207713	-99.164217
7.250000	-0.210718	-99.764529	-44.863460	39.396870	-44.863460	39.396870	-0.210719	-99.763728
7.300000	-0.213739	-100.363679	-44.717169	37.938427	-44.717169	37.938427	-0.213739	-100.362879
7.350000	-0.216827	-100.961025	-44.571468	36.481953	-44.571468	36.481953	-0.216828	-100.960225
7.400000	-0.219924	-101.558195	-44.427993	35.025677	-44.427993	35.025677	-0.219924	-101.557395
7.450000	-0.223096	-102.153427	-44.284932	33.571581	-44.284932	33.571581	-0.223097	-102.152627
7.500000	-0.226270	-102.748659	-44.144189	32.117486	-44.144189	32.117486	-0.226270	-102.747860
7.550000	-0.229527	-103.341830	-44.003699	30.665777	-44.003699	30.665777	-0.229528	-103.341032
7.600000	-0.232787	-103.935001	-43.865446	29.214068	-43.865446	29.214068	-0.232788	-103.934204
7.650000	-0.236124	-104.526333	-43.727622	27.764547	-43.727622	27.764547	-0.236125	-104.525537
7.700000	-0.239470	-105.117497	-43.591796	26.315226	-43.591796	26.315226	-0.239471	-105.116702
7.750000	-0.242889	-105.707036	-43.456560	24.867887	-43.456560	24.867887	-0.242890	-105.706243
7.800000	-0.246324	-106.296250	-43.323102	23.420944	-43.323102	23.420944	-0.246325	-106.295459
7.850000	-0.249825	-106.884044	-43.190378	21.975774	-43.190378	21.975774	-0.249826	-106.883254
7.900000	-0.253349	-107.471365	-43.059229	20.531195	-43.059229	20.531195	-0.253350	-107.470577
7.950000	-0.256933	-108.057462	-42.928943	19.088174	-42.928943	19.088174	-0.256934	-108.056676
8.000000	-0.260548	-108.642948	-42.800048	17.645932	-42.800048	17.645932	-0.260550	-108.642164
8.050000	-0.264217	-109.227398	-42.672133	16.205034	-42.672133	16.205034	-0.264219	-109.226617
8.100000	-0.267925	-109.811109	-42.545437	14.765096	-42.545437	14.765096	-0.267926	-109.810330
8.150000	-0.271679	-110.393963	-42.419826	13.326288	-42.419826	13.326288	-0.271681	-110.393187
8.200000	-0.275480	-110.975960	-42.295278	11.888609	-42.295278	11.888609	-0.275482	-110.975187
8.250000	-0.279321	-111.557269	-42.171908	10.451849	-42.171908	10.451849	-0.279323	-111.556499
8.300000	-0.283217	-112.137614	-42.049458	9.016376	-42.049458	9.016376	-0.283219	-112.136848
8.350000	-0.287146	-112.717430	-41.928268	7.581617	-41.928268	7.581617	-0.287147	-112.716668
8.400000	-0.291137	-113.296188	-41.807870	6.148287	-41.807870	6.148287	-0.291139	-113.295430
8.450000	-0.295154	-113.874565	-41.688803	4.715474	-41.688803	4.715474	-0.295156	-113.873811
8.500000	-0.299243	-114.451801	-41.570411	3.284213	-41.570411	3.284213	-0.299245	-114.451051
8.550000	-0.303350	-115.028793	-41.453411	1.853282	-41.453411	1.853282	-0.303351	-115.028048
8.600000	-0.307537	-115.604572	-41.336983	0.424007	-41.336983	0.424007	-0.307538	-115.603832
8.650000	-0.311733	-116.180236	-41.222000	-1.005111	-41.222000	-1.005111	-0.311735	-116.179500
8.700000	-0.316019	-116.754626	-41.107495	-2.432495	-41.107495	-2.432495	-0.316021	-116.753896
8.750000	-0.320307	-117.329017	-40.994479	-3.859878	-40.994479	-3.859878	-0.320309	-117.328292
8.800000	-0.324693	-117.902087	-40.881859	-5.285473	-40.881859	-5.285473	-0.324695	-117.901369
8.850000	-0.329081	-118.475158	-40.770680	-6.711069	-40.770680	-6.711069	-0.329083	-118.474446
8.900000	-0.333559	-119.047084	-40.659994	-8.135129	-40.659994	-8.135129	-0.333561	-119.046378
8.950000	-0.338048	-119.618905	-40.550619	-9.559049	-40.550619	-9.559049	-0.338050	-119.618206
9.000000	-0.342619	-120.189745	-40.441825	-10.981676	-40.441825	-10.981676	-0.342622	-120.189053
9.050000	-0.347210	-120.760389	-40.334223	-12.404045	-40.334223	-12.404045	-0.347212	-120.759704
9.100000	-0.351875	-121.330204	-40.227281	-13.825349	-40.227281	-13.825349	-0.351878	-121.329527
9.150000	-0.356568	-121.899743	-40.121424	-15.246299	-40.121424	-15.246299	-0.356570	-121.899074
9.200000	-0.361328	-122.468595	-40.016297	-16.666397	-40.016297	-16.666397	-0.361331	-122.467934
9.250000	-0.366123	-123.037103	-39.912160	-18.086069	-39.912160	-18.086069	-0.366126	-123.036451
9.300000	-0.370978	-123.605055	-39.808815	-19.505083	-39.808815	-19.505083	-0.370981	-123.604412
9.350000	-0.375877	-124.172608	-39.706376	-20.923627	-39.706376	-20.923627	-0.375880	-124.171974
9.400000	-0.380828	-124.739723	-39.604783	-22.341686	-39.604783	-22.341686	-0.380831	-124.739099
9.450000	-0.385830	-125.306399	-39.504023	-23.759259	-39.504023	-23.759259	-0.385833	-125.305785
9.500000	-0.390876	-125.872742	-39.404155	-25.176497	-39.404155	-25.176497	-0.390879	-125.872138
9.550000	-0.395983	-126.438618	-39.305058	-26.593265	-39.305058	-26.593265	-0.395986	-126.438026
9.600000	-0.401125	-127.004255	-39.206890	-28.009821	-39.206890	-28.009821	-0.401128	-127.003674
9.650000	-0.406336	-127.569413	-39.109445	-29.425953	-39.109445	-29.425953	-0.406339	-127.568843
9.700000	-0.411574	-128.134411	-39.012956	-30.841970	-39.012956	-30.841970	-0.411578	-128.133853
9.750000	-0.416889	-128.698931	-38.917155	-32.257643	-38.917155	-32.257643	-0.416893	-128.698386
9.800000	-0.422224	-129.263358	-38.822327	-33.673268	-38.822327	-33.673268	-0.422228	-129.262826
9.850000	-0.427643	-129.827324	-38.728166	-35.088660	-38.728166	-35.088660	-0.427647	-129.826805
9.900000	-0.433074	-130.391250	-38.634985	-36.504043	-38.634985	-36.504043	-0.433078	-130.390745
9.950000	-0.438598	-130.954745	-38.542463	-37.919335	-38.542463	-37.919335	-0.438602	-130.954255
10.000000	-0.444125	-131.518241	-38.450917	-39.334628	-38.450917	-39.334628	-0.444130	-131.517764
