! freq	dB(S11)	phase(S11)	dB(S12)	phase(S12)	
!     	dB(S21)	phase(S21)	dB(S22)	phase(S22)	
!S-par simulation data
#  GHz  S  DB  R 50
0.000000	-0.000000	0.000000	-353.496110	0.000000	-353.496110	0.000000	-0.000000	0.000000
0.050000	-0.000104	-0.982969	-95.306210	165.419186	-95.306210	165.419186	-0.000104	-0.983165
0.100000	-0.000413	-1.965712	-94.928083	156.228084	-94.928083	156.228084	-0.000413	-1.966103
0.150000	-0.000919	-2.948013	-94.390098	147.099379	-94.390098	147.099379	-0.000919	-2.948601
0.200000	-0.001607	-3.929684	-93.762624	138.962020	-93.762624	138.962020	-0.001606	-3.930470
0.250000	-0.002472	-4.910499	-93.103854	132.002441	-93.103854	132.002441	-0.002470	-4.911483
0.300000	-0.003478	-5.890384	-92.464506	126.028191	-92.464506	126.028191	-0.003475	-5.891568
0.350000	-0.004613	-6.869190	-91.868241	120.953452	-91.868241	120.953452	-0.004610	-6.870575
0.400000	-0.005857	-7.846822	-91.331048	116.645911	-91.331048	116.645911	-0.005853	-7.848409
0.450000	-0.007188	-8.823213	-90.861665	112.994504	-90.861665	112.994504	-0.007184	-8.825003
0.500000	-0.008589	-9.798318	-90.464625	109.914738	-90.464625	109.914738	-0.008585	-9.800310
0.550000	-0.010042	-10.772110	-90.142215	107.348268	-90.142215	107.348268	-0.010038	-10.774304
0.600000	-0.011530	-11.744578	-89.895645	105.261053	-89.895645	105.261053	-0.011526	-11.746975
0.650000	-0.013040	-12.715724	-89.725681	103.641963	-89.725681	103.641963	-0.013037	-12.718322
0.700000	-0.014561	-13.685555	-89.632915	102.502623	-89.632915	102.502623	-0.014559	-13.688354
0.750000	-0.016084	-14.654085	-89.617701	101.878866	-89.617701	101.878866	-0.016082	-14.657084
0.800000	-0.017600	-15.621329	-89.679721	101.833962	-89.679721	101.833962	-0.017599	-15.624527
0.850000	-0.019105	-16.587303	-89.817015	102.463547	-89.817015	102.463547	-0.019105	-16.590699
0.900000	-0.020593	-17.552022	-90.024119	103.901473	-90.024119	103.901473	-0.020594	-17.555614
0.950000	-0.022063	-18.515497	-90.288791	106.323856	-90.288791	106.323856	-0.022065	-18.519284
1.000000	-0.023512	-19.477738	-90.586658	109.944170	-90.586658	109.944170	-0.023515	-19.481718
1.050000	-0.024939	-20.438749	-90.873688	114.984205	-90.873688	114.984205	-0.024943	-20.442922
1.100000	-0.026344	-21.398534	-91.078829	121.596948	-91.078829	121.596948	-0.026349	-21.402897
1.150000	-0.027727	-22.357089	-91.104885	129.725100	-91.104885	129.725100	-0.027733	-22.361642
1.200000	-0.029090	-23.314409	-90.850974	138.939784	-90.850974	138.939784	-0.029096	-23.319151
1.250000	-0.030432	-24.270487	-90.258603	148.421847	-90.258603	148.421847	-0.030440	-24.275416
1.300000	-0.031755	-25.225256	-89.332985	157.179709	-89.332985	157.179709	-0.031763	-25.230372
1.350000	-0.033061	-26.178756	-88.181084	164.602254	-88.181084	164.602254	-0.033070	-26.184057
1.400000	-0.034351	-27.130970	-86.906123	170.511497	-86.906123	170.511497	-0.034360	-27.136455
1.450000	-0.035627	-28.081880	-85.589203	175.010066	-85.589203	175.010066	-0.035637	-28.087549
1.500000	-0.036890	-29.031466	-84.282003	178.315863	-84.282003	178.315863	-0.036900	-29.037317
1.550000	-0.038142	-29.979706	-83.012905	-179.339060	-83.012905	-179.339060	-0.038153	-29.985740
1.600000	-0.039384	-30.926579	-81.795271	-177.751307	-81.795271	-177.751307	-0.039395	-30.932795
1.650000	-0.040617	-31.872062	-80.633793	-176.756736	-80.633793	-176.756736	-0.040629	-31.878458
1.700000	-0.041844	-32.816130	-79.528516	-176.227661	-79.528516	-176.227661	-0.041856	-32.822706
1.750000	-0.043065	-33.758760	-78.477171	-176.066155	-78.477171	-176.066155	-0.043077	-33.765515
1.800000	-0.044281	-34.699927	-77.476467	-176.197304	-77.476467	-176.197304	-0.044293	-34.706861
1.850000	-0.045493	-35.639607	-76.522776	-176.563572	-76.522776	-176.563572	-0.045505	-35.646718
1.900000	-0.046703	-36.577775	-75.612491	-177.120461	-75.612491	-177.120461	-0.046715	-36.585064
1.950000	-0.047911	-37.514407	-74.742194	-177.833254	-74.742194	-177.833254	-0.047924	-37.521872
2.000000	-0.049119	-38.449479	-73.908727	-178.674615	-73.908727	-178.674615	-0.049132	-38.457120
2.050000	-0.050327	-39.382967	-73.109214	-179.622814	-73.109214	-179.622814	-0.050340	-39.390784
2.100000	-0.051536	-40.314848	-72.341057	179.339578	-72.341057	179.339578	-0.051549	-40.322840
2.150000	-0.052747	-41.245100	-71.601913	178.226666	-71.601913	178.226666	-0.052760	-41.253265
2.200000	-0.053960	-42.173700	-70.889675	177.049960	-70.889675	177.049960	-0.053973	-42.182038
2.250000	-0.055176	-43.100626	-70.202448	175.818921	-70.202448	175.818921	-0.055189	-43.109136
2.300000	-0.056396	-44.025858	-69.538523	174.541391	-69.538523	174.541391	-0.056410	-44.034539
2.350000	-0.057620	-44.949375	-68.896357	173.223905	-68.896357	173.223905	-0.057634	-44.958227
2.400000	-0.058849	-45.871158	-68.274556	171.871953	-68.274556	171.871953	-0.058863	-45.880179
2.450000	-0.060084	-46.791187	-67.671854	170.490164	-67.671854	170.490164	-0.060098	-46.800377
2.500000	-0.061324	-47.709446	-67.087100	169.082471	-67.087100	169.082471	-0.061338	-47.718804
2.550000	-0.062570	-48.625837	-66.518372	167.651381	-66.518372	167.651381	-0.062585	-48.635362
2.600000	-0.063824	-49.540422	-65.965681	166.200835	-65.965681	166.200835	-0.063839	-49.550112
2.650000	-0.065085	-50.453185	-65.428140	164.733260	-65.428140	164.733260	-0.065100	-50.463040
2.700000	-0.066353	-51.364111	-64.904933	163.250756	-64.904933	163.250756	-0.066368	-51.374130
2.750000	-0.067629	-52.273186	-64.395312	161.755150	-64.395312	161.755150	-0.067645	-52.283368
2.800000	-0.068914	-53.180398	-63.898587	160.248030	-63.898587	160.248030	-0.068930	-53.190741
2.850000	-0.070208	-54.085733	-63.414119	158.730786	-63.414119	158.730786	-0.070224	-54.096237
2.900000	-0.071510	-54.989181	-62.941320	157.204636	-62.941320	157.204636	-0.071527	-54.999845
2.950000	-0.072823	-55.890731	-62.479641	155.670650	-62.479641	155.670650	-0.072840	-55.901553
3.000000	-0.074145	-56.790373	-62.028574	154.129768	-62.028574	154.129768	-0.074163	-56.801352
3.050000	-0.075478	-57.688098	-61.587646	152.582821	-61.587646	152.582821	-0.075496	-57.699233
3.100000	-0.076821	-58.583898	-61.156416	151.030543	-61.156416	151.030543	-0.076840	-58.595189
3.150000	-0.078176	-59.477766	-60.734472	149.473584	-60.734472	149.473584	-0.078195	-59.489211
3.200000	-0.079542	-60.369696	-60.321429	147.912518	-60.321429	147.912518	-0.079561	-60.381293
3.250000	-0.080920	-61.259681	-59.916926	146.347857	-59.916926	146.347857	-0.080940	-61.271429
3.300000	-0.082310	-62.147717	-59.520624	144.780054	-59.520624	144.780054	-0.082331	-62.159616
3.350000	-0.083713	-63.033799	-59.132206	143.209513	-59.132206	143.209513	-0.083734	-63.045847
3.400000	-0.085129	-63.917925	-58.751373	141.636592	-58.751373	141.636592	-0.085150	-63.930122
3.450000	-0.086559	-64.800093	-58.377844	140.061612	-58.377844	140.061612	-0.086581	-64.812436
3.500000	-0.088002	-65.680300	-58.011353	138.484855	-58.011353	138.484855	-0.088024	-65.692789
3.550000	-0.089460	-66.558545	-57.651651	136.906577	-57.651651	136.906577	-0.089483	-66.571179
3.600000	-0.090932	-67.434829	-57.298501	135.327003	-57.298501	135.327003	-0.090956	-67.447607
3.650000	-0.092420	-68.309152	-56.951680	133.746334	-56.951680	133.746334	-0.092444	-68.322072
3.700000	-0.093923	-69.181515	-56.610977	132.164749	-56.610977	132.164749	-0.093948	-69.194577
3.750000	-0.095443	-70.051921	-56.276193	130.582408	-56.276193	130.582408	-0.095467	-70.065123
3.800000	-0.096979	-70.920288	-55.946845	128.999433	-55.946845	128.999433	-0.097004	-70.933629
3.850000	-0.098533	-71.786704	-55.623067	127.415982	-55.623067	127.415982	-0.098558	-71.800184
3.900000	-0.100104	-72.651174	-55.304686	125.832165	-55.304686	125.832165	-0.100130	-72.664791
3.950000	-0.101693	-73.513702	-54.991540	124.248081	-54.991540	124.248081	-0.101719	-73.527456
4.000000	-0.103300	-74.374296	-54.683474	122.663820	-54.683474	122.663820	-0.103327	-74.388185
4.050000	-0.104926	-75.232961	-54.380339	121.079458	-54.380339	121.079458	-0.104953	-75.246985
4.100000	-0.106572	-76.089705	-54.081996	119.495067	-54.081996	119.495067	-0.106599	-76.103862
4.150000	-0.108237	-76.944535	-53.788312	117.910709	-53.788312	117.910709	-0.108265	-76.958824
4.200000	-0.109923	-77.797460	-53.499159	116.326439	-53.499159	116.326439	-0.109951	-77.811881
4.250000	-0.111629	-78.648489	-53.214416	114.742306	-53.214416	114.742306	-0.111658	-78.663041
4.300000	-0.113357	-79.497633	-52.933968	113.158357	-52.933968	113.158357	-0.113386	-79.512314
4.350000	-0.115107	-80.344900	-52.657704	111.574630	-52.657704	111.574630	-0.115135	-80.359711
4.400000	-0.116879	-81.190304	-52.385519	109.991162	-52.385519	109.991162	-0.116907	-81.205242
4.450000	-0.118673	-82.033854	-52.117314	108.407986	-52.117314	108.407986	-0.118702	-82.048920
4.500000	-0.120491	-82.875564	-51.852991	106.825130	-51.852991	106.825130	-0.120520	-82.890757
4.550000	-0.122333	-83.715447	-51.592460	105.242623	-51.592460	105.242623	-0.122362	-83.730766
4.600000	-0.124199	-84.553516	-51.335632	103.660489	-51.335632	103.660489	-0.124229	-84.568961
4.650000	-0.126090	-85.389786	-51.082424	102.078752	-51.082424	102.078752	-0.126120	-85.405355
4.700000	-0.128006	-86.224271	-50.832756	100.497434	-50.832756	100.497434	-0.128036	-86.239963
4.750000	-0.129949	-87.056986	-50.586549	98.916557	-50.586549	98.916557	-0.129978	-87.072802
4.800000	-0.131917	-87.887948	-50.343732	97.336141	-50.343732	97.336141	-0.131947	-87.903886
4.850000	-0.133913	-88.717172	-50.104233	95.756206	-50.104233	95.756206	-0.133943	-88.733232
4.900000	-0.135936	-89.544676	-49.867984	94.176771	-49.867984	94.176771	-0.135966	-89.560858
4.950000	-0.137987	-90.370478	-49.634920	92.597857	-49.634920	92.597857	-0.138017	-90.386780
5.000000	-0.140066	-91.194595	-49.404979	91.019483	-49.404979	91.019483	-0.140096	-91.211018
5.050000	-0.142176	-92.016975	-49.177978	89.441695	-49.177978	89.441695	-0.142206	-92.033517
5.100000	-0.144315	-92.837710	-48.953990	87.864490	-48.953990	87.864490	-0.144345	-92.854371
5.150000	-0.146484	-93.656820	-48.732960	86.287890	-48.732960	86.287890	-0.146515	-93.673600
5.200000	-0.148684	-94.474326	-48.514834	84.711917	-48.514834	84.711917	-0.148715	-94.491223
5.250000	-0.150915	-95.290247	-48.299561	83.136594	-48.299561	83.136594	-0.150946	-95.307262
5.300000	-0.153178	-96.104606	-48.087091	81.561945	-48.087091	81.561945	-0.153208	-96.121737
5.350000	-0.155473	-96.917424	-47.877374	79.987995	-47.877374	79.987995	-0.155503	-96.934672
5.400000	-0.157800	-97.728723	-47.670366	78.414771	-47.670366	78.414771	-0.157831	-97.746087
5.450000	-0.160172	-98.538018	-47.465285	76.842575	-47.465285	76.842575	-0.160203	-98.555497
5.500000	-0.162561	-99.346541	-47.263845	75.270781	-47.263845	75.270781	-0.162592	-99.364134
5.550000	-0.164993	-100.153312	-47.064551	73.699990	-47.064551	73.699990	-0.165024	-100.171020
5.600000	-0.167454	-100.958832	-46.868036	72.129915	-46.868036	72.129915	-0.167485	-100.976654
5.650000	-0.169952	-101.762905	-46.673950	70.560768	-46.673950	70.560768	-0.169984	-101.780840
5.700000	-0.172487	-102.565530	-46.482229	68.992551	-46.482229	68.992551	-0.172519	-102.583579
5.750000	-0.175054	-103.366997	-46.293172	67.425170	-46.293172	67.425170	-0.175085	-103.385158
5.800000	-0.177664	-104.166840	-46.106120	65.858960	-46.106120	65.858960	-0.177696	-104.185113
5.850000	-0.180301	-104.965794	-45.921924	64.293473	-45.921924	64.293473	-0.180334	-104.984179
5.900000	-0.182990	-105.762971	-45.739423	62.729430	-45.739423	62.729430	-0.183022	-105.781467
5.950000	-0.185699	-106.559511	-45.559929	61.165972	-45.559929	61.165972	-0.185731	-106.578118
6.000000	-0.188467	-107.354142	-45.381866	59.604265	-45.381866	59.604265	-0.188500	-107.372859
6.050000	-0.191250	-108.148369	-45.206922	58.042978	-45.206922	58.042978	-0.191283	-108.167196
6.100000	-0.194100	-108.940579	-45.033189	56.483784	-45.033189	56.483784	-0.194134	-108.959514
6.150000	-0.196958	-109.732597	-44.862653	54.924815	-44.862653	54.924815	-0.196992	-109.751642
6.200000	-0.199892	-110.522514	-44.693142	53.368316	-44.693142	53.368316	-0.199926	-110.541666
6.250000	-0.202827	-111.312431	-44.526877	51.811817	-44.526877	51.811817	-0.202861	-111.331691
6.300000	-0.205846	-112.100187	-44.361487	50.258199	-44.361487	50.258199	-0.205881	-112.119554
6.350000	-0.208867	-112.887943	-44.199188	48.704581	-44.199188	48.704581	-0.208902	-112.907417
6.400000	-0.211967	-113.673843	-44.037992	47.153777	-44.037992	47.153777	-0.212003	-113.693424
6.450000	-0.215075	-114.459575	-43.879566	45.603229	-43.879566	45.603229	-0.215111	-114.479262
6.500000	-0.218257	-115.243738	-43.722432	44.055396	-43.722432	44.055396	-0.218294	-115.263529
6.550000	-0.221454	-116.027586	-43.567787	42.508105	-43.567787	42.508105	-0.221491	-116.047482
6.600000	-0.224719	-116.810129	-43.414588	40.963397	-43.414588	40.963397	-0.224757	-116.830130
6.650000	-0.228007	-117.592238	-43.263633	39.419550	-43.263633	39.419550	-0.228046	-117.612342
6.700000	-0.231357	-118.373286	-43.114247	37.878118	-43.114247	37.878118	-0.231396	-118.393493
6.750000	-0.234738	-119.153803	-42.966890	36.337893	-42.966890	36.337893	-0.234778	-119.174113
6.800000	-0.238174	-119.933480	-42.821198	34.799883	-42.821198	34.799883	-0.238214	-119.953893
6.850000	-0.241649	-120.712558	-42.677350	33.263454	-42.677350	33.263454	-0.241690	-120.733072
6.900000	-0.245172	-121.490994	-42.535236	31.729003	-42.535236	31.729003	-0.245214	-121.511609
6.950000	-0.248744	-122.268788	-42.394807	30.196531	-42.394807	30.196531	-0.248785	-122.289503
7.000000	-0.252355	-123.046113	-42.256157	28.665770	-42.256157	28.665770	-0.252398	-123.066929
7.050000	-0.256024	-123.822784	-42.119058	27.137403	-42.119058	27.137403	-0.256067	-123.843699
7.100000	-0.259726	-124.599134	-41.983763	25.610450	-41.983763	25.610450	-0.259769	-124.620148
7.150000	-0.263493	-125.374843	-41.849901	24.086322	-41.849901	24.086322	-0.263537	-125.395956
7.200000	-0.267286	-126.150355	-41.717854	22.563283	-41.717854	22.563283	-0.267330	-126.171566
7.250000	-0.271153	-126.925273	-41.587141	21.043509	-41.587141	21.043509	-0.271198	-126.946580
7.300000	-0.275039	-127.700086	-41.458237	19.524476	-41.458237	19.524476	-0.275084	-127.721491
7.350000	-0.279007	-128.474383	-41.330582	18.009151	-41.330582	18.009151	-0.279053	-128.495883
7.400000	-0.282986	-129.248642	-41.204719	16.494202	-41.204719	16.494202	-0.283032	-129.270238
7.450000	-0.287057	-130.022493	-41.080032	14.983396	-41.080032	14.983396	-0.287104	-130.044184
7.500000	-0.291131	-130.796344	-40.957109	13.472590	-40.957109	13.472590	-0.291178	-130.818130
7.550000	-0.295306	-131.569929	-40.835300	11.966352	-40.835300	11.966352	-0.295353	-131.591809
7.600000	-0.299483	-132.343514	-40.715175	10.460114	-40.715175	10.460114	-0.299531	-132.365487
7.650000	-0.303755	-133.117024	-40.596200	8.958083	-40.596200	8.958083	-0.303803	-133.139090
7.700000	-0.308037	-133.890527	-40.478788	7.456433	-40.478788	7.456433	-0.308085	-133.912686
7.750000	-0.312406	-134.664118	-40.362548	5.958602	-40.362548	5.958602	-0.312455	-134.686369
7.800000	-0.316794	-135.437727	-40.247765	4.461534	-40.247765	4.461534	-0.316843	-135.460070
7.850000	-0.321261	-136.211560	-40.134164	2.967875	-40.134164	2.967875	-0.321311	-136.233994
7.900000	-0.325756	-136.985467	-40.021926	1.475353	-40.021926	1.475353	-0.325806	-137.007992
7.950000	-0.330323	-137.759704	-39.910872	-0.014183	-39.910872	-0.014183	-0.330372	-137.782319
8.000000	-0.334926	-138.534105	-39.801097	-1.502227	-39.801097	-1.502227	-0.334975	-138.556810
8.050000	-0.339592	-139.308913	-39.692500	-2.987715	-39.692500	-2.987715	-0.339641	-139.331707
8.100000	-0.344303	-140.084010	-39.585108	-4.471377	-39.585108	-4.471377	-0.344353	-140.106894
8.150000	-0.349070	-140.859557	-39.478881	-5.952913	-39.478881	-5.952913	-0.349119	-140.882530
8.200000	-0.353891	-141.635555	-39.373793	-7.432324	-39.373793	-7.432324	-0.353940	-141.658616
8.250000	-0.358758	-142.412016	-39.269854	-8.910031	-39.269854	-8.910031	-0.358807	-142.435165
8.300000	-0.363689	-143.189124	-39.166995	-10.385351	-39.166995	-10.385351	-0.363738	-143.212362
8.350000	-0.368658	-143.966675	-39.065263	-11.859373	-39.065263	-11.859373	-0.368706	-143.990000
8.400000	-0.373699	-144.745108	-38.964559	-13.330797	-38.964559	-13.330797	-0.373747	-144.768521
8.450000	-0.378770	-145.523928	-38.864960	-14.801303	-38.864960	-14.801303	-0.378818	-145.547428
8.500000	-0.383923	-146.303906	-38.766343	-16.269056	-38.766343	-16.269056	-0.383969	-146.327494
8.550000	-0.389096	-147.084180	-38.668804	-17.736240	-38.668804	-17.736240	-0.389142	-147.107854
8.600000	-0.394359	-147.865926	-38.572207	-19.200579	-38.572207	-19.200579	-0.394405	-147.889688
8.650000	-0.399635	-148.647840	-38.476660	-20.664656	-38.476660	-20.664656	-0.399680	-148.671688
8.700000	-0.405010	-149.431584	-38.382023	-22.125867	-38.382023	-22.125867	-0.405054	-149.455519
8.750000	-0.410389	-150.215329	-38.288406	-23.587077	-38.288406	-23.587077	-0.410432	-150.239351
8.800000	-0.415876	-151.001306	-38.195672	-25.045477	-38.195672	-25.045477	-0.415918	-151.025415
8.850000	-0.421366	-151.787282	-38.103918	-26.503876	-38.103918	-26.503876	-0.421408	-151.811478
8.900000	-0.426956	-152.575524	-38.013043	-27.960013	-38.013043	-27.960013	-0.426996	-152.599808
8.950000	-0.432558	-153.363972	-37.923103	-29.415945	-37.923103	-29.415945	-0.432597	-153.388343
9.000000	-0.438250	-154.154683	-37.834038	-30.870129	-37.834038	-30.870129	-0.438289	-154.179142
9.050000	-0.443963	-154.945847	-37.745868	-32.323964	-37.745868	-32.323964	-0.444001	-154.970393
9.100000	-0.449758	-155.739235	-37.658568	-33.776521	-37.658568	-33.776521	-0.449795	-155.763870
9.150000	-0.455583	-156.533365	-37.572131	-35.228653	-37.572131	-35.228653	-0.455619	-156.558088
9.200000	-0.461480	-157.329642	-37.486556	-36.679927	-37.486556	-36.679927	-0.461515	-157.354455
9.250000	-0.467416	-158.126993	-37.401822	-38.130773	-37.401822	-38.130773	-0.467450	-158.151895
9.300000	-0.473415	-158.926376	-37.317940	-39.581122	-37.317940	-39.581122	-0.473448	-158.951368
9.350000	-0.479461	-159.727209	-37.234885	-41.031117	-37.234885	-41.031117	-0.479492	-159.752292
9.400000	-0.485562	-160.529918	-37.152670	-42.480911	-37.152670	-42.480911	-0.485592	-160.555092
9.450000	-0.491717	-161.334501	-37.071278	-43.930507	-37.071278	-43.930507	-0.491746	-161.359767
9.500000	-0.497918	-162.140760	-36.990708	-45.380129	-36.990708	-45.380129	-0.497947	-162.166119
9.550000	-0.504182	-162.949365	-36.910971	-46.829789	-36.910971	-46.829789	-0.504210	-162.974817
9.600000	-0.510483	-163.759404	-36.832034	-48.279630	-36.832034	-48.279630	-0.510510	-163.784950
9.650000	-0.516854	-164.572310	-36.753953	-49.729829	-36.753953	-49.729829	-0.516880	-164.597952
9.700000	-0.523254	-165.386362	-36.676640	-51.180283	-36.676640	-51.180283	-0.523280	-165.412100
9.750000	-0.529731	-166.203854	-36.600224	-52.631500	-36.600224	-52.631500	-0.529757	-166.229689
9.800000	-0.536229	-167.022158	-36.524536	-54.082966	-36.524536	-54.082966	-0.536254	-167.048090
9.850000	-0.542810	-167.844525	-36.449804	-55.535679	-36.449804	-55.535679	-0.542836	-167.870557
9.900000	-0.549404	-168.667324	-36.375748	-56.988557	-36.375748	-56.988557	-0.549430	-168.693456
9.950000	-0.556088	-169.494864	-36.302728	-58.443242	-36.302728	-58.443242	-0.556114	-169.521098
10.000000	-0.562777	-170.322404	-36.230317	-59.897927	-36.230317	-59.897927	-0.562804	-170.348740
