! freq	dB(S11)	phase(S11)	dB(S12)	phase(S12)	
!     	dB(S21)	phase(S21)	dB(S22)	phase(S22)	
!S-par simulation data
#  GHz  S  DB  R 50
0.000000	-0.000000	0.000000	-302.460296	0.000000	-302.460296	0.000000	0.000000	0.000000
0.050000	-0.001540	-3.150795	-87.226492	87.622279	-87.226492	87.622279	-0.000629	-0.846859
0.100000	-0.005290	-6.305538	-81.221923	85.868174	-81.221923	85.868174	-0.001968	-1.688372
0.150000	-0.010005	-9.461237	-77.718448	83.978506	-77.718448	83.978506	-0.003315	-2.525039
0.200000	-0.015027	-12.613647	-75.244397	82.056213	-75.244397	82.056213	-0.004454	-3.359160
0.250000	-0.020066	-15.760796	-73.337875	80.123720	-73.337875	80.123720	-0.005421	-4.192181
0.300000	-0.024972	-18.902490	-71.793495	78.189648	-71.793495	78.189648	-0.006294	-5.024661
0.350000	-0.029672	-22.039596	-70.501162	76.258952	-70.501162	76.258952	-0.007139	-5.856756
0.400000	-0.034150	-25.173118	-69.394905	74.334927	-69.394905	74.334927	-0.007996	-6.688465
0.450000	-0.038409	-28.303852	-68.432825	72.420640	-68.432825	72.420640	-0.008892	-7.519726
0.500000	-0.042466	-31.432451	-67.587394	70.519845	-67.587394	70.519845	-0.009855	-8.350458
0.550000	-0.046373	-34.559636	-66.836405	68.634342	-66.836405	68.634342	-0.010900	-9.180691
0.600000	-0.050164	-37.685804	-66.164637	66.766597	-66.164637	66.766597	-0.012040	-10.010488
0.650000	-0.053867	-40.811241	-65.561499	64.920121	-65.561499	64.920121	-0.013285	-10.839995
0.700000	-0.057515	-43.936221	-65.017984	63.097733	-65.017984	63.097733	-0.014616	-11.669476
0.750000	-0.061133	-47.060964	-64.525955	61.300888	-64.525955	61.300888	-0.015975	-12.499114
0.800000	-0.064739	-50.185632	-64.079625	59.531997	-64.079625	59.531997	-0.017292	-13.328856
0.850000	-0.068349	-53.310397	-63.675787	57.796081	-63.675787	57.796081	-0.018495	-14.158291
0.900000	-0.071974	-56.435423	-63.309255	56.094123	-63.309255	56.094123	-0.019578	-14.986882
0.950000	-0.075620	-59.560857	-62.976371	54.428183	-62.976371	54.428183	-0.020577	-15.814287
1.000000	-0.079293	-62.686870	-62.674566	52.801484	-62.674566	52.801484	-0.021529	-16.640339
1.050000	-0.082998	-65.813704	-62.402614	51.219908	-62.402614	51.219908	-0.022472	-17.464964
1.100000	-0.086733	-68.941501	-62.156860	49.683304	-62.156860	49.683304	-0.023424	-18.288348
1.150000	-0.090498	-72.070461	-61.935434	48.194721	-61.935434	48.194721	-0.024393	-19.110566
1.200000	-0.094292	-75.200871	-61.737427	46.759784	-61.737427	46.759784	-0.025381	-19.931631
1.250000	-0.098113	-78.333011	-61.561355	45.382767	-61.561355	45.382767	-0.026386	-20.751584
1.300000	-0.101955	-81.467061	-61.404965	44.064746	-61.404965	44.064746	-0.027406	-21.570502
1.350000	-0.105816	-84.603286	-61.266973	42.809514	-61.266973	42.809514	-0.028437	-22.388397
1.400000	-0.109692	-87.742175	-61.147238	41.626406	-61.147238	41.626406	-0.029477	-23.205199
1.450000	-0.113578	-90.883927	-61.043646	40.516532	-61.043646	40.516532	-0.030524	-24.020962
1.500000	-0.117468	-94.028804	-60.954736	39.483011	-60.954736	39.483011	-0.031576	-24.835701
1.550000	-0.121359	-97.177171	-60.879465	38.531347	-60.879465	38.531347	-0.032631	-25.649397
1.600000	-0.125244	-100.329678	-60.817338	37.672982	-60.817338	37.672982	-0.033688	-26.461965
1.650000	-0.129120	-103.486390	-60.766020	36.906026	-60.766020	36.906026	-0.034746	-27.273478
1.700000	-0.132983	-106.647690	-60.724215	36.235773	-60.724215	36.235773	-0.035804	-28.083918
1.750000	-0.136827	-109.814100	-60.690624	35.669836	-60.690624	35.669836	-0.036862	-28.893244
1.800000	-0.140650	-112.985975	-60.663475	35.211871	-60.663475	35.211871	-0.037920	-29.701450
1.850000	-0.144448	-116.163719	-60.640945	34.865944	-60.640945	34.865944	-0.038978	-30.508523
1.900000	-0.148217	-119.347815	-60.621059	34.636619	-60.621059	34.636619	-0.040035	-31.314435
1.950000	-0.151956	-122.538686	-60.601597	34.526124	-60.601597	34.526124	-0.041092	-32.119171
2.000000	-0.155662	-125.736674	-60.580228	34.533880	-60.580228	34.533880	-0.042148	-32.922727
2.050000	-0.159334	-128.942185	-60.554519	34.658769	-60.554519	34.658769	-0.043205	-33.725089
2.100000	-0.162973	-132.155621	-60.521945	34.897526	-60.521945	34.897526	-0.044262	-34.526240
2.150000	-0.166576	-135.377376	-60.479942	35.244418	-60.479942	35.244418	-0.045319	-35.326165
2.200000	-0.170147	-138.607835	-60.425982	35.690996	-60.425982	35.690996	-0.046378	-36.124848
2.250000	-0.173684	-141.847371	-60.357660	36.225957	-60.357660	36.225957	-0.047438	-36.922275
2.300000	-0.177192	-145.096343	-60.272793	36.835161	-60.272793	36.835161	-0.048499	-37.718429
2.350000	-0.180671	-148.355094	-60.169527	37.501838	-60.169527	37.501838	-0.049563	-38.513296
2.400000	-0.184125	-151.623947	-60.046430	38.206985	-60.046430	38.206985	-0.050630	-39.306861
2.450000	-0.187557	-154.903203	-59.902576	38.929967	-59.902576	38.929967	-0.051699	-40.099108
2.500000	-0.190972	-158.193140	-59.737599	39.649259	-59.737599	39.649259	-0.052772	-40.890022
2.550000	-0.194371	-161.494249	-59.551179	40.342250	-59.551179	40.342250	-0.053849	-41.679561
2.600000	-0.197760	-164.806515	-59.344650	40.988328	-59.344650	40.988328	-0.054931	-42.467738
2.650000	-0.201141	-168.130120	-59.119340	41.568456	-59.119340	41.568456	-0.056017	-43.254540
2.700000	-0.204518	-171.465208	-58.877007	42.065865	-58.877007	42.065865	-0.057109	-44.039953
2.750000	-0.207894	-174.811880	-58.619743	42.466490	-58.619743	42.466490	-0.058206	-44.823964
2.800000	-0.211269	-178.170193	-58.349864	42.759203	-58.349864	42.759203	-0.059310	-45.606560
2.850000	-0.214644	178.459847	-58.069809	42.935856	-58.069809	42.935856	-0.060420	-46.387729
2.900000	-0.218019	175.078287	-57.782043	42.991166	-57.782043	42.991166	-0.061537	-47.167459
2.950000	-0.221393	171.685233	-57.488981	42.922473	-57.488981	42.922473	-0.062662	-47.945737
3.000000	-0.224763	168.280854	-57.192925	42.729423	-57.192925	42.729423	-0.063795	-48.722552
3.050000	-0.228126	164.865383	-56.896020	42.413616	-56.896020	42.413616	-0.064936	-49.497894
3.100000	-0.231477	161.439122	-56.600230	41.978238	-56.600230	41.978238	-0.066086	-50.271752
3.150000	-0.234809	158.002340	-56.307265	41.426532	-56.307265	41.426532	-0.067245	-51.044099
3.200000	-0.238118	154.555503	-56.018750	40.764069	-56.018750	40.764069	-0.068414	-51.814926
3.250000	-0.241395	151.099256	-55.736129	39.998161	-55.736129	39.998161	-0.069593	-52.584239
3.300000	-0.244635	147.634204	-55.460584	39.135284	-55.460584	39.135284	-0.070782	-53.352029
3.350000	-0.247829	144.161033	-55.193130	38.182149	-55.193130	38.182149	-0.071982	-54.118289
3.400000	-0.250971	140.680502	-54.934626	37.145562	-54.934626	37.145562	-0.073193	-54.883011
3.450000	-0.254054	137.193445	-54.685797	36.032317	-54.685797	36.032317	-0.074416	-55.646187
3.500000	-0.257070	133.700770	-54.447247	34.849112	-54.447247	34.849112	-0.075651	-56.407809
3.550000	-0.260014	130.203450	-54.219476	33.602495	-54.219476	33.602495	-0.076898	-57.167873
3.600000	-0.262880	126.702529	-54.002895	32.298826	-54.002895	32.298826	-0.078159	-57.926371
3.650000	-0.265664	123.199109	-53.797834	30.944255	-53.797834	30.944255	-0.079432	-58.683298
3.700000	-0.268360	119.694351	-53.604562	29.544711	-53.604562	29.544711	-0.080719	-59.438648
3.750000	-0.270967	116.189466	-53.423291	28.105901	-53.423291	28.105901	-0.082020	-60.192418
3.800000	-0.273479	112.685767	-53.254389	26.632706	-53.254389	26.632706	-0.083335	-60.944568
3.850000	-0.275896	109.184560	-53.097807	25.131256	-53.097807	25.131256	-0.084665	-61.695130
3.900000	-0.278218	105.687176	-52.953640	23.606642	-52.953640	23.606642	-0.086011	-62.444099
3.950000	-0.280445	102.194979	-52.821957	22.063789	-52.821957	22.063789	-0.087372	-63.191473
4.000000	-0.282576	98.709347	-52.702807	20.507480	-52.702807	20.507480	-0.088749	-63.937250
4.050000	-0.284612	95.231674	-52.596226	18.942380	-52.596226	18.942380	-0.090142	-64.681427
4.100000	-0.286557	91.763360	-52.502236	17.373066	-52.502236	17.373066	-0.091552	-65.424004
4.150000	-0.288412	88.305801	-52.420852	15.804051	-52.420852	15.804051	-0.092979	-66.164979
4.200000	-0.290179	84.860389	-52.352081	14.239817	-52.352081	14.239817	-0.094424	-66.904351
4.250000	-0.291864	81.428496	-52.295925	12.684845	-52.295925	12.684845	-0.095887	-67.642121
4.300000	-0.293468	78.011477	-52.252383	11.143648	-52.252383	11.143648	-0.097368	-68.378289
4.350000	-0.294997	74.610655	-52.221447	9.620809	-52.221447	9.620809	-0.098868	-69.112855
4.400000	-0.296456	71.227525	-52.203245	8.121317	-52.203245	8.121317	-0.100387	-69.845804
4.450000	-0.297848	67.863378	-52.197757	6.650171	-52.197757	6.650171	-0.101927	-70.577137
4.500000	-0.299180	64.519226	-52.204820	5.212146	-52.204820	5.212146	-0.103486	-71.306873
4.550000	-0.300459	61.196219	-52.224393	3.812497	-52.224393	3.812497	-0.105065	-72.035014
4.600000	-0.301689	57.895451	-52.256419	2.456751	-52.256419	2.456751	-0.106666	-72.761565
4.650000	-0.302877	54.617961	-52.300819	1.150755	-52.300819	1.150755	-0.108288	-73.486527
4.700000	-0.304030	51.364721	-52.357486	-0.099278	-52.357486	-0.099278	-0.109931	-74.209905
4.750000	-0.305153	48.136643	-52.426272	-1.286723	-52.426272	-1.286723	-0.111597	-74.931702
4.800000	-0.306254	44.934567	-52.506981	-2.404491	-52.506981	-2.404491	-0.113285	-75.651923
4.850000	-0.307338	41.759269	-52.599351	-3.444992	-52.599351	-3.444992	-0.114997	-76.370573
4.900000	-0.308413	38.611451	-52.703038	-4.400092	-52.703038	-4.400092	-0.116731	-77.087658
4.950000	-0.309485	35.491747	-52.817598	-5.261082	-52.817598	-5.261082	-0.118490	-77.803181
5.000000	-0.310561	32.400720	-52.942456	-6.018670	-52.942456	-6.018670	-0.120273	-78.517151
5.050000	-0.311648	29.339505	-53.077019	-6.660277	-53.077019	-6.660277	-0.122081	-79.229539
5.100000	-0.312753	26.307898	-53.220161	-7.177701	-53.220161	-7.177701	-0.123915	-79.940385
5.150000	-0.313881	23.306246	-53.370709	-7.560056	-53.370709	-7.560056	-0.125774	-80.649698
5.200000	-0.315040	20.334833	-53.527212	-7.796176	-53.527212	-7.796176	-0.127659	-81.357484
5.250000	-0.316235	17.393875	-53.687892	-7.874856	-53.687892	-7.874856	-0.129570	-82.063751
5.300000	-0.317473	14.483526	-53.850598	-7.785202	-53.850598	-7.785202	-0.131509	-82.768508
5.350000	-0.318760	11.603878	-54.012761	-7.517112	-54.012761	-7.517112	-0.133475	-83.471763
5.400000	-0.320103	8.754965	-54.171357	-7.061906	-54.171357	-7.061906	-0.135469	-84.173524
5.450000	-0.321505	5.936766	-54.322899	-6.413108	-54.322899	-6.413108	-0.137491	-84.873801
5.500000	-0.322975	3.149204	-54.463445	-5.567376	-54.463445	-5.567376	-0.139542	-85.572603
5.550000	-0.324516	0.392155	-54.588663	-4.525526	-54.588663	-4.525526	-0.141623	-86.269941
5.600000	-0.326134	-2.334556	-54.693940	-3.293576	-54.693940	-3.293576	-0.143733	-86.965823
5.650000	-0.327836	-5.030823	-54.774233	-1.881941	-54.774233	-1.881941	-0.145873	-87.660246
5.700000	-0.329627	-7.696917	-54.824837	-0.310402	-54.824837	-0.310402	-0.148044	-88.353219
5.750000	-0.331510	-10.333470	-54.841906	1.392874	-54.841906	1.392874	-0.150246	-89.044771
5.800000	-0.333491	-12.940820	-54.822069	3.195404	-54.822069	3.195404	-0.152480	-89.734912
5.850000	-0.335582	-15.516875	-54.759380	5.060980	-54.759380	5.060980	-0.154748	-90.423534
5.900000	-0.337770	-18.067314	-54.660350	6.943347	-54.660350	6.943347	-0.157045	-91.110905
5.950000	-0.340069	-20.589753	-54.521279	8.807215	-54.521279	8.807215	-0.159375	-91.796901
6.000000	-0.342483	-23.084650	-54.343656	10.613420	-54.343656	10.613420	-0.161739	-92.481535
6.050000	-0.345015	-25.552490	-54.130114	12.326667	-54.130114	12.326667	-0.164136	-93.164819
6.100000	-0.347670	-27.993775	-53.884184	13.917193	-53.884184	13.917193	-0.166567	-93.846767
6.150000	-0.350451	-30.409032	-53.609998	15.361762	-53.609998	15.361762	-0.169032	-94.527392
6.200000	-0.353362	-32.798803	-53.311989	16.643944	-53.311989	16.643944	-0.171532	-95.206707
6.250000	-0.356408	-35.163647	-52.994618	17.753804	-52.994618	17.753804	-0.174068	-95.884727
6.300000	-0.359596	-37.503108	-52.661119	18.679523	-52.661119	18.679523	-0.176641	-96.561412
6.350000	-0.362926	-39.818857	-52.316736	19.429728	-52.316736	19.429728	-0.179250	-97.236831
6.400000	-0.366400	-42.111496	-51.964966	20.009059	-51.964966	20.009059	-0.181895	-97.911000
6.450000	-0.370021	-44.381634	-51.608841	20.424686	-51.608841	20.424686	-0.184578	-98.583934
6.500000	-0.373793	-46.629892	-51.250931	20.685464	-51.250931	20.685464	-0.187298	-99.255648
6.550000	-0.377719	-48.856897	-50.893371	20.801239	-50.893371	20.801239	-0.190055	-99.926157
6.600000	-0.381802	-51.063284	-50.537906	20.782314	-50.537906	20.782314	-0.192851	-100.595479
6.650000	-0.386045	-53.249694	-50.185933	20.639045	-50.185933	20.639045	-0.195685	-101.263629
6.700000	-0.390451	-55.416774	-49.838551	20.381556	-49.838551	20.381556	-0.198558	-101.930623
6.750000	-0.395023	-57.565176	-49.496612	20.019547	-49.496612	20.019547	-0.201470	-102.596478
6.800000	-0.399764	-59.695556	-49.160753	19.562175	-49.160753	19.562175	-0.204422	-103.261212
6.850000	-0.404678	-61.808576	-48.831445	19.017985	-48.831445	19.017985	-0.207414	-103.924841
6.900000	-0.409767	-63.904900	-48.509017	18.394885	-48.509017	18.394885	-0.210446	-104.587382
6.950000	-0.415034	-65.985196	-48.193686	17.700144	-48.193686	17.700144	-0.213518	-105.248855
7.000000	-0.420483	-68.050136	-47.885582	16.940412	-47.885582	16.940412	-0.216632	-105.909276
7.050000	-0.426118	-70.100395	-47.584766	16.121754	-47.584766	16.121754	-0.219787	-106.568664
7.100000	-0.431940	-72.136653	-47.291247	15.249678	-47.291247	15.249678	-0.222984	-107.227038
7.150000	-0.437954	-74.159593	-47.004993	14.329188	-47.004993	14.329188	-0.226222	-107.884417
7.200000	-0.444164	-76.169900	-46.725945	13.364818	-46.725945	13.364818	-0.229503	-108.540819
7.250000	-0.450572	-78.168265	-46.454024	12.360676	-46.454024	12.360676	-0.232826	-109.196264
7.300000	-0.457184	-80.155384	-46.189141	11.320489	-46.189141	11.320489	-0.236193	-109.850772
7.350000	-0.464003	-82.131957	-45.931201	10.247635	-45.931201	10.247635	-0.239602	-110.504363
7.400000	-0.471033	-84.098689	-45.680108	9.145188	-45.680108	9.145188	-0.243055	-111.157057
7.450000	-0.478279	-86.056293	-45.435770	8.015947	-45.435770	8.015947	-0.246551	-111.808875
7.500000	-0.485745	-88.005486	-45.198105	6.862471	-45.198105	6.862471	-0.250092	-112.459837
7.550000	-0.493448	-89.946697	-44.967067	5.686260	-44.967067	5.686260	-0.253678	-113.109931
7.600000	-0.501382	-91.881026	-44.742599	4.490518	-44.742599	4.490518	-0.257310	-113.759214
7.650000	-0.509554	-93.809220	-44.524664	3.277245	-44.524664	3.277245	-0.260986	-114.407709
7.700000	-0.517971	-95.732035	-44.313241	2.048324	-44.313241	2.048324	-0.264707	-115.055438
7.750000	-0.526639	-97.650241	-44.108337	0.805544	-44.108337	0.805544	-0.268474	-115.702424
7.800000	-0.535566	-99.564620	-43.909981	-0.449373	-43.909981	-0.449373	-0.272286	-116.348690
7.850000	-0.544761	-101.475970	-43.718232	-1.714744	-43.718232	-1.714744	-0.276144	-116.994261
7.900000	-0.554232	-103.385106	-43.533181	-2.988897	-43.533181	-2.988897	-0.280049	-117.639160
7.950000	-0.563991	-105.292862	-43.354953	-4.270144	-43.354953	-4.270144	-0.284001	-118.283412
8.000000	-0.574047	-107.200095	-43.183714	-5.556743	-43.183714	-5.556743	-0.287999	-118.927043
8.050000	-0.584414	-109.107684	-43.019671	-6.846868	-43.019671	-6.846868	-0.292045	-119.570079
8.100000	-0.595106	-111.016536	-42.863084	-8.138560	-42.863084	-8.138560	-0.296139	-120.212547
8.150000	-0.606138	-112.927588	-42.714264	-9.429686	-42.714264	-9.429686	-0.300281	-120.854473
8.200000	-0.617528	-114.841812	-42.573586	-10.717878	-42.573586	-10.717878	-0.304472	-121.495888
8.250000	-0.629296	-116.760219	-42.441499	-12.000462	-42.441499	-12.000462	-0.308712	-122.136820
8.300000	-0.641464	-118.683864	-42.318530	-13.274378	-42.318530	-13.274378	-0.313002	-122.777301
8.350000	-0.654035	-120.613436	-42.204804	-14.537001	-42.204804	-14.537001	-0.317340	-123.417382
8.400000	-0.667074	-122.550662	-42.101760	-15.783075	-42.101760	-15.783075	-0.321731	-124.057064
8.450000	-0.680624	-124.497023	-42.010520	-17.006786	-42.010520	-17.006786	-0.326176	-124.696380
8.500000	-0.694710	-126.453537	-41.931753	-18.202773	-41.931753	-18.202773	-0.330676	-125.335384
8.550000	-0.709331	-128.420618	-41.865553	-19.366803	-41.865553	-19.366803	-0.335226	-125.974137
8.600000	-0.724662	-130.402253	-41.816138	-20.481524	-41.816138	-20.481524	-0.339838	-126.612636
8.650000	-0.740650	-132.397544	-41.782338	-21.544364	-41.782338	-21.544364	-0.344505	-127.250969
8.700000	-0.757418	-134.409192	-41.767185	-22.537678	-41.767185	-22.537678	-0.349231	-127.889176
8.750000	-0.775112	-136.440217	-41.774264	-23.437798	-41.774264	-23.437798	-0.354023	-128.527310
8.800000	-0.793734	-138.490274	-41.803472	-24.234027	-41.803472	-24.234027	-0.358876	-129.165440
8.850000	-0.813589	-140.565127	-41.862013	-24.874622	-41.862013	-24.874622	-0.363803	-129.803642
8.900000	-0.834753	-142.665298	-41.951167	-25.331114	-41.951167	-25.331114	-0.368801	-130.441994
8.950000	-0.857412	-144.793103	-42.074408	-25.554439	-42.074408	-25.554439	-0.373876	-131.080578
9.000000	-0.882136	-146.957148	-42.242485	-25.414756	-42.242485	-25.414756	-0.379045	-131.719561
9.050000	-0.908989	-149.155959	-42.453737	-24.858594	-42.453737	-24.858594	-0.384304	-132.359006
9.100000	-0.938749	-151.398961	-42.716502	-23.664795	-42.716502	-23.664795	-0.389676	-132.999132
9.150000	-0.972163	-153.692860	-43.030349	-21.576993	-43.030349	-21.576993	-0.395178	-133.640143
9.200000	-1.009817	-156.040372	-43.381878	-18.352964	-43.381878	-18.352964	-0.400820	-134.282184
9.250000	-1.054208	-158.464356	-43.729723	-13.182535	-43.729723	-13.182535	-0.406670	-134.925826
9.300000	-1.106539	-160.967511	-43.979361	-5.750009	-43.979361	-5.750009	-0.412751	-135.571250
9.350000	-1.170101	-163.568966	-43.942550	4.375111	-43.942550	4.375111	-0.419145	-136.219010
9.400000	-1.251015	-166.300701	-43.304135	16.868553	-43.304135	16.868553	-0.426006	-136.870005
9.450000	-1.358899	-169.198427	-41.818327	29.468734	-41.818327	29.468734	-0.433573	-137.525270
9.500000	-1.509412	-172.301090	-39.573400	39.496206	-39.573400	39.496206	-0.442233	-138.185899
9.550000	-1.734073	-175.656983	-36.800755	45.391125	-36.800755	45.391125	-0.452755	-138.853148
9.600000	-2.099908	-179.266688	-33.682416	46.529394	-33.682416	46.529394	-0.466706	-139.526827
9.650000	-2.748558	177.216203	-30.340299	42.233346	-30.340299	42.233346	-0.487072	-140.198239
9.700000	-3.928112	175.931546	-26.959056	30.671000	-26.959056	30.671000	-0.518003	-140.824664
9.750000	-5.228783	-175.717636	-24.208731	9.705939	-24.208731	9.705939	-0.553188	-141.292914
9.800000	-4.171093	-163.369047	-23.247453	-16.697080	-23.247453	-16.697080	-0.557472	-141.623224
9.850000	-2.493054	-164.538661	-23.967537	-38.150097	-23.967537	-38.150097	-0.533347	-142.108616
9.900000	-1.679367	-170.038072	-25.190674	-51.892631	-25.190674	-51.892631	-0.515061	-142.744974
9.950000	-1.332500	-175.299905	-26.331347	-60.608611	-26.331347	-60.608611	-0.507184	-143.421840
10.000000	-1.179535	-179.882583	-27.276425	-66.536850	-27.276425	-66.536850	-0.505462	-144.100571
