! freq	dB(S11)	phase(S11)	dB(S12)	phase(S12)	
!     	dB(S21)	phase(S21)	dB(S22)	phase(S22)	
!S-par simulation data
#  GHz  S  DB  R 50
0.000000	-0.000000	0.000000	-351.149358	180.000000	-351.149358	180.000000	-0.000000	-0.000000
0.050000	-0.002427	-1.252793	-102.876437	87.809568	-102.876437	87.809568	-0.001097	-1.514922
0.100000	-0.004898	-2.483876	-96.973420	86.706021	-96.973420	86.706021	-0.003483	-3.020567
0.150000	-0.006272	-3.711175	-93.540816	85.617917	-93.540816	85.617917	-0.005911	-4.517442
0.200000	-0.007277	-4.938684	-91.135542	84.489991	-91.135542	84.489991	-0.008008	-6.009892
0.250000	-0.008201	-6.166417	-89.310194	83.350871	-89.310194	83.350871	-0.009794	-7.500208
0.300000	-0.009159	-7.393960	-87.866290	82.226556	-87.866290	82.226556	-0.011391	-8.989427
0.350000	-0.010187	-8.621020	-86.687287	81.132763	-86.687287	81.132763	-0.012916	-10.477971
0.400000	-0.011300	-9.847342	-85.712595	80.085431	-85.712595	80.085431	-0.014424	-11.965790
0.450000	-0.012500	-11.072734	-84.901365	79.099410	-84.901365	79.099410	-0.015955	-13.452767
0.500000	-0.013788	-12.296931	-84.232994	78.199214	-84.232994	78.199214	-0.017532	-14.938637
0.550000	-0.015153	-13.519868	-83.683666	77.399916	-83.683666	77.399916	-0.019163	-16.423283
0.600000	-0.016584	-14.741472	-83.238284	76.721154	-83.238284	76.721154	-0.020850	-17.906573
0.650000	-0.018072	-15.961658	-82.887386	76.188807	-82.887386	76.188807	-0.022590	-19.388358
0.700000	-0.019608	-17.180351	-82.624246	75.834435	-82.624246	75.834435	-0.024381	-20.868498
0.750000	-0.021185	-18.397491	-82.444112	75.697029	-82.444112	75.697029	-0.026217	-22.346865
0.800000	-0.022795	-19.612981	-82.345475	75.833415	-82.345475	75.833415	-0.028094	-23.823290
0.850000	-0.024431	-20.826658	-82.330637	76.337216	-82.330637	76.337216	-0.030008	-25.297513
0.900000	-0.026085	-22.038631	-82.389515	77.266202	-82.389515	77.266202	-0.031949	-26.769610
0.950000	-0.027751	-23.248863	-82.517905	78.725647	-82.517905	78.725647	-0.033913	-28.239489
1.000000	-0.029423	-24.457323	-82.708623	80.847307	-82.708623	80.847307	-0.035892	-29.707063
1.050000	-0.031098	-25.663981	-82.948782	83.791299	-82.948782	83.791299	-0.037884	-31.172255
1.100000	-0.032771	-26.868810	-83.215727	87.740516	-83.215727	87.740516	-0.039883	-32.634991
1.150000	-0.034440	-28.071644	-83.466102	92.975234	-83.466102	92.975234	-0.041885	-34.095012
1.200000	-0.036102	-29.272513	-83.632016	99.579812	-83.632016	99.579812	-0.043886	-35.552328
1.250000	-0.037754	-30.471473	-83.634793	107.411655	-83.634793	107.411655	-0.045883	-37.006991
1.300000	-0.039397	-31.668500	-83.396431	116.101693	-83.396431	116.101693	-0.047874	-38.458949
1.350000	-0.041028	-32.863569	-82.872074	125.019830	-82.872074	125.019830	-0.049855	-39.908156
1.400000	-0.042646	-34.056659	-82.073155	133.454329	-82.073155	133.454329	-0.051827	-41.354568
1.450000	-0.044253	-35.247733	-81.059014	140.843552	-81.059014	140.843552	-0.053786	-42.798126
1.500000	-0.045846	-36.436555	-79.887863	146.784957	-79.887863	146.784957	-0.055730	-44.238492
1.550000	-0.047426	-37.623323	-78.664998	151.443666	-78.664998	151.443666	-0.057661	-45.675947
1.600000	-0.048995	-38.808013	-77.439079	154.973191	-77.439079	154.973191	-0.059578	-47.110461
1.650000	-0.050552	-39.990604	-76.239256	157.559534	-76.239256	157.559534	-0.061479	-48.542007
1.700000	-0.052098	-41.170947	-75.075097	159.342779	-75.075097	159.342779	-0.063366	-49.970385
1.750000	-0.053634	-42.349171	-73.962146	160.530172	-73.962146	160.530172	-0.065239	-51.395788
1.800000	-0.055162	-43.525193	-72.899065	161.222143	-72.899065	161.222143	-0.067097	-52.818111
1.850000	-0.056680	-44.698990	-71.885196	161.516580	-71.885196	161.516580	-0.068942	-54.237335
1.900000	-0.058192	-45.870540	-70.918434	161.489897	-70.918434	161.489897	-0.070775	-55.653448
1.950000	-0.059697	-47.039823	-69.996023	161.201731	-69.996023	161.201731	-0.072597	-57.066437
2.000000	-0.061197	-48.206819	-69.114997	160.698833	-69.114997	160.698833	-0.074407	-58.476296
2.050000	-0.062693	-49.371508	-68.272415	160.018096	-68.272415	160.018096	-0.076208	-59.883016
2.100000	-0.064185	-50.533873	-67.465479	159.188876	-67.465479	159.188876	-0.078001	-61.286596
2.150000	-0.065675	-51.693896	-66.691589	158.234723	-66.691589	158.234723	-0.079787	-62.687034
2.200000	-0.067164	-52.851562	-65.948357	157.174698	-65.948357	157.174698	-0.081567	-64.084332
2.250000	-0.068653	-54.006857	-65.233609	156.024357	-65.233609	156.024357	-0.083343	-65.478495
2.300000	-0.070143	-55.159765	-64.545371	154.796497	-64.545371	154.796497	-0.085115	-66.869529
2.350000	-0.071635	-56.310277	-63.881855	153.501732	-63.881855	153.501732	-0.086886	-68.257444
2.400000	-0.073129	-57.458381	-63.241439	152.148924	-63.241439	152.148924	-0.088656	-69.642252
2.450000	-0.074628	-58.604067	-62.622655	150.745528	-62.622655	150.745528	-0.090428	-71.023968
2.500000	-0.076131	-59.747329	-62.024166	149.297857	-62.024166	149.297857	-0.092202	-72.402609
2.550000	-0.077640	-60.888054	-61.443914	147.809807	-61.443914	147.809807	-0.093979	-73.778064
2.600000	-0.079155	-62.026343	-60.881745	146.287814	-60.881745	146.287814	-0.095762	-75.150490
2.650000	-0.080678	-63.162193	-60.336635	144.735766	-60.336635	144.735766	-0.097552	-76.519912
2.700000	-0.082209	-64.295604	-59.807648	143.157038	-59.807648	143.157038	-0.099349	-77.886358
2.750000	-0.083749	-65.426575	-59.293923	141.554567	-59.293923	141.554567	-0.101156	-79.249859
2.800000	-0.085299	-66.555108	-58.794673	139.930923	-58.794673	139.930923	-0.102973	-80.610449
2.850000	-0.086860	-67.681208	-58.309169	138.288361	-58.309169	138.288361	-0.104802	-81.968164
2.900000	-0.088432	-68.804880	-57.836741	136.628867	-57.836741	136.628867	-0.106643	-83.323042
2.950000	-0.090017	-69.926130	-57.376768	134.954199	-57.376768	134.954199	-0.108499	-84.675124
3.000000	-0.091614	-71.044968	-56.928674	133.265914	-56.928674	133.265914	-0.110369	-86.024454
3.050000	-0.093225	-72.161404	-56.491926	131.565397	-56.491926	131.565397	-0.112257	-87.371079
3.100000	-0.094850	-73.275451	-56.066027	129.853883	-56.066027	129.853883	-0.114161	-88.715047
3.150000	-0.096490	-74.387121	-55.650512	128.132476	-55.650512	128.132476	-0.116084	-90.056410
3.200000	-0.098146	-75.496431	-55.244950	126.402165	-55.244950	126.402165	-0.118026	-91.395220
3.250000	-0.099819	-76.603397	-54.848937	124.663838	-54.848937	124.663838	-0.119989	-92.731534
3.300000	-0.101508	-77.708039	-54.462093	122.918293	-54.462093	122.918293	-0.121973	-94.065411
3.350000	-0.103215	-78.810377	-54.084063	121.166250	-54.084063	121.166250	-0.123980	-95.396911
3.400000	-0.104941	-79.910434	-53.714514	119.408359	-53.714514	119.408359	-0.126010	-96.726098
3.450000	-0.106686	-81.008232	-53.353131	117.645204	-53.353131	117.645204	-0.128063	-98.053037
3.500000	-0.108450	-82.103798	-52.999620	115.877318	-52.999620	115.877318	-0.130142	-99.377796
3.550000	-0.110235	-83.197160	-52.653701	114.105180	-52.653701	114.105180	-0.132247	-100.700445
3.600000	-0.112040	-84.288344	-52.315111	112.329227	-52.315111	112.329227	-0.134378	-102.021056
3.650000	-0.113867	-85.377383	-51.983603	110.549853	-51.983603	110.549853	-0.136537	-103.339704
3.700000	-0.115716	-86.464308	-51.658940	108.767418	-51.658940	108.767418	-0.138723	-104.656466
3.750000	-0.117588	-87.549152	-51.340901	106.982247	-51.340901	106.982247	-0.140939	-105.971420
3.800000	-0.119485	-88.631864	-51.029069	105.194542	-51.029069	105.194542	-0.143185	-107.284577
3.850000	-0.121405	-89.712571	-50.723471	103.404690	-50.723471	103.404690	-0.145461	-108.596098
3.900000	-0.123350	-90.791312	-50.423915	101.612930	-50.423915	101.612930	-0.147768	-109.906069
3.950000	-0.125321	-91.868126	-50.130220	99.819483	-50.130220	99.819483	-0.150107	-111.214578
4.000000	-0.127317	-92.943055	-49.842214	98.024548	-49.842214	98.024548	-0.152477	-112.521713
4.050000	-0.129340	-94.016143	-49.559733	96.228309	-49.559733	96.228309	-0.154880	-113.827566
4.100000	-0.131389	-95.087434	-49.282620	94.430929	-49.282620	94.430929	-0.157316	-115.132230
4.150000	-0.133467	-96.156973	-49.010726	92.632559	-49.010726	92.632559	-0.159786	-116.435802
4.200000	-0.135572	-97.224809	-48.743911	90.833335	-48.743911	90.833335	-0.162290	-117.738377
4.250000	-0.137707	-98.290991	-48.482039	89.033382	-48.482039	89.033382	-0.164829	-119.040054
4.300000	-0.139871	-99.355570	-48.224983	87.232812	-48.224983	87.232812	-0.167403	-120.340936
4.350000	-0.142065	-100.418596	-47.972618	85.431727	-47.972618	85.431727	-0.170012	-121.641123
4.400000	-0.144289	-101.480125	-47.724828	83.630219	-47.724828	83.630219	-0.172657	-122.940721
4.450000	-0.146545	-102.540210	-47.481501	81.828373	-47.481501	81.828373	-0.175339	-124.239835
4.500000	-0.148832	-103.598908	-47.242531	80.026263	-47.242531	80.026263	-0.178057	-125.538573
4.550000	-0.151152	-104.656277	-47.007816	78.223957	-47.007816	78.223957	-0.180813	-126.837046
4.600000	-0.153505	-105.712376	-46.777258	76.421519	-46.777258	76.421519	-0.183606	-128.135363
4.650000	-0.155892	-106.767266	-46.550764	74.619002	-46.550764	74.619002	-0.186436	-129.433637
4.700000	-0.158312	-107.821008	-46.328245	72.816458	-46.328245	72.816458	-0.189305	-130.731984
4.750000	-0.160768	-108.873666	-46.109616	71.013930	-46.109616	71.013930	-0.192213	-132.030518
4.800000	-0.163258	-109.925304	-45.894795	69.211459	-45.894795	69.211459	-0.195159	-133.329358
4.850000	-0.165785	-110.975990	-45.683704	67.409080	-45.683704	67.409080	-0.198144	-134.628622
4.900000	-0.168348	-112.025790	-45.476270	65.606827	-45.476270	65.606827	-0.201168	-135.928431
4.950000	-0.170948	-113.074774	-45.272420	63.804726	-45.272420	63.804726	-0.204232	-137.228906
5.000000	-0.173586	-114.123012	-45.072086	62.002804	-45.072086	62.002804	-0.207335	-138.530172
5.050000	-0.176264	-115.170549	-44.875160	60.201092	-44.875160	60.201092	-0.210480	-139.832399
5.100000	-0.178980	-116.217493	-44.681630	58.399601	-44.681630	58.399601	-0.213665	-141.135678
5.150000	-0.181736	-117.263916	-44.491436	56.598348	-44.491436	56.598348	-0.216890	-142.440138
5.200000	-0.184532	-118.309896	-44.304521	54.797348	-44.304521	54.797348	-0.220155	-143.745908
5.250000	-0.187368	-119.355511	-44.120829	52.996612	-44.120829	52.996612	-0.223461	-145.053117
5.300000	-0.190245	-120.400838	-43.940308	51.196152	-43.940308	51.196152	-0.226807	-146.361898
5.350000	-0.193164	-121.445959	-43.762907	49.395975	-43.762907	49.395975	-0.230193	-147.672384
5.400000	-0.196126	-122.490956	-43.588578	47.596090	-43.588578	47.596090	-0.233620	-148.984708
5.450000	-0.199130	-123.535911	-43.417274	45.796501	-43.417274	45.796501	-0.237088	-150.299007
5.500000	-0.202177	-124.580909	-43.248953	43.997214	-43.248953	43.997214	-0.240596	-151.615415
5.550000	-0.205268	-125.626037	-43.083572	42.198230	-43.083572	42.198230	-0.244144	-152.934071
5.600000	-0.208404	-126.671382	-42.921090	40.399551	-42.921090	40.399551	-0.247733	-154.255113
5.650000	-0.211584	-127.717034	-42.761469	38.601180	-42.761469	38.601180	-0.251362	-155.578680
5.700000	-0.214810	-128.763082	-42.604674	36.803114	-42.604674	36.803114	-0.255032	-156.904914
5.750000	-0.218082	-129.809620	-42.450669	35.005353	-42.450669	35.005353	-0.258741	-158.233955
5.800000	-0.221401	-130.856741	-42.299421	33.207894	-42.299421	33.207894	-0.262490	-159.565945
5.850000	-0.224766	-131.904539	-42.150900	31.410736	-42.150900	31.410736	-0.266279	-160.901029
5.900000	-0.228179	-132.953113	-42.005075	29.613873	-42.005075	29.613873	-0.270107	-162.239348
5.950000	-0.231640	-134.002559	-41.861918	27.817301	-41.861918	27.817301	-0.273974	-163.581049
6.000000	-0.235150	-135.052979	-41.721404	26.021016	-41.721404	26.021016	-0.277881	-164.926276
6.050000	-0.238709	-136.104474	-41.583507	24.225011	-41.583507	24.225011	-0.281825	-166.275175
6.100000	-0.242317	-137.157147	-41.448204	22.429280	-41.448204	22.429280	-0.285808	-167.627892
6.150000	-0.245976	-138.211103	-41.315474	20.633816	-41.315474	20.633816	-0.289828	-168.984575
6.200000	-0.249685	-139.266450	-41.185295	18.838612	-41.185295	18.838612	-0.293886	-170.345369
6.250000	-0.253445	-140.323295	-41.057650	17.043661	-41.057650	17.043661	-0.297980	-171.710423
6.300000	-0.257258	-141.381824	-40.932553	15.248964	-40.932553	15.248964	-0.302112	-173.080082
6.350000	-0.261124	-142.442084	-40.809961	13.454504	-40.809961	13.454504	-0.306280	-174.454310
6.400000	-0.265043	-143.504190	-40.689860	11.660271	-40.689860	11.660271	-0.310482	-175.833253
6.450000	-0.269014	-144.568258	-40.572239	9.866258	-40.572239	9.866258	-0.314719	-177.217060
6.500000	-0.273039	-145.634405	-40.457084	8.072457	-40.457084	8.072457	-0.318990	-178.605878
6.550000	-0.277118	-146.702752	-40.344387	6.278860	-40.344387	6.278860	-0.323294	-179.999854
6.600000	-0.281251	-147.773422	-40.234140	4.485460	-40.234140	4.485460	-0.327630	178.600866
6.650000	-0.285439	-148.846537	-40.126335	2.692250	-40.126335	2.692250	-0.331997	177.196135
6.700000	-0.289683	-149.922225	-40.020969	0.899225	-40.020969	0.899225	-0.336394	175.785808
6.750000	-0.293983	-151.000615	-39.918037	-0.893621	-39.918037	-0.893621	-0.340821	174.369740
6.800000	-0.298339	-152.081837	-39.817539	-2.686292	-39.817539	-2.686292	-0.345277	172.947788
6.850000	-0.302752	-153.166024	-39.719474	-4.478789	-39.719474	-4.478789	-0.349760	171.519810
6.900000	-0.307223	-154.253312	-39.623844	-6.271114	-39.623844	-6.271114	-0.354270	170.085664
6.950000	-0.311751	-155.343840	-39.530652	-8.063267	-39.530652	-8.063267	-0.358805	168.645210
7.000000	-0.316339	-156.437747	-39.439904	-9.855243	-39.439904	-9.855243	-0.363365	167.198311
7.050000	-0.320985	-157.535177	-39.351607	-11.647040	-39.351607	-11.647040	-0.367947	165.744830
7.100000	-0.325691	-158.636277	-39.265769	-13.438648	-39.265769	-13.438648	-0.372551	164.284634
7.150000	-0.330458	-159.741195	-39.182402	-15.230056	-39.182402	-15.230056	-0.377176	162.817589
7.200000	-0.335286	-160.850083	-39.101519	-17.021253	-39.101519	-17.021253	-0.381819	161.343567
7.250000	-0.340176	-161.963096	-39.023133	-18.812219	-39.023133	-18.812219	-0.386480	159.862441
7.300000	-0.345129	-163.080394	-38.947264	-20.602934	-38.947264	-20.602934	-0.391158	158.374086
7.350000	-0.350145	-164.202137	-38.873928	-22.393372	-38.873928	-22.393372	-0.395850	156.878382
7.400000	-0.355226	-165.328491	-38.803149	-24.183503	-38.803149	-24.183503	-0.400555	155.375211
7.450000	-0.360372	-166.459625	-38.734949	-25.973293	-38.734949	-25.973293	-0.405272	153.864459
7.500000	-0.365586	-167.595713	-38.669355	-27.762701	-38.669355	-27.762701	-0.409998	152.346017
7.550000	-0.370870	-168.737164	-38.606492	-29.551660	-38.606492	-29.551660	-0.414733	150.819433
7.600000	-0.376224	-169.883946	-38.546303	-31.340134	-38.546303	-31.340134	-0.419474	149.284943
7.650000	-0.381649	-171.036246	-38.488820	-33.128063	-38.488820	-33.128063	-0.424219	147.742450
7.700000	-0.387147	-172.194259	-38.434082	-34.915380	-38.434082	-34.915380	-0.428967	146.191863
7.750000	-0.392720	-173.358183	-38.382129	-36.702012	-38.382129	-36.702012	-0.433716	144.633096
7.800000	-0.398372	-174.528224	-38.333007	-38.487878	-38.333007	-38.487878	-0.438463	143.066069
7.850000	-0.404104	-175.704597	-38.286761	-40.272888	-38.286761	-40.272888	-0.443207	141.490709
7.900000	-0.409920	-176.887521	-38.243446	-42.056944	-38.243446	-42.056944	-0.447946	139.906948
7.950000	-0.415823	-178.077227	-38.203117	-43.839941	-38.203117	-43.839941	-0.452678	138.314725
8.000000	-0.421819	-179.273956	-38.165836	-45.621764	-38.165836	-45.621764	-0.457401	136.713986
8.050000	-0.427912	179.522042	-38.131671	-47.402288	-38.131671	-47.402288	-0.462112	135.104685
8.100000	-0.434109	178.310500	-38.100695	-49.181380	-38.100695	-49.181380	-0.466810	133.486782
8.150000	-0.440417	177.091140	-38.072990	-50.958898	-38.072990	-50.958898	-0.471493	131.860248
8.200000	-0.446845	175.863663	-38.048645	-52.734690	-38.048645	-52.734690	-0.476158	130.225058
8.250000	-0.453404	174.627750	-38.027760	-54.508594	-38.027760	-54.508594	-0.480804	128.581201
8.300000	-0.460107	173.383056	-38.010448	-56.280438	-38.010448	-56.280438	-0.485427	126.928670
8.350000	-0.466971	172.129206	-37.996836	-58.050038	-37.996836	-58.050038	-0.490028	125.267471
8.400000	-0.474015	170.865790	-37.987067	-59.817201	-37.987067	-59.817201	-0.494602	123.597618
8.450000	-0.481264	169.592349	-37.981310	-61.581720	-37.981310	-61.581720	-0.499148	121.919136
8.500000	-0.488750	168.308368	-37.979760	-63.343368	-37.979760	-63.343368	-0.503664	120.232058
8.550000	-0.496514	167.013262	-37.982650	-65.101902	-37.982650	-65.101902	-0.508149	118.536432
8.600000	-0.504609	165.706352	-37.990259	-66.857043	-37.990259	-66.857043	-0.512599	116.832312
8.650000	-0.513104	164.386841	-38.002929	-68.608467	-38.002929	-68.608467	-0.517013	115.119768
8.700000	-0.522092	163.053774	-38.021090	-70.355773	-38.021090	-70.355773	-0.521390	113.398877
8.750000	-0.531700	161.705987	-38.045287	-72.098432	-38.045287	-72.098432	-0.525726	111.669730
8.800000	-0.542143	160.341432	-38.076488	-73.835471	-38.076488	-73.835471	-0.530019	109.932169
8.850000	-0.553665	158.958707	-38.115484	-75.565833	-38.115484	-75.565833	-0.534268	108.186578
8.900000	-0.566663	157.555355	-38.163646	-77.287496	-38.163646	-77.287496	-0.538471	106.433083
8.950000	-0.581750	156.128125	-38.222939	-78.996867	-38.222939	-78.996867	-0.542625	104.671824
9.000000	-0.599913	154.672659	-38.296279	-80.687138	-38.296279	-80.687138	-0.546729	102.902949
9.050000	-0.622831	153.183169	-38.388157	-82.344579	-38.388157	-82.344579	-0.550779	101.126616
9.100000	-0.653521	151.652435	-38.505720	-83.939473	-38.505720	-83.939473	-0.554772	99.342989
9.150000	-0.697798	150.073895	-38.660528	-85.402060	-38.660528	-85.402060	-0.558704	97.552234
9.200000	-0.766413	148.453300	-38.868429	-86.571906	-38.868429	-86.571906	-0.562571	95.754659
9.250000	-0.885787	146.864465	-39.147059	-86.942947	-39.147059	-86.942947	-0.566366	93.950031
9.300000	-1.091903	145.722071	-39.404922	-85.328286	-39.404922	-85.328286	-0.570088	92.138548
9.350000	-1.290036	146.173647	-39.101487	-81.714642	-39.101487	-81.714642	-0.573764	90.320068
9.400000	-1.108553	147.075510	-38.221399	-82.939642	-38.221399	-82.939642	-0.577527	88.494259
9.450000	-0.833462	145.808188	-37.881628	-87.708780	-37.881628	-87.708780	-0.581707	86.662276
9.500000	-0.701342	143.816656	-37.907984	-91.596039	-37.907984	-91.596039	-0.586230	84.828612
9.550000	-0.646208	141.859274	-38.024595	-94.520291	-38.024595	-94.520291	-0.590350	82.993455
9.600000	-0.624317	140.013051	-38.158062	-96.878386	-38.158062	-96.878386	-0.594006	81.153304
9.650000	-0.616607	138.247338	-38.291620	-98.924235	-38.291620	-98.924235	-0.597475	79.307629
9.700000	-0.615538	136.531022	-38.423322	-100.784740	-38.423322	-100.784740	-0.600877	77.457200
9.750000	-0.617939	134.844182	-38.554144	-102.521733	-38.554144	-102.521733	-0.604244	75.602626
9.800000	-0.622280	133.173678	-38.685575	-104.168062	-38.685575	-104.168062	-0.607582	73.744334
9.850000	-0.627634	131.509847	-38.819000	-105.751664	-38.819000	-105.751664	-0.610897	71.883153
9.900000	-0.633688	129.847424	-38.955616	-107.276274	-38.955616	-107.276274	-0.614185	70.019143
9.950000	-0.640157	128.182090	-39.096374	-108.751606	-39.096374	-108.751606	-0.617447	68.152847
10.000000	-0.646875	126.511341	-39.241904	-110.185104	-39.241904	-110.185104	-0.620687	66.284804
