! freq	dB(S11)	phase(S11)	dB(S12)	phase(S12)	
!     	dB(S21)	phase(S21)	dB(S22)	phase(S22)	
!S-par simulation data
#  GHz  S  DB  R 50
0.000000	-84.170376	0.000000	-0.000537	0.000000	-0.000537	0.000000	-84.170376	0.000000
0.050000	-35.763035	-92.870722	-0.004358	-3.064883	-0.004358	-3.064883	-35.763094	-92.868162
0.100000	-29.752641	-96.068505	-0.013983	-6.109467	-0.013983	-6.109467	-29.752734	-96.063333
0.150000	-26.247721	-99.189848	-0.026491	-9.132300	-0.026491	-9.132300	-26.247867	-99.181959
0.200000	-23.771987	-102.288275	-0.040407	-12.141182	-0.040407	-12.141182	-23.772199	-102.277525
0.250000	-21.863472	-105.372758	-0.055479	-15.141610	-0.055479	-15.141610	-21.863755	-105.358967
0.300000	-20.316302	-108.445376	-0.071839	-18.136059	-0.071839	-18.136059	-20.316652	-108.428347
0.350000	-19.019841	-111.506586	-0.089602	-21.125093	-0.089602	-21.125093	-19.020242	-111.486129
0.400000	-17.908538	-114.555601	-0.108878	-24.108128	-0.108878	-24.108128	-17.908962	-114.531554
0.450000	-16.940822	-117.590646	-0.129780	-27.083958	-0.129780	-27.083958	-16.941228	-117.562913
0.500000	-16.086730	-120.610926	-0.152220	-30.052009	-0.152220	-30.052009	-16.087069	-120.579532
0.550000	-15.325551	-123.614652	-0.176153	-33.011452	-0.176153	-33.011452	-15.325772	-123.579788
0.600000	-14.642727	-126.598545	-0.201568	-35.961071	-0.201568	-35.961071	-14.642788	-126.560645
0.650000	-14.025738	-129.560273	-0.228315	-38.900542	-0.228315	-38.900542	-14.025641	-129.519973
0.700000	-13.464914	-132.496814	-0.256273	-41.829442	-0.256273	-41.829442	-13.464733	-132.454785
0.750000	-12.952698	-135.404640	-0.285350	-44.746993	-0.285350	-44.746993	-12.952602	-135.361148
0.800000	-12.481934	-138.284118	-0.315407	-47.652875	-0.315407	-47.652875	-12.482115	-138.238357
0.850000	-12.046408	-141.141656	-0.346293	-50.546984	-0.346293	-50.546984	-12.046901	-141.091782
0.900000	-11.641661	-143.988459	-0.377867	-53.429199	-0.377867	-53.429199	-11.642236	-143.932989
0.950000	-11.265159	-146.835154	-0.409989	-56.299404	-0.409989	-56.299404	-11.265487	-146.774440
1.000000	-10.915554	-149.686169	-0.442517	-59.157611	-0.442517	-59.157611	-10.915488	-149.622015
1.050000	-10.591702	-152.539186	-0.475311	-62.003907	-0.475311	-62.003907	-10.591336	-152.473243
1.100000	-10.292119	-155.388972	-0.508231	-64.838455	-0.508231	-64.838455	-10.291645	-155.321860
1.150000	-10.015034	-158.230784	-0.541142	-67.661482	-0.541142	-67.661482	-10.014615	-158.162281
1.200000	-9.758623	-161.061596	-0.573914	-70.473278	-0.573914	-70.473278	-9.758351	-160.991122
1.250000	-9.521183	-163.879961	-0.606418	-73.274193	-0.606418	-73.274193	-9.521091	-163.806909
1.300000	-9.301432	-166.685220	-0.638521	-76.064410	-0.638521	-76.064410	-9.301516	-166.609088
1.350000	-9.097784	-169.477910	-0.670114	-78.844619	-0.670114	-78.844619	-9.098020	-169.398349
1.400000	-8.909080	-172.258619	-0.701089	-81.615318	-0.701089	-81.615318	-8.909441	-172.175396
1.450000	-8.734307	-175.028093	-0.731342	-84.377043	-0.731342	-84.377043	-8.734765	-174.941068
1.500000	-8.572574	-177.787158	-0.760777	-87.130365	-0.760777	-87.130365	-8.573104	-177.696252
1.550000	-8.423092	179.463327	-0.789302	-89.875885	-0.789302	-89.875885	-8.423673	179.558151
1.600000	-8.285162	176.722497	-0.816835	-92.614232	-0.816835	-92.614232	-8.285778	176.821250
1.650000	-8.158157	173.989491	-0.843298	-95.346057	-0.843298	-95.346057	-8.158796	174.092170
1.700000	-8.041520	171.263457	-0.868622	-98.072031	-0.868622	-98.072031	-8.042172	171.370052
1.750000	-7.934749	168.543558	-0.892742	-100.792841	-0.892742	-100.792841	-7.935408	168.654057
1.800000	-7.837393	165.828971	-0.915601	-103.509187	-0.915601	-103.509187	-7.838056	165.943366
1.850000	-7.749048	163.118889	-0.937149	-106.221781	-0.937149	-106.221781	-7.749714	163.237176
1.900000	-7.669434	160.412550	-0.957325	-108.931313	-0.957325	-108.931313	-7.670103	160.534732
1.950000	-7.598220	157.709153	-0.976089	-111.638533	-0.976089	-111.638533	-7.598893	157.835240
2.000000	-7.535028	155.007897	-0.993426	-114.344197	-0.993426	-114.344197	-7.535708	155.137908
2.050000	-7.479599	152.308040	-1.009309	-117.049031	-1.009309	-117.049031	-7.480287	152.441997
2.100000	-7.432316	149.608839	-1.023584	-119.753824	-1.023584	-119.753824	-7.433016	149.746776
2.150000	-7.391657	146.909556	-1.036517	-122.459214	-1.036517	-122.459214	-7.392372	147.051507
2.200000	-7.358147	144.209551	-1.047948	-125.165917	-1.047948	-125.165917	-7.358878	144.355558
2.250000	-7.331627	141.508141	-1.057872	-127.874642	-1.057872	-127.874642	-7.332378	141.658251
2.300000	-7.311964	138.804661	-1.066287	-130.586090	-1.066287	-130.586090	-7.312736	138.958923
2.350000	-7.299042	136.098459	-1.073198	-133.300954	-1.073198	-133.300954	-7.299839	136.256927
2.400000	-7.292770	133.388900	-1.078610	-136.019917	-1.078610	-136.019917	-7.293591	133.551629
2.450000	-7.293072	130.675364	-1.082536	-138.743653	-1.082536	-138.743653	-7.293920	130.842411
2.500000	-7.299895	127.957247	-1.084990	-141.472825	-1.084990	-141.472825	-7.300769	128.128669
2.550000	-7.313482	125.233708	-1.085928	-144.208379	-1.085928	-144.208379	-7.314383	125.409564
2.600000	-7.333535	122.504374	-1.085437	-146.950716	-1.085437	-146.950716	-7.334462	122.684721
2.650000	-7.360056	119.768689	-1.083541	-149.700464	-1.083541	-149.700464	-7.361010	119.953583
2.700000	-7.393069	117.026113	-1.080269	-152.458235	-1.080269	-152.458235	-7.394047	117.215606
2.750000	-7.432616	114.276120	-1.075650	-155.224635	-1.075650	-155.224635	-7.433617	114.470262
2.800000	-7.478758	111.518200	-1.069718	-158.000254	-1.069718	-158.000254	-7.479781	111.717041
2.850000	-7.531580	108.751860	-1.062508	-160.785674	-1.062508	-160.785674	-7.532622	108.955444
2.900000	-7.591186	105.976622	-1.054057	-163.581465	-1.054057	-163.581465	-7.592245	106.184989
2.950000	-7.657070	103.192975	-1.044518	-166.387074	-1.044518	-166.387074	-7.658143	103.406160
3.000000	-7.730578	100.398725	-1.033712	-169.205097	-1.033712	-169.205097	-7.731663	100.616763
3.050000	-7.811329	97.594246	-1.021786	-172.035138	-1.021786	-172.035138	-7.812424	97.817169
3.100000	-7.899531	94.779128	-1.008785	-174.877733	-1.008785	-174.877733	-7.900634	95.006959
3.150000	-7.996386	91.951362	-0.994612	-177.735341	-0.994612	-177.735341	-7.997493	92.184125
3.200000	-8.100334	89.113622	-0.979595	179.395135	-0.979595	179.395135	-8.101443	89.351331
3.250000	-8.212562	86.264118	-0.963645	176.511466	-0.963645	176.511466	-8.213671	86.506784
3.300000	-8.333424	83.402519	-0.946813	173.613131	-0.946813	173.613131	-8.334530	83.650149
3.350000	-8.463176	80.528767	-0.929166	170.699920	-0.929166	170.699920	-8.464278	80.781365
3.400000	-8.602672	77.641896	-0.910713	167.770459	-0.910713	167.770459	-8.603768	77.899461
3.450000	-8.752142	74.742144	-0.891542	164.824821	-0.891542	164.824821	-8.753231	75.004670
3.500000	-8.912164	71.829304	-0.871709	161.862488	-0.871709	161.862488	-8.913244	72.096783
3.550000	-9.083389	68.903211	-0.851272	158.882938	-0.851272	158.882938	-9.084459	69.175632
3.600000	-9.266555	65.963748	-0.830291	155.885641	-0.830291	155.885641	-9.267614	66.241095
3.650000	-9.462499	63.010857	-0.808829	152.870063	-0.808829	152.870063	-9.463548	63.293112
3.700000	-9.672174	60.044548	-0.786950	149.835659	-0.786950	149.835659	-9.673211	60.331691
3.750000	-9.896666	57.064916	-0.764722	146.781877	-0.764722	146.781877	-9.897690	57.356925
3.800000	-10.137930	54.071276	-0.742198	143.706735	-0.742198	143.706735	-10.138942	54.368128
3.850000	-10.396755	51.064902	-0.719480	140.610998	-0.719480	140.610998	-10.397755	51.366572
3.900000	-10.674804	48.046319	-0.696646	137.494072	-0.696646	137.494072	-10.675790	48.352786
3.950000	-10.974003	45.016271	-0.673782	134.355354	-0.673782	134.355354	-10.974977	45.327514
4.000000	-11.296603	41.975779	-0.650974	131.194221	-0.650974	131.194221	-11.297563	42.291781
4.050000	-11.645246	38.926228	-0.628318	128.010041	-0.628318	128.010041	-11.646193	39.246976
4.100000	-12.021642	35.869951	-0.605885	124.804469	-0.605885	124.804469	-12.022573	36.195440
4.150000	-12.432542	32.808183	-0.583835	121.571857	-0.583835	121.571857	-12.433456	33.138419
4.200000	-12.880892	29.745124	-0.562261	118.314182	-0.562261	118.314182	-12.881786	30.080127
4.250000	-13.372203	26.685361	-0.541286	115.030752	-0.541286	115.030752	-13.373073	27.025170
4.300000	-13.913821	23.635555	-0.521064	111.720167	-0.521064	111.720167	-13.914661	23.980241
4.350000	-14.512888	20.603498	-0.501684	108.383566	-0.501684	108.383566	-14.513688	20.953162
4.400000	-15.182015	17.603364	-0.483367	105.018110	-0.483367	105.018110	-15.182761	17.958169
4.450000	-15.935012	14.653005	-0.466260	101.623774	-0.466260	101.623774	-15.935686	15.013194
4.500000	-16.791136	11.781012	-0.450549	98.199809	-0.450549	98.199809	-16.791708	12.146944
4.550000	-17.776676	9.030359	-0.436418	94.745754	-0.436418	94.745754	-17.777101	9.402572
4.600000	-18.929708	6.472532	-0.424076	91.260912	-0.424076	91.260912	-18.929913	6.851854
4.650000	-20.307637	4.233018	-0.413750	87.744609	-0.413750	87.744609	-20.307496	4.620764
4.700000	-22.003057	2.561241	-0.405704	84.195923	-0.405704	84.195923	-22.002325	2.959643
4.750000	-24.177356	2.044759	-0.400254	80.613671	-0.400254	80.613671	-24.175485	2.457983
4.800000	-27.136518	4.208161	-0.397623	76.998150	-0.397623	76.998150	-27.131998	4.644090
4.850000	-31.484067	14.822579	-0.398114	73.348897	-0.398114	73.348897	-31.471093	15.290488
4.900000	-36.392414	58.888085	-0.402050	69.665538	-0.402050	69.665538	-36.357019	59.244851
4.950000	-32.717022	114.624286	-0.409773	65.947805	-0.409773	65.947805	-32.706113	114.846014
5.000000	-27.613825	130.101310	-0.421648	62.195555	-0.421648	62.195555	-27.612943	130.377493
5.050000	-24.083838	133.180152	-0.438225	58.407607	-0.438225	58.407607	-24.085007	133.487605
5.100000	-21.472495	132.876005	-0.459768	54.585341	-0.459768	54.585341	-21.474289	133.201287
5.150000	-19.404218	131.140731	-0.486697	50.729140	-0.486697	50.729140	-19.406246	131.477525
5.200000	-17.690422	128.665870	-0.519451	46.839606	-0.519451	46.839606	-17.692545	129.010791
5.250000	-16.225807	125.754176	-0.558483	42.917578	-0.558483	42.917578	-16.227964	126.105189
5.300000	-14.946254	122.558653	-0.604253	38.964161	-0.604253	38.964161	-14.948416	122.914420
5.350000	-13.809581	119.161425	-0.657418	34.980007	-0.657418	34.980007	-13.811731	119.520976
5.400000	-12.787850	115.619256	-0.718344	30.967405	-0.718344	30.967405	-12.789978	115.981879
5.450000	-11.860906	111.966971	-0.787434	26.928641	-0.787434	26.928641	-11.863005	112.332106
5.500000	-11.013799	108.227791	-0.865142	22.866071	-0.865142	22.866071	-11.015864	108.594971
5.550000	-10.235258	104.418888	-0.951904	18.782375	-0.951904	18.782375	-10.237284	104.787716
5.600000	-9.516578	100.553332	-1.048197	14.680454	-1.048197	14.680454	-9.518562	100.923454
5.650000	-8.850966	96.642094	-1.154433	10.563648	-1.154433	10.563648	-8.852906	97.013193
5.700000	-8.232997	92.694909	-1.270904	6.435734	-1.270904	6.435734	-8.234890	93.066698
5.750000	-7.658226	88.720058	-1.397910	2.300633	-1.397910	2.300633	-7.660071	89.092270
5.800000	-7.122978	84.725078	-1.535701	-1.837502	-1.535701	-1.837502	-7.124775	85.097466
5.850000	-6.624606	80.716571	-1.684995	-5.973960	-1.684995	-5.973960	-6.626354	81.088889
5.900000	-6.159362	76.702306	-1.844582	-10.105085	-1.844582	-10.105085	-6.161063	77.074359
5.950000	-5.726303	72.687888	-2.015990	-14.224891	-2.015990	-14.224891	-5.727958	73.059456
6.000000	-5.321973	68.678735	-2.197990	-18.330901	-2.197990	-18.330901	-5.323584	69.049642
6.050000	-4.945693	64.681344	-2.391421	-22.416646	-2.391421	-22.416646	-4.947262	65.051403
6.100000	-4.595382	60.700778	-2.595830	-26.478363	-2.595830	-26.478363	-4.596914	61.069824
6.150000	-4.269500	56.742056	-2.811032	-30.511772	-2.811032	-30.511772	-4.270998	57.109934
6.200000	-3.966608	52.809852	-3.036788	-34.512798	-3.036788	-34.512798	-3.968075	53.176420
6.250000	-3.685349	48.908473	-3.272809	-38.477622	-3.272809	-38.477622	-3.686791	49.273601
6.300000	-3.424612	45.042400	-3.518799	-42.402086	-3.518799	-42.402086	-3.426031	45.405965
6.350000	-3.182995	41.214685	-3.774330	-46.283520	-3.774330	-46.283520	-3.184396	41.576578
6.400000	-2.959768	37.430135	-4.039022	-50.117188	-4.039022	-50.117188	-2.961155	37.790252
6.450000	-2.752799	33.687600	-4.312420	-53.904784	-4.312420	-53.904784	-2.754176	34.045857
6.500000	-2.561633	29.991667	-4.594130	-57.641614	-4.594130	-57.641614	-2.563002	30.347979
6.550000	-2.385442	26.345110	-4.883706	-61.324894	-4.883706	-61.324894	-2.386807	26.699402
6.600000	-2.222437	22.745607	-5.180896	-64.957288	-5.180896	-64.957288	-2.223800	23.097815
6.650000	-2.073051	19.201060	-5.484889	-68.530328	-5.484889	-68.530328	-2.074415	19.551117
6.700000	-1.934865	15.704266	-5.795866	-72.051796	-5.795866	-72.051796	-1.936231	16.052121
6.750000	-1.808027	12.260924	-6.113060	-75.515479	-6.113060	-75.515479	-1.809395	12.606522
6.800000	-1.691464	8.869661	-6.436268	-78.922732	-6.436268	-78.922732	-1.692836	9.212954
6.850000	-1.584430	5.530327	-6.765201	-82.273527	-6.765201	-82.273527	-1.585806	5.871270
6.900000	-1.486299	2.243080	-7.099529	-85.567428	-7.099529	-85.567428	-1.487679	2.581631
6.950000	-1.396398	-0.992720	-7.439035	-88.804793	-7.439035	-88.804793	-1.397782	-0.656603
7.000000	-1.314032	-4.178453	-7.783652	-91.986724	-7.783652	-91.986724	-1.315419	-3.844812
7.050000	-1.238631	-7.315109	-8.133294	-95.113815	-8.133294	-95.113815	-1.240019	-6.983982
7.100000	-1.170134	-10.399785	-8.487094	-98.182102	-8.487094	-98.182102	-1.171522	-10.071217
7.150000	-1.107028	-13.442440	-8.846851	-101.202212	-8.846851	-101.202212	-1.108415	-13.116468
7.200000	-1.049426	-16.439774	-9.211765	-104.169580	-9.211765	-104.169580	-1.050810	-16.116440
7.250000	-0.996912	-19.393260	-9.582025	-107.084918	-9.582025	-107.084918	-0.998291	-19.072608
7.300000	-0.949102	-22.304460	-9.957908	-109.948882	-9.957908	-109.948882	-0.950474	-21.986535
7.350000	-0.905645	-25.175014	-10.339791	-112.762038	-10.339791	-112.762038	-0.907009	-24.859865
7.400000	-0.866223	-28.006633	-10.728161	-115.524819	-10.728161	-115.524819	-0.867577	-27.694314
7.450000	-0.830544	-30.801100	-11.123636	-118.237472	-11.123636	-118.237472	-0.831886	-30.491665
7.500000	-0.798344	-33.560260	-11.526980	-120.899994	-11.526980	-120.899994	-0.799673	-33.253770
7.550000	-0.769515	-36.284672	-11.938699	-123.509830	-11.938699	-123.509830	-0.770829	-35.981196
7.600000	-0.743702	-38.977871	-12.360410	-126.068334	-12.360410	-126.068334	-0.745001	-38.677481
7.650000	-0.720722	-41.641939	-12.793525	-128.574097	-12.793525	-128.574097	-0.722004	-41.344715
7.700000	-0.700414	-44.279051	-13.239763	-131.024932	-13.239763	-131.024932	-0.701680	-43.985081
7.750000	-0.682644	-46.891498	-13.701220	-133.417624	-13.701220	-133.417624	-0.683892	-46.600879
7.800000	-0.667299	-49.481704	-14.180465	-135.747558	-14.180465	-135.747558	-0.668532	-49.194545
7.850000	-0.654296	-52.052257	-14.680666	-138.008202	-14.680666	-138.008202	-0.655513	-51.768679
7.900000	-0.643577	-54.605944	-15.205756	-140.190343	-15.205756	-140.190343	-0.644780	-54.326085
7.950000	-0.635116	-57.145805	-15.760669	-142.280943	-15.760669	-142.280943	-0.636307	-56.869820
8.000000	-0.628922	-59.675184	-16.351661	-144.261382	-16.351661	-144.261382	-0.630105	-59.403252
8.050000	-0.625047	-62.197818	-16.986760	-146.104669	-16.986760	-146.104669	-0.626227	-61.930143
8.100000	-0.623596	-64.717930	-17.676417	-147.770880	-17.676417	-147.770880	-0.624778	-64.454748
8.150000	-0.624739	-67.240363	-18.434433	-149.199392	-18.434433	-149.199392	-0.625930	-66.981951
8.200000	-0.628732	-69.770757	-19.279305	-150.295066	-19.279305	-150.295066	-0.629943	-69.517440
8.250000	-0.635948	-72.315770	-20.236103	-150.902369	-20.236103	-150.902369	-0.637192	-72.067935
8.300000	-0.646919	-74.883393	-21.338803	-150.754065	-21.338803	-150.754065	-0.648211	-74.641505
8.350000	-0.662063	-77.480612	-22.631212	-149.499890	-22.631212	-149.499890	-0.663424	-77.245192
8.400000	-0.682791	-80.121939	-24.169555	-146.189744	-24.169555	-146.189744	-0.684251	-79.893682
8.450000	-0.711251	-82.827838	-25.952600	-138.564004	-25.952600	-138.564004	-0.712852	-82.607681
8.500000	-0.748657	-85.608517	-27.757720	-124.034015	-27.757720	-124.034015	-0.750452	-85.397500
8.550000	-0.799322	-88.495979	-28.452851	-100.190844	-28.452851	-100.190844	-0.801394	-88.295555
8.600000	-0.868329	-91.520563	-26.897863	-75.413910	-26.897863	-75.413910	-0.870797	-91.332607
8.650000	-0.962693	-94.714686	-24.055962	-59.538157	-24.055962	-59.538157	-0.965729	-94.541580
8.700000	-1.098715	-98.148116	-20.995664	-52.853666	-20.995664	-52.853666	-1.102620	-97.993423
8.750000	-1.299516	-101.877995	-18.128897	-51.540061	-18.128897	-51.540061	-1.304788	-101.746647
8.800000	-1.610494	-105.966203	-15.440468	-53.872573	-15.440468	-53.872573	-1.618070	-105.865537
8.850000	-2.111798	-110.376165	-12.893865	-59.272204	-12.893865	-59.272204	-2.123552	-110.316821
8.900000	-2.944743	-114.711294	-10.494003	-67.884018	-10.494003	-67.884018	-2.964772	-114.707101
8.950000	-4.335819	-117.224350	-8.330792	-80.316762	-8.330792	-80.316762	-4.374195	-117.280733
9.000000	-6.244694	-112.667748	-6.668561	-96.639679	-6.668561	-96.639679	-6.321045	-112.690032
9.050000	-7.073327	-96.688382	-5.825266	-115.298883	-5.825266	-115.298883	-7.173511	-96.353210
9.100000	-5.629411	-84.518262	-5.860610	-133.148778	-5.860610	-133.148778	-5.693721	-83.933997
9.150000	-3.961384	-83.104623	-6.480715	-147.906766	-6.480715	-147.906766	-3.996233	-82.526551
9.200000	-2.860436	-86.054411	-7.341821	-159.317737	-7.341821	-159.317737	-2.881142	-85.526160
9.250000	-2.192756	-89.971558	-8.240740	-168.074221	-8.240740	-168.074221	-2.206444	-89.486215
9.300000	-1.778768	-93.842668	-9.093671	-174.976753	-9.093671	-174.976753	-1.788583	-93.389831
9.350000	-1.511151	-97.445846	-9.876670	179.388033	-9.876670	179.388033	-1.518620	-97.017597
9.400000	-1.335240	-100.754515	-10.579805	174.678632	-10.579805	174.678632	-1.341216	-100.344926
9.450000	-1.210278	-103.841940	-11.225531	170.547568	-11.225531	170.547568	-1.215204	-103.447271
9.500000	-1.121200	-106.737864	-11.814972	166.868462	-11.814972	166.868462	-1.125374	-106.355163
9.550000	-1.059033	-109.462468	-12.345117	163.563985	-12.345117	163.563985	-1.062666	-109.089244
9.600000	-1.012816	-112.070868	-12.836131	160.500455	-12.836131	160.500455	-1.016030	-111.705475
9.650000	-0.978391	-114.584565	-13.292702	157.627117	-13.292702	157.627117	-0.981274	-114.225664
9.700000	-0.953800	-117.011934	-13.712383	154.922911	-13.712383	154.922911	-0.956422	-116.658280
9.750000	-0.935932	-119.375953	-14.104417	152.340882	-14.104417	152.340882	-0.938339	-119.026594
9.800000	-0.923065	-121.690387	-14.473791	149.853888	-14.473791	149.853888	-0.925292	-121.344537
9.850000	-0.914411	-123.961460	-14.820606	147.450168	-14.820606	147.450168	-0.916482	-123.618378
9.900000	-0.909216	-126.196057	-15.146024	145.117337	-15.146024	145.117337	-0.911153	-125.855051
9.950000	-0.906507	-128.404274	-15.455503	142.836966	-15.455503	142.836966	-0.908321	-128.064779
10.000000	-0.905852	-130.590883	-15.750380	140.601002	-15.750380	140.601002	-0.907554	-130.252371
