! freq	dB(S11)	phase(S11)	dB(S12)	phase(S12)	
!     	dB(S21)	phase(S21)	dB(S22)	phase(S22)	
!S-par simulation data
#  GHz  S  DB  R 50
0.000000	-0.000000	0.000000	-317.182552	0.000000	-317.182552	0.000000	-0.000000	0.000000
0.050000	-0.004093	-1.554964	-98.577329	92.739931	-98.577329	92.739931	-0.004166	-1.554668
0.100000	-0.009768	-3.149068	-92.559838	88.966173	-92.559838	88.966173	-0.009875	-3.149156
0.150000	-0.013320	-4.757730	-89.089105	86.659319	-89.089105	86.659319	-0.013410	-4.758070
0.200000	-0.015534	-6.367197	-86.666967	84.726350	-86.666967	84.726350	-0.015604	-6.367646
0.250000	-0.017105	-7.974475	-84.832834	82.971999	-84.832834	82.971999	-0.017160	-7.974973
0.300000	-0.018446	-9.579424	-83.374480	81.316707	-83.374480	81.316707	-0.018491	-9.579952
0.350000	-0.019697	-11.181999	-82.185115	79.745146	-82.185115	79.745146	-0.019734	-11.182552
0.400000	-0.020943	-12.782264	-81.199840	78.250447	-81.199840	78.250447	-0.020974	-12.782840
0.450000	-0.022224	-14.380229	-80.377233	76.834167	-80.377233	76.834167	-0.022251	-14.380831
0.500000	-0.023562	-15.975857	-79.689470	75.503013	-79.689470	75.503013	-0.023585	-15.976486
0.550000	-0.024965	-17.569074	-79.117184	74.267646	-79.117184	74.267646	-0.024984	-17.569732
0.600000	-0.026436	-19.159786	-78.646576	73.142426	-78.646576	73.142426	-0.026451	-19.160476
0.650000	-0.027965	-20.748241	-78.258357	72.126010	-78.258357	72.126010	-0.027976	-20.748964
0.700000	-0.029567	-22.333600	-77.964659	71.278813	-77.964659	71.278813	-0.029575	-22.334358
0.750000	-0.031228	-23.916113	-77.750237	70.611614	-77.750237	70.611614	-0.031231	-23.916908
0.800000	-0.032942	-25.495665	-77.611285	70.160364	-77.611285	70.160364	-0.032941	-25.496500
0.850000	-0.034707	-27.071864	-77.551030	69.998815	-77.551030	69.998815	-0.034702	-27.072740
0.900000	-0.036509	-28.645183	-77.553938	70.129259	-77.553938	70.129259	-0.036500	-28.646103
0.950000	-0.038348	-30.215215	-77.624437	70.649670	-77.624437	70.649670	-0.038334	-30.216180
1.000000	-0.040217	-31.781857	-77.758913	71.650581	-77.758913	71.650581	-0.040199	-31.782870
1.050000	-0.042111	-33.345013	-77.951307	73.244846	-77.951307	73.244846	-0.042088	-33.346077
1.100000	-0.044025	-34.904592	-78.190974	75.569609	-78.190974	75.569609	-0.043998	-34.905709
1.150000	-0.045955	-36.460507	-78.459474	78.782950	-78.459474	78.782950	-0.045923	-36.461679
1.200000	-0.047896	-38.012675	-78.726311	83.048080	-78.726311	83.048080	-0.047859	-38.013905
1.250000	-0.049844	-39.561020	-78.944584	88.493815	-78.944584	88.493815	-0.049802	-39.562310
1.300000	-0.051797	-41.105296	-79.041444	95.182413	-79.041444	95.182413	-0.051750	-41.106650
1.350000	-0.053750	-42.645602	-78.945849	102.839218	-78.945849	102.839218	-0.053698	-42.647022
1.400000	-0.055701	-44.181875	-78.601013	110.982084	-78.601013	110.982084	-0.055644	-44.183363
1.450000	-0.057649	-45.714056	-77.992749	118.977760	-77.992749	118.977760	-0.057586	-45.715614
1.500000	-0.059590	-47.242089	-77.156023	126.253388	-77.156023	126.253388	-0.059523	-47.243720
1.550000	-0.061524	-48.765924	-76.156225	132.456449	-76.156225	132.456449	-0.061452	-48.767630
1.600000	-0.063449	-50.285513	-75.062568	137.476051	-75.062568	137.476051	-0.063373	-50.287297
1.650000	-0.065365	-51.800813	-73.931114	141.370659	-73.931114	141.370659	-0.065285	-51.802676
1.700000	-0.067271	-53.311784	-72.800296	144.280918	-72.800296	144.280918	-0.067186	-53.313727
1.750000	-0.069167	-54.818389	-71.693452	146.368237	-71.693452	146.368237	-0.069078	-54.820415
1.800000	-0.071052	-56.320596	-70.623249	147.783218	-70.623249	147.783218	-0.070959	-56.322706
1.850000	-0.072926	-57.818376	-69.595551	148.654046	-69.595551	148.654046	-0.072830	-57.820572
1.900000	-0.074790	-59.311703	-68.612171	149.085072	-68.612171	149.085072	-0.074691	-59.313986
1.950000	-0.076645	-60.800555	-67.672636	149.159486	-67.672636	149.159486	-0.076542	-60.802925
2.000000	-0.078490	-62.284912	-66.775262	148.943081	-66.775262	148.943081	-0.078385	-62.287372
2.050000	-0.080326	-63.764761	-65.917786	148.487847	-65.917786	148.487847	-0.080219	-63.767310
2.100000	-0.082155	-65.240087	-65.097733	147.835008	-65.097733	147.835008	-0.082045	-65.242727
2.150000	-0.083977	-66.710884	-64.312613	147.017433	-64.312613	147.017433	-0.083865	-66.713614
2.200000	-0.085792	-68.177145	-63.560029	146.061511	-63.560029	146.061511	-0.085680	-68.179967
2.250000	-0.087603	-69.638869	-62.837735	144.988583	-62.837735	144.988583	-0.087489	-69.641782
2.300000	-0.089410	-71.096057	-62.143650	143.816041	-62.143650	143.816041	-0.089295	-71.099061
2.350000	-0.091214	-72.548714	-61.475865	142.558163	-61.475865	142.558163	-0.091099	-72.551808
2.400000	-0.093016	-73.996847	-60.832641	141.226761	-60.832641	141.226761	-0.092901	-74.000032
2.450000	-0.094818	-75.440468	-60.212392	139.831671	-60.212392	139.831671	-0.094703	-75.443744
2.500000	-0.096621	-76.879591	-59.613674	138.381145	-59.613674	138.381145	-0.096505	-76.882957
2.550000	-0.098426	-78.314039	-59.034385	136.880316	-59.034385	136.880316	-0.098310	-78.317495
2.600000	-0.100233	-79.744031	-58.474234	135.337384	-58.474234	135.337384	-0.100119	-79.747575
2.650000	-0.102046	-81.169589	-57.932121	133.757307	-57.932121	133.757307	-0.101932	-81.173221
2.700000	-0.103863	-82.590742	-57.407037	132.144357	-57.407037	132.144357	-0.103751	-82.594461
2.750000	-0.105688	-84.007519	-56.898067	130.502234	-56.898067	130.502234	-0.105577	-84.011325
2.800000	-0.107520	-85.419955	-56.404367	128.834158	-56.404367	128.834158	-0.107411	-85.423846
2.850000	-0.109361	-86.828085	-55.925169	127.142948	-55.925169	127.142948	-0.109254	-86.832060
2.900000	-0.111213	-88.231949	-55.459761	125.431082	-55.459761	125.431082	-0.111108	-88.236008
2.950000	-0.113076	-89.631590	-55.007493	123.700749	-55.007493	123.700749	-0.112972	-89.635731
3.000000	-0.114951	-91.027052	-54.567761	121.953891	-54.567761	121.953891	-0.114850	-91.031274
3.050000	-0.116839	-92.418382	-54.140008	120.192242	-54.140008	120.192242	-0.116741	-92.422684
3.100000	-0.118742	-93.805633	-53.723718	118.417352	-53.723718	118.417352	-0.118646	-93.810013
3.150000	-0.120660	-95.188855	-53.318410	116.630615	-53.318410	116.630615	-0.120567	-95.193314
3.200000	-0.122594	-96.568107	-52.923637	114.833292	-52.923637	114.833292	-0.122504	-96.572641
3.250000	-0.124546	-97.943445	-52.538983	113.026522	-52.538983	113.026522	-0.124459	-97.948054
3.300000	-0.126516	-99.314930	-52.164058	111.211344	-52.164058	111.211344	-0.126432	-99.319613
3.350000	-0.128505	-100.682626	-51.798497	109.388706	-51.798497	109.388706	-0.128424	-100.687382
3.400000	-0.130513	-102.046599	-51.441958	107.559474	-51.441958	107.559474	-0.130436	-102.051426
3.450000	-0.132543	-103.406915	-51.094118	105.724444	-51.094118	105.724444	-0.132469	-103.411812
3.500000	-0.134594	-104.763646	-50.754674	103.884350	-50.754674	103.884350	-0.134524	-104.768612
3.550000	-0.136667	-106.116864	-50.423340	102.039868	-50.423340	102.039868	-0.136601	-106.121897
3.600000	-0.138764	-107.466643	-50.099844	100.191622	-50.099844	100.191622	-0.138700	-107.471742
3.650000	-0.140884	-108.813059	-49.783930	98.340191	-49.783930	98.340191	-0.140824	-108.818224
3.700000	-0.143028	-110.156191	-49.475354	96.486112	-49.475354	96.486112	-0.142972	-110.161420
3.750000	-0.145198	-111.496120	-49.173884	94.629881	-49.173884	94.629881	-0.145145	-111.501412
3.800000	-0.147394	-112.832797	-48.879166	92.771906	-48.879166	92.771906	-0.147345	-112.838151
3.850000	-0.149617	-114.166444	-48.591143	90.912705	-48.591143	90.912705	-0.149571	-114.171859
3.900000	-0.151866	-115.497149	-48.309614	89.052670	-48.309614	89.052670	-0.151825	-115.502624
3.950000	-0.154143	-116.825000	-48.034384	87.192164	-48.034384	87.192164	-0.154105	-116.830533
4.000000	-0.156448	-118.150085	-47.765268	85.331523	-47.765268	85.331523	-0.156414	-118.155677
4.050000	-0.158782	-119.472497	-47.502088	83.471057	-47.502088	83.471057	-0.158751	-119.478146
4.100000	-0.161144	-120.792328	-47.244673	81.611050	-47.244673	81.611050	-0.161117	-120.798033
4.150000	-0.163536	-122.109672	-46.992859	79.751764	-46.992859	79.751764	-0.163512	-122.115432
4.200000	-0.165957	-123.424626	-46.746490	77.893436	-46.746490	77.893436	-0.165937	-123.430440
4.250000	-0.168409	-124.737286	-46.505414	76.036283	-46.505414	76.036283	-0.168392	-124.743153
4.300000	-0.170892	-126.047750	-46.269486	74.180498	-46.269486	74.180498	-0.170878	-126.053671
4.350000	-0.173405	-127.356119	-46.038566	72.326256	-46.038566	72.326256	-0.173395	-127.362092
4.400000	-0.175950	-128.662494	-45.812519	70.473710	-45.812519	70.473710	-0.175942	-128.668519
4.450000	-0.178526	-129.966976	-45.591217	68.622996	-45.591217	68.622996	-0.178522	-129.973052
4.500000	-0.181134	-131.269670	-45.374536	66.774229	-45.374536	66.774229	-0.181133	-131.275797
4.550000	-0.183774	-132.570679	-45.162355	64.927509	-45.162355	64.927509	-0.183776	-132.576856
4.600000	-0.186446	-133.870110	-44.954560	63.082915	-44.954560	63.082915	-0.186451	-133.876337
4.650000	-0.189151	-135.168069	-44.751041	61.240514	-44.751041	61.240514	-0.189159	-135.174344
4.700000	-0.191889	-136.464663	-44.551691	59.400353	-44.551691	59.400353	-0.191900	-136.470987
4.750000	-0.194660	-137.760000	-44.356410	57.562466	-44.356410	57.562466	-0.194673	-137.766373
4.800000	-0.197464	-139.054191	-44.165100	55.726873	-44.165100	55.726873	-0.197480	-139.060613
4.850000	-0.200301	-140.347346	-43.977668	53.893578	-43.977668	53.893578	-0.200320	-140.353815
4.900000	-0.203171	-141.639575	-43.794026	52.062574	-43.794026	52.062574	-0.203193	-141.646092
4.950000	-0.206075	-142.930990	-43.614089	50.233843	-43.614089	50.233843	-0.206099	-142.937554
5.000000	-0.209013	-144.221704	-43.437776	48.407352	-43.437776	48.407352	-0.209038	-144.228316
5.050000	-0.211985	-145.511810	-43.265017	46.583155	-43.265017	46.583155	-0.212013	-145.518468
5.100000	-0.214991	-146.801451	-43.095739	44.761102	-43.095739	44.761102	-0.215021	-146.808157
5.150000	-0.218030	-148.090744	-42.929874	42.941133	-42.929874	42.941133	-0.218062	-148.097497
5.200000	-0.221103	-149.379802	-42.767358	41.123181	-42.767358	41.123181	-0.221137	-149.386602
5.250000	-0.224209	-150.668741	-42.608130	39.307172	-42.608130	39.307172	-0.224245	-150.675589
5.300000	-0.227349	-151.957678	-42.452132	37.493028	-42.452132	37.493028	-0.227387	-151.964572
5.350000	-0.230522	-153.246728	-42.299313	35.680665	-42.299313	35.680665	-0.230561	-153.253670
5.400000	-0.233728	-154.536009	-42.149623	33.869997	-42.149623	33.869997	-0.233769	-154.542998
5.450000	-0.236967	-155.825638	-42.003018	32.060936	-42.003018	32.060936	-0.237010	-155.832674
5.500000	-0.240239	-157.115732	-41.859455	30.253394	-41.859455	30.253394	-0.240283	-157.122816
5.550000	-0.243544	-158.406409	-41.718896	28.447281	-41.718896	28.447281	-0.243589	-158.413541
5.600000	-0.246881	-159.697787	-41.581308	26.642511	-41.581308	26.642511	-0.246927	-159.704966
5.650000	-0.250250	-160.989984	-41.446660	24.838999	-41.446660	24.838999	-0.250297	-160.997212
5.700000	-0.253651	-162.283118	-41.314924	23.036665	-41.314924	23.036665	-0.253699	-162.290395
5.750000	-0.257084	-163.577309	-41.186078	21.235433	-41.186078	21.235433	-0.257133	-163.584634
5.800000	-0.260548	-164.872673	-41.060099	19.435235	-41.060099	19.435235	-0.260598	-164.880047
5.850000	-0.264043	-166.169330	-40.936970	17.636008	-40.936970	17.636008	-0.264093	-166.176753
5.900000	-0.267568	-167.467398	-40.816678	15.837699	-40.816678	15.837699	-0.267619	-167.474871
5.950000	-0.271123	-168.766996	-40.699210	14.040267	-40.699210	14.040267	-0.271175	-168.774518
6.000000	-0.274708	-170.068240	-40.584558	12.243678	-40.584558	12.243678	-0.274761	-170.075812
6.050000	-0.278322	-171.371249	-40.472715	10.447913	-40.472715	10.447913	-0.278375	-171.378872
6.100000	-0.281965	-172.676141	-40.363678	8.652966	-40.363678	8.652966	-0.282019	-172.683814
6.150000	-0.285636	-173.983033	-40.257446	6.858844	-40.257446	6.858844	-0.285690	-173.990757
6.200000	-0.289335	-175.292042	-40.154018	5.065571	-40.154018	5.065571	-0.289389	-175.299817
6.250000	-0.293061	-176.603283	-40.053398	3.273187	-40.053398	3.273187	-0.293115	-176.611110
6.300000	-0.296814	-177.916981	-39.955666	1.481793	-39.955666	1.481793	-0.296868	-177.924859
6.350000	-0.300593	-179.233153	-39.860758	-0.308571	-39.860758	-0.308571	-0.300647	-179.241084
6.400000	-0.304397	179.448085	-39.768680	-2.097807	-39.768680	-2.097807	-0.304451	179.440102
6.450000	-0.308225	178.126621	-39.679440	-3.885799	-39.679440	-3.885799	-0.308279	178.118585
6.500000	-0.312077	176.802340	-39.593047	-5.672409	-39.593047	-5.672409	-0.312131	176.794252
6.550000	-0.315951	175.475132	-39.509510	-7.457479	-39.509510	-7.457479	-0.316005	175.466990
6.600000	-0.319848	174.144885	-39.428838	-9.240828	-39.428838	-9.240828	-0.319902	174.136690
6.650000	-0.323765	172.811488	-39.351040	-11.022254	-39.351040	-11.022254	-0.323819	172.803240
6.700000	-0.327703	171.474834	-39.276124	-12.801534	-39.276124	-12.801534	-0.327757	171.466531
6.750000	-0.331660	170.134814	-39.204098	-14.578421	-39.204098	-14.578421	-0.331714	170.126457
6.800000	-0.335636	168.791322	-39.134970	-16.352648	-39.134970	-16.352648	-0.335689	168.782911
6.850000	-0.339629	167.444253	-39.068745	-18.123925	-39.068745	-18.123925	-0.339682	167.435787
6.900000	-0.343639	166.093503	-39.005427	-19.891939	-39.005427	-19.891939	-0.343691	166.084983
6.950000	-0.347663	164.738971	-38.945019	-21.656357	-38.945019	-21.656357	-0.347716	164.730396
7.000000	-0.351703	163.380556	-38.887521	-23.416824	-38.887521	-23.416824	-0.351755	163.371927
7.050000	-0.355755	162.018160	-38.832931	-25.172966	-38.832931	-25.172966	-0.355807	162.009477
7.100000	-0.359820	160.651687	-38.781244	-26.924388	-38.781244	-26.924388	-0.359871	160.642950
7.150000	-0.363896	159.281043	-38.732454	-28.670675	-38.732454	-28.670675	-0.363947	159.272251
7.200000	-0.367982	157.906135	-38.686548	-30.411394	-38.686548	-30.411394	-0.368032	157.897289
7.250000	-0.372076	156.526874	-38.643514	-32.146095	-38.643514	-32.146095	-0.372126	156.517974
7.300000	-0.376178	155.143171	-38.603333	-33.874310	-38.603333	-33.874310	-0.376227	155.134217
7.350000	-0.380285	153.754943	-38.565985	-35.595555	-38.565985	-35.595555	-0.380334	153.745935
7.400000	-0.384398	152.362106	-38.531444	-37.309331	-38.531444	-37.309331	-0.384446	152.353046
7.450000	-0.388514	150.964582	-38.499681	-39.015123	-38.499681	-39.015123	-0.388562	150.955469
7.500000	-0.392632	149.562293	-38.470663	-40.712404	-38.470663	-40.712404	-0.392680	149.553128
7.550000	-0.396751	148.154954	-38.444464	-42.400212	-38.444464	-42.400212	-0.396799	148.145737
7.600000	-0.400870	146.742701	-38.420927	-44.078361	-38.420927	-44.078361	-0.400917	146.733432
7.650000	-0.404986	145.325468	-38.400004	-45.746280	-38.400004	-45.746280	-0.405033	145.316149
7.700000	-0.409099	143.903192	-38.381642	-47.403387	-38.381642	-47.403387	-0.409145	143.893823
7.750000	-0.413207	142.475814	-38.365786	-49.049085	-38.365786	-49.049085	-0.413253	142.466396
7.800000	-0.417309	141.043280	-38.352374	-50.682764	-38.352374	-50.682764	-0.417354	141.033814
7.850000	-0.421402	139.605538	-38.341341	-52.303798	-38.341341	-52.303798	-0.421448	139.596024
7.900000	-0.425487	138.162540	-38.332617	-53.911543	-38.332617	-53.911543	-0.425532	138.152980
7.950000	-0.429561	136.714245	-38.326129	-55.505336	-38.326129	-55.505336	-0.429606	136.704640
8.000000	-0.433622	135.260614	-38.321798	-57.084492	-38.321798	-57.084492	-0.433667	135.250965
8.050000	-0.437670	133.801614	-38.319543	-58.648299	-38.319543	-58.648299	-0.437715	133.791922
8.100000	-0.441703	132.337217	-38.319280	-60.196016	-38.319280	-60.196016	-0.441748	132.327483
8.150000	-0.445720	130.867397	-38.320921	-61.726865	-38.320921	-61.726865	-0.445765	130.857623
8.200000	-0.449718	129.392137	-38.324378	-63.240025	-38.324378	-63.240025	-0.449763	129.382324
8.250000	-0.453697	127.911424	-38.329558	-64.734628	-38.329558	-64.734628	-0.453742	127.901574
8.300000	-0.457655	126.425250	-38.336372	-66.209745	-38.336372	-66.209745	-0.457700	126.415364
8.350000	-0.461590	124.933612	-38.344728	-67.664378	-38.344728	-67.664378	-0.461636	124.923693
8.400000	-0.465502	123.436514	-38.354538	-69.097450	-38.354538	-69.097450	-0.465548	123.426563
8.450000	-0.469389	121.933966	-38.365718	-70.507789	-38.365718	-70.507789	-0.469436	121.923985
8.500000	-0.473250	120.425983	-38.378192	-71.894115	-38.378192	-71.894115	-0.473297	120.415973
8.550000	-0.477083	118.912586	-38.391894	-73.255027	-38.391894	-73.255027	-0.477130	118.902551
8.600000	-0.480887	117.393805	-38.406770	-74.588980	-38.406770	-74.588980	-0.480935	117.383745
8.650000	-0.484661	115.869672	-38.422789	-75.894274	-38.422789	-75.894274	-0.484710	115.859591
8.700000	-0.488404	114.340230	-38.439944	-77.169036	-38.439944	-77.169036	-0.488454	114.330130
8.750000	-0.492114	112.805526	-38.458263	-78.411208	-38.458263	-78.411208	-0.492165	112.795409
8.800000	-0.495790	111.265391	-38.477877	-79.616906	-38.477877	-79.616906	-0.495842	111.255261
8.850000	-0.499431	109.720117	-38.498877	-80.785079	-38.498877	-80.785079	-0.499484	109.709975
8.900000	-0.503037	108.169773	-38.521478	-81.913092	-38.521478	-81.913092	-0.503091	108.159623
8.950000	-0.506607	106.614436	-38.545991	-82.998190	-38.545991	-82.998190	-0.506662	106.604280
9.000000	-0.510140	105.054189	-38.572843	-84.037586	-38.572843	-84.037586	-0.510197	105.044030
9.050000	-0.513635	103.489124	-38.602601	-85.028596	-38.602601	-85.028596	-0.513693	103.478965
9.100000	-0.517093	101.919339	-38.635993	-85.968845	-38.635993	-85.968845	-0.517152	101.909184
9.150000	-0.520511	100.344940	-38.673927	-86.856556	-38.673927	-86.856556	-0.520572	100.334791
9.200000	-0.523891	98.766039	-38.717506	-87.690944	-38.717506	-87.690944	-0.523953	98.755900
9.250000	-0.527231	97.182758	-38.768018	-88.472700	-38.768018	-88.472700	-0.527295	97.172632
9.300000	-0.530531	95.595223	-38.826907	-89.204567	-38.826907	-89.204567	-0.530597	95.585114
9.350000	-0.533792	94.003571	-38.895706	-89.891945	-38.895706	-89.891945	-0.533860	93.993482
9.400000	-0.537013	92.407943	-38.975924	-90.543423	-38.975924	-90.543423	-0.537083	92.397877
9.450000	-0.540195	90.808488	-39.068888	-91.171104	-39.068888	-91.171104	-0.540267	90.798450
9.500000	-0.543337	89.205364	-39.175549	-91.790541	-39.175549	-91.790541	-0.543411	89.195357
9.550000	-0.546440	87.598735	-39.296264	-92.420122	-39.296264	-92.420122	-0.546517	87.588763
9.600000	-0.549505	85.988771	-39.430617	-93.079809	-39.430617	-93.079809	-0.549584	85.978837
9.650000	-0.552532	84.375650	-39.577302	-93.789314	-39.577302	-93.789314	-0.552613	84.365759
9.700000	-0.555521	82.759557	-39.734138	-94.565946	-39.734138	-94.565946	-0.555605	82.749711
9.750000	-0.558474	81.140681	-39.898218	-95.422557	-39.898218	-95.422557	-0.558561	81.130886
9.800000	-0.561392	79.519222	-40.066188	-96.366039	-40.066188	-96.366039	-0.561481	79.509481
9.850000	-0.564275	77.895382	-40.234595	-97.396721	-40.234595	-97.396721	-0.564367	77.885699
9.900000	-0.567125	76.269371	-40.400242	-98.508784	-40.400242	-98.508784	-0.567220	76.259751
9.950000	-0.569944	74.641405	-40.560463	-99.691506	-40.560463	-99.691506	-0.570041	74.631850
10.000000	-0.572732	73.011704	-40.713289	-100.931011	-40.713289	-100.931011	-0.572832	73.002220
