! freq	dB(S11)	phase(S11)	dB(S12)	phase(S12)	
!     	dB(S21)	phase(S21)	dB(S22)	phase(S22)	
!S-par simulation data
#  GHz  S  DB  R 50
0.000000	-0.000000	0.000000	-364.083563	0.000000	-364.083563	0.000000	-0.000000	0.000000
0.050000	-0.000127	-1.278562	-78.754145	179.216342	-78.754145	179.216342	-0.000127	-1.278941
0.100000	-0.000506	-2.556829	-78.696229	170.262580	-78.696229	170.262580	-0.000507	-2.557587
0.150000	-0.001128	-3.834519	-78.647167	163.232250	-78.647167	163.232250	-0.001129	-3.835655
0.200000	-0.001975	-5.111379	-78.590011	156.806361	-78.590011	156.806361	-0.001977	-5.112891
0.250000	-0.003043	-6.387098	-78.526632	150.770435	-78.526632	150.770435	-0.003046	-6.388986
0.300000	-0.004292	-7.661568	-78.462534	145.030579	-78.462534	145.030579	-0.004296	-7.663830
0.350000	-0.005707	-8.934563	-78.402970	139.587050	-78.402970	139.587050	-0.005713	-8.937198
0.400000	-0.007266	-10.205932	-78.353761	134.438181	-78.353761	134.438181	-0.007273	-10.208937
0.450000	-0.008944	-11.475551	-78.320696	129.586929	-78.320696	129.586929	-0.008952	-11.478925
0.500000	-0.010719	-12.743323	-78.309398	125.037936	-78.309398	125.037936	-0.010729	-12.747066
0.550000	-0.012568	-14.009176	-78.325285	120.797241	-78.325285	120.797241	-0.012579	-14.013285
0.600000	-0.014473	-15.273056	-78.373583	116.873102	-78.373583	116.873102	-0.014485	-15.277530
0.650000	-0.016415	-16.534925	-78.459384	113.277413	-78.459384	113.277413	-0.016429	-16.539764
0.700000	-0.018380	-17.794760	-78.587715	110.027565	-78.587715	110.027565	-0.018395	-17.799961
0.750000	-0.020354	-19.052543	-78.763609	107.148814	-78.763609	107.148814	-0.020369	-19.058106
0.800000	-0.022326	-20.308264	-78.992132	104.677378	-78.992132	104.677378	-0.022343	-20.314189
0.850000	-0.024288	-21.561916	-79.278330	102.664576	-79.278330	102.664576	-0.024306	-21.568201
0.900000	-0.026234	-22.813492	-79.626991	101.182483	-79.626991	101.182483	-0.026252	-22.820137
0.950000	-0.028157	-24.062985	-80.042041	100.331635	-80.042041	100.331635	-0.028175	-24.069990
1.000000	-0.030054	-25.310388	-80.525255	100.251134	-80.525255	100.251134	-0.030074	-25.317752
1.050000	-0.031924	-26.555689	-81.073631	101.130608	-81.073631	101.130608	-0.031944	-26.563413
1.100000	-0.033764	-27.798876	-81.674399	103.220280	-81.674399	103.220280	-0.033784	-27.806958
1.150000	-0.035574	-29.039933	-82.296234	106.827189	-82.296234	106.827189	-0.035595	-29.048372
1.200000	-0.037354	-30.278839	-82.876159	112.268183	-82.876159	112.268183	-0.037376	-30.287636
1.250000	-0.039106	-31.515574	-83.307213	119.726923	-83.307213	119.726923	-0.039127	-31.524728
1.300000	-0.040828	-32.750015	-83.427809	129.012762	-83.427809	129.012762	-0.040850	-32.759526
1.350000	-0.042523	-33.982230	-83.129841	139.088549	-83.129841	139.088549	-0.042546	-33.992098
1.400000	-0.044194	-35.212191	-82.406015	148.664737	-82.406015	148.664737	-0.044217	-35.222414
1.450000	-0.045842	-36.439865	-81.361333	156.766172	-81.361333	156.766172	-0.045865	-36.450444
1.500000	-0.047468	-37.665222	-80.138143	163.037564	-80.138143	163.037564	-0.047492	-37.676156
1.550000	-0.049075	-38.888228	-78.851538	167.582894	-78.851538	167.582894	-0.049099	-38.899516
1.600000	-0.050665	-40.108850	-77.572519	170.697145	-77.572519	170.697145	-0.050689	-40.120492
1.650000	-0.052239	-41.327055	-76.337502	172.695478	-76.337502	172.695478	-0.052264	-41.339050
1.700000	-0.053799	-42.542808	-75.161862	173.845516	-75.161862	173.845516	-0.053824	-42.555157
1.750000	-0.055347	-43.756076	-74.049737	174.354854	-74.049737	174.354854	-0.055373	-43.768778
1.800000	-0.056885	-44.966827	-72.999777	174.378779	-72.999777	174.378779	-0.056912	-44.979880
1.850000	-0.058414	-46.175028	-72.008222	174.032164	-72.008222	174.032164	-0.058441	-46.188432
1.900000	-0.059936	-47.380648	-71.070456	173.400075	-71.070456	173.400075	-0.059964	-47.394403
1.950000	-0.061453	-48.583656	-70.181766	172.545946	-70.181766	172.545946	-0.061481	-48.597761
2.000000	-0.062965	-49.784023	-69.337677	171.517537	-69.337677	171.517537	-0.062994	-49.798478
2.050000	-0.064474	-50.981722	-68.534097	170.351187	-68.534097	170.351187	-0.064503	-50.996526
2.100000	-0.065981	-52.176726	-67.767350	169.074836	-67.767350	169.074836	-0.066011	-52.191879
2.150000	-0.067488	-53.369010	-67.034161	167.710185	-67.034161	167.710185	-0.067519	-53.384511
2.200000	-0.068996	-54.558552	-66.331627	166.274246	-66.331627	166.274246	-0.069027	-54.574401
2.250000	-0.070505	-55.745330	-65.657178	164.780471	-65.657178	164.780471	-0.070537	-55.761526
2.300000	-0.072017	-56.929324	-65.008536	163.239582	-65.008536	163.239582	-0.072050	-56.945867
2.350000	-0.073532	-58.110516	-64.383676	161.660180	-64.383676	161.660180	-0.073566	-58.127405
2.400000	-0.075052	-59.288890	-63.780800	160.049212	-63.780800	160.049212	-0.075086	-59.306126
2.450000	-0.076577	-60.464433	-63.198302	158.412318	-63.198302	158.412318	-0.076612	-60.482015
2.500000	-0.078109	-61.637133	-62.634746	156.754097	-62.634746	156.754097	-0.078145	-61.655060
2.550000	-0.079648	-62.806854	-62.088113	155.077698	-62.088113	155.077698	-0.079684	-62.825126
2.600000	-0.081194	-63.973712	-61.558052	153.387063	-61.558052	153.387063	-0.081231	-63.992330
2.650000	-0.082749	-65.137702	-61.043507	151.684681	-61.043507	151.684681	-0.082787	-65.156665
2.700000	-0.084313	-66.298820	-60.543524	149.972614	-60.543524	149.972614	-0.084351	-66.318127
2.750000	-0.085886	-67.457064	-60.057239	148.252570	-60.057239	148.252570	-0.085926	-67.476716
2.800000	-0.087470	-68.612433	-59.583865	146.525967	-59.583865	146.525967	-0.087511	-68.632430
2.850000	-0.089066	-69.764931	-59.122688	144.793982	-59.122688	144.793982	-0.089107	-69.785273
2.900000	-0.090672	-70.914562	-58.673054	143.057590	-58.673054	143.057590	-0.090714	-70.935248
2.950000	-0.092291	-72.061331	-58.234365	141.317601	-58.234365	141.317601	-0.092334	-72.082362
3.000000	-0.093923	-73.205246	-57.806075	139.574686	-57.806075	139.574686	-0.093966	-73.226623
3.050000	-0.095568	-74.346319	-57.387681	137.829398	-57.387681	137.829398	-0.095612	-74.368041
3.100000	-0.097227	-75.484560	-56.978720	136.082194	-56.978720	136.082194	-0.097272	-75.506629
3.150000	-0.098900	-76.619984	-56.578765	134.333451	-56.578765	134.333451	-0.098947	-76.642399
3.200000	-0.100589	-77.752607	-56.187425	132.583475	-56.187425	132.583475	-0.100636	-77.775369
3.250000	-0.102293	-78.882447	-55.804334	130.832518	-55.804334	130.832518	-0.102341	-78.905557
3.300000	-0.104013	-80.009523	-55.429157	129.080785	-55.429157	129.080785	-0.104062	-80.032981
3.350000	-0.105750	-81.133858	-55.061582	127.328439	-55.061582	127.328439	-0.105800	-81.157664
3.400000	-0.107504	-82.255473	-54.701319	125.575615	-54.701319	125.575615	-0.107555	-82.279629
3.450000	-0.109276	-83.374396	-54.348099	123.822416	-54.348099	123.822416	-0.109328	-83.398902
3.500000	-0.111067	-84.490652	-54.001671	122.068929	-54.001671	122.068929	-0.111119	-84.515510
3.550000	-0.112876	-85.604271	-53.661802	120.315219	-53.661802	120.315219	-0.112929	-85.629481
3.600000	-0.114704	-86.715283	-53.328275	118.561340	-53.328275	118.561340	-0.114758	-86.740846
3.650000	-0.116553	-87.823720	-53.000885	116.807335	-53.000885	116.807335	-0.116608	-87.849639
3.700000	-0.118422	-88.929618	-52.679443	115.053237	-52.679443	115.053237	-0.118478	-88.955892
3.750000	-0.120312	-90.033010	-52.363771	113.299075	-52.363771	113.299075	-0.120369	-90.059641
3.800000	-0.122225	-91.133830	-52.053465	111.544872	-52.053465	111.544872	-0.122283	-91.160820
3.850000	-0.124161	-92.232224	-51.748625	109.790653	-51.748625	109.790653	-0.124219	-92.259575
3.900000	-0.126119	-93.328236	-51.449102	108.036438	-51.449102	108.036438	-0.126178	-93.355948
3.950000	-0.128101	-94.421906	-51.154756	106.282248	-51.154756	106.282248	-0.128161	-94.449982
4.000000	-0.130106	-95.513279	-50.865457	104.528105	-50.865457	104.528105	-0.130168	-95.541721
4.050000	-0.132137	-96.602400	-50.581079	102.774032	-50.581079	102.774032	-0.132199	-96.631210
4.100000	-0.134193	-97.689317	-50.301504	101.020055	-50.301504	101.020055	-0.134256	-97.718496
4.150000	-0.136274	-98.774077	-50.026622	99.266203	-50.026622	99.266203	-0.136339	-98.803629
4.200000	-0.138382	-99.856733	-49.756327	97.512508	-49.756327	97.512508	-0.138448	-99.886658
4.250000	-0.140518	-100.937334	-49.490517	95.759005	-49.490517	95.759005	-0.140584	-100.967636
4.300000	-0.142680	-102.015934	-49.229098	94.005733	-49.229098	94.005733	-0.142748	-102.046615
4.350000	-0.144871	-103.092588	-48.971978	92.252733	-48.971978	92.252733	-0.144940	-103.123650
4.400000	-0.147091	-104.167351	-48.719069	90.500052	-48.719069	90.500052	-0.147161	-104.198798
4.450000	-0.149341	-105.240282	-48.470289	88.747738	-48.470289	88.747738	-0.149411	-105.272115
4.500000	-0.151620	-106.311437	-48.225556	86.995845	-48.225556	86.995845	-0.151692	-106.343660
4.550000	-0.153930	-107.380879	-47.984794	85.244427	-47.984794	85.244427	-0.154003	-107.413495
4.600000	-0.156272	-108.448668	-47.747928	83.493543	-47.747928	83.493543	-0.156346	-108.481680
4.650000	-0.158645	-109.514867	-47.514887	81.743254	-47.514887	81.743254	-0.158720	-109.548278
4.700000	-0.161051	-110.579540	-47.285601	79.993623	-47.285601	79.993623	-0.161127	-110.613354
4.750000	-0.163491	-111.642754	-47.060002	78.244717	-47.060002	78.244717	-0.163568	-111.676974
4.800000	-0.165963	-112.704574	-46.838026	76.496600	-46.838026	76.496600	-0.166042	-112.739204
4.850000	-0.168470	-113.765069	-46.619608	74.749343	-46.619608	74.749343	-0.168550	-113.800113
4.900000	-0.171012	-114.824309	-46.404687	73.003013	-46.404687	73.003013	-0.171093	-114.859770
4.950000	-0.173590	-115.882364	-46.193202	71.257680	-46.193202	71.257680	-0.173672	-115.918246
5.000000	-0.176203	-116.939306	-45.985094	69.513414	-45.985094	69.513414	-0.176287	-116.975615
5.050000	-0.178855	-117.995168	-45.780241	67.770336	-45.780241	67.770336	-0.178940	-118.031907
5.100000	-0.181544	-119.050072	-45.578658	66.028468	-45.578658	66.028468	-0.181630	-119.087246
5.150000	-0.184271	-120.104095	-45.380290	64.287877	-45.380290	64.287877	-0.184358	-120.141709
5.200000	-0.187036	-121.157314	-45.185081	62.548628	-45.185081	62.548628	-0.187125	-121.195372
5.250000	-0.189840	-122.209809	-44.992976	60.810785	-44.992976	60.810785	-0.189930	-122.248316
5.300000	-0.192684	-123.261658	-44.803923	59.074408	-44.803923	59.074408	-0.192775	-123.300620
5.350000	-0.195567	-124.312944	-44.617868	57.339555	-44.617868	57.339555	-0.195660	-124.352366
5.400000	-0.198491	-125.363749	-44.434759	55.606282	-44.434759	55.606282	-0.198585	-125.403636
5.450000	-0.201456	-126.414157	-44.254546	53.874641	-44.254546	53.874641	-0.201552	-126.454515
5.500000	-0.204462	-127.464254	-44.077179	52.144679	-44.077179	52.144679	-0.204559	-127.505088
5.550000	-0.207510	-128.514125	-43.902606	50.416440	-43.902606	50.416440	-0.207609	-128.555442
5.600000	-0.210601	-129.563860	-43.730781	48.689966	-43.730781	48.689966	-0.210701	-129.605664
5.650000	-0.213734	-130.613546	-43.561654	46.965291	-43.561654	46.965291	-0.213836	-130.655846
5.700000	-0.216911	-131.663276	-43.395178	45.242448	-43.395178	45.242448	-0.217015	-131.706077
5.750000	-0.220131	-132.713140	-43.231306	43.521463	-43.231306	43.521463	-0.220236	-132.756449
5.800000	-0.223395	-133.763232	-43.069993	41.802358	-43.069993	41.802358	-0.223503	-133.807055
5.850000	-0.226704	-134.813646	-42.911194	40.085152	-42.911194	40.085152	-0.226813	-134.857992
5.900000	-0.230058	-135.864479	-42.754865	38.369857	-42.754865	38.369857	-0.230168	-135.909354
5.950000	-0.233457	-136.915829	-42.600962	36.656480	-42.600962	36.656480	-0.233569	-136.961241
6.000000	-0.236901	-137.967793	-42.449442	34.945027	-42.449442	34.945027	-0.237015	-138.013749
6.050000	-0.240391	-139.020473	-42.300265	33.235494	-42.300265	33.235494	-0.240507	-139.066982
6.100000	-0.243927	-140.073970	-42.153390	31.527877	-42.153390	31.527877	-0.244045	-140.121039
6.150000	-0.247510	-141.128387	-42.008777	29.822165	-42.008777	29.822165	-0.247630	-141.176025
6.200000	-0.251139	-142.183829	-41.866387	28.118345	-41.866387	28.118345	-0.251261	-142.232045
6.250000	-0.254815	-143.240402	-41.726184	26.416398	-41.726184	26.416398	-0.254939	-143.289205
6.300000	-0.258540	-144.298273	-41.588129	24.716380	-41.588129	24.716380	-0.258667	-144.347672
6.350000	-0.262313	-145.357503	-41.452191	23.018186	-41.452191	23.018186	-0.262442	-145.407507
6.400000	-0.266133	-146.418202	-41.318337	21.321786	-41.318337	21.321786	-0.266264	-146.468821
6.450000	-0.270001	-147.480483	-41.186534	19.627147	-41.186534	19.627147	-0.270134	-147.531728
6.500000	-0.273917	-148.544461	-41.056749	17.934236	-41.056749	17.934236	-0.274052	-148.596341
6.550000	-0.277881	-149.610251	-40.928954	16.243017	-40.928954	16.243017	-0.278018	-149.662777
6.600000	-0.281892	-150.677971	-40.803118	14.553451	-40.803118	14.553451	-0.282032	-150.731153
6.650000	-0.285952	-151.747741	-40.679214	12.865499	-40.679214	12.865499	-0.286095	-151.801591
6.700000	-0.290061	-152.819681	-40.557217	11.179121	-40.557217	11.179121	-0.290206	-152.874210
6.750000	-0.294217	-153.893914	-40.437100	9.494277	-40.437100	9.494277	-0.294365	-153.949134
6.800000	-0.298422	-154.970566	-40.318842	7.810927	-40.318842	7.810927	-0.298572	-155.026489
6.850000	-0.302676	-156.049762	-40.202419	6.129031	-40.202419	6.129031	-0.302828	-156.106400
6.900000	-0.306977	-157.131631	-40.087812	4.448551	-40.087812	4.448551	-0.307133	-157.188997
6.950000	-0.311327	-158.216303	-39.975002	2.769450	-39.975002	2.769450	-0.311486	-158.274410
7.000000	-0.315726	-159.303910	-39.863970	1.091694	-39.863970	1.091694	-0.315887	-159.362772
7.050000	-0.320173	-160.394586	-39.754701	-0.584749	-39.754701	-0.584749	-0.320337	-160.454216
7.100000	-0.324668	-161.488468	-39.647181	-2.259907	-39.647181	-2.259907	-0.324835	-161.548880
7.150000	-0.329212	-162.585693	-39.541396	-3.933805	-39.541396	-3.933805	-0.329382	-162.646902
7.200000	-0.333804	-163.686402	-39.437335	-5.606462	-39.437335	-5.606462	-0.333977	-163.748423
7.250000	-0.338443	-164.790737	-39.334988	-7.277895	-39.334988	-7.277895	-0.338620	-164.853585
7.300000	-0.343131	-165.898842	-39.234345	-8.948113	-39.234345	-8.948113	-0.343311	-165.962533
7.350000	-0.347867	-167.010864	-39.135400	-10.617119	-39.135400	-10.617119	-0.348050	-167.075415
7.400000	-0.352651	-168.126952	-39.038147	-12.284911	-39.038147	-12.284911	-0.352837	-168.192378
7.450000	-0.357483	-169.247257	-38.942581	-13.951479	-38.942581	-13.951479	-0.357672	-169.313576
7.500000	-0.362362	-170.371932	-38.848698	-15.616806	-38.848698	-15.616806	-0.362555	-170.439161
7.550000	-0.367291	-171.501337	-38.756529	-17.280809	-38.756529	-17.280809	-0.367487	-171.569495
7.600000	-0.372267	-172.635442	-38.666045	-18.943508	-38.666045	-18.943508	-0.372467	-172.704546
7.650000	-0.377291	-173.774405	-38.577245	-20.604857	-38.577245	-20.604857	-0.377494	-173.844476
7.700000	-0.382362	-174.918392	-38.490132	-22.264805	-38.490132	-22.264805	-0.382568	-174.989448
7.750000	-0.387480	-176.067568	-38.404708	-23.923286	-38.404708	-23.923286	-0.387690	-176.139629
7.800000	-0.392646	-177.222100	-38.320977	-25.580228	-38.320977	-25.580228	-0.392859	-177.295186
7.850000	-0.397858	-178.382161	-38.238944	-27.235546	-38.238944	-27.235546	-0.398075	-178.456293
7.900000	-0.403117	-179.547923	-38.158614	-28.889147	-38.158614	-28.889147	-0.403338	-179.623122
7.950000	-0.408423	179.280437	-38.079992	-30.540922	-38.079992	-30.540922	-0.408648	179.204149
8.000000	-0.413776	178.102740	-38.003087	-32.190757	-38.003087	-32.190757	-0.414004	178.025341
8.050000	-0.419175	176.918804	-37.927906	-33.838522	-37.927906	-33.838522	-0.419407	176.840272
8.100000	-0.424620	175.728447	-37.854456	-35.484078	-37.854456	-35.484078	-0.424857	175.648757
8.150000	-0.430113	174.531479	-37.782746	-37.127273	-37.782746	-37.127273	-0.430353	174.450609
8.200000	-0.435651	173.327713	-37.712784	-38.767943	-37.712784	-38.767943	-0.435895	173.245638
8.250000	-0.441236	172.116954	-37.644581	-40.405916	-37.644581	-40.405916	-0.441484	172.033650
8.300000	-0.446866	170.899008	-37.578144	-42.041005	-37.578144	-42.041005	-0.447119	170.814449
8.350000	-0.452543	169.673677	-37.513483	-43.673013	-37.513483	-43.673013	-0.452800	169.587837
8.400000	-0.458266	168.440760	-37.450608	-45.301732	-37.450608	-45.301732	-0.458527	168.353612
8.450000	-0.464034	167.200054	-37.389526	-46.926944	-37.389526	-46.926944	-0.464299	167.111572
8.500000	-0.469847	165.951351	-37.330247	-48.548418	-37.330247	-48.548418	-0.470117	165.861507
8.550000	-0.475706	164.694444	-37.272778	-50.165917	-37.272778	-50.165917	-0.475981	164.603211
8.600000	-0.481610	163.429122	-37.217129	-51.779191	-37.217129	-51.779191	-0.481889	163.336469
8.650000	-0.487559	162.155169	-37.163305	-53.387982	-37.163305	-53.387982	-0.487843	162.061069
8.700000	-0.493552	160.872370	-37.111314	-54.992024	-37.111314	-54.992024	-0.493841	160.776793
8.750000	-0.499589	159.580506	-37.061162	-56.591042	-37.061162	-56.591042	-0.499884	159.483421
8.800000	-0.505671	158.278942	-37.012922	-58.184510	-37.012922	-58.184510	-0.505972	158.180317
8.850000	-0.511796	156.967849	-36.966533	-59.772357	-36.966533	-59.772357	-0.512103	156.867652
8.900000	-0.517964	155.647002	-36.921996	-61.354289	-36.921996	-61.354289	-0.518277	155.545200
8.950000	-0.524174	154.316173	-36.879313	-62.930004	-36.879313	-62.930004	-0.524493	154.212735
9.000000	-0.530425	152.975135	-36.838487	-64.499200	-36.838487	-64.499200	-0.530751	152.870026
9.050000	-0.536717	151.623658	-36.799515	-66.061567	-36.799515	-66.061567	-0.537050	151.516845
9.100000	-0.543048	150.261511	-36.762397	-67.616797	-36.762397	-67.616797	-0.543389	150.152958
9.150000	-0.549418	148.888462	-36.727129	-69.164578	-36.727129	-69.164578	-0.549767	148.778135
9.200000	-0.555826	147.504280	-36.693708	-70.704596	-36.693708	-70.704596	-0.556183	147.392142
9.250000	-0.562270	146.108731	-36.662128	-72.236541	-36.662128	-72.236541	-0.562636	145.994746
9.300000	-0.568749	144.701585	-36.632381	-73.760100	-36.632381	-73.760100	-0.569124	144.585716
9.350000	-0.575262	143.282610	-36.604460	-75.274965	-36.604460	-75.274965	-0.575648	143.164818
9.400000	-0.581808	141.851574	-36.578356	-76.780829	-36.578356	-76.780829	-0.582204	141.731821
9.450000	-0.588385	140.408248	-36.554056	-78.277391	-36.554056	-78.277391	-0.588792	140.286496
9.500000	-0.594992	138.952405	-36.531550	-79.764352	-36.531550	-79.764352	-0.595411	138.828615
9.550000	-0.601626	137.483820	-36.510822	-81.241419	-36.510822	-81.241419	-0.602058	137.357951
9.600000	-0.608287	136.002270	-36.491859	-82.708307	-36.491859	-82.708307	-0.608731	135.874281
9.650000	-0.614972	134.507535	-36.474644	-84.164737	-36.474644	-84.164737	-0.615430	134.377386
9.700000	-0.621678	132.999400	-36.459159	-85.610437	-36.459159	-85.610437	-0.622151	132.867050
9.750000	-0.628406	131.477655	-36.445386	-87.045144	-36.445386	-87.045144	-0.628894	131.343061
9.800000	-0.635151	129.942093	-36.433304	-88.468605	-36.433304	-88.468605	-0.635655	129.805214
9.850000	-0.641913	128.392515	-36.422893	-89.880575	-36.422893	-89.880575	-0.642433	128.253309
9.900000	-0.648688	126.828727	-36.414131	-91.280822	-36.414131	-91.280822	-0.649226	126.687151
9.950000	-0.655476	125.250541	-36.406994	-92.669121	-36.406994	-92.669121	-0.656032	125.106554
10.000000	-0.662273	123.657781	-36.401459	-94.045261	-36.401459	-94.045261	-0.662848	123.511340
