! freq	dB(S11)	phase(S11)	dB(S12)	phase(S12)	
!     	dB(S21)	phase(S21)	dB(S22)	phase(S22)	
!S-par simulation data
#  GHz  S  DB  R 50
0.000000	-80.733914	0.000000	-0.000798	0.000000	-0.000798	0.000000	-80.733914	0.000000
0.050000	-46.054128	-92.042127	-0.006396	-3.101838	-0.006396	-3.101838	-46.051963	-91.703302
0.100000	-40.043421	-95.698687	-0.014676	-6.151324	-0.014676	-6.151324	-40.040262	-95.021952
0.150000	-36.537330	-99.002832	-0.020502	-9.178784	-0.020502	-9.178784	-36.532625	-97.990598
0.200000	-34.059701	-102.234369	-0.024813	-12.202806	-0.024813	-12.202806	-34.053226	-100.889309
0.250000	-32.149843	-105.446515	-0.028501	-15.227251	-0.028501	-15.227251	-32.141516	-103.771431
0.300000	-30.603477	-108.660266	-0.032073	-18.252397	-0.032073	-18.252397	-30.593437	-106.657493
0.350000	-29.308845	-111.883969	-0.035757	-21.277708	-0.035757	-21.277708	-29.297475	-109.554543
0.400000	-28.202011	-115.121811	-0.039646	-24.302737	-0.039646	-24.302737	-28.189803	-112.465510
0.450000	-27.241300	-118.375302	-0.043777	-27.327092	-0.043777	-27.327092	-27.228827	-115.390333
0.500000	-26.400120	-121.645344	-0.048168	-30.350401	-0.048168	-30.350401	-26.388025	-118.327942
0.550000	-25.657201	-124.929742	-0.052791	-33.372490	-0.052791	-33.372490	-25.646062	-121.274606
0.600000	-24.997286	-128.226177	-0.057615	-36.393248	-0.057615	-36.393248	-24.987589	-124.226696
0.650000	-24.409927	-131.532437	-0.062614	-39.412561	-0.062614	-39.412561	-24.402062	-127.180600
0.700000	-23.886361	-134.845750	-0.067750	-42.430406	-0.067750	-42.430406	-23.880590	-130.132583
0.750000	-23.418790	-138.163320	-0.072983	-45.446846	-0.072983	-45.446846	-23.415238	-133.079422
0.800000	-23.001859	-141.482823	-0.078278	-48.461926	-0.078278	-48.461926	-23.000546	-136.018189
0.850000	-22.631773	-144.802138	-0.083597	-51.475703	-0.083597	-51.475703	-22.632626	-138.946051
0.900000	-22.303295	-148.119622	-0.088905	-54.488365	-0.088905	-54.488365	-22.306168	-141.861549
0.950000	-22.013085	-151.434141	-0.094170	-57.500065	-0.094170	-57.500065	-22.017788	-144.763291
1.000000	-21.761543	-154.744523	-0.099349	-60.510901	-0.099349	-60.510901	-21.767849	-147.648416
1.050000	-21.540452	-158.051391	-0.104433	-63.521226	-0.104433	-63.521226	-21.548157	-150.519591
1.100000	-21.350250	-161.354591	-0.109392	-66.531179	-0.109392	-66.531179	-21.359154	-153.375155
1.150000	-21.190549	-164.654568	-0.114195	-69.540987	-0.114195	-69.540987	-21.200469	-156.214236
1.200000	-21.059202	-167.952437	-0.118826	-72.550915	-0.118826	-72.550915	-21.069997	-159.037411
1.250000	-20.954123	-171.249559	-0.123275	-75.561210	-0.123275	-75.561210	-20.965696	-161.845533
1.300000	-20.874735	-174.547479	-0.127529	-78.572139	-0.127529	-78.572139	-20.887034	-164.638748
1.350000	-20.820594	-177.848068	-0.131574	-81.583983	-0.131574	-81.583983	-20.833615	-167.417288
1.400000	-20.790095	178.846838	-0.135416	-84.596969	-0.135416	-84.596969	-20.803881	-170.182153
1.450000	-20.782798	175.535216	-0.139052	-87.611345	-0.139052	-87.611345	-20.797435	-172.933688
1.500000	-20.799509	172.214398	-0.142474	-90.627451	-0.142474	-90.627451	-20.815136	-175.671518
1.550000	-20.838741	168.882573	-0.145699	-93.645440	-0.145699	-93.645440	-20.855534	-178.396516
1.600000	-20.900409	165.537486	-0.148734	-96.665535	-0.148734	-96.665535	-20.918584	178.891332
1.650000	-20.985517	162.176016	-0.151582	-99.688058	-0.151582	-99.688058	-21.005342	176.192831
1.700000	-21.093241	158.796394	-0.154264	-102.713111	-0.154264	-102.713111	-21.115014	173.507840
1.750000	-21.225444	155.394344	-0.156785	-105.741097	-0.156785	-105.741097	-21.249529	170.838205
1.800000	-21.379742	151.970180	-0.159179	-108.771812	-0.159179	-108.771812	-21.406512	168.182963
1.850000	-21.559089	148.518122	-0.161449	-111.805765	-0.161449	-111.805765	-21.589000	165.545353
1.900000	-21.762930	145.036702	-0.163621	-114.842914	-0.163621	-114.842914	-21.796479	162.926096
1.950000	-21.992010	141.522573	-0.165715	-117.883384	-0.165715	-117.883384	-22.029759	160.327358
2.000000	-22.248399	137.969974	-0.167749	-120.927479	-0.167749	-120.927479	-22.291010	157.753094
2.050000	-22.530885	134.379337	-0.169748	-123.974879	-0.169748	-123.974879	-22.579068	155.203553
2.100000	-22.843933	130.738246	-0.171728	-127.026283	-0.171728	-127.026283	-22.898587	152.687695
2.150000	-23.185417	127.050540	-0.173712	-130.081037	-0.173712	-130.081037	-23.247494	150.203865
2.200000	-23.559916	123.300289	-0.175721	-133.139822	-0.175721	-133.139822	-23.630630	147.764303
2.250000	-23.967036	119.488099	-0.177770	-136.202155	-0.177770	-136.202155	-24.047750	145.369856
2.300000	-24.410016	115.599434	-0.179881	-139.268331	-0.179881	-139.268331	-24.502419	143.032666
2.350000	-24.890998	111.624660	-0.182068	-142.338270	-0.182068	-142.338270	-24.997130	140.761584
2.400000	-25.412228	107.553714	-0.184342	-145.411810	-0.184342	-145.411810	-25.534570	138.566093
2.450000	-25.977916	103.358818	-0.186726	-148.489280	-0.186726	-148.489280	-26.119647	136.470136
2.500000	-26.590441	99.038761	-0.189212	-151.570073	-0.189212	-151.570073	-26.755411	134.476671
2.550000	-27.255235	94.532363	-0.191836	-154.654915	-0.191836	-154.654915	-27.448649	132.638830
2.600000	-27.976445	89.841806	-0.194576	-157.742993	-0.194576	-157.742993	-28.204762	130.957765
2.650000	-28.759620	84.885246	-0.197458	-160.834798	-0.197458	-160.834798	-29.031663	129.507781
2.700000	-29.611621	79.626081	-0.200470	-163.929940	-0.200470	-163.929940	-29.939052	128.326570
2.750000	-30.539058	73.964355	-0.203618	-167.028497	-0.203618	-167.028497	-30.937972	127.512758
2.800000	-31.548641	67.771420	-0.206901	-170.130480	-0.206901	-170.130480	-32.041560	127.199965
2.850000	-32.649544	60.929125	-0.210306	-173.235586	-0.210306	-173.235586	-33.268068	127.526322
2.900000	-33.837242	53.087194	-0.213842	-176.344213	-0.213842	-176.344213	-34.627029	128.895426
2.950000	-35.118735	44.108720	-0.217481	-179.455765	-0.217481	-179.455765	-36.143493	131.541747
3.000000	-36.441364	33.255254	-0.221234	177.429165	-0.221234	177.429165	-37.782389	136.536105
3.050000	-37.761665	20.343457	-0.225072	174.311148	-0.225072	174.311148	-39.502312	144.471199
3.100000	-38.903949	4.756614	-0.228993	171.189819	-0.228993	171.189819	-41.030212	156.814484
3.150000	-39.678921	-13.076337	-0.232980	168.065355	-0.232980	168.065355	-41.956847	173.125032
3.200000	-39.914828	-31.812523	-0.237018	164.937733	-0.237018	164.937733	-41.920463	-169.615153
3.250000	-39.588157	-49.542818	-0.241094	161.806732	-0.241094	161.806732	-41.031910	-155.399793
3.300000	-38.932658	-65.175368	-0.245192	158.672682	-0.245192	158.672682	-39.834380	-145.241466
3.350000	-38.112029	-78.157671	-0.249298	155.535040	-0.249298	155.535040	-38.606058	-138.959403
3.400000	-37.292411	-89.115878	-0.253396	152.394029	-0.253396	152.394029	-37.504477	-135.043456
3.450000	-36.539235	-98.519257	-0.257474	149.249497	-0.257474	149.249497	-36.557046	-132.714039
3.500000	-35.880419	-106.809296	-0.261519	146.101341	-0.261519	146.101341	-35.759629	-131.415355
3.550000	-35.323406	-114.319607	-0.265517	142.949442	-0.265517	142.949442	-35.098234	-130.789996
3.600000	-34.866807	-121.294400	-0.269460	139.793674	-0.269460	139.793674	-34.557868	-130.602022
3.650000	-34.505975	-127.914213	-0.273337	136.633899	-0.273337	136.633899	-34.125203	-130.688539
3.700000	-34.235474	-134.317066	-0.277142	133.469970	-0.277142	133.469970	-33.789078	-130.930621
3.750000	-34.050066	-140.613887	-0.280868	130.301732	-0.280868	130.301732	-33.540293	-131.235686
3.800000	-33.946631	-146.901288	-0.284511	127.128924	-0.284511	127.128924	-33.372722	-131.524514
3.850000	-33.919005	-153.268154	-0.288071	123.951475	-0.288071	123.951475	-33.278017	-131.726754
3.900000	-33.962807	-159.799651	-0.291548	120.769216	-0.291548	120.769216	-33.250039	-131.776124
3.950000	-34.073177	-166.584292	-0.294944	117.581980	-0.294944	117.581980	-33.282601	-131.605695
4.000000	-34.243959	-173.717556	-0.298263	114.389598	-0.298263	114.389598	-33.368790	-131.145783
4.050000	-34.466533	178.696120	-0.301513	111.191905	-0.301513	111.191905	-33.500161	-130.323261
4.100000	-34.728204	170.544379	-0.304700	107.988738	-0.304700	107.988738	-33.665753	-129.062987
4.150000	-35.010168	161.713634	-0.307834	104.779941	-0.307834	104.779941	-33.851003	-127.292466
4.200000	-35.285368	152.105387	-0.310925	101.565363	-0.310925	101.565363	-34.036726	-124.951281
4.250000	-35.517258	141.666030	-0.313986	98.344860	-0.313986	98.344860	-34.198630	-122.006425
4.300000	-35.661363	130.429307	-0.317029	95.118296	-0.317029	95.118296	-34.308085	-118.472852
4.350000	-35.671868	118.558137	-0.320066	91.885544	-0.320066	91.885544	-34.334982	-114.434323
4.400000	-35.511343	106.357406	-0.323111	88.646413	-0.323111	88.646413	-34.251531	-110.053162
4.450000	-35.167362	94.238370	-0.326179	85.400789	-0.326179	85.400789	-34.041153	-105.570177
4.500000	-34.658347	82.590810	-0.329280	82.148637	-0.329280	82.148637	-33.704292	-101.250394
4.550000	-34.021583	71.694768	-0.332427	78.889858	-0.332427	78.889858	-33.255128	-97.330027
4.600000	-33.302160	61.689588	-0.335630	75.624359	-0.335630	75.624359	-32.718358	-93.980988
4.650000	-32.541944	52.594058	-0.338898	72.352050	-0.338898	72.352050	-32.122865	-91.297029
4.700000	-31.774069	44.350240	-0.342238	69.072841	-0.342238	69.072841	-31.496321	-89.302789
4.750000	-31.022078	36.864341	-0.345656	65.786640	-0.345656	65.786640	-30.862077	-87.974218
4.800000	-30.301442	30.034232	-0.349153	62.493348	-0.349153	62.493348	-30.238196	-87.259675
4.850000	-29.621688	23.764207	-0.352731	59.192859	-0.352731	59.192859	-29.637828	-87.096234
4.900000	-28.988315	17.971179	-0.356388	55.885052	-0.356388	55.885052	-29.070148	-87.420139
4.950000	-28.404250	12.586145	-0.360119	52.569792	-0.360119	52.569792	-28.541379	-88.172534
5.000000	-27.870866	7.553456	-0.363917	49.246919	-0.363917	49.246919	-28.055696	-89.302059
5.050000	-27.389266	2.835225	-0.367774	45.916076	-0.367774	45.916076	-27.616552	-90.772079
5.100000	-26.959151	-1.609153	-0.371678	42.577211	-0.371678	42.577211	-27.225627	-92.540002
5.150000	-26.580417	-5.803910	-0.375616	39.230069	-0.375616	39.230069	-26.884490	-94.579055
5.200000	-26.253023	-9.765598	-0.379574	35.874358	-0.379574	35.874358	-26.594599	-96.869555
5.250000	-25.977108	-13.503764	-0.383538	32.509738	-0.383538	32.509738	-26.357514	-99.398543
5.300000	-25.753059	-17.021244	-0.387495	29.135819	-0.387495	29.135819	-26.175072	-102.159661
5.350000	-25.581566	-20.314081	-0.391432	25.752159	-0.391432	25.752159	-26.049534	-105.153380
5.400000	-25.463632	-23.371020	-0.395338	22.358258	-0.395338	22.358258	-25.983726	-108.387654
5.450000	-25.400567	-26.172517	-0.399206	18.953553	-0.399206	18.953553	-25.981177	-111.879178
5.500000	-25.393930	-28.689162	-0.403035	15.537420	-0.403035	15.537420	-26.046264	-115.655475
5.550000	-25.445388	-30.879363	-0.406826	12.109170	-0.406826	12.109170	-26.184341	-119.758189
5.600000	-25.556453	-32.686125	-0.410592	8.668046	-0.410592	8.668046	-26.401837	-124.248203
5.650000	-25.728560	-34.026604	-0.414351	5.213070	-0.414351	5.213070	-26.707107	-129.220152
5.700000	-25.960686	-34.794422	-0.418137	1.743323	-0.418137	1.743323	-27.108265	-134.807954
5.750000	-26.247721	-34.859310	-0.421992	-1.741999	-0.421992	-1.741999	-27.611749	-141.198112
5.800000	-26.578712	-34.050839	-0.425976	-5.243901	-0.425976	-5.243901	-28.220765	-148.672150
5.850000	-26.931475	-32.168263	-0.430162	-8.763445	-0.430162	-8.763445	-28.926316	-157.638620
5.900000	-27.266081	-29.007542	-0.434645	-12.301731	-0.434645	-12.301731	-29.689278	-168.657354
5.950000	-27.518755	-24.431283	-0.439536	-15.859894	-0.439536	-15.859894	-30.406990	177.633986
6.000000	-27.603116	-18.492868	-0.444971	-19.439091	-0.444971	-19.439091	-30.876046	160.890901
6.050000	-27.436795	-11.573279	-0.451090	-23.039975	-0.451090	-23.039975	-30.840311	141.817444
6.100000	-26.948675	-4.355751	-0.458118	-26.664825	-0.458118	-26.664825	-30.106450	122.458559
6.150000	-26.158234	2.306052	-0.466247	-30.314162	-0.466247	-30.314162	-28.813521	105.142841
6.200000	-25.137185	7.796297	-0.475718	-33.989056	-0.475718	-33.989056	-27.235547	90.782828
6.250000	-23.978010	11.858036	-0.486801	-37.690503	-0.486801	-37.690503	-25.591298	79.109662
6.300000	-22.758427	14.510226	-0.499819	-41.419702	-0.499819	-41.419702	-23.992630	69.496366
6.350000	-21.535838	15.947545	-0.515083	-45.177118	-0.515083	-45.177118	-22.486868	61.333595
6.400000	-20.342369	16.382155	-0.532954	-48.963342	-0.532954	-48.963342	-21.084353	54.194597
6.450000	-19.194815	16.009097	-0.553815	-52.778765	-0.553815	-52.778765	-19.781913	47.783181
6.500000	-18.100652	14.990271	-0.578079	-56.623546	-0.578079	-56.623546	-18.571727	41.896079
6.550000	-17.062109	13.454120	-0.606178	-60.497583	-0.606178	-60.497583	-17.445031	36.392744
6.600000	-16.078215	11.498004	-0.638601	-64.400702	-0.638601	-64.400702	-16.393137	31.176331
6.650000	-15.147517	9.202655	-0.675795	-68.332001	-0.675795	-68.332001	-15.409168	26.174512
6.700000	-14.267868	6.630677	-0.718189	-72.290166	-0.718189	-72.290166	-14.487154	21.335601
6.750000	-13.436129	3.826518	-0.766322	-76.274059	-0.766322	-76.274059	-13.621245	16.624570
6.800000	-12.649953	0.829653	-0.820635	-80.281681	-0.820635	-80.281681	-12.807132	12.013491
6.850000	-11.907076	-2.328026	-0.881534	-84.310630	-0.881534	-84.310630	-12.041120	7.481915
6.900000	-11.205089	-5.622357	-0.949494	-88.358418	-0.949494	-88.358418	-11.319744	3.015855
6.950000	-10.542012	-9.031772	-1.024901	-92.421967	-1.024901	-92.421967	-10.640235	-1.395372
7.000000	-9.916102	-12.537176	-1.108033	-96.497756	-1.108033	-96.497756	-10.000251	-5.759654
7.050000	-9.325499	-16.125003	-1.199393	-100.582253	-1.199393	-100.582253	-9.397475	-10.080803
7.100000	-8.768916	-19.777641	-1.298830	-104.671123	-1.298830	-104.671123	-8.830266	-14.364018
7.150000	-8.244712	-23.484600	-1.406653	-108.760392	-1.406653	-108.760392	-8.296708	-18.610069
7.200000	-7.751517	-27.235186	-1.523006	-112.845682	-1.523006	-112.845682	-7.795213	-22.819182
7.250000	-7.288134	-31.019662	-1.648004	-116.922285	-1.648004	-116.922285	-7.324411	-26.990368
7.300000	-6.853228	-34.827964	-1.781388	-120.985920	-1.781388	-120.985920	-6.882825	-31.123578
7.350000	-6.445543	-38.651925	-1.923008	-125.032268	-1.923008	-125.032268	-6.469085	-35.217388
7.400000	-6.063855	-42.484124	-2.072640	-129.057151	-2.072640	-129.057151	-6.081870	-39.270099
7.450000	-5.706967	-46.317841	-2.229988	-133.056598	-2.229988	-133.056598	-5.719905	-43.279874
7.500000	-5.373702	-50.147032	-2.394694	-137.026904	-2.394694	-137.026904	-5.381945	-47.244844
7.550000	-5.063280	-53.965807	-2.566446	-140.963458	-2.566446	-140.963458	-5.067151	-51.161546
7.600000	-4.774201	-57.769646	-2.744628	-144.864280	-2.744628	-144.864280	-4.773974	-55.029887
7.650000	-4.505333	-61.554471	-2.928733	-148.726762	-2.928733	-148.726762	-4.501237	-58.848426
7.700000	-4.255569	-65.316801	-3.118223	-152.548705	-3.118223	-152.548705	-4.247795	-62.615967
7.750000	-4.023826	-69.053730	-3.312538	-156.328327	-3.312538	-156.328327	-4.012533	-66.331591
7.800000	-3.809052	-72.762903	-3.511105	-160.064259	-3.511105	-160.064259	-3.794367	-69.994666
7.850000	-3.610504	-76.441685	-3.713302	-163.754371	-3.713302	-163.754371	-3.592529	-73.603489
7.900000	-3.426992	-80.089214	-3.918541	-167.398861	-3.918541	-167.398861	-3.405806	-77.158947
7.950000	-3.257468	-83.704894	-4.126263	-170.997946	-4.126263	-170.997946	-3.233131	-80.661767
8.000000	-3.101021	-87.288293	-4.335916	-174.551795	-4.335916	-174.551795	-3.073575	-84.112486
8.050000	-2.956779	-90.839360	-4.546965	-178.060893	-4.546965	-178.060893	-2.926255	-87.511894
8.100000	-2.823916	-94.358389	-4.758898	178.473996	-4.758898	178.473996	-2.790331	-90.861009
8.150000	-2.701790	-97.845461	-4.971136	175.052572	-4.971136	175.052572	-2.665150	-94.160234
8.200000	-2.589635	-101.301515	-5.183196	171.673527	-5.183196	171.673527	-2.549940	-97.411054
8.250000	-2.486603	-104.728247	-5.394730	168.334671	-5.394730	168.334671	-2.443848	-100.615898
8.300000	-2.392036	-108.127025	-5.605339	165.034391	-5.605339	165.034391	-2.346214	-103.776489
8.350000	-2.305318	-111.499406	-5.814648	161.770935	-5.814648	161.770935	-2.256419	-106.894669
8.400000	-2.225871	-114.847113	-6.022311	158.542434	-6.022311	158.542434	-2.173886	-109.972377
8.450000	-2.153204	-118.171827	-6.227952	155.347188	-6.227952	155.347188	-2.098123	-113.011327
8.500000	-2.086895	-121.475263	-6.431149	152.183602	-6.431149	152.183602	-2.028712	-116.013071
8.550000	-2.026662	-124.758947	-6.631313	149.050568	-6.631313	149.050568	-1.965372	-118.978530
8.600000	-1.971280	-128.027785	-6.829340	145.941641	-6.829340	145.941641	-1.906893	-121.915014
8.650000	-1.920800	-131.282413	-7.024393	142.857116	-7.024393	142.857116	-1.853326	-124.821796
8.700000	-1.874843	-134.525157	-7.216276	139.794762	-7.216276	139.794762	-1.804299	-127.701135
8.750000	-1.833057	-137.758400	-7.404816	136.752324	-7.404816	136.752324	-1.759470	-130.555310
8.800000	-1.795348	-140.984252	-7.589344	133.728589	-7.589344	133.728589	-1.718755	-133.385200
8.850000	-1.761145	-144.205823	-7.770242	130.719910	-7.770242	130.719910	-1.681594	-136.194831
8.900000	-1.730170	-147.425619	-7.947399	127.723984	-7.947399	127.723984	-1.647718	-138.986524
8.950000	-1.702163	-150.646174	-8.120714	124.738494	-8.120714	124.738494	-1.616880	-141.762608
9.000000	-1.676884	-153.870046	-8.290107	121.761112	-8.290107	121.761112	-1.588853	-144.525422
9.050000	-1.654111	-157.099808	-8.455509	118.789493	-8.455509	118.789493	-1.563427	-147.277311
9.100000	-1.633637	-160.338046	-8.616867	115.821280	-8.616867	115.821280	-1.540410	-150.020628
9.150000	-1.615274	-163.587358	-8.774143	112.854094	-8.774143	112.854094	-1.519624	-152.757739
9.200000	-1.598845	-166.850343	-8.927310	109.885533	-8.927310	109.885533	-1.500911	-155.491016
9.250000	-1.584191	-170.129604	-9.076360	106.913172	-9.076360	106.913172	-1.484122	-158.222848
9.300000	-1.571164	-173.427733	-9.221294	103.934550	-9.221294	103.934550	-1.469126	-160.955636
9.350000	-1.559629	-176.747315	-9.362131	100.947175	-9.362131	100.947175	-1.455803	-163.691800
9.400000	-1.549509	179.908168	-9.498694	97.948030	-9.498694	97.948030	-1.444097	-166.434064
9.450000	-1.540686	176.535936	-9.631052	94.934280	-9.631052	94.934280	-1.433905	-169.185127
9.500000	-1.533018	173.134333	-9.759490	91.903684	-9.759490	91.903684	-1.425095	-171.947264
9.550000	-1.526423	169.700914	-9.884097	88.853545	-9.884097	88.853545	-1.417598	-174.722985
9.600000	-1.520831	166.233297	-10.004984	85.781111	-10.004984	85.781111	-1.411358	-177.514825
9.650000	-1.516186	162.729176	-10.122284	82.683565	-10.122284	82.683565	-1.406330	179.674658
9.700000	-1.512440	159.186337	-10.236159	79.558028	-10.236159	79.558028	-1.402482	176.842875
9.750000	-1.509562	155.602675	-10.346795	76.401559	-10.346795	76.401559	-1.399793	173.987215
9.800000	-1.507533	151.976218	-10.454414	73.211157	-10.454414	73.211157	-1.398256	171.105042
9.850000	-1.506345	148.305145	-10.559270	69.983766	-10.559270	69.983766	-1.397876	168.193698
9.900000	-1.506007	144.587810	-10.661661	66.716284	-10.661661	66.716284	-1.398671	165.250508
9.950000	-1.506537	140.822774	-10.761925	63.405574	-10.761925	63.405574	-1.400674	162.272785
10.000000	-1.507971	137.008826	-10.860450	60.048485	-10.860450	60.048485	-1.403930	159.257835
