! freq	dB(S11)	phase(S11)	dB(S12)	phase(S12)	
!     	dB(S21)	phase(S21)	dB(S22)	phase(S22)	
!S-par simulation data
#  GHz  S  DB  R 50
0.000000	-0.000000	-0.000000	-355.079709	180.000000	-355.079709	180.000000	-0.000000	0.000000
0.050000	-0.000094	-0.819290	-105.009498	28.330281	-105.009498	28.330281	-0.000096	-0.818708
0.100000	-0.000372	-1.638372	-103.675821	38.942527	-103.675821	38.942527	-0.000381	-1.637200
0.150000	-0.000826	-2.457053	-102.184780	48.128107	-102.184780	48.128107	-0.000846	-2.455274
0.200000	-0.001440	-3.275165	-100.758926	54.739208	-100.758926	54.739208	-0.001474	-3.272756
0.250000	-0.002207	-4.092512	-99.484487	59.322830	-99.484487	59.322830	-0.002256	-4.089447
0.300000	-0.003094	-4.909043	-98.380924	62.687552	-98.380924	62.687552	-0.003160	-4.905294
0.350000	-0.004086	-5.724640	-97.435719	65.179822	-97.435719	65.179822	-0.004168	-5.720181
0.400000	-0.005165	-6.539241	-96.633913	67.094599	-96.633913	67.094599	-0.005262	-6.534047
0.450000	-0.006310	-7.352808	-95.961112	68.633729	-95.961112	68.633729	-0.006420	-7.346859
0.500000	-0.007505	-8.165326	-95.405326	69.942107	-95.405326	69.942107	-0.007625	-8.158605
0.550000	-0.008733	-8.976798	-94.957227	71.131003	-94.957227	71.131003	-0.008861	-8.969293
0.600000	-0.009981	-9.787235	-94.609888	72.293269	-94.609888	72.293269	-0.010114	-9.778940
0.650000	-0.011237	-10.596662	-94.358398	73.514000	-94.358398	73.514000	-0.011372	-10.587574
0.700000	-0.012493	-11.405105	-94.199421	74.878917	-94.199421	74.878917	-0.012628	-11.395224
0.750000	-0.013742	-12.212593	-94.130671	76.482013	-94.130671	76.482013	-0.013875	-12.201923
0.800000	-0.014979	-13.019154	-94.150174	78.433471	-94.150174	78.433471	-0.015107	-13.007700
0.850000	-0.016200	-13.824815	-94.255094	80.868481	-94.255094	80.868481	-0.016321	-13.812584
0.900000	-0.017403	-14.629597	-94.439699	83.956728	-94.439699	83.956728	-0.017516	-14.616599
0.950000	-0.018586	-15.433522	-94.691820	87.910323	-94.691820	87.910323	-0.018691	-15.419765
1.000000	-0.019750	-16.236602	-94.986945	92.982979	-94.986945	92.982979	-0.019845	-16.222096
1.050000	-0.020894	-17.038851	-95.279501	99.443594	-95.279501	99.443594	-0.020979	-17.023603
1.100000	-0.022019	-17.840273	-95.493489	107.495075	-95.493489	107.495075	-0.022094	-17.824293
1.150000	-0.023126	-18.640872	-95.521600	117.113248	-95.521600	117.113248	-0.023191	-18.624169
1.200000	-0.024216	-19.440647	-95.249665	127.849962	-95.249665	127.849962	-0.024271	-19.423229
1.250000	-0.025291	-20.239595	-94.611225	138.798048	-94.611225	138.798048	-0.025336	-20.221469
1.300000	-0.026352	-21.037673	-93.615254	148.853200	-93.615254	148.853200	-0.026387	-21.018845
1.350000	-0.027400	-21.834907	-92.384155	157.372271	-92.384155	157.372271	-0.027427	-21.815384
1.400000	-0.028438	-22.631286	-91.032546	164.204759	-91.032546	164.204759	-0.028456	-22.611073
1.450000	-0.029466	-23.426798	-89.646724	169.500228	-89.646724	169.500228	-0.029477	-23.405900
1.500000	-0.030487	-24.221427	-88.279209	173.516876	-88.279209	173.516876	-0.030490	-24.199849
1.550000	-0.031502	-25.015159	-86.957324	176.514207	-86.957324	176.514207	-0.031498	-24.992905
1.600000	-0.032511	-25.807978	-85.692920	178.712454	-85.692920	178.712454	-0.032500	-25.785050
1.650000	-0.033515	-26.599865	-84.489299	-179.714345	-84.489299	-179.714345	-0.033499	-26.576268
1.700000	-0.034517	-27.390465	-83.315332	-178.756826	-83.315332	-178.756826	-0.034496	-27.366203
1.750000	-0.035517	-28.180565	-82.241500	-178.018796	-82.241500	-178.018796	-0.035491	-28.155638
1.800000	-0.036516	-28.969455	-81.202471	-177.632839	-81.202471	-177.632839	-0.036486	-28.943868
1.850000	-0.037514	-29.757483	-80.221401	-177.498363	-80.221401	-177.498363	-0.037481	-29.731237
1.900000	-0.038513	-30.544435	-79.281301	-177.562857	-79.281301	-177.562857	-0.038477	-30.517531
1.950000	-0.039513	-31.330311	-78.380208	-177.826323	-78.380208	-177.826323	-0.039474	-31.302752
2.000000	-0.040515	-32.115256	-77.522735	-178.204170	-77.522735	-178.204170	-0.040474	-32.087045
2.050000	-0.041520	-32.898900	-76.689998	-178.742150	-76.689998	-178.742150	-0.041477	-32.870038
2.100000	-0.042526	-33.681968	-75.909128	-179.331788	-75.909128	-179.331788	-0.042481	-33.652457
2.150000	-0.043536	-34.463546	-75.142633	179.950821	-75.142633	179.950821	-0.043491	-34.433387
2.200000	-0.044550	-35.243992	-74.403522	179.155969	-74.403522	179.155969	-0.044504	-35.213188
2.250000	-0.045569	-36.023292	-73.689858	178.293655	-73.689858	178.293655	-0.045522	-35.991844
2.300000	-0.046592	-36.801427	-72.999904	177.372230	-72.999904	177.372230	-0.046545	-36.769337
2.350000	-0.047620	-37.578381	-72.332097	176.398725	-72.332097	176.398725	-0.047573	-37.545652
2.400000	-0.048653	-38.354139	-71.685027	175.379100	-71.685027	175.379100	-0.048606	-38.320772
2.450000	-0.049692	-39.128684	-71.057421	174.318445	-71.057421	174.318445	-0.049645	-39.094681
2.500000	-0.050737	-39.902003	-70.448122	173.221135	-70.448122	173.221135	-0.050690	-39.867366
2.550000	-0.051791	-40.673368	-69.843111	172.074369	-69.843111	172.074369	-0.051745	-40.638101
2.600000	-0.052845	-41.444734	-69.277511	170.927603	-69.277511	170.927603	-0.052800	-41.408836
2.650000	-0.053912	-42.213667	-68.707473	169.730192	-68.707473	169.730192	-0.053868	-42.177143
2.700000	-0.054980	-42.982379	-68.169225	168.528177	-68.169225	168.528177	-0.054937	-42.945229
2.750000	-0.056061	-43.748832	-67.630369	167.288600	-67.630369	167.288600	-0.056019	-43.711061
2.800000	-0.057144	-44.514834	-67.116970	166.041511	-67.116970	166.041511	-0.057103	-44.476442
2.850000	-0.058239	-45.278764	-66.606113	164.766561	-66.606113	164.766561	-0.058199	-45.239755
2.900000	-0.059338	-46.042003	-66.115419	163.482325	-66.115419	163.482325	-0.059298	-46.002379
2.950000	-0.060448	-46.803369	-65.629858	162.177514	-65.629858	162.177514	-0.060409	-46.763132
3.000000	-0.061564	-47.563798	-65.160016	160.862416	-65.160016	160.862416	-0.061526	-47.522951
3.050000	-0.062690	-48.322562	-64.697437	159.532272	-64.697437	159.532272	-0.062653	-48.281108
3.100000	-0.063823	-49.080137	-64.246828	158.191380	-64.246828	158.191380	-0.063787	-49.038079
3.150000	-0.064966	-49.836265	-63.805235	156.839664	-63.805235	156.839664	-0.064931	-49.793605
3.200000	-0.066119	-50.590946	-63.372440	155.477122	-63.372440	155.477122	-0.066084	-50.547688
3.250000	-0.067279	-51.344407	-62.950092	154.106989	-62.950092	154.106989	-0.067246	-51.300553
3.300000	-0.068452	-52.096160	-62.533855	152.726230	-62.533855	152.726230	-0.068419	-52.051713
3.350000	-0.069631	-52.846926	-62.129229	151.340355	-62.129229	151.340355	-0.069599	-52.801888
3.400000	-0.070825	-53.595719	-61.728430	149.944252	-61.728430	149.944252	-0.070793	-53.550094
3.450000	-0.072025	-54.343765	-61.340183	148.544921	-61.340183	148.544921	-0.071993	-54.297555
3.500000	-0.073241	-55.089571	-60.953821	147.135906	-60.953821	147.135906	-0.073209	-55.042779
3.550000	-0.074461	-55.834875	-60.580758	145.725084	-60.580758	145.725084	-0.074430	-55.787504
3.600000	-0.075702	-56.577670	-60.207930	144.305230	-60.207930	144.305230	-0.075670	-56.529724
3.650000	-0.076944	-57.320213	-59.848988	142.884622	-59.848988	142.884622	-0.076913	-57.271693
3.700000	-0.078210	-58.059979	-59.488876	141.455711	-59.488876	141.455711	-0.078178	-58.010889
3.750000	-0.079476	-58.799744	-59.143101	140.026801	-59.143101	140.026801	-0.079444	-58.750086
3.800000	-0.080768	-59.536465	-58.794961	138.590372	-58.794961	138.590372	-0.080736	-59.486243
3.850000	-0.082061	-60.273185	-58.460238	137.153944	-58.460238	137.153944	-0.082029	-60.222400
3.900000	-0.083380	-61.007103	-58.124646	135.711850	-58.124646	135.711850	-0.083347	-60.955759
3.950000	-0.084702	-61.740766	-57.800375	134.269240	-57.800375	134.269240	-0.084668	-61.688865
4.000000	-0.086048	-62.471875	-57.476529	132.822451	-57.476529	132.822451	-0.086014	-62.419420
4.050000	-0.087400	-63.202472	-57.162157	131.374825	-57.162157	131.374825	-0.087366	-63.149465
4.100000	-0.088776	-63.930767	-56.849332	129.924200	-56.849332	129.924200	-0.088741	-63.877211
4.150000	-0.090161	-64.658294	-56.544348	128.472576	-56.544348	128.472576	-0.090124	-64.604190
4.200000	-0.091568	-65.383774	-56.241882	127.018880	-56.241882	127.018880	-0.091530	-65.329125
4.250000	-0.092986	-66.108229	-55.945812	125.564148	-55.945812	125.564148	-0.092947	-66.053038
4.300000	-0.094425	-66.830894	-55.653099	124.108060	-55.653099	124.108060	-0.094386	-66.775163
4.350000	-0.095879	-67.552280	-55.365506	122.651003	-55.365506	122.651003	-0.095839	-67.496010
4.400000	-0.097353	-68.272134	-55.081992	121.193125	-55.081992	121.193125	-0.097311	-68.215327
4.450000	-0.098845	-68.990456	-54.802465	119.734428	-54.802465	119.734428	-0.098803	-68.933114
4.500000	-0.100354	-69.707504	-54.527640	118.275297	-54.527640	118.275297	-0.100311	-69.649630
4.550000	-0.101887	-70.422771	-54.255799	116.815561	-54.255799	116.815561	-0.101842	-70.364366
4.600000	-0.103434	-71.137023	-53.989195	115.355655	-53.989195	115.355655	-0.103387	-71.078088
4.650000	-0.105008	-71.849246	-53.724685	113.895409	-53.724685	113.895409	-0.104961	-71.789783
4.700000	-0.106594	-72.560712	-53.465870	112.435151	-53.465870	112.435151	-0.106545	-72.500722
4.750000	-0.108213	-73.269908	-53.208358	110.974857	-53.208358	110.974857	-0.108163	-73.209392
4.800000	-0.109840	-73.978601	-52.956931	109.514624	-52.956931	109.514624	-0.109788	-73.917561
4.850000	-0.111506	-74.684787	-52.706108	108.054691	-52.706108	108.054691	-0.111452	-74.623223
4.900000	-0.113175	-75.390724	-52.461699	106.594818	-52.461699	106.594818	-0.113121	-75.328637
4.950000	-0.114889	-76.093922	-52.217275	105.135603	-52.217275	105.135603	-0.114833	-76.031314
5.000000	-0.116604	-76.797120	-51.979541	103.676389	-51.979541	103.676389	-0.116546	-76.733990
5.050000	-0.118368	-77.497355	-51.741244	102.218208	-51.741244	102.218208	-0.118309	-77.433706
5.100000	-0.120133	-78.197590	-51.509311	100.760026	-51.509311	100.760026	-0.120073	-78.133421
5.150000	-0.121946	-78.895135	-51.277444	99.303048	-51.277444	99.303048	-0.121885	-78.830446
5.200000	-0.123764	-79.592436	-51.051078	97.846180	-51.051078	97.846180	-0.123701	-79.527227
5.250000	-0.125628	-80.287317	-50.825342	96.390612	-50.825342	96.390612	-0.125563	-80.221589
5.300000	-0.127500	-80.981715	-50.604325	94.935304	-50.604325	94.935304	-0.127434	-80.915468
5.350000	-0.129416	-81.673961	-50.384440	93.481333	-50.384440	93.481333	-0.129348	-81.607194
5.400000	-0.131345	-82.365489	-50.168568	92.027808	-50.168568	92.027808	-0.131276	-82.298203
5.450000	-0.133314	-83.055131	-49.954275	90.575607	-49.954275	90.575607	-0.133244	-82.987325
5.500000	-0.135303	-83.743829	-49.743357	89.124067	-49.743357	89.124067	-0.135231	-83.675502
5.550000	-0.137327	-84.430900	-49.534415	87.673794	-49.534415	87.673794	-0.137254	-84.362052
5.600000	-0.139377	-85.116808	-49.328272	86.224426	-49.328272	86.224426	-0.139302	-85.047438
5.650000	-0.141458	-85.801344	-49.124457	84.776231	-49.124457	84.776231	-0.141382	-85.731452
5.700000	-0.143571	-86.484508	-48.922920	83.329209	-48.922920	83.329209	-0.143493	-86.414091
5.750000	-0.145711	-87.166548	-48.724024	81.883233	-48.724024	81.883233	-0.145632	-87.095607
5.800000	-0.147889	-87.847014	-48.526938	80.438724	-48.526938	80.438724	-0.147808	-87.775547
5.850000	-0.150089	-88.526599	-48.332765	78.995106	-48.332765	78.995106	-0.150007	-88.454605
5.900000	-0.152333	-89.204421	-48.139982	77.553272	-48.139982	77.553272	-0.152250	-89.131897
5.950000	-0.154595	-89.881595	-47.950351	76.112148	-47.950351	76.112148	-0.154510	-89.808541
6.000000	-0.156908	-90.556826	-47.761734	74.673153	-47.761734	74.673153	-0.156822	-90.483240
6.050000	-0.159233	-91.231635	-47.576475	73.234658	-47.576475	73.234658	-0.159145	-91.157516
6.100000	-0.161616	-91.904335	-47.391896	71.798667	-47.391896	71.798667	-0.161527	-91.829679
6.150000	-0.164006	-92.576829	-47.210850	70.362941	-47.210850	70.362941	-0.163915	-92.501636
6.200000	-0.166461	-93.247059	-47.030188	68.930125	-47.030188	68.930125	-0.166369	-93.171325
6.250000	-0.168917	-93.917290	-46.853208	67.497310	-46.853208	67.497310	-0.168823	-93.841015
6.300000	-0.171446	-94.585119	-46.676350	66.067850	-46.676350	66.067850	-0.171350	-94.508297
6.350000	-0.173975	-95.252947	-46.503021	64.638390	-46.503021	64.638390	-0.173878	-95.175579
6.400000	-0.176573	-95.918638	-46.330133	63.212180	-46.330133	63.212180	-0.176475	-95.840719
6.450000	-0.179177	-96.584134	-46.160357	61.786266	-46.160357	61.786266	-0.179078	-96.505664
6.500000	-0.181845	-97.247750	-45.991308	60.363476	-45.991308	60.363476	-0.181744	-97.168722
6.550000	-0.184527	-97.910989	-45.824991	58.941310	-45.824991	58.941310	-0.184423	-97.831403
6.600000	-0.187266	-98.572595	-45.659655	57.522119	-45.659655	57.522119	-0.187161	-98.492446
6.650000	-0.190025	-99.233656	-45.496707	56.103919	-45.496707	56.103919	-0.189919	-99.152943
6.700000	-0.192838	-99.893321	-45.334968	54.688518	-45.334968	54.688518	-0.192729	-99.812038
6.750000	-0.195677	-100.552288	-45.175304	53.274516	-45.175304	53.274516	-0.195566	-100.470432
6.800000	-0.198562	-101.210084	-45.017048	51.863108	-45.017048	51.863108	-0.198450	-101.127652
6.850000	-0.201482	-101.867044	-44.860588	50.453553	-44.860588	50.453553	-0.201368	-101.784032
6.900000	-0.204443	-102.523047	-44.705708	49.046354	-44.705708	49.046354	-0.204327	-102.439451
6.950000	-0.207445	-103.178094	-44.552372	47.641511	-44.552372	47.641511	-0.207327	-103.093909
7.000000	-0.210482	-103.832385	-44.400766	46.238750	-44.400766	46.238750	-0.210362	-103.747607
7.050000	-0.213568	-104.485617	-44.250479	44.838902	-44.250479	44.838902	-0.213445	-104.400241
7.100000	-0.216682	-105.138278	-44.102048	43.440819	-44.102048	43.440819	-0.216557	-105.052302
7.150000	-0.219852	-105.789798	-43.954735	42.046266	-43.954735	42.046266	-0.219725	-105.703214
7.200000	-0.223045	-106.440918	-43.809384	40.653115	-43.809384	40.653115	-0.222915	-106.353723
7.250000	-0.226301	-107.090836	-43.664970	39.264172	-43.664970	39.264172	-0.226170	-107.003023
7.300000	-0.229573	-107.740506	-43.522609	37.876218	-43.522609	37.876218	-0.229439	-107.652073
7.350000	-0.232917	-108.388937	-43.381020	36.493217	-43.381020	36.493217	-0.232780	-108.299873
7.400000	-0.236269	-109.037254	-43.241557	35.110739	-43.241557	35.110739	-0.236130	-108.947559
7.450000	-0.239702	-109.684319	-43.102721	33.734024	-43.102721	33.734024	-0.239560	-109.593982
7.500000	-0.243136	-110.331383	-42.966069	32.357310	-42.966069	32.357310	-0.242991	-110.240404
7.550000	-0.246659	-110.977210	-42.829911	30.987241	-42.829911	30.987241	-0.246511	-110.885575
7.600000	-0.250183	-111.623037	-42.695853	29.617172	-42.695853	29.617172	-0.250033	-111.530747
7.650000	-0.253790	-112.267852	-42.562426	28.253535	-42.562426	28.253535	-0.253637	-112.174893
7.700000	-0.257406	-112.912575	-42.430892	26.890482	-42.430892	26.890482	-0.257250	-112.818946
7.750000	-0.261099	-113.556497	-42.300105	25.533591	-42.300105	25.533591	-0.260939	-113.462186
7.800000	-0.264808	-114.200258	-42.171019	24.177933	-42.171019	24.177933	-0.264645	-114.105262
7.850000	-0.268588	-114.843411	-42.042783	22.828112	-42.042783	22.828112	-0.268421	-114.747717
7.900000	-0.272392	-115.486361	-41.916071	21.480235	-41.916071	21.480235	-0.272222	-115.389965
7.950000	-0.276260	-116.128874	-41.790294	20.137807	-41.790294	20.137807	-0.276087	-116.031765
8.000000	-0.280162	-116.771170	-41.665876	18.798104	-41.665876	18.798104	-0.279985	-116.673341
8.050000	-0.284120	-117.413181	-41.542468	17.463398	-41.542468	17.463398	-0.283940	-117.314621
8.100000	-0.288120	-118.054989	-41.420263	16.132261	-41.420263	16.132261	-0.287936	-117.955689
8.150000	-0.292171	-118.696640	-41.299133	14.805604	-41.299133	14.805604	-0.291983	-118.596591
8.200000	-0.296273	-119.338135	-41.179057	13.483427	-41.179057	13.483427	-0.296081	-119.237326
8.250000	-0.300418	-119.979577	-41.060112	12.165147	-41.060112	12.165147	-0.300222	-119.877999
8.300000	-0.304623	-120.620945	-40.942077	10.852322	-40.942077	10.852322	-0.304423	-120.518584
8.350000	-0.308865	-121.262336	-40.825226	9.542743	-40.825226	9.542743	-0.308660	-121.159184
8.400000	-0.313178	-121.903772	-40.709140	8.239656	-40.709140	8.239656	-0.312968	-121.799813
8.450000	-0.317518	-122.545277	-40.594289	6.939098	-40.594289	6.939098	-0.317304	-122.440504
8.500000	-0.321941	-123.186988	-40.480058	5.646127	-40.480058	5.646127	-0.321722	-123.081380
8.550000	-0.326384	-123.828781	-40.367111	4.354903	-40.367111	4.354903	-0.326160	-123.722334
8.600000	-0.330920	-124.470984	-40.254637	3.072417	-40.254637	3.072417	-0.330691	-124.363674
8.650000	-0.335468	-125.113247	-40.143499	1.790834	-40.143499	1.790834	-0.335234	-125.005072
8.700000	-0.340123	-125.756174	-40.032678	0.519188	-40.032678	0.519188	-0.339884	-125.647104
8.750000	-0.344780	-126.399100	-39.923254	-0.752458	-39.923254	-0.752458	-0.344535	-126.289135
8.800000	-0.349558	-127.042993	-39.813980	-2.012922	-39.813980	-2.012922	-0.349307	-126.932099
8.850000	-0.354338	-127.686886	-39.706065	-3.273386	-39.706065	-3.273386	-0.354082	-127.575063
8.900000	-0.359234	-128.331902	-39.598335	-4.523301	-39.598335	-4.523301	-0.358971	-128.219116
8.950000	-0.364144	-128.977020	-39.491822	-5.772258	-39.491822	-5.772258	-0.363874	-128.863267
9.000000	-0.369164	-129.623386	-39.385529	-7.011370	-39.385529	-7.011370	-0.368887	-129.508632
9.050000	-0.374208	-130.270002	-39.280309	-8.248514	-39.280309	-8.248514	-0.373925	-130.154240
9.100000	-0.379358	-130.917958	-39.175346	-9.476582	-39.175346	-9.476582	-0.379067	-130.801154
9.150000	-0.384545	-131.566361	-39.071305	-10.701626	-39.071305	-10.701626	-0.384246	-131.448504
9.200000	-0.389831	-132.216160	-38.967563	-11.918426	-38.967563	-11.918426	-0.389524	-132.097217
9.250000	-0.395169	-132.866656	-38.864584	-13.131104	-38.864584	-13.131104	-0.394853	-132.746612
9.300000	-0.400600	-133.518564	-38.761954	-14.336428	-38.761954	-14.336428	-0.400275	-133.397386
9.350000	-0.406098	-134.171479	-38.659916	-15.536499	-38.659916	-15.536499	-0.405763	-134.049146
9.400000	-0.411682	-134.825777	-38.558288	-16.730156	-38.558288	-16.730156	-0.411337	-134.702259
9.450000	-0.417351	-135.481456	-38.457068	-17.917401	-38.457068	-17.917401	-0.416995	-135.356724
9.500000	-0.423098	-136.138440	-38.356331	-19.099220	-38.356331	-19.099220	-0.422730	-136.012466
9.550000	-0.428950	-136.797250	-38.255801	-20.273443	-38.255801	-20.273443	-0.428571	-136.669997
9.600000	-0.434870	-137.457234	-38.155842	-21.443269	-38.155842	-21.443269	-0.434477	-137.328678
9.650000	-0.440921	-138.119564	-38.055874	-22.604301	-38.055874	-22.604301	-0.440514	-137.989658
9.700000	-0.447026	-138.782877	-37.956580	-23.761999	-37.956580	-23.761999	-0.446605	-138.651603
9.750000	-0.453290	-139.449141	-37.857039	-24.909695	-37.857039	-24.909695	-0.452852	-139.316440
9.800000	-0.459596	-140.116134	-37.758298	-26.055149	-37.758298	-26.055149	-0.459141	-139.981991
9.850000	-0.466091	-140.786773	-37.659048	-27.189389	-37.659048	-27.189389	-0.465617	-140.651118
9.900000	-0.472612	-141.457815	-37.560745	-28.322500	-37.560745	-28.322500	-0.472118	-141.320640
9.950000	-0.479359	-142.133297	-37.461646	-29.443190	-37.461646	-29.443190	-0.478844	-141.994517
10.000000	-0.486112	-142.808779	-37.363666	-30.563881	-37.363666	-30.563881	-0.485575	-142.668393
