! freq	dB(S11)	phase(S11)	dB(S12)	phase(S12)	
!     	dB(S21)	phase(S21)	dB(S22)	phase(S22)	
!S-par simulation data
#  GHz  S  DB  R 50
0.000000	-81.553159	0.000000	-0.000726	0.000000	-0.000726	0.000000	-81.553159	0.000000
0.050000	-34.979649	-90.202143	-0.016792	-3.495501	-0.016792	-3.495501	-34.980194	-90.202060
0.100000	-29.111100	-95.437753	-0.025290	-6.933408	-0.025290	-6.933408	-29.111360	-95.442721
0.150000	-25.664999	-99.598053	-0.035966	-10.365547	-0.035966	-10.365547	-25.665292	-99.605373
0.200000	-23.238907	-103.405831	-0.048828	-13.787493	-0.048828	-13.787493	-23.239235	-103.415433
0.250000	-21.378440	-107.046614	-0.063693	-17.199607	-0.063693	-17.199607	-21.378753	-107.058940
0.300000	-19.879383	-110.595347	-0.080495	-20.601996	-0.080495	-20.601996	-19.879624	-110.610890
0.350000	-18.632036	-114.089233	-0.099128	-23.994296	-0.099128	-23.994296	-18.632152	-114.108252
0.400000	-17.571470	-117.546656	-0.119464	-27.375647	-0.119464	-27.375647	-17.571422	-117.569067
0.450000	-16.656578	-120.976559	-0.141340	-30.744857	-0.141340	-30.744857	-16.656366	-121.001963
0.500000	-15.858087	-124.383646	-0.164476	-34.101428	-0.164476	-34.101428	-15.857760	-124.411569
0.550000	-15.155578	-127.769248	-0.188587	-37.444944	-0.188587	-37.444944	-15.155225	-127.799394
0.600000	-14.534239	-131.133615	-0.213383	-40.775192	-0.213383	-40.775192	-14.533958	-131.165995
0.650000	-13.983498	-134.476720	-0.238567	-44.091984	-0.238567	-44.091984	-13.983360	-134.511619
0.700000	-13.494603	-137.799569	-0.263829	-47.395699	-0.263829	-47.395699	-13.494643	-137.837399
0.750000	-13.060370	-141.103749	-0.288881	-50.687016	-0.288881	-50.687016	-13.060590	-141.144911
0.800000	-12.675323	-144.390812	-0.313451	-53.966618	-0.313451	-53.966618	-12.675702	-144.435641
0.850000	-12.335227	-147.662282	-0.337265	-57.235271	-0.337265	-57.235271	-12.335737	-147.711043
0.900000	-12.036745	-150.919689	-0.360050	-60.493903	-0.360050	-60.493903	-12.037356	-150.972603
0.950000	-11.776450	-154.164893	-0.381575	-63.743846	-0.381575	-63.743846	-11.777135	-154.222160
1.000000	-11.551878	-157.399538	-0.401611	-66.986438	-0.401611	-66.986438	-11.552615	-157.461369
1.050000	-11.361036	-160.625299	-0.419942	-70.223174	-0.419942	-70.223174	-11.361807	-160.691938
1.100000	-11.202346	-163.843900	-0.436372	-73.455700	-0.436372	-73.455700	-11.203139	-163.915638
1.150000	-11.075014	-167.057088	-0.450691	-76.685815	-0.450691	-76.685815	-11.075819	-167.134275
1.200000	-10.978444	-170.266763	-0.462717	-79.915532	-0.462717	-79.915532	-10.979258	-170.349822
1.250000	-10.908757	-173.474985	-0.472597	-83.146683	-0.472597	-83.146683	-10.909580	-173.564351
1.300000	-10.871847	-176.683692	-0.479708	-86.382117	-0.479708	-86.382117	-10.872682	-176.779989
1.350000	-10.861602	-179.894680	-0.484504	-89.623160	-0.484504	-89.623160	-10.862456	-179.998493
1.400000	-10.882956	176.889495	-0.486541	-92.873299	-0.486541	-92.873299	-10.883841	176.777380
1.450000	-10.933734	173.667290	-0.486053	-96.134096	-0.486053	-96.134096	-10.934663	173.546055
1.500000	-11.016185	170.436391	-0.482955	-99.408569	-0.482955	-99.408569	-11.017178	170.305057
1.550000	-11.130982	167.195176	-0.477355	-102.698818	-0.477355	-102.698818	-11.132060	167.052650
1.600000	-11.281479	163.941240	-0.469227	-106.008325	-0.469227	-106.008325	-11.282671	163.786193
1.650000	-11.469374	160.673180	-0.458755	-109.339360	-0.458755	-109.339360	-11.470709	160.504086
1.700000	-11.698985	157.389043	-0.446031	-112.695485	-0.446031	-112.695485	-11.700502	157.204028
1.750000	-11.971978	154.088804	-0.431385	-116.077792	-0.431385	-116.077792	-11.973716	153.885752
1.800000	-12.293909	150.771649	-0.415003	-119.489345	-0.415003	-119.489345	-12.295915	150.547949
1.850000	-12.671776	147.437459	-0.397134	-122.933408	-0.397134	-122.933408	-12.674108	147.189809
1.900000	-13.113040	144.087736	-0.378119	-126.412245	-0.378119	-126.412245	-13.115766	143.811994
1.950000	-13.627680	140.725468	-0.358333	-129.928242	-0.358333	-129.928242	-13.630887	140.416291
2.000000	-14.228418	137.356094	-0.338192	-133.483399	-0.338192	-133.483399	-14.232220	137.006470
2.050000	-14.932533	133.988682	-0.318151	-137.079712	-0.318151	-137.079712	-14.937090	133.589112
2.100000	-15.763723	130.638350	-0.298704	-140.718946	-0.298704	-140.718946	-15.769277	130.175535
2.150000	-16.755688	127.330667	-0.280387	-144.402592	-0.280387	-144.402592	-16.762627	126.785225
2.200000	-17.958882	124.111118	-0.263777	-148.131956	-0.263777	-148.131956	-17.967887	123.453166
2.250000	-19.453606	121.067950	-0.249500	-151.908115	-0.249500	-151.908115	-19.466003	120.247656
2.300000	-21.377249	118.385496	-0.238175	-155.731103	-0.238175	-155.731103	-21.395997	117.312181
2.350000	-24.000824	116.534331	-0.230455	-159.600887	-0.230455	-159.600887	-24.034105	115.014741
2.400000	-27.977518	117.288046	-0.227062	-163.517444	-0.227062	-163.517444	-28.059564	114.761557
2.450000	-35.444574	133.009697	-0.228532	-167.478526	-0.228532	-167.478526	-35.923646	127.644639
2.500000	-37.162192	-119.819429	-0.235599	-171.483356	-0.235599	-171.483356	-37.834921	-112.812895
2.550000	-28.298234	-99.478526	-0.249021	-175.530502	-0.249021	-175.530502	-28.377437	-96.495527
2.600000	-23.693271	-98.311433	-0.269319	-179.616629	-0.269319	-179.616629	-23.719125	-96.470033
2.650000	-20.612669	-100.201201	-0.297063	176.261393	-0.297063	176.261393	-20.624365	-98.855928
2.700000	-18.295706	-103.119816	-0.332766	172.107174	-0.332766	172.107174	-18.301692	-102.049768
2.750000	-16.439677	-106.514590	-0.376876	167.924748	-0.376876	167.924748	-16.442770	-105.619376
2.800000	-14.894328	-110.171942	-0.429762	163.718512	-0.429762	163.718512	-14.895731	-109.397810
2.850000	-13.574175	-113.994163	-0.492039	159.492611	-0.492039	159.492611	-13.574507	-113.308338
2.900000	-12.426431	-117.916733	-0.563277	155.253136	-0.563277	155.253136	-12.426053	-117.299570
2.950000	-11.415187	-121.909500	-0.643688	151.004495	-0.643688	151.004495	-11.414342	-121.347116
3.000000	-10.515862	-125.951599	-0.733639	146.751419	-0.733639	146.751419	-10.514738	-125.433687
3.050000	-9.710173	-130.024981	-0.832812	142.498966	-0.832812	142.498966	-9.708919	-129.544103
3.100000	-8.984339	-134.117245	-0.941011	138.251772	-0.941011	138.251772	-8.983081	-133.667654
3.150000	-8.327698	-138.218679	-1.057989	134.014247	-1.057989	134.014247	-8.326540	-137.795765
3.200000	-7.731665	-142.321392	-1.183380	129.790410	-1.183380	129.790410	-7.730694	-141.921374
3.250000	-7.189119	-146.419081	-1.316719	125.583711	-1.316719	125.583711	-7.188400	-146.038802
3.300000	-6.694184	-150.506692	-1.457533	121.397159	-1.457533	121.397159	-6.693763	-150.143454
3.350000	-6.241802	-154.580273	-1.605291	117.233130	-1.605291	117.233130	-6.241702	-154.231761
3.400000	-5.827991	-158.636357	-1.759518	113.094024	-1.759518	113.094024	-5.828216	-158.300541
3.450000	-5.448784	-162.672820	-1.919598	108.980921	-1.919598	108.980921	-5.449319	-162.347984
3.500000	-5.100894	-166.688064	-2.084977	104.894676	-2.084977	104.894676	-5.101709	-166.372753
3.550000	-4.781406	-170.681144	-2.255110	100.835630	-2.255110	100.835630	-4.782456	-170.374149
3.600000	-4.487715	-174.651702	-2.429471	96.803645	-2.429471	96.803645	-4.488947	-174.352045
3.650000	-4.217484	-178.599914	-2.607562	92.798134	-2.607562	92.798134	-4.218840	-178.306835
3.700000	-3.968606	177.473569	-2.788917	88.818102	-2.788917	88.818102	-3.970024	177.760627
3.750000	-3.739173	173.567672	-2.973114	84.862191	-2.973114	84.862191	-3.740595	173.849081
3.800000	-3.528224	169.682118	-3.159639	80.930097	-3.159639	80.930097	-3.529591	169.958089
3.850000	-3.332348	165.812294	-3.348457	77.016525	-3.348457	77.016525	-3.333619	166.082878
3.900000	-3.151840	161.958700	-3.538975	73.122294	-3.538975	73.122294	-3.152974	162.223829
3.950000	-2.984392	158.117656	-3.731197	69.243336	-3.731197	69.243336	-2.985364	158.377175
4.000000	-2.829202	154.287143	-3.924849	65.377662	-3.924849	65.377662	-2.829996	154.540811
4.050000	-2.685354	150.464686	-4.119756	61.522807	-4.119756	61.522807	-2.685968	150.712201
4.100000	-2.551239	146.647046	-4.316093	57.675306	-4.316093	57.675306	-2.551680	146.888094
4.150000	-2.426981	142.831810	-4.513423	53.833125	-4.513423	53.833125	-2.427269	143.066016
4.200000	-2.310543	139.015936	-4.712350	49.992786	-4.712350	49.992786	-2.310703	139.242983
4.250000	-2.202431	135.195990	-4.912361	46.151457	-4.912361	46.151457	-2.202503	135.415507
4.300000	-2.100916	131.369834	-5.114157	42.306594	-5.114157	42.306594	-2.100938	131.581530
4.350000	-2.006034	127.533612	-5.317598	38.454794	-5.317598	38.454794	-2.006053	127.737193
4.400000	-1.916932	123.685032	-5.523114	34.593724	-5.523114	34.593724	-1.916993	123.880256
4.450000	-1.833109	119.821242	-5.731023	30.720690	-5.731023	30.720690	-1.833258	120.007907
4.500000	-1.754355	115.938464	-5.941552	26.832294	-5.941552	26.832294	-1.754638	116.116396
4.550000	-1.679806	112.036304	-6.155372	22.927932	-6.155372	22.927932	-1.680256	112.205385
4.600000	-1.609717	108.108257	-6.372640	19.001999	-6.372640	19.001999	-1.610372	108.268383
4.650000	-1.543101	104.156607	-6.594188	15.056262	-6.594188	15.056262	-1.543981	104.307718
4.700000	-1.480204	100.174351	-6.820384	11.084756	-6.820384	11.084756	-1.481326	100.316398
4.750000	-1.420367	96.163298	-7.051977	7.088984	-7.051977	7.088984	-1.421736	96.296248
4.800000	-1.363568	92.119115	-7.289609	3.065331	-7.289609	3.065331	-1.365179	92.242933
4.850000	-1.309552	88.040719	-7.534011	-0.987019	-7.534011	-0.987019	-1.311391	88.155364
4.900000	-1.258053	83.927977	-7.785948	-5.068033	-7.785948	-5.068033	-1.260098	84.033387
4.950000	-1.209132	79.776155	-8.046312	-9.181443	-8.046312	-9.181443	-1.211349	79.872232
5.000000	-1.162336	75.590062	-8.315815	-13.323025	-8.315815	-13.323025	-1.164693	75.676687
5.050000	-1.117984	71.360925	-8.595665	-17.499628	-8.595665	-17.499628	-1.120435	71.437890
5.100000	-1.075576	67.096568	-8.886489	-21.704537	-8.886489	-21.704537	-1.078082	67.163654
5.150000	-1.035338	62.790980	-9.189566	-25.942131	-9.189566	-25.942131	-1.037855	62.847858
5.200000	-0.997040	58.448198	-9.505742	-30.208747	-9.505742	-30.208747	-0.999534	58.494503
5.250000	-0.960719	54.067397	-9.836170	-34.504495	-9.836170	-34.504495	-0.963158	54.102669
5.300000	-0.926390	49.648854	-10.182003	-38.828583	-10.182003	-38.828583	-0.928751	49.672547
5.350000	-0.893904	45.196688	-10.544212	-43.177351	-10.544212	-43.177351	-0.896175	45.208221
5.400000	-0.863510	40.707918	-10.924207	-47.552324	-10.924207	-47.552324	-0.865691	40.706541
5.450000	-0.834901	36.190230	-11.322888	-51.947462	-11.322888	-51.947462	-0.837002	36.175241
5.500000	-0.808459	31.640029	-11.741603	-56.364713	-11.741603	-56.364713	-0.810506	31.610487
5.550000	-0.783883	27.064816	-12.181420	-60.798663	-12.181420	-60.798663	-0.785911	27.019850
5.600000	-0.761436	22.464306	-12.643346	-65.249550	-12.643346	-65.249550	-0.763497	22.402841
5.650000	-0.741052	17.842667	-13.128444	-69.715256	-13.128444	-69.715256	-0.743207	17.763581
5.700000	-0.722798	13.202723	-13.637485	-74.195684	-13.637485	-74.195684	-0.725122	13.104752
5.750000	-0.706890	8.546183	-14.170500	-78.693623	-14.170500	-78.693623	-0.709479	8.427792
5.800000	-0.693195	3.877086	-14.728367	-83.211838	-14.728367	-83.211838	-0.696154	3.736654
5.850000	-0.682190	-0.804406	-15.308739	-87.763606	-15.308739	-87.763606	-0.685668	-0.969105
5.900000	-0.674163	-5.497233	-15.908710	-92.370574	-15.908710	-92.370574	-0.678359	-5.689034
5.950000	-0.669673	-10.202533	-16.522481	-97.073401	-16.522481	-97.073401	-0.674874	-10.425241
6.000000	-0.669817	-14.924785	-17.138689	-101.950777	-17.138689	-101.950777	-0.676481	-15.183828
6.050000	-0.676771	-19.673912	-17.736290	-107.158396	-17.736290	-107.158396	-0.685698	-19.977445
6.100000	-0.695269	-24.469119	-18.276426	-113.022672	-18.276426	-113.022672	-0.708026	-24.830042
6.150000	-0.737490	-29.344443	-18.685275	-120.320784	-18.685275	-120.320784	-0.757676	-29.784311
6.200000	-0.835793	-34.321595	-18.853380	-130.906993	-18.853380	-130.906993	-0.872751	-34.872047
6.250000	-1.090400	-39.075013	-18.753863	-150.329094	-18.753863	-150.329094	-1.173502	-39.727786
6.300000	-1.469516	-40.915219	-19.899294	169.801641	-19.899294	169.801641	-1.633574	-41.127885
6.350000	-1.090801	-42.194089	-26.167079	121.943607	-26.167079	121.943607	-1.185061	-41.794345
6.400000	-0.788476	-47.015062	-33.939518	83.578061	-33.939518	83.578061	-0.826621	-46.707718
6.450000	-0.685944	-51.978253	-37.441788	42.725904	-37.441788	42.725904	-0.704978	-51.794109
6.500000	-0.646940	-56.681277	-36.327146	19.579928	-36.327146	19.579928	-0.658143	-56.581308
6.550000	-0.630771	-61.192194	-34.258665	11.480950	-34.258665	11.480950	-0.638126	-61.150339
6.600000	-0.624674	-65.561976	-32.279760	8.331731	-32.279760	8.331731	-0.629899	-65.561775
6.650000	-0.623312	-69.829915	-30.541076	6.180665	-30.541076	6.180665	-0.627188	-69.861492
6.700000	-0.624753	-74.010679	-29.034218	4.045767	-29.034218	4.045767	-0.627719	-74.067105
6.750000	-0.627954	-78.113251	-27.732194	1.680008	-27.732194	1.680008	-0.630269	-78.189542
6.800000	-0.632222	-82.152985	-26.601748	-0.895132	-26.601748	-0.895132	-0.634033	-82.245843
6.850000	-0.637355	-86.127095	-25.613814	-3.662336	-25.613814	-3.662336	-0.638775	-86.233664
6.900000	-0.643109	-90.042812	-24.742806	-6.566455	-24.742806	-6.566455	-0.644213	-90.160957
6.950000	-0.649359	-93.903091	-23.968643	-9.569416	-23.968643	-9.569416	-0.650201	-94.031071
7.000000	-0.656049	-97.707325	-23.276007	-12.646577	-23.276007	-12.646577	-0.656672	-97.843596
7.050000	-0.663081	-101.463941	-22.649575	-15.769087	-22.649575	-15.769087	-0.663516	-101.607323
7.100000	-0.670485	-105.166546	-22.081219	-18.927595	-22.081219	-18.927595	-0.670759	-105.315806
7.150000	-0.678183	-108.826701	-21.559089	-22.104966	-21.559089	-22.104966	-0.678314	-108.980926
7.200000	-0.686230	-112.438778	-21.077714	-25.295984	-21.077714	-25.295984	-0.686233	-112.596962
7.250000	-0.694592	-116.011041	-20.629284	-28.493532	-20.629284	-28.493532	-0.694478	-116.172353
7.300000	-0.703319	-119.542789	-20.208864	-31.694403	-20.208864	-31.694403	-0.703094	-119.706369
7.350000	-0.712436	-123.037363	-19.811508	-34.896460	-19.811508	-34.896460	-0.712105	-123.202386
7.400000	-0.721972	-126.498864	-19.432851	-38.098868	-19.432851	-38.098868	-0.721537	-126.664540
7.450000	-0.732030	-129.927059	-19.069053	-41.301975	-19.069053	-41.301975	-0.731490	-130.092517
7.500000	-0.742602	-133.329578	-18.716984	-44.506757	-18.716984	-44.506757	-0.741953	-133.494056
7.550000	-0.753910	-136.704242	-18.372320	-47.716042	-18.372320	-47.716042	-0.753144	-136.866771
7.600000	-0.765921	-140.059687	-18.033403	-50.931702	-18.033403	-50.931702	-0.765030	-140.219441
7.650000	-0.778903	-143.396821	-17.695794	-54.158872	-17.695794	-54.158872	-0.777873	-143.552779
7.700000	-0.792937	-146.721496	-17.357778	-57.401036	-17.357778	-57.401036	-0.791751	-146.872663
7.750000	-0.808286	-150.038152	-17.015820	-60.664622	-17.015820	-60.664622	-0.806924	-150.183403
7.800000	-0.825256	-153.352189	-16.666589	-63.957041	-16.666589	-63.957041	-0.823692	-153.490267
7.850000	-0.844059	-156.669760	-16.308724	-67.284000	-16.308724	-67.284000	-0.842262	-156.799367
7.900000	-0.865445	-159.999259	-15.935308	-70.661336	-15.935308	-70.661336	-0.863372	-160.118723
7.950000	-0.889538	-163.346490	-15.548202	-74.091958	-15.548202	-74.091958	-0.887144	-163.454203
8.000000	-0.917780	-166.726658	-15.136381	-77.603979	-15.136381	-77.603979	-0.914997	-166.820347
8.050000	-0.950510	-170.146108	-14.702769	-81.201870	-14.702769	-81.201870	-0.947263	-170.223512
8.100000	-0.989792	-173.625745	-14.236740	-84.920892	-14.236740	-84.920892	-0.985973	-173.683802
8.150000	-1.037236	-177.180812	-13.736157	-88.783382	-13.736157	-88.783382	-1.032710	-177.215998
8.200000	-1.095711	179.164525	-13.194494	-92.827961	-13.194494	-92.827961	-1.090293	179.156619
8.250000	-1.170222	175.371963	-12.599829	-97.118530	-12.599829	-97.118530	-1.163642	175.397273
8.300000	-1.264902	171.419135	-11.954687	-101.691507	-11.954687	-101.691507	-1.256813	171.484538
8.350000	-1.392761	167.226989	-11.235126	-106.686669	-11.235126	-106.686669	-1.382577	167.342982
8.400000	-1.567581	162.741668	-10.439989	-112.208604	-10.439989	-112.208604	-1.554436	162.921851
8.450000	-1.817186	157.866144	-9.555793	-118.462364	-9.555793	-118.462364	-1.799614	158.130457
8.500000	-2.191876	152.486160	-8.572073	-125.753284	-8.572073	-125.753284	-2.167187	152.865262
8.550000	-2.780190	146.534124	-7.495561	-134.489716	-7.495561	-134.489716	-2.743080	147.076073
8.600000	-3.757126	140.158394	-6.357457	-145.274552	-6.357457	-145.274552	-3.695484	140.943179
8.650000	-5.468282	134.559050	-5.253981	-158.872584	-5.253981	-158.872584	-5.348545	135.714665
8.700000	-8.414070	135.430110	-4.400376	-175.790336	-4.400376	-175.790336	-8.126091	136.953582
8.750000	-11.238961	159.837247	-4.107008	164.611921	-4.107008	164.611921	-10.656262	159.607722
8.800000	-8.732019	-173.044615	-4.569970	144.698871	-4.569970	144.698871	-8.421645	-175.360694
8.850000	-5.620815	-171.002997	-5.646612	127.063097	-5.646612	127.063097	-5.497529	-172.972136
8.900000	-3.802393	-176.607198	-7.023526	112.679614	-7.023526	112.679614	-3.741823	-178.178141
8.950000	-2.781828	176.816040	-8.456847	101.178559	-8.456847	101.178559	-2.746689	175.505244
9.000000	-2.181928	170.689681	-9.829077	91.793711	-9.829077	91.793711	-2.159197	169.552313
9.050000	-1.810662	165.195454	-11.096797	83.887429	-11.096797	83.887429	-1.794788	164.180020
9.100000	-1.571621	160.260463	-12.244372	77.019514	-12.244372	77.019514	-1.559853	159.334580
9.150000	-1.410760	155.757805	-13.278343	70.862168	-13.278343	70.862168	-1.401623	154.900769
9.200000	-1.299119	151.583822	-14.206226	65.202800	-14.206226	65.202800	-1.291743	150.781655
9.250000	-1.220161	147.660297	-15.033876	59.898695	-15.033876	59.898695	-1.213987	146.903208
9.300000	-1.164021	143.929235	-15.764175	54.851325	-15.764175	54.851325	-1.158661	143.210192
9.350000	-1.124114	140.341952	-16.402447	49.984266	-16.402447	49.984266	-1.119284	139.656031
9.400000	-1.096538	136.862931	-16.949398	45.244152	-16.949398	45.244152	-1.092003	136.206700
9.450000	-1.078776	133.462523	-17.404771	40.588641	-17.404771	40.588641	-1.074317	132.833787
9.500000	-1.069344	130.115456	-17.766521	35.982808	-17.766521	35.982808	-1.064735	129.513117
9.550000	-1.067557	126.798872	-18.030731	31.395053	-18.030731	31.395053	-1.062535	126.222903
9.600000	-1.073453	123.490589	-18.191436	26.793078	-18.191436	26.793078	-1.067678	122.942122
9.650000	-1.087861	120.167343	-18.240288	22.139183	-18.240288	22.139183	-1.080863	119.648909
9.700000	-1.112647	116.802812	-18.166047	17.383926	-18.166047	17.383926	-1.103739	116.318755
9.750000	-1.151256	113.365127	-17.953827	12.456555	-17.953827	12.456555	-1.139366	112.922313
9.800000	-1.209785	109.813712	-17.584048	7.249353	-17.584048	7.249353	-1.193153	109.422653
9.850000	-1.299600	106.093662	-17.028886	1.583934	-17.028886	1.583934	-1.275099	105.770399
9.900000	-1.442087	102.136396	-16.253664	-4.840274	-16.253664	-4.840274	-1.403740	101.904503
9.950000	-1.677163	97.881371	-15.225244	-12.519148	-15.225244	-12.519148	-1.612971	97.770399
10.000000	-2.088787	93.354386	-13.911613	-22.382557	-13.911613	-22.382557	-1.972513	93.379218
