! freq	dB(S11)	phase(S11)	dB(S12)	phase(S12)	
!     	dB(S21)	phase(S21)	dB(S22)	phase(S22)	
!S-par simulation data
#  GHz  S  DB  R 50
0.000000	-0.000000	0.000000	-354.573717	180.000000	-354.573717	180.000000	-0.000000	0.000000
0.050000	-0.002324	-3.150599	-84.233616	86.916263	-84.233616	86.916263	-0.002328	-3.150898
0.100000	-0.007304	-6.280570	-78.253321	83.834295	-78.253321	83.834295	-0.007309	-6.281118
0.150000	-0.012420	-9.390968	-74.796325	80.758179	-74.796325	80.758179	-0.012420	-9.391773
0.200000	-0.016981	-12.488964	-72.382851	77.694241	-72.382851	77.694241	-0.016976	-12.490048
0.250000	-0.021088	-15.577666	-70.550947	74.651278	-70.550947	74.651278	-0.021079	-15.579034
0.300000	-0.024958	-18.657529	-69.094542	71.638834	-69.094542	71.638834	-0.024948	-18.659172
0.350000	-0.028737	-21.728147	-67.901562	68.664410	-67.901562	68.664410	-0.028727	-21.730050
0.400000	-0.032489	-24.788380	-66.907318	65.736122	-66.907318	65.736122	-0.032480	-24.790529
0.450000	-0.036236	-27.836485	-66.072942	62.864361	-66.072942	62.864361	-0.036227	-27.838866
0.500000	-0.039978	-30.871882	-65.367180	60.054222	-65.367180	60.054222	-0.039970	-30.874485
0.550000	-0.043707	-33.893495	-64.770291	57.313649	-64.770291	57.313649	-0.043700	-33.896310
0.600000	-0.047406	-36.899551	-64.270731	54.655471	-64.270731	54.655471	-0.047400	-36.902569
0.650000	-0.051063	-39.889567	-63.855546	52.087200	-63.855546	52.087200	-0.051059	-39.892779
0.700000	-0.054667	-42.862785	-63.515963	49.619247	-63.515963	49.619247	-0.054665	-42.866180
0.750000	-0.058206	-45.817765	-63.247480	47.268522	-63.247480	47.268522	-0.058206	-45.821332
0.800000	-0.061671	-48.753684	-63.044939	45.051103	-63.044939	45.051103	-0.061673	-48.757409
0.850000	-0.065059	-51.670566	-62.902004	42.979385	-62.902004	42.979385	-0.065064	-51.674433
0.900000	-0.068362	-54.566497	-62.818840	41.084984	-62.818840	41.084984	-0.068369	-54.570489
0.950000	-0.071579	-57.441368	-62.791050	39.390056	-62.791050	39.390056	-0.071587	-57.445467
1.000000	-0.074709	-60.294573	-62.816131	37.926099	-62.816131	37.926099	-0.074718	-60.298760
1.050000	-0.077752	-63.125572	-62.891544	36.730632	-62.891544	36.730632	-0.077762	-63.129826
1.100000	-0.080709	-65.933892	-63.014363	35.848235	-63.014363	35.848235	-0.080718	-65.938194
1.150000	-0.083582	-68.719129	-63.180826	35.331484	-63.180826	35.331484	-0.083590	-68.723460
1.200000	-0.086372	-71.480947	-63.385705	35.241466	-63.385705	35.241466	-0.086378	-71.485289
1.250000	-0.089084	-74.219079	-63.621480	35.647264	-63.621480	35.647264	-0.089087	-74.223413
1.300000	-0.091718	-76.932972	-63.877198	36.632740	-63.877198	36.632740	-0.091718	-76.937282
1.350000	-0.094279	-79.622833	-64.136761	38.263784	-64.136761	38.263784	-0.094276	-79.627104
1.400000	-0.096771	-82.288586	-64.378639	40.599079	-64.378639	40.599079	-0.096765	-82.292804
1.450000	-0.099197	-84.930215	-64.575122	43.662750	-64.575122	43.662750	-0.099188	-84.934367
1.500000	-0.101561	-87.547756	-64.693723	47.418396	-64.693723	47.418396	-0.101548	-87.551830
1.550000	-0.103865	-90.141299	-64.701351	51.745388	-64.701351	51.745388	-0.103849	-90.145285
1.600000	-0.106113	-92.710983	-64.571221	56.432192	-64.571221	56.432192	-0.106095	-92.714869
1.650000	-0.108308	-95.256989	-64.290246	61.200480	-64.290246	61.200480	-0.108288	-95.260767
1.700000	-0.110450	-97.778788	-63.858109	65.742774	-63.858109	65.742774	-0.110430	-97.782446
1.750000	-0.112546	-100.278082	-63.305608	69.838256	-63.305608	69.838256	-0.112525	-100.281610
1.800000	-0.114596	-102.754489	-62.658048	73.321864	-62.658048	73.321864	-0.114575	-102.757876
1.850000	-0.116602	-105.208341	-61.947288	76.125022	-61.947288	76.125022	-0.116583	-105.211575
1.900000	-0.118567	-107.639759	-61.200804	78.243576	-61.200804	78.243576	-0.118549	-107.642826
1.950000	-0.120492	-110.049144	-60.441451	79.727310	-60.441451	79.727310	-0.120475	-110.052029
2.000000	-0.122379	-112.437146	-59.686233	80.652991	-59.686233	80.652991	-0.122364	-112.439832
2.050000	-0.124231	-114.804195	-58.945881	81.094821	-58.945881	81.094821	-0.124218	-114.806665
2.100000	-0.126049	-117.150739	-58.227150	81.123492	-58.227150	81.123492	-0.126036	-117.152974
2.150000	-0.127835	-119.477240	-57.533949	80.802348	-57.533949	80.802348	-0.127822	-119.479221
2.200000	-0.129591	-121.784174	-56.868243	80.186202	-56.868243	80.186202	-0.129577	-121.785880
2.250000	-0.131319	-124.072027	-56.230711	79.321541	-56.230711	79.321541	-0.131302	-124.073439
2.300000	-0.133021	-126.341294	-55.621205	78.247350	-55.621205	78.247350	-0.132999	-126.342392
2.350000	-0.134699	-128.592477	-55.039069	76.996146	-55.039069	76.996146	-0.134671	-128.593243
2.400000	-0.136356	-130.826085	-54.483351	75.594992	-54.483351	75.594992	-0.136318	-130.826501
2.450000	-0.137994	-133.042627	-53.952938	74.066422	-53.952938	74.066422	-0.137944	-133.042680
2.500000	-0.139616	-135.242617	-53.446649	72.429232	-53.446649	72.429232	-0.139552	-135.242295
2.550000	-0.141224	-137.426231	-52.963207	70.697429	-52.963207	70.697429	-0.141143	-137.425528
2.600000	-0.142823	-139.594344	-52.501581	68.886412	-52.501581	68.886412	-0.142723	-139.593253
2.650000	-0.144415	-141.747465	-52.060637	67.007172	-52.060637	67.007172	-0.144294	-141.745986
2.700000	-0.146003	-143.886102	-51.639303	65.069010	-51.639303	65.069010	-0.145861	-143.884237
2.750000	-0.147591	-146.010759	-51.236573	63.079826	-51.236573	63.079826	-0.147428	-146.008510
2.800000	-0.149183	-148.121934	-50.851506	61.046355	-50.851506	61.046355	-0.148999	-148.119304
2.850000	-0.150781	-150.220119	-50.483227	58.974362	-50.483227	58.974362	-0.150580	-150.217110
2.900000	-0.152391	-152.305798	-50.130925	56.868797	-50.130925	56.868797	-0.152176	-152.302409
2.950000	-0.154014	-154.379451	-49.793848	54.733926	-49.793848	54.733926	-0.153790	-154.375673
3.000000	-0.155654	-156.441546	-49.471299	52.573439	-49.471299	52.573439	-0.155426	-156.437364
3.050000	-0.157314	-158.492547	-49.162637	50.390535	-49.162637	50.390535	-0.157089	-158.487933
3.100000	-0.158997	-160.532905	-48.867265	48.188002	-48.867265	48.188002	-0.158781	-160.527823
3.150000	-0.160705	-162.562960	-48.584671	45.968109	-48.584671	45.968109	-0.160504	-162.557359
3.200000	-0.162439	-164.583164	-48.314358	43.733050	-48.314358	43.733050	-0.162259	-164.576981
3.250000	-0.164201	-166.594054	-48.055819	41.484865	-48.055819	41.484865	-0.164045	-166.587217
3.300000	-0.165990	-168.596051	-47.808620	39.225191	-47.808620	39.225191	-0.165860	-168.588483
3.350000	-0.167806	-170.589569	-47.572356	36.955474	-47.572356	36.955474	-0.167701	-170.581186
3.400000	-0.169649	-172.575013	-47.346656	34.676994	-47.346656	34.676994	-0.169566	-172.565737
3.450000	-0.171517	-174.552785	-47.131175	32.390892	-47.131175	32.390892	-0.171451	-174.542540
3.500000	-0.173407	-176.523280	-46.925594	30.098182	-46.925594	30.098182	-0.173350	-176.512001
3.550000	-0.175316	-178.486889	-46.729618	27.799770	-46.729618	27.799770	-0.175260	-178.474526
3.600000	-0.177242	179.556000	-46.542975	25.496470	-46.542975	25.496470	-0.177176	179.569484
3.650000	-0.179180	177.605005	-46.365413	23.189010	-46.365413	23.189010	-0.179094	177.619626
3.700000	-0.181127	175.659745	-46.196699	20.878045	-46.196699	20.878045	-0.181010	175.675503
3.750000	-0.183079	173.719845	-46.036618	18.564167	-46.036618	18.564167	-0.182921	173.736723
3.800000	-0.185031	171.785031	-45.885098	16.247869	-45.885098	16.247869	-0.184824	171.802995
3.850000	-0.186980	169.854817	-45.741836	13.929694	-45.741836	13.929694	-0.186717	169.873824
3.900000	-0.188923	167.928840	-45.606665	11.610078	-45.606665	11.610078	-0.188599	167.948835
3.950000	-0.190855	166.006739	-45.479432	9.289416	-45.479432	9.289416	-0.190469	166.027663
4.000000	-0.192774	164.088159	-45.359996	6.968067	-45.359996	6.968067	-0.192326	164.109953
4.050000	-0.194678	162.172754	-45.248230	4.646358	-45.248230	4.646358	-0.194170	162.195357
4.100000	-0.196564	160.260181	-45.144021	2.324587	-45.144021	2.324587	-0.196000	160.283539
4.150000	-0.198432	158.350107	-45.047266	0.003026	-45.047266	0.003026	-0.197818	158.374169
4.200000	-0.200280	156.442205	-44.957874	-2.318076	-44.957874	-2.318076	-0.199624	156.466932
4.250000	-0.202108	154.536158	-44.875767	-4.638494	-44.875767	-4.638494	-0.201418	154.561518
4.300000	-0.203916	152.631659	-44.800875	-6.958019	-44.800875	-6.958019	-0.203200	152.657631
4.350000	-0.205703	150.728409	-44.733142	-9.276460	-44.733142	-9.276460	-0.204972	150.754981
4.400000	-0.207470	148.826125	-44.672595	-11.593626	-44.672595	-11.593626	-0.206734	148.853297
4.450000	-0.209218	146.924521	-44.619201	-13.909351	-44.619201	-13.909351	-0.208486	146.952303
4.500000	-0.210948	145.023318	-44.572865	-16.223499	-44.572865	-16.223499	-0.210230	145.051728
4.550000	-0.212660	143.122259	-44.533572	-18.535929	-44.533572	-18.535929	-0.211965	143.151323
4.600000	-0.214356	141.221062	-44.501929	-20.846337	-44.501929	-20.846337	-0.213691	141.250819
4.650000	-0.216038	139.319545	-44.476663	-23.154957	-44.476663	-23.154957	-0.215410	139.350031
4.700000	-0.217707	137.417466	-44.458470	-25.461483	-44.458470	-25.461483	-0.217122	137.448727
4.750000	-0.219363	135.514610	-44.447386	-27.765796	-44.447386	-27.765796	-0.218826	135.546695
4.800000	-0.221008	133.610823	-44.443143	-30.067885	-44.443143	-30.067885	-0.220524	133.643782
4.850000	-0.222642	131.705794	-44.446507	-32.367387	-44.446507	-32.367387	-0.222214	131.739684
4.900000	-0.224267	129.799392	-44.457162	-34.664304	-44.457162	-34.664304	-0.223896	129.834270
4.950000	-0.225883	127.891441	-44.475198	-36.958500	-44.475198	-36.958500	-0.225571	127.927362
5.000000	-0.227492	125.981775	-44.500717	-39.249828	-44.500717	-39.249828	-0.227238	126.018795
5.050000	-0.229093	124.070191	-44.534002	-41.538056	-44.534002	-41.538056	-0.228896	124.108368
5.100000	-0.230687	122.156581	-44.575029	-43.823065	-44.575029	-43.823065	-0.230547	122.195966
5.150000	-0.232275	120.240806	-44.623949	-46.104652	-44.623949	-46.104652	-0.232188	120.281451
5.200000	-0.233857	118.322737	-44.680936	-48.382583	-44.680936	-48.382583	-0.233821	118.364692
5.250000	-0.235432	116.402256	-44.746179	-50.656593	-44.746179	-50.656593	-0.235443	116.445566
5.300000	-0.237002	114.479251	-44.819891	-52.926380	-44.819891	-52.926380	-0.237056	114.523961
5.350000	-0.238566	112.553620	-44.902305	-55.191592	-44.902305	-55.191592	-0.238659	112.599772
5.400000	-0.240124	110.625273	-44.993680	-57.451830	-44.993680	-57.451830	-0.240250	110.672904
5.450000	-0.241676	108.694123	-45.094299	-59.706630	-45.094299	-59.706630	-0.241830	108.743269
5.500000	-0.243222	106.760097	-45.204473	-61.955461	-45.204473	-61.955461	-0.243398	106.810789
5.550000	-0.244760	104.823127	-45.324540	-64.197710	-45.324540	-64.197710	-0.244954	104.875396
5.600000	-0.246292	102.883154	-45.454874	-66.432674	-45.454874	-66.432674	-0.246497	102.937028
5.650000	-0.247816	100.940096	-45.595974	-68.659443	-45.595974	-68.659443	-0.248027	100.995599
5.700000	-0.249332	98.993910	-45.748286	-70.877052	-45.748286	-70.877052	-0.249544	99.051064
5.750000	-0.250840	97.044594	-45.912202	-73.084507	-45.912202	-73.084507	-0.251047	97.103420
5.800000	-0.252339	95.092125	-46.088252	-75.280567	-46.088252	-75.280567	-0.252536	95.152642
5.850000	-0.253830	93.136485	-46.277014	-77.463804	-46.277014	-77.463804	-0.254012	93.198709
5.900000	-0.255312	91.177663	-46.479121	-79.632577	-46.479121	-79.632577	-0.255474	91.241611
5.950000	-0.256785	89.215659	-46.695267	-81.784992	-46.695267	-81.784992	-0.256922	89.281345
6.000000	-0.258248	87.250476	-46.926215	-83.918870	-46.926215	-83.918870	-0.258357	87.317916
6.050000	-0.259703	85.282127	-47.172802	-86.031687	-47.172802	-86.031687	-0.259778	85.351334
6.100000	-0.261147	83.310631	-47.435952	-88.120525	-47.435952	-88.120525	-0.261187	83.381620
6.150000	-0.262583	81.336014	-47.716685	-90.181990	-47.716685	-90.181990	-0.262584	81.408800
6.200000	-0.264010	79.358308	-48.016133	-92.212125	-48.016133	-92.212125	-0.263969	79.432906
6.250000	-0.265429	77.377551	-48.335554	-94.206298	-48.335554	-94.206298	-0.265343	77.453977
6.300000	-0.266840	75.393724	-48.676539	-96.158009	-48.676539	-96.158009	-0.266708	75.471997
6.350000	-0.268244	73.406944	-49.040460	-98.061501	-49.040460	-98.061501	-0.268064	73.487082
6.400000	-0.269643	71.417265	-49.429081	-99.908978	-49.429081	-99.908978	-0.269414	71.499290
6.450000	-0.271036	69.424750	-49.844387	-101.691072	-49.844387	-101.691072	-0.270757	69.508683
6.500000	-0.272426	67.429462	-50.288630	-103.396424	-50.288630	-103.396424	-0.272097	67.515331
6.550000	-0.273814	65.431472	-50.764371	-105.011140	-50.764371	-105.011140	-0.273434	65.519304
6.600000	-0.275201	63.430854	-51.274529	-106.518043	-51.274529	-106.518043	-0.274772	63.520680
6.650000	-0.276591	61.427683	-51.822442	-107.895658	-51.822442	-107.895658	-0.276112	61.519538
6.700000	-0.277984	59.422042	-52.411933	-109.116803	-52.411933	-109.116803	-0.277457	59.515961
6.750000	-0.279383	57.414012	-53.047364	-110.146620	-53.047364	-110.146620	-0.278809	57.510036
6.800000	-0.280792	55.403678	-53.733686	-110.939759	-53.733686	-110.939759	-0.280172	55.501851
6.850000	-0.282212	53.391128	-54.476427	-111.436357	-54.476427	-111.436357	-0.281548	53.491497
6.900000	-0.283647	51.376426	-55.281418	-111.550871	-55.281418	-111.550871	-0.282941	51.479043
6.950000	-0.285101	49.359666	-56.154342	-111.169030	-56.154342	-111.169030	-0.284355	49.464585
7.000000	-0.286578	47.340958	-57.099930	-110.140878	-57.099930	-110.140878	-0.285793	47.448239
7.050000	-0.288080	45.320392	-58.119230	-108.252795	-58.119230	-108.252795	-0.287260	45.430096
7.100000	-0.289613	43.298055	-59.204493	-105.212004	-59.204493	-105.212004	-0.288759	43.410248
7.150000	-0.291180	41.274033	-60.328942	-100.636268	-60.328942	-100.636268	-0.290295	41.388785
7.200000	-0.292787	39.248409	-61.429145	-94.091025	-61.429145	-94.091025	-0.291873	39.365794
7.250000	-0.294438	37.221266	-62.383791	-85.257835	-62.383791	-85.257835	-0.293498	37.341359
7.300000	-0.296139	35.192679	-63.014790	-74.306980	-63.014790	-74.306980	-0.295175	35.315563
7.350000	-0.297895	33.162724	-63.157881	-62.264281	-63.157881	-62.264281	-0.296909	33.288481
7.400000	-0.299712	31.131469	-62.783154	-50.763209	-62.783154	-50.763209	-0.298706	31.260187
7.450000	-0.301597	29.098977	-62.022591	-41.122556	-62.022591	-41.122556	-0.300571	29.230746
7.500000	-0.303554	27.065306	-61.062994	-33.777057	-61.062994	-33.777057	-0.302512	27.200220
7.550000	-0.305593	25.030483	-60.045660	-28.544861	-60.045660	-28.544861	-0.304535	25.168639
7.600000	-0.307719	22.994575	-59.054680	-24.939333	-59.054680	-24.939333	-0.306647	23.136073
7.650000	-0.309938	20.957616	-58.124917	-22.555716	-58.124917	-22.555716	-0.308853	21.102558
7.700000	-0.312259	18.919632	-57.268100	-21.077111	-57.268100	-21.077111	-0.311161	19.068122
7.750000	-0.314689	16.880636	-56.484953	-20.270235	-56.484953	-20.270235	-0.313577	17.032780
7.800000	-0.317235	14.840633	-55.771502	-19.966521	-55.771502	-19.966521	-0.316110	14.996540
7.850000	-0.319905	12.799615	-55.122116	-20.044081	-55.122116	-20.044081	-0.318768	12.959394
7.900000	-0.322709	10.757561	-54.530900	-20.413935	-54.530900	-20.413935	-0.321557	10.921326
7.950000	-0.325653	8.714439	-53.992288	-21.010263	-53.992288	-21.010263	-0.324486	8.882302
8.000000	-0.328747	6.670199	-53.501265	-21.783657	-53.501265	-21.783657	-0.327563	6.842276
8.050000	-0.332000	4.624778	-53.053413	-22.696477	-53.053413	-22.696477	-0.330798	4.801186
8.100000	-0.335421	2.578098	-52.644890	-23.719634	-52.644890	-23.719634	-0.334198	2.758955
8.150000	-0.339022	0.530045	-52.272574	-24.831087	-52.272574	-24.831087	-0.337775	0.715472
8.200000	-0.342811	-1.519500	-51.933607	-26.012259	-51.933607	-26.012259	-0.341538	-1.329381
8.250000	-0.346799	-3.570658	-51.625323	-27.247856	-51.625323	-27.247856	-0.345496	-3.375726
8.300000	-0.350994	-5.623587	-51.345615	-28.526178	-51.345615	-28.526178	-0.349658	-5.423715
8.350000	-0.355413	-7.678526	-51.093224	-29.838264	-51.093224	-29.838264	-0.354040	-7.473587
8.400000	-0.360045	-9.735451	-50.864709	-31.173645	-50.864709	-31.173645	-0.358630	-9.525326
8.450000	-0.364936	-11.794947	-50.661692	-32.528609	-50.661692	-32.528609	-0.363475	-11.579496
8.500000	-0.370065	-13.856930	-50.480577	-33.895071	-50.480577	-33.895071	-0.368554	-13.636028
8.550000	-0.375463	-15.921892	-50.321953	-35.268608	-50.321953	-35.268608	-0.373896	-15.695401
8.600000	-0.381137	-17.990082	-50.184762	-36.644425	-50.184762	-36.644425	-0.379509	-17.757861
8.650000	-0.387089	-20.061704	-50.067774	-38.018204	-50.067774	-38.018204	-0.385395	-19.823617
8.700000	-0.393359	-22.137493	-49.972488	-39.385374	-49.972488	-39.385374	-0.391594	-21.893383
8.750000	-0.399915	-24.217206	-49.895737	-40.743239	-49.895737	-40.743239	-0.398072	-23.966933
8.800000	-0.406836	-26.302265	-49.841698	-42.084865	-49.841698	-42.084865	-0.404909	-26.045651
8.850000	-0.414068	-28.392099	-49.806286	-43.409265	-49.806286	-43.409265	-0.412052	-28.128992
8.900000	-0.421678	-30.488069	-49.793000	-44.708430	-49.793000	-44.708430	-0.419567	-30.218281
8.950000	-0.429648	-32.590156	-49.800332	-45.979458	-49.800332	-45.979458	-0.427434	-32.313506
9.000000	-0.438007	-34.699219	-49.829838	-47.214848	-49.829838	-47.214848	-0.435685	-34.415508
9.050000	-0.446779	-36.816055	-49.882895	-48.406384	-49.882895	-48.406384	-0.444343	-36.525065
9.100000	-0.455952	-38.940746	-49.958865	-49.548852	-49.958865	-49.548852	-0.453395	-38.642260
9.150000	-0.465600	-41.075237	-50.062475	-50.623229	-50.062475	-50.623229	-0.462915	-40.768989
9.200000	-0.475666	-43.218695	-50.191046	-51.628039	-50.191046	-51.628039	-0.472848	-42.904442
9.250000	-0.486260	-45.374008	-50.351710	-52.528950	-50.351710	-52.528950	-0.483300	-45.051427
9.300000	-0.497320	-47.540186	-50.542053	-53.321649	-50.542053	-53.321649	-0.494212	-47.208983
9.350000	-0.508927	-49.719645	-50.768017	-53.962493	-50.768017	-53.962493	-0.505663	-49.379454
9.400000	-0.521074	-51.912707	-51.030818	-54.423569	-51.030818	-54.423569	-0.517647	-51.563150
9.450000	-0.533779	-54.120319	-51.333068	-54.660148	-51.333068	-54.660148	-0.530181	-53.760985
9.500000	-0.547106	-56.344722	-51.679721	-54.591404	-51.679721	-54.591404	-0.543328	-55.975127
9.550000	-0.561061	-58.586638	-52.071713	-54.140987	-52.071713	-54.140987	-0.557093	-58.206268
9.600000	-0.575674	-60.847490	-52.509520	-53.195882	-52.509520	-53.195882	-0.571506	-60.455773
9.650000	-0.590978	-63.128801	-52.989951	-51.608025	-52.989951	-51.608025	-0.586598	-62.725105
9.700000	-0.607013	-65.432408	-53.502542	-49.179563	-53.502542	-49.179563	-0.602408	-65.016024
9.750000	-0.623832	-67.760547	-54.022214	-45.656690	-54.022214	-45.656690	-0.618986	-67.330672
9.800000	-0.641455	-70.114527	-54.503105	-40.831337	-54.503105	-40.831337	-0.636352	-69.670288
9.850000	-0.659926	-72.496372	-54.870495	-34.562917	-54.870495	-34.562917	-0.654546	-72.036797
9.900000	-0.679291	-74.908246	-55.023928	-26.960650	-55.023928	-26.960650	-0.673610	-74.432254
9.950000	-0.699598	-77.352472	-54.865334	-18.539722	-54.865334	-18.539722	-0.693592	-76.858861
10.000000	-0.720902	-79.831541	-54.348799	-10.183691	-54.348799	-10.183691	-0.714538	-79.318970
