! freq	dB(S11)	phase(S11)	dB(S12)	phase(S12)	
!     	dB(S21)	phase(S21)	dB(S22)	phase(S22)	
!S-par simulation data
#  GHz  S  DB  R 50
0.000000	-86.545226	0.000000	-0.000409	0.000000	-0.000409	0.000000	-86.545226	0.000000
0.050000	-35.468567	-92.273118	-0.003976	-2.655431	-0.003976	-2.655431	-35.473362	-92.863177
0.100000	-29.459811	-94.781134	-0.012774	-5.291116	-0.012774	-5.291116	-29.465091	-95.960452
0.150000	-25.957027	-97.222504	-0.024161	-7.907311	-0.024161	-7.907311	-25.963006	-98.989463
0.200000	-23.484088	-99.633388	-0.037139	-10.511649	-0.037139	-10.511649	-23.490870	-101.986090
0.250000	-21.577474	-102.019968	-0.051666	-13.109187	-0.051666	-13.109187	-21.585046	-104.956635
0.300000	-20.030616	-104.384085	-0.067930	-15.701465	-0.067930	-15.701465	-20.038891	-107.903253
0.350000	-18.733117	-106.727259	-0.086073	-18.288353	-0.086073	-18.288353	-18.741965	-110.827877
0.400000	-17.618753	-109.051352	-0.106130	-20.869143	-0.106130	-20.869143	-17.628033	-113.732771
0.450000	-16.645145	-111.357692	-0.128130	-23.442750	-0.128130	-23.442750	-16.654724	-116.619562
0.500000	-15.783238	-113.647679	-0.152037	-26.008123	-0.152037	-26.008123	-15.793001	-119.489874
0.550000	-15.011644	-115.923180	-0.177700	-28.564765	-0.177700	-28.564765	-15.021499	-122.345699
0.600000	-14.315923	-118.184195	-0.205139	-31.111271	-0.205139	-31.111271	-14.325799	-125.187098
0.650000	-13.683952	-120.431904	-0.234188	-33.647272	-0.234188	-33.647272	-13.693797	-128.015261
0.700000	-13.106577	-122.666885	-0.264725	-36.172286	-0.264725	-36.172286	-13.116355	-130.830745
0.750000	-12.577009	-124.889043	-0.296670	-38.685451	-0.296670	-38.685451	-12.586695	-133.633411
0.800000	-12.089405	-127.098590	-0.329889	-41.186363	-0.329889	-41.186363	-12.098982	-136.423416
0.850000	-11.638579	-129.296078	-0.364217	-43.675144	-0.364217	-43.675144	-11.648041	-139.201247
0.900000	-11.221058	-131.481046	-0.399565	-46.151025	-0.399565	-46.151025	-11.230400	-141.966370
0.950000	-10.833369	-133.653671	-0.435787	-48.613974	-0.435787	-48.613974	-10.842589	-144.718881
1.000000	-10.472735	-135.813905	-0.472753	-51.063806	-0.472753	-51.063806	-10.481836	-147.458650
1.050000	-10.136635	-137.961882	-0.510330	-53.500579	-0.510330	-53.500579	-10.145619	-150.185723
1.100000	-9.822962	-140.097659	-0.548389	-55.924308	-0.548389	-55.924308	-9.831832	-152.900064
1.150000	-9.529876	-142.221324	-0.586805	-58.335064	-0.586805	-58.335064	-9.538635	-155.601658
1.200000	-9.255762	-144.333000	-0.625458	-60.732968	-0.625458	-60.732968	-9.264412	-158.290521
1.250000	-8.999187	-146.432851	-0.664229	-63.118192	-0.664229	-63.118192	-9.007729	-160.966696
1.300000	-8.758976	-148.520956	-0.703001	-65.490818	-0.703001	-65.490818	-8.767412	-163.630123
1.350000	-8.533890	-150.597691	-0.741665	-67.851238	-0.741665	-67.851238	-8.542217	-166.281046
1.400000	-8.323043	-152.663167	-0.780109	-70.199555	-0.780109	-70.199555	-8.331259	-168.919400
1.450000	-8.125283	-154.718015	-0.818242	-72.536419	-0.818242	-72.536419	-8.133383	-171.545685
1.500000	-7.939870	-156.762480	-0.855964	-74.862054	-0.855964	-74.862054	-7.947847	-174.159953
1.550000	-7.766049	-158.796971	-0.893185	-77.176841	-0.893185	-77.176841	-7.773895	-176.762414
1.600000	-7.603133	-160.821930	-0.929818	-79.481187	-0.929818	-79.481187	-7.610835	-179.353297
1.650000	-7.450494	-162.837835	-0.965782	-81.775516	-0.965782	-81.775516	-7.458040	178.067152
1.700000	-7.307559	-164.845197	-1.000999	-84.060274	-1.000999	-84.060274	-7.314933	175.498673
1.750000	-7.173803	-166.844559	-1.035398	-86.335924	-1.035398	-86.335924	-7.180985	172.940993
1.800000	-7.048744	-168.836495	-1.068911	-88.602940	-1.068911	-88.602940	-7.055713	170.393835
1.850000	-6.931940	-170.821607	-1.101475	-90.861811	-1.101475	-90.861811	-6.938672	167.856911
1.900000	-6.823051	-172.800466	-1.133018	-93.112960	-1.133018	-93.112960	-6.829518	165.330041
1.950000	-6.721696	-174.773750	-1.163486	-95.356913	-1.163486	-95.356913	-6.727867	162.812924
2.000000	-6.627463	-176.742211	-1.192840	-97.594270	-1.192840	-97.594270	-6.633303	160.305169
2.050000	-6.540033	-178.706557	-1.221035	-99.825554	-1.221035	-99.825554	-6.545506	157.806496
2.100000	-6.459114	179.332479	-1.248029	-102.051293	-1.248029	-102.051293	-6.464178	155.316631
2.150000	-6.384437	177.374142	-1.273786	-104.272021	-1.273786	-104.272021	-6.389049	152.835313
2.200000	-6.315753	175.417653	-1.298271	-106.488272	-1.298271	-106.488272	-6.319864	150.362292
2.250000	-6.252834	173.462211	-1.321455	-108.700584	-1.321455	-108.700584	-6.256393	147.897332
2.300000	-6.195470	171.506990	-1.343312	-110.909496	-1.343312	-110.909496	-6.198421	145.440217
2.350000	-6.143468	169.551143	-1.363819	-113.115548	-1.363819	-113.115548	-6.145751	142.990747
2.400000	-6.096650	167.593799	-1.382956	-115.319280	-1.382956	-115.319280	-6.098201	140.548745
2.450000	-6.054854	165.634063	-1.400708	-117.521229	-1.400708	-117.521229	-6.055605	138.114057
2.500000	-6.017932	163.671015	-1.417063	-119.721933	-1.417063	-119.721933	-6.017810	135.686555
2.550000	-5.985847	161.703594	-1.431981	-121.921924	-1.431981	-121.921924	-5.984771	133.266291
2.600000	-5.958373	159.730900	-1.445486	-124.121763	-1.445486	-124.121763	-5.956262	130.853042
2.650000	-5.935401	157.751931	-1.457576	-126.321979	-1.457576	-126.321979	-5.932166	128.446773
2.700000	-5.916830	155.765656	-1.468250	-128.523099	-1.468250	-128.523099	-5.912378	126.047484
2.750000	-5.902570	153.771014	-1.477513	-130.725647	-1.477513	-130.725647	-5.896803	123.655213
2.800000	-5.892543	151.766911	-1.485371	-132.930140	-1.485371	-132.930140	-5.885355	121.270039
2.850000	-5.886678	149.752220	-1.491831	-135.137094	-1.491831	-135.137094	-5.877959	118.892080
2.900000	-5.884913	147.725777	-1.496906	-137.347019	-1.496906	-137.347019	-5.874546	116.521503
2.950000	-5.887195	145.686377	-1.500611	-139.560421	-1.500611	-139.560421	-5.875056	114.158522
3.000000	-5.893479	143.632777	-1.502961	-141.777799	-1.502961	-141.777799	-5.879436	111.803400
3.050000	-5.903726	141.563687	-1.503977	-143.999649	-1.503977	-143.999649	-5.887642	109.456457
3.100000	-5.917907	139.477771	-1.503682	-146.226459	-1.503682	-146.226459	-5.899634	107.118070
3.150000	-5.936039	137.373429	-1.502086	-148.458780	-1.502086	-148.458780	-5.915420	104.788777
3.200000	-5.958102	135.249170	-1.499217	-150.697104	-1.499217	-150.697104	-5.934970	102.469102
3.250000	-5.984042	133.103688	-1.495121	-152.941844	-1.495121	-152.941844	-5.958222	100.159521
3.300000	-6.013852	130.935420	-1.489828	-155.193465	-1.489828	-155.193465	-5.985158	97.860684
3.350000	-6.047529	128.742735	-1.483376	-157.452426	-1.483376	-157.452426	-6.015765	95.573315
3.400000	-6.085074	126.523932	-1.475800	-159.719180	-1.475800	-159.719180	-6.050030	93.298224
3.450000	-6.126492	124.277233	-1.467142	-161.994172	-1.467142	-161.994172	-6.087945	91.036306
3.500000	-6.171791	122.000779	-1.457443	-164.277842	-1.457443	-164.277842	-6.129504	88.788547
3.550000	-6.220979	119.692627	-1.446750	-166.570621	-1.446750	-166.570621	-6.174699	86.556034
3.600000	-6.274066	117.350739	-1.435110	-168.872934	-1.435110	-168.872934	-6.223523	84.339953
3.650000	-6.331063	114.972980	-1.422573	-171.185198	-1.422573	-171.185198	-6.275967	82.141603
3.700000	-6.391976	112.557111	-1.409193	-173.507821	-1.409193	-173.507821	-6.332019	79.962395
3.750000	-6.456813	110.100781	-1.395026	-175.841206	-1.395026	-175.841206	-6.391663	77.803862
3.800000	-6.525646	107.600532	-1.380115	-178.185995	-1.380115	-178.185995	-6.454942	75.668190
3.850000	-6.598393	105.054641	-1.364540	179.457662	-1.364540	179.457662	-6.521753	73.556733
3.900000	-6.675039	102.460381	-1.348365	177.089392	-1.348365	177.089392	-6.592052	71.471429
3.950000	-6.755559	99.814885	-1.331659	174.708833	-1.331659	174.708833	-6.665784	69.414362
4.000000	-6.839912	97.115151	-1.314491	172.315633	-1.314491	172.315633	-6.742873	67.387760
4.050000	-6.928039	94.358026	-1.296937	169.909452	-1.296937	169.909452	-6.823226	65.394001
4.100000	-7.019862	91.540216	-1.279074	167.489965	-1.279074	167.489965	-6.906724	63.435612
4.150000	-7.115275	88.658276	-1.260982	165.056858	-1.260982	165.056858	-6.993222	61.515267
4.200000	-7.214143	85.708618	-1.242746	162.609836	-1.242746	162.609836	-7.082540	59.635784
4.250000	-7.316294	82.687511	-1.224454	160.148617	-1.224454	160.148617	-7.174459	57.800113
4.300000	-7.421514	79.591099	-1.206197	157.672940	-1.206197	157.672940	-7.268718	56.011326
4.350000	-7.529539	76.415409	-1.188072	155.182564	-1.188072	155.182564	-7.365004	54.272592
4.400000	-7.640057	73.155428	-1.170179	152.677107	-1.170179	152.677107	-7.462949	52.587772
4.450000	-7.752665	69.806894	-1.152627	150.156367	-1.152627	150.156367	-7.562102	50.960258
4.500000	-7.866889	66.366580	-1.135519	147.620343	-1.135519	147.620343	-7.661947	49.392738
4.550000	-7.982182	62.830397	-1.118968	145.068897	-1.118968	145.068897	-7.761899	47.888405
4.600000	-8.097908	59.194378	-1.103087	142.501927	-1.103087	142.501927	-7.861288	46.450302
4.650000	-8.213330	55.454761	-1.087995	139.919365	-1.087995	139.919365	-7.959355	45.081240
4.700000	-8.327604	51.608100	-1.073814	137.321180	-1.073814	137.321180	-8.055247	43.783691
4.750000	-8.439775	47.651396	-1.060670	134.707385	-1.060670	134.707385	-8.148022	42.559670
4.800000	-8.548772	43.582241	-1.048689	132.078035	-1.048689	132.078035	-8.236644	41.410607
4.850000	-8.653413	39.398989	-1.038004	129.433233	-1.038004	129.433233	-8.319990	40.337203
4.900000	-8.752405	35.100937	-1.028749	126.773135	-1.028749	126.773135	-8.396867	39.339282
4.950000	-8.844362	30.688521	-1.021058	124.097950	-1.021058	124.097950	-8.466021	38.415649
5.000000	-8.927821	26.163508	-1.015069	121.407943	-1.015069	121.407943	-8.526163	37.563949
5.050000	-9.001006	21.526915	-1.010963	118.703135	-1.010963	118.703135	-8.575737	36.781920
5.100000	-9.062598	16.786270	-1.008842	115.984243	-1.008842	115.984243	-8.613684	36.062914
5.150000	-9.111107	11.948437	-1.008843	113.251724	-1.008843	113.251724	-8.638805	35.400455
5.200000	-9.145127	7.022108	-1.011103	110.506106	-1.011103	110.506106	-8.650016	34.786709
5.250000	-9.163394	2.017766	-1.015757	107.747983	-1.015757	107.747983	-8.646385	34.212579
5.300000	-9.164836	-3.052449	-1.022934	104.978019	-1.022934	104.978019	-8.627178	33.667872
5.350000	-9.148626	-8.174964	-1.032764	102.196949	-1.032764	102.196949	-8.591890	33.141535
5.400000	-9.114226	-13.335091	-1.045368	99.405577	-1.045368	99.405577	-8.540273	32.621944
5.450000	-9.061418	-18.517411	-1.060862	96.604774	-1.060862	96.604774	-8.472353	32.097238
5.500000	-8.990318	-23.706216	-1.079356	93.795478	-1.079356	93.795478	-8.388433	31.555670
5.550000	-8.901378	-28.885960	-1.100951	90.978692	-1.100951	90.978692	-8.289081	30.985953
5.600000	-8.795364	-34.041700	-1.125739	88.155477	-1.125739	88.155477	-8.175111	30.377577
5.650000	-8.673143	-39.158932	-1.153838	85.326908	-1.153838	85.326908	-8.047392	29.720468
5.700000	-8.536038	-44.224648	-1.185320	82.494193	-1.185320	82.494193	-7.907158	29.006201
5.750000	-8.385716	-49.228294	-1.220209	79.658607	-1.220209	79.658607	-7.755915	28.228603
5.800000	-8.223781	-54.160587	-1.258551	76.821402	-1.258551	76.821402	-7.595082	27.382449
5.850000	-8.051902	-59.013972	-1.300378	73.983863	-1.300378	73.983863	-7.426121	26.463971
5.900000	-7.871763	-63.782574	-1.345710	71.147295	-1.345710	71.147295	-7.250493	25.470804
5.950000	-7.685022	-68.462101	-1.394551	68.313018	-1.394551	68.313018	-7.069627	24.401884
6.000000	-7.493269	-73.049696	-1.446893	65.482356	-1.446893	65.482356	-6.884891	23.257309
6.050000	-7.298004	-77.543768	-1.502712	62.656632	-1.502712	62.656632	-6.697574	22.038193
6.100000	-7.100611	-81.943807	-1.561970	59.837155	-1.561970	59.837155	-6.508866	20.746507
6.150000	-6.902353	-86.250203	-1.624616	57.025215	-1.624616	57.025215	-6.319854	19.384925
6.200000	-6.704358	-90.464077	-1.690584	54.222074	-1.690584	54.222074	-6.131515	17.956670
6.250000	-6.507626	-94.587119	-1.759795	51.428953	-1.759795	51.428953	-5.944715	16.465383
6.300000	-6.312997	-98.619580	-1.832211	48.647305	-1.832211	48.647305	-5.760193	14.913807
6.350000	-6.121280	-102.565894	-1.907669	45.878034	-1.907669	45.878034	-5.578654	13.307446
6.400000	-5.933101	-106.428722	-1.986055	43.122209	-1.986055	43.122209	-5.400648	11.650516
6.450000	-5.748981	-110.210859	-2.067245	40.380833	-2.067245	40.380833	-5.226636	9.947249
6.500000	-5.569340	-113.915162	-2.151104	37.654842	-2.151104	37.654842	-5.056996	8.201833
6.550000	-5.394515	-117.544510	-2.237493	34.945102	-2.237493	34.945102	-4.892031	6.418357
6.600000	-5.224766	-121.101760	-2.326264	32.252401	-2.326264	32.252401	-4.731975	4.600785
6.650000	-5.060281	-124.589726	-2.417262	29.577454	-2.417262	29.577454	-4.577004	2.752916
6.700000	-4.901193	-128.011157	-2.510332	26.920899	-2.510332	26.920899	-4.427239	0.878370
6.750000	-4.747579	-131.368723	-2.605310	24.283294	-2.605310	24.283294	-4.282758	-1.019425
6.800000	-4.599473	-134.665012	-2.702033	21.665119	-2.702033	21.665119	-4.143594	-2.937247
6.850000	-4.456870	-137.902519	-2.800337	19.066779	-2.800337	19.066779	-4.009749	-4.872080
6.900000	-4.319771	-141.083066	-2.900055	16.488826	-2.900055	16.488826	-3.881231	-6.821242
6.950000	-4.188111	-144.209043	-3.001015	13.931522	-3.001015	13.931522	-3.757989	-8.782049
7.000000	-4.061768	-147.283287	-3.103052	11.394827	-3.103052	11.394827	-3.639909	-10.751961
7.050000	-3.940634	-150.307935	-3.206001	8.878853	-3.206001	8.878853	-3.526898	-12.728789
7.100000	-3.824586	-153.285044	-3.309705	6.383651	-3.309705	6.383651	-3.418848	-14.710530
7.150000	-3.713490	-156.216595	-3.414006	3.909206	-3.414006	3.909206	-3.315639	-16.695362
7.200000	-3.607203	-159.104495	-3.518751	1.455448	-3.518751	1.455448	-3.217144	-18.681636
7.250000	-3.505576	-161.950581	-3.623793	-0.977745	-3.623793	-0.977745	-3.123230	-20.667863
7.300000	-3.408454	-164.756628	-3.728986	-3.390548	-3.728986	-3.390548	-3.033757	-22.652709
7.350000	-3.315679	-167.524346	-3.834192	-5.783182	-3.834192	-5.783182	-2.948583	-24.634987
7.400000	-3.227093	-170.255388	-3.939276	-8.155909	-3.939276	-8.155909	-2.867566	-26.613642
7.450000	-3.142538	-172.951351	-4.044109	-10.509031	-4.044109	-10.509031	-2.790561	-28.587751
7.500000	-3.061854	-175.613780	-4.148567	-12.842886	-4.148567	-12.842886	-2.717426	-30.556504
7.550000	-2.984950	-178.243509	-4.252491	-15.157443	-4.252491	-15.157443	-2.648086	-32.519063
7.600000	-2.911602	179.157289	-4.355804	-17.453520	-4.355804	-17.453520	-2.582330	-34.474957
7.650000	-2.841661	176.587215	-4.458399	-19.731547	-4.458399	-19.731547	-2.520022	-36.423696
7.700000	-2.774978	174.044912	-4.560175	-21.991972	-4.560175	-21.991972	-2.461028	-38.364878
7.750000	-2.711411	171.529064	-4.661036	-24.235265	-4.661036	-24.235265	-2.405218	-40.298184
7.800000	-2.650820	169.038396	-4.760889	-26.461916	-4.760889	-26.461916	-2.352466	-42.223370
7.850000	-2.593069	166.571671	-4.859651	-28.672428	-4.859651	-28.672428	-2.302651	-44.140263
7.900000	-2.538029	164.127688	-4.957239	-30.867320	-4.957239	-30.867320	-2.255655	-46.048755
7.950000	-2.485574	161.705283	-5.053578	-33.047121	-5.053578	-33.047121	-2.211364	-47.948799
8.000000	-2.435583	159.303324	-5.148598	-35.212371	-5.148598	-35.212371	-2.169671	-49.840404
8.050000	-2.387939	156.920713	-5.242231	-37.363619	-5.242231	-37.363619	-2.130470	-51.723631
8.100000	-2.342531	154.556387	-5.334416	-39.501420	-5.334416	-39.501420	-2.093663	-53.598590
8.150000	-2.299273	152.209486	-5.425068	-41.626204	-5.425068	-41.626204	-2.059177	-55.465348
8.200000	-2.258058	149.878974	-5.514134	-43.738557	-5.514134	-43.738557	-2.026919	-57.324112
8.250000	-2.218769	147.563691	-5.601591	-45.839190	-5.601591	-45.839190	-1.996779	-59.175206
8.300000	-2.181312	145.262694	-5.687395	-47.928679	-5.687395	-47.928679	-1.968676	-61.018907
8.350000	-2.145731	142.976141	-5.771285	-50.006741	-5.771285	-50.006741	-1.942689	-62.854943
8.400000	-2.111656	140.700796	-5.853690	-52.075829	-5.853690	-52.075829	-1.918407	-64.684919
8.450000	-2.079162	138.437095	-5.934329	-54.135497	-5.934329	-54.135497	-1.895943	-66.508519
8.500000	-2.048172	136.184201	-6.013171	-56.186329	-6.013171	-56.186329	-1.875231	-68.326142
8.550000	-2.018613	133.941303	-6.090188	-58.228908	-6.090188	-58.228908	-1.856211	-70.138218
8.600000	-1.990418	131.707617	-6.165357	-60.263818	-6.165357	-60.263818	-1.838824	-71.945202
8.650000	-1.963520	129.482381	-6.238656	-62.291645	-6.238656	-62.291645	-1.823015	-73.747575
8.700000	-1.937859	127.264860	-6.310067	-64.312975	-6.310067	-64.312975	-1.808735	-75.545845
8.750000	-1.913376	125.054339	-6.379575	-66.328394	-6.379575	-66.328394	-1.795936	-77.340545
8.800000	-1.890061	122.850374	-6.447061	-68.338287	-6.447061	-68.338287	-1.784633	-79.132126
8.850000	-1.867814	120.651997	-6.512624	-70.343499	-6.512624	-70.343499	-1.774724	-80.921329
8.900000	-1.846589	118.458568	-6.576257	-72.344618	-6.576257	-72.344618	-1.766171	-82.708763
8.950000	-1.826339	116.269469	-6.637956	-74.342236	-6.637956	-74.342236	-1.758941	-84.495059
9.000000	-1.807025	114.084107	-6.697721	-76.336944	-6.697721	-76.336944	-1.753001	-86.280877
9.050000	-1.788606	111.901909	-6.755553	-78.329335	-6.755553	-78.329335	-1.748325	-88.066898
9.100000	-1.771047	109.722325	-6.811457	-80.320003	-6.811457	-80.320003	-1.744888	-89.853830
9.150000	-1.754316	107.544827	-6.865439	-82.309544	-6.865439	-82.309544	-1.742666	-91.642408
9.200000	-1.738382	105.368909	-6.917510	-84.298558	-6.917510	-84.298558	-1.741642	-93.433392
9.250000	-1.723217	103.194089	-6.967683	-86.287643	-6.967683	-86.287643	-1.741799	-95.227573
9.300000	-1.708797	101.019905	-7.015972	-88.277402	-7.015972	-88.277402	-1.743122	-97.025767
9.350000	-1.695099	98.845919	-7.062398	-90.268441	-7.062398	-90.268441	-1.745602	-98.828824
9.400000	-1.682104	96.671716	-7.106981	-92.261366	-7.106981	-92.261366	-1.749230	-100.637622
9.450000	-1.669794	94.496902	-7.149746	-94.256786	-7.149746	-94.256786	-1.754001	-102.453073
9.500000	-1.658154	92.321107	-7.190721	-96.255314	-7.190721	-96.255314	-1.759912	-104.276125
9.550000	-1.647173	90.143984	-7.229939	-98.257564	-7.229939	-98.257564	-1.766965	-106.107759
9.600000	-1.636839	87.965211	-7.267433	-100.264152	-7.267433	-100.264152	-1.775161	-107.948995
9.650000	-1.627146	85.784487	-7.303243	-102.275696	-7.303243	-102.275696	-1.784507	-109.800893
9.700000	-1.618087	83.601539	-7.337411	-104.292816	-7.337411	-104.292816	-1.795012	-111.664555
9.750000	-1.609659	81.416114	-7.369983	-106.316134	-7.369983	-106.316134	-1.806687	-113.541126
9.800000	-1.601862	79.227988	-7.401009	-108.346270	-7.401009	-108.346270	-1.819548	-115.431797
9.850000	-1.594695	77.036960	-7.430546	-110.383848	-7.430546	-110.383848	-1.833611	-117.337809
9.900000	-1.588163	74.842854	-7.458651	-112.429486	-7.458651	-112.429486	-1.848899	-119.260452
9.950000	-1.582269	72.645523	-7.485390	-114.483806	-7.485390	-114.483806	-1.865435	-121.201074
10.000000	-1.577022	70.444844	-7.510831	-116.547422	-7.510831	-116.547422	-1.883247	-123.161074
