! freq	dB(S11)	phase(S11)	dB(S12)	phase(S12)	
!     	dB(S21)	phase(S21)	dB(S22)	phase(S22)	
!S-par simulation data
#  GHz  S  DB  R 50
0.000000	0.000000	0.000000	-305.745676	0.000000	-305.745676	0.000000	0.000000	0.000000
0.050000	-0.002078	-3.351386	-66.877353	86.650331	-66.877353	86.650331	-0.002080	-3.350912
0.100000	-0.007293	-6.688085	-60.870346	83.305108	-60.870346	83.305108	-0.007295	-6.687069
0.150000	-0.013728	-10.005614	-57.371111	79.968558	-57.371111	79.968558	-0.013721	-10.004006
0.200000	-0.020088	-13.307320	-54.903091	76.644079	-54.903091	76.644079	-0.020066	-13.305113
0.250000	-0.025859	-16.596854	-53.004421	73.335287	-53.004421	73.335287	-0.025821	-16.594064
0.300000	-0.030980	-19.876625	-51.469174	70.045233	-51.469174	70.045233	-0.030928	-19.873272
0.350000	-0.035577	-23.147678	-50.186362	66.775496	-50.186362	66.775496	-0.035516	-23.143777
0.400000	-0.039774	-26.409586	-49.090315	63.527918	-49.090315	63.527918	-0.039708	-26.405148
0.450000	-0.043667	-29.660915	-48.139516	60.304962	-48.139516	60.304962	-0.043601	-29.655949
0.500000	-0.047357	-32.900984	-47.303552	57.106448	-47.303552	57.106448	-0.047294	-32.895495
0.550000	-0.050905	-36.128578	-46.561574	53.933125	-46.561574	53.933125	-0.050846	-36.122569
0.600000	-0.054349	-39.341797	-45.899134	50.786812	-45.899134	50.786812	-0.054297	-39.335269
0.650000	-0.057728	-42.539949	-45.303608	47.667036	-45.303608	47.667036	-0.057682	-42.532899
0.700000	-0.061062	-45.722131	-44.765582	44.573899	-44.765582	44.573899	-0.061023	-45.714556
0.750000	-0.064367	-48.886831	-44.278348	41.508597	-44.278348	41.508597	-0.064334	-48.878726
0.800000	-0.067651	-52.033162	-43.835890	38.471440	-43.835890	38.471440	-0.067625	-52.024520
0.850000	-0.070921	-55.160523	-43.433083	35.462503	-43.433083	35.462503	-0.070900	-55.151337
0.900000	-0.074179	-58.268240	-43.065829	32.482189	-43.065829	32.482189	-0.074161	-58.258501
0.950000	-0.077423	-61.355597	-42.730791	29.531156	-42.730791	29.531156	-0.077409	-61.345297
1.000000	-0.080653	-64.422033	-42.425060	26.610030	-42.425060	26.610030	-0.080641	-64.411162
1.050000	-0.083865	-67.467068	-42.146134	23.719504	-42.146134	23.719504	-0.083855	-67.455617
1.100000	-0.087056	-70.490300	-41.891834	20.860343	-41.891834	20.860343	-0.087046	-70.478260
1.150000	-0.090221	-73.491400	-41.660245	18.033364	-41.660245	18.033364	-0.090210	-73.478762
1.200000	-0.093356	-76.470112	-41.449666	15.239429	-41.449666	15.239429	-0.093344	-76.456867
1.250000	-0.096456	-79.426248	-41.258571	12.479428	-41.258571	12.479428	-0.096441	-79.412387
1.300000	-0.099517	-82.359189	-41.085876	9.755040	-41.085876	9.755040	-0.099499	-82.344703
1.350000	-0.102534	-85.269368	-40.929997	7.066421	-40.929997	7.066421	-0.102512	-85.254248
1.400000	-0.105505	-88.156785	-40.789767	4.414439	-40.789767	4.414439	-0.105479	-88.141024
1.450000	-0.108427	-91.021494	-40.664104	1.799920	-40.664104	1.799920	-0.108395	-91.005084
1.500000	-0.111296	-93.863601	-40.551996	-0.776372	-40.551996	-0.776372	-0.111258	-93.846533
1.550000	-0.114111	-96.683258	-40.452487	-3.313750	-40.452487	-3.313750	-0.114067	-96.665525
1.600000	-0.116870	-99.480663	-40.364672	-5.811618	-40.364672	-5.811618	-0.116819	-99.462256
1.650000	-0.119572	-102.256052	-40.287688	-8.269486	-40.287688	-8.269486	-0.119514	-102.236964
1.700000	-0.122216	-105.009701	-40.220711	-10.686986	-40.220711	-10.686986	-0.122150	-104.989924
1.750000	-0.124803	-107.741920	-40.162949	-13.063879	-40.162949	-13.063879	-0.124729	-107.721446
1.800000	-0.127332	-110.453049	-40.113640	-15.400066	-40.113640	-15.400066	-0.127251	-110.431871
1.850000	-0.129804	-113.143459	-40.072049	-17.695599	-40.072049	-17.695599	-0.129716	-113.121568
1.900000	-0.132220	-115.813327	-40.037535	-19.950253	-40.037535	-19.950253	-0.132124	-115.790714
1.950000	-0.134581	-118.463087	-40.009392	-22.164417	-40.009392	-22.164417	-0.134479	-118.439743
2.000000	-0.136891	-121.093397	-39.986888	-24.339081	-39.986888	-24.339081	-0.136781	-121.069314
2.050000	-0.139150	-123.704716	-39.969387	-26.474963	-39.969387	-26.474963	-0.139033	-123.679884
2.100000	-0.141361	-126.297514	-39.956279	-28.572951	-39.956279	-28.572951	-0.141239	-126.271923
2.150000	-0.143528	-128.872276	-39.946975	-30.634102	-39.946975	-30.634102	-0.143399	-128.845917
2.200000	-0.145652	-131.429498	-39.940916	-32.659638	-39.940916	-32.659638	-0.145518	-131.402360
2.250000	-0.147737	-133.969684	-39.937565	-34.650945	-39.937565	-34.650945	-0.147598	-133.941756
2.300000	-0.149786	-136.493347	-39.936413	-36.609563	-39.936413	-36.609563	-0.149642	-136.464617
2.350000	-0.151801	-139.001002	-39.936978	-38.537182	-39.936978	-38.537182	-0.151653	-138.971459
2.400000	-0.153786	-141.493173	-39.938807	-40.435634	-39.938807	-40.435634	-0.153634	-141.462804
2.450000	-0.155745	-143.970381	-39.941474	-42.306881	-39.941474	-42.306881	-0.155588	-143.939174
2.500000	-0.157679	-146.433151	-39.944585	-44.153004	-39.944585	-44.153004	-0.157520	-146.401093
2.550000	-0.159592	-148.881718	-39.947770	-45.975749	-39.947770	-45.975749	-0.159430	-148.848796
2.600000	-0.161487	-151.316919	-39.950688	-47.777951	-39.950688	-47.777951	-0.161323	-151.283117
2.650000	-0.163368	-153.739274	-39.953040	-49.561981	-39.953040	-49.561981	-0.163202	-153.704579
2.700000	-0.165237	-156.149299	-39.954557	-51.330271	-39.954557	-51.330271	-0.165069	-156.113696
2.750000	-0.167097	-158.547507	-39.955004	-53.085303	-39.955004	-53.085303	-0.166928	-158.510981
2.800000	-0.168950	-160.934405	-39.954175	-54.829593	-39.954175	-54.829593	-0.168781	-160.896942
2.850000	-0.170800	-163.310495	-39.951896	-56.565676	-39.951896	-56.565676	-0.170630	-163.272077
2.900000	-0.172648	-165.676270	-39.948022	-58.296088	-39.948022	-58.296088	-0.172478	-165.636882
2.950000	-0.174498	-168.032217	-39.942439	-60.023357	-39.942439	-60.023357	-0.174327	-167.991843
3.000000	-0.176350	-170.378815	-39.935059	-61.749984	-39.935059	-61.749984	-0.176179	-170.337439
3.050000	-0.178207	-172.716535	-39.925822	-63.478432	-39.925822	-63.478432	-0.178036	-172.674140
3.100000	-0.180070	-175.045837	-39.914692	-65.211115	-39.914692	-65.211115	-0.179900	-175.002405
3.150000	-0.181942	-177.367091	-39.901637	-66.950484	-39.901637	-66.950484	-0.181772	-177.322607
3.200000	-0.183823	-179.680754	-39.886668	-68.698895	-39.886668	-68.698895	-0.183653	-179.635199
3.250000	-0.185715	178.012657	-39.869836	-70.458476	-39.869836	-70.458476	-0.185546	178.059300
3.300000	-0.187619	175.712723	-39.851191	-72.231337	-39.851191	-72.231337	-0.187450	175.760472
3.350000	-0.189536	173.419036	-39.830796	-74.019500	-39.830796	-74.019500	-0.189367	173.467908
3.400000	-0.191467	171.131198	-39.808729	-75.824890	-39.808729	-75.824890	-0.191298	171.181211
3.450000	-0.193412	168.848826	-39.785081	-77.649334	-39.785081	-77.649334	-0.193243	168.899997
3.500000	-0.195371	166.571544	-39.759952	-79.494557	-39.759952	-79.494557	-0.195202	166.623892
3.550000	-0.197345	164.298994	-39.733449	-81.362189	-39.733449	-81.362189	-0.197175	164.352535
3.600000	-0.199334	162.030827	-39.705686	-83.253755	-39.705686	-83.253755	-0.199164	162.085580
3.650000	-0.201338	159.766708	-39.676782	-85.170683	-39.676782	-85.170683	-0.201166	159.822689
3.700000	-0.203357	157.506314	-39.646858	-87.114306	-39.646858	-87.114306	-0.203184	157.563542
3.750000	-0.205390	155.249337	-39.616036	-89.085860	-39.616036	-89.085860	-0.205215	155.307830
3.800000	-0.207437	152.995542	-39.584423	-91.087149	-39.584423	-91.087149	-0.207261	153.055317
3.850000	-0.209498	150.744575	-39.552162	-93.118619	-39.552162	-93.118619	-0.209320	150.805649
3.900000	-0.211571	148.496166	-39.519370	-95.181238	-39.519370	-95.181238	-0.211390	148.558558
3.950000	-0.213656	146.250064	-39.486162	-97.275894	-39.486162	-97.275894	-0.213473	146.313790
4.000000	-0.215753	144.006029	-39.452648	-99.403400	-39.452648	-99.403400	-0.215566	144.071106
4.050000	-0.217859	141.763835	-39.418932	-101.564494	-39.418932	-101.564494	-0.217670	141.830281
4.100000	-0.219975	139.523272	-39.385111	-103.759845	-39.385111	-103.759845	-0.219781	139.591103
4.150000	-0.222098	137.284143	-39.351276	-105.990057	-39.351276	-105.990057	-0.221901	137.353375
4.200000	-0.224228	135.046265	-39.317509	-108.255667	-39.317509	-108.255667	-0.224027	135.116916
4.250000	-0.226364	132.809470	-39.283884	-110.557153	-39.283884	-110.557153	-0.226159	132.881557
4.300000	-0.228505	130.573606	-39.250466	-112.894933	-39.250466	-112.894933	-0.228294	130.647144
4.350000	-0.230648	128.338534	-39.217309	-115.269367	-39.217309	-115.269367	-0.230433	128.413539
4.400000	-0.232794	126.104134	-39.184461	-117.681165	-39.184461	-117.681165	-0.232573	126.180624
4.450000	-0.234940	123.870295	-39.151957	-120.130580	-39.151957	-120.130580	-0.234714	123.948284
4.500000	-0.237085	121.636914	-39.119818	-122.617399	-39.119818	-122.617399	-0.236854	121.716418
4.550000	-0.239229	119.403911	-39.088057	-125.141756	-39.088057	-125.141756	-0.238992	119.484947
4.600000	-0.241369	117.171221	-39.056672	-127.703726	-39.056672	-127.703726	-0.241126	117.253803
4.650000	-0.243506	114.938793	-39.025653	-130.303327	-39.025653	-130.303327	-0.243256	115.022937
4.700000	-0.245637	112.706589	-38.994976	-132.940519	-38.994976	-132.940519	-0.245381	112.792309
4.750000	-0.247761	110.474586	-38.964605	-135.615199	-38.964605	-135.615199	-0.247499	110.561898
4.800000	-0.249879	108.242775	-38.934492	-138.327199	-38.934492	-138.327199	-0.249610	108.331692
4.850000	-0.251988	106.011159	-38.904577	-141.076286	-38.904577	-141.076286	-0.251713	106.101697
4.900000	-0.254088	103.779756	-38.874788	-143.862155	-38.874788	-143.862155	-0.253807	103.871928
4.950000	-0.256179	101.548596	-38.845040	-146.684427	-38.845040	-146.684427	-0.255891	101.642417
5.000000	-0.258260	99.317723	-38.815237	-149.542647	-38.815237	-149.542647	-0.257965	99.413207
5.050000	-0.260329	97.087201	-38.785261	-152.437033	-38.785261	-152.437033	-0.260028	97.184362
5.100000	-0.262388	94.857093	-38.754996	-155.366173	-38.754996	-155.366173	-0.262080	94.955944
5.150000	-0.264436	92.627479	-38.724311	-158.329348	-38.724311	-158.329348	-0.264122	92.728035
5.200000	-0.266473	90.398451	-38.693065	-161.325745	-38.693065	-161.325745	-0.266152	90.500724
5.250000	-0.268499	88.170112	-38.661108	-164.354453	-38.661108	-164.354453	-0.268172	88.274116
5.300000	-0.270515	85.942574	-38.628279	-167.414462	-38.628279	-167.414462	-0.270181	86.048322
5.350000	-0.272520	83.715961	-38.594414	-170.504656	-38.594414	-170.504656	-0.272181	83.823466
5.400000	-0.274517	81.490405	-38.559339	-173.623814	-38.559339	-173.623814	-0.274171	81.599679
5.450000	-0.276505	79.266047	-38.522877	-176.770608	-38.522877	-176.770608	-0.276154	79.377104
5.500000	-0.278487	77.043037	-38.484847	-179.943601	-38.484847	-179.943601	-0.278129	77.155889
5.550000	-0.280462	74.821532	-38.445064	176.858750	-38.445064	176.858750	-0.280098	74.936191
5.600000	-0.282433	72.601696	-38.403346	173.638097	-38.403346	173.638097	-0.282063	72.718176
5.650000	-0.284401	70.383722	-38.359482	170.395984	-38.359482	170.395984	-0.284026	70.502034
5.700000	-0.286368	68.167792	-38.313285	167.134333	-38.313285	167.134333	-0.285987	68.287950
5.750000	-0.288336	65.954069	-38.264606	163.855331	-38.264606	163.855331	-0.287950	66.076085
5.800000	-0.290308	63.742738	-38.213277	160.561022	-38.213277	160.561022	-0.289917	63.866624
5.850000	-0.292286	61.533989	-38.159139	157.253527	-38.159139	157.253527	-0.291889	61.659758
5.900000	-0.294272	59.328015	-38.102041	153.935039	-38.102041	153.935039	-0.293871	59.455680
5.950000	-0.296271	57.125010	-38.041846	150.607808	-38.041846	150.607808	-0.295864	57.254584
6.000000	-0.298283	54.925172	-37.978427	147.274133	-37.978427	147.274133	-0.297871	55.056666
6.050000	-0.300314	52.728695	-37.911676	143.936345	-37.911676	143.936345	-0.299896	52.862124
6.100000	-0.302366	50.535778	-37.841495	140.596795	-37.841495	140.596795	-0.301943	50.671154
6.150000	-0.304443	48.346616	-37.767805	137.257841	-37.767805	137.257841	-0.304014	48.483952
6.200000	-0.306548	46.161403	-37.690544	133.921830	-37.690544	133.921830	-0.306114	46.300713
6.250000	-0.308687	43.980332	-37.609666	130.591086	-37.609666	130.591086	-0.308246	44.121630
6.300000	-0.310862	41.803688	-37.525044	127.268110	-37.525044	127.268110	-0.310416	41.946988
6.350000	-0.313079	39.631567	-37.436762	123.955015	-37.436762	123.955015	-0.312627	39.776884
6.400000	-0.315341	37.464148	-37.344825	120.653959	-37.344825	120.653959	-0.314883	37.611497
6.450000	-0.317654	35.301606	-37.249256	117.367018	-37.249256	117.367018	-0.317188	35.451003
6.500000	-0.320020	33.144110	-37.150092	114.096177	-37.150092	114.096177	-0.319548	33.295571
6.550000	-0.322447	30.991821	-37.047383	110.843315	-37.047383	110.843315	-0.321967	31.145362
6.600000	-0.324938	28.844893	-36.941194	107.610200	-36.941194	107.610200	-0.324450	29.000531
6.650000	-0.327498	26.703472	-36.831600	104.398479	-36.831600	104.398479	-0.327002	26.861225
6.700000	-0.330132	24.567695	-36.718687	101.209674	-36.718687	101.209674	-0.329627	24.727582
6.750000	-0.332846	22.437691	-36.602549	98.045175	-36.602549	98.045175	-0.332332	22.599731
6.800000	-0.335645	20.313576	-36.483289	94.906239	-36.483289	94.906239	-0.335121	20.477791
6.850000	-0.338534	18.195459	-36.361013	91.793985	-36.361013	91.793985	-0.337999	18.361869
6.900000	-0.341519	16.083502	-36.235783	88.709711	-36.235783	88.709711	-0.340973	16.252131
6.950000	-0.344607	13.977793	-36.107716	85.654292	-36.107716	85.654292	-0.344049	14.148664
7.000000	-0.347802	11.878337	-35.976978	82.628134	-35.976978	82.628134	-0.347231	12.051474
7.050000	-0.351108	9.785191	-35.843688	79.631819	-35.843688	79.631819	-0.350524	9.960622
7.100000	-0.354533	7.698402	-35.707961	76.665801	-35.707961	76.665801	-0.353934	7.876154
7.150000	-0.358081	5.618001	-35.569911	73.730416	-35.569911	73.730416	-0.357467	5.798104
7.200000	-0.361759	3.544005	-35.429652	70.825884	-35.429652	70.825884	-0.361129	3.726489
7.250000	-0.365571	1.476417	-35.287291	67.952317	-35.287291	67.952317	-0.364924	1.661315
7.300000	-0.369524	-0.584777	-35.142933	65.109723	-35.142933	65.109723	-0.368859	-0.397430
7.350000	-0.373624	-2.639602	-34.996678	62.298015	-34.996678	62.298015	-0.372939	-2.449770
7.400000	-0.377876	-4.688104	-34.848620	59.517013	-34.848620	59.517013	-0.377171	-4.495747
7.450000	-0.382287	-6.730342	-34.698848	56.766456	-34.698848	56.766456	-0.381560	-6.535420
7.500000	-0.386861	-8.766393	-34.547447	54.046002	-34.547447	54.046002	-0.386112	-8.568862
7.550000	-0.391610	-10.796222	-34.394402	51.355873	-34.394402	51.355873	-0.390837	-10.596033
7.600000	-0.396536	-12.820074	-34.239876	48.694929	-34.239876	48.694929	-0.395738	-12.617180
7.650000	-0.401644	-14.838081	-34.083936	46.062627	-34.083936	46.062627	-0.400819	-14.632428
7.700000	-0.406941	-16.850391	-33.926639	43.458366	-33.926639	43.458366	-0.406089	-16.641924
7.750000	-0.412433	-18.857171	-33.768040	40.881496	-33.768040	40.881496	-0.411552	-18.645832
7.800000	-0.418127	-20.858608	-33.608186	38.331319	-33.608186	38.331319	-0.417215	-20.644334
7.850000	-0.424029	-22.854909	-33.447119	35.807096	-33.447119	35.807096	-0.423085	-22.637633
7.900000	-0.430145	-24.846298	-33.284876	33.308048	-33.284876	33.308048	-0.429168	-24.625950
7.950000	-0.436483	-26.833023	-33.121487	30.833363	-33.121487	30.833363	-0.435470	-26.609527
8.000000	-0.443048	-28.815350	-32.956979	28.382192	-32.956979	28.382192	-0.441999	-28.588627
8.050000	-0.449849	-30.793569	-32.791375	25.953660	-32.791375	25.953660	-0.448762	-30.563535
8.100000	-0.456891	-32.767991	-32.624690	23.546862	-32.624690	23.546862	-0.455765	-32.534554
8.150000	-0.464187	-34.738914	-32.456892	21.161082	-32.456892	21.161082	-0.463018	-34.501980
8.200000	-0.471742	-36.706711	-32.287989	18.795332	-32.287989	18.795332	-0.470530	-36.466174
8.250000	-0.479562	-38.671799	-32.118033	16.448404	-32.118033	16.448404	-0.478306	-38.427553
8.300000	-0.487656	-40.634588	-31.947027	14.119295	-31.947027	14.119295	-0.486352	-40.386516
8.350000	-0.496040	-42.595470	-31.774840	11.807436	-31.774840	11.807436	-0.494687	-42.343445
8.400000	-0.504693	-44.555037	-31.601932	9.510187	-31.601932	9.510187	-0.503289	-44.298940
8.450000	-0.513669	-46.513611	-31.427593	7.228819	-31.427593	7.228819	-0.512213	-46.253290
8.500000	-0.522938	-48.471804	-31.252435	4.960310	-31.252435	4.960310	-0.521427	-48.207119
8.550000	-0.532534	-50.430148	-31.076090	2.704565	-31.076090	2.704565	-0.530965	-50.160939
8.600000	-0.542460	-52.389213	-30.898644	0.460212	-30.898644	0.460212	-0.540831	-52.115310
8.650000	-0.552715	-54.349564	-30.720265	-1.774319	-30.720265	-1.774319	-0.551023	-54.070796
8.700000	-0.563342	-56.312012	-30.540486	-3.999299	-30.540486	-3.999299	-0.561585	-56.028175
8.750000	-0.574299	-58.276859	-30.360042	-6.217208	-30.360042	-6.217208	-0.572474	-57.987770
8.800000	-0.585676	-60.245487	-30.177887	-8.427811	-30.177887	-8.427811	-0.583780	-59.950904
8.850000	-0.597407	-62.217879	-29.995059	-10.633673	-29.995059	-10.633673	-0.595437	-61.917592
8.900000	-0.609565	-64.195515	-29.810782	-12.835358	-29.810782	-12.835358	-0.607518	-63.889262
8.950000	-0.622127	-66.178723	-29.625541	-15.034526	-29.625541	-15.034526	-0.619999	-65.866251
9.000000	-0.635124	-68.168622	-29.439135	-17.232464	-29.439135	-17.232464	-0.632912	-67.849649
9.050000	-0.648580	-70.166283	-29.251473	-19.430571	-29.251473	-19.430571	-0.646279	-69.840503
9.100000	-0.662479	-72.172054	-29.062959	-21.630206	-29.062959	-21.630206	-0.660086	-71.839164
9.150000	-0.676902	-74.188215	-28.872900	-23.833197	-28.872900	-23.833197	-0.674410	-73.847846
9.200000	-0.691784	-76.214087	-28.682229	-26.040392	-28.682229	-26.040392	-0.689190	-75.865909
9.250000	-0.707242	-78.253023	-28.489949	-28.254437	-28.489949	-28.254437	-0.704541	-77.896605
9.300000	-0.723211	-80.304097	-28.297017	-30.475765	-28.297017	-30.475765	-0.720396	-79.939053
9.350000	-0.739774	-82.370165	-28.102857	-32.707022	-28.102857	-32.707022	-0.736839	-81.996029
9.400000	-0.756924	-84.451715	-27.907834	-34.949325	-27.907834	-34.949325	-0.753863	-84.068016
9.450000	-0.774687	-86.550170	-27.712008	-37.204426	-27.712008	-37.204426	-0.771493	-86.156404
9.500000	-0.793127	-88.668085	-27.515158	-39.474944	-27.515158	-39.474944	-0.789791	-88.263681
9.550000	-0.812199	-90.804773	-27.317974	-41.760885	-27.317974	-41.760885	-0.808714	-90.389188
9.600000	-0.832050	-92.965635	-27.119679	-44.067254	-27.119679	-44.067254	-0.828405	-92.538176
9.650000	-0.852581	-95.148066	-26.921375	-46.392253	-26.921375	-46.392253	-0.848768	-94.708121
9.700000	-0.873952	-97.358250	-26.722354	-48.741596	-26.722354	-48.741596	-0.869959	-96.905036
9.750000	-0.896100	-99.594608	-26.523439	-51.114148	-26.523439	-51.114148	-0.891915	-99.127392
9.800000	-0.919124	-101.861458	-26.324468	-53.513900	-26.324468	-53.513900	-0.914735	-101.379388
9.850000	-0.943050	-104.160447	-26.125755	-55.942371	-26.125755	-55.942371	-0.938443	-103.662626
9.900000	-0.967889	-106.492646	-25.927707	-58.400455	-25.927707	-58.400455	-0.963049	-105.978149
9.950000	-0.993773	-108.864033	-25.730247	-60.893264	-25.730247	-60.893264	-0.988684	-108.331769
10.000000	-1.020606	-111.271290	-25.534226	-63.417545	-25.534226	-63.417545	-1.015252	-110.720258
