! freq	dB(S11)	phase(S11)	dB(S12)	phase(S12)	
!     	dB(S21)	phase(S21)	dB(S22)	phase(S22)	
!S-par simulation data
#  GHz  S  DB  R 50
0.000000	-82.021155	0.000000	-0.000688	0.000000	-0.000688	0.000000	-82.021155	0.000000
0.050000	-51.049875	-84.195935	-0.004303	-2.738636	-0.004303	-2.738636	-51.053514	-84.161479
0.100000	-45.383177	-90.883762	-0.010320	-5.444750	-0.010320	-5.444750	-45.383560	-90.879625
0.150000	-41.970296	-95.225613	-0.015163	-8.134755	-0.015163	-8.134755	-41.969812	-95.225577
0.200000	-39.548364	-98.855713	-0.019073	-10.821381	-0.019073	-10.821381	-39.547645	-98.856771
0.250000	-37.689287	-102.150440	-0.022527	-13.507883	-0.022527	-13.507883	-37.688547	-102.151717
0.300000	-36.195051	-105.279565	-0.025853	-16.194653	-0.025853	-16.194653	-36.194357	-105.280738
0.350000	-34.957087	-108.312219	-0.029170	-18.881351	-0.029170	-18.881351	-34.956451	-108.313170
0.400000	-33.911205	-111.280483	-0.032514	-21.567633	-0.032514	-21.567633	-33.910614	-111.281215
0.450000	-33.019743	-114.200652	-0.035886	-24.253178	-0.035886	-24.253178	-33.019172	-114.201269
0.500000	-32.251348	-117.088465	-0.039265	-26.937913	-0.039265	-26.937913	-32.250771	-117.089127
0.550000	-31.585772	-119.951468	-0.042626	-29.621847	-0.042626	-29.621847	-31.585163	-119.952362
0.600000	-31.009547	-122.794579	-0.045943	-32.305048	-0.045943	-32.305048	-31.008885	-122.795908
0.650000	-30.514310	-125.621431	-0.049186	-34.987660	-0.049186	-34.987660	-30.513577	-125.623395
0.700000	-30.088917	-128.436300	-0.052341	-37.669939	-0.052341	-37.669939	-30.088100	-128.439068
0.750000	-29.727343	-131.241584	-0.055393	-40.352116	-0.055393	-40.352116	-29.726432	-131.245300
0.800000	-29.427599	-134.039067	-0.058329	-43.034461	-0.058329	-43.034461	-29.426587	-134.043854
0.850000	-29.185613	-136.830953	-0.061146	-45.717258	-0.061146	-45.717258	-29.184495	-136.836907
0.900000	-28.998580	-139.619073	-0.063848	-48.400768	-0.063848	-48.400768	-28.997354	-139.626270
0.950000	-28.865564	-142.405099	-0.066440	-51.085247	-0.066440	-51.085247	-28.864227	-142.413602
1.000000	-28.786183	-145.190718	-0.068933	-53.770936	-0.068933	-53.770936	-28.784732	-145.200590
1.050000	-28.760875	-147.977677	-0.071340	-56.458048	-0.071340	-56.458048	-28.759308	-147.988985
1.100000	-28.790930	-150.767848	-0.073676	-59.146771	-0.073676	-59.146771	-28.789240	-150.780677
1.150000	-28.878559	-153.563317	-0.075961	-61.837265	-0.075961	-61.837265	-28.876739	-153.577782
1.200000	-29.027040	-156.366499	-0.078213	-64.529655	-0.078213	-64.529655	-29.025080	-156.382760
1.250000	-29.240932	-159.180297	-0.080458	-67.224026	-0.080458	-67.224026	-29.238816	-159.198572
1.300000	-29.527868	-162.008751	-0.082727	-69.920456	-0.082727	-69.920456	-29.525574	-162.029351
1.350000	-29.894810	-164.856430	-0.085069	-72.618880	-0.085069	-72.618880	-29.892305	-164.879775
1.400000	-30.352905	-167.729845	-0.087575	-75.319265	-0.087575	-75.319265	-30.350147	-167.756515
1.450000	-30.917317	-170.638222	-0.090424	-78.021922	-0.090424	-78.021922	-30.914243	-170.669021
1.500000	-31.609097	-173.595267	-0.093867	-80.728976	-0.093867	-80.728976	-31.605618	-173.631337
1.550000	-32.458350	-176.622495	-0.097590	-83.445334	-0.097590	-83.445334	-32.454333	-176.665501
1.600000	-33.509929	-179.755991	-0.100410	-86.169471	-0.100410	-86.169471	-33.505163	-179.808468
1.650000	-34.834504	176.938370	-0.102446	-88.893252	-0.102446	-88.893252	-34.828632	176.872329
1.700000	-36.552507	173.325725	-0.104564	-91.616121	-0.104564	-91.616121	-36.544855	173.238915
1.750000	-38.894290	169.079355	-0.107011	-94.340546	-0.107011	-94.340546	-38.883354	168.957349
1.800000	-42.390057	163.153031	-0.109767	-97.067839	-0.109767	-97.067839	-42.371325	162.960421
1.850000	-48.748447	149.559931	-0.112796	-99.798529	-0.112796	-99.798529	-48.696172	149.186965
1.900000	-55.986625	41.889329	-0.116085	-102.532895	-0.116085	-102.532895	-55.886664	42.919777
1.950000	-45.007878	-2.616606	-0.119634	-105.271077	-0.119634	-105.271077	-45.015253	-2.224252
2.000000	-39.670903	-11.531873	-0.123452	-108.013128	-0.123452	-108.013128	-39.678317	-11.309859
2.050000	-36.226093	-16.581797	-0.127559	-110.759121	-0.127559	-110.759121	-36.232065	-16.422471
2.100000	-33.660331	-20.536003	-0.131976	-113.509111	-0.131976	-113.509111	-33.665232	-20.408699
2.150000	-31.603468	-24.029760	-0.136730	-116.263133	-0.136730	-116.263133	-31.607601	-23.921675
2.200000	-29.879887	-27.287859	-0.141850	-119.021207	-0.141850	-119.021207	-29.883452	-27.192450
2.250000	-28.392515	-30.410009	-0.147367	-121.783328	-0.147367	-121.783328	-28.395644	-30.323485
2.300000	-27.082037	-33.447191	-0.153312	-124.549471	-0.153312	-124.549471	-27.084821	-33.367152
2.350000	-25.909542	-36.428154	-0.159716	-127.319586	-0.159716	-127.319586	-25.912046	-36.352982
2.400000	-24.848111	-39.370318	-0.166613	-130.093596	-0.166613	-130.093596	-24.850384	-39.298863
2.450000	-23.878337	-42.284829	-0.174034	-132.871402	-0.174034	-132.871402	-23.880416	-42.216239
2.500000	-22.985762	-45.179125	-0.182008	-135.652874	-0.182008	-135.652874	-22.987676	-45.112745
2.550000	-22.158977	-48.058090	-0.190577	-138.437933	-0.190577	-138.437933	-22.160747	-47.993390
2.600000	-21.389771	-50.925709	-0.199754	-141.226321	-0.199754	-141.226321	-21.391416	-50.862267
2.650000	-20.671379	-53.784665	-0.209553	-144.017788	-0.209553	-144.017788	-20.672915	-53.722132
2.700000	-19.997830	-56.636619	-0.220009	-146.812197	-0.220009	-146.812197	-19.999269	-56.574682
2.750000	-19.364637	-59.483066	-0.231132	-149.609275	-0.231132	-149.609275	-19.365989	-59.421456
2.800000	-18.767939	-62.325044	-0.242934	-152.408767	-0.242934	-152.408767	-18.769213	-62.263517
2.850000	-18.204450	-65.163294	-0.255427	-155.210419	-0.255427	-155.210419	-18.205653	-65.101628
2.900000	-17.671444	-67.998406	-0.268611	-158.013939	-0.268611	-158.013939	-17.672583	-67.936394
2.950000	-17.166551	-70.830793	-0.282483	-160.819038	-0.282483	-160.819038	-17.167630	-70.768243
3.000000	-16.687704	-73.660742	-0.297034	-163.625429	-0.297034	-163.625429	-16.688727	-73.597470
3.050000	-16.233099	-76.488446	-0.312253	-166.432827	-0.312253	-166.432827	-16.234068	-76.424276
3.100000	-15.801147	-79.314028	-0.328124	-169.240952	-0.328124	-169.240952	-15.802065	-79.248790
3.150000	-15.390451	-82.137544	-0.344629	-172.049532	-0.344629	-172.049532	-15.391319	-82.071075
3.200000	-14.999772	-84.959023	-0.361740	-174.858299	-0.361740	-174.858299	-15.000590	-84.891161
3.250000	-14.627980	-87.778473	-0.379424	-177.667003	-0.379424	-177.667003	-14.628748	-87.709061
3.300000	-14.274064	-90.595870	-0.397646	179.524587	-0.397646	179.524587	-14.274782	-90.524755
3.350000	-13.937196	-93.411126	-0.416377	176.716703	-0.416377	176.716703	-13.937862	-93.338154
3.400000	-13.616396	-96.224293	-0.435556	173.909508	-0.435556	173.909508	-13.617011	-96.149317
3.450000	-13.310964	-99.035290	-0.455145	171.103181	-0.455145	171.103181	-13.311524	-98.958161
3.500000	-13.020198	-101.844082	-0.475096	168.297862	-0.475096	168.297862	-13.020702	-101.764653
3.550000	-12.743453	-104.650644	-0.495357	165.493667	-0.495357	165.493667	-12.743899	-104.568767
3.600000	-12.480133	-107.454965	-0.515875	162.690682	-0.515875	162.690682	-12.480520	-107.370492
3.650000	-12.229684	-110.257051	-0.536596	159.888967	-0.536596	159.888967	-12.230010	-110.169834
3.700000	-11.991591	-113.056927	-0.557462	157.088548	-0.557462	157.088548	-11.991854	-112.966816
3.750000	-11.765373	-115.854644	-0.578417	154.289424	-0.578417	154.289424	-11.765571	-115.761484
3.800000	-11.550707	-118.650231	-0.599400	151.491590	-0.599400	151.491590	-11.550841	-118.553863
3.850000	-11.347048	-121.443838	-0.620352	148.694953	-0.620352	148.694953	-11.347115	-121.344102
3.900000	-11.153994	-124.235596	-0.641215	145.899419	-0.641215	145.899419	-11.153995	-124.132324
3.950000	-10.971170	-127.025664	-0.661933	143.104865	-0.661933	143.104865	-10.971104	-126.918684
4.000000	-10.798221	-129.814233	-0.682447	140.311137	-0.682447	140.311137	-10.798088	-129.703364
4.050000	-10.634810	-132.601522	-0.702702	137.518055	-0.702702	137.518055	-10.634612	-132.486576
4.100000	-10.480619	-135.387781	-0.722646	134.725412	-0.722646	134.725412	-10.480358	-135.268560
4.150000	-10.335349	-138.173292	-0.742224	131.932973	-0.742224	131.932973	-10.335025	-138.049587
4.200000	-10.198711	-140.958366	-0.761388	129.140480	-0.761388	129.140480	-10.198327	-140.829955
4.250000	-10.070436	-143.743342	-0.780089	126.347648	-0.780089	126.347648	-10.069995	-143.609991
4.300000	-9.950266	-146.528588	-0.798281	123.554173	-0.798281	123.554173	-9.949769	-146.390049
4.350000	-9.837956	-149.314500	-0.815922	120.759727	-0.815922	120.759727	-9.837407	-149.170508
4.400000	-9.733339	-152.101515	-0.832964	117.963946	-0.832964	117.963946	-9.732742	-151.951788
4.450000	-9.636193	-154.890096	-0.849370	115.166449	-0.849370	115.166449	-9.635551	-154.734331
4.500000	-9.546239	-157.680698	-0.865112	112.366869	-0.865112	112.366869	-9.545554	-157.518578
4.550000	-9.463272	-160.473812	-0.880160	109.564805	-0.880160	109.564805	-9.462550	-160.305000
4.600000	-9.387102	-163.269946	-0.894486	106.759844	-0.894486	106.759844	-9.386344	-163.094083
4.650000	-9.317544	-166.069623	-0.908068	103.951559	-0.908068	103.951559	-9.316754	-165.886330
4.700000	-9.254422	-168.873382	-0.920886	101.139513	-0.920886	101.139513	-9.253601	-168.682257
4.750000	-9.197567	-171.681771	-0.932922	98.323260	-0.932922	98.323260	-9.196719	-171.482387
4.800000	-9.146817	-174.495347	-0.944164	95.502342	-0.944164	95.502342	-9.145942	-174.287256
4.850000	-9.102016	-177.314675	-0.954602	92.676298	-0.954602	92.676298	-9.101116	-177.097403
4.900000	-9.063013	179.859677	-0.964232	89.844659	-0.964232	89.844659	-9.062089	-179.913370
4.950000	-9.029663	177.027141	-0.973051	87.006953	-0.973051	87.006953	-9.028713	177.264302
5.000000	-9.001823	174.187151	-0.981062	84.162704	-0.981062	84.162704	-9.000845	174.435070
5.050000	-8.979466	171.338958	-0.988251	81.311272	-0.988251	81.311272	-8.978459	171.598228
5.100000	-8.962337	168.482169	-0.994647	78.452322	-0.994647	78.452322	-8.961298	168.753397
5.150000	-8.950301	165.616241	-1.000263	75.585377	-1.000263	75.585377	-8.949225	165.900061
5.200000	-8.943221	162.740641	-1.005114	72.709966	-1.005114	72.709966	-8.942102	163.037717
5.250000	-8.940961	159.854855	-1.009221	69.825616	-1.009221	69.825616	-8.939794	160.165876
5.300000	-8.943382	156.958384	-1.012607	66.931864	-1.012607	66.931864	-8.942159	157.284069
5.350000	-8.950344	154.050748	-1.015299	64.028251	-1.015299	64.028251	-8.949058	154.391845
5.400000	-8.961703	151.131491	-1.017325	61.114323	-1.017325	61.114323	-8.960343	151.488774
5.450000	-8.977308	148.200180	-1.018720	58.189638	-1.018720	58.189638	-8.975866	148.574452
5.500000	-8.997005	145.256404	-1.019518	55.253759	-1.019518	55.253759	-8.995469	145.648497
5.550000	-9.020630	142.299783	-1.019758	52.306263	-1.019758	52.306263	-9.018990	142.710556
5.600000	-9.048014	139.329961	-1.019481	49.346733	-1.019481	49.346733	-9.046258	139.760300
5.650000	-9.079011	136.346462	-1.018725	46.374629	-1.018725	46.374629	-9.077126	136.797291
5.700000	-9.113422	133.348978	-1.017539	43.389548	-1.017539	43.389548	-9.111396	133.821248
5.750000	-9.151006	130.337390	-1.015976	40.391247	-1.015976	40.391247	-9.148826	130.832067
5.800000	-9.191548	127.311458	-1.014085	37.379365	-1.014085	37.379365	-9.189201	127.829533
5.850000	-9.234817	124.270971	-1.011917	34.353552	-1.011917	34.353552	-9.232292	124.813458
5.900000	-9.280570	121.215745	-1.009527	31.313475	-1.009527	31.313475	-9.277853	121.783679
5.950000	-9.328549	118.145622	-1.006969	28.258814	-1.006969	28.258814	-9.325628	118.740056
6.000000	-9.378478	115.060467	-1.004297	25.189263	-1.004297	25.189263	-9.375341	115.682473
6.050000	-9.430067	111.960168	-1.001567	22.104532	-1.001567	22.104532	-9.426702	112.610829
6.100000	-9.483010	108.844634	-0.998838	19.004346	-0.998838	19.004346	-9.479407	109.525044
6.150000	-9.536984	105.713792	-0.996165	15.888442	-0.996165	15.888442	-9.533132	106.425048
6.200000	-9.591653	102.567583	-0.993605	12.756573	-0.993605	12.756573	-9.587541	103.310786
6.250000	-9.646663	99.405965	-0.991216	9.608503	-0.991216	9.608503	-9.642281	100.182206
6.300000	-9.701630	96.228567	-0.989061	6.443648	-0.989061	6.443648	-9.696969	97.038950
6.350000	-9.756176	93.035702	-0.987191	3.262149	-0.987191	3.262149	-9.751226	93.881286
6.400000	-9.809911	89.827351	-0.985661	0.063807	-0.985661	0.063807	-9.804662	90.709166
6.450000	-9.862434	86.603503	-0.984525	-3.151568	-0.984525	-3.151568	-9.856878	87.522540
6.500000	-9.913341	83.364144	-0.983837	-6.384161	-0.983837	-6.384161	-9.907467	84.321347
6.550000	-9.962222	80.109264	-0.983647	-9.634146	-0.983647	-9.634146	-9.956021	81.105517
6.600000	-10.008667	76.838848	-0.984005	-12.901696	-0.984005	-12.901696	-10.002129	77.874965
6.650000	-10.052270	73.552880	-0.984958	-16.186979	-0.984958	-16.186979	-10.045385	74.629593
6.700000	-10.092634	70.251351	-0.986553	-19.490142	-0.986553	-19.490142	-10.085389	71.369299
6.750000	-10.129338	66.934125	-0.988838	-22.811478	-0.988838	-22.811478	-10.121723	68.093844
6.800000	-10.162044	63.601315	-0.991849	-26.150980	-0.991849	-26.150980	-10.154045	64.803221
6.850000	-10.190396	60.252874	-0.995624	-29.508817	-0.995624	-29.508817	-10.182001	61.497255
6.900000	-10.213973	56.888471	-1.000216	-32.885486	-1.000216	-32.885486	-10.205168	58.175481
6.950000	-10.232454	53.508032	-1.005662	-36.281180	-1.005662	-36.281180	-10.223227	54.837671
7.000000	-10.245648	50.111740	-1.011980	-39.695771	-1.011980	-39.695771	-10.235984	51.483854
7.050000	-10.253313	46.699488	-1.019201	-43.129460	-1.019201	-43.129460	-10.243197	48.113767
7.100000	-10.255244	43.271153	-1.027353	-46.582461	-1.027353	-46.582461	-10.244664	44.727125
7.150000	-10.251279	39.826587	-1.036463	-50.055003	-1.036463	-50.055003	-10.240221	41.323617
7.200000	-10.241244	36.365475	-1.046563	-53.547500	-1.046563	-53.547500	-10.229696	37.902758
7.250000	-10.224958	32.887321	-1.057692	-57.060567	-1.057692	-57.060567	-10.212909	34.463870
7.300000	-10.202555	29.392313	-1.069846	-60.593970	-1.069846	-60.593970	-10.189995	31.007011
7.350000	-10.174060	25.880180	-1.083041	-64.148002	-1.083041	-64.148002	-10.160981	27.531762
7.400000	-10.139551	22.350611	-1.097292	-67.722980	-1.097292	-67.722980	-10.125948	24.037680
7.450000	-10.099155	18.803253	-1.112610	-71.319238	-1.112610	-71.319238	-10.085025	20.524288
7.500000	-10.053048	15.237709	-1.129007	-74.937134	-1.129007	-74.937134	-10.038391	16.991077
7.550000	-10.001268	11.652872	-1.146524	-78.577817	-1.146524	-78.577817	-9.986086	13.436783
7.600000	-9.944296	8.048866	-1.165128	-82.240946	-1.165128	-82.240946	-9.928596	9.861511
7.650000	-9.882461	4.425136	-1.184820	-85.926950	-1.184820	-85.926950	-9.866251	6.264642
7.700000	-9.816132	0.781067	-1.205595	-89.636286	-1.205595	-89.636286	-9.799426	2.645518
7.750000	-9.745726	-2.884010	-1.227444	-93.369440	-1.227444	-93.369440	-9.728539	-0.996558
7.800000	-9.671696	-6.570825	-1.250352	-97.126928	-1.250352	-97.126928	-9.654049	-4.662328
7.850000	-9.594452	-10.280771	-1.274324	-100.909960	-1.274324	-100.909960	-9.576367	-8.353228
7.900000	-9.514609	-14.014345	-1.299314	-104.718725	-1.299314	-104.718725	-9.496114	-12.069704
7.950000	-9.432768	-17.772271	-1.325278	-108.553647	-1.325278	-108.553647	-9.413891	-15.812426
8.000000	-9.349529	-21.555529	-1.352170	-112.415418	-1.352170	-112.415418	-9.330303	-19.582329
8.050000	-9.265521	-25.365164	-1.379936	-116.304790	-1.379936	-116.304790	-9.245979	-23.380403
8.100000	-9.181404	-29.202290	-1.408509	-120.222583	-1.408509	-120.222583	-9.161584	-27.207696
8.150000	-9.097874	-33.068607	-1.437817	-124.170224	-1.437817	-124.170224	-9.077814	-31.065865
8.200000	-9.015686	-36.965443	-1.467760	-128.148766	-1.467760	-128.148766	-8.995427	-34.956157
8.250000	-8.935595	-40.893655	-1.498216	-132.158829	-1.498216	-132.158829	-8.915177	-38.879321
8.300000	-8.858385	-44.854691	-1.529053	-136.201674	-1.529053	-136.201674	-8.837850	-42.836724
8.350000	-8.784876	-48.850103	-1.560122	-140.278727	-1.560122	-140.278727	-8.764266	-46.829839
8.400000	-8.715929	-52.881564	-1.591250	-144.391603	-1.591250	-144.391603	-8.695289	-50.860258
8.450000	-8.652511	-56.951226	-1.622238	-148.542486	-1.622238	-148.542486	-8.631883	-54.930070
8.500000	-8.595742	-61.061830	-1.652849	-152.734263	-1.652849	-152.734263	-8.575171	-59.041961
8.550000	-8.546545	-65.214559	-1.682840	-156.968408	-1.682840	-156.968408	-8.526076	-63.197020
8.600000	-8.506067	-69.411791	-1.711937	-161.247740	-1.711937	-161.247740	-8.485745	-67.397569
8.650000	-8.475572	-73.656149	-1.739834	-165.575519	-1.739834	-165.575519	-8.455442	-71.646179
8.700000	-8.456469	-77.950531	-1.766198	-169.955516	-1.766198	-169.955516	-8.436580	-75.945708
8.750000	-8.450358	-82.298147	-1.790667	-174.392106	-1.790667	-174.392106	-8.430759	-80.299332
8.800000	-8.459507	-86.704106	-1.812781	-178.892095	-1.812781	-178.892095	-8.440253	-84.712161
8.850000	-8.485746	-91.170983	-1.832176	176.540011	-1.832176	176.540011	-8.466893	-89.186732
8.900000	-8.531645	-95.703113	-1.848415	171.897253	-1.848415	171.897253	-8.513255	-93.727377
8.950000	-8.600689	-100.306329	-1.860985	167.170120	-1.860985	167.170120	-8.582833	-98.339953
9.000000	-8.696466	-104.984833	-1.869474	162.349969	-1.869474	162.349969	-8.679219	-103.028671
9.050000	-8.823686	-109.743631	-1.873448	157.425767	-1.873448	157.425767	-8.807134	-107.798571
9.100000	-8.988898	-114.588846	-1.872437	152.382641	-1.872437	152.382641	-8.973143	-112.655848
9.150000	-9.199712	-119.523947	-1.866148	147.205736	-1.866148	147.205736	-9.184870	-117.604038
9.200000	-9.466213	-124.550640	-1.854397	141.877176	-1.854397	141.877176	-9.452422	-122.644961
9.250000	-9.802853	-129.667679	-1.837125	136.373140	-1.837125	136.373140	-9.790281	-127.777548
9.300000	-10.228285	-134.863618	-1.814685	130.668587	-1.814685	130.668587	-10.217144	-132.990591
9.350000	-10.768955	-140.110705	-1.787887	124.733376	-1.787887	124.733376	-10.759526	-138.256704
9.400000	-11.464222	-145.347410	-1.758238	118.529862	-1.758238	118.529862	-11.456901	-143.514950
9.450000	-12.372788	-150.439401	-1.728371	112.015658	-1.728371	112.015658	-12.368187	-148.631949
9.500000	-13.585503	-155.096253	-1.702425	105.145813	-1.702425	105.145813	-13.584685	-153.318771
9.550000	-15.257247	-158.618273	-1.686786	97.865015	-1.686786	97.865015	-15.262372	-156.878002
9.600000	-17.651353	-159.108600	-1.690809	90.119512	-1.690809	90.119512	-17.667716	-157.413072
9.650000	-21.096527	-150.188785	-1.727930	81.856697	-1.727930	81.856697	-21.139209	-148.505497
9.700000	-23.833881	-114.509139	-1.816014	73.042391	-1.816014	73.042391	-23.903548	-112.492869
9.750000	-20.315259	-77.538939	-1.977702	63.671581	-1.977702	63.671581	-20.330458	-75.375165
9.800000	-15.797095	-69.298982	-2.239034	53.789937	-2.239034	53.789937	-15.793174	-67.271365
9.850000	-12.420543	-72.236535	-2.626345	43.510936	-2.626345	43.510936	-12.413152	-70.302418
9.900000	-9.907131	-79.224706	-3.160066	33.022837	-3.160066	33.022837	-9.899643	-77.356519
9.950000	-8.002887	-87.952395	-3.849810	22.567019	-3.849810	22.567019	-7.996385	-86.138212
10.000000	-6.551639	-97.394681	-4.690206	12.397564	-4.690206	12.397564	-6.546748	-95.629340
