! freq	dB(S11)	phase(S11)	dB(S12)	phase(S12)	
!     	dB(S21)	phase(S21)	dB(S22)	phase(S22)	
!S-par simulation data
#  GHz  S  DB  R 50
0.000000	-86.017551	0.000000	-0.000434	0.000000	-0.000434	0.000000	-86.017551	0.000000
0.050000	-32.075701	-93.255961	-0.006911	-3.244207	-0.006911	-3.244207	-32.077641	-93.230737
0.100000	-26.087973	-96.648576	-0.021289	-6.450208	-0.021289	-6.450208	-26.089032	-96.598291
0.150000	-22.612936	-99.952485	-0.039668	-9.631236	-0.039668	-9.631236	-22.613283	-99.876680
0.200000	-20.170715	-103.200468	-0.062110	-12.796772	-0.062110	-12.796772	-20.170796	-103.098341
0.250000	-18.296164	-106.408309	-0.088966	-15.947415	-0.088966	-15.947415	-18.296354	-106.279282
0.300000	-16.782296	-109.585093	-0.120223	-19.081009	-0.120223	-19.081009	-16.782753	-109.428807
0.350000	-15.519785	-112.734303	-0.155742	-22.194678	-0.155742	-22.194678	-15.520502	-112.550293
0.400000	-14.442705	-115.857634	-0.195113	-25.286648	-0.195113	-25.286648	-14.443601	-115.645184
0.450000	-13.509874	-118.954017	-0.238073	-28.354378	-0.238073	-28.354378	-13.510863	-118.712138
0.500000	-12.691624	-122.023594	-0.284125	-31.397219	-0.284125	-31.397219	-12.692649	-121.751183
0.550000	-11.968295	-125.064532	-0.332970	-34.413063	-0.332970	-34.413063	-11.969323	-124.760366
0.600000	-11.323758	-128.076965	-0.384138	-37.401782	-0.384138	-37.401782	-11.324782	-127.739800
0.650000	-10.747553	-131.058777	-0.437313	-40.361128	-0.437313	-40.361128	-10.748581	-130.687233
0.700000	-10.228810	-134.011648	-0.491989	-43.292484	-0.491989	-43.292484	-10.229855	-133.604338
0.750000	-9.760328	-136.935317	-0.547809	-46.195374	-0.547809	-46.195374	-9.761405	-136.490736
0.800000	-9.337217	-139.828372	-0.604404	-49.068162	-0.604404	-49.068162	-9.338343	-139.344783
0.850000	-8.954014	-142.691783	-0.661349	-51.911528	-0.661349	-51.911528	-8.955200	-142.167304
0.900000	-8.606270	-145.526492	-0.718263	-54.726161	-0.718263	-54.726161	-8.607524	-144.959083
0.950000	-8.290579	-148.333085	-0.774769	-57.512399	-0.774769	-57.512399	-8.291904	-147.720495
1.000000	-8.003933	-151.112494	-0.830505	-60.270949	-0.830505	-60.270949	-8.005329	-150.452262
1.050000	-7.743752	-153.865818	-0.885125	-63.002696	-0.885125	-63.002696	-7.745211	-153.155262
1.100000	-7.507805	-156.594301	-0.938298	-65.708692	-0.938298	-65.708692	-7.509319	-155.830507
1.150000	-7.294162	-159.299322	-0.989717	-68.390133	-0.989717	-68.390133	-7.295716	-158.479130
1.200000	-7.101144	-161.982378	-1.039090	-71.048346	-1.039090	-71.048346	-7.102719	-161.102368
1.250000	-6.927288	-164.645071	-1.086148	-73.684768	-1.086148	-73.684768	-6.928864	-163.701545
1.300000	-6.771633	-167.288731	-1.130579	-76.300523	-1.130579	-76.300523	-6.773182	-166.277600
1.350000	-6.632740	-169.915585	-1.172212	-78.897683	-1.172212	-78.897683	-6.634235	-168.832518
1.400000	-6.509652	-172.527492	-1.210845	-81.477878	-1.210845	-81.477878	-6.511064	-171.367806
1.450000	-6.401544	-175.126374	-1.246294	-84.042691	-1.246294	-84.042691	-6.402838	-173.885005
1.500000	-6.307707	-177.714215	-1.278391	-86.593452	-1.278391	-86.593452	-6.308850	-176.385680
1.550000	-6.227544	179.706947	-1.306919	-89.130352	-1.306919	-89.130352	-6.228499	-178.871414
1.600000	-6.160555	177.135019	-1.330372	-91.649598	-1.330372	-91.649598	-6.161283	178.656209
1.650000	-6.106335	174.567861	-1.347539	-94.199774	-1.347539	-94.199774	-6.106798	176.195605
1.700000	-6.064569	172.003281	-1.368179	-96.729748	-1.368179	-96.729748	-6.064725	173.745200
1.750000	-6.035024	169.439041	-1.382439	-99.243297	-1.382439	-99.243297	-6.034832	171.303441
1.800000	-6.017551	166.872851	-1.392190	-101.756781	-1.392190	-101.756781	-6.016968	168.868798
1.850000	-6.012080	164.302369	-1.397788	-104.271712	-1.397788	-104.271712	-6.011064	166.439779
1.900000	-6.020329	161.723894	-1.398732	-106.790575	-1.398732	-106.790575	-6.018831	164.015313
1.950000	-6.039126	159.137082	-1.396157	-109.314208	-1.396157	-109.314208	-6.037109	161.593053
2.000000	-6.070212	156.538540	-1.389562	-111.845041	-1.389562	-111.845041	-6.067634	159.172209
2.050000	-6.113848	153.925677	-1.378988	-114.385132	-1.378988	-114.385132	-6.110669	156.751520
2.100000	-6.169263	151.297587	-1.364830	-116.935358	-1.364830	-116.935358	-6.165442	154.330015
2.150000	-6.239261	148.647991	-1.346441	-119.500211	-1.346441	-119.500211	-6.234753	151.906270
2.200000	-6.323159	145.975734	-1.324300	-122.080647	-1.324300	-122.080647	-6.317917	149.479469
2.250000	-6.421617	143.277848	-1.298523	-124.678767	-1.298523	-124.678767	-6.415586	147.048832
2.300000	-6.535418	140.551234	-1.269246	-127.296660	-1.269246	-127.296660	-6.528531	144.613780
2.350000	-6.665481	137.792646	-1.236626	-129.936400	-1.236626	-129.936400	-6.657647	142.173987
2.400000	-6.812877	134.998660	-1.200845	-132.600037	-1.200845	-132.600037	-6.803974	139.729443
2.450000	-6.978846	132.165641	-1.162110	-135.289588	-1.162110	-135.289588	-6.968713	137.280536
2.500000	-7.164830	129.289696	-1.120651	-138.007024	-1.120651	-138.007024	-7.153246	134.828156
2.550000	-7.372884	126.365482	-1.076674	-140.754952	-1.076674	-140.754952	-7.359553	132.373822
2.600000	-7.604585	123.389284	-1.030531	-143.534600	-1.030531	-143.534600	-7.589125	129.919957
2.650000	-7.862175	120.355929	-0.982537	-146.347711	-0.982537	-146.347711	-7.844091	127.469891
2.700000	-8.148261	117.259558	-0.933036	-149.195917	-0.933036	-149.195917	-8.126919	125.028191
2.750000	-8.465885	114.093414	-0.882403	-152.080716	-0.882403	-152.080716	-8.440480	122.601004
2.800000	-8.818617	110.849553	-0.831040	-155.003446	-0.831040	-155.003446	-8.788125	120.196507
2.850000	-9.210673	107.518448	-0.779379	-157.965263	-0.779379	-157.965263	-9.173786	117.825537
2.900000	-9.647071	104.088429	-0.727879	-160.967107	-0.727879	-160.967107	-9.602110	115.502471
2.950000	-10.133856	100.544856	-0.677026	-164.009677	-0.677026	-164.009677	-10.078625	113.246478
3.000000	-10.678394	96.868851	-0.627327	-167.093398	-0.627327	-167.093398	-10.609961	111.083344
3.050000	-11.289804	93.035315	-0.579312	-170.218391	-0.579312	-170.218391	-11.204142	109.048199
3.100000	-11.979554	89.009743	-0.533525	-173.384443	-0.533525	-173.384443	-11.870963	107.189698
3.150000	-12.762669	84.739561	-0.490556	-176.591405	-0.490556	-176.591405	-12.622759	105.580402
3.200000	-13.658328	80.148182	-0.450988	-179.838270	-0.450988	-179.838270	-13.474320	104.325148
3.250000	-14.691696	75.121413	-0.415350	176.876804	-0.415350	176.876804	-14.443454	103.575431
3.300000	-15.897403	69.467520	-0.384191	173.555636	-0.384191	173.555636	-15.551580	103.571150
3.350000	-17.322951	62.851735	-0.358039	170.200475	-0.358039	170.200475	-16.821409	104.699166
3.400000	-19.031867	54.645367	-0.337396	166.813992	-0.337396	166.813992	-18.267899	107.600756
3.450000	-21.094819	43.572028	-0.322724	163.399266	-0.322724	163.399266	-19.867262	113.330158
3.500000	-23.503739	26.938825	-0.314441	159.959764	-0.314441	159.959764	-21.468129	123.400650
3.550000	-25.741246	0.277726	-0.312908	156.499300	-0.312908	156.499300	-22.632981	138.883473
3.600000	-26.139762	-35.553167	-0.318424	153.021995	-0.318424	153.021995	-22.724051	157.665384
3.650000	-24.178693	-66.134272	-0.331216	149.532214	-0.331216	149.532214	-21.643498	174.202019
3.700000	-21.622247	-85.438299	-0.351436	146.034510	-0.351436	146.034510	-19.991440	-174.693393
3.750000	-19.348906	-97.888215	-0.379156	142.533547	-0.379156	142.533547	-18.281655	-168.317974
3.800000	-17.448032	-106.831875	-0.414524	139.034170	-0.414524	139.034170	-16.710281	-165.117602
3.850000	-15.857198	-113.948384	-0.457280	135.541114	-0.457280	135.541114	-15.320039	-163.853340
3.900000	-14.506857	-119.985619	-0.507246	132.058921	-0.507246	132.058921	-14.098472	-163.830590
3.950000	-13.344427	-125.335995	-0.564170	128.591947	-0.564170	128.591947	-13.022905	-164.628687
4.000000	-12.331714	-130.220319	-0.627729	125.144299	-0.627729	125.144299	-12.071329	-165.986191
4.050000	-11.440774	-134.770488	-0.697537	121.719776	-0.697537	121.719776	-11.224984	-167.734706
4.100000	-10.650753	-139.069299	-0.773154	118.321832	-0.773154	118.321832	-10.468486	-169.761791
4.150000	-9.945742	-143.170940	-0.854094	114.953535	-0.854094	114.953535	-9.789321	-171.989845
4.200000	-9.313333	-147.112167	-0.939834	111.617548	-0.939834	111.617548	-9.177276	-174.363743
4.250000	-8.743656	-150.918722	-1.029823	108.316118	-1.029823	108.316118	-8.623942	-176.843361
4.300000	-8.228714	-154.609186	-1.123490	105.051070	-1.123490	105.051070	-8.122330	-179.398901
4.350000	-7.761924	-158.197362	-1.220255	101.823818	-1.220255	101.823818	-7.666565	177.992124
4.400000	-7.337998	-161.692915	-1.319540	98.635801	-1.319540	98.635801	-7.251865	175.346642
4.450000	-6.952268	-165.104400	-1.420745	95.487662	-1.420745	95.487662	-6.873941	172.678210
4.500000	-6.600547	-168.439503	-1.523284	92.379232	-1.523284	92.379232	-6.528895	169.997274
4.550000	-6.279418	-171.703841	-1.626601	89.310441	-1.626601	89.310441	-6.213524	167.311617
4.600000	-5.985913	-174.902266	-1.730160	86.280923	-1.730160	86.280923	-5.925025	164.627244
4.650000	-5.717441	-178.039074	-1.833444	83.290048	-1.833444	83.290048	-5.660937	161.948741
4.700000	-5.471727	178.881845	-1.935960	80.336953	-1.935960	80.336953	-5.419085	159.279558
4.750000	-5.246764	175.856897	-2.037238	77.420569	-2.037238	77.420569	-5.197547	156.622217
4.800000	-5.040778	172.882719	-2.136835	74.539650	-2.136835	74.539650	-4.994613	153.978494
4.850000	-4.852194	169.956116	-2.234333	71.692801	-2.234333	71.692801	-4.808764	151.349543
4.900000	-4.679613	167.074030	-2.329337	68.878503	-2.329337	68.878503	-4.638644	148.736015
4.950000	-4.521789	164.233511	-2.421480	66.095132	-2.421480	66.095132	-4.483046	146.138139
5.000000	-4.377616	161.431694	-2.510417	63.340985	-2.510417	63.340985	-4.340892	143.555798
5.050000	-4.246322	158.666507	-2.595730	60.614852	-2.595730	60.614852	-4.211437	140.988902
5.100000	-4.126795	155.934382	-2.677218	57.914277	-2.677218	57.914277	-4.093592	138.436449
5.150000	-4.018262	153.232646	-2.754620	55.237389	-2.754620	55.237389	-3.986602	135.897580
5.200000	-3.920036	150.558670	-2.827705	52.582231	-2.827705	52.582231	-3.889798	133.371268
5.250000	-3.831976	147.911135	-2.895995	49.947664	-2.895995	49.947664	-3.803048	130.856914
5.300000	-3.752709	145.285015	-2.959806	47.329351	-2.959806	47.329351	-3.725000	128.352102
5.350000	-3.682165	142.678909	-3.018719	44.725489	-3.018719	44.725489	-3.655589	125.855941
5.400000	-3.619956	140.090296	-3.072484	42.133316	-3.072484	42.133316	-3.594438	123.366934
5.450000	-3.565758	137.516663	-3.120817	39.550325	-3.120817	39.550325	-3.541231	120.883493
5.500000	-3.519307	134.955502	-3.163443	36.974370	-3.163443	36.974370	-3.495710	118.403949
5.550000	-3.480397	132.404293	-3.200135	34.403499	-3.200135	34.403499	-3.457678	115.926556
5.600000	-3.448881	129.860505	-3.230713	31.835701	-3.230713	31.835701	-3.426993	113.449487
5.650000	-3.424669	127.321576	-3.255031	29.268777	-3.255031	29.268777	-3.403568	110.970841
5.700000	-3.407728	124.784911	-3.272953	26.700317	-3.272953	26.700317	-3.387379	108.488632
5.750000	-3.398086	122.247867	-3.284347	24.127729	-3.284347	24.127729	-3.378456	106.000789
5.800000	-3.395834	119.707738	-3.289083	21.548267	-3.289083	21.548267	-3.376896	103.505150
5.850000	-3.401129	117.161748	-3.287028	18.959042	-3.287028	18.959042	-3.382859	100.999455
5.900000	-3.414202	114.607035	-3.278053	16.357020	-3.278053	16.357020	-3.396578	98.481338
5.950000	-3.435359	112.040635	-3.262032	13.739004	-3.262032	13.739004	-3.418365	95.948317
6.000000	-3.464996	109.459470	-3.238845	11.101619	-3.238845	11.101619	-3.448617	93.397787
6.050000	-3.503190	106.861313	-3.208710	8.442516	-3.208710	8.442516	-3.487417	90.828063
6.100000	-3.551457	104.240718	-3.170786	5.755267	-3.170786	5.755267	-3.536280	88.233997
6.150000	-3.610045	101.595199	-3.125387	3.037112	-3.125387	3.037112	-3.595457	85.613702
6.200000	-3.679835	98.921064	-3.072438	0.283684	-3.072438	0.283684	-3.665833	82.963986
6.250000	-3.761885	96.214431	-3.011887	-2.509706	-3.011887	-2.509706	-3.748465	80.281498
6.300000	-3.857758	93.470340	-2.943529	-5.349221	-2.943529	-5.349221	-3.844918	77.561863
6.350000	-3.968720	90.685221	-2.867546	-8.239480	-2.867546	-8.239480	-3.956460	74.802146
6.400000	-4.096588	87.854631	-2.783992	-11.186416	-2.783992	-11.186416	-4.084904	71.998596
6.450000	-4.243534	84.973981	-2.692974	-14.196443	-2.692974	-14.196443	-4.232422	69.147416
6.500000	-4.412167	82.038599	-2.594668	-17.276499	-2.594668	-17.276499	-4.401619	66.244851
6.550000	-4.605638	79.043827	-2.489336	-20.434072	-2.489336	-20.434072	-4.595635	63.287325
6.600000	-4.827766	75.985177	-2.377345	-23.677231	-2.377345	-23.677231	-4.818279	60.271657
6.650000	-5.083211	72.858575	-2.259188	-27.014625	-2.259188	-27.014625	-5.074191	57.195386
6.700000	-5.377705	69.660743	-2.135518	-30.455481	-2.135518	-30.455481	-5.369074	54.057260
6.750000	-5.718364	66.389779	-2.007178	-34.009553	-2.007178	-34.009553	-5.709992	50.857990
6.800000	-6.114112	63.046063	-1.875236	-37.687034	-1.875236	-37.687034	-6.105796	47.601406
6.850000	-6.576294	59.633681	-1.741031	-41.498412	-1.741031	-41.498412	-6.567706	44.296265
6.900000	-7.120217	56.162294	-1.606209	-45.455924	-1.606209	-45.455924	-7.110814	40.959137
6.950000	-7.765496	52.653032	-1.472867	-49.570181	-1.472867	-49.570181	-7.754364	37.621031
7.000000	-8.536677	49.144020	-1.343425	-53.846765	-1.343425	-53.846765	-8.522264	34.333437
7.050000	-9.471749	45.703017	-1.220797	-58.297383	-1.220797	-58.297383	-9.451205	31.187980
7.100000	-10.623168	42.454645	-1.108303	-62.926733	-1.108303	-62.926733	-10.591007	28.346862
7.150000	-12.072205	39.639367	-1.009709	-67.737826	-1.009709	-67.737826	-12.016871	26.117806
7.200000	-13.952545	37.771656	-0.929226	-72.730148	-0.929226	-72.730148	-13.846473	25.143898
7.250000	-16.500472	38.157930	-0.871471	-77.898471	-0.871471	-77.898471	-16.264967	26.986442
7.300000	-20.129314	44.882093	-0.840839	-83.229175	-0.840839	-83.229175	-19.484847	35.978443
7.350000	-24.680903	73.655973	-0.841737	-88.703567	-0.841737	-88.703567	-22.755556	63.609778
7.400000	-23.583006	127.229262	-0.878167	-94.296284	-0.878167	-94.296284	-21.758428	105.001680
7.450000	-18.739745	148.249627	-0.953437	-99.975785	-0.953437	-99.975785	-17.938729	125.041282
7.500000	-15.136379	152.372037	-1.069885	-105.705532	-1.069885	-105.705532	-14.712213	130.550620
7.550000	-12.520961	151.411003	-1.229087	-111.445463	-1.229087	-111.445463	-12.251017	130.601861
7.600000	-10.526658	148.499224	-1.430414	-117.154412	-1.430414	-117.154412	-10.333878	128.369319
7.650000	-8.949816	144.683013	-1.672405	-122.793365	-1.672405	-122.793365	-8.801476	125.025693
7.700000	-7.673327	140.425410	-1.952471	-128.327045	-1.952471	-128.327045	-7.553246	121.111650
7.750000	-6.623846	135.966754	-2.267123	-133.725567	-2.267123	-133.725567	-6.523087	116.912595
7.800000	-5.751861	131.445629	-2.612259	-138.965425	-2.612259	-138.965425	-5.665065	112.594160
7.850000	-5.022409	126.947589	-2.983484	-144.028271	-2.983484	-144.028271	-4.946144	108.258649
7.900000	-4.408414	122.526069	-3.376163	-148.904607	-3.376163	-148.904607	-4.340382	103.970925
7.950000	-3.890016	118.215987	-3.785803	-153.586732	-3.785803	-153.586732	-3.828602	99.773216
8.000000	-3.448527	114.030891	-4.208654	-158.083142	-4.208654	-158.083142	-3.392583	95.685072
8.050000	-3.072168	109.983534	-4.641040	-162.392939	-4.641040	-162.392939	-3.020829	91.722606
8.100000	-2.750198	106.077451	-5.079774	-166.522648	-5.079774	-166.522648	-2.702807	87.892225
8.150000	-2.474142	102.313227	-5.521880	-170.478926	-5.521880	-170.478926	-2.430182	84.196636
8.200000	-2.236602	98.686805	-5.964978	-174.271703	-5.964978	-174.271703	-2.195667	80.633521
8.250000	-2.031227	95.190834	-6.407384	-177.913046	-6.407384	-177.913046	-1.992991	77.196921
8.300000	-1.853070	91.818431	-6.847549	178.586703	-6.847549	178.586703	-1.817265	73.881016
8.350000	-1.699000	88.568415	-7.282702	175.224308	-7.282702	175.224308	-1.665396	70.685432
8.400000	-1.563547	85.420598	-7.714779	171.975853	-7.714779	171.975853	-1.531963	67.590872
8.450000	-1.444707	82.372338	-8.141984	168.837494	-8.141984	168.837494	-1.414982	64.595215
8.500000	-1.340155	79.416674	-8.563691	165.800807	-8.563691	165.800807	-1.312150	61.692011
8.550000	-1.247932	76.546959	-8.979403	162.857918	-8.979403	162.857918	-1.221520	58.875064
8.600000	-1.167326	73.765047	-9.385890	160.010303	-9.385890	160.010303	-1.142387	56.146751
8.650000	-1.095824	71.056232	-9.785568	157.241608	-9.785568	157.241608	-1.072255	53.492687
8.700000	-1.032216	68.414630	-10.178368	154.545193	-10.178368	154.545193	-1.009919	50.907317
8.750000	-0.975520	65.835219	-10.564105	151.915423	-10.564105	151.915423	-0.954402	48.385938
8.800000	-0.924895	63.313339	-10.942624	149.347110	-10.942624	149.347110	-0.904866	45.924196
8.850000	-0.879625	60.844661	-11.313792	146.835477	-11.313792	146.835477	-0.860594	43.518067
8.900000	-0.839263	58.427109	-11.676523	144.378175	-11.676523	144.378175	-0.821135	41.165911
8.950000	-0.803343	56.057836	-12.030067	141.972070	-12.030067	141.972070	-0.786017	38.865334
9.000000	-0.771100	53.729853	-12.375971	139.609676	-12.375971	139.609676	-0.754474	36.609474
9.050000	-0.742156	51.439956	-12.714093	137.287558	-12.714093	137.287558	-0.726123	34.395481
9.100000	-0.716186	49.185128	-13.044267	135.002502	-13.044267	135.002502	-0.700629	32.220718
9.150000	-0.692911	46.962517	-13.366297	132.751481	-13.366297	132.751481	-0.677702	30.082749
9.200000	-0.672094	44.769399	-13.679950	130.531629	-13.679950	130.531629	-0.657089	27.979309
9.250000	-0.653720	42.605397	-13.983165	128.342562	-13.983165	128.342562	-0.638743	25.911099
9.300000	-0.637459	40.465872	-14.276940	126.179400	-14.276940	126.179400	-0.622316	23.873766
9.350000	-0.623125	38.347696	-14.561335	124.038846	-14.561335	124.038846	-0.607600	21.864723
9.400000	-0.610617	36.248405	-14.835845	121.918280	-14.835845	121.918280	-0.594457	19.882283
9.450000	-0.599858	34.165513	-15.099861	119.815020	-15.099861	119.815020	-0.582767	17.924860
9.500000	-0.590803	32.096480	-15.352655	117.726255	-15.352655	117.726255	-0.572429	15.990949
9.550000	-0.583474	30.038871	-15.592870	115.649164	-15.592870	115.649164	-0.563386	14.079631
9.600000	-0.578009	27.990090	-15.818055	113.580473	-15.818055	113.580473	-0.555640	12.190770
9.650000	-0.574313	25.946114	-16.028618	111.515249	-16.028618	111.515249	-0.549023	10.321069
9.700000	-0.572494	23.903633	-16.222917	109.448864	-16.222917	109.448864	-0.543494	8.469282
9.750000	-0.573054	21.857913	-16.395370	107.373457	-16.395370	107.373457	-0.539178	6.636447
9.800000	-0.575323	19.807338	-16.553014	105.287392	-16.553014	105.287392	-0.535642	4.815171
9.850000	-0.580592	17.744478	-16.682418	103.175904	-16.682418	103.175904	-0.533332	3.010977
9.900000	-0.589372	15.661483	-16.779806	101.021438	-16.779806	101.021438	-0.532185	1.220940
9.950000	-0.601467	13.557240	-16.847623	98.818128	-16.847623	98.818128	-0.531978	-0.558855
10.000000	-0.617201	11.428648	-16.882999	96.557358	-16.882999	96.557358	-0.532725	-2.328912
