! freq	dB(S11)	phase(S11)	dB(S12)	phase(S12)	
!     	dB(S21)	phase(S21)	dB(S22)	phase(S22)	
!S-par simulation data
#  GHz  S  DB  R 50
0.000000	-83.556522	0.000000	-0.000577	0.000000	-0.000577	0.000000	-83.556522	0.000000
0.050000	-47.109197	-90.323158	-0.004547	-2.533742	-0.004547	-2.533742	-47.069822	-87.919279
0.100000	-41.294361	-95.201113	-0.009944	-5.032678	-0.009944	-5.032678	-41.253520	-90.742353
0.150000	-37.835303	-99.557722	-0.014111	-7.520794	-0.014111	-7.520794	-37.790729	-92.915765
0.200000	-35.365979	-103.643517	-0.017852	-10.006915	-0.017852	-10.006915	-35.320153	-94.796086
0.250000	-33.447302	-107.577432	-0.021582	-12.491961	-0.021582	-12.491961	-33.401671	-96.517945
0.300000	-31.880070	-111.429519	-0.025432	-14.975883	-0.025432	-14.975883	-31.835559	-98.154465
0.350000	-30.556866	-115.228035	-0.029408	-17.458640	-0.029408	-17.458640	-30.514230	-99.733404
0.400000	-29.413056	-118.990260	-0.033485	-19.940368	-0.033485	-19.940368	-29.372959	-101.270740
0.450000	-28.406897	-122.726019	-0.037641	-22.421260	-0.037641	-22.421260	-28.369985	-102.774376
0.500000	-27.509581	-126.443128	-0.041860	-24.901576	-0.041860	-24.901576	-27.476419	-104.250401
0.550000	-26.700541	-130.146921	-0.046136	-27.381536	-0.046136	-27.381536	-26.671625	-105.702406
0.600000	-25.964558	-133.841522	-0.050473	-29.861330	-0.050473	-29.861330	-25.940312	-107.132856
0.650000	-25.290109	-137.530248	-0.054877	-32.341116	-0.054877	-32.341116	-25.270898	-108.543312
0.700000	-24.668116	-141.216027	-0.059358	-34.821027	-0.059358	-34.821027	-24.654217	-109.935462
0.750000	-24.091323	-144.901217	-0.063925	-37.301165	-0.063925	-37.301165	-24.082917	-111.310838
0.800000	-23.553897	-148.587717	-0.068589	-39.781611	-0.068589	-39.781611	-23.551093	-112.670578
0.850000	-23.051162	-152.277251	-0.073362	-42.262451	-0.073362	-42.262451	-23.054030	-114.015216
0.900000	-22.578942	-155.970947	-0.078248	-44.743726	-0.078248	-44.743726	-22.587463	-115.346471
0.950000	-22.133927	-159.669871	-0.083256	-47.225494	-0.083256	-47.225494	-22.148054	-116.664995
1.000000	-21.713233	-163.374793	-0.088394	-49.707807	-0.088394	-49.707807	-21.732896	-117.971676
1.050000	-21.314380	-167.086271	-0.093665	-52.190711	-0.093665	-52.190711	-21.339490	-119.267368
1.100000	-20.935208	-170.804663	-0.099076	-54.674253	-0.099076	-54.674253	-20.965676	-120.552890
1.150000	-20.573826	-174.530149	-0.104629	-57.158480	-0.104629	-57.158480	-20.609569	-121.829037
1.200000	-20.228563	-178.262746	-0.110329	-59.643440	-0.110329	-59.643440	-20.269516	-123.096579
1.250000	-19.897937	177.997685	-0.116178	-62.129183	-0.116178	-62.129183	-19.944053	-124.356269
1.300000	-19.580641	174.251290	-0.122182	-64.615780	-0.122182	-64.615780	-19.631906	-125.608709
1.350000	-19.275451	170.498643	-0.128341	-67.103268	-0.128341	-67.103268	-19.331870	-126.854808
1.400000	-18.981294	166.740293	-0.134657	-69.591701	-0.134657	-69.591701	-19.042892	-128.095312
1.450000	-18.697198	162.976907	-0.141133	-72.081135	-0.141133	-72.081135	-18.764021	-129.330981
1.500000	-18.422281	159.209260	-0.147771	-74.571629	-0.147771	-74.571629	-18.494388	-130.562610
1.550000	-18.155743	155.438234	-0.154575	-77.063238	-0.154575	-77.063238	-18.233200	-131.791032
1.600000	-17.896855	151.664804	-0.161548	-79.556022	-0.161548	-79.556022	-17.979724	-133.017137
1.650000	-17.644955	147.890036	-0.168694	-82.050039	-0.168694	-82.050039	-17.733290	-134.241880
1.700000	-17.399460	144.115057	-0.176015	-84.545318	-0.176015	-84.545318	-17.493287	-135.466275
1.750000	-17.159783	140.341120	-0.183522	-87.041974	-0.183522	-87.041974	-17.259119	-136.691465
1.800000	-16.925449	136.569518	-0.191216	-89.540027	-0.191216	-89.540027	-17.030267	-137.918664
1.850000	-16.696014	132.801593	-0.199103	-92.039529	-0.199103	-92.039529	-16.806247	-139.149178
1.900000	-16.471067	129.038774	-0.207191	-94.540532	-0.207191	-94.540532	-16.586608	-140.384439
1.950000	-16.250251	125.282515	-0.215486	-97.043082	-0.215486	-97.043082	-16.370947	-141.625958
2.000000	-16.033258	121.534245	-0.223994	-99.547208	-0.223994	-99.547208	-16.158910	-142.875280
2.050000	-15.819811	117.795439	-0.232723	-102.052942	-0.232723	-102.052942	-15.950179	-144.134040
2.100000	-15.609622	114.067882	-0.241685	-104.560351	-0.241685	-104.560351	-15.744427	-145.404240
2.150000	-15.402566	110.352561	-0.250878	-107.069386	-0.250878	-107.069386	-15.541500	-146.687104
2.200000	-15.198434	106.651148	-0.260314	-109.580091	-0.260314	-109.580091	-15.341165	-147.984577
2.250000	-14.997082	102.965089	-0.270000	-112.092474	-0.270000	-112.092474	-15.143261	-149.298395
2.300000	-14.798395	99.295797	-0.279945	-114.606535	-0.279945	-114.606535	-14.947663	-150.630262
2.350000	-14.602281	95.644649	-0.290154	-117.122267	-0.290154	-117.122267	-14.754281	-151.981841
2.400000	-14.408676	92.012975	-0.300635	-119.639656	-0.300635	-119.639656	-14.563059	-153.354730
2.450000	-14.217536	88.402055	-0.311393	-122.158681	-0.311393	-122.158681	-14.373966	-154.750445
2.500000	-14.028838	84.813109	-0.322434	-124.679315	-0.322434	-124.679315	-14.186999	-156.170412
2.550000	-13.842542	81.247825	-0.333768	-127.201555	-0.333768	-127.201555	-14.002142	-157.616535
2.600000	-13.658698	77.706813	-0.345393	-129.725325	-0.345393	-129.725325	-13.819478	-159.089489
2.650000	-13.477331	74.191092	-0.357310	-132.250580	-0.357310	-132.250580	-13.639064	-160.590360
2.700000	-13.298479	70.701608	-0.369521	-134.777266	-0.369521	-134.777266	-13.460970	-162.120114
2.750000	-13.122189	67.239237	-0.382025	-137.305327	-0.382025	-137.305327	-13.285276	-163.679606
2.800000	-12.948517	63.804783	-0.394821	-139.834703	-0.394821	-139.834703	-13.112069	-165.269575
2.850000	-12.777528	60.398975	-0.407905	-142.365332	-0.407905	-142.365332	-12.941442	-166.890654
2.900000	-12.609289	57.022473	-0.421272	-144.897149	-0.421272	-144.897149	-12.773491	-168.543377
2.950000	-12.443874	53.675869	-0.434917	-147.430087	-0.434917	-147.430087	-12.608311	-170.228183
3.000000	-12.281358	50.359685	-0.448829	-149.964083	-0.448829	-149.964083	-12.445999	-171.945429
3.050000	-12.121818	47.074381	-0.463001	-152.499071	-0.463001	-152.499071	-12.286648	-173.695396
3.100000	-11.965333	43.820354	-0.477419	-155.034988	-0.477419	-155.034988	-12.130349	-175.478300
3.150000	-11.811985	40.598290	-0.492073	-157.571787	-0.492073	-157.571787	-11.977194	-177.294660
3.200000	-11.661858	37.408480	-0.506946	-160.109409	-0.506946	-160.109409	-11.827274	-179.144587
3.250000	-11.515021	34.250809	-0.522019	-162.647797	-0.522019	-162.647797	-11.680661	178.972212
3.300000	-11.371545	31.125458	-0.537275	-165.186910	-0.537275	-165.186910	-11.537427	177.055703
3.350000	-11.231500	28.032563	-0.552692	-167.726712	-0.552692	-167.726712	-11.397641	175.105876
3.400000	-11.094949	24.972220	-0.568248	-170.267179	-0.568248	-170.267179	-11.261362	173.122742
3.450000	-10.961955	21.944487	-0.583921	-172.808293	-0.583921	-172.808293	-11.128649	171.106322
3.500000	-10.832573	18.949390	-0.599686	-175.350048	-0.599686	-175.350048	-10.999551	169.056647
3.550000	-10.706856	15.986921	-0.615518	-177.892451	-0.615518	-177.892451	-10.874117	166.973749
3.600000	-10.584853	13.057047	-0.631389	179.564482	-0.631389	179.564482	-10.752388	164.857660
3.650000	-10.466607	10.159712	-0.647272	177.020721	-0.647272	177.020721	-10.634400	162.708404
3.700000	-10.352159	7.294835	-0.663138	174.476223	-0.663138	174.476223	-10.520188	160.525999
3.750000	-10.241543	4.462319	-0.678957	171.930932	-0.678957	171.930932	-10.409781	158.310448
3.800000	-10.134849	1.662750	-0.694698	169.384756	-0.694698	169.384756	-10.303260	156.061021
3.850000	-10.032051	-1.104705	-0.710331	166.837626	-0.710331	166.837626	-10.200596	153.778409
3.900000	-9.933172	-3.840182	-0.725826	164.289440	-0.725826	164.289440	-10.101807	151.462562
3.950000	-9.838232	-6.543828	-0.741152	161.740082	-0.741152	161.740082	-10.006909	149.113409
4.000000	-9.747247	-9.215795	-0.756277	159.189420	-0.756277	159.189420	-9.915915	146.730854
4.050000	-9.660228	-11.856237	-0.771173	156.637306	-0.771173	156.637306	-9.828834	144.314775
4.100000	-9.577186	-14.465311	-0.785808	154.083579	-0.785808	154.083579	-9.745677	141.865021
4.150000	-9.498128	-17.043172	-0.800153	151.528059	-0.800153	151.528059	-9.666447	139.381414
4.200000	-9.423057	-19.589971	-0.814178	148.970553	-0.814178	148.970553	-9.591151	136.863741
4.250000	-9.351977	-22.105857	-0.827854	146.410851	-0.827854	146.410851	-9.519792	134.311757
4.300000	-9.284888	-24.590966	-0.841155	143.848730	-0.841155	143.848730	-9.452371	131.725181
4.350000	-9.221788	-27.045429	-0.854054	141.283948	-0.854054	141.283948	-9.388889	129.103697
4.400000	-9.162714	-29.469032	-0.866519	138.716218	-0.866519	138.716218	-9.329386	126.446560
4.450000	-9.107662	-31.861878	-0.878525	136.145260	-0.878525	136.145260	-9.273862	123.753358
4.500000	-9.056588	-34.224384	-0.890054	133.570821	-0.890054	133.570821	-9.222279	121.024030
4.550000	-9.009485	-36.556613	-0.901084	130.992600	-0.901084	130.992600	-9.174636	118.258088
4.600000	-8.966346	-38.858605	-0.911595	128.410285	-0.911595	128.410285	-9.130931	115.454995
4.650000	-8.927162	-41.130374	-0.921568	125.823549	-0.921568	125.823549	-9.091165	112.614164
4.700000	-8.891923	-43.371906	-0.930986	123.232049	-0.930986	123.232049	-9.055336	109.734955
4.750000	-8.860621	-45.583155	-0.939833	120.635431	-0.939833	120.635431	-9.023444	106.816673
4.800000	-8.833245	-47.764040	-0.948097	118.033328	-0.948097	118.033328	-8.995492	103.858563
4.850000	-8.809783	-49.914438	-0.955765	115.425357	-0.955765	115.425357	-8.971480	100.859808
4.900000	-8.790224	-52.034185	-0.962829	112.811126	-0.962829	112.811126	-8.951413	97.819524
4.950000	-8.774555	-54.123070	-0.969280	110.190225	-0.969280	110.190225	-8.935293	94.736758
5.000000	-8.762760	-56.180829	-0.975114	107.562237	-0.975114	107.562237	-8.923125	91.610480
5.050000	-8.754907	-58.206449	-0.980314	104.926554	-0.980314	104.926554	-8.915003	88.438584
5.100000	-8.750895	-60.200221	-0.984892	102.282884	-0.984892	102.282884	-8.910846	85.220814
5.150000	-8.750701	-62.161692	-0.988852	99.630768	-0.988852	99.630768	-8.910663	81.955878
5.200000	-8.754301	-64.090336	-0.992197	96.969735	-0.992197	96.969735	-8.914460	78.642384
5.250000	-8.761666	-65.985549	-0.994935	94.299301	-0.994935	94.299301	-8.922247	75.278835
5.300000	-8.772761	-67.846641	-0.997075	91.618970	-0.997075	91.618970	-8.934030	71.863620
5.350000	-8.787546	-69.672834	-0.998631	88.928232	-0.998631	88.928232	-8.949816	68.395006
5.400000	-8.805973	-71.463252	-0.999618	86.226565	-0.999618	86.226565	-8.969608	64.871126
5.450000	-8.827982	-73.216915	-1.000057	83.513435	-1.000057	83.513435	-8.993408	61.289975
5.500000	-8.853505	-74.932735	-0.999968	80.788294	-0.999968	80.788294	-9.021214	57.649393
5.550000	-8.882457	-76.609510	-0.999378	78.050581	-0.999378	78.050581	-9.053015	53.947057
5.600000	-8.914740	-78.245919	-0.998318	75.299723	-0.998318	75.299723	-9.088794	50.180468
5.650000	-8.950264	-79.840042	-0.996815	72.534977	-0.996815	72.534977	-9.128565	46.346179
5.700000	-8.988882	-81.390249	-0.994909	69.755722	-0.994909	69.755722	-9.172282	42.441196
5.750000	-9.030389	-82.895286	-0.992648	66.961495	-0.992648	66.961495	-9.219845	38.463129
5.800000	-9.074583	-84.353319	-0.990078	64.151668	-0.990078	64.151668	-9.271173	34.408636
5.850000	-9.121223	-85.762392	-0.987252	61.325604	-0.987252	61.325604	-9.326158	30.274137
5.900000	-9.170029	-87.120441	-0.984226	58.482651	-0.984226	58.482651	-9.384660	26.055805
5.950000	-9.220670	-88.425304	-0.981064	55.622146	-0.981064	55.622146	-9.446499	21.749564
6.000000	-9.272761	-89.674747	-0.977834	52.743417	-0.977834	52.743417	-9.511450	17.351083
6.050000	-9.325854	-90.867802	-0.974610	49.846207	-0.974610	49.846207	-9.579188	12.858004
6.100000	-9.379447	-91.999278	-0.971477	46.928872	-0.971477	46.928872	-9.649462	8.260608
6.150000	-9.432926	-93.068515	-0.968523	43.991227	-0.968523	43.991227	-9.721781	3.556505
6.200000	-9.485614	-94.073398	-0.965846	41.032564	-0.965846	41.032564	-9.795621	-1.259500
6.250000	-9.536738	-95.012008	-0.963550	38.052173	-0.963550	38.052173	-9.870355	-6.192716
6.300000	-9.585392	-95.881972	-0.961757	35.049087	-0.961757	35.049087	-9.945216	-11.249876
6.350000	-9.630626	-96.682822	-0.960585	32.022830	-0.960585	32.022830	-10.019312	-16.434966
6.400000	-9.671367	-97.413926	-0.960167	28.972695	-0.960167	28.972695	-10.091599	-21.753019
6.450000	-9.706446	-98.075358	-0.960646	25.897980	-0.960646	25.897980	-10.160871	-27.208662
6.500000	-9.734602	-98.668068	-0.962176	22.797999	-0.962176	22.797999	-10.225747	-32.805895
6.550000	-9.754499	-99.194047	-0.964922	19.672081	-0.964922	19.672081	-10.284668	-38.547829
6.600000	-9.764653	-99.656021	-0.969072	16.519356	-0.969072	16.519356	-10.335820	-44.437579
6.650000	-9.763674	-100.059008	-0.974812	13.339342	-0.974812	13.339342	-10.377323	-50.474703
6.700000	-9.750164	-100.409292	-0.982340	10.131516	-0.982340	10.131516	-10.407159	-56.657300
6.750000	-9.722790	-100.714659	-0.991865	6.895399	-0.991865	6.895399	-10.423237	-62.981287
6.800000	-9.680220	-100.984316	-1.003624	3.630393	-1.003624	3.630393	-10.423335	-69.440814
6.850000	-9.621295	-101.229176	-1.017863	0.336013	-1.017863	0.336013	-10.405298	-76.026918
6.900000	-9.545259	-101.461755	-1.034812	-2.987816	-1.034812	-2.987816	-10.367327	-82.726385
6.950000	-9.451132	-101.695589	-1.054785	-6.341863	-1.054785	-6.341863	-10.307321	-89.525948
7.000000	-9.338999	-101.944901	-1.077988	-9.725580	-1.077988	-9.725580	-10.224433	-96.405864
7.050000	-9.208177	-102.225490	-1.104817	-13.139986	-1.104817	-13.139986	-10.116914	-103.348445
7.100000	-9.059644	-102.551134	-1.135449	-16.583985	-1.135449	-16.583985	-9.985192	-110.330459
7.150000	-8.893319	-102.938402	-1.170328	-20.058430	-1.170328	-20.058430	-9.828449	-117.330599
7.200000	-8.710735	-103.399309	-1.209648	-23.562109	-1.209648	-23.562109	-9.648149	-124.326247
7.250000	-8.512653	-103.948498	-1.253837	-27.095228	-1.253837	-27.095228	-9.444871	-131.295587
7.300000	-8.300821	-104.595972	-1.303153	-30.656720	-1.303153	-30.656720	-9.220703	-138.219067
7.350000	-8.076728	-105.352266	-1.357967	-34.246022	-1.357967	-34.246022	-8.977513	-145.078328
7.400000	-7.842164	-106.225256	-1.418610	-37.862152	-1.418610	-37.862152	-8.717699	-151.857874
7.450000	-7.599083	-107.220205	-1.485372	-41.503795	-1.485372	-41.503795	-8.443982	-158.545473
7.500000	-7.349167	-108.343141	-1.558657	-45.169974	-1.558657	-45.169974	-8.158734	-165.129565
7.550000	-7.094551	-109.593852	-1.638650	-48.858690	-1.638650	-48.858690	-7.865026	-171.604823
7.600000	-6.836717	-110.977034	-1.725828	-52.568891	-1.725828	-52.568891	-7.564954	-177.962656
7.650000	-6.577709	-112.487877	-1.820264	-56.298056	-1.820264	-56.298056	-7.261475	175.796355
7.700000	-6.318841	-114.129269	-1.922452	-60.044826	-1.922452	-60.044826	-6.956398	169.678149
7.750000	-6.061815	-115.894323	-2.032418	-63.806515	-2.032418	-63.806515	-6.652155	163.679146
7.800000	-5.807828	-117.782636	-2.150549	-67.581214	-2.150549	-67.581214	-6.350348	157.801796
7.850000	-5.558144	-119.787804	-2.276913	-71.366328	-2.276913	-71.366328	-6.052728	152.042592
7.900000	-5.313778	-121.906349	-2.411740	-75.159506	-2.411740	-75.159506	-5.760623	146.400969
7.950000	-5.075637	-124.132810	-2.555139	-78.958207	-2.555139	-78.958207	-5.475231	140.874391
8.000000	-4.844478	-126.461475	-2.707180	-82.759882	-2.707180	-82.759882	-5.197535	135.460103
8.050000	-4.620944	-128.888060	-2.867997	-86.562004	-2.867997	-86.562004	-4.928326	130.157006
8.100000	-4.405494	-131.405394	-3.037517	-90.362093	-3.037517	-90.362093	-4.668216	124.960712
8.150000	-4.198590	-134.010446	-3.215883	-94.157606	-3.215883	-94.157606	-4.417724	119.871716
8.200000	-4.000389	-136.695342	-3.402909	-97.946376	-3.402909	-97.946376	-4.177102	114.884457
8.250000	-3.811227	-139.457982	-3.598714	-101.725855	-3.598714	-101.725855	-3.946691	110.000596
8.300000	-3.631022	-142.290988	-3.803072	-105.494290	-3.803072	-105.494290	-3.726458	105.214542
8.350000	-3.459926	-145.191889	-4.015997	-109.249396	-4.015997	-109.249396	-3.516546	100.527140
8.400000	-3.297760	-148.155195	-4.237312	-112.989687	-4.237312	-112.989687	-3.316785	95.934513
8.450000	-3.144476	-151.177948	-4.466936	-116.713374	-4.466936	-116.713374	-3.127115	91.436123
8.500000	-2.999859	-154.256349	-4.704731	-120.419169	-4.704731	-120.419169	-2.947310	87.029623
8.550000	-2.863679	-157.387238	-4.950568	-124.105921	-4.950568	-124.105921	-2.777125	82.713134
8.600000	-2.735730	-160.568306	-5.204335	-127.772480	-5.204335	-127.772480	-2.616337	78.485670
8.650000	-2.615624	-163.796362	-5.465911	-131.418406	-5.465911	-131.418406	-2.464541	74.344061
8.700000	-2.503190	-167.070397	-5.735192	-135.042633	-5.735192	-135.042633	-2.321556	70.288526
8.750000	-2.397917	-170.387257	-6.012122	-138.645444	-6.012122	-138.645444	-2.186846	66.314671
8.800000	-2.299812	-173.747995	-6.296548	-142.225300	-6.296548	-142.225300	-2.060426	62.425595
8.850000	-2.208137	-177.148488	-6.588544	-145.783674	-6.588544	-145.783674	-1.941523	58.613861
8.900000	-2.122560	179.412200	-6.888157	-149.320671	-6.888157	-149.320671	-1.829787	54.877714
8.950000	-2.042894	175.933718	-7.195364	-152.835874	-7.195364	-152.835874	-1.725036	51.217538
9.000000	-1.968941	172.415544	-7.510113	-156.328961	-7.510113	-156.328961	-1.627085	47.633608
9.050000	-1.900070	168.860563	-7.832759	-159.801669	-7.832759	-159.801669	-1.535259	44.119419
9.100000	-1.835975	165.269181	-8.163518	-163.254437	-8.163518	-163.254437	-1.449245	40.673114
9.150000	-1.776591	161.639595	-8.502364	-166.686586	-8.502364	-166.686586	-1.369013	37.296670
9.200000	-1.721493	157.973169	-8.849708	-170.099175	-8.849708	-170.099175	-1.294117	33.986096
9.250000	-1.670279	154.271421	-9.206101	-173.493253	-9.206101	-173.493253	-1.224130	30.737330
9.300000	-1.622698	150.534717	-9.572013	-176.869156	-9.572013	-176.869156	-1.158796	27.548477
9.350000	-1.578774	146.760414	-9.947443	179.774508	-9.947443	179.774508	-1.098211	24.422678
9.400000	-1.537985	142.952140	-10.333508	176.436123	-10.333508	176.436123	-1.041786	21.352743
9.450000	-1.500084	139.111077	-10.731040	173.115595	-10.731040	173.115595	-0.989257	18.335963
9.500000	-1.465034	135.235978	-11.140443	169.814608	-11.140443	169.814608	-0.940649	15.373737
9.550000	-1.432570	131.328817	-11.562817	166.533581	-11.562817	166.533581	-0.895675	12.462593
9.600000	-1.402527	127.390725	-11.999173	163.274031	-11.999173	163.274031	-0.854180	9.600785
9.650000	-1.374751	123.423100	-12.450655	160.038137	-12.450655	160.038137	-0.816024	6.786554
9.700000	-1.349074	119.427999	-12.918661	156.828480	-12.918661	156.828480	-0.781039	4.017507
9.750000	-1.325364	115.407443	-13.404684	153.648766	-13.404684	153.648766	-0.749107	1.291759
9.800000	-1.303501	111.363717	-13.910397	150.503819	-13.910397	150.503819	-0.720124	-1.392544
9.850000	-1.283379	107.299379	-14.437673	147.399834	-14.437673	147.399834	-0.694003	-4.037217
9.900000	-1.264900	103.217251	-14.988606	144.344697	-14.988606	144.344697	-0.670673	-6.644037
9.950000	-1.247978	99.120417	-15.565539	141.348382	-15.565539	141.348382	-0.650078	-9.214740
10.000000	-1.232537	95.012207	-16.171092	138.423467	-16.171092	138.423467	-0.632179	-11.751020
