! freq	dB(S11)	phase(S11)	dB(S12)	phase(S12)	
!     	dB(S21)	phase(S21)	dB(S22)	phase(S22)	
!S-par simulation data
#  GHz  S  DB  R 50
0.000000	0.000000	0.000000	-259.842420	180.000000	-259.842420	180.000000	-0.000000	0.000000
0.050000	-0.004430	-5.995528	-65.296672	86.146523	-65.296672	86.146523	-0.001215	-1.643041
0.100000	-0.014037	-11.938220	-59.310125	82.328300	-59.310125	82.328300	-0.003789	-3.275874
0.150000	-0.023933	-17.814366	-55.841096	78.561549	-55.841096	78.561549	-0.006413	-4.899699
0.200000	-0.032530	-23.625924	-53.410011	74.845754	-53.410011	74.845754	-0.008748	-6.518845
0.250000	-0.039962	-29.368144	-51.553484	71.178681	-51.553484	71.178681	-0.010871	-8.135467
0.300000	-0.046641	-35.032102	-50.064908	67.559994	-50.064908	67.559994	-0.012893	-9.750300
0.350000	-0.052852	-40.607451	-48.833958	63.991869	-48.833958	63.991869	-0.014886	-11.363461
0.400000	-0.058738	-46.084291	-47.794540	60.477860	-47.794540	60.477860	-0.016882	-12.974870
0.450000	-0.064346	-51.452410	-46.904254	57.022756	-46.904254	57.022756	-0.018896	-14.584360
0.500000	-0.069680	-56.706634	-46.132712	53.629253	-46.132712	53.629253	-0.020930	-16.191820
0.550000	-0.074719	-61.840989	-45.458678	50.300829	-45.458678	50.300829	-0.022982	-17.797092
0.600000	-0.079437	-66.851511	-44.866074	47.040062	-44.866074	47.040062	-0.025047	-19.400028
0.650000	-0.083812	-71.734962	-44.342634	43.849241	-44.342634	43.849241	-0.027120	-21.000457
0.700000	-0.087831	-76.490082	-43.878463	40.729630	-43.878463	40.729630	-0.029196	-22.598218
0.750000	-0.091488	-81.115743	-43.465773	37.682457	-43.465773	37.682457	-0.031270	-24.193116
0.800000	-0.094796	-85.615634	-43.097373	34.706255	-43.097373	34.706255	-0.033337	-25.785041
0.850000	-0.097765	-89.990446	-42.768024	31.801233	-42.768024	31.801233	-0.035394	-27.373794
0.900000	-0.100412	-94.242600	-42.473102	28.966626	-42.473102	28.966626	-0.037437	-28.959197
0.950000	-0.102760	-98.375076	-42.208665	26.201343	-42.208665	26.201343	-0.039463	-30.541072
1.000000	-0.104834	-102.391297	-41.971323	23.504039	-41.971323	23.504039	-0.041470	-32.119243
1.050000	-0.106660	-106.295021	-41.758142	20.873163	-41.758142	20.873163	-0.043458	-33.693539
1.100000	-0.108265	-110.090253	-41.566564	18.307018	-41.566564	18.307018	-0.045424	-35.263793
1.150000	-0.109674	-113.781165	-41.394352	15.803802	-41.394352	15.803802	-0.047370	-36.829848
1.200000	-0.110912	-117.372028	-41.239534	13.361646	-41.239534	13.361646	-0.049294	-38.391550
1.250000	-0.112004	-120.867157	-41.100369	10.978649	-41.100369	10.978649	-0.051199	-39.948760
1.300000	-0.112968	-124.268976	-40.975550	8.654103	-40.975550	8.654103	-0.053084	-41.501240
1.350000	-0.113828	-127.583834	-40.863420	6.384828	-40.863420	6.384828	-0.054950	-43.048964
1.400000	-0.114601	-130.815925	-40.762751	4.168963	-40.762751	4.168963	-0.056800	-44.591821
1.450000	-0.115305	-133.969346	-40.672442	2.004692	-40.672442	2.004692	-0.058635	-46.129705
1.500000	-0.115954	-137.048080	-40.591499	-0.109751	-40.591499	-0.109751	-0.060456	-47.662522
1.550000	-0.116561	-140.055988	-40.519024	-2.176073	-40.519024	-2.176073	-0.062263	-49.190184
1.600000	-0.117138	-142.996791	-40.454203	-4.195922	-40.454203	-4.195922	-0.064060	-50.712614
1.650000	-0.117694	-145.874074	-40.396290	-6.170886	-40.396290	-6.170886	-0.065846	-52.229739
1.700000	-0.118239	-148.691277	-40.344606	-8.102492	-40.344606	-8.102492	-0.067623	-53.741496
1.750000	-0.118780	-151.451698	-40.298523	-9.992214	-40.298523	-9.992214	-0.069392	-55.247828
1.800000	-0.119325	-154.158490	-40.257463	-11.841472	-40.257463	-11.841472	-0.071153	-56.748683
1.850000	-0.119879	-156.814668	-40.220890	-13.651640	-40.220890	-13.651640	-0.072908	-58.244018
1.900000	-0.120448	-159.422620	-40.188342	-15.423654	-40.188342	-15.423654	-0.074656	-59.733730
1.950000	-0.121036	-161.985179	-40.159338	-17.158856	-40.159338	-17.158856	-0.076400	-61.217785
2.000000	-0.121647	-164.505468	-40.133400	-18.858924	-40.133400	-18.858924	-0.078138	-62.696215
2.050000	-0.122285	-166.985972	-40.110117	-20.525108	-40.110117	-20.525108	-0.079873	-64.168996
2.100000	-0.122952	-169.429053	-40.089101	-22.158642	-40.089101	-22.158642	-0.081604	-65.636107
2.150000	-0.123651	-171.836965	-40.069983	-23.760757	-40.069983	-23.760757	-0.083332	-67.097535
2.200000	-0.124384	-174.211852	-40.052414	-25.332683	-40.052414	-25.332683	-0.085058	-68.553266
2.250000	-0.125153	-176.555757	-40.036062	-26.875658	-40.036062	-26.875658	-0.086781	-70.003296
2.300000	-0.125961	-178.869473	-40.020632	-28.389806	-40.020632	-28.389806	-0.088503	-71.447373
2.350000	-0.126806	178.842491	-40.005766	-29.878982	-40.005766	-29.878982	-0.090225	-72.886056
2.400000	-0.127691	176.579909	-39.991220	-31.342997	-39.991220	-31.342997	-0.091946	-74.319039
2.450000	-0.128617	174.341093	-39.976720	-32.783175	-39.976720	-32.783175	-0.093668	-75.746331
2.500000	-0.129586	172.124430	-39.962005	-34.200873	-39.962005	-34.200873	-0.095390	-77.167943
2.550000	-0.130600	169.929208	-39.946799	-35.596631	-39.946799	-35.596631	-0.097114	-78.583646
2.600000	-0.131657	167.753004	-39.930882	-36.972862	-39.930882	-36.972862	-0.098841	-79.993705
2.650000	-0.132760	165.594422	-39.914036	-38.331038	-39.914036	-38.331038	-0.100571	-81.398144
2.700000	-0.133908	163.452125	-39.896061	-39.672667	-39.896061	-39.672667	-0.102305	-82.796987
2.750000	-0.135103	161.324834	-39.876768	-40.999298	-39.876768	-40.999298	-0.104044	-84.190264
2.800000	-0.136344	159.211323	-39.855986	-42.312511	-39.855986	-42.312511	-0.105788	-85.578007
2.850000	-0.137633	157.110416	-39.833557	-43.613920	-39.833557	-43.613920	-0.107539	-86.960251
2.900000	-0.138969	155.020986	-39.809342	-44.905167	-39.809342	-44.905167	-0.109297	-88.337034
2.950000	-0.140355	152.941948	-39.783214	-46.187915	-39.783214	-46.187915	-0.111063	-89.708397
3.000000	-0.141790	150.872261	-39.755065	-47.463848	-39.755065	-47.463848	-0.112838	-91.074384
3.050000	-0.143275	148.810921	-39.724803	-48.734659	-39.724803	-48.734659	-0.114622	-92.435041
3.100000	-0.144810	146.756964	-39.692351	-50.002049	-39.692351	-50.002049	-0.116418	-93.790417
3.150000	-0.146397	144.709458	-39.657650	-51.267717	-39.657650	-51.267717	-0.118225	-95.140564
3.200000	-0.148037	142.667505	-39.620655	-52.533353	-39.620655	-52.533353	-0.120045	-96.485537
3.250000	-0.149729	140.630238	-39.581340	-53.800634	-39.581340	-53.800634	-0.121878	-97.825392
3.300000	-0.151476	138.596819	-39.539692	-55.071211	-39.539692	-55.071211	-0.123726	-99.160189
3.350000	-0.153277	136.566435	-39.495713	-56.346711	-39.495713	-56.346711	-0.125588	-100.489988
3.400000	-0.155134	134.538302	-39.449418	-57.628723	-39.449418	-57.628723	-0.127467	-101.814855
3.450000	-0.157049	132.511658	-39.400838	-58.918794	-39.400838	-58.918794	-0.129363	-103.134853
3.500000	-0.159022	130.485764	-39.350015	-60.218428	-39.350015	-60.218428	-0.131277	-104.450052
3.550000	-0.161054	128.459903	-39.297001	-61.529074	-39.297001	-61.529074	-0.133209	-105.760522
3.600000	-0.163147	126.433376	-39.241860	-62.852127	-39.241860	-62.852127	-0.135161	-107.066335
3.650000	-0.165303	124.405505	-39.184665	-64.188922	-39.184665	-64.188922	-0.137133	-108.367564
3.700000	-0.167522	122.375629	-39.125497	-65.540733	-39.125497	-65.540733	-0.139127	-109.664285
3.750000	-0.169806	120.343104	-39.064443	-66.908771	-39.064443	-66.908771	-0.141142	-110.956576
3.800000	-0.172161	118.307129	-39.001504	-68.294986	-39.001504	-68.294986	-0.143181	-112.244331
3.850000	-0.174586	116.267206	-38.936880	-69.699744	-38.936880	-69.699744	-0.145244	-113.527823
3.900000	-0.177082	114.222739	-38.870671	-71.124049	-38.870671	-71.124049	-0.147331	-114.807135
3.950000	-0.179651	112.173141	-38.802985	-72.568841	-38.802985	-72.568841	-0.149443	-116.082351
4.000000	-0.182296	110.117837	-38.733926	-74.034998	-38.733926	-74.034998	-0.151580	-117.353557
4.050000	-0.185020	108.056267	-38.663603	-75.523337	-38.663603	-75.523337	-0.153744	-118.620840
4.100000	-0.187825	105.987877	-38.592120	-77.034613	-38.592120	-77.034613	-0.155935	-119.884287
4.150000	-0.190715	103.912125	-38.519584	-78.569529	-38.519584	-78.569529	-0.158154	-121.143990
4.200000	-0.193691	101.828478	-38.446097	-80.128731	-38.446097	-80.128731	-0.160401	-122.400038
4.250000	-0.196757	99.736412	-38.371760	-81.712817	-38.371760	-81.712817	-0.162676	-123.652524
4.300000	-0.199918	97.635410	-38.296670	-83.322334	-38.296670	-83.322334	-0.164981	-124.901540
4.350000	-0.203176	95.524961	-38.220920	-84.957789	-38.220920	-84.957789	-0.167316	-126.147182
4.400000	-0.206535	93.404564	-38.144598	-86.619645	-38.144598	-86.619645	-0.169681	-127.389543
4.450000	-0.210001	91.273720	-38.067789	-88.308327	-38.067789	-88.308327	-0.172077	-128.628721
4.500000	-0.213576	89.131939	-37.990572	-90.024227	-37.990572	-90.024227	-0.174505	-129.864812
4.550000	-0.217266	86.978733	-37.913020	-91.767703	-37.913020	-91.767703	-0.176964	-131.097914
4.600000	-0.221077	84.813621	-37.835200	-93.539085	-37.835200	-93.539085	-0.179456	-132.328127
4.650000	-0.225012	82.636124	-37.757174	-95.338675	-37.757174	-95.338675	-0.181980	-133.555550
4.700000	-0.229079	80.445765	-37.678998	-97.166752	-37.678998	-97.166752	-0.184537	-134.780283
4.750000	-0.233282	78.242073	-37.600721	-99.023574	-37.600721	-99.023574	-0.187127	-136.002427
4.800000	-0.237629	76.024575	-37.522385	-100.909375	-37.522385	-100.909375	-0.189751	-137.222085
4.850000	-0.242126	73.792803	-37.444027	-102.824374	-37.444027	-102.824374	-0.192409	-138.439359
4.900000	-0.246780	71.546286	-37.365677	-104.768771	-37.365677	-104.768771	-0.195101	-139.654351
4.950000	-0.251599	69.284556	-37.287358	-106.742752	-37.287358	-106.742752	-0.197828	-140.867166
5.000000	-0.256591	67.007142	-37.209088	-108.746488	-37.209088	-108.746488	-0.200589	-142.077908
5.050000	-0.261772	64.712847	-37.130847	-110.781441	-37.130847	-110.781441	-0.203387	-143.286601
5.100000	-0.267145	62.401881	-37.052668	-112.846459	-37.052668	-112.846459	-0.206220	-144.493440
5.150000	-0.272718	60.073764	-36.974547	-114.941671	-36.974547	-114.941671	-0.209088	-145.698531
5.200000	-0.278501	57.728015	-36.896474	-117.067192	-36.896474	-117.067192	-0.211992	-146.901980
5.250000	-0.284506	55.364148	-36.818433	-119.223124	-36.818433	-119.223124	-0.214931	-148.103894
5.300000	-0.290743	52.981670	-36.740403	-121.409557	-36.740403	-121.409557	-0.217906	-149.304380
5.350000	-0.297224	50.580080	-36.662354	-123.626567	-36.662354	-123.626567	-0.220917	-150.503544
5.400000	-0.303961	48.158871	-36.584252	-125.874217	-36.584252	-125.874217	-0.223963	-151.701495
5.450000	-0.310968	45.717525	-36.506059	-128.152555	-36.506059	-128.152555	-0.227046	-152.898339
5.500000	-0.318257	43.255514	-36.427729	-130.461615	-36.427729	-130.461615	-0.230164	-154.094186
5.550000	-0.325844	40.772296	-36.349211	-132.801415	-36.349211	-132.801415	-0.233318	-155.289143
5.600000	-0.333743	38.267320	-36.270452	-135.171957	-36.270452	-135.171957	-0.236508	-156.483319
5.650000	-0.341971	35.740015	-36.191390	-137.573229	-36.191390	-137.573229	-0.239733	-157.676823
5.700000	-0.350542	33.189797	-36.111962	-140.005200	-36.111962	-140.005200	-0.242994	-158.869762
5.750000	-0.359475	30.616062	-36.032100	-142.467822	-36.032100	-142.467822	-0.246291	-160.062247
5.800000	-0.368789	28.018186	-35.951732	-144.961031	-35.951732	-144.961031	-0.249624	-161.254386
5.850000	-0.378465	25.397748	-35.870908	-147.482102	-35.870908	-147.482102	-0.252989	-162.446298
5.900000	-0.388598	22.749405	-35.789291	-150.036561	-35.789291	-150.036561	-0.256392	-163.638062
5.950000	-0.399170	20.074894	-35.706931	-152.621306	-35.706931	-152.621306	-0.259831	-164.829811
6.000000	-0.410203	17.373489	-35.623746	-155.236204	-35.623746	-155.236204	-0.263304	-166.021653
6.050000	-0.421718	14.644431	-35.539651	-157.881105	-35.539651	-157.881105	-0.266812	-167.213697
6.100000	-0.433740	11.886930	-35.454558	-160.555842	-35.454558	-160.555842	-0.270355	-168.406053
6.150000	-0.446292	9.100157	-35.368382	-163.260235	-35.368382	-163.260235	-0.273932	-169.598828
6.200000	-0.459398	6.283244	-35.281034	-165.994091	-35.281034	-165.994091	-0.277542	-170.792133
6.250000	-0.473085	3.435280	-35.192426	-168.757203	-35.192426	-168.757203	-0.281187	-171.986076
6.300000	-0.487392	0.554589	-35.102419	-171.549982	-35.102419	-171.549982	-0.284865	-173.180784
6.350000	-0.502335	-2.359163	-35.010972	-174.371564	-35.010972	-174.371564	-0.288576	-174.376351
6.400000	-0.517941	-5.307038	-34.917999	-177.221714	-34.917999	-177.221714	-0.292321	-175.572886
6.450000	-0.534239	-8.290157	-34.823416	179.899807	-34.823416	179.899807	-0.296097	-176.770496
6.500000	-0.551260	-11.309697	-34.727139	176.993247	-34.727139	176.993247	-0.299905	-177.969290
6.550000	-0.569032	-14.366903	-34.629089	174.058857	-34.629089	174.058857	-0.303745	-179.169374
6.600000	-0.587586	-17.463086	-34.529188	171.096890	-34.529188	171.096890	-0.307615	179.629146
6.650000	-0.606953	-20.599628	-34.427360	168.107602	-34.427360	168.107602	-0.311517	178.426161
6.700000	-0.627153	-23.777438	-34.323577	165.091590	-34.323577	165.091590	-0.315448	177.221590
6.750000	-0.648243	-26.999460	-34.217663	162.048249	-34.217663	162.048249	-0.319409	176.015270
6.800000	-0.670229	-30.266017	-34.109655	158.978638	-34.109655	158.978638	-0.323400	174.807148
6.850000	-0.693172	-33.580455	-33.999370	155.882118	-33.999370	155.882118	-0.327419	173.597053
6.900000	-0.717057	-36.942305	-33.886928	152.760209	-33.886928	152.760209	-0.331466	172.384974
6.950000	-0.741954	-40.355767	-33.772111	149.611989	-33.772111	149.611989	-0.335541	171.170713
7.000000	-0.767911	-43.824148	-33.654788	146.437228	-33.654788	146.437228	-0.339645	169.954109
7.050000	-0.794809	-47.341536	-33.535511	143.239908	-33.535511	143.239908	-0.343772	168.735404
7.100000	-0.822851	-50.920653	-33.413498	140.015606	-33.413498	140.015606	-0.347926	167.514047
7.150000	-0.851887	-54.553864	-33.289441	136.768844	-33.289441	136.768844	-0.352104	166.290365
7.200000	-0.882071	-58.252397	-33.162727	133.496404	-33.162727	133.496404	-0.356308	165.063878
7.250000	-0.913332	-62.013986	-33.033698	130.200565	-33.033698	130.200565	-0.360536	163.834694
7.300000	-0.945684	-65.842248	-32.902313	126.881320	-32.902313	126.881320	-0.364786	162.602671
7.350000	-0.979128	-69.740665	-32.768569	123.538853	-32.768569	123.538853	-0.369058	161.367682
7.400000	-1.013610	-73.709412	-32.632682	120.174420	-32.632682	120.174420	-0.373352	160.129739
7.450000	-1.049153	-77.755659	-32.494479	116.787214	-32.494479	116.787214	-0.377668	158.888568
7.500000	-1.085662	-81.878074	-32.354303	113.378985	-32.354303	113.378985	-0.382002	157.644254
7.550000	-1.123102	-86.081759	-32.212153	109.949672	-32.212153	109.949672	-0.386356	156.396613
7.600000	-1.161395	-90.369610	-32.068184	106.499912	-32.068184	106.499912	-0.390729	155.145561
7.650000	-1.200431	-94.742212	-31.922667	103.030853	-31.922667	103.030853	-0.395118	153.891101
7.700000	-1.240116	-99.207180	-31.775591	99.542162	-31.775591	99.542162	-0.399524	152.632957
7.750000	-1.280286	-103.762092	-31.627395	96.035651	-31.627395	96.035651	-0.403946	151.371251
7.800000	-1.320783	-108.412918	-31.478191	92.511434	-31.478191	92.511434	-0.408382	150.105767
7.850000	-1.361405	-113.160823	-31.328303	88.970603	-31.328303	88.970603	-0.412831	148.836471
7.900000	-1.401936	-118.006427	-31.178070	85.414273	-31.178070	85.414273	-0.417292	147.563345
7.950000	-1.442093	-122.955668	-31.027707	81.842812	-31.027707	81.842812	-0.421765	146.286147
8.000000	-1.481620	-128.004635	-30.877693	78.258005	-30.877693	78.258005	-0.426247	145.005008
8.050000	-1.520159	-133.158479	-30.728310	74.660416	-30.728310	74.660416	-0.430738	143.719685
8.100000	-1.557381	-138.414765	-30.580005	71.051602	-30.580005	71.051602	-0.435235	142.430211
8.150000	-1.592923	-143.772687	-30.433184	67.432879	-30.433184	67.432879	-0.439737	141.136532
8.200000	-1.626313	-149.233853	-30.288264	63.805444	-30.288264	63.805444	-0.444242	139.838456
8.250000	-1.657246	-154.791456	-30.145699	60.171192	-30.145699	60.171192	-0.448747	138.536119
8.300000	-1.685159	-160.446956	-30.005952	56.531504	-30.005952	56.531504	-0.453250	137.229246
8.350000	-1.709738	-166.192453	-29.869463	52.888397	-29.869463	52.888397	-0.457747	135.917941
8.400000	-1.730548	-172.023489	-29.736684	49.243743	-29.736684	49.243743	-0.462236	134.602105
8.450000	-1.747124	-177.934789	-29.608118	45.599681	-29.608118	45.599681	-0.466711	133.281592
8.500000	-1.759301	176.084179	-29.484097	41.958339	-29.484097	41.958339	-0.471169	131.956520
8.550000	-1.766585	170.039220	-29.365178	38.322254	-29.365178	38.322254	-0.475606	130.626613
8.600000	-1.768838	163.941472	-29.251719	34.693895	-29.251719	34.693895	-0.480016	129.291873
8.650000	-1.765971	157.801995	-29.144052	31.075777	-29.144052	31.075777	-0.484400	127.952257
8.700000	-1.757808	151.631397	-29.042641	27.470941	-29.042641	27.470941	-0.488756	126.607544
8.750000	-1.744548	145.442356	-28.947641	23.881779	-28.947641	23.881779	-0.493093	125.257786
8.800000	-1.726132	139.246764	-28.859549	20.311901	-28.859549	20.311901	-0.497420	123.902700
8.850000	-1.702981	133.057121	-28.778374	16.763524	-28.778374	16.763524	-0.501756	122.542440
8.900000	-1.675268	126.886071	-28.704504	13.240364	-28.704504	13.240364	-0.506119	121.176858
8.950000	-1.643494	120.745083	-28.637929	9.744818	-28.637929	9.744818	-0.510522	119.806152
9.000000	-1.608056	114.646168	-28.578857	6.280320	-28.578857	6.280320	-0.514974	118.430353
9.050000	-1.569501	108.599706	-28.527279	2.849510	-28.527279	2.849510	-0.519472	117.049627
9.100000	-1.528370	102.615651	-28.483207	-0.544757	-28.483207	-0.544757	-0.524007	115.664065
9.150000	-1.485215	96.703364	-28.446644	-3.899545	-28.446644	-3.899545	-0.528567	114.273702
9.200000	-1.440627	90.869700	-28.417406	-7.212856	-28.417406	-7.212856	-0.533139	112.878634
9.250000	-1.395132	85.123187	-28.395517	-10.481409	-28.395517	-10.481409	-0.537714	111.478776
9.300000	-1.349282	79.466995	-28.380615	-13.704295	-28.380615	-13.704295	-0.542283	110.074262
9.350000	-1.303559	73.909076	-28.372749	-16.877842	-28.372749	-16.877842	-0.546841	108.664925
9.400000	-1.258411	68.449379	-28.371443	-20.002095	-28.371443	-20.002095	-0.551383	107.250945
9.450000	-1.214264	63.094035	-28.376677	-23.073715	-28.376677	-23.073715	-0.555908	105.832170
9.500000	-1.171443	57.841408	-28.387980	-26.093053	-28.387980	-26.093053	-0.560414	104.408771
9.550000	-1.130258	52.693537	-28.405142	-29.058416	-28.405142	-29.058416	-0.564901	102.980723
9.600000	-1.090973	47.650981	-28.427892	-31.968692	-28.427892	-31.968692	-0.569368	101.548044
9.650000	-1.053805	42.713613	-28.455943	-34.822979	-28.455943	-34.822979	-0.573815	100.110761
9.700000	-1.018900	37.879213	-28.488931	-37.621405	-28.488931	-37.621405	-0.578242	98.668976
9.750000	-0.986376	33.146079	-28.526546	-40.363763	-28.526546	-40.363763	-0.582650	97.222753
9.800000	-0.956320	28.512098	-28.568479	-43.050035	-28.568479	-43.050035	-0.587038	95.772164
9.850000	-0.928783	23.974807	-28.614425	-45.680375	-28.614425	-45.680375	-0.591408	94.317287
9.900000	-0.903793	19.531463	-28.664088	-48.255093	-28.664088	-48.255093	-0.595758	92.858208
9.950000	-0.881351	15.179099	-28.717179	-50.774644	-28.717179	-50.774644	-0.600091	91.395019
10.000000	-0.861441	10.914573	-28.773419	-53.239607	-28.773419	-53.239607	-0.604405	89.927818
