! freq	dB(S11)	phase(S11)	dB(S12)	phase(S12)	
!     	dB(S21)	phase(S21)	dB(S22)	phase(S22)	
!S-par simulation data
#  GHz  S  DB  R 50
0.000000	-0.000000	0.000000	-335.014531	180.000000	-335.014531	180.000000	0.000000	-0.000000
0.050000	-0.000578	-0.904721	-97.319042	88.016788	-97.319042	88.016788	-0.002028	-3.154040
0.100000	-0.001942	-1.805063	-91.331037	86.064606	-91.331037	86.064606	-0.006948	-6.292787
0.150000	-0.003494	-2.700608	-87.863646	84.117515	-87.863646	84.117515	-0.012751	-9.413150
0.200000	-0.004937	-3.593119	-85.439665	82.184932	-85.439665	82.184932	-0.018289	-12.519874
0.250000	-0.006216	-4.484057	-83.598834	80.274126	-83.598834	80.274126	-0.023241	-15.617220
0.300000	-0.007371	-5.374300	-82.136335	78.392457	-82.136335	78.392457	-0.027667	-18.707710
0.350000	-0.008457	-6.264246	-80.940665	76.546231	-80.940665	76.546231	-0.031731	-21.792351
0.400000	-0.009509	-7.154011	-79.947359	74.743620	-79.947359	74.743620	-0.035553	-24.870910
0.450000	-0.010551	-8.043593	-79.117892	72.996458	-79.117892	72.996458	-0.039215	-27.942382
0.500000	-0.011597	-8.932949	-78.420941	71.312713	-78.420941	71.312713	-0.042782	-31.006230
0.550000	-0.012654	-9.822011	-77.836981	69.704247	-77.836981	69.704247	-0.046290	-34.061545
0.600000	-0.013723	-10.710677	-77.355134	68.189829	-77.355134	68.189829	-0.049756	-37.106944
0.650000	-0.014804	-11.598876	-76.962709	66.783596	-76.962709	66.783596	-0.053195	-40.141871
0.700000	-0.015896	-12.486532	-76.651433	65.504224	-76.651433	65.504224	-0.056613	-43.165639
0.750000	-0.016997	-13.373547	-76.417733	64.380628	-76.417733	64.380628	-0.060012	-46.177136
0.800000	-0.018103	-14.259846	-76.257153	63.443164	-76.257153	63.443164	-0.063393	-49.175691
0.850000	-0.019214	-15.145366	-76.165561	62.726597	-76.165561	62.726597	-0.066753	-52.160847
0.900000	-0.020328	-16.030047	-76.140055	62.275275	-76.140055	62.275275	-0.070091	-55.132098
0.950000	-0.021443	-16.913828	-76.178267	62.145641	-76.178267	62.145641	-0.073403	-58.088915
1.000000	-0.022558	-17.796657	-76.277045	62.406436	-76.277045	62.406436	-0.076687	-61.030885
1.050000	-0.023674	-18.678487	-76.431853	63.142041	-76.431853	63.142041	-0.079937	-63.957655
1.100000	-0.024788	-19.559278	-76.635469	64.454387	-76.635469	64.454387	-0.083152	-66.868930
1.150000	-0.025901	-20.438994	-76.876089	66.462508	-76.876089	66.462508	-0.086328	-69.764473
1.200000	-0.027013	-21.317603	-77.134722	69.296353	-77.134722	69.296353	-0.089462	-72.644099
1.250000	-0.028125	-22.195077	-77.382095	73.079178	-77.382095	73.079178	-0.092551	-75.507677
1.300000	-0.029235	-23.071366	-77.573743	77.913241	-77.573743	77.913241	-0.095594	-78.354771
1.350000	-0.030344	-23.946472	-77.655679	83.746599	-77.655679	83.746599	-0.098589	-81.185695
1.400000	-0.031453	-24.820375	-77.570624	90.378504	-77.570624	90.378504	-0.101535	-84.000459
1.450000	-0.032561	-25.693058	-77.275164	97.422335	-77.275164	97.422335	-0.104433	-86.799117
1.500000	-0.033669	-26.564504	-76.757032	104.379367	-76.757032	104.379367	-0.107281	-89.581760
1.550000	-0.034776	-27.434696	-76.040273	110.780768	-76.040273	110.780768	-0.110080	-92.348517
1.600000	-0.035884	-28.303620	-75.173939	116.309159	-75.173939	116.309159	-0.112831	-95.099553
1.650000	-0.036991	-29.171261	-74.213643	120.833442	-74.213643	120.833442	-0.115535	-97.835069
1.700000	-0.038099	-30.037605	-73.207685	124.368613	-73.207685	124.368613	-0.118193	-100.555293
1.750000	-0.039207	-30.902639	-72.191627	127.011624	-72.191627	127.011624	-0.120806	-103.260487
1.800000	-0.040316	-31.766347	-71.188796	128.889503	-71.188796	128.889503	-0.123378	-105.950939
1.850000	-0.041425	-32.628718	-70.213092	130.128961	-70.213092	130.128961	-0.125909	-108.626962
1.900000	-0.042536	-33.489721	-69.271308	130.838126	-69.271308	130.838126	-0.128402	-111.288746
1.950000	-0.043647	-34.349343	-68.367050	131.114435	-68.367050	131.114435	-0.130859	-113.936666
2.000000	-0.044760	-35.207586	-67.501779	131.040040	-67.501779	131.040040	-0.133283	-116.571257
2.050000	-0.045875	-36.064434	-66.674778	130.676650	-66.674778	130.676650	-0.135676	-119.192922
2.100000	-0.046992	-36.919750	-65.881651	130.057117	-65.881651	130.057117	-0.138039	-121.801039
2.150000	-0.048110	-37.773783	-65.127035	129.259309	-65.127035	129.259309	-0.140379	-124.398294
2.200000	-0.049232	-38.626381	-64.405238	128.292986	-64.405238	128.292986	-0.142697	-126.983921
2.250000	-0.050355	-39.477530	-63.714289	127.184453	-63.714289	127.184453	-0.144994	-129.558383
2.300000	-0.051482	-40.327217	-63.052281	125.955111	-63.052281	125.955111	-0.147274	-132.122156
2.350000	-0.052612	-41.175427	-62.417414	124.622471	-62.417414	124.622471	-0.149539	-134.675725
2.400000	-0.053746	-42.022147	-61.808010	123.200957	-61.808010	123.200957	-0.151791	-137.219588
2.450000	-0.054884	-42.867364	-61.222523	121.702520	-61.222523	121.702520	-0.154032	-139.754248
2.500000	-0.056026	-43.711065	-60.659534	120.137129	-60.659534	120.137129	-0.156266	-142.280217
2.550000	-0.057173	-44.553185	-60.117342	118.511524	-60.117342	118.511524	-0.158494	-144.797769
2.600000	-0.058325	-45.393763	-59.595252	116.834784	-59.595252	116.834784	-0.160718	-147.307707
2.650000	-0.059482	-46.232786	-59.092175	115.112821	-59.092175	115.112821	-0.162940	-149.810559
2.700000	-0.060646	-47.070241	-58.607121	113.350699	-58.607121	113.350699	-0.165164	-152.306857
2.750000	-0.061815	-47.906117	-58.139187	111.552775	-58.139187	111.552775	-0.167389	-154.797134
2.800000	-0.062991	-48.740402	-57.687550	109.722822	-57.687550	109.722822	-0.169618	-157.281925
2.850000	-0.064174	-49.573085	-57.251462	107.864126	-57.251462	107.864126	-0.171852	-159.761765
2.900000	-0.065365	-50.404155	-56.830237	105.979565	-56.830237	105.979565	-0.174094	-162.237189
2.950000	-0.066563	-51.233603	-56.423250	104.071672	-56.423250	104.071672	-0.176344	-164.708732
3.000000	-0.067770	-52.061417	-56.029928	102.142691	-56.029928	102.142691	-0.178603	-167.176928
3.050000	-0.068985	-52.887590	-55.649745	100.194619	-55.649745	100.194619	-0.180872	-169.642307
3.100000	-0.070210	-53.712110	-55.282221	98.229244	-55.282221	98.229244	-0.183153	-172.105396
3.150000	-0.071444	-54.534953	-54.926888	96.248021	-54.926888	96.248021	-0.185447	-174.566707
3.200000	-0.072688	-55.356109	-54.583357	94.252448	-54.583357	94.252448	-0.187754	-177.026776
3.250000	-0.073942	-56.175590	-54.251282	92.244011	-54.251282	92.244011	-0.190075	-179.486139
3.300000	-0.075208	-56.993387	-53.930316	90.223907	-53.930316	90.223907	-0.192410	178.054697
3.350000	-0.076484	-57.809495	-53.620138	88.193237	-53.620138	88.193237	-0.194761	175.595229
3.400000	-0.077773	-58.623908	-53.320452	86.153014	-53.320452	86.153014	-0.197126	173.134959
3.450000	-0.079073	-59.436619	-53.030985	84.104172	-53.030985	84.104172	-0.199507	170.673398
3.500000	-0.080387	-60.247624	-52.751484	82.047578	-52.751484	82.047578	-0.201903	168.210067
3.550000	-0.081713	-61.056918	-52.481718	79.984040	-52.481718	79.984040	-0.204315	165.744491
3.600000	-0.083053	-61.864498	-52.221469	77.914306	-52.221469	77.914306	-0.206743	163.276206
3.650000	-0.084407	-62.670360	-51.970541	75.839079	-51.970541	75.839079	-0.209186	160.804759
3.700000	-0.085775	-63.474501	-51.728750	73.759016	-51.728750	73.759016	-0.211644	158.329703
3.750000	-0.087158	-64.276919	-51.495930	71.674731	-51.495930	71.674731	-0.214118	155.850606
3.800000	-0.088557	-65.077575	-51.271997	69.586738	-51.271997	69.586738	-0.216606	153.366936
3.850000	-0.089972	-65.876504	-51.056756	67.495671	-51.056756	67.495671	-0.219108	150.878371
3.900000	-0.091403	-66.673706	-50.850081	65.402043	-50.850081	65.402043	-0.221624	148.384511
3.950000	-0.092851	-67.469181	-50.651860	63.306338	-50.651860	63.306338	-0.224153	145.884969
4.000000	-0.094317	-68.262835	-50.462219	61.208946	-50.462219	61.208946	-0.226696	143.379029
4.050000	-0.095800	-69.054839	-50.280680	59.110463	-50.280680	59.110463	-0.229250	140.866922
4.100000	-0.097301	-69.845119	-50.107338	57.011231	-50.107338	57.011231	-0.231815	138.348046
4.150000	-0.098821	-70.633676	-49.942131	54.911655	-49.942131	54.911655	-0.234391	135.822067
4.200000	-0.100360	-71.420513	-49.785009	52.812125	-49.785009	52.812125	-0.236977	133.288668
4.250000	-0.101919	-72.205634	-49.635937	50.713025	-49.635937	50.713025	-0.239573	130.747544
4.300000	-0.103498	-72.989042	-49.494890	48.614730	-49.494890	48.614730	-0.242178	128.198409
4.350000	-0.105098	-73.770741	-49.361861	46.517615	-49.361861	46.517615	-0.244791	125.640988
4.400000	-0.106716	-74.550957	-49.236024	44.421804	-49.236024	44.421804	-0.247410	123.076173
4.450000	-0.108358	-75.329233	-49.119094	42.328161	-49.119094	42.328161	-0.250039	120.501360
4.500000	-0.110022	-76.105816	-49.010243	40.236862	-49.010243	40.236862	-0.252674	117.917530
4.550000	-0.111709	-76.880711	-48.909520	38.148319	-48.909520	38.148319	-0.255316	115.324474
4.600000	-0.113419	-77.653926	-48.816990	36.062967	-48.816990	36.062967	-0.257965	112.722000
4.650000	-0.115153	-78.425467	-48.732733	33.981271	-48.732733	33.981271	-0.260621	110.109929
4.700000	-0.116910	-79.195343	-48.656847	31.903728	-48.656847	31.903728	-0.263284	107.488101
4.750000	-0.118692	-79.963560	-48.589447	29.830882	-48.589447	29.830882	-0.265954	104.856368
4.800000	-0.120498	-80.730129	-48.530669	27.763325	-48.530669	27.763325	-0.268632	102.214600
4.850000	-0.122330	-81.495058	-48.480666	25.701710	-48.480666	25.701710	-0.271318	99.562682
4.900000	-0.124188	-82.258356	-48.439612	23.646758	-48.439612	23.646758	-0.274015	96.900510
4.950000	-0.126072	-83.020034	-48.407705	21.599272	-48.407705	21.599272	-0.276723	94.227999
5.000000	-0.127983	-83.780102	-48.385162	19.560146	-48.385162	19.560146	-0.279443	91.545072
5.050000	-0.129921	-84.538537	-48.372442	17.530607	-48.372442	17.530607	-0.282180	88.851439
5.100000	-0.131887	-85.295384	-48.369614	15.511602	-48.369614	15.511602	-0.284934	86.147277
5.150000	-0.133882	-86.050657	-48.376975	13.504400	-48.376975	13.504400	-0.287708	83.432546
5.200000	-0.135905	-86.804367	-48.394850	11.510422	-48.394850	11.510422	-0.290507	80.707215
5.250000	-0.137957	-87.556527	-48.423600	9.531275	-48.423600	9.531275	-0.293333	77.971262
5.300000	-0.140038	-88.307151	-48.463617	7.568766	-48.463617	7.568766	-0.296191	75.224671
5.350000	-0.142150	-89.056251	-48.515331	5.624941	-48.515331	5.624941	-0.299086	72.467432
5.400000	-0.144292	-89.803843	-48.579211	3.702113	-48.579211	3.702113	-0.302023	69.699536
5.450000	-0.146464	-90.549940	-48.655774	1.802906	-48.655774	1.802906	-0.305008	66.920977
5.500000	-0.148668	-91.294557	-48.745581	-0.069697	-48.745581	-0.069697	-0.308049	64.131748
5.550000	-0.150904	-92.037711	-48.849250	-1.912297	-48.849250	-1.912297	-0.311152	61.331841
5.600000	-0.153172	-92.779415	-48.967453	-3.721008	-48.967453	-3.721008	-0.314326	58.521240
5.650000	-0.155472	-93.519673	-49.101080	-5.490898	-49.101080	-5.490898	-0.317580	55.699808
5.700000	-0.157806	-94.258499	-49.250953	-7.216630	-49.250953	-7.216630	-0.320925	52.867510
5.750000	-0.160174	-94.995928	-49.417812	-8.892617	-49.417812	-8.892617	-0.324370	50.024419
5.800000	-0.162575	-95.731975	-49.602632	-10.511878	-49.602632	-10.511878	-0.327926	47.170472
5.850000	-0.165010	-96.466660	-49.806482	-12.066248	-49.806482	-12.066248	-0.331606	44.305589
5.900000	-0.167480	-97.200001	-50.030533	-13.546122	-50.030533	-13.546122	-0.335424	41.429667
5.950000	-0.169985	-97.932015	-50.276064	-14.940136	-50.276064	-14.940136	-0.339393	38.542580
6.000000	-0.172526	-98.662721	-50.544470	-16.234752	-50.544470	-16.234752	-0.343529	35.644168
6.050000	-0.175102	-99.392140	-50.837256	-17.413732	-50.837256	-17.413732	-0.347848	32.734241
6.100000	-0.177714	-100.120291	-51.156036	-18.457466	-51.156036	-18.457466	-0.352368	29.812573
6.150000	-0.180363	-100.847193	-51.502500	-19.342102	-51.502500	-19.342102	-0.357107	26.878893
6.200000	-0.183049	-101.572868	-51.878369	-20.038428	-51.878369	-20.038428	-0.362085	23.932888
6.250000	-0.185773	-102.297335	-52.285301	-20.510444	-52.285301	-20.510444	-0.367324	20.974193
6.300000	-0.188534	-103.020592	-52.724923	-20.706415	-52.724923	-20.706415	-0.372851	18.002093
6.350000	-0.191334	-103.742685	-53.197771	-20.574825	-53.197771	-20.574825	-0.378686	15.016377
6.400000	-0.194172	-104.463637	-53.703623	-20.045534	-53.703623	-20.045534	-0.384853	12.016494
6.450000	-0.197049	-105.183470	-54.240391	-19.031838	-54.240391	-19.031838	-0.391379	9.001823
6.500000	-0.199965	-105.902207	-54.802820	-17.428382	-54.802820	-17.428382	-0.398293	5.971660
6.550000	-0.202921	-106.619870	-55.380510	-15.111689	-55.380510	-15.111689	-0.405623	2.925220
6.600000	-0.205916	-107.336483	-55.955158	-11.947116	-55.955158	-11.947116	-0.413400	-0.138375
6.650000	-0.208952	-108.052070	-56.497287	-7.808634	-56.497287	-7.808634	-0.421659	-3.220104
6.700000	-0.212027	-108.766673	-56.966677	-2.637452	-56.966677	-2.637452	-0.430424	-6.320675
6.750000	-0.215146	-109.480228	-57.292043	3.616695	-57.292043	3.616695	-0.439782	-9.443204
6.800000	-0.218303	-110.192900	-57.441161	10.609278	-57.441161	10.609278	-0.449690	-12.585935
6.850000	-0.221503	-110.904605	-57.347247	17.999306	-57.347247	17.999306	-0.460260	-15.752928
6.900000	-0.224745	-111.615421	-57.014822	25.255884	-57.014822	25.255884	-0.471496	-18.944407
6.950000	-0.228028	-112.325374	-56.471992	31.902495	-56.471992	31.902495	-0.483446	-22.162138
7.000000	-0.231356	-113.034441	-55.759881	37.581941	-55.759881	37.581941	-0.496200	-25.409672
7.050000	-0.234723	-113.742744	-54.957527	42.288812	-54.957527	42.288812	-0.509721	-28.685663
7.100000	-0.238137	-114.450172	-54.088915	45.877232	-54.088915	45.877232	-0.524209	-31.998041
7.150000	-0.241592	-115.156902	-53.213299	48.641710	-53.213299	48.641710	-0.539555	-35.342752
7.200000	-0.245093	-115.862831	-52.336879	50.569358	-52.336879	50.569358	-0.555985	-38.729001
7.250000	-0.248636	-116.568087	-51.483735	51.887302	-51.483735	51.887302	-0.573434	-42.154456
7.300000	-0.252224	-117.272642	-50.655894	52.661482	-50.655894	52.661482	-0.592057	-45.625707
7.350000	-0.255858	-117.976540	-49.857682	52.995213	-49.857682	52.995213	-0.611913	-49.145434
7.400000	-0.259534	-118.679834	-49.091342	52.979495	-49.091342	52.979495	-0.633038	-52.715550
7.450000	-0.263259	-119.382495	-48.352772	52.643253	-48.352772	52.643253	-0.655654	-56.345540
7.500000	-0.267026	-120.084642	-47.645690	52.076824	-47.645690	52.076824	-0.679641	-60.030772
7.550000	-0.270844	-120.786189	-46.962131	51.269809	-46.962131	51.269809	-0.705428	-63.789821
7.600000	-0.274704	-121.487279	-46.306266	50.296094	-46.306266	50.296094	-0.732797	-67.613604
7.650000	-0.278611	-122.187883	-45.673196	49.157741	-45.673196	49.157741	-0.762058	-71.515942
7.700000	-0.282566	-122.888039	-45.061594	47.876377	-45.061594	47.876377	-0.793334	-75.502457
7.750000	-0.286569	-123.587785	-44.470294	46.469679	-44.470294	46.469679	-0.826737	-79.578637
7.800000	-0.290619	-124.287155	-43.897938	44.949861	-43.897938	44.949861	-0.862417	-83.751513
7.850000	-0.294717	-124.986179	-43.343336	43.326680	-43.343336	43.326680	-0.900524	-88.028570
7.900000	-0.298864	-125.684892	-42.805470	41.607913	-42.805470	41.607913	-0.941214	-92.417749
7.950000	-0.303059	-126.383325	-42.283342	39.798932	-42.283342	39.798932	-0.984667	-96.928682
8.000000	-0.307304	-127.081513	-41.776368	37.905140	-41.776368	37.905140	-1.031022	-101.569772
8.050000	-0.311598	-127.779491	-41.284100	35.930803	-41.284100	35.930803	-1.080403	-106.349617
8.100000	-0.315942	-128.477296	-40.806162	33.878961	-40.806162	33.878961	-1.132926	-111.277699
8.150000	-0.320337	-129.174960	-40.342321	31.752045	-40.342321	31.752045	-1.188678	-116.363698
8.200000	-0.324782	-129.872521	-39.892479	29.552046	-39.892479	29.552046	-1.247701	-121.617369
8.250000	-0.329278	-130.570014	-39.456664	27.280678	-39.456664	27.280678	-1.309980	-127.048356
8.300000	-0.333825	-131.267475	-39.035013	24.939529	-39.035013	24.939529	-1.375423	-132.665975
8.350000	-0.338425	-131.964942	-38.627750	22.529893	-38.627750	22.529893	-1.443855	-138.479907
8.400000	-0.343077	-132.662451	-38.235215	20.053283	-38.235215	20.053283	-1.514972	-144.498995
8.450000	-0.347782	-133.360041	-37.857855	17.512494	-37.857855	17.512494	-1.588299	-150.727613
8.500000	-0.352541	-134.057751	-37.496114	14.910139	-37.496114	14.910139	-1.663227	-157.170116
8.550000	-0.357354	-134.755617	-37.150461	12.249441	-37.150461	12.249441	-1.738970	-163.828399
8.600000	-0.362221	-135.453679	-36.821372	9.534343	-36.821372	9.534343	-1.814557	-170.701300
8.650000	-0.367142	-136.151977	-36.509304	6.769602	-36.509304	6.769602	-1.888839	-177.784001
8.700000	-0.372120	-136.850550	-36.214673	3.960841	-36.214673	3.960841	-1.960504	174.932545
8.750000	-0.377153	-137.549439	-35.937825	1.114570	-35.937825	1.114570	-2.028118	167.462081
8.800000	-0.382244	-138.248689	-35.679177	-1.762156	-35.679177	-1.762156	-2.090077	159.821280
8.850000	-0.387392	-138.948337	-35.438738	-4.660602	-35.438738	-4.660602	-2.144967	152.036913
8.900000	-0.392598	-139.648425	-35.216502	-7.571922	-35.216502	-7.571922	-2.191425	144.137821
8.950000	-0.397862	-140.348995	-35.012307	-10.486769	-35.012307	-10.486769	-2.228298	136.157014
9.000000	-0.403186	-141.050088	-34.825826	-13.395485	-34.825826	-13.395485	-2.254737	128.130720
9.050000	-0.408569	-141.751747	-34.656560	-16.288308	-34.656560	-16.288308	-2.270264	120.097127
9.100000	-0.414013	-142.454016	-34.503833	-19.155589	-34.503833	-19.155589	-2.274820	112.094945
9.150000	-0.419518	-143.156938	-34.366804	-21.988004	-34.366804	-21.988004	-2.268764	104.161913
9.200000	-0.425086	-143.860563	-34.244590	-24.776242	-34.244590	-24.776242	-2.252756	96.334720
9.250000	-0.430717	-144.564933	-34.135965	-27.512253	-34.135965	-27.512253	-2.227940	88.645163
9.300000	-0.436410	-145.270088	-34.039592	-30.188997	-34.039592	-30.188997	-2.195679	81.119821
9.350000	-0.442167	-145.976073	-33.954097	-32.800149	-33.954097	-32.800149	-2.157425	73.780788
9.400000	-0.447989	-146.682933	-33.878021	-35.340370	-33.878021	-35.340370	-2.114679	66.645001
9.450000	-0.453874	-147.390716	-33.809886	-37.804824	-33.809886	-37.804824	-2.068902	59.725833
9.500000	-0.459825	-148.099467	-33.748097	-40.190414	-33.748097	-40.190414	-2.021499	53.029894
9.550000	-0.465837	-148.809197	-33.690967	-42.497312	-33.690967	-42.497312	-1.973717	46.553397
9.600000	-0.471914	-149.520008	-33.637099	-44.719537	-33.637099	-44.719537	-1.926651	40.308586
9.650000	-0.478051	-150.231916	-33.584777	-46.859181	-33.584777	-46.859181	-1.881238	34.284891
9.700000	-0.484246	-150.944973	-33.532416	-48.916157	-33.532416	-48.916157	-1.838255	28.477689
9.750000	-0.490492	-151.659264	-33.478354	-50.889923	-33.478354	-50.889923	-1.798395	22.883518
9.800000	-0.496781	-152.374837	-33.421051	-52.784287	-33.421051	-52.784287	-1.762079	17.488350
9.850000	-0.503100	-153.091815	-33.358930	-54.601370	-33.358930	-54.601370	-1.729691	12.283289
9.900000	-0.509436	-153.810399	-33.290412	-56.344046	-33.290412	-56.344046	-1.701517	7.258501
9.950000	-0.515786	-154.530927	-33.213895	-58.015742	-33.213895	-58.015742	-1.677775	2.403913
10.000000	-0.522178	-155.253876	-33.127744	-59.620446	-33.127744	-59.620446	-1.658622	-2.290584
