! freq	dB(S11)	phase(S11)	dB(S12)	phase(S12)	
!     	dB(S21)	phase(S21)	dB(S22)	phase(S22)	
!S-par simulation data
#  GHz  S  DB  R 50
0.000000	-0.000000	-0.000000	-352.802872	180.000000	-352.802872	180.000000	-0.000000	0.000000
0.050000	-0.008015	-0.957386	-113.038265	84.627838	-113.038265	84.627838	-0.006697	-0.820372
0.100000	-0.008170	-1.911732	-106.907232	85.914729	-106.907232	85.914729	-0.006838	-1.637255
0.150000	-0.008412	-2.866546	-103.426637	85.910391	-103.426637	85.910391	-0.007049	-2.454746
0.200000	-0.008745	-3.821261	-101.016747	85.545007	-101.016747	85.545007	-0.007338	-3.272220
0.250000	-0.009168	-4.775687	-99.203094	85.058150	-99.203094	85.058150	-0.007704	-4.089492
0.300000	-0.009690	-5.729629	-97.791939	84.541317	-97.791939	84.541317	-0.008157	-4.906395
0.350000	-0.010268	-6.683245	-96.628659	84.033033	-96.628659	84.033033	-0.008657	-5.723048
0.400000	-0.010949	-7.636106	-95.706379	83.588079	-95.706379	83.588079	-0.009245	-6.539117
0.450000	-0.011697	-8.588340	-94.951766	83.225049	-94.951766	83.225049	-0.009891	-7.354699
0.500000	-0.012503	-9.539962	-94.329310	82.953572	-94.329310	82.953572	-0.010586	-8.169808
0.550000	-0.013374	-10.490810	-93.834355	82.813637	-93.834355	82.813637	-0.011337	-8.984320
0.600000	-0.014315	-11.440605	-93.478221	82.901141	-93.478221	82.901141	-0.012147	-9.798022
0.650000	-0.015301	-12.389625	-93.215605	83.194885	-93.215605	83.194885	-0.012994	-10.611132
0.700000	-0.016327	-13.337848	-93.040095	83.721685	-93.040095	83.721685	-0.013875	-11.423633
0.750000	-0.017405	-14.284847	-92.985874	84.690465	-92.985874	84.690465	-0.014800	-12.235205
0.800000	-0.018518	-15.230795	-93.026339	86.167793	-93.026339	86.167793	-0.015753	-13.045984
0.850000	-0.019658	-16.175829	-93.142833	88.177049	-93.142833	88.177049	-0.016729	-13.856076
0.900000	-0.020825	-17.119846	-93.340733	90.858974	-93.340733	90.858974	-0.017727	-14.665404
0.950000	-0.022021	-18.062363	-93.622177	94.904678	-93.622177	94.904678	-0.018748	-15.473615
1.000000	-0.023231	-19.003878	-93.919294	100.133437	-93.919294	100.133437	-0.019782	-16.281084
1.050000	-0.024456	-19.944381	-94.202920	106.641059	-94.202920	106.641059	-0.020826	-17.087804
1.100000	-0.025694	-20.883472	-94.366974	115.131677	-94.366974	115.131677	-0.021882	-17.893485
1.150000	-0.026942	-21.821211	-94.240825	125.146588	-94.240825	125.146588	-0.022945	-18.698174
1.200000	-0.028194	-22.757871	-93.818106	135.700287	-93.818106	135.700287	-0.024012	-19.502075
1.250000	-0.029450	-23.693443	-93.098596	146.416278	-93.098596	146.416278	-0.025082	-20.305182
1.300000	-0.030710	-24.627194	-91.904539	155.483839	-91.904539	155.483839	-0.026154	-21.106967
1.350000	-0.031968	-25.559809	-90.591205	163.087339	-90.591205	163.087339	-0.027226	-21.907929
1.400000	-0.033226	-26.491280	-89.233601	169.285244	-89.233601	169.285244	-0.028297	-22.708064
1.450000	-0.034482	-27.421277	-87.839630	173.824420	-87.839630	173.824420	-0.029367	-23.507135
1.500000	-0.035734	-28.349664	-86.455515	177.037982	-86.455515	177.037982	-0.030433	-24.305047
1.550000	-0.036982	-29.276855	-85.151485	179.487529	-85.151485	179.487529	-0.031497	-25.102099
1.600000	-0.038227	-30.202842	-83.923870	-178.730332	-83.923870	-178.730332	-0.032559	-25.898286
1.650000	-0.039465	-31.126939	-82.724853	-177.692692	-82.724853	-177.692692	-0.033616	-26.693115
1.700000	-0.040699	-32.049848	-81.605095	-176.991101	-81.605095	-176.991101	-0.034670	-27.487093
1.750000	-0.041928	-32.971197	-80.536702	-176.663784	-80.536702	-176.663784	-0.035720	-28.279952
1.800000	-0.043152	-33.891050	-79.520699	-176.613598	-79.520699	-176.613598	-0.036767	-29.071739
1.850000	-0.044371	-34.809391	-78.552785	-176.787861	-78.552785	-176.787861	-0.037811	-29.862441
1.900000	-0.045585	-35.726200	-77.628929	-177.145885	-77.628929	-177.145885	-0.038851	-30.652045
1.950000	-0.046795	-36.641461	-76.745444	-177.655902	-76.745444	-177.655902	-0.039889	-31.440538
2.000000	-0.048002	-37.555154	-75.899004	-178.292833	-75.899004	-178.292833	-0.040925	-32.227906
2.050000	-0.049205	-38.467262	-75.086629	-179.036672	-75.086629	-179.036672	-0.041959	-33.014135
2.100000	-0.050405	-39.377768	-74.305657	-179.871296	-74.305657	-179.871296	-0.042992	-33.799212
2.150000	-0.051603	-40.286654	-73.553712	179.216415	-73.553712	179.216415	-0.044023	-34.583123
2.200000	-0.052800	-41.193902	-72.828671	178.237232	-72.828671	178.237232	-0.045055	-35.365854
2.250000	-0.053995	-42.099496	-72.128632	177.200071	-72.128632	177.200071	-0.046086	-36.147392
2.300000	-0.055190	-43.003419	-71.451888	176.112375	-71.451888	176.112375	-0.047118	-36.927722
2.350000	-0.056385	-43.905654	-70.796906	174.980397	-70.796906	174.980397	-0.048150	-37.706832
2.400000	-0.057581	-44.806185	-70.162300	173.809430	-70.162300	173.809430	-0.049185	-38.484707
2.450000	-0.058779	-45.704997	-69.546818	172.603984	-69.546818	172.603984	-0.050222	-39.261334
2.500000	-0.059979	-46.602073	-68.949322	171.367923	-68.949322	171.367923	-0.051261	-40.036699
2.550000	-0.061183	-47.497322	-68.367834	170.103523	-68.367834	170.103523	-0.052304	-40.810735
2.600000	-0.062389	-48.390806	-67.802456	168.814944	-67.802456	168.814944	-0.053350	-41.583481
2.650000	-0.063601	-49.282509	-67.252313	167.504652	-67.252313	167.504652	-0.054401	-42.354927
2.700000	-0.064817	-50.172419	-66.716603	166.174809	-66.716603	166.174809	-0.055456	-43.125058
2.750000	-0.066039	-51.060523	-66.194592	164.827316	-66.194592	164.827316	-0.056517	-43.893864
2.800000	-0.067267	-51.946807	-65.685600	163.463851	-65.685600	163.463851	-0.057584	-44.661332
2.850000	-0.068503	-52.831261	-65.189001	162.085903	-65.189001	162.085903	-0.058657	-45.427451
2.900000	-0.069746	-53.713873	-64.704217	160.694796	-64.704217	160.694796	-0.059737	-46.192208
2.950000	-0.070997	-54.594632	-64.230711	159.291714	-64.230711	159.291714	-0.060825	-46.955594
3.000000	-0.072257	-55.473527	-63.767984	157.877714	-63.767984	157.877714	-0.061920	-47.717598
3.050000	-0.073527	-56.350551	-63.315572	156.453749	-63.315572	156.453749	-0.063023	-48.478208
3.100000	-0.074807	-57.225693	-62.873042	155.020677	-62.873042	155.020677	-0.064135	-49.237415
3.150000	-0.076097	-58.098945	-62.439990	153.579272	-62.439990	153.579272	-0.065256	-49.995210
3.200000	-0.077399	-58.970300	-62.016037	152.130238	-62.016037	152.130238	-0.066387	-50.751583
3.250000	-0.078713	-59.839750	-61.600828	150.674211	-61.600828	150.674211	-0.067528	-51.506525
3.300000	-0.080039	-60.707290	-61.194032	149.211774	-61.194032	149.211774	-0.068679	-52.260028
3.350000	-0.081378	-61.572914	-60.795335	147.743458	-60.795335	147.743458	-0.069841	-53.012083
3.400000	-0.082730	-62.436616	-60.404443	146.269749	-60.404443	146.269749	-0.071015	-53.762683
3.450000	-0.084097	-63.298392	-60.021078	144.791093	-60.021078	144.791093	-0.072200	-54.511820
3.500000	-0.085478	-64.158240	-59.644978	143.307899	-59.644978	143.307899	-0.073397	-55.259488
3.550000	-0.086874	-65.016154	-59.275895	141.820546	-59.275895	141.820546	-0.074607	-56.005679
3.600000	-0.088286	-65.872134	-58.913595	140.329382	-58.913595	140.329382	-0.075830	-56.750388
3.650000	-0.089714	-66.726178	-58.557857	138.834731	-58.557857	138.834731	-0.077067	-57.493609
3.700000	-0.091158	-67.578284	-58.208469	137.336892	-58.208469	137.336892	-0.078317	-58.235336
3.750000	-0.092620	-68.428452	-57.865232	135.836142	-57.865232	135.836142	-0.079581	-58.975564
3.800000	-0.094100	-69.276599	-57.527647	134.332637	-57.527647	134.332637	-0.080861	-59.714224
3.850000	-0.095598	-70.122809	-57.195865	132.826742	-57.195865	132.826742	-0.082155	-60.451376
3.900000	-0.097114	-70.967084	-56.869711	131.318679	-56.869711	131.318679	-0.083465	-61.187017
3.950000	-0.098650	-71.809427	-56.549022	129.808659	-56.549022	129.808659	-0.084791	-61.921143
4.000000	-0.100205	-72.649841	-56.233637	128.296876	-56.233637	128.296876	-0.086132	-62.653751
4.050000	-0.101780	-73.488329	-55.923408	126.783514	-55.923408	126.783514	-0.087491	-63.384839
4.100000	-0.103375	-74.324896	-55.618188	125.268746	-55.618188	125.268746	-0.088866	-64.114406
4.150000	-0.104991	-75.159546	-55.317842	123.752735	-55.317842	123.752735	-0.090258	-64.842448
4.200000	-0.106628	-75.992285	-55.022236	122.235633	-55.022236	122.235633	-0.091668	-65.568965
4.250000	-0.108287	-76.823120	-54.731244	120.717585	-54.731244	120.717585	-0.093097	-66.293956
4.300000	-0.109968	-77.652056	-54.444744	119.198728	-54.444744	119.198728	-0.094543	-67.017420
4.350000	-0.111672	-78.479102	-54.162621	117.679191	-54.162621	117.679191	-0.096008	-67.739357
4.400000	-0.113398	-79.304265	-53.884763	116.159096	-53.884763	116.159096	-0.097493	-68.459768
4.450000	-0.115148	-80.127554	-53.611061	114.638558	-53.611061	114.638558	-0.098997	-69.178653
4.500000	-0.116922	-80.948978	-53.341413	113.117688	-53.341413	113.117688	-0.100521	-69.896013
4.550000	-0.118720	-81.768548	-53.075719	111.596590	-53.075719	111.596590	-0.102065	-70.611849
4.600000	-0.120542	-82.586272	-52.813883	110.075362	-52.813883	110.075362	-0.103630	-71.326164
4.650000	-0.122390	-83.402162	-52.555813	108.554099	-52.555813	108.554099	-0.105217	-72.038958
4.700000	-0.124263	-84.216230	-52.301420	107.032890	-52.301420	107.032890	-0.106824	-72.750236
4.750000	-0.126161	-85.028488	-52.050618	105.511819	-52.050618	105.511819	-0.108454	-73.459999
4.800000	-0.128086	-85.838948	-51.803323	103.990968	-51.803323	103.990968	-0.110105	-74.168251
4.850000	-0.130038	-86.647623	-51.559457	102.470414	-51.559457	102.470414	-0.111779	-74.874996
4.900000	-0.132016	-87.454526	-51.318940	100.950229	-51.318940	100.950229	-0.113477	-75.580236
4.950000	-0.134022	-88.259673	-51.081699	99.430483	-51.081699	99.430483	-0.115197	-76.283978
5.000000	-0.136056	-89.063078	-50.847661	97.911243	-50.847661	97.911243	-0.116942	-76.986224
5.050000	-0.138134	-89.863789	-50.615065	96.392930	-50.615065	96.392930	-0.118724	-77.686142
5.100000	-0.140212	-90.664500	-50.388536	94.874617	-50.388536	94.874617	-0.120507	-78.386059
5.150000	-0.142346	-91.461973	-50.162364	93.357628	-50.162364	93.357628	-0.122337	-79.083149
5.200000	-0.144485	-92.259151	-49.941455	91.840760	-49.941455	91.840760	-0.124172	-79.779982
5.250000	-0.146675	-93.053448	-49.721414	90.325288	-49.721414	90.325288	-0.126052	-80.474267
5.300000	-0.148877	-93.847168	-49.505911	88.810094	-49.505911	88.810094	-0.127940	-81.168042
5.350000	-0.151126	-94.638353	-49.291726	87.296312	-49.291726	87.296312	-0.129871	-81.859546
5.400000	-0.153391	-95.428694	-49.081427	85.783000	-49.081427	85.783000	-0.131815	-82.550293
5.450000	-0.155700	-96.216837	-48.872840	84.271066	-48.872840	84.271066	-0.133798	-83.239044
5.500000	-0.158031	-97.003880	-48.667554	82.759822	-48.667554	82.759822	-0.135800	-83.926796
5.550000	-0.160402	-97.789052	-48.464325	81.249882	-48.464325	81.249882	-0.137836	-84.612821
5.600000	-0.162800	-98.572886	-48.263871	79.740875	-48.263871	79.740875	-0.139897	-85.297613
5.650000	-0.165233	-99.355161	-48.065774	78.233061	-48.065774	78.233061	-0.141988	-85.980945
5.700000	-0.167701	-100.135877	-47.869980	76.726442	-47.869980	76.726442	-0.144110	-86.662816
5.750000	-0.170198	-100.915333	-47.676804	75.220877	-47.676804	75.220877	-0.146258	-87.343487
5.800000	-0.172736	-101.693025	-47.485506	73.716785	-47.485506	73.716785	-0.148443	-88.022478
5.850000	-0.175299	-102.469742	-47.297052	72.213579	-47.297052	72.213579	-0.150649	-88.700523
5.900000	-0.177910	-103.244510	-47.110097	70.712142	-47.110097	70.712142	-0.152899	-89.376676
5.950000	-0.180539	-104.018572	-46.926178	69.211400	-46.926178	69.211400	-0.155165	-90.052133
6.000000	-0.183224	-104.790518	-46.743420	67.712737	-46.743420	67.712737	-0.157480	-90.725496
6.050000	-0.185923	-105.562011	-46.563862	66.214556	-46.563862	66.214556	-0.159807	-91.398402
6.100000	-0.188683	-106.331241	-46.385164	64.718781	-46.385164	64.718781	-0.162190	-92.069023
6.150000	-0.191451	-107.100254	-46.209802	63.223256	-46.209802	63.223256	-0.164580	-92.739420
6.200000	-0.194289	-107.866878	-46.035035	61.730479	-46.035035	61.730479	-0.167034	-93.407350
6.250000	-0.197129	-108.633502	-45.863715	60.237702	-45.863715	60.237702	-0.169487	-94.075281
6.300000	-0.200046	-109.397634	-45.692757	58.748035	-45.692757	58.748035	-0.172012	-94.740574
6.350000	-0.202964	-110.161766	-45.525098	57.258367	-45.525098	57.258367	-0.174538	-95.405867
6.400000	-0.205956	-110.923720	-45.358071	55.771659	-45.358071	55.771659	-0.177130	-96.068793
6.450000	-0.208955	-111.685476	-45.193968	54.285219	-45.193968	54.285219	-0.179729	-96.731505
6.500000	-0.212022	-112.445353	-45.030737	52.801575	-45.030737	52.801575	-0.182391	-97.392114
6.550000	-0.215103	-113.204854	-44.870090	51.318491	-44.870090	51.318491	-0.185065	-98.052302
6.600000	-0.218247	-113.962757	-44.710528	49.838031	-44.710528	49.838031	-0.187797	-98.710644
6.650000	-0.221413	-114.720128	-44.553245	48.358446	-44.553245	48.358446	-0.190548	-99.368370
6.700000	-0.224635	-115.476162	-44.397236	46.881304	-44.397236	46.881304	-0.193351	-100.024495
6.750000	-0.227886	-116.231529	-44.243231	45.405385	-44.243231	45.405385	-0.196182	-100.679821
6.800000	-0.231187	-116.985803	-44.090664	43.931720	-44.090664	43.931720	-0.199058	-101.333785
6.850000	-0.234525	-117.739298	-43.939858	42.459665	-43.939858	42.459665	-0.201969	-101.986776
6.900000	-0.237908	-118.491923	-43.790633	40.989662	-43.790633	40.989662	-0.204921	-102.638633
6.950000	-0.241335	-119.243680	-43.642953	39.521711	-43.642953	39.521711	-0.207914	-103.289356
7.000000	-0.244799	-119.994771	-43.496975	38.055591	-43.496975	38.055591	-0.210942	-103.939163
7.050000	-0.248316	-120.744928	-43.352354	36.592037	-43.352354	36.592037	-0.214019	-104.587688
7.100000	-0.251863	-121.494601	-43.209536	35.130068	-43.209536	35.130068	-0.217125	-105.235504
7.150000	-0.255471	-122.243302	-43.067914	33.671273	-43.067914	33.671273	-0.220288	-105.881901
7.200000	-0.259103	-122.991677	-42.928174	32.213781	-42.928174	32.213781	-0.223473	-106.527785
7.250000	-0.262803	-123.739069	-42.789494	30.760199	-42.789494	30.760199	-0.226723	-107.172129
7.300000	-0.266520	-124.486269	-42.652756	29.307581	-42.652756	29.307581	-0.229989	-107.816143
7.350000	-0.270314	-125.232505	-42.516965	27.859784	-42.516965	27.859784	-0.233329	-108.458508
7.400000	-0.274117	-125.978657	-42.383157	26.412530	-42.383157	26.412530	-0.236677	-109.100715
7.450000	-0.278005	-126.723894	-42.250207	24.971248	-42.250207	24.971248	-0.240107	-109.741179
7.500000	-0.281895	-127.469130	-42.119260	23.529966	-42.119260	23.529966	-0.243539	-110.381642
7.550000	-0.285879	-128.213532	-41.989097	22.096140	-41.989097	22.096140	-0.247062	-111.020283
7.600000	-0.289864	-128.957933	-41.860857	20.662315	-41.860857	20.662315	-0.250587	-111.658923
7.650000	-0.293934	-129.701728	-41.733515	19.236455	-41.733515	19.236455	-0.254197	-112.295966
7.700000	-0.298014	-130.445467	-41.607926	17.811320	-41.607926	17.811320	-0.257816	-112.932863
7.750000	-0.302172	-131.188808	-41.483321	16.394799	-41.483321	16.394799	-0.261515	-113.568374
7.800000	-0.306348	-131.932068	-41.360319	14.980000	-41.360319	14.980000	-0.265231	-114.203609
7.850000	-0.310592	-132.675119	-41.238348	13.574641	-41.238348	13.574641	-0.269019	-114.837656
7.900000	-0.314861	-133.418099	-41.117841	12.172428	-41.117841	12.172428	-0.272833	-115.471307
7.950000	-0.319191	-134.161040	-40.998366	10.780710	-40.998366	10.780710	-0.276714	-116.103956
8.000000	-0.323552	-134.903961	-40.880210	9.394241	-40.880210	9.394241	-0.280628	-116.736103
8.050000	-0.327965	-135.646995	-40.763028	8.019630	-40.763028	8.019630	-0.284602	-117.367415
8.100000	-0.332416	-136.390111	-40.646976	6.653491	-40.646976	6.653491	-0.288619	-117.998132
8.150000	-0.336908	-137.133481	-40.531754	5.300984	-40.531754	5.300984	-0.292688	-118.628165
8.200000	-0.341443	-137.877106	-40.417349	3.962108	-40.417349	3.962108	-0.296811	-119.257514
8.250000	-0.346010	-138.621116	-40.303494	2.639162	-40.303494	2.639162	-0.300978	-119.886311
8.300000	-0.350623	-139.365667	-40.189817	1.338517	-40.189817	1.338517	-0.305207	-120.514336
8.350000	-0.355259	-140.110678	-40.076369	0.054664	-40.076369	0.054664	-0.309471	-121.141957
8.400000	-0.359938	-140.856608	-39.961934	-1.195603	-39.961934	-1.195603	-0.313802	-121.768768
8.450000	-0.364656	-141.603727	-39.845034	-2.405755	-39.845034	-2.405755	-0.318188	-122.394882
8.500000	-0.369399	-142.351646	-39.727057	-3.588854	-39.727057	-3.588854	-0.322611	-123.020524
8.550000	-0.374224	-143.102336	-39.598719	-4.687116	-39.598719	-4.687116	-0.327106	-123.644995
8.600000	-0.379094	-143.854170	-39.466247	-5.754748	-39.466247	-5.754748	-0.331621	-124.269043
8.650000	-0.384181	-144.610889	-39.307503	-6.703744	-39.307503	-6.703744	-0.336178	-124.891464
8.700000	-0.389417	-145.369699	-39.136491	-7.619227	-39.136491	-7.619227	-0.340729	-125.513250
8.750000	-0.395429	-146.136529	-38.902824	-8.471387	-38.902824	-8.471387	-0.345169	-126.132612
8.800000	-0.403047	-146.911332	-38.583461	-9.502260	-38.583461	-9.502260	-0.349232	-126.749430
8.850000	-0.414042	-147.689842	-38.166569	-11.288233	-38.166569	-11.288233	-0.352297	-127.364816
8.900000	-0.430094	-148.447805	-37.763511	-14.676969	-37.763511	-14.676969	-0.353700	-127.988243
8.950000	-0.446205	-149.147107	-37.639651	-19.148513	-37.639651	-19.148513	-0.355967	-128.633291
9.000000	-0.454220	-149.820605	-37.774358	-22.706547	-37.774358	-22.706547	-0.361546	-129.278791
9.050000	-0.456412	-150.520245	-37.947283	-24.851243	-37.947283	-24.851243	-0.368130	-129.911264
9.100000	-0.457901	-151.245008	-38.063677	-26.309072	-38.063677	-26.309072	-0.374420	-130.537408
9.150000	-0.460283	-151.986127	-38.112949	-27.464560	-38.112949	-27.464560	-0.380318	-131.160835
9.200000	-0.463833	-152.735308	-38.112134	-28.561538	-38.112134	-28.561538	-0.385966	-131.783494
9.250000	-0.467745	-153.486512	-38.097315	-29.653443	-38.097315	-29.653443	-0.391551	-132.406012
9.300000	-0.472243	-154.240208	-38.064256	-30.770386	-38.064256	-30.770386	-0.397081	-133.028555
9.350000	-0.477162	-154.995685	-38.018351	-31.905213	-38.018351	-31.905213	-0.402573	-133.651117
9.400000	-0.482366	-155.752487	-37.966257	-33.060231	-37.966257	-33.060231	-0.408075	-134.273828
9.450000	-0.487856	-156.510614	-37.908086	-34.235441	-37.908086	-34.235441	-0.413586	-134.896687
9.500000	-0.493501	-157.269783	-37.847966	-35.420648	-37.847966	-35.420648	-0.419125	-135.519718
9.550000	-0.499364	-158.030410	-37.785012	-36.619851	-37.785012	-36.619851	-0.424700	-136.142993
9.600000	-0.505320	-158.791926	-37.721723	-37.822797	-37.721723	-37.822797	-0.430303	-136.766445
9.650000	-0.511462	-159.555219	-37.657330	-39.033231	-37.657330	-39.033231	-0.435962	-137.390252
9.700000	-0.517662	-160.319239	-37.593230	-40.244260	-37.593230	-40.244260	-0.441646	-138.014225
9.750000	-0.524032	-161.085440	-37.529061	-41.457072	-37.529061	-41.457072	-0.447400	-138.638695
9.800000	-0.530439	-161.852168	-37.465395	-42.669245	-37.465395	-42.669245	-0.453172	-139.263299
9.850000	-0.537010	-162.621536	-37.402351	-43.878230	-37.402351	-43.878230	-0.459026	-139.888573
9.900000	-0.543601	-163.391190	-37.339823	-45.086520	-37.339823	-45.086520	-0.464892	-140.513928
9.950000	-0.550357	-164.163989	-37.278421	-46.287161	-37.278421	-46.287161	-0.470849	-141.140160
10.000000	-0.557118	-164.936789	-37.217450	-47.487802	-37.217450	-47.487802	-0.476811	-141.766392
