! freq	dB(S11)	phase(S11)	dB(S12)	phase(S12)	
!     	dB(S21)	phase(S21)	dB(S22)	phase(S22)	
!S-par simulation data
#  GHz  S  DB  R 50
0.000000	-0.000000	0.000000	-363.175398	180.000000	-363.175398	180.000000	-0.000000	0.000000
0.050000	-0.001634	-1.024908	-102.209850	87.365103	-102.209850	87.365103	-0.005474	-1.651597
0.100000	-0.004643	-2.065053	-96.233271	84.601666	-96.233271	84.601666	-0.011846	-3.354617
0.150000	-0.007119	-3.115341	-92.806372	81.570738	-92.806372	81.570738	-0.015306	-5.070150
0.200000	-0.008893	-4.168628	-90.493960	78.178071	-90.493960	78.178071	-0.017359	-6.784263
0.250000	-0.010215	-5.222039	-88.913839	74.549103	-88.913839	74.549103	-0.018836	-8.495127
0.300000	-0.011297	-6.274618	-87.938169	71.477798	-87.938169	71.477798	-0.020107	-10.202773
0.350000	-0.012268	-7.326109	-87.378776	70.365439	-87.378776	70.365439	-0.021327	-11.907361
0.400000	-0.013197	-8.376459	-86.887531	71.492618	-86.887531	71.492618	-0.022570	-13.608941
0.450000	-0.014123	-9.425663	-86.266469	73.320897	-86.266469	73.320897	-0.023867	-15.307462
0.500000	-0.015069	-10.473715	-85.586101	74.601350	-85.586101	74.601350	-0.025235	-17.002804
0.550000	-0.016045	-11.520602	-84.956888	75.184085	-84.956888	75.184085	-0.026678	-18.694812
0.600000	-0.017057	-12.566305	-84.429077	75.326494	-84.429077	75.326494	-0.028196	-20.383302
0.650000	-0.018107	-13.610781	-84.015011	75.280162	-84.015011	75.280162	-0.029788	-22.068041
0.700000	-0.019195	-14.653999	-83.712195	75.229273	-83.712195	75.229273	-0.031448	-23.748825
0.750000	-0.020318	-15.695937	-83.513858	75.305128	-83.513858	75.305128	-0.033169	-25.425498
0.800000	-0.021475	-16.736561	-83.414588	75.617142	-83.414588	75.617142	-0.034946	-27.097865
0.850000	-0.022663	-17.775715	-83.417482	76.316254	-83.417482	76.316254	-0.036774	-28.765328
0.900000	-0.023876	-18.813621	-83.500885	77.446081	-83.500885	77.446081	-0.038639	-30.428562
0.950000	-0.025113	-19.850112	-83.667797	79.188280	-83.667797	79.188280	-0.040540	-32.086948
1.000000	-0.026370	-20.885157	-83.907735	81.723230	-83.907735	81.723230	-0.042470	-33.740319
1.050000	-0.027645	-21.918793	-84.201796	85.209862	-84.201796	85.209862	-0.044422	-35.388746
1.100000	-0.028935	-22.950842	-84.516520	90.016351	-84.516520	90.016351	-0.046392	-37.031556
1.150000	-0.030237	-23.981358	-84.790182	96.303126	-84.790182	96.303126	-0.048373	-38.668888
1.200000	-0.031548	-25.010315	-84.933607	104.145840	-84.933607	104.145840	-0.050362	-40.300604
1.250000	-0.032868	-26.037688	-84.839513	113.300575	-84.839513	113.300575	-0.052353	-41.926574
1.300000	-0.034192	-27.063415	-84.412952	123.084482	-84.412952	123.084482	-0.054344	-43.546546
1.350000	-0.035520	-28.087509	-83.646281	132.520743	-83.646281	132.520743	-0.056329	-45.160529
1.400000	-0.036851	-29.109946	-82.606038	140.819532	-82.606038	140.819532	-0.058307	-46.768417
1.450000	-0.038182	-30.130704	-81.395856	147.602124	-81.395856	147.602124	-0.060274	-48.370107
1.500000	-0.039513	-31.149762	-80.110227	152.859247	-80.110227	152.859247	-0.062230	-49.965507
1.550000	-0.040843	-32.167097	-78.814835	156.778227	-78.814835	156.778227	-0.064171	-51.554528
1.600000	-0.042171	-33.182690	-77.548021	159.601649	-77.548021	159.601649	-0.066097	-53.137089
1.650000	-0.043498	-34.196519	-76.329101	161.556174	-76.329101	161.556174	-0.068007	-54.713114
1.700000	-0.044821	-35.208388	-75.157100	162.775514	-75.157100	162.775514	-0.069897	-56.281884
1.750000	-0.046142	-36.218607	-74.051843	163.521312	-74.051843	163.521312	-0.071772	-57.844559
1.800000	-0.047460	-37.227002	-73.002387	163.844673	-73.002387	163.844673	-0.073629	-59.400509
1.850000	-0.048775	-38.233553	-72.005683	163.831848	-72.005683	163.831848	-0.075468	-60.949683
1.900000	-0.050088	-39.238242	-71.058111	163.548973	-71.058111	163.548973	-0.077290	-62.492035
1.950000	-0.051398	-40.241048	-70.155952	163.047076	-70.155952	163.047076	-0.079095	-64.027524
2.000000	-0.052705	-41.241954	-69.295632	162.365872	-69.295632	162.365872	-0.080884	-65.556116
2.050000	-0.054012	-42.240941	-68.473823	161.536560	-68.473823	161.536560	-0.082657	-67.077781
2.100000	-0.055316	-43.237991	-67.687486	160.583892	-67.687486	160.583892	-0.084415	-68.592496
2.150000	-0.056620	-44.233086	-66.933869	159.527693	-66.933869	159.527693	-0.086160	-70.100241
2.200000	-0.057923	-45.226210	-66.210492	158.383988	-66.210492	158.383988	-0.087891	-71.601002
2.250000	-0.059226	-46.217345	-65.515127	157.165845	-65.515127	157.165845	-0.089612	-73.094771
2.300000	-0.060530	-47.206475	-64.845772	155.884009	-64.845772	155.884009	-0.091321	-74.581541
2.350000	-0.061835	-48.193583	-64.200624	154.547383	-64.200624	154.547383	-0.093022	-76.061316
2.400000	-0.063143	-49.178656	-63.578060	153.163400	-63.578060	153.163400	-0.094715	-77.534098
2.450000	-0.064452	-50.161678	-62.976615	151.738301	-62.976615	151.738301	-0.096401	-78.999899
2.500000	-0.065765	-51.142635	-62.394964	150.277368	-62.394964	150.277368	-0.098082	-80.458732
2.550000	-0.067081	-52.121421	-61.831127	148.783909	-61.831127	148.783909	-0.099759	-81.910314
2.600000	-0.068403	-53.098115	-61.284886	147.263241	-61.284886	147.263241	-0.101433	-83.354973
2.650000	-0.069729	-54.072704	-60.755233	145.718604	-60.755233	145.718604	-0.103106	-84.792735
2.700000	-0.071061	-55.045177	-60.241246	144.152803	-60.241246	144.152803	-0.104779	-86.223632
2.750000	-0.072400	-56.015522	-59.742082	142.568274	-59.742082	142.568274	-0.106453	-87.647698
2.800000	-0.073745	-56.983730	-59.256967	140.967146	-59.256967	140.967146	-0.108130	-89.064974
2.850000	-0.075099	-57.949791	-58.785190	139.351282	-58.785190	139.351282	-0.109810	-90.475503
2.900000	-0.076461	-58.913697	-58.326095	137.722323	-58.326095	137.722323	-0.111496	-91.879329
2.950000	-0.077832	-59.875440	-57.879077	136.081716	-57.879077	136.081716	-0.113187	-93.276503
3.000000	-0.079213	-60.835013	-57.443574	134.430741	-57.443574	134.430741	-0.114886	-94.667078
3.050000	-0.080604	-61.792411	-57.019068	132.770540	-57.019068	132.770540	-0.116594	-96.051110
3.100000	-0.082006	-62.747627	-56.605074	131.102126	-56.605074	131.102126	-0.118311	-97.428659
3.150000	-0.083419	-63.700658	-56.201144	129.426409	-56.201144	129.426409	-0.120038	-98.799787
3.200000	-0.084845	-64.651500	-55.806859	127.744201	-55.806859	127.744201	-0.121777	-100.164558
3.250000	-0.086284	-65.600149	-55.421826	126.056237	-55.421826	126.056237	-0.123528	-101.523041
3.300000	-0.087736	-66.546604	-55.045680	124.363176	-55.045680	124.363176	-0.125293	-102.875307
3.350000	-0.089202	-67.490865	-54.678078	122.665617	-54.678078	122.665617	-0.127073	-104.221427
3.400000	-0.090683	-68.432930	-54.318696	120.964101	-54.318696	120.964101	-0.128867	-105.561478
3.450000	-0.092179	-69.372801	-53.967234	119.259122	-53.967234	119.259122	-0.130677	-106.895538
3.500000	-0.093691	-70.310479	-53.623406	117.551130	-53.623406	117.551130	-0.132505	-108.223685
3.550000	-0.095219	-71.245966	-53.286943	115.840535	-53.286943	115.840535	-0.134349	-109.546003
3.600000	-0.096764	-72.179266	-52.957593	114.127716	-52.957593	114.127716	-0.136213	-110.862575
3.650000	-0.098326	-73.110383	-52.635117	112.413018	-52.635117	112.413018	-0.138095	-112.173487
3.700000	-0.099906	-74.039322	-52.319287	110.696762	-52.319287	110.696762	-0.139996	-113.478827
3.750000	-0.101505	-74.966088	-52.009891	108.979241	-52.009891	108.979241	-0.141918	-114.778684
3.800000	-0.103124	-75.890595	-51.706536	107.260697	-51.706536	107.260697	-0.143862	-116.072918
3.850000	-0.104762	-76.812944	-51.409237	105.541436	-51.409237	105.541436	-0.145827	-117.361862
3.900000	-0.106421	-77.733144	-51.117811	103.821692	-51.117811	103.821692	-0.147814	-118.645609
3.950000	-0.108100	-78.651205	-50.832080	102.101681	-50.832080	102.101681	-0.149824	-119.924254
4.000000	-0.109800	-79.567137	-50.551879	100.381607	-50.551879	100.381607	-0.151857	-121.197894
4.050000	-0.111522	-80.480950	-50.277047	98.661659	-50.277047	98.661659	-0.153913	-122.466628
4.100000	-0.113266	-81.392657	-50.007432	96.942016	-50.007432	96.942016	-0.155993	-123.730553
4.150000	-0.115033	-82.302269	-49.742888	95.222844	-49.742888	95.222844	-0.158097	-124.989769
4.200000	-0.116823	-83.209802	-49.483278	93.504301	-49.483278	93.504301	-0.160225	-126.244379
4.250000	-0.118637	-84.115267	-49.228468	91.786534	-49.228468	91.786534	-0.162379	-127.494482
4.300000	-0.120474	-85.018682	-48.978331	90.069681	-48.978331	90.069681	-0.164558	-128.740182
4.350000	-0.122337	-85.920060	-48.732744	88.353875	-48.732744	88.353875	-0.166762	-129.981583
4.400000	-0.124225	-86.819420	-48.491592	86.639238	-48.491592	86.639238	-0.168992	-131.218787
4.450000	-0.126138	-87.716778	-48.254760	84.925887	-48.254760	84.925887	-0.171248	-132.451899
4.500000	-0.128077	-88.612151	-48.022143	83.213931	-48.022143	83.213931	-0.173531	-133.681025
4.550000	-0.130043	-89.505560	-47.793635	81.503475	-47.793635	81.503475	-0.175840	-134.906270
4.600000	-0.132036	-90.397024	-47.569136	79.794616	-47.569136	79.794616	-0.178175	-136.127740
4.650000	-0.134057	-91.286562	-47.348552	78.087446	-47.348552	78.087446	-0.180537	-137.345542
4.700000	-0.136105	-92.174196	-47.131788	76.382051	-47.131788	76.382051	-0.182927	-138.559782
4.750000	-0.138182	-93.059947	-46.918756	74.678514	-46.918756	74.678514	-0.185343	-139.770568
4.800000	-0.140288	-93.943837	-46.709371	72.976912	-46.709371	72.976912	-0.187786	-140.978006
4.850000	-0.142424	-94.825890	-46.503547	71.277315	-46.503547	71.277315	-0.190257	-142.182205
4.900000	-0.144589	-95.706130	-46.301207	69.579792	-46.301207	69.579792	-0.192755	-143.383272
4.950000	-0.146784	-96.584580	-46.102271	67.884406	-46.102271	67.884406	-0.195281	-144.581314
5.000000	-0.149011	-97.461266	-45.906667	66.191216	-45.906667	66.191216	-0.197834	-145.776441
5.050000	-0.151269	-98.336138	-45.714277	64.500376	-45.714277	64.500376	-0.200415	-146.968643
5.100000	-0.153560	-99.209301	-45.525081	62.811841	-45.525081	62.811841	-0.203024	-148.158155
5.150000	-0.155883	-100.080781	-45.339013	61.125659	-45.339013	61.125659	-0.205660	-149.345084
5.200000	-0.158238	-100.950605	-45.156006	59.441871	-45.156006	59.441871	-0.208324	-150.529540
5.250000	-0.160626	-101.818803	-44.975997	57.760517	-44.975997	57.760517	-0.211015	-151.711629
5.300000	-0.163048	-102.685402	-44.798925	56.081632	-44.798925	56.081632	-0.213733	-152.891460
5.350000	-0.165504	-103.550432	-44.624730	54.405250	-44.624730	54.405250	-0.216479	-154.069140
5.400000	-0.167994	-104.413924	-44.453355	52.731400	-44.453355	52.731400	-0.219251	-155.244777
5.450000	-0.170519	-105.275907	-44.284746	51.060107	-44.284746	51.060107	-0.222051	-156.418477
5.500000	-0.173080	-106.136413	-44.118848	49.391394	-44.118848	49.391394	-0.224877	-157.590349
5.550000	-0.175676	-106.995475	-43.955610	47.725283	-43.955610	47.725283	-0.227730	-158.760499
5.600000	-0.178308	-107.853123	-43.794982	46.061792	-43.794982	46.061792	-0.230609	-159.929033
5.650000	-0.180977	-108.709391	-43.636916	44.400934	-43.636916	44.400934	-0.233515	-161.096058
5.700000	-0.183683	-109.564312	-43.481366	42.742724	-43.481366	42.742724	-0.236447	-162.261680
5.750000	-0.186426	-110.417920	-43.328286	41.087171	-43.328286	41.087171	-0.239405	-163.426004
5.800000	-0.189208	-111.270251	-43.177634	39.434285	-43.177634	39.434285	-0.242388	-164.589136
5.850000	-0.192027	-112.121337	-43.029369	37.784071	-43.029369	37.784071	-0.245397	-165.751180
5.900000	-0.194886	-112.971216	-42.883449	36.136534	-42.883449	36.136534	-0.248431	-166.912241
5.950000	-0.197783	-113.819923	-42.739836	34.491677	-42.739836	34.491677	-0.251490	-168.072423
6.000000	-0.200721	-114.667494	-42.598494	32.849503	-42.598494	32.849503	-0.254573	-169.231829
6.050000	-0.203698	-115.513967	-42.459386	31.210010	-42.459386	31.210010	-0.257681	-170.390563
6.100000	-0.206716	-116.359379	-42.322479	29.573199	-42.322479	29.573199	-0.260813	-171.548728
6.150000	-0.209774	-117.203768	-42.187740	27.939067	-42.187740	27.939067	-0.263969	-172.706424
6.200000	-0.212874	-118.047172	-42.055136	26.307613	-42.055136	26.307613	-0.267147	-173.863755
6.250000	-0.216016	-118.889631	-41.924639	24.678832	-41.924639	24.678832	-0.270349	-175.020821
6.300000	-0.219201	-119.731147	-41.796227	23.052837	-41.796227	23.052837	-0.273574	-176.177719
6.350000	-0.222429	-120.571800	-41.669867	21.429509	-41.669867	21.429509	-0.276821	-177.334562
6.400000	-0.225700	-121.411631	-41.545534	19.808844	-41.545534	19.808844	-0.280090	-178.491449
6.450000	-0.229014	-122.250680	-41.423202	18.190838	-41.423202	18.190838	-0.283380	-179.648477
6.500000	-0.232372	-123.088990	-41.302848	16.575489	-41.302848	16.575489	-0.286691	179.194256
6.550000	-0.235775	-123.926602	-41.184448	14.962793	-41.184448	14.962793	-0.290022	178.036652
6.600000	-0.239221	-124.763558	-41.067982	13.352750	-41.067982	13.352750	-0.293373	176.878615
6.650000	-0.242713	-125.599901	-40.953428	11.745359	-40.953428	11.745359	-0.296743	175.720049
6.700000	-0.246250	-126.435675	-40.840767	10.140621	-40.840767	10.140621	-0.300132	174.560860
6.750000	-0.249832	-127.270922	-40.729982	8.538538	-40.729982	8.538538	-0.303539	173.400953
6.800000	-0.253461	-128.105688	-40.621054	6.939114	-40.621054	6.939114	-0.306963	172.240236
6.850000	-0.257136	-128.940015	-40.513968	5.342354	-40.513968	5.342354	-0.310405	171.078616
6.900000	-0.260857	-129.773951	-40.408708	3.748266	-40.408708	3.748266	-0.313863	169.916002
6.950000	-0.264626	-130.607539	-40.305261	2.156859	-40.305261	2.156859	-0.317337	168.752302
7.000000	-0.268442	-131.440825	-40.203612	0.568146	-40.203612	0.568146	-0.320827	167.587429
7.050000	-0.272306	-132.273857	-40.103748	-1.017859	-40.103748	-1.017859	-0.324330	166.421293
7.100000	-0.276218	-133.106681	-40.005659	-2.601139	-40.005659	-2.601139	-0.327848	165.253806
7.150000	-0.280179	-133.939344	-39.909334	-4.181673	-39.909334	-4.181673	-0.331379	164.084882
7.200000	-0.284188	-134.771893	-39.814761	-5.759439	-39.814761	-5.759439	-0.334923	162.914437
7.250000	-0.288246	-135.604377	-39.721932	-7.334410	-39.721932	-7.334410	-0.338478	161.742384
7.300000	-0.292354	-136.436844	-39.630837	-8.906558	-39.630837	-8.906558	-0.342044	160.568643
7.350000	-0.296512	-137.269343	-39.541469	-10.475848	-39.541469	-10.475848	-0.345621	159.393129
7.400000	-0.300719	-138.101924	-39.453820	-12.042246	-39.453820	-12.042246	-0.349207	158.215764
7.450000	-0.304977	-138.934636	-39.367882	-13.605711	-39.367882	-13.605711	-0.352802	157.036467
7.500000	-0.309285	-139.767530	-39.283650	-15.166200	-39.283650	-15.166200	-0.356404	155.855161
7.550000	-0.313646	-140.600669	-39.201156	-16.723531	-39.201156	-16.723531	-0.360015	154.671675
7.600000	-0.318059	-141.434096	-39.120358	-18.277782	-39.120358	-18.277782	-0.363631	153.486020
7.650000	-0.322522	-142.267863	-39.041251	-19.828898	-39.041251	-19.828898	-0.367253	152.298125
7.700000	-0.327037	-143.102022	-38.963828	-21.376819	-38.963828	-21.376819	-0.370879	151.107915
7.750000	-0.331604	-143.936625	-38.888086	-22.921482	-38.888086	-22.921482	-0.374509	149.915322
7.800000	-0.336223	-144.771726	-38.814019	-24.462819	-38.814019	-24.462819	-0.378141	148.720277
7.850000	-0.340894	-145.607378	-38.741623	-26.000759	-38.741623	-26.000759	-0.381775	147.522711
7.900000	-0.345617	-146.443635	-38.670894	-27.535226	-38.670894	-27.535226	-0.385410	146.322561
7.950000	-0.350392	-147.280552	-38.601828	-29.066141	-38.601828	-29.066141	-0.389045	145.119762
8.000000	-0.355221	-148.118183	-38.534419	-30.593422	-38.534419	-30.593422	-0.392679	143.914252
8.050000	-0.360102	-148.956583	-38.468665	-32.116980	-38.468665	-32.116980	-0.396311	142.705972
8.100000	-0.365036	-149.795809	-38.404561	-33.636726	-38.404561	-33.636726	-0.399940	141.494864
8.150000	-0.370023	-150.635916	-38.342102	-35.152565	-38.342102	-35.152565	-0.403564	140.280872
8.200000	-0.375063	-151.476962	-38.281284	-36.664400	-38.281284	-36.664400	-0.407184	139.063943
8.250000	-0.380157	-152.319003	-38.222102	-38.172128	-38.222102	-38.172128	-0.410798	137.844023
8.300000	-0.385303	-153.162097	-38.164551	-39.675647	-38.164551	-39.675647	-0.414405	136.621065
8.350000	-0.390503	-154.006302	-38.108627	-41.174847	-38.108627	-41.174847	-0.418004	135.395021
8.400000	-0.395756	-154.851676	-38.054323	-42.669620	-38.054323	-42.669620	-0.421593	134.165846
8.450000	-0.401062	-155.698280	-38.001634	-44.159850	-38.001634	-44.159850	-0.425173	132.933498
8.500000	-0.406422	-156.546171	-37.950554	-45.645423	-37.950554	-45.645423	-0.428741	131.697936
8.550000	-0.411835	-157.395411	-37.901076	-47.126220	-37.901076	-47.126220	-0.432297	130.459123
8.600000	-0.417301	-158.246060	-37.853193	-48.602121	-37.853193	-48.602121	-0.435840	129.217024
8.650000	-0.422819	-159.098178	-37.806899	-50.073004	-37.806899	-50.073004	-0.439369	127.971608
8.700000	-0.428391	-159.951827	-37.762184	-51.538743	-37.762184	-51.538743	-0.442882	126.722844
8.750000	-0.434016	-160.807070	-37.719041	-52.999214	-37.719041	-52.999214	-0.446379	125.470706
8.800000	-0.439695	-161.664043	-37.677520	-54.454049	-37.677520	-54.454049	-0.449858	124.215020
8.850000	-0.445427	-162.522739	-37.637553	-55.903349	-37.637553	-55.903349	-0.453318	122.955914
8.900000	-0.451211	-163.383224	-37.599129	-57.346986	-37.599129	-57.346986	-0.456759	121.693370
8.950000	-0.457047	-164.245559	-37.562238	-58.784830	-37.562238	-58.784830	-0.460179	120.427373
9.000000	-0.462934	-165.109811	-37.526868	-60.216751	-37.526868	-60.216751	-0.463577	119.157912
9.050000	-0.468873	-165.976043	-37.493008	-61.642622	-37.493008	-61.642622	-0.466953	117.884979
9.100000	-0.474862	-166.844322	-37.460645	-63.062312	-37.460645	-63.062312	-0.470305	116.608569
9.150000	-0.480902	-167.714712	-37.429766	-64.475694	-37.429766	-64.475694	-0.473633	115.328679
9.200000	-0.486992	-168.587281	-37.400358	-65.882639	-37.400358	-65.882639	-0.476935	114.045313
9.250000	-0.493132	-169.462095	-37.372405	-67.283023	-37.372405	-67.283023	-0.480211	112.758475
9.300000	-0.499321	-170.339221	-37.345894	-68.676719	-37.345894	-68.676719	-0.483460	111.468174
9.350000	-0.505559	-171.218727	-37.320808	-70.063605	-37.320808	-70.063605	-0.486681	110.174421
9.400000	-0.511844	-172.100682	-37.297133	-71.443558	-37.297133	-71.443558	-0.489872	108.877234
9.450000	-0.518177	-172.985154	-37.274850	-72.816460	-37.274850	-72.816460	-0.493034	107.576630
9.500000	-0.524557	-173.872212	-37.253944	-74.182193	-37.253944	-74.182193	-0.496165	106.272634
9.550000	-0.530983	-174.761926	-37.234396	-75.540643	-37.234396	-75.540643	-0.499265	104.965272
9.600000	-0.537454	-175.654366	-37.216188	-76.891698	-37.216188	-76.891698	-0.502333	103.654575
9.650000	-0.543969	-176.549602	-37.199302	-78.235248	-37.199302	-78.235248	-0.505368	102.340577
9.700000	-0.550528	-177.447705	-37.183719	-79.571188	-37.183719	-79.571188	-0.508369	101.023317
9.750000	-0.557130	-178.348747	-37.169419	-80.899416	-37.169419	-80.899416	-0.511337	99.702835
9.800000	-0.563774	-179.252800	-37.156382	-82.219832	-37.156382	-82.219832	-0.514270	98.379180
9.850000	-0.570458	179.840064	-37.144587	-83.532340	-37.144587	-83.532340	-0.517168	97.052399
9.900000	-0.577182	178.929774	-37.134015	-84.836849	-37.134015	-84.836849	-0.520030	95.722548
9.950000	-0.583945	178.016255	-37.124643	-86.133271	-37.124643	-86.133271	-0.522856	94.389683
10.000000	-0.590745	177.099435	-37.116450	-87.421521	-37.116450	-87.421521	-0.525646	93.053867
