! freq	dB(S11)	phase(S11)	dB(S12)	phase(S12)	
!     	dB(S21)	phase(S21)	dB(S22)	phase(S22)	
!S-par simulation data
#  GHz  S  DB  R 50
0.000000	-88.143722	0.000000	-0.000340	0.000000	-0.000340	0.000000	-88.143721	0.000000
0.050000	-31.610481	-93.169065	-0.006859	-3.081459	-0.006859	-3.081459	-31.610478	-93.168935
0.100000	-25.620128	-96.426763	-0.022333	-6.128608	-0.022333	-6.128608	-25.620123	-96.426506
0.150000	-22.143835	-99.590859	-0.042777	-9.147355	-0.042777	-9.147355	-22.143830	-99.590482
0.200000	-19.700936	-102.682840	-0.067461	-12.149264	-0.067461	-12.149264	-19.700929	-102.682344
0.250000	-17.826042	-105.716997	-0.096659	-15.137280	-0.096659	-15.137280	-17.826035	-105.716384
0.300000	-16.312070	-108.705888	-0.130564	-18.109883	-0.130564	-18.109883	-16.312062	-108.705157
0.350000	-15.048279	-111.659255	-0.169055	-21.064663	-0.169055	-21.064663	-15.048271	-111.658403
0.400000	-13.969524	-114.582001	-0.212002	-23.998518	-0.212002	-23.998518	-13.969516	-114.581029
0.450000	-13.033528	-117.476850	-0.259114	-26.908869	-0.259114	-26.908869	-13.033520	-117.475756
0.500000	-12.211404	-120.344768	-0.310043	-29.793509	-0.310043	-29.793509	-12.211394	-120.343552
0.550000	-11.482827	-123.185315	-0.364453	-32.650184	-0.364453	-32.650184	-11.482817	-123.183976
0.600000	-10.832340	-125.998055	-0.421923	-35.477484	-0.421923	-35.477484	-10.832330	-125.996593
0.650000	-10.248118	-128.782380	-0.482028	-38.274357	-0.482028	-38.274357	-10.248107	-128.780794
0.700000	-9.721055	-131.537453	-0.544362	-41.039809	-0.544362	-41.039809	-9.721043	-131.535743
0.750000	-9.243794	-134.262645	-0.608507	-43.773241	-0.608507	-43.773241	-9.243781	-134.260811
0.800000	-8.810333	-136.957505	-0.674048	-46.474334	-0.674048	-46.474334	-8.810320	-136.955547
0.850000	-8.415790	-139.621629	-0.740581	-49.142871	-0.740581	-49.142871	-8.415776	-139.619546
0.900000	-8.056065	-142.254819	-0.807705	-51.778873	-0.807705	-51.778873	-8.056050	-142.252610
0.950000	-7.727435	-144.857524	-0.875035	-54.383041	-0.875035	-54.383041	-7.727420	-144.855188
1.000000	-7.426872	-147.430083	-0.942211	-56.955945	-0.942211	-56.955945	-7.426856	-147.427619
1.050000	-7.151761	-149.973004	-1.008888	-59.498321	-1.008888	-59.498321	-7.151745	-149.970413
1.100000	-6.899830	-152.486952	-1.074741	-62.011045	-1.074741	-62.011045	-6.899813	-152.484231
1.150000	-6.669093	-154.972726	-1.139464	-64.495119	-1.139464	-64.495119	-6.669076	-154.969874
1.200000	-6.457807	-157.431247	-1.202771	-66.951647	-1.202771	-66.951647	-6.457790	-157.428263
1.250000	-6.264435	-159.863541	-1.264396	-69.381826	-1.264396	-69.381826	-6.264418	-159.860422
1.300000	-6.087792	-162.270378	-1.324055	-71.786584	-1.324055	-71.786584	-6.087776	-162.267123
1.350000	-5.926486	-164.653335	-1.381551	-74.167639	-1.381551	-74.167639	-5.926469	-164.649942
1.400000	-5.779873	-167.012854	-1.436564	-76.525576	-1.436564	-76.525576	-5.779857	-167.009321
1.450000	-5.646039	-169.352115	-1.489151	-78.863655	-1.489151	-78.863655	-5.646023	-169.348440
1.500000	-5.524736	-171.671338	-1.538987	-81.182219	-1.538987	-81.182219	-5.524720	-171.667518
1.550000	-5.415410	-173.971547	-1.585852	-83.482399	-1.585852	-83.482399	-5.415395	-173.967580
1.600000	-5.316634	-176.255530	-1.629854	-85.767013	-1.629854	-85.767013	-5.316619	-176.251413
1.650000	-5.229118	-178.522532	-1.670414	-88.035487	-1.670414	-88.035487	-5.229104	-178.518262
1.700000	-5.150887	179.223616	-1.707947	-90.291599	-1.707947	-90.291599	-5.150874	179.228041
1.750000	-5.082438	176.982940	-1.741999	-92.535472	-1.741999	-92.535472	-5.082426	176.987524
1.800000	-5.023113	174.753547	-1.772582	-94.769036	-1.772582	-94.769036	-5.023102	174.758293
1.850000	-4.972575	172.533955	-1.799622	-96.993832	-1.799622	-96.993832	-4.972565	172.538866
1.900000	-4.930628	170.322752	-1.823013	-99.211342	-1.823013	-99.211342	-4.930618	170.327831
1.950000	-4.897030	168.118400	-1.842702	-101.423159	-1.842702	-101.423159	-4.897021	168.123652
2.000000	-4.871503	165.919324	-1.858686	-103.630903	-1.858686	-103.630903	-4.871495	165.924751
2.050000	-4.853903	163.724039	-1.870936	-105.836111	-1.870936	-105.836111	-4.853896	163.729646
2.100000	-4.844128	161.531065	-1.879429	-108.040322	-1.879429	-108.040322	-4.844122	161.536855
2.150000	-4.842119	159.338924	-1.884156	-110.245071	-1.884156	-110.245071	-4.842114	159.344903
2.200000	-4.847857	157.146144	-1.885116	-112.451892	-1.885116	-112.451892	-4.847853	157.152315
2.250000	-4.861364	154.951258	-1.882318	-114.662316	-1.882318	-114.662316	-4.861361	154.957625
2.300000	-4.882705	152.752803	-1.875782	-116.877875	-1.875782	-116.877875	-4.882703	152.759372
2.350000	-4.911985	150.549325	-1.865536	-119.100097	-1.865536	-119.100097	-4.911984	150.556100
2.400000	-4.949353	148.339378	-1.851621	-121.330510	-1.851621	-121.330510	-4.949353	148.346365
2.450000	-4.995003	146.121525	-1.834088	-123.570638	-1.834088	-123.570638	-4.995003	146.128728
2.500000	-5.049173	143.894339	-1.812998	-125.822003	-1.812998	-125.822003	-5.049174	143.901765
2.550000	-5.112340	141.656144	-1.788348	-128.086435	-1.788348	-128.086435	-5.112342	141.663799
2.600000	-5.184668	139.405749	-1.760301	-130.365203	-1.760301	-130.365203	-5.184671	139.413639
2.650000	-5.266555	137.141781	-1.728955	-132.659810	-1.728955	-132.659810	-5.266559	137.149914
2.700000	-5.358459	134.862895	-1.694420	-134.971751	-1.694420	-134.971751	-5.358464	134.871278
2.750000	-5.460905	132.567776	-1.656819	-137.302507	-1.656819	-137.302507	-5.460910	132.576417
2.800000	-5.574486	130.255150	-1.616291	-139.653541	-1.616291	-139.653541	-5.574492	130.264057
2.850000	-5.699876	127.923788	-1.572986	-142.026296	-1.572986	-142.026296	-5.699883	127.932972
2.900000	-5.837836	125.572521	-1.527072	-144.422186	-1.527072	-144.422186	-5.837844	125.581992
2.950000	-5.989222	123.200250	-1.478733	-146.842594	-1.478733	-146.842594	-5.989230	123.210018
3.000000	-6.154999	120.805959	-1.428166	-149.288859	-1.428166	-149.288859	-6.155009	120.816038
3.050000	-6.336258	118.388736	-1.375589	-151.762272	-1.375589	-151.762272	-6.336269	118.399140
3.100000	-6.534225	115.947793	-1.321235	-154.264067	-1.321235	-154.264067	-6.534237	115.958538
3.150000	-6.750439	113.482218	-1.265337	-156.795738	-1.265337	-156.795738	-6.750453	113.493321
3.200000	-6.986496	110.991542	-1.208174	-159.358401	-1.208174	-159.358401	-6.986512	111.003024
3.250000	-7.244044	108.475799	-1.150055	-161.952713	-1.150055	-161.952713	-7.244061	108.487684
3.300000	-7.525127	105.935026	-1.091286	-164.579541	-1.091286	-164.579541	-7.525147	105.947339
3.350000	-7.832089	103.369577	-1.032191	-167.239631	-1.032191	-167.239631	-7.832112	103.382349
3.400000	-8.167637	100.780201	-0.973109	-169.933582	-0.973109	-169.933582	-8.167662	100.793468
3.450000	-8.534914	98.168128	-0.914398	-172.661840	-0.914398	-172.661840	-8.534943	98.181931
3.500000	-8.937603	95.535189	-0.856427	-175.424674	-0.856427	-175.424674	-8.937636	95.549578
3.550000	-9.380062	92.883980	-0.799578	-178.222161	-0.799578	-178.222161	-9.380100	92.899014
3.600000	-9.867504	90.218078	-0.744243	178.945829	-0.744243	178.945829	-9.867547	90.233829
3.650000	-10.406247	87.542357	-0.690822	176.079649	-0.690822	176.079649	-10.406296	87.558914
3.700000	-11.004065	84.863453	-0.639719	173.179891	-0.639719	173.179891	-11.004120	84.880926
3.750000	-11.670697	82.190462	-0.591337	170.247395	-0.591337	170.247395	-11.670759	82.208992
3.800000	-12.419130	79.536879	-0.546150	167.282600	-0.546150	167.282600	-12.419199	79.556652
3.850000	-13.265189	76.921216	-0.504496	164.287601	-0.504496	164.287601	-13.265265	76.942479
3.900000	-14.230909	74.371230	-0.466753	161.264043	-0.466753	161.264043	-14.230990	74.394322
3.950000	-15.347125	71.930304	-0.433282	158.213833	-0.433282	158.213833	-15.347208	71.955713
4.000000	-16.658960	69.670670	-0.404419	155.139130	-0.404419	155.139130	-16.659034	69.699132
4.050000	-18.236325	67.723084	-0.380472	152.042337	-0.380472	152.042337	-18.236366	67.755787
4.100000	-20.196008	66.352992	-0.361716	148.926072	-0.361716	148.926072	-20.195953	66.392034
4.150000	-22.754321	66.197111	-0.348388	145.793155	-0.348388	145.793155	-22.753974	66.246714
4.200000	-26.372588	69.253189	-0.340684	142.646570	-0.340684	142.646570	-26.371137	69.323534
4.250000	-32.100386	85.587391	-0.338754	139.489437	-0.338754	139.489437	-32.092144	85.699913
4.300000	-36.046791	156.328260	-0.342701	136.324973	-0.342701	136.324973	-36.019997	156.305690
4.350000	-29.156086	-161.764261	-0.352578	133.156455	-0.352578	133.156455	-29.149106	-161.823091
4.400000	-24.518434	-154.610924	-0.368454	129.987204	-0.368454	129.987204	-24.515471	-154.644698
4.450000	-21.443373	-153.570334	-0.390276	126.820596	-0.390276	126.820596	-21.441618	-153.591294
4.500000	-19.174128	-154.452283	-0.417882	123.659838	-0.417882	123.659838	-19.172904	-154.465748
4.550000	-17.387984	-156.176920	-0.451127	120.508017	-0.451127	120.508017	-17.387047	-156.185469
4.600000	-15.923468	-158.337207	-0.489819	117.368083	-0.489819	117.368083	-15.922705	-158.342253
4.650000	-14.688922	-160.746247	-0.533732	114.242808	-0.533732	114.242808	-14.688274	-160.748639
4.700000	-13.627435	-163.305892	-0.582600	111.134768	-0.582600	111.134768	-13.626868	-163.306180
4.750000	-12.701245	-165.959343	-0.636128	108.046314	-0.636128	108.046314	-12.700737	-165.957899
4.800000	-11.883981	-168.671226	-0.693995	104.979563	-0.693995	104.979563	-11.883517	-168.668313
4.850000	-11.156467	-171.418230	-0.755857	101.936381	-0.755857	101.936381	-11.156037	-171.414041
4.900000	-10.504290	-174.184306	-0.821355	98.918381	-0.821355	98.918381	-10.503887	-174.178985
4.950000	-9.916317	-176.958029	-0.890121	95.926921	-0.890121	95.926921	-9.915935	-176.951687
5.000000	-9.383744	-179.731065	-0.961777	92.963107	-0.961777	92.963107	-9.383378	-179.723789
5.050000	-8.899863	177.503021	-1.035976	90.028433	-1.035976	90.028433	-8.899510	177.511163
5.100000	-8.458433	174.748749	-1.112291	87.122909	-1.112291	87.122909	-8.458091	174.757703
5.150000	-8.054612	172.009519	-1.190351	84.246926	-1.190351	84.246926	-8.054278	172.019241
5.200000	-7.684320	169.287862	-1.269793	81.400668	-1.269793	81.400668	-7.683992	169.298317
5.250000	-7.344084	166.585628	-1.350264	78.584130	-1.350264	78.584130	-7.343761	166.596786
5.300000	-7.030917	163.904120	-1.431426	75.797135	-1.431426	75.797135	-7.030597	163.915959
5.350000	-6.742230	161.244202	-1.512954	73.039351	-1.512954	73.039351	-6.741913	161.256702
5.400000	-6.475762	158.606381	-1.594537	70.310306	-1.594537	70.310306	-6.475447	158.619527
5.450000	-6.229529	155.990869	-1.675884	67.609407	-1.675884	67.609407	-6.229215	156.004649
5.500000	-6.001777	153.397636	-1.756718	64.935954	-1.756718	64.935954	-6.001464	153.412040
5.550000	-5.790952	150.826453	-1.836780	62.289157	-1.836780	62.289157	-5.790640	150.841474
5.600000	-5.595669	148.276927	-1.915828	59.668147	-1.915828	59.668147	-5.595357	148.292560
5.650000	-5.414793	145.748755	-1.993614	57.072252	-1.993614	57.072252	-5.414482	145.764997
5.700000	-5.247200	143.241275	-2.069925	54.500450	-2.069925	54.500450	-5.246888	143.258124
5.750000	-5.091781	140.753528	-2.144592	51.951442	-2.144592	51.951442	-5.091470	140.770985
5.800000	-4.947641	138.284718	-2.217438	49.424166	-2.217438	49.424166	-4.947330	138.302783
5.850000	-4.813972	135.833993	-2.288305	46.917537	-2.288305	46.917537	-4.813661	135.852670
5.900000	-4.690042	133.400460	-2.357045	44.430452	-2.357045	44.430452	-4.689732	133.419754
5.950000	-4.575190	130.983198	-2.423525	41.961800	-2.423525	41.961800	-4.574881	131.003114
6.000000	-4.468818	128.581263	-2.487626	39.510465	-2.487626	39.510465	-4.468511	128.601807
6.050000	-4.370384	126.193698	-2.549239	37.075328	-2.549239	37.075328	-4.370078	126.214879
6.100000	-4.279395	123.819538	-2.608267	34.655277	-2.608267	34.655277	-4.279090	123.841365
6.150000	-4.195406	121.457817	-2.664624	32.249205	-2.664624	32.249205	-4.195103	121.480300
6.200000	-4.118012	119.107572	-2.718231	29.856013	-2.718231	29.856013	-4.117711	119.130723
6.250000	-4.046847	116.767844	-2.769021	27.474616	-2.769021	27.474616	-4.046549	116.791675
6.300000	-3.981690	114.437870	-2.816865	25.104149	-2.816865	25.104149	-3.981394	114.462397
6.350000	-3.922122	112.116485	-2.861780	22.743295	-2.861780	22.743295	-3.921828	112.141721
6.400000	-3.867871	109.802762	-2.903721	20.391012	-2.903721	20.391012	-3.867580	109.828724
6.450000	-3.818695	107.495792	-2.942652	18.046271	-2.942652	18.046271	-3.818407	107.522496
6.500000	-3.774376	105.194677	-2.978540	15.708058	-2.978540	15.708058	-3.774090	105.222143
6.550000	-3.734718	102.898536	-3.011359	13.375375	-3.011359	13.375375	-3.734434	102.926784
6.600000	-3.699546	100.606503	-3.041091	11.047241	-3.041091	11.047241	-3.699265	100.635553
6.650000	-3.668708	98.317727	-3.067718	8.722686	-3.067718	8.722686	-3.668428	98.347602
6.700000	-3.642068	96.031371	-3.091230	6.400757	-3.091230	6.400757	-3.641790	96.062095
6.750000	-3.619509	93.746614	-3.111621	4.080514	-3.111621	4.080514	-3.619231	93.778211
6.800000	-3.600930	91.462646	-3.128889	1.761027	-3.128889	1.761027	-3.600652	91.495142
6.850000	-3.586248	89.178673	-3.143034	-0.558618	-3.143034	-0.558618	-3.585969	89.212096
6.900000	-3.575433	86.893893	-3.154028	-2.879350	-3.154028	-2.879350	-3.575153	86.928272
6.950000	-3.568433	84.607509	-3.161879	-5.202092	-3.161879	-5.202092	-3.568150	84.642875
7.000000	-3.565166	82.318767	-3.166634	-7.527719	-3.166634	-7.527719	-3.564880	82.355154
7.050000	-3.565610	80.026917	-3.168307	-9.857108	-3.168307	-9.857108	-3.565319	80.064356
7.100000	-3.569754	77.731213	-3.166916	-12.191131	-3.166916	-12.191131	-3.569458	77.769742
7.150000	-3.577603	75.430921	-3.162481	-14.530652	-3.162481	-14.530652	-3.577299	75.470576
7.200000	-3.589176	73.125309	-3.155027	-16.876531	-3.155027	-16.876531	-3.588863	73.166130
7.250000	-3.604504	70.813653	-3.144580	-19.229624	-3.144580	-19.229624	-3.604182	70.855681
7.300000	-3.623636	68.495233	-3.131170	-21.590785	-3.131170	-21.590785	-3.623302	68.538512
7.350000	-3.646635	66.169332	-3.114828	-23.960866	-3.114828	-23.960866	-3.646287	66.213909
7.400000	-3.673577	63.835238	-3.095590	-26.340717	-3.095590	-26.340717	-3.673215	63.881161
7.450000	-3.704556	61.492241	-3.073495	-28.731189	-3.073495	-28.731189	-3.704178	61.539562
7.500000	-3.739684	59.139632	-3.048583	-31.133134	-3.048583	-31.133134	-3.739287	59.188406
7.550000	-3.779179	56.776466	-3.020839	-33.547695	-3.020839	-33.547695	-3.778763	56.826754
7.600000	-3.823102	54.402250	-2.990372	-35.975478	-2.990372	-35.975478	-3.822666	54.454114
7.650000	-3.871621	52.016283	-2.957235	-38.417345	-2.957235	-38.417345	-3.871162	52.069790
7.700000	-3.924923	49.617870	-2.921484	-40.874161	-2.921484	-40.874161	-3.924441	49.673094
7.750000	-3.983219	47.206323	-2.883177	-43.346795	-2.883177	-43.346795	-3.982713	47.263340
7.800000	-4.046745	44.780956	-2.842378	-45.836122	-2.842378	-45.836122	-4.046213	44.839852
7.850000	-4.115762	42.341098	-2.799156	-48.343024	-2.799156	-48.343024	-4.115204	42.401963
7.900000	-4.190560	39.886086	-2.753583	-50.868389	-2.753583	-50.868389	-4.189974	39.949020
7.950000	-4.271458	37.415276	-2.705738	-53.413110	-2.705738	-53.413110	-4.270845	37.480388
8.000000	-4.358811	34.928044	-2.655704	-55.978088	-2.655704	-55.978088	-4.358170	34.995451
8.050000	-4.453009	32.423790	-2.603570	-58.564232	-2.603570	-58.564232	-4.452339	32.493623
8.100000	-4.554481	29.901950	-2.549434	-61.172455	-2.549434	-61.172455	-4.553782	29.974352
8.150000	-4.663775	27.361797	-2.493373	-63.803938	-2.493373	-63.803938	-4.663048	27.436927
8.200000	-4.781426	24.802843	-2.435502	-66.459637	-2.435502	-66.459637	-4.780669	24.880876
8.250000	-4.907940	22.224879	-2.375963	-69.140233	-2.375963	-69.140233	-4.907152	22.306008
8.300000	-5.043952	19.627573	-2.314885	-71.846659	-2.314885	-71.846659	-5.043132	19.712011
8.350000	-5.190163	17.010688	-2.252405	-74.579849	-2.252405	-74.579849	-5.189311	17.098671
8.400000	-5.347349	14.374099	-2.188669	-77.340737	-2.188669	-77.340737	-5.346460	14.465887
8.450000	-5.516364	11.717813	-2.123836	-80.130251	-2.123836	-80.130251	-5.515435	11.813696
8.500000	-5.698156	9.041998	-2.058077	-82.949314	-2.058077	-82.949314	-5.697181	9.142299
8.550000	-5.893775	6.347016	-1.991575	-85.798836	-1.991575	-85.798836	-5.892747	6.452091
8.600000	-6.104392	3.633455	-1.924528	-88.679708	-1.924528	-88.679708	-6.103299	3.743700
8.650000	-6.331307	0.902180	-1.857150	-91.592796	-1.857150	-91.592796	-6.330137	1.018037
8.700000	-6.575980	-1.845615	-1.789671	-94.538929	-1.789671	-94.538929	-6.574715	-1.723657
8.750000	-6.840047	-4.608342	-1.722341	-97.518889	-1.722341	-97.518889	-6.838664	-4.479736
8.800000	-7.125643	-7.384151	-1.655432	-100.534154	-1.655432	-100.534154	-7.124113	-7.248271
8.850000	-7.434603	-10.170013	-1.589247	-103.584607	-1.589247	-103.584607	-7.432889	-10.026171
8.900000	-7.769316	-12.962493	-1.524098	-106.670741	-1.524098	-106.670741	-7.767373	-12.809913
8.950000	-8.132527	-15.757237	-1.460321	-109.792894	-1.460321	-109.792894	-8.130301	-15.595041
9.000000	-8.527415	-18.548735	-1.398273	-112.951197	-1.398273	-112.951197	-8.524835	-18.375918
9.050000	-8.957688	-21.329987	-1.338325	-116.145529	-1.338325	-116.145529	-8.954670	-21.145390
9.100000	-9.427727	-24.092043	-1.280857	-119.375470	-1.280857	-119.375470	-9.424164	-23.894310
9.150000	-9.942756	-26.823347	-1.226241	-122.640265	-1.226241	-122.640265	-9.938518	-26.610871
9.200000	-10.509026	-29.509091	-1.174820	-125.938703	-1.174820	-125.938703	-10.503945	-29.279939
9.250000	-11.134330	-32.129163	-1.126916	-129.269504	-1.126916	-129.269504	-11.128194	-31.880947
9.300000	-11.828574	-34.654660	-1.082841	-132.631490	-1.082841	-132.631490	-11.821099	-34.384318
9.350000	-12.604103	-37.045452	-1.042818	-136.023145	-1.042818	-136.023145	-12.594903	-36.748990
9.400000	-13.476241	-39.250613	-1.006881	-139.442233	-1.006881	-139.442233	-13.464773	-38.922880
9.450000	-14.466259	-41.186481	-0.975198	-142.888023	-0.975198	-142.888023	-14.451713	-40.820410
9.500000	-15.603294	-42.704475	-0.948062	-146.360765	-0.948062	-146.360765	-15.584369	-42.289731
9.550000	-16.926146	-43.603483	-0.925452	-149.858814	-0.925452	-149.858814	-16.900660	-43.125908
9.600000	-18.490872	-43.509499	-0.907594	-153.381840	-0.907594	-153.381840	-18.454834	-42.949080
9.650000	-20.371955	-41.566905	-0.895055	-156.930613	-0.895055	-156.930613	-20.317149	-40.895820
9.700000	-22.650837	-36.213036	-0.887959	-160.503156	-0.887959	-160.503156	-22.559444	-35.413261
9.750000	-25.285692	-24.043616	-0.886637	-164.098075	-0.886637	-164.098075	-25.120196	-23.206196
9.800000	-27.358813	0.528063	-0.891683	-167.714346	-0.891683	-167.714346	-27.092802	0.833433
9.850000	-26.815748	31.301857	-0.903389	-171.349436	-0.903389	-171.349436	-26.573741	30.608134
9.900000	-24.319868	51.696838	-0.921894	-175.000299	-0.921894	-175.000299	-24.176629	50.668773
9.950000	-21.704855	61.123635	-0.947683	-178.664510	-0.947683	-178.664510	-21.622364	60.154360
10.000000	-19.490960	64.965490	-0.980922	177.661239	-0.980922	177.661239	-19.439525	64.091098
