! freq	dB(S11)	phase(S11)	dB(S12)	phase(S12)	
!     	dB(S21)	phase(S21)	dB(S22)	phase(S22)	
!S-par simulation data
#  GHz  S  DB  R 50
0.000000	-0.000000	-0.000000	-293.446592	180.000000	-293.446592	180.000000	0.000000	0.000000
0.050000	-0.001262	-1.532544	-92.177080	88.034324	-92.177080	88.034324	-0.002451	-2.514732
0.100000	-0.003625	-3.054189	-86.178615	86.073427	-86.178615	86.073427	-0.006229	-5.008817
0.150000	-0.005892	-4.568615	-82.690810	84.115096	-82.690810	84.115096	-0.009871	-7.492270
0.200000	-0.007991	-6.079632	-80.227760	82.080480	-80.227760	82.080480	-0.013441	-9.968592
0.250000	-0.009989	-7.588190	-78.398158	79.773802	-78.398158	79.773802	-0.016898	-12.437895
0.300000	-0.011936	-9.094746	-76.942968	78.061433	-76.942968	78.061433	-0.020209	-14.900829
0.350000	-0.013849	-10.599547	-75.714263	76.292083	-75.714263	76.292083	-0.023388	-17.357908
0.400000	-0.015739	-12.102699	-74.680102	74.489704	-74.680102	74.489704	-0.026464	-19.809164
0.450000	-0.017613	-13.604119	-73.805013	72.709621	-73.805013	72.709621	-0.029471	-22.253879
0.500000	-0.019482	-15.103933	-73.056516	70.969368	-73.056516	70.969368	-0.032448	-24.692128
0.550000	-0.021351	-16.602110	-72.413874	69.279506	-72.413874	69.279506	-0.035415	-27.123523
0.600000	-0.023224	-18.098539	-71.863421	67.651231	-71.863421	67.651231	-0.038383	-29.547405
0.650000	-0.025105	-19.593017	-71.396711	66.099302	-71.396711	66.099302	-0.041357	-31.962791
0.700000	-0.026992	-21.085545	-71.001822	64.630338	-71.001822	64.630338	-0.044333	-34.369674
0.750000	-0.028883	-22.575992	-70.672333	63.256474	-70.672333	63.256474	-0.047303	-36.767524
0.800000	-0.030775	-24.064090	-70.405883	61.998144	-70.405883	61.998144	-0.050256	-39.155279
0.850000	-0.032665	-25.549718	-70.197492	60.871563	-70.197492	60.871563	-0.053181	-41.532547
0.900000	-0.034549	-27.032748	-70.043292	59.895435	-70.043292	59.895435	-0.056067	-43.898928
0.950000	-0.036423	-28.513002	-69.940918	59.094864	-69.940918	59.094864	-0.058904	-46.253842
1.000000	-0.038286	-29.990321	-69.887996	58.498700	-69.887996	58.498700	-0.061687	-48.596801
1.050000	-0.040134	-31.464550	-69.882183	58.141194	-69.882183	58.141194	-0.064411	-50.927352
1.100000	-0.041968	-32.935543	-69.920862	58.062965	-69.920862	58.062965	-0.067075	-53.245085
1.150000	-0.043787	-34.403163	-70.000744	58.311901	-70.000744	58.311901	-0.069679	-55.549635
1.200000	-0.045591	-35.867283	-70.117334	58.943765	-70.117334	58.943765	-0.072226	-57.840680
1.250000	-0.047381	-37.327785	-70.264219	60.022037	-70.264219	60.022037	-0.074717	-60.117948
1.300000	-0.049158	-38.784481	-70.432215	61.629029	-70.432215	61.629029	-0.077155	-62.380898
1.350000	-0.050924	-40.237354	-70.607176	63.825478	-70.607176	63.825478	-0.079546	-64.629643
1.400000	-0.052679	-41.686317	-70.770434	66.672360	-70.770434	66.672360	-0.081892	-66.864034
1.450000	-0.054426	-43.131294	-70.897550	70.204676	-70.897550	70.204676	-0.084196	-69.083958
1.500000	-0.056164	-44.572214	-70.959004	74.408823	-70.959004	74.408823	-0.086461	-71.289333
1.550000	-0.057896	-46.009013	-70.923145	79.199163	-70.923145	79.199163	-0.088690	-73.480107
1.600000	-0.059622	-47.441636	-70.761775	84.405288	-70.761775	84.405288	-0.090884	-75.656254
1.650000	-0.061343	-48.870030	-70.457096	89.783545	-70.457096	89.783545	-0.093045	-77.817774
1.700000	-0.063059	-50.294226	-70.009910	95.064815	-70.009910	95.064815	-0.095176	-79.964953
1.750000	-0.064770	-51.713788	-69.419658	99.951257	-69.419658	99.951257	-0.097274	-82.096519
1.800000	-0.066478	-53.129308	-68.735012	104.327687	-68.735012	104.327687	-0.099345	-84.214640
1.850000	-0.068182	-54.540242	-67.969045	108.028466	-67.969045	108.028466	-0.101388	-86.317723
1.900000	-0.069882	-55.946816	-67.158507	111.066515	-67.158507	111.066515	-0.103405	-88.406703
1.950000	-0.071579	-57.349065	-66.328130	113.477837	-66.328130	113.477837	-0.105397	-90.481900
2.000000	-0.073274	-58.746667	-65.489982	115.277953	-65.489982	115.277953	-0.107365	-92.542503
2.050000	-0.074965	-60.139836	-64.661560	116.568288	-64.661560	116.568288	-0.109311	-94.589413
2.100000	-0.076655	-61.528412	-63.849184	117.403686	-63.849184	117.403686	-0.111236	-96.622354
2.150000	-0.078342	-62.912177	-63.056433	117.836736	-63.056433	117.836736	-0.113141	-98.640922
2.200000	-0.080028	-64.291818	-62.293235	117.977307	-62.293235	117.977307	-0.115029	-100.647375
2.250000	-0.081713	-65.666829	-61.555692	117.835651	-61.555692	117.835651	-0.116901	-102.640445
2.300000	-0.083398	-67.036955	-60.842763	117.444147	-60.842763	117.444147	-0.118758	-104.619655
2.350000	-0.085082	-68.402575	-60.157081	116.858548	-60.157081	116.858548	-0.120602	-106.586329
2.400000	-0.086767	-69.763687	-59.497719	116.106553	-59.497719	116.106553	-0.122435	-108.540690
2.450000	-0.088454	-71.120292	-58.863578	115.211508	-58.863578	115.211508	-0.124260	-110.482965
2.500000	-0.090142	-72.472392	-58.253472	114.193117	-58.253472	114.193117	-0.126077	-112.413392
2.550000	-0.091832	-73.819993	-57.666197	113.068042	-57.666197	113.068042	-0.127889	-114.332214
2.600000	-0.093526	-75.162745	-57.099372	111.844017	-57.099372	111.844017	-0.129696	-116.238798
2.650000	-0.095224	-76.500854	-56.552758	110.538296	-56.552758	110.538296	-0.131502	-118.133921
2.700000	-0.096927	-77.834498	-56.025818	109.164053	-56.025818	109.164053	-0.133307	-120.018263
2.750000	-0.098636	-79.163693	-55.517474	107.729734	-55.517474	107.729734	-0.135114	-121.892093
2.800000	-0.100351	-80.488458	-55.026724	106.242622	-55.026724	106.242622	-0.136924	-123.755684
2.850000	-0.102073	-81.808813	-54.552629	104.709014	-54.552629	104.709014	-0.138739	-125.609312
2.900000	-0.103803	-83.124729	-54.094217	103.133937	-54.094217	103.133937	-0.140560	-127.453143
2.950000	-0.105543	-84.435834	-53.650000	101.519328	-53.650000	101.519328	-0.142389	-129.286632
3.000000	-0.107293	-85.742612	-53.220157	99.873365	-53.220157	99.873365	-0.144228	-131.111069
3.050000	-0.109053	-87.045096	-52.803973	98.199570	-52.803973	98.199570	-0.146077	-132.926746
3.100000	-0.110825	-88.343317	-52.400783	96.501041	-52.400783	96.501041	-0.147938	-134.733955
3.150000	-0.112609	-89.637312	-52.009972	94.780517	-52.009972	94.780517	-0.149813	-136.532989
3.200000	-0.114406	-90.927118	-51.630968	93.040420	-51.630968	93.040420	-0.151702	-138.324146
3.250000	-0.116218	-92.212523	-51.262973	91.281956	-51.262973	91.281956	-0.153607	-140.107276
3.300000	-0.118046	-93.493601	-50.905588	89.507404	-50.905588	89.507404	-0.155530	-141.882771
3.350000	-0.119888	-94.770862	-50.558807	87.720060	-50.558807	87.720060	-0.157469	-143.651734
3.400000	-0.121747	-96.043886	-50.221772	85.919966	-50.221772	85.919966	-0.159428	-145.413690
3.450000	-0.123624	-97.312889	-49.894242	84.109037	-49.894242	84.109037	-0.161407	-147.169229
3.500000	-0.125519	-98.577923	-49.575852	82.288513	-49.575852	82.288513	-0.163407	-148.918667
3.550000	-0.127433	-99.839043	-49.266255	80.459504	-49.266255	80.459504	-0.165428	-150.662317
3.600000	-0.129367	-101.096306	-48.965128	78.623008	-48.965128	78.623008	-0.167471	-152.400493
3.650000	-0.131321	-102.349771	-48.672167	76.779923	-48.672167	76.779923	-0.169537	-154.133511
3.700000	-0.133297	-103.599497	-48.387088	74.931055	-48.387088	74.931055	-0.171627	-155.861682
3.750000	-0.135294	-104.845548	-48.109621	73.077136	-48.109621	73.077136	-0.173740	-157.585320
3.800000	-0.137315	-106.087910	-47.839492	71.218741	-47.839492	71.218741	-0.175879	-159.304653
3.850000	-0.139358	-107.326731	-47.576495	69.356572	-47.576495	69.356572	-0.178042	-161.020089
3.900000	-0.141426	-108.562076	-47.320405	67.491167	-47.320405	67.491167	-0.180231	-162.731940
3.950000	-0.143518	-109.794017	-47.071011	65.623012	-47.071011	65.623012	-0.182445	-164.440514
4.000000	-0.145636	-111.022623	-46.828113	63.752550	-46.828113	63.752550	-0.184685	-166.146117
4.050000	-0.147779	-112.247969	-46.591524	61.880182	-46.591524	61.880182	-0.186951	-167.849057
4.100000	-0.149949	-113.470127	-46.361067	60.006276	-46.361067	60.006276	-0.189243	-169.549637
4.150000	-0.152145	-114.689173	-46.136573	58.131166	-46.136573	58.131166	-0.191562	-171.248161
4.200000	-0.154369	-115.905185	-45.917885	56.255157	-45.917885	56.255157	-0.193908	-172.944929
4.250000	-0.156621	-117.118240	-45.704855	54.378529	-45.704855	54.378529	-0.196279	-174.640240
4.300000	-0.158902	-118.328419	-45.497342	52.501538	-45.497342	52.501538	-0.198678	-176.334393
4.350000	-0.161211	-119.535803	-45.295214	50.624420	-45.295214	50.624420	-0.201102	-178.027680
4.400000	-0.163551	-120.740445	-45.098353	48.747394	-45.098353	48.747394	-0.203554	-179.720394
4.450000	-0.165920	-121.942432	-44.906648	46.870667	-44.906648	46.870667	-0.206032	178.587166
4.500000	-0.168320	-123.141878	-44.719978	44.994422	-44.719978	44.994422	-0.208536	176.894705
4.550000	-0.170751	-124.338869	-44.538240	43.118831	-44.538240	43.118831	-0.211066	175.201938
4.600000	-0.173213	-125.533492	-44.361336	41.244054	-44.361336	41.244054	-0.213622	173.508581
4.650000	-0.175707	-126.725835	-44.189172	39.370241	-44.189172	39.370241	-0.216203	171.814355
4.700000	-0.178232	-127.915987	-44.021663	37.497535	-44.021663	37.497535	-0.218809	170.118981
4.750000	-0.180790	-129.104039	-43.858726	35.626069	-43.858726	35.626069	-0.221440	168.422185
4.800000	-0.183381	-130.290082	-43.700287	33.755972	-43.700287	33.755972	-0.224096	166.723695
4.850000	-0.186005	-131.474207	-43.546274	31.887369	-43.546274	31.887369	-0.226776	165.023244
4.900000	-0.188662	-132.656507	-43.396622	30.020380	-43.396622	30.020380	-0.229479	163.320564
4.950000	-0.191353	-133.837077	-43.251268	28.155124	-43.251268	28.155124	-0.232206	161.615396
5.000000	-0.194077	-135.016011	-43.110157	26.291715	-43.110157	26.291715	-0.234955	159.907481
5.050000	-0.196837	-136.193373	-42.973280	24.430317	-42.973280	24.430317	-0.237728	158.196493
5.100000	-0.199631	-137.369295	-42.840548	22.571005	-42.840548	22.571005	-0.240522	156.482241
5.150000	-0.202460	-138.543875	-42.711917	20.713898	-42.711917	20.713898	-0.243338	154.764481
5.200000	-0.205323	-139.717209	-42.587347	18.859117	-42.587347	18.859117	-0.246174	153.042968
5.250000	-0.208224	-140.889338	-42.466928	17.006925	-42.466928	17.006925	-0.249032	151.317242
5.300000	-0.211158	-142.060473	-42.350404	15.157212	-42.350404	15.157212	-0.251909	149.587458
5.350000	-0.214128	-143.230663	-42.237845	13.310218	-42.237845	13.310218	-0.254804	147.853220
5.400000	-0.217133	-144.400008	-42.129223	11.466085	-42.129223	11.466085	-0.257719	146.114305
5.450000	-0.220175	-145.568610	-42.024518	9.624962	-42.024518	9.624962	-0.260651	144.370494
5.500000	-0.223252	-146.736569	-41.923710	7.787007	-41.923710	7.787007	-0.263601	142.621575
5.550000	-0.226365	-147.903989	-41.826784	5.952388	-41.826784	5.952388	-0.266568	140.867343
5.600000	-0.229514	-149.070971	-41.733725	4.121283	-41.733725	4.121283	-0.269551	139.107596
5.650000	-0.232699	-150.237620	-41.644526	2.293883	-41.644526	2.293883	-0.272550	137.342141
5.700000	-0.235920	-151.404038	-41.559178	0.470390	-41.559178	0.470390	-0.275563	135.570788
5.750000	-0.239178	-152.570331	-41.477677	-1.348979	-41.477677	-1.348979	-0.278592	133.793357
5.800000	-0.242471	-153.736602	-41.400023	-3.163992	-41.400023	-3.163992	-0.281634	132.009673
5.850000	-0.245801	-154.902958	-41.326215	-4.974402	-41.326215	-4.974402	-0.284690	130.219570
5.900000	-0.249168	-156.069503	-41.256258	-6.779944	-41.256258	-6.779944	-0.287759	128.422887
5.950000	-0.252570	-157.236344	-41.190158	-8.580335	-41.190158	-8.580335	-0.290840	126.619473
6.000000	-0.256008	-158.403586	-41.127921	-10.375272	-41.127921	-10.375272	-0.293934	124.809184
6.050000	-0.259481	-159.571308	-41.069404	-12.164703	-41.069404	-12.164703	-0.297038	122.992197
6.100000	-0.262992	-160.739678	-41.014964	-13.947682	-41.014964	-13.947682	-0.300155	121.167686
6.150000	-0.266539	-161.908773	-40.964426	-15.724160	-40.964426	-15.724160	-0.303282	119.335919
6.200000	-0.270121	-163.078701	-40.917804	-17.493742	-40.917804	-17.493742	-0.306419	117.496786
6.250000	-0.273739	-164.249569	-40.875116	-19.256005	-40.875116	-19.256005	-0.309567	115.650189
6.300000	-0.277393	-165.421512	-40.836462	-21.010321	-40.836462	-21.010321	-0.312725	113.795874
6.350000	-0.281082	-166.594616	-40.801781	-22.756367	-40.801781	-22.756367	-0.315893	111.933927
6.400000	-0.284806	-167.768991	-40.771094	-24.493633	-40.771094	-24.493633	-0.319070	110.064279
6.450000	-0.288564	-168.944745	-40.744421	-26.221575	-40.744421	-26.221575	-0.322258	108.186876
6.500000	-0.292358	-170.121987	-40.721782	-27.939613	-40.721782	-27.939613	-0.325455	106.301673
6.550000	-0.296185	-171.300827	-40.703200	-29.647134	-40.703200	-29.647134	-0.328662	104.408636
6.600000	-0.300046	-172.481372	-40.688696	-31.343487	-40.688696	-31.343487	-0.331879	102.507744
6.650000	-0.303941	-173.663733	-40.678290	-33.027981	-40.678290	-33.027981	-0.335106	100.598987
6.700000	-0.307869	-174.848018	-40.672004	-34.699883	-40.672004	-34.699883	-0.338344	98.682370
6.750000	-0.311829	-176.034337	-40.669856	-36.358418	-40.669856	-36.358418	-0.341594	96.757906
6.800000	-0.315822	-177.222799	-40.671866	-38.002765	-40.671866	-38.002765	-0.344856	94.825625
6.850000	-0.319847	-178.413513	-40.678049	-39.632056	-40.678049	-39.632056	-0.348130	92.885567
6.900000	-0.323904	-179.606614	-40.688465	-41.245190	-40.688465	-41.245190	-0.351418	90.937703
6.950000	-0.327992	179.197784	-40.703126	-42.841164	-40.703126	-42.841164	-0.354721	88.982104
7.000000	-0.332111	177.999599	-40.721993	-44.419124	-40.721993	-44.419124	-0.358039	87.018937
7.050000	-0.336260	176.798722	-40.745072	-45.977987	-40.745072	-45.977987	-0.361374	85.048295
7.100000	-0.340439	175.595044	-40.772363	-47.516613	-40.772363	-47.516613	-0.364728	83.070289
7.150000	-0.344646	174.388459	-40.803858	-49.033801	-40.803858	-49.033801	-0.368102	81.085042
7.200000	-0.348882	173.178857	-40.839548	-50.528284	-40.839548	-50.528284	-0.371497	79.092691
7.250000	-0.353146	171.966133	-40.879414	-51.998732	-40.879414	-51.998732	-0.374915	77.093385
7.300000	-0.357437	170.750178	-40.923430	-53.443748	-40.923430	-53.443748	-0.378359	75.087288
7.350000	-0.361755	169.530888	-40.971560	-54.861865	-40.971560	-54.861865	-0.381831	73.074580
7.400000	-0.366099	168.308155	-41.023761	-56.251542	-41.023761	-56.251542	-0.385332	71.055449
7.450000	-0.370467	167.081875	-41.079976	-57.611169	-41.079976	-57.611169	-0.388866	69.030102
7.500000	-0.374861	165.851944	-41.140136	-58.939060	-41.140136	-58.939060	-0.392435	66.998755
7.550000	-0.379279	164.618172	-41.204227	-60.232683	-41.204227	-60.232683	-0.396043	64.961519
7.600000	-0.383720	163.380538	-41.272071	-61.490887	-41.272071	-61.490887	-0.399693	62.918769
7.650000	-0.388183	162.138939	-41.343549	-62.711756	-41.343549	-62.711756	-0.403386	60.870759
7.700000	-0.392668	160.893272	-41.418519	-63.893305	-41.418519	-63.893305	-0.407128	58.817759
7.750000	-0.397173	159.643440	-41.496820	-65.033480	-41.496820	-65.033480	-0.410921	56.760048
7.800000	-0.401699	158.389341	-41.578263	-66.130162	-41.578263	-66.130162	-0.414769	54.697915
7.850000	-0.406244	157.130879	-41.662631	-67.181177	-41.662631	-67.181177	-0.418676	52.631662
7.900000	-0.410808	155.867957	-41.749675	-68.184304	-41.749675	-68.184304	-0.422646	50.561599
7.950000	-0.415389	154.600479	-41.839114	-69.137288	-41.839114	-69.137288	-0.426684	48.488046
8.000000	-0.419988	153.328351	-41.930628	-70.037856	-41.930628	-70.037856	-0.430794	46.411332
8.050000	-0.424602	152.051482	-42.023855	-70.883734	-42.023855	-70.883734	-0.434980	44.331793
8.100000	-0.429232	150.769780	-42.118391	-71.672675	-42.118391	-71.672675	-0.439247	42.249775
8.150000	-0.433876	149.483102	-42.213774	-72.401819	-42.213774	-72.401819	-0.443602	40.165610
8.200000	-0.438534	148.191359	-42.309481	-73.068994	-42.309481	-73.068994	-0.448049	38.079666
8.250000	-0.443205	146.894518	-42.404955	-73.672883	-42.404955	-73.672883	-0.452593	35.992330
8.300000	-0.447888	145.592496	-42.499579	-74.211708	-42.499579	-74.211708	-0.457239	33.903970
8.350000	-0.452582	144.285214	-42.592680	-74.683930	-42.592680	-74.683930	-0.461992	31.814955
8.400000	-0.457287	142.972592	-42.683527	-75.088308	-42.683527	-75.088308	-0.466859	29.725660
8.450000	-0.462001	141.654555	-42.771335	-75.423971	-42.771335	-75.423971	-0.471844	27.636460
8.500000	-0.466725	140.331029	-42.855263	-75.690487	-42.855263	-75.690487	-0.476955	25.547732
8.550000	-0.471457	139.001943	-42.934424	-75.887938	-42.934424	-75.887938	-0.482195	23.459854
8.600000	-0.476196	137.667231	-43.007890	-76.016998	-43.007890	-76.016998	-0.487573	21.373203
8.650000	-0.480943	136.326826	-43.074700	-76.079007	-43.074700	-76.079007	-0.493093	19.288153
8.700000	-0.485696	134.980668	-43.133878	-76.076037	-43.133878	-76.076037	-0.498762	17.205079
8.750000	-0.490456	133.628699	-43.184442	-76.010948	-43.184442	-76.010948	-0.504585	15.124352
8.800000	-0.495220	132.270734	-43.225194	-75.886270	-43.225194	-75.886270	-0.510574	13.046404
8.850000	-0.499990	130.906849	-43.255400	-75.707960	-43.255400	-75.707960	-0.516731	10.971549
8.900000	-0.504764	129.536997	-43.274192	-75.481469	-43.274192	-75.481469	-0.523062	8.900142
8.950000	-0.509542	128.161134	-43.280781	-75.213056	-43.280781	-75.213056	-0.529574	6.832535
9.000000	-0.514324	126.779222	-43.274482	-74.909722	-43.274482	-74.909722	-0.536273	4.769073
9.050000	-0.519109	125.391225	-43.254731	-74.579109	-43.254731	-74.579109	-0.543166	2.710092
9.100000	-0.523898	123.997113	-43.221109	-74.229374	-43.221109	-74.229374	-0.550259	0.655921
9.150000	-0.528690	122.596860	-43.173347	-73.869037	-43.173347	-73.869037	-0.557558	-1.393118
9.200000	-0.533486	121.190446	-43.111341	-73.506812	-43.111341	-73.506812	-0.565071	-3.436714
9.250000	-0.538285	119.777853	-43.035151	-73.151428	-43.035151	-73.151428	-0.572803	-5.474565
9.300000	-0.543087	118.359071	-42.945004	-72.811449	-42.945004	-72.811449	-0.580761	-7.506379
9.350000	-0.547894	116.934094	-42.841276	-72.495105	-42.841276	-72.495105	-0.588952	-9.531875
9.400000	-0.552704	115.502854	-42.724336	-72.210559	-42.724336	-72.210559	-0.597384	-11.550706
9.450000	-0.557518	114.065358	-42.594842	-71.965153	-42.594842	-71.965153	-0.606064	-13.562604
9.500000	-0.562338	112.621683	-42.453707	-71.764896	-42.453707	-71.764896	-0.614997	-15.567395
9.550000	-0.567164	111.171848	-42.301768	-71.615348	-42.301768	-71.615348	-0.624188	-17.564842
9.600000	-0.571996	109.715876	-42.139922	-71.521243	-42.139922	-71.521243	-0.633644	-19.554722
9.650000	-0.576835	108.253796	-41.969103	-71.486484	-41.969103	-71.486484	-0.643371	-21.536823
9.700000	-0.581682	106.785646	-41.790262	-71.514158	-41.790262	-71.514158	-0.653376	-23.510947
9.750000	-0.586539	105.311466	-41.604352	-71.606581	-41.604352	-71.606581	-0.663664	-25.476906
9.800000	-0.591406	103.831308	-41.412309	-71.765347	-41.412309	-71.765347	-0.674243	-27.434525
9.850000	-0.596285	102.345227	-41.215041	-71.991401	-41.215041	-71.991401	-0.685119	-29.383644
9.900000	-0.601178	100.853287	-41.013421	-72.285103	-41.013421	-72.285103	-0.696297	-31.324111
9.950000	-0.606085	99.355558	-40.808275	-72.646310	-40.808275	-72.646310	-0.707785	-33.255791
10.000000	-0.611009	97.852117	-40.600380	-73.074444	-40.600380	-73.074444	-0.719587	-35.178557
