! freq	dB(S11)	phase(S11)	dB(S12)	phase(S12)	
!     	dB(S21)	phase(S21)	dB(S22)	phase(S22)	
!S-par simulation data
#  GHz  S  DB  R 50
0.000000	-0.000000	0.000000	-358.994602	180.000000	-358.994602	180.000000	-0.000000	0.000000
0.050000	-0.000506	-0.869431	-97.373371	87.830460	-97.373371	87.830460	-0.002189	-3.583613
0.100000	-0.001786	-1.735803	-91.392634	85.668516	-91.392634	85.668516	-0.007710	-7.150301
0.150000	-0.003392	-2.598210	-87.938878	83.522305	-87.938878	83.522305	-0.014608	-10.692547
0.200000	-0.004995	-3.457715	-85.532776	81.398707	-85.532776	81.398707	-0.021438	-14.212253
0.250000	-0.006458	-4.315422	-83.715018	79.306704	-83.715018	79.306704	-0.027607	-17.710860
0.300000	-0.007758	-5.172201	-82.280913	77.255792	-82.280913	77.255792	-0.033002	-21.188922
0.350000	-0.008924	-6.028533	-81.118446	75.253952	-81.118446	75.253952	-0.037745	-24.646227
0.400000	-0.009989	-6.884593	-80.163257	73.311568	-80.163257	73.311568	-0.041964	-28.080717
0.450000	-0.010982	-7.740408	-79.377440	71.443651	-79.377440	71.443651	-0.045767	-31.488718
0.500000	-0.011931	-8.595961	-78.729038	69.659748	-78.729038	69.659748	-0.049273	-34.868906
0.550000	-0.012853	-9.451195	-78.198645	67.974438	-78.198645	67.974438	-0.052552	-38.218820
0.600000	-0.013764	-10.306023	-77.776081	66.411110	-77.776081	66.411110	-0.055651	-41.534497
0.650000	-0.014673	-11.160389	-77.448416	64.987126	-77.448416	64.987126	-0.058617	-44.814900
0.700000	-0.015588	-12.014236	-77.207531	63.725972	-77.207531	63.725972	-0.061477	-48.058490
0.750000	-0.016514	-12.867485	-77.050473	62.664783	-77.050473	62.664783	-0.064248	-51.262364
0.800000	-0.017454	-13.720081	-76.973081	61.843525	-76.973081	61.843525	-0.066941	-54.425081
0.850000	-0.018410	-14.571979	-76.971427	61.309384	-76.971427	61.309384	-0.069566	-57.545854
0.900000	-0.019382	-15.423135	-77.042816	61.124172	-77.042816	61.124172	-0.072128	-60.623739
0.950000	-0.020373	-16.273501	-77.184847	61.368584	-77.184847	61.368584	-0.074627	-63.657711
1.000000	-0.021380	-17.123036	-77.393631	62.143466	-77.393631	62.143466	-0.077065	-66.647105
1.050000	-0.022404	-17.971703	-77.662504	63.574803	-77.662504	63.574803	-0.079439	-69.591436
1.100000	-0.023444	-18.819467	-77.979499	65.815407	-77.979499	65.815407	-0.081750	-72.490397
1.150000	-0.024498	-19.666293	-78.323515	69.039554	-78.323515	69.039554	-0.083994	-75.343835
1.200000	-0.025565	-20.512151	-78.659262	73.421216	-78.659262	73.421216	-0.086171	-78.151748
1.250000	-0.026645	-21.357013	-78.932576	79.081925	-78.932576	79.081925	-0.088278	-80.914269
1.300000	-0.027734	-22.200828	-79.065982	86.019908	-79.065982	86.019908	-0.090313	-83.630680
1.350000	-0.028833	-23.043593	-78.983183	93.912841	-78.983183	93.912841	-0.092277	-86.302342
1.400000	-0.029939	-23.885284	-78.630776	102.191014	-78.630776	102.191014	-0.094168	-88.929726
1.450000	-0.031050	-24.725878	-78.006324	110.160759	-78.006324	110.160759	-0.095988	-91.513393
1.500000	-0.032167	-25.565356	-77.158847	117.246884	-77.158847	117.246884	-0.097735	-94.053979
1.550000	-0.033287	-26.403696	-76.163023	123.143684	-76.163023	123.143684	-0.099412	-96.552186
1.600000	-0.034410	-27.240880	-75.090527	127.802568	-75.090527	127.802568	-0.101019	-99.008777
1.650000	-0.035534	-28.076892	-73.995338	131.332341	-73.995338	131.332341	-0.102559	-101.424562
1.700000	-0.036658	-28.911712	-72.912209	133.903529	-72.912209	133.903529	-0.104033	-103.800392
1.750000	-0.037782	-29.745327	-71.860960	135.690801	-71.860960	135.690801	-0.105443	-106.137154
1.800000	-0.038905	-30.577720	-70.851505	136.848043	-70.851505	136.848043	-0.106793	-108.435760
1.850000	-0.040026	-31.408877	-69.887743	137.501864	-69.887743	137.501864	-0.108085	-110.697144
1.900000	-0.041146	-32.238770	-68.969634	137.749680	-68.969634	137.749680	-0.109323	-112.921873
1.950000	-0.042262	-33.067386	-68.096020	137.672869	-68.096020	137.672869	-0.110509	-115.110939
2.000000	-0.043376	-33.894724	-67.265130	137.336958	-67.265130	137.336958	-0.111648	-117.265703
2.050000	-0.044488	-34.720772	-66.474244	136.790060	-66.474244	136.790060	-0.112744	-119.387133
2.100000	-0.045596	-35.545517	-65.720574	136.070215	-65.720574	136.070215	-0.113800	-121.476197
2.150000	-0.046702	-36.368948	-65.001417	135.207691	-65.001417	135.207691	-0.114820	-123.533856
2.200000	-0.047805	-37.191053	-64.314231	134.226751	-64.314231	134.226751	-0.115808	-125.561065
2.250000	-0.048906	-38.011820	-63.656662	133.146980	-63.656662	133.146980	-0.116767	-127.558771
2.300000	-0.050005	-38.831237	-63.026554	131.984310	-63.026554	131.984310	-0.117703	-129.527907
2.350000	-0.051102	-39.649294	-62.421942	130.751790	-62.421942	130.751790	-0.118617	-131.469394
2.400000	-0.052199	-40.465978	-61.841041	129.460181	-61.841041	129.460181	-0.119515	-133.384139
2.450000	-0.053294	-41.281280	-61.282231	128.118415	-61.282231	128.118415	-0.120399	-135.273035
2.500000	-0.054390	-42.095187	-60.744042	126.733952	-60.744042	126.733952	-0.121274	-137.136955
2.550000	-0.055487	-42.907659	-60.224883	125.312388	-60.224883	125.312388	-0.122142	-138.976253
2.600000	-0.056585	-43.718715	-59.723835	123.859882	-59.723835	123.859882	-0.123007	-140.792311
2.650000	-0.057685	-44.528344	-59.239788	122.380878	-59.239788	122.380878	-0.123873	-142.585951
2.700000	-0.058787	-45.336535	-58.771729	120.879169	-58.771729	120.879169	-0.124741	-144.357974
2.750000	-0.059893	-46.143279	-58.318731	119.358007	-58.318731	119.358007	-0.125616	-146.109165
2.800000	-0.061004	-46.948565	-57.879947	117.820189	-57.879947	117.820189	-0.126499	-147.840291
2.850000	-0.062119	-47.752384	-57.454598	116.268135	-57.454598	116.268135	-0.127395	-149.552098
2.900000	-0.063240	-48.554724	-57.041970	114.703940	-57.041970	114.703940	-0.128304	-151.245317
2.950000	-0.064367	-49.355576	-56.641406	113.129430	-56.641406	113.129430	-0.129229	-152.920657
3.000000	-0.065502	-50.154932	-56.252297	111.546195	-56.252297	111.546195	-0.130173	-154.578814
3.050000	-0.066645	-50.952780	-55.874081	109.955631	-55.874081	109.955631	-0.131137	-156.220464
3.100000	-0.067796	-51.749114	-55.506239	108.358961	-55.506239	108.358961	-0.132124	-157.846265
3.150000	-0.068958	-52.543705	-55.147594	106.756693	-55.147594	106.756693	-0.133138	-159.454805
3.200000	-0.070129	-53.336963	-54.799083	105.151007	-54.799083	105.151007	-0.134175	-161.050762
3.250000	-0.071311	-54.128679	-54.459599	103.542087	-54.459599	103.542087	-0.135240	-162.632761
3.300000	-0.072505	-54.918846	-54.128754	101.930680	-54.128754	101.930680	-0.136333	-164.201399
3.350000	-0.073710	-55.707456	-53.806184	100.317449	-53.806184	100.317449	-0.137456	-165.757256
3.400000	-0.074928	-56.494502	-53.491548	98.702986	-53.491548	98.702986	-0.138610	-167.300898
3.450000	-0.076160	-57.279977	-53.184527	97.087817	-53.184527	97.087817	-0.139796	-168.832876
3.500000	-0.077405	-58.063874	-52.884822	95.472416	-52.884822	95.472416	-0.141015	-170.353732
3.550000	-0.078665	-58.846188	-52.592153	93.857207	-52.592153	93.857207	-0.142267	-171.863989
3.600000	-0.079940	-59.626913	-52.306255	92.242570	-52.306255	92.242570	-0.143555	-173.364163
3.650000	-0.081231	-60.406044	-52.026880	90.628849	-52.026880	90.628849	-0.144877	-174.854755
3.700000	-0.082538	-61.183575	-51.753794	89.016352	-51.753794	89.016352	-0.146235	-176.336256
3.750000	-0.083861	-61.959504	-51.486776	87.405361	-51.486776	87.405361	-0.147629	-177.809146
3.800000	-0.085202	-62.733754	-51.225528	85.796216	-51.225528	85.796216	-0.149062	-179.273562
3.850000	-0.086560	-63.506395	-50.969955	84.189080	-50.969955	84.189080	-0.150531	179.269662
3.900000	-0.087937	-64.277421	-50.719868	82.584158	-50.719868	82.584158	-0.152037	177.820078
3.950000	-0.089331	-65.046831	-50.475090	80.981642	-50.475090	80.981642	-0.153581	176.377247
4.000000	-0.090745	-65.814624	-50.235451	79.381703	-50.235451	79.381703	-0.155162	174.940735
4.050000	-0.092177	-66.580797	-50.000791	77.784502	-50.000791	77.784502	-0.156780	173.510120
4.100000	-0.093629	-67.345351	-49.770960	76.190185	-49.770960	76.190185	-0.158437	172.084984
4.150000	-0.095101	-68.108284	-49.545812	74.598888	-49.545812	74.598888	-0.160131	170.664919
4.200000	-0.096592	-68.869597	-49.325210	73.010737	-49.325210	73.010737	-0.161863	169.249523
4.250000	-0.098105	-69.629291	-49.109025	71.425848	-49.109025	71.425848	-0.163632	167.838398
4.300000	-0.099638	-70.387366	-48.897130	69.844332	-48.897130	69.844332	-0.165440	166.431155
4.350000	-0.101192	-71.143824	-48.689409	68.266292	-48.689409	68.266292	-0.167285	165.027409
4.400000	-0.102768	-71.898668	-48.485749	66.691827	-48.485749	66.691827	-0.169168	163.626778
4.450000	-0.104365	-72.651900	-48.286041	65.121029	-48.286041	65.121029	-0.171088	162.228889
4.500000	-0.105985	-73.403524	-48.090183	63.553988	-48.090183	63.553988	-0.173046	160.833369
4.550000	-0.107627	-74.153542	-47.898077	61.990790	-47.898077	61.990790	-0.175041	159.439852
4.600000	-0.109292	-74.901960	-47.709630	60.431519	-47.709630	60.431519	-0.177075	158.047972
4.650000	-0.110980	-75.648781	-47.524752	58.876257	-47.524752	58.876257	-0.179145	156.657370
4.700000	-0.112691	-76.394010	-47.343358	57.325087	-47.343358	57.325087	-0.181254	155.267687
4.750000	-0.114425	-77.137654	-47.165365	55.778088	-47.165365	55.778088	-0.183400	153.878567
4.800000	-0.116184	-77.879718	-46.990697	54.235342	-46.990697	54.235342	-0.185583	152.489656
4.850000	-0.117967	-78.620209	-46.819278	52.696931	-46.819278	52.696931	-0.187805	151.100601
4.900000	-0.119774	-79.359133	-46.651036	51.162939	-46.651036	51.162939	-0.190065	149.711051
4.950000	-0.121607	-80.096497	-46.485903	49.633452	-46.485903	49.633452	-0.192364	148.320654
5.000000	-0.123465	-80.832311	-46.323813	48.108558	-46.323813	48.108558	-0.194701	146.929061
5.050000	-0.125349	-81.566514	-46.164706	46.588556	-46.164706	46.588556	-0.197079	145.535836
5.100000	-0.127259	-82.299183	-46.008522	45.073345	-46.008522	45.073345	-0.199497	144.140680
5.150000	-0.129196	-83.030327	-45.855202	43.563023	-45.855202	43.563023	-0.201954	142.743242
5.200000	-0.131159	-83.759955	-45.704692	42.057698	-45.704692	42.057698	-0.204453	141.343167
5.250000	-0.133149	-84.488078	-45.556936	40.557481	-45.556936	40.557481	-0.206993	139.940101
5.300000	-0.135166	-85.214706	-45.411882	39.062490	-45.411882	39.062490	-0.209576	138.533684
5.350000	-0.137212	-85.939848	-45.269480	37.572850	-45.269480	37.572850	-0.212202	137.123556
5.400000	-0.139285	-86.663516	-45.129681	36.088693	-45.129681	36.088693	-0.214872	135.709353
5.450000	-0.141387	-87.385721	-44.992436	34.610160	-44.992436	34.610160	-0.217587	134.290708
5.500000	-0.143518	-88.106476	-44.857701	33.137400	-44.857701	33.137400	-0.220350	132.867249
5.550000	-0.145678	-88.825791	-44.725429	31.670572	-44.725429	31.670572	-0.223161	131.438598
5.600000	-0.147867	-89.543679	-44.595578	30.209845	-44.595578	30.209845	-0.226021	130.004373
5.650000	-0.150087	-90.260153	-44.468102	28.755397	-44.468102	28.755397	-0.228934	128.564186
5.700000	-0.152337	-90.975226	-44.342960	27.307419	-44.342960	27.307419	-0.231900	127.117642
5.750000	-0.154618	-91.688910	-44.220109	25.866112	-44.220109	25.866112	-0.234921	125.664339
5.800000	-0.156931	-92.401221	-44.099507	24.431692	-44.099507	24.431692	-0.238001	124.203867
5.850000	-0.159275	-93.112171	-43.981111	23.004383	-43.981111	23.004383	-0.241142	122.735808
5.900000	-0.161652	-93.821775	-43.864878	21.584428	-43.864878	21.584428	-0.244346	121.259733
5.950000	-0.164061	-94.530046	-43.750767	20.172078	-43.750767	20.172078	-0.247617	119.775204
6.000000	-0.166504	-95.237001	-43.638732	18.767603	-43.638732	18.767603	-0.250958	118.281772
6.050000	-0.168980	-95.942654	-43.528728	17.371285	-43.528728	17.371285	-0.254372	116.778975
6.100000	-0.171490	-96.647021	-43.420710	15.983421	-43.420710	15.983421	-0.257864	115.266341
6.150000	-0.174035	-97.350116	-43.314630	14.604325	-43.314630	14.604325	-0.261437	113.743379
6.200000	-0.176614	-98.051957	-43.210438	13.234323	-43.210438	13.234323	-0.265097	112.209589
6.250000	-0.179229	-98.752558	-43.108081	11.873760	-43.108081	11.873760	-0.268848	110.664450
6.300000	-0.181882	-99.451885	-43.007529	10.523439	-43.007529	10.523439	-0.272701	109.106883
6.350000	-0.184571	-100.150007	-42.908699	9.183326	-42.908699	9.183326	-0.276656	107.536823
6.400000	-0.187297	-100.846942	-42.811527	7.853812	-42.811527	7.853812	-0.280722	105.953692
6.450000	-0.190061	-101.542706	-42.715947	6.535304	-42.715947	6.535304	-0.284903	104.356890
6.500000	-0.192862	-102.237318	-42.621889	5.228222	-42.621889	5.228222	-0.289209	102.745792
6.550000	-0.195702	-102.930795	-42.529277	3.932999	-42.529277	3.932999	-0.293647	101.119750
6.600000	-0.198580	-103.623154	-42.438030	2.650081	-42.438030	2.650081	-0.298225	99.478085
6.650000	-0.201498	-104.314415	-42.348062	1.379922	-42.348062	1.379922	-0.302954	97.820093
6.700000	-0.204452	-105.004700	-42.259258	0.121656	-42.259258	0.121656	-0.307827	96.146766
6.750000	-0.207449	-105.693827	-42.171565	-1.121783	-42.171565	-1.121783	-0.312885	94.454154
6.800000	-0.210488	-106.381912	-42.084852	-2.351062	-42.084852	-2.351062	-0.318125	92.742918
6.850000	-0.213567	-107.068972	-41.999000	-3.565703	-41.999000	-3.565703	-0.323561	91.012213
6.900000	-0.216689	-107.755016	-41.913883	-4.765061	-41.913883	-4.765061	-0.329209	89.260917
6.950000	-0.219853	-108.440066	-41.829361	-5.948649	-41.829361	-5.948649	-0.335084	87.488062
7.000000	-0.223060	-109.124150	-41.745288	-7.116174	-41.745288	-7.116174	-0.341201	85.692883
7.050000	-0.226310	-109.807290	-41.661508	-8.267192	-41.661508	-8.267192	-0.347576	83.874337
7.100000	-0.229603	-110.489506	-41.577850	-9.401283	-41.577850	-9.401283	-0.354230	82.031326
7.150000	-0.232940	-111.170818	-41.494133	-10.518054	-41.494133	-10.518054	-0.361182	80.162688
7.200000	-0.236322	-111.851248	-41.410161	-11.617150	-41.410161	-11.617150	-0.368455	78.267194
7.250000	-0.239748	-112.530816	-41.325728	-12.698260	-41.325728	-12.698260	-0.376072	76.343542
7.300000	-0.243220	-113.209543	-41.240608	-13.761127	-41.240608	-13.761127	-0.384060	74.390351
7.350000	-0.246737	-113.887451	-41.154566	-14.805560	-41.154566	-14.805560	-0.392448	72.406155
7.400000	-0.250300	-114.564562	-41.067349	-15.831447	-41.067349	-15.831447	-0.401265	70.389395
7.450000	-0.253910	-115.240898	-40.978688	-16.838761	-40.978688	-16.838761	-0.410546	68.338412
7.500000	-0.257566	-115.916482	-40.888301	-17.827585	-40.888301	-17.827585	-0.420325	66.251438
7.550000	-0.261271	-116.591319	-40.795814	-18.797726	-40.795814	-18.797726	-0.430655	64.125718
7.600000	-0.265022	-117.265450	-40.700972	-19.749934	-40.700972	-19.749934	-0.441568	61.960011
7.650000	-0.268822	-117.938898	-40.603442	-20.684708	-40.603442	-20.684708	-0.453110	59.752157
7.700000	-0.272670	-118.611686	-40.502884	-21.602724	-40.502884	-21.602724	-0.465332	57.499840
7.750000	-0.276567	-119.283837	-40.398939	-22.504850	-40.398939	-22.504850	-0.478288	55.200585
7.800000	-0.280512	-119.955376	-40.291242	-23.392167	-40.291242	-23.392167	-0.492037	52.851736
7.850000	-0.284506	-120.626327	-40.179418	-24.265993	-40.179418	-24.265993	-0.506645	50.450443
7.900000	-0.288550	-121.296714	-40.063084	-25.127900	-40.063084	-25.127900	-0.522181	47.993649
7.950000	-0.292643	-121.966562	-39.941855	-25.979735	-39.941855	-25.979735	-0.538721	45.478066
8.000000	-0.296786	-122.635896	-39.815348	-26.823645	-39.815348	-26.823645	-0.556349	42.900163
8.050000	-0.300979	-123.304741	-39.683180	-27.662091	-39.683180	-27.662091	-0.575153	40.256139
8.100000	-0.305222	-123.973123	-39.544982	-28.497870	-39.544982	-28.497870	-0.595229	37.541905
8.150000	-0.309516	-124.641064	-39.400294	-29.334173	-39.400294	-29.334173	-0.616700	34.752196
8.200000	-0.313862	-125.308590	-39.248761	-30.174643	-39.248761	-30.174643	-0.639680	31.882099
8.250000	-0.318258	-125.975734	-39.090166	-31.023186	-39.090166	-31.023186	-0.664277	28.927300
8.300000	-0.322705	-126.642522	-38.924234	-31.884093	-38.924234	-31.884093	-0.690622	25.882281
8.350000	-0.327202	-127.308991	-38.751061	-32.761408	-38.751061	-32.761408	-0.718798	22.744069
8.400000	-0.331751	-127.975148	-38.569775	-33.661381	-38.569775	-33.661381	-0.749068	19.500179
8.450000	-0.336352	-128.641033	-38.380606	-34.588899	-38.380606	-34.588899	-0.781529	16.146877
8.500000	-0.341003	-129.306673	-38.183494	-35.549741	-38.183494	-35.549741	-0.816342	12.676827
8.550000	-0.345707	-129.972099	-37.978461	-36.550017	-37.978461	-36.550017	-0.853677	9.082188
8.600000	-0.350461	-130.637338	-37.765613	-37.596140	-37.765613	-37.596140	-0.893702	5.354602
8.650000	-0.355267	-131.302422	-37.545154	-38.694779	-37.545154	-38.694779	-0.936585	1.485196
8.700000	-0.360124	-131.967379	-37.317393	-39.852820	-37.317393	-39.852820	-0.982491	-2.535408
8.750000	-0.365032	-132.632240	-37.082759	-41.077297	-37.082759	-41.077297	-1.031568	-6.717060
8.800000	-0.369992	-133.297035	-36.841623	-42.376504	-36.841623	-42.376504	-1.083991	-11.072674
8.850000	-0.375003	-133.961798	-36.594874	-43.756587	-36.594874	-43.756587	-1.139810	-15.610530
8.900000	-0.380065	-134.626560	-36.343358	-45.224537	-36.343358	-45.224537	-1.199074	-20.341435
8.950000	-0.385177	-135.291352	-36.088076	-46.787106	-36.088076	-46.787106	-1.261764	-25.276209
9.000000	-0.390340	-135.956208	-35.830300	-48.449372	-35.830300	-48.449372	-1.327748	-30.422729
9.050000	-0.395553	-136.621162	-35.571097	-50.220091	-35.571097	-50.220091	-1.396890	-35.797219
9.100000	-0.400817	-137.286247	-35.312126	-52.102760	-35.312126	-52.102760	-1.468798	-41.405421
9.150000	-0.406130	-137.951497	-35.055052	-54.101518	-35.055052	-54.101518	-1.542964	-47.255011
9.200000	-0.411493	-138.616949	-34.801684	-56.219912	-34.801684	-56.219912	-1.618691	-53.352856
9.250000	-0.416906	-139.282637	-34.554011	-58.459199	-34.554011	-58.459199	-1.695058	-59.701312
9.300000	-0.422367	-139.948596	-34.314112	-60.818942	-34.314112	-60.818942	-1.770930	-66.299212
9.350000	-0.427877	-140.614863	-34.084131	-63.297103	-34.084131	-63.297103	-1.844951	-73.141755
9.400000	-0.433435	-141.281477	-33.866272	-65.889956	-33.866272	-65.889956	-1.915548	-80.219942
9.450000	-0.439040	-141.948475	-33.662710	-68.591068	-33.662710	-68.591068	-1.980998	-87.518105
9.500000	-0.444693	-142.615894	-33.475470	-71.391366	-33.475470	-71.391366	-2.039533	-95.013754
9.550000	-0.450392	-143.283773	-33.306430	-74.279969	-33.306430	-74.279969	-2.089401	-102.679064
9.600000	-0.456138	-143.952153	-33.157282	-77.244094	-33.157282	-77.244094	-2.128966	-110.480557
9.650000	-0.461929	-144.621076	-33.029427	-80.269034	-33.029427	-80.269034	-2.156854	-118.379194
9.700000	-0.467765	-145.290580	-32.923756	-83.338355	-32.923756	-83.338355	-2.172182	-126.331509
9.750000	-0.473645	-145.960706	-32.840842	-86.435160	-32.840842	-86.435160	-2.174489	-134.292479
9.800000	-0.479568	-146.631498	-32.780871	-89.542265	-32.780871	-89.542265	-2.163817	-142.216613
9.850000	-0.485535	-147.303003	-32.743691	-92.642618	-32.743691	-92.642618	-2.140682	-150.059312
9.900000	-0.491543	-147.975259	-32.728515	-95.720141	-32.728515	-95.720141	-2.106189	-157.780328
9.950000	-0.497593	-148.648312	-32.734350	-98.760142	-32.734350	-98.760142	-2.061714	-165.343936
10.000000	-0.503683	-149.322207	-32.759920	-101.749603	-32.759920	-101.749603	-2.008866	-172.720091
