! freq	dB(S11)	phase(S11)	dB(S12)	phase(S12)	
!     	dB(S21)	phase(S21)	dB(S22)	phase(S22)	
!S-par simulation data
#  GHz  S  DB  R 50
0.000000	-0.000000	0.000000	-364.387980	0.000000	-364.387980	0.000000	-0.000000	0.000000
0.050000	-0.000293	-0.771874	-117.746524	96.357286	-117.746524	96.357286	-0.000236	-0.751810
0.100000	-0.001120	-1.542289	-111.808214	92.140015	-111.808214	92.140015	-0.000910	-1.504588
0.150000	-0.002318	-2.310379	-108.379594	90.243594	-108.379594	90.243594	-0.001907	-2.258924
0.200000	-0.003737	-3.075463	-106.018292	89.026666	-106.018292	89.026666	-0.003125	-3.015288
0.250000	-0.005207	-3.838260	-104.243568	88.061212	-104.243568	88.061212	-0.004420	-3.773176
0.300000	-0.006650	-4.598899	-102.861417	87.286111	-102.861417	87.286111	-0.005730	-4.532443
0.350000	-0.008006	-5.357743	-101.772812	86.677749	-101.772812	86.677749	-0.006999	-5.292719
0.400000	-0.009228	-6.115011	-100.941742	86.274074	-100.941742	86.274074	-0.008181	-6.053609
0.450000	-0.010398	-6.871840	-100.247175	85.977222	-100.247175	85.977222	-0.009326	-6.814491
0.500000	-0.011456	-7.627736	-99.731849	85.907950	-99.731849	85.907950	-0.010390	-7.575353
0.550000	-0.012444	-8.383105	-99.366373	86.116368	-99.366373	86.116368	-0.011401	-8.335814
0.600000	-0.013381	-9.138097	-99.099637	86.523138	-99.099637	86.523138	-0.012374	-9.095988
0.650000	-0.014253	-9.892482	-99.023386	87.550463	-99.023386	87.550463	-0.013298	-9.855245
0.700000	-0.015108	-10.646683	-99.004654	88.822358	-99.004654	88.822358	-0.014210	-10.614192
0.750000	-0.015925	-11.400280	-99.178465	91.155569	-99.178465	91.155569	-0.015095	-11.371977
0.800000	-0.016735	-12.153608	-99.421702	94.248459	-99.421702	94.248459	-0.015976	-12.129226
0.850000	-0.017533	-12.906486	-99.786127	98.607480	-99.786127	98.607480	-0.016850	-12.885579
0.900000	-0.018331	-13.658858	-100.181153	105.100133	-100.181153	105.100133	-0.017726	-13.640973
0.950000	-0.019128	-14.410942	-100.603694	112.798752	-100.603694	112.798752	-0.018602	-14.395824
1.000000	-0.019934	-15.162226	-100.689790	124.242300	-100.689790	124.242300	-0.019486	-15.149282
1.050000	-0.020745	-15.913260	-100.581333	136.310110	-100.581333	136.310110	-0.020374	-15.902330
1.100000	-0.021570	-16.663475	-99.736385	149.482731	-99.736385	149.482731	-0.021271	-16.654072
1.150000	-0.022405	-17.413225	-98.560208	161.238858	-98.560208	161.238858	-0.022174	-17.405134
1.200000	-0.023252	-18.162359	-97.070685	171.121558	-97.070685	171.121558	-0.023084	-18.155295
1.250000	-0.024117	-18.910675	-95.395050	178.225859	-95.395050	178.225859	-0.024003	-18.904349
1.300000	-0.024990	-19.658631	-93.844271	-175.892335	-93.844271	-175.892335	-0.024925	-19.652916
1.350000	-0.025887	-20.405369	-92.196694	-172.565810	-92.196694	-172.565810	-0.025858	-20.399944
1.400000	-0.026791	-21.151784	-90.746513	-169.674971	-90.746513	-169.674971	-0.026793	-21.146582
1.450000	-0.027712	-21.897251	-89.343034	-167.920187	-89.343034	-167.920187	-0.027734	-21.892089
1.500000	-0.028650	-22.641767	-88.006253	-166.854129	-88.006253	-166.854129	-0.028681	-22.636509
1.550000	-0.029599	-23.385561	-86.766019	-166.176604	-86.766019	-166.176604	-0.029630	-23.380128
1.600000	-0.030559	-24.128622	-85.608995	-165.834665	-85.608995	-165.834665	-0.030583	-24.122944
1.650000	-0.031535	-24.870509	-84.488753	-165.868458	-84.488753	-165.868458	-0.031539	-24.864509
1.700000	-0.032522	-25.611315	-83.417120	-166.132449	-83.417120	-166.132449	-0.032497	-25.604958
1.750000	-0.033516	-26.351581	-82.427916	-166.511538	-82.427916	-166.511538	-0.033457	-26.344850
1.800000	-0.034519	-27.090662	-81.470938	-167.056621	-81.470938	-167.056621	-0.034419	-27.083554
1.850000	-0.035530	-27.828897	-80.564670	-167.720270	-80.564670	-167.720270	-0.035382	-27.821409
1.900000	-0.036546	-28.566076	-79.693995	-168.480820	-79.693995	-168.480820	-0.036347	-28.558229
1.950000	-0.037567	-29.302197	-78.857216	-169.338270	-78.857216	-169.338270	-0.037313	-29.294014
2.000000	-0.038591	-30.037409	-78.058087	-170.252958	-78.058087	-170.252958	-0.038280	-30.028920
2.050000	-0.039618	-30.771345	-77.280308	-171.247780	-77.280308	-171.247780	-0.039249	-30.762597
2.100000	-0.040645	-31.504534	-76.541442	-172.276137	-76.541442	-172.276137	-0.040218	-31.495557
2.150000	-0.041672	-32.236228	-75.814408	-173.371562	-75.814408	-173.371562	-0.041189	-32.227086
2.200000	-0.042698	-32.967350	-75.127025	-174.485908	-75.127025	-174.485908	-0.042161	-32.958066
2.250000	-0.043719	-33.696756	-74.444152	-175.657019	-74.444152	-175.657019	-0.043135	-33.687404
2.300000	-0.044739	-34.425775	-73.801295	-176.837837	-73.801295	-176.837837	-0.044110	-34.416369
2.350000	-0.045752	-35.152861	-73.157257	-178.067187	-73.157257	-178.067187	-0.045089	-35.143473
2.400000	-0.046763	-35.879751	-72.553324	-179.300344	-72.553324	-179.300344	-0.046068	-35.870386
2.450000	-0.047764	-36.604494	-71.943753	179.424629	-71.943753	179.424629	-0.047051	-36.595211
2.500000	-0.048765	-37.329237	-71.374169	178.149601	-71.374169	178.149601	-0.048035	-37.320035
2.550000	-0.049754	-38.051621	-70.795435	176.838157	-70.795435	176.838157	-0.049026	-38.042535
2.600000	-0.050743	-38.774005	-70.252865	175.526713	-70.252865	175.526713	-0.050017	-38.765036
2.650000	-0.051723	-39.494215	-69.705470	174.188273	-69.705470	174.188273	-0.051015	-39.485364
2.700000	-0.052702	-40.214227	-69.187397	172.847380	-69.187397	172.847380	-0.052014	-40.205495
2.750000	-0.053675	-40.932252	-68.668099	171.486390	-68.668099	171.486390	-0.053022	-40.923614
2.800000	-0.054647	-41.649878	-68.172370	170.121382	-68.172370	170.121382	-0.054031	-41.641331
2.850000	-0.055617	-42.365701	-67.678423	168.741401	-67.678423	168.741401	-0.055048	-42.357205
2.900000	-0.056588	-43.080923	-67.203181	167.356428	-67.203181	167.356428	-0.056069	-43.072464
2.950000	-0.057561	-43.794523	-66.732238	165.960328	-66.732238	165.960328	-0.057098	-43.786056
3.000000	-0.058536	-44.507313	-66.275868	164.558663	-66.275868	164.558663	-0.058132	-44.498815
3.050000	-0.059517	-45.218664	-65.825907	163.148788	-65.825907	163.148788	-0.059175	-45.210091
3.100000	-0.060503	-45.928987	-65.386994	161.733048	-65.386994	161.733048	-0.060224	-45.920308
3.150000	-0.061498	-46.638054	-64.956260	160.311327	-64.956260	160.311327	-0.061282	-46.629234
3.200000	-0.062502	-47.345865	-64.533559	158.883625	-64.533559	158.883625	-0.062348	-47.336869
3.250000	-0.063516	-48.052609	-64.120519	157.451661	-64.120519	157.451661	-0.063422	-48.043413
3.300000	-0.064543	-48.757859	-63.712926	156.013728	-63.712926	156.013728	-0.064506	-48.748430
3.350000	-0.065580	-49.462237	-63.316231	154.572863	-63.316231	154.572863	-0.065598	-49.452561
3.400000	-0.066636	-50.164872	-62.922765	153.126132	-62.922765	153.126132	-0.066703	-50.154923
3.450000	-0.067700	-50.866838	-62.541224	151.677501	-62.541224	151.677501	-0.067814	-50.856613
3.500000	-0.068788	-51.566802	-62.161004	150.223172	-62.161004	150.223172	-0.068941	-51.556287
3.550000	-0.069883	-52.266311	-61.793558	148.767746	-61.793558	148.767746	-0.070072	-52.255509
3.600000	-0.071006	-52.963550	-61.425796	147.306838	-61.425796	147.306838	-0.071224	-52.952465
3.650000	-0.072133	-53.660557	-61.071498	145.845454	-61.071498	145.845454	-0.072377	-53.649192
3.700000	-0.073293	-54.355022	-60.715481	144.378842	-60.715481	144.378842	-0.073554	-54.343401
3.750000	-0.074453	-55.049486	-60.373483	142.912231	-60.373483	142.912231	-0.074731	-55.037610
3.800000	-0.075651	-55.741132	-60.028565	141.440680	-60.028565	141.440680	-0.075935	-55.729048
3.850000	-0.076849	-56.432778	-59.696822	139.969129	-59.696822	139.969129	-0.077140	-56.420485
3.900000	-0.078082	-57.121806	-59.363698	138.493671	-59.363698	138.493671	-0.078371	-57.109360
3.950000	-0.079318	-57.810596	-59.041690	137.017859	-59.041690	137.017859	-0.079604	-57.798003
4.000000	-0.080586	-58.496979	-58.719651	135.539002	-58.719651	135.539002	-0.080863	-58.484299
4.050000	-0.081859	-59.182882	-58.406901	134.059537	-58.406901	134.059537	-0.082127	-59.170126
4.100000	-0.083161	-59.866601	-58.095305	132.577749	-58.095305	132.577749	-0.083416	-59.853830
4.150000	-0.084473	-60.549592	-57.791375	131.095187	-57.791375	131.095187	-0.084712	-60.536825
4.200000	-0.085809	-61.230631	-57.489636	129.610906	-57.489636	129.610906	-0.086031	-61.217922
4.250000	-0.087157	-61.910694	-57.194121	128.125766	-57.194121	128.125766	-0.087362	-61.898070
4.300000	-0.088528	-62.589041	-56.901701	126.639405	-56.901701	126.639405	-0.088713	-62.576551
4.350000	-0.089913	-63.266164	-56.614227	125.152172	-56.614227	125.152172	-0.090079	-63.253841
4.400000	-0.091317	-63.941815	-56.330634	123.664126	-56.330634	123.664126	-0.091464	-63.929698
4.450000	-0.092740	-64.615992	-56.050850	122.175266	-56.050850	122.175266	-0.092867	-64.604121
4.500000	-0.094178	-65.288942	-55.775630	120.685916	-55.775630	120.685916	-0.094286	-65.277347
4.550000	-0.095637	-65.960174	-55.503210	119.195880	-55.503210	119.195880	-0.095728	-65.948898
4.600000	-0.097109	-66.630425	-55.235943	117.705598	-55.235943	117.705598	-0.097184	-66.619490
4.650000	-0.098606	-67.298715	-54.970579	116.214825	-54.970579	116.214825	-0.098666	-67.288165
4.700000	-0.100113	-67.966272	-54.710875	114.723977	-54.710875	114.723977	-0.100159	-67.956121
4.750000	-0.101648	-68.631629	-54.452279	113.232901	-54.452279	113.232901	-0.101683	-68.621920
4.800000	-0.103190	-69.296498	-54.199774	111.741847	-54.199774	111.741847	-0.103215	-69.287240
4.850000	-0.104764	-69.958933	-53.947672	110.250900	-53.947672	110.250900	-0.104783	-69.950166
4.900000	-0.106342	-70.621125	-53.702028	108.760000	-53.702028	108.760000	-0.106355	-70.612853
4.950000	-0.107957	-71.280653	-53.456160	107.269614	-53.456160	107.269614	-0.107968	-71.272913
5.000000	-0.109572	-71.940180	-53.217059	105.779227	-53.217059	105.779227	-0.109581	-71.932972
5.050000	-0.111229	-72.596819	-52.977176	104.289836	-52.977176	104.289836	-0.111240	-72.590172
5.100000	-0.112886	-73.253457	-52.743739	102.800445	-52.743739	102.800445	-0.112900	-73.247373
5.150000	-0.114583	-73.907465	-52.510184	101.312368	-52.510184	101.312368	-0.114604	-73.901963
5.200000	-0.116284	-74.561235	-52.282194	99.824411	-52.282194	99.824411	-0.116312	-74.556317
5.250000	-0.118023	-75.212632	-52.054675	98.338022	-52.054675	98.338022	-0.118061	-75.208310
5.300000	-0.119770	-75.863554	-51.831920	96.851946	-51.831920	96.851946	-0.119819	-75.859830
5.350000	-0.121553	-76.512361	-51.610163	95.367622	-51.610163	95.367622	-0.121615	-76.509239
5.400000	-0.123348	-77.160461	-51.392440	93.883884	-51.392440	93.883884	-0.123424	-77.157944
5.450000	-0.125177	-77.806698	-51.176183	92.402017	-51.176183	92.402017	-0.125268	-77.804786
5.500000	-0.127023	-78.452003	-50.963296	90.921085	-50.963296	90.921085	-0.127130	-78.450696
5.550000	-0.128900	-79.095694	-50.752288	89.442076	-50.752288	89.442076	-0.129023	-79.094989
5.600000	-0.130799	-79.738231	-50.544045	87.964439	-50.544045	87.964439	-0.130940	-79.738127
5.650000	-0.132726	-80.379400	-50.338052	86.488706	-50.338052	86.488706	-0.132884	-80.379892
5.700000	-0.134681	-81.019199	-50.134267	85.014876	-50.134267	85.014876	-0.134856	-81.020284
5.750000	-0.136661	-81.657871	-49.933061	83.542858	-49.933061	83.542858	-0.136852	-81.659545
5.800000	-0.138676	-82.294964	-49.733550	82.073379	-49.733550	82.073379	-0.138882	-82.297221
5.850000	-0.140712	-82.931165	-49.536917	80.605546	-49.536917	80.605546	-0.140931	-82.934004
5.900000	-0.142789	-83.565583	-49.341502	79.141005	-49.341502	79.141005	-0.143020	-83.568998
5.950000	-0.144883	-84.199341	-49.149233	77.677862	-49.149233	77.677862	-0.145124	-84.203331
6.000000	-0.147026	-84.831118	-48.957738	76.218910	-48.957738	76.218910	-0.147273	-84.835679
6.050000	-0.149181	-85.462461	-48.769633	74.761011	-48.769633	74.761011	-0.149433	-85.467594
6.100000	-0.151393	-86.091631	-48.581886	73.308382	-48.581886	73.308382	-0.151645	-86.097339
6.150000	-0.153612	-86.720588	-48.397752	71.856350	-48.397752	71.856350	-0.153862	-86.726871
6.200000	-0.155898	-87.347188	-48.213578	70.410898	-48.213578	70.410898	-0.156137	-87.354058
6.250000	-0.158184	-87.973788	-48.033229	68.965445	-48.033229	68.965445	-0.158412	-87.981246
6.300000	-0.160547	-88.597853	-47.852455	67.528191	-47.852455	67.528191	-0.160752	-88.605929
6.350000	-0.162911	-89.221919	-47.675367	66.090938	-47.675367	66.090938	-0.163093	-89.230612
6.400000	-0.165349	-89.843696	-47.498155	64.662360	-47.498155	64.662360	-0.165494	-89.853054
6.450000	-0.167795	-90.465264	-47.324160	63.234571	-47.324160	63.234571	-0.167901	-90.475293
6.500000	-0.170313	-91.084783	-47.150310	61.816019	-47.150310	61.816019	-0.170365	-91.095553
6.550000	-0.172845	-91.703893	-46.979229	60.399314	-46.979229	60.399314	-0.172841	-91.715418
6.600000	-0.175447	-92.321185	-46.808533	58.992530	-46.808533	58.992530	-0.175368	-92.333565
6.650000	-0.178072	-92.937872	-46.640173	57.589053	-46.640173	57.589053	-0.177914	-92.951139
6.700000	-0.180752	-93.553231	-46.472852	56.194334	-46.472852	56.194334	-0.180499	-93.567491
6.750000	-0.183480	-94.167488	-46.306895	54.807461	-46.306895	54.807461	-0.183118	-94.182842
6.800000	-0.186258	-94.780607	-46.142163	53.429598	-46.142163	53.429598	-0.185772	-94.797179
6.850000	-0.189102	-95.392337	-45.978101	52.064808	-45.978101	52.064808	-0.188470	-95.410330
6.900000	-0.191995	-96.003117	-45.815369	50.710470	-45.815369	50.710470	-0.191200	-96.022706
6.950000	-0.194939	-96.612948	-45.653901	49.367345	-45.653901	49.367345	-0.193961	-96.634330
7.000000	-0.197960	-97.221402	-45.492723	48.043379	-45.492723	48.043379	-0.196770	-97.244935
7.050000	-0.201051	-97.828734	-45.332084	46.738862	-45.332084	46.738862	-0.199619	-97.854814
7.100000	-0.204205	-98.435108	-45.172174	45.453320	-45.172174	45.453320	-0.202505	-98.464143
7.150000	-0.207434	-99.040429	-45.012639	44.190770	-45.012639	44.190770	-0.205430	-99.072931
7.200000	-0.210781	-99.644205	-44.851605	42.971132	-44.851605	42.971132	-0.208421	-99.681208
7.250000	-0.214220	-100.246913	-44.689854	41.788374	-44.689854	41.788374	-0.211461	-100.289385
7.300000	-0.217756	-100.848501	-44.526922	40.647669	-44.526922	40.647669	-0.214556	-100.897591
7.350000	-0.221443	-101.448408	-44.359772	39.579798	-44.359772	39.579798	-0.217743	-101.506233
7.400000	-0.225300	-102.046327	-44.184960	38.612237	-44.184960	38.612237	-0.221065	-102.116142
7.450000	-0.229295	-102.642254	-44.000712	37.750907	-44.000712	37.750907	-0.224550	-102.727839
7.500000	-0.233431	-103.235942	-43.805143	37.011474	-43.805143	37.011474	-0.228232	-103.341777
7.550000	-0.237673	-103.824579	-43.568922	36.553613	-43.568922	36.553613	-0.232554	-103.962429
7.600000	-0.241749	-104.408189	-43.275279	36.388791	-43.275279	36.388791	-0.237905	-104.591794
7.650000	-0.245080	-104.985822	-42.846372	36.625823	-42.846372	36.625823	-0.246039	-105.237540
7.700000	-0.246932	-105.561416	-42.108661	36.956308	-42.108661	36.956308	-0.262427	-105.904408
7.750000	-0.247375	-106.143468	-40.792321	34.760174	-40.792321	34.760174	-0.301330	-106.519160
7.800000	-0.247679	-106.736958	-39.657509	22.401541	-39.657509	22.401541	-0.332228	-106.757517
7.850000	-0.248998	-107.337399	-40.603057	10.931991	-40.603057	10.931991	-0.299213	-107.147538
7.900000	-0.251412	-107.938640	-41.578682	8.978575	-41.578682	8.978575	-0.280108	-107.759846
7.950000	-0.254575	-108.537727	-41.995435	9.211676	-41.995435	9.211676	-0.273920	-108.388771
8.000000	-0.258167	-109.133955	-42.133681	9.309967	-42.133681	9.309967	-0.272770	-109.007193
8.050000	-0.261976	-109.727833	-42.155772	9.083935	-42.155772	9.083935	-0.273646	-109.617170
8.100000	-0.265943	-110.319123	-42.108059	8.518333	-42.108059	8.518333	-0.275785	-110.219426
8.150000	-0.269970	-110.908999	-42.038146	7.799194	-42.038146	7.799194	-0.278364	-110.818176
8.200000	-0.274054	-111.497481	-41.950106	6.939249	-41.950106	6.939249	-0.281323	-111.413660
8.250000	-0.278196	-112.084239	-41.848121	5.940070	-41.848121	5.940070	-0.284617	-112.005675
8.300000	-0.282376	-112.669794	-41.740549	4.866125	-41.740549	4.866125	-0.288087	-112.595594
8.350000	-0.286595	-113.254168	-41.629129	3.731086	-41.629129	3.731086	-0.291705	-113.183625
8.400000	-0.290864	-113.837106	-41.514003	2.531372	-41.514003	2.531372	-0.295485	-113.769494
8.450000	-0.295134	-114.420045	-41.400384	1.331658	-41.400384	1.331658	-0.299267	-114.355364
8.500000	-0.299458	-115.001585	-41.285104	0.088561	-41.285104	0.088561	-0.303180	-114.939398
8.550000	-0.303826	-115.582007	-41.168865	-1.189241	-41.168865	-1.189241	-0.307197	-115.521964
8.600000	-0.308196	-116.162428	-41.054162	-2.467044	-41.054162	-2.467044	-0.311216	-116.104531
8.650000	-0.312641	-116.741108	-40.938566	-3.780941	-40.938566	-3.780941	-0.315380	-116.685073
8.700000	-0.317108	-117.319289	-40.823815	-5.105151	-40.823815	-5.105151	-0.319588	-117.265036
8.750000	-0.321579	-117.897471	-40.710560	-6.429361	-40.710560	-6.429361	-0.323798	-117.844999
8.800000	-0.326143	-118.473607	-40.596999	-7.783958	-40.596999	-7.783958	-0.328174	-118.422784
8.850000	-0.330709	-119.049744	-40.484905	-9.138554	-40.484905	-9.138554	-0.332553	-119.000569
8.900000	-0.335298	-119.625462	-40.374035	-10.497926	-40.374035	-10.497926	-0.336968	-119.577936
8.950000	-0.339957	-120.199712	-40.263863	-11.874014	-40.263863	-11.874014	-0.341507	-120.153842
9.000000	-0.344619	-120.773963	-40.155070	-13.250103	-40.155070	-13.250103	-0.346048	-120.729749
9.050000	-0.349319	-121.347438	-40.047526	-14.633367	-40.047526	-14.633367	-0.350659	-121.304926
9.100000	-0.354068	-121.919944	-39.941180	-16.025601	-39.941180	-16.025601	-0.355357	-121.879193
9.150000	-0.358819	-122.492451	-39.836119	-17.417835	-39.836119	-17.417835	-0.360057	-122.453460
9.200000	-0.363621	-123.063884	-39.732586	-18.818511	-39.732586	-18.818511	-0.364860	-123.026771
9.250000	-0.368449	-123.634782	-39.630406	-20.223409	-39.630406	-20.223409	-0.369715	-123.599604
9.300000	-0.373281	-124.205679	-39.529414	-21.628307	-39.529414	-21.628307	-0.374573	-124.172437
9.350000	-0.378171	-124.775263	-39.430473	-23.042254	-39.430473	-23.042254	-0.379567	-124.744164
9.400000	-0.383070	-125.344683	-39.332756	-24.457332	-39.332756	-24.457332	-0.384580	-125.315752
9.450000	-0.387977	-125.913954	-39.236304	-25.873323	-39.236304	-25.873323	-0.389613	-125.887222
9.500000	-0.392931	-126.482030	-39.142317	-27.296612	-39.142317	-27.296612	-0.394782	-126.457745
9.550000	-0.397888	-127.050106	-39.049336	-28.719901	-39.049336	-28.719901	-0.399955	-127.028268
9.600000	-0.402859	-127.617779	-38.958067	-30.145348	-38.958067	-30.145348	-0.405180	-127.598494
9.650000	-0.407856	-128.184645	-38.869183	-31.575109	-38.869183	-31.575109	-0.410510	-128.168126
9.700000	-0.412856	-128.751512	-38.781199	-33.004871	-38.781199	-33.004871	-0.415843	-128.737758
9.750000	-0.417868	-129.317783	-38.695623	-34.437292	-38.695623	-34.437292	-0.421263	-129.306991
9.800000	-0.422891	-129.883578	-38.612091	-35.871841	-38.612091	-35.871841	-0.426755	-129.875905
9.850000	-0.427917	-130.449373	-38.529354	-37.306390	-38.529354	-37.306390	-0.432250	-130.444819
9.900000	-0.432945	-131.014445	-38.449961	-38.743307	-38.449961	-38.743307	-0.437867	-131.013310
9.950000	-0.437975	-131.579310	-38.372014	-40.180902	-38.372014	-40.180902	-0.443522	-131.581679
10.000000	-0.443007	-132.144175	-38.294760	-41.618497	-38.294760	-41.618497	-0.449181	-132.150049
