! freq	dB(S11)	phase(S11)	dB(S12)	phase(S12)	
!     	dB(S21)	phase(S21)	dB(S22)	phase(S22)	
!S-par simulation data
#  GHz  S  DB  R 50
0.000000	-0.000000	0.000000	-339.773531	180.000000	-339.773531	180.000000	-0.000000	0.000000
0.050000	-0.007511	-3.059510	-82.465034	86.634115	-82.465034	86.634115	-0.007806	-3.057240
0.100000	-0.018763	-6.189429	-76.494426	83.308151	-76.494426	83.308151	-0.019216	-6.187758
0.150000	-0.026245	-9.346890	-73.052361	80.050591	-73.052361	80.050591	-0.026633	-9.345421
0.200000	-0.030972	-12.502110	-70.656900	76.871199	-70.656900	76.871199	-0.031269	-12.500217
0.250000	-0.034287	-15.646112	-68.843255	73.770541	-68.843255	73.770541	-0.034511	-15.643511
0.300000	-0.036953	-18.775665	-67.403437	70.743032	-67.403437	70.743032	-0.037123	-18.772265
0.350000	-0.039346	-21.889433	-66.224771	67.780710	-66.224771	67.780710	-0.039476	-21.885216
0.400000	-0.041642	-24.984632	-65.245770	64.883631	-65.245770	64.883631	-0.041741	-24.979614
0.450000	-0.043937	-28.059802	-64.423290	62.049472	-64.423290	62.049472	-0.044012	-28.054011
0.500000	-0.046273	-31.114228	-63.726341	59.277091	-63.726341	59.277091	-0.046327	-31.107693
0.550000	-0.048667	-34.145834	-63.136487	56.571828	-63.136487	56.571828	-0.048704	-34.138589
0.600000	-0.051123	-37.153093	-62.639183	53.939471	-62.639183	53.939471	-0.051145	-37.145171
0.650000	-0.053637	-40.134263	-62.224163	51.388475	-62.224163	51.388475	-0.053646	-40.125697
0.700000	-0.056200	-43.087953	-61.883070	48.928246	-61.883070	48.928246	-0.056197	-43.078776
0.750000	-0.058799	-46.013213	-61.608791	46.568632	-61.608791	46.568632	-0.058785	-46.003456
0.800000	-0.061421	-48.908927	-61.396197	44.322045	-61.396197	44.322045	-0.061399	-48.898622
0.850000	-0.064053	-51.774099	-61.241175	42.202812	-61.241175	42.202812	-0.064023	-51.763274
0.900000	-0.066682	-54.607850	-61.140370	40.227495	-61.140370	40.227495	-0.066646	-54.596533
0.950000	-0.069295	-57.409419	-61.090978	38.415298	-61.090978	38.415298	-0.069254	-57.397638
1.000000	-0.071883	-60.178164	-61.090560	36.788581	-61.090560	36.788581	-0.071837	-60.165944
1.050000	-0.074433	-62.913552	-61.136862	35.373453	-61.136862	35.373453	-0.074384	-62.900920
1.100000	-0.076937	-65.615162	-61.227611	34.200452	-61.227611	34.200452	-0.076886	-65.602141
1.150000	-0.079387	-68.282675	-61.360269	33.305248	-61.360269	33.305248	-0.079336	-68.269286
1.200000	-0.081778	-70.915869	-61.531721	32.729294	-61.531721	32.729294	-0.081725	-70.902136
1.250000	-0.084102	-73.514618	-61.737855	32.520224	-61.737855	32.520224	-0.084050	-73.500560
1.300000	-0.086356	-76.078131	-61.973308	32.742172	-61.973308	32.742172	-0.086304	-76.063769
1.350000	-0.088536	-78.607203	-62.229335	33.445676	-62.229335	33.445676	-0.088486	-78.592555
1.400000	-0.090642	-81.101953	-62.494731	34.689947	-62.494731	34.689947	-0.090593	-81.087038
1.450000	-0.092673	-83.562570	-62.754322	36.527843	-62.754322	36.527843	-0.092626	-83.547403
1.500000	-0.094628	-85.989304	-62.988412	38.994278	-62.988412	38.994278	-0.094583	-85.973902
1.550000	-0.096508	-88.382462	-63.173025	42.090098	-63.173025	42.090098	-0.096466	-88.366840
1.600000	-0.098316	-90.742402	-63.281603	45.764025	-63.281603	45.764025	-0.098276	-90.726575
1.650000	-0.100052	-93.069530	-63.288590	49.899305	-63.288590	49.899305	-0.100015	-93.053511
1.700000	-0.101719	-95.364290	-63.174477	54.314390	-63.174477	54.314390	-0.101685	-95.348093
1.750000	-0.103320	-97.627165	-62.930626	58.784176	-62.930626	58.784176	-0.103289	-97.610803
1.800000	-0.104860	-99.858669	-62.561585	63.078228	-62.561585	63.078228	-0.104830	-99.842153
1.850000	-0.106340	-102.059343	-62.083595	67.001466	-62.083595	67.001466	-0.106313	-102.042686
1.900000	-0.107764	-104.229431	-61.519028	70.414596	-61.519028	70.414596	-0.107739	-104.212642
1.950000	-0.109137	-106.369538	-60.893898	73.251934	-60.893898	73.251934	-0.109114	-106.352630
2.000000	-0.110462	-108.480597	-60.232821	75.512675	-60.232821	75.512675	-0.110441	-108.463579
2.050000	-0.111744	-110.563225	-59.554913	77.227091	-59.554913	77.227091	-0.111724	-110.546106
2.100000	-0.112987	-112.618049	-58.874640	78.445400	-58.874640	78.445400	-0.112969	-112.600840
2.150000	-0.114195	-114.645705	-58.202279	79.225534	-58.202279	79.225534	-0.114177	-114.628414
2.200000	-0.115371	-116.646835	-57.544732	79.625489	-57.544732	79.625489	-0.115355	-116.629470
2.250000	-0.116520	-118.622083	-56.906354	79.699197	-56.906354	79.699197	-0.116504	-118.604652
2.300000	-0.117646	-120.572097	-56.289666	79.494720	-56.289666	79.494720	-0.117630	-120.554608
2.350000	-0.118751	-122.497523	-55.695916	79.053812	-55.695916	79.053812	-0.118735	-122.479984
2.400000	-0.119839	-124.399008	-55.125485	78.412201	-55.125485	78.412201	-0.119823	-124.381424
2.450000	-0.120914	-126.277193	-54.578184	77.600192	-54.578184	77.600192	-0.120898	-126.259572
2.500000	-0.121979	-128.132718	-54.053465	76.643372	-54.053465	76.643372	-0.121962	-128.115065
2.550000	-0.123036	-129.965751	-53.550405	75.561053	-53.550405	75.561053	-0.123019	-129.948073
2.600000	-0.124089	-131.777413	-53.068319	74.374354	-53.068319	74.374354	-0.124071	-131.759714
2.650000	-0.125141	-133.568324	-52.606238	73.098455	-52.606238	73.098455	-0.125122	-133.550609
2.700000	-0.126193	-135.339095	-52.163180	71.746206	-52.163180	71.746206	-0.126173	-135.321369
2.750000	-0.127249	-137.090331	-51.738179	70.328511	-51.738179	70.328511	-0.127228	-137.072599
2.800000	-0.128310	-138.822628	-51.330298	68.854648	-51.330298	68.854648	-0.128288	-138.804893
2.850000	-0.129379	-140.536572	-50.938640	67.332537	-50.938640	67.332537	-0.129356	-140.518838
2.900000	-0.130458	-142.232740	-50.562356	65.768955	-50.562356	65.768955	-0.130433	-142.215009
2.950000	-0.131548	-143.911698	-50.200644	64.169716	-50.200644	64.169716	-0.131522	-143.893975
3.000000	-0.132651	-145.574004	-49.852749	62.539828	-49.852749	62.539828	-0.132624	-145.556291
3.050000	-0.133768	-147.220206	-49.517967	60.883609	-49.517967	60.883609	-0.133740	-147.202504
3.100000	-0.134901	-148.850839	-49.195638	59.204794	-49.195638	59.204794	-0.134872	-148.833151
3.150000	-0.136055	-150.464381	-48.885225	57.504305	-48.885225	57.504305	-0.136024	-150.446710
3.200000	-0.137224	-152.065370	-48.586033	55.789799	-48.586033	55.789799	-0.137192	-152.047716
3.250000	-0.138412	-153.652350	-48.297565	54.061200	-48.297565	54.061200	-0.138379	-153.634714
3.300000	-0.139622	-155.225815	-48.019322	52.320644	-48.019322	52.320644	-0.139587	-155.208199
3.350000	-0.140852	-156.786252	-47.750835	50.569995	-47.750835	50.569995	-0.140816	-156.768656
3.400000	-0.142104	-158.334135	-47.491669	48.810884	-47.491669	48.810884	-0.142068	-158.316560
3.450000	-0.143379	-159.869930	-47.241418	47.044740	-47.241418	47.044740	-0.143342	-159.852376
3.500000	-0.144678	-161.394093	-46.999702	45.272817	-46.999702	45.272817	-0.144639	-161.376559
3.550000	-0.146000	-162.907069	-46.766167	43.496216	-46.766167	43.496216	-0.145961	-162.889556
3.600000	-0.147347	-164.409295	-46.540482	41.715902	-46.540482	41.715902	-0.147307	-164.391802
3.650000	-0.148718	-165.901197	-46.322338	39.932724	-46.322338	39.932724	-0.148678	-165.883725
3.700000	-0.150115	-167.383195	-46.111446	38.147430	-46.111446	38.147430	-0.150073	-167.365742
3.750000	-0.151536	-168.855697	-45.907536	36.360675	-45.907536	36.360675	-0.151495	-168.838262
3.800000	-0.152985	-170.318727	-45.710449	34.573023	-45.710449	34.573023	-0.152943	-170.301309
3.850000	-0.154459	-171.773087	-45.519860	32.785035	-45.519860	32.785035	-0.154417	-171.755686
3.900000	-0.155960	-173.219162	-45.335547	30.997149	-45.335547	30.997149	-0.155917	-173.201775
3.950000	-0.157486	-174.657324	-45.157303	29.209752	-45.157303	29.209752	-0.157443	-174.639951
4.000000	-0.159038	-176.087942	-44.984934	27.423181	-44.984934	27.423181	-0.158995	-176.070580
4.050000	-0.160616	-177.511372	-44.818259	25.637735	-44.818259	25.637735	-0.160573	-177.494020
4.100000	-0.162221	-178.927967	-44.657108	23.853673	-44.657108	23.853673	-0.162178	-178.910623
4.150000	-0.163851	179.661929	-44.501322	22.071225	-44.501322	22.071225	-0.163808	179.679267
4.200000	-0.165507	178.257979	-44.350755	20.290590	-44.350755	20.290590	-0.165464	178.275313
4.250000	-0.167189	176.859853	-44.205267	18.511944	-44.205267	18.511944	-0.167146	176.877185
4.300000	-0.168897	175.467227	-44.064730	16.735439	-44.064730	16.735439	-0.168854	175.484559
4.350000	-0.170629	174.079783	-43.929023	14.961210	-43.929023	14.961210	-0.170587	174.097118
4.400000	-0.172388	172.697212	-43.798036	13.189374	-43.798036	13.189374	-0.172346	172.714551
4.450000	-0.174171	171.319208	-43.671664	11.420032	-43.671664	11.420032	-0.174129	171.336554
4.500000	-0.175979	169.945471	-43.549811	9.653276	-43.549811	9.653276	-0.175938	169.962827
4.550000	-0.177812	168.575709	-43.432388	7.889183	-43.432388	7.889183	-0.177771	168.593077
4.600000	-0.179669	167.209633	-43.319314	6.127823	-43.319314	6.127823	-0.179628	167.227016
4.650000	-0.181550	165.846962	-43.210511	4.369260	-43.210511	4.369260	-0.181510	165.864362
4.700000	-0.183455	164.487417	-43.105912	2.613548	-43.105912	2.613548	-0.183415	164.504836
4.750000	-0.185383	163.130726	-43.005452	0.860739	-43.005452	0.860739	-0.185344	163.148168
4.800000	-0.187335	161.776623	-42.909075	-0.889120	-42.909075	-0.889120	-0.187296	161.794089
4.850000	-0.189309	160.424843	-42.816729	-2.635984	-42.816729	-2.635984	-0.189271	160.442337
4.900000	-0.191307	159.075128	-42.728366	-4.379810	-42.728366	-4.379810	-0.191269	159.092652
4.950000	-0.193326	157.727226	-42.643947	-6.120555	-42.643947	-6.120555	-0.193289	157.744782
5.000000	-0.195368	156.380885	-42.563436	-7.858176	-42.563436	-7.858176	-0.195331	156.398476
5.050000	-0.197432	155.035906	-42.486941	-9.592490	-42.486941	-9.592490	-0.197395	155.053535
5.100000	-0.199517	153.691980	-42.414300	-11.323583	-42.414300	-11.323583	-0.199481	153.709650
5.150000	-0.201624	152.348871	-42.345493	-13.051407	-42.345493	-13.051407	-0.201588	152.366583
5.200000	-0.203751	151.006343	-42.280504	-14.775907	-42.280504	-14.775907	-0.203716	151.024101
5.250000	-0.205899	149.664168	-42.219320	-16.497023	-42.219320	-16.497023	-0.205864	149.681974
5.300000	-0.208067	148.322119	-42.161936	-18.214691	-42.161936	-18.214691	-0.208032	148.339975
5.350000	-0.210255	146.979972	-42.108348	-19.928838	-42.108348	-19.928838	-0.210220	146.997881
5.400000	-0.212462	145.637508	-42.058558	-21.639385	-42.058558	-21.639385	-0.212427	145.655472
5.450000	-0.214689	144.294511	-42.012574	-23.346245	-42.012574	-23.346245	-0.214654	144.312532
5.500000	-0.216935	142.950766	-41.970407	-25.049320	-41.970407	-25.049320	-0.216899	142.968846
5.550000	-0.219199	141.606062	-41.932073	-26.748504	-41.932073	-26.748504	-0.219164	141.624204
5.600000	-0.221482	140.260193	-41.897591	-28.443677	-41.897591	-28.443677	-0.221447	140.278398
5.650000	-0.223783	138.912952	-41.866988	-30.134709	-41.866988	-30.134709	-0.223748	138.931223
5.700000	-0.226102	137.564138	-41.840294	-31.821455	-41.840294	-31.821455	-0.226067	137.582477
5.750000	-0.228439	136.213550	-41.817542	-33.503757	-41.817542	-33.503757	-0.228403	136.231959
5.800000	-0.230794	134.860993	-41.798772	-35.181440	-41.798772	-35.181440	-0.230758	134.879473
5.850000	-0.233166	133.506270	-41.784030	-36.854313	-41.784030	-36.854313	-0.233130	133.524824
5.900000	-0.235556	132.149190	-41.773364	-38.522164	-41.773364	-38.522164	-0.235519	132.167820
5.950000	-0.237963	130.789564	-41.766829	-40.184765	-41.766829	-40.184765	-0.237926	130.808270
6.000000	-0.240387	129.427203	-41.764487	-41.841862	-41.764487	-41.841862	-0.240349	129.445988
6.050000	-0.242829	128.061922	-41.766402	-43.493178	-41.766402	-43.493178	-0.242790	128.080787
6.100000	-0.245287	126.693538	-41.772648	-45.138414	-41.772648	-45.138414	-0.245248	126.712486
6.150000	-0.247762	125.321871	-41.783301	-46.777238	-41.783301	-46.777238	-0.247723	125.340902
6.200000	-0.250255	123.946741	-41.798446	-48.409291	-41.798446	-48.409291	-0.250215	123.965857
6.250000	-0.252765	122.567972	-41.818175	-50.034179	-41.818175	-50.034179	-0.252724	122.587174
6.300000	-0.255293	121.185216	-41.842789	-51.651120	-41.842789	-51.651120	-0.255251	121.204504
6.350000	-0.257838	119.798457	-41.872197	-53.259951	-41.872197	-53.259951	-0.257796	119.817834
6.400000	-0.260401	118.407526	-41.906512	-54.860153	-41.906512	-54.860153	-0.260358	118.426993
6.450000	-0.262982	117.012254	-41.945855	-56.451158	-41.945855	-56.451158	-0.262939	117.031811
6.500000	-0.265582	115.612474	-41.990357	-58.032346	-41.990357	-58.032346	-0.265537	115.632124
6.550000	-0.268199	114.208022	-42.040157	-59.603039	-42.040157	-59.603039	-0.268154	114.227765
6.600000	-0.270836	112.798735	-42.095403	-61.162492	-42.095403	-61.162492	-0.270790	112.818572
6.650000	-0.273492	111.384452	-42.156255	-62.709889	-42.156255	-62.709889	-0.273446	111.404384
6.700000	-0.276168	109.965014	-42.222883	-64.244338	-42.222883	-64.244338	-0.276121	109.985041
6.750000	-0.278865	108.540263	-42.295470	-65.764853	-42.295470	-65.764853	-0.278817	108.560387
6.800000	-0.281583	107.110044	-42.374211	-67.270353	-42.374211	-67.270353	-0.281534	107.130265
6.850000	-0.284323	105.674203	-42.459313	-68.759646	-42.459313	-68.759646	-0.284273	105.694523
6.900000	-0.287085	104.232589	-42.550998	-70.231417	-42.550998	-70.231417	-0.287034	104.253007
6.950000	-0.289871	102.785050	-42.649506	-71.684210	-42.649506	-71.684210	-0.289820	102.805569
7.000000	-0.292682	101.331440	-42.755090	-73.116414	-42.755090	-73.116414	-0.292630	101.352059
7.050000	-0.295518	99.871610	-42.868021	-74.526239	-42.868021	-74.526239	-0.295465	99.892331
7.100000	-0.298380	98.405417	-42.988591	-75.911697	-42.988591	-75.911697	-0.298327	98.426241
7.150000	-0.301271	96.932717	-43.117109	-77.270568	-43.117109	-77.270568	-0.301217	96.953645
7.200000	-0.304191	95.453370	-43.253907	-78.600373	-43.253907	-78.600373	-0.304137	95.474402
7.250000	-0.307142	93.967236	-43.399338	-79.898334	-43.399338	-79.898334	-0.307087	93.988374
7.300000	-0.310124	92.474177	-43.553779	-81.161333	-43.553779	-81.161333	-0.310069	92.495422
7.350000	-0.313141	90.974058	-43.717631	-82.385854	-43.717631	-82.385854	-0.313085	90.995411
7.400000	-0.316193	89.466745	-43.891318	-83.567930	-43.891318	-83.567930	-0.316137	89.488207
7.450000	-0.319283	87.952107	-44.075293	-84.703067	-44.075293	-84.703067	-0.319226	87.973679
7.500000	-0.322412	86.430012	-44.270028	-85.786159	-44.270028	-85.786159	-0.322355	86.451696
7.550000	-0.325585	84.899997	-44.476308	-86.808554	-44.476308	-86.808554	-0.325528	84.921794
7.600000	-0.328802	83.362261	-44.694355	-87.765736	-44.694355	-87.765736	-0.328744	83.384173
7.650000	-0.332065	81.816679	-44.924693	-88.649920	-44.924693	-88.649920	-0.332007	81.838707
7.700000	-0.335378	80.263128	-45.167846	-89.452147	-45.167846	-89.452147	-0.335320	80.285276
7.750000	-0.338743	78.701489	-45.424330	-90.162073	-45.424330	-90.162073	-0.338684	78.723758
7.800000	-0.342162	77.131644	-45.694629	-90.767730	-45.694629	-90.767730	-0.342103	77.154035
7.850000	-0.345639	75.553475	-45.979166	-91.255244	-45.979166	-91.255244	-0.345580	75.575992
7.900000	-0.349177	73.966870	-46.278262	-91.608510	-46.278262	-91.608510	-0.349118	73.989515
7.950000	-0.352780	72.371715	-46.592076	-91.808832	-46.592076	-91.808832	-0.352720	72.394491
8.000000	-0.356451	70.767900	-46.920520	-91.834533	-46.920520	-91.834533	-0.356391	70.790810
8.050000	-0.360194	69.155317	-47.263146	-91.660557	-47.263146	-91.660557	-0.360134	69.178365
8.100000	-0.364013	67.533860	-47.618984	-91.258131	-47.618984	-91.258131	-0.363952	67.557048
8.150000	-0.367912	65.903425	-47.986326	-90.594555	-47.986326	-90.594555	-0.367850	65.926758
8.200000	-0.371895	64.263909	-48.362445	-89.633297	-48.362445	-89.633297	-0.371833	64.287391
8.250000	-0.375968	62.615213	-48.743231	-88.334627	-48.743231	-88.334627	-0.375904	62.638848
8.300000	-0.380134	60.957239	-49.122758	-86.657166	-49.122758	-86.657166	-0.380069	60.981032
8.350000	-0.384399	59.289891	-49.492817	-84.560819	-49.492817	-84.560819	-0.384333	59.313846
8.400000	-0.388768	57.613075	-49.842482	-82.011635	-49.842482	-82.011635	-0.388701	57.637198
8.450000	-0.393246	55.926700	-50.157903	-78.988969	-50.157903	-78.988969	-0.393178	55.950996
8.500000	-0.397840	54.230675	-50.422557	-75.494746	-50.422557	-75.494746	-0.397770	54.255151
8.550000	-0.402556	52.524914	-50.618255	-71.563518	-50.618255	-71.563518	-0.402484	52.549575
8.600000	-0.407398	50.809332	-50.727109	-67.270404	-50.727109	-67.270404	-0.407324	50.834184
8.650000	-0.412375	49.083844	-50.734310	-62.732742	-50.734310	-62.732742	-0.412298	49.108894
8.700000	-0.417492	47.348369	-50.631054	-58.101780	-50.631054	-58.101780	-0.417413	47.373625
8.750000	-0.422757	45.602829	-50.416568	-53.544013	-50.416568	-53.544013	-0.422675	45.628298
8.800000	-0.428183	43.846701	-50.093783	-49.232855	-50.093783	-49.232855	-0.428098	43.872391
8.850000	-0.433773	42.080348	-49.682218	-45.286717	-49.682218	-45.286717	-0.433684	42.106267
8.900000	-0.439534	40.303696	-49.199752	-41.784439	-49.199752	-41.784439	-0.439440	40.329852
8.950000	-0.445473	38.516675	-48.664737	-38.763410	-48.664737	-38.763410	-0.445375	38.543077
9.000000	-0.451600	36.719215	-48.093937	-36.227538	-48.093937	-36.227538	-0.451497	36.745873
9.050000	-0.457922	34.911249	-47.501448	-34.157481	-47.501448	-34.157481	-0.457815	34.938171
9.100000	-0.464450	33.092711	-46.898414	-32.520106	-46.898414	-32.520106	-0.464337	33.119907
9.150000	-0.471191	31.263538	-46.293220	-31.275817	-46.293220	-31.275817	-0.471073	31.291016
9.200000	-0.478134	29.424717	-45.695176	-30.352426	-45.695176	-30.352426	-0.478010	29.452488
9.250000	-0.485329	27.574210	-45.101879	-29.773378	-45.101879	-29.773378	-0.485198	27.602284
9.300000	-0.492767	25.712886	-44.519480	-29.470788	-44.519480	-29.470788	-0.492630	25.741273
9.350000	-0.500458	23.840688	-43.949730	-29.411991	-43.949730	-29.411991	-0.500314	23.869399
9.400000	-0.508416	21.957440	-43.393405	-29.570398	-43.393405	-29.570398	-0.508265	21.986485
9.450000	-0.516652	20.063086	-42.851030	-29.920460	-42.851030	-29.920460	-0.516494	20.092476
9.500000	-0.525175	18.157691	-42.322932	-30.438699	-42.322932	-30.438699	-0.525010	18.187436
9.550000	-0.533995	16.241203	-41.808947	-31.107004	-41.808947	-31.107004	-0.533823	16.271314
9.600000	-0.543125	14.313571	-41.308755	-31.909899	-41.308755	-31.909899	-0.542946	14.344058
9.650000	-0.552577	12.374745	-40.821945	-32.834179	-40.821945	-32.834179	-0.552391	12.405618
9.700000	-0.562362	10.424677	-40.348049	-33.868584	-40.348049	-33.868584	-0.562170	10.455946
9.750000	-0.572493	8.463318	-39.886581	-35.003517	-39.886581	-35.003517	-0.572296	8.494993
9.800000	-0.582983	6.490622	-39.437054	-36.230798	-39.437054	-36.230798	-0.582781	6.522712
9.850000	-0.593845	4.506542	-38.998994	-37.543454	-38.998994	-37.543454	-0.593638	4.539056
9.900000	-0.605091	2.511033	-38.571953	-38.935543	-38.571953	-38.935543	-0.604881	2.543980
9.950000	-0.616735	0.504049	-38.155513	-40.401999	-38.155513	-40.401999	-0.616524	0.537436
10.000000	-0.628791	-1.514453	-37.749292	-41.938507	-37.749292	-41.938507	-0.628579	-1.480618
