! freq	dB(S11)	phase(S11)	dB(S12)	phase(S12)	
!     	dB(S21)	phase(S21)	dB(S22)	phase(S22)	
!S-par simulation data
#  GHz  S  DB  R 50
0.000000	-0.000000	0.000000	-322.915434	180.000000	-322.915434	180.000000	-0.000000	0.000000
0.050000	-0.001907	-3.070987	-75.150899	86.916832	-75.150899	86.916832	-0.001908	-3.071667
0.100000	-0.006635	-6.127256	-69.154214	83.854773	-69.154214	83.854773	-0.006637	-6.128614
0.150000	-0.012369	-9.164240	-65.669304	80.819828	-65.669304	80.819828	-0.012373	-9.166269
0.200000	-0.017951	-12.184805	-63.218047	77.808436	-63.218047	77.808436	-0.017957	-12.187499
0.250000	-0.022967	-15.191734	-61.338739	74.818248	-61.338739	74.818248	-0.022975	-15.195085
0.300000	-0.027401	-18.186497	-59.825785	71.849008	-59.825785	71.849008	-0.027411	-18.190497
0.350000	-0.031386	-21.169465	-58.568158	68.901448	-58.568158	68.901448	-0.031396	-21.174105
0.400000	-0.035032	-24.139580	-57.500564	65.978122	-57.500564	65.978122	-0.035044	-24.144852
0.450000	-0.038425	-27.094679	-56.582210	63.083269	-56.582210	63.083269	-0.038437	-27.100572
0.500000	-0.041646	-30.033834	-55.782332	60.218612	-55.782332	60.218612	-0.041658	-30.040335
0.550000	-0.044739	-32.955424	-55.080236	57.387175	-55.080236	57.387175	-0.044752	-32.962522
0.600000	-0.047734	-35.856906	-54.462068	54.593808	-54.462068	54.593808	-0.047747	-35.864588
0.650000	-0.050656	-38.737430	-53.914873	51.840291	-53.914873	51.840291	-0.050670	-38.745681
0.700000	-0.053521	-41.595843	-53.429150	49.129114	-53.429150	49.129114	-0.053535	-41.604650
0.750000	-0.056337	-44.430150	-52.998485	46.464579	-52.998485	46.464579	-0.056351	-44.439497
0.800000	-0.059108	-47.239208	-52.616767	43.849549	-52.616767	43.849549	-0.059122	-47.249081
0.850000	-0.061837	-50.022272	-52.278667	41.286314	-52.278667	41.286314	-0.061852	-50.032654
0.900000	-0.064526	-52.778485	-51.979960	38.777581	-51.979960	38.777581	-0.064540	-52.789360
0.950000	-0.067171	-55.506926	-51.717226	36.326406	-51.717226	36.326406	-0.067186	-55.518280
1.000000	-0.069772	-58.206888	-51.487421	33.935661	-51.487421	33.935661	-0.069787	-58.218703
1.050000	-0.072325	-60.877767	-51.287896	31.608251	-51.287896	31.608251	-0.072340	-60.890028
1.100000	-0.074827	-63.519059	-51.116313	29.347123	-51.116313	29.347123	-0.074842	-63.531751
1.150000	-0.077275	-66.130360	-50.970587	27.155281	-50.970587	27.155281	-0.077290	-66.143467
1.200000	-0.079667	-68.711355	-50.848839	25.035800	-50.848839	25.035800	-0.079681	-68.724861
1.250000	-0.081998	-71.261815	-50.749351	22.991835	-50.749351	22.991835	-0.082013	-71.275704
1.300000	-0.084267	-73.780923	-50.670937	21.028414	-50.670937	21.028414	-0.084282	-73.795182
1.350000	-0.086472	-76.269280	-50.611653	19.147235	-50.611653	19.147235	-0.086487	-76.283893
1.400000	-0.088613	-78.726888	-50.570080	17.351718	-50.570080	17.351718	-0.088627	-78.741841
1.450000	-0.090688	-81.153817	-50.544851	15.645363	-50.544851	15.645363	-0.090701	-81.169098
1.500000	-0.092696	-83.550199	-50.534629	14.031729	-50.534629	14.031729	-0.092710	-83.565793
1.550000	-0.094640	-85.916219	-50.538085	12.514410	-50.538085	12.514410	-0.094653	-85.932113
1.600000	-0.096518	-88.252113	-50.553885	11.096995	-50.553885	11.096995	-0.096531	-88.268296
1.650000	-0.098332	-90.558166	-50.580670	9.783024	-50.580670	9.783024	-0.098345	-90.574625
1.700000	-0.100085	-92.834700	-50.617039	8.575914	-50.617039	8.575914	-0.100097	-92.851425
1.750000	-0.101777	-95.082080	-50.661541	7.478883	-50.661541	7.478883	-0.101788	-95.099059
1.800000	-0.103411	-97.300701	-50.712658	6.494845	-50.712658	6.494845	-0.103421	-97.317924
1.850000	-0.104989	-99.490989	-50.768796	5.626292	-50.768796	5.626292	-0.104999	-99.508446
1.900000	-0.106514	-101.653099	-50.828293	4.876438	-50.828293	4.876438	-0.106523	-101.670780
1.950000	-0.107988	-103.787524	-50.889329	4.246493	-50.889329	4.246493	-0.107997	-103.805420
2.000000	-0.109416	-105.895063	-50.950033	3.735403	-50.950033	3.735403	-0.109425	-105.913165
2.050000	-0.110801	-107.976228	-51.008498	3.342287	-51.008498	3.342287	-0.110809	-107.994530
2.100000	-0.112145	-110.031549	-51.062767	3.064975	-51.062767	3.064975	-0.112153	-110.050042
2.150000	-0.113453	-112.061562	-51.110861	2.899836	-51.110861	2.899836	-0.113460	-112.080240
2.200000	-0.114727	-114.066818	-51.150811	2.841633	-51.150811	2.841633	-0.114734	-114.085673
2.250000	-0.115972	-116.047871	-51.180702	2.883428	-51.180702	2.883428	-0.115978	-116.066897
2.300000	-0.117190	-118.005282	-51.198722	3.016540	-51.198722	3.016540	-0.117196	-118.024473
2.350000	-0.118386	-119.939616	-51.203214	3.230591	-51.203214	3.230591	-0.118390	-119.958967
2.400000	-0.119561	-121.851439	-51.192730	3.513631	-51.192730	3.513631	-0.119565	-121.870945
2.450000	-0.120719	-123.741319	-51.166082	3.852363	-51.166082	3.852363	-0.120723	-123.760975
2.500000	-0.121865	-125.609823	-51.122383	4.232448	-51.122383	4.232448	-0.121867	-125.629625
2.550000	-0.122999	-127.457076	-51.060676	4.639104	-51.060676	4.639104	-0.123001	-127.477019
2.600000	-0.124126	-129.284105	-50.981150	5.056197	-50.981150	5.056197	-0.124127	-129.304186
2.650000	-0.125248	-131.091468	-50.883962	5.468754	-50.883962	5.468754	-0.125249	-131.111683
2.700000	-0.126368	-132.879720	-50.769602	5.862482	-50.769602	5.862482	-0.126369	-132.900066
2.750000	-0.127489	-134.649408	-50.638852	6.224141	-50.638852	6.224141	-0.127489	-134.669883
2.800000	-0.128613	-136.401076	-50.492743	6.541845	-50.492743	6.541845	-0.128612	-136.421676
2.850000	-0.129742	-138.135260	-50.332508	6.805278	-50.332508	6.805278	-0.129740	-138.155984
2.900000	-0.130878	-139.852491	-50.159520	7.005818	-50.159520	7.005818	-0.130876	-139.873335
2.950000	-0.132023	-141.553290	-49.975240	7.136565	-49.975240	7.136565	-0.132021	-141.574254
3.000000	-0.133180	-143.238173	-49.781169	7.192306	-49.781169	7.192306	-0.133177	-143.259254
3.050000	-0.134350	-144.907648	-49.578801	7.169408	-49.578801	7.169408	-0.134346	-144.928845
3.100000	-0.135535	-146.562214	-49.369587	7.065671	-49.369587	7.065671	-0.135530	-146.583526
3.150000	-0.136738	-148.200398	-49.153562	6.868618	-49.153562	6.868618	-0.136733	-148.221824
3.200000	-0.137957	-149.826539	-48.934769	6.600747	-48.934769	6.600747	-0.137951	-149.848077
3.250000	-0.139195	-151.439231	-48.713008	6.252403	-48.713008	6.252403	-0.139189	-151.460882
3.300000	-0.140453	-153.038943	-48.489356	5.825310	-48.489356	5.825310	-0.140446	-153.060705
3.350000	-0.141732	-154.626131	-48.264776	5.321740	-48.264776	5.321740	-0.141725	-154.648005
3.400000	-0.143033	-156.201248	-48.040126	4.744362	-48.040126	4.744362	-0.143026	-156.223232
3.450000	-0.144358	-157.764734	-47.816155	4.096128	-47.816155	4.096128	-0.144350	-157.786829
3.500000	-0.145707	-159.317024	-47.593518	3.380164	-47.593518	3.380164	-0.145698	-159.339230
3.550000	-0.147080	-160.858545	-47.372776	2.599687	-47.372776	2.599687	-0.147071	-160.880861
3.600000	-0.148479	-162.389713	-47.154410	1.757938	-47.154410	1.757938	-0.148469	-162.412140
3.650000	-0.149903	-163.910940	-46.938825	0.858123	-46.938825	0.858123	-0.149893	-163.933478
3.700000	-0.151354	-165.422627	-46.726361	-0.096619	-46.726361	-0.096619	-0.151343	-165.445277
3.750000	-0.152831	-166.925170	-46.517300	-1.103257	-46.517300	-1.103257	-0.152820	-166.947932
3.800000	-0.154337	-168.418593	-46.311833	-2.160879	-46.311833	-2.160879	-0.154326	-168.441468
3.850000	-0.155871	-169.903672	-46.110215	-3.264480	-46.110215	-3.264480	-0.155859	-169.926661
3.900000	-0.157432	-171.380780	-45.912591	-4.411458	-45.912591	-4.411458	-0.157419	-171.403883
3.950000	-0.159021	-172.850280	-45.719070	-5.599364	-45.719070	-5.599364	-0.159008	-172.873498
4.000000	-0.160638	-174.312531	-45.529738	-6.825903	-45.529738	-6.825903	-0.160624	-174.335866
4.050000	-0.162284	-175.767884	-45.344654	-8.088927	-45.344654	-8.088927	-0.162269	-175.791336
4.100000	-0.163957	-177.216684	-45.163858	-9.386438	-45.163858	-9.386438	-0.163942	-177.240253
4.150000	-0.165659	-178.659268	-44.987374	-10.716577	-44.987374	-10.716577	-0.165643	-178.682957
4.200000	-0.167388	179.904031	-44.815212	-12.077622	-44.815212	-12.077622	-0.167373	179.880222
4.250000	-0.169146	178.472888	-44.647371	-13.467982	-44.647371	-13.467982	-0.169130	178.448957
4.300000	-0.170932	177.046982	-44.483838	-14.886186	-44.483838	-14.886186	-0.170916	177.022928
4.350000	-0.172746	175.626000	-44.324596	-16.330883	-44.324596	-16.330883	-0.172729	175.601821
4.400000	-0.174588	174.209632	-44.169620	-17.800828	-44.169620	-17.800828	-0.174570	174.185327
4.450000	-0.176457	172.797576	-44.018881	-19.294881	-44.018881	-19.294881	-0.176439	172.773144
4.500000	-0.178354	171.389533	-43.872345	-20.812001	-43.872345	-20.812001	-0.178335	171.364972
4.550000	-0.180278	169.985210	-43.729978	-22.351236	-43.729978	-22.351236	-0.180259	169.960519
4.600000	-0.182229	168.584321	-43.591742	-23.911719	-43.591742	-23.911719	-0.182210	168.559498
4.650000	-0.184207	167.186581	-43.457599	-25.492667	-43.457599	-25.492667	-0.184187	167.161625
4.700000	-0.186212	165.791714	-43.327509	-27.093368	-43.327509	-27.093368	-0.186192	165.766622
4.750000	-0.188243	164.399444	-43.201435	-28.713186	-43.201435	-28.713186	-0.188222	164.374216
4.800000	-0.190301	163.009503	-43.079336	-30.351548	-43.079336	-30.351548	-0.190279	162.984137
4.850000	-0.192384	161.621627	-42.961176	-32.007947	-42.961176	-32.007947	-0.192362	161.596120
4.900000	-0.194493	160.235553	-42.846916	-33.681935	-42.846916	-33.681935	-0.194471	160.209905
4.950000	-0.196628	158.851027	-42.736523	-35.373119	-42.736523	-35.373119	-0.196605	158.825235
5.000000	-0.198788	157.467794	-42.629960	-37.081163	-42.629960	-37.081163	-0.198764	157.441857
5.050000	-0.200974	156.085641	-42.527309	-38.806489	-42.527309	-38.806489	-0.200950	156.059557
5.100000	-0.203185	154.704266	-42.428429	-40.548135	-42.428429	-40.548135	-0.203160	154.678033
5.150000	-0.205420	153.323429	-42.333293	-42.305916	-42.333293	-42.305916	-0.205396	153.297045
5.200000	-0.207680	151.942892	-42.241870	-44.079694	-42.241870	-44.079694	-0.207655	151.916356
5.250000	-0.209965	150.562421	-42.154135	-45.869375	-42.154135	-45.869375	-0.209939	150.535731
5.300000	-0.212273	149.181786	-42.070064	-47.674907	-42.070064	-47.674907	-0.212247	149.154939
5.350000	-0.214606	147.800759	-41.989634	-49.496280	-41.989634	-49.496280	-0.214580	147.773754
5.400000	-0.216962	146.419116	-41.912824	-51.333525	-41.912824	-51.333525	-0.216936	146.391952
5.450000	-0.219343	145.036636	-41.839615	-53.186715	-41.839615	-53.186715	-0.219315	145.009310
5.500000	-0.221747	143.653101	-41.769990	-55.055960	-41.769990	-55.055960	-0.221719	143.625612
5.550000	-0.224175	142.268296	-41.703933	-56.941415	-41.703933	-56.941415	-0.224146	142.240642
5.600000	-0.226626	140.882009	-41.641430	-58.843271	-41.641430	-58.843271	-0.226597	140.854188
5.650000	-0.229101	139.494030	-41.582467	-60.761763	-41.582467	-60.761763	-0.229072	139.466041
5.700000	-0.231600	138.104153	-41.527034	-62.697165	-41.527034	-62.697165	-0.231571	138.075994
5.750000	-0.234123	136.712175	-41.475120	-64.649796	-41.475120	-64.649796	-0.234093	136.683843
5.800000	-0.236670	135.317893	-41.426716	-66.620014	-41.426716	-66.620014	-0.236639	135.289387
5.850000	-0.239240	133.921111	-41.381813	-68.608226	-41.381813	-68.608226	-0.239210	133.892429
5.900000	-0.241835	132.521630	-41.340404	-70.614880	-41.340404	-70.614880	-0.241805	132.492771
5.950000	-0.244455	131.119260	-41.302481	-72.640473	-41.302481	-72.640473	-0.244424	131.090221
6.000000	-0.247100	129.713808	-41.268038	-74.685551	-41.268038	-74.685551	-0.247068	129.684589
6.050000	-0.249769	128.305087	-41.237066	-76.750709	-41.237066	-76.750709	-0.249737	128.275685
6.100000	-0.252464	126.892911	-41.209559	-78.836597	-41.209559	-78.836597	-0.252432	126.863325
6.150000	-0.255185	125.477096	-41.185508	-80.943917	-41.185508	-80.943917	-0.255153	125.447325
6.200000	-0.257933	124.057463	-41.164904	-83.073430	-41.164904	-83.073430	-0.257900	124.027505
6.250000	-0.260707	122.633833	-41.147735	-85.225957	-41.147735	-85.225957	-0.260674	122.603686
6.300000	-0.263511	121.205840	-41.134136	-87.403467	-41.134136	-87.403467	-0.263477	121.175504
6.350000	-0.266342	119.773486	-41.123942	-89.605916	-41.123942	-89.605916	-0.266309	119.742958
6.400000	-0.269203	118.336600	-41.117133	-91.834335	-41.117133	-91.834335	-0.269170	118.305879
6.450000	-0.272094	116.895014	-41.113685	-94.089824	-41.113685	-94.089824	-0.272060	116.864099
6.500000	-0.275015	115.448563	-41.113567	-96.373562	-41.113567	-96.373562	-0.274982	115.417453
6.550000	-0.277969	113.997083	-41.116745	-98.686805	-41.116745	-98.686805	-0.277935	113.965777
6.600000	-0.280955	112.540415	-41.123174	-101.030895	-41.123174	-101.030895	-0.280921	112.508911
6.650000	-0.283975	111.078401	-41.132804	-103.407257	-41.132804	-103.407257	-0.283941	111.046698
6.700000	-0.287030	109.610885	-41.145572	-105.817408	-41.145572	-105.817408	-0.286997	109.578982
6.750000	-0.290122	108.137714	-41.161407	-108.262957	-41.161407	-108.262957	-0.290089	108.105611
6.800000	-0.293252	106.658740	-41.180221	-110.745605	-41.180221	-110.745605	-0.293219	106.626435
6.850000	-0.296421	105.173814	-41.201914	-113.267153	-41.201914	-113.267153	-0.296388	105.141307
6.900000	-0.299631	103.682793	-41.226365	-115.829498	-41.226365	-115.829498	-0.299598	103.650082
6.950000	-0.302884	102.185534	-41.253437	-118.434632	-41.253437	-118.434632	-0.302852	102.152619
7.000000	-0.306182	100.681898	-41.282968	-121.084646	-41.282968	-121.084646	-0.306150	100.648780
7.050000	-0.309526	99.171751	-41.314770	-123.781720	-41.314770	-123.781720	-0.309494	99.138427
7.100000	-0.312918	97.654958	-41.348627	-126.528124	-41.348627	-126.528124	-0.312887	97.621429
7.150000	-0.316362	96.131390	-41.384290	-129.326205	-41.384290	-129.326205	-0.316331	96.097656
7.200000	-0.319858	94.600920	-41.421473	-132.178376	-41.421473	-132.178376	-0.319829	94.566980
7.250000	-0.323410	93.063423	-41.459852	-135.087104	-41.459852	-135.087104	-0.323381	93.029278
7.300000	-0.327020	91.518781	-41.499054	-138.054885	-41.499054	-138.054885	-0.326992	91.484429
7.350000	-0.330691	89.966874	-41.538662	-141.084223	-41.538662	-141.084223	-0.330664	89.932317
7.400000	-0.334425	88.407590	-41.578201	-144.177596	-41.578201	-144.177596	-0.334400	88.372827
7.450000	-0.338227	86.840817	-41.617143	-147.337416	-41.617143	-147.337416	-0.338202	86.805850
7.500000	-0.342098	85.266449	-41.654894	-150.565986	-41.654894	-150.565986	-0.342075	85.231277
7.550000	-0.346046	83.684043	-41.690677	-153.868613	-41.690677	-153.868613	-0.346024	83.648666
7.600000	-0.350070	82.093829	-41.723820	-157.244173	-41.723820	-157.244173	-0.350050	82.058249
7.650000	-0.354176	80.495713	-41.753522	-160.694211	-41.753522	-160.694211	-0.354158	80.459930
7.700000	-0.358367	78.889602	-41.778914	-164.219872	-41.778914	-164.219872	-0.358350	78.853616
7.750000	-0.362646	77.275408	-41.799063	-167.821806	-41.799063	-167.821806	-0.362631	77.239222
7.800000	-0.367018	75.653047	-41.812979	-171.500078	-41.812979	-171.500078	-0.367005	75.616662
7.850000	-0.371488	74.022441	-41.819618	-175.254066	-41.819618	-175.254066	-0.371477	73.985856
7.900000	-0.376060	72.383513	-41.817903	-179.082376	-41.817903	-179.082376	-0.376052	72.346731
7.950000	-0.380728	70.737018	-41.807750	177.024066	-41.807750	177.024066	-0.380723	70.700040
8.000000	-0.385517	69.081335	-41.786260	173.055126	-41.786260	173.055126	-0.385515	69.044162
8.050000	-0.390424	67.417130	-41.753151	169.021270	-41.753151	169.021270	-0.390424	67.379764
8.100000	-0.395454	65.744344	-41.707381	164.927642	-41.707381	164.927642	-0.395457	65.706787
8.150000	-0.400613	64.062829	-41.647818	160.779885	-41.647818	160.779885	-0.400620	64.025083
8.200000	-0.405909	62.372534	-41.573558	156.585370	-41.573558	156.585370	-0.405919	62.334601
8.250000	-0.411346	60.673509	-41.484019	152.352697	-41.484019	152.352697	-0.411360	60.635391
8.300000	-0.416930	58.965714	-41.378621	148.090594	-41.378621	148.090594	-0.416948	58.927413
8.350000	-0.422683	57.248346	-41.255342	143.807575	-41.255342	143.807575	-0.422705	57.209865
8.400000	-0.428582	55.523006	-41.117362	139.515656	-41.117362	139.515656	-0.428608	55.484347
8.450000	-0.434649	53.788808	-40.962911	135.222711	-40.962911	135.222711	-0.434680	53.749973
8.500000	-0.440892	52.045732	-40.792167	130.938368	-40.792167	130.938368	-0.440928	52.006724
8.550000	-0.447319	50.293763	-40.605499	126.671938	-40.605499	126.671938	-0.447360	50.254584
8.600000	-0.453937	48.532890	-40.403455	122.432214	-40.403455	122.432214	-0.453984	48.493543
8.650000	-0.460756	46.763110	-40.186739	118.227288	-40.186739	118.227288	-0.460808	46.723597
8.700000	-0.467783	44.984421	-39.956190	114.064411	-39.956190	114.064411	-0.467841	44.944746
8.750000	-0.475027	43.196831	-39.712753	109.949894	-39.712753	109.949894	-0.475091	43.156996
8.800000	-0.482508	41.399964	-39.456640	105.891573	-39.456640	105.891573	-0.482579	41.359971
8.850000	-0.490226	39.594224	-39.189777	101.891483	-39.189777	101.891483	-0.490304	39.554077
8.900000	-0.498191	37.779633	-38.913269	97.952763	-38.913269	97.952763	-0.498276	37.739334
8.950000	-0.506412	35.956218	-38.628220	94.077601	-38.628220	94.077601	-0.506505	35.915770
9.000000	-0.514886	34.124488	-38.336608	90.263755	-38.336608	90.263755	-0.514986	34.083894
9.050000	-0.523648	32.283621	-38.037827	86.518141	-38.037827	86.518141	-0.523757	32.242884
9.100000	-0.532699	30.434042	-37.733616	82.837793	-37.733616	82.837793	-0.532817	30.393164
9.150000	-0.542049	28.575800	-37.424915	79.221947	-37.424915	79.221947	-0.542177	28.534783
9.200000	-0.551711	26.708947	-37.112601	75.669325	-37.112601	75.669325	-0.551848	26.667794
9.250000	-0.561696	24.833542	-36.797484	72.178235	-36.797484	72.178235	-0.561843	24.792256
9.300000	-0.572015	22.949648	-36.480306	68.746644	-36.480306	68.746644	-0.572173	22.908230
9.350000	-0.582682	21.057334	-36.161744	65.372262	-36.161744	65.372262	-0.582851	21.015787
9.400000	-0.593713	19.156584	-35.842282	62.053171	-35.842282	62.053171	-0.593894	19.114909
9.450000	-0.605122	17.247478	-35.522488	58.786661	-35.522488	58.786661	-0.605315	17.205676
9.500000	-0.616917	15.330190	-35.202992	55.569432	-35.202992	55.569432	-0.617123	15.288264
9.550000	-0.629113	13.404810	-34.884237	52.398741	-34.884237	52.398741	-0.629332	13.362760
9.600000	-0.641723	11.471429	-34.566617	49.271836	-34.566617	49.271836	-0.641956	11.429256
9.650000	-0.654761	9.530144	-34.250483	46.185988	-34.250483	46.185988	-0.655009	9.487850
9.700000	-0.668242	7.581059	-33.936146	43.138513	-33.936146	43.138513	-0.668506	7.538642
9.750000	-0.682180	5.624278	-33.623886	40.126785	-33.623886	40.126785	-0.682460	5.581739
9.800000	-0.696590	3.659912	-33.313948	37.148254	-33.313948	37.148254	-0.696887	3.617250
9.850000	-0.711488	1.688076	-33.006552	34.200450	-33.006552	34.200450	-0.711801	1.645290
9.900000	-0.726887	-0.291114	-32.701897	31.280996	-32.701897	31.280996	-0.727219	-0.334024
9.950000	-0.742804	-2.277534	-32.400159	28.387610	-32.400159	28.387610	-0.743156	-2.320571
10.000000	-0.759254	-4.271059	-32.101497	25.518107	-32.101497	25.518107	-0.759627	-4.314225
