! freq	dB(S11)	phase(S11)	dB(S12)	phase(S12)	
!     	dB(S21)	phase(S21)	dB(S22)	phase(S22)	
!S-par simulation data
#  GHz  S  DB  R 50
0.000000	-0.000000	0.000000	-361.303549	0.000000	-361.303549	0.000000	-0.000000	0.000000
0.050000	-0.001698	-1.097510	-101.637837	88.548193	-101.637837	88.548193	-0.001208	-1.914654
0.100000	-0.002917	-2.202458	-95.652138	87.100830	-95.652138	87.100830	-0.004137	-3.820479
0.150000	-0.004235	-3.304489	-92.188878	85.663196	-92.188878	85.663196	-0.007587	-5.715984
0.200000	-0.005797	-4.403335	-89.776943	84.243243	-89.776943	84.243243	-0.010846	-7.604025
0.250000	-0.007504	-5.499436	-87.945461	82.846144	-87.945461	82.846144	-0.013789	-9.488310
0.300000	-0.009281	-6.592804	-86.493009	81.481377	-86.493009	81.481377	-0.016440	-11.370368
0.350000	-0.011053	-7.683695	-85.310615	80.158580	-85.310615	80.158580	-0.018886	-13.251084
0.400000	-0.012767	-8.772400	-84.334605	78.889310	-84.334605	78.889310	-0.021203	-15.130742
0.450000	-0.014377	-9.859100	-83.530550	77.693333	-83.530550	77.693333	-0.023445	-17.009208
0.500000	-0.015879	-10.944291	-82.863365	76.579333	-82.863365	76.579333	-0.025654	-18.886391
0.550000	-0.017268	-12.028207	-82.314075	75.564180	-82.314075	75.564180	-0.027850	-20.762040
0.600000	-0.018548	-13.111040	-81.869305	74.667953	-81.869305	74.667953	-0.030042	-22.635879
0.650000	-0.019727	-14.192941	-81.519561	73.914894	-81.519561	73.914894	-0.032237	-24.507632
0.700000	-0.020816	-15.274043	-81.257070	73.331946	-81.257070	73.331946	-0.034438	-26.377063
0.750000	-0.021820	-16.354385	-81.083962	72.975459	-81.083962	72.975459	-0.036647	-28.243678
0.800000	-0.022760	-17.434093	-80.993443	72.888731	-80.993443	72.888731	-0.038863	-30.107326
0.850000	-0.023652	-18.513247	-80.982056	73.132674	-80.982056	73.132674	-0.041087	-31.967809
0.900000	-0.024519	-19.591904	-81.047209	73.787856	-81.047209	73.787856	-0.043317	-33.824928
0.950000	-0.025386	-20.670094	-81.185846	74.960567	-81.185846	74.960567	-0.045554	-35.678477
1.000000	-0.026285	-21.747810	-81.391894	76.785114	-81.391894	76.785114	-0.047795	-37.528284
1.050000	-0.027249	-22.824979	-81.653768	79.429010	-81.653768	79.429010	-0.050042	-39.374194
1.100000	-0.028316	-23.901448	-81.949974	83.090037	-81.949974	83.090037	-0.052291	-41.216068
1.150000	-0.029514	-24.976966	-82.242970	87.974801	-82.242970	87.974801	-0.054543	-43.053785
1.200000	-0.030860	-26.051202	-82.472875	94.239928	-82.472875	94.239928	-0.056795	-44.887237
1.250000	-0.032351	-27.123793	-82.556694	101.880344	-82.556694	101.880344	-0.059046	-46.716332
1.300000	-0.033965	-28.194364	-82.396320	110.599438	-82.396320	110.599438	-0.061296	-48.540892
1.350000	-0.035661	-29.262729	-81.933184	119.698840	-81.933184	119.698840	-0.063542	-50.360942
1.400000	-0.037394	-30.328795	-81.168913	128.369069	-81.168913	128.369069	-0.065782	-52.176428
1.450000	-0.039127	-31.392578	-80.166471	135.970796	-80.166471	135.970796	-0.068017	-53.987302
1.500000	-0.040831	-32.454171	-79.014869	142.204217	-79.014869	142.204217	-0.070243	-55.793529
1.550000	-0.042488	-33.513694	-77.794435	147.064743	-77.794435	147.064743	-0.072461	-57.595079
1.600000	-0.044093	-34.571266	-76.562132	150.708631	-76.562132	150.708631	-0.074668	-59.391935
1.650000	-0.045645	-35.626985	-75.352444	153.341954	-75.352444	153.341954	-0.076865	-61.184083
1.700000	-0.047149	-36.680953	-74.185511	155.172740	-74.185511	155.172740	-0.079050	-62.971605
1.750000	-0.048608	-37.733057	-73.061004	156.316060	-73.061004	156.316060	-0.081222	-64.754076
1.800000	-0.050036	-38.783568	-71.994787	156.985394	-71.994787	156.985394	-0.083383	-66.532187
1.850000	-0.051435	-39.832290	-70.976282	157.228621	-70.976282	157.228621	-0.085531	-68.305408
1.900000	-0.052813	-40.879314	-70.007612	157.147845	-70.007612	157.147845	-0.087667	-70.074031
1.950000	-0.054176	-41.924623	-69.085513	156.804980	-69.085513	156.804980	-0.089792	-71.838080
2.000000	-0.055527	-42.968094	-68.203937	156.234565	-68.203937	156.234565	-0.091905	-73.597320
2.050000	-0.056872	-44.009908	-67.365165	155.497349	-67.365165	155.497349	-0.094008	-75.352317
2.100000	-0.058213	-45.049724	-66.558863	154.595342	-66.558863	154.595342	-0.096100	-77.102320
2.150000	-0.059553	-46.087868	-65.789960	153.579627	-65.789960	153.579627	-0.098186	-78.848248
2.200000	-0.060894	-47.123991	-65.049667	152.449160	-65.049667	152.449160	-0.100263	-80.589373
2.250000	-0.062238	-48.158321	-64.340259	151.233176	-64.340259	151.233176	-0.102336	-82.326345
2.300000	-0.063586	-49.190688	-63.657244	149.937847	-63.657244	149.937847	-0.104404	-84.058885
2.350000	-0.064940	-50.221104	-62.999390	148.575189	-62.999390	148.575189	-0.106470	-85.787138
2.400000	-0.066300	-51.249625	-62.365913	147.156398	-62.365913	147.156398	-0.108536	-87.511331
2.450000	-0.067667	-52.276038	-61.753090	145.683656	-61.753090	145.683656	-0.110602	-89.231132
2.500000	-0.069042	-53.300635	-61.162849	144.170457	-61.162849	144.170457	-0.112671	-90.947244
2.550000	-0.070427	-54.322970	-60.589693	142.613376	-60.589693	142.613376	-0.114746	-92.658892
2.600000	-0.071820	-55.343459	-60.036543	141.024951	-60.036543	141.024951	-0.116826	-94.366996
2.650000	-0.073223	-56.361771	-59.499590	139.403916	-59.499590	139.403916	-0.118915	-96.071040
2.700000	-0.074636	-57.378094	-58.979512	137.756482	-58.979512	137.756482	-0.121014	-97.771477
2.750000	-0.076059	-58.392336	-58.474805	136.084564	-58.474805	136.084564	-0.123124	-99.468254
2.800000	-0.077493	-59.404449	-57.984429	134.390292	-57.984429	134.390292	-0.125247	-101.161395
2.850000	-0.078939	-60.414585	-57.508653	132.677509	-57.508653	132.677509	-0.127385	-102.851266
2.900000	-0.080396	-61.422455	-57.045135	130.945736	-57.045135	130.945736	-0.129539	-104.537511
2.950000	-0.081865	-62.428418	-56.595285	129.199647	-56.595285	129.199647	-0.131710	-106.220805
3.000000	-0.083346	-63.432064	-56.156406	127.437955	-56.156406	127.437955	-0.133901	-107.900640
3.050000	-0.084840	-64.433757	-55.729788	125.664458	-55.729788	125.664458	-0.136110	-109.577666
3.100000	-0.086348	-65.433251	-55.313783	123.879004	-55.313783	123.879004	-0.138341	-111.251650
3.150000	-0.087868	-66.430667	-54.908478	122.083382	-54.908478	122.083382	-0.140593	-112.922876
3.200000	-0.089402	-67.426008	-54.513426	120.278629	-54.513426	120.278629	-0.142867	-114.591462
3.250000	-0.090952	-68.419153	-54.127773	118.465185	-54.127773	118.465185	-0.145165	-116.257382
3.300000	-0.092514	-69.410349	-53.752007	116.644816	-53.752007	116.644816	-0.147485	-117.921047
3.350000	-0.094095	-70.399116	-53.384183	114.816762	-53.384183	114.816762	-0.149832	-119.582056
3.400000	-0.095689	-71.386035	-53.025834	112.983506	-53.025834	112.983506	-0.152201	-121.241162
3.450000	-0.097299	-72.370870	-52.675853	111.144942	-52.675853	111.144942	-0.154595	-122.898235
3.500000	-0.098926	-73.353630	-52.333951	109.301676	-52.333951	109.301676	-0.157014	-124.553413
3.550000	-0.100569	-74.334323	-51.999854	107.454262	-51.999854	107.454262	-0.159457	-126.206836
3.600000	-0.102230	-75.312959	-51.673306	105.603212	-51.673306	105.603212	-0.161926	-127.858648
3.650000	-0.103909	-76.289549	-51.354062	103.748996	-51.354062	103.748996	-0.164419	-129.508994
3.700000	-0.105607	-77.264105	-51.041892	101.892047	-51.041892	101.892047	-0.166937	-131.158023
3.750000	-0.107324	-78.236640	-50.736579	100.032763	-50.736579	100.032763	-0.169480	-132.805885
3.800000	-0.109061	-79.207083	-50.437761	98.171443	-50.437761	98.171443	-0.172047	-134.452696
3.850000	-0.110818	-80.175534	-50.145418	96.308522	-50.145418	96.308522	-0.174640	-136.098662
3.900000	-0.112596	-81.142012	-49.859365	94.444307	-49.859365	94.444307	-0.177255	-137.743940
3.950000	-0.114395	-82.106533	-49.579421	92.579082	-49.579421	92.579082	-0.179895	-139.388688
4.000000	-0.116216	-83.069114	-49.305418	90.713105	-49.305418	90.713105	-0.182557	-141.033068
4.050000	-0.118060	-84.029776	-49.037194	88.846614	-49.037194	88.846614	-0.185243	-142.677241
4.100000	-0.119926	-84.988537	-48.774595	86.979827	-48.774595	86.979827	-0.187950	-144.321370
4.150000	-0.121816	-85.945418	-48.517475	85.112942	-48.517475	85.112942	-0.190680	-145.965619
4.200000	-0.123730	-86.900441	-48.265694	83.246139	-48.265694	83.246139	-0.193432	-147.610154
4.250000	-0.125669	-87.853629	-48.019120	81.379581	-48.019120	81.379581	-0.196205	-149.255140
4.300000	-0.127633	-88.805004	-47.777625	79.513417	-47.777625	79.513417	-0.198999	-150.900745
4.350000	-0.129624	-89.754591	-47.541088	77.647779	-47.541088	77.647779	-0.201813	-152.547135
4.400000	-0.131640	-90.702415	-47.309394	75.782786	-47.309394	75.782786	-0.204648	-154.194477
4.450000	-0.133684	-91.648502	-47.082433	73.918544	-47.082433	73.918544	-0.207503	-155.842940
4.500000	-0.135756	-92.592879	-46.860100	72.055146	-46.860100	72.055146	-0.210377	-157.492690
4.550000	-0.137855	-93.535573	-46.642296	70.192675	-46.642296	70.192675	-0.213270	-159.143893
4.600000	-0.139984	-94.476612	-46.428925	68.331204	-46.428925	68.331204	-0.216183	-160.796717
4.650000	-0.142142	-95.416026	-46.219898	66.470794	-46.219898	66.470794	-0.219114	-162.451326
4.700000	-0.144330	-96.353845	-46.015130	64.611500	-46.015130	64.611500	-0.222063	-164.107886
4.750000	-0.146549	-97.290098	-45.814538	62.753369	-45.814538	62.753369	-0.225029	-165.766560
4.800000	-0.148797	-98.224884	-45.618060	60.896385	-45.618060	60.896385	-0.228013	-167.427400
4.850000	-0.151079	-99.158086	-45.425590	59.040702	-45.425590	59.040702	-0.231015	-169.090808
4.900000	-0.153393	-100.089822	-45.237083	57.186284	-45.237083	57.186284	-0.234033	-170.756814
4.950000	-0.155740	-101.020124	-45.052473	55.333155	-45.052473	55.333155	-0.237067	-172.425575
5.000000	-0.158120	-101.949028	-44.871700	53.481335	-44.871700	53.481335	-0.240117	-174.097245
5.050000	-0.160536	-102.876539	-44.694713	51.630873	-44.694713	51.630873	-0.243183	-175.772048
5.100000	-0.162985	-103.802725	-44.521458	49.781758	-44.521458	49.781758	-0.246263	-177.450068
5.150000	-0.165470	-104.727622	-44.351886	47.934009	-44.351886	47.934009	-0.249358	-179.131451
5.200000	-0.167990	-105.651269	-44.185951	46.087644	-44.185951	46.087644	-0.252466	179.183659
5.250000	-0.170547	-106.573702	-44.023612	44.242684	-44.023612	44.242684	-0.255587	177.495122
5.300000	-0.173140	-107.494962	-43.864828	42.399152	-43.864828	42.399152	-0.258720	175.802803
5.350000	-0.175770	-108.415089	-43.709565	40.557078	-43.709565	40.557078	-0.261865	174.106568
5.400000	-0.178438	-109.334121	-43.557791	38.716494	-43.557791	38.716494	-0.265019	172.406291
5.450000	-0.181144	-110.252102	-43.409475	36.877439	-43.409475	36.877439	-0.268184	170.701847
5.500000	-0.183888	-111.169072	-43.264591	35.039960	-43.264591	35.039960	-0.271357	168.993116
5.550000	-0.186672	-112.085075	-43.123116	33.204111	-43.123116	33.204111	-0.274538	167.279983
5.600000	-0.189495	-113.000153	-42.985028	31.369957	-42.985028	31.369957	-0.277724	165.562340
5.650000	-0.192358	-113.914342	-42.850323	29.537590	-42.850323	29.537590	-0.280916	163.840029
5.700000	-0.195263	-114.827687	-42.718988	27.707101	-42.718988	27.707101	-0.284112	162.112949
5.750000	-0.198208	-115.740244	-42.590996	25.878567	-42.590996	25.878567	-0.287309	160.381057
5.800000	-0.201194	-116.652059	-42.466334	24.052100	-42.466334	24.052100	-0.290507	158.644266
5.850000	-0.204223	-117.563179	-42.344991	22.227823	-42.344991	22.227823	-0.293704	156.902495
5.900000	-0.207293	-118.473651	-42.226959	20.405877	-42.226959	20.405877	-0.296899	155.155669
5.950000	-0.210406	-119.383523	-42.112231	18.586415	-42.112231	18.586415	-0.300088	153.403722
6.000000	-0.213562	-120.292844	-42.000800	16.769607	-42.000800	16.769607	-0.303272	151.646591
6.050000	-0.216761	-121.201664	-41.892660	14.955640	-41.892660	14.955640	-0.306446	149.884224
6.100000	-0.220004	-122.110032	-41.787808	13.144716	-41.787808	13.144716	-0.309610	148.116575
6.150000	-0.223290	-123.018000	-41.686240	11.337056	-41.686240	11.337056	-0.312762	146.343604
6.200000	-0.226622	-123.925620	-41.587951	9.532897	-41.587951	9.532897	-0.315898	144.565282
6.250000	-0.229998	-124.832942	-41.492939	7.732495	-41.492939	7.732495	-0.319017	142.781585
6.300000	-0.233420	-125.740015	-41.401275	5.936260	-41.401275	5.936260	-0.322116	140.992324
6.350000	-0.236888	-126.646901	-41.312883	4.144366	-41.312883	4.144366	-0.325192	139.197668
6.400000	-0.240402	-127.553655	-41.227758	2.357120	-41.227758	2.357120	-0.328243	137.397623
6.450000	-0.243961	-128.460332	-41.145894	0.574849	-41.145894	0.574849	-0.331267	135.592200
6.500000	-0.247567	-129.366987	-41.067283	-1.202104	-41.067283	-1.202104	-0.334261	133.781422
6.550000	-0.251220	-130.273677	-40.991918	-2.973380	-40.991918	-2.973380	-0.337222	131.965321
6.600000	-0.254919	-131.180459	-40.919787	-4.738604	-40.919787	-4.738604	-0.340148	130.143938
6.650000	-0.258666	-132.087390	-40.850879	-6.497388	-40.850879	-6.497388	-0.343036	128.317324
6.700000	-0.262460	-132.994529	-40.785179	-8.249328	-40.785179	-8.249328	-0.345884	126.485539
6.750000	-0.266301	-133.901935	-40.722670	-9.994008	-40.722670	-9.994008	-0.348689	124.648654
6.800000	-0.270191	-134.809668	-40.663335	-11.731000	-40.663335	-11.731000	-0.351447	122.806751
6.850000	-0.274128	-135.717787	-40.607153	-13.459864	-40.607153	-13.459864	-0.354158	120.959919
6.900000	-0.278108	-136.626288	-40.553733	-15.181331	-40.553733	-15.181331	-0.356825	119.108876
6.950000	-0.282143	-137.535363	-40.503809	-16.892546	-40.503809	-16.892546	-0.359432	117.252437
7.000000	-0.286227	-138.445012	-40.456957	-18.594251	-40.456957	-18.594251	-0.361983	115.391408
7.050000	-0.290359	-139.355297	-40.413145	-20.285977	-40.413145	-20.285977	-0.364477	113.525921
7.100000	-0.294540	-140.266283	-40.372337	-21.967247	-40.372337	-21.967247	-0.366910	111.656120
7.150000	-0.298771	-141.178034	-40.334493	-23.637581	-40.334493	-23.637581	-0.369282	109.782159
7.200000	-0.303051	-142.090615	-40.299571	-25.296498	-40.299571	-25.296498	-0.371591	107.904204
7.250000	-0.307381	-143.004092	-40.267525	-26.943516	-40.267525	-26.943516	-0.373834	106.022428
7.300000	-0.311760	-143.918533	-40.238307	-28.578153	-40.238307	-28.578153	-0.376011	104.137017
7.350000	-0.316189	-144.834003	-40.211865	-30.199927	-40.211865	-30.199927	-0.378120	102.248167
7.400000	-0.320667	-145.750571	-40.188144	-31.808360	-40.188144	-31.808360	-0.380160	100.356082
7.450000	-0.325196	-146.668306	-40.167085	-33.402980	-40.167085	-33.402980	-0.382131	98.460979
7.500000	-0.329775	-147.587277	-40.148626	-34.983314	-40.148626	-34.983314	-0.384030	96.563083
7.550000	-0.334404	-148.507584	-40.132758	-36.548569	-40.132758	-36.548569	-0.385858	94.662577
7.600000	-0.339084	-149.429271	-40.119356	-38.098595	-40.119356	-38.098595	-0.387614	92.759766
7.650000	-0.343814	-150.352410	-40.108350	-39.632943	-40.108350	-39.632943	-0.389300	90.854905
7.700000	-0.348594	-151.277073	-40.099666	-41.151168	-40.099666	-41.151168	-0.390915	88.948255
7.750000	-0.353424	-152.203332	-40.093231	-42.652835	-40.093231	-42.652835	-0.392461	87.040086
7.800000	-0.358304	-153.131261	-40.088964	-44.137513	-40.088964	-44.137513	-0.393937	85.130675
7.850000	-0.363235	-154.060935	-40.086786	-45.604782	-40.086786	-45.604782	-0.395347	83.220309
7.900000	-0.368215	-154.992429	-40.086613	-47.054229	-40.086613	-47.054229	-0.396690	81.309279
7.950000	-0.373246	-155.925818	-40.088362	-48.485447	-40.088362	-48.485447	-0.397970	79.397885
8.000000	-0.378326	-156.861178	-40.091944	-49.898035	-40.091944	-49.898035	-0.399188	77.486433
8.050000	-0.383456	-157.798587	-40.097270	-51.291601	-40.097270	-51.291601	-0.400346	75.575232
8.100000	-0.388636	-158.738122	-40.104250	-52.665755	-40.104250	-52.665755	-0.401448	73.664600
8.150000	-0.393867	-159.679886	-40.112807	-54.019893	-40.112807	-54.019893	-0.402497	71.754871
8.200000	-0.399147	-160.623962	-40.122842	-55.353620	-40.122842	-55.353620	-0.403494	69.846381
8.250000	-0.404476	-161.570405	-40.134243	-56.666771	-40.134243	-56.666771	-0.404446	67.939449
8.300000	-0.409855	-162.519295	-40.146911	-57.958963	-40.146911	-57.958963	-0.405355	66.034408
8.350000	-0.415283	-163.470714	-40.160746	-59.229814	-40.160746	-59.229814	-0.406226	64.131592
8.400000	-0.420759	-164.424744	-40.175647	-60.478935	-40.175647	-60.478935	-0.407064	62.231337
8.450000	-0.426284	-165.381466	-40.191511	-61.705931	-40.191511	-61.705931	-0.407874	60.333981
8.500000	-0.431857	-166.340964	-40.208232	-62.910397	-40.208232	-62.910397	-0.408659	58.439862
8.550000	-0.437479	-167.303450	-40.225728	-64.090892	-40.225728	-64.090892	-0.409426	56.549494
8.600000	-0.443147	-168.268722	-40.243831	-65.249270	-40.243831	-65.249270	-0.410180	54.662832
8.650000	-0.448863	-169.237020	-40.262467	-66.383824	-40.262467	-66.383824	-0.410928	52.780412
8.700000	-0.454625	-170.208430	-40.281523	-67.494079	-40.281523	-67.494079	-0.411673	50.902571
8.750000	-0.460433	-171.183038	-40.300881	-68.579532	-40.300881	-68.579532	-0.412423	49.029640
8.800000	-0.466290	-172.161077	-40.320423	-69.638518	-40.320423	-69.638518	-0.413185	47.162195
8.850000	-0.472192	-173.142496	-40.340015	-70.671534	-40.340015	-70.671534	-0.413963	45.300348
8.900000	-0.478139	-174.127382	-40.359531	-71.677957	-40.359531	-71.677957	-0.414766	43.444423
8.950000	-0.484131	-175.115824	-40.378840	-72.657107	-40.378840	-72.657107	-0.415599	41.594736
9.000000	-0.490165	-176.107708	-40.397833	-73.609798	-40.397833	-73.609798	-0.416466	39.751235
9.050000	-0.496244	-177.103480	-40.416332	-74.532489	-40.416332	-74.532489	-0.417378	37.914868
9.100000	-0.502365	-178.103073	-40.434205	-75.425503	-40.434205	-75.425503	-0.418340	36.085658
9.150000	-0.508529	-179.106576	-40.451300	-76.287866	-40.451300	-76.287866	-0.419359	34.263901
9.200000	-0.514735	179.885920	-40.467458	-77.118504	-40.467458	-77.118504	-0.420441	32.449886
9.250000	-0.520981	178.874325	-40.482508	-77.916223	-40.482508	-77.916223	-0.421592	30.643897
9.300000	-0.527268	177.858547	-40.496273	-78.679695	-40.496273	-78.679695	-0.422820	28.846208
9.350000	-0.533594	176.838497	-40.508564	-79.407440	-40.508564	-79.407440	-0.424131	27.057088
9.400000	-0.539958	175.814033	-40.519160	-80.097372	-40.519160	-80.097372	-0.425532	25.276893
9.450000	-0.546360	174.785061	-40.527837	-80.747558	-40.527837	-80.747558	-0.427030	23.505885
9.500000	-0.552799	173.751537	-40.534384	-81.356289	-40.534384	-81.356289	-0.428630	21.744209
9.550000	-0.559274	172.713368	-40.538550	-81.921177	-40.538550	-81.921177	-0.430338	19.992099
9.600000	-0.565783	171.670463	-40.540067	-82.439516	-40.540067	-82.439516	-0.432161	18.249778
9.650000	-0.572325	170.622731	-40.538643	-82.908226	-40.538643	-82.908226	-0.434103	16.517463
9.700000	-0.578900	169.570078	-40.533962	-83.323797	-40.533962	-83.323797	-0.436170	14.795359
9.750000	-0.585506	168.512414	-40.525676	-83.682209	-40.525676	-83.682209	-0.438368	13.083663
9.800000	-0.592142	167.449646	-40.513410	-83.978844	-40.513410	-83.978844	-0.440702	11.382562
9.850000	-0.598806	166.381683	-40.496749	-84.208371	-40.496749	-84.208371	-0.443178	9.692234
9.900000	-0.605498	165.308435	-40.475239	-84.364619	-40.475239	-84.364619	-0.445799	8.012847
9.950000	-0.612216	164.229810	-40.448383	-84.440404	-40.448383	-84.440404	-0.448570	6.344560
10.000000	-0.618958	163.145718	-40.415635	-84.427325	-40.415635	-84.427325	-0.451497	4.687522
