! freq	dB(S11)	phase(S11)	dB(S12)	phase(S12)	
!     	dB(S21)	phase(S21)	dB(S22)	phase(S22)	
!S-par simulation data
#  GHz  S  DB  R 50
0.000000	-81.181728	0.000000	-0.000758	0.000000	-0.000758	0.000000	-81.181725	0.000000
0.050000	-51.940412	-81.027854	-0.005818	-2.746069	-0.005818	-2.746069	-51.966040	-81.141536
0.100000	-45.887842	-89.536103	-0.011769	-5.448785	-0.011769	-5.448785	-45.888795	-89.522338
0.150000	-42.399534	-94.216976	-0.016096	-8.140976	-0.016096	-8.140976	-42.398304	-94.167204
0.200000	-39.950263	-97.995558	-0.019928	-10.830849	-0.019928	-10.830849	-39.948973	-97.928180
0.250000	-38.074060	-101.387886	-0.023638	-13.518792	-0.023638	-13.518792	-38.072672	-101.307389
0.300000	-36.562995	-104.596536	-0.027308	-16.204894	-0.027308	-16.204894	-36.561343	-104.502188
0.350000	-35.305840	-107.697804	-0.030929	-18.889504	-0.030929	-18.889504	-35.303912	-107.588036
0.400000	-34.236072	-110.729919	-0.034492	-21.573040	-0.034492	-21.573040	-34.233945	-110.603421
0.450000	-33.318250	-113.702893	-0.037979	-24.255715	-0.037979	-24.255715	-33.316036	-113.558569
0.500000	-32.517633	-116.638941	-0.041408	-26.937961	-0.041408	-26.937961	-32.515415	-116.476172
0.550000	-31.817457	-119.542740	-0.044780	-29.619954	-0.044780	-29.619954	-31.815300	-119.360978
0.600000	-31.204018	-122.419871	-0.048103	-32.301854	-0.048103	-32.301854	-31.201959	-122.218569
0.650000	-30.662418	-125.277525	-0.051390	-34.983779	-0.051390	-34.983779	-30.660466	-125.056125
0.700000	-30.190355	-128.116337	-0.054640	-37.665828	-0.054640	-37.665828	-30.188504	-127.874033
0.750000	-29.776631	-130.941532	-0.057861	-40.348057	-0.057861	-40.348057	-29.774864	-130.677446
0.800000	-29.416455	-133.755461	-0.061054	-43.030524	-0.061054	-43.030524	-29.414750	-133.468533
0.850000	-29.110167	-136.559287	-0.064215	-45.713326	-0.064215	-45.713326	-29.108499	-136.248109
0.900000	-28.848552	-139.356408	-0.067347	-48.396474	-0.067347	-48.396474	-28.846902	-139.019577
0.950000	-28.635677	-142.147636	-0.070444	-51.080110	-0.070444	-51.080110	-28.634023	-141.783239
1.000000	-28.466432	-144.935235	-0.073503	-53.764276	-0.073503	-53.764276	-28.464763	-144.541236
1.050000	-28.337663	-147.720869	-0.076524	-56.449027	-0.076524	-56.449027	-28.335974	-147.295062
1.100000	-28.250184	-150.505905	-0.079501	-59.134470	-0.079501	-59.134470	-28.248474	-150.045683
1.150000	-28.206772	-153.292032	-0.082428	-61.820767	-0.082428	-61.820767	-28.205046	-152.794153
1.200000	-28.206483	-156.080976	-0.085302	-64.508007	-0.085302	-64.508007	-28.204757	-155.541765
1.250000	-28.248270	-158.874316	-0.088123	-67.196258	-0.088123	-67.196258	-28.246564	-158.289662
1.300000	-28.333332	-161.673817	-0.090888	-69.885621	-0.090888	-69.885621	-28.331674	-161.038915
1.350000	-28.463420	-164.481449	-0.093597	-72.576195	-0.093597	-72.576195	-28.461847	-163.790639
1.400000	-28.640928	-167.299473	-0.096249	-75.268075	-0.096249	-75.268075	-28.639486	-166.546030
1.450000	-28.869298	-170.130659	-0.098846	-77.961356	-0.098846	-77.961356	-28.868048	-169.306458
1.500000	-29.157713	-172.980437	-0.101385	-80.656276	-0.101385	-80.656276	-29.156740	-172.074353
1.550000	-29.506464	-175.851648	-0.103880	-83.352740	-0.103880	-83.352740	-29.505875	-174.851074
1.600000	-29.922452	-178.749938	-0.106343	-86.050806	-0.106343	-86.050806	-29.922388	-177.639071
1.650000	-30.414639	178.317142	-0.108786	-88.750525	-0.108786	-88.750525	-30.415300	179.558458
1.700000	-30.998236	175.335680	-0.111232	-91.452066	-0.111232	-91.452066	-30.999924	176.735707
1.750000	-31.685271	172.292776	-0.113704	-94.155387	-0.113704	-94.155387	-31.688428	173.887362
1.800000	-32.499476	169.162649	-0.116226	-96.860644	-0.116226	-96.860644	-32.504812	171.002815
1.850000	-33.472332	165.905879	-0.118823	-99.567969	-0.118823	-99.567969	-33.481050	168.065887
1.900000	-34.640226	162.494054	-0.121500	-102.277197	-0.121500	-102.277197	-34.654267	165.064962
1.950000	-36.097383	158.747932	-0.124304	-104.989093	-0.124304	-104.989093	-36.121159	161.926179
2.000000	-37.958884	154.443162	-0.127232	-107.703471	-0.127232	-107.703471	-38.002163	158.556380
2.050000	-40.463048	148.958716	-0.130295	-110.420425	-0.130295	-110.420425	-40.553324	154.693737
2.100000	-44.142119	140.223119	-0.133499	-113.140021	-0.133499	-113.140021	-44.390963	149.425051
2.150000	-50.316344	115.831481	-0.136854	-115.862291	-0.136854	-115.862291	-51.744561	135.474080
2.200000	-52.799556	31.649553	-0.140366	-118.587243	-0.140366	-118.587243	-56.466934	16.179032
2.250000	-45.472191	-11.390525	-0.144045	-121.314864	-0.144045	-121.314864	-45.969392	-23.384873
2.300000	-40.812096	-22.783435	-0.147899	-124.045125	-0.147899	-124.045125	-40.990643	-29.942134
2.350000	-37.663466	-29.018967	-0.151937	-126.777982	-0.151937	-126.777982	-37.757609	-34.143102
2.400000	-35.290644	-33.639999	-0.156170	-129.513383	-0.156170	-129.513383	-35.350260	-37.655971
2.450000	-33.385000	-37.553030	-0.160605	-132.251265	-0.160605	-132.251265	-33.426998	-40.873565
2.500000	-31.791790	-41.093513	-0.165250	-134.991560	-0.165250	-134.991560	-31.823504	-43.937483
2.550000	-30.422495	-44.411172	-0.170116	-137.734242	-0.170116	-137.734242	-30.447645	-46.910176
2.600000	-29.222963	-47.590277	-0.175205	-140.479179	-0.175205	-140.479179	-29.243629	-49.826502
2.650000	-28.156716	-50.675053	-0.180518	-143.226286	-0.180518	-143.226286	-28.174162	-52.704677
2.700000	-27.198312	-53.692825	-0.186058	-145.975477	-0.186058	-145.975477	-27.213354	-55.555919
2.750000	-26.329301	-56.661366	-0.191825	-148.726666	-0.191825	-148.726666	-26.342490	-58.387504
2.800000	-25.535878	-59.592719	-0.197815	-151.479764	-0.197815	-151.479764	-25.547600	-61.204355
2.850000	-24.807441	-62.495336	-0.204025	-154.234686	-0.204025	-154.234686	-24.817977	-64.009921
2.900000	-24.135675	-65.375322	-0.210448	-156.991349	-0.210448	-156.991349	-24.145233	-66.806692
2.950000	-23.513932	-68.237200	-0.217074	-159.749674	-0.217074	-159.749674	-23.522671	-69.596512
3.000000	-22.936818	-71.084396	-0.223894	-162.509589	-0.223894	-162.509589	-22.944862	-72.380784
3.050000	-22.399893	-73.919557	-0.230894	-165.271032	-0.230894	-165.271032	-22.407340	-75.160595
3.100000	-21.899460	-76.744769	-0.238060	-168.033946	-0.238060	-168.033946	-21.906390	-77.936809
3.150000	-21.432488	-79.561629	-0.245376	-170.798306	-0.245376	-170.798306	-21.438967	-80.710099
3.200000	-20.996357	-82.371537	-0.252822	-173.564083	-0.252822	-173.564083	-21.002441	-83.481063
3.250000	-20.588727	-85.175699	-0.260378	-176.331247	-0.260378	-176.331247	-20.594463	-86.250221
3.300000	-20.207637	-87.975063	-0.268022	-179.099807	-0.268022	-179.099807	-20.213067	-89.017998
3.350000	-19.851665	-90.770349	-0.275731	178.130171	-0.275731	178.130171	-19.856824	-91.784758
3.400000	-19.518310	-93.562594	-0.283479	175.358790	-0.283479	175.358790	-19.523228	-94.550913
3.450000	-19.207813	-96.352004	-0.291245	172.585740	-0.291245	172.585740	-19.212517	-97.316734
3.500000	-18.917611	-99.139498	-0.299003	169.811133	-0.299003	169.811133	-18.922125	-100.082578
3.550000	-18.647485	-101.925499	-0.306727	167.034705	-0.306727	167.034705	-18.651830	-102.848790
3.600000	-18.396264	-104.710579	-0.314392	164.256324	-0.314392	164.256324	-18.400458	-105.615713
3.650000	-18.162665	-107.495310	-0.321977	161.475861	-0.321977	161.475861	-18.166723	-108.383688
3.700000	-17.946968	-110.280262	-0.329450	158.692839	-0.329450	158.692839	-17.950903	-111.153262
3.750000	-17.746660	-113.065952	-0.336808	155.907354	-0.336808	155.907354	-17.750481	-113.924629
3.800000	-17.563446	-115.853335	-0.344002	153.118398	-0.344002	153.118398	-17.567161	-116.698849
3.850000	-17.394171	-118.642811	-0.351050	150.326211	-0.351050	150.326211	-17.397786	-119.475996
3.900000	-17.239566	-121.435605	-0.357918	147.529780	-0.357918	147.529780	-17.243083	-122.257304
3.950000	-17.098404	-124.232742	-0.364607	144.728579	-0.364607	144.728579	-17.101821	-125.043657
4.000000	-16.969784	-127.035642	-0.371123	141.921778	-0.371123	141.921778	-16.973100	-127.836362
4.050000	-16.852688	-129.846158	-0.377478	139.108328	-0.377478	139.108328	-16.855897	-130.637153
4.100000	-16.746779	-132.668412	-0.383694	136.285700	-0.383694	136.285700	-16.749868	-133.450036
4.150000	-16.648521	-135.503520	-0.389857	133.453982	-0.389857	133.453982	-16.651478	-136.275893
4.200000	-16.556618	-138.357804	-0.396053	130.609842	-0.396053	130.609842	-16.559421	-139.120853
4.250000	-16.467954	-141.239304	-0.402451	127.749745	-0.402451	127.749745	-16.470572	-141.992654
4.300000	-16.377937	-144.160936	-0.409341	124.868478	-0.409341	124.868478	-16.380324	-144.903769
4.350000	-16.279462	-147.144712	-0.417243	121.957957	-0.417243	121.957957	-16.281543	-147.875541
4.400000	-16.159457	-150.237396	-0.427300	119.002591	-0.427300	119.002591	-16.161098	-150.953510
4.450000	-15.997935	-153.519710	-0.441638	115.979728	-0.441638	115.979728	-15.998897	-154.216604
4.500000	-15.752158	-157.204328	-0.466121	112.837863	-0.466121	112.837863	-15.751927	-157.873686
4.550000	-15.335575	-161.880674	-0.518512	109.468761	-0.518512	109.468761	-15.332900	-162.506494
4.600000	-14.562689	-169.827121	-0.676887	105.643853	-0.676887	105.643853	-14.553656	-170.374761
4.650000	-13.779588	167.166293	-1.367345	102.814073	-1.367345	102.814073	-13.745980	166.772797
4.700000	-20.564000	146.134269	-1.057532	107.435173	-1.057532	107.435173	-20.425689	145.485537
4.750000	-21.837798	178.966751	-0.567634	103.279379	-0.567634	103.279379	-21.783164	177.677483
4.800000	-20.666293	-175.188220	-0.466876	99.454441	-0.466876	99.454441	-20.649420	-176.341340
4.850000	-20.148658	-175.723318	-0.435029	96.083279	-0.435029	96.083279	-20.141358	-176.797753
4.900000	-19.955777	-177.673257	-0.421122	92.911874	-0.421122	92.911874	-19.952153	-178.708134
4.950000	-19.938703	179.900531	-0.413756	89.841595	-0.413756	89.841595	-19.936842	178.884978
5.000000	-20.027935	177.281221	-0.409090	86.824561	-0.409090	86.824561	-20.027076	176.273646
5.050000	-20.196916	174.563198	-0.405759	83.839281	-0.405759	83.839281	-20.196675	173.555756
5.100000	-20.427495	171.793214	-0.403076	80.871476	-0.403076	80.871476	-20.427676	170.780296
5.150000	-20.712163	168.991332	-0.400750	77.913481	-0.400750	77.913481	-20.712647	167.968289
5.200000	-21.047626	166.168286	-0.398644	74.960390	-0.398644	74.960390	-21.048336	165.130897
5.250000	-21.433298	163.330341	-0.396692	72.008920	-0.396692	72.008920	-21.434176	162.274464
5.300000	-21.870583	160.481530	-0.394872	69.056793	-0.394872	69.056793	-21.871582	159.402834
5.350000	-22.362592	157.624796	-0.393184	66.102384	-0.393184	66.102384	-22.363667	156.518503
5.400000	-22.914124	154.762637	-0.391640	63.144503	-0.391640	63.144503	-22.915225	153.623242
5.450000	-23.531864	151.897540	-0.390262	60.182272	-0.390262	60.182272	-23.532936	150.718459
5.500000	-24.224819	149.032353	-0.389076	57.215032	-0.389076	57.215032	-24.225796	147.805444
5.550000	-25.005054	146.170704	-0.388109	54.242286	-0.388109	54.242286	-25.005855	144.885571
5.600000	-25.888899	143.317593	-0.387391	51.263664	-0.387391	51.263664	-25.889423	141.960507
5.650000	-26.899180	140.480655	-0.386953	48.278821	-0.386953	48.278821	-26.899300	139.032525
5.700000	-28.068117	137.671980	-0.386823	45.287556	-0.386823	45.287556	-28.067677	136.105191
5.750000	-29.443617	134.911453	-0.387024	42.289797	-0.387024	42.289797	-29.442427	133.184286
5.800000	-31.102086	132.236225	-0.387578	39.285457	-0.387578	39.285457	-31.099928	130.280303
5.850000	-33.176545	129.757765	-0.388540	36.273904	-0.388540	36.273904	-33.173348	127.423826
5.900000	-35.922960	127.660564	-0.389856	33.256346	-0.389856	33.256346	-35.919321	124.667538
5.950000	-39.968526	126.912054	-0.391576	30.232131	-0.391576	30.232131	-39.971926	122.281541
6.000000	-46.893823	153.338102	-0.393711	27.201274	-0.393711	27.201274	-47.066672	152.809293
6.050000	-53.135599	-101.273002	-0.396267	24.163798	-0.396267	24.163798	-54.416248	-78.138281
6.100000	-42.080375	-74.054129	-0.399246	21.119733	-0.399246	21.119733	-42.182621	-70.151075
6.150000	-37.271525	-74.220453	-0.402649	18.069107	-0.402649	18.069107	-37.320404	-72.385431
6.200000	-34.224754	-76.174704	-0.406469	15.011946	-0.406469	15.011946	-34.257662	-75.135509
6.250000	-32.007169	-78.649117	-0.410696	11.948265	-0.410696	11.948265	-32.032630	-78.038162
6.300000	-30.277437	-81.354483	-0.415336	8.877782	-0.415336	8.877782	-30.298633	-81.011840
6.350000	-28.869329	-84.176395	-0.420352	5.800761	-0.420352	5.800761	-28.887757	-84.024121
6.400000	-27.691377	-87.070664	-0.425724	2.717161	-0.425724	2.717161	-27.707875	-87.062669
6.450000	-26.687472	-90.013849	-0.431429	-0.373085	-0.431429	-0.373085	-26.702562	-90.121024
6.500000	-25.818851	-92.990916	-0.437423	-3.469702	-0.437423	-3.469702	-25.832886	-93.194786
6.550000	-25.063507	-95.996928	-0.443709	-6.573477	-0.443709	-6.573477	-25.076751	-96.283386
6.600000	-24.401635	-99.025001	-0.450240	-9.684283	-0.450240	-9.684283	-24.414296	-99.384884
6.650000	-23.819741	-102.071768	-0.456984	-12.802324	-0.456984	-12.802324	-23.831991	-102.498645
6.700000	-23.307882	-105.135148	-0.463908	-15.927899	-0.463908	-15.927899	-23.319871	-105.624504
6.750000	-22.858123	-108.213592	-0.470973	-19.061277	-0.470973	-19.061277	-22.869984	-108.762434
6.800000	-22.465282	-111.306627	-0.478149	-22.203017	-0.478149	-22.203017	-22.477142	-111.913013
6.850000	-22.121765	-114.412626	-0.485392	-25.352823	-0.485392	-25.352823	-22.133731	-115.075626
6.900000	-21.824893	-117.531779	-0.492673	-28.511341	-0.492673	-28.511341	-21.837069	-118.251148
6.950000	-21.576057	-120.665679	-0.499958	-31.680187	-0.499958	-31.680187	-21.588551	-121.441933
7.000000	-21.367768	-123.812493	-0.507216	-34.858502	-0.507216	-34.858502	-21.380665	-124.646721
7.050000	-21.198420	-126.972463	-0.514422	-38.046799	-0.514422	-38.046799	-21.211800	-127.866313
7.100000	-21.072109	-130.147919	-0.521541	-41.247259	-0.521541	-41.247259	-21.086055	-131.104038
7.150000	-20.984553	-133.337879	-0.528557	-44.459481	-0.528557	-44.459481	-20.999133	-134.359421
7.200000	-20.934164	-136.542210	-0.535461	-47.683692	-0.535461	-47.683692	-20.949435	-137.632951
7.250000	-20.924076	-139.762489	-0.542230	-50.921609	-0.542230	-50.921609	-20.940093	-140.927442
7.300000	-20.956539	-142.999769	-0.548855	-54.174619	-0.548855	-54.174619	-20.973350	-144.245330
7.350000	-21.028652	-146.252797	-0.555348	-57.442100	-0.555348	-57.442100	-21.046297	-147.586019
7.400000	-21.142396	-149.522007	-0.561716	-60.724974	-0.561716	-60.724974	-21.160912	-150.951418
7.450000	-21.307750	-152.810602	-0.567952	-64.027144	-0.567952	-64.027144	-21.327173	-154.348647
7.500000	-21.520598	-156.115789	-0.574099	-67.346733	-0.574099	-67.346733	-21.540965	-157.775608
7.550000	-21.785080	-159.437555	-0.580184	-70.684720	-0.580184	-70.684720	-21.806433	-161.235190
7.600000	-22.112434	-162.777575	-0.586240	-74.044607	-0.586240	-74.044607	-22.134824	-164.735748
7.650000	-22.507534	-166.134207	-0.592321	-77.426608	-0.592321	-77.426608	-22.531025	-168.280671
7.700000	-22.976364	-169.505221	-0.598479	-80.830562	-0.598479	-80.830562	-23.001048	-171.873481
7.750000	-23.533813	-172.889194	-0.604785	-84.258867	-0.604785	-84.258867	-23.559809	-175.525356
7.800000	-24.202035	-176.283022	-0.611337	-87.715078	-0.611337	-87.715078	-24.229500	-179.255632
7.850000	-24.996093	-179.679507	-0.618197	-91.197297	-0.618197	-91.197297	-25.025233	176.926185
7.900000	-25.948220	176.930323	-0.625452	-94.706859	-0.625452	-94.706859	-25.979289	172.993913
7.950000	-27.117604	173.566603	-0.633273	-98.248892	-0.633273	-98.248892	-27.150819	168.879545
8.000000	-28.576907	170.262429	-0.641743	-101.822526	-0.641743	-101.822526	-28.612265	164.502776
8.050000	-30.468713	167.096779	-0.651031	-105.430826	-0.651031	-105.430826	-30.504983	159.650708
8.100000	-33.066189	164.264162	-0.661270	-109.074900	-0.661270	-109.074900	-33.096396	153.818307
8.150000	-37.053510	162.424413	-0.672622	-112.756688	-0.672622	-112.756688	-37.033831	145.312718
8.200000	-45.198369	167.929564	-0.685312	-116.479696	-0.685312	-116.479696	-44.378706	120.403947
8.250000	-48.159990	-49.024922	-0.699475	-120.244558	-0.699475	-120.244558	-45.814946	9.923529
8.300000	-37.582415	-39.303170	-0.715414	-124.056301	-0.715414	-124.056301	-37.185084	-19.529048
8.350000	-32.771084	-40.773667	-0.733311	-127.916555	-0.733311	-127.916555	-32.583983	-29.046102
8.400000	-29.605364	-43.684429	-0.753459	-131.829596	-0.753459	-131.829596	-29.484405	-35.276550
8.450000	-27.236001	-47.061810	-0.776227	-135.801261	-0.776227	-135.801261	-27.145109	-40.457179
8.500000	-25.346115	-50.650374	-0.801885	-139.834966	-0.801885	-139.834966	-25.271439	-45.189163
8.550000	-23.782133	-54.360251	-0.831113	-143.942728	-0.831113	-143.942728	-23.716733	-49.667935
8.600000	-22.462812	-58.128944	-0.864354	-148.130686	-0.864354	-148.130686	-22.402633	-53.993746
8.650000	-21.341993	-61.910399	-0.902549	-152.413871	-0.902549	-152.413871	-21.284083	-58.188769
8.700000	-20.396565	-65.643521	-0.947086	-156.812436	-0.947086	-156.812436	-20.338228	-62.232678
8.750000	-19.621659	-69.225384	-1.000329	-161.356614	-1.000329	-161.356614	-19.559681	-66.045626
8.800000	-19.036294	-72.432784	-1.067236	-166.100385	-1.067236	-166.100385	-18.965547	-69.415157
8.850000	-18.677957	-74.774728	-1.157433	-171.119965	-1.157433	-171.119965	-18.588937	-71.859468
8.900000	-18.604016	-74.959094	-1.294528	-176.548250	-1.294528	-176.548250	-18.475846	-72.110737
8.950000	-18.718760	-69.289637	-1.545042	177.416843	-1.545042	177.416843	-18.506087	-66.657770
9.000000	-17.552729	-52.585334	-2.105164	170.868340	-2.105164	170.868340	-17.261816	-51.018701
9.050000	-12.831636	-45.007626	-3.332100	167.236026	-3.332100	167.236026	-12.668385	-44.384093
9.100000	-9.061592	-64.130109	-3.906064	173.091468	-3.906064	173.091468	-8.998408	-63.408155
9.150000	-8.104122	-84.026354	-3.080133	173.552355	-3.080133	173.552355	-8.073859	-83.147378
9.200000	-7.948964	-96.805899	-2.575618	168.842914	-2.575618	168.842914	-7.931852	-95.850358
9.250000	-7.832850	-105.722418	-2.387520	163.376961	-2.387520	163.376961	-7.822516	-104.734700
9.300000	-7.650417	-112.876343	-2.348554	157.965034	-2.348554	157.965034	-7.644176	-111.879809
9.350000	-7.410719	-119.171797	-2.386275	152.673577	-2.386275	152.673577	-7.407225	-118.179436
9.400000	-7.134533	-125.028756	-2.469013	147.467571	-2.469013	147.467571	-7.133031	-124.047840
9.450000	-6.837289	-130.644905	-2.582941	142.312463	-2.582941	142.312463	-6.837290	-129.679690
9.500000	-6.529739	-136.125561	-2.721170	137.183338	-2.721170	137.183338	-6.530889	-135.178630
9.550000	-6.219333	-141.530182	-2.879903	132.063742	-2.879903	132.063742	-6.221351	-140.603214
9.600000	-5.910833	-146.891390	-3.057525	126.943498	-3.057525	126.943498	-5.913481	-145.985688
9.650000	-5.607807	-152.229382	-3.253067	121.816207	-3.253067	121.816207	-5.610875	-151.346150
9.700000	-5.312822	-157.555720	-3.465416	116.679245	-3.465416	116.679245	-5.316142	-156.696195
9.750000	-5.027575	-162.875403	-3.694802	111.531317	-3.694802	111.531317	-5.031002	-162.041092
9.800000	-4.753286	-168.190475	-3.940411	106.373896	-3.940411	106.373896	-4.756724	-167.383075
9.850000	-4.490881	-173.499903	-4.202265	101.209026	-4.202265	101.209026	-4.494279	-172.721454
9.900000	-4.240774	-178.801280	-4.479712	96.040351	-4.479712	96.040351	-4.244139	-178.054022
9.950000	-4.003313	175.909299	-4.772397	90.872067	-4.772397	90.872067	-4.006711	176.622868
10.000000	-3.778619	170.636560	-5.079743	85.709238	-5.079743	85.709238	-3.782186	171.313759
