! freq	dB(S11)	phase(S11)	dB(S12)	phase(S12)	
!     	dB(S21)	phase(S21)	dB(S22)	phase(S22)	
!S-par simulation data
#  GHz  S  DB  R 50
0.000000	-0.000000	0.000000	-336.836522	0.000000	-336.836522	0.000000	-0.000000	0.000000
0.050000	-0.000762	-1.161252	-113.642622	89.075677	-113.642622	89.075677	-0.000514	-0.768529
0.100000	-0.002534	-2.316631	-107.675879	88.164822	-107.675879	88.164822	-0.001683	-1.532979
0.150000	-0.004522	-3.465634	-104.244079	87.280318	-104.244079	87.280318	-0.002957	-2.293207
0.200000	-0.006333	-4.610467	-101.878049	86.437410	-101.878049	86.437410	-0.004091	-3.050849
0.250000	-0.007946	-5.753402	-100.102362	85.642679	-100.102362	85.642679	-0.005094	-3.807397
0.300000	-0.009408	-6.895310	-98.718167	84.911439	-98.718167	84.911439	-0.006004	-4.563405
0.350000	-0.010785	-8.036652	-97.617526	84.259290	-97.617526	84.259290	-0.006872	-5.319156
0.400000	-0.012128	-9.177578	-96.738650	83.706737	-96.738650	83.706737	-0.007732	-6.074752
0.450000	-0.013472	-10.318048	-96.052469	83.292297	-96.052469	83.292297	-0.008611	-6.830202
0.500000	-0.014833	-11.458032	-95.522377	83.037441	-95.522377	83.037441	-0.009517	-7.585511
0.550000	-0.016218	-12.597434	-95.132057	82.983859	-95.132057	82.983859	-0.010453	-8.340658
0.600000	-0.017624	-13.736143	-94.871106	83.186691	-94.871106	83.186691	-0.011416	-9.095613
0.650000	-0.019050	-14.874038	-94.733211	83.720254	-94.733211	83.720254	-0.012400	-9.850336
0.700000	-0.020489	-16.010994	-94.714798	84.686463	-94.714798	84.686463	-0.013396	-10.604772
0.750000	-0.021935	-17.146808	-94.820518	86.274692	-94.820518	86.274692	-0.014396	-11.358827
0.800000	-0.023383	-18.281338	-95.045100	88.720816	-95.045100	88.720816	-0.015392	-12.112411
0.850000	-0.024828	-19.414476	-95.373400	92.336338	-95.373400	92.336338	-0.016378	-12.865442
0.900000	-0.026268	-20.546209	-95.773619	97.405677	-95.773619	97.405677	-0.017353	-13.617883
0.950000	-0.027700	-21.676344	-96.190884	104.452998	-96.190884	104.452998	-0.018317	-14.369630
1.000000	-0.029126	-22.804779	-96.506606	113.851285	-96.506606	113.851285	-0.019271	-15.120620
1.050000	-0.030544	-23.931424	-96.537399	125.535137	-96.537399	125.535137	-0.020218	-15.870807
1.100000	-0.031956	-25.056200	-96.096432	138.574624	-96.096432	138.574624	-0.021160	-16.620158
1.150000	-0.033364	-26.179040	-95.124790	151.258373	-95.124790	151.258373	-0.022100	-17.368649
1.200000	-0.034768	-27.299884	-93.747039	162.048030	-93.747039	162.048030	-0.023040	-18.116266
1.250000	-0.036169	-28.418681	-92.163516	170.374037	-92.163516	170.374037	-0.023981	-18.863000
1.300000	-0.037569	-29.535296	-90.520081	176.373327	-90.520081	176.373327	-0.024925	-19.608805
1.350000	-0.038967	-30.649777	-88.919872	-179.362417	-88.919872	-179.362417	-0.025872	-20.353715
1.400000	-0.040365	-31.762089	-87.397893	-176.395696	-87.397893	-176.395696	-0.026821	-21.097726
1.450000	-0.041762	-32.872199	-85.964285	-174.389405	-85.964285	-174.389405	-0.027774	-21.840835
1.500000	-0.043159	-33.980077	-84.617846	-173.097956	-84.617846	-173.097956	-0.028729	-22.583036
1.550000	-0.044555	-35.085693	-83.352800	-172.345304	-83.352800	-172.345304	-0.029687	-23.324325
1.600000	-0.045951	-36.189018	-82.161954	-172.005002	-82.161954	-172.005002	-0.030647	-24.064695
1.650000	-0.047346	-37.290025	-81.038084	-171.985284	-81.038084	-171.985284	-0.031608	-24.804140
1.700000	-0.048740	-38.388687	-79.974493	-172.218617	-79.974493	-172.218617	-0.032571	-25.542653
1.750000	-0.050134	-39.484978	-78.965185	-172.654540	-78.965185	-172.654540	-0.033535	-26.280224
1.800000	-0.051526	-40.578872	-78.004886	-173.254773	-78.004886	-173.254773	-0.034500	-27.016847
1.850000	-0.052917	-41.670343	-77.088980	-173.989851	-77.088980	-173.989851	-0.035466	-27.752511
1.900000	-0.054307	-42.759366	-76.213443	-174.836779	-76.213443	-174.836779	-0.036433	-28.487206
1.950000	-0.055696	-43.845917	-75.374756	-175.777386	-75.374756	-175.777386	-0.037400	-29.220923
2.000000	-0.057084	-44.929971	-74.569839	-176.797136	-74.569839	-176.797136	-0.038368	-29.953650
2.050000	-0.058472	-46.011505	-73.795984	-177.884280	-73.795984	-177.884280	-0.039336	-30.685378
2.100000	-0.059858	-47.090496	-73.050802	-179.029220	-73.050802	-179.029220	-0.040305	-31.416094
2.150000	-0.061245	-48.166923	-72.332176	179.775952	-72.332176	179.775952	-0.041276	-32.145788
2.200000	-0.062632	-49.240762	-71.638224	178.537814	-71.638224	178.537814	-0.042247	-32.874447
2.250000	-0.064019	-50.311994	-70.967262	177.261875	-70.967262	177.261875	-0.043220	-33.602061
2.300000	-0.065407	-51.380597	-70.317784	175.952787	-70.317784	175.952787	-0.044195	-34.328618
2.350000	-0.066797	-52.446554	-69.688431	174.614502	-69.688431	174.614502	-0.045172	-35.054105
2.400000	-0.068189	-53.509846	-69.077978	173.250400	-69.077978	173.250400	-0.046151	-35.778511
2.450000	-0.069583	-54.570455	-68.485311	171.863390	-68.485311	171.863390	-0.047133	-36.501824
2.500000	-0.070980	-55.628364	-67.909421	170.455987	-67.909421	170.455987	-0.048117	-37.224032
2.550000	-0.072381	-56.683439	-67.348509	169.029676	-67.348509	169.029676	-0.049105	-37.945073
2.600000	-0.073786	-57.735784	-66.802699	167.587220	-66.802699	167.587220	-0.050097	-38.664986
2.650000	-0.075196	-58.785385	-66.271206	166.130266	-66.271206	166.130266	-0.051093	-39.383757
2.700000	-0.076612	-59.832229	-65.753308	164.660270	-65.753308	164.660270	-0.052093	-40.101376
2.750000	-0.078034	-60.876306	-65.248342	163.178520	-65.248342	163.178520	-0.053098	-40.817830
2.800000	-0.079462	-61.917605	-64.755693	161.686163	-64.755693	161.686163	-0.054109	-41.533110
2.850000	-0.080898	-62.956117	-64.274792	160.184220	-64.274792	160.184220	-0.055125	-42.247203
2.900000	-0.082342	-63.991835	-63.805111	158.673606	-63.805111	158.673606	-0.056147	-42.960099
2.950000	-0.083795	-65.024751	-63.346159	157.155141	-63.346159	157.155141	-0.057175	-43.671788
3.000000	-0.085257	-66.054861	-62.897480	155.629564	-62.897480	155.629564	-0.058210	-44.382258
3.050000	-0.086729	-67.082159	-62.458645	154.097542	-62.458645	154.097542	-0.059252	-45.091500
3.100000	-0.088212	-68.106643	-62.029255	152.559678	-62.029255	152.559678	-0.060302	-45.799504
3.150000	-0.089706	-69.128310	-61.608937	151.016519	-61.608937	151.016519	-0.061360	-46.506259
3.200000	-0.091212	-70.147159	-61.197339	149.468562	-61.197339	149.468562	-0.062426	-47.211758
3.250000	-0.092731	-71.163191	-60.794130	147.916260	-60.794130	147.916260	-0.063501	-47.915990
3.300000	-0.094263	-72.176407	-60.399002	146.360027	-60.399002	146.360027	-0.064585	-48.618946
3.350000	-0.095808	-73.186810	-60.011661	144.800240	-60.011661	144.800240	-0.065678	-49.320619
3.400000	-0.097369	-74.194404	-59.631831	143.237248	-59.631831	143.237248	-0.066782	-50.020999
3.450000	-0.098944	-75.199193	-59.259252	141.671368	-59.259252	141.671368	-0.067895	-50.720078
3.500000	-0.100535	-76.201183	-58.893677	140.102893	-58.893677	140.102893	-0.069019	-51.417849
3.550000	-0.102142	-77.200382	-58.534871	138.532092	-58.534871	138.532092	-0.070154	-52.114305
3.600000	-0.103766	-78.196798	-58.182615	136.959216	-58.182615	136.959216	-0.071301	-52.809438
3.650000	-0.105408	-79.190440	-57.836697	135.384493	-57.836697	135.384493	-0.072459	-53.503241
3.700000	-0.107068	-80.181319	-57.496917	133.808137	-57.496917	133.808137	-0.073629	-54.195709
3.750000	-0.108746	-81.169447	-57.163087	132.230346	-57.163087	132.230346	-0.074812	-54.886834
3.800000	-0.110444	-82.154718	-56.834739	130.651255	-56.834739	130.651255	-0.076008	-55.576552
3.850000	-0.112162	-83.137265	-56.512008	129.071097	-56.512008	129.071097	-0.077218	-56.264915
3.900000	-0.113900	-84.117103	-56.194729	127.490028	-56.194729	127.490028	-0.078441	-56.951920
3.950000	-0.115660	-85.094249	-55.882744	125.908194	-55.882744	125.908194	-0.079678	-57.637560
4.000000	-0.117440	-86.068720	-55.575902	124.325733	-55.575902	124.325733	-0.080929	-58.321831
4.050000	-0.119243	-87.040533	-55.274058	122.742773	-55.274058	122.742773	-0.082195	-59.004729
4.100000	-0.121068	-88.009708	-54.977076	121.159432	-54.977076	121.159432	-0.083476	-59.686250
4.150000	-0.122916	-88.976264	-54.684822	119.575822	-54.684822	119.575822	-0.084772	-60.366390
4.200000	-0.124787	-89.940224	-54.397171	117.992050	-54.397171	117.992050	-0.086085	-61.045147
4.250000	-0.126683	-90.901609	-54.114001	116.408214	-54.114001	116.408214	-0.087413	-61.722517
4.300000	-0.128603	-91.860441	-53.835196	114.824406	-53.835196	114.824406	-0.088758	-62.398497
4.350000	-0.130548	-92.816745	-53.560645	113.240714	-53.560645	113.240714	-0.090120	-63.073086
4.400000	-0.132518	-93.770545	-53.290240	111.657220	-53.290240	111.657220	-0.091498	-63.746281
4.450000	-0.134514	-94.721867	-53.023880	110.074001	-53.023880	110.074001	-0.092895	-64.418081
4.500000	-0.136537	-95.670738	-52.761464	108.491132	-52.761464	108.491132	-0.094310	-65.088483
4.550000	-0.138587	-96.617184	-52.502898	106.908682	-52.502898	106.908682	-0.095742	-65.757488
4.600000	-0.140663	-97.561235	-52.248090	105.326715	-52.248090	105.326715	-0.097194	-66.425094
4.650000	-0.142768	-98.502918	-51.996953	103.745295	-51.996953	103.745295	-0.098664	-67.091301
4.700000	-0.144901	-99.442265	-51.749400	102.164479	-51.749400	102.164479	-0.100154	-67.756109
4.750000	-0.147063	-100.379304	-51.505350	100.584324	-51.505350	100.584324	-0.101664	-68.419518
4.800000	-0.149254	-101.314069	-51.264725	99.004884	-51.264725	99.004884	-0.103194	-69.081528
4.850000	-0.151474	-102.246591	-51.027447	97.426207	-51.027447	97.426207	-0.104745	-69.742140
4.900000	-0.153725	-103.176902	-50.793444	95.848343	-50.793444	95.848343	-0.106316	-70.401356
4.950000	-0.156006	-104.105038	-50.562643	94.271338	-50.562643	94.271338	-0.107909	-71.059175
5.000000	-0.158317	-105.031031	-50.334977	92.695234	-50.334977	92.695234	-0.109523	-71.715602
5.050000	-0.160662	-105.954827	-50.110261	91.120117	-50.110261	91.120117	-0.111161	-72.370575
5.100000	-0.163038	-106.876555	-49.888555	89.545986	-49.888555	89.545986	-0.112820	-73.024159
5.150000	-0.165447	-107.796251	-49.669799	87.972879	-49.669799	87.972879	-0.114503	-73.676356
5.200000	-0.167888	-108.713953	-49.453931	86.400832	-49.453931	86.400832	-0.116209	-74.327169
5.250000	-0.170362	-109.629698	-49.240892	84.829881	-49.240892	84.829881	-0.117938	-74.976601
5.300000	-0.172869	-110.543526	-49.030625	83.260056	-49.030625	83.260056	-0.119692	-75.624654
5.350000	-0.175410	-111.455474	-48.823076	81.691392	-48.823076	81.691392	-0.121470	-76.271334
5.400000	-0.177985	-112.365583	-48.618191	80.123916	-48.618191	80.123916	-0.123272	-76.916642
5.450000	-0.180595	-113.273892	-48.415917	78.557659	-48.415917	78.557659	-0.125100	-77.560585
5.500000	-0.183240	-114.180443	-48.216206	76.992647	-48.216206	76.992647	-0.126953	-78.203166
5.550000	-0.185920	-115.085278	-48.019007	75.428909	-48.019007	75.428909	-0.128832	-78.844389
5.600000	-0.188635	-115.988437	-47.824274	73.866468	-47.824274	73.866468	-0.130737	-79.484260
5.650000	-0.191387	-116.889963	-47.631959	72.305349	-47.631959	72.305349	-0.132670	-80.122783
5.700000	-0.194175	-117.789901	-47.442019	70.745575	-47.442019	70.745575	-0.134629	-80.759965
5.750000	-0.197000	-118.688292	-47.254410	69.187169	-47.254410	69.187169	-0.136615	-81.395810
5.800000	-0.199862	-119.585181	-47.069090	67.630151	-47.069090	67.630151	-0.138630	-82.030325
5.850000	-0.202768	-120.480374	-46.885740	66.074793	-46.885740	66.074793	-0.140677	-82.663287
5.900000	-0.205713	-121.374094	-46.704541	64.520925	-46.704541	64.520925	-0.142755	-83.294873
5.950000	-0.208679	-122.267121	-46.526258	62.967819	-46.526258	62.967819	-0.144848	-83.925778
6.000000	-0.211704	-123.158064	-46.349251	61.416997	-46.349251	61.416997	-0.146987	-84.554638
6.050000	-0.214744	-124.048578	-46.175288	59.866695	-46.175288	59.866695	-0.149137	-85.183049
6.100000	-0.217851	-124.936947	-46.002340	58.318990	-46.002340	58.318990	-0.151338	-85.809214
6.150000	-0.220965	-125.825120	-45.832539	56.771550	-45.832539	56.771550	-0.153546	-86.435157
6.200000	-0.224155	-126.711124	-45.663522	55.227024	-45.663522	55.227024	-0.155812	-87.058659
6.250000	-0.227345	-127.597128	-45.497732	53.682498	-45.497732	53.682498	-0.158079	-87.682161
6.300000	-0.230619	-128.480978	-45.332527	52.141205	-45.332527	52.141205	-0.160411	-88.303035
6.350000	-0.233893	-129.364829	-45.170405	50.599912	-45.170405	50.599912	-0.162745	-88.923909
6.400000	-0.237245	-130.246904	-45.009095	49.061626	-45.009095	49.061626	-0.165140	-89.542407
6.450000	-0.240606	-131.128817	-44.850534	47.523613	-44.850534	47.523613	-0.167541	-90.160690
6.500000	-0.244037	-132.009299	-44.692982	45.988365	-44.692982	45.988365	-0.170000	-90.776845
6.550000	-0.247484	-132.889495	-44.537878	44.453670	-44.537878	44.453670	-0.172471	-91.392574
6.600000	-0.250995	-133.768570	-44.383955	42.921486	-44.383955	42.921486	-0.174995	-92.006419
6.650000	-0.254530	-134.647272	-44.232207	41.390139	-44.232207	41.390139	-0.177538	-92.619635
6.700000	-0.258123	-135.525130	-44.081789	39.861040	-44.081789	39.861040	-0.180129	-93.231204
6.750000	-0.261746	-136.402566	-43.933304	38.333064	-43.933304	38.333064	-0.182745	-93.841950
6.800000	-0.265421	-137.279398	-43.786273	36.807063	-43.786273	36.807063	-0.185404	-94.451279
6.850000	-0.269134	-138.155798	-43.640959	35.282473	-43.640959	35.282473	-0.188095	-95.059597
6.900000	-0.272892	-139.031798	-43.497205	33.759578	-43.497205	33.759578	-0.190823	-95.666724
6.950000	-0.276695	-139.907397	-43.354975	32.238379	-43.354975	32.238379	-0.193590	-96.272659
7.000000	-0.280537	-140.782761	-43.214392	30.718592	-43.214392	30.718592	-0.196390	-96.877622
7.050000	-0.284432	-141.657797	-43.075162	29.200782	-43.075162	29.200782	-0.199235	-97.481222
7.100000	-0.288358	-142.532726	-42.937650	27.684099	-42.937650	27.684099	-0.202107	-98.084059
7.150000	-0.292345	-143.407440	-42.801341	26.169669	-42.801341	26.169669	-0.205032	-98.685372
7.200000	-0.296356	-144.282134	-42.666805	24.656079	-42.666805	24.656079	-0.207978	-99.286125
7.250000	-0.300435	-145.156771	-42.533339	23.145009	-42.533339	23.145009	-0.210984	-99.885200
7.300000	-0.304532	-146.031436	-42.401688	21.634496	-42.401688	21.634496	-0.214005	-100.483911
7.350000	-0.308705	-146.906243	-42.270994	20.126761	-42.270994	20.126761	-0.217094	-101.080801
7.400000	-0.312887	-147.781086	-42.142142	18.619301	-42.142142	18.619301	-0.220191	-101.677512
7.450000	-0.317153	-148.656315	-42.014150	17.114866	-42.014150	17.114866	-0.223364	-102.272268
7.500000	-0.321422	-149.531543	-41.888016	15.610431	-41.888016	15.610431	-0.226539	-102.867024
7.550000	-0.325760	-150.407248	-41.762910	14.108445	-41.762910	14.108445	-0.229777	-103.460214
7.600000	-0.330143	-151.283337	-41.639109	12.608008	-41.639109	12.608008	-0.233057	-104.052421
7.650000	-0.334571	-152.159871	-41.516595	11.109109	-41.516595	11.109109	-0.236378	-104.643658
7.700000	-0.339044	-153.036910	-41.395353	9.611734	-41.395353	9.611734	-0.239742	-105.233937
7.750000	-0.343563	-153.914512	-41.275366	8.115871	-41.275366	8.115871	-0.243148	-105.823273
7.800000	-0.348126	-154.792739	-41.156620	6.621504	-41.156620	6.621504	-0.246598	-106.411678
7.850000	-0.352735	-155.671651	-41.039100	5.128619	-41.039100	5.128619	-0.250090	-106.999165
7.900000	-0.357389	-156.551309	-40.922791	3.637199	-40.922791	3.637199	-0.253626	-107.585749
7.950000	-0.362087	-157.431774	-40.807678	2.147228	-40.807678	2.147228	-0.257205	-108.171443
8.000000	-0.366831	-158.313108	-40.693749	0.658689	-40.693749	0.658689	-0.260829	-108.756261
8.050000	-0.371619	-159.195372	-40.580990	-0.828437	-40.580990	-0.828437	-0.264497	-109.340217
8.100000	-0.376452	-160.078630	-40.469389	-2.314168	-40.469389	-2.314168	-0.268209	-109.923325
8.150000	-0.381329	-160.962943	-40.358934	-3.798523	-40.358934	-3.798523	-0.271967	-110.505599
8.200000	-0.386251	-161.848375	-40.249612	-5.281523	-40.249612	-5.281523	-0.275769	-111.087055
8.250000	-0.391216	-162.734989	-40.141413	-6.763188	-40.141413	-6.763188	-0.279617	-111.667706
8.300000	-0.396226	-163.622848	-40.034325	-8.243539	-40.034325	-8.243539	-0.283511	-112.247567
8.350000	-0.401279	-164.512017	-39.928338	-9.722598	-39.928338	-9.722598	-0.287450	-112.826654
8.400000	-0.406375	-165.402559	-39.823443	-11.200386	-39.823443	-11.200386	-0.291436	-113.404981
8.450000	-0.411515	-166.294539	-39.719629	-12.676925	-39.719629	-12.676925	-0.295468	-113.982564
8.500000	-0.416696	-167.188022	-39.616888	-14.152239	-39.616888	-14.152239	-0.299547	-114.559418
8.550000	-0.421921	-168.083074	-39.515210	-15.626350	-39.515210	-15.626350	-0.303672	-115.135558
8.600000	-0.427187	-168.979758	-39.414589	-17.099282	-39.414589	-17.099282	-0.307845	-115.711001
8.650000	-0.432495	-169.878143	-39.315015	-18.571059	-39.315015	-18.571059	-0.312065	-116.285762
8.700000	-0.437843	-170.778292	-39.216482	-20.041703	-39.216482	-20.041703	-0.316332	-116.859856
8.750000	-0.443232	-171.680273	-39.118983	-21.511238	-39.118983	-21.511238	-0.320646	-117.433301
8.800000	-0.448663	-172.584238	-39.022509	-22.979643	-39.022509	-22.979643	-0.325011	-118.006086
8.850000	-0.454134	-173.490174	-38.927058	-24.446989	-38.927058	-24.446989	-0.329423	-118.578255
8.900000	-0.459643	-174.398149	-38.832625	-25.913299	-38.832625	-25.913299	-0.333883	-119.149825
8.950000	-0.465190	-175.308229	-38.739204	-27.378598	-38.739204	-27.378598	-0.338392	-119.720813
9.000000	-0.470775	-176.220483	-38.646791	-28.842909	-38.646791	-28.842909	-0.342949	-120.291236
9.050000	-0.476397	-177.134978	-38.555381	-30.306254	-38.555381	-30.306254	-0.347554	-120.861110
9.100000	-0.482055	-178.051782	-38.464971	-31.768656	-38.464971	-31.768656	-0.352207	-121.430454
9.150000	-0.487748	-178.970964	-38.375557	-33.230138	-38.375557	-33.230138	-0.356910	-121.999285
9.200000	-0.493476	-179.892592	-38.287136	-34.690720	-38.287136	-34.690720	-0.361660	-122.567619
9.250000	-0.499237	179.183264	-38.199706	-36.150425	-38.199706	-36.150425	-0.366460	-123.135476
9.300000	-0.505031	178.256537	-38.113265	-37.609272	-38.113265	-37.609272	-0.371308	-123.702872
9.350000	-0.510857	177.327157	-38.027811	-39.067281	-38.027811	-39.067281	-0.376205	-124.269827
9.400000	-0.516714	176.395055	-37.943344	-40.524470	-37.943344	-40.524470	-0.381151	-124.836358
9.450000	-0.522600	175.460161	-37.859861	-41.980859	-37.859861	-41.980859	-0.386146	-125.402483
9.500000	-0.528516	174.522406	-37.777363	-43.436462	-37.777363	-43.436462	-0.391189	-125.968223
9.550000	-0.534458	173.581721	-37.695850	-44.891298	-37.695850	-44.891298	-0.396282	-126.533594
9.600000	-0.540427	172.638036	-37.615322	-46.345379	-37.615322	-46.345379	-0.401423	-127.098616
9.650000	-0.546421	171.691281	-37.535781	-47.798719	-37.535781	-47.798719	-0.406612	-127.663309
9.700000	-0.552439	170.741386	-37.457226	-49.251331	-37.457226	-49.251331	-0.411850	-128.227692
9.750000	-0.558479	169.788282	-37.379660	-50.703224	-37.379660	-50.703224	-0.417137	-128.791785
9.800000	-0.564540	168.831899	-37.303085	-52.154409	-37.303085	-52.154409	-0.422472	-129.355606
9.850000	-0.570621	167.872167	-37.227503	-53.604891	-37.227503	-53.604891	-0.427856	-129.919177
9.900000	-0.576719	166.909016	-37.152917	-55.054678	-37.152917	-55.054678	-0.433287	-130.482517
9.950000	-0.582834	165.942378	-37.079329	-56.503772	-37.079329	-56.503772	-0.438767	-131.045646
10.000000	-0.588964	164.972182	-37.006744	-57.952176	-37.006744	-57.952176	-0.444294	-131.608586
