! freq	dB(S11)	phase(S11)	dB(S12)	phase(S12)	
!     	dB(S21)	phase(S21)	dB(S22)	phase(S22)	
!S-par simulation data
#  GHz  S  DB  R 50
0.000000	-0.000000	0.000000	-386.845638	180.000000	-386.845638	180.000000	-0.000000	0.000000
0.050000	-0.000105	-0.841814	-104.334715	20.790772	-104.334715	20.790772	-0.000105	-0.841500
0.100000	-0.000416	-1.683375	-103.606013	29.038974	-103.606013	29.038974	-0.000415	-1.682747
0.150000	-0.000919	-2.524448	-102.693809	37.421339	-102.693809	37.421339	-0.000919	-2.523507
0.200000	-0.001596	-3.364840	-101.728167	44.252230	-101.728167	44.252230	-0.001595	-3.363585
0.250000	-0.002432	-4.204334	-100.801534	49.495055	-100.801534	49.495055	-0.002431	-4.202765
0.300000	-0.003388	-5.042888	-99.966960	53.617098	-99.966960	53.617098	-0.003387	-5.041007
0.350000	-0.004448	-5.880391	-99.240903	56.861797	-99.240903	56.861797	-0.004446	-5.878197
0.400000	-0.005586	-6.716798	-98.629910	59.485449	-98.629910	59.485449	-0.005583	-6.714291
0.450000	-0.006781	-7.552093	-98.134895	61.690804	-98.134895	61.690804	-0.006778	-7.549275
0.500000	-0.008014	-8.386284	-97.755158	63.641985	-97.755158	63.641985	-0.008011	-8.383156
0.550000	-0.009271	-9.219394	-97.490324	65.480420	-97.490324	65.480420	-0.009267	-9.215956
0.600000	-0.010539	-10.051454	-97.341234	67.339609	-97.341234	67.339609	-0.010534	-10.047706
0.650000	-0.011809	-10.882498	-97.310253	69.359747	-97.310253	69.359747	-0.011803	-10.878442
0.700000	-0.013072	-11.712560	-97.401074	71.704316	-97.401074	71.704316	-0.013066	-11.708197
0.750000	-0.014326	-12.541673	-97.617727	74.581393	-97.617727	74.581393	-0.014319	-12.537004
0.800000	-0.015566	-13.369864	-97.961908	78.272571	-97.961908	78.272571	-0.015558	-13.364889
0.850000	-0.016790	-14.197155	-98.426497	83.169707	-98.426497	83.169707	-0.016782	-14.191874
0.900000	-0.017999	-15.023561	-98.981037	89.805595	-98.981037	89.805595	-0.017989	-15.017977
0.950000	-0.019191	-15.849096	-99.543349	98.817593	-99.543349	98.817593	-0.019181	-15.843208
1.000000	-0.020367	-16.673764	-99.941000	110.692652	-99.941000	110.692652	-0.020356	-16.667574
1.050000	-0.021528	-17.497567	-99.911101	125.153292	-99.911101	125.153292	-0.021517	-17.491076
1.100000	-0.022675	-18.320504	-99.233860	140.556335	-99.233860	140.556335	-0.022663	-18.313712
1.150000	-0.023809	-19.142567	-97.937864	154.488225	-97.937864	154.488225	-0.023796	-19.135476
1.200000	-0.024931	-19.963749	-96.273945	165.474834	-96.273945	165.474834	-0.024918	-19.956358
1.250000	-0.026042	-20.784038	-94.493014	173.484738	-94.493014	173.484738	-0.026028	-20.776349
1.300000	-0.027144	-21.603381	-92.729182	179.064639	-92.729182	179.064639	-0.027129	-21.595395
1.350000	-0.028236	-22.421802	-91.058175	-177.023313	-91.058175	-177.023313	-0.028221	-22.413519
1.400000	-0.029321	-23.239284	-89.494585	-174.306515	-89.494585	-174.306515	-0.029305	-23.230705
1.450000	-0.030399	-24.055811	-88.035933	-172.454244	-88.035933	-172.454244	-0.030383	-24.046937
1.500000	-0.031472	-24.871365	-86.673676	-171.238447	-86.673676	-171.238447	-0.031455	-24.862196
1.550000	-0.032539	-25.685926	-85.397844	-170.500876	-85.397844	-170.500876	-0.032521	-25.676465
1.600000	-0.033602	-26.499477	-84.198846	-170.130029	-84.198846	-170.130029	-0.033584	-26.489724
1.650000	-0.034662	-27.311999	-83.068080	-170.045854	-83.068080	-170.045854	-0.034643	-27.301954
1.700000	-0.035717	-28.123097	-81.973303	-170.248916	-81.973303	-170.248916	-0.035698	-28.112763
1.750000	-0.036772	-28.933642	-80.968561	-170.555013	-80.968561	-170.555013	-0.036752	-28.923018
1.800000	-0.037824	-29.742854	-79.997376	-171.032593	-79.997376	-171.032593	-0.037804	-29.731942
1.850000	-0.038875	-30.551114	-79.078570	-171.632661	-79.078570	-171.632661	-0.038855	-30.539914
1.900000	-0.039926	-31.358190	-78.196378	-172.334588	-78.196378	-172.334588	-0.039905	-31.346704
1.950000	-0.040976	-32.164082	-77.349021	-173.138374	-77.349021	-173.138374	-0.040954	-32.152310
2.000000	-0.042026	-32.968954	-76.540221	-174.003612	-76.540221	-174.003612	-0.042003	-32.956898
2.050000	-0.043076	-33.772397	-75.753262	-174.954882	-75.753262	-174.954882	-0.043053	-33.760058
2.100000	-0.044127	-34.575212	-75.012606	-175.934989	-75.012606	-175.934989	-0.044104	-34.562590
2.150000	-0.045180	-35.376395	-74.284449	-176.986801	-74.284449	-176.986801	-0.045156	-35.363493
2.200000	-0.046235	-36.176345	-73.580641	-178.083295	-73.580641	-178.083295	-0.046210	-36.163162
2.250000	-0.047292	-36.975043	-72.899535	-179.219420	-72.899535	-179.219420	-0.047267	-36.961581
2.300000	-0.048351	-37.772473	-72.239660	179.609128	-72.239660	179.609128	-0.048325	-37.758734
2.350000	-0.049413	-38.568619	-71.599690	178.406041	-71.599690	178.406041	-0.049387	-38.554603
2.400000	-0.050479	-39.363464	-70.978433	177.174511	-70.978433	177.174511	-0.050452	-39.349173
2.450000	-0.051548	-40.156993	-70.374806	175.917313	-70.374806	175.917313	-0.051521	-40.142427
2.500000	-0.052621	-40.949190	-69.787826	174.636875	-69.787826	174.636875	-0.052594	-40.934352
2.550000	-0.053700	-41.739981	-69.215657	173.334505	-69.215657	173.334505	-0.053672	-41.724871
2.600000	-0.054783	-42.529410	-68.658516	172.013073	-68.658516	172.013073	-0.054754	-42.514030
2.650000	-0.055871	-43.317462	-68.115642	170.674234	-68.115642	170.674234	-0.055842	-43.301813
2.700000	-0.056965	-44.104124	-67.586336	169.319468	-67.586336	169.319468	-0.056935	-44.088207
2.750000	-0.058065	-44.889383	-67.069952	167.950106	-67.069952	167.950106	-0.058035	-44.873198
2.800000	-0.059171	-45.673224	-66.565894	166.567348	-66.565894	166.567348	-0.059141	-45.656774
2.850000	-0.060285	-46.455637	-66.073608	165.172280	-66.073608	165.172280	-0.060254	-46.438922
2.900000	-0.061405	-47.236609	-65.592583	163.765890	-65.592583	163.765890	-0.061373	-47.219631
2.950000	-0.062533	-48.016128	-65.122340	162.349077	-65.122340	162.349077	-0.062501	-47.998887
3.000000	-0.063669	-48.794182	-64.662433	160.922665	-64.662433	160.922665	-0.063636	-48.776681
3.050000	-0.064813	-49.570762	-64.212447	159.487409	-64.212447	159.487409	-0.064780	-49.553002
3.100000	-0.065966	-50.345857	-63.771991	158.044004	-63.771991	158.044004	-0.065932	-50.327838
3.150000	-0.067128	-51.119457	-63.340699	156.593091	-63.340699	156.593091	-0.067094	-51.101181
3.200000	-0.068300	-51.891552	-62.918227	155.135262	-62.918227	155.135262	-0.068265	-51.873020
3.250000	-0.069481	-52.662134	-62.504252	153.671066	-62.504252	153.671066	-0.069446	-52.643347
3.300000	-0.070673	-53.431194	-62.098467	152.201011	-62.098467	152.201011	-0.070637	-53.412153
3.350000	-0.071877	-54.198454	-61.698799	150.724765	-61.698799	150.724765	-0.071841	-54.179162
3.400000	-0.073093	-54.964110	-61.306490	149.243373	-61.306490	149.243373	-0.073056	-54.944566
3.450000	-0.074315	-55.728957	-60.926216	147.759770	-60.926216	147.759770	-0.074278	-55.709163
3.500000	-0.075555	-56.491376	-60.547755	146.269532	-60.547755	146.269532	-0.075517	-56.471334
3.550000	-0.076800	-57.253252	-60.182069	144.778076	-60.182069	144.778076	-0.076762	-57.232962
3.600000	-0.078067	-58.012409	-59.816631	143.280526	-59.816631	143.280526	-0.078028	-57.991873
3.650000	-0.079336	-58.771292	-59.464548	141.782477	-59.464548	141.782477	-0.079296	-58.750511
3.700000	-0.080630	-59.527163	-59.111379	140.278947	-59.111379	140.278947	-0.080590	-59.506138
3.750000	-0.081925	-60.283034	-58.772010	138.775417	-58.772010	138.775417	-0.081884	-60.261765
3.800000	-0.083249	-61.035600	-58.430420	137.267070	-58.430420	137.267070	-0.083208	-61.014090
3.850000	-0.084574	-61.788166	-58.101756	135.758723	-58.101756	135.758723	-0.084532	-61.766415
3.900000	-0.085927	-62.537689	-57.772312	134.246888	-57.772312	134.246888	-0.085884	-62.515699
3.950000	-0.087282	-63.286935	-57.453791	132.734736	-57.453791	132.734736	-0.087240	-63.264706
4.000000	-0.088666	-64.033405	-57.135737	131.220149	-57.135737	131.220149	-0.088622	-64.010940
4.050000	-0.090055	-64.779320	-56.826835	129.705074	-56.826835	129.705074	-0.090011	-64.756619
4.100000	-0.091470	-65.522732	-56.519480	128.188381	-56.519480	128.188381	-0.091426	-65.499796
4.150000	-0.092894	-66.265310	-56.219712	126.671149	-56.219712	126.671149	-0.092849	-66.242140
4.200000	-0.094343	-67.005660	-55.922423	125.152918	-55.922423	125.152918	-0.094297	-66.982257
4.250000	-0.095804	-67.744897	-55.631338	123.634189	-55.631338	123.634189	-0.095758	-67.721262
4.300000	-0.097288	-68.482186	-55.343536	122.114918	-55.343536	122.114918	-0.097240	-68.458320
4.350000	-0.098787	-69.218083	-55.060709	120.595260	-55.060709	120.595260	-0.098739	-69.193988
4.400000	-0.100307	-69.952313	-54.781860	119.075379	-54.781860	119.075379	-0.100259	-69.927988
4.450000	-0.101847	-70.684874	-54.506897	117.555276	-54.506897	117.555276	-0.101798	-70.660323
4.500000	-0.103405	-71.416050	-54.236509	116.035157	-54.236509	116.035157	-0.103355	-71.391272
4.550000	-0.104987	-72.145285	-53.969040	114.515016	-53.969040	114.515016	-0.104937	-72.120281
4.600000	-0.106585	-72.873416	-53.706659	112.994977	-53.706659	112.994977	-0.106534	-72.848186
4.650000	-0.108211	-73.599336	-53.446338	111.475140	-53.446338	111.475140	-0.108160	-73.573883
4.700000	-0.109850	-74.324432	-53.191545	109.955449	-53.191545	109.955449	-0.109797	-74.298755
4.750000	-0.111522	-75.047053	-52.938047	108.436195	-52.938047	108.436195	-0.111469	-75.021155
4.800000	-0.113203	-75.769128	-52.690453	106.917076	-52.690453	106.917076	-0.113149	-75.743008
4.850000	-0.114924	-76.488469	-52.443475	105.398632	-52.443475	105.398632	-0.114869	-76.462129
4.900000	-0.116649	-77.207539	-52.202721	103.880270	-52.202721	103.880270	-0.116594	-77.180980
4.950000	-0.118419	-77.923623	-51.961979	102.362814	-51.961979	102.362814	-0.118363	-77.896845
5.000000	-0.120190	-78.639707	-51.727730	100.845359	-51.727730	100.845359	-0.120133	-78.612711
5.050000	-0.122012	-79.352560	-51.492958	99.329029	-51.492958	99.329029	-0.121955	-79.325347
5.100000	-0.123834	-80.065413	-51.264365	97.812698	-51.264365	97.812698	-0.123776	-80.037983
5.150000	-0.125706	-80.775330	-51.035855	96.297494	-51.035855	96.297494	-0.125647	-80.747685
5.200000	-0.127582	-81.484981	-50.812691	94.782392	-50.812691	94.782392	-0.127522	-81.457121
5.250000	-0.129504	-82.191990	-50.590151	93.268373	-50.590151	93.268373	-0.129443	-82.163916
5.300000	-0.131436	-82.898471	-50.372202	91.754572	-50.372202	91.754572	-0.131374	-82.870183
5.350000	-0.133410	-83.602601	-50.155363	90.241782	-50.155363	90.241782	-0.133348	-83.574101
5.400000	-0.135399	-84.305947	-49.942431	88.729329	-49.942431	88.729329	-0.135336	-84.277235
5.450000	-0.137428	-85.007230	-49.731042	87.217796	-49.731042	87.217796	-0.137364	-84.978306
5.500000	-0.139476	-85.707481	-49.522941	85.706722	-49.522941	85.706722	-0.139412	-85.678346
5.550000	-0.141560	-86.405950	-49.316770	84.196461	-49.316770	84.196461	-0.141495	-86.376604
5.600000	-0.143670	-87.103146	-49.113329	82.686782	-49.113329	82.686782	-0.143604	-87.073591
5.650000	-0.145812	-87.798838	-48.912161	81.177804	-48.912161	81.177804	-0.145745	-87.769073
5.700000	-0.147985	-88.493024	-48.713218	79.669527	-48.713218	79.669527	-0.147917	-88.463050
5.750000	-0.150185	-89.185976	-48.516854	78.161835	-48.516854	78.161835	-0.150116	-89.155793
5.800000	-0.152423	-89.877199	-48.322262	76.654962	-48.322262	76.654962	-0.152353	-89.846809
5.850000	-0.154683	-90.567452	-48.130516	75.148559	-48.130516	75.148559	-0.154613	-90.536854
5.900000	-0.156989	-91.255762	-47.940136	73.643095	-47.940136	73.643095	-0.156917	-91.224957
5.950000	-0.159311	-91.943357	-47.752836	72.137984	-47.752836	72.137984	-0.159239	-91.912345
6.000000	-0.161685	-92.628807	-47.566541	70.633935	-47.566541	70.633935	-0.161612	-92.597588
6.050000	-0.164071	-93.313789	-47.383527	69.130124	-47.383527	69.130124	-0.163997	-93.282364
6.100000	-0.166516	-93.996432	-47.201198	67.627505	-47.201198	67.627505	-0.166441	-93.964802
6.150000	-0.168967	-94.678847	-47.022322	66.125008	-47.022322	66.125008	-0.168891	-94.647011
6.200000	-0.171485	-95.358743	-46.843851	64.623846	-46.843851	64.623846	-0.171408	-95.326701
6.250000	-0.174003	-96.038638	-46.668973	63.122684	-46.668973	63.122684	-0.173925	-96.006391
6.300000	-0.176594	-96.715845	-46.494257	61.623020	-46.494257	61.623020	-0.176516	-96.683393
6.350000	-0.179187	-97.393052	-46.322986	60.123356	-46.322986	60.123356	-0.179107	-97.360396
6.400000	-0.181848	-98.067852	-46.152193	58.625119	-46.152193	58.625119	-0.181768	-98.034991
6.450000	-0.184517	-98.742434	-45.984441	57.127011	-45.984441	57.127011	-0.184435	-98.709367
6.500000	-0.187250	-99.414880	-45.817450	55.630263	-45.817450	55.630263	-0.187167	-99.381609
6.550000	-0.189997	-100.086900	-45.653135	54.133788	-45.653135	54.133788	-0.189913	-100.053425
6.600000	-0.192803	-100.757049	-45.489832	52.638611	-45.489832	52.638611	-0.192718	-100.723369
6.650000	-0.195629	-101.426574	-45.328875	51.143867	-45.328875	51.143867	-0.195543	-101.392690
6.700000	-0.198509	-102.094483	-45.169153	49.650357	-45.169153	49.650357	-0.198423	-102.060394
6.750000	-0.201417	-102.761583	-45.011482	48.157463	-45.011482	48.157463	-0.201329	-102.727289
6.800000	-0.204373	-103.427309	-44.855238	46.665733	-44.855238	46.665733	-0.204284	-103.392811
6.850000	-0.207364	-104.092055	-44.700784	45.174834	-44.700784	45.174834	-0.207274	-104.057352
6.900000	-0.210397	-104.755661	-44.547921	43.685015	-44.547921	43.685015	-0.210306	-104.720753
6.950000	-0.213472	-105.418127	-44.396615	42.196275	-44.396615	42.196275	-0.213380	-105.383013
7.000000	-0.216584	-106.079673	-44.247040	40.708515	-44.247040	40.708515	-0.216491	-106.044354
7.050000	-0.219745	-106.739934	-44.098816	39.222125	-44.098816	39.222125	-0.219651	-106.704409
7.100000	-0.222936	-107.399486	-43.952440	37.736589	-43.952440	37.736589	-0.222841	-107.363755
7.150000	-0.226185	-108.057619	-43.807233	36.252760	-43.807233	36.252760	-0.226089	-108.021682
7.200000	-0.229457	-108.715241	-43.663968	34.769629	-43.663968	34.769629	-0.229360	-108.679098
7.250000	-0.232796	-109.371328	-43.521713	33.288593	-43.521713	33.288593	-0.232697	-109.334977
7.300000	-0.236150	-110.027086	-43.381474	31.808064	-43.381474	31.808064	-0.236050	-109.990528
7.350000	-0.239578	-110.681207	-43.242106	30.330071	-43.242106	30.330071	-0.239478	-110.644441
7.400000	-0.243015	-111.335171	-43.104810	28.852355	-43.104810	28.852355	-0.242914	-111.298197
7.450000	-0.246536	-111.987411	-42.968260	27.377675	-42.968260	27.377675	-0.246433	-111.950228
7.500000	-0.250057	-112.639651	-42.833824	25.902995	-42.833824	25.902995	-0.249953	-112.602258
7.550000	-0.253670	-113.290095	-42.700024	24.431908	-42.700024	24.431908	-0.253565	-113.252492
7.600000	-0.257284	-113.940539	-42.568254	22.960822	-42.568254	22.960822	-0.257178	-113.902726
7.650000	-0.260984	-114.589418	-42.437244	21.493299	-42.437244	21.493299	-0.260876	-114.551394
7.700000	-0.264692	-115.238155	-42.308071	20.026100	-42.308071	20.026100	-0.264583	-115.199920
7.750000	-0.268478	-115.885544	-42.179760	18.562390	-42.179760	18.562390	-0.268368	-115.847096
7.800000	-0.272282	-116.532664	-42.053114	17.099378	-42.053114	17.099378	-0.272170	-116.494003
7.850000	-0.276156	-117.178640	-41.927412	15.639735	-41.927412	15.639735	-0.276044	-117.139765
7.900000	-0.280055	-117.824235	-41.803216	14.181214	-41.803216	14.181214	-0.279941	-117.785146
7.950000	-0.284018	-118.468876	-41.680031	12.725889	-41.680031	12.725889	-0.283903	-118.429571
8.000000	-0.288014	-119.113040	-41.558206	11.272163	-41.558206	11.272163	-0.287898	-119.073520
8.050000	-0.292066	-119.756426	-41.437446	9.821407	-41.437446	9.821407	-0.291949	-119.716688
8.100000	-0.296159	-120.399257	-41.317906	8.372773	-41.317906	8.372773	-0.296041	-120.359301
8.150000	-0.300301	-121.041469	-41.199476	6.926829	-41.199476	6.926829	-0.300181	-121.001294
8.200000	-0.304492	-121.683064	-41.082133	5.483577	-41.082133	5.483577	-0.304371	-121.642669
8.250000	-0.308725	-122.324186	-40.965936	4.042680	-40.965936	4.042680	-0.308602	-122.283570
8.300000	-0.313014	-122.964646	-40.850696	2.605083	-40.850696	2.605083	-0.312890	-122.923809
8.350000	-0.317337	-123.604762	-40.736633	1.169456	-40.736633	1.169456	-0.317212	-123.563702
8.400000	-0.321725	-124.244190	-40.623396	-0.262229	-40.623396	-0.262229	-0.321598	-124.202906
8.450000	-0.326139	-124.883387	-40.511367	-1.692379	-40.511367	-1.692379	-0.326011	-124.841879
8.500000	-0.330626	-125.521890	-40.400028	-3.117920	-40.400028	-3.117920	-0.330496	-125.480155
8.550000	-0.335130	-126.160256	-40.289930	-4.542404	-40.289930	-4.542404	-0.335000	-126.118294
8.600000	-0.339716	-126.797939	-40.180379	-5.961597	-40.180379	-5.961597	-0.339584	-126.755748
8.650000	-0.344312	-127.435564	-40.072107	-7.380247	-40.072107	-7.380247	-0.344178	-127.393144
8.700000	-0.348996	-128.072540	-39.964231	-8.792920	-39.964231	-8.792920	-0.348861	-128.029888
8.750000	-0.353682	-128.709515	-39.857678	-10.205593	-39.857678	-10.205593	-0.353546	-128.666632
8.800000	-0.358465	-129.345895	-39.751357	-11.611610	-39.751357	-11.611610	-0.358327	-129.302777
8.850000	-0.363250	-129.982274	-39.646321	-13.017627	-39.646321	-13.017627	-0.363110	-129.938922
8.900000	-0.368122	-130.618213	-39.541524	-14.417457	-39.541524	-14.417457	-0.367981	-130.574624
8.950000	-0.373005	-131.254112	-39.437884	-15.816725	-39.437884	-15.816725	-0.372863	-131.210286
9.000000	-0.377967	-131.889709	-39.334493	-17.210326	-39.334493	-17.210326	-0.377823	-131.845643
9.050000	-0.382947	-132.525245	-39.232125	-18.602794	-39.232125	-18.602794	-0.382802	-132.480939
9.100000	-0.387998	-133.160599	-39.130020	-19.990163	-39.130020	-19.990163	-0.387851	-133.116051
9.150000	-0.393075	-133.795893	-39.028795	-21.375832	-39.028795	-21.375832	-0.392926	-133.751101
9.200000	-0.398213	-134.431107	-38.927856	-22.757002	-38.927856	-22.757002	-0.398063	-134.386070
9.250000	-0.403385	-135.066282	-38.827641	-24.135922	-38.827641	-24.135922	-0.403233	-135.020998
9.300000	-0.408611	-135.701460	-38.727746	-25.510970	-38.727746	-25.510970	-0.408457	-135.655928
9.350000	-0.413876	-136.336642	-38.628406	-26.883251	-38.628406	-26.883251	-0.413721	-136.290860
9.400000	-0.419188	-136.971892	-38.529433	-28.252295	-38.529433	-28.252295	-0.419031	-136.925859
9.450000	-0.424545	-137.607210	-38.430829	-29.618102	-38.430829	-29.618102	-0.424387	-137.560923
9.500000	-0.429941	-138.242640	-38.332656	-30.981308	-38.332656	-30.981308	-0.429781	-138.196099
9.550000	-0.435389	-138.878227	-38.234647	-32.340872	-38.234647	-32.340872	-0.435227	-138.831429
9.600000	-0.440868	-139.513949	-38.137152	-33.698452	-38.137152	-33.698452	-0.440704	-139.466892
9.650000	-0.446405	-140.149940	-38.039594	-35.052067	-38.039594	-35.052067	-0.446239	-140.102623
9.700000	-0.451964	-140.786067	-37.942654	-36.404285	-37.942654	-36.404285	-0.451797	-140.738488
9.750000	-0.457587	-141.422602	-37.845404	-37.752314	-37.845404	-37.752314	-0.457417	-141.374759
9.800000	-0.463226	-142.059251	-37.748898	-39.099484	-37.748898	-39.099484	-0.463054	-142.011143
9.850000	-0.468931	-142.696472	-37.651808	-40.442363	-37.651808	-40.442363	-0.468758	-142.648095
9.900000	-0.474647	-143.333762	-37.555615	-41.784855	-37.555615	-41.784855	-0.474471	-143.285116
9.950000	-0.480433	-143.971815	-37.458541	-43.123093	-37.458541	-43.123093	-0.480255	-143.922897
10.000000	-0.486223	-144.609868	-37.362540	-44.461332	-37.362540	-44.461332	-0.486043	-144.560678
