! freq	dB(S11)	phase(S11)	dB(S12)	phase(S12)	
!     	dB(S21)	phase(S21)	dB(S22)	phase(S22)	
!S-par simulation data
#  GHz  S  DB  R 50
0.000000	-0.000000	0.000000	-381.100307	0.000000	-381.100307	0.000000	-0.000000	0.000000
0.050000	-0.000109	-0.908934	-114.924415	86.470020	-114.924415	86.470020	-0.000102	-0.760403
0.100000	-0.000434	-1.817610	-109.244151	84.151458	-109.244151	84.151458	-0.000405	-1.520548
0.150000	-0.000962	-2.725787	-106.085020	82.966070	-106.085020	82.966070	-0.000892	-2.280201
0.200000	-0.001673	-3.633263	-103.916904	82.384375	-103.916904	82.384375	-0.001544	-3.039173
0.250000	-0.002556	-4.539804	-102.291873	82.075366	-102.291873	82.075366	-0.002343	-3.797259
0.300000	-0.003571	-5.445358	-101.012675	81.869762	-101.012675	81.869762	-0.003250	-4.554438
0.350000	-0.004701	-6.349791	-99.990962	81.735518	-99.990962	81.735518	-0.004245	-5.310618
0.400000	-0.005922	-7.253041	-99.173689	81.675261	-99.173689	81.675261	-0.005305	-6.065780
0.450000	-0.007209	-8.155078	-98.528356	81.715258	-98.528356	81.715258	-0.006408	-6.819930
0.500000	-0.008545	-9.055893	-98.034345	81.896346	-98.034345	81.896346	-0.007538	-7.573098
0.550000	-0.009910	-9.955498	-97.678655	82.272722	-97.678655	82.272722	-0.008680	-8.325322
0.600000	-0.011291	-10.853916	-97.453524	82.915072	-97.453524	82.915072	-0.009825	-9.076647
0.650000	-0.012677	-11.751175	-97.354871	83.917138	-97.354871	83.917138	-0.010965	-9.827118
0.700000	-0.014058	-12.647308	-97.380911	85.406172	-97.380911	85.406172	-0.012095	-10.576776
0.750000	-0.015430	-13.542345	-97.530295	87.558369	-97.530295	87.558369	-0.013212	-11.325656
0.800000	-0.016786	-14.436316	-97.798747	90.620032	-97.798747	90.620032	-0.014315	-12.073788
0.850000	-0.018125	-15.329243	-98.172319	94.931464	-98.172319	94.931464	-0.015402	-12.821196
0.900000	-0.019444	-16.221145	-98.614142	100.936539	-98.614142	100.936539	-0.016474	-13.567895
0.950000	-0.020744	-17.112036	-99.041918	109.124235	-99.041918	109.124235	-0.017532	-14.313898
1.000000	-0.022024	-18.001924	-99.303391	119.797311	-99.303391	119.797311	-0.018577	-15.059210
1.050000	-0.023285	-18.890812	-99.187885	132.614552	-99.187885	132.614552	-0.019609	-15.803833
1.100000	-0.024529	-19.778698	-98.529279	146.223643	-98.529279	146.223643	-0.020630	-16.547764
1.150000	-0.025755	-20.665578	-97.344567	158.728376	-97.344567	158.728376	-0.021641	-17.290998
1.200000	-0.026967	-21.551443	-95.819946	168.866000	-95.819946	168.866000	-0.022644	-18.033529
1.250000	-0.028165	-22.436280	-94.160390	176.452621	-94.160390	176.452621	-0.023639	-18.775345
1.300000	-0.029349	-23.320030	-92.488909	-178.167151	-92.488909	-178.167151	-0.024626	-19.516403
1.350000	-0.030523	-24.202719	-90.885015	-174.366966	-90.885015	-174.366966	-0.025608	-20.256722
1.400000	-0.031688	-25.084330	-89.370426	-171.729868	-89.370426	-171.729868	-0.026586	-20.996288
1.450000	-0.032844	-25.964843	-87.948353	-169.949003	-87.948353	-169.949003	-0.027559	-21.735086
1.500000	-0.033993	-26.844238	-86.614223	-168.805424	-86.614223	-168.805424	-0.028528	-22.473102
1.550000	-0.035136	-27.722492	-85.360721	-168.143548	-85.360721	-168.143548	-0.029494	-23.210320
1.600000	-0.036274	-28.599585	-84.180023	-167.851913	-84.180023	-167.851913	-0.030458	-23.946724
1.650000	-0.037408	-29.475494	-83.064708	-167.849567	-83.064708	-167.849567	-0.031420	-24.682300
1.700000	-0.038538	-30.350196	-82.008087	-168.076789	-82.008087	-168.076789	-0.032381	-25.417031
1.750000	-0.039666	-31.223669	-81.004263	-168.488804	-81.004263	-168.488804	-0.033340	-26.150902
1.800000	-0.040792	-32.095890	-80.048091	-169.051521	-80.048091	-169.051521	-0.034298	-26.883896
1.850000	-0.041917	-32.966838	-79.135094	-169.738595	-79.135094	-169.738595	-0.035256	-27.616000
1.900000	-0.043042	-33.836491	-78.261374	-170.529386	-78.261374	-170.529386	-0.036214	-28.347196
1.950000	-0.044167	-34.704826	-77.423535	-171.407519	-77.423535	-171.407519	-0.037172	-29.077470
2.000000	-0.045292	-35.571823	-76.618599	-172.359848	-76.618599	-172.359848	-0.038131	-29.806806
2.050000	-0.046418	-36.437461	-75.843954	-173.375707	-75.843954	-173.375707	-0.039091	-30.535190
2.100000	-0.047545	-37.301718	-75.097291	-174.446353	-75.097291	-174.446353	-0.040051	-31.262607
2.150000	-0.048675	-38.164576	-74.376566	-175.564554	-74.376566	-175.564554	-0.041013	-31.989043
2.200000	-0.049807	-39.026015	-73.679956	-176.724280	-73.679956	-176.724280	-0.041977	-32.714482
2.250000	-0.050942	-39.886015	-73.005836	-177.920459	-73.005836	-177.920459	-0.042943	-33.438911
2.300000	-0.052080	-40.744558	-72.352745	-179.148797	-72.352745	-179.148797	-0.043911	-34.162316
2.350000	-0.053221	-41.601627	-71.719367	179.594367	-71.719367	179.594367	-0.044882	-34.884682
2.400000	-0.054367	-42.457204	-71.104513	178.312173	-71.104513	178.312173	-0.045855	-35.605998
2.450000	-0.055516	-43.311272	-70.507105	177.007331	-70.507105	177.007331	-0.046832	-36.326249
2.500000	-0.056671	-44.163815	-69.926161	175.682194	-69.926161	175.682194	-0.047812	-37.045422
2.550000	-0.057831	-45.014750	-69.359866	174.338103	-69.359866	174.338103	-0.048796	-37.763457
2.600000	-0.058996	-45.864128	-68.808410	172.977707	-68.808410	172.977707	-0.049785	-38.480387
2.650000	-0.060167	-46.711934	-68.271030	171.602561	-68.271030	171.602561	-0.050778	-39.196202
2.700000	-0.061344	-47.558155	-67.747023	170.214044	-67.747023	170.214044	-0.051776	-39.910887
2.750000	-0.062528	-48.402778	-67.235741	168.813380	-67.235741	168.813380	-0.052779	-40.624433
2.800000	-0.063719	-49.245790	-66.736588	167.401664	-66.736588	167.401664	-0.053787	-41.336827
2.850000	-0.064918	-50.087178	-66.249006	165.979871	-66.249006	165.979871	-0.054801	-42.048058
2.900000	-0.066124	-50.926932	-65.772482	164.548881	-65.772482	164.548881	-0.055822	-42.758115
2.950000	-0.067338	-51.765041	-65.306536	163.109485	-65.306536	163.109485	-0.056849	-43.466988
3.000000	-0.068561	-52.601494	-64.850721	161.662397	-64.850721	161.662397	-0.057883	-44.174665
3.050000	-0.069793	-53.436281	-64.404619	160.208264	-64.404619	160.208264	-0.058924	-44.881137
3.100000	-0.071034	-54.269393	-63.967841	158.747674	-63.967841	158.747674	-0.059973	-45.586395
3.150000	-0.072285	-55.100822	-63.540021	157.281164	-63.540021	157.281164	-0.061029	-46.290427
3.200000	-0.073547	-55.930560	-63.120814	155.809221	-63.120814	155.809221	-0.062094	-46.993225
3.250000	-0.074819	-56.758599	-62.709897	154.332293	-62.709897	154.332293	-0.063168	-47.694781
3.300000	-0.076102	-57.584933	-62.306968	152.850790	-62.306968	152.850790	-0.064250	-48.395084
3.350000	-0.077397	-58.409555	-61.911738	151.365089	-61.911738	151.365089	-0.065342	-49.094127
3.400000	-0.078704	-59.232460	-61.523938	149.875536	-61.523938	149.875536	-0.066443	-49.791902
3.450000	-0.080023	-60.053642	-61.143311	148.382451	-61.143311	148.382451	-0.067555	-50.488400
3.500000	-0.081356	-60.873096	-60.769616	146.886131	-60.769616	146.886131	-0.068677	-51.183615
3.550000	-0.082701	-61.690820	-60.402623	145.386847	-60.402623	145.386847	-0.069810	-51.877538
3.600000	-0.084061	-62.506809	-60.042114	143.884855	-60.042114	143.884855	-0.070954	-52.570163
3.650000	-0.085434	-63.321061	-59.687883	142.380390	-59.687883	142.380390	-0.072109	-53.261484
3.700000	-0.086822	-64.133573	-59.339734	140.873670	-59.339734	140.873670	-0.073277	-53.951493
3.750000	-0.088226	-64.944343	-58.997479	139.364900	-58.997479	139.364900	-0.074456	-54.640185
3.800000	-0.089646	-65.753295	-58.660624	137.854198	-58.660624	137.854198	-0.075649	-55.327496
3.850000	-0.091082	-66.560504	-58.329339	136.341829	-58.329339	136.341829	-0.076855	-56.013478
3.900000	-0.092534	-67.365969	-58.003459	134.827956	-58.003459	134.827956	-0.078074	-56.698126
3.950000	-0.094004	-68.169692	-57.682830	133.312735	-57.682830	133.312735	-0.079307	-57.381436
4.000000	-0.095491	-68.971673	-57.367301	131.796311	-57.367301	131.796311	-0.080555	-58.063402
4.050000	-0.096997	-69.771914	-57.056731	130.278818	-57.056731	130.278818	-0.081816	-58.744020
4.100000	-0.098520	-70.570417	-56.750984	128.760384	-56.750984	128.760384	-0.083093	-59.423288
4.150000	-0.100063	-71.367184	-56.449929	127.241130	-56.449929	127.241130	-0.084385	-60.101200
4.200000	-0.101632	-72.161619	-56.151520	125.720971	-56.151520	125.720971	-0.085697	-60.777280
4.250000	-0.103212	-72.955151	-55.860239	124.200481	-55.860239	124.200481	-0.087019	-61.452651
4.300000	-0.104816	-73.746587	-55.572119	122.679428	-55.572119	122.679428	-0.088360	-62.126360
4.350000	-0.106438	-74.536525	-55.288900	121.157972	-55.288900	121.157972	-0.089716	-62.798883
4.400000	-0.108083	-75.324678	-55.009570	119.636231	-55.009570	119.636231	-0.091090	-63.469977
4.450000	-0.109750	-76.111045	-54.734048	118.114202	-54.734048	118.114202	-0.092481	-64.139642
4.500000	-0.111437	-76.895936	-54.463047	116.592081	-54.463047	116.592081	-0.093889	-64.808114
4.550000	-0.113151	-77.678759	-54.194882	115.069829	-54.194882	115.069829	-0.095318	-65.474916
4.600000	-0.114882	-78.460412	-53.931782	113.547606	-53.931782	113.547606	-0.096761	-66.140762
4.650000	-0.116645	-79.239724	-53.670657	112.025443	-53.670657	112.025443	-0.098230	-66.804696
4.700000	-0.118421	-80.018167	-53.415064	110.503371	-53.415064	110.503371	-0.099709	-67.467914
4.750000	-0.120235	-80.794004	-53.160684	108.981576	-53.160684	108.981576	-0.101219	-68.128980
4.800000	-0.122059	-81.569268	-52.912233	107.459883	-52.912233	107.459883	-0.102736	-68.789569
4.850000	-0.123926	-82.341671	-52.664321	105.938708	-52.664321	105.938708	-0.104288	-69.447769
4.900000	-0.125798	-83.113791	-52.422673	104.417603	-52.422673	104.417603	-0.105845	-70.105730
4.950000	-0.127720	-83.882805	-52.180970	102.897274	-52.180970	102.897274	-0.107441	-70.761068
5.000000	-0.129643	-84.651819	-51.945812	101.376946	-51.945812	101.376946	-0.109039	-71.416406
5.050000	-0.131622	-85.417493	-51.710074	99.857671	-51.710074	99.857671	-0.110681	-72.068888
5.100000	-0.133601	-86.183168	-51.480566	98.338395	-51.480566	98.338395	-0.112324	-72.721371
5.150000	-0.135635	-86.945830	-51.251112	96.820257	-51.251112	96.820257	-0.114011	-73.371244
5.200000	-0.137673	-87.708219	-51.027045	95.302221	-51.027045	95.302221	-0.115701	-74.020880
5.250000	-0.139762	-88.467917	-50.803595	93.785362	-50.803595	93.785362	-0.117433	-74.668154
5.300000	-0.141862	-89.227078	-50.584771	92.268737	-50.584771	92.268737	-0.119173	-75.314956
5.350000	-0.144008	-89.983863	-50.367066	90.753288	-50.367066	90.753288	-0.120951	-75.959642
5.400000	-0.146170	-90.739857	-50.153300	89.238230	-50.153300	89.238230	-0.122741	-76.603624
5.450000	-0.148376	-91.493784	-49.941096	87.724313	-49.941096	87.724313	-0.124567	-77.245736
5.500000	-0.150603	-92.246677	-49.732210	86.210965	-49.732210	86.210965	-0.126411	-77.886913
5.550000	-0.152869	-92.997801	-49.525281	84.698692	-49.525281	84.698692	-0.128286	-78.526466
5.600000	-0.155162	-93.747662	-49.321109	83.187187	-49.321109	83.187187	-0.130184	-79.164858
5.650000	-0.157491	-94.496043	-49.119240	81.676664	-49.119240	81.676664	-0.132110	-79.801868
5.700000	-0.159853	-95.242946	-48.919625	80.167122	-48.919625	80.167122	-0.134064	-80.437495
5.750000	-0.162245	-95.988647	-48.722616	78.658446	-48.722616	78.658446	-0.136042	-81.071981
5.800000	-0.164678	-96.732667	-48.527406	77.150982	-48.527406	77.150982	-0.138054	-81.704867
5.850000	-0.167135	-97.475752	-48.335069	75.644245	-48.335069	75.644245	-0.140085	-82.336848
5.900000	-0.169640	-98.216970	-48.144124	74.138963	-48.144124	74.138963	-0.142156	-82.967018
5.950000	-0.172164	-98.957509	-47.956281	72.634250	-47.956281	72.634250	-0.144243	-83.596516
6.000000	-0.174743	-99.696008	-47.769465	71.131247	-47.769465	71.131247	-0.146375	-84.223997
6.050000	-0.177336	-100.434069	-47.585949	69.628640	-47.585949	69.628640	-0.148518	-84.851035
6.100000	-0.179991	-101.169937	-47.403133	68.128008	-47.403133	68.128008	-0.150713	-85.475856
6.150000	-0.182654	-101.905594	-47.223787	66.627581	-47.223787	66.627581	-0.152914	-86.100458
6.200000	-0.185387	-102.638922	-47.044848	65.129406	-47.044848	65.129406	-0.155173	-86.722651
6.250000	-0.188121	-103.372249	-46.869522	63.631230	-46.869522	63.631230	-0.157433	-87.344844
6.300000	-0.190933	-104.103130	-46.694345	62.135591	-46.694345	62.135591	-0.159759	-87.964441
6.350000	-0.193747	-104.834011	-46.522631	60.639952	-46.522631	60.639952	-0.162085	-88.584038
6.400000	-0.196634	-105.562738	-46.351370	59.146706	-46.351370	59.146706	-0.164473	-89.201288
6.450000	-0.199529	-106.291268	-46.183165	57.653678	-46.183165	57.653678	-0.166867	-89.818325
6.500000	-0.202493	-107.017925	-46.015684	56.162883	-46.015684	56.162883	-0.169318	-90.433259
6.550000	-0.205471	-107.744206	-45.850888	54.672536	-45.850888	54.672536	-0.171781	-91.047771
6.600000	-0.208512	-108.468878	-45.687059	53.184248	-45.687059	53.184248	-0.174298	-91.660420
6.650000	-0.211575	-109.193013	-45.525576	51.696646	-45.525576	51.696646	-0.176833	-92.272447
6.700000	-0.214695	-109.915788	-45.365277	50.210915	-45.365277	50.210915	-0.179415	-92.882844
6.750000	-0.217845	-110.637884	-45.207016	48.726120	-45.207016	48.726120	-0.182023	-93.492426
6.800000	-0.221045	-111.358854	-45.050130	47.242995	-45.050130	47.242995	-0.184674	-94.100606
6.850000	-0.224283	-112.079020	-44.895005	45.761063	-44.895005	45.761063	-0.187356	-94.707784
6.900000	-0.227566	-112.798277	-44.741421	44.280588	-44.741421	44.280588	-0.190075	-95.313783
6.950000	-0.230894	-113.516625	-44.589347	42.801570	-44.589347	42.801570	-0.192833	-95.918601
7.000000	-0.234260	-114.234265	-44.438961	41.323787	-44.438961	41.323787	-0.195624	-96.522454
7.050000	-0.237680	-114.950911	-44.289857	39.847731	-44.289857	39.847731	-0.198459	-97.124957
7.100000	-0.241130	-115.667031	-44.142569	38.372677	-44.142569	38.372677	-0.201322	-97.726704
7.150000	-0.244643	-116.382095	-43.996358	36.899626	-43.996358	36.899626	-0.204236	-98.326938
7.200000	-0.248180	-117.096794	-43.852072	35.427335	-43.852072	35.427335	-0.207172	-98.926618
7.250000	-0.251788	-117.810397	-43.708679	33.957326	-43.708679	33.957326	-0.210167	-99.524631
7.300000	-0.255412	-118.523777	-43.567304	32.487830	-43.567304	32.487830	-0.213177	-100.122283
7.350000	-0.259116	-119.236044	-43.426659	31.020896	-43.426659	31.020896	-0.216255	-100.718125
7.400000	-0.262830	-119.948210	-43.288107	29.554221	-43.288107	29.554221	-0.219341	-101.313791
7.450000	-0.266632	-120.659268	-43.150140	28.090391	-43.150140	28.090391	-0.222503	-101.907513
7.500000	-0.270436	-121.370326	-43.014330	26.626561	-43.014330	26.626561	-0.225665	-102.501235
7.550000	-0.274337	-122.080307	-42.878974	25.165857	-42.878974	25.165857	-0.228912	-103.092889
7.600000	-0.278241	-122.790287	-42.745695	23.705153	-42.745695	23.705153	-0.232161	-103.684543
7.650000	-0.282235	-123.499402	-42.613018	22.247330	-42.613018	22.247330	-0.235487	-104.274351
7.700000	-0.286240	-124.208438	-42.482210	20.789769	-42.482210	20.789769	-0.238822	-104.863991
7.750000	-0.290329	-124.916802	-42.352134	19.334837	-42.352134	19.334837	-0.242230	-105.451998
7.800000	-0.294436	-125.625031	-42.223738	17.880431	-42.223738	17.880431	-0.245653	-106.039678
7.850000	-0.298620	-126.332759	-42.096190	16.428395	-42.096190	16.428395	-0.249143	-106.625931
7.900000	-0.302831	-127.040320	-41.970152	14.977148	-41.970152	14.977148	-0.252655	-107.211708
7.950000	-0.307112	-127.747532	-41.845061	13.528008	-41.845061	13.528008	-0.256228	-107.796256
8.000000	-0.311429	-128.454568	-41.721325	12.079921	-41.721325	12.079921	-0.259832	-108.380188
8.050000	-0.315808	-129.161384	-41.598626	10.633673	-41.598626	10.633673	-0.263489	-108.963078
8.100000	-0.320231	-129.868042	-41.477141	9.188739	-41.477141	9.188739	-0.267185	-109.545223
8.150000	-0.324709	-130.574586	-41.356768	7.745373	-41.356768	7.745373	-0.270927	-110.126506
8.200000	-0.329241	-131.281014	-41.237485	6.303577	-41.237485	6.303577	-0.274717	-110.706926
8.250000	-0.333819	-131.987411	-41.119377	4.863080	-41.119377	4.863080	-0.278546	-111.286652
8.300000	-0.338460	-132.693762	-41.002247	3.424402	-41.002247	3.424402	-0.282430	-111.865407
8.350000	-0.343139	-133.400139	-40.886348	1.986754	-40.886348	1.986754	-0.286346	-112.443628
8.400000	-0.347892	-134.106569	-40.771326	0.551167	-40.771326	0.551167	-0.290326	-113.020782
8.450000	-0.352673	-134.813058	-40.657578	-0.883655	-40.657578	-0.883655	-0.294331	-113.597551
8.500000	-0.357537	-135.519725	-40.544620	-2.316186	-40.544620	-2.316186	-0.298407	-114.173167
8.550000	-0.362422	-136.226459	-40.432971	-3.748213	-40.432971	-3.748213	-0.302501	-114.748538
8.600000	-0.367399	-136.933526	-40.322037	-5.177728	-40.322037	-5.177728	-0.306676	-115.322681
8.650000	-0.372389	-137.640639	-40.212437	-6.606995	-40.212437	-6.606995	-0.310860	-115.896708
8.700000	-0.377480	-138.348271	-40.103487	-8.033542	-40.103487	-8.033542	-0.315134	-116.469446
8.750000	-0.382575	-139.055903	-39.995887	-9.460089	-39.995887	-9.460089	-0.319409	-117.042185
8.800000	-0.387781	-139.764269	-39.888884	-10.883723	-39.888884	-10.883723	-0.323782	-117.613585
8.850000	-0.392991	-140.472635	-39.783184	-12.307358	-39.783184	-12.307358	-0.328158	-118.184986
8.900000	-0.398305	-141.181833	-39.678150	-13.728379	-39.678150	-13.728379	-0.332623	-118.755224
8.950000	-0.403631	-141.891106	-39.574316	-15.149163	-39.574316	-15.149163	-0.337099	-119.325356
9.000000	-0.409053	-142.601283	-39.471208	-16.567628	-39.471208	-16.567628	-0.341658	-119.894491
9.050000	-0.414496	-143.311640	-39.369211	-17.985630	-39.369211	-17.985630	-0.346235	-120.463425
9.100000	-0.420026	-144.022945	-39.267989	-19.401601	-39.267989	-19.401601	-0.350888	-121.031515
9.150000	-0.425588	-144.734565	-39.167799	-20.816895	-39.167799	-20.816895	-0.355568	-121.599324
9.200000	-0.431227	-145.447151	-39.068427	-22.230438	-39.068427	-22.230438	-0.360315	-122.166431
9.250000	-0.436907	-146.160220	-38.970019	-23.643105	-38.970019	-23.643105	-0.365097	-122.733186
9.300000	-0.442657	-146.874243	-38.872461	-25.054291	-38.872461	-25.054291	-0.369939	-123.299372
9.350000	-0.448456	-147.588947	-38.775811	-26.464419	-38.775811	-26.464419	-0.374824	-123.865149
9.400000	-0.454316	-148.304566	-38.680037	-27.873322	-38.680037	-27.873322	-0.379761	-124.430476
9.450000	-0.460235	-149.021098	-38.585123	-29.281002	-38.585123	-29.281002	-0.384750	-124.995352
9.500000	-0.466205	-149.738473	-38.491103	-30.687701	-38.491103	-30.687701	-0.389783	-125.559883
9.550000	-0.472245	-150.457030	-38.397907	-32.093028	-38.397907	-32.093028	-0.394875	-126.123934
9.600000	-0.478326	-151.176327	-38.305614	-33.497604	-38.305614	-33.497604	-0.400004	-126.687736
9.650000	-0.484486	-151.897108	-38.214121	-34.900680	-38.214121	-34.900680	-0.405201	-127.251041
9.700000	-0.490679	-152.618496	-38.123531	-36.303218	-38.123531	-36.303218	-0.410425	-127.814179
9.750000	-0.496960	-153.341706	-38.033726	-37.704145	-38.033726	-37.704145	-0.415726	-128.376818
9.800000	-0.503264	-154.065356	-37.944818	-39.104732	-37.944818	-39.104732	-0.421047	-128.939359
9.850000	-0.509665	-154.791204	-37.856693	-40.503617	-37.856693	-40.503617	-0.426452	-129.501414
9.900000	-0.516081	-155.517291	-37.769446	-41.902340	-37.769446	-41.902340	-0.431869	-130.063427
9.950000	-0.522603	-156.245992	-37.682993	-43.299289	-37.682993	-43.299289	-0.437378	-130.624982
10.000000	-0.529130	-156.974693	-37.597391	-44.696239	-37.597391	-44.696239	-0.442891	-131.186536
