! freq	dB(S11)	phase(S11)	dB(S12)	phase(S12)	
!     	dB(S21)	phase(S21)	dB(S22)	phase(S22)	
!S-par simulation data
#  GHz  S  DB  R 50
0.000000	0.000000	0.000000	-335.164746	0.000000	-335.164746	0.000000	0.000000	0.000000
0.050000	-0.000644	-0.815033	-100.230686	88.435168	-100.230686	88.435168	-0.002310	-2.711189
0.100000	-0.002148	-1.627452	-94.256088	86.661075	-94.256088	86.661075	-0.007342	-5.403414
0.150000	-0.003847	-2.436083	-90.793628	84.920196	-90.793628	84.920196	-0.012556	-8.077733
0.200000	-0.005364	-3.241398	-88.377882	83.213549	-88.377882	83.213549	-0.016999	-10.741809
0.250000	-0.006626	-4.044796	-86.543914	81.539481	-86.543914	81.539481	-0.020773	-13.401237
0.300000	-0.007663	-4.847134	-85.086429	79.902273	-85.086429	79.902273	-0.024091	-16.057682
0.350000	-0.008528	-5.648926	-83.898639	78.310015	-83.898639	78.310015	-0.027129	-18.711292
0.400000	-0.009280	-6.450455	-82.917386	76.772992	-82.917386	76.772992	-0.030018	-21.361505
0.450000	-0.009970	-7.251837	-82.097344	75.298228	-82.097344	75.298228	-0.032842	-24.007813
0.500000	-0.010630	-8.053089	-81.410579	73.896676	-81.410579	73.896676	-0.035645	-26.649531
0.550000	-0.011284	-8.854177	-80.842193	72.587927	-80.842193	72.587927	-0.038455	-29.285591
0.600000	-0.011953	-9.655049	-80.376258	71.387275	-80.376258	71.387275	-0.041292	-31.915439
0.650000	-0.012650	-10.455650	-80.000313	70.310115	-80.000313	70.310115	-0.044165	-34.538698
0.700000	-0.013385	-11.255904	-79.707537	69.381077	-79.707537	69.381077	-0.047076	-37.154779
0.750000	-0.014166	-12.055707	-79.496517	68.639300	-79.496517	68.639300	-0.050030	-39.762744
0.800000	-0.014994	-12.855031	-79.355005	68.097303	-79.355005	68.097303	-0.053021	-42.363078
0.850000	-0.015875	-13.653733	-79.288050	67.824422	-79.288050	67.824422	-0.056048	-44.954426
0.900000	-0.016808	-14.451740	-79.290733	67.872997	-79.290733	67.872997	-0.059106	-47.536655
0.950000	-0.017789	-15.248984	-79.358936	68.309455	-79.358936	68.309455	-0.062187	-50.109579
1.000000	-0.018815	-16.045394	-79.488383	69.221273	-79.488383	69.221273	-0.065286	-52.672928
1.050000	-0.019879	-16.840907	-79.672254	70.715934	-79.672254	70.715934	-0.068395	-55.226474
1.100000	-0.020976	-17.635473	-79.899146	72.921607	-79.899146	72.921607	-0.071508	-57.770024
1.150000	-0.022097	-18.429050	-80.150143	75.982060	-80.150143	75.982060	-0.074619	-60.303423
1.200000	-0.023237	-19.221609	-80.395162	80.039132	-80.395162	80.039132	-0.077721	-62.826552
1.250000	-0.024387	-20.013130	-80.589701	85.193614	-80.589701	85.193614	-0.080808	-65.339325
1.300000	-0.025542	-20.803587	-80.672449	91.452038	-80.672449	91.452038	-0.083876	-67.841542
1.350000	-0.026696	-21.592992	-80.579802	98.596485	-80.579802	98.596485	-0.086919	-70.333333
1.400000	-0.027845	-22.381345	-80.261633	106.207085	-80.261633	106.207085	-0.089934	-72.814713
1.450000	-0.028985	-23.168652	-79.703268	113.727080	-79.703268	113.727080	-0.092917	-75.285725
1.500000	-0.030114	-23.954917	-78.932233	120.633396	-78.932233	120.633396	-0.095866	-77.746444
1.550000	-0.031230	-24.740147	-78.004466	126.583611	-78.004466	126.583611	-0.098779	-80.196970
1.600000	-0.032333	-25.524346	-76.981981	131.452996	-76.981981	131.452996	-0.101654	-82.637431
1.650000	-0.033422	-26.307519	-75.916825	135.280205	-75.916825	135.280205	-0.104491	-85.067983
1.700000	-0.034497	-27.089631	-74.841832	138.164015	-74.841832	138.164015	-0.107289	-87.488495
1.750000	-0.035561	-27.870745	-73.786814	140.303714	-73.786814	140.303714	-0.110051	-89.899765
1.800000	-0.036613	-28.650826	-72.759422	141.809413	-72.759422	141.809413	-0.112775	-92.301738
1.850000	-0.037656	-29.429869	-71.764600	142.792151	-71.764600	142.792151	-0.115465	-94.694665
1.900000	-0.038690	-30.207853	-70.803242	143.330592	-70.803242	143.330592	-0.118121	-97.078724
1.950000	-0.039716	-30.984768	-69.876377	143.487025	-69.876377	143.487025	-0.120745	-99.454218
2.000000	-0.040737	-31.760613	-68.985788	143.315079	-68.985788	143.315079	-0.123341	-101.821556
2.050000	-0.041754	-32.535374	-68.132389	142.860804	-68.132389	142.860804	-0.125912	-104.181070
2.100000	-0.042768	-33.309038	-67.316397	142.169245	-67.316397	142.169245	-0.128460	-106.533111
2.150000	-0.043779	-34.081589	-66.537030	141.282286	-66.537030	141.282286	-0.130989	-108.878047
2.200000	-0.044790	-34.853011	-65.792648	140.236159	-65.792648	140.236159	-0.133503	-111.216262
2.250000	-0.045802	-35.623288	-65.081118	139.060432	-65.081118	139.060432	-0.136004	-113.548160
2.300000	-0.046814	-36.392404	-64.400137	137.778411	-64.400137	137.778411	-0.138498	-115.874157
2.350000	-0.047829	-37.160342	-63.747450	136.408209	-63.747450	136.408209	-0.140986	-118.194687
2.400000	-0.048846	-37.927086	-63.120961	134.963918	-63.120961	134.963918	-0.143474	-120.510197
2.450000	-0.049867	-38.692621	-62.518771	133.456614	-62.518771	133.456614	-0.145965	-122.821151
2.500000	-0.050892	-39.456929	-61.939180	131.895119	-61.939180	131.895119	-0.148462	-125.128024
2.550000	-0.051922	-40.219968	-61.380351	130.285685	-61.380351	130.285685	-0.150969	-127.431240
2.600000	-0.052958	-40.981749	-60.841309	128.635271	-60.841309	128.635271	-0.153490	-129.731392
2.650000	-0.053999	-41.742258	-60.320843	126.948688	-60.320843	126.948688	-0.156028	-132.028998
2.700000	-0.055046	-42.501479	-59.817867	125.229984	-59.817867	125.229984	-0.158587	-134.324587
2.750000	-0.056100	-43.259399	-59.331406	123.482594	-59.331406	123.482594	-0.161169	-136.618701
2.800000	-0.057161	-44.016004	-58.860578	121.709453	-58.860578	121.709453	-0.163777	-138.911893
2.850000	-0.058229	-44.771280	-58.404587	119.913090	-58.404587	119.913090	-0.166415	-141.204730
2.900000	-0.059305	-45.525217	-57.962709	118.095690	-57.962709	118.095690	-0.169085	-143.497788
2.950000	-0.060389	-46.277800	-57.534286	116.259154	-57.534286	116.259154	-0.171790	-145.791655
3.000000	-0.061481	-47.029019	-57.118717	114.405141	-57.118717	114.405141	-0.174532	-148.086930
3.050000	-0.062582	-47.778862	-56.715453	112.535105	-56.715453	112.535105	-0.177313	-150.384223
3.100000	-0.063692	-48.527319	-56.323991	110.650322	-56.323991	110.650322	-0.180136	-152.684155
3.150000	-0.064811	-49.274364	-55.943814	108.751782	-55.943814	108.751782	-0.183002	-154.987398
3.200000	-0.065939	-50.019987	-55.574515	106.840510	-55.574515	106.840510	-0.185914	-157.294616
3.250000	-0.067078	-50.764194	-55.215769	104.917531	-55.215769	104.917531	-0.188873	-159.606423
3.300000	-0.068226	-51.506976	-54.867218	102.983625	-54.867218	102.983625	-0.191880	-161.923481
3.350000	-0.069386	-52.248284	-54.528437	101.039207	-54.528437	101.039207	-0.194937	-164.246650
3.400000	-0.070555	-52.988257	-54.199452	99.085875	-54.199452	99.085875	-0.198042	-166.575916
3.450000	-0.071736	-53.726663	-53.879521	97.122747	-53.879521	97.122747	-0.201202	-168.913067
3.500000	-0.072928	-54.463692	-53.568755	95.151527	-53.568755	95.151527	-0.204411	-171.257778
3.550000	-0.074131	-55.199223	-53.266744	93.172023	-53.266744	93.172023	-0.207675	-173.611389
3.600000	-0.075347	-55.933280	-52.973316	91.184802	-52.973316	91.184802	-0.210992	-175.974438
3.650000	-0.076575	-56.665914	-52.688328	89.190530	-52.688328	89.190530	-0.214361	-178.347261
3.700000	-0.077816	-57.396976	-52.411510	87.188869	-52.411510	87.188869	-0.217788	179.268398
3.750000	-0.079069	-58.126691	-52.142800	85.181186	-52.142800	85.181186	-0.221264	176.873560
3.800000	-0.080338	-58.854739	-51.882000	83.166416	-51.882000	83.166416	-0.224801	174.464927
3.850000	-0.081618	-59.581433	-51.628991	81.146169	-51.628991	81.146169	-0.228388	172.044431
3.900000	-0.082914	-60.306537	-51.383711	79.119798	-51.383711	79.119798	-0.232031	169.609272
3.950000	-0.084224	-61.030193	-51.145998	77.088115	-51.145998	77.088115	-0.235727	167.160068
4.000000	-0.085549	-61.752341	-50.915806	75.051170	-50.915806	75.051170	-0.239476	164.695504
4.050000	-0.086889	-62.473014	-50.693014	73.009329	-50.693014	73.009329	-0.243276	162.215256
4.100000	-0.088245	-63.192145	-50.477648	70.962650	-50.477648	70.962650	-0.247130	159.717849
4.150000	-0.089617	-63.909769	-50.269626	68.911519	-50.269626	68.911519	-0.251035	157.202934
4.200000	-0.091006	-64.625870	-50.068943	66.856175	-50.068943	66.856175	-0.254990	154.669593
4.250000	-0.092412	-65.340454	-49.875575	64.796936	-49.875575	64.796936	-0.258995	152.117169
4.300000	-0.093836	-66.053527	-49.689505	62.734133	-49.689505	62.734133	-0.263048	149.545030
4.350000	-0.095277	-66.765090	-49.510737	60.668100	-49.510737	60.668100	-0.267147	146.952464
4.400000	-0.096737	-67.475143	-49.339291	58.599198	-49.339291	58.599198	-0.271292	144.338772
4.450000	-0.098216	-68.183656	-49.175286	56.527784	-49.175286	56.527784	-0.275481	141.702832
4.500000	-0.099714	-68.890646	-49.018729	54.454323	-49.018729	54.454323	-0.279713	139.044170
4.550000	-0.101231	-69.596237	-48.869278	52.379406	-48.869278	52.379406	-0.283982	136.364058
4.600000	-0.102770	-70.300169	-48.727865	50.303347	-48.727865	50.303347	-0.288293	133.657773
4.650000	-0.104327	-71.002734	-48.593561	48.226882	-48.593561	48.226882	-0.292637	130.929355
4.700000	-0.105907	-71.703673	-48.467429	46.150638	-48.467429	46.150638	-0.297017	128.173942
4.750000	-0.107507	-72.403192	-48.348780	44.075268	-48.348780	44.075268	-0.301428	125.394396
4.800000	-0.109130	-73.101177	-48.238214	42.001673	-48.238214	42.001673	-0.305869	122.588226
4.850000	-0.110775	-73.797661	-48.135732	39.930703	-48.135732	39.930703	-0.310337	119.755470
4.900000	-0.112442	-74.492726	-48.041103	37.863154	-48.041103	37.863154	-0.314827	116.897132
4.950000	-0.114133	-75.186246	-47.955101	35.800452	-47.955101	35.800452	-0.319340	114.010493
5.000000	-0.115847	-75.878284	-47.877622	33.743692	-47.877622	33.743692	-0.323872	111.096261
5.050000	-0.117586	-76.568816	-47.808999	31.694403	-47.808999	31.694403	-0.328419	108.153656
5.100000	-0.119350	-77.257874	-47.749287	29.654012	-47.749287	29.654012	-0.332979	105.182964
5.150000	-0.121138	-77.945463	-47.698690	27.624223	-47.698690	27.624223	-0.337548	102.184037
5.200000	-0.122952	-78.631589	-47.657424	25.606934	-47.657424	25.606934	-0.342123	99.156793
5.250000	-0.124792	-79.316257	-47.625717	23.604254	-47.625717	23.604254	-0.346702	96.101221
5.300000	-0.126658	-79.999474	-47.603805	21.618527	-47.603805	21.618527	-0.351281	93.017383
5.350000	-0.128550	-80.681244	-47.591935	19.652361	-47.591935	19.652361	-0.355857	89.905419
5.400000	-0.130470	-81.361576	-47.590359	17.708654	-47.590359	17.708654	-0.360428	86.765552
5.450000	-0.132417	-82.040475	-47.599338	15.790624	-47.599338	15.790624	-0.364990	83.598087
5.500000	-0.134392	-82.717949	-47.619132	13.901850	-47.619132	13.901850	-0.369541	80.403415
5.550000	-0.136395	-83.394006	-47.650005	12.046309	-47.650005	12.046309	-0.374079	77.182018
5.600000	-0.138427	-84.068653	-47.692214	10.228419	-47.692214	10.228419	-0.378601	73.934466
5.650000	-0.140488	-84.741883	-47.746134	8.453614	-47.746134	8.453614	-0.383106	70.661153
5.700000	-0.142579	-85.413704	-47.812001	6.727556	-47.812001	6.727556	-0.387592	67.362863
5.750000	-0.144700	-86.084141	-47.889900	5.055892	-47.889900	5.055892	-0.392058	64.040723
5.800000	-0.146851	-86.753203	-47.980005	3.445405	-47.980005	3.445405	-0.396503	60.695677
5.850000	-0.149032	-87.420899	-48.082444	1.903625	-48.082444	1.903625	-0.400928	57.328753
5.900000	-0.151245	-88.087238	-48.197280	0.438906	-48.197280	0.438906	-0.405332	53.941069
5.950000	-0.153489	-88.752231	-48.324495	-0.939506	-48.324495	-0.939506	-0.409718	50.533822
6.000000	-0.155764	-89.415887	-48.463963	-2.221391	-48.463963	-2.221391	-0.414086	47.108287
6.050000	-0.158072	-90.078217	-48.615414	-3.395497	-48.615414	-3.395497	-0.418438	43.665813
6.100000	-0.160412	-90.739232	-48.778400	-4.449491	-48.778400	-4.449491	-0.422779	40.207814
6.150000	-0.162785	-91.398943	-48.952246	-5.369935	-48.952246	-5.369935	-0.427111	36.735763
6.200000	-0.165192	-92.057361	-49.135988	-6.142325	-49.135988	-6.142325	-0.431439	33.251188
6.250000	-0.167631	-92.714498	-49.328307	-6.751194	-49.328307	-6.751194	-0.435769	29.755657
6.300000	-0.170105	-93.370339	-49.527440	-7.176035	-49.527440	-7.176035	-0.440105	26.250612
6.350000	-0.172614	-94.024923	-49.730973	-7.403810	-49.730973	-7.403810	-0.444455	22.737922
6.400000	-0.175156	-94.678283	-49.936067	-7.421918	-49.936067	-7.421918	-0.448825	19.219311
6.450000	-0.177734	-95.330398	-50.138990	-7.209387	-50.138990	-7.209387	-0.453225	15.696270
6.500000	-0.180347	-95.981296	-50.335344	-6.755699	-50.335344	-6.755699	-0.457662	12.170516
6.550000	-0.182996	-96.630989	-50.519897	-6.051955	-50.519897	-6.051955	-0.462146	8.643683
6.600000	-0.185680	-97.279481	-50.686432	-5.093005	-50.686432	-5.093005	-0.466687	5.117399
6.650000	-0.188402	-97.926793	-50.828369	-3.885196	-50.828369	-3.885196	-0.471294	1.593257
6.700000	-0.191160	-98.572943	-50.938824	-2.444100	-50.938824	-2.444100	-0.475980	-1.927215
6.750000	-0.193954	-99.217945	-51.010965	-0.795895	-51.010965	-0.795895	-0.480753	-5.442541
6.800000	-0.196787	-99.861814	-51.038609	1.021497	-51.038609	1.021497	-0.485627	-8.951306
6.850000	-0.199657	-100.504565	-51.016820	2.959372	-51.016820	2.959372	-0.490611	-12.452168
6.900000	-0.202565	-101.146207	-50.942160	4.960799	-50.942160	4.960799	-0.495720	-15.943801
6.950000	-0.205512	-101.786757	-50.813653	6.963528	-50.813653	6.963528	-0.500964	-19.425006
7.000000	-0.208499	-102.426221	-50.632220	8.905159	-50.632220	8.905159	-0.506358	-22.894572
7.050000	-0.211524	-103.064640	-50.402543	10.731784	-50.402543	10.731784	-0.511910	-26.351755
7.100000	-0.214589	-103.702020	-50.129316	12.396874	-50.129316	12.396874	-0.517632	-29.795566
7.150000	-0.217694	-104.338379	-49.818767	13.865387	-49.818767	13.865387	-0.523537	-33.225214
7.200000	-0.220840	-104.973733	-49.477622	15.113906	-49.477622	15.113906	-0.529637	-36.640008
7.250000	-0.224026	-105.608100	-49.112590	16.129889	-49.112590	16.129889	-0.535941	-40.039368
7.300000	-0.227254	-106.241496	-48.729971	16.910058	-48.729971	16.910058	-0.542463	-43.422817
7.350000	-0.230523	-106.873940	-48.335414	17.458414	-48.335414	17.458414	-0.549211	-46.789989
7.400000	-0.233834	-107.505449	-47.933798	17.784222	-47.933798	17.784222	-0.556198	-50.140625
7.450000	-0.237188	-108.136041	-47.529200	17.900225	-47.529200	17.900225	-0.563432	-53.474572
7.500000	-0.240585	-108.765735	-47.124945	17.821166	-47.124945	17.821166	-0.570925	-56.791782
7.550000	-0.244026	-109.394530	-46.723385	17.559130	-46.723385	17.559130	-0.578690	-60.091954
7.600000	-0.247511	-110.022464	-46.326948	17.134035	-46.326948	17.134035	-0.586733	-63.375616
7.650000	-0.251040	-110.649556	-45.937165	16.561037	-45.937165	16.561037	-0.595061	-66.643034
7.700000	-0.254615	-111.275824	-45.555161	15.854458	-45.555161	15.854458	-0.603683	-69.894569
7.750000	-0.258234	-111.901289	-45.181732	15.027604	-45.181732	15.027604	-0.612608	-73.130675
7.800000	-0.261899	-112.525970	-44.817414	14.092687	-44.817414	14.092687	-0.621842	-76.351899
7.850000	-0.265611	-113.149885	-44.462535	13.060815	-44.462535	13.060815	-0.631394	-79.558874
7.900000	-0.269369	-113.773054	-44.117264	11.942015	-44.117264	11.942015	-0.641270	-82.752317
7.950000	-0.273175	-114.395498	-43.781646	10.745295	-43.781646	10.745295	-0.651477	-85.933031
8.000000	-0.277028	-115.017235	-43.455628	9.478709	-43.455628	9.478709	-0.662022	-89.101893
8.050000	-0.280930	-115.638287	-43.139091	8.149433	-43.139091	8.149433	-0.672911	-92.259859
8.100000	-0.284880	-116.258671	-42.831859	6.763835	-42.831859	6.763835	-0.684149	-95.407960
8.150000	-0.288880	-116.878404	-42.533708	5.327048	-42.533708	5.327048	-0.695746	-98.547213
8.200000	-0.292930	-117.497504	-42.244406	3.844169	-42.244406	3.844169	-0.707706	-101.678831
8.250000	-0.297030	-118.115999	-41.963706	2.320033	-41.963706	2.320033	-0.720031	-104.804151
8.300000	-0.301181	-118.733910	-41.691332	0.758349	-41.691332	0.758349	-0.732725	-107.924479
8.350000	-0.305382	-119.351273	-41.427002	-0.836802	-41.427002	-0.836802	-0.745781	-111.041252
8.400000	-0.309635	-119.968074	-41.170419	-2.464803	-41.170419	-2.464803	-0.759223	-114.155726
8.450000	-0.313941	-120.584351	-40.921301	-4.122418	-40.921301	-4.122418	-0.773041	-117.269521
8.500000	-0.318299	-121.200126	-40.679357	-5.808076	-40.679357	-5.808076	-0.787236	-120.384200
8.550000	-0.322711	-121.815417	-40.444295	-7.520772	-40.444295	-7.520772	-0.801808	-123.501388
8.600000	-0.327176	-122.430244	-40.215825	-9.260131	-40.215825	-9.260131	-0.816752	-126.622782
8.650000	-0.331696	-123.044625	-39.993660	-11.026506	-39.993660	-11.026506	-0.832065	-129.750148
8.700000	-0.336270	-123.658578	-39.777513	-12.821136	-39.777513	-12.821136	-0.847735	-132.885334
8.750000	-0.340902	-124.272118	-39.567104	-14.646379	-39.567104	-14.646379	-0.863750	-136.030280
8.800000	-0.345591	-124.885252	-39.362171	-16.506655	-39.362171	-16.506655	-0.880094	-139.187244
8.850000	-0.350339	-125.497991	-39.162455	-18.407498	-39.162455	-18.407498	-0.896733	-142.358289
8.900000	-0.355150	-126.110326	-38.967775	-20.359473	-38.967775	-20.359473	-0.913629	-145.546311
8.950000	-0.360022	-126.722271	-38.777977	-22.371169	-38.777977	-22.371169	-0.930714	-148.752546
9.000000	-0.364962	-127.333758	-38.593223	-24.467744	-38.593223	-24.467744	-0.947922	-151.981674
9.050000	-0.369974	-127.944715	-38.414136	-26.681258	-38.414136	-26.681258	-0.965138	-155.237476
9.100000	-0.375059	-128.555022	-38.242285	-29.056036	-38.242285	-29.056036	-0.982234	-158.523968
9.150000	-0.380216	-129.164439	-38.081367	-31.666023	-38.081367	-31.666023	-0.999087	-161.847875
9.200000	-0.385439	-129.772362	-37.943220	-34.677726	-37.943220	-34.677726	-1.015659	-165.224679
9.250000	-0.390656	-130.377867	-37.856333	-38.323537	-37.856333	-38.323537	-1.032619	-168.673318
9.300000	-0.395583	-130.978937	-37.918520	-43.073902	-37.918520	-43.073902	-1.053898	-172.238952
9.350000	-0.399184	-131.574264	-38.436584	-49.160661	-38.436584	-49.160661	-1.096026	-175.971601
9.400000	-0.399365	-132.178283	-40.151494	-51.951537	-40.151494	-51.951537	-1.203714	-179.703529
9.450000	-0.400560	-132.821275	-41.241820	-37.817446	-41.241820	-37.817446	-1.329957	177.237190
9.500000	-0.407040	-133.461532	-39.809573	-30.097974	-39.809573	-30.097974	-1.358118	174.308546
9.550000	-0.414310	-134.084638	-38.731937	-31.069155	-38.731937	-31.069155	-1.356431	171.029652
9.600000	-0.421090	-134.701105	-38.114700	-33.524414	-38.114700	-33.524414	-1.360967	167.550401
9.650000	-0.427492	-135.315661	-37.719364	-36.005440	-37.719364	-36.005440	-1.373689	163.968285
9.700000	-0.433693	-135.929865	-37.432949	-38.316380	-37.432949	-38.316380	-1.392243	160.319169
9.750000	-0.439799	-136.544255	-37.206719	-40.463796	-37.206719	-40.463796	-1.414905	156.615021
9.800000	-0.445874	-137.159050	-37.016984	-42.479579	-37.016984	-42.479579	-1.440605	152.860093
9.850000	-0.451959	-137.774356	-36.851169	-44.391943	-36.851169	-44.391943	-1.468688	149.055797
9.900000	-0.458078	-138.390237	-36.702077	-46.222048	-36.702077	-46.222048	-1.498744	145.202494
9.950000	-0.464250	-139.006735	-36.565315	-47.985189	-36.565315	-47.985189	-1.530506	141.300216
10.000000	-0.470490	-139.623887	-36.438052	-49.692389	-36.438052	-49.692389	-1.563791	137.348992
