! freq	dB(S11)	phase(S11)	dB(S12)	phase(S12)	
!     	dB(S21)	phase(S21)	dB(S22)	phase(S22)	
!S-par simulation data
#  GHz  S  DB  R 50
0.000000	-81.048268	0.000000	-0.000770	0.000000	-0.000770	0.000000	-81.048268	0.000000
0.050000	-36.788804	-92.302748	-0.008592	-3.411678	-0.008592	-3.411678	-36.787653	-92.134565
0.100000	-30.794977	-96.335120	-0.017162	-6.788753	-0.017162	-6.788753	-30.793592	-96.001723
0.150000	-27.323382	-100.058988	-0.027323	-10.145145	-0.027323	-10.145145	-27.321862	-99.559706
0.200000	-24.879759	-103.680323	-0.038142	-13.490707	-0.038142	-13.490707	-24.878147	-103.014660
0.250000	-23.004345	-107.233718	-0.050177	-16.829293	-0.050177	-16.829293	-23.002682	-106.401079
0.300000	-21.491184	-110.742830	-0.063671	-20.159764	-0.063671	-20.159764	-21.489502	-109.742462
0.350000	-20.229923	-114.221189	-0.078399	-23.481463	-0.078399	-23.481463	-20.228249	-113.052196
0.400000	-19.155602	-117.675883	-0.094180	-26.794385	-0.094180	-26.794385	-19.153955	-116.337197
0.450000	-18.228952	-121.109998	-0.110944	-30.098004	-0.110944	-30.098004	-18.227348	-119.600253
0.500000	-17.419118	-124.527836	-0.128497	-33.393053	-0.128497	-33.393053	-17.417566	-122.845560
0.550000	-16.705483	-127.931136	-0.146710	-36.679575	-0.146710	-36.679575	-16.703991	-126.074679
0.600000	-16.073645	-131.320753	-0.165452	-39.957341	-0.165452	-39.957341	-16.072218	-129.288223
0.650000	-15.513602	-134.697051	-0.184559	-43.225936	-0.184559	-43.225936	-15.512244	-132.486211
0.700000	-15.014400	-138.061725	-0.203823	-46.486069	-0.203823	-46.486069	-15.013115	-135.670245
0.750000	-14.569012	-141.415502	-0.223062	-49.737926	-0.223062	-49.737926	-14.567800	-138.840815
0.800000	-14.173236	-144.758661	-0.242067	-52.981384	-0.242067	-52.981384	-14.172098	-141.997781
0.850000	-13.821884	-148.092355	-0.260632	-56.217041	-0.260632	-56.217041	-13.820821	-145.142046
0.900000	-13.510801	-151.417683	-0.278572	-59.445505	-0.278572	-59.445505	-13.509811	-148.274434
0.950000	-13.237032	-154.735670	-0.295702	-62.667345	-0.295702	-62.667345	-13.236116	-151.395611
1.000000	-12.997997	-158.047495	-0.311853	-65.883280	-0.311853	-65.883280	-12.997154	-154.506381
1.050000	-12.792727	-161.354304	-0.326819	-69.093975	-0.326819	-69.093975	-12.791955	-157.607257
1.100000	-12.616838	-164.657812	-0.340596	-72.300782	-0.340596	-72.300782	-12.616136	-160.700006
1.150000	-12.470363	-167.959232	-0.353006	-75.504498	-0.353006	-75.504498	-12.469728	-163.785095
1.200000	-12.352153	-171.260103	-0.363957	-78.706292	-0.363957	-78.706292	-12.351582	-166.863526
1.250000	-12.261311	-174.562036	-0.373375	-81.907436	-0.373375	-81.907436	-12.260800	-169.936312
1.300000	-12.198298	-177.866911	-0.381134	-85.109388	-0.381134	-85.109388	-12.197842	-173.004316
1.350000	-12.161536	178.823571	-0.387264	-88.313613	-0.387264	-88.313613	-12.161127	-176.068767
1.400000	-12.150783	175.507617	-0.391747	-91.521593	-0.391747	-91.521593	-12.150414	-179.130607
1.450000	-12.165996	172.183389	-0.394581	-94.734838	-0.394581	-94.734838	-12.165655	177.809299
1.500000	-12.207327	168.849009	-0.395783	-97.954869	-0.395783	-97.954869	-12.207001	174.750182
1.550000	-12.275126	165.502568	-0.395388	-101.183199	-0.395388	-101.183199	-12.274798	171.691407
1.600000	-12.369945	162.142124	-0.393449	-104.421318	-0.393449	-104.421318	-12.369595	168.632502
1.650000	-12.492553	158.765699	-0.390037	-107.670679	-0.390037	-107.670679	-12.492154	165.573205
1.700000	-12.641317	155.373206	-0.385369	-110.931333	-0.385369	-110.931333	-12.640839	162.513532
1.750000	-12.822428	151.959178	-0.379298	-114.207020	-0.379298	-114.207020	-12.821828	159.453679
1.800000	-13.035102	148.523016	-0.372070	-117.497926	-0.372070	-117.497926	-13.034326	156.394359
1.850000	-13.281192	145.062501	-0.363823	-120.805224	-0.363823	-120.805224	-13.280172	153.336710
1.900000	-13.563226	141.574967	-0.354705	-124.130185	-0.354705	-124.130185	-13.561875	150.282521
1.950000	-13.883879	138.057782	-0.344887	-127.473795	-0.344887	-127.473795	-13.882080	147.234356
2.000000	-14.246041	134.508402	-0.334559	-130.836690	-0.334559	-130.836690	-14.243644	144.195628
2.050000	-14.653551	130.923588	-0.323908	-134.219559	-0.323908	-134.219559	-14.650352	141.171003
2.100000	-15.111052	127.299510	-0.313129	-137.622954	-0.313129	-137.622954	-15.106775	138.166742
2.150000	-15.624211	123.631477	-0.302421	-141.047275	-0.302421	-141.047275	-15.618478	135.191253
2.200000	-16.200027	119.913526	-0.291984	-144.492771	-0.291984	-144.492771	-16.192306	132.255900
2.250000	-16.847268	116.137797	-0.282013	-147.959537	-0.282013	-147.959537	-16.836795	129.376229
2.300000	-17.577113	112.293527	-0.272703	-151.447514	-0.272703	-151.447514	-17.562766	126.573905
2.350000	-18.404126	108.365413	-0.264237	-154.956492	-0.264237	-154.956492	-18.384203	123.879865
2.400000	-19.347785	104.330783	-0.256785	-158.486120	-0.256785	-158.486120	-19.319605	121.339693
2.450000	-20.434982	100.154475	-0.250504	-162.035910	-0.250504	-162.035910	-20.394129	119.023251
2.500000	-21.704360	95.778946	-0.245532	-165.605258	-0.245532	-165.605258	-21.643135	117.042990
2.550000	-23.214619	91.092618	-0.242015	-169.193848	-0.242015	-169.193848	-23.118312	115.611049
2.600000	-25.059377	85.894676	-0.240015	-172.800458	-0.240015	-172.800458	-24.897381	115.098880
2.650000	-27.404663	79.724540	-0.239590	-176.424241	-0.239590	-176.424241	-27.103199	116.309882
2.700000	-30.580988	71.299328	-0.240773	179.935681	-0.240773	179.935681	-29.921458	121.226047
2.750000	-35.331970	55.417816	-0.243563	176.280179	-0.243563	176.280179	-33.464406	135.500304
2.800000	-41.427809	2.256080	-0.247926	172.610092	-0.247926	172.610092	-36.221924	169.895911
2.850000	-37.566708	-68.371140	-0.253798	168.926184	-0.253798	168.926184	-34.481194	-151.441800
2.900000	-32.214994	-90.750326	-0.261081	165.229118	-0.261081	165.229118	-31.013880	-133.314553
2.950000	-28.806027	-100.676309	-0.269646	161.519410	-0.269646	161.519410	-28.187183	-126.947350
3.000000	-26.411666	-107.461132	-0.279336	157.797399	-0.279336	157.797399	-26.026352	-125.147651
3.050000	-24.606357	-113.029387	-0.289965	154.063208	-0.289965	154.063208	-24.336474	-125.397341
3.100000	-23.186942	-118.007730	-0.301326	150.316708	-0.301326	150.316708	-22.982445	-126.715341
3.150000	-22.044246	-122.657929	-0.313193	146.557340	-0.313193	146.557340	-21.880254	-128.658074
3.200000	-21.112859	-127.112933	-0.325313	142.784333	-0.325313	142.784333	-20.975571	-130.990130
3.250000	-20.350544	-131.446562	-0.337429	138.996719	-0.337429	138.996719	-20.231614	-133.577537
3.300000	-19.730240	-135.702032	-0.349284	135.193010	-0.349284	135.193010	-19.624195	-136.341476
3.350000	-19.232354	-139.908414	-0.360638	131.371676	-0.360638	131.371676	-19.135386	-139.228392
3.400000	-18.848475	-144.084522	-0.371226	127.529695	-0.371226	127.529695	-18.757641	-142.205496
3.450000	-18.570248	-148.246343	-0.380832	123.664564	-0.380832	123.664564	-18.483172	-145.243214
3.500000	-18.394051	-152.406203	-0.389267	119.773163	-0.389267	119.773163	-18.308613	-148.318189
3.550000	-18.326557	-156.575326	-0.396293	115.849809	-0.396293	115.849809	-18.240512	-151.409184
3.600000	-18.363518	-160.762184	-0.401920	111.892822	-0.401920	111.892822	-18.274555	-154.492276
3.650000	-18.512940	-164.974936	-0.406111	107.897792	-0.406111	107.897792	-18.418217	-157.541737
3.700000	-18.785890	-169.221000	-0.408916	103.860605	-0.408916	103.860605	-18.681657	-160.524976
3.750000	-19.218125	-173.513738	-0.410304	99.770278	-0.410304	99.770278	-19.098285	-163.376543
3.800000	-19.834775	-177.860410	-0.410607	95.623367	-0.410607	95.623367	-19.689864	-166.012746
3.850000	-20.685269	177.729163	-0.410200	91.413939	-0.410200	91.413939	-20.498795	-168.287612
3.900000	-21.862117	173.239348	-0.409595	87.132448	-0.409595	87.132448	-21.600893	-169.897008
3.950000	-23.505708	168.656667	-0.409477	82.775591	-0.409477	82.775591	-23.097538	-170.318790
4.000000	-25.952309	163.937514	-0.410823	78.330237	-0.410823	78.330237	-25.187946	-167.995692
4.050000	-30.018898	158.981018	-0.414654	73.794362	-0.414654	73.794362	-28.114833	-159.170023
4.100000	-39.937419	151.802637	-0.422465	69.157050	-0.422465	69.157050	-31.334389	-131.721856
4.150000	-36.998498	-28.270704	-0.435854	64.413122	-0.435854	64.413122	-30.334256	-87.068286
4.200000	-27.735729	-34.557600	-0.456691	59.557797	-0.456691	59.557797	-26.007978	-63.863208
4.250000	-23.005474	-39.915662	-0.487281	54.585216	-0.487281	54.585216	-22.246987	-57.043481
4.300000	-19.723006	-45.269477	-0.530224	49.492304	-0.530224	49.492304	-19.290123	-56.128131
4.350000	-17.175774	-50.702997	-0.588328	44.279004	-0.588328	44.279004	-16.888696	-57.730915
4.400000	-15.083959	-56.235709	-0.664418	38.949327	-0.664418	38.949327	-14.874490	-60.636460
4.450000	-13.306769	-61.871607	-0.761768	33.508504	-0.761768	33.508504	-13.143515	-64.333772
4.500000	-11.766654	-67.604008	-0.883208	27.968010	-0.883208	27.968010	-11.633249	-68.547735
4.550000	-10.414778	-73.421547	-1.031636	22.341946	-1.031636	22.341946	-10.301840	-73.124971
4.600000	-9.218961	-79.308432	-1.209875	16.647960	-1.209875	16.647960	-9.120717	-77.965769
4.650000	-8.157243	-85.244175	-1.420317	10.907934	-1.420317	10.907934	-8.069944	-82.995819
4.700000	-7.213557	-91.204247	-1.664103	5.147408	-1.664103	5.147408	-7.134659	-88.152727
4.750000	-6.375105	-97.163163	-1.942096	-0.607296	-1.942096	-0.607296	-6.302813	-93.386765
4.800000	-5.631516	-103.094454	-2.254503	-6.328996	-2.254503	-6.328996	-5.564520	-98.654334
4.850000	-4.974885	-108.969590	-2.601234	-11.988370	-2.601234	-11.988370	-4.912200	-103.915377
4.900000	-4.395197	-114.768086	-2.979730	-17.564813	-2.979730	-17.564813	-4.336077	-109.137273
4.950000	-3.885575	-120.467467	-3.388565	-23.035295	-3.388565	-23.035295	-3.829435	-114.291424
5.000000	-3.438942	-126.049964	-3.825389	-28.381672	-3.825389	-28.381672	-3.385321	-119.354441
5.050000	-3.049851	-131.496798	-4.287456	-33.584530	-4.287456	-33.584530	-2.998374	-124.303701
5.100000	-2.710737	-136.802416	-4.771761	-38.638199	-4.771761	-38.638199	-2.661112	-129.129271
5.150000	-2.415781	-141.960906	-5.275545	-43.536368	-5.275545	-43.536368	-2.367769	-133.822365
5.200000	-2.161507	-146.959431	-5.794911	-48.265103	-5.794911	-48.265103	-2.114913	-138.368455
5.250000	-1.939579	-151.816590	-6.329322	-52.843580	-6.329322	-52.843580	-1.894255	-142.782819
5.300000	-1.747184	-156.527392	-6.875879	-57.265758	-6.875879	-57.265758	-1.703007	-147.059395
5.350000	-1.580449	-161.096441	-7.432715	-61.535566	-7.432715	-61.535566	-1.537319	-151.201357
5.400000	-1.435951	-165.529703	-7.998269	-65.658201	-7.998269	-65.658201	-1.393790	-155.213436
5.450000	-1.310689	-169.834098	-8.571286	-69.639705	-8.571286	-69.639705	-1.269433	-159.101478
5.500000	-1.202045	-174.017155	-9.150815	-73.486613	-9.150815	-73.486613	-1.161640	-162.872073
5.550000	-1.107742	-178.086733	-9.736194	-77.205658	-9.736194	-77.205658	-1.068147	-166.532253
5.600000	-1.025815	177.949196	-10.327042	-80.803534	-10.327042	-80.803534	-0.986993	-170.089257
5.650000	-0.954864	174.085800	-10.922014	-84.282975	-10.922014	-84.282975	-0.916784	-173.547303
5.700000	-0.893320	170.314602	-11.521201	-87.650618	-11.521201	-87.650618	-0.855954	-176.914238
5.750000	-0.839616	166.624820	-12.126243	-90.915893	-12.126243	-90.915893	-0.802940	179.799723
5.800000	-0.792701	163.009324	-12.737818	-94.083674	-12.737818	-94.083674	-0.756692	176.587906
5.850000	-0.751671	159.461330	-13.356859	-97.158117	-13.356859	-97.158117	-0.716308	173.443933
5.900000	-0.715755	155.974409	-13.984573	-100.142560	-13.984573	-100.142560	-0.681016	170.361738
5.950000	-0.684290	152.542490	-14.622461	-103.039392	-14.622461	-103.039392	-0.650156	167.335569
6.000000	-0.656710	149.159852	-15.272361	-105.849907	-15.272361	-105.849907	-0.623161	164.359987
6.050000	-0.632531	145.821119	-15.936492	-108.574094	-15.936492	-108.574094	-0.599550	161.429853
6.100000	-0.611339	142.521241	-16.617531	-111.210356	-16.617531	-111.210356	-0.578909	158.540317
6.150000	-0.592782	139.255477	-17.318701	-113.755116	-17.318701	-113.755116	-0.560888	155.686800
6.200000	-0.576561	136.019385	-18.043900	-116.202253	-18.043900	-116.202253	-0.545189	152.864978
6.250000	-0.562422	132.808799	-18.797870	-118.542291	-18.797870	-118.542291	-0.531562	150.070765
6.300000	-0.550268	129.621055	-19.584112	-120.751444	-19.584112	-120.751444	-0.519913	147.301679
6.350000	-0.539787	126.450820	-20.412144	-122.815293	-20.412144	-122.815293	-0.509934	144.552224
6.400000	-0.530839	123.294715	-21.290964	-124.701909	-21.290964	-124.701909	-0.501489	141.818957
6.450000	-0.523309	120.149582	-22.231974	-126.364279	-22.231974	-126.364279	-0.494468	139.098604
6.500000	-0.517108	117.012471	-23.249795	-127.731898	-23.249795	-127.731898	-0.488789	136.388049
6.550000	-0.512167	113.880636	-24.363382	-128.696219	-24.363382	-128.696219	-0.484390	133.684325
6.600000	-0.508441	110.751521	-25.597408	-129.084363	-25.597408	-129.084363	-0.481234	130.984598
6.650000	-0.505900	107.622758	-26.983558	-128.609416	-26.983558	-128.609416	-0.479300	128.286163
6.700000	-0.508064	104.460580	-28.505433	-127.711732	-28.505433	-127.711732	-0.482172	125.591761
6.750000	-0.512172	101.276731	-30.261838	-125.237554	-30.261838	-125.237554	-0.486880	122.887764
6.800000	-0.516139	98.081350	-32.330399	-119.025062	-32.330399	-119.025062	-0.491232	120.163622
6.850000	-0.520196	94.868339	-34.540671	-105.876970	-34.540671	-105.876970	-0.495487	117.415261
6.900000	-0.524590	91.631188	-36.011040	-83.495178	-36.011040	-83.495178	-0.499918	114.638065
6.950000	-0.529594	88.362840	-35.465596	-57.685630	-35.465596	-57.685630	-0.504821	111.826766
7.000000	-0.535518	85.055522	-33.272088	-38.426385	-33.272088	-38.426385	-0.510522	108.975308
7.050000	-0.542725	81.700545	-30.771487	-28.287443	-30.771487	-28.287443	-0.517391	106.076676
7.100000	-0.551649	78.288044	-28.513299	-23.774209	-28.513299	-23.774209	-0.525861	103.122672
7.150000	-0.562819	74.806653	-26.544321	-22.251763	-26.544321	-22.251763	-0.536455	100.103631
7.200000	-0.576903	71.243090	-24.808196	-22.419714	-24.808196	-22.419714	-0.549813	97.008051
7.250000	-0.594753	67.581611	-23.245496	-23.642247	-23.245496	-23.642247	-0.566751	93.822111
7.300000	-0.617186	63.809799	-21.814873	-25.571664	-21.814873	-25.571664	-0.588040	90.534955
7.350000	-0.646288	59.891099	-20.465977	-28.089809	-20.465977	-28.089809	-0.615652	87.113636
7.400000	-0.683817	55.803724	-19.177510	-31.080637	-19.177510	-31.080637	-0.651238	83.538662
7.450000	-0.732613	51.512117	-17.926236	-34.515492	-17.926236	-34.515492	-0.697467	79.777918
7.500000	-0.796716	46.971439	-16.692813	-38.404013	-16.692813	-38.404013	-0.758143	75.790792
7.550000	-0.882790	42.114341	-15.455564	-42.804182	-15.455564	-42.804182	-0.839551	71.516179
7.600000	-0.999307	36.874736	-14.205309	-47.780182	-14.205309	-47.780182	-0.949699	66.894128
7.650000	-1.159926	31.158186	-12.930464	-53.447552	-12.930464	-53.447552	-1.101532	61.839092
7.700000	-1.386005	24.845425	-11.623093	-59.967359	-11.623093	-59.967359	-1.315332	56.243515
7.750000	-1.711666	17.791417	-10.281357	-67.555483	-10.281357	-67.555483	-1.623564	49.977990
7.800000	-2.191935	9.838378	-8.914587	-76.484859	-8.914587	-76.484859	-2.078628	42.905532
7.850000	-2.924305	0.827998	-7.545267	-87.130068	-7.545267	-87.130068	-2.773366	34.899979
7.900000	-4.055221	-9.183810	-6.236251	-99.785616	-6.236251	-99.785616	-3.846560	26.054224
7.950000	-5.809947	-19.668507	-5.079775	-114.607368	-5.079775	-114.607368	-5.508932	16.941248
8.000000	-8.500867	-28.899400	-4.186679	-131.424442	-4.186679	-131.424442	-8.044101	9.304729
8.050000	-12.414980	-32.414417	-3.633322	-149.608141	-3.633322	-149.608141	-11.695345	7.365834
8.100000	-17.115954	-21.052768	-3.409742	-168.436364	-3.409742	-168.436364	-16.125877	19.452572
8.150000	-19.882137	4.665996	-3.445334	172.367360	-3.445334	172.367360	-18.991515	49.359901
8.200000	-22.290998	23.221777	-3.681230	152.389655	-3.681230	152.389655	-19.594317	82.228476
8.250000	-26.602129	94.711731	-4.173851	130.800215	-4.173851	130.800215	-17.606066	121.005776
8.300000	-15.236065	134.757466	-5.144450	107.205623	-5.144450	107.205623	-12.104199	139.982572
8.350000	-8.849186	123.603327	-6.869999	82.794942	-6.869999	82.794942	-7.516472	135.878634
8.400000	-5.439054	107.295064	-9.391585	60.103333	-9.391585	60.103333	-4.706963	124.288980
8.450000	-3.603483	92.266220	-12.459772	40.806047	-12.459772	40.806047	-3.138481	112.278565
8.500000	-2.599071	79.838494	-15.786686	24.864418	-15.786686	24.864418	-2.276027	101.918095
8.550000	-2.017055	69.702177	-19.245196	11.265635	-19.245196	11.265635	-1.779473	93.300342
8.600000	-1.661326	61.325652	-22.789807	-1.100585	-22.789807	-1.100585	-1.479227	86.090118
8.650000	-1.432230	54.244082	-26.424878	-13.514635	-26.424878	-13.514635	-1.288067	79.934765
8.700000	-1.273550	48.045528	-30.308024	-27.544829	-30.308024	-27.544829	-1.156925	74.502335
8.750000	-1.160927	42.526591	-34.424296	-45.593032	-34.424296	-45.593032	-1.064672	69.625814
8.800000	-1.080655	37.561500	-38.154887	-72.500335	-38.154887	-72.500335	-0.999437	65.200003
8.850000	-1.020550	32.982792	-40.328776	-106.981864	-40.328776	-106.981864	-0.950865	61.085927
8.900000	-0.975330	28.712863	-40.331200	-138.121371	-40.331200	-138.121371	-0.914512	57.218362
8.950000	-0.941740	24.698334	-39.461910	-159.192320	-39.461910	-159.192320	-0.887671	53.551811
9.000000	-0.918323	20.911657	-38.753128	-172.999650	-38.753128	-172.999650	-0.869174	50.060599
9.050000	-0.901153	17.260016	-38.293087	175.878650	-38.293087	175.878650	-0.855852	46.670722
9.100000	-0.890743	13.744935	-38.102724	166.334672	-38.102724	166.334672	-0.848219	43.380536
9.150000	-0.887638	10.352078	-38.154827	156.899251	-38.154827	156.899251	-0.846925	40.174770
9.200000	-0.892210	7.048610	-38.352097	146.028224	-38.352097	146.028224	-0.852579	37.024635
9.250000	-0.904484	3.802857	-38.560169	132.722121	-38.560169	132.722121	-0.865443	33.904996
9.300000	-0.929105	0.611532	-38.521775	114.816121	-38.521775	114.816121	-0.890188	30.805983
9.350000	-0.973817	-2.541519	-37.550298	91.182768	-37.550298	91.182768	-0.934834	27.708310
9.400000	-1.050852	-5.649210	-35.116533	65.012629	-35.116533	65.012629	-1.012269	24.615970
9.450000	-1.183241	-8.615246	-31.432722	39.378098	-31.432722	39.378098	-1.147277	21.615645
9.500000	-1.400845	-11.002921	-27.084533	13.064724	-27.084533	13.064724	-1.375538	19.133710
9.550000	-1.613602	-11.830143	-23.168308	-18.563680	-23.168308	-18.563680	-1.618337	18.209060
9.600000	-1.478085	-11.836982	-21.213018	-53.388464	-21.213018	-53.388464	-1.521109	18.285425
9.650000	-1.163387	-13.839683	-21.120608	-80.031869	-21.120608	-80.031869	-1.216539	16.432966
9.700000	-0.980868	-16.960190	-21.460833	-96.770689	-21.460833	-96.770689	-1.030949	13.344029
9.750000	-0.903952	-20.160182	-21.643999	-107.849820	-21.643999	-107.849820	-0.952986	10.083128
9.800000	-0.880193	-23.245737	-21.631796	-116.016352	-21.631796	-116.016352	-0.932849	6.877573
9.850000	-0.888409	-26.212558	-21.446925	-121.971134	-21.446925	-121.971134	-0.950317	3.736583
9.900000	-0.915130	-29.108697	-20.992058	-126.761794	-20.992058	-126.761794	-0.991671	0.619276
9.950000	-0.960442	-31.945414	-20.286140	-132.129480	-20.286140	-132.129480	-1.059118	-2.498256
10.000000	-1.025077	-34.732062	-19.547039	-138.549791	-19.547039	-138.549791	-1.156547	-5.638325
