! freq	dB(S11)	phase(S11)	dB(S12)	phase(S12)	
!     	dB(S21)	phase(S21)	dB(S22)	phase(S22)	
!S-par simulation data
#  GHz  S  DB  R 50
0.000000	-83.215163	0.000000	-0.000600	0.000000	-0.000600	0.000000	-83.215163	0.000000
0.050000	-46.028201	-91.876437	-0.005235	-2.727945	-0.005235	-2.727945	-46.048411	-91.751317
0.100000	-40.016927	-94.954339	-0.012248	-5.412322	-0.012248	-5.412322	-40.029275	-94.741496
0.150000	-36.510048	-97.775623	-0.017333	-8.077912	-0.017333	-8.077912	-36.515310	-97.509364
0.200000	-34.032918	-100.541106	-0.021097	-10.740132	-0.021097	-10.740132	-34.034112	-100.239276
0.250000	-32.123746	-103.291915	-0.024364	-13.402544	-0.024364	-13.402544	-32.123865	-102.956988
0.300000	-30.576895	-106.040763	-0.027557	-16.065363	-0.027557	-16.065363	-30.578024	-105.666971
0.350000	-29.283884	-108.791961	-0.030879	-18.728156	-0.030879	-18.728156	-29.287249	-108.370169
0.400000	-28.178374	-111.546274	-0.034405	-21.390473	-0.034405	-21.390473	-28.184409	-111.067712
0.450000	-27.218258	-114.303284	-0.038165	-24.051957	-0.038165	-24.051957	-27.226953	-113.760299
0.500000	-26.375845	-117.062174	-0.042171	-26.712269	-0.042171	-26.712269	-26.386923	-116.448362
0.550000	-25.629811	-119.821879	-0.046401	-29.371225	-0.046401	-29.371225	-25.642841	-119.132561
0.600000	-24.964697	-122.581516	-0.050830	-32.028692	-0.050830	-32.028692	-24.979201	-121.813316
0.650000	-24.369669	-125.340324	-0.055436	-34.684519	-0.055436	-34.684519	-24.385164	-124.490805
0.700000	-23.835759	-128.097700	-0.060185	-37.338641	-0.060185	-37.338641	-23.851796	-127.165219
0.750000	-23.355193	-130.853257	-0.065042	-39.991084	-0.065042	-39.991084	-23.371386	-129.836756
0.800000	-22.922569	-133.606680	-0.069974	-42.641838	-0.069974	-42.641838	-22.938590	-132.505433
0.850000	-22.534040	-136.357704	-0.074948	-45.290890	-0.074948	-45.290890	-22.549618	-135.171163
0.900000	-22.184710	-139.106347	-0.079930	-47.938386	-0.079930	-47.938386	-22.199648	-137.834047
0.950000	-21.871426	-141.852607	-0.084887	-50.584419	-0.084887	-50.584419	-21.885588	-140.494033
1.000000	-21.592801	-144.596428	-0.089788	-53.229037	-0.089788	-53.229037	-21.606097	-143.150889
1.050000	-21.345475	-147.338058	-0.094606	-55.872449	-0.094606	-55.872449	-21.357874	-145.804671
1.100000	-21.127491	-150.077692	-0.099315	-58.514812	-0.099315	-58.514812	-21.139005	-148.455302
1.150000	-20.938137	-152.815507	-0.103889	-61.156269	-0.103889	-61.156269	-20.948817	-151.102564
1.200000	-20.775742	-155.551834	-0.108307	-63.797025	-0.108307	-63.797025	-20.785674	-153.746405
1.250000	-20.638728	-158.287043	-0.112556	-66.437292	-0.112556	-66.437292	-20.648024	-156.386800
1.300000	-20.526649	-161.021506	-0.116616	-69.077266	-0.116616	-69.077266	-20.535444	-159.023588
1.350000	-20.439183	-163.755672	-0.120472	-71.717166	-0.120472	-71.717166	-20.447636	-161.656611
1.400000	-20.374887	-166.490044	-0.124122	-74.357211	-0.124122	-74.357211	-20.383163	-164.285928
1.450000	-20.333396	-169.225151	-0.127560	-76.997614	-0.127560	-76.997614	-20.341669	-166.911452
1.500000	-20.315567	-171.961672	-0.130772	-79.638628	-0.130772	-79.638628	-20.324027	-169.532911
1.550000	-20.319986	-174.700198	-0.133769	-82.280439	-0.133769	-82.280439	-20.328817	-172.150447
1.600000	-20.346602	-177.441426	-0.136555	-84.923252	-0.136555	-84.923252	-20.355984	-174.763991
1.650000	-20.396462	179.813693	-0.139125	-87.567327	-0.139125	-87.567327	-20.406582	-177.373289
1.700000	-20.469075	177.064375	-0.141495	-90.212830	-0.141495	-90.212830	-20.480111	-179.978375
1.750000	-20.564456	174.309740	-0.143677	-92.859926	-0.143677	-92.859926	-20.576578	177.420794
1.800000	-20.683659	171.548562	-0.145679	-95.508840	-0.145679	-95.508840	-20.697034	174.824469
1.850000	-20.827342	168.779586	-0.147516	-98.159751	-0.147516	-98.159751	-20.842134	172.232841
1.900000	-20.995586	166.001726	-0.149209	-100.812750	-0.149209	-100.812750	-21.011951	169.645991
1.950000	-21.189545	163.213405	-0.150775	-103.467996	-0.150775	-103.467996	-21.207639	167.064256
2.000000	-21.411131	160.412424	-0.152230	-106.125703	-0.152230	-106.125703	-21.431115	164.488230
2.050000	-21.660654	157.597364	-0.153601	-108.785866	-0.153601	-108.785866	-21.682693	161.918157
2.100000	-21.939707	154.765997	-0.154907	-111.448573	-0.154907	-111.448573	-21.963981	159.354669
2.150000	-22.251300	151.914569	-0.156169	-114.114036	-0.156169	-114.114036	-22.278017	156.799016
2.200000	-22.596705	149.040617	-0.157413	-116.782194	-0.157413	-116.782194	-22.626106	154.251989
2.250000	-22.978478	146.140414	-0.158660	-119.453068	-0.158660	-119.453068	-23.010859	151.714941
2.300000	-23.400575	143.207964	-0.159935	-122.126778	-0.159935	-122.126778	-23.436311	149.190177
2.350000	-23.866615	140.237268	-0.161260	-124.803297	-0.161260	-124.803297	-23.906193	146.680125
2.400000	-24.380828	137.221410	-0.162655	-127.482552	-0.162655	-127.482552	-24.424888	144.187711
2.450000	-24.949364	134.149297	-0.164143	-130.164568	-0.164143	-130.164568	-24.998772	141.717679
2.500000	-25.579813	131.005373	-0.165746	-132.849360	-0.165746	-132.849360	-25.635778	139.276830
2.550000	-26.280422	127.773731	-0.167479	-135.536766	-0.167479	-135.536766	-26.344624	136.872413
2.600000	-27.062813	124.429064	-0.169358	-138.226724	-0.169358	-138.226724	-27.137671	134.515933
2.650000	-27.943064	120.924699	-0.171408	-140.919288	-0.171408	-140.919288	-28.032260	132.228661
2.700000	-28.940413	117.211628	-0.173632	-143.614225	-0.173632	-143.614225	-29.049551	130.033752
2.750000	-30.082787	113.203929	-0.176043	-146.311439	-0.176043	-146.311439	-30.220925	127.971906
2.800000	-31.410146	108.734087	-0.178657	-149.010912	-0.178657	-149.010912	-31.593200	126.123729
2.850000	-32.980241	103.542162	-0.181477	-151.712466	-0.181477	-151.712466	-33.237970	124.619400
2.900000	-34.882019	97.133202	-0.184503	-154.415951	-0.184503	-154.415951	-35.276521	123.719566
2.950000	-37.249961	88.323451	-0.187743	-157.121292	-0.187743	-157.121292	-37.935864	124.109097
3.000000	-40.242109	74.076375	-0.191198	-159.828370	-0.191198	-159.828370	-41.703895	128.019869
3.050000	-43.629387	47.055926	-0.194859	-162.537006	-0.194859	-162.537006	-47.716110	146.242316
3.100000	-44.660675	2.082282	-0.198725	-165.247108	-0.198725	-165.247108	-50.684671	-138.894224
3.150000	-41.816795	-33.600363	-0.202787	-167.958555	-0.202787	-167.958555	-43.911674	-101.387025
3.200000	-38.628069	-51.929778	-0.207036	-170.671227	-0.207036	-170.671227	-39.483135	-94.311149
3.250000	-36.089032	-62.473940	-0.211457	-173.385014	-0.211457	-173.385014	-36.532628	-92.963467
3.300000	-34.089382	-69.715156	-0.216038	-176.099819	-0.216038	-176.099819	-34.357002	-93.465640
3.350000	-32.474293	-75.308321	-0.220766	-178.815582	-0.220766	-178.815582	-32.652863	-94.800930
3.400000	-31.136462	-80.040142	-0.225615	178.467826	-0.225615	178.467826	-31.263718	-96.551199
3.450000	-30.007144	-84.224273	-0.230567	175.750447	-0.230567	175.750447	-30.102588	-98.558468
3.500000	-29.040314	-88.050970	-0.235603	173.032330	-0.235603	173.032330	-29.114866	-100.730242
3.550000	-28.204164	-91.631514	-0.240699	170.313508	-0.240699	170.313508	-28.264423	-103.013512
3.600000	-27.475991	-95.035061	-0.245833	167.594001	-0.245833	167.594001	-27.526200	-105.375715
3.650000	-26.839144	-98.306716	-0.250980	164.873809	-0.250980	164.873809	-26.882174	-107.795741
3.700000	-26.281130	-101.477063	-0.256116	162.152915	-0.256116	162.152915	-26.319014	-110.259309
3.750000	-25.792412	-104.567508	-0.261217	159.431286	-0.261217	159.431286	-25.826647	-112.756415
3.800000	-25.366437	-107.592283	-0.266256	156.708851	-0.266256	156.708851	-25.398181	-115.280308
3.850000	-24.996632	-110.564167	-0.271211	153.985554	-0.271211	153.985554	-25.026783	-117.825067
3.900000	-24.678496	-113.491412	-0.276059	151.261305	-0.276059	151.261305	-24.707786	-120.386792
3.950000	-24.408522	-116.380238	-0.280778	148.535998	-0.280778	148.535998	-24.437562	-122.962519
4.000000	-24.184008	-119.235348	-0.285349	145.809509	-0.285349	145.809509	-24.213327	-125.549988
4.050000	-24.002933	-122.060276	-0.289752	143.081697	-0.289752	143.081697	-24.032996	-128.147468
4.100000	-23.863858	-124.857620	-0.293970	140.352408	-0.293970	140.352408	-23.895092	-130.753644
4.150000	-23.765873	-127.629196	-0.297990	137.621473	-0.297990	137.621473	-23.798676	-133.367532
4.200000	-23.708555	-130.376136	-0.301800	134.888708	-0.301800	134.888708	-23.743315	-135.988416
4.250000	-23.691955	-133.098931	-0.305390	132.153921	-0.305390	132.153921	-23.729059	-138.615804
4.300000	-23.716601	-135.797437	-0.308755	129.416908	-0.308755	129.416908	-23.756454	-141.249395
4.350000	-23.783524	-138.470838	-0.311891	126.677459	-0.311891	126.677459	-23.826563	-143.889053
4.400000	-23.894783	-141.117240	-0.314796	123.935324	-0.314796	123.935324	-23.941501	-146.534861
4.450000	-24.052619	-143.734039	-0.317475	121.190276	-0.317475	121.190276	-24.103591	-149.186985
4.500000	-24.259507	-146.317826	-0.319937	118.442121	-0.319937	118.442121	-24.315419	-151.845667
4.550000	-24.519275	-148.863405	-0.322194	115.690637	-0.322194	115.690637	-24.580977	-154.511358
4.600000	-24.836849	-151.363572	-0.324261	112.935607	-0.324261	112.935607	-24.905425	-157.184684
4.650000	-25.218559	-153.808329	-0.326156	110.176818	-0.326156	110.176818	-25.295434	-159.866475
4.700000	-25.672582	-156.183674	-0.327903	107.414068	-0.327903	107.414068	-25.759679	-162.557837
4.750000	-26.209589	-158.469673	-0.329528	104.647163	-0.329528	104.647163	-26.309582	-165.260269
4.800000	-26.843716	-160.637265	-0.331060	101.875924	-0.331060	101.875924	-26.960454	-167.975861
4.850000	-27.594083	-162.642745	-0.332533	99.100191	-0.332533	99.100191	-27.733324	-170.707651
4.900000	-28.487246	-164.417699	-0.333983	96.319818	-0.333983	96.319818	-28.658037	-173.460310
4.950000	-29.561327	-165.849436	-0.335450	93.534684	-0.335450	93.534684	-29.778780	-176.241496
5.000000	-30.873361	-166.739820	-0.336977	90.744692	-0.336977	90.744692	-31.164845	-179.064866
5.050000	-32.514600	-166.671258	-0.338610	87.949659	-0.338610	87.949659	-32.936423	178.039569
5.100000	-34.630125	-164.773985	-0.340397	85.149652	-0.340397	85.149652	-35.317030	175.003861
5.150000	-37.456459	-158.721749	-0.342385	82.344657	-0.342385	82.344657	-38.828633	171.606381
5.200000	-41.139933	-141.158572	-0.344624	79.534696	-0.344624	79.534696	-45.255929	166.464300
5.250000	-43.527167	-99.173411	-0.347156	76.719954	-0.347156	76.719954	-60.563042	21.577466
5.300000	-40.264741	-59.905161	-0.350047	73.900278	-0.350047	73.900278	-42.657090	-11.532918
5.350000	-36.266399	-45.265822	-0.353343	71.075860	-0.353343	71.075860	-36.982988	-15.756881
5.400000	-33.185712	-40.185886	-0.357094	68.246887	-0.357094	68.246887	-33.478348	-19.043808
5.450000	-30.781683	-38.689333	-0.361346	65.413566	-0.361346	65.413566	-30.918028	-22.078544
5.500000	-28.826634	-38.837819	-0.366145	62.576128	-0.366145	62.576128	-28.891425	-25.011687
5.550000	-27.182931	-39.863667	-0.371535	59.734835	-0.371535	59.734835	-27.210074	-27.895453
5.600000	-25.766345	-41.409852	-0.377555	56.889984	-0.377555	56.889984	-25.771649	-30.752517
5.650000	-24.522488	-43.291244	-0.384249	54.041879	-0.384249	54.041879	-24.514167	-33.594062
5.700000	-23.414883	-45.399136	-0.391647	51.190885	-0.391647	51.190885	-23.397538	-36.426250
5.750000	-22.418087	-47.664834	-0.399763	48.337443	-0.399763	48.337443	-22.394453	-39.252607
5.800000	-21.512916	-50.049712	-0.408633	45.481903	-0.408633	45.481903	-21.484726	-42.074939
5.850000	-20.685380	-52.523813	-0.418268	42.624713	-0.418268	42.624713	-20.653767	-44.894369
5.900000	-19.924611	-55.067011	-0.428676	39.766314	-0.428676	39.766314	-19.890350	-47.711426
5.950000	-19.222074	-57.664798	-0.439863	36.907159	-0.439863	36.907159	-19.185712	-50.526282
6.000000	-18.570961	-60.306375	-0.451830	34.047713	-0.451830	34.047713	-18.532899	-53.338860
6.050000	-17.965745	-62.983023	-0.464560	31.188447	-0.464560	31.188447	-17.926285	-56.148955
6.100000	-17.401852	-65.688273	-0.478035	28.329822	-0.478035	28.329822	-17.361231	-58.956239
6.150000	-16.875466	-68.416982	-0.492230	25.472294	-0.492230	25.472294	-16.833872	-61.760313
6.200000	-16.383371	-71.164996	-0.507114	22.616306	-0.507114	22.616306	-16.340958	-64.560741
6.250000	-15.922826	-73.928919	-0.522647	19.762285	-0.522647	19.762285	-15.879722	-67.357065
6.300000	-15.491555	-76.706063	-0.538791	16.910668	-0.538791	16.910668	-15.447869	-70.148770
6.350000	-15.087459	-79.493937	-0.555486	14.061813	-0.555486	14.061813	-15.043280	-72.935453
6.400000	-14.708755	-82.290604	-0.572674	11.216072	-0.572674	11.216072	-14.664161	-75.716688
6.450000	-14.353881	-85.094442	-0.590293	8.373760	-0.590293	8.373760	-14.308934	-78.492081
6.500000	-14.021458	-87.904093	-0.608273	5.535158	-0.608273	5.535158	-13.976210	-81.261277
6.550000	-13.710262	-90.718433	-0.626541	2.700503	-0.626541	2.700503	-13.664754	-84.023965
6.600000	-13.419284	-93.536558	-0.645020	-0.129973	-0.645020	-0.129973	-13.373548	-86.779826
6.650000	-13.147504	-96.357692	-0.663628	-2.956144	-0.663628	-2.956144	-13.101561	-89.528683
6.700000	-12.894223	-99.181276	-0.682279	-5.777836	-0.682279	-5.777836	-12.848087	-92.270263
6.750000	-12.658198	-102.006784	-0.700890	-8.595194	-0.700890	-8.595194	-12.611873	-95.004780
6.800000	-12.438977	-104.833963	-0.719373	-11.408109	-0.719373	-11.408109	-12.392462	-97.732012
6.850000	-12.235930	-107.662623	-0.737641	-14.216635	-0.737641	-14.216635	-12.189217	-100.451966
6.900000	-12.048612	-110.492705	-0.755601	-17.020831	-0.755601	-17.020831	-12.001687	-103.164624
6.950000	-11.876521	-113.324245	-0.773163	-19.820860	-0.773163	-19.820860	-11.829366	-105.870100
7.000000	-11.719081	-116.157365	-0.790245	-22.616980	-0.790245	-22.616980	-11.671674	-108.568631
7.050000	-11.575888	-118.992292	-0.806762	-25.409454	-0.806762	-25.409454	-11.528207	-111.260416
7.100000	-11.446590	-121.829345	-0.822634	-28.198591	-0.822634	-28.198591	-11.398609	-113.945696
7.150000	-11.330876	-124.668922	-0.837781	-30.984751	-0.837781	-30.984751	-11.282571	-116.624742
7.200000	-11.228483	-127.511500	-0.852130	-33.768341	-0.852130	-33.768341	-11.179829	-119.297856
7.250000	-11.139187	-130.357629	-0.865609	-36.549808	-0.865609	-36.549808	-11.090164	-121.965362
7.300000	-11.062806	-133.207931	-0.878155	-39.329643	-0.878155	-39.329643	-11.013395	-124.627602
7.350000	-10.999199	-136.063096	-0.889705	-42.108378	-0.889705	-42.108378	-10.949385	-127.284930
7.400000	-10.948264	-138.923877	-0.900207	-44.886577	-0.900207	-44.886577	-10.898037	-129.937706
7.450000	-10.909938	-141.791090	-0.909611	-47.664841	-0.909611	-47.664841	-10.859295	-132.586289
7.500000	-10.884197	-144.665613	-0.917876	-50.443801	-0.917876	-50.443801	-10.833140	-135.231030
7.550000	-10.871333	-147.548588	-0.924940	-53.224158	-0.924940	-53.224158	-10.819872	-137.872199
7.600000	-10.871133	-150.440857	-0.930802	-56.006582	-0.930802	-56.006582	-10.819285	-140.510192
7.650000	-10.883694	-153.343485	-0.935440	-58.791774	-0.935440	-58.791774	-10.831484	-143.145294
7.700000	-10.909157	-156.257597	-0.938844	-61.580455	-0.938844	-61.580455	-10.856618	-145.777753
7.750000	-10.947709	-159.184384	-0.941009	-64.373354	-0.941009	-64.373354	-10.894883	-148.407770
7.800000	-10.999581	-162.125107	-0.941938	-67.171214	-0.941938	-67.171214	-10.946518	-151.035489
7.850000	-11.065055	-165.081099	-0.941643	-69.974778	-0.941643	-69.974778	-11.011812	-153.660991
7.900000	-11.144463	-168.053778	-0.940146	-72.784793	-0.940146	-72.784793	-11.091109	-156.284278
7.950000	-11.238196	-171.044652	-0.937474	-75.602000	-0.937474	-75.602000	-11.184806	-158.905262
8.000000	-11.346703	-174.055329	-0.933665	-78.427134	-0.933665	-78.427134	-11.293361	-161.523752
8.050000	-11.470499	-177.087540	-0.928765	-81.260917	-0.928765	-81.260917	-11.417299	-164.139433
8.100000	-11.610171	179.856854	-0.922825	-84.104053	-0.922825	-84.104053	-11.557216	-166.751849
8.150000	-11.766540	176.775526	-0.915900	-86.957344	-0.915900	-86.957344	-11.713946	-169.360326
8.200000	-11.940363	173.666182	-0.908061	-89.821469	-0.908061	-89.821469	-11.888257	-171.964009
8.250000	-12.132343	170.526644	-0.899397	-92.696944	-0.899397	-92.696944	-12.080865	-174.561873
8.300000	-12.343442	167.354183	-0.889993	-95.584358	-0.889993	-95.584358	-12.292750	-177.152570
8.350000	-12.574752	164.145737	-0.879942	-98.484262	-0.879942	-98.484262	-12.525023	-179.734414
8.400000	-12.827506	160.897836	-0.869342	-101.397159	-0.869342	-101.397159	-12.778943	177.694686
8.450000	-13.103106	157.606507	-0.858300	-104.323505	-0.858300	-104.323505	-13.055947	175.137319
8.500000	-13.403149	154.267150	-0.846925	-107.263702	-0.846925	-107.263702	-13.357672	172.596687
8.550000	-13.729455	150.874380	-0.835333	-110.218094	-0.835333	-110.218094	-13.685994	170.076752
8.600000	-14.084115	147.421816	-0.823643	-113.186963	-0.823643	-113.186963	-14.043075	167.582440
8.650000	-14.469538	143.901801	-0.811979	-116.170528	-0.811979	-116.170528	-14.431418	165.119895
8.700000	-14.888513	140.305025	-0.800464	-119.168937	-0.800464	-119.168937	-14.853938	162.696839
8.750000	-15.344293	136.620016	-0.789226	-122.182272	-0.789226	-122.182272	-15.314052	160.323045
8.800000	-15.840999	132.829770	-0.778401	-125.210860	-0.778401	-125.210860	-15.816118	158.012733
8.850000	-16.382804	128.917616	-0.768111	-128.254305	-0.768111	-128.254305	-16.364606	155.781348
8.900000	-16.975050	124.859467	-0.758478	-131.312460	-0.758478	-131.312460	-16.965281	153.650621
8.950000	-17.624137	120.623502	-0.749623	-134.385106	-0.749623	-134.385106	-17.625134	151.649646
9.000000	-18.337770	116.166819	-0.741661	-137.471948	-0.741661	-137.471948	-18.352725	149.818141
9.050000	-19.125274	111.430262	-0.734701	-140.572622	-0.734701	-140.572622	-19.158627	148.211564
9.100000	-19.997922	106.330236	-0.728847	-143.686699	-0.728847	-143.686699	-20.055999	146.909403
9.150000	-20.969204	100.745404	-0.724192	-146.813684	-0.724192	-146.813684	-21.061258	146.029050
9.200000	-22.055237	94.516829	-0.720789	-149.952759	-0.720789	-149.952759	-22.195067	145.728985
9.250000	-23.271463	87.317730	-0.718790	-153.103992	-0.718790	-153.103992	-23.480829	146.338309
9.300000	-24.629817	78.728685	-0.718212	-156.266318	-0.718212	-156.266318	-24.942932	148.310173
9.350000	-26.121497	68.053633	-0.719105	-159.439054	-0.719105	-159.439054	-26.591777	152.445831
9.400000	-27.674298	54.269811	-0.721505	-162.621491	-0.721505	-162.621491	-28.374921	160.063554
9.450000	-29.063180	36.271090	-0.725433	-165.812902	-0.725433	-165.812902	-30.043316	172.892295
9.500000	-29.845790	14.140000	-0.730897	-169.012555	-0.730897	-169.012555	-30.985515	-168.697125
9.550000	-29.632955	-9.120089	-0.737890	-172.219723	-0.737890	-172.219723	-30.614475	-148.980785
9.600000	-28.572089	-29.356516	-0.746397	-175.433726	-0.746397	-175.433726	-29.223522	-133.861297
9.650000	-27.151095	-45.092567	-0.756386	-178.653897	-0.756386	-178.653897	-27.527460	-124.530924
9.700000	-25.711988	-57.175505	-0.767791	178.120470	-0.767791	178.120470	-25.910652	-119.311006
9.750000	-24.385826	-66.744158	-0.780547	174.889963	-0.780547	174.889963	-24.475667	-116.674281
9.800000	-23.203767	-74.645520	-0.794574	171.655110	-0.794574	171.655110	-23.226352	-115.651398
9.850000	-22.160983	-81.427605	-0.809780	168.416361	-0.809780	168.416361	-22.141013	-115.667406
9.900000	-21.242560	-87.436670	-0.826063	165.174087	-0.826063	165.174087	-21.195121	-116.376503
9.950000	-20.432502	-92.894461	-0.843311	161.928562	-0.843311	161.928562	-20.367169	-117.563002
10.000000	-19.716457	-97.946562	-0.861402	158.679961	-0.861402	158.679961	-19.639552	-119.086797
