! freq	dB(S11)	phase(S11)	dB(S12)	phase(S12)	
!     	dB(S21)	phase(S21)	dB(S22)	phase(S22)	
!S-par simulation data
#  GHz  S  DB  R 50
0.000000	-82.466455	0.000000	-0.000654	0.000000	-0.000654	0.000000	-82.466455	0.000000
0.050000	-60.217271	-67.174330	-0.005641	-2.465825	-0.005641	-2.465825	-60.252362	-66.883889
0.100000	-55.231936	-81.167757	-0.010100	-4.893478	-0.010100	-4.893478	-55.228327	-81.173114
0.150000	-52.047793	-87.683008	-0.013445	-7.315869	-0.013445	-7.315869	-52.058331	-87.850623
0.200000	-49.600944	-92.166015	-0.016543	-9.735738	-0.016543	-9.735738	-49.614892	-92.062126
0.250000	-47.810778	-96.778703	-0.019522	-12.153379	-0.019522	-12.153379	-47.809629	-96.711737
0.300000	-46.462996	-100.638671	-0.022384	-14.569375	-0.022384	-14.569375	-46.461990	-100.571654
0.350000	-45.400350	-104.105777	-0.025143	-16.984406	-0.025143	-16.984406	-45.399359	-104.024720
0.400000	-44.557339	-107.365726	-0.027821	-19.398958	-0.027821	-19.398958	-44.556287	-107.268258
0.450000	-43.900679	-110.499961	-0.030435	-21.813361	-0.030435	-21.813361	-43.899613	-110.384866
0.500000	-43.413764	-113.557333	-0.033001	-24.227877	-0.033001	-24.227877	-43.412756	-113.422981
0.550000	-43.074332	-116.573367	-0.035534	-26.642667	-0.035534	-26.642667	-43.073442	-116.417594
0.600000	-42.884924	-119.569301	-0.038037	-29.057885	-0.038037	-29.057885	-42.884212	-119.388917
0.650000	-42.851036	-122.569160	-0.040514	-31.473673	-0.040514	-31.473673	-42.850572	-122.359526
0.700000	-42.971389	-125.595969	-0.042968	-33.890096	-0.042968	-33.890096	-42.971267	-125.351015
0.750000	-43.274902	-128.683366	-0.045400	-36.307302	-0.045400	-36.307302	-43.275280	-128.393893
0.800000	-43.794531	-131.884009	-0.047811	-38.725404	-0.047811	-38.725404	-43.795701	-131.535957
0.850000	-44.569347	-135.267876	-0.050206	-41.144445	-0.050206	-41.144445	-44.571837	-134.840703
0.900000	-45.695852	-138.986403	-0.052587	-43.564567	-0.052587	-43.564567	-45.700801	-138.444847
0.950000	-47.345300	-143.401919	-0.054959	-45.985916	-0.054959	-45.985916	-47.355628	-142.675985
1.000000	-49.845945	-149.456248	-0.057331	-48.408569	-0.057331	-48.408569	-49.870988	-148.389593
1.050000	-54.029609	-160.924811	-0.059712	-50.832623	-0.059712	-50.832623	-54.117070	-159.067471
1.100000	-61.593441	153.300796	-0.062111	-53.258169	-0.062111	-53.258169	-62.267557	155.758408
1.150000	-56.314100	65.438864	-0.064541	-55.685377	-0.064541	-55.685377	-56.549210	62.846199
1.200000	-49.556435	46.237674	-0.067016	-58.114338	-0.067016	-58.114338	-49.614887	44.797638
1.250000	-45.321735	38.551036	-0.069550	-60.545125	-0.069550	-60.545125	-45.347824	37.586935
1.300000	-42.212989	33.616182	-0.072160	-62.977888	-0.072160	-62.977888	-42.228020	32.888302
1.350000	-39.725499	29.720630	-0.074866	-65.412780	-0.074866	-65.412780	-39.735426	29.131703
1.400000	-37.640632	26.306274	-0.077685	-67.849830	-0.077685	-67.849830	-37.647756	25.810140
1.450000	-35.834852	23.166561	-0.080637	-70.289149	-0.080637	-70.289149	-35.840261	22.736579
1.500000	-34.229869	20.203167	-0.083752	-72.730962	-0.083752	-72.730962	-34.234150	19.822110
1.550000	-32.786283	17.348821	-0.087046	-75.175237	-0.087046	-75.175237	-32.789777	17.005965
1.600000	-31.471575	14.570804	-0.090541	-77.622058	-0.090541	-77.622058	-31.474497	14.258592
1.650000	-30.259623	11.849876	-0.094275	-80.071625	-0.094275	-80.071625	-30.262115	11.562605
1.700000	-29.136022	9.169781	-0.098270	-82.523939	-0.098270	-82.523939	-29.138181	8.903324
1.750000	-28.088838	6.520203	-0.102549	-84.979016	-0.102549	-84.979016	-28.090734	6.271429
1.800000	-27.107117	3.894576	-0.107146	-87.436944	-0.107146	-87.436944	-27.108800	3.660982
1.850000	-26.182920	1.287659	-0.112091	-89.897757	-0.112091	-89.897757	-26.184429	1.067246
1.900000	-25.309408	-1.304339	-0.117421	-92.361508	-0.117421	-92.361508	-25.310770	-1.513209
1.950000	-24.481414	-3.884481	-0.123168	-94.828201	-0.123168	-94.828201	-24.482652	-4.083153
2.000000	-23.694951	-6.455197	-0.129363	-97.297791	-0.129363	-97.297791	-23.696084	-6.644776
2.050000	-22.946280	-9.018261	-0.136038	-99.770246	-0.136038	-99.770246	-22.947321	-9.199682
2.100000	-22.232215	-11.575072	-0.143227	-102.245515	-0.143227	-102.245515	-22.233176	-11.749129
2.150000	-21.550026	-14.126734	-0.150964	-104.723530	-0.150964	-104.723530	-21.550916	-14.294110
2.200000	-20.897346	-16.674121	-0.159283	-107.204200	-0.159283	-107.204200	-20.898173	-16.835405
2.250000	-20.272115	-19.217918	-0.168216	-109.687415	-0.168216	-109.687415	-20.272886	-19.373625
2.300000	-19.672524	-21.758658	-0.177797	-112.173042	-0.177797	-112.173042	-19.673243	-21.909239
2.350000	-19.096975	-24.296749	-0.188056	-114.660929	-0.188056	-114.660929	-19.097648	-24.442601
2.400000	-18.544052	-26.832491	-0.199025	-117.150903	-0.199025	-117.150903	-18.544684	-26.973966
2.450000	-18.012491	-29.366095	-0.210731	-119.642769	-0.210731	-119.642769	-18.013084	-29.503507
2.500000	-17.501157	-31.897692	-0.223202	-122.136312	-0.223202	-122.136312	-17.501715	-32.031321
2.550000	-17.008845	-34.427307	-0.236479	-124.631321	-0.236479	-124.631321	-17.009370	-34.557411
2.600000	-16.534865	-36.954988	-0.250570	-127.127506	-0.250570	-127.127506	-16.535361	-37.081791
2.650000	-16.078375	-39.480687	-0.265493	-129.624591	-0.265493	-129.624591	-16.078843	-39.604395
2.700000	-15.638603	-42.004314	-0.281266	-132.122288	-0.281266	-132.122288	-15.639046	-42.125112
2.750000	-15.214845	-44.525741	-0.297902	-134.620290	-0.297902	-134.620290	-15.215265	-44.643797
2.800000	-14.806454	-47.044803	-0.315411	-137.118277	-0.315411	-137.118277	-14.806852	-47.160272
2.850000	-14.412833	-49.561311	-0.333799	-139.615916	-0.333799	-139.615916	-14.413211	-49.674334
2.900000	-14.033428	-52.075047	-0.353070	-142.112867	-0.353070	-142.112867	-14.033787	-52.185753
2.950000	-13.667755	-54.585838	-0.373206	-144.608804	-0.373206	-144.608804	-13.668097	-54.694343
3.000000	-13.315260	-57.093291	-0.394238	-147.103314	-0.394238	-147.103314	-13.315586	-57.199707
3.050000	-12.975549	-59.597213	-0.416135	-149.596060	-0.416135	-149.596060	-12.975861	-59.701639
3.100000	-12.648201	-62.097326	-0.438884	-152.086680	-0.438884	-152.086680	-12.648499	-62.199857
3.150000	-12.332823	-64.593325	-0.462470	-154.574795	-0.462470	-154.574795	-12.333108	-64.694046
3.200000	-12.029048	-67.084918	-0.486870	-157.060040	-0.486870	-157.060040	-12.029320	-67.183908
3.250000	-11.736520	-69.571842	-0.512051	-159.542074	-0.512051	-159.542074	-11.736781	-69.669175
3.300000	-11.454901	-72.053814	-0.537983	-162.020550	-0.537983	-162.020550	-11.455153	-72.149559
3.350000	-11.183872	-74.530559	-0.564628	-164.495131	-0.564628	-164.495131	-11.184113	-74.624778
3.400000	-10.923124	-77.001807	-0.591948	-166.965494	-0.591948	-166.965494	-10.923356	-77.094560
3.450000	-10.672463	-79.467092	-0.619914	-169.431158	-0.619914	-169.431158	-10.672687	-79.558435
3.500000	-10.431439	-81.926552	-0.648445	-171.892132	-0.648445	-171.892132	-10.431655	-82.016536
3.550000	-10.199856	-84.379791	-0.677506	-174.348006	-0.677506	-174.348006	-10.200064	-84.468462
3.600000	-9.977456	-86.826600	-0.707040	-176.798526	-0.707040	-176.798526	-9.977656	-86.914004
3.650000	-9.763988	-89.266792	-0.736991	-179.243459	-0.736991	-179.243459	-9.764182	-89.352969
3.700000	-9.559214	-91.700200	-0.767295	178.317405	-0.767295	178.317405	-9.559401	-91.785191
3.750000	-9.362903	-94.126682	-0.797891	175.884251	-0.797891	175.884251	-9.363083	-94.210523
3.800000	-9.174921	-96.545966	-0.828712	173.457374	-0.828712	173.457374	-9.175095	-96.628690
3.850000	-8.994971	-98.958109	-0.859686	171.036776	-0.859686	171.036776	-8.995138	-99.039749
3.900000	-8.822844	-101.363049	-0.890742	168.622559	-0.890742	168.622559	-8.823006	-101.443635
3.950000	-8.658341	-103.760749	-0.921809	166.214798	-0.921809	166.214798	-8.658497	-103.840308
4.000000	-8.501269	-106.151201	-0.952814	163.813538	-0.952814	163.813538	-8.501419	-106.229759
4.050000	-8.351444	-108.534423	-0.983683	161.418798	-0.983683	161.418798	-8.351588	-108.612004
4.100000	-8.208687	-110.910465	-1.014342	159.030565	-1.014342	159.030565	-8.208825	-110.987091
4.150000	-8.072829	-113.279403	-1.044716	156.648797	-1.044716	156.648797	-8.072961	-113.355095
4.200000	-7.943706	-115.641343	-1.074731	154.273424	-1.074731	154.273424	-7.943832	-115.716119
4.250000	-7.821162	-117.996417	-1.104312	151.904346	-1.104312	151.904346	-7.821283	-118.070295
4.300000	-7.705049	-120.344789	-1.133384	149.541437	-1.133384	149.541437	-7.705164	-120.417784
4.350000	-7.595225	-122.686647	-1.161875	147.184538	-1.161875	147.184538	-7.595335	-122.758774
4.400000	-7.491610	-125.022141	-1.189704	144.833529	-1.189704	144.833529	-7.491714	-125.093413
4.450000	-7.394077	-127.351525	-1.216797	142.488191	-1.216797	142.488191	-7.394176	-127.421953
4.500000	-7.302455	-129.675137	-1.243092	140.148220	-1.243092	140.148220	-7.302548	-129.744731
4.550000	-7.216631	-131.993273	-1.268523	137.813352	-1.268523	137.813352	-7.216719	-132.062041
4.600000	-7.136503	-134.306253	-1.293022	135.483298	-1.293022	135.483298	-7.136585	-134.374201
4.650000	-7.061973	-136.614419	-1.316526	133.157745	-1.316526	133.157745	-7.062050	-136.681554
4.700000	-6.992955	-138.918139	-1.338972	130.836355	-1.338972	130.836355	-6.993026	-138.984462
4.750000	-6.929367	-141.217799	-1.360301	128.518770	-1.360301	128.518770	-6.929433	-141.283314
4.800000	-6.871140	-143.513809	-1.380455	126.204606	-1.380455	126.204606	-6.871200	-143.578515
4.850000	-6.818209	-145.806596	-1.399379	123.893464	-1.399379	123.893464	-6.818263	-145.870494
4.900000	-6.770519	-148.096610	-1.417022	121.584919	-1.417022	121.584919	-6.770569	-148.159695
4.950000	-6.728026	-150.384315	-1.433334	119.278531	-1.433334	119.278531	-6.728070	-150.446583
5.000000	-6.690693	-152.670196	-1.448269	116.973839	-1.448269	116.973839	-6.690731	-152.731640
5.050000	-6.658601	-154.954735	-1.461750	114.670379	-1.461750	114.670379	-6.658634	-155.015347
5.100000	-6.631624	-157.238488	-1.473769	112.367618	-1.473769	112.367618	-6.631652	-157.298259
5.150000	-6.609756	-159.521988	-1.484288	110.065043	-1.484288	110.065043	-6.609778	-159.580904
5.200000	-6.592998	-161.805778	-1.493273	107.762126	-1.493273	107.762126	-6.593014	-161.863825
5.250000	-6.581364	-164.090417	-1.500694	105.458321	-1.500694	105.458321	-6.581374	-164.147579
5.300000	-6.574877	-166.376475	-1.506525	103.153073	-1.506525	103.153073	-6.574882	-166.432733
5.350000	-6.573575	-168.664533	-1.510741	100.845807	-1.510741	100.845807	-6.573573	-168.719866
5.400000	-6.577503	-170.955182	-1.513323	98.535941	-1.513323	98.535941	-6.577496	-171.009566
5.450000	-6.586724	-173.249024	-1.514256	96.222876	-1.514256	96.222876	-6.586710	-173.302432
5.500000	-6.601308	-175.546667	-1.513526	93.906002	-1.513526	93.906002	-6.601288	-175.599070
5.550000	-6.621345	-177.848728	-1.511126	91.584700	-1.511126	91.584700	-6.621317	-177.900095
5.600000	-6.646934	179.844168	-1.507052	89.258338	-1.507052	89.258338	-6.646900	179.793874
5.650000	-6.678256	177.531326	-1.501284	86.926206	-1.501284	86.926206	-6.678214	177.482144
5.700000	-6.715447	175.212089	-1.493828	84.587629	-1.493828	84.587629	-6.715397	175.164062
5.750000	-6.758598	172.885884	-1.484711	82.242011	-1.484711	82.242011	-6.758540	172.839058
5.800000	-6.807879	170.552071	-1.473945	79.888683	-1.473945	79.888683	-6.807812	170.506498
5.850000	-6.863480	168.210014	-1.461549	77.526969	-1.461549	77.526969	-6.863404	168.165748
5.900000	-6.925613	165.859074	-1.447545	75.156188	-1.447545	75.156188	-6.925528	165.816178
5.950000	-6.994514	163.498619	-1.431961	72.775653	-1.431961	72.775653	-6.994418	163.457158
6.000000	-7.070442	161.128020	-1.414829	70.384672	-1.414829	70.384672	-7.070335	161.088066
6.050000	-7.153683	158.746656	-1.396188	67.982547	-1.396188	67.982547	-7.153566	158.708288
6.100000	-7.244556	156.353914	-1.376080	65.568582	-1.376080	65.568582	-7.244426	156.317218
6.150000	-7.343408	153.949195	-1.354554	63.142075	-1.354554	63.142075	-7.343266	153.914266
6.200000	-7.450625	151.531916	-1.331664	60.702327	-1.331664	60.702327	-7.450469	151.498856
6.250000	-7.566630	149.101511	-1.307470	58.248636	-1.307470	58.248636	-7.566459	149.070433
6.300000	-7.692058	146.657129	-1.282012	55.779973	-1.282012	55.779973	-7.691871	146.628161
6.350000	-7.827264	144.198541	-1.255391	53.295945	-1.255391	53.295945	-7.827061	144.171821
6.400000	-7.972817	141.725270	-1.227686	50.795865	-1.227686	50.795865	-7.972596	141.700948
6.450000	-8.129341	139.236873	-1.198983	48.279052	-1.198983	48.279052	-8.129102	139.215116
6.500000	-8.297531	136.732955	-1.169373	45.744835	-1.169373	45.744835	-8.297272	136.713949
6.550000	-8.478153	134.213175	-1.138955	43.192552	-1.138955	43.192552	-8.477871	134.197127
6.600000	-8.672057	131.677256	-1.107833	40.621554	-1.107833	40.621554	-8.671752	131.664394
6.650000	-8.880191	129.124992	-1.076119	38.031204	-1.076119	38.031204	-8.879861	129.115574
6.700000	-9.103611	126.556267	-1.043932	35.420885	-1.043932	35.420885	-9.103253	126.550581
6.750000	-9.343498	123.971067	-1.011398	32.789992	-1.011398	32.789992	-9.343111	123.969437
6.800000	-9.601180	121.369497	-0.978648	30.137939	-0.978648	30.137939	-9.600760	121.372290
6.850000	-9.878153	118.751806	-0.945822	27.464159	-0.945822	27.464159	-9.877696	118.759439
6.900000	-10.176239	116.118249	-0.913067	24.767853	-0.913067	24.767853	-10.175741	116.131205
6.950000	-10.497377	113.469478	-0.880541	22.048468	-0.880541	22.048468	-10.496834	113.488311
7.000000	-10.843645	110.806550	-0.848405	19.305725	-0.848405	19.305725	-10.843050	110.831897
7.050000	-11.217574	108.130651	-0.816824	16.539107	-0.816824	16.539107	-11.216919	108.163252
7.100000	-11.622090	105.443334	-0.785974	13.748094	-0.785974	13.748094	-11.621365	105.484054
7.150000	-12.060598	102.746595	-0.756033	10.932146	-0.756033	10.932146	-12.059791	102.796457
7.200000	-12.537088	100.042973	-0.727191	8.090682	-0.727191	8.090682	-12.536183	100.103193
7.250000	-13.056267	97.335664	-0.699644	5.223041	-0.699644	5.223041	-13.055244	97.407702
7.300000	-13.623728	94.628642	-0.673601	2.328435	-0.673601	2.328435	-13.622560	94.714269
7.350000	-14.246155	91.926756	-0.649286	-0.594136	-0.649286	-0.594136	-14.244809	92.028143
7.400000	-14.931584	89.235717	-0.626948	-3.546011	-0.626948	-3.546011	-14.930014	89.355551
7.450000	-15.689690	86.561733	-0.606874	-6.529070	-0.606874	-6.529070	-15.687839	86.703383
7.500000	-16.532077	83.910179	-0.589423	-9.546067	-0.589423	-9.546067	-16.529868	84.077909
7.550000	-17.472350	81.281807	-0.575211	-12.602650	-0.575211	-12.602650	-17.469700	81.481285
7.600000	-18.525239	78.657475	-0.564878	-15.703837	-0.564878	-15.703837	-18.522079	78.895636
7.650000	-19.705740	75.967860	-0.559781	-18.860441	-0.559781	-18.860441	-19.702116	76.253388
7.700000	-21.019243	72.958496	-0.563223	-22.094627	-0.563223	-22.094627	-21.015733	73.302171
7.750000	-22.448771	68.820312	-0.582497	-25.437162	-0.582497	-25.437162	-22.447888	69.232382
7.800000	-23.931619	61.062362	-0.636853	-28.921188	-0.636853	-28.921188	-23.942502	61.543477
7.850000	-25.324996	40.869921	-0.787205	-32.433542	-0.787205	-32.433542	-25.379394	41.344912
7.900000	-26.217734	-12.132218	-1.071426	-34.651473	-1.071426	-34.651473	-26.354544	-12.255260
7.950000	-25.146535	-80.154025	-1.029986	-35.394412	-1.029986	-35.394412	-25.218358	-81.108487
8.000000	-23.332529	-114.356374	-0.832822	-38.037049	-0.832822	-38.037049	-23.343141	-115.266717
8.050000	-21.650596	-128.591467	-0.742191	-41.372766	-0.742191	-41.372766	-21.645922	-129.351874
8.100000	-20.120949	-136.073308	-0.710390	-44.750946	-0.710390	-44.750946	-20.113364	-136.717046
8.150000	-18.739660	-141.020499	-0.707410	-48.091781	-0.707410	-48.091781	-18.732220	-141.578819
8.200000	-17.499583	-144.980001	-0.720163	-51.399087	-0.720163	-51.399087	-17.492908	-145.474413
8.250000	-16.386007	-148.518303	-0.743169	-54.683752	-0.743169	-54.683752	-16.380115	-148.963429
8.300000	-15.382137	-151.862318	-0.773973	-57.953382	-0.773973	-57.953382	-15.376913	-152.268480
8.350000	-14.472836	-155.115350	-0.811143	-61.213019	-0.811143	-61.213019	-14.468153	-155.489859
8.400000	-13.644589	-158.322489	-0.854333	-64.465084	-0.854333	-64.465084	-13.640335	-158.671090
8.450000	-12.886813	-161.509814	-0.902918	-67.711557	-0.902918	-67.711557	-12.882896	-161.836669
8.500000	-12.190467	-164.688691	-0.956630	-70.953313	-0.956630	-70.953313	-12.186810	-164.997000
8.550000	-11.548082	-167.864508	-1.015290	-74.190748	-1.015290	-74.190748	-11.544623	-168.156769
8.600000	-10.953469	-171.039480	-1.078765	-77.423988	-1.078765	-77.423988	-10.950156	-171.317656
8.650000	-10.401485	-174.214060	-1.146961	-80.653050	-1.146961	-80.653050	-10.398268	-174.479706
8.700000	-9.887846	-177.387653	-1.219806	-83.877982	-1.219806	-83.877982	-9.884677	-177.641989
8.750000	-9.409003	179.441104	-1.297269	-87.099027	-1.297269	-87.099027	-9.405831	179.197137
8.800000	-8.962187	176.274528	-1.379432	-90.316829	-1.379432	-90.316829	-8.958947	176.040238
8.850000	-8.545084	173.116352	-1.466401	-93.532961	-1.466401	-93.532961	-8.541682	172.891305
8.900000	-8.156226	169.973981	-1.558678	-96.750369	-1.558678	-96.750369	-8.152510	169.757988
8.950000	-7.795024	166.865146	-1.657710	-99.973907	-1.657710	-99.973907	-7.790700	166.658169
9.000000	-7.460741	163.840044	-1.767840	-103.205582	-1.767840	-103.205582	-7.455187	163.641414
9.050000	-7.139691	161.027220	-1.899659	-106.393023	-1.899659	-106.393023	-7.131700	160.830767
9.100000	-6.765582	158.329489	-2.041604	-109.299195	-2.041604	-109.299195	-6.755556	158.111732
9.150000	-6.387060	154.973107	-2.130953	-112.133894	-2.130953	-112.133894	-6.380378	154.737165
9.200000	-6.094824	151.536368	-2.217284	-115.211185	-2.217284	-115.211185	-6.090913	151.308417
9.250000	-5.835077	148.267345	-2.320386	-118.340631	-2.320386	-118.340631	-5.832253	148.049861
9.300000	-5.589673	145.088926	-2.433762	-121.459155	-2.433762	-121.459155	-5.587290	144.879904
9.350000	-5.355592	141.958667	-2.553677	-124.558141	-2.553677	-124.558141	-5.353410	141.756436
9.400000	-5.132173	138.859042	-2.678490	-127.637690	-2.678490	-127.637690	-5.130090	138.662466
9.450000	-4.919039	135.782488	-2.807421	-130.698834	-2.807421	-130.698834	-4.917009	135.590782
9.500000	-4.715801	132.725519	-2.940046	-133.742387	-2.940046	-133.742387	-4.713802	132.538117
9.550000	-4.522040	129.686463	-3.076111	-136.768876	-3.076111	-136.768876	-4.520060	129.502937
9.600000	-4.337345	126.664610	-3.215449	-139.778537	-3.215449	-139.778537	-4.335379	126.484620
9.650000	-4.161310	123.659694	-3.357934	-142.771461	-3.357934	-142.771461	-4.159355	123.482967
9.700000	-3.993466	120.671462	-3.503462	-145.747883	-3.503462	-145.747883	-3.991523	120.497770
9.750000	-3.833415	117.699955	-3.651955	-148.707811	-3.651955	-148.707811	-3.831485	117.529107
9.800000	-3.680774	114.745298	-3.803352	-151.651206	-3.803352	-151.651206	-3.678860	114.577128
9.850000	-3.535187	111.807662	-3.957600	-154.577989	-3.957600	-154.577989	-3.533292	111.642024
9.900000	-3.396378	108.887498	-4.114651	-157.487807	-4.114651	-157.487807	-3.394507	108.724264
9.950000	-3.264067	105.985205	-4.274463	-160.380347	-4.274463	-160.380347	-3.262224	105.824258
10.000000	-3.137478	103.098956	-4.437035	-163.257418	-4.437035	-163.257418	-3.135668	102.940205
