! freq	dB(S11)	phase(S11)	dB(S12)	phase(S12)	
!     	dB(S21)	phase(S21)	dB(S22)	phase(S22)	
!S-par simulation data
#  GHz  S  DB  R 50
0.000000	-0.000000	-0.000000	-368.153932	180.000000	-368.153932	180.000000	-0.000000	0.000000
0.050000	-0.000109	-0.852202	-116.127638	84.734804	-116.127638	84.734804	-0.000101	-0.761739
0.100000	-0.000431	-1.704138	-110.678066	83.121007	-110.678066	83.121007	-0.000399	-1.523227
0.150000	-0.000953	-2.555562	-107.558314	82.957309	-107.558314	82.957309	-0.000881	-2.284235
0.200000	-0.001653	-3.406273	-105.359295	83.008068	-105.359295	83.008068	-0.001525	-3.044580
0.250000	-0.002517	-4.256042	-103.694593	83.012004	-103.694593	83.012004	-0.002316	-3.804057
0.300000	-0.003504	-5.104831	-102.386139	82.970231	-102.386139	82.970231	-0.003217	-4.562641
0.350000	-0.004595	-5.952525	-101.347135	82.922869	-101.347135	82.922869	-0.004207	-5.320239
0.400000	-0.005765	-6.799079	-100.523716	82.920604	-100.523716	82.920604	-0.005263	-6.076826
0.450000	-0.006992	-7.644482	-99.882105	83.016500	-99.882105	83.016500	-0.006365	-6.832405
0.500000	-0.008255	-8.488745	-99.400788	83.268615	-99.400788	83.268615	-0.007495	-7.587001
0.550000	-0.009540	-9.331894	-99.066351	83.745390	-99.066351	83.745390	-0.008640	-8.340648
0.600000	-0.010833	-10.173965	-98.871023	84.533033	-98.871023	84.533033	-0.009789	-9.093390
0.650000	-0.012125	-11.014995	-98.810929	85.745754	-98.810929	85.745754	-0.010934	-9.845269
0.700000	-0.013409	-11.855024	-98.884342	87.540436	-98.884342	87.540436	-0.012070	-10.596325
0.750000	-0.014680	-12.694084	-99.089026	90.137541	-99.089026	90.137541	-0.013193	-11.346595
0.800000	-0.015936	-13.532206	-99.417072	93.848437	-99.417072	93.848437	-0.014302	-12.096107
0.850000	-0.017174	-14.369414	-99.844269	99.100706	-99.844269	99.100706	-0.015395	-12.844886
0.900000	-0.018395	-15.205724	-100.309750	106.424390	-100.309750	106.424390	-0.016473	-13.592950
0.950000	-0.019598	-16.041148	-100.685849	116.300835	-100.685849	116.300835	-0.017536	-14.340310
1.000000	-0.020784	-16.875693	-100.763120	128.747493	-100.763120	128.747493	-0.018585	-15.086974
1.050000	-0.021955	-17.709359	-100.317749	142.765398	-100.317749	142.765398	-0.019622	-15.832944
1.100000	-0.023110	-18.542145	-99.276667	156.381431	-99.276667	156.381431	-0.020646	-16.578218
1.150000	-0.024253	-19.374042	-97.791380	167.820454	-97.791380	167.820454	-0.021661	-17.322793
1.200000	-0.025383	-20.205042	-96.097855	176.497346	-96.097855	176.497346	-0.022666	-18.066661
1.250000	-0.026502	-21.035132	-94.370549	-177.267838	-94.370549	-177.267838	-0.023662	-18.809812
1.300000	-0.027612	-21.864256	-92.689338	-172.958343	-92.689338	-172.958343	-0.024652	-19.552204
1.350000	-0.028713	-22.692439	-91.101677	-169.975021	-91.101677	-169.975021	-0.025635	-20.293855
1.400000	-0.029808	-23.519661	-89.613699	-167.956018	-89.613699	-167.956018	-0.026613	-21.034751
1.450000	-0.030896	-24.345905	-88.221079	-166.645784	-88.221079	-166.645784	-0.027587	-21.774879
1.500000	-0.031979	-25.171152	-86.915821	-165.864998	-86.915821	-165.864998	-0.028557	-22.514223
1.550000	-0.033057	-25.995382	-85.689187	-165.486820	-85.689187	-165.486820	-0.029523	-23.252768
1.600000	-0.034131	-26.818574	-84.532878	-165.420240	-84.532878	-165.420240	-0.030487	-23.990499
1.650000	-0.035203	-27.640709	-83.439435	-165.598859	-83.439435	-165.598859	-0.031450	-24.727399
1.700000	-0.036271	-28.461382	-82.378857	-166.024356	-82.378857	-166.024356	-0.032410	-25.463152
1.750000	-0.037339	-29.281486	-81.402755	-166.538511	-81.402755	-166.538511	-0.033369	-26.198457
1.800000	-0.038405	-30.100218	-80.457986	-167.200297	-80.457986	-167.200297	-0.034328	-26.932687
1.850000	-0.039470	-30.917971	-79.562631	-167.967534	-79.562631	-167.967534	-0.035286	-27.666147
1.900000	-0.040535	-31.734505	-78.701937	-168.822048	-78.701937	-168.822048	-0.036244	-28.398651
1.950000	-0.041600	-32.549820	-77.874297	-169.763840	-77.874297	-169.763840	-0.037203	-29.130198
2.000000	-0.042665	-33.364085	-77.083441	-170.757794	-77.083441	-170.757794	-0.038162	-29.860921
2.050000	-0.043732	-34.176880	-76.313417	-171.824776	-76.313417	-171.824776	-0.039122	-30.590488
2.100000	-0.044798	-34.989027	-75.587781	-172.915977	-75.587781	-172.915977	-0.040083	-31.319547
2.150000	-0.045867	-35.799495	-74.874148	-174.067289	-74.874148	-174.067289	-0.041045	-32.047286
2.200000	-0.046938	-36.608692	-74.183922	-175.255695	-74.183922	-175.255695	-0.042010	-32.774026
2.250000	-0.048011	-37.416601	-73.515551	-176.476756	-73.515551	-176.476756	-0.042977	-33.499752
2.300000	-0.049087	-38.223205	-72.867642	-177.726699	-72.867642	-177.726699	-0.043946	-34.224451
2.350000	-0.050165	-39.028487	-72.238936	-179.002298	-72.238936	-179.002298	-0.044917	-34.948109
2.400000	-0.051248	-39.832430	-71.628294	179.699224	-71.628294	179.699224	-0.045892	-35.670712
2.450000	-0.052333	-40.635020	-71.034681	178.380270	-71.034681	178.380270	-0.046870	-36.392247
2.500000	-0.053423	-41.436240	-70.457154	177.042932	-70.457154	177.042932	-0.047852	-37.112701
2.550000	-0.054517	-42.236014	-69.893935	175.688392	-69.893935	175.688392	-0.048837	-37.832012
2.600000	-0.055617	-43.034388	-69.345239	174.319027	-69.345239	174.319027	-0.049827	-38.550216
2.650000	-0.056721	-43.831347	-68.810330	172.936232	-68.810330	172.936232	-0.050822	-39.267299
2.700000	-0.057831	-44.626877	-68.288530	171.541243	-68.288530	171.541243	-0.051821	-39.983250
2.750000	-0.058946	-45.420966	-67.779213	170.135162	-67.779213	170.135162	-0.052826	-40.698057
2.800000	-0.060069	-46.213599	-67.281798	168.718972	-67.281798	168.718972	-0.053836	-41.411709
2.850000	-0.061197	-47.004765	-66.795748	167.293556	-66.795748	167.293556	-0.054853	-42.124194
2.900000	-0.062333	-47.794452	-66.320564	165.859706	-66.320564	165.859706	-0.055875	-42.835501
2.950000	-0.063476	-48.582648	-65.855779	164.418140	-65.855779	164.418140	-0.056904	-43.545619
3.000000	-0.064627	-49.369343	-65.400960	162.969503	-65.400960	162.969503	-0.057940	-44.254538
3.050000	-0.065786	-50.154524	-64.955701	161.514383	-64.955701	161.514383	-0.058983	-44.962249
3.100000	-0.066954	-50.938182	-64.519620	160.053314	-64.519620	160.053314	-0.060034	-45.668740
3.150000	-0.068131	-51.720308	-64.092362	158.586783	-64.092362	158.586783	-0.061093	-46.374003
3.200000	-0.069318	-52.500891	-63.673591	157.115235	-63.673591	157.115235	-0.062160	-47.078027
3.250000	-0.070514	-53.279923	-63.262992	155.639076	-63.262992	155.639076	-0.063236	-47.780805
3.300000	-0.071720	-54.057395	-62.860268	154.158681	-62.860268	154.158681	-0.064320	-48.482327
3.350000	-0.072939	-54.833025	-62.463338	152.673808	-62.463338	152.673808	-0.065416	-49.182363
3.400000	-0.074170	-55.607010	-62.073465	151.185213	-62.073465	151.185213	-0.066522	-49.881071
3.450000	-0.075407	-56.380168	-61.695370	149.695012	-61.695370	149.695012	-0.067634	-50.579108
3.500000	-0.076662	-57.150840	-61.318752	148.199994	-61.318752	148.199994	-0.068762	-51.275132
3.550000	-0.077922	-57.920956	-60.954712	146.704083	-60.954712	146.704083	-0.069893	-51.970703
3.600000	-0.079204	-58.688288	-60.590553	145.203708	-60.590553	145.203708	-0.071044	-52.664013
3.650000	-0.080488	-59.455341	-60.239620	143.702963	-60.239620	143.702963	-0.072197	-53.357094
3.700000	-0.081798	-60.219311	-59.887198	142.198145	-59.887198	142.198145	-0.073373	-54.047660
3.750000	-0.083108	-60.983281	-59.548520	140.693327	-59.548520	140.693327	-0.074549	-54.738226
3.800000	-0.084449	-61.743869	-59.207179	139.184852	-59.207179	139.184852	-0.075752	-55.426024
3.850000	-0.085789	-62.504458	-58.878746	137.676377	-58.878746	137.676377	-0.076954	-56.113821
3.900000	-0.087159	-63.261935	-58.549124	136.165176	-58.549124	136.165176	-0.078182	-56.799060
3.950000	-0.088531	-64.019129	-58.230404	134.653727	-58.230404	134.653727	-0.079413	-57.484066
4.000000	-0.089932	-64.773484	-57.911788	133.140294	-57.911788	133.140294	-0.080668	-58.166729
4.050000	-0.091338	-65.527272	-57.602292	131.626464	-57.602292	131.626464	-0.081928	-58.848923
4.100000	-0.092771	-66.278500	-57.294031	130.111238	-57.294031	130.111238	-0.083212	-59.528996
4.150000	-0.094214	-67.028876	-56.993307	128.595548	-56.993307	128.595548	-0.084504	-60.208362
4.200000	-0.095681	-67.776975	-56.694808	127.078922	-56.694808	127.078922	-0.085817	-60.885833
4.250000	-0.097160	-68.523935	-56.402440	125.561828	-56.402440	125.561828	-0.087142	-61.562355
4.300000	-0.098663	-69.268905	-56.113161	124.044150	-56.113161	124.044150	-0.088486	-62.237213
4.350000	-0.100183	-70.012453	-55.828761	122.526056	-55.828761	122.526056	-0.089846	-62.910881
4.400000	-0.101722	-70.754296	-55.548204	121.007640	-55.548204	121.007640	-0.091223	-63.583118
4.450000	-0.103283	-71.494436	-55.271415	119.488903	-55.271415	119.488903	-0.092619	-64.253922
4.500000	-0.104862	-72.233159	-54.999123	117.970030	-54.999123	117.970030	-0.094030	-64.923532
4.550000	-0.106465	-72.969900	-54.729610	116.450968	-54.729610	116.450968	-0.095463	-65.591467
4.600000	-0.108084	-73.705512	-54.465161	114.931893	-54.465161	114.931893	-0.096910	-66.258444
4.650000	-0.109733	-74.438867	-54.202612	113.412790	-54.202612	113.412790	-0.098383	-66.923507
4.700000	-0.111394	-75.171379	-53.945617	111.893740	-53.945617	111.893740	-0.099867	-67.587851
4.750000	-0.113089	-75.901364	-53.689742	110.374850	-53.689742	110.374850	-0.101381	-68.250039
4.800000	-0.114793	-76.630791	-53.439840	108.856034	-53.439840	108.856034	-0.102902	-68.911750
4.850000	-0.116538	-77.357427	-53.190366	107.337585	-53.190366	107.337585	-0.104460	-69.571066
4.900000	-0.118287	-78.083785	-52.947223	105.819191	-52.947223	105.819191	-0.106021	-70.230145
4.950000	-0.120082	-78.807095	-52.703896	104.301391	-52.703896	104.301391	-0.107623	-70.886594
5.000000	-0.121877	-79.530405	-52.467200	102.783591	-52.467200	102.783591	-0.109225	-71.543044
5.050000	-0.123724	-80.250416	-52.229780	101.266625	-52.229780	101.266625	-0.110873	-72.196634
5.100000	-0.125572	-80.970427	-51.998677	99.749660	-51.998677	99.749660	-0.112521	-72.850223
5.150000	-0.127469	-81.687441	-51.767505	98.233615	-51.767505	98.233615	-0.114213	-73.501199
5.200000	-0.129371	-82.404184	-51.541789	96.717653	-51.541789	96.717653	-0.115909	-74.151938
5.250000	-0.131319	-83.118231	-51.316588	95.202658	-51.316588	95.202658	-0.117647	-74.800311
5.300000	-0.133277	-83.831738	-51.096064	93.687856	-51.096064	93.687856	-0.119393	-75.448212
5.350000	-0.135278	-84.542847	-50.876578	92.174030	-50.876578	92.174030	-0.121177	-76.093993
5.400000	-0.137294	-85.253157	-50.661063	90.660529	-50.661063	90.660529	-0.122974	-76.739069
5.450000	-0.139349	-85.961361	-50.447050	89.147982	-50.447050	89.147982	-0.124807	-77.382273
5.500000	-0.141425	-86.668513	-50.236371	87.635912	-50.236371	87.635912	-0.126657	-78.024541
5.550000	-0.143536	-87.373847	-50.027606	86.124747	-50.027606	86.124747	-0.128539	-78.665183
5.600000	-0.145673	-88.077884	-49.821597	84.614228	-49.821597	84.614228	-0.130444	-79.304662
5.650000	-0.147841	-88.780386	-49.617869	83.104541	-49.617869	83.104541	-0.132378	-79.942758
5.700000	-0.150041	-89.481354	-49.416375	81.595685	-49.416375	81.595685	-0.134339	-80.579470
5.750000	-0.152269	-90.181064	-49.217485	80.087565	-49.217485	80.087565	-0.136325	-81.215038
5.800000	-0.154534	-90.879011	-49.020358	78.580475	-49.020358	78.580475	-0.138345	-81.849006
5.850000	-0.156822	-91.575969	-48.826119	77.074005	-48.826119	77.074005	-0.140384	-82.482068
5.900000	-0.159153	-92.270948	-48.633219	75.568777	-48.633219	75.568777	-0.142464	-83.113317
5.950000	-0.161503	-92.965199	-48.443454	74.064037	-48.443454	74.064037	-0.144559	-83.743894
6.000000	-0.163903	-93.657264	-48.254647	72.560760	-48.254647	72.560760	-0.146700	-84.372452
6.050000	-0.166316	-94.348853	-48.069190	71.057823	-48.069190	71.057823	-0.148852	-85.000567
6.100000	-0.168787	-95.038061	-47.884349	69.556582	-47.884349	69.556582	-0.151056	-85.626463
6.150000	-0.171264	-95.727036	-47.703043	68.055517	-47.703043	68.055517	-0.153266	-86.252141
6.200000	-0.173807	-96.413446	-47.522046	66.556390	-47.522046	66.556390	-0.155536	-86.875408
6.250000	-0.176350	-97.099857	-47.344744	65.057264	-47.344744	65.057264	-0.157805	-87.498675
6.300000	-0.178967	-97.783532	-47.167474	63.560324	-47.167474	63.560324	-0.160141	-88.119346
6.350000	-0.181584	-98.467207	-46.993751	62.063384	-46.993751	62.063384	-0.162477	-88.740017
6.400000	-0.184270	-99.148434	-46.820382	60.568512	-46.820382	60.568512	-0.164876	-89.358340
6.450000	-0.186963	-99.829438	-46.650134	59.073829	-46.650134	59.073829	-0.167281	-89.976450
6.500000	-0.189719	-100.508273	-46.480529	57.581078	-46.480529	57.581078	-0.169743	-90.592456
6.550000	-0.192489	-101.186673	-46.313658	56.088713	-46.313658	56.088713	-0.172218	-91.208042
6.600000	-0.195318	-101.863172	-46.147688	54.598132	-46.147688	54.598132	-0.174746	-91.821764
6.650000	-0.198167	-102.539038	-45.984097	53.108146	-45.984097	53.108146	-0.177292	-92.434865
6.700000	-0.201069	-103.213262	-45.821640	51.619781	-45.821640	51.619781	-0.179887	-93.046336
6.750000	-0.203998	-103.886664	-45.661238	50.132228	-45.661238	50.132228	-0.182507	-93.656993
6.800000	-0.206975	-104.558673	-45.502177	48.646122	-45.502177	48.646122	-0.185170	-94.266248
6.850000	-0.209987	-105.229686	-45.344877	47.161050	-45.344877	47.161050	-0.187865	-94.874502
6.900000	-0.213040	-105.899543	-45.189100	45.677241	-45.189100	45.677241	-0.190598	-95.481577
6.950000	-0.216136	-106.568242	-45.034815	44.194694	-45.034815	44.194694	-0.193369	-96.087474
7.000000	-0.219267	-107.236010	-44.882217	42.713217	-44.882217	42.713217	-0.196173	-96.692406
7.050000	-0.222447	-107.902474	-44.730867	41.233235	-44.730867	41.233235	-0.199022	-97.295990
7.100000	-0.225657	-108.568219	-44.581345	39.754120	-44.581345	39.754120	-0.201898	-97.898818
7.150000	-0.228925	-109.232527	-44.432851	38.276736	-44.432851	38.276736	-0.204827	-98.500136
7.200000	-0.232215	-109.896316	-44.286309	36.800009	-44.286309	36.800009	-0.207777	-99.100900
7.250000	-0.235571	-110.558551	-44.140594	35.325251	-44.140594	35.325251	-0.210788	-99.700001
7.300000	-0.238943	-111.220453	-43.996939	33.850934	-43.996939	33.850934	-0.213812	-100.298741
7.350000	-0.242389	-111.880698	-43.853930	32.378822	-43.853930	32.378822	-0.216906	-100.895675
7.400000	-0.245844	-112.540784	-43.713074	30.906931	-43.713074	30.906931	-0.220007	-101.492433
7.450000	-0.249381	-113.199125	-43.572700	29.437479	-43.572700	29.437479	-0.223184	-102.087252
7.500000	-0.252920	-113.857466	-43.434558	27.968027	-43.434558	27.968027	-0.226363	-102.682071
7.550000	-0.256551	-114.513991	-43.296749	26.501243	-43.296749	26.501243	-0.229627	-103.274827
7.600000	-0.260182	-115.170516	-43.161092	25.034458	-43.161092	25.034458	-0.232891	-103.867583
7.650000	-0.263899	-115.825459	-43.025929	23.570118	-43.025929	23.570118	-0.236235	-104.458499
7.700000	-0.267626	-116.480258	-42.892695	22.106000	-42.892695	22.106000	-0.239587	-105.049247
7.750000	-0.271430	-117.133695	-42.760100	20.644097	-42.760100	20.644097	-0.243012	-105.638369
7.800000	-0.275252	-117.786860	-42.629227	19.182637	-42.629227	19.182637	-0.246453	-106.227165
7.850000	-0.279146	-118.438869	-42.499122	17.723158	-42.499122	17.723158	-0.249961	-106.814539
7.900000	-0.283065	-119.090493	-42.370552	16.264338	-42.370552	16.264338	-0.253492	-107.401440
7.950000	-0.287049	-119.741153	-42.242865	14.807262	-42.242865	14.807262	-0.257084	-107.987117
8.000000	-0.291066	-120.391332	-42.116540	13.351058	-42.116540	13.351058	-0.260706	-108.572181
8.050000	-0.295141	-121.040724	-41.991202	11.896357	-41.991202	11.896357	-0.264383	-109.156208
8.100000	-0.299258	-121.689554	-41.867068	10.442732	-41.867068	10.442732	-0.268098	-109.739496
8.150000	-0.303425	-122.337760	-41.744012	8.990373	-41.744012	8.990373	-0.271861	-110.321925
8.200000	-0.307643	-122.985341	-41.622015	7.539281	-41.622015	7.539281	-0.275670	-110.903496
8.250000	-0.311903	-123.632444	-41.501178	6.089222	-41.501178	6.089222	-0.279520	-111.484379
8.300000	-0.316222	-124.278877	-41.381267	4.640609	-41.381267	4.640609	-0.283424	-112.064297
8.350000	-0.320576	-124.924962	-41.262587	3.192799	-41.262587	3.192799	-0.287362	-112.643685
8.400000	-0.324999	-125.570350	-41.144714	1.746599	-41.144714	1.746599	-0.291363	-113.222013
8.450000	-0.329448	-126.215503	-41.028134	0.300982	-41.028134	0.300982	-0.295390	-113.799961
8.500000	-0.333974	-126.859950	-40.912252	-1.142882	-40.912252	-1.142882	-0.299489	-114.376764
8.550000	-0.338519	-127.504258	-40.797716	-2.586371	-40.797716	-2.586371	-0.303606	-114.953325
8.600000	-0.343150	-128.147872	-40.683781	-4.027986	-40.683781	-4.027986	-0.307803	-115.528671
8.650000	-0.347791	-128.791425	-40.571236	-5.469422	-40.571236	-5.469422	-0.312011	-116.103900
8.700000	-0.352528	-129.434313	-40.459206	-6.908886	-40.459206	-6.908886	-0.316308	-116.677855
8.750000	-0.357267	-130.077201	-40.348603	-8.348350	-40.348603	-8.348350	-0.320607	-117.251810
8.800000	-0.362110	-130.719473	-40.238438	-9.785772	-40.238438	-9.785772	-0.325005	-117.824444
8.850000	-0.366955	-131.361746	-40.129654	-11.223193	-40.129654	-11.223193	-0.329405	-118.397077
8.900000	-0.371897	-132.003558	-40.021394	-12.658853	-40.021394	-12.658853	-0.333896	-118.968564
8.950000	-0.376850	-132.645328	-39.914393	-14.094353	-39.914393	-14.094353	-0.338397	-119.539946
9.000000	-0.381890	-133.286775	-39.807994	-15.528360	-39.807994	-15.528360	-0.342982	-120.110345
9.050000	-0.386951	-133.928156	-39.702744	-16.962069	-39.702744	-16.962069	-0.347586	-120.680547
9.100000	-0.392091	-134.569334	-39.598166	-18.394540	-39.598166	-18.394540	-0.352266	-121.249920
9.150000	-0.397260	-135.210444	-39.494637	-19.826598	-39.494637	-19.826598	-0.356973	-121.819016
9.200000	-0.402500	-135.851451	-39.391842	-21.257658	-39.391842	-21.257658	-0.361748	-122.387424
9.250000	-0.407778	-136.492407	-39.290009	-22.688218	-39.290009	-22.688218	-0.366558	-122.955488
9.300000	-0.413119	-137.133344	-39.188962	-24.117998	-39.188962	-24.117998	-0.371429	-123.522994
9.350000	-0.418505	-137.774267	-39.088799	-25.547221	-39.088799	-25.547221	-0.376343	-124.090102
9.400000	-0.423946	-138.415235	-38.989470	-26.975860	-38.989470	-26.975860	-0.381310	-124.656770
9.450000	-0.429442	-139.056248	-38.890959	-28.403916	-38.890959	-28.403916	-0.386329	-125.222999
9.500000	-0.434984	-139.697351	-38.793319	-29.831560	-38.793319	-29.831560	-0.391393	-125.788894
9.550000	-0.440589	-140.338578	-38.696441	-31.258627	-38.696441	-31.258627	-0.396517	-126.354322
9.600000	-0.446232	-140.979919	-38.600465	-32.685427	-38.600465	-32.685427	-0.401677	-126.919511
9.650000	-0.451946	-141.621489	-38.505208	-34.111692	-38.505208	-34.111692	-0.406907	-127.484219
9.700000	-0.457689	-142.263176	-38.410875	-35.537805	-38.410875	-35.537805	-0.412164	-128.048768
9.750000	-0.463513	-142.905216	-38.317229	-36.963461	-38.317229	-36.963461	-0.417499	-128.612838
9.800000	-0.469357	-143.547357	-38.224520	-38.389047	-38.224520	-38.389047	-0.422854	-129.176816
9.850000	-0.475289	-144.190000	-38.132481	-39.814291	-38.132481	-39.814291	-0.428294	-129.740331
9.900000	-0.481233	-144.832705	-38.041380	-41.239516	-38.041380	-41.239516	-0.433746	-130.303807
9.950000	-0.487273	-145.476086	-37.950945	-42.664549	-37.950945	-42.664549	-0.439292	-130.866852
10.000000	-0.493317	-146.119467	-37.861442	-44.089582	-37.861442	-44.089582	-0.444841	-131.429898
