! freq	dB(S11)	phase(S11)	dB(S12)	phase(S12)	
!     	dB(S21)	phase(S21)	dB(S22)	phase(S22)	
!S-par simulation data
#  GHz  S  DB  R 50
0.000000	-87.064122	0.000000	-0.000385	0.000000	-0.000385	0.000000	-87.064122	0.000000
0.050000	-30.767219	-93.312937	-0.008028	-3.251699	-0.008028	-3.251699	-30.768979	-93.309511
0.100000	-24.780332	-96.710233	-0.024864	-6.462794	-0.024864	-6.462794	-24.781059	-96.706662
0.150000	-21.307782	-100.009918	-0.047572	-9.649264	-0.047572	-9.649264	-21.307578	-100.008728
0.200000	-18.868675	-103.240440	-0.076356	-12.817217	-0.076356	-12.817217	-18.867958	-103.241434
0.250000	-16.998362	-106.419360	-0.111342	-15.964754	-0.111342	-15.964754	-16.997538	-106.420638
0.300000	-15.489786	-109.559311	-0.152266	-19.089164	-0.152266	-19.089164	-15.489152	-109.558872
0.350000	-14.233483	-112.666129	-0.198864	-22.187363	-0.198864	-22.187363	-14.233240	-112.662765
0.400000	-13.163291	-115.742667	-0.250629	-25.257523	-0.250629	-25.257523	-13.163546	-115.736231
0.450000	-12.238253	-118.787316	-0.307322	-28.296150	-0.307322	-28.296150	-12.239025	-118.778537
0.500000	-11.427946	-121.800272	-0.368245	-31.302912	-0.368245	-31.302912	-11.429142	-121.790260
0.550000	-10.711434	-124.780242	-0.432916	-34.276626	-0.432916	-34.276626	-10.712887	-124.770042
0.600000	-10.073889	-127.724952	-0.500918	-37.215337	-0.500918	-37.215337	-10.075385	-127.715247
0.650000	-9.504651	-130.631227	-0.571801	-40.116293	-0.571801	-40.116293	-9.505972	-130.622134
0.700000	-8.992651	-133.500686	-0.644877	-42.981372	-0.644877	-42.981372	-8.993648	-133.491864
0.750000	-8.530493	-136.332818	-0.719656	-45.810250	-0.719656	-45.810250	-8.531086	-136.323712
0.800000	-8.113223	-139.125481	-0.795649	-48.600949	-0.795649	-48.600949	-8.113398	-139.115486
0.850000	-7.735292	-141.879645	-0.872304	-51.354422	-0.872304	-51.354422	-7.735091	-141.868316
0.900000	-7.392181	-144.596319	-0.949132	-54.071592	-0.949132	-54.071592	-7.391675	-144.583407
0.950000	-7.080415	-147.276060	-1.025662	-56.752913	-1.025662	-56.752913	-7.079683	-147.261495
1.000000	-6.796914	-149.919884	-1.101451	-59.399266	-1.101451	-59.399266	-6.796034	-149.903734
1.050000	-6.539025	-152.529012	-1.176079	-62.011738	-1.176079	-62.011738	-6.538064	-152.511428
1.100000	-6.304450	-155.104835	-1.249155	-64.591602	-1.249155	-64.591602	-6.303463	-155.086009
1.150000	-6.091185	-157.648891	-1.320314	-67.140300	-1.320314	-67.140300	-6.090216	-157.629015
1.200000	-5.897484	-160.162839	-1.389215	-69.659423	-1.389215	-69.659423	-5.896563	-160.142087
1.250000	-5.721817	-162.648439	-1.455540	-72.150693	-1.455540	-72.150693	-5.720964	-162.626950
1.300000	-5.563122	-165.107005	-1.518916	-74.615419	-1.518916	-74.615419	-5.562353	-165.084879
1.350000	-5.419924	-167.541074	-1.579139	-77.056138	-1.579139	-77.056138	-5.419244	-167.518367
1.400000	-5.291198	-169.952625	-1.635954	-79.474858	-1.635954	-79.474858	-5.290611	-169.929354
1.450000	-5.176054	-172.343685	-1.689128	-81.873652	-1.689128	-81.873652	-5.175558	-172.319832
1.500000	-5.074324	-174.715402	-1.738212	-84.253762	-1.738212	-84.253762	-5.073916	-174.690915
1.550000	-4.984234	-177.071695	-1.783415	-86.619115	-1.783415	-86.619115	-4.983907	-177.046502
1.600000	-4.905720	-179.413877	-1.824374	-88.971130	-1.824374	-88.971130	-4.905468	-179.387882
1.650000	-4.838311	178.255872	-1.860920	-91.312075	-1.860920	-91.312075	-4.838126	178.282779
1.700000	-4.781625	175.935334	-1.892899	-93.644264	-1.892899	-93.644264	-4.781498	175.963278
1.750000	-4.735360	173.622257	-1.920169	-95.970054	-1.920169	-95.970054	-4.735281	173.651373
1.800000	-4.699295	171.314352	-1.942601	-98.291849	-1.942601	-98.291849	-4.699254	171.344782
1.850000	-4.673288	169.009286	-1.960079	-100.612105	-1.960079	-100.612105	-4.673276	169.041180
1.900000	-4.657274	166.704683	-1.972499	-102.933335	-1.972499	-102.933335	-4.657281	166.738193
1.950000	-4.651268	164.398112	-1.979768	-105.258114	-1.979768	-105.258114	-4.651285	164.433398
2.000000	-4.655367	162.087089	-1.981806	-107.589091	-1.981806	-107.589091	-4.655384	162.124314
2.050000	-4.669752	159.769065	-1.978543	-109.928992	-1.978543	-109.928992	-4.669759	159.808397
2.100000	-4.694695	157.441421	-1.969924	-112.280636	-1.969924	-112.280636	-4.694684	157.483036
2.150000	-4.730563	155.101464	-1.955906	-114.646940	-1.955906	-114.646940	-4.730525	155.145544
2.200000	-4.777832	152.746413	-1.936461	-117.030934	-1.936461	-117.030934	-4.777760	152.793152
2.250000	-4.837096	150.373400	-1.911575	-119.435772	-1.911575	-119.435772	-4.836981	150.423004
2.300000	-4.908508	147.980555	-1.881495	-121.863487	-1.881495	-121.863487	-4.908343	148.033237
2.350000	-4.994198	145.562457	-1.845701	-124.320227	-1.845701	-124.320227	-4.993977	145.618474
2.400000	-5.094542	143.117125	-1.804544	-126.808232	-1.804544	-126.808232	-5.094258	143.176747
2.450000	-5.210792	140.641283	-1.758095	-129.331294	-1.758095	-129.331294	-5.210439	140.704814
2.500000	-5.344430	138.131554	-1.706459	-131.893399	-1.706459	-131.893399	-5.344003	138.199339
2.550000	-5.497615	135.583582	-1.649659	-134.499781	-1.649659	-134.499781	-5.497108	135.656026
2.600000	-5.672114	132.994570	-1.587998	-137.154019	-1.587998	-137.154019	-5.671521	133.072135
2.650000	-5.870435	130.360956	-1.521704	-139.860766	-1.521704	-139.860766	-5.869751	130.444184
2.700000	-6.095574	127.679205	-1.451064	-142.624903	-1.451064	-142.624903	-6.094793	127.768738
2.750000	-6.351135	124.945892	-1.376429	-145.451547	-1.376429	-145.451547	-6.350249	125.042501
2.800000	-6.641474	122.157823	-1.298228	-148.346031	-1.298228	-148.346031	-6.640475	122.262442
2.850000	-6.971906	119.312225	-1.216973	-151.313898	-1.216973	-151.313898	-6.970781	119.425998
2.900000	-7.348976	116.407015	-1.133279	-154.360862	-1.133279	-154.360862	-7.347708	116.531364
2.950000	-7.780846	113.441216	-1.047876	-157.492764	-1.047876	-157.492764	-7.779412	113.577937
3.000000	-8.277844	110.415599	-0.961620	-160.715504	-0.961620	-160.715504	-8.276210	110.566997
3.050000	-8.853277	107.333694	-0.875515	-164.034948	-0.875515	-164.034948	-8.851392	107.502790
3.100000	-9.524675	104.203451	-0.790725	-167.456807	-0.790725	-167.456807	-9.522459	104.394303
3.150000	-10.316507	101.040057	-0.708627	-170.987706	-0.708627	-170.987706	-10.313833	101.258371
3.200000	-11.262418	97.873063	-0.630810	-174.632673	-0.630810	-174.632673	-11.259071	98.127141
3.250000	-12.410828	94.756579	-0.558989	-178.394611	-0.558989	-178.394611	-12.406425	95.058969
3.300000	-13.838199	91.794974	-0.495099	177.723460	-0.495099	177.723460	-13.831995	92.166124
3.350000	-15.673902	89.211185	-0.441261	173.719887	-0.441261	173.719887	-15.664238	89.687738
3.400000	-18.164024	87.566876	-0.399762	169.594722	-0.399762	169.594722	-18.146396	88.224326
3.450000	-21.866382	88.770983	-0.373023	165.350064	-0.373023	165.350064	-21.823416	89.801766
3.500000	-28.279932	105.186369	-0.363548	160.990373	-0.363548	160.990373	-28.079616	106.997636
3.550000	-31.494667	-168.139744	-0.373369	156.524847	-0.373369	156.524847	-31.094694	-170.017768
3.600000	-23.190746	-136.873021	-0.406004	151.958367	-0.406004	151.958367	-23.128203	-138.158545
3.650000	-18.476806	-134.046609	-0.463204	147.306576	-0.463204	147.306576	-18.455301	-134.837410
3.700000	-15.349289	-135.690045	-0.547004	142.584834	-0.547004	142.584834	-15.338736	-136.257816
3.750000	-13.027162	-138.789367	-0.659088	137.810807	-0.659088	137.810807	-13.021000	-139.232808
3.800000	-11.195522	-142.545375	-0.801001	133.003816	-0.801001	133.003816	-11.191540	-142.910061
3.850000	-9.698228	-146.638230	-0.973175	128.184996	-0.973175	128.184996	-9.695482	-146.948322
3.900000	-8.446350	-150.915290	-1.175820	123.375176	-1.175820	123.375176	-8.444365	-151.185289
3.950000	-7.384171	-155.287064	-1.408630	118.594652	-1.408630	118.594652	-7.382682	-155.526346
4.000000	-6.474081	-159.694834	-1.670829	113.862428	-1.670829	113.862428	-6.472926	-159.909807
4.050000	-5.689119	-164.097154	-1.961240	109.195571	-1.961240	109.195571	-5.688193	-164.292400
4.100000	-5.009343	-168.463122	-2.278475	104.609497	-2.278475	104.609497	-5.008575	-168.642052
4.150000	-4.418607	-172.770174	-2.620695	100.115846	-2.620695	100.115846	-4.417949	-172.935367
4.200000	-3.904685	-177.000365	-2.986141	95.725530	-2.986141	95.725530	-3.904104	-177.153858
4.250000	-3.455252	178.854137	-3.372755	91.440233	-3.372755	91.440233	-3.454723	178.710791
4.300000	-3.062414	174.802901	-3.779014	87.266322	-3.779014	87.266322	-3.061921	174.668408
4.350000	-2.718615	170.850372	-4.203337	83.205420	-4.203337	83.205420	-2.718146	170.723676
4.400000	-2.417684	166.999440	-4.644260	79.258442	-4.644260	79.258442	-2.417233	166.879663
4.450000	-2.153965	163.249727	-5.100566	75.423422	-5.100566	75.423422	-2.153529	163.136143
4.500000	-1.922337	159.598097	-5.571471	71.695981	-5.571471	71.695981	-1.921913	159.490106
4.550000	-1.718668	156.041294	-6.056427	68.072086	-6.056427	68.072086	-1.718256	155.938394
4.600000	-1.539391	152.575178	-6.555195	64.547091	-6.555195	64.547091	-1.538991	152.476947
4.650000	-1.381425	149.194995	-7.067854	61.115980	-7.067854	61.115980	-1.381039	149.101077
4.700000	-1.242108	145.895592	-7.594816	57.773564	-7.594816	57.773564	-1.241739	145.805689
4.750000	-1.119145	142.671592	-8.136839	54.514646	-8.136839	54.514646	-1.118793	142.585454
4.800000	-1.010549	139.517524	-8.695055	51.334168	-8.695055	51.334168	-1.010217	139.434940
4.850000	-0.914610	136.427919	-9.271001	48.227324	-9.271001	48.227324	-0.914298	136.348717
4.900000	-0.829848	133.397383	-9.866667	45.189670	-9.866667	45.189670	-0.829557	133.321419
4.950000	-0.754989	130.420642	-10.484561	42.217225	-10.484561	42.217225	-0.754720	130.347799
5.000000	-0.688934	127.492571	-11.127795	39.306582	-11.127795	39.306582	-0.688687	127.422755
5.050000	-0.631135	124.610486	-11.798978	36.458471	-11.798978	36.458471	-0.630908	124.543623
5.100000	-0.580220	121.766246	-12.504378	33.666660	-12.504378	33.666660	-0.580013	121.702283
5.150000	-0.535531	118.955393	-13.249861	30.930568	-13.249861	30.930568	-0.535342	118.894297
5.200000	-0.496507	116.173568	-14.042727	28.250925	-14.042727	28.250925	-0.496332	116.115321
5.250000	-0.462671	113.416455	-14.892159	25.630150	-14.892159	25.630150	-0.462506	113.361056
5.300000	-0.433631	110.679704	-15.809854	23.072860	-15.809854	23.072860	-0.433472	110.627169
5.350000	-0.409280	107.959325	-16.809755	20.590555	-16.809755	20.590555	-0.409120	107.909696
5.400000	-0.389464	105.249762	-17.910752	18.197801	-17.910752	18.197801	-0.389291	105.203115
5.450000	-0.373833	102.543892	-19.139956	15.904120	-19.139956	15.904120	-0.373633	102.500343
5.500000	-0.362585	99.833476	-20.530818	13.718286	-20.530818	13.718286	-0.362335	99.793212
5.550000	-0.356098	97.107790	-22.130048	11.607017	-22.130048	11.607017	-0.355758	97.071093
5.600000	-0.357859	94.338902	-23.967807	9.315951	-23.967807	9.315951	-0.357326	94.306347
5.650000	-0.377875	91.477807	-26.037203	5.257576	-26.037203	5.257576	-0.376860	91.450303
5.700000	-0.479555	88.529529	-28.248536	-12.468992	-28.248536	-12.468992	-0.476887	88.505512
5.750000	-0.589840	87.497230	-33.975418	-109.183262	-33.975418	-109.183262	-0.586854	87.452534
5.800000	-0.415691	84.980900	-32.108406	172.041217	-32.108406	172.041217	-0.415011	84.940235
5.850000	-0.386203	82.052534	-28.419125	162.549165	-28.419125	162.549165	-0.385959	82.018717
5.900000	-0.385112	79.211517	-25.598994	159.768849	-25.598994	159.768849	-0.384986	79.182895
5.950000	-0.396314	76.419173	-23.339664	157.986220	-23.339664	157.986220	-0.396205	76.394758
6.000000	-0.414101	73.640663	-21.479282	156.063596	-21.479282	156.063596	-0.413978	73.620006
6.050000	-0.437014	70.859220	-19.905300	153.915325	-19.905300	153.915325	-0.436865	70.842102
6.100000	-0.464685	68.065441	-18.542378	151.578512	-18.542378	151.578512	-0.464503	68.051764
6.150000	-0.497131	65.253153	-17.339528	149.093251	-17.339528	149.093251	-0.496914	65.242882
6.200000	-0.534553	62.417752	-16.261312	146.488746	-16.261312	146.488746	-0.534298	62.410894
6.250000	-0.577259	59.555475	-15.282393	143.784697	-15.282393	143.784697	-0.576966	59.552072
6.300000	-0.625897	56.661605	-14.383334	140.990722	-14.383334	140.990722	-0.625566	56.661727
6.350000	-0.680719	53.734394	-13.551104	138.119107	-13.551104	138.119107	-0.680351	53.738135
6.400000	-0.742272	50.771143	-12.775004	135.174937	-12.775004	135.174937	-0.741867	50.778620
6.450000	-0.811176	47.769335	-12.046727	132.161313	-12.046727	132.161313	-0.810734	47.780689
6.500000	-0.887700	44.728928	-11.360573	129.083598	-11.360573	129.083598	-0.887224	44.744316
6.550000	-0.973352	41.643751	-10.709804	125.935973	-10.709804	125.935973	-0.972841	41.663373
6.600000	-1.068686	38.513575	-10.090985	122.721503	-10.090985	122.721503	-1.068142	38.537657
6.650000	-1.174673	35.336668	-9.500802	119.439851	-9.500802	119.439851	-1.174094	35.365469
6.700000	-1.292386	32.111581	-8.936610	116.090412	-8.936610	116.090412	-1.291771	32.145397
6.750000	-1.423013	28.837207	-8.396305	112.672466	-8.396305	112.672466	-1.422359	28.876376
6.800000	-1.567866	25.512854	-7.878235	109.185298	-7.878235	109.185298	-1.567168	25.557757
6.850000	-1.728389	22.138322	-7.381128	105.628312	-7.381128	105.628312	-1.727639	22.189394
6.900000	-1.906333	18.713474	-6.903967	102.000375	-6.903967	102.000375	-1.905518	18.771209
6.950000	-2.103470	15.239468	-6.446125	98.301455	-6.446125	98.301455	-2.102574	15.304425
7.000000	-2.321549	11.718821	-6.007239	94.532725	-6.007239	94.532725	-2.320551	11.791623
7.050000	-2.562645	8.154482	-5.587061	90.695119	-5.587061	90.695119	-2.561516	8.235827
7.100000	-2.829019	4.550517	-5.185502	86.790173	-5.185502	86.790173	-2.827723	4.641193
7.150000	-3.123131	0.912286	-4.802604	82.820105	-4.802604	82.820105	-3.121623	1.013176
7.200000	-3.447664	-2.753376	-4.438505	78.787869	-4.438505	78.787869	-3.445888	-2.641274
7.250000	-3.805545	-6.437937	-4.093411	74.697207	-4.093411	74.697207	-3.803433	-6.313494
7.300000	-4.199983	-10.130917	-3.767562	70.552662	-3.767562	70.552662	-4.197447	-9.992848
7.350000	-4.634511	-13.819575	-3.461204	66.359576	-3.461204	66.359576	-4.631446	-13.666406
7.400000	-5.113051	-17.488509	-3.174561	62.124060	-3.174561	62.124060	-5.109328	-17.318536
7.450000	-5.640008	-21.119114	-2.907806	57.852921	-2.907806	57.852921	-5.635465	-20.930346
7.500000	-6.220387	-24.688818	-2.661033	53.553576	-2.661033	53.553576	-6.214820	-24.478901
7.550000	-6.860266	-28.167254	-2.434556	49.233673	-2.434556	49.233673	-6.853410	-27.933294
7.600000	-7.565981	-31.520718	-2.227976	44.902078	-2.227976	44.902078	-7.557493	-31.259259
7.650000	-8.345574	-34.704506	-2.041031	40.567194	-2.041031	40.567194	-8.334991	-34.411293
7.700000	-9.208820	-37.659859	-1.873329	36.237403	-1.873329	36.237403	-9.195502	-37.329588
7.750000	-10.167777	-40.306837	-1.724346	31.920893	-1.724346	31.920893	-10.150806	-39.932835
7.800000	-11.237457	-42.532323	-1.593430	27.625498	-1.593430	27.625498	-11.215469	-42.106169
7.850000	-12.436524	-44.169198	-1.479819	23.358548	-1.479819	23.358548	-12.407410	-43.680385
7.900000	-13.787518	-44.959076	-1.382646	19.126751	-1.382646	19.126751	-13.747878	-44.395113
7.950000	-15.314963	-44.484194	-1.300966	14.936098	-1.300966	14.936098	-15.259101	-43.832536
8.000000	-17.035710	-42.045166	-1.233770	10.791797	-1.233770	10.791797	-16.953853	-41.301546
8.050000	-18.923722	-36.474122	-1.180009	6.698246	-1.180009	6.698246	-18.799704	-35.670909
8.100000	-20.804103	-26.060742	-1.138607	2.659019	-1.138607	2.659019	-20.617360	-25.341797
8.150000	-22.142361	-9.577945	-1.108597	-1.322465	-1.108597	-1.322465	-21.894036	-9.281439
8.200000	-22.221593	9.853237	-1.088878	-5.244153	-1.088878	-5.244153	-21.972580	9.490748
8.250000	-21.120594	25.807462	-1.078291	-9.105410	-1.078291	-9.105410	-20.928595	25.024758
8.300000	-19.555517	35.938017	-1.075833	-12.905616	-1.075833	-12.905616	-19.422297	35.048518
8.350000	-18.000516	41.442696	-1.080732	-16.642959	-1.080732	-16.642959	-17.907843	40.590101
8.400000	-16.615012	44.241616	-1.091465	-20.324089	-1.091465	-20.324089	-16.548314	43.462158
8.450000	-15.412175	45.115291	-1.108073	-23.940506	-1.108073	-23.940506	-15.361937	44.410153
8.500000	-14.372965	44.937758	-1.129083	-27.501441	-1.129083	-27.501441	-14.333765	44.298499
8.550000	-13.473496	44.022559	-1.154104	-31.003909	-1.154104	-31.003909	-13.441923	43.438978
8.600000	-12.689794	42.621096	-1.182404	-34.450722	-1.182404	-34.450722	-12.663714	42.084371
8.650000	-12.001494	40.900291	-1.213267	-37.845867	-1.213267	-37.845867	-11.979534	40.403488
8.700000	-11.396285	38.932493	-1.246357	-41.186318	-1.246357	-41.186318	-11.377480	38.469508
8.750000	-10.856964	36.814820	-1.280918	-44.481929	-1.280918	-44.481929	-10.840684	36.381512
8.800000	-10.379884	34.564877	-1.316746	-47.724688	-1.316746	-47.724688	-10.365635	34.157208
8.850000	-9.950948	32.238467	-1.353254	-50.926655	-1.353254	-50.926655	-9.938399	31.853853
8.900000	-9.567674	29.847153	-1.390151	-54.083202	-1.390151	-54.083202	-9.556556	29.483171
8.950000	-9.222237	27.413578	-1.427103	-57.200556	-1.427103	-57.200556	-9.212350	27.068465
9.000000	-8.911039	24.949059	-1.463813	-60.279338	-1.463813	-60.279338	-8.902220	24.621344
9.050000	-8.630669	22.462717	-1.500013	-63.320947	-1.500013	-63.320947	-8.622784	22.151185
9.100000	-8.376455	19.963110	-1.535533	-66.330164	-1.535533	-66.330164	-8.369394	19.666849
9.150000	-8.148142	17.454206	-1.570034	-69.304551	-1.570034	-69.304551	-8.141801	17.172358
9.200000	-7.940434	14.941258	-1.603536	-72.251496	-1.603536	-72.251496	-7.934732	14.673221
9.250000	-7.754472	12.426791	-1.635621	-75.167290	-1.635621	-75.167290	-7.749322	12.171939
9.300000	-7.585874	9.913192	-1.666397	-78.058592	-1.666397	-78.058592	-7.581206	9.671054
9.350000	-7.434875	7.402293	-1.695558	-80.924215	-1.695558	-80.924215	-7.430616	7.172377
9.400000	-7.299404	4.895118	-1.723088	-83.767292	-1.723088	-83.767292	-7.295489	4.676966
9.450000	-7.178380	2.392495	-1.748892	-86.589513	-1.748892	-86.589513	-7.174747	2.185637
9.500000	-7.071573	-0.104749	-1.772774	-89.391359	-1.772774	-89.391359	-7.068162	-0.300852
9.550000	-6.976793	-2.596912	-1.794884	-92.176583	-1.794884	-92.176583	-6.973553	-2.782794
9.600000	-6.895322	-5.082892	-1.814806	-94.943816	-1.814806	-94.943816	-6.892202	-5.259277
9.650000	-6.824408	-7.563771	-1.832880	-97.697624	-1.832880	-97.697624	-6.821374	-7.731350
9.700000	-6.765406	-10.038694	-1.848693	-100.437065	-1.848693	-100.437065	-6.762426	-10.198429
9.750000	-6.718395	-12.507614	-1.862067	-103.163376	-1.862067	-103.163376	-6.715456	-12.660726
9.800000	-6.678570	-14.973029	-1.873941	-105.882548	-1.873941	-105.882548	-6.675672	-15.120371
9.850000	-6.650287	-17.432866	-1.883276	-108.591115	-1.883276	-108.591115	-6.647453	-17.576026
9.900000	-6.632462	-19.887993	-1.890213	-111.291925	-1.890213	-111.291925	-6.629749	-20.028791
9.950000	-6.622723	-22.339689	-1.895256	-113.987703	-1.895256	-113.987703	-6.620202	-22.479744
10.000000	-6.620992	-24.788105	-1.898399	-116.679057	-1.898399	-116.679057	-6.618748	-24.929149
