! freq	dB(S11)	phase(S11)	dB(S12)	phase(S12)	
!     	dB(S21)	phase(S21)	dB(S22)	phase(S22)	
!S-par simulation data
#  GHz  S  DB  R 50
0.000000	-0.000000	-0.000000	-377.349603	180.000000	-377.349603	180.000000	-0.000000	-0.000000
0.050000	-0.001588	-0.828595	-97.291700	87.358632	-97.291700	87.358632	-0.005663	-2.456805
0.100000	-0.003210	-1.642977	-91.320136	86.334806	-91.320136	86.334806	-0.010393	-4.865842
0.150000	-0.004112	-2.454907	-87.841579	84.978075	-87.841579	84.978075	-0.012815	-7.270736
0.200000	-0.004773	-3.267023	-85.395010	83.543652	-85.395010	83.543652	-0.014630	-9.677097
0.250000	-0.005380	-4.079358	-83.523169	82.085589	-83.523169	82.085589	-0.016366	-12.084304
0.300000	-0.006004	-4.891687	-82.019022	80.626325	-82.019022	80.626325	-0.018204	-14.491511
0.350000	-0.006681	-5.703783	-80.777107	79.179954	-80.777107	79.179954	-0.020223	-16.898016
0.400000	-0.007414	-6.515511	-79.729010	77.754492	-79.729010	77.754492	-0.022426	-19.303436
0.450000	-0.008204	-7.326762	-78.832844	76.357024	-78.832844	76.357024	-0.024810	-21.707481
0.500000	-0.009051	-8.137424	-78.062163	74.996220	-78.062163	74.996220	-0.027368	-24.109858
0.550000	-0.009949	-8.947447	-77.395357	73.678279	-77.395357	73.678279	-0.030078	-26.510459
0.600000	-0.010892	-9.756786	-76.817215	72.410227	-76.817215	72.410227	-0.032920	-28.909193
0.650000	-0.011874	-10.565376	-76.318054	71.202222	-76.318054	71.202222	-0.035877	-31.305929
0.700000	-0.012891	-11.373181	-75.889505	70.064244	-75.889505	70.064244	-0.038931	-33.700620
0.750000	-0.013935	-12.180195	-75.523819	69.005159	-75.523819	69.005159	-0.042060	-36.093307
0.800000	-0.015001	-12.986385	-75.216496	68.038384	-75.216496	68.038384	-0.045249	-38.483971
0.850000	-0.016086	-13.791704	-74.965034	67.182479	-74.965034	67.182479	-0.048484	-40.872573
0.900000	-0.017184	-14.596176	-74.764151	66.449770	-74.764151	66.449770	-0.051749	-43.259249
0.950000	-0.018292	-15.399789	-74.611197	65.859613	-74.611197	65.859613	-0.055032	-45.644056
1.000000	-0.019406	-16.202485	-74.506195	65.444881	-74.506195	65.444881	-0.058323	-48.026973
1.050000	-0.020523	-17.004297	-74.444812	65.225888	-74.444812	65.225888	-0.061612	-50.408178
1.100000	-0.021641	-17.805223	-74.424648	65.233738	-74.424648	65.233738	-0.064893	-52.787771
1.150000	-0.022758	-18.605221	-74.444483	65.516930	-74.444483	65.516930	-0.068159	-55.165807
1.200000	-0.023871	-19.404297	-74.500202	66.118094	-74.500202	66.118094	-0.071404	-57.542427
1.250000	-0.024981	-20.202463	-74.586447	67.081647	-74.586447	67.081647	-0.074626	-59.917787
1.300000	-0.026085	-20.999693	-74.697181	68.472808	-74.697181	68.472808	-0.077821	-62.291995
1.350000	-0.027183	-21.795961	-74.822966	70.363704	-74.822966	70.363704	-0.080988	-64.665178
1.400000	-0.028275	-22.591294	-74.950247	72.795539	-74.950247	72.795539	-0.084127	-67.037522
1.450000	-0.029360	-23.385679	-75.061997	75.817268	-75.061997	75.817268	-0.087236	-69.409177
1.500000	-0.030437	-24.179057	-75.133444	79.483839	-75.133444	79.483839	-0.090315	-71.780281
1.550000	-0.031509	-24.971469	-75.140134	83.738786	-75.140134	83.738786	-0.093367	-74.151035
1.600000	-0.032574	-25.762904	-75.055593	88.499518	-75.055593	88.499518	-0.096392	-76.521610
1.650000	-0.033632	-26.553306	-74.850699	93.624058	-74.850699	93.624058	-0.099391	-78.892193
1.700000	-0.034685	-27.342688	-74.513479	98.878713	-74.513479	98.878713	-0.102367	-81.262981
1.750000	-0.035732	-28.131055	-74.045422	104.024490	-74.045422	104.024490	-0.105322	-83.634167
1.800000	-0.036775	-28.918377	-73.456639	108.839722	-73.456639	108.839722	-0.108257	-86.005961
1.850000	-0.037813	-29.704641	-72.769193	113.156664	-72.769193	113.156664	-0.111176	-88.378577
1.900000	-0.038847	-30.489820	-72.008219	116.872192	-72.008219	116.872192	-0.114081	-90.752251
1.950000	-0.039879	-31.273899	-71.199984	119.956538	-71.199984	119.956538	-0.116974	-93.127221
2.000000	-0.040908	-32.056875	-70.367862	122.436085	-70.367862	122.436085	-0.119857	-95.503711
2.050000	-0.041935	-32.838733	-69.528853	124.357933	-69.528853	124.357933	-0.122735	-97.881965
2.100000	-0.042960	-33.619456	-68.695265	125.781413	-68.695265	125.781413	-0.125608	-100.262231
2.150000	-0.043986	-34.399031	-67.875504	126.768239	-67.875504	126.768239	-0.128479	-102.644767
2.200000	-0.045011	-35.177440	-67.074989	127.376948	-67.074989	127.376948	-0.131351	-105.029836
2.250000	-0.046036	-35.954670	-66.296968	127.660286	-66.296968	127.660286	-0.134226	-107.417704
2.300000	-0.047063	-36.730705	-65.543167	127.664363	-65.543167	127.664363	-0.137107	-109.808647
2.350000	-0.048092	-37.505529	-64.814283	127.428780	-64.814283	127.428780	-0.139995	-112.202944
2.400000	-0.049123	-38.279127	-64.110327	126.987200	-64.110327	126.987200	-0.142892	-114.600879
2.450000	-0.050157	-39.051485	-63.430874	126.368097	-63.430874	126.368097	-0.145801	-117.002739
2.500000	-0.051195	-39.822587	-62.775228	125.595507	-62.775228	125.595507	-0.148723	-119.408818
2.550000	-0.052236	-40.592391	-62.142053	124.687228	-62.142053	124.687228	-0.151661	-121.819517
2.600000	-0.053282	-41.360911	-61.530997	123.663570	-61.530997	123.663570	-0.154615	-124.235041
2.650000	-0.054333	-42.128131	-60.941087	122.538940	-60.941087	122.538940	-0.157587	-126.655692
2.700000	-0.055389	-42.894039	-60.371361	121.325606	-60.371361	121.325606	-0.160578	-129.081772
2.750000	-0.056451	-43.658621	-59.820880	120.034053	-59.820880	120.034053	-0.163589	-131.513584
2.800000	-0.057520	-44.421864	-59.288749	118.673278	-59.288749	118.673278	-0.166622	-133.951429
2.850000	-0.058595	-45.183755	-58.774115	117.251029	-58.774115	117.251029	-0.169676	-136.395611
2.900000	-0.059678	-45.944282	-58.276179	115.774007	-58.276179	115.774007	-0.172753	-138.846428
2.950000	-0.060768	-46.703432	-57.794189	114.248029	-57.794189	114.248029	-0.175854	-141.304179
3.000000	-0.061866	-47.461196	-57.327443	112.678169	-57.327443	112.678169	-0.178977	-143.769157
3.050000	-0.062973	-48.217560	-56.875287	111.068864	-56.875287	111.068864	-0.182124	-146.241651
3.100000	-0.064088	-48.972515	-56.437113	109.424019	-56.437113	109.424019	-0.185294	-148.721945
3.150000	-0.065213	-49.726034	-56.012278	107.746762	-56.012278	107.746762	-0.188488	-151.210407
3.200000	-0.066347	-50.478107	-55.600280	106.040237	-55.600280	106.040237	-0.191704	-153.707315
3.250000	-0.067491	-51.228740	-55.200718	104.307491	-55.200718	104.307491	-0.194942	-156.212840
3.300000	-0.068646	-51.977925	-54.813137	102.550934	-54.813137	102.550934	-0.198202	-158.727231
3.350000	-0.069811	-52.725652	-54.437119	100.772737	-54.437119	100.772737	-0.201481	-161.250726
3.400000	-0.070988	-53.471913	-54.072274	98.974860	-54.072274	98.974860	-0.204778	-163.783550
3.450000	-0.072175	-54.216700	-53.718242	97.159081	-53.718242	97.159081	-0.208093	-166.325912
3.500000	-0.073375	-54.960006	-53.374690	95.327024	-53.374690	95.327024	-0.211423	-168.878009
3.550000	-0.074586	-55.701825	-53.041309	93.480183	-53.041309	93.480183	-0.214767	-171.440017
3.600000	-0.075810	-56.442150	-52.717815	91.619935	-52.717815	91.619935	-0.218122	-174.012096
3.650000	-0.077047	-57.180974	-52.403942	89.747561	-52.403942	89.747561	-0.221486	-176.594387
3.700000	-0.078296	-57.918292	-52.099448	87.864261	-52.099448	87.864261	-0.224857	-179.187007
3.750000	-0.079560	-58.654099	-51.804106	85.971166	-51.804106	85.971166	-0.228231	178.209948
3.800000	-0.080837	-59.388358	-51.517699	84.069184	-51.517699	84.069184	-0.231606	175.596176
3.850000	-0.082128	-60.121097	-51.240059	82.159551	-51.240059	82.159551	-0.234979	172.971860
3.900000	-0.083435	-60.852312	-50.971008	80.243254	-50.971008	80.243254	-0.238347	170.336984
3.950000	-0.084756	-61.581999	-50.710379	78.321252	-50.710379	78.321252	-0.241705	167.691557
4.000000	-0.086092	-62.310156	-50.458018	76.394480	-50.458018	76.394480	-0.245050	165.035622
4.050000	-0.087444	-63.036781	-50.213782	74.463861	-50.213782	74.463861	-0.248379	162.369251
4.100000	-0.088812	-63.761870	-49.977540	72.530307	-49.977540	72.530307	-0.251687	159.692548
4.150000	-0.090197	-64.485423	-49.749167	70.594728	-49.749167	70.594728	-0.254971	157.005651
4.200000	-0.091598	-65.207438	-49.528550	68.658032	-49.528550	68.658032	-0.258227	154.308734
4.250000	-0.093017	-65.927915	-49.315581	66.721136	-49.315581	66.721136	-0.261450	151.602003
4.300000	-0.094453	-66.646851	-49.110158	64.784964	-49.110158	64.784964	-0.264636	148.885704
4.350000	-0.095907	-67.364248	-48.912187	62.850453	-48.912187	62.850453	-0.267781	146.160117
4.400000	-0.097380	-68.080089	-48.721612	60.918597	-48.721612	60.918597	-0.270880	143.425468
4.450000	-0.098872	-68.794375	-48.538355	58.990399	-48.538355	58.990399	-0.273929	140.682128
4.500000	-0.100383	-69.507123	-48.362298	57.066825	-48.362298	57.066825	-0.276924	137.930592
4.550000	-0.101914	-70.218335	-48.193361	55.148892	-48.193361	55.148892	-0.279861	135.171296
4.600000	-0.103464	-70.928012	-48.031461	53.237640	-48.031461	53.237640	-0.282736	132.404714
4.650000	-0.105036	-71.636156	-47.876521	51.334136	-47.876521	51.334136	-0.285545	129.631358
4.700000	-0.106628	-72.342770	-47.728459	49.439474	-47.728459	49.439474	-0.288284	126.851778
4.750000	-0.108242	-73.047857	-47.587196	47.554774	-47.587196	47.554774	-0.290951	124.066558
4.800000	-0.109878	-73.751419	-47.452651	45.681187	-47.452651	45.681187	-0.293541	121.276319
4.850000	-0.111536	-74.453460	-47.324738	43.819890	-47.324738	43.819890	-0.296053	118.481717
4.900000	-0.113217	-75.153984	-47.203370	41.972090	-47.203370	41.972090	-0.298482	115.683440
4.950000	-0.114921	-75.852995	-47.088457	40.139021	-47.088457	40.139021	-0.300828	112.882207
5.000000	-0.116649	-76.550497	-46.979903	38.321944	-46.979903	38.321944	-0.303088	110.078766
5.050000	-0.118401	-77.246462	-46.877716	36.522554	-46.877716	36.522554	-0.305257	107.273881
5.100000	-0.120178	-77.940928	-46.781682	34.741821	-46.781682	34.741821	-0.307338	104.468401
5.150000	-0.121980	-78.633899	-46.691685	32.981085	-46.691685	32.981085	-0.309330	101.663152
5.200000	-0.123808	-79.325383	-46.607602	31.241708	-46.607602	31.241708	-0.311231	98.858977
5.250000	-0.125661	-80.015384	-46.529302	29.525073	-46.529302	29.525073	-0.313042	96.056738
5.300000	-0.127541	-80.703909	-46.456645	27.832581	-46.456645	27.832581	-0.314764	93.257310
5.350000	-0.129448	-81.390964	-46.389480	26.165648	-46.389480	26.165648	-0.316397	90.461579
5.400000	-0.131382	-82.076556	-46.327646	24.525702	-46.327646	24.525702	-0.317943	87.670438
5.450000	-0.133344	-82.760692	-46.270970	22.914178	-46.270970	22.914178	-0.319404	84.884788
5.500000	-0.135333	-83.443379	-46.219267	21.332515	-46.219267	21.332515	-0.320782	82.105529
5.550000	-0.137352	-84.124624	-46.172337	19.782154	-46.172337	19.782154	-0.322080	79.333558
5.600000	-0.139399	-84.804436	-46.129967	18.264525	-46.129967	18.264525	-0.323302	76.569771
5.650000	-0.141476	-85.482808	-46.091972	16.781434	-46.091972	16.781434	-0.324449	73.815163
5.700000	-0.143584	-86.159747	-46.058098	15.334326	-46.058098	15.334326	-0.325527	71.070637
5.750000	-0.145721	-86.835279	-46.028039	13.924197	-46.028039	13.924197	-0.326541	68.336955
5.800000	-0.147890	-87.509412	-46.001514	12.552376	-46.001514	12.552376	-0.327494	65.614961
5.850000	-0.150089	-88.182155	-45.978224	11.220141	-45.978224	11.220141	-0.328393	62.905477
5.900000	-0.152320	-88.853519	-45.957851	9.928711	-45.957851	9.928711	-0.329242	60.209305
5.950000	-0.154583	-89.523513	-45.940059	8.679230	-45.940059	8.679230	-0.330048	57.527220
6.000000	-0.156877	-90.192146	-45.924491	7.472753	-45.924491	7.472753	-0.330816	54.859971
6.050000	-0.159205	-90.859430	-45.910771	6.310235	-45.910771	6.310235	-0.331551	52.208278
6.100000	-0.161565	-91.525376	-45.898501	5.192506	-45.898501	5.192506	-0.332261	49.572830
6.150000	-0.163959	-92.189993	-45.887267	4.120260	-45.887267	4.120260	-0.332952	46.954283
6.200000	-0.166387	-92.853294	-45.876635	3.094034	-45.876635	3.094034	-0.333629	44.353259
6.250000	-0.168849	-93.515290	-45.866153	2.114188	-45.866153	2.114188	-0.334300	41.770346
6.300000	-0.171345	-94.175964	-45.855334	1.181896	-45.855334	1.181896	-0.334971	39.206512
6.350000	-0.173877	-94.835358	-45.843695	0.296077	-45.843695	0.296077	-0.335649	36.661874
6.400000	-0.176444	-95.493484	-45.830740	-0.543576	-45.830740	-0.543576	-0.336339	34.136907
6.450000	-0.179046	-96.150354	-45.815970	-1.337629	-45.815970	-1.337629	-0.337049	31.632046
6.500000	-0.181684	-96.805981	-45.798880	-2.086922	-45.798880	-2.086922	-0.337785	29.147690
6.550000	-0.184358	-97.460379	-45.778966	-2.792581	-45.778966	-2.792581	-0.338553	26.684197
6.600000	-0.187069	-98.113560	-45.755727	-3.456031	-45.755727	-3.456031	-0.339359	24.241890
6.650000	-0.189817	-98.765539	-45.728675	-4.079000	-45.728675	-4.079000	-0.340209	21.821053
6.700000	-0.192602	-99.416329	-45.697339	-4.663523	-45.697339	-4.663523	-0.341109	19.421934
6.750000	-0.195424	-100.065944	-45.661267	-5.211935	-45.661267	-5.211935	-0.342065	17.044743
6.800000	-0.198285	-100.714400	-45.620038	-5.726865	-45.620038	-5.726865	-0.343081	14.689657
6.850000	-0.201184	-101.361710	-45.573264	-6.211214	-45.573264	-6.211214	-0.344164	12.356817
6.900000	-0.204121	-102.007877	-45.520526	-6.667878	-45.520526	-6.667878	-0.345319	10.046572
6.950000	-0.207098	-102.652918	-45.461509	-7.100353	-45.461509	-7.100353	-0.346552	7.759000
7.000000	-0.210114	-103.296859	-45.396031	-7.512513	-45.396031	-7.512513	-0.347865	5.493897
7.050000	-0.213170	-103.939716	-45.323896	-7.908071	-45.323896	-7.908071	-0.349264	3.251275
7.100000	-0.216266	-104.581505	-45.244964	-8.290838	-45.244964	-8.290838	-0.350754	1.031114
7.150000	-0.219402	-105.222243	-45.159153	-8.664675	-45.159153	-8.664675	-0.352337	-1.166632
7.200000	-0.222579	-105.861944	-45.066442	-9.033437	-45.066442	-9.033437	-0.354019	-3.342036
7.250000	-0.225797	-106.500627	-44.966864	-9.400934	-44.966864	-9.400934	-0.355802	-5.495196
7.300000	-0.229056	-107.138307	-44.860510	-9.770876	-44.860510	-9.770876	-0.357690	-7.626235
7.350000	-0.232357	-107.775001	-44.747524	-10.146831	-44.747524	-10.146831	-0.359688	-9.735298
7.400000	-0.235700	-108.410727	-44.628098	-10.532186	-44.628098	-10.532186	-0.361797	-11.822551
7.450000	-0.239085	-109.045501	-44.502467	-10.930113	-44.502467	-10.930113	-0.364021	-13.888181
7.500000	-0.242513	-109.679341	-44.370905	-11.343537	-44.370905	-11.343537	-0.366364	-15.932393
7.550000	-0.245984	-110.312245	-44.233555	-11.775570	-44.233555	-11.775570	-0.368829	-17.954957
7.600000	-0.249500	-110.944252	-44.090921	-12.228232	-44.090921	-12.228232	-0.371419	-19.956579
7.650000	-0.253059	-111.575379	-43.943358	-12.703592	-43.943358	-12.703592	-0.374135	-21.937515
7.700000	-0.256662	-112.205644	-43.791233	-13.203422	-43.791233	-13.203422	-0.376980	-23.898038
7.750000	-0.260309	-112.835067	-43.634923	-13.729209	-43.634923	-13.729209	-0.379956	-25.838430
7.800000	-0.264001	-113.463664	-43.474805	-14.282157	-43.474805	-14.282157	-0.383065	-27.758989
7.850000	-0.267739	-114.091456	-43.311258	-14.863202	-43.311258	-14.863202	-0.386311	-29.660023
7.900000	-0.271521	-114.718461	-43.144650	-15.473031	-43.144650	-15.473031	-0.389695	-31.541850
7.950000	-0.275350	-115.344698	-42.975343	-16.112093	-42.975343	-16.112093	-0.393219	-33.404799
8.000000	-0.279224	-115.970187	-42.803684	-16.780625	-42.803684	-16.780625	-0.396887	-35.249206
8.050000	-0.283145	-116.594946	-42.630004	-17.478670	-42.630004	-17.478670	-0.400699	-37.075417
8.100000	-0.287113	-117.218996	-42.454618	-18.206100	-42.454618	-18.206100	-0.404659	-38.883786
8.150000	-0.291128	-117.842348	-42.277770	-18.962946	-42.277770	-18.962946	-0.408771	-40.674484
8.200000	-0.295192	-118.465024	-42.099743	-19.748782	-42.099743	-19.748782	-0.413036	-42.447892
8.250000	-0.299302	-119.087051	-41.920845	-20.562763	-41.920845	-20.562763	-0.417456	-44.204570
8.300000	-0.303461	-119.708449	-41.741312	-21.404275	-41.741312	-21.404275	-0.422034	-45.944896
8.350000	-0.307668	-120.329239	-41.561355	-22.272627	-41.561355	-22.272627	-0.426772	-47.669252
8.400000	-0.311924	-120.949441	-41.381168	-23.167075	-41.381168	-23.167075	-0.431673	-49.378023
8.450000	-0.316228	-121.569076	-41.200924	-24.086830	-41.200924	-24.086830	-0.436740	-51.071600
8.500000	-0.320582	-122.188165	-41.020778	-25.031076	-41.020778	-25.031076	-0.441975	-52.750377
8.550000	-0.324985	-122.806729	-40.840866	-25.998979	-40.840866	-25.998979	-0.447383	-54.414750
8.600000	-0.329437	-123.424790	-40.661307	-26.989697	-40.661307	-26.989697	-0.452967	-56.065120
8.650000	-0.333940	-124.042368	-40.482202	-28.002391	-40.482202	-28.002391	-0.458730	-57.701889
8.700000	-0.338492	-124.659485	-40.303641	-29.036233	-40.303641	-29.036233	-0.464676	-59.325465
8.750000	-0.343095	-125.276163	-40.125694	-30.090411	-40.125694	-30.090411	-0.470809	-60.936255
8.800000	-0.347750	-125.892412	-39.948328	-31.164751	-39.948328	-31.164751	-0.477141	-62.534279
8.850000	-0.352456	-126.508267	-39.771688	-32.257827	-39.771688	-32.257827	-0.483669	-64.120372
8.900000	-0.357213	-127.123750	-39.595808	-33.368916	-39.595808	-33.368916	-0.490400	-65.694949
8.950000	-0.362021	-127.738886	-39.420713	-34.497329	-39.420713	-34.497329	-0.497337	-67.258430
9.000000	-0.366881	-128.353695	-39.246417	-35.642416	-39.246417	-35.642416	-0.504488	-68.811237
9.050000	-0.371792	-128.968201	-39.072926	-36.803572	-39.072926	-36.803572	-0.511857	-70.353794
9.100000	-0.376755	-129.582426	-38.900239	-37.980232	-38.900239	-37.980232	-0.519453	-71.886528
9.150000	-0.381770	-130.196395	-38.728346	-39.171878	-38.728346	-39.171878	-0.527281	-73.409871
9.200000	-0.386837	-130.810130	-38.557233	-40.378038	-38.557233	-40.378038	-0.535349	-74.924254
9.250000	-0.391956	-131.423655	-38.386877	-41.598287	-38.386877	-41.598287	-0.543666	-76.430116
9.300000	-0.397128	-132.036994	-38.217254	-42.832248	-38.217254	-42.832248	-0.552239	-77.927896
9.350000	-0.402352	-132.650170	-38.048332	-44.079593	-38.048332	-44.079593	-0.561079	-79.418039
9.400000	-0.407628	-133.263208	-37.880078	-45.340044	-37.880078	-45.340044	-0.570194	-80.900992
9.450000	-0.412957	-133.876133	-37.712454	-46.613369	-37.712454	-46.613369	-0.579595	-82.377209
9.500000	-0.418338	-134.488968	-37.545421	-47.899390	-37.545421	-47.899390	-0.589295	-83.847148
9.550000	-0.423772	-135.101738	-37.378935	-49.197975	-37.378935	-49.197975	-0.599303	-85.311270
9.600000	-0.429258	-135.714468	-37.212953	-50.509045	-37.212953	-50.509045	-0.609634	-86.770044
9.650000	-0.434797	-136.327185	-37.047429	-51.832567	-37.047429	-51.832567	-0.620301	-88.223944
9.700000	-0.440389	-136.939912	-36.882317	-53.168563	-36.882317	-53.168563	-0.631318	-89.673451
9.750000	-0.446034	-137.552675	-36.717570	-54.517101	-36.717570	-54.517101	-0.642702	-91.119053
9.800000	-0.451730	-138.165501	-36.553143	-55.878303	-36.553143	-55.878303	-0.654469	-92.561243
9.850000	-0.457480	-138.778415	-36.388988	-57.252338	-36.388988	-57.252338	-0.666636	-94.000526
9.900000	-0.463281	-139.391444	-36.225060	-58.639428	-36.225060	-58.639428	-0.679224	-95.437413
9.950000	-0.469135	-140.004613	-36.061316	-60.039845	-36.061316	-60.039845	-0.692252	-96.872425
10.000000	-0.475041	-140.617951	-35.897714	-61.453915	-35.897714	-61.453915	-0.705743	-98.306092
