! freq	dB(S11)	phase(S11)	dB(S12)	phase(S12)	
!     	dB(S21)	phase(S21)	dB(S22)	phase(S22)	
!S-par simulation data
#  GHz  S  DB  R 50
0.000000	-0.000000	0.000000	-360.248869	0.000000	-360.248869	0.000000	-0.000000	0.000000
0.050000	-0.000745	-1.143372	-113.840998	89.504616	-113.840998	89.504616	-0.000514	-0.766314
0.100000	-0.002486	-2.281059	-107.895012	88.317522	-107.895012	88.317522	-0.001679	-1.528527
0.150000	-0.004456	-3.412505	-104.462806	87.281982	-104.462806	87.281982	-0.002942	-2.286530
0.200000	-0.006259	-4.539817	-102.091708	86.339681	-102.091708	86.339681	-0.004062	-3.041973
0.250000	-0.007869	-5.665234	-100.310063	85.471553	-100.310063	85.471553	-0.005050	-3.796339
0.300000	-0.009327	-6.789626	-98.919926	84.687427	-98.919926	84.687427	-0.005948	-4.550174
0.350000	-0.010697	-7.913466	-97.813988	83.999767	-97.813988	83.999767	-0.006804	-5.303754
0.400000	-0.012029	-9.036909	-96.930835	83.427854	-96.930835	83.427854	-0.007655	-6.057175
0.450000	-0.013354	-10.159918	-96.241745	83.011183	-96.241745	83.011183	-0.008527	-6.810448
0.500000	-0.014691	-11.282461	-95.710281	82.770021	-95.710281	82.770021	-0.009429	-7.563579
0.550000	-0.016046	-12.404435	-95.320365	82.747138	-95.320365	82.747138	-0.010364	-8.316552
0.600000	-0.017420	-13.525728	-95.061966	82.999278	-95.061966	82.999278	-0.011328	-9.069344
0.650000	-0.018809	-14.646215	-94.929327	83.602605	-94.929327	83.602605	-0.012315	-9.821920
0.700000	-0.020210	-15.765770	-94.919615	84.660611	-94.919615	84.660611	-0.013315	-10.574230
0.750000	-0.021619	-16.884194	-95.038547	86.364825	-95.038547	86.364825	-0.014319	-11.326183
0.800000	-0.023030	-18.001347	-95.281208	88.950983	-95.281208	88.950983	-0.015318	-12.077687
0.850000	-0.024440	-19.117126	-95.631353	92.731759	-95.631353	92.731759	-0.016305	-12.828656
0.900000	-0.025847	-20.231525	-96.054392	97.995541	-96.054392	97.995541	-0.017280	-13.579047
0.950000	-0.027250	-21.344355	-96.489915	105.276244	-96.489915	105.276244	-0.018242	-14.328753
1.000000	-0.028649	-22.455522	-96.810379	114.942328	-96.810379	114.942328	-0.019193	-15.077708
1.050000	-0.030043	-23.564937	-96.823391	126.881732	-96.823391	126.881732	-0.020135	-15.825866
1.100000	-0.031434	-24.672525	-96.342508	140.070327	-96.342508	140.070327	-0.021072	-16.573191
1.150000	-0.032821	-25.778219	-95.324268	152.729732	-95.324268	152.729732	-0.022007	-17.319662
1.200000	-0.034206	-26.881961	-93.910503	163.361283	-93.910503	163.361283	-0.022942	-18.065265
1.250000	-0.035590	-27.983700	-92.306521	171.486257	-92.306521	171.486257	-0.023878	-18.809993
1.300000	-0.036972	-29.083299	-90.654584	177.301972	-90.654584	177.301972	-0.024817	-19.553802
1.350000	-0.038353	-30.180804	-89.052507	-178.582693	-89.052507	-178.582693	-0.025759	-20.296727
1.400000	-0.039734	-31.276179	-87.531951	-175.731413	-87.531951	-175.731413	-0.026705	-21.038765
1.450000	-0.041115	-32.369389	-86.101199	-173.812936	-86.101199	-173.812936	-0.027653	-21.779914
1.500000	-0.042495	-33.460401	-84.758091	-172.587748	-84.758091	-172.587748	-0.028605	-22.520170
1.550000	-0.043874	-34.549186	-83.496383	-171.884848	-83.496383	-171.884848	-0.029559	-23.259527
1.600000	-0.045253	-35.635713	-82.308666	-171.581682	-82.308666	-171.581682	-0.030516	-23.997981
1.650000	-0.046631	-36.719955	-81.187626	-171.589411	-81.187626	-171.589411	-0.031474	-24.735526
1.700000	-0.048008	-37.801882	-80.126539	-171.842693	-80.126539	-171.842693	-0.032434	-25.472154
1.750000	-0.049384	-38.881468	-79.119416	-172.292714	-79.119416	-172.292714	-0.033395	-26.207858
1.800000	-0.050758	-39.958686	-78.160999	-172.902447	-78.160999	-172.902447	-0.034357	-26.942630
1.850000	-0.052132	-41.033510	-77.246699	-173.643385	-77.246699	-173.643385	-0.035319	-27.676460
1.900000	-0.053504	-42.105915	-76.372515	-174.493281	-76.372515	-174.493281	-0.036283	-28.409339
1.950000	-0.054875	-43.175875	-75.534953	-175.434546	-75.534953	-175.434546	-0.037247	-29.141257
2.000000	-0.056245	-44.243365	-74.730957	-176.453108	-74.730957	-176.453108	-0.038212	-29.872204
2.050000	-0.057614	-45.308362	-73.957839	-177.537586	-73.957839	-177.537586	-0.039178	-30.602169
2.100000	-0.058983	-46.370842	-73.213230	-178.678681	-73.213230	-178.678681	-0.040145	-31.331142
2.150000	-0.060351	-47.430783	-72.495030	-179.868725	-72.495030	-179.868725	-0.041112	-32.059111
2.200000	-0.061719	-48.488161	-71.801372	178.898662	-71.801372	178.898662	-0.042081	-32.786065
2.250000	-0.063088	-49.542956	-71.130588	177.628828	-71.130588	177.628828	-0.043052	-33.511993
2.300000	-0.064457	-50.595146	-70.481182	176.326291	-70.481182	176.326291	-0.044024	-34.236882
2.350000	-0.065828	-51.644713	-69.851808	174.994896	-69.851808	174.994896	-0.044998	-34.960722
2.400000	-0.067200	-52.691635	-69.241250	173.637932	-69.241250	173.637932	-0.045974	-35.683501
2.450000	-0.068574	-53.735896	-68.648406	172.258232	-68.648406	172.258232	-0.046953	-36.405206
2.500000	-0.069952	-54.777478	-68.072272	170.858252	-68.072272	170.858252	-0.047935	-37.125827
2.550000	-0.071333	-55.816246	-67.511056	169.439425	-67.511056	169.439425	-0.048921	-37.845304
2.600000	-0.072718	-56.852300	-66.964891	168.004469	-66.964891	168.004469	-0.049910	-38.563672
2.650000	-0.074107	-57.885628	-66.432999	166.555000	-66.432999	166.555000	-0.050903	-39.280920
2.700000	-0.075502	-58.916214	-65.914665	165.092447	-65.914665	165.092447	-0.051901	-39.997036
2.750000	-0.076903	-59.944048	-65.409230	163.618077	-65.409230	163.618077	-0.052904	-40.712010
2.800000	-0.078310	-60.969116	-64.916085	162.133019	-64.916085	162.133019	-0.053912	-41.425830
2.850000	-0.079724	-61.991409	-64.434664	160.638284	-64.434664	160.638284	-0.054925	-42.138485
2.900000	-0.081146	-63.010917	-63.964445	159.134776	-63.964445	159.134776	-0.055945	-42.849965
2.950000	-0.082577	-64.027632	-63.504940	157.623311	-63.504940	157.623311	-0.056971	-43.560260
3.000000	-0.084016	-65.041546	-63.055695	156.104622	-63.055695	156.104622	-0.058004	-44.269358
3.050000	-0.085465	-66.052655	-62.616286	154.579376	-62.616286	154.579376	-0.059044	-44.977250
3.100000	-0.086925	-67.060951	-62.186315	153.048175	-62.186315	153.048175	-0.060092	-45.683927
3.150000	-0.088396	-68.066432	-61.765412	151.511567	-61.765412	151.511567	-0.061147	-46.389377
3.200000	-0.089878	-69.069095	-61.353227	149.970054	-61.353227	149.970054	-0.062211	-47.093593
3.250000	-0.091372	-70.068938	-60.949433	148.424092	-60.949433	148.424092	-0.063284	-47.796565
3.300000	-0.092880	-71.065960	-60.553721	146.874100	-60.553721	146.874100	-0.064366	-48.498284
3.350000	-0.094400	-72.060162	-60.165798	145.320461	-60.165798	145.320461	-0.065458	-49.198742
3.400000	-0.095935	-73.051544	-59.785392	143.763529	-59.785392	143.763529	-0.066559	-49.897931
3.450000	-0.097485	-74.040111	-59.412242	142.203627	-59.412242	142.203627	-0.067671	-50.595842
3.500000	-0.099050	-75.025865	-59.046103	140.641056	-59.046103	140.641056	-0.068793	-51.292467
3.550000	-0.100631	-76.008812	-58.686740	139.076093	-58.686740	139.076093	-0.069927	-51.987800
3.600000	-0.102228	-76.988956	-58.333935	137.508994	-58.333935	137.508994	-0.071072	-52.681833
3.650000	-0.103843	-77.966306	-57.987476	135.939996	-57.987476	135.939996	-0.072228	-53.374560
3.700000	-0.105475	-78.940869	-57.647165	134.369319	-57.647165	134.369319	-0.073397	-54.065974
3.750000	-0.107125	-79.912654	-57.312811	132.797168	-57.312811	132.797168	-0.074578	-54.756068
3.800000	-0.108795	-80.881551	-56.983947	131.223685	-56.983947	131.223685	-0.075773	-55.444780
3.850000	-0.110485	-81.847692	-56.660709	129.649110	-56.660709	129.649110	-0.076981	-56.132160
3.900000	-0.112194	-82.811089	-56.342932	128.073607	-56.342932	128.073607	-0.078203	-56.818204
3.950000	-0.113924	-83.771756	-56.030457	126.497328	-56.030457	126.497328	-0.079439	-57.502907
4.000000	-0.115674	-84.729707	-55.723134	124.920416	-55.723134	124.920416	-0.080689	-58.186265
4.050000	-0.117446	-85.684956	-55.420816	123.343004	-55.420816	123.343004	-0.081954	-58.868272
4.100000	-0.119240	-86.637521	-55.123367	121.765217	-55.123367	121.765217	-0.083234	-59.548925
4.150000	-0.121057	-87.587417	-54.830653	120.187172	-54.830653	120.187172	-0.084530	-60.228220
4.200000	-0.122897	-88.534662	-54.542548	118.608979	-54.542548	118.608979	-0.085841	-60.906155
4.250000	-0.124760	-89.479276	-54.258930	117.030739	-54.258930	117.030739	-0.087168	-61.582725
4.300000	-0.126647	-90.421279	-53.979683	115.452551	-53.979683	115.452551	-0.088513	-62.257929
4.350000	-0.128558	-91.360690	-53.704693	113.874503	-53.704693	113.874503	-0.089874	-62.931764
4.400000	-0.130495	-92.297531	-53.433853	112.296682	-53.433853	112.296682	-0.091252	-63.604228
4.450000	-0.132457	-93.231824	-53.167060	110.719167	-53.167060	110.719167	-0.092648	-64.275319
4.500000	-0.134445	-94.163593	-52.904214	109.142034	-52.904214	109.142034	-0.094062	-64.945035
4.550000	-0.136459	-95.092861	-52.645219	107.565354	-52.645219	107.565354	-0.095495	-65.613376
4.600000	-0.138500	-96.019652	-52.389983	105.989193	-52.389983	105.989193	-0.096946	-66.280340
4.650000	-0.140568	-96.943994	-52.138417	104.413614	-52.138417	104.413614	-0.098417	-66.945927
4.700000	-0.142664	-97.865910	-51.890436	102.838676	-51.890436	102.838676	-0.099907	-67.610137
4.750000	-0.144787	-98.785429	-51.645956	101.264436	-51.645956	101.264436	-0.101417	-68.272970
4.800000	-0.146940	-99.702579	-51.404898	99.690946	-51.404898	99.690946	-0.102947	-68.934426
4.850000	-0.149121	-100.617387	-51.167185	98.118256	-51.167185	98.118256	-0.104497	-69.594506
4.900000	-0.151332	-101.529882	-50.932743	96.546414	-50.932743	96.546414	-0.106069	-70.253211
4.950000	-0.153572	-102.440095	-50.701500	94.975463	-50.701500	94.975463	-0.107662	-70.910541
5.000000	-0.155843	-103.348056	-50.473386	93.405445	-50.473386	93.405445	-0.109277	-71.566498
5.050000	-0.158146	-104.253700	-50.248216	91.836446	-50.248216	91.836446	-0.110915	-72.221025
5.100000	-0.160480	-105.157159	-50.026051	90.268461	-50.026051	90.268461	-0.112575	-72.874184
5.150000	-0.162845	-106.058463	-49.806829	88.701526	-49.806829	88.701526	-0.114259	-73.525976
5.200000	-0.165242	-106.957646	-49.590488	87.135674	-49.590488	87.135674	-0.115966	-74.176404
5.250000	-0.167671	-107.854742	-49.376970	85.570938	-49.376970	85.570938	-0.117696	-74.825471
5.300000	-0.170133	-108.749786	-49.166217	84.007347	-49.166217	84.007347	-0.119450	-75.473181
5.350000	-0.172628	-109.642811	-48.958174	82.444931	-48.958174	82.444931	-0.121229	-76.119536
5.400000	-0.175156	-110.533853	-48.752786	80.883717	-48.752786	80.883717	-0.123033	-76.764541
5.450000	-0.177729	-111.422288	-48.549268	79.324169	-48.549268	79.324169	-0.124871	-77.407732
5.500000	-0.180321	-112.309721	-48.349325	77.765271	-48.349325	77.765271	-0.126722	-78.050222
5.550000	-0.182955	-113.194891	-48.151447	76.207936	-48.151447	76.207936	-0.128605	-78.691086
5.600000	-0.185618	-114.078446	-47.956277	74.651719	-47.956277	74.651719	-0.130511	-79.330787
5.650000	-0.188319	-114.960144	-47.763441	73.096890	-47.763441	73.096890	-0.132445	-79.969105
5.700000	-0.191056	-115.839987	-47.572883	71.543448	-47.572883	71.543448	-0.134408	-80.606040
5.750000	-0.193825	-116.718354	-47.384889	69.991198	-47.384889	69.991198	-0.136394	-81.241831
5.800000	-0.196638	-117.594654	-47.198789	68.440616	-47.198789	68.440616	-0.138414	-81.876021
5.850000	-0.199476	-118.469832	-47.015450	66.891012	-47.015450	66.891012	-0.140455	-82.509306
5.900000	-0.202366	-119.342765	-46.833662	65.343367	-46.833662	65.343367	-0.142535	-83.140778
5.950000	-0.205275	-120.214900	-46.654799	63.796472	-46.654799	63.796472	-0.144630	-83.771578
6.000000	-0.208242	-121.084643	-46.477187	62.251833	-46.477187	62.251833	-0.146772	-84.400360
6.050000	-0.211223	-121.953885	-46.302633	60.707705	-46.302633	60.707705	-0.148924	-85.028698
6.100000	-0.214270	-122.820621	-46.129065	59.166135	-46.129065	59.166135	-0.151129	-85.654820
6.150000	-0.217324	-123.687122	-45.958663	57.624826	-45.958663	57.624826	-0.153340	-86.280722
6.200000	-0.220452	-124.551037	-45.789013	56.086383	-45.789013	56.086383	-0.155609	-86.904215
6.250000	-0.223580	-125.414951	-45.622615	54.547940	-45.622615	54.547940	-0.157880	-87.527707
6.300000	-0.226790	-126.276234	-45.456766	53.012677	-45.456766	53.012677	-0.160216	-88.148604
6.350000	-0.230000	-127.137517	-45.294025	51.477415	-45.294025	51.477415	-0.162553	-88.769502
6.400000	-0.233286	-127.996563	-45.132068	49.945110	-45.132068	49.945110	-0.164952	-89.388052
6.450000	-0.236580	-128.855407	-44.972879	48.413074	-44.972879	48.413074	-0.167357	-90.006389
6.500000	-0.239944	-129.712381	-44.814679	46.883763	-44.814679	46.883763	-0.169821	-90.622624
6.550000	-0.243322	-130.568982	-44.658941	45.354998	-44.658941	45.354998	-0.172296	-91.238439
6.600000	-0.246764	-131.424049	-44.504370	43.828713	-44.504370	43.828713	-0.174826	-91.852390
6.650000	-0.250228	-132.278606	-44.351986	42.303256	-44.351986	42.303256	-0.177373	-92.465721
6.700000	-0.253749	-133.131935	-44.200923	40.780026	-44.200923	40.780026	-0.179969	-93.077422
6.750000	-0.257300	-133.984651	-44.051800	39.257911	-44.051800	39.257911	-0.182590	-93.688310
6.800000	-0.260902	-134.836412	-43.904130	37.737762	-43.904130	37.737762	-0.185255	-94.297796
6.850000	-0.264540	-135.687491	-43.758180	36.219018	-43.758180	36.219018	-0.187952	-94.906283
6.900000	-0.268223	-136.537857	-43.613793	34.701973	-43.613793	34.701973	-0.190687	-95.513590
6.950000	-0.271950	-137.387508	-43.470932	33.186626	-43.470932	33.186626	-0.193460	-96.119720
7.000000	-0.275715	-138.236653	-43.329724	31.672703	-43.329724	31.672703	-0.196267	-96.724886
7.050000	-0.279531	-139.085087	-43.189870	30.160773	-43.189870	30.160773	-0.199119	-97.328703
7.100000	-0.283378	-139.933187	-43.051743	28.649987	-43.051743	28.649987	-0.201998	-97.931766
7.150000	-0.287285	-140.780619	-42.914818	27.141490	-42.914818	27.141490	-0.204930	-98.533319
7.200000	-0.291216	-141.627853	-42.779678	25.633855	-42.779678	25.633855	-0.207884	-99.134317
7.250000	-0.295214	-142.474498	-42.645607	24.128802	-42.645607	24.128802	-0.210898	-99.733654
7.300000	-0.299228	-143.321048	-42.513365	22.624324	-42.513365	22.624324	-0.213927	-100.332629
7.350000	-0.303318	-144.167125	-42.382077	21.122722	-42.382077	21.122722	-0.217025	-100.929799
7.400000	-0.307417	-145.013173	-42.252647	19.621407	-42.252647	19.621407	-0.220132	-101.526793
7.450000	-0.311599	-145.858903	-42.124073	18.123256	-42.124073	18.123256	-0.223315	-102.121848
7.500000	-0.315783	-146.704633	-41.997375	16.625106	-41.997375	16.625106	-0.226499	-102.716903
7.550000	-0.320058	-147.550242	-41.871449	15.130402	-41.871449	15.130402	-0.229769	-103.309896
7.600000	-0.324334	-148.395850	-41.747323	13.635698	-41.747323	13.635698	-0.233040	-103.902889
7.650000	-0.328695	-149.241553	-41.624064	12.144145	-41.624064	12.144145	-0.236391	-104.494040
7.700000	-0.333064	-150.087265	-41.502450	10.652879	-41.502450	10.652879	-0.239750	-105.085025
7.750000	-0.337511	-150.933255	-41.381783	9.164465	-41.381783	9.164465	-0.243183	-105.674382
7.800000	-0.341974	-151.779301	-41.262625	7.676620	-41.262625	7.676620	-0.246632	-106.263413
7.850000	-0.346506	-152.625769	-41.144480	6.191327	-41.144480	6.191327	-0.250149	-106.851023
7.900000	-0.351063	-153.472379	-41.027723	4.706883	-41.027723	4.706883	-0.253689	-107.438158
7.950000	-0.355681	-154.319520	-40.912033	3.224689	-40.912033	3.224689	-0.257291	-108.024069
8.000000	-0.360331	-155.166928	-40.797625	1.743619	-40.797625	1.743619	-0.260923	-108.609366
8.050000	-0.365036	-156.014938	-40.684324	0.264498	-40.684324	0.264498	-0.264610	-109.193627
8.100000	-0.369779	-156.863380	-40.572215	-1.213231	-40.572215	-1.213231	-0.268337	-109.777146
8.150000	-0.374569	-157.712457	-40.461245	-2.689310	-40.461245	-2.689310	-0.272111	-110.359806
8.200000	-0.379406	-158.562171	-40.351388	-4.163738	-40.351388	-4.163738	-0.275933	-110.941608
8.250000	-0.384282	-159.412514	-40.242689	-5.636809	-40.242689	-5.636809	-0.279795	-111.522720
8.300000	-0.389211	-160.263740	-40.135039	-7.107981	-40.135039	-7.107981	-0.283713	-112.102866
8.350000	-0.394164	-161.115395	-40.028593	-8.578350	-40.028593	-8.578350	-0.287656	-112.682611
8.400000	-0.399177	-161.968180	-39.923151	-10.046647	-39.923151	-10.046647	-0.291662	-113.261328
8.450000	-0.404233	-162.821880	-39.818781	-11.513427	-39.818781	-11.513427	-0.295715	-113.839300
8.500000	-0.409333	-163.676551	-39.715472	-12.978700	-39.715472	-12.978700	-0.299815	-114.416545
8.550000	-0.414476	-164.532250	-39.613214	-14.442483	-39.613214	-14.442483	-0.303963	-114.993076
8.600000	-0.419663	-165.389033	-39.511997	-15.904789	-39.511997	-15.904789	-0.308158	-115.568908
8.650000	-0.424893	-166.246957	-39.411810	-17.365634	-39.411810	-17.365634	-0.312402	-116.144058
8.700000	-0.430165	-167.106080	-39.312645	-18.825034	-39.312645	-18.825034	-0.316694	-116.718540
8.750000	-0.435480	-167.966458	-39.214492	-20.283006	-39.214492	-20.283006	-0.321035	-117.292371
8.800000	-0.440839	-168.828209	-39.117338	-21.739505	-39.117338	-21.739505	-0.325426	-117.865539
8.850000	-0.446239	-169.691337	-39.021181	-23.194611	-39.021181	-23.194611	-0.329866	-118.438088
8.900000	-0.451681	-170.555899	-38.926012	-24.648343	-38.926012	-24.648343	-0.334355	-119.010035
8.950000	-0.457164	-171.421953	-38.831823	-26.100719	-38.831823	-26.100719	-0.338894	-119.581396
9.000000	-0.462687	-172.289559	-38.738606	-27.551758	-38.738606	-27.551758	-0.343481	-120.152187
9.050000	-0.468249	-173.158774	-38.646356	-29.001479	-38.646356	-29.001479	-0.348119	-120.722426
9.100000	-0.473852	-174.029657	-38.555064	-30.449901	-38.555064	-30.449901	-0.352806	-121.292128
9.150000	-0.479493	-174.902268	-38.464725	-31.897046	-38.464725	-31.897046	-0.357542	-121.861310
9.200000	-0.485172	-175.776665	-38.375333	-33.342931	-38.375333	-33.342931	-0.362329	-122.429990
9.250000	-0.490889	-176.652908	-38.286882	-34.787580	-38.286882	-34.787580	-0.367166	-122.998185
9.300000	-0.496643	-177.531056	-38.199367	-36.231011	-38.199367	-36.231011	-0.372052	-123.565913
9.350000	-0.502434	-178.411169	-38.112782	-37.673245	-38.112782	-37.673245	-0.376989	-124.133190
9.400000	-0.508260	-179.293306	-38.027124	-39.114303	-38.027124	-39.114303	-0.381976	-124.700034
9.450000	-0.514121	179.822473	-37.942389	-40.554207	-37.942389	-40.554207	-0.387014	-125.266464
9.500000	-0.520015	178.936108	-37.858571	-41.992977	-37.858571	-41.992977	-0.392101	-125.832497
9.550000	-0.525944	178.047538	-37.775669	-43.430633	-37.775669	-43.430633	-0.397239	-126.398152
9.600000	-0.531904	177.156705	-37.693678	-44.867196	-37.693678	-44.867196	-0.402428	-126.963447
9.650000	-0.537896	176.263547	-37.612597	-46.302687	-37.612597	-46.302687	-0.407666	-127.528400
9.700000	-0.543919	175.368004	-37.532422	-47.737125	-37.532422	-47.737125	-0.412955	-128.093031
9.750000	-0.549970	174.470015	-37.453152	-49.170531	-37.453152	-49.170531	-0.418295	-128.657358
9.800000	-0.556051	173.569522	-37.374786	-50.602923	-37.374786	-50.602923	-0.423684	-129.221400
9.850000	-0.562158	172.666462	-37.297321	-52.034321	-37.297321	-52.034321	-0.429124	-129.785177
9.900000	-0.568292	171.760776	-37.220757	-53.464744	-37.220757	-53.464744	-0.434614	-130.348707
9.950000	-0.574451	170.852404	-37.145095	-54.894208	-37.145095	-54.894208	-0.440154	-130.912012
10.000000	-0.580634	169.941284	-37.070332	-56.322731	-37.070332	-56.322731	-0.445743	-131.475110
