! freq	dB(S11)	phase(S11)	dB(S12)	phase(S12)	
!     	dB(S21)	phase(S21)	dB(S22)	phase(S22)	
!S-par simulation data
#  GHz  S  DB  R 50
0.000000	-82.735342	0.000000	-0.000634	0.000000	-0.000634	0.000000	-82.735342	0.000000
0.050000	-46.196624	-89.512579	-0.008035	-2.721148	-0.008035	-2.721148	-45.545940	-90.444647
0.100000	-39.872398	-94.041012	-0.012399	-5.397520	-0.012399	-5.397520	-39.637183	-92.774415
0.150000	-36.285001	-98.459132	-0.016118	-8.073239	-0.016118	-8.073239	-36.193722	-95.129982
0.200000	-33.795327	-102.467235	-0.020114	-10.746487	-0.020114	-10.746487	-33.749606	-97.456112
0.250000	-31.889364	-106.202706	-0.024388	-13.416276	-0.024388	-13.416276	-31.857137	-99.728378
0.300000	-30.345691	-109.790487	-0.028838	-16.082888	-0.028838	-16.082888	-30.317079	-101.951248
0.350000	-29.051146	-113.300571	-0.033401	-18.746933	-0.033401	-18.746933	-29.023501	-104.132272
0.400000	-27.938899	-116.769504	-0.038052	-21.409126	-0.038052	-21.409126	-27.911790	-106.279646
0.450000	-26.967179	-120.214552	-0.042792	-24.069912	-0.042792	-24.069912	-26.940821	-108.397364
0.500000	-26.108424	-123.645940	-0.047637	-26.729598	-0.047637	-26.729598	-26.083230	-110.487369
0.550000	-25.341170	-127.070906	-0.052587	-29.388498	-0.052587	-29.388498	-25.317492	-112.554015
0.600000	-24.650452	-130.493240	-0.057645	-32.046751	-0.057645	-32.046751	-24.628578	-114.598886
0.650000	-24.025632	-133.915857	-0.062813	-34.704426	-0.062813	-34.704426	-24.005808	-116.622260
0.700000	-23.457887	-137.341230	-0.068078	-37.361586	-0.068078	-37.361586	-23.440298	-118.625104
0.750000	-22.939478	-140.771083	-0.073422	-40.018282	-0.073422	-40.018282	-22.924244	-120.608899
0.800000	-22.464740	-144.206982	-0.078826	-42.674523	-0.078826	-42.674523	-22.451951	-122.573963
0.850000	-22.030205	-147.651106	-0.084271	-45.330270	-0.084271	-45.330270	-22.019958	-124.518981
0.900000	-21.631097	-151.104585	-0.089731	-47.985536	-0.089731	-47.985536	-21.623456	-126.444981
0.950000	-21.263924	-154.568674	-0.095186	-50.640316	-0.095186	-50.640316	-21.258946	-128.352003
1.000000	-20.926141	-158.044940	-0.100617	-53.294593	-0.100617	-53.294593	-20.923891	-130.239372
1.050000	-20.616355	-161.535857	-0.106004	-55.948335	-0.106004	-55.948335	-20.616922	-132.105148
1.100000	-20.331342	-165.041900	-0.111335	-58.601604	-0.111335	-58.601604	-20.334803	-133.950176
1.150000	-20.069325	-168.564517	-0.116601	-61.254442	-0.116601	-61.254442	-20.075767	-135.773660
1.200000	-19.829358	-172.106060	-0.121789	-63.906901	-0.121789	-63.906901	-19.838892	-137.573669
1.250000	-19.610106	-175.668409	-0.126891	-66.559085	-0.126891	-66.559085	-19.622857	-139.348912
1.300000	-19.409633	-179.252224	-0.131906	-69.211126	-0.131906	-69.211126	-19.425720	-141.099411
1.350000	-19.226830	177.140908	-0.136827	-71.863157	-0.136827	-71.863157	-19.246381	-142.824012
1.400000	-19.061647	173.507381	-0.141644	-74.515350	-0.141644	-74.515350	-19.084820	-144.519366
1.450000	-18.912410	169.846672	-0.146357	-77.167881	-0.146357	-77.167881	-18.939350	-146.185506
1.500000	-18.778021	166.157570	-0.150964	-79.820918	-0.150964	-79.820918	-18.808872	-147.821622
1.550000	-18.657828	162.438014	-0.155461	-82.474644	-0.155461	-82.474644	-18.692740	-149.425973
1.600000	-18.551903	158.683758	-0.159839	-85.129324	-0.159839	-85.129324	-18.591043	-150.994611
1.650000	-18.458547	154.895521	-0.164104	-87.785080	-0.164104	-87.785080	-18.502059	-152.528668
1.700000	-18.377166	151.071331	-0.168257	-90.442096	-0.168257	-90.442096	-18.425193	-154.026466
1.750000	-18.307397	147.208296	-0.172295	-93.100596	-0.172295	-93.100596	-18.360087	-155.485410
1.800000	-18.248488	143.304892	-0.176221	-95.760749	-0.176221	-95.760749	-18.305980	-156.904265
1.850000	-18.199803	139.359271	-0.180038	-98.422732	-0.180038	-98.422732	-18.262234	-158.281455
1.900000	-18.160814	135.369134	-0.183751	-101.086736	-0.183751	-101.086736	-18.228313	-159.614939
1.950000	-18.130876	131.332689	-0.187367	-103.752929	-0.187367	-103.752929	-18.203569	-160.903159
2.000000	-18.109262	127.248775	-0.190892	-106.421441	-0.190892	-106.421441	-18.187264	-162.145137
2.050000	-18.095343	123.115858	-0.194336	-109.092412	-0.194336	-109.092412	-18.178761	-163.339506
2.100000	-18.088483	118.932543	-0.197708	-111.765976	-0.197708	-111.765976	-18.177411	-164.485002
2.150000	-18.088037	114.697590	-0.201019	-114.442254	-0.201019	-114.442254	-18.182558	-165.580485
2.200000	-18.093354	110.409948	-0.204279	-117.121358	-0.204279	-117.121358	-18.193534	-166.624969
2.250000	-18.103770	106.068780	-0.207500	-119.803388	-0.207500	-119.803388	-18.209655	-167.617649
2.300000	-18.118615	101.673486	-0.210693	-122.488435	-0.210693	-122.488435	-18.230224	-168.557934
2.350000	-18.137210	97.223741	-0.213871	-125.176577	-0.213871	-125.176577	-18.254534	-169.445479
2.400000	-18.158870	92.719512	-0.217045	-127.867883	-0.217045	-127.867883	-18.281862	-170.280217
2.450000	-18.182908	88.161093	-0.220228	-130.562410	-0.220228	-130.562410	-18.311478	-171.062396
2.500000	-18.208637	83.549125	-0.223432	-133.260206	-0.223432	-133.260206	-18.342647	-171.792611
2.550000	-18.235381	78.883510	-0.226667	-135.961383	-0.226667	-135.961383	-18.374631	-172.470759
2.600000	-18.262436	74.166841	-0.229946	-138.665899	-0.229946	-138.665899	-18.406670	-173.099376
2.650000	-18.289152	69.400952	-0.233276	-141.373773	-0.233276	-141.373773	-18.438047	-173.680300
2.700000	-18.314904	64.588079	-0.236668	-144.085019	-0.236668	-144.085019	-18.468069	-174.215807
2.750000	-18.339105	59.730870	-0.240129	-146.799643	-0.240129	-146.799643	-18.496076	-174.708620
2.800000	-18.361208	54.832358	-0.243666	-149.517647	-0.243666	-149.517647	-18.521445	-175.161899
2.850000	-18.380718	49.895950	-0.247285	-152.239027	-0.247285	-152.239027	-18.543610	-175.579222
2.900000	-18.397203	44.925380	-0.250990	-154.963775	-0.250990	-154.963775	-18.562063	-175.964552
2.950000	-18.410297	39.924670	-0.254784	-157.691881	-0.254784	-157.691881	-18.576369	-176.322192
3.000000	-18.419715	34.898064	-0.258669	-160.423333	-0.258669	-160.423333	-18.586173	-176.656723
3.050000	-18.425251	29.849963	-0.262645	-163.158121	-0.262645	-163.158121	-18.591209	-176.972934
3.100000	-18.426787	24.784843	-0.266711	-165.896232	-0.266711	-165.896232	-18.591303	-177.275740
3.150000	-18.424250	19.707085	-0.270867	-168.637694	-0.270867	-168.637694	-18.586322	-177.570056
3.200000	-18.417708	14.621202	-0.275107	-171.382502	-0.275107	-171.382502	-18.576290	-177.860940
3.250000	-18.407356	9.531500	-0.279427	-174.130617	-0.279427	-174.130617	-18.561382	-178.153210
3.300000	-18.393431	4.441868	-0.283820	-176.882044	-0.283820	-176.882044	-18.541811	-178.451343
3.350000	-18.376244	-0.644160	-0.288278	-179.636793	-0.288278	-179.636793	-18.517872	-178.759477
3.400000	-18.356174	-5.723476	-0.292794	177.605118	-0.292794	177.605118	-18.489937	-179.081340
3.450000	-18.333658	-10.793457	-0.297358	174.843663	-0.297358	174.843663	-18.458442	-179.420179
3.500000	-18.309178	-15.852013	-0.301961	172.078807	-0.301961	172.078807	-18.423877	-179.778715
3.550000	-18.283255	-20.897621	-0.306592	169.310506	-0.306592	169.310506	-18.386772	179.840901
3.600000	-18.256431	-25.929350	-0.311239	166.538704	-0.311239	166.538704	-18.347685	179.437111
3.650000	-18.229261	-30.946875	-0.315893	163.763336	-0.315893	163.763336	-18.307190	179.008960
3.700000	-18.202303	-35.950479	-0.320541	160.984325	-0.320541	160.984325	-18.265864	178.556103
3.750000	-18.176103	-40.941046	-0.325171	158.201581	-0.325171	158.201581	-18.224272	178.078788
3.800000	-18.151228	-45.919847	-0.329772	155.414918	-0.329772	155.414918	-18.182976	177.577360
3.850000	-18.128160	-50.889254	-0.334334	152.624303	-0.334334	152.624303	-18.142500	177.053769
3.900000	-18.107355	-55.851903	-0.338846	149.829609	-0.338846	149.829609	-18.103315	176.509950
3.950000	-18.089225	-60.810953	-0.343299	147.030699	-0.343299	147.030699	-18.065846	175.948320
4.000000	-18.074124	-65.770061	-0.347685	144.227423	-0.347685	144.227423	-18.030457	175.371743
4.050000	-18.062346	-70.733350	-0.351995	141.419619	-0.351995	141.419619	-17.997449	174.783486
4.100000	-18.054112	-75.705385	-0.356224	138.607114	-0.356224	138.607114	-17.967050	174.187177
4.150000	-18.049564	-80.691136	-0.360368	135.789723	-0.360368	135.789723	-17.939412	173.586764
4.200000	-18.048760	-85.695945	-0.364423	132.967254	-0.364423	132.967254	-17.914600	172.986467
4.250000	-18.051658	-90.725485	-0.368389	130.139502	-0.368389	130.139502	-17.892590	172.390727
4.300000	-18.058113	-95.785715	-0.372266	127.306254	-0.372266	127.306254	-17.873260	171.804151
4.350000	-18.067860	-100.882824	-0.376057	124.467291	-0.376057	124.467291	-17.856383	171.231455
4.400000	-18.080536	-106.023705	-0.379767	121.622316	-0.379767	121.622316	-17.841643	170.677650
4.450000	-18.095585	-111.215001	-0.383404	118.771088	-0.383404	118.771088	-17.828568	170.147609
4.500000	-18.112284	-116.462633	-0.386978	115.913433	-0.386978	115.913433	-17.816554	169.645702
4.550000	-18.129777	-121.772816	-0.390503	113.049106	-0.390503	113.049106	-17.804892	169.176258
4.600000	-18.147032	-127.151437	-0.393994	110.177862	-0.393994	110.177862	-17.792745	168.743247
4.650000	-18.162839	-132.603856	-0.397470	107.299454	-0.397470	107.299454	-17.779145	168.350137
4.700000	-18.175801	-138.134682	-0.400952	104.413634	-0.400952	104.413634	-17.762995	167.999749
4.750000	-18.184342	-143.747521	-0.404463	101.520156	-0.404463	101.520156	-17.743078	167.694089
4.800000	-18.186711	-149.444683	-0.408032	98.618776	-0.408032	98.618776	-17.718065	167.434177
4.850000	-18.181010	-155.226896	-0.411688	95.709255	-0.411688	95.709255	-17.686536	167.219869
4.900000	-18.165225	-161.092994	-0.415464	92.791358	-0.415464	92.791358	-17.646999	167.049690
4.950000	-18.137270	-167.039655	-0.419396	89.864858	-0.419396	89.864858	-17.597930	166.920683
5.000000	-18.095051	-173.061167	-0.423524	86.929538	-0.423524	86.929538	-17.537801	166.828294
5.050000	-18.036131	-179.150496	-0.427893	83.984988	-0.427893	83.984988	-17.464813	166.766785
5.100000	-17.958950	174.704946	-0.432547	81.031202	-0.432547	81.031202	-17.377835	166.727353
5.150000	-17.861878	168.518509	-0.437531	78.067999	-0.437531	78.067999	-17.275642	166.700419
5.200000	-17.743614	162.305635	-0.442896	75.095211	-0.442896	75.095211	-17.157212	166.674993
5.250000	-17.603257	156.083404	-0.448694	72.112684	-0.448694	72.112684	-17.021772	166.638926
5.300000	-17.440358	149.869942	-0.454981	69.120284	-0.454981	69.120284	-16.868833	166.579236
5.350000	-17.254953	143.683751	-0.461812	66.117895	-0.461812	66.117895	-16.698214	166.482486
5.400000	-17.047559	137.543005	-0.469248	63.105421	-0.469248	63.105421	-16.510051	166.335203
5.450000	-16.819141	131.464880	-0.477349	60.082787	-0.477349	60.082787	-16.304794	166.124283
5.500000	-16.571065	125.464975	-0.486176	57.049940	-0.486176	57.049940	-16.083179	165.837387
5.550000	-16.305020	119.556861	-0.495793	54.006850	-0.495793	54.006850	-15.846202	165.463270
5.600000	-16.022931	113.751786	-0.506266	50.953511	-0.506266	50.953511	-15.595068	164.992051
5.650000	-15.726638	108.059830	-0.517669	47.889830	-0.517669	47.889830	-15.330933	164.414165
5.700000	-15.418336	102.487468	-0.530070	44.815855	-0.530070	44.815855	-15.055309	163.722747
5.750000	-15.100435	97.037357	-0.543526	41.731766	-0.543526	41.731766	-14.769972	162.914016
5.800000	-14.775019	91.711295	-0.558101	38.637659	-0.558101	38.637659	-14.476487	161.984645
5.850000	-14.444060	86.509280	-0.573862	35.533656	-0.573862	35.533656	-14.176398	160.932796
5.900000	-14.109390	81.429801	-0.590873	32.419902	-0.590873	32.419902	-13.871193	159.757980
5.950000	-13.772673	76.470130	-0.609196	29.296569	-0.609196	29.296569	-13.562281	158.460892
6.000000	-13.435408	71.626599	-0.628895	26.163853	-0.628895	26.163853	-13.250976	157.043240
6.050000	-13.098918	66.894845	-0.650030	23.021970	-0.650030	23.021970	-12.938485	155.507576
6.100000	-12.764363	62.270024	-0.672658	19.871163	-0.672658	19.871163	-12.625903	153.857136
6.150000	-12.432744	57.746989	-0.696838	16.711693	-0.696838	16.711693	-12.314213	152.095691
6.200000	-12.104919	53.320436	-0.722622	13.543843	-0.722622	13.543843	-12.004290	150.227421
6.250000	-11.781615	48.985020	-0.750062	10.367914	-0.750062	10.367914	-11.696900	148.256802
6.300000	-11.463315	44.737189	-0.779244	7.184065	-0.779244	7.184065	-11.392569	146.186498
6.350000	-11.150685	40.569785	-0.810178	3.992808	-0.810178	3.992808	-11.092054	144.023540
6.400000	-10.844134	36.477795	-0.842908	0.794495	-0.842908	0.794495	-10.795845	141.772783
6.450000	-10.543991	32.456401	-0.877471	-2.410510	-0.877471	-2.410510	-10.504357	139.439088
6.500000	-10.250517	28.500996	-0.913906	-5.621830	-0.913906	-5.621830	-10.217938	137.027276
6.550000	-9.963910	24.607191	-0.952243	-8.839076	-0.952243	-8.839076	-9.936873	134.542104
6.600000	-9.684324	20.770819	-0.992513	-12.061851	-0.992513	-12.061851	-9.661396	131.988241
6.650000	-9.411863	16.987934	-1.034740	-15.289748	-1.034740	-15.289748	-9.391691	129.370250
6.700000	-9.146609	13.253976	-1.078915	-18.522278	-1.078915	-18.522278	-9.127934	126.693562
6.750000	-8.888565	9.569427	-1.125215	-21.759386	-1.125215	-21.759386	-8.870091	123.957694
6.800000	-8.637796	5.924566	-1.173399	-25.000065	-1.173399	-25.000065	-8.618460	121.174462
6.850000	-8.394287	2.321059	-1.223678	-28.244312	-1.223678	-28.244312	-8.372949	118.342175
6.900000	-8.157989	-1.246324	-1.275959	-31.491504	-1.275959	-31.491504	-8.133632	115.467395
6.950000	-7.928861	-4.780421	-1.330241	-34.741206	-1.330241	-34.741206	-7.900516	112.553899
7.000000	-7.706911	-8.282080	-1.386618	-37.993111	-1.386618	-37.993111	-7.673590	109.603200
7.050000	-7.491910	-11.757311	-1.444890	-41.246570	-1.444890	-41.246570	-7.452800	106.622714
7.100000	-7.284085	-15.203918	-1.505321	-44.501390	-1.505321	-44.501390	-7.238212	103.610652
7.150000	-7.082982	-18.629116	-1.567588	-47.756937	-1.567588	-47.756937	-7.029632	100.575584
7.200000	-6.888901	-22.031296	-1.631927	-51.012893	-1.631927	-51.012893	-6.827194	97.516541
7.250000	-6.701426	-25.415444	-1.698109	-54.268819	-1.698109	-54.268819	-6.630669	94.439421
7.300000	-6.520669	-28.782314	-1.766202	-57.524305	-1.766202	-57.524305	-6.440113	91.345781
7.350000	-6.346479	-32.134328	-1.836135	-60.778986	-1.836135	-60.778986	-6.255426	88.238756
7.400000	-6.178647	-35.474076	-1.907807	-64.032550	-1.907807	-64.032550	-6.076468	85.121527
7.450000	-6.017382	-38.802486	-1.981271	-67.284545	-1.981271	-67.284545	-5.903369	81.995863
7.500000	-5.862074	-42.123022	-2.056297	-70.534938	-2.056297	-70.534938	-5.735710	78.865276
7.550000	-5.713362	-45.436139	-2.133014	-73.783072	-2.133014	-73.783072	-5.573929	75.731413
7.600000	-5.570396	-48.745100	-2.211155	-77.029187	-2.211155	-77.029187	-5.417419	72.597077
7.650000	-5.433646	-52.051312	-2.290753	-80.272787	-2.290753	-80.272787	-5.266512	69.464564
7.700000	-5.302652	-55.356967	-2.371653	-83.514010	-2.371653	-83.514010	-5.120864	66.335793
7.750000	-5.177471	-58.664115	-2.453778	-86.752734	-2.453778	-86.752734	-4.980507	63.213027
7.800000	-5.058082	-61.974884	-2.537034	-89.988952	-2.537034	-89.988952	-4.845418	60.098400
7.850000	-4.944086	-65.291010	-2.621296	-93.222961	-2.621296	-93.222961	-4.715280	56.993119
7.900000	-4.835939	-68.615600	-2.706471	-96.454652	-2.706471	-96.454652	-4.590432	53.900495
7.950000	-4.732836	-71.949308	-2.792446	-99.684643	-2.792446	-99.684643	-4.470235	50.820082
8.000000	-4.635491	-75.296618	-2.879085	-102.912975	-2.879085	-102.912975	-4.355227	47.756319
8.050000	-4.543083	-78.657581	-2.966313	-106.140326	-2.966313	-106.140326	-4.244748	44.708049
8.100000	-4.456013	-82.036442	-3.053977	-109.367132	-3.053977	-109.367132	-4.139089	41.678751
8.150000	-4.373943	-85.434660	-3.141993	-112.594035	-3.141993	-112.594035	-4.037958	38.668733
8.200000	-4.296785	-88.854836	-3.230256	-115.821749	-3.230256	-115.821749	-3.941257	35.679299
8.250000	-4.224691	-92.301066	-3.318616	-119.051158	-3.318616	-119.051158	-3.849077	32.712917
8.300000	-4.157078	-95.773069	-3.407071	-122.282907	-3.407071	-122.282907	-3.760924	29.768074
8.350000	-4.094581	-99.278953	-3.495364	-125.518545	-3.495364	-125.518545	-3.677266	26.849964
8.400000	-4.036294	-102.815589	-3.583599	-128.758388	-3.583599	-128.758388	-3.597353	23.954768
8.450000	-3.982835	-106.392335	-3.671506	-132.004520	-3.671506	-132.004520	-3.521633	21.087794
8.500000	-3.933540	-110.007334	-3.759169	-135.257359	-3.759169	-135.257359	-3.449554	18.246234
8.550000	-3.888610	-113.667282	-3.846430	-138.518853	-3.846430	-138.518853	-3.381235	15.432840
8.600000	-3.847847	-117.374914	-3.933258	-141.790275	-3.933258	-141.790275	-3.316491	12.647643
8.650000	-3.810974	-121.132051	-4.019664	-145.072737	-4.019664	-145.072737	-3.255078	9.890014
8.700000	-3.778214	-124.947758	-4.105486	-148.369056	-4.105486	-148.369056	-3.197146	7.163097
8.750000	-3.748854	-128.817130	-4.190916	-151.678744	-4.190916	-151.678744	-3.142125	4.462669
8.800000	-3.723476	-132.757482	-4.275663	-155.006979	-4.275663	-155.006979	-3.090461	1.795115
8.850000	-3.701174	-136.759306	-4.360025	-158.351970	-4.360025	-158.351970	-3.041449	-0.845742
8.900000	-3.682175	-140.835667	-4.443858	-161.718031	-4.443858	-161.718031	-2.995287	-3.456162
8.950000	-3.666138	-144.988274	-4.527259	-165.106422	-4.527259	-165.106422	-2.951736	-6.037436
9.000000	-3.652815	-149.221405	-4.610296	-168.519168	-4.610296	-168.519168	-2.910652	-8.589889
9.050000	-3.641943	-153.539457	-4.693053	-171.958390	-4.693053	-171.958390	-2.871895	-11.113896
9.100000	-3.633280	-157.949191	-4.775616	-175.427063	-4.775616	-175.427063	-2.835377	-13.609242
9.150000	-3.626457	-162.453448	-4.858137	-178.927010	-4.858137	-178.927010	-2.800919	-16.077055
9.200000	-3.621103	-167.055471	-4.940780	177.539749	-4.940780	177.539749	-2.768366	-18.518329
9.250000	-3.616837	-171.758989	-5.023731	173.970916	-5.023731	173.970916	-2.737583	-20.933958
9.300000	-3.613244	-176.567345	-5.107200	170.364181	-5.107200	170.364181	-2.708437	-23.324982
9.350000	-3.609882	178.516613	-5.191431	166.717233	-5.191431	166.717233	-2.680796	-25.692604
9.400000	-3.606267	173.488736	-5.276708	163.027012	-5.276708	163.027012	-2.654556	-28.037847
9.450000	-3.601880	168.347526	-5.363353	159.291162	-5.363353	159.291162	-2.629591	-30.362366
9.500000	-3.596217	163.094404	-5.451710	155.508246	-5.451710	155.508246	-2.605765	-32.668346
9.550000	-3.588759	157.729954	-5.542159	151.676189	-5.542159	151.676189	-2.582975	-34.957838
9.600000	-3.578995	152.255967	-5.635119	147.793046	-5.635119	147.793046	-2.561130	-37.233171
9.650000	-3.566432	146.675568	-5.731046	143.857043	-5.731046	143.857043	-2.540157	-39.496988
9.700000	-3.550582	140.992511	-5.830454	139.866129	-5.830454	139.866129	-2.520007	-41.752254
9.750000	-3.530962	135.211569	-5.933934	135.817983	-5.933934	135.817983	-2.500671	-44.002462
9.800000	-3.507334	129.343208	-6.041984	131.713023	-6.041984	131.713023	-2.482144	-46.251781
9.850000	-3.479464	123.396849	-6.155186	127.550603	-6.155186	127.550603	-2.464498	-48.504737
9.900000	-3.447228	117.383439	-6.274149	123.330472	-6.274149	123.330472	-2.447869	-50.766513
9.950000	-3.410623	111.315332	-6.399493	119.052815	-6.399493	119.052815	-2.432490	-53.043056
10.000000	-3.369775	105.206124	-6.531848	114.718299	-6.531848	114.718299	-2.418717	-55.341186
