! freq	dB(S11)	phase(S11)	dB(S12)	phase(S12)	
!     	dB(S21)	phase(S21)	dB(S22)	phase(S22)	
!S-par simulation data
#  GHz  S  DB  R 50
0.000000	-0.000000	0.000000	-364.862852	0.000000	-364.862852	0.000000	-0.000000	0.000000
0.050000	-0.000104	-0.810839	-116.066236	85.771250	-116.066236	85.771250	-0.000103	-0.810832
0.100000	-0.000413	-1.621423	-110.499510	84.069630	-110.499510	84.069630	-0.000407	-1.621415
0.150000	-0.000912	-2.431518	-107.336088	83.635186	-107.336088	83.635186	-0.000901	-2.431520
0.200000	-0.001582	-3.240932	-105.121939	83.494698	-105.121939	83.494698	-0.001564	-3.240958
0.250000	-0.002408	-4.049450	-103.450857	83.378693	-103.450857	83.378693	-0.002382	-4.049516
0.300000	-0.003351	-4.857036	-102.138277	83.253622	-102.138277	83.253622	-0.003318	-4.857158
0.350000	-0.004392	-5.663585	-101.095576	83.145471	-101.095576	83.145471	-0.004353	-5.663775
0.400000	-0.005507	-6.469060	-100.268129	83.094847	-100.268129	83.094847	-0.005463	-6.469327
0.450000	-0.006674	-7.273453	-99.621810	83.148685	-99.621810	83.148685	-0.006627	-7.273803
0.500000	-0.007875	-8.076778	-99.134871	83.360745	-99.134871	83.360745	-0.007827	-8.077215
0.550000	-0.009096	-8.879066	-98.793700	83.795809	-98.793700	83.795809	-0.009048	-8.879588
0.600000	-0.010324	-9.680352	-98.590321	84.536230	-98.590321	84.536230	-0.010277	-9.680957
0.650000	-0.011550	-10.480676	-98.520662	85.691387	-98.520662	85.691387	-0.011505	-10.481359
0.700000	-0.012768	-11.280078	-98.582862	87.411417	-98.582862	87.411417	-0.012727	-11.280832
0.750000	-0.013973	-12.078591	-98.774775	89.906866	-98.774775	89.906866	-0.013936	-12.079411
0.800000	-0.015163	-12.876245	-99.089210	93.474592	-99.089210	93.474592	-0.015131	-12.877124
0.850000	-0.016337	-13.673066	-99.504193	98.522858	-99.504193	98.522858	-0.016309	-13.673998
0.900000	-0.017494	-14.469070	-99.964236	105.563521	-99.964236	105.563521	-0.017471	-14.470050
0.950000	-0.018635	-15.264270	-100.351737	115.083405	-100.351737	115.083405	-0.018616	-15.265293
1.000000	-0.019760	-16.058673	-100.468914	127.169893	-100.468914	127.169893	-0.019744	-16.059735
1.050000	-0.020870	-16.852282	-100.091735	140.967769	-100.091735	140.967769	-0.020858	-16.853379
1.100000	-0.021966	-17.645095	-99.124603	154.612926	-99.124603	154.612926	-0.021957	-17.646225
1.150000	-0.023050	-18.437106	-97.693548	166.273574	-97.693548	166.273574	-0.023044	-18.438267
1.200000	-0.024123	-19.228308	-96.028867	175.225888	-96.028867	175.225888	-0.024119	-19.229498
1.250000	-0.025187	-20.018689	-94.312589	-178.294301	-94.312589	-178.294301	-0.025184	-20.019909
1.300000	-0.026241	-20.808201	-92.632612	-173.793665	-92.632612	-173.793665	-0.026240	-20.809449
1.350000	-0.027288	-21.596864	-91.041882	-170.664990	-91.041882	-170.664990	-0.027287	-21.598142
1.400000	-0.028328	-22.384663	-89.549129	-168.535870	-89.549129	-168.535870	-0.028328	-22.385970
1.450000	-0.029363	-23.171581	-88.151276	-167.141538	-88.151276	-167.141538	-0.029364	-23.172919
1.500000	-0.030393	-23.957601	-86.840895	-166.295687	-86.840895	-166.295687	-0.030394	-23.958971
1.550000	-0.031419	-24.742707	-85.609489	-165.866439	-85.609489	-165.866439	-0.031420	-24.744108
1.600000	-0.032442	-25.526878	-84.448838	-165.759193	-84.448838	-165.759193	-0.032443	-25.528313
1.650000	-0.033462	-26.310098	-83.351492	-165.904988	-83.351492	-165.904988	-0.033462	-26.311568
1.700000	-0.034480	-27.092002	-82.287292	-166.305119	-82.287292	-166.305119	-0.034480	-27.093508
1.750000	-0.035497	-27.873394	-81.308142	-166.796543	-81.308142	-166.796543	-0.035496	-27.874936
1.800000	-0.036513	-28.653551	-80.360593	-167.439675	-80.360593	-167.439675	-0.036511	-28.655131
1.850000	-0.037528	-29.432827	-79.462786	-168.191168	-79.462786	-168.191168	-0.037526	-29.434446
1.900000	-0.038543	-30.211005	-78.599895	-169.032148	-78.599895	-169.032148	-0.038540	-30.212664
1.950000	-0.039558	-30.988086	-77.770279	-169.962614	-77.770279	-169.962614	-0.039555	-30.989785
2.000000	-0.040573	-31.764220	-76.977672	-170.946457	-76.977672	-170.946457	-0.040570	-31.765961
2.050000	-0.041590	-32.539030	-76.206053	-172.005029	-76.206053	-172.005029	-0.041586	-32.540813
2.100000	-0.042608	-33.313058	-75.472757	-173.095154	-75.472757	-173.095154	-0.042604	-33.314883
2.150000	-0.043628	-34.085523	-74.751126	-174.248389	-74.751126	-174.248389	-0.043623	-34.087391
2.200000	-0.044649	-34.857383	-74.068597	-175.419570	-74.068597	-175.419570	-0.044644	-34.859294
2.250000	-0.045673	-35.627431	-73.390570	-176.644595	-73.390570	-176.644595	-0.045668	-35.629386
2.300000	-0.046698	-36.397065	-72.752033	-177.878890	-72.752033	-177.878890	-0.046693	-36.399063
2.350000	-0.047729	-37.164627	-72.112438	-179.159534	-72.112438	-179.159534	-0.047723	-37.166670
2.400000	-0.048760	-37.931977	-71.512431	179.556167	-71.512431	179.556167	-0.048754	-37.934064
2.450000	-0.049797	-38.696989	-70.907022	178.231667	-70.907022	178.231667	-0.049792	-38.699120
2.500000	-0.050835	-39.462001	-70.341075	176.907167	-70.341075	176.907167	-0.050830	-39.464176
2.550000	-0.051882	-40.224399	-69.766317	175.547581	-69.766317	175.547581	-0.051877	-40.226618
2.600000	-0.052928	-40.986798	-69.227243	174.187995	-69.227243	174.187995	-0.052924	-40.989060
2.650000	-0.053984	-41.746746	-68.683642	172.802367	-68.683642	172.802367	-0.053980	-41.749053
2.700000	-0.055041	-42.506472	-68.168985	171.414372	-68.168985	171.414372	-0.055037	-42.508822
2.750000	-0.056108	-43.263924	-67.653353	170.007020	-67.653353	170.007020	-0.056104	-43.266317
2.800000	-0.057177	-44.020921	-67.161006	168.595797	-67.161006	168.595797	-0.057173	-44.023357
2.850000	-0.058256	-44.775832	-66.670641	167.170217	-66.670641	167.170217	-0.058252	-44.778310
2.900000	-0.059338	-45.530047	-66.198779	165.739851	-66.198779	165.739851	-0.059335	-45.532568
2.950000	-0.060430	-46.282375	-65.731364	164.298902	-65.731364	164.298902	-0.060427	-46.284938
3.000000	-0.061527	-47.033759	-65.278396	162.852663	-65.278396	162.852663	-0.061525	-47.036364
3.050000	-0.062633	-47.783464	-64.831928	161.398710	-64.831928	161.398710	-0.062632	-47.786112
3.100000	-0.063747	-48.531971	-64.396456	159.939247	-64.396456	159.939247	-0.063746	-48.534659
3.150000	-0.064870	-49.279018	-63.969195	158.474260	-63.969195	158.474260	-0.064869	-49.281747
3.200000	-0.066001	-50.024604	-63.549981	157.003748	-63.549981	157.003748	-0.066001	-50.027374
3.250000	-0.067141	-50.768957	-63.140402	155.529382	-63.140402	155.529382	-0.067142	-50.771768
3.300000	-0.068293	-51.511583	-62.736345	154.049622	-62.736345	154.049622	-0.068294	-51.514434
3.350000	-0.069452	-52.253211	-62.343102	152.567281	-62.343102	152.567281	-0.069453	-52.256102
3.400000	-0.070625	-52.992842	-61.953217	151.079779	-61.953217	151.079779	-0.070626	-52.995772
3.450000	-0.071804	-53.731715	-61.575118	149.590659	-61.575118	149.590659	-0.071806	-53.734686
3.500000	-0.073000	-54.468317	-61.198521	148.096686	-61.198521	148.096686	-0.073002	-54.471327
3.550000	-0.074201	-55.204410	-60.834505	146.601815	-60.834505	146.601815	-0.074203	-55.207459
3.600000	-0.075423	-55.937954	-60.470396	145.102452	-60.470396	145.102452	-0.075425	-55.941042
3.650000	-0.076646	-56.671242	-60.119511	143.602717	-60.119511	143.602717	-0.076649	-56.674369
3.700000	-0.077894	-57.401704	-59.767165	142.098889	-59.767165	142.098889	-0.077897	-57.404869
3.750000	-0.079143	-58.132165	-59.428557	140.595060	-59.428557	140.595060	-0.079146	-58.135369
3.800000	-0.080419	-58.859521	-59.087315	139.087563	-59.087315	139.087563	-0.080423	-58.862764
3.850000	-0.081696	-59.586877	-58.758975	137.580066	-58.758975	137.580066	-0.081699	-59.590159
3.900000	-0.083000	-60.311370	-58.429472	136.069838	-58.429472	136.069838	-0.083004	-60.314689
3.950000	-0.084307	-61.035602	-58.110865	134.559362	-58.110865	134.559362	-0.084311	-61.038960
4.000000	-0.085640	-61.757218	-57.792385	133.046905	-57.792385	133.046905	-0.085644	-61.760614
4.050000	-0.086979	-62.478311	-57.483020	131.534051	-57.483020	131.534051	-0.086983	-62.481745
4.100000	-0.088343	-63.197041	-57.174910	130.019808	-57.174910	130.019808	-0.088347	-63.200513
4.150000	-0.089716	-63.914984	-56.874336	128.505102	-56.874336	128.505102	-0.089720	-63.918493
4.200000	-0.091112	-64.630820	-56.576002	126.989470	-56.576002	126.989470	-0.091116	-64.634367
4.250000	-0.092520	-65.345602	-56.283800	125.473374	-56.283800	125.473374	-0.092524	-65.349188
4.300000	-0.093950	-66.058540	-55.994699	123.956706	-55.994699	123.956706	-0.093954	-66.062163
4.350000	-0.095395	-66.770158	-55.710481	122.439628	-55.710481	122.439628	-0.095399	-66.773820
4.400000	-0.096860	-67.480194	-55.430114	120.922241	-55.430114	120.922241	-0.096864	-67.483894
4.450000	-0.098344	-68.188647	-55.153521	119.404543	-55.153521	119.404543	-0.098348	-68.192385
4.500000	-0.099846	-68.895782	-54.881430	117.886721	-54.881430	117.886721	-0.099850	-68.899557
4.550000	-0.101371	-69.601071	-54.612127	116.368725	-54.612127	116.368725	-0.101375	-69.604884
4.600000	-0.102910	-70.305307	-54.347889	114.850725	-54.347889	114.850725	-0.102914	-70.309158
4.650000	-0.104478	-71.007437	-54.085564	113.332717	-54.085564	113.332717	-0.104482	-71.011326
4.700000	-0.106057	-71.708779	-53.828789	111.814771	-53.828789	111.814771	-0.106060	-71.712706
4.750000	-0.107669	-72.407758	-53.573151	110.297010	-53.573151	110.297010	-0.107672	-72.411723
4.800000	-0.109289	-73.106214	-53.323478	108.779328	-53.323478	108.779328	-0.109292	-73.110217
4.850000	-0.110947	-73.802054	-53.074253	107.262045	-53.074253	107.262045	-0.110950	-73.806094
4.900000	-0.112609	-74.497633	-52.831347	105.744819	-52.831347	105.744819	-0.112613	-74.501711
4.950000	-0.114315	-75.190348	-52.588280	104.228222	-52.588280	104.228222	-0.114318	-75.194464
5.000000	-0.116022	-75.883063	-52.351830	102.711625	-52.351830	102.711625	-0.116025	-75.887216
5.050000	-0.117777	-76.572670	-52.114680	101.195905	-52.114680	101.195905	-0.117780	-76.576861
5.100000	-0.119533	-77.262277	-51.883834	99.680184	-51.883834	99.680184	-0.119536	-77.266506
5.150000	-0.121336	-77.949055	-51.652939	98.165425	-51.652939	98.165425	-0.121339	-77.953321
5.200000	-0.123144	-78.635575	-51.427490	96.650753	-51.427490	96.650753	-0.123147	-78.639879
5.250000	-0.124995	-79.319542	-51.202574	95.137085	-51.202574	95.137085	-0.124998	-79.323883
5.300000	-0.126856	-80.002999	-50.982327	93.623619	-50.982327	93.623619	-0.126859	-80.007377
5.350000	-0.128758	-80.684178	-50.763132	92.111164	-50.763132	92.111164	-0.128761	-80.688593
5.400000	-0.130673	-81.364597	-50.547904	90.599047	-50.547904	90.599047	-0.130676	-81.369050
5.450000	-0.132627	-82.043011	-50.334188	89.087918	-50.334188	89.087918	-0.132630	-82.047501
5.500000	-0.134599	-82.720422	-50.123804	87.577282	-50.123804	87.577282	-0.134602	-82.724949
5.550000	-0.136606	-83.396097	-49.915343	86.067583	-49.915343	86.067583	-0.136609	-83.400661
5.600000	-0.138636	-84.070531	-49.709638	84.558551	-49.709638	84.558551	-0.138640	-84.075132
5.650000	-0.140698	-84.743495	-49.506218	83.050378	-49.506218	83.050378	-0.140701	-84.748133
5.700000	-0.142789	-85.414987	-49.305037	81.543064	-49.305037	81.543064	-0.142792	-85.419662
5.750000	-0.144906	-86.085269	-49.106461	80.036508	-49.106461	80.036508	-0.144909	-86.089980
5.800000	-0.147059	-86.753856	-48.909654	78.531016	-48.909654	78.531016	-0.147063	-86.758604
5.850000	-0.149234	-87.421488	-48.715733	77.026162	-48.715733	77.026162	-0.149238	-87.426272
5.900000	-0.151451	-88.087210	-48.523161	75.522589	-48.523161	75.522589	-0.151455	-88.092030
5.950000	-0.153684	-88.752225	-48.333719	74.019518	-48.333719	74.019518	-0.153689	-88.757082
6.000000	-0.155967	-89.415123	-48.145248	72.517955	-48.145248	72.517955	-0.155971	-89.420015
6.050000	-0.158261	-90.077558	-47.960118	71.016740	-47.960118	71.016740	-0.158266	-90.082486
6.100000	-0.160611	-90.737676	-47.775619	69.517272	-47.775619	69.517272	-0.160616	-90.742640
6.150000	-0.162967	-91.397567	-47.594645	68.017985	-47.594645	68.017985	-0.162972	-91.402566
6.200000	-0.165385	-92.054953	-47.413996	66.520691	-47.413996	66.520691	-0.165391	-92.059988
6.250000	-0.167805	-92.712339	-47.237028	65.023397	-47.237028	65.023397	-0.167811	-92.717409
6.300000	-0.170294	-93.367041	-47.060114	63.528351	-47.060114	63.528351	-0.170301	-93.372146
6.350000	-0.172784	-94.021743	-46.886732	62.033305	-46.886732	62.033305	-0.172791	-94.026883
6.400000	-0.175340	-94.674032	-46.713721	60.540383	-46.713721	60.540383	-0.175347	-94.679207
6.450000	-0.177903	-95.326102	-46.543819	59.047655	-46.543819	59.047655	-0.177910	-95.331311
6.500000	-0.180527	-95.976022	-46.374576	57.556910	-46.374576	57.556910	-0.180534	-95.981265
6.550000	-0.183163	-96.625512	-46.208056	56.066562	-46.208056	56.066562	-0.183172	-96.630790
6.600000	-0.185857	-97.273109	-46.042450	54.578044	-46.042450	54.578044	-0.185865	-97.278421
6.650000	-0.188569	-97.920075	-45.879216	53.090136	-45.879216	53.090136	-0.188578	-97.925422
6.700000	-0.191333	-98.565397	-45.717125	51.603891	-45.717125	51.603891	-0.191342	-98.570778
6.750000	-0.194123	-99.209897	-45.557085	50.118476	-45.557085	50.118476	-0.194133	-99.215312
6.800000	-0.196959	-99.852992	-45.398392	48.634545	-45.398392	48.634545	-0.196969	-99.858441
6.850000	-0.199828	-100.495085	-45.241458	47.151673	-45.241458	47.151673	-0.199839	-100.500568
6.900000	-0.202738	-101.136004	-45.086051	45.670095	-45.086051	45.670095	-0.202749	-101.141522
6.950000	-0.205688	-101.775751	-44.932138	44.189809	-44.932138	44.189809	-0.205700	-101.781302
7.000000	-0.208673	-102.414547	-44.779910	42.710617	-44.779910	42.710617	-0.208684	-102.420132
7.050000	-0.211705	-103.052011	-44.628936	41.232955	-44.628936	41.232955	-0.211717	-103.057631
7.100000	-0.214766	-103.688736	-44.479787	39.756179	-44.479787	39.756179	-0.214779	-103.694390
7.150000	-0.217882	-104.323983	-44.331672	38.281174	-44.331672	38.281174	-0.217895	-104.329671
7.200000	-0.221021	-104.958693	-44.185505	36.806840	-44.185505	36.806840	-0.221034	-104.964415
7.250000	-0.224223	-105.591789	-44.040173	35.334518	-44.040173	35.334518	-0.224237	-105.597546
7.300000	-0.227440	-106.224539	-43.896894	33.862646	-43.896894	33.862646	-0.227454	-106.230330
7.350000	-0.230729	-106.855554	-43.754272	32.393027	-43.754272	32.393027	-0.230744	-106.861380
7.400000	-0.234027	-107.486401	-43.613793	30.923633	-43.613793	30.923633	-0.234042	-107.492263
7.450000	-0.237405	-108.115405	-43.473810	29.456729	-43.473810	29.456729	-0.237420	-108.121302
7.500000	-0.240784	-108.744409	-43.336046	27.989825	-43.336046	27.989825	-0.240800	-108.750342
7.550000	-0.244252	-109.371474	-43.198631	26.525642	-43.198631	26.525642	-0.244268	-109.377443
7.600000	-0.247721	-109.998539	-43.063357	25.061459	-43.063357	25.061459	-0.247738	-110.004544
7.650000	-0.251274	-110.623895	-42.928590	23.599769	-42.928590	23.599769	-0.251290	-110.629937
7.700000	-0.254835	-111.249095	-42.795741	22.138306	-42.795741	22.138306	-0.254852	-111.255174
7.750000	-0.258472	-111.872804	-42.663542	20.679101	-42.663542	20.679101	-0.258490	-111.878922
7.800000	-0.262127	-112.496215	-42.533059	19.220347	-42.533059	19.220347	-0.262144	-112.502371
7.850000	-0.265851	-113.118342	-42.403353	17.763611	-42.403353	17.763611	-0.265869	-113.124538
7.900000	-0.269600	-113.740041	-42.275175	16.307549	-42.275175	16.307549	-0.269618	-113.746277
7.950000	-0.273412	-114.360651	-42.147889	14.853262	-42.147889	14.853262	-0.273430	-114.366928
8.000000	-0.277256	-114.980718	-42.021961	13.399864	-42.021961	13.399864	-0.277275	-114.987036
8.050000	-0.281157	-115.599878	-41.897025	11.947998	-41.897025	11.947998	-0.281176	-115.606239
8.100000	-0.285099	-116.218392	-41.773292	10.497227	-41.773292	10.497227	-0.285118	-116.224796
8.150000	-0.289090	-116.836171	-41.650640	9.047748	-41.650640	9.047748	-0.289110	-116.842620
8.200000	-0.293130	-117.453215	-41.529049	7.599559	-41.529049	7.599559	-0.293150	-117.459710
8.250000	-0.297212	-118.069682	-41.408618	6.152423	-41.408618	6.152423	-0.297232	-118.076223
8.300000	-0.301352	-118.685340	-41.289118	4.706760	-41.289118	4.706760	-0.301372	-118.691929
8.350000	-0.305526	-119.300565	-41.170847	3.261918	-41.170847	3.261918	-0.305547	-119.307203
8.400000	-0.309766	-119.914923	-41.053390	1.818717	-41.053390	1.818717	-0.309788	-119.921612
8.450000	-0.314034	-120.528978	-40.937221	0.376111	-40.937221	0.376111	-0.314055	-120.535718
8.500000	-0.318376	-121.142123	-40.821761	-1.064706	-40.821761	-1.064706	-0.318398	-121.148918
8.550000	-0.322737	-121.755080	-40.707640	-2.505140	-40.707640	-2.505140	-0.322760	-121.761930
8.600000	-0.327183	-122.367101	-40.594132	-3.943659	-40.594132	-3.943659	-0.327205	-122.374009
8.650000	-0.331639	-122.979036	-40.482006	-5.381995	-40.482006	-5.381995	-0.331662	-122.986001
8.700000	-0.336189	-123.590024	-40.370410	-6.818312	-40.370410	-6.818312	-0.336212	-123.597051
8.750000	-0.340740	-124.201011	-40.260229	-8.254630	-40.260229	-8.254630	-0.340764	-124.208100
8.800000	-0.345395	-124.811057	-40.150506	-9.688854	-40.150506	-9.688854	-0.345419	-124.818213
8.850000	-0.350052	-125.421104	-40.042151	-11.123077	-40.042151	-11.123077	-0.350076	-125.428325
8.900000	-0.354803	-126.030374	-39.934336	-12.555489	-39.934336	-12.555489	-0.354829	-126.037666
8.950000	-0.359566	-126.639573	-39.827772	-13.987737	-39.827772	-13.987737	-0.359592	-126.646937
9.000000	-0.364416	-127.248147	-39.721824	-15.418444	-39.721824	-15.418444	-0.364443	-127.255586
9.050000	-0.369285	-127.856595	-39.617019	-16.848843	-39.617019	-16.848843	-0.369313	-127.864110
9.100000	-0.374233	-128.464553	-39.512897	-18.277959	-39.512897	-18.277959	-0.374262	-128.472149
9.150000	-0.379210	-129.072348	-39.409822	-19.706648	-39.409822	-19.706648	-0.379239	-129.080027
9.200000	-0.384258	-129.679773	-39.307490	-21.134294	-39.307490	-21.134294	-0.384288	-129.687539
9.250000	-0.389342	-130.287013	-39.206119	-22.561420	-39.206119	-22.561420	-0.389374	-130.294868
9.300000	-0.394489	-130.893989	-39.105542	-23.987725	-39.105542	-23.987725	-0.394522	-130.901937
9.350000	-0.399682	-131.500777	-39.005851	-25.413443	-39.005851	-25.413443	-0.399717	-131.508821
9.400000	-0.404930	-132.107389	-38.906998	-26.838541	-38.906998	-26.838541	-0.404965	-132.115533
9.450000	-0.410232	-132.713827	-38.808968	-28.263018	-38.808968	-28.263018	-0.410269	-132.722075
9.500000	-0.415579	-133.320162	-38.711812	-29.687049	-38.711812	-29.687049	-0.415618	-133.328517
9.550000	-0.420990	-133.926355	-38.615426	-31.110456	-38.615426	-31.110456	-0.421031	-133.934822
9.600000	-0.426439	-134.532502	-38.519942	-32.533566	-38.519942	-32.533566	-0.426482	-134.541084
9.650000	-0.431959	-135.138557	-38.425187	-33.956082	-38.425187	-33.956082	-0.432005	-135.147261
9.700000	-0.437509	-135.744605	-38.331354	-35.378423	-38.331354	-35.378423	-0.437557	-135.753432
9.750000	-0.443139	-136.350632	-38.238222	-36.800233	-38.238222	-36.800233	-0.443189	-136.359590
9.800000	-0.448789	-136.956672	-38.146020	-38.221958	-38.146020	-38.221958	-0.448843	-136.965763
9.850000	-0.454528	-137.562781	-38.054505	-39.643252	-38.054505	-39.643252	-0.454585	-137.572013
9.900000	-0.460280	-138.168907	-37.963921	-41.064519	-37.963921	-41.064519	-0.460340	-138.178281
9.950000	-0.466129	-138.775212	-37.874022	-42.485488	-37.874022	-42.485488	-0.466193	-138.784739
10.000000	-0.471981	-139.381517	-37.785044	-43.906458	-37.785044	-43.906458	-0.472049	-139.391197
