! freq	dB(S11)	phase(S11)	dB(S12)	phase(S12)	
!     	dB(S21)	phase(S21)	dB(S22)	phase(S22)	
!S-par simulation data
#  GHz  S  DB  R 50
0.000000	-0.000000	0.000000	-331.472222	180.000000	-331.472222	180.000000	-0.000000	0.000000
0.050000	-0.006529	-2.326302	-85.144951	86.916976	-85.144951	86.916976	-0.005654	-2.418994
0.100000	-0.010482	-4.603424	-79.141826	85.018746	-79.141826	85.018746	-0.010405	-4.789819
0.150000	-0.012363	-6.879657	-75.651808	82.860845	-75.651808	82.860845	-0.012801	-7.155173
0.200000	-0.013884	-9.156100	-73.195236	80.648921	-73.195236	80.648921	-0.014556	-9.520592
0.250000	-0.015443	-11.430730	-71.311812	78.422802	-71.311812	78.422802	-0.016208	-11.884922
0.300000	-0.017168	-13.701765	-69.797338	76.199639	-69.797338	76.199639	-0.017956	-14.246618
0.350000	-0.019064	-15.968517	-68.537510	73.987670	-68.537510	73.987670	-0.019849	-16.604953
0.400000	-0.021139	-18.229890	-67.468567	71.793178	-67.468567	71.793178	-0.021910	-18.958941
0.450000	-0.023380	-20.485073	-66.548269	69.621192	-66.548269	69.621192	-0.024137	-21.307837
0.500000	-0.025778	-22.732641	-65.750984	67.479203	-65.750984	67.479203	-0.026533	-23.650399
0.550000	-0.028300	-24.972330	-65.053750	65.370343	-65.053750	65.370343	-0.029070	-25.986363
0.600000	-0.030920	-27.203716	-64.440595	63.298432	-64.440595	63.298432	-0.031726	-28.315343
0.650000	-0.033617	-29.426248	-63.900065	61.268129	-63.900065	61.268129	-0.034483	-30.636858
0.700000	-0.036370	-31.639416	-63.423276	59.284338	-63.423276	59.284338	-0.037323	-32.950466
0.750000	-0.039161	-33.842747	-63.003194	57.352269	-63.003194	57.352269	-0.040227	-35.255761
0.800000	-0.041973	-36.035537	-62.634964	55.479074	-62.634964	55.479074	-0.043181	-37.552151
0.850000	-0.044788	-38.216607	-62.316076	53.675908	-62.316076	53.675908	-0.046168	-39.838649
0.900000	-0.047592	-40.386540	-62.039615	51.944085	-62.039615	51.944085	-0.049170	-42.115762
0.950000	-0.050375	-42.544989	-61.802327	50.290885	-61.802327	50.290885	-0.052175	-44.383221
1.000000	-0.053127	-44.691635	-61.601410	48.724263	-61.601410	48.724263	-0.055171	-46.640784
1.050000	-0.055840	-46.826183	-61.434402	47.252922	-61.434402	47.252922	-0.058149	-48.888237
1.100000	-0.058508	-48.948357	-61.299083	45.886392	-61.299083	45.886392	-0.061100	-51.125388
1.150000	-0.061123	-51.056960	-61.195358	44.644459	-61.195358	44.644459	-0.064015	-53.351291
1.200000	-0.063681	-53.152118	-61.120173	43.536735	-61.120173	43.536735	-0.066887	-55.566109
1.250000	-0.066184	-55.234171	-61.070296	42.570893	-61.070296	42.570893	-0.069715	-57.770179
1.300000	-0.068629	-57.302933	-61.043598	41.760631	-61.043598	41.760631	-0.072495	-59.963409
1.350000	-0.071016	-59.358237	-61.037770	41.120585	-61.037770	41.120585	-0.075225	-62.145728
1.400000	-0.073345	-61.399936	-61.050232	40.666177	-61.050232	40.666177	-0.077904	-64.317086
1.450000	-0.075618	-63.427815	-61.078103	40.414675	-61.078103	40.414675	-0.080530	-66.477386
1.500000	-0.077828	-65.440307	-61.118694	40.406575	-61.118694	40.406575	-0.083098	-68.625471
1.550000	-0.079984	-67.438844	-61.166204	40.634207	-61.166204	40.634207	-0.085616	-70.762571
1.600000	-0.082089	-69.423354	-61.215767	41.110507	-61.215767	41.110507	-0.088084	-72.888719
1.650000	-0.084144	-71.393782	-61.261783	41.845012	-61.261783	41.845012	-0.090504	-75.003966
1.700000	-0.086148	-73.349258	-61.296930	42.857525	-61.296930	42.857525	-0.092875	-77.107751
1.750000	-0.088108	-75.290784	-61.314715	44.125273	-61.314715	44.125273	-0.095205	-79.200951
1.800000	-0.090026	-77.217938	-61.307245	45.642579	-61.307245	45.642579	-0.097493	-81.283361
1.850000	-0.091903	-79.130733	-61.266894	47.384438	-61.266894	47.384438	-0.099743	-83.355110
1.900000	-0.093743	-81.029198	-61.186615	49.313501	-61.186615	49.313501	-0.101959	-85.416351
1.950000	-0.095547	-82.913375	-61.060568	51.380741	-61.060568	51.380741	-0.104142	-87.467252
2.000000	-0.097320	-84.783323	-60.884724	53.527794	-60.884724	53.527794	-0.106298	-89.507999
2.050000	-0.099063	-86.639114	-60.657309	55.690853	-60.657309	55.690853	-0.108429	-91.538798
2.100000	-0.100779	-88.480834	-60.378984	57.805557	-60.378984	57.805557	-0.110538	-93.559870
2.150000	-0.102471	-90.308584	-60.052713	59.811991	-60.052713	59.811991	-0.112630	-95.571455
2.200000	-0.104141	-92.122474	-59.683354	61.658885	-59.683354	61.658885	-0.114707	-97.573809
2.250000	-0.105792	-93.922629	-59.277070	63.306331	-59.277070	63.306331	-0.116773	-99.567205
2.300000	-0.107425	-95.709184	-58.840688	64.726799	-58.840688	64.726799	-0.118832	-101.551932
2.350000	-0.109044	-97.482284	-58.381120	65.904625	-58.381120	65.904625	-0.120886	-103.528298
2.400000	-0.110650	-99.242086	-57.904918	66.834433	-57.904918	66.834433	-0.122939	-105.496623
2.450000	-0.112245	-100.988755	-57.417982	67.519026	-57.417982	67.519026	-0.124995	-107.457247
2.500000	-0.113831	-102.722466	-56.925413	67.967177	-56.925413	67.967177	-0.127056	-109.410523
2.550000	-0.115411	-104.442855	-56.430353	68.182617	-56.430353	68.182617	-0.129127	-111.356537
2.600000	-0.116986	-106.150676	-55.937654	68.190872	-55.937654	68.190872	-0.131209	-113.295996
2.650000	-0.118558	-107.846131	-55.449997	68.008045	-55.449997	68.008045	-0.133307	-115.229304
2.700000	-0.120129	-109.529423	-54.969444	67.650267	-54.969444	67.650267	-0.135423	-117.156881
2.750000	-0.121700	-111.200766	-54.497534	67.133141	-54.497534	67.133141	-0.137559	-119.079162
2.800000	-0.123273	-112.860376	-54.035381	66.471402	-54.035381	66.471402	-0.139720	-120.996600
2.850000	-0.124849	-114.508478	-53.583759	65.678724	-53.583759	65.678724	-0.141908	-122.909663
2.900000	-0.126430	-116.145299	-53.143169	64.767641	-53.143169	64.767641	-0.144125	-124.818834
2.950000	-0.128020	-117.767342	-52.710800	63.717135	-52.710800	63.717135	-0.146387	-126.723683
3.000000	-0.129614	-119.383704	-52.294243	62.614428	-52.294243	62.614428	-0.148667	-128.626943
3.050000	-0.131219	-120.987318	-51.887656	61.409237	-51.887656	61.409237	-0.150995	-130.527635
3.100000	-0.132833	-122.581828	-51.493045	60.130846	-51.493045	60.130846	-0.153357	-132.426494
3.150000	-0.134458	-124.165950	-51.109615	58.780793	-51.109615	58.780793	-0.155766	-134.324398
3.200000	-0.136096	-125.739686	-50.736680	57.359080	-50.736680	57.359080	-0.158221	-136.221348
3.250000	-0.137745	-127.305226	-50.375335	55.888202	-50.375335	55.888202	-0.160721	-138.118615
3.300000	-0.139412	-128.859292	-50.023363	54.348494	-50.023363	54.348494	-0.163283	-140.016327
3.350000	-0.141087	-130.408673	-49.683360	52.783517	-49.683360	52.783517	-0.165875	-141.914820
3.400000	-0.142783	-131.946064	-49.351990	51.154887	-49.351990	51.154887	-0.168543	-143.815623
3.450000	-0.144496	-133.474911	-49.030265	49.484059	-49.030265	49.484059	-0.171272	-145.719072
3.500000	-0.146227	-134.995476	-48.717900	47.774200	-48.717900	47.774200	-0.174064	-147.625891
3.550000	-0.147977	-136.508023	-48.414616	46.028102	-48.414616	46.028102	-0.176924	-149.536825
3.600000	-0.149747	-138.012817	-48.120142	44.248224	-48.120142	44.248224	-0.179855	-151.452650
3.650000	-0.151537	-139.510124	-47.834215	42.436723	-47.834215	42.436723	-0.182859	-153.374166
3.700000	-0.153348	-141.000212	-47.556585	40.595486	-47.556585	40.595486	-0.185941	-155.302204
3.750000	-0.155181	-142.483348	-47.287012	38.726154	-47.287012	38.726154	-0.189104	-157.237627
3.800000	-0.157037	-143.959524	-47.025267	36.829048	-47.025267	36.829048	-0.192356	-159.181734
3.850000	-0.158917	-145.429312	-46.771158	34.906582	-46.771158	34.906582	-0.195697	-161.135138
3.900000	-0.160820	-146.892983	-46.524481	32.959772	-46.524481	32.959772	-0.199131	-163.098811
3.950000	-0.162748	-148.350809	-46.285045	30.989469	-46.285045	30.989469	-0.202664	-165.073764
4.000000	-0.164702	-149.803063	-46.052674	28.996371	-46.052674	28.996371	-0.206299	-167.061050
4.050000	-0.166681	-151.250018	-45.827204	26.981039	-45.827204	26.981039	-0.210042	-169.061764
4.100000	-0.168686	-152.691947	-45.608485	24.943901	-45.608485	24.943901	-0.213898	-171.077051
4.150000	-0.170718	-154.129127	-45.396380	22.885266	-45.396380	22.885266	-0.217872	-173.108103
4.200000	-0.172778	-155.561834	-45.190765	20.805327	-45.190765	20.805327	-0.221971	-175.156165
4.250000	-0.174866	-156.990344	-44.991531	18.704170	-44.991531	18.704170	-0.226200	-177.222539
4.300000	-0.176983	-158.414937	-44.798581	16.581777	-44.798581	16.581777	-0.230567	-179.308583
4.350000	-0.179129	-159.835892	-44.611832	14.438035	-44.611832	14.438035	-0.235078	178.584278
4.400000	-0.181304	-161.253490	-44.431217	12.272730	-44.431217	12.272730	-0.239741	176.454555
4.450000	-0.183510	-162.668014	-44.256678	10.085562	-44.256678	10.085562	-0.244564	174.300688
4.500000	-0.185746	-164.079749	-44.088177	7.876135	-44.088177	7.876135	-0.249555	172.121043
4.550000	-0.188014	-165.488981	-43.925686	5.643968	-43.925686	5.643968	-0.254724	169.913905
4.600000	-0.190314	-166.895997	-43.769195	3.388489	-43.769195	3.388489	-0.260080	167.677475
4.650000	-0.192647	-168.301090	-43.618708	1.109039	-43.618708	1.109039	-0.265634	165.409868
4.700000	-0.195013	-169.704552	-43.474246	-1.195133	-43.474246	-1.195133	-0.271397	163.109101
4.750000	-0.197413	-171.106680	-43.335847	-3.524865	-43.335847	-3.524865	-0.277380	160.773096
4.800000	-0.199847	-172.507773	-43.203566	-5.881088	-43.203566	-5.881088	-0.283597	158.399669
4.850000	-0.202316	-173.908133	-43.077477	-8.264829	-43.077477	-8.264829	-0.290060	155.986525
4.900000	-0.204821	-175.308066	-42.957673	-10.677212	-42.957673	-10.677212	-0.296785	153.531256
4.950000	-0.207363	-176.707884	-42.844270	-13.119461	-42.844270	-13.119461	-0.303785	151.031334
5.000000	-0.209942	-178.107900	-42.737402	-15.592905	-42.737402	-15.592905	-0.311078	148.484104
5.050000	-0.212561	-179.508473	-42.637486	-18.100478	-42.637486	-18.100478	-0.318693	145.884463
5.100000	-0.215219	179.090081	-42.544486	-20.642396	-42.544486	-20.642396	-0.326638	143.231530
5.150000	-0.217918	177.687430	-42.458619	-23.220356	-42.458619	-23.220356	-0.334930	140.522224
5.200000	-0.220658	176.283235	-42.380132	-25.836184	-42.380132	-25.836184	-0.343590	137.753323
5.250000	-0.223440	174.877153	-42.309302	-28.491845	-42.309302	-28.491845	-0.352638	134.921464
5.300000	-0.226266	173.468829	-42.246445	-31.189455	-42.246445	-31.189455	-0.362096	132.023134
5.350000	-0.229137	172.057904	-42.191912	-33.931285	-42.191912	-33.931285	-0.371987	129.054682
5.400000	-0.232055	170.644008	-42.146094	-36.719781	-42.146094	-36.719781	-0.382332	126.012316
5.450000	-0.235021	169.226761	-42.109429	-39.557569	-42.109429	-39.557569	-0.393155	122.892114
5.500000	-0.238036	167.805772	-42.082401	-42.447479	-42.082401	-42.447479	-0.404479	119.690034
5.550000	-0.241104	166.380640	-42.065548	-45.392556	-42.065548	-45.392556	-0.416326	116.401926
5.600000	-0.244225	164.950951	-42.059462	-48.396087	-42.059462	-48.396087	-0.428717	113.023556
5.650000	-0.247395	163.516985	-42.063215	-51.453029	-42.063215	-51.453029	-0.441600	109.563541
5.700000	-0.250632	162.076879	-42.080729	-54.584605	-42.080729	-54.584605	-0.455144	105.991204
5.750000	-0.253930	160.630876	-42.111185	-57.786255	-42.111185	-57.786255	-0.469287	102.315580
5.800000	-0.257294	159.178499	-42.155446	-61.062538	-42.155446	-61.062538	-0.484039	98.532428
5.850000	-0.260726	157.719249	-42.214453	-64.418446	-42.214453	-64.418446	-0.499407	94.637634
5.900000	-0.264230	156.252609	-42.289229	-67.859473	-42.289229	-67.859473	-0.515390	90.627284
5.950000	-0.267812	154.778035	-42.380880	-71.391704	-42.380880	-71.391704	-0.531979	86.497753
6.000000	-0.271475	153.294961	-42.490593	-75.021933	-42.490593	-75.021933	-0.549157	82.245800
6.050000	-0.275225	151.802791	-42.619635	-78.757806	-42.619635	-78.757806	-0.566893	77.868678
6.100000	-0.279069	150.300897	-42.769347	-82.608007	-42.769347	-82.608007	-0.585148	73.364256
6.150000	-0.283013	148.788619	-42.941129	-86.582509	-42.941129	-86.582509	-0.603863	68.731154
6.200000	-0.287066	147.265257	-43.136415	-90.692883	-43.136415	-90.692883	-0.622967	63.968878
6.250000	-0.291235	145.730072	-43.356642	-94.952706	-43.356642	-94.952706	-0.642370	59.077972
6.300000	-0.295534	144.181984	-43.603623	-99.382122	-43.603623	-99.382122	-0.661967	54.057467
6.350000	-0.299972	142.620406	-43.878134	-103.997444	-43.878134	-103.997444	-0.681626	48.913299
6.400000	-0.304562	141.044439	-44.181114	-108.822312	-44.181114	-108.822312	-0.701204	43.650048
6.450000	-0.309319	139.453117	-44.513031	-113.885467	-44.513031	-113.885467	-0.720544	38.273838
6.500000	-0.314259	137.845402	-44.873609	-119.221908	-44.873609	-119.221908	-0.739476	32.792390
6.550000	-0.319402	136.220173	-45.261410	-124.874083	-45.261410	-124.874083	-0.757823	27.215043
6.600000	-0.324771	134.576215	-45.673246	-130.892884	-45.673246	-130.892884	-0.775402	21.552713
6.650000	-0.330392	132.912206	-46.103342	-137.337892	-46.103342	-137.337892	-0.792036	15.817806
6.700000	-0.336289	131.227235	-46.542876	-144.262814	-46.542876	-144.262814	-0.807586	10.025029
6.750000	-0.342515	129.518420	-46.975841	-151.768489	-46.975841	-151.768489	-0.821823	4.186634
6.800000	-0.349104	127.784733	-47.381270	-159.899103	-47.381270	-159.899103	-0.834657	-1.679645
6.850000	-0.356106	126.024223	-47.730053	-168.687926	-47.730053	-168.687926	-0.845981	-7.557510
6.900000	-0.363585	124.234711	-47.985918	-178.113069	-47.985918	-178.113069	-0.855724	-13.430454
6.950000	-0.371615	122.413741	-48.108860	171.932125	-48.108860	171.932125	-0.863848	-19.282117
7.000000	-0.380290	120.558526	-48.062117	161.655428	-48.062117	161.655428	-0.870349	-25.096623
7.050000	-0.389723	118.665873	-47.820984	151.349659	-47.820984	151.349659	-0.875258	-30.858904
7.100000	-0.400130	116.729224	-47.365085	141.375168	-47.365085	141.375168	-0.878551	-36.550007
7.150000	-0.411531	114.751369	-46.741926	131.924182	-46.741926	131.924182	-0.880553	-42.169631
7.200000	-0.424393	112.718500	-45.934477	123.290920	-45.934477	123.290920	-0.881137	-47.691733
7.250000	-0.438803	110.633057	-45.004891	115.420330	-45.004891	115.420330	-0.880639	-53.122108
7.300000	-0.455432	108.480234	-43.946196	108.387590	-43.946196	108.387590	-0.879081	-58.440838
7.350000	-0.474858	106.252737	-42.781058	102.063446	-42.781058	102.063446	-0.876689	-63.646437
7.400000	-0.498125	103.936298	-41.508328	96.319125	-41.508328	96.319125	-0.873655	-68.733133
7.450000	-0.526846	101.512054	-40.118716	90.990308	-40.118716	90.990308	-0.870215	-73.697604
7.500000	-0.562461	98.972015	-38.640613	85.870417	-38.640613	85.870417	-0.866660	-78.553536
7.550000	-0.610320	96.261226	-36.992267	80.769908	-36.992267	80.769908	-0.863382	-83.283965
7.600000	-0.677469	93.337555	-35.161958	75.389155	-35.161958	75.389155	-0.861051	-87.901876
7.650000	-0.778412	90.127536	-33.106337	69.327486	-33.106337	69.327486	-0.860879	-92.416871
7.700000	-0.947198	86.509824	-30.738584	61.875947	-30.738584	61.875947	-0.865655	-96.840545
7.750000	-1.270214	82.359129	-27.957386	51.640789	-27.957386	51.640789	-0.882456	-101.189555
7.800000	-1.991899	78.055982	-24.710630	35.502242	-24.710630	35.502242	-0.930444	-105.442101
7.850000	-3.518656	78.812244	-21.529653	7.138210	-21.529653	7.138210	-1.038203	-109.256325
7.900000	-3.466264	92.249577	-20.738671	-33.300345	-20.738671	-33.300345	-1.080214	-112.052786
7.950000	-1.813729	91.961769	-22.763639	-64.725732	-22.763639	-64.725732	-0.977932	-115.233874
8.000000	-1.132159	86.260164	-25.126342	-83.015044	-25.126342	-83.015044	-0.904637	-118.880774
8.050000	-0.891871	80.921971	-27.048154	-94.795359	-27.048154	-94.795359	-0.866397	-122.512524
8.100000	-0.805715	76.099900	-28.559136	-103.684190	-28.559136	-103.684190	-0.844309	-126.036376
8.150000	-0.785394	71.539631	-29.750506	-111.196161	-29.750506	-111.196161	-0.830027	-129.446088
8.200000	-0.797471	67.047082	-30.722342	-118.105211	-30.722342	-118.105211	-0.819698	-132.754929
8.250000	-0.830562	62.502235	-31.522759	-124.787444	-31.522759	-124.787444	-0.811756	-135.969567
8.300000	-0.879727	57.815770	-32.190953	-131.485232	-32.190953	-131.485232	-0.805344	-139.097440
8.350000	-0.943070	52.921814	-32.756367	-138.356724	-32.756367	-138.356724	-0.799973	-142.146526
8.400000	-1.021505	47.741123	-33.230295	-145.541203	-33.230295	-145.541203	-0.795408	-145.118075
8.450000	-1.115834	42.216990	-33.628990	-153.132575	-33.628990	-153.132575	-0.791446	-148.019511
8.500000	-1.228051	36.283092	-33.959050	-161.215158	-33.959050	-161.215158	-0.787972	-150.855165
8.550000	-1.360708	29.867970	-34.223287	-169.859541	-34.223287	-169.859541	-0.784907	-153.629002
8.600000	-1.516735	22.893511	-34.421592	-179.120290	-34.421592	-179.120290	-0.782198	-156.344689
8.650000	-1.699168	15.274385	-34.551916	170.969244	-34.551916	170.969244	-0.779802	-159.005639
8.700000	-1.910694	6.918822	-34.611579	160.403838	-34.611579	160.403838	-0.777690	-161.615039
8.750000	-2.152864	-2.268517	-34.598961	149.213237	-34.598961	149.213237	-0.775838	-164.175872
8.800000	-2.425120	-12.394971	-34.514479	137.460204	-34.514479	137.460204	-0.774233	-166.690313
8.850000	-2.722010	-23.518444	-34.365962	125.266324	-34.365962	125.266324	-0.772855	-169.161982
8.900000	-3.032525	-35.705430	-34.164251	112.767834	-34.164251	112.767834	-0.771699	-171.592450
8.950000	-3.337926	-48.915753	-33.927886	100.137130	-33.927886	100.137130	-0.770751	-173.984915
9.000000	-3.613326	-63.038663	-33.676895	87.544268	-33.676895	87.544268	-0.770003	-176.341663
9.050000	-3.827898	-77.868997	-33.431713	75.165609	-33.431713	75.165609	-0.769455	-178.663775
9.100000	-3.957097	-93.046420	-33.210404	63.156961	-33.210404	63.156961	-0.769097	179.046262
9.150000	-3.987990	-108.152472	-33.025602	51.649759	-33.025602	51.649759	-0.768923	176.786643
9.200000	-3.923638	-122.768184	-32.884370	40.748323	-32.884370	40.748323	-0.768930	174.555864
9.250000	-3.782574	-136.563042	-32.787880	30.515163	-32.787880	30.515163	-0.769110	172.352197
9.300000	-3.589981	-149.339221	-32.733184	20.977276	-32.733184	20.977276	-0.769458	170.174032
9.350000	-3.370120	-161.019179	-32.715080	12.134610	-32.715080	12.134610	-0.769967	168.019948
9.400000	-3.142368	-171.616895	-32.727355	3.964635	-32.727355	3.964635	-0.770631	165.888605
9.450000	-2.920017	178.797809	-32.763770	-3.570501	-32.763770	-3.570501	-0.771443	163.778739
9.500000	-2.710988	170.128210	-32.818647	-10.517572	-32.818647	-10.517572	-0.772397	161.689155
9.550000	-2.519210	162.269877	-32.887143	-16.927206	-32.887143	-16.927206	-0.773485	159.618725
9.600000	-2.346051	155.124568	-32.965330	-22.848177	-32.965330	-22.848177	-0.774703	157.566466
9.650000	-2.191287	148.600960	-33.050067	-28.328097	-33.050067	-28.328097	-0.776043	155.531433
9.700000	-2.053607	142.610580	-33.138892	-33.416874	-33.138892	-33.416874	-0.777497	153.512503
9.750000	-1.931475	137.082469	-33.230017	-38.155657	-33.230017	-38.155657	-0.779058	151.508780
9.800000	-1.823247	131.955549	-33.322114	-42.581398	-33.322114	-42.581398	-0.780721	149.519417
9.850000	-1.727324	127.177536	-33.414219	-46.726982	-33.414219	-46.726982	-0.782478	147.543613
9.900000	-1.642344	122.707496	-33.505608	-50.618331	-33.505608	-50.618331	-0.784324	145.580786
9.950000	-1.567018	118.508609	-33.595769	-54.279798	-33.595769	-54.279798	-0.786254	143.630314
10.000000	-1.499301	114.522128	-33.684665	-57.756848	-33.684665	-57.756848	-0.788253	141.690220
