! freq	dB(S11)	phase(S11)	dB(S12)	phase(S12)	
!     	dB(S21)	phase(S21)	dB(S22)	phase(S22)	
!S-par simulation data
#  GHz  S  DB  R 50
0.000000	-0.000000	0.000000	-326.789180	0.000000	-326.789180	0.000000	0.000000	0.000000
0.050000	-0.000500	-0.771363	-102.475015	89.231958	-102.475015	89.231958	-0.000726	-1.169412
0.100000	-0.001660	-1.538888	-96.475271	88.196316	-96.475271	88.196316	-0.002487	-2.333724
0.150000	-0.002960	-2.302282	-92.977865	87.220360	-92.977865	87.220360	-0.004580	-3.492037
0.200000	-0.004142	-3.063024	-90.513475	86.272248	-90.513475	86.272248	-0.006573	-4.646046
0.250000	-0.005196	-3.822615	-88.616822	85.343489	-88.616822	85.343489	-0.008380	-5.797974
0.300000	-0.006153	-4.581645	-87.083665	84.435049	-87.083665	84.435049	-0.010008	-6.948771
0.350000	-0.007056	-5.340434	-85.804297	83.548542	-85.804297	83.548542	-0.011505	-8.098997
0.400000	-0.007939	-6.099102	-84.713599	82.686725	-84.713599	82.686725	-0.012917	-9.248848
0.450000	-0.008824	-6.857664	-83.771852	81.855429	-83.771852	81.855429	-0.014275	-10.398295
0.500000	-0.009722	-7.616104	-82.947392	81.055473	-82.947392	81.055473	-0.015607	-11.547282
0.550000	-0.010636	-8.374380	-82.219721	80.290647	-82.219721	80.290647	-0.016928	-12.695685
0.600000	-0.011566	-9.132440	-81.573716	79.565125	-81.573716	79.565125	-0.018246	-13.843376
0.650000	-0.012509	-9.890225	-80.997905	78.883500	-80.997905	78.883500	-0.019569	-14.990223
0.700000	-0.013461	-10.647670	-80.483373	78.250809	-80.483373	78.250809	-0.020898	-16.136106
0.750000	-0.014418	-11.404678	-80.024682	77.676316	-80.024682	77.676316	-0.022238	-17.280837
0.800000	-0.015376	-12.161174	-79.615881	77.166777	-79.615881	77.166777	-0.023590	-18.424302
0.850000	-0.016332	-12.917100	-79.251530	76.728285	-79.251530	76.728285	-0.024953	-19.566428
0.900000	-0.017287	-13.672438	-78.925771	76.362935	-78.925771	76.362935	-0.026328	-20.707227
0.950000	-0.018238	-14.427102	-78.636736	76.083330	-78.636736	76.083330	-0.027713	-21.846543
1.000000	-0.019187	-15.181044	-78.381408	75.898889	-78.381408	75.898889	-0.029109	-22.984300
1.050000	-0.020133	-15.934224	-78.157047	75.819939	-78.157047	75.819939	-0.030514	-24.120428
1.100000	-0.021078	-16.686612	-77.961078	75.857758	-77.961078	75.857758	-0.031927	-25.254866
1.150000	-0.022022	-17.438181	-77.790991	76.024590	-77.790991	76.024590	-0.033348	-26.387555
1.200000	-0.022967	-18.188912	-77.644242	76.333617	-77.644242	76.333617	-0.034774	-27.518442
1.250000	-0.023913	-18.938789	-77.518150	76.798864	-77.518150	76.798864	-0.036205	-28.647476
1.300000	-0.024860	-19.687761	-77.410365	77.443141	-77.410365	77.443141	-0.037639	-29.774527
1.350000	-0.025809	-20.435857	-77.316745	78.274628	-77.316745	78.274628	-0.039076	-30.899633
1.400000	-0.026760	-21.183066	-77.233495	79.307947	-77.233495	79.307947	-0.040514	-32.022754
1.450000	-0.027713	-21.929381	-77.156264	80.556547	-77.156264	80.556547	-0.041952	-33.143852
1.500000	-0.028668	-22.674795	-77.080076	82.031585	-77.080076	82.031585	-0.043390	-34.262891
1.550000	-0.029624	-23.419300	-76.999298	83.740500	-76.999298	83.740500	-0.044827	-35.379839
1.600000	-0.030582	-24.162889	-76.907676	85.685322	-76.907676	85.685322	-0.046262	-36.494664
1.650000	-0.031541	-24.905554	-76.798465	87.860846	-76.798465	87.860846	-0.047696	-37.607335
1.700000	-0.032501	-25.647286	-76.664679	90.252905	-76.664679	90.252905	-0.049127	-38.717825
1.750000	-0.033462	-26.388079	-76.499460	92.837093	-76.499460	92.837093	-0.050555	-39.826107
1.800000	-0.034424	-27.127922	-76.296557	95.578329	-76.296557	95.578329	-0.051981	-40.932154
1.850000	-0.035387	-27.866807	-76.050852	98.431637	-76.050852	98.431637	-0.053404	-42.035943
1.900000	-0.036351	-28.604724	-75.758851	101.344270	-75.758851	101.344270	-0.054824	-43.137451
1.950000	-0.037316	-29.341664	-75.419034	104.259069	-75.419034	104.259069	-0.056242	-44.236655
2.000000	-0.038282	-30.077617	-75.031995	107.118565	-75.031995	107.118565	-0.057658	-45.333535
2.050000	-0.039248	-30.812572	-74.600322	109.869130	-74.600322	109.869130	-0.059072	-46.428070
2.100000	-0.040216	-31.546518	-74.128257	112.464487	-74.128257	112.464487	-0.060484	-47.520242
2.150000	-0.041185	-32.279445	-73.621211	114.868030	-73.621211	114.868030	-0.061896	-48.610034
2.200000	-0.042155	-33.011343	-73.085229	117.053796	-73.085229	117.053796	-0.063306	-49.697428
2.250000	-0.043127	-33.742199	-72.526500	119.006173	-72.526500	119.006173	-0.064717	-50.782409
2.300000	-0.044101	-34.472002	-71.950965	120.718720	-71.950965	120.718720	-0.066128	-51.864962
2.350000	-0.045077	-35.200743	-71.364047	122.192469	-71.364047	122.192469	-0.067540	-52.945074
2.400000	-0.046056	-35.928408	-70.770506	123.434091	-70.770506	123.434091	-0.068953	-54.022732
2.450000	-0.047037	-36.654987	-70.174380	124.454171	-70.174380	124.454171	-0.070369	-55.097924
2.500000	-0.048021	-37.380469	-69.579001	125.265742	-69.579001	125.265742	-0.071788	-56.170640
2.550000	-0.049009	-38.104793	-68.985554	125.875371	-68.985554	125.875371	-0.073211	-57.240762
2.600000	-0.050001	-38.827996	-68.397853	126.306851	-68.397853	126.306851	-0.074638	-58.308390
2.650000	-0.050997	-39.550067	-67.817481	126.574637	-67.817481	126.574637	-0.076071	-59.373515
2.700000	-0.051998	-40.270996	-67.245612	126.692554	-67.245612	126.692554	-0.077509	-60.436133
2.750000	-0.053004	-40.990770	-66.683088	126.673589	-66.683088	126.673589	-0.078954	-61.496239
2.800000	-0.054014	-41.709379	-66.130486	126.529775	-66.130486	126.529775	-0.080406	-62.553827
2.850000	-0.055031	-42.426814	-65.588167	126.272156	-65.588167	126.272156	-0.081867	-63.608897
2.900000	-0.056054	-43.143063	-65.056330	125.910798	-65.056330	125.910798	-0.083336	-64.661446
2.950000	-0.057083	-43.858116	-64.535040	125.454828	-64.535040	125.454828	-0.084815	-65.711473
3.000000	-0.058119	-44.571963	-64.024265	124.912489	-64.024265	124.912489	-0.086304	-66.758981
3.050000	-0.059162	-45.284596	-63.523896	124.291211	-63.523896	124.291211	-0.087804	-67.803971
3.100000	-0.060212	-45.996003	-63.033767	123.597675	-63.033767	123.597675	-0.089316	-68.846446
3.150000	-0.061271	-46.706176	-62.553673	122.837885	-62.553673	122.837885	-0.090840	-69.886411
3.200000	-0.062338	-47.415106	-62.083376	122.017232	-62.083376	122.017232	-0.092378	-70.923871
3.250000	-0.063414	-48.122784	-61.622619	121.140553	-61.622619	121.140553	-0.093929	-71.958834
3.300000	-0.064499	-48.829203	-61.171132	120.212192	-61.171132	120.212192	-0.095495	-72.991309
3.350000	-0.065593	-49.534352	-60.728634	119.236045	-60.728634	119.236045	-0.097076	-74.021303
3.400000	-0.066698	-50.238226	-60.294843	118.215611	-60.294843	118.215611	-0.098673	-75.048830
3.450000	-0.067812	-50.940816	-59.869475	117.154028	-59.869475	117.154028	-0.100287	-76.073900
3.500000	-0.068938	-51.642115	-59.452248	116.054114	-59.452248	116.054114	-0.101918	-77.096528
3.550000	-0.070074	-52.342116	-59.042883	114.918396	-59.042883	114.918396	-0.103566	-78.116728
3.600000	-0.071221	-53.040813	-58.641104	113.749140	-58.641104	113.749140	-0.105234	-79.134517
3.650000	-0.072381	-53.738199	-58.246643	112.548374	-58.246643	112.548374	-0.106920	-80.149913
3.700000	-0.073552	-54.434269	-57.859234	111.317912	-57.859234	111.317912	-0.108626	-81.162936
3.750000	-0.074736	-55.129017	-57.478619	110.059374	-57.478619	110.059374	-0.110353	-82.173605
3.800000	-0.075934	-55.822380	-57.104130	108.773098	-57.104130	108.773098	-0.112102	-83.181843
3.850000	-0.077144	-56.514411	-56.735960	107.461560	-56.735960	107.461560	-0.113872	-84.187778
3.900000	-0.078368	-57.205105	-56.373862	106.125860	-56.373862	106.125860	-0.115665	-85.191433
3.950000	-0.079606	-57.894459	-56.017598	104.766960	-56.017598	104.766960	-0.117480	-86.192837
4.000000	-0.080859	-58.582468	-55.666930	103.385690	-55.666930	103.385690	-0.119319	-87.192020
4.050000	-0.082126	-59.269130	-55.321628	101.982753	-55.321628	101.982753	-0.121183	-88.189012
4.100000	-0.083408	-59.954442	-54.981463	100.558733	-54.981463	100.558733	-0.123071	-89.183846
4.150000	-0.084705	-60.638401	-54.646207	99.114097	-54.646207	99.114097	-0.124984	-90.176557
4.200000	-0.086018	-61.321006	-54.315635	97.649200	-54.315635	97.649200	-0.126923	-91.167183
4.250000	-0.087347	-62.002255	-53.989524	96.164282	-53.989524	96.164282	-0.128888	-92.155763
4.300000	-0.088693	-62.682148	-53.667647	94.659470	-53.667647	94.659470	-0.130881	-93.142339
4.350000	-0.090055	-63.360683	-53.349777	93.134779	-53.349777	93.134779	-0.132901	-94.126955
4.400000	-0.091434	-64.037860	-53.035684	91.590102	-53.035684	91.590102	-0.134950	-95.109660
4.450000	-0.092831	-64.713681	-52.725132	90.025213	-52.725132	90.025213	-0.137028	-96.090502
4.500000	-0.094246	-65.388147	-52.417879	88.439751	-52.417879	88.439751	-0.139135	-97.069538
4.550000	-0.095678	-66.061258	-52.113675	86.833221	-52.113675	86.833221	-0.141273	-98.046823
4.600000	-0.097129	-66.733018	-51.812260	85.204975	-51.812260	85.204975	-0.143441	-99.022421
4.650000	-0.098599	-67.403429	-51.513359	83.554201	-51.513359	83.554201	-0.145642	-99.996398
4.700000	-0.100088	-68.072496	-51.216681	81.879908	-51.216681	81.879908	-0.147875	-100.968825
4.750000	-0.101596	-68.740223	-50.921917	80.180900	-50.921917	80.180900	-0.150142	-101.939782
4.800000	-0.103124	-69.406616	-50.628731	78.455754	-50.628731	78.455754	-0.152444	-102.909353
4.850000	-0.104672	-70.071681	-50.336760	76.702786	-50.336760	76.702786	-0.154781	-103.877632
4.900000	-0.106240	-70.735426	-50.045604	74.920017	-50.045604	74.920017	-0.157155	-104.844721
4.950000	-0.107829	-71.397860	-49.754820	73.105122	-49.754820	73.105122	-0.159568	-105.810734
5.000000	-0.109440	-72.058995	-49.463914	71.255378	-49.463914	71.255378	-0.162020	-106.775798
5.050000	-0.111072	-72.718787	-49.171839	69.365755	-49.171839	69.365755	-0.164517	-107.740029
5.100000	-0.112726	-73.377309	-48.878368	67.433924	-48.878368	67.433924	-0.167059	-108.703632
5.150000	-0.114403	-74.034577	-48.582744	65.455349	-48.582744	65.455349	-0.169649	-109.666797
5.200000	-0.116102	-74.690614	-48.284087	63.424663	-48.284087	63.424663	-0.172291	-110.629743
5.250000	-0.117824	-75.345443	-47.981358	61.335477	-47.981358	61.335477	-0.174990	-111.592726
5.300000	-0.119569	-75.999097	-47.673320	59.180149	-47.673320	59.180149	-0.177752	-112.556050
5.350000	-0.121338	-76.651611	-47.358486	56.949481	-47.358486	56.949481	-0.180586	-113.520079
5.400000	-0.123132	-77.303031	-47.035043	54.632310	-47.035043	54.632310	-0.183502	-114.485257
5.450000	-0.124952	-77.953413	-46.700757	52.214978	-46.700757	52.214978	-0.186516	-115.452131
5.500000	-0.126799	-78.602828	-46.352839	49.680605	-46.352839	49.680605	-0.189649	-116.421388
5.550000	-0.128674	-79.251369	-45.987756	47.008089	-45.987756	47.008089	-0.192929	-117.393907
5.600000	-0.130580	-79.899154	-45.600964	44.170692	-45.600964	44.170692	-0.196402	-118.370830
5.650000	-0.132522	-80.546343	-45.186524	41.134018	-45.186524	41.134018	-0.200129	-119.353685
5.700000	-0.134505	-81.193158	-44.736525	37.852992	-44.736525	37.852992	-0.204210	-120.344553
5.750000	-0.136542	-81.839907	-44.240212	34.267230	-44.240212	34.267230	-0.208804	-121.346364
5.800000	-0.138652	-82.487044	-43.682616	30.293625	-43.682616	30.293625	-0.214172	-122.363363
5.850000	-0.140854	-83.135052	-43.057864	25.875423	-43.057864	25.875423	-0.220589	-123.399073
5.900000	-0.143242	-83.785289	-42.307777	20.728895	-42.307777	20.728895	-0.229179	-124.468242
5.950000	-0.145933	-84.439201	-41.408977	14.675235	-41.408977	14.675235	-0.241295	-125.582613
6.000000	-0.149290	-85.100216	-40.268381	7.172002	-40.268381	7.172002	-0.261011	-126.774140
6.050000	-0.154182	-85.773673	-38.780649	-2.609957	-38.780649	-2.609957	-0.297588	-128.089422
6.100000	-0.163415	-86.468734	-36.755735	-16.647576	-36.755735	-16.647576	-0.379873	-129.604153
6.150000	-0.186929	-87.179077	-34.027931	-40.149871	-34.027931	-40.149871	-0.607346	-131.210904
6.200000	-0.236874	-87.676349	-31.763041	-84.689989	-31.763041	-84.689989	-1.084210	-130.456597
6.250000	-0.225549	-87.912603	-33.957480	-138.457488	-33.957480	-138.457488	-0.855863	-127.436705
6.300000	-0.195093	-88.498319	-38.017689	-172.366931	-38.017689	-172.366931	-0.517340	-128.345102
6.350000	-0.183084	-89.161503	-41.209077	164.666466	-41.209077	164.666466	-0.389033	-129.814621
6.400000	-0.178895	-89.818660	-43.395887	145.960580	-43.395887	145.960580	-0.336420	-131.142381
6.450000	-0.177804	-90.465413	-44.786459	129.810387	-44.786459	129.810387	-0.311484	-132.345052
6.500000	-0.178192	-91.104095	-45.568118	116.017704	-45.568118	116.017704	-0.298966	-133.465210
6.550000	-0.179325	-91.737226	-45.961063	104.337699	-45.961063	104.337699	-0.292368	-134.535083
6.600000	-0.180918	-92.366064	-46.098147	94.566453	-46.098147	94.566453	-0.289211	-135.570298
6.650000	-0.182807	-92.991534	-46.081862	86.376809	-46.081862	86.376809	-0.288130	-136.581552
6.700000	-0.184916	-93.614012	-45.971494	79.548085	-45.971494	79.548085	-0.288477	-137.574400
6.750000	-0.187161	-94.234385	-45.818546	73.594680	-45.818546	73.594680	-0.289620	-138.556139
6.800000	-0.189525	-94.852699	-45.638036	68.415653	-45.638036	68.415653	-0.291414	-139.528349
6.850000	-0.191987	-95.469165	-45.443687	63.844968	-45.443687	63.844968	-0.293688	-140.493262
6.900000	-0.194532	-96.083939	-45.243545	59.756017	-45.243545	59.756017	-0.296330	-141.452512
6.950000	-0.197150	-96.697142	-45.042309	56.052371	-45.042309	56.052371	-0.299262	-142.407327
7.000000	-0.199833	-97.308867	-44.842700	52.660229	-44.842700	52.660229	-0.302427	-143.358650
7.050000	-0.202576	-97.919191	-44.646258	49.522643	-44.646258	49.522643	-0.305788	-144.307224
7.100000	-0.205376	-98.528175	-44.453817	46.595253	-44.453817	46.595253	-0.309314	-145.253643
7.150000	-0.208230	-99.135870	-44.265785	43.843149	-44.265785	43.843149	-0.312984	-146.198393
7.200000	-0.211135	-99.742321	-44.082316	41.238583	-44.082316	41.238583	-0.316781	-147.141880
7.250000	-0.214090	-100.347566	-43.903412	38.759282	-43.903412	38.759282	-0.320692	-148.084443
7.300000	-0.217094	-100.951638	-43.728989	36.387199	-43.728989	36.387199	-0.324707	-149.026377
7.350000	-0.220147	-101.554568	-43.558912	34.107585	-43.558912	34.107585	-0.328818	-149.967937
7.400000	-0.223247	-102.156384	-43.393026	31.908284	-43.393026	31.908284	-0.333019	-150.909349
7.450000	-0.226393	-102.757111	-43.231163	29.779203	-43.231163	29.779203	-0.337304	-151.850814
7.500000	-0.229587	-103.356772	-43.073159	27.711901	-43.073159	27.711901	-0.341670	-152.792515
7.550000	-0.232829	-103.955345	-42.918890	25.701368	-42.918890	25.701368	-0.346116	-153.734643
7.600000	-0.236117	-104.552899	-42.768162	23.739032	-42.768162	23.739032	-0.350636	-154.677343
7.650000	-0.239452	-105.149452	-42.620834	21.819870	-42.620834	21.819870	-0.355228	-155.620756
7.700000	-0.242833	-105.745025	-42.476774	19.939573	-42.476774	19.939573	-0.359890	-156.565017
7.750000	-0.246261	-106.339637	-42.335858	18.094426	-42.335858	18.094426	-0.364621	-157.510255
7.800000	-0.249735	-106.933305	-42.197975	16.281217	-42.197975	16.281217	-0.369419	-158.456591
7.850000	-0.253256	-107.526048	-42.063022	14.497155	-42.063022	14.497155	-0.374284	-159.404144
7.900000	-0.256824	-108.117885	-41.930905	12.739810	-41.930905	12.739810	-0.379214	-160.353027
7.950000	-0.260439	-108.708832	-41.801538	11.007056	-41.801538	11.007056	-0.384209	-161.303351
8.000000	-0.264102	-109.298907	-41.674842	9.297033	-41.674842	9.297033	-0.389268	-162.255223
8.050000	-0.267812	-109.888128	-41.550746	7.608104	-41.550746	7.608104	-0.394391	-163.208748
8.100000	-0.271570	-110.476511	-41.429185	5.938830	-41.429185	5.938830	-0.399578	-164.164031
8.150000	-0.275376	-111.064075	-41.310098	4.287942	-41.310098	4.287942	-0.404828	-165.121173
8.200000	-0.279230	-111.650837	-41.193432	2.654321	-41.193432	2.654321	-0.410141	-166.080275
8.250000	-0.283133	-112.236813	-41.079136	1.036978	-41.079136	1.036978	-0.415516	-167.041436
8.300000	-0.287085	-112.822021	-40.967165	-0.564961	-40.967165	-0.564961	-0.420955	-168.004756
8.350000	-0.291086	-113.406478	-40.857476	-2.152270	-40.857476	-2.152270	-0.426456	-168.970332
8.400000	-0.295137	-113.990203	-40.750033	-3.725632	-40.750033	-3.725632	-0.432019	-169.938262
8.450000	-0.299237	-114.573211	-40.644800	-5.285649	-40.644800	-5.285649	-0.437645	-170.908644
8.500000	-0.303388	-115.155521	-40.541743	-6.832853	-40.541743	-6.832853	-0.443333	-171.881573
8.550000	-0.307589	-115.737151	-40.440835	-8.367712	-40.440835	-8.367712	-0.449084	-172.857148
8.600000	-0.311840	-116.318118	-40.342047	-9.890637	-40.342047	-9.890637	-0.454898	-173.835465
8.650000	-0.316142	-116.898441	-40.245354	-11.401986	-40.245354	-11.401986	-0.460774	-174.816620
8.700000	-0.320496	-117.478136	-40.150733	-12.902073	-40.150733	-12.902073	-0.466713	-175.800709
8.750000	-0.324901	-118.057223	-40.058161	-14.391169	-40.058161	-14.391169	-0.472714	-176.787830
8.800000	-0.329359	-118.635694	-39.967665	-15.869048	-39.967665	-15.869048	-0.478781	-177.778221
8.850000	-0.333870	-119.213595	-39.879182	-17.336382	-39.879182	-17.336382	-0.484911	-178.771845
8.900000	-0.338433	-119.790945	-39.792694	-18.793336	-39.792694	-18.793336	-0.491104	-179.768801
8.950000	-0.343049	-120.367762	-39.708182	-20.240045	-39.708182	-20.240045	-0.497360	179.230814
9.000000	-0.347718	-120.944064	-39.625631	-21.676621	-39.625631	-21.676621	-0.503680	178.226903
9.050000	-0.352439	-121.519872	-39.545026	-23.103150	-39.545026	-23.103150	-0.510062	177.219368
9.100000	-0.357214	-122.095205	-39.466351	-24.519699	-39.466351	-24.519699	-0.516508	176.208110
9.150000	-0.362043	-122.670081	-39.389593	-25.926318	-39.389593	-25.926318	-0.523017	175.193032
9.200000	-0.366925	-123.244521	-39.314737	-27.323035	-39.314737	-27.323035	-0.529590	174.174034
9.250000	-0.371862	-123.818544	-39.241770	-28.709868	-39.241770	-28.709868	-0.536226	173.151019
9.300000	-0.376853	-124.392171	-39.170678	-30.086815	-39.170678	-30.086815	-0.542926	172.123887
9.350000	-0.381898	-124.965421	-39.101449	-31.453867	-39.101449	-31.453867	-0.549690	171.092539
9.400000	-0.386998	-125.538315	-39.034069	-32.810999	-39.034069	-32.810999	-0.556517	170.056875
9.450000	-0.392154	-126.110874	-38.968525	-34.158178	-38.968525	-34.158178	-0.563408	169.016796
9.500000	-0.397364	-126.683119	-38.904806	-35.495361	-38.904806	-35.495361	-0.570362	167.972202
9.550000	-0.402630	-127.255070	-38.842897	-36.822499	-38.842897	-36.822499	-0.577380	166.922994
9.600000	-0.407951	-127.826749	-38.782786	-38.139532	-38.782786	-38.139532	-0.584461	165.869072
9.650000	-0.413328	-128.398178	-38.724459	-39.446397	-38.724459	-39.446397	-0.591606	164.810335
9.700000	-0.418761	-128.969377	-38.667905	-40.743026	-38.667905	-40.743026	-0.598815	163.746684
9.750000	-0.424251	-129.540370	-38.613108	-42.029343	-38.613108	-42.029343	-0.606086	162.678018
9.800000	-0.429796	-130.111179	-38.560057	-43.305272	-38.560057	-43.305272	-0.613421	161.604239
9.850000	-0.435398	-130.681825	-38.508737	-44.570732	-38.508737	-44.570732	-0.620818	160.525246
9.900000	-0.441057	-131.252332	-38.459134	-45.825642	-38.459134	-45.825642	-0.628279	159.440940
9.950000	-0.446772	-131.822722	-38.411235	-47.069916	-38.411235	-47.069916	-0.635802	158.351221
10.000000	-0.452545	-132.393019	-38.365026	-48.303469	-38.365026	-48.303469	-0.643387	157.255991
