! freq	dB(S11)	phase(S11)	dB(S12)	phase(S12)	
!     	dB(S21)	phase(S21)	dB(S22)	phase(S22)	
!S-par simulation data
#  GHz  S  DB  R 50
0.000000	-0.000000	0.000000	-347.021721	0.000000	-347.021721	0.000000	-0.000000	0.000000
0.050000	-0.001448	-2.302822	-104.020096	88.584606	-104.020096	88.584606	-0.000560	-0.861508
0.100000	-0.004976	-4.594724	-98.045565	86.985906	-98.045565	86.985906	-0.001866	-1.718653
0.150000	-0.009162	-6.873299	-94.597184	85.446041	-94.597184	85.446041	-0.003323	-2.571136
0.200000	-0.013172	-9.141758	-92.199076	83.942891	-92.199076	83.942891	-0.004657	-3.420750
0.250000	-0.016761	-11.403036	-90.392181	82.480833	-90.392181	82.480833	-0.005832	-4.268912
0.300000	-0.019965	-13.658875	-88.972481	81.069479	-88.972481	81.069479	-0.006894	-5.116441
0.350000	-0.022897	-15.909952	-87.828342	79.718476	-87.828342	79.718476	-0.007900	-5.963701
0.400000	-0.025645	-18.156019	-86.896233	78.441653	-86.896233	78.441653	-0.008887	-6.810806
0.450000	-0.028270	-20.396225	-86.139707	77.260048	-86.139707	77.260048	-0.009879	-7.657768
0.500000	-0.030820	-22.630116	-85.527383	76.189214	-85.527383	76.189214	-0.010886	-8.504566
0.550000	-0.033324	-24.856928	-85.041123	75.252886	-85.041123	75.252886	-0.011914	-9.351151
0.600000	-0.035796	-27.075494	-84.672969	74.489790	-84.672969	74.489790	-0.012961	-10.197449
0.650000	-0.038249	-29.285321	-84.411184	73.933555	-84.411184	73.933555	-0.014023	-11.043398
0.700000	-0.040688	-31.485794	-84.249300	73.630546	-84.249300	73.630546	-0.015096	-11.888925
0.750000	-0.043117	-33.675930	-84.186767	73.654789	-84.186767	73.654789	-0.016174	-12.733935
0.800000	-0.045535	-35.855094	-84.220939	74.093910	-84.220939	74.093910	-0.017253	-13.578342
0.850000	-0.047943	-38.022819	-84.348218	75.058708	-84.348218	75.058708	-0.018330	-14.422073
0.900000	-0.050339	-40.178586	-84.564141	76.699881	-84.564141	76.699881	-0.019402	-15.265053
0.950000	-0.052721	-42.321838	-84.859861	79.219741	-84.859861	79.219741	-0.020470	-16.107214
1.000000	-0.055085	-44.452103	-85.215571	82.872336	-85.215571	82.872336	-0.021534	-16.948496
1.050000	-0.057430	-46.568946	-85.591904	87.950837	-85.591904	87.950837	-0.022593	-17.788852
1.100000	-0.059752	-48.671972	-85.918281	94.721135	-85.918281	94.721135	-0.023651	-18.628242
1.150000	-0.062047	-50.760820	-86.086156	103.261545	-86.086156	103.261545	-0.024707	-19.466633
1.200000	-0.064315	-52.835162	-85.966278	113.224930	-85.966278	113.224930	-0.025762	-20.304001
1.250000	-0.066551	-54.894707	-85.465007	123.720694	-85.465007	123.720694	-0.026819	-21.140326
1.300000	-0.068754	-56.938860	-84.576948	133.563637	-84.576948	133.563637	-0.027876	-21.975568
1.350000	-0.070921	-58.967714	-83.411904	141.911353	-83.411904	141.911353	-0.028935	-22.809735
1.400000	-0.073052	-60.981069	-82.097299	148.486377	-82.097299	148.486377	-0.029997	-23.642817
1.450000	-0.075144	-62.978754	-80.734470	153.406333	-80.734470	153.406333	-0.031060	-24.474803
1.500000	-0.077197	-64.960625	-79.386118	156.947970	-79.386118	156.947970	-0.032125	-25.305682
1.550000	-0.079212	-66.926562	-78.084820	159.401302	-78.084820	159.401302	-0.033192	-26.135444
1.600000	-0.081186	-68.876472	-76.844601	161.013042	-76.844601	161.013042	-0.034260	-26.964080
1.650000	-0.083121	-70.810283	-75.669370	161.976432	-75.669370	161.976432	-0.035330	-27.791578
1.700000	-0.085016	-72.727947	-74.557966	162.437916	-74.557966	162.437916	-0.036401	-28.617930
1.750000	-0.086873	-74.629436	-73.506917	162.507395	-73.506917	162.507395	-0.037473	-29.443123
1.800000	-0.088692	-76.514744	-72.511877	162.267476	-72.511877	162.267476	-0.038546	-30.267148
1.850000	-0.090475	-78.383882	-71.568341	161.780710	-71.568341	161.780710	-0.039620	-31.089991
1.900000	-0.092222	-80.236706	-70.671498	161.093193	-70.671498	161.093193	-0.040695	-31.911629
1.950000	-0.093934	-82.073266	-69.817497	160.242881	-69.817497	160.242881	-0.041770	-32.732050
2.000000	-0.095614	-83.893800	-69.003215	159.260413	-69.003215	159.260413	-0.042847	-33.551253
2.050000	-0.097264	-85.698389	-68.225364	158.168363	-68.225364	158.168363	-0.043924	-34.369226
2.100000	-0.098885	-87.487126	-67.481009	156.984799	-67.481009	156.984799	-0.045003	-35.185957
2.150000	-0.100479	-89.260119	-66.767534	155.724323	-66.767534	155.724323	-0.046082	-36.001433
2.200000	-0.102048	-91.017486	-66.082606	154.398842	-66.082606	154.398842	-0.047164	-36.815641
2.250000	-0.103594	-92.759359	-65.424142	153.018144	-65.424142	153.018144	-0.048247	-37.628567
2.300000	-0.105118	-94.485879	-64.790275	151.590341	-64.790275	151.590341	-0.049332	-38.440201
2.350000	-0.106624	-96.197199	-64.179328	150.122203	-64.179328	150.122203	-0.050419	-39.250527
2.400000	-0.108113	-97.893478	-63.589793	148.619416	-63.589793	148.619416	-0.051509	-40.059534
2.450000	-0.109586	-99.574886	-63.020307	147.086786	-63.020307	147.086786	-0.052603	-40.867208
2.500000	-0.111046	-101.241600	-62.469637	145.528400	-62.469637	145.528400	-0.053699	-41.673538
2.550000	-0.112495	-102.893338	-61.936171	143.947113	-61.936171	143.947113	-0.054800	-42.478466
2.600000	-0.113934	-104.530769	-61.419444	142.346739	-61.419444	142.346739	-0.055905	-43.282024
2.650000	-0.115366	-106.154092	-60.918514	140.729829	-60.918514	140.729829	-0.057015	-44.084199
2.700000	-0.116792	-107.763509	-60.432521	139.098595	-60.432521	139.098595	-0.058130	-44.884979
2.750000	-0.118214	-109.359226	-59.960675	137.454964	-59.960675	137.454964	-0.059250	-45.684354
2.800000	-0.119634	-110.941455	-59.502248	135.800619	-59.502248	135.800619	-0.060377	-46.482312
2.850000	-0.121054	-112.510410	-59.056572	134.137036	-59.056572	134.137036	-0.061510	-47.278842
2.900000	-0.122474	-114.066309	-58.623027	132.465515	-58.623027	132.465515	-0.062650	-48.073934
2.950000	-0.123896	-115.609372	-58.201040	130.787199	-58.201040	130.787199	-0.063798	-48.867576
3.000000	-0.125322	-117.139824	-57.790078	129.103102	-57.790078	129.103102	-0.064953	-49.659759
3.050000	-0.126753	-118.657887	-57.389648	127.414122	-57.389648	127.414122	-0.066116	-50.450473
3.100000	-0.128190	-120.163789	-56.999288	125.721056	-56.999288	125.721056	-0.067289	-51.239709
3.150000	-0.129635	-121.657757	-56.618569	124.024615	-56.618569	124.024615	-0.068471	-52.027459
3.200000	-0.131088	-123.140020	-56.247089	122.325434	-56.247089	122.325434	-0.069662	-52.813713
3.250000	-0.132552	-124.610807	-55.884473	120.624080	-55.884473	120.624080	-0.070863	-53.598463
3.300000	-0.134026	-126.070346	-55.530367	118.921061	-55.530367	118.921061	-0.072075	-54.381702
3.350000	-0.135511	-127.518867	-55.184440	117.216835	-55.184440	117.216835	-0.073298	-55.163423
3.400000	-0.137010	-128.956600	-54.846382	115.511809	-54.846382	115.511809	-0.074533	-55.943618
3.450000	-0.138522	-130.383774	-54.515900	113.806355	-54.515900	113.806355	-0.075780	-56.722281
3.500000	-0.140048	-131.800615	-54.192717	112.100805	-54.192717	112.100805	-0.077039	-57.499406
3.550000	-0.141590	-133.207353	-53.876572	110.395459	-53.876572	110.395459	-0.078310	-58.274988
3.600000	-0.143147	-134.604212	-53.567219	108.690590	-53.567219	108.690590	-0.079596	-59.049021
3.650000	-0.144720	-135.991418	-53.264426	106.986442	-53.264426	106.986442	-0.080894	-59.821500
3.700000	-0.146311	-137.369195	-52.967971	105.283238	-52.967971	105.283238	-0.082207	-60.592422
3.750000	-0.147919	-138.737765	-52.677644	103.581181	-52.677644	103.581181	-0.083535	-61.361783
3.800000	-0.149546	-140.096969	-52.393101	101.880519	-52.393101	101.880519	-0.084878	-62.129510
3.850000	-0.151192	-141.447427	-52.114316	100.181365	-52.114316	100.181365	-0.086237	-62.895670
3.900000	-0.152856	-142.789354	-51.841108	98.483869	-51.841108	98.483869	-0.087612	-63.660259
3.950000	-0.154540	-144.122966	-51.573304	96.788166	-51.573304	96.788166	-0.089003	-64.423276
4.000000	-0.156244	-145.448478	-51.310742	95.094379	-51.310742	95.094379	-0.090411	-65.184719
4.050000	-0.157968	-146.766099	-51.053264	93.402621	-51.053264	93.402621	-0.091836	-65.944588
4.100000	-0.159712	-148.076039	-50.800723	91.712992	-50.800723	91.712992	-0.093279	-66.702881
4.150000	-0.161476	-149.378505	-50.552975	90.025585	-50.552975	90.025585	-0.094740	-67.459598
4.200000	-0.163262	-150.673702	-50.309885	88.340484	-50.309885	88.340484	-0.096219	-68.214740
4.250000	-0.165068	-151.961832	-50.071323	86.657766	-50.071323	86.657766	-0.097718	-68.968308
4.300000	-0.166895	-153.243096	-49.837164	84.977498	-49.837164	84.977498	-0.099235	-69.720303
4.350000	-0.168743	-154.517692	-49.607290	83.299744	-49.607290	83.299744	-0.100773	-70.470725
4.400000	-0.170613	-155.785815	-49.381587	81.624561	-49.381587	81.624561	-0.102331	-71.219578
4.450000	-0.172504	-157.047660	-49.159946	79.951999	-49.159946	79.951999	-0.103909	-71.966864
4.500000	-0.174416	-158.303416	-48.942261	78.282103	-48.942261	78.282103	-0.105509	-72.712586
4.550000	-0.176349	-159.553273	-48.728432	76.614916	-48.728432	76.614916	-0.107130	-73.456747
4.600000	-0.178304	-160.797418	-48.518364	74.950474	-48.518364	74.950474	-0.108773	-74.199351
4.650000	-0.180280	-162.036033	-48.311962	73.288810	-48.311962	73.288810	-0.110438	-74.940402
4.700000	-0.182277	-163.269301	-48.109138	71.629954	-48.109138	71.629954	-0.112126	-75.679905
4.750000	-0.184295	-164.497401	-47.909808	69.973931	-47.909808	69.973931	-0.113837	-76.417865
4.800000	-0.186335	-165.720510	-47.713887	68.320763	-47.713887	68.320763	-0.115572	-77.154287
4.850000	-0.188395	-166.938803	-47.521298	66.670472	-47.521298	66.670472	-0.117331	-77.889178
4.900000	-0.190476	-168.152452	-47.331964	65.023074	-47.331964	65.023074	-0.119114	-78.622542
4.950000	-0.192577	-169.361627	-47.145812	63.378584	-47.145812	63.378584	-0.120922	-79.354388
5.000000	-0.194699	-170.566495	-46.962772	61.737015	-46.962772	61.737015	-0.122756	-80.084722
5.050000	-0.196842	-171.767050	-46.782746	60.098505	-46.782746	60.098505	-0.124616	-80.813486
5.100000	-0.199005	-172.963642	-46.605703	58.462937	-46.605703	58.462937	-0.126503	-81.540755
5.150000	-0.201187	-174.156432	-46.431581	56.830316	-46.431581	56.830316	-0.128416	-82.266536
5.200000	-0.203389	-175.345577	-46.260318	55.200649	-46.260318	55.200649	-0.130356	-82.990838
5.250000	-0.205610	-176.531234	-46.091857	53.573940	-46.091857	53.573940	-0.132324	-83.713671
5.300000	-0.207849	-177.713557	-45.926140	51.950193	-45.926140	51.950193	-0.134320	-84.435043
5.350000	-0.210107	-178.892698	-45.763115	50.329410	-45.763115	50.329410	-0.136344	-85.154964
5.400000	-0.212384	179.931194	-45.602727	48.711592	-45.602727	48.711592	-0.138397	-85.873444
5.450000	-0.214678	178.757972	-45.444928	47.096740	-45.444928	47.096740	-0.140479	-86.590495
5.500000	-0.216990	177.587488	-45.289668	45.484856	-45.289668	45.484856	-0.142590	-87.306126
5.550000	-0.219319	176.419601	-45.136901	43.875939	-45.136901	43.875939	-0.144732	-88.020349
5.600000	-0.221665	175.254170	-44.986582	42.269989	-44.986582	42.269989	-0.146904	-88.733175
5.650000	-0.224027	174.091053	-44.838669	40.667008	-44.838669	40.667008	-0.149107	-89.444617
5.700000	-0.226405	172.930116	-44.693118	39.066993	-44.693118	39.066993	-0.151342	-90.154686
5.750000	-0.228798	171.771222	-44.549891	37.469948	-44.549891	37.469948	-0.153608	-90.863395
5.800000	-0.231207	170.614238	-44.408949	35.875871	-44.408949	35.875871	-0.155907	-91.570757
5.850000	-0.233630	169.459032	-44.270256	34.284765	-44.270256	34.284765	-0.158238	-92.276784
5.900000	-0.236068	168.305477	-44.133774	32.696632	-44.133774	32.696632	-0.160602	-92.981492
5.950000	-0.238519	167.153444	-43.999471	31.111476	-43.999471	31.111476	-0.163000	-93.684893
6.000000	-0.240984	166.002807	-43.867314	29.529298	-43.867314	29.529298	-0.165432	-94.387001
6.050000	-0.243461	164.853444	-43.737270	27.950106	-43.737270	27.950106	-0.167898	-95.087831
6.100000	-0.245951	163.705232	-43.609310	26.373905	-43.609310	26.373905	-0.170398	-95.787398
6.150000	-0.248452	162.558053	-43.483404	24.800703	-43.483404	24.800703	-0.172935	-96.485716
6.200000	-0.250965	161.411787	-43.359525	23.230509	-43.359525	23.230509	-0.175506	-97.182802
6.250000	-0.253488	160.266320	-43.237645	21.663334	-43.237645	21.663334	-0.178114	-97.878670
6.300000	-0.256022	159.121561	-43.117754	20.099322	-43.117754	20.099322	-0.180760	-98.573286
6.350000	-0.258566	157.977364	-42.999814	18.538357	-42.999814	18.538357	-0.183443	-99.266718
6.400000	-0.261118	156.833618	-42.883802	16.980455	-42.883802	16.980455	-0.186163	-99.958983
6.450000	-0.263679	155.690215	-42.769696	15.425636	-42.769696	15.425636	-0.188921	-100.650098
6.500000	-0.266249	154.547050	-42.657472	13.873919	-42.657472	13.873919	-0.191717	-101.340079
6.550000	-0.268825	153.404016	-42.547111	12.325328	-42.547111	12.325328	-0.194552	-102.028945
6.600000	-0.271408	152.261011	-42.438591	10.779888	-42.438591	10.779888	-0.197426	-102.716713
6.650000	-0.273998	151.117934	-42.331894	9.237627	-42.331894	9.237627	-0.200339	-103.403401
6.700000	-0.276593	149.974687	-42.227001	7.698576	-42.227001	7.698576	-0.203293	-104.089028
6.750000	-0.279193	148.831171	-42.123894	6.162766	-42.123894	6.162766	-0.206286	-104.773610
6.800000	-0.281798	147.687291	-42.022555	4.630235	-42.022555	4.630235	-0.209321	-105.457169
6.850000	-0.284406	146.542954	-41.922969	3.101020	-41.922969	3.101020	-0.212396	-106.139721
6.900000	-0.287018	145.398067	-41.825119	1.575163	-41.825119	1.575163	-0.215513	-106.821288
6.950000	-0.289632	144.252541	-41.728990	0.052708	-41.728990	0.052708	-0.218672	-107.501887
7.000000	-0.292249	143.106287	-41.634566	-1.466299	-41.634566	-1.466299	-0.221873	-108.181540
7.050000	-0.294867	141.959220	-41.541835	-2.981808	-41.541835	-2.981808	-0.225117	-108.860266
7.100000	-0.297486	140.811256	-41.450781	-4.493766	-41.450781	-4.493766	-0.228404	-109.538085
7.150000	-0.300105	139.662310	-41.361391	-6.002117	-41.361391	-6.002117	-0.231735	-110.215019
7.200000	-0.302724	138.512304	-41.273653	-7.506803	-41.273653	-7.506803	-0.235109	-110.891087
7.250000	-0.305343	137.361159	-41.187553	-9.007761	-41.187553	-9.007761	-0.238528	-111.566311
7.300000	-0.307959	136.208798	-41.103079	-10.504928	-41.103079	-10.504928	-0.241991	-112.240713
7.350000	-0.310574	135.055146	-41.020220	-11.998237	-41.020220	-11.998237	-0.245499	-112.914313
7.400000	-0.313186	133.900131	-40.938963	-13.487615	-40.938963	-13.487615	-0.249053	-113.587135
7.450000	-0.315796	132.743683	-40.859296	-14.972992	-40.859296	-14.972992	-0.252653	-114.259199
7.500000	-0.318401	131.585731	-40.781209	-16.454290	-40.781209	-16.454290	-0.256298	-114.930528
7.550000	-0.321002	130.426140	-40.704729	-17.931246	-40.704729	-17.931246	-0.259992	-115.601115
7.600000	-0.323599	129.264910	-40.629807	-19.403955	-40.629807	-19.403955	-0.263733	-116.271014
7.650000	-0.326190	128.101978	-40.556432	-20.872334	-40.556432	-20.872334	-0.267521	-116.940250
7.700000	-0.328775	126.937286	-40.484593	-22.336295	-40.484593	-22.336295	-0.271356	-117.608844
7.750000	-0.331354	125.770774	-40.414279	-23.795749	-40.414279	-23.795749	-0.275240	-118.276821
7.800000	-0.333926	124.602389	-40.345480	-25.250604	-40.345480	-25.250604	-0.279171	-118.944205
7.850000	-0.336491	123.432076	-40.278183	-26.700766	-40.278183	-26.700766	-0.283151	-119.611020
7.900000	-0.339049	122.259784	-40.212378	-28.146140	-40.212378	-28.146140	-0.287180	-120.277290
7.950000	-0.341598	121.085464	-40.148053	-29.586626	-40.148053	-29.586626	-0.291258	-120.943040
8.000000	-0.344139	119.909071	-40.085198	-31.022127	-40.085198	-31.022127	-0.295385	-121.608295
8.050000	-0.346671	118.730560	-40.023800	-32.452539	-40.023800	-32.452539	-0.299562	-122.273079
8.100000	-0.349194	117.549888	-39.963849	-33.877760	-39.963849	-33.877760	-0.303789	-122.937419
8.150000	-0.351707	116.367018	-39.905332	-35.297685	-39.905332	-35.297685	-0.308066	-123.601339
8.200000	-0.354211	115.181911	-39.848238	-36.712209	-39.848238	-36.712209	-0.312394	-124.264866
8.250000	-0.356705	113.994533	-39.792555	-38.121225	-39.792555	-38.121225	-0.316772	-124.928027
8.300000	-0.359188	112.804854	-39.738270	-39.524624	-39.738270	-39.524624	-0.321202	-125.590846
8.350000	-0.361661	111.612842	-39.685371	-40.922299	-39.685371	-40.922299	-0.325682	-126.253352
8.400000	-0.364122	110.418471	-39.633844	-42.314140	-39.633844	-42.314140	-0.330215	-126.915571
8.450000	-0.366573	109.221718	-39.583678	-43.700037	-39.583678	-43.700037	-0.334799	-127.577531
8.500000	-0.369013	108.022560	-39.534859	-45.079881	-39.534859	-45.079881	-0.339434	-128.239258
8.550000	-0.371442	106.820979	-39.487373	-46.453561	-39.487373	-46.453561	-0.344122	-128.900781
8.600000	-0.373860	105.616959	-39.441207	-47.820968	-39.441207	-47.820968	-0.348862	-129.562127
8.650000	-0.376266	104.410486	-39.396346	-49.181992	-39.396346	-49.181992	-0.353655	-130.223326
8.700000	-0.378661	103.201549	-39.352777	-50.536523	-39.352777	-50.536523	-0.358501	-130.884406
8.750000	-0.381045	101.990141	-39.310484	-51.884454	-39.310484	-51.884454	-0.363399	-131.545395
8.800000	-0.383418	100.776148	-39.269500	-53.225379	-39.269500	-53.225379	-0.368352	-132.206321
8.850000	-0.385779	99.559678	-39.229762	-54.559478	-39.229762	-54.559478	-0.373358	-132.867219
8.900000	-0.388130	98.340730	-39.191255	-55.886646	-39.191255	-55.886646	-0.378418	-133.528118
8.950000	-0.390470	97.119309	-39.153964	-57.206778	-39.153964	-57.206778	-0.383530	-134.189047
9.000000	-0.392800	95.895421	-39.117872	-58.519771	-39.117872	-58.519771	-0.388696	-134.850039
9.050000	-0.395121	94.669078	-39.082963	-59.825524	-39.082963	-59.825524	-0.393916	-135.511122
9.100000	-0.397431	93.440292	-39.049222	-61.123938	-39.049222	-61.123938	-0.399189	-136.172329
9.150000	-0.399733	92.209078	-39.016630	-62.414913	-39.016630	-62.414913	-0.404515	-136.833690
9.200000	-0.402025	90.975456	-38.985172	-63.698355	-38.985172	-63.698355	-0.409895	-137.495238
9.250000	-0.404310	89.739449	-38.954831	-64.974170	-38.954831	-64.974170	-0.415329	-138.157004
9.300000	-0.406587	88.501080	-38.925588	-66.242266	-38.925588	-66.242266	-0.420816	-138.819021
9.350000	-0.408857	87.260379	-38.897428	-67.502554	-38.897428	-67.502554	-0.426357	-139.481322
9.400000	-0.411120	86.017376	-38.870331	-68.754947	-38.870331	-68.754947	-0.431951	-140.143939
9.450000	-0.413378	84.772106	-38.844282	-69.999361	-38.844282	-69.999361	-0.437598	-140.806906
9.500000	-0.415631	83.524607	-38.819260	-71.235716	-38.819260	-71.235716	-0.443299	-141.470257
9.550000	-0.417880	82.274918	-38.795250	-72.463931	-38.795250	-72.463931	-0.449053	-142.134025
9.600000	-0.420126	81.023085	-38.772233	-73.683932	-38.772233	-73.683932	-0.454859	-142.798246
9.650000	-0.422370	79.769152	-38.750190	-74.895644	-38.750190	-74.895644	-0.460719	-143.462953
9.700000	-0.424612	78.513170	-38.729104	-76.098999	-38.729104	-76.098999	-0.466632	-144.128183
9.750000	-0.426853	77.255192	-38.708956	-77.293928	-38.708956	-77.293928	-0.472597	-144.793971
9.800000	-0.429096	75.995273	-38.689729	-78.480369	-38.689729	-78.480369	-0.478614	-145.460352
9.850000	-0.431340	74.733474	-38.671403	-79.658259	-38.671403	-79.658259	-0.484684	-146.127364
9.900000	-0.433588	73.469854	-38.653961	-80.827541	-38.653961	-80.827541	-0.490805	-146.795042
9.950000	-0.435839	72.204479	-38.637385	-81.988161	-38.637385	-81.988161	-0.496978	-147.463425
10.000000	-0.438096	70.937418	-38.621656	-83.140066	-38.621656	-83.140066	-0.503202	-148.132549
