! freq	dB(S11)	phase(S11)	dB(S12)	phase(S12)	
!     	dB(S21)	phase(S21)	dB(S22)	phase(S22)	
!S-par simulation data
#  GHz  S  DB  R 50
0.000000	-80.345384	0.000000	-0.000835	0.000000	-0.000835	0.000000	-80.345384	0.000000
0.050000	-48.587002	-64.986335	-0.019509	-3.055332	-0.019509	-3.055332	-48.588301	-65.035337
0.100000	-43.610917	-80.146605	-0.023959	-6.056490	-0.023959	-6.056490	-43.617096	-80.169924
0.150000	-40.383749	-88.608807	-0.027379	-9.060068	-0.027379	-9.060068	-40.391238	-88.652913
0.200000	-38.026259	-94.628318	-0.030943	-12.062616	-0.030943	-12.062616	-38.033385	-94.701087
0.250000	-36.186687	-99.515142	-0.034656	-15.062901	-0.034656	-15.062901	-36.192943	-99.619294
0.300000	-34.687304	-103.836307	-0.038406	-18.061334	-0.038406	-18.061334	-34.692689	-103.972878
0.350000	-33.428031	-107.811105	-0.042128	-21.058537	-0.042128	-21.058537	-33.432701	-107.980194
0.400000	-32.348249	-111.550877	-0.045794	-24.055089	-0.045794	-24.055089	-32.352398	-111.751906
0.450000	-31.406975	-115.134108	-0.049406	-27.051479	-0.049406	-27.051479	-31.410774	-115.366189
0.500000	-30.576099	-118.606078	-0.052975	-30.048012	-0.052975	-30.048012	-30.579672	-118.868310
0.550000	-29.836047	-121.993868	-0.056517	-33.044884	-0.056517	-33.044884	-29.839478	-122.285502
0.600000	-29.172139	-125.317542	-0.060046	-36.042219	-0.060046	-36.042219	-29.175477	-125.638120
0.650000	-28.573442	-128.590837	-0.063572	-39.040097	-0.063572	-39.040097	-28.576710	-128.940247
0.700000	-28.031299	-131.824260	-0.067106	-42.038572	-0.067106	-42.038572	-28.034505	-132.202750
0.750000	-27.538644	-135.025817	-0.070653	-45.037676	-0.070653	-45.037676	-27.541783	-135.433960
0.800000	-27.089935	-138.201185	-0.074218	-48.037450	-0.074218	-48.037450	-27.092999	-138.639831
0.850000	-26.680621	-141.354770	-0.077801	-51.037936	-0.077801	-51.037936	-26.683597	-141.824998
0.900000	-26.306902	-144.490063	-0.081403	-54.039185	-0.081403	-54.039185	-26.309777	-144.993130
0.950000	-25.965562	-147.609884	-0.085023	-57.041257	-0.085023	-57.041257	-25.968323	-148.147175
1.000000	-25.653842	-150.716551	-0.088658	-60.044221	-0.088658	-60.044221	-25.656475	-151.289541
1.050000	-25.369341	-153.812006	-0.092305	-63.048153	-0.092305	-63.048153	-25.371833	-154.422219
1.100000	-25.109943	-156.897894	-0.095963	-66.053140	-0.095963	-66.053140	-25.112283	-157.546879
1.150000	-24.873760	-159.975626	-0.099626	-69.059275	-0.099626	-69.059275	-24.875940	-160.664938
1.200000	-24.659089	-163.046426	-0.103292	-72.066660	-0.103292	-72.066660	-24.661102	-163.777609
1.250000	-24.464372	-166.111357	-0.106957	-75.075399	-0.106957	-75.075399	-24.466211	-166.885942
1.300000	-24.288469	-169.171262	-0.110618	-78.085639	-0.110618	-78.085639	-24.290132	-169.990794
1.350000	-24.129701	-172.227076	-0.114272	-81.097463	-0.114272	-81.097463	-24.131185	-173.093053
1.400000	-23.986789	-175.279508	-0.117915	-84.110987	-0.117915	-84.110987	-23.988094	-176.193418
1.450000	-23.858511	-178.329179	-0.121546	-87.126328	-0.121546	-87.126328	-23.859636	-179.292507
1.500000	-23.743685	178.623367	-0.125161	-90.143597	-0.125161	-90.143597	-23.744631	177.609135
1.550000	-23.641161	175.577656	-0.128757	-93.162904	-0.128757	-93.162904	-23.641924	174.511026
1.600000	-23.549804	172.533270	-0.132333	-96.184348	-0.132333	-96.184348	-23.550382	171.412743
1.650000	-23.468492	169.489848	-0.135886	-99.208013	-0.135886	-99.208013	-23.468878	168.313916
1.700000	-23.396100	166.447071	-0.139417	-102.233968	-0.139417	-102.233968	-23.396287	165.214225
1.750000	-23.331501	163.404660	-0.142928	-105.262257	-0.142928	-105.262257	-23.331478	162.113401
1.800000	-23.273555	160.362368	-0.146426	-108.292904	-0.146426	-108.292904	-23.273309	159.011222
1.850000	-23.221107	157.319973	-0.149926	-111.325925	-0.149926	-111.325925	-23.220623	155.907512
1.900000	-23.173015	154.277269	-0.153454	-114.361382	-0.153454	-114.361382	-23.172274	152.802126
1.950000	-23.128044	151.234064	-0.157046	-117.399384	-0.157046	-117.399384	-23.127029	149.694985
2.000000	-23.084932	148.190185	-0.160736	-120.440116	-0.160736	-120.440116	-23.083626	146.586080
2.050000	-23.042444	145.145461	-0.164548	-123.483886	-0.164548	-123.483886	-23.040831	143.475434
2.100000	-22.999329	142.099722	-0.168488	-126.531033	-0.168488	-126.531033	-22.997396	140.363123
2.150000	-22.954322	139.052793	-0.172546	-129.581850	-0.172546	-129.581850	-22.952061	137.249266
2.200000	-22.906157	136.004495	-0.176703	-132.636539	-0.176703	-132.636539	-22.903565	134.134035
2.250000	-22.853572	132.954639	-0.180942	-135.695210	-0.180942	-135.695210	-22.850650	131.017642
2.300000	-22.795317	129.903027	-0.185251	-138.757920	-0.185251	-138.757920	-22.792075	127.900343
2.350000	-22.730171	126.849447	-0.189626	-141.824702	-0.189626	-141.824702	-22.726626	124.782426
2.400000	-22.656953	123.793679	-0.194068	-144.895585	-0.194068	-144.895585	-22.653127	121.664206
2.450000	-22.574536	120.735491	-0.198583	-147.970610	-0.198583	-147.970610	-22.570459	118.546014
2.500000	-22.481866	117.674641	-0.203179	-151.049831	-0.203179	-151.049831	-22.477572	115.428189
2.550000	-22.377675	114.610812	-0.207867	-154.133406	-0.207867	-154.133406	-22.373205	112.311085
2.600000	-22.261342	111.543811	-0.212657	-157.221321	-0.212657	-157.221321	-22.256736	109.195003
2.650000	-22.132117	108.473386	-0.217558	-160.313658	-0.217558	-160.313658	-22.127418	106.080218
2.700000	-21.989382	105.399290	-0.222584	-163.410506	-0.222584	-163.410506	-21.984630	102.966960
2.750000	-21.832659	102.321282	-0.227745	-166.511957	-0.227745	-166.511957	-21.827891	99.855395
2.800000	-21.661614	99.239134	-0.233055	-169.618110	-0.233055	-169.618110	-21.656863	96.745623
2.850000	-21.476069	96.152631	-0.238528	-172.729061	-0.238528	-172.729061	-21.471361	93.637665
2.900000	-21.276000	93.061578	-0.244177	-175.844910	-0.244177	-175.844910	-21.271352	90.531461
2.950000	-21.061532	89.965794	-0.250018	-178.965759	-0.250018	-178.965759	-21.056956	87.426865
3.000000	-20.832940	86.865125	-0.256069	177.908293	-0.256069	177.908293	-20.828437	84.323650
3.050000	-20.590636	83.759431	-0.262347	174.777147	-0.262347	174.777147	-20.586200	81.221512
3.100000	-20.335157	80.648598	-0.268872	171.640706	-0.268872	171.640706	-20.330777	78.120078
3.150000	-20.066936	77.532469	-0.275668	168.498818	-0.275668	168.498818	-20.062594	75.018910
3.200000	-19.786726	74.410963	-0.282759	165.351389	-0.282759	165.351389	-19.782400	71.917509
3.250000	-19.495591	71.284075	-0.290168	162.198396	-0.290168	162.198396	-19.491257	68.815355
3.300000	-19.194439	68.151757	-0.297920	159.039763	-0.297920	159.039763	-19.190075	65.711912
3.350000	-18.884225	65.013971	-0.306044	155.875423	-0.306044	155.875423	-18.879811	62.606637
3.400000	-18.565942	61.870692	-0.314571	152.705319	-0.314571	152.705319	-18.561461	59.498993
3.450000	-18.240597	58.721905	-0.323532	149.529406	-0.323532	149.529406	-18.236040	56.388466
3.500000	-17.909208	55.567602	-0.332963	146.347654	-0.332963	146.347654	-17.904568	53.274564
3.550000	-17.572781	52.407783	-0.342899	143.160047	-0.342899	143.160047	-17.568064	50.156838
3.600000	-17.232309	49.242459	-0.353377	139.966587	-0.353377	139.966587	-17.227524	47.034880
3.650000	-16.888758	46.071650	-0.364436	136.767293	-0.364436	136.767293	-16.883924	43.908331
3.700000	-16.543061	42.895385	-0.376117	133.562209	-0.376117	133.562209	-16.538202	40.776886
3.750000	-16.196113	39.713708	-0.388460	130.351397	-0.388460	130.351397	-16.191261	37.640295
3.800000	-15.848547	36.526588	-0.401520	127.134857	-0.401520	127.134857	-15.843740	34.498272
3.850000	-15.501418	33.334190	-0.415329	123.912794	-0.415329	123.912794	-15.496694	31.350766
3.900000	-15.155484	30.136605	-0.429929	120.685352	-0.429929	120.685352	-15.150885	28.197693
3.950000	-14.811458	26.933946	-0.445362	117.452698	-0.445362	117.452698	-14.807026	25.039025
4.000000	-14.470002	23.726349	-0.461670	114.215029	-0.461670	114.215029	-14.465777	21.874781
4.050000	-14.131730	20.513975	-0.478894	110.972573	-0.478894	110.972573	-14.127749	18.705032
4.100000	-13.797139	17.296972	-0.497079	107.725549	-0.497079	107.725549	-13.793437	15.529847
4.150000	-13.466812	14.075582	-0.516259	104.474270	-0.516259	104.474270	-13.463417	12.349416
4.200000	-13.141249	10.850057	-0.536465	101.219062	-0.536465	101.219062	-13.138182	9.163949
4.250000	-12.820880	7.620665	-0.557727	97.960266	-0.557727	97.960266	-12.818157	5.973679
4.300000	-12.506098	4.387701	-0.580073	94.698246	-0.580073	94.698246	-12.503726	2.778873
4.350000	-12.197251	1.151484	-0.603527	91.433394	-0.603527	91.433394	-12.195233	-0.420173
4.400000	-11.894633	-2.087654	-0.628112	88.166110	-0.628112	88.166110	-11.892962	-3.623155
4.450000	-11.598532	-5.329340	-0.653842	84.896834	-0.653842	84.896834	-11.597197	-6.829719
4.500000	-11.309216	-8.573170	-0.680721	81.626027	-0.680721	81.626027	-11.308199	-10.039474
4.550000	-11.026895	-11.818741	-0.708748	78.354150	-0.708748	78.354150	-11.026173	-13.252031
4.600000	-10.751718	-15.065659	-0.737947	75.081669	-0.737947	75.081669	-10.751266	-16.467039
4.650000	-10.483906	-18.313445	-0.768261	71.809082	-0.768261	71.809082	-10.483696	-19.683981
4.700000	-10.223549	-21.561696	-0.799692	68.536851	-0.799692	68.536851	-10.223551	-22.902485
4.750000	-9.970741	-24.809981	-0.832218	65.265450	-0.832218	65.265450	-9.970926	-26.122127
4.800000	-9.725557	-28.057877	-0.865806	61.995342	-0.865806	61.995342	-9.725897	-29.342481
4.850000	-9.488047	-31.304971	-0.900420	58.726979	-0.900420	58.726979	-9.488514	-32.563132
4.900000	-9.258240	-34.550862	-0.936016	55.460794	-0.936016	55.460794	-9.258809	-35.783669
4.950000	-9.036145	-37.795173	-0.972543	52.197200	-0.972543	52.197200	-9.036794	-39.003700
5.000000	-8.821751	-41.037551	-1.009943	48.936579	-1.009943	48.936579	-8.822462	-42.222849
5.050000	-8.615097	-44.277616	-1.048167	45.679367	-1.048167	45.679367	-8.615853	-45.440734
5.100000	-8.416088	-47.515125	-1.087128	42.425813	-1.087128	42.425813	-8.416878	-48.657056
5.150000	-8.224666	-50.749831	-1.126754	39.176192	-1.126754	39.176192	-8.225480	-51.871532
5.200000	-8.040757	-53.981530	-1.166964	35.930736	-1.166964	35.930736	-8.041589	-55.083919
5.250000	-7.864277	-57.210065	-1.207677	32.689630	-1.207677	32.689630	-7.865122	-58.294019
5.300000	-7.695130	-60.435329	-1.248805	29.453009	-1.248805	29.453009	-7.695985	-61.501683
5.350000	-7.533210	-63.657266	-1.290259	26.220956	-1.290259	26.220956	-7.534073	-64.706811
5.400000	-7.378402	-66.875875	-1.331948	22.993498	-1.331948	22.993498	-7.379273	-67.909362
5.450000	-7.230586	-70.091210	-1.373779	19.770607	-1.373779	19.770607	-7.231461	-71.109350
5.500000	-7.089632	-73.303383	-1.415657	16.552196	-1.415657	16.552196	-7.090511	-74.306849
5.550000	-6.955406	-76.512564	-1.457490	13.338118	-1.457490	13.338118	-6.956286	-77.501996
5.600000	-6.827771	-79.718979	-1.499182	10.128168	-1.499182	10.128168	-6.828648	-80.694987
5.650000	-6.706635	-82.922891	-1.540637	6.922115	-1.540637	6.922115	-6.707503	-83.886062
5.700000	-6.591854	-86.124656	-1.581762	3.719616	-1.581762	3.719616	-6.592709	-87.075553
5.750000	-6.483231	-89.324701	-1.622474	0.520232	-1.622474	0.520232	-6.484065	-90.263862
5.800000	-6.380618	-92.523485	-1.662689	-2.676498	-1.662689	-2.676498	-6.381423	-93.451427
5.850000	-6.283733	-95.721523	-1.702352	-5.871149	-1.702352	-5.871149	-6.284502	-96.638733
5.900000	-6.192722	-98.919345	-1.741337	-9.064205	-1.741337	-9.064205	-6.193446	-99.826321
5.950000	-6.107292	-102.117584	-1.779600	-12.256414	-1.779600	-12.256414	-6.107964	-103.014790
6.000000	-6.027313	-105.316890	-1.817077	-15.448541	-1.817077	-15.448541	-6.027924	-106.204768
6.050000	-5.952666	-108.517947	-1.853711	-18.641457	-1.853711	-18.641457	-5.953210	-109.396914
6.100000	-5.883255	-111.721463	-1.889454	-21.836172	-1.889454	-21.836172	-5.883723	-112.591900
6.150000	-5.819016	-114.928143	-1.924270	-25.033889	-1.924270	-25.033889	-5.819399	-115.790390
6.200000	-5.759944	-118.138639	-1.958141	-28.236112	-1.958141	-28.236112	-5.760230	-118.992972
6.250000	-5.706138	-121.353425	-1.991075	-31.444842	-1.991075	-31.444842	-5.706310	-122.200034
6.300000	-5.657981	-124.572517	-2.023140	-34.663198	-2.023140	-34.663198	-5.658005	-125.411459
6.350000	-5.616137	-127.794208	-2.054609	-37.895967	-2.054609	-37.895967	-5.615948	-128.625316
6.400000	-5.582444	-131.011077	-2.086349	-41.152773	-2.086349	-41.152773	-5.581881	-131.833800
6.450000	-5.560375	-134.193312	-2.121555	-44.450745	-2.121555	-44.450745	-5.559006	-135.006671
6.500000	-5.552429	-137.203849	-2.174351	-47.801603	-2.174351	-47.801603	-5.548858	-138.009193
6.550000	-5.474686	-139.800059	-2.269530	-50.831439	-2.269530	-50.831439	-5.468071	-140.628551
6.600000	-5.341019	-143.387244	-2.261882	-53.607715	-2.261882	-53.607715	-5.338785	-144.228405
6.650000	-5.312489	-147.001424	-2.252558	-56.858205	-2.252558	-56.858205	-5.312041	-147.830295
6.700000	-5.296510	-150.427894	-2.263455	-60.161352	-2.263455	-60.161352	-5.296539	-151.247086
6.750000	-5.280514	-153.800372	-2.280561	-63.463678	-2.280561	-63.463678	-5.280700	-154.612078
6.800000	-5.264524	-157.160830	-2.299705	-66.767954	-2.299705	-66.767954	-5.264759	-157.966282
6.850000	-5.249046	-160.524572	-2.319443	-70.078460	-2.319443	-70.078460	-5.249282	-161.324444
6.900000	-5.234324	-163.897949	-2.339284	-73.398166	-2.339284	-73.398166	-5.234533	-164.692669
6.950000	-5.220478	-167.285641	-2.359023	-76.730170	-2.359023	-76.730170	-5.220634	-168.075504
7.000000	-5.207395	-170.689381	-2.378620	-80.075669	-2.378620	-80.075669	-5.207479	-171.474577
7.050000	-5.194922	-174.110334	-2.398106	-83.435623	-2.398106	-83.435623	-5.194915	-174.890993
7.100000	-5.182884	-177.549821	-2.417545	-86.811201	-2.417545	-86.811201	-5.182766	-178.326036
7.150000	-5.171060	178.989608	-2.437035	-90.204670	-2.437035	-90.204670	-5.170811	178.217773
7.200000	-5.159178	175.508748	-2.456693	-93.615485	-2.456693	-93.615485	-5.158782	174.741260
7.250000	-5.146991	172.006939	-2.476637	-97.044338	-2.476637	-97.044338	-5.146433	171.243789
7.300000	-5.134203	168.482764	-2.497018	-100.492600	-2.497018	-100.492600	-5.133472	167.723970
7.350000	-5.120487	164.935320	-2.518005	-103.961234	-2.518005	-103.961234	-5.119575	164.180934
7.400000	-5.105598	161.365429	-2.539728	-107.449701	-2.539728	-107.449701	-5.104502	160.615535
7.450000	-5.089256	157.772813	-2.562341	-110.958429	-2.562341	-110.958429	-5.087978	157.027535
7.500000	-5.071036	154.155697	-2.586087	-114.489237	-2.586087	-114.489237	-5.069581	153.415220
7.550000	-5.050695	150.514991	-2.611117	-118.041563	-2.611117	-118.041563	-5.049074	149.779553
7.600000	-5.028029	146.851483	-2.637565	-121.614938	-2.637565	-121.614938	-5.026254	146.121370
7.650000	-5.002607	143.163991	-2.665706	-125.210751	-2.665706	-125.210751	-5.000696	142.439574
7.700000	-4.974224	139.453390	-2.695700	-128.828511	-2.695700	-128.828511	-4.972193	138.735099
7.750000	-4.942620	135.720015	-2.727749	-132.468243	-2.727749	-132.468243	-4.940484	135.008342
7.800000	-4.907358	131.963181	-2.762181	-136.131020	-2.762181	-136.131020	-4.905130	131.258707
7.850000	-4.868684	128.186139	-2.798926	-139.814013	-2.798926	-139.814013	-4.866371	127.489415
7.900000	-4.825792	124.386181	-2.838581	-143.520392	-2.838581	-143.520392	-4.823390	123.697874
7.950000	-4.779247	120.567687	-2.880904	-147.246098	-2.880904	-147.246098	-4.776749	119.888357
8.000000	-4.728085	116.727695	-2.926663	-150.994756	-2.926663	-150.994756	-4.725467	116.057981
8.050000	-4.673003	112.870512	-2.975556	-154.762238	-2.975556	-154.762238	-4.670241	112.210889
8.100000	-4.613430	108.995114	-3.028169	-158.550222	-3.028169	-158.550222	-4.610485	108.346008
8.150000	-4.549645	105.103658	-3.084521	-162.356828	-3.084521	-162.356828	-4.546479	104.465340
8.200000	-4.481791	101.197666	-3.144751	-166.180866	-3.144751	-166.180866	-4.478370	100.570251
8.250000	-4.409652	97.277503	-3.209310	-170.022555	-3.209310	-170.022555	-4.405947	96.660942
8.300000	-4.333539	93.345143	-3.278277	-173.880177	-3.278277	-173.880177	-4.329538	92.739222
8.350000	-4.253630	89.402104	-3.351863	-177.752572	-3.351863	-177.752572	-4.249344	88.806465
8.400000	-4.170156	85.450033	-3.430271	178.361570	-3.430271	178.361570	-4.165622	84.864219
8.450000	-4.083448	81.490795	-3.513628	174.463857	-3.513628	174.463857	-4.078734	80.914316
8.500000	-3.993836	77.526247	-3.602089	170.555871	-3.602089	170.555871	-3.989036	76.958641
8.550000	-3.901679	73.558343	-3.695790	166.639302	-3.695790	166.639302	-3.896911	72.999237
8.600000	-3.807367	69.589123	-3.794851	162.715947	-3.794851	162.715947	-3.802760	69.038287
8.650000	-3.711307	65.620709	-3.899370	158.787701	-3.899370	158.787701	-3.706992	65.078076
8.700000	-3.613919	61.655286	-4.009423	154.856548	-4.009423	154.856548	-3.610017	61.120960
8.750000	-3.515630	57.695088	-4.125063	150.924549	-4.125063	150.924549	-3.512236	57.169308
8.800000	-3.416845	53.742516	-4.246373	146.993887	-4.246373	146.993887	-3.414026	53.225612
8.850000	-3.318012	49.799753	-4.373292	143.066765	-4.373292	143.066765	-3.315790	49.292060
8.900000	-3.219532	45.869028	-4.505790	139.145412	-4.505790	139.145412	-3.217891	45.370811
8.950000	-3.121787	41.952509	-4.643814	135.232087	-4.643814	135.232087	-3.120677	41.463894
9.000000	-3.025140	38.052280	-4.787279	131.329066	-4.787279	131.329066	-3.024480	37.573195
9.050000	-2.929926	34.170312	-4.936078	127.438620	-4.936078	127.438620	-2.929619	33.700457
9.100000	-2.836459	30.308447	-5.090079	123.563003	-5.090079	123.563003	-2.836397	29.847281
9.150000	-2.745022	26.468377	-5.249133	119.704424	-5.249133	119.704424	-2.745106	26.015145
9.200000	-2.655894	22.651877	-5.413092	115.865208	-5.413092	115.865208	-2.656036	22.205640
9.250000	-2.569310	18.860235	-5.581766	112.047266	-5.581766	112.047266	-2.569445	18.419947
9.300000	-2.485476	15.094554	-5.754972	108.252201	-5.754972	108.252201	-2.485567	14.659136
9.350000	-2.404583	11.355908	-5.932519	104.481303	-5.932519	104.481303	-2.404621	10.924321
9.400000	-2.326805	7.645243	-6.114183	100.735330	-6.114183	100.735330	-2.326803	7.216557
9.450000	-2.252310	3.963595	-6.299652	97.014671	-6.299652	97.014671	-2.252304	3.537041
9.500000	-2.181223	0.311639	-6.488494	93.319189	-6.488494	93.319189	-2.181262	-0.113342
9.550000	-2.113636	-3.310126	-6.680155	89.648861	-6.680155	89.648861	-2.113775	-3.733866
9.600000	-2.049637	-6.901029	-6.874011	86.004458	-6.874011	86.004458	-2.049927	-7.323647
9.650000	-1.989291	-10.460399	-7.069448	82.387411	-7.069448	82.387411	-1.989775	-10.881831
9.700000	-1.932667	-13.987260	-7.265891	78.799757	-7.265891	78.799757	-1.933374	-14.407316
9.750000	-1.879836	-17.480275	-7.462786	75.243772	-7.462786	75.243772	-1.880775	-17.898716
9.800000	-1.830689	-20.939467	-7.659811	71.720013	-7.659811	71.720013	-1.831854	-21.356131
9.850000	-1.785170	-24.363939	-7.856561	68.229408	-7.856561	68.229408	-1.786539	-24.778859
9.900000	-1.743184	-27.752684	-8.052625	64.772571	-8.052625	64.772571	-1.744733	-28.166238
9.950000	-1.704595	-31.104576	-8.247566	61.349902	-8.247566	61.349902	-1.706307	-31.517646
10.000000	-1.669224	-34.418345	-8.440927	57.961687	-8.440927	57.961687	-1.671105	-34.832503
