! freq	dB(S11)	phase(S11)	dB(S12)	phase(S12)	
!     	dB(S21)	phase(S21)	dB(S22)	phase(S22)	
!S-par simulation data
#  GHz  S  DB  R 50
0.000000	-0.000000	-0.000000	-315.485582	180.000000	-315.485582	180.000000	-0.000000	0.000000
0.050000	-0.000551	-0.885865	-100.555507	89.005707	-100.555507	89.005707	-0.001077	-1.691990
0.100000	-0.001865	-1.767651	-94.565780	87.618787	-94.565780	87.618787	-0.003667	-3.376011
0.150000	-0.003383	-2.644884	-91.081164	86.319756	-91.081164	86.319756	-0.006687	-5.050887
0.200000	-0.004797	-3.519054	-88.635018	85.060313	-88.635018	85.060313	-0.009520	-6.719282
0.250000	-0.006070	-4.391832	-86.760578	83.828104	-86.760578	83.828104	-0.012073	-8.384443
0.300000	-0.007222	-5.263907	-85.254591	82.624476	-85.254591	82.624476	-0.014377	-10.047652
0.350000	-0.008296	-6.135666	-84.007557	81.451889	-84.007557	81.451889	-0.016511	-11.709611
0.400000	-0.009327	-7.007242	-82.954756	80.314583	-82.954756	80.314583	-0.018542	-13.370506
0.450000	-0.010336	-7.878626	-82.058091	79.221471	-82.058091	79.221471	-0.020517	-15.030153
0.500000	-0.011342	-8.749780	-81.284612	78.174440	-81.284612	78.174440	-0.022471	-16.688458
0.550000	-0.012351	-9.620628	-80.614128	77.179896	-80.614128	77.179896	-0.024419	-18.345182
0.600000	-0.013366	-10.491090	-80.031858	76.245149	-80.031858	76.245149	-0.026371	-20.000071
0.650000	-0.014390	-11.361085	-79.526693	75.378530	-79.526693	75.378530	-0.028331	-21.652875
0.700000	-0.015422	-12.230537	-79.090114	74.589562	-79.090114	74.589562	-0.030301	-23.303351
0.750000	-0.016463	-13.099331	-78.718098	73.895381	-78.718098	73.895381	-0.032282	-24.951102
0.800000	-0.017512	-13.967397	-78.405027	73.310176	-78.405027	73.310176	-0.034272	-26.595897
0.850000	-0.018568	-14.834687	-78.145465	72.848132	-78.145465	72.848132	-0.036269	-28.237588
0.900000	-0.019629	-15.701206	-77.932746	72.517000	-77.932746	72.517000	-0.038273	-29.876223
0.950000	-0.020695	-16.566862	-77.766259	72.344574	-77.766259	72.344574	-0.040281	-31.511448
1.000000	-0.021765	-17.431610	-77.643125	72.355044	-77.643125	72.355044	-0.042291	-33.143102
1.050000	-0.022838	-18.295454	-77.558918	72.565304	-77.558918	72.565304	-0.044301	-34.771203
1.100000	-0.023914	-19.158263	-77.514188	73.031446	-77.514188	73.031446	-0.046311	-36.395235
1.150000	-0.024991	-20.020057	-77.503153	73.778580	-77.503153	73.778580	-0.048317	-38.015277
1.200000	-0.026069	-20.880808	-77.521196	74.848407	-77.521196	74.848407	-0.050319	-39.631211
1.250000	-0.027149	-21.740490	-77.562281	76.286529	-77.562281	76.286529	-0.052316	-41.242930
1.300000	-0.028228	-22.599056	-77.618468	78.150779	-77.618468	78.150779	-0.054305	-42.850240
1.350000	-0.029308	-23.456508	-77.678444	80.479008	-77.678444	80.479008	-0.056286	-44.453142
1.400000	-0.030387	-24.312824	-77.728242	83.308639	-77.728242	83.308639	-0.058258	-46.051554
1.450000	-0.031466	-25.167986	-77.750536	86.659145	-77.750536	86.659145	-0.060221	-47.645400
1.500000	-0.032545	-26.021977	-77.725128	90.519953	-77.725128	90.519953	-0.062175	-49.234611
1.550000	-0.033623	-26.874779	-77.630512	94.838222	-77.630512	94.838222	-0.064118	-50.819126
1.600000	-0.034700	-27.726376	-77.446668	99.511234	-77.446668	99.511234	-0.066051	-52.398887
1.650000	-0.035777	-28.576751	-77.158648	104.389111	-77.158648	104.389111	-0.067973	-53.973844
1.700000	-0.036854	-29.425767	-76.747058	109.277575	-76.747058	109.277575	-0.069885	-55.543475
1.750000	-0.037930	-30.273637	-76.239201	113.998613	-76.239201	113.998613	-0.071788	-57.108637
1.800000	-0.039007	-31.120240	-75.636657	118.400828	-75.636657	118.400828	-0.073681	-58.668877
1.850000	-0.040083	-31.965560	-74.957382	122.370913	-74.957382	122.370913	-0.075566	-60.224164
1.900000	-0.041160	-32.809583	-74.221504	125.844504	-74.221504	125.844504	-0.077443	-61.774475
1.950000	-0.042238	-33.652293	-73.448334	128.801011	-73.448334	128.801011	-0.079312	-63.319789
2.000000	-0.043316	-34.493676	-72.654545	131.252584	-72.654545	131.252584	-0.081174	-64.860092
2.050000	-0.044396	-35.333718	-71.853454	133.232093	-71.853454	133.232093	-0.083030	-66.395373
2.100000	-0.045478	-36.172405	-71.055071	134.783036	-71.055071	134.783036	-0.084882	-67.925627
2.150000	-0.046561	-37.009721	-70.266549	135.952387	-70.266549	135.952387	-0.086729	-69.450852
2.200000	-0.047646	-37.845653	-69.492751	136.786135	-69.492751	136.786135	-0.088573	-70.971051
2.250000	-0.048734	-38.680188	-68.736801	137.326891	-68.736801	137.326891	-0.090415	-72.486231
2.300000	-0.049826	-39.513310	-68.000552	137.612828	-68.000552	137.612828	-0.092256	-73.996405
2.350000	-0.050920	-40.345006	-67.284947	137.677451	-67.284947	137.677451	-0.094096	-75.501587
2.400000	-0.052018	-41.175263	-66.590301	137.549796	-66.590301	137.549796	-0.095938	-77.001798
2.450000	-0.053120	-42.004067	-65.916498	137.254845	-65.916498	137.254845	-0.097781	-78.497061
2.500000	-0.054227	-42.831406	-65.263140	136.814008	-65.263140	136.814008	-0.099628	-79.987405
2.550000	-0.055338	-43.657200	-64.628537	136.240797	-64.628537	136.240797	-0.101478	-81.472650
2.600000	-0.056455	-44.481503	-64.013280	135.556911	-64.013280	135.556911	-0.103334	-82.953047
2.650000	-0.057577	-45.304300	-63.416599	134.775533	-63.416599	134.775533	-0.105196	-84.428636
2.700000	-0.058706	-46.125581	-62.837701	133.908007	-62.837701	133.908007	-0.107065	-85.899462
2.750000	-0.059840	-46.945333	-62.275800	132.964121	-62.275800	132.964121	-0.108943	-87.365572
2.800000	-0.060982	-47.763546	-61.730123	131.952341	-61.730123	131.952341	-0.110830	-88.827019
2.850000	-0.062131	-48.580207	-61.199926	130.880014	-61.199926	130.880014	-0.112727	-90.283856
2.900000	-0.063287	-49.395307	-60.684495	129.753534	-60.684495	129.753534	-0.114636	-91.736144
2.950000	-0.064451	-50.208835	-60.183150	128.578485	-60.183150	128.578485	-0.116557	-93.183945
3.000000	-0.065623	-51.020782	-59.695247	127.359757	-59.695247	127.359757	-0.118491	-94.627326
3.050000	-0.066804	-51.831138	-59.220177	126.101646	-59.220177	126.101646	-0.120439	-96.066356
3.100000	-0.067994	-52.639893	-58.757365	124.807937	-58.757365	124.807937	-0.122403	-97.501109
3.150000	-0.069194	-53.447039	-58.306269	123.481974	-58.306269	123.481974	-0.124383	-98.931661
3.200000	-0.070404	-54.252569	-57.866379	122.126723	-57.866379	122.126723	-0.126381	-100.358094
3.250000	-0.071623	-55.056474	-57.437213	120.744815	-57.437213	120.744815	-0.128396	-101.780490
3.300000	-0.072854	-55.858746	-57.018320	119.338597	-57.018320	119.338597	-0.130430	-103.198939
3.350000	-0.074095	-56.659380	-56.609272	117.910162	-56.609272	117.910162	-0.132485	-104.613529
3.400000	-0.075348	-57.458368	-56.209667	116.461382	-56.209667	116.461382	-0.134560	-106.024356
3.450000	-0.076613	-58.255705	-55.819127	114.993937	-55.819127	114.993937	-0.136657	-107.431518
3.500000	-0.077889	-59.051385	-55.437292	113.509335	-55.437292	113.509335	-0.138777	-108.835117
3.550000	-0.079179	-59.845404	-55.063824	112.008931	-55.063824	112.008931	-0.140920	-110.235256
3.600000	-0.080481	-60.637756	-54.698402	110.493947	-54.698402	110.493947	-0.143088	-111.632046
3.650000	-0.081797	-61.428438	-54.340722	108.965484	-54.340722	108.965484	-0.145281	-113.025598
3.700000	-0.083127	-62.217445	-53.990496	107.424533	-53.990496	107.424533	-0.147501	-114.416030
3.750000	-0.084471	-63.004776	-53.647449	105.871991	-53.647449	105.871991	-0.149748	-115.803460
3.800000	-0.085830	-63.790354	-53.311056	104.308232	-53.311056	104.308232	-0.152025	-117.187896
3.850000	-0.087205	-64.574249	-52.981355	102.734475	-52.981355	102.734475	-0.154331	-118.569595
3.900000	-0.088594	-65.356462	-52.658106	101.151369	-52.658106	101.151369	-0.156667	-119.948693
3.950000	-0.090000	-66.136989	-52.341079	99.559491	-52.341079	99.559491	-0.159035	-121.325326
4.000000	-0.091422	-66.915832	-52.030056	97.959362	-52.030056	97.959362	-0.161435	-122.699639
4.050000	-0.092861	-67.692988	-51.724823	96.351443	-51.724823	96.351443	-0.163869	-124.071780
4.100000	-0.094317	-68.468460	-51.425178	94.736142	-51.425178	94.736142	-0.166337	-125.441903
4.150000	-0.095791	-69.242247	-51.130923	93.113817	-51.130923	93.113817	-0.168842	-126.810169
4.200000	-0.097283	-70.014352	-50.841869	91.484776	-50.841869	91.484776	-0.171383	-128.176743
4.250000	-0.098793	-70.784775	-50.557832	89.849281	-50.557832	89.849281	-0.173963	-129.541801
4.300000	-0.100322	-71.553518	-50.278630	88.207547	-50.278630	88.207547	-0.176583	-130.905523
4.350000	-0.101870	-72.320586	-50.004089	86.559745	-50.004089	86.559745	-0.179245	-132.268100
4.400000	-0.103439	-73.085979	-49.734035	84.905997	-49.734035	84.905997	-0.181950	-133.629733
4.450000	-0.105027	-73.849704	-49.468300	83.246382	-49.468300	83.246382	-0.184700	-134.990631
4.500000	-0.106636	-74.611762	-49.206715	81.580929	-49.206715	81.580929	-0.187498	-136.351016
4.550000	-0.108266	-75.372160	-48.949113	79.909617	-48.949113	79.909617	-0.190345	-137.711126
4.600000	-0.109918	-76.130901	-48.695327	78.232374	-48.695327	78.232374	-0.193245	-139.071210
4.650000	-0.111591	-76.887991	-48.445189	76.549068	-48.445189	76.549068	-0.196200	-140.431537
4.700000	-0.113287	-77.643437	-48.198528	74.859509	-48.198528	74.859509	-0.199214	-141.792395
4.750000	-0.115006	-78.397244	-47.955173	73.163435	-47.955173	73.163435	-0.202291	-143.154095
4.800000	-0.116748	-79.149420	-47.714943	71.460512	-47.714943	71.460512	-0.205434	-144.516974
4.850000	-0.118514	-79.899970	-47.477655	69.750318	-47.477655	69.750318	-0.208651	-145.881401
4.900000	-0.120303	-80.648904	-47.243116	68.032335	-47.243116	68.032335	-0.211946	-147.247779
4.950000	-0.122118	-81.396230	-47.011123	66.305933	-47.011123	66.305933	-0.215327	-148.616554
5.000000	-0.123957	-82.141954	-46.781458	64.570349	-46.781458	64.570349	-0.218802	-149.988224
5.050000	-0.125823	-82.885958	-46.553551	62.823733	-46.553551	62.823733	-0.222393	-151.363691
5.100000	-0.127713	-83.628526	-46.327847	61.066861	-46.327847	61.066861	-0.226092	-152.742913
5.150000	-0.129631	-84.369425	-46.103415	59.296560	-46.103415	59.296560	-0.229934	-154.127300
5.200000	-0.131574	-85.108815	-45.880366	57.512497	-45.880366	57.512497	-0.233926	-155.517189
5.250000	-0.133544	-85.846647	-45.658158	55.712128	-45.658158	55.712128	-0.238097	-156.913794
5.300000	-0.135543	-86.582904	-45.436287	53.892727	-45.436287	53.892727	-0.242483	-158.318407
5.350000	-0.137567	-87.317715	-45.214703	52.052966	-45.214703	52.052966	-0.247105	-159.731722
5.400000	-0.139621	-88.050887	-44.992033	50.186025	-44.992033	50.186025	-0.252052	-161.156771
5.450000	-0.141701	-88.782695	-44.768770	48.292236	-44.768770	48.292236	-0.257331	-162.593479
5.500000	-0.143812	-89.512864	-44.542661	46.359556	-44.542661	46.359556	-0.263113	-164.047112
5.550000	-0.145949	-90.241667	-44.314171	44.387424	-44.314171	44.387424	-0.269432	-165.517902
5.600000	-0.148116	-90.968946	-44.080964	42.361145	-44.080964	42.361145	-0.276527	-167.012167
5.650000	-0.150311	-91.694804	-43.842162	40.271841	-43.842162	40.271841	-0.284585	-168.533626
5.700000	-0.152533	-92.419255	-43.595784	38.103241	-43.595784	38.103241	-0.293943	-170.089080
5.750000	-0.154785	-93.142238	-43.338312	35.827530	-43.338312	35.827530	-0.305196	-171.690106
5.800000	-0.157061	-93.863933	-43.068666	33.427844	-43.068666	33.427844	-0.318842	-173.343418
5.850000	-0.159364	-94.584205	-42.779733	30.844155	-42.779733	30.844155	-0.336385	-175.073577
5.900000	-0.161691	-95.303124	-42.465239	28.009484	-42.465239	28.009484	-0.359891	-176.907205
5.950000	-0.164037	-96.020751	-42.116157	24.818902	-42.116157	24.818902	-0.393005	-178.885225
6.000000	-0.166399	-96.737148	-41.718710	21.093841	-41.718710	21.093841	-0.442806	178.924689
6.050000	-0.168766	-97.452438	-41.254474	16.537198	-41.254474	16.537198	-0.523275	176.415639
6.100000	-0.171126	-98.166808	-40.691501	10.500953	-40.691501	10.500953	-0.670615	173.373767
6.150000	-0.173470	-98.880821	-40.003515	1.682656	-40.003515	1.682656	-0.980149	169.465449
6.200000	-0.175878	-99.595920	-39.251141	-13.145907	-39.251141	-13.145907	-1.772901	164.454311
6.250000	-0.179112	-100.313640	-39.246923	-41.379702	-39.246923	-41.379702	-4.033584	163.595473
6.300000	-0.183717	-101.020092	-43.606005	-84.888930	-43.606005	-84.888930	-4.671806	-171.869159
6.350000	-0.186646	-101.718480	-58.134489	-129.250962	-58.134489	-129.250962	-2.090376	-168.813052
6.400000	-0.189036	-102.420764	-54.785374	61.157893	-54.785374	61.157893	-1.116287	-173.831041
6.450000	-0.191534	-103.124141	-49.336242	46.708948	-49.336242	46.708948	-0.753571	-177.944716
6.500000	-0.194155	-103.827153	-47.151769	39.185204	-47.151769	39.185204	-0.590255	178.873459
6.550000	-0.196869	-104.529357	-45.920453	33.942935	-45.920453	33.942935	-0.504994	176.256142
6.600000	-0.199657	-105.230585	-45.112081	29.876659	-45.112081	29.876659	-0.456668	173.991402
6.650000	-0.202506	-105.930800	-44.524020	26.487603	-44.524020	26.487603	-0.427233	171.948118
6.700000	-0.205409	-106.629997	-44.066610	23.531147	-44.066610	23.531147	-0.408543	170.052401
6.750000	-0.208361	-107.328192	-43.693446	20.869204	-43.693446	20.869204	-0.396422	168.259128
6.800000	-0.211361	-108.025389	-43.378582	18.419991	-43.378582	18.419991	-0.388588	166.540217
6.850000	-0.214406	-108.721607	-43.105578	16.127998	-43.105578	16.127998	-0.383634	164.875895
6.900000	-0.217502	-109.416736	-42.866334	13.968784	-42.866334	13.968784	-0.380887	163.256753
6.950000	-0.220636	-110.111057	-42.648270	11.888190	-42.648270	11.888190	-0.379338	161.663558
7.000000	-0.223813	-110.804470	-42.449408	9.882727	-42.449408	9.882727	-0.378861	160.094352
7.050000	-0.227033	-111.496999	-42.266126	7.938385	-42.266126	7.938385	-0.379190	158.543686
7.100000	-0.230295	-112.188672	-42.095752	6.044632	-42.095752	6.044632	-0.380137	157.007391
7.150000	-0.233601	-112.879515	-41.936272	4.193409	-41.936272	4.193409	-0.381565	155.482218
7.200000	-0.236948	-113.569555	-41.786141	2.378456	-41.786141	2.378456	-0.383372	153.965594
7.250000	-0.240339	-114.258823	-41.644151	0.594850	-41.644151	0.594850	-0.385482	152.455455
7.300000	-0.243772	-114.947345	-41.509346	-1.161322	-41.509346	-1.161322	-0.387836	150.950120
7.350000	-0.247248	-115.635152	-41.380957	-2.893202	-41.380957	-2.893202	-0.390389	149.448206
7.400000	-0.250766	-116.322274	-41.258360	-4.603329	-41.258360	-4.603329	-0.393105	147.948566
7.450000	-0.254328	-117.008741	-41.141041	-6.293766	-41.141041	-6.293766	-0.395954	146.450233
7.500000	-0.257932	-117.694586	-41.028575	-7.966204	-41.028575	-7.966204	-0.398913	144.952391
7.550000	-0.261581	-118.379815	-40.920731	-9.621354	-40.920731	-9.621354	-0.401967	143.454306
7.600000	-0.265274	-119.064488	-40.817067	-11.261106	-40.817067	-11.261106	-0.405095	141.955372
7.650000	-0.269010	-119.748640	-40.717333	-12.886369	-40.717333	-12.886369	-0.408284	140.455081
7.700000	-0.272789	-120.432303	-40.621308	-14.497892	-40.621308	-14.497892	-0.411522	138.952991
7.750000	-0.276612	-121.115513	-40.528807	-16.096286	-40.528807	-16.096286	-0.414801	137.448717
7.800000	-0.280478	-121.798305	-40.439663	-17.682049	-40.439663	-17.682049	-0.418113	135.941921
7.850000	-0.284389	-122.480715	-40.353734	-19.255582	-40.353734	-19.255582	-0.421449	134.432307
7.900000	-0.288343	-123.162781	-40.270892	-20.817203	-40.270892	-20.817203	-0.424805	132.919614
7.950000	-0.292341	-123.844539	-40.191023	-22.367161	-40.191023	-22.367161	-0.428174	131.403612
8.000000	-0.296383	-124.526027	-40.114026	-23.905644	-40.114026	-23.905644	-0.431552	129.884100
8.050000	-0.300470	-125.207286	-40.039809	-25.432788	-40.039809	-25.432788	-0.434934	128.360900
8.100000	-0.304600	-125.888355	-39.968290	-26.948684	-39.968290	-26.948684	-0.438317	126.833859
8.150000	-0.308776	-126.569275	-39.899394	-28.453386	-39.899394	-28.453386	-0.441697	125.302842
8.200000	-0.312995	-127.250087	-39.833051	-29.946912	-39.833051	-29.946912	-0.445070	123.767733
8.250000	-0.317260	-127.930835	-39.769197	-31.429254	-39.769197	-31.429254	-0.448435	122.228433
8.300000	-0.321569	-128.611560	-39.707773	-32.900376	-39.707773	-32.900376	-0.451789	120.684859
8.350000	-0.325923	-129.292309	-39.648724	-34.360223	-39.648724	-34.360223	-0.455129	119.136943
8.400000	-0.330322	-129.973125	-39.591998	-35.808720	-39.591998	-35.808720	-0.458454	117.584631
8.450000	-0.334767	-130.654055	-39.537546	-37.245777	-39.537546	-37.245777	-0.461761	116.027881
8.500000	-0.339256	-131.335147	-39.485321	-38.671289	-39.485321	-38.671289	-0.465048	114.466666
8.550000	-0.343791	-132.016448	-39.435281	-40.085142	-39.435281	-40.085142	-0.468315	112.900968
8.600000	-0.348371	-132.698008	-39.387383	-41.487211	-39.387383	-41.487211	-0.471561	111.330784
8.650000	-0.352997	-133.379877	-39.341587	-42.877364	-39.341587	-42.877364	-0.474783	109.756120
8.700000	-0.357669	-134.062107	-39.297855	-44.255463	-39.297855	-44.255463	-0.477981	108.176993
8.750000	-0.362387	-134.744750	-39.256149	-45.621366	-39.256149	-45.621366	-0.481154	106.593431
8.800000	-0.367153	-135.427883	-39.216511	-46.974382	-39.216511	-46.974382	-0.484301	105.005285
8.850000	-0.371965	-136.111544	-39.178828	-48.314895	-39.178828	-48.314895	-0.487421	103.412797
8.900000	-0.376823	-136.795788	-39.143066	-49.642756	-39.143066	-49.642756	-0.490516	101.816027
8.950000	-0.381728	-137.480674	-39.109193	-50.957817	-39.109193	-50.957817	-0.493584	100.215046
9.000000	-0.386680	-138.166260	-39.077176	-52.259931	-39.077176	-52.259931	-0.496626	98.609931
9.050000	-0.391680	-138.852608	-39.046987	-53.548955	-39.046987	-53.548955	-0.499642	97.000773
9.100000	-0.396726	-139.539779	-39.018594	-54.824745	-39.018594	-54.824745	-0.502632	95.387670
9.150000	-0.401821	-140.227836	-38.991969	-56.087166	-38.991969	-56.087166	-0.505596	93.770728
9.200000	-0.406963	-140.916844	-38.967083	-57.336085	-38.967083	-57.336085	-0.508536	92.150064
9.250000	-0.412154	-141.606870	-38.943911	-58.571372	-38.943911	-58.571372	-0.511452	90.525803
9.300000	-0.417393	-142.297982	-38.922424	-59.792908	-38.922424	-59.792908	-0.514344	88.898078
9.350000	-0.422681	-142.990250	-38.902599	-61.000575	-38.902599	-61.000575	-0.517215	87.267032
9.400000	-0.428019	-143.683744	-38.884409	-62.194265	-38.884409	-62.194265	-0.520065	85.632815
9.450000	-0.433407	-144.378539	-38.867831	-63.373878	-38.867831	-63.373878	-0.522895	83.995586
9.500000	-0.438845	-145.074709	-38.852843	-64.539320	-38.852843	-64.539320	-0.525708	82.355512
9.550000	-0.444333	-145.772330	-38.839421	-65.690506	-38.839421	-65.690506	-0.528505	80.712767
9.600000	-0.449874	-146.471483	-38.827545	-66.827360	-38.827545	-66.827360	-0.531287	79.067532
9.650000	-0.455466	-147.172247	-38.817194	-67.949815	-38.817194	-67.949815	-0.534056	77.419998
9.700000	-0.461110	-147.874706	-38.808348	-69.057813	-38.808348	-69.057813	-0.536816	75.770360
9.750000	-0.466808	-148.578945	-38.800989	-70.151305	-38.800989	-70.151305	-0.539567	74.118821
9.800000	-0.472560	-149.285050	-38.795098	-71.230255	-38.795098	-71.230255	-0.542313	72.465592
9.850000	-0.478367	-149.993113	-38.790659	-72.294633	-38.790659	-72.294633	-0.545056	70.810887
9.900000	-0.484230	-150.703223	-38.787655	-73.344423	-38.787655	-73.344423	-0.547798	69.154930
9.950000	-0.490149	-151.415477	-38.786071	-74.379619	-38.786071	-74.379619	-0.550542	67.497947
10.000000	-0.496126	-152.129970	-38.785892	-75.400223	-38.785892	-75.400223	-0.553291	65.840172
