! freq	dB(S11)	phase(S11)	dB(S12)	phase(S12)	
!     	dB(S21)	phase(S21)	dB(S22)	phase(S22)	
!S-par simulation data
#  GHz  S  DB  R 50
0.000000	-0.000000	0.000000	-364.345748	180.000000	-364.345748	180.000000	-0.000000	0.000000
0.050000	-0.000112	-0.819936	-95.898990	5.224575	-95.898990	5.224575	-0.000117	-0.761741
0.100000	-0.000444	-1.639594	-95.907317	5.881158	-95.907317	5.881158	-0.000461	-1.523154
0.150000	-0.000982	-2.458719	-95.936995	7.501531	-95.936995	7.501531	-0.001013	-2.283949
0.200000	-0.001702	-3.277100	-95.984686	9.312217	-95.984686	9.312217	-0.001740	-3.043906
0.250000	-0.002590	-4.094501	-96.055521	11.146216	-96.055521	11.146216	-0.002618	-3.802801
0.300000	-0.003602	-4.910882	-96.153116	12.940072	-96.153116	12.940072	-0.003600	-4.560642
0.350000	-0.004717	-5.726125	-96.285365	14.665959	-96.285365	14.665959	-0.004659	-5.317358
0.400000	-0.005908	-6.540189	-96.460915	16.309850	-96.460915	16.309850	-0.005767	-6.072963
0.450000	-0.007151	-7.353065	-96.690297	17.867823	-96.690297	17.867823	-0.006904	-6.827504
0.500000	-0.008425	-8.164774	-96.986488	19.344243	-96.986488	19.344243	-0.008050	-7.581040
0.550000	-0.009713	-8.975351	-97.365840	20.751948	-97.365840	20.751948	-0.009195	-8.333639
0.600000	-0.011000	-9.784842	-97.849624	22.114243	-97.849624	22.114243	-0.010330	-9.085365
0.650000	-0.012276	-10.593299	-98.466611	23.469720	-98.466611	23.469720	-0.011450	-9.836276
0.700000	-0.013534	-11.400771	-99.257604	24.882789	-99.257604	24.882789	-0.012552	-10.586422
0.750000	-0.014769	-12.207306	-100.283906	26.467700	-100.283906	26.467700	-0.013636	-11.335840
0.800000	-0.015979	-13.012945	-101.644507	28.449816	-101.644507	28.449816	-0.014702	-12.084561
0.850000	-0.017161	-13.817723	-103.514934	31.353561	-103.514934	31.353561	-0.015752	-12.832604
0.900000	-0.018316	-14.621669	-106.245444	36.787693	-106.245444	36.787693	-0.016787	-13.579983
0.950000	-0.019444	-15.424804	-110.522430	52.893946	-110.522430	52.893946	-0.017808	-14.326702
1.000000	-0.020548	-16.227143	-115.184560	98.918677	-115.184560	98.918677	-0.018817	-15.072762
1.050000	-0.021628	-17.028693	-110.808649	167.839671	-110.808649	167.839671	-0.019817	-15.818161
1.100000	-0.022688	-17.829459	-105.009037	-175.185728	-105.009037	-175.185728	-0.020808	-16.562889
1.150000	-0.023730	-18.629439	-101.090966	-169.772870	-101.090966	-169.772870	-0.021793	-17.306937
1.200000	-0.024755	-19.428628	-98.137853	-167.305410	-98.137853	-167.305410	-0.022771	-18.050293
1.250000	-0.025765	-20.227017	-95.741621	-166.029546	-95.741621	-166.029546	-0.023745	-18.792944
1.300000	-0.026764	-21.024559	-93.698785	-165.386873	-93.698785	-165.386873	-0.024714	-19.534841
1.350000	-0.027753	-21.821274	-91.910879	-165.107072	-91.910879	-165.107072	-0.025681	-20.276001
1.400000	-0.028733	-22.617147	-90.311838	-165.074861	-90.311838	-165.074861	-0.026645	-21.016407
1.450000	-0.029708	-23.412160	-88.858811	-165.223805	-88.858811	-165.223805	-0.027608	-21.756043
1.500000	-0.030678	-24.206294	-87.522424	-165.512663	-87.522424	-165.512663	-0.028569	-22.494891
1.550000	-0.031645	-24.999531	-86.281663	-165.914216	-86.281663	-165.914216	-0.029529	-23.232935
1.600000	-0.032610	-25.791849	-85.120966	-166.409560	-85.120966	-166.409560	-0.030488	-23.970159
1.650000	-0.033575	-26.583229	-84.028478	-166.984986	-84.028478	-166.984986	-0.031447	-24.706545
1.700000	-0.034540	-27.373305	-82.972048	-167.650753	-82.972048	-167.650753	-0.032406	-25.441774
1.750000	-0.035506	-28.162874	-82.000254	-168.350027	-82.000254	-168.350027	-0.033365	-26.176551
1.800000	-0.036476	-28.951214	-81.059626	-169.114207	-81.059626	-169.114207	-0.034324	-26.910243
1.850000	-0.037447	-29.738675	-80.168045	-169.924748	-80.168045	-169.924748	-0.035283	-27.643158
1.900000	-0.038423	-30.525038	-79.309771	-170.781307	-79.309771	-170.781307	-0.036243	-28.375109
1.950000	-0.039403	-31.310302	-78.483507	-171.683883	-78.483507	-171.683883	-0.037204	-29.106095
2.000000	-0.040387	-32.094614	-77.692604	-172.619102	-77.692604	-172.619102	-0.038166	-29.836250
2.050000	-0.041377	-32.877593	-76.921019	-173.600020	-76.921019	-173.600020	-0.039128	-30.565241
2.100000	-0.042371	-33.659983	-76.193185	-174.598306	-76.193185	-174.598306	-0.040092	-31.293720
2.150000	-0.043372	-34.440843	-75.475486	-175.640597	-75.475486	-175.640597	-0.041058	-32.020870
2.200000	-0.044380	-35.220543	-74.779966	-176.712868	-74.779966	-176.712868	-0.042025	-32.747016
2.250000	-0.045395	-35.999065	-74.105166	-177.813388	-74.105166	-177.813388	-0.042994	-33.472143
2.300000	-0.046416	-36.776391	-73.449795	-178.940579	-73.449795	-178.940579	-0.043965	-34.196237
2.350000	-0.047444	-37.552504	-72.812697	179.907012	-72.812697	179.907012	-0.044939	-34.919286
2.400000	-0.048480	-38.327387	-72.192839	178.730727	-72.192839	178.730727	-0.045915	-35.641277
2.450000	-0.049523	-39.101025	-71.589288	177.531815	-71.589288	177.531815	-0.046895	-36.362196
2.500000	-0.050573	-39.873402	-71.001205	176.311445	-71.001205	176.311445	-0.047877	-37.082031
2.550000	-0.051635	-40.643773	-70.414865	175.059849	-70.414865	175.059849	-0.048866	-37.800143
2.600000	-0.052698	-41.414143	-69.865615	173.808252	-69.865615	173.808252	-0.049854	-38.518255
2.650000	-0.053776	-42.182015	-69.309807	172.521808	-69.309807	172.521808	-0.050850	-39.234220
2.700000	-0.054855	-42.949659	-68.784086	171.232196	-68.784086	171.232196	-0.051847	-39.949991
2.750000	-0.055948	-43.714985	-68.255976	169.914226	-68.255976	169.914226	-0.052853	-40.663768
2.800000	-0.057044	-44.479846	-67.752038	168.590585	-67.752038	168.590585	-0.053860	-41.377147
2.850000	-0.058153	-45.242581	-67.249222	167.244171	-67.249222	167.244171	-0.054876	-42.088697
2.900000	-0.059267	-46.004608	-66.765574	165.890165	-66.765574	165.890165	-0.055895	-42.799637
2.950000	-0.060392	-46.764712	-66.285984	164.518185	-66.285984	164.518185	-0.056923	-43.508920
3.000000	-0.061524	-47.523856	-65.821331	163.137217	-65.821331	163.137217	-0.057955	-44.217374
3.050000	-0.062666	-48.281294	-65.363174	161.742381	-65.363174	161.742381	-0.058996	-44.924354
3.100000	-0.063816	-49.037513	-64.916376	160.337639	-64.916376	160.337639	-0.060043	-45.630281
3.150000	-0.064975	-49.792250	-64.478077	158.922509	-64.478077	158.922509	-0.061098	-46.334923
3.200000	-0.066144	-50.545505	-64.048118	157.496990	-64.048118	157.496990	-0.062162	-47.038280
3.250000	-0.067321	-51.297511	-63.628284	156.063994	-63.628284	156.063994	-0.063233	-47.740551
3.300000	-0.068509	-52.047769	-63.214246	154.620528	-63.214246	154.620528	-0.064315	-48.441301
3.350000	-0.069704	-52.797018	-62.811630	153.171969	-62.811630	153.171969	-0.065404	-49.141169
3.400000	-0.070913	-53.544250	-62.412672	151.713221	-62.412672	151.713221	-0.066506	-49.839275
3.450000	-0.072127	-54.290718	-62.026152	150.251278	-62.026152	150.251278	-0.067614	-50.536712
3.500000	-0.073358	-55.034896	-61.641496	148.779752	-61.641496	148.779752	-0.068737	-51.232140
3.550000	-0.074592	-55.778562	-61.270053	147.306487	-61.270053	147.306487	-0.069865	-51.927118
3.600000	-0.075844	-56.519667	-60.898969	145.824525	-60.898969	145.824525	-0.071012	-52.619839
3.650000	-0.077099	-57.260513	-60.541670	144.341875	-60.541670	144.341875	-0.072161	-53.312331
3.700000	-0.078375	-57.998526	-60.183469	142.851651	-60.183469	142.851651	-0.073334	-54.002316
3.750000	-0.079651	-58.736538	-59.839457	141.361428	-59.839457	141.361428	-0.074506	-54.692300
3.800000	-0.080952	-59.471444	-59.493482	139.864944	-59.493482	139.864944	-0.075705	-55.379522
3.850000	-0.082253	-60.206349	-59.160762	138.368461	-59.160762	138.368461	-0.076904	-56.066745
3.900000	-0.083578	-60.938397	-58.827585	136.867909	-58.827585	136.867909	-0.078130	-56.751414
3.950000	-0.084905	-61.670186	-58.505604	135.366988	-58.505604	135.366988	-0.079358	-57.435851
4.000000	-0.086256	-62.399370	-58.184436	133.863734	-58.184436	133.863734	-0.080611	-58.117951
4.050000	-0.087611	-63.128033	-57.872658	132.360012	-57.872658	132.360012	-0.081869	-58.799583
4.100000	-0.088988	-63.854349	-57.562761	130.855279	-57.562761	130.855279	-0.083151	-59.479098
4.150000	-0.090373	-64.579882	-57.260668	129.350208	-57.260668	129.350208	-0.084441	-60.157908
4.200000	-0.091778	-65.303328	-56.961352	127.845078	-56.961352	127.845078	-0.085754	-60.834826
4.250000	-0.093194	-66.025730	-56.668442	126.339919	-56.668442	126.339919	-0.087077	-61.510798
4.300000	-0.094630	-66.746305	-56.379061	124.835332	-56.379061	124.835332	-0.088422	-62.185107
4.350000	-0.096079	-67.465577	-56.094845	123.331155	-56.094845	123.331155	-0.089781	-62.858229
4.400000	-0.097546	-68.183285	-55.814794	121.827912	-55.814794	121.827912	-0.091159	-63.529922
4.450000	-0.099030	-68.899430	-55.538802	120.325602	-55.538802	120.325602	-0.092555	-64.200185
4.500000	-0.100531	-69.614275	-55.267513	118.824363	-55.267513	118.824363	-0.093967	-64.869255
4.550000	-0.102052	-70.327300	-54.999288	117.324624	-54.999288	117.324624	-0.095402	-65.536652
4.600000	-0.103588	-71.039287	-54.736230	115.825918	-54.736230	115.825918	-0.096850	-66.203093
4.650000	-0.105149	-71.749200	-54.475337	114.329278	-54.475337	114.329278	-0.098326	-66.867621
4.700000	-0.106722	-72.458338	-54.220011	112.833503	-54.220011	112.833503	-0.099811	-67.531431
4.750000	-0.108325	-73.165150	-53.966030	111.340325	-53.966030	111.340325	-0.101328	-68.193088
4.800000	-0.109936	-73.871448	-53.717970	109.847759	-53.717970	109.847759	-0.102853	-68.854266
4.850000	-0.111584	-74.575173	-53.470504	108.358251	-53.470504	108.358251	-0.104413	-69.513053
4.900000	-0.113237	-75.278642	-53.229275	106.869054	-53.229275	106.869054	-0.105978	-70.171601
4.950000	-0.114931	-75.979295	-52.987947	105.383280	-52.987947	105.383280	-0.107584	-70.827523
5.000000	-0.116626	-76.679948	-52.753144	103.897506	-52.753144	103.897506	-0.109189	-71.483444
5.050000	-0.118370	-77.377546	-52.517599	102.415400	-52.517599	102.415400	-0.110842	-72.136505
5.100000	-0.120115	-78.075144	-52.288274	100.933295	-52.288274	100.933295	-0.112494	-72.789567
5.150000	-0.121906	-78.769959	-52.058751	99.454384	-52.058751	99.454384	-0.114191	-73.440015
5.200000	-0.123702	-79.464521	-51.834597	97.975765	-51.834597	97.975765	-0.115892	-74.090227
5.250000	-0.125543	-80.156571	-51.610746	96.499813	-51.610746	96.499813	-0.117634	-74.738072
5.300000	-0.127393	-80.848119	-51.391478	95.024394	-51.391478	95.024394	-0.119385	-75.385444
5.350000	-0.129286	-81.537423	-51.172976	93.551097	-51.172976	93.551097	-0.121174	-76.030697
5.400000	-0.131193	-82.225979	-50.958330	92.078508	-50.958330	92.078508	-0.122977	-76.675244
5.450000	-0.133140	-82.912557	-50.744886	90.607507	-50.744886	90.607507	-0.124814	-77.317918
5.500000	-0.135106	-83.598146	-50.534622	89.137302	-50.534622	89.137302	-0.126669	-77.959655
5.550000	-0.137108	-84.282019	-50.325969	87.668194	-50.325969	87.668194	-0.128556	-78.599765
5.600000	-0.139136	-84.964668	-50.119868	86.199870	-50.119868	86.199870	-0.130466	-79.238713
5.650000	-0.141196	-85.645861	-49.915766	84.732213	-49.915766	84.732213	-0.132404	-79.876275
5.700000	-0.143289	-86.325597	-49.713635	83.265225	-49.713635	83.265225	-0.134370	-80.512453
5.750000	-0.145409	-87.004133	-49.513867	81.798553	-49.513867	81.798553	-0.136360	-81.147486
5.800000	-0.147567	-87.680988	-49.315534	80.332327	-49.315534	80.332327	-0.138384	-81.780917
5.850000	-0.149749	-88.356893	-49.119907	78.866158	-49.119907	78.866158	-0.140427	-82.413442
5.900000	-0.151976	-89.030898	-48.925223	77.400105	-48.925223	77.400105	-0.142510	-83.044152
5.950000	-0.154222	-89.704198	-48.733567	75.933948	-48.733567	75.933948	-0.144608	-83.674188
6.000000	-0.156520	-90.375387	-48.542406	74.467482	-48.542406	74.467482	-0.146752	-84.302204
6.050000	-0.158831	-91.046112	-48.354569	73.000851	-48.354569	73.000851	-0.148907	-84.929776
6.100000	-0.161203	-91.714521	-48.166828	71.533398	-48.166828	71.533398	-0.151113	-85.555128
6.150000	-0.163581	-92.382701	-47.982680	70.065817	-47.982680	70.065817	-0.153325	-86.180260
6.200000	-0.166028	-93.048366	-47.798274	68.596832	-47.798274	68.596832	-0.155595	-86.802979
6.250000	-0.168475	-93.714032	-47.617702	67.127847	-47.617702	67.127847	-0.157865	-87.425698
6.300000	-0.170999	-94.376994	-47.436569	65.656825	-47.436569	65.656825	-0.160201	-88.045817
6.350000	-0.173523	-95.039957	-47.259136	64.185803	-47.259136	64.185803	-0.162537	-88.665936
6.400000	-0.176119	-95.700480	-47.081573	62.712500	-47.081573	62.712500	-0.164934	-89.283705
6.450000	-0.178723	-96.360782	-46.907238	61.238990	-46.907238	61.238990	-0.167338	-89.901260
6.500000	-0.181392	-97.018903	-46.733178	59.763085	-46.733178	59.763085	-0.169798	-90.516709
6.550000	-0.184076	-97.676587	-46.561918	58.286701	-46.561918	58.286701	-0.172270	-91.131737
6.600000	-0.186821	-98.332344	-46.391308	56.807928	-46.391308	56.807928	-0.174795	-91.744899
6.650000	-0.189587	-98.987458	-46.223114	55.328360	-46.223114	55.328360	-0.177337	-92.357439
6.700000	-0.192408	-99.640891	-46.055913	53.846521	-46.055913	53.846521	-0.179927	-92.968347
6.750000	-0.195257	-100.293484	-45.890790	52.363546	-45.890790	52.363546	-0.182542	-93.578440
6.800000	-0.198156	-100.944636	-45.726967	50.878510	-45.726967	50.878510	-0.185199	-94.187129
6.850000	-0.201090	-101.594758	-45.564929	49.392001	-45.564929	49.392001	-0.187887	-94.794817
6.900000	-0.204067	-102.243673	-45.404462	47.903713	-45.404462	47.903713	-0.190613	-95.401324
6.950000	-0.207086	-102.891380	-45.245534	46.413647	-45.245534	46.413647	-0.193377	-96.006650
7.000000	-0.210142	-103.538105	-45.088407	44.922135	-45.088407	44.922135	-0.196172	-96.611012
7.050000	-0.213249	-104.183454	-44.932620	43.428597	-44.932620	43.428597	-0.199013	-97.214023
7.100000	-0.216385	-104.828038	-44.778821	41.933970	-44.778821	41.933970	-0.201880	-97.816278
7.150000	-0.219579	-105.471090	-44.626210	40.437163	-44.626210	40.437163	-0.204799	-98.417021
7.200000	-0.222796	-106.113583	-44.475732	38.939618	-44.475732	38.939618	-0.207738	-99.017209
7.250000	-0.226078	-106.754402	-44.326333	37.439859	-44.326333	37.439859	-0.210738	-99.615733
7.300000	-0.229376	-107.394859	-44.179167	35.939681	-44.179167	35.939681	-0.213752	-100.213894
7.350000	-0.232747	-108.033512	-44.033014	34.437405	-44.033014	34.437405	-0.216833	-100.810248
7.400000	-0.236127	-108.671990	-43.889153	32.934965	-43.889153	32.934965	-0.219923	-101.406425
7.450000	-0.239588	-109.308549	-43.746275	31.430722	-43.746275	31.430722	-0.223088	-102.000661
7.500000	-0.243050	-109.945108	-43.605708	29.926479	-43.605708	29.926479	-0.226255	-102.594897
7.550000	-0.246600	-110.579648	-43.466125	28.420930	-43.466125	28.420930	-0.229506	-103.187067
7.600000	-0.250151	-111.214188	-43.328749	26.915381	-43.328749	26.915381	-0.232759	-103.779238
7.650000	-0.253784	-111.846951	-43.192560	25.409333	-43.192560	25.409333	-0.236090	-104.369565
7.700000	-0.257426	-112.479553	-43.058387	23.903241	-43.058387	23.903241	-0.239430	-104.959724
7.750000	-0.261142	-113.110609	-42.925553	22.397409	-42.925553	22.397409	-0.242844	-105.548254
7.800000	-0.264873	-113.741357	-42.794582	20.891629	-42.794582	20.891629	-0.246273	-106.136457
7.850000	-0.268672	-114.370782	-42.665055	19.386786	-42.665055	19.386786	-0.249770	-106.723236
7.900000	-0.272494	-114.999766	-42.537267	17.882256	-42.537267	17.882256	-0.253290	-107.309541
7.950000	-0.276376	-115.627637	-42.410987	16.379227	-42.410987	16.379227	-0.256873	-107.894617
8.000000	-0.280289	-116.254952	-42.286347	14.876948	-42.286347	14.876948	-0.260486	-108.479080
8.050000	-0.284254	-116.881352	-42.163238	13.376597	-42.163238	13.376597	-0.264155	-109.062503
8.100000	-0.288258	-117.507099	-42.041688	11.877621	-42.041688	11.877621	-0.267864	-109.645184
8.150000	-0.292307	-118.132115	-41.921663	10.380838	-41.921663	10.380838	-0.271621	-110.227003
8.200000	-0.296401	-118.756400	-41.803123	8.886247	-41.803123	8.886247	-0.275427	-110.807961
8.250000	-0.300533	-119.380124	-41.686076	7.393938	-41.686076	7.393938	-0.279274	-111.388227
8.300000	-0.304719	-120.003061	-41.570443	5.904824	-41.570443	5.904824	-0.283179	-111.967524
8.350000	-0.308935	-120.625589	-41.456255	4.417896	-41.456255	4.417896	-0.287118	-112.546287
8.400000	-0.313212	-121.247298	-41.343401	2.935341	-41.343401	2.935341	-0.291124	-113.123985
8.450000	-0.317513	-121.868733	-41.231936	1.454688	-41.231936	1.454688	-0.295157	-113.701298
8.500000	-0.321883	-122.489341	-41.121707	-0.020256	-41.121707	-0.020256	-0.299266	-114.277460
8.550000	-0.326269	-123.109789	-41.012812	-1.493765	-41.012812	-1.493765	-0.303393	-114.853376
8.600000	-0.330731	-123.729433	-40.905031	-2.960097	-40.905031	-2.960097	-0.307608	-115.428065
8.650000	-0.335203	-124.349008	-40.798539	-4.425634	-40.798539	-4.425634	-0.311833	-116.002638
8.700000	-0.339760	-124.967829	-40.693000	-5.882424	-40.693000	-5.882424	-0.316154	-116.575920
8.750000	-0.344319	-125.586650	-40.588728	-7.339215	-40.588728	-7.339215	-0.320478	-117.149203
8.800000	-0.348971	-126.204802	-40.485204	-8.785622	-40.485204	-8.785622	-0.324910	-117.721145
8.850000	-0.353626	-126.822953	-40.382899	-10.232030	-40.382899	-10.232030	-0.329343	-118.293086
8.900000	-0.358369	-127.440639	-40.281192	-11.668248	-40.281192	-11.668248	-0.333877	-118.863860
8.950000	-0.363121	-128.058282	-40.180610	-13.103539	-40.180610	-13.103539	-0.338423	-119.434528
9.000000	-0.367956	-128.675644	-40.080479	-14.529058	-40.080479	-14.529058	-0.343062	-120.004191
9.050000	-0.372810	-129.292949	-39.981352	-15.952623	-39.981352	-15.952623	-0.347722	-120.573653
9.100000	-0.377740	-129.910138	-39.882544	-17.367036	-39.882544	-17.367036	-0.352468	-121.142261
9.150000	-0.382697	-130.527287	-39.784584	-18.778399	-39.784584	-18.778399	-0.357244	-121.710585
9.200000	-0.387725	-131.144461	-39.686834	-20.181411	-39.686834	-20.181411	-0.362099	-122.278198
9.250000	-0.392790	-131.761648	-39.589735	-21.580248	-39.589735	-21.580248	-0.366994	-122.845454
9.300000	-0.397921	-132.378974	-39.492768	-22.971682	-39.492768	-22.971682	-0.371960	-123.412127
9.350000	-0.403099	-132.996401	-39.396205	-24.357828	-39.396205	-24.357828	-0.376976	-123.978386
9.400000	-0.408337	-133.614056	-39.299734	-25.737632	-39.299734	-25.737632	-0.382055	-124.544180
9.450000	-0.413634	-134.231940	-39.203365	-27.111092	-39.203365	-27.111092	-0.387195	-125.109512
9.500000	-0.418984	-134.850109	-39.107099	-28.479344	-39.107099	-28.479344	-0.392389	-125.674487
9.550000	-0.424408	-135.468678	-39.010567	-29.840304	-39.010567	-29.840304	-0.397656	-126.238963
9.600000	-0.429877	-136.087557	-38.914204	-31.197220	-38.914204	-31.197220	-0.402967	-126.803178
9.650000	-0.435436	-136.707055	-38.817136	-32.546050	-38.817136	-32.546050	-0.408363	-127.366872
9.700000	-0.441033	-137.326849	-38.720368	-33.891990	-38.720368	-33.891990	-0.413793	-127.930389
9.750000	-0.446737	-137.947532	-38.622377	-35.229258	-38.622377	-35.229258	-0.419321	-128.493373
9.800000	-0.452469	-138.568457	-38.524890	-36.564728	-38.524890	-36.564728	-0.424873	-129.056252
9.850000	-0.458331	-139.190597	-38.425575	-37.891206	-38.425575	-37.891206	-0.430535	-129.618601
9.900000	-0.464210	-139.812881	-38.327049	-39.216868	-38.327049	-39.216868	-0.436211	-130.180904
9.950000	-0.470244	-140.436765	-38.225995	-40.533545	-38.225995	-40.533545	-0.442010	-130.742693
10.000000	-0.476281	-141.060648	-38.126103	-41.850222	-38.126103	-41.850222	-0.447812	-131.304482
