! freq	dB(S11)	phase(S11)	dB(S12)	phase(S12)	
!     	dB(S21)	phase(S21)	dB(S22)	phase(S22)	
!S-par simulation data
#  GHz  S  DB  R 50
0.000000	-82.889442	0.000000	-0.000624	0.000000	-0.000624	0.000000	-82.889440	0.000000
0.050000	-40.650804	-91.181308	-0.006529	-3.051210	-0.006529	-3.051210	-40.661315	-91.915357
0.100000	-34.730246	-94.539188	-0.013144	-6.057438	-0.013144	-6.057438	-34.741649	-95.932037
0.150000	-31.255893	-97.595429	-0.019127	-9.054839	-0.019127	-9.054839	-31.269100	-99.673372
0.200000	-28.798112	-100.512771	-0.025471	-12.047738	-0.025471	-12.047738	-28.812772	-103.278902
0.250000	-26.905451	-103.339938	-0.032360	-15.035633	-0.032360	-15.035633	-26.921206	-106.794275
0.300000	-25.372691	-106.104377	-0.039743	-18.018972	-0.039743	-18.018972	-25.389004	-110.248521
0.350000	-24.088326	-108.823815	-0.047568	-20.998465	-0.047568	-20.998465	-24.104792	-113.661922
0.400000	-22.986304	-111.512977	-0.055823	-23.974582	-0.055823	-23.974582	-23.002793	-117.050514
0.450000	-22.026152	-114.184014	-0.064542	-26.947444	-0.064542	-26.947444	-22.042738	-120.426780
0.500000	-21.178469	-116.845799	-0.073686	-29.917531	-0.073686	-29.917531	-21.195211	-123.798961
0.550000	-20.423284	-119.500389	-0.083235	-32.885014	-0.083235	-32.885014	-20.440166	-127.169527
0.600000	-19.746320	-122.147200	-0.093165	-35.849939	-0.093165	-35.849939	-19.763264	-130.538956
0.650000	-19.136707	-124.784585	-0.103432	-38.812324	-0.103432	-38.812324	-19.153611	-133.906954
0.700000	-18.585176	-127.411261	-0.113964	-41.772237	-0.113964	-41.772237	-18.601948	-137.273260
0.750000	-18.084671	-130.026033	-0.124688	-44.729647	-0.124688	-44.729647	-18.101232	-140.637834
0.800000	-17.629343	-132.628121	-0.135525	-47.684492	-0.135525	-47.684492	-17.645636	-144.000937
0.850000	-17.214791	-135.216728	-0.146398	-50.636623	-0.146398	-50.636623	-17.230778	-147.363090
0.900000	-16.836283	-137.792101	-0.157242	-53.586067	-0.157242	-53.586067	-16.851942	-150.725057
0.950000	-16.490832	-140.353841	-0.167998	-56.532731	-0.167998	-56.532731	-16.506155	-154.087714
1.000000	-16.175625	-142.901893	-0.178619	-59.476640	-0.178619	-59.476640	-16.190610	-157.452084
1.050000	-15.888265	-145.436268	-0.189060	-62.417902	-0.189060	-62.417902	-15.902918	-160.819282
1.100000	-15.626696	-147.957009	-0.199283	-65.356703	-0.199283	-65.356703	-15.641028	-164.190503
1.150000	-15.389148	-150.464172	-0.209249	-68.293307	-0.209249	-68.293307	-15.403172	-167.566993
1.200000	-15.174085	-152.957804	-0.218921	-71.228035	-0.218921	-71.228035	-15.187816	-170.950044
1.250000	-14.980170	-155.437927	-0.228263	-74.161260	-0.228263	-74.161260	-14.993622	-174.340979
1.300000	-14.806580	-157.904231	-0.237230	-77.093374	-0.237230	-77.093374	-14.819766	-177.741377
1.350000	-14.651933	-160.356939	-0.245797	-80.024848	-0.245797	-80.024848	-14.664863	178.847564
1.400000	-14.515324	-162.795925	-0.253934	-82.956141	-0.253934	-82.956141	-14.528006	175.424460
1.450000	-14.395952	-165.220993	-0.261614	-85.887726	-0.261614	-85.887726	-14.408390	171.987912
1.500000	-14.293105	-167.631877	-0.268814	-88.820087	-0.268814	-88.820087	-14.305300	168.536510
1.550000	-14.206144	-170.028232	-0.275518	-91.753715	-0.275518	-91.753715	-14.218092	165.068828
1.600000	-14.134496	-172.409632	-0.281710	-94.689106	-0.281710	-94.689106	-14.146192	161.583426
1.650000	-14.077643	-174.775570	-0.287382	-97.626756	-0.287382	-97.626756	-14.089077	158.078844
1.700000	-14.035110	-177.125455	-0.292532	-100.567159	-0.292532	-100.567159	-14.046272	154.553603
1.750000	-14.006460	-179.458612	-0.297159	-103.510803	-0.297159	-103.510803	-14.017338	151.006202
1.800000	-13.991289	178.225714	-0.301271	-106.458171	-0.301271	-106.458171	-14.001872	147.435112
1.850000	-13.989213	175.928358	-0.304878	-109.409734	-0.304878	-109.409734	-13.999492	143.838775
1.900000	-14.000003	173.650449	-0.307989	-112.366005	-0.307989	-112.366005	-14.009970	140.215291
1.950000	-14.023291	171.393002	-0.310626	-115.327443	-0.310626	-115.327443	-14.032945	136.562981
2.000000	-14.058592	169.156855	-0.312817	-118.294421	-0.312817	-118.294421	-14.067937	132.880479
2.050000	-14.105558	166.943109	-0.314589	-121.267346	-0.314589	-121.267346	-14.114606	129.166092
2.100000	-14.163838	164.752907	-0.315972	-124.246604	-0.315972	-124.246604	-14.172609	125.418097
2.150000	-14.233073	162.587429	-0.316999	-127.232559	-0.316999	-127.232559	-14.241595	121.634746
2.200000	-14.312887	160.447868	-0.317705	-130.225550	-0.317705	-130.225550	-14.321202	117.814272
2.250000	-14.402888	158.335422	-0.318127	-133.225897	-0.318127	-133.225897	-14.411044	113.954901
2.300000	-14.502658	156.251267	-0.318304	-136.233891	-0.318304	-136.233891	-14.510714	110.054868
2.350000	-14.611749	154.196537	-0.318276	-139.249803	-0.318276	-139.249803	-14.619774	106.112435
2.400000	-14.729680	152.172293	-0.318081	-142.273880	-0.318081	-142.273880	-14.737748	102.125915
2.450000	-14.855927	150.179489	-0.317760	-145.306343	-0.317760	-145.306343	-14.864118	98.093707
2.500000	-14.989924	148.218934	-0.317353	-148.347395	-0.317353	-148.347395	-14.998319	94.014335
2.550000	-15.131138	146.291968	-0.316898	-151.397410	-0.316898	-151.397410	-15.139818	89.885412
2.600000	-15.278766	144.398239	-0.316435	-154.456363	-0.316435	-154.456363	-15.287802	85.706900
2.650000	-15.432069	142.537781	-0.316000	-157.524397	-0.316000	-157.524397	-15.441521	81.478038
2.700000	-15.590248	140.710243	-0.315626	-160.601642	-0.315626	-160.601642	-15.600154	77.198437
2.750000	-15.752435	138.914808	-0.315346	-163.688217	-0.315346	-163.688217	-15.762810	72.868171
2.800000	-15.917693	137.150107	-0.315188	-166.784231	-0.315188	-166.784231	-15.928519	68.487872
2.850000	-16.085018	135.414121	-0.315180	-169.889787	-0.315180	-169.889787	-16.096239	64.058829
2.900000	-16.253340	133.704090	-0.315344	-173.004989	-0.315344	-173.004989	-16.264855	59.583103
2.950000	-16.421527	132.016404	-0.315702	-176.129939	-0.315702	-176.129939	-16.433183	55.063628
3.000000	-16.588392	130.346510	-0.316272	-179.264746	-0.316272	-179.264746	-16.599980	50.504325
3.050000	-16.752702	128.688819	-0.317067	177.590472	-0.317067	177.590472	-16.763957	45.910194
3.100000	-16.913190	127.036627	-0.318100	174.435582	-0.318100	174.435582	-16.923789	41.287398
3.150000	-17.068473	125.381927	-0.319383	171.270325	-0.319383	171.270325	-17.078031	36.643187
3.200000	-17.217230	123.715281	-0.320921	168.094524	-0.320921	168.094524	-17.225309	31.986525
3.250000	-17.358280	122.026346	-0.322717	164.908094	-0.322717	164.908094	-17.364402	27.327582
3.300000	-17.490391	120.303600	-0.324773	161.710808	-0.324773	161.710808	-17.494044	22.677451
3.350000	-17.612381	118.534464	-0.327088	158.502408	-0.327088	158.502408	-17.613032	18.048258
3.400000	-17.723130	116.705440	-0.329663	155.282597	-0.329663	155.282597	-17.720237	13.452992
3.450000	-17.821590	114.802309	-0.332497	152.051039	-0.332497	152.051039	-17.814616	8.905273
3.500000	-17.906786	112.810357	-0.335588	148.807353	-0.335588	148.807353	-17.895216	4.419086
3.550000	-17.977132	110.709273	-0.338949	145.550537	-0.338949	145.550537	-17.960466	0.012563
3.600000	-18.033293	108.495868	-0.342554	142.281387	-0.342554	142.281387	-18.011114	-4.309336
3.650000	-18.073646	106.149838	-0.346422	138.998686	-0.346422	138.998686	-18.045568	-8.529153
3.700000	-18.097406	103.657547	-0.350559	135.701849	-0.350559	135.701849	-18.063107	-12.634785
3.750000	-18.103783	101.006491	-0.354975	132.390237	-0.354975	132.390237	-18.063010	-16.615507
3.800000	-18.091119	98.177868	-0.359700	129.062442	-0.359700	129.062442	-18.043690	-20.456205
3.850000	-18.059276	95.169755	-0.364743	125.718336	-0.364743	125.718336	-18.005104	-24.155766
3.900000	-18.007285	91.975618	-0.370132	122.357088	-0.370132	122.357088	-17.946375	-27.710128
3.950000	-17.934103	88.591532	-0.375905	118.977805	-0.375905	118.977805	-17.866563	-31.117999
4.000000	-17.839930	85.026819	-0.382083	115.580596	-0.382083	115.580596	-17.765977	-34.388823
4.050000	-17.721391	81.264644	-0.388762	112.162588	-0.388762	112.162588	-17.641378	-37.513055
4.100000	-17.578335	77.318533	-0.395992	108.723506	-0.395992	108.723506	-17.492758	-40.505027
4.150000	-17.409704	73.196965	-0.403853	105.262201	-0.403853	105.262201	-17.319214	-43.375911
4.200000	-17.214586	68.911582	-0.412441	101.777460	-0.412441	101.777460	-17.119996	-46.139906
4.250000	-16.992286	64.476921	-0.421865	98.268010	-0.421865	98.268010	-16.894573	-48.813928
4.300000	-16.742407	59.909983	-0.432252	94.732514	-0.432252	94.732514	-16.642699	-51.417160
4.350000	-16.464912	55.229658	-0.443749	91.169577	-0.443749	91.169577	-16.364471	-53.970473
4.400000	-16.159759	50.455239	-0.456538	87.577416	-0.456538	87.577416	-16.059968	-56.495707
4.450000	-15.827723	45.607903	-0.470816	83.954473	-0.470816	83.954473	-15.730033	-59.015803
4.500000	-15.470461	40.708713	-0.486783	80.299502	-0.486783	80.299502	-15.376327	-61.552792
4.550000	-15.089620	35.776562	-0.504682	76.610898	-0.504682	76.610898	-15.000466	-64.127309
4.600000	-14.688132	30.828631	-0.524724	72.887917	-0.524724	72.887917	-14.605262	-66.756603
4.650000	-14.266533	25.879385	-0.547306	69.127332	-0.547306	69.127332	-14.191221	-69.460399
4.700000	-13.827884	20.941721	-0.572731	65.327995	-0.572731	65.327995	-13.761228	-72.252808
4.750000	-13.374514	16.025761	-0.601391	61.487937	-0.601391	61.487937	-13.317459	-75.147097
4.800000	-12.909285	11.138658	-0.633676	57.605742	-0.633676	57.605742	-12.862581	-78.152783
4.850000	-12.434701	6.285249	-0.670040	53.679680	-0.670040	53.679680	-12.398918	-81.277983
4.900000	-11.953177	1.468194	-0.710982	49.708042	-0.710982	49.708042	-11.928708	-84.528898
4.950000	-11.466996	-3.311732	-0.757050	45.689152	-0.757050	45.689152	-11.454068	-87.910050
5.000000	-10.978293	-8.055341	-0.808844	41.621384	-0.808844	41.621384	-10.976980	-91.424530
5.050000	-10.488708	-12.764327	-0.867108	37.502530	-0.867108	37.502530	-10.498963	-95.075963
5.100000	-10.000431	-17.442262	-0.932493	33.331760	-0.932493	33.331760	-10.022071	-98.863546
5.150000	-9.515117	-22.092965	-1.005782	29.107751	-1.005782	29.107751	-9.547859	-102.787385
5.200000	-9.034275	-26.720733	-1.087831	24.829340	-1.087831	24.829340	-9.077753	-106.846958
5.250000	-8.559283	-31.330130	-1.179565	20.495556	-1.179565	20.495556	-8.613062	-111.041228
5.300000	-8.091403	-35.925820	-1.281992	16.105660	-1.281992	16.105660	-8.154998	-115.368729
5.350000	-7.631796	-40.512411	-1.396200	11.659190	-1.396200	11.659190	-7.704680	-119.827615
5.400000	-7.181538	-45.094326	-1.523367	7.156006	-1.523367	7.156006	-7.263159	-124.415688
5.450000	-6.741535	-49.675731	-1.664889	2.595805	-1.664889	2.595805	-6.831320	-129.131596
5.500000	-6.312829	-54.260432	-1.822096	-2.020450	-1.822096	-2.020450	-6.410197	-133.971748
5.550000	-5.896375	-58.851679	-1.996402	-6.691306	-1.996402	-6.691306	-6.000736	-138.932215
5.600000	-5.493015	-63.452180	-2.189393	-11.415030	-2.189393	-11.415030	-5.603786	-144.009248
5.650000	-5.103550	-68.064041	-2.402771	-16.189268	-2.402771	-16.189268	-5.220153	-149.198632
5.700000	-4.728739	-72.688730	-2.638365	-21.010984	-2.638365	-21.010984	-4.850603	-154.495641
5.750000	-4.369293	-77.327041	-2.898145	-25.876385	-2.898145	-25.876385	-4.495860	-159.895005
5.800000	-4.025872	-81.979077	-3.184232	-30.780857	-3.184232	-30.780857	-4.156594	-165.390886
5.850000	-3.699106	-86.644309	-3.499009	-35.719015	-3.499009	-35.719015	-3.833447	-170.977261
5.900000	-3.389596	-91.321490	-3.845061	-40.684340	-3.845061	-40.684340	-3.527024	-176.647372
5.950000	-3.097764	-96.008556	-4.224931	-45.668880	-4.224931	-45.668880	-3.237759	177.607245
6.000000	-2.823982	-100.702984	-4.641617	-50.663808	-4.641617	-50.663808	-2.966031	171.794700
6.050000	-2.568527	-105.401737	-5.098469	-55.658941	-5.098469	-55.658941	-2.712120	165.923563
6.100000	-2.331574	-110.101346	-5.599272	-60.642518	-5.599272	-60.642518	-2.476204	160.002782
6.150000	-2.113191	-114.798020	-6.148382	-65.600880	-6.148382	-65.600880	-2.258351	154.041591
6.200000	-1.913330	-119.487750	-6.750889	-70.517990	-6.750889	-70.517990	-2.058516	148.049406
6.250000	-1.731834	-124.166432	-7.412866	-75.374693	-7.412866	-75.374693	-1.876540	142.035706
6.300000	-1.568648	-128.829706	-8.141824	-80.145904	-8.141824	-80.145904	-1.712362	136.009888
6.350000	-1.423179	-133.473801	-8.946729	-84.802574	-8.946729	-84.802574	-1.565402	129.981518
6.400000	-1.294940	-138.095045	-9.839242	-89.305414	-9.839242	-89.305414	-1.435179	123.959569
6.450000	-1.183358	-142.690114	-10.834557	-93.600465	-10.834557	-93.600465	-1.321130	117.952633
6.500000	-1.087779	-147.256118	-11.952976	-97.609772	-11.952976	-97.609772	-1.222617	111.968848
6.550000	-1.007488	-151.790658	-13.222367	-101.214114	-13.222367	-101.214114	-1.138942	106.015824
6.600000	-0.941719	-156.291875	-14.682045	-104.218955	-14.682045	-104.218955	-1.069364	100.100598
6.650000	-0.889672	-160.758472	-16.388853	-106.282173	-16.388853	-106.282173	-1.013110	94.229604
6.700000	-0.850640	-165.189384	-18.424128	-106.718042	-18.424128	-106.718042	-0.969500	88.409183
6.750000	-0.823714	-169.584635	-20.894296	-104.061663	-20.894296	-104.061663	-0.937663	82.644364
6.800000	-0.808002	-173.944811	-23.839483	-94.880999	-23.839483	-94.880999	-0.916747	76.939439
6.850000	-0.802690	-178.270839	-26.571266	-72.577087	-26.571266	-72.577087	-0.905974	71.298342
6.900000	-0.806982	177.435879	-26.632970	-40.010037	-26.632970	-40.010037	-0.904590	65.724435
6.950000	-0.820114	173.173509	-24.121908	-18.266238	-24.121908	-18.266238	-0.911867	60.220536
7.000000	-0.841357	168.939838	-21.458111	-9.275194	-21.458111	-9.275194	-0.927115	54.788950
7.050000	-0.870018	164.732316	-19.269926	-6.505384	-19.269926	-6.505384	-0.949677	49.431508
7.100000	-0.905476	160.548209	-17.507761	-6.647856	-17.507761	-6.647856	-0.978965	44.149967
7.150000	-0.947139	156.384480	-16.064429	-8.290474	-16.064429	-8.290474	-1.014416	38.945686
7.200000	-0.994379	152.237640	-14.857545	-10.773030	-14.857545	-10.773030	-1.055430	33.818522
7.250000	-1.046674	148.104284	-13.830088	-13.767552	-13.830088	-13.767552	-1.101508	28.768715
7.300000	-1.103544	143.980904	-12.942322	-17.090058	-12.942322	-17.090058	-1.152189	23.796191
7.350000	-1.164549	139.863933	-12.165849	-20.630581	-12.165849	-20.630581	-1.207047	18.900583
7.400000	-1.229286	135.749777	-11.479819	-24.320040	-11.479819	-24.320040	-1.265690	14.081259
7.450000	-1.297386	131.634854	-10.868535	-28.113319	-10.868535	-28.113319	-1.327757	9.337342
7.500000	-1.368513	127.515621	-10.319919	-31.980058	-10.319919	-31.980058	-1.392917	4.667730
7.550000	-1.442481	123.387840	-9.825841	-35.901854	-9.825841	-35.901854	-1.460997	0.075941
7.600000	-1.518714	119.249822	-9.375501	-39.857785	-9.375501	-39.857785	-1.531396	-4.450979
7.650000	-1.597217	115.096428	-8.965809	-43.842983	-8.965809	-43.842983	-1.604145	-8.903770
7.700000	-1.677623	110.926099	-8.590030	-47.847716	-8.590030	-47.847716	-1.678857	-13.290950
7.750000	-1.759757	106.735237	-8.244685	-51.867485	-8.244685	-51.867485	-1.755365	-17.611927
7.800000	-1.843407	102.522055	-7.925898	-55.898390	-7.925898	-55.898390	-1.833450	-21.870777
7.850000	-1.928416	98.282277	-7.631693	-59.938373	-7.631693	-59.938373	-1.912970	-26.065452
7.900000	-2.014574	94.014644	-7.359054	-63.985239	-7.359054	-63.985239	-1.993713	-30.200840
7.950000	-2.101709	89.717548	-7.105784	-68.037748	-7.105784	-68.037748	-2.075511	-34.279981
8.000000	-2.189654	85.389479	-6.870097	-72.095147	-6.870097	-72.095147	-2.158209	-38.305503
8.050000	-2.278246	81.029267	-6.650455	-76.156982	-6.650455	-76.156982	-2.241661	-42.280150
8.100000	-2.367325	76.636101	-6.445527	-80.223005	-6.445527	-80.223005	-2.325722	-46.206785
8.150000	-2.456716	72.208983	-6.254305	-84.293185	-6.254305	-84.293185	-2.410245	-50.087664
8.200000	-2.546245	67.747905	-6.075760	-88.367511	-6.075760	-88.367511	-2.495085	-53.926050
8.250000	-2.635757	63.253876	-5.908856	-92.445960	-5.908856	-92.445960	-2.580113	-57.725965
8.300000	-2.725082	58.727753	-5.752815	-96.528598	-5.752815	-96.528598	-2.665190	-61.490802
8.350000	-2.813933	54.168594	-5.607510	-100.615831	-5.607510	-100.615831	-2.750096	-65.221992
8.400000	-2.902322	49.582296	-5.471302	-104.707125	-5.471302	-104.707125	-2.834827	-68.927364
8.450000	-2.989992	44.969193	-5.344091	-108.802781	-5.344091	-108.802781	-2.919181	-72.608977
8.500000	-3.076763	40.331874	-5.225375	-112.902819	-5.225375	-112.902819	-3.003017	-76.270959
8.550000	-3.162643	35.674972	-5.114124	-117.006850	-5.114124	-117.006850	-3.086331	-79.918674
8.600000	-3.246972	30.997430	-5.011407	-121.115898	-5.011407	-121.115898	-3.168610	-83.553954
8.650000	-3.329958	26.306586	-4.915627	-125.229128	-4.915627	-125.229128	-3.250006	-87.184054
8.700000	-3.411360	21.605618	-4.826657	-129.346702	-4.826657	-129.346702	-3.330326	-90.813560
8.750000	-3.490881	16.898763	-4.744428	-133.468870	-4.744428	-133.468870	-3.409342	-94.448583
8.800000	-3.568636	12.190786	-4.668050	-137.595244	-4.668050	-137.595244	-3.487146	-98.094042
8.850000	-3.644230	7.486367	-4.597720	-141.726368	-4.597720	-141.726368	-3.563454	-101.757344
8.900000	-3.717694	2.790335	-4.532824	-145.862176	-4.532824	-145.862176	-3.638317	-105.444321
8.950000	-3.789047	-1.893419	-4.472886	-150.002706	-4.472886	-150.002706	-3.711789	-109.159901
9.000000	-3.857843	-6.557787	-4.418180	-154.148992	-4.418180	-154.148992	-3.783601	-112.915739
9.050000	-3.924426	-11.200621	-4.367794	-158.300750	-4.367794	-158.300750	-3.854072	-116.713539
9.100000	-3.988588	-15.816245	-4.321711	-162.458874	-4.321711	-162.458874	-3.923126	-120.562569
9.150000	-4.050259	-20.399228	-4.279721	-166.624275	-4.279721	-166.624275	-3.990796	-124.471619
9.200000	-4.109685	-24.948411	-4.241262	-170.797120	-4.241262	-170.797120	-4.057304	-128.442084
9.250000	-4.166576	-29.455477	-4.206472	-174.979336	-4.206472	-174.979336	-4.122511	-132.488644
9.300000	-4.221212	-33.919914	-4.174832	-179.171317	-4.174832	-179.171317	-4.186596	-136.612174
9.350000	-4.273660	-38.338954	-4.146122	176.625925	-4.146122	176.625925	-4.249562	-140.817914
9.400000	-4.323739	-42.704293	-4.120419	172.409792	-4.120419	172.409792	-4.311183	-145.121537
9.450000	-4.371818	-47.019170	-4.097229	168.180451	-4.097229	168.180451	-4.371540	-149.517926
9.500000	-4.417776	-51.276761	-4.076616	163.935396	-4.076616	163.935396	-4.430308	-154.020616
9.550000	-4.461749	-55.476182	-4.058390	159.673591	-4.058390	159.673591	-4.487278	-158.632397
9.600000	-4.503624	-59.610513	-4.042643	155.392233	-4.042643	155.392233	-4.541927	-163.367417
9.650000	-4.543606	-63.682682	-4.029136	151.091544	-4.029136	151.091544	-4.594076	-168.220978
9.700000	-4.581783	-67.693680	-4.017759	146.771414	-4.017759	146.771414	-4.643480	-173.191525
9.750000	-4.617805	-71.631777	-4.008861	142.427835	-4.008861	142.427835	-4.689177	-178.301196
9.800000	-4.651637	-75.496430	-4.002436	138.060714	-4.002436	138.060714	-4.730731	176.450472
9.850000	-4.683151	-79.286000	-3.998543	133.670078	-3.998543	133.670078	-4.767689	171.063283
9.900000	-4.712108	-82.997002	-3.997322	129.255952	-3.997322	129.255952	-4.799526	165.535489
9.950000	-4.738101	-86.623130	-3.999016	124.818313	-3.999016	124.818313	-4.825592	159.862958
10.000000	-4.760880	-90.163802	-4.003667	120.359508	-4.003667	120.359508	-4.845740	154.053837
