! freq	dB(S11)	phase(S11)	dB(S12)	phase(S12)	
!     	dB(S21)	phase(S21)	dB(S22)	phase(S22)	
!S-par simulation data
#  GHz  S  DB  R 50
0.000000	-88.194208	0.000000	-0.000338	0.000000	-0.000338	0.000000	-88.194208	0.000000
0.050000	-33.388912	-92.629680	-0.009029	-2.750720	-0.009029	-2.750720	-33.391612	-92.903676
0.100000	-27.387223	-95.396730	-0.017925	-5.465973	-0.017925	-5.465973	-27.390289	-95.944074
0.150000	-23.894474	-98.095423	-0.030562	-8.178212	-0.030562	-8.178212	-23.898040	-98.915086
0.200000	-21.433063	-100.746870	-0.047505	-10.881682	-0.047505	-10.881682	-21.437170	-101.837923
0.250000	-19.538279	-103.358592	-0.068468	-13.573315	-0.068468	-13.573315	-19.542898	-104.720500
0.300000	-18.003145	-105.936549	-0.093159	-16.251194	-0.093159	-16.251194	-18.008217	-107.569229
0.350000	-16.717268	-108.486138	-0.121278	-18.914129	-0.121278	-18.914129	-16.722730	-110.389925
0.400000	-15.614604	-111.011749	-0.152516	-21.561590	-0.152516	-21.561590	-15.620400	-113.187313
0.450000	-14.653096	-113.515716	-0.186683	-24.192822	-0.186683	-24.192822	-14.659182	-115.964017
0.500000	-13.803944	-115.999485	-0.223580	-26.807298	-0.223580	-26.807298	-13.810287	-118.721723
0.550000	-13.045783	-118.464591	-0.262917	-29.405363	-0.262917	-29.405363	-13.052359	-121.462101
0.600000	-12.364474	-120.909936	-0.304664	-31.985483	-0.304664	-31.985483	-12.371268	-124.184324
0.650000	-11.747815	-123.335991	-0.348571	-34.547800	-0.348571	-34.547800	-11.754819	-126.888980
0.700000	-11.186613	-125.742578	-0.394454	-37.092037	-0.394454	-37.092037	-11.193821	-129.576035
0.750000	-10.674127	-128.128634	-0.442187	-39.617164	-0.442187	-39.617164	-10.681536	-132.244648
0.800000	-10.204433	-130.493743	-0.491578	-42.122792	-0.491578	-42.122792	-10.212044	-134.894570
0.850000	-9.772168	-132.838269	-0.542397	-44.609277	-0.542397	-44.609277	-9.779982	-137.526242
0.900000	-9.373876	-135.160998	-0.594496	-47.075509	-0.594496	-47.075509	-9.381895	-140.138715
0.950000	-9.005955	-137.461917	-0.647663	-49.521506	-0.647663	-49.521506	-9.014182	-142.732122
1.000000	-8.665545	-139.740720	-0.701700	-51.947018	-0.701700	-51.947018	-8.673984	-145.306351
1.050000	-8.350014	-141.997491	-0.756402	-54.352166	-0.756402	-54.352166	-8.358668	-147.861641
1.100000	-8.057168	-144.232223	-0.811569	-56.736994	-0.811569	-56.736994	-8.066039	-150.398172
1.150000	-7.785203	-146.444754	-0.867004	-59.101421	-0.867004	-59.101421	-7.794297	-152.916009
1.200000	-7.532121	-148.635832	-0.922522	-61.446212	-0.922522	-61.446212	-7.541441	-155.415993
1.250000	-7.296607	-150.805320	-0.977938	-63.771335	-0.977938	-63.771335	-7.306157	-157.898246
1.300000	-7.077537	-152.953052	-1.033052	-66.076758	-1.033052	-66.076758	-7.087322	-160.362897
1.350000	-6.873481	-155.079847	-1.087704	-68.363357	-1.087704	-68.363357	-6.883506	-162.810893
1.400000	-6.683364	-157.186108	-1.141730	-70.631642	-1.141730	-70.631642	-6.693634	-165.242854
1.450000	-6.506219	-159.272280	-1.194975	-72.882179	-1.194975	-72.882179	-6.516740	-167.659450
1.500000	-6.341171	-161.338850	-1.247292	-75.115582	-1.247292	-75.115582	-6.351949	-170.061400
1.550000	-6.187428	-163.386337	-1.298544	-77.332510	-1.298544	-77.332510	-6.198469	-172.449460
1.600000	-6.044272	-165.415287	-1.348603	-79.533657	-1.348603	-79.533657	-6.055583	-174.824425
1.650000	-5.911048	-167.426271	-1.397347	-81.719747	-1.397347	-81.719747	-5.922639	-177.187120
1.700000	-5.787161	-169.419875	-1.444668	-83.891532	-1.444668	-83.891532	-5.799041	-179.538398
1.750000	-5.672070	-171.396702	-1.490464	-86.049785	-1.490464	-86.049785	-5.684248	178.120868
1.800000	-5.565280	-173.357361	-1.534640	-88.195293	-1.534640	-88.195293	-5.577766	175.789780
1.850000	-5.466337	-175.302471	-1.577113	-90.328859	-1.577113	-90.328859	-5.479143	173.467428
1.900000	-5.374896	-177.232496	-1.617783	-92.451182	-1.617783	-92.451182	-5.388036	171.152959
1.950000	-5.290572	-179.148076	-1.656581	-94.563106	-1.656581	-94.563106	-5.304060	168.845403
2.000000	-5.212952	178.950012	-1.693467	-96.665572	-1.693467	-96.665572	-5.226804	166.543729
2.050000	-5.141722	177.061156	-1.728387	-98.759400	-1.728387	-98.759400	-5.155953	164.246980
2.100000	-5.076594	175.184756	-1.761296	-100.845408	-1.761296	-100.845408	-5.091222	161.954195
2.150000	-5.017306	173.320220	-1.792152	-102.924412	-1.792152	-102.924412	-5.032352	159.664408
2.200000	-4.963620	171.466969	-1.820923	-104.997221	-1.820923	-104.997221	-4.979105	157.376649
2.250000	-4.915320	169.624438	-1.847580	-107.064637	-1.847580	-107.064637	-4.931265	155.089943
2.300000	-4.872208	167.792077	-1.872102	-109.127455	-1.872102	-109.127455	-4.888639	152.803315
2.350000	-4.834106	165.969356	-1.894472	-111.186462	-1.894472	-111.186462	-4.851048	150.515786
2.400000	-4.800853	164.155760	-1.914680	-113.242434	-1.914680	-113.242434	-4.818335	148.226376
2.450000	-4.772304	162.350796	-1.932718	-115.296136	-1.932718	-115.296136	-4.790356	145.934103
2.500000	-4.748330	160.553992	-1.948586	-117.348323	-1.948586	-117.348323	-4.766985	143.637984
2.550000	-4.728909	158.765059	-1.962239	-119.399739	-1.962239	-119.399739	-4.748203	141.336903
2.600000	-4.713842	156.983394	-1.973734	-121.451146	-1.973734	-121.451146	-4.733813	139.029957
2.650000	-4.703041	155.208602	-1.983082	-123.503262	-1.983082	-123.503262	-4.723728	136.716153
2.700000	-4.696428	153.440312	-1.990300	-125.556791	-1.990300	-125.556791	-4.717876	134.394499
2.750000	-4.693937	151.678183	-1.995408	-127.612426	-1.995408	-127.612426	-4.716193	132.063997
2.800000	-4.695515	149.921906	-1.998429	-129.670844	-1.998429	-129.670844	-4.718628	129.723644
2.850000	-4.701116	148.171199	-1.999392	-131.732708	-1.999392	-131.732708	-4.725141	127.372433
2.900000	-4.710705	146.425818	-1.998327	-133.798670	-1.998327	-133.798670	-4.735699	125.009352
2.950000	-4.724256	144.685551	-1.995269	-135.869365	-1.995269	-135.869365	-4.750281	122.633382
3.000000	-4.741751	142.950226	-1.990256	-137.945414	-1.990256	-137.945414	-4.768876	120.243495
3.050000	-4.763182	141.219709	-1.983329	-140.027425	-1.983329	-140.027425	-4.791478	117.838654
3.100000	-4.788548	139.493906	-1.974533	-142.115987	-1.974533	-142.115987	-4.818093	115.417816
3.150000	-4.817896	137.772821	-1.963896	-144.211761	-1.963896	-144.211761	-4.848776	112.979724
3.200000	-4.851241	136.056451	-1.951471	-146.315325	-1.951471	-146.315325	-4.883547	110.523273
3.250000	-4.888561	134.344798	-1.937331	-148.427142	-1.937331	-148.427142	-4.922393	108.047563
3.300000	-4.929882	132.637963	-1.921533	-150.547739	-1.921533	-150.547739	-4.965348	105.551495
3.350000	-4.975240	130.936106	-1.904137	-152.677622	-1.904137	-152.677622	-5.012455	103.033951
3.400000	-5.024671	129.239444	-1.885207	-154.817280	-1.885207	-154.817280	-5.063762	100.493794
3.450000	-5.078221	127.548258	-1.864807	-156.967184	-1.864807	-156.967184	-5.119326	97.929866
3.500000	-5.135939	125.862895	-1.843005	-159.127785	-1.843005	-159.127785	-5.179207	95.340985
3.550000	-5.197877	124.183772	-1.819873	-161.299513	-1.819873	-161.299513	-5.243472	92.725942
3.600000	-5.264094	122.511384	-1.795485	-163.482779	-1.795485	-163.482779	-5.312194	90.083501
3.650000	-5.334649	120.846305	-1.769916	-165.677969	-1.769916	-165.677969	-5.385449	87.412392
3.700000	-5.409606	119.189192	-1.743245	-167.885448	-1.743245	-167.885448	-5.463319	84.711312
3.750000	-5.489030	117.540795	-1.715554	-170.105559	-1.715554	-170.105559	-5.545891	81.978917
3.800000	-5.573069	115.902191	-1.686904	-172.338906	-1.686904	-172.338906	-5.633339	79.213078
3.850000	-5.661707	114.274144	-1.657405	-174.585504	-1.657405	-174.585504	-5.725668	76.413038
3.900000	-5.755009	112.657721	-1.627146	-176.845615	-1.627146	-176.845615	-5.822973	73.577308
3.950000	-5.853040	111.054100	-1.596214	-179.119475	-1.596214	-179.119475	-5.925348	70.704340
4.000000	-5.955860	109.464584	-1.564703	178.592709	-1.564703	178.592709	-6.032889	67.792526
4.050000	-6.063524	107.890603	-1.532703	176.290762	-1.532703	176.290762	-6.145690	64.840185
4.100000	-6.176084	106.333723	-1.500309	173.974537	-1.500309	173.974537	-6.263844	61.845558
4.150000	-6.293579	104.795655	-1.467616	171.643919	-1.467616	171.643919	-6.387440	58.806806
4.200000	-6.416042	103.278258	-1.434721	169.298825	-1.434721	169.298825	-6.516561	55.721994
4.250000	-6.543491	101.783545	-1.401719	166.939206	-1.401719	166.939206	-6.651286	52.589089
4.300000	-6.675931	100.313695	-1.368707	164.565046	-1.368707	164.565046	-6.791683	49.405945
4.350000	-6.813345	98.871052	-1.335783	162.176364	-1.335783	162.176364	-6.937807	46.170299
4.400000	-6.955724	97.458487	-1.303045	159.773056	-1.303045	159.773056	-7.089733	42.879134
4.450000	-7.102996	96.078787	-1.270593	157.355216	-1.270593	157.355216	-7.247479	39.529825
4.500000	-7.255039	94.734511	-1.238521	154.923127	-1.238521	154.923127	-7.411010	36.120279
4.550000	-7.411720	93.428711	-1.206925	152.476951	-1.206925	152.476951	-7.580299	32.647644
4.600000	-7.572871	92.164610	-1.175896	150.016884	-1.175896	150.016884	-7.755288	29.108905
4.650000	-7.738274	90.945590	-1.145526	147.543159	-1.145526	147.543159	-7.935882	25.500871
4.700000	-7.907659	89.775176	-1.115903	145.056042	-1.115903	145.056042	-8.121943	21.820175
4.750000	-8.080696	88.657020	-1.087113	142.555831	-1.087113	142.555831	-8.313279	18.063275
4.800000	-8.256991	87.594869	-1.059240	140.042860	-1.059240	140.042860	-8.509640	14.226454
4.850000	-8.436071	86.592524	-1.032362	137.517492	-1.032362	137.517492	-8.710706	10.305837
4.900000	-8.617383	85.653799	-1.006557	134.980120	-1.006557	134.980120	-8.916079	6.297408
4.950000	-8.800284	84.782450	-0.981896	132.431167	-0.981896	132.431167	-9.125268	2.197043
5.000000	-8.984033	83.982107	-0.958447	129.871080	-0.958447	129.871080	-9.337679	-1.999445
5.050000	-9.167681	83.257868	-0.936302	127.300112	-0.936302	127.300112	-9.552524	-6.298521
5.100000	-9.350336	82.611240	-0.915494	124.719003	-0.915494	124.719003	-9.769000	-10.702189
5.150000	-9.530934	82.044804	-0.896077	122.128268	-0.896077	122.128268	-9.986123	-15.214339
5.200000	-9.708298	81.560531	-0.878099	119.528442	-0.878099	119.528442	-10.202758	-19.838518
5.250000	-9.881151	81.159628	-0.861602	116.920073	-0.861602	116.920073	-10.417609	-24.577765
5.300000	-10.048123	80.842371	-0.846624	114.303720	-0.846624	114.303720	-10.629220	-29.434404
5.350000	-10.207765	80.607943	-0.833196	111.679953	-0.833196	111.679953	-10.835968	-34.409826
5.400000	-10.358578	80.454279	-0.821344	109.049348	-0.821344	109.049348	-11.036081	-39.504226
5.450000	-10.499036	80.377928	-0.811090	106.412482	-0.811090	106.412482	-11.227651	-44.716342
5.500000	-10.627627	80.373952	-0.802447	103.769934	-0.802447	103.769934	-11.408663	-50.043186
5.550000	-10.742894	80.435877	-0.795425	101.122280	-0.795425	101.122280	-11.577043	-55.479800
5.600000	-10.843482	80.555693	-0.790029	98.470093	-0.790029	98.470093	-11.730706	-61.019055
5.650000	-10.927992	80.724343	-0.786275	95.813898	-0.786275	95.813898	-11.867403	-66.652405
5.700000	-10.995397	80.930666	-0.784156	93.154268	-0.784156	93.154268	-11.985207	-72.367625
5.750000	-11.045119	81.162259	-0.783643	90.491785	-0.783643	90.491785	-12.082667	-78.149605
5.800000	-11.076668	81.406521	-0.784720	87.826974	-0.784720	87.826974	-12.158419	-83.982327
5.850000	-11.089845	81.650478	-0.787368	85.160342	-0.787368	85.160342	-12.211467	-89.848256
5.900000	-11.084747	81.881162	-0.791561	82.492378	-0.791561	82.492378	-12.241229	-95.728863
5.950000	-11.061760	82.085990	-0.797273	79.823552	-0.797273	79.823552	-12.247569	-101.605239
6.000000	-11.021538	82.253111	-0.804473	77.154311	-0.804473	77.154311	-12.230803	-107.458730
6.050000	-10.964973	82.371706	-0.813125	74.485079	-0.813125	74.485079	-12.191670	-113.271561
6.100000	-10.893151	82.432220	-0.823194	71.816257	-0.823194	71.816257	-12.131296	-119.027385
6.150000	-10.807308	82.426520	-0.834642	69.148223	-0.834642	69.148223	-12.051119	-124.711714
6.200000	-10.708783	82.347973	-0.847426	66.481330	-0.847426	66.481330	-11.952826	-130.312226
6.250000	-10.598972	82.191456	-0.861505	63.815906	-0.861505	63.815906	-11.838264	-135.818914
6.300000	-10.479066	81.951477	-0.876860	61.152300	-0.876860	61.152300	-11.709055	-141.221780
6.350000	-10.350728	81.627513	-0.893420	58.490758	-0.893420	58.490758	-11.567534	-146.517595
6.400000	-10.215296	81.218557	-0.911139	55.831535	-0.911139	55.831535	-11.415610	-151.703137
6.450000	-10.074039	80.724657	-0.929971	53.174861	-0.929971	53.174861	-11.255102	-156.776987
6.500000	-9.928133	80.146752	-0.949872	50.520946	-0.949872	50.520946	-11.087707	-161.739263
6.550000	-9.778661	79.486516	-0.970795	47.869976	-0.970795	47.869976	-10.914981	-166.591348
6.600000	-9.626601	78.746208	-0.992697	45.222120	-0.992697	45.222120	-10.738325	-171.335629
6.650000	-9.472828	77.928534	-1.015532	42.577525	-1.015532	42.577525	-10.558986	-175.975259
6.700000	-9.318119	77.036528	-1.039258	39.936320	-1.039258	39.936320	-10.378055	179.486056
6.750000	-9.163153	76.073443	-1.063832	37.298620	-1.063832	37.298620	-10.196479	175.044230
6.800000	-9.008520	75.042669	-1.089212	34.664521	-1.089212	34.664521	-10.015070	170.694954
6.850000	-8.854728	73.947658	-1.115359	32.034107	-1.115359	32.034107	-9.834513	166.433812
6.900000	-8.702198	72.791244	-1.142241	29.407492	-1.142241	29.407492	-9.655367	162.257235
6.950000	-8.551305	71.576951	-1.169818	26.784735	-1.169818	26.784735	-9.478124	158.160713
7.000000	-8.402365	70.308770	-1.198047	24.165846	-1.198047	24.165846	-9.303193	154.139096
7.050000	-8.255626	68.989923	-1.226895	21.550864	-1.226895	21.550864	-9.130886	150.188300
7.100000	-8.111288	67.623510	-1.256327	18.939822	-1.256327	18.939822	-8.961447	146.304423
7.150000	-7.969510	66.212494	-1.286313	16.332747	-1.286313	16.332747	-8.795067	142.483761
7.200000	-7.830418	64.759698	-1.316821	13.729662	-1.316821	13.729662	-8.631889	138.722814
7.250000	-7.694105	63.267797	-1.347824	11.130584	-1.347824	11.130584	-8.472018	135.018290
7.300000	-7.560641	61.739323	-1.379291	8.535529	-1.379291	8.535529	-8.315524	131.367102
7.350000	-7.430073	60.176660	-1.411198	5.944509	-1.411198	5.944509	-8.162451	127.766365
7.400000	-7.302428	58.582054	-1.443517	3.357538	-1.443517	3.357538	-8.012818	124.213385
7.450000	-7.177721	56.957615	-1.476225	0.774628	-1.476225	0.774628	-7.866629	120.705654
7.500000	-7.055950	55.305320	-1.509296	-1.804211	-1.509296	-1.804211	-7.723871	117.240840
7.550000	-6.937135	53.626498	-1.542712	-4.378874	-1.542712	-4.378874	-7.584545	113.817615
7.600000	-6.821231	51.923483	-1.576445	-6.949436	-1.576445	-6.949436	-7.448596	110.433043
7.650000	-6.708213	50.197892	-1.610471	-9.515880	-1.610471	-9.515880	-7.315982	107.085267
7.700000	-6.598048	48.451235	-1.644769	-12.078189	-1.644769	-12.078189	-7.186657	103.772561
7.750000	-6.490704	46.684926	-1.679316	-14.636341	-1.679316	-14.636341	-7.060574	100.493326
7.800000	-6.386143	44.900284	-1.714091	-17.190314	-1.714091	-17.190314	-6.937681	97.246078
7.850000	-6.284325	43.098543	-1.749071	-19.740082	-1.749071	-19.740082	-6.817925	94.029438
7.900000	-6.185212	41.280855	-1.784232	-22.285620	-1.784232	-22.285620	-6.701256	90.842124
7.950000	-6.088764	39.448297	-1.819553	-24.826897	-1.819553	-24.826897	-6.587621	87.682947
8.000000	-5.994940	37.601874	-1.855010	-27.363885	-1.855010	-27.363885	-6.476972	84.550797
8.050000	-5.903703	35.742523	-1.890577	-29.896551	-1.890577	-29.896551	-6.369258	81.444642
8.100000	-5.815015	33.871122	-1.926230	-32.424864	-1.926230	-32.424864	-6.264436	78.363517
8.150000	-5.728858	31.988375	-1.961942	-34.948743	-1.961942	-34.948743	-6.162478	75.306774
8.200000	-5.645198	30.095071	-1.997684	-37.468157	-1.997684	-37.468157	-6.063344	72.273542
8.250000	-5.563987	28.192040	-2.033429	-39.983122	-2.033429	-39.983122	-5.966980	69.262769
8.300000	-5.485194	26.279944	-2.069148	-42.493610	-2.069148	-42.493610	-5.873349	66.273712
8.350000	-5.408843	24.359172	-2.104803	-44.999464	-2.104803	-44.999464	-5.782471	63.306259
8.400000	-5.334733	22.431095	-2.140387	-47.501127	-2.140387	-47.501127	-5.694136	60.357671
8.450000	-5.263113	20.495079	-2.175826	-49.997874	-2.175826	-49.997874	-5.608594	57.430419
8.500000	-5.193726	18.552588	-2.211123	-52.490308	-2.211123	-52.490308	-5.525580	54.521265
8.550000	-5.126696	16.603571	-2.246218	-54.978070	-2.246218	-54.978070	-5.445215	51.631092
8.600000	-5.061973	14.648577	-2.281080	-57.461248	-2.281080	-57.461248	-5.367447	48.758992
8.650000	-4.999478	12.688224	-2.315684	-59.940027	-2.315684	-59.940027	-5.292189	45.903746
8.700000	-4.939383	10.722364	-2.349948	-62.413985	-2.349948	-62.413985	-5.219616	43.066492
8.750000	-4.881394	8.752104	-2.383904	-64.883848	-2.383904	-64.883848	-5.149418	40.244157
8.800000	-4.825916	6.776770	-2.417397	-67.348700	-2.417397	-67.348700	-5.082014	37.439666
8.850000	-4.772542	4.797590	-2.450499	-69.809538	-2.450499	-69.809538	-5.016972	34.649183
8.900000	-4.721580	2.814182	-2.483073	-72.265745	-2.483073	-72.265745	-4.954613	31.874586
8.950000	-4.672846	0.827158	-2.515131	-74.717815	-2.515131	-74.717815	-4.894735	29.113972
9.000000	-4.626432	-1.163411	-2.546598	-77.165673	-2.546598	-77.165673	-4.837430	26.367418
9.050000	-4.582393	-3.157400	-2.577412	-79.609347	-2.577412	-79.609347	-4.782747	23.634712
9.100000	-4.540583	-5.154387	-2.607580	-82.049267	-2.607580	-82.049267	-4.730526	20.914354
9.150000	-4.501316	-7.154640	-2.636939	-84.485048	-2.636939	-84.485048	-4.681090	18.207584
9.200000	-4.464235	-9.157514	-2.665586	-86.917498	-2.665586	-86.917498	-4.634051	15.511773
9.250000	-4.429803	-11.163444	-2.693290	-89.346105	-2.693290	-89.346105	-4.589890	12.828698
9.300000	-4.397655	-13.171861	-2.720164	-91.771659	-2.720164	-91.771659	-4.548207	10.155874
9.350000	-4.368096	-15.182998	-2.746035	-94.194004	-2.746035	-94.194004	-4.509316	7.494041
9.400000	-4.341027	-17.196648	-2.770908	-96.613549	-2.770908	-96.613549	-4.473097	4.842073
9.450000	-4.316490	-19.212772	-2.794730	-99.030552	-2.794730	-99.030552	-4.439582	2.199426
9.500000	-4.294678	-21.231489	-2.817375	-101.445155	-2.817375	-101.445155	-4.408958	-0.433931
9.550000	-4.275341	-23.252503	-2.838928	-103.857907	-2.838928	-103.857907	-4.380950	-3.059565
9.600000	-4.258995	-25.276253	-2.859115	-106.268829	-2.859115	-106.268829	-4.356078	-5.676694
9.650000	-4.245175	-27.302279	-2.878131	-108.678567	-2.878131	-108.678567	-4.333843	-8.287376
9.700000	-4.234427	-29.331057	-2.895684	-111.087309	-2.895684	-111.087309	-4.314793	-10.891073
9.750000	-4.226434	-31.362289	-2.911911	-113.495565	-2.911911	-113.495565	-4.298583	-13.489287
9.800000	-4.221492	-33.396242	-2.926644	-115.903744	-2.926644	-115.903744	-4.285500	-16.082282
9.850000	-4.219621	-35.432941	-2.939862	-118.312307	-2.939862	-118.312307	-4.275542	-18.670868
9.900000	-4.220781	-37.472367	-2.951572	-120.721720	-2.951572	-120.721720	-4.268654	-21.255942
9.950000	-4.225368	-39.514901	-2.961570	-123.132620	-2.961570	-123.132620	-4.265212	-23.837977
10.000000	-4.232966	-41.560190	-2.970062	-125.545288	-2.970062	-125.545288	-4.264782	-26.418142
