! freq	dB(S11)	phase(S11)	dB(S12)	phase(S12)	
!     	dB(S21)	phase(S21)	dB(S22)	phase(S22)	
!S-par simulation data
#  GHz  S  DB  R 50
0.000000	-82.755803	0.000000	-0.000632	0.000000	-0.000632	0.000000	-82.755803	0.000000
0.050000	-42.504697	-91.420222	-0.004430	-2.802297	-0.004430	-2.802297	-42.501061	-91.078874
0.100000	-36.608724	-94.944460	-0.011060	-5.572483	-0.011060	-5.572483	-36.601590	-94.130194
0.150000	-33.155363	-98.322613	-0.016937	-8.326461	-0.016937	-8.326461	-33.148802	-97.079491
0.200000	-30.712313	-101.576356	-0.022231	-11.076634	-0.022231	-11.076634	-30.705589	-99.918451
0.250000	-28.832915	-104.743937	-0.027437	-13.825858	-0.027437	-13.825858	-28.825539	-102.674896
0.300000	-27.315251	-107.857104	-0.032887	-16.574099	-0.032887	-16.574099	-27.307185	-105.376217
0.350000	-26.049654	-110.933309	-0.038695	-19.320683	-0.038695	-19.320683	-26.041079	-108.037963
0.400000	-24.969908	-113.983645	-0.044874	-22.065004	-0.044874	-22.065004	-24.961072	-110.670146
0.450000	-24.039450	-117.011161	-0.051474	-24.805842	-0.051474	-24.805842	-24.030648	-113.273985
0.500000	-23.224071	-120.024587	-0.058367	-27.543254	-0.058367	-27.543254	-23.215519	-115.858467
0.550000	-22.505520	-123.026430	-0.065489	-30.276600	-0.065489	-30.276600	-22.497404	-118.425190
0.600000	-21.869814	-126.019327	-0.072721	-33.005482	-0.072721	-33.005482	-21.862274	-120.976068
0.650000	-21.305454	-129.005882	-0.079905	-35.729932	-0.079905	-35.729932	-21.298586	-123.513212
0.700000	-20.803669	-131.988147	-0.086867	-38.450366	-0.086867	-38.450366	-20.797528	-126.038103
0.750000	-20.357332	-134.967857	-0.093459	-41.167697	-0.093459	-41.167697	-20.351945	-128.551884
0.800000	-19.961098	-137.946498	-0.099593	-43.883192	-0.099593	-43.883192	-19.956475	-131.055238
0.850000	-19.611803	-140.925513	-0.105264	-46.598267	-0.105264	-46.598267	-19.607945	-133.548250
0.900000	-19.304531	-143.906237	-0.110607	-49.313980	-0.110607	-49.313980	-19.301430	-136.031656
0.950000	-19.037092	-146.890018	-0.115759	-52.030667	-0.115759	-52.030667	-19.034743	-138.505318
1.000000	-18.807298	-149.878232	-0.120827	-54.748056	-0.120827	-54.748056	-18.805698	-140.969123
1.050000	-18.613427	-152.872319	-0.125839	-57.465610	-0.125839	-57.465610	-18.612582	-143.422796
1.100000	-18.454166	-155.873816	-0.130752	-60.182887	-0.130752	-60.182887	-18.454092	-145.865896
1.150000	-18.328562	-158.884387	-0.135483	-62.899730	-0.135483	-62.899730	-18.329286	-148.297812
1.200000	-18.235993	-161.905863	-0.139939	-65.616275	-0.139939	-65.616275	-18.237553	-150.717735
1.250000	-18.176146	-164.940276	-0.144037	-68.332890	-0.144037	-68.332890	-18.178598	-153.124630
1.300000	-18.149732	-167.990301	-0.147699	-71.050123	-0.147699	-71.050123	-18.153147	-155.516843
1.350000	-18.156356	-171.058279	-0.150886	-73.768587	-0.150886	-73.768587	-18.160821	-157.892997
1.400000	-18.196635	-174.147221	-0.153570	-76.488941	-0.153570	-76.488941	-18.202256	-160.251018
1.450000	-18.271528	-177.260625	-0.155737	-79.211859	-0.155737	-79.211859	-18.278431	-162.588310
1.500000	-18.382367	179.597391	-0.157386	-81.938021	-0.157386	-81.938021	-18.390701	-164.901619
1.550000	-18.530910	176.421925	-0.158531	-84.668099	-0.158531	-84.668099	-18.540846	-167.186841
1.600000	-18.719405	173.207056	-0.159197	-87.402751	-0.159197	-87.402751	-18.731143	-169.438769
1.650000	-18.950686	169.945524	-0.159417	-90.142616	-0.159417	-90.142616	-18.964456	-171.650745
1.700000	-19.228293	166.628283	-0.159236	-92.888308	-0.159236	-92.888308	-19.244362	-173.814162
1.750000	-19.556646	163.243855	-0.158708	-95.640413	-0.158708	-95.640413	-19.575324	-175.917773
1.800000	-19.941274	159.777398	-0.157896	-98.399485	-0.157896	-98.399485	-19.962919	-177.946664
1.850000	-20.389138	156.209291	-0.156869	-101.166041	-0.156869	-101.166041	-20.414166	-179.880731
1.900000	-20.909595	152.511171	-0.155708	-103.940647	-0.155708	-103.940647	-20.938487	178.309432
1.950000	-21.514095	148.644265	-0.154500	-106.723746	-0.154500	-106.723746	-21.547400	176.664680
2.000000	-22.217024	144.555233	-0.153342	-109.515627	-0.153342	-109.515627	-22.255351	175.241874
2.050000	-23.038151	140.161951	-0.152332	-112.316609	-0.152332	-112.316609	-23.082128	174.128869
2.100000	-24.004255	135.335520	-0.151577	-115.126953	-0.151577	-115.126953	-24.054390	173.464129
2.150000	-25.152248	129.862400	-0.151187	-117.946856	-0.151187	-117.946856	-25.208533	173.477499
2.200000	-26.533383	123.365025	-0.151275	-120.776447	-0.151275	-120.776447	-26.594112	174.575158
2.250000	-28.216345	115.122372	-0.151959	-123.615785	-0.151959	-123.615785	-28.274459	177.528607
2.300000	-30.273514	103.643281	-0.153360	-126.464854	-0.153360	-126.464854	-30.304646	-176.093856
2.350000	-32.660191	85.771867	-0.155597	-129.323560	-0.155597	-129.323560	-32.586562	-163.140384
2.400000	-34.648104	56.775456	-0.158793	-132.191732	-0.158793	-132.191732	-34.309717	-139.640897
2.450000	-34.361133	20.189144	-0.163066	-135.069119	-0.163066	-135.069119	-33.811642	-110.454779
2.500000	-31.926773	-7.771543	-0.168536	-137.955388	-0.168536	-137.955388	-31.450912	-89.833720
2.550000	-29.217042	-24.611886	-0.175347	-140.850298	-0.175347	-140.850298	-28.860499	-79.303131
2.600000	-26.873200	-35.623844	-0.183582	-143.753157	-0.183582	-143.753157	-26.598804	-74.206519
2.650000	-24.900865	-43.678817	-0.193345	-146.663389	-0.193345	-146.663389	-24.679779	-71.954364
2.700000	-23.222998	-50.122776	-0.204731	-149.580344	-0.204731	-149.580344	-23.037739	-71.288925
2.750000	-21.771890	-55.615640	-0.217828	-152.503301	-0.217828	-152.503301	-21.611833	-71.576976
2.800000	-20.497654	-60.507304	-0.232713	-155.431473	-0.232713	-155.431473	-20.356062	-72.476050
2.850000	-19.364370	-64.997308	-0.249453	-158.364016	-0.249453	-158.364016	-19.236770	-73.787635
2.900000	-18.345885	-69.206599	-0.268102	-161.300032	-0.268102	-161.300032	-18.229180	-75.389552
2.950000	-17.422933	-73.215006	-0.288666	-164.238549	-0.288666	-164.238549	-17.314903	-77.199834
3.000000	-16.580356	-77.066841	-0.311257	-167.178665	-0.311257	-167.178665	-16.479354	-79.172082
3.050000	-15.807032	-80.801647	-0.335843	-170.119311	-0.335843	-170.119311	-15.711809	-81.264154
3.100000	-15.093947	-84.443946	-0.362422	-173.059460	-0.362422	-173.059460	-15.003534	-83.449109
3.150000	-14.433876	-88.010920	-0.390996	-175.998056	-0.390996	-175.998056	-14.347506	-85.707347
3.200000	-13.820966	-91.515809	-0.421531	-178.934041	-0.421531	-178.934041	-13.738025	-88.023243
3.250000	-13.250355	-94.968784	-0.453966	178.133596	-0.453966	178.133596	-13.170343	-90.384383
3.300000	-12.717967	-98.377075	-0.488240	175.205855	-0.488240	175.205855	-12.640475	-92.781365
3.350000	-12.220352	-101.746209	-0.524277	172.283703	-0.524277	172.283703	-12.145044	-95.206580
3.400000	-11.754563	-105.080452	-0.561990	169.368068	-0.561990	169.368068	-11.681159	-97.653785
3.450000	-11.318053	-108.383128	-0.601275	166.459829	-0.601275	166.459829	-11.246321	-100.117800
3.500000	-10.908605	-111.656847	-0.642018	163.559809	-0.642018	163.559809	-10.838352	-102.594282
3.550000	-10.524270	-114.903687	-0.684093	160.668765	-0.684093	160.668765	-10.455337	-105.079567
3.600000	-10.163324	-118.125315	-0.727365	157.787388	-0.727365	157.787388	-10.095580	-107.570547
3.650000	-9.824229	-121.323095	-0.771687	154.916292	-0.771687	154.916292	-9.757568	-110.064578
3.700000	-9.505607	-124.498163	-0.816907	152.056009	-0.816907	152.056009	-9.439945	-112.559409
3.750000	-9.206215	-127.651486	-0.862865	149.206993	-0.862865	149.206993	-9.141485	-115.053132
3.800000	-8.925113	-130.783473	-0.909397	146.369869	-0.909397	146.369869	-8.861265	-117.544043
3.850000	-8.661093	-133.895356	-0.956323	143.544665	-0.956323	143.544665	-8.598092	-120.030834
3.900000	-8.413216	-136.987839	-1.003467	140.731564	-1.003467	140.731564	-8.351039	-122.512406
3.950000	-8.180622	-140.061594	-1.050655	137.930665	-1.050655	137.930665	-8.119258	-124.987871
4.000000	-7.962521	-143.117282	-1.097710	135.141975	-1.097710	135.141975	-7.901969	-127.456533
4.050000	-7.758186	-146.155559	-1.144454	132.365419	-1.144454	132.365419	-7.698453	-129.917873
4.100000	-7.566949	-149.177094	-1.190712	129.600834	-1.190712	129.600834	-7.508050	-132.371534
4.150000	-7.388190	-152.182569	-1.236310	126.847977	-1.236310	126.847977	-7.330147	-134.817310
4.200000	-7.221342	-155.172688	-1.281076	124.106524	-1.281076	124.106524	-7.164183	-137.255134
4.250000	-7.065878	-158.148180	-1.324844	121.376076	-1.324844	121.376076	-7.009637	-139.685068
4.300000	-6.921316	-161.109801	-1.367447	118.656158	-1.367447	118.656158	-6.866031	-142.107298
4.350000	-6.787211	-164.058335	-1.408729	115.946227	-1.408729	115.946227	-6.732925	-144.522122
4.400000	-6.663242	-166.994471	-1.448515	113.245764	-1.448515	113.245764	-6.610002	-146.929874
4.450000	-6.549032	-169.919077	-1.486653	110.554068	-1.486653	110.554068	-6.496891	-149.331080
4.500000	-6.444155	-172.833155	-1.523019	107.870296	-1.523019	107.870296	-6.393166	-151.726421
4.550000	-6.348302	-175.737596	-1.557479	105.193650	-1.557479	105.193650	-6.298523	-154.116589
4.600000	-6.261196	-178.633315	-1.589904	102.523277	-1.589904	102.523277	-6.212689	-156.502363
4.650000	-6.182592	178.478753	-1.620174	99.858272	-1.620174	99.858272	-6.135419	-158.884598
4.700000	-6.112271	175.597656	-1.648175	97.197682	-1.648175	97.197682	-6.066502	-161.264226
4.750000	-6.050045	172.722427	-1.673800	94.540508	-1.673800	94.540508	-6.005750	-163.642250
4.800000	-5.995753	169.852087	-1.696952	91.885706	-1.696952	91.885706	-5.953009	-166.019743
4.850000	-5.949264	166.985649	-1.717541	89.232192	-1.717541	89.232192	-5.908150	-168.397845
4.900000	-5.910472	164.122120	-1.735484	86.578840	-1.735484	86.578840	-5.871073	-170.777760
4.950000	-5.879300	161.260504	-1.750709	83.924490	-1.750709	83.924490	-5.841709	-173.160756
5.000000	-5.855701	158.399810	-1.763149	81.267942	-1.763149	81.267942	-5.820013	-175.548161
5.050000	-5.839900	155.539018	-1.772654	78.607817	-1.772654	78.607817	-5.806224	-177.941597
5.100000	-5.831664	152.677118	-1.779270	75.942911	-1.779270	75.942911	-5.800112	179.657614
5.150000	-5.831034	149.813151	-1.782959	73.271924	-1.782959	73.271924	-5.801728	177.247954
5.200000	-5.838080	146.946180	-1.783694	70.593530	-1.783694	70.593530	-5.811153	174.827846
5.250000	-5.852480	144.075540	-1.781618	67.906898	-1.781618	67.906898	-5.828069	172.396366
5.300000	-5.875130	141.199975	-1.776434	65.209797	-1.776434	65.209797	-5.853397	169.950642
5.350000	-5.905862	138.318808	-1.768272	62.501179	-1.768272	62.501179	-5.886981	167.489405
5.400000	-5.944885	135.431259	-1.757148	59.779617	-1.757148	59.779617	-5.929044	165.010827
5.450000	-5.992444	132.536608	-1.743086	57.043663	-1.743086	57.043663	-5.979852	162.513009
5.500000	-6.048826	129.634215	-1.726122	54.291851	-1.726122	54.291851	-6.039714	159.993981
5.550000	-6.114361	126.723526	-1.706308	51.522701	-1.706308	51.522701	-6.108984	157.451699
5.600000	-6.189428	123.804093	-1.683705	48.734721	-1.683705	48.734721	-6.188068	154.884037
5.650000	-6.274558	120.875497	-1.658360	45.926172	-1.658360	45.926172	-6.277531	152.288460
5.700000	-6.370244	117.937566	-1.630365	43.095498	-1.630365	43.095498	-6.377904	149.662584
5.750000	-6.476929	114.990419	-1.599858	40.241418	-1.599858	40.241418	-6.489668	147.004298
5.800000	-6.595222	112.034289	-1.566958	37.362436	-1.566958	37.362436	-6.613478	144.311079
5.850000	-6.725801	109.069660	-1.531803	34.457073	-1.531803	34.457073	-6.750067	141.580279
5.900000	-6.869421	106.097317	-1.494546	31.523870	-1.494546	31.523870	-6.900250	138.809108
5.950000	-7.026920	103.118396	-1.455357	28.561398	-1.455357	28.561398	-7.064941	135.994611
6.000000	-7.199231	100.134458	-1.414423	25.568270	-1.414423	25.568270	-7.245156	133.133644
6.050000	-7.387387	97.147567	-1.371951	22.543150	-1.371951	22.543150	-7.442030	130.222832
6.100000	-7.592535	94.160390	-1.328161	19.484762	-1.328161	19.484762	-7.656831	127.258533
6.150000	-7.815947	91.176313	-1.283294	16.391909	-1.283294	16.391909	-7.890977	124.236771
6.200000	-8.059036	88.199599	-1.237608	13.263479	-1.237608	13.263479	-8.146058	121.153164
6.250000	-8.323370	85.235562	-1.191377	10.098468	-1.191377	10.098468	-8.423861	118.002818
6.300000	-8.611008	82.291415	-1.144886	6.895157	-1.144886	6.895157	-8.726739	114.778482
6.350000	-8.923580	79.375199	-1.098459	3.653599	-1.098459	3.653599	-9.056653	111.475173
6.400000	-9.263235	76.497220	-1.052416	0.373207	-1.052416	0.373207	-9.416193	108.085372
6.450000	-9.632358	73.670275	-1.007085	-2.946439	-1.007085	-2.946439	-9.808318	104.600127
6.500000	-10.033600	70.910298	-0.962804	-6.305575	-0.962804	-6.305575	-10.236427	101.008587
6.550000	-10.469897	68.237218	-0.919918	-9.704240	-0.919918	-9.704240	-10.704451	97.297354
6.600000	-10.944490	65.676097	-0.878771	-13.142263	-0.878771	-13.142263	-11.216972	93.449559
6.650000	-11.460923	63.258675	-0.839705	-16.619253	-0.839705	-16.619253	-11.779370	89.443544
6.700000	-12.022950	61.023122	-0.803034	-20.134283	-0.803034	-20.134283	-12.397895	85.253075
6.750000	-12.634978	59.039018	-0.769254	-23.688669	-0.769254	-23.688669	-13.080927	80.824263
6.800000	-13.300239	57.351415	-0.738435	-27.278221	-0.738435	-27.278221	-13.836382	76.125932
6.850000	-14.022454	56.041296	-0.710826	-30.901558	-0.710826	-30.901558	-14.675283	71.091225
6.900000	-14.802829	55.289849	-0.687129	-34.561520	-0.687129	-34.561520	-15.611548	65.556090
6.950000	-15.641857	55.156915	-0.666978	-38.250993	-0.666978	-38.250993	-16.659873	59.447723
7.000000	-16.529102	55.922136	-0.650987	-41.971693	-0.650987	-41.971693	-17.836124	52.443432
7.050000	-17.444997	57.809790	-0.639197	-45.720820	-0.639197	-45.720820	-19.154159	44.175769
7.100000	-18.360679	60.958706	-0.631332	-49.494082	-0.631332	-49.494082	-20.623802	34.224925
7.150000	-19.177014	65.864306	-0.628241	-53.294010	-0.628241	-53.294010	-22.170219	21.184964
7.200000	-19.825790	72.237771	-0.629140	-57.114258	-0.629140	-57.114258	-23.663996	4.463157
7.250000	-20.187083	79.764789	-0.634201	-60.954116	-0.634201	-60.954116	-24.723206	-16.562077
7.300000	-20.168034	87.617304	-0.643560	-64.812820	-0.643560	-64.812820	-24.832111	-39.992287
7.350000	-19.832189	94.839873	-0.656503	-68.686360	-0.656503	-68.686360	-24.073334	-61.746564
7.400000	-19.233530	100.652859	-0.673203	-72.574940	-0.673203	-72.574940	-22.773717	-79.170453
7.450000	-18.494730	104.826268	-0.693260	-76.476907	-0.693260	-76.476907	-21.369467	-92.561112
7.500000	-17.709763	107.477882	-0.716277	-80.391179	-0.716277	-80.391179	-20.055625	-103.105521
7.550000	-16.936057	108.826841	-0.741903	-84.317518	-0.741903	-84.317518	-18.887636	-111.732045
7.600000	-16.207100	109.154091	-0.769660	-88.255803	-0.769660	-88.255803	-17.870274	-119.112854
7.650000	-15.538112	108.694258	-0.799053	-92.206437	-0.799053	-92.206437	-16.990677	-125.659302
7.700000	-14.934826	107.624483	-0.829584	-96.170498	-0.829584	-96.170498	-16.233523	-131.625751
7.750000	-14.398856	106.077851	-0.860733	-100.149900	-0.860733	-100.149900	-15.585749	-137.178148
7.800000	-13.929702	104.162033	-0.891944	-104.147241	-0.891944	-104.147241	-15.036552	-142.435601
7.850000	-13.524619	101.967328	-0.922680	-108.165200	-0.922680	-108.165200	-14.575676	-147.488187
7.900000	-13.183210	99.550605	-0.952377	-112.208419	-0.952377	-112.208419	-14.198466	-152.393438
7.950000	-12.903697	96.967247	-0.980522	-116.281495	-0.980522	-116.281495	-13.899850	-157.203596
8.000000	-12.685665	94.260026	-1.006628	-120.390270	-1.006628	-120.390270	-13.677634	-161.959781
8.050000	-12.529653	91.466504	-1.030252	-124.541612	-1.030252	-124.541612	-13.531624	-166.698530
8.100000	-12.437328	88.622046	-1.051024	-128.743501	-1.051024	-128.743501	-13.463751	-171.454547
8.150000	-12.411697	85.762919	-1.068663	-133.005113	-1.068663	-133.005113	-13.478347	-176.263147
8.200000	-12.457348	82.929915	-1.083013	-137.336916	-1.083013	-137.336916	-13.582671	178.837147
8.250000	-12.580768	80.173173	-1.094075	-141.750758	-1.094075	-141.750758	-13.787743	173.801323
8.300000	-12.790720	77.559178	-1.102060	-146.259943	-1.102060	-146.259943	-14.109724	168.573004
8.350000	-13.098653	75.181642	-1.107443	-150.879278	-1.107443	-150.879278	-14.572157	163.076267
8.400000	-13.518978	73.179227	-1.111035	-155.625074	-1.111035	-155.625074	-15.209796	157.200401
8.450000	-14.068739	71.765347	-1.114075	-160.515056	-1.114075	-160.515056	-16.075402	150.768512
8.500000	-14.765715	71.286681	-1.118349	-165.569161	-1.118349	-165.569161	-17.253903	143.457388
8.550000	-15.618103	72.307846	-1.126342	-170.807774	-1.126342	-170.807774	-18.886848	134.595458
8.600000	-16.596805	75.704219	-1.141288	-176.249578	-1.141288	-176.249578	-21.220883	122.526893
8.650000	-17.567285	82.684909	-1.167338	178.086498	-1.167338	178.086498	-24.636618	101.922485
8.700000	-18.175861	94.088592	-1.209651	172.184089	-1.209651	172.184089	-28.162268	55.317708
8.750000	-17.910804	108.340159	-1.274468	166.031582	-1.274468	166.031582	-25.353140	-3.591984
8.800000	-16.633046	120.993192	-1.369078	159.624657	-1.369078	159.624657	-20.499825	-31.689384
8.850000	-14.781646	128.922626	-1.501885	152.967828	-1.501885	152.967828	-16.804789	-47.027165
8.900000	-12.832022	132.267180	-1.681520	146.080755	-1.681520	146.080755	-13.979479	-58.353039
8.950000	-11.012617	132.311850	-1.916372	138.998164	-1.916372	138.998164	-11.727877	-68.090624
9.000000	-9.393754	130.160768	-2.214101	131.769385	-2.214101	131.769385	-9.884168	-77.073702
9.050000	-7.984265	126.577095	-2.580473	124.457742	-2.580473	124.457742	-8.352621	-85.631380
9.100000	-6.772408	122.069928	-3.018924	117.136078	-3.018924	117.136078	-7.072982	-93.890306
9.150000	-5.740542	116.987827	-3.530279	109.881363	-3.530279	109.881363	-6.003731	-101.885614
9.200000	-4.868632	111.587737	-4.111707	102.765438	-4.111707	102.765438	-5.112119	-109.617656
9.250000	-4.138449	106.047891	-4.759038	95.856274	-4.759038	95.856274	-4.373237	-117.063476
9.300000	-3.529187	100.501739	-5.465571	89.198245	-5.465571	89.198245	-3.762181	-124.214486
9.350000	-3.025461	95.043195	-6.224038	82.837280	-6.224038	82.837280	-3.261529	-131.050765
9.400000	-2.608509	89.729597	-7.027975	76.784427	-7.027975	76.784427	-2.851115	-137.585017
9.450000	-2.266186	84.605508	-7.869593	71.063452	-7.869593	71.063452	-2.518377	-143.817032
9.500000	-1.983845	79.683924	-8.745244	65.665318	-8.745244	65.665318	-2.248452	-149.778724
9.550000	-1.751091	74.972548	-9.651407	60.589942	-9.651407	60.589942	-2.031297	-155.497599
9.600000	-1.558971	70.469677	-10.586472	55.835779	-10.586472	55.835779	-1.858738	-161.009026
9.650000	-1.400055	66.168062	-11.550664	51.406110	-11.550664	51.406110	-1.724683	-166.354177
9.700000	-1.268383	62.058385	-12.545434	47.318029	-12.545434	47.318029	-1.625407	-171.579733
9.750000	-1.159103	58.129271	-13.573340	43.613192	-13.573340	43.613192	-1.559798	-176.741749
9.800000	-1.067805	54.356346	-14.642231	40.351261	-14.642231	40.351261	-1.528378	178.091263
9.850000	-0.995163	50.719145	-15.758318	37.655884	-15.758318	37.655884	-1.536594	172.839577
9.900000	-0.939432	47.272812	-16.924424	35.739773	-16.924424	35.739773	-1.596367	167.404056
9.950000	-0.886775	43.972119	-18.131036	34.934945	-18.131036	34.934945	-1.729983	161.665311
10.000000	-0.841507	40.774972	-19.324236	35.774675	-19.324236	35.774675	-1.984308	155.469409
