! freq	dB(S11)	phase(S11)	dB(S12)	phase(S12)	
!     	dB(S21)	phase(S21)	dB(S22)	phase(S22)	
!S-par simulation data
#  GHz  S  DB  R 50
0.000000	-0.000000	-0.000000	-358.493687	180.000000	-358.493687	180.000000	-0.000000	-0.000000
0.050000	-0.001842	-2.711462	-102.142901	88.436589	-102.142901	88.436589	-0.000478	-0.777917
0.100000	-0.006065	-5.407606	-96.201464	86.720330	-96.201464	86.720330	-0.001635	-1.552482
0.150000	-0.010705	-8.087244	-92.772311	84.971111	-92.772311	84.971111	-0.002995	-2.323238
0.200000	-0.014939	-10.755700	-90.378619	83.255767	-90.378619	83.255767	-0.004290	-3.091494
0.250000	-0.018689	-13.416430	-88.565016	81.591390	-88.565016	81.591390	-0.005451	-3.858418
0.300000	-0.022111	-16.070820	-87.130119	79.984586	-87.130119	79.984586	-0.006491	-4.624741
0.350000	-0.025361	-18.719103	-85.964255	78.439830	-85.964255	78.439830	-0.007451	-5.390793
0.400000	-0.028531	-21.360642	-85.004519	76.966042	-85.004519	76.966042	-0.008360	-6.156659
0.450000	-0.031671	-23.994215	-84.214103	75.578441	-84.214103	75.578441	-0.009242	-6.922320
0.500000	-0.034806	-26.619276	-83.562020	74.286900	-83.562020	74.286900	-0.010112	-7.687732
0.550000	-0.037940	-29.234926	-83.029638	73.108095	-83.029638	73.108095	-0.010981	-8.452834
0.600000	-0.041070	-31.839768	-82.607668	72.069958	-82.607668	72.069958	-0.011857	-9.217545
0.650000	-0.044189	-34.433305	-82.283876	71.194864	-82.283876	71.194864	-0.012743	-9.981820
0.700000	-0.047288	-37.014871	-82.050837	70.513764	-82.050837	70.513764	-0.013642	-10.745614
0.750000	-0.050356	-39.583327	-81.906462	70.076009	-81.906462	70.076009	-0.014555	-11.508866
0.800000	-0.053385	-42.137980	-81.847180	69.937128	-81.847180	69.937128	-0.015482	-12.271541
0.850000	-0.056370	-44.678772	-81.866975	70.151591	-81.866975	70.151591	-0.016422	-13.033631
0.900000	-0.059304	-47.204234	-81.967694	70.833562	-81.967694	70.833562	-0.017376	-13.795072
0.950000	-0.062183	-49.714221	-82.142538	72.089645	-82.142538	72.089645	-0.018341	-14.555860
1.000000	-0.065004	-52.208148	-82.383523	74.072830	-82.383523	74.072830	-0.019316	-15.315972
1.050000	-0.067767	-54.685645	-82.675033	76.960943	-82.675033	76.960943	-0.020299	-16.075395
1.100000	-0.070470	-57.146544	-82.989755	80.942535	-82.989755	80.942535	-0.021288	-16.834126
1.150000	-0.073113	-59.589853	-83.280178	86.260412	-83.280178	86.260412	-0.022281	-17.592128
1.200000	-0.075697	-62.015494	-83.474219	93.000303	-83.474219	93.000303	-0.023275	-18.349399
1.250000	-0.078223	-64.423558	-83.485742	101.010805	-83.485742	101.010805	-0.024267	-19.105942
1.300000	-0.080692	-66.813451	-83.226776	109.853488	-83.226776	109.853488	-0.025253	-19.861727
1.350000	-0.083105	-69.184631	-82.650805	118.754881	-82.650805	118.754881	-0.026229	-20.616717
1.400000	-0.085465	-71.537624	-81.799380	126.939410	-81.799380	126.939410	-0.027191	-21.370911
1.450000	-0.087774	-73.872250	-80.748921	133.907622	-80.748921	133.907622	-0.028135	-22.124266
1.500000	-0.090030	-76.187453	-79.575819	139.419569	-79.575819	139.419569	-0.029060	-22.876683
1.550000	-0.092240	-78.484191	-78.365893	143.633671	-78.365893	143.633671	-0.029967	-23.628154
1.600000	-0.094404	-80.762440	-77.164188	146.733244	-77.164188	146.733244	-0.030860	-24.378629
1.650000	-0.096523	-83.021381	-75.991746	148.885878	-75.991746	148.885878	-0.031746	-25.128023
1.700000	-0.098600	-85.261545	-74.865940	150.306752	-74.865940	150.306752	-0.032631	-25.876347
1.750000	-0.100637	-87.483298	-73.793125	151.155640	-73.793125	151.155640	-0.033524	-26.623623
1.800000	-0.102636	-89.686459	-72.772564	151.542593	-72.772564	151.542593	-0.034427	-27.369851
1.850000	-0.104598	-91.871141	-71.802687	151.561313	-71.802687	151.561313	-0.035344	-28.115053
1.900000	-0.106525	-94.037283	-70.880281	151.281760	-70.880281	151.281760	-0.036276	-28.859236
1.950000	-0.108420	-96.185051	-70.002392	150.761698	-70.002392	150.761698	-0.037220	-29.602414
2.000000	-0.110284	-98.314825	-69.166344	150.047619	-69.166344	150.047619	-0.038176	-30.344601
2.050000	-0.112118	-100.426804	-68.368992	149.173673	-68.368992	149.173673	-0.039141	-31.085796
2.100000	-0.113926	-102.521204	-67.607399	148.167031	-67.607399	148.167031	-0.040114	-31.825991
2.150000	-0.115709	-104.598257	-66.878870	147.049497	-66.878870	147.049497	-0.041093	-32.565176
2.200000	-0.117468	-106.658210	-66.180951	145.838712	-66.180951	145.838712	-0.042078	-33.303338
2.250000	-0.119205	-108.701323	-65.511420	144.549068	-65.511420	144.549068	-0.043067	-34.040463
2.300000	-0.120922	-110.727867	-64.868268	143.192399	-64.868268	143.192399	-0.044060	-34.776535
2.350000	-0.122622	-112.738124	-64.249680	141.778501	-64.249680	141.778501	-0.045057	-35.511541
2.400000	-0.124305	-114.732386	-63.654015	140.315545	-63.654015	140.315545	-0.046057	-36.245465
2.450000	-0.125973	-116.710952	-63.079787	138.810387	-63.079787	138.810387	-0.047060	-36.978292
2.500000	-0.127628	-118.674131	-62.525650	137.268812	-62.525650	137.268812	-0.048067	-37.710009
2.550000	-0.129272	-120.621916	-61.990074	135.695147	-61.990074	135.695147	-0.049078	-38.440577
2.600000	-0.130907	-122.554960	-61.472296	134.094331	-61.472296	134.094331	-0.050092	-39.170005
2.650000	-0.132534	-124.473590	-60.971295	132.469921	-60.971295	132.469921	-0.051111	-39.898281
2.700000	-0.134154	-126.378131	-60.486136	130.824984	-60.486136	130.824984	-0.052133	-40.625392
2.750000	-0.135770	-128.268916	-60.015962	129.162176	-60.015962	129.162176	-0.053160	-41.351325
2.800000	-0.137383	-130.146277	-59.559987	127.483801	-59.559987	127.483801	-0.054192	-42.076069
2.850000	-0.138994	-132.010550	-59.117489	125.791871	-59.117489	125.791871	-0.055230	-42.799611
2.900000	-0.140605	-133.862070	-58.687799	124.088141	-58.687799	124.088141	-0.056272	-43.521940
2.950000	-0.142218	-135.701174	-58.270303	122.374155	-58.270303	122.374155	-0.057321	-44.243045
3.000000	-0.143833	-137.528197	-57.864429	120.651269	-57.864429	120.651269	-0.058376	-44.962915
3.050000	-0.145452	-139.343475	-57.469649	118.920680	-57.469649	118.920680	-0.059438	-45.681540
3.100000	-0.147076	-141.147344	-57.085472	117.183444	-57.085472	117.183444	-0.060506	-46.398910
3.150000	-0.148707	-142.940020	-56.711377	115.440449	-56.711377	115.440449	-0.061583	-47.115001
3.200000	-0.150345	-144.721846	-56.346950	113.692552	-56.346950	113.692552	-0.062667	-47.829804
3.250000	-0.151992	-146.493271	-55.991862	111.940550	-55.991862	111.940550	-0.063759	-48.543323
3.300000	-0.153649	-148.254623	-55.645742	110.185102	-55.645742	110.185102	-0.064860	-49.255550
3.350000	-0.155316	-150.006226	-55.308238	108.426794	-55.308238	108.426794	-0.065970	-49.966476
3.400000	-0.156995	-151.748402	-54.979026	106.666153	-54.979026	106.666153	-0.067089	-50.676093
3.450000	-0.158686	-153.481468	-54.657798	104.903651	-54.657798	104.903651	-0.068218	-51.384394
3.500000	-0.160390	-155.205739	-54.344267	103.139713	-54.344267	103.139713	-0.069357	-52.091371
3.550000	-0.162107	-156.921528	-54.038163	101.374723	-54.038163	101.374723	-0.070506	-52.797017
3.600000	-0.163838	-158.629142	-53.739230	99.609025	-53.739230	99.609025	-0.071667	-53.501326
3.650000	-0.165584	-160.328885	-53.447229	97.842933	-53.447229	97.842933	-0.072839	-54.204290
3.700000	-0.167345	-162.021057	-53.161934	96.076728	-53.161934	96.076728	-0.074022	-54.905905
3.750000	-0.169120	-163.705955	-52.883131	94.310670	-52.883131	94.310670	-0.075218	-55.606164
3.800000	-0.170912	-165.383725	-52.610571	92.545004	-52.610571	92.545004	-0.076426	-56.305033
3.850000	-0.172719	-167.054813	-52.344120	90.779939	-52.344120	90.779939	-0.077648	-57.002535
3.900000	-0.174541	-168.719504	-52.083598	89.015671	-52.083598	89.015671	-0.078882	-57.698666
3.950000	-0.176379	-170.378076	-51.828833	87.252376	-51.828833	87.252376	-0.080131	-58.393421
4.000000	-0.178232	-172.030803	-51.579664	85.490219	-51.579664	85.490219	-0.081394	-59.086797
4.050000	-0.180101	-173.677957	-51.335936	83.729351	-51.335936	83.729351	-0.082671	-59.778790
4.100000	-0.181985	-175.319803	-51.097506	81.969913	-51.097506	81.969913	-0.083963	-60.469396
4.150000	-0.183883	-176.956604	-50.864234	80.212033	-50.864234	80.212033	-0.085271	-61.158612
4.200000	-0.185797	-178.588169	-50.635894	78.456008	-50.635894	78.456008	-0.086596	-61.846300
4.250000	-0.187723	179.784376	-50.412557	76.701636	-50.412557	76.701636	-0.087936	-62.532713
4.300000	-0.189662	178.161203	-50.194007	74.949169	-50.194007	74.949169	-0.089292	-63.217729
4.350000	-0.191615	176.542069	-49.980133	73.198707	-49.980133	73.198707	-0.090666	-63.901346
4.400000	-0.193579	174.926734	-49.770826	71.450348	-49.770826	71.450348	-0.092057	-64.583563
4.450000	-0.195554	173.314964	-49.565986	69.704185	-49.565986	69.704185	-0.093465	-65.264378
4.500000	-0.197540	171.706528	-49.365516	67.960307	-49.365516	67.960307	-0.094892	-65.943790
4.550000	-0.199535	170.101201	-49.169324	66.218801	-49.169324	66.218801	-0.096338	-66.621799
4.600000	-0.201539	168.498761	-48.977323	64.479751	-48.977323	64.479751	-0.097803	-67.298404
4.650000	-0.203551	166.898992	-48.789428	62.743240	-48.789428	62.743240	-0.099287	-67.973606
4.700000	-0.205571	165.301681	-48.605562	61.009350	-48.605562	61.009350	-0.100791	-68.647404
4.750000	-0.207596	163.706622	-48.425648	59.278162	-48.425648	59.278162	-0.102316	-69.319800
4.800000	-0.209626	162.113610	-48.249614	57.549756	-48.249614	57.549756	-0.103861	-69.990794
4.850000	-0.211661	160.522448	-48.077393	55.824214	-48.077393	55.824214	-0.105428	-70.660387
4.900000	-0.213698	158.932942	-47.908918	54.101617	-47.908918	54.101617	-0.107016	-71.328582
4.950000	-0.215738	157.344902	-47.744129	52.382047	-47.744129	52.382047	-0.108626	-71.995379
5.000000	-0.217779	155.758145	-47.582965	50.665589	-47.582965	50.665589	-0.110258	-72.660780
5.050000	-0.219819	154.172564	-47.425432	48.952600	-47.425432	48.952600	-0.111915	-73.324675
5.100000	-0.221859	152.587814	-47.271353	47.242600	-47.271353	47.242600	-0.113593	-73.987307
5.150000	-0.223897	151.003860	-47.120793	45.536193	-47.120793	45.536193	-0.115297	-74.648465
5.200000	-0.225932	149.420469	-46.973624	43.833142	-46.973624	43.833142	-0.117023	-75.308285
5.250000	-0.227963	147.837502	-46.829835	42.133679	-46.829835	42.133679	-0.118774	-75.966719
5.300000	-0.229988	146.254814	-46.689440	40.438120	-46.689440	40.438120	-0.120552	-76.623689
5.350000	-0.232008	144.672228	-46.552269	38.746097	-46.552269	38.746097	-0.122353	-77.279375
5.400000	-0.234022	143.089619	-46.418326	37.057891	-46.418326	37.057891	-0.124180	-77.933713
5.450000	-0.236028	141.506853	-46.287571	35.373608	-46.287571	35.373608	-0.126032	-78.586709
5.500000	-0.238025	139.923761	-46.160084	33.693741	-46.160084	33.693741	-0.127913	-79.238244
5.550000	-0.240013	138.340226	-46.035751	32.018146	-46.035751	32.018146	-0.129820	-79.888414
5.600000	-0.241992	136.756135	-45.914506	30.346844	-45.914506	30.346844	-0.131755	-80.537257
5.650000	-0.243960	135.171377	-45.796316	28.679963	-45.796316	28.679963	-0.133717	-81.184778
5.700000	-0.245916	133.585843	-45.681149	27.017634	-45.681149	27.017634	-0.135706	-81.830982
5.750000	-0.247862	131.999429	-45.568973	25.359992	-45.568973	25.359992	-0.137724	-82.475877
5.800000	-0.249795	130.412012	-45.459799	23.707303	-45.459799	23.707303	-0.139771	-83.119435
5.850000	-0.251713	128.823416	-45.353713	22.060072	-45.353713	22.060072	-0.141849	-83.761577
5.900000	-0.253619	127.233646	-45.250544	20.418008	-45.250544	20.418008	-0.143956	-84.402429
5.950000	-0.255511	125.642621	-45.150265	18.781274	-45.150265	18.781274	-0.146093	-85.041997
6.000000	-0.257389	124.050267	-45.052853	17.150041	-45.052853	17.150041	-0.148260	-85.680289
6.050000	-0.259253	122.456514	-44.958283	15.524486	-44.958283	15.524486	-0.150458	-86.317313
6.100000	-0.261102	120.861299	-44.866533	13.904792	-44.866533	13.904792	-0.152686	-86.953074
6.150000	-0.262935	119.264446	-44.777720	12.291614	-44.777720	12.291614	-0.154947	-87.587490
6.200000	-0.264752	117.665943	-44.691770	10.684995	-44.691770	10.684995	-0.157242	-88.220608
6.250000	-0.266553	116.065811	-44.608583	9.084883	-44.608583	9.084883	-0.159568	-88.852490
6.300000	-0.268339	114.464010	-44.528137	7.491499	-44.528137	7.491499	-0.161926	-89.483143
6.350000	-0.270109	112.860504	-44.450414	5.905070	-44.450414	5.905070	-0.164318	-90.112578
6.400000	-0.271863	111.255267	-44.375393	4.325833	-44.375393	4.325833	-0.166742	-90.740802
6.450000	-0.273600	109.648265	-44.303068	2.754081	-44.303068	2.754081	-0.169199	-91.367817
6.500000	-0.275319	108.039293	-44.233640	1.190905	-44.233640	1.190905	-0.171694	-91.993509
6.550000	-0.277021	106.428538	-44.166862	-0.364254	-44.166862	-0.364254	-0.174223	-92.618020
6.600000	-0.278707	104.815994	-44.102715	-1.911118	-44.102715	-1.911118	-0.176787	-93.241360
6.650000	-0.280376	103.201664	-44.041178	-3.449398	-44.041178	-3.449398	-0.179385	-93.863538
6.700000	-0.282026	101.585451	-43.982361	-4.978251	-43.982361	-4.978251	-0.182021	-94.484497
6.750000	-0.283660	99.967498	-43.926087	-6.498000	-43.926087	-6.498000	-0.184692	-95.104332
6.800000	-0.285275	98.347771	-43.872399	-8.008048	-43.872399	-8.008048	-0.187399	-95.723018
6.850000	-0.286873	96.726298	-43.821277	-9.508046	-43.821277	-9.508046	-0.190143	-96.340567
6.900000	-0.288453	95.103108	-43.772698	-10.997632	-43.772698	-10.997632	-0.192924	-96.956991
6.950000	-0.290015	93.478241	-43.726639	-12.476431	-43.726639	-12.476431	-0.195743	-97.572300
7.000000	-0.291558	91.851738	-43.683076	-13.944057	-43.683076	-13.944057	-0.198599	-98.186507
7.050000	-0.293083	90.223649	-43.641983	-15.400109	-43.641983	-15.400109	-0.201494	-98.799623
7.100000	-0.294589	88.594027	-43.603333	-16.844174	-43.603333	-16.844174	-0.204427	-99.411661
7.150000	-0.296077	86.962932	-43.567097	-18.275825	-43.567097	-18.275825	-0.207399	-100.022632
7.200000	-0.297546	85.330428	-43.533244	-19.694622	-43.533244	-19.694622	-0.210411	-100.632549
7.250000	-0.298996	83.696586	-43.501740	-21.100113	-43.501740	-21.100113	-0.213462	-101.241425
7.300000	-0.300427	82.061478	-43.472550	-22.491831	-43.472550	-22.491831	-0.216552	-101.849273
7.350000	-0.301840	80.425185	-43.445636	-23.869297	-43.445636	-23.869297	-0.219683	-102.456105
7.400000	-0.303234	78.787791	-43.420956	-25.232020	-43.420956	-25.232020	-0.222855	-103.061935
7.450000	-0.304610	77.149383	-43.398467	-26.579494	-43.398467	-26.579494	-0.226068	-103.666776
7.500000	-0.305968	75.510056	-43.378120	-27.911202	-43.378120	-27.911202	-0.229321	-104.270641
7.550000	-0.307308	73.869874	-43.359952	-29.225883	-43.359952	-29.225883	-0.232618	-104.873504
7.600000	-0.308630	72.228980	-43.343816	-30.523681	-43.343816	-30.523681	-0.235957	-105.475421
7.650000	-0.309937	70.587479	-43.329651	-31.804045	-43.329651	-31.804045	-0.239339	-106.076405
7.700000	-0.311229	68.945480	-43.317393	-33.066414	-43.317393	-33.066414	-0.242762	-106.676472
7.750000	-0.312506	67.303097	-43.306972	-34.310219	-43.306972	-34.310219	-0.246229	-107.275636
7.800000	-0.313770	65.660444	-43.298313	-35.534886	-43.298313	-35.534886	-0.249738	-107.873911
7.850000	-0.315023	64.017642	-43.291334	-36.739833	-43.291334	-36.739833	-0.253291	-108.471312
7.900000	-0.316265	62.374813	-43.285950	-37.924476	-43.285950	-37.924476	-0.256888	-109.067854
7.950000	-0.317500	60.732083	-43.282068	-39.088231	-43.282068	-39.088231	-0.260529	-109.663553
8.000000	-0.318728	59.089581	-43.279587	-40.230510	-43.279587	-40.230510	-0.264215	-110.258425
8.050000	-0.319953	57.447437	-43.278401	-41.350734	-43.278401	-41.350734	-0.267945	-110.852483
8.100000	-0.321177	55.805785	-43.278396	-42.448327	-43.278396	-42.448327	-0.271720	-111.445745
8.150000	-0.322402	54.164762	-43.279449	-43.522723	-43.279449	-43.522723	-0.275540	-112.038227
8.200000	-0.323632	52.524505	-43.281431	-44.573370	-43.281431	-44.573370	-0.279405	-112.629944
8.250000	-0.324870	50.885156	-43.284202	-45.599734	-43.284202	-45.599734	-0.283317	-113.220912
8.300000	-0.326120	49.246857	-43.287616	-46.601303	-43.287616	-46.601303	-0.287275	-113.811149
8.350000	-0.327386	47.609753	-43.291515	-47.577591	-43.291515	-47.577591	-0.291279	-114.400670
8.400000	-0.328672	45.973991	-43.295734	-48.528145	-43.295734	-48.528145	-0.295329	-114.989494
8.450000	-0.329983	44.339717	-43.300099	-49.452551	-43.300099	-49.452551	-0.299427	-115.577636
8.500000	-0.331323	42.707083	-43.304424	-50.350440	-43.304424	-50.350440	-0.303572	-116.165114
8.550000	-0.332698	41.076238	-43.308515	-51.221495	-43.308515	-51.221495	-0.307764	-116.751945
8.600000	-0.334113	39.447337	-43.312171	-52.065456	-43.312171	-52.065456	-0.312004	-117.338147
8.650000	-0.335574	37.820532	-43.315177	-52.882132	-43.315177	-52.882132	-0.316292	-117.923738
8.700000	-0.337087	36.195977	-43.317313	-53.671405	-43.317313	-53.671405	-0.320629	-118.508735
8.750000	-0.338658	34.573830	-43.318350	-54.433240	-43.318350	-54.433240	-0.325014	-119.093157
8.800000	-0.340297	32.954365	-43.317980	-55.166512	-43.317980	-55.166512	-0.329449	-119.676998
8.850000	-0.342008	31.337636	-43.316007	-55.872585	-43.316007	-55.872585	-0.333934	-120.260302
8.900000	-0.343799	29.723799	-43.312179	-56.551738	-43.312179	-56.551738	-0.338468	-120.843088
8.950000	-0.345675	28.113015	-43.306242	-57.204371	-43.306242	-57.204371	-0.343052	-121.425374
9.000000	-0.347646	26.505441	-43.297936	-57.831005	-43.297936	-57.831005	-0.347685	-122.007180
9.050000	-0.349719	24.901237	-43.287003	-58.432296	-43.287003	-58.432296	-0.352368	-122.588525
9.100000	-0.351901	23.300562	-43.273182	-59.009035	-43.273182	-59.009035	-0.357102	-123.169428
9.150000	-0.354200	21.703575	-43.256217	-59.562155	-43.256217	-59.562155	-0.361886	-123.749909
9.200000	-0.356625	20.110436	-43.235853	-60.092737	-43.235853	-60.092737	-0.366721	-124.329987
9.250000	-0.359184	18.521303	-43.211844	-60.602006	-43.211844	-60.602006	-0.371606	-124.909683
9.300000	-0.361885	16.936336	-43.183953	-61.091337	-43.183953	-61.091337	-0.376543	-125.489017
9.350000	-0.364737	15.355690	-43.151954	-61.562247	-43.151954	-61.562247	-0.381531	-126.068009
9.400000	-0.367747	13.779526	-43.115634	-62.016398	-43.115634	-62.016398	-0.386570	-126.646680
9.450000	-0.370925	12.207997	-43.074799	-62.455583	-43.074799	-62.455583	-0.391662	-127.225050
9.500000	-0.374278	10.641261	-43.029271	-62.881725	-43.029271	-62.881725	-0.396805	-127.803141
9.550000	-0.377816	9.079472	-42.978895	-63.296859	-42.978895	-63.296859	-0.402000	-128.380974
9.600000	-0.381547	7.522783	-42.923538	-63.703127	-42.923538	-63.703127	-0.407248	-128.958569
9.650000	-0.385478	5.971347	-42.863094	-64.102755	-42.863094	-64.102755	-0.412548	-129.535950
9.700000	-0.389619	4.425313	-42.797482	-64.498044	-42.797482	-64.498044	-0.417901	-130.113137
9.750000	-0.393976	2.884832	-42.726649	-64.891347	-42.726649	-64.891347	-0.423307	-130.690152
9.800000	-0.398559	1.350050	-42.650572	-65.285051	-42.650572	-65.285051	-0.428765	-131.267018
9.850000	-0.403375	-0.178887	-42.569256	-65.681560	-42.569256	-65.681560	-0.434277	-131.843758
9.900000	-0.408431	-1.701836	-42.482737	-66.083270	-42.482737	-66.083270	-0.439842	-132.420393
9.950000	-0.413735	-3.218654	-42.391079	-66.492554	-42.391079	-66.492554	-0.445461	-132.996948
10.000000	-0.419295	-4.729203	-42.294376	-66.911739	-42.294376	-66.911739	-0.451133	-133.573444
