! freq	dB(S11)	phase(S11)	dB(S12)	phase(S12)	
!     	dB(S21)	phase(S21)	dB(S22)	phase(S22)	
!S-par simulation data
#  GHz  S  DB  R 50
0.000000	-0.000000	0.000000	-345.026837	180.000000	-345.026837	180.000000	-0.000000	0.000000
0.050000	-0.005317	-1.333243	-103.819539	88.606030	-103.819539	88.606030	-0.004733	-1.333743
0.100000	-0.010364	-2.714237	-97.836006	87.222442	-97.836006	87.222442	-0.009780	-2.711213
0.150000	-0.012762	-4.101879	-94.377060	85.859732	-94.377060	85.859732	-0.012365	-4.097256
0.200000	-0.014154	-5.487196	-91.965995	84.527304	-91.965995	84.527304	-0.013884	-5.481708
0.250000	-0.015182	-6.869711	-90.145926	83.237859	-90.145926	83.237859	-0.014988	-6.863537
0.300000	-0.016120	-8.250078	-88.705145	81.997702	-88.705145	81.997702	-0.015975	-8.243229
0.350000	-0.017052	-9.628429	-87.538094	80.819436	-87.538094	80.819436	-0.016940	-9.620888
0.400000	-0.018023	-11.004877	-86.580704	79.715400	-86.580704	79.715400	-0.017933	-10.996618
0.450000	-0.019053	-12.379438	-85.792384	78.699968	-85.792384	78.699968	-0.018978	-12.370437
0.500000	-0.020149	-13.752071	-85.146180	77.790374	-85.146180	77.790374	-0.020085	-13.742307
0.550000	-0.021313	-15.122702	-84.623660	77.007735	-84.623660	77.007735	-0.021258	-15.112159
0.600000	-0.022543	-16.491237	-84.212038	76.378332	-84.212038	76.378332	-0.022495	-16.479902
0.650000	-0.023837	-17.857575	-83.902435	75.935292	-83.902435	75.935292	-0.023794	-17.845437
0.700000	-0.025190	-19.221609	-83.688744	75.720829	-83.688744	75.720829	-0.025151	-19.208660
0.750000	-0.026596	-20.583229	-83.566790	75.789262	-83.566790	75.789262	-0.026560	-20.569463
0.800000	-0.028050	-21.942330	-83.533561	76.211073	-83.533561	76.211073	-0.028016	-21.927743
0.850000	-0.029548	-23.298806	-83.586312	77.078241	-83.586312	77.078241	-0.029515	-23.283394
0.900000	-0.031082	-24.652555	-83.721251	78.510887	-83.721251	78.510887	-0.031051	-24.636317
0.950000	-0.032649	-26.003479	-83.931405	80.664499	-83.931405	80.664499	-0.032618	-25.986415
1.000000	-0.034243	-27.351482	-84.203045	83.734972	-84.203045	83.734972	-0.034212	-27.333592
1.050000	-0.035860	-28.696474	-84.509980	87.953953	-84.509980	87.953953	-0.035828	-28.677761
1.100000	-0.037494	-30.038367	-84.805594	93.558399	-84.805594	93.558399	-0.037461	-30.018834
1.150000	-0.039143	-31.377077	-85.015206	100.708710	-85.015206	100.708710	-0.039108	-31.356728
1.200000	-0.040801	-32.712526	-85.037581	109.337681	-85.037581	109.337681	-0.040765	-32.691365
1.250000	-0.042466	-34.044635	-84.769908	118.981307	-84.769908	118.981307	-0.042429	-34.022669
1.300000	-0.044135	-35.373180	-84.140114	128.738804	-84.140114	128.738804	-0.044096	-35.350416
1.350000	-0.045805	-36.698236	-83.196828	137.647883	-83.196828	137.647883	-0.045764	-36.674681
1.400000	-0.047474	-38.019737	-82.035705	145.144299	-82.035705	145.144299	-0.047430	-37.995398
1.450000	-0.049140	-39.337618	-80.760306	151.082839	-80.760306	151.082839	-0.049093	-39.312505
1.500000	-0.050800	-40.651817	-79.449959	155.586833	-79.449959	155.586833	-0.050751	-40.625940
1.550000	-0.052455	-41.962278	-78.154258	158.884877	-78.154258	158.884877	-0.052403	-41.935646
1.600000	-0.054102	-43.268942	-76.899915	161.213611	-76.899915	161.213611	-0.054048	-43.241567
1.650000	-0.055741	-44.571757	-75.699148	162.777892	-75.699148	162.777892	-0.055685	-44.543649
1.700000	-0.057371	-45.870672	-74.555915	163.741991	-74.555915	163.741991	-0.057313	-45.841842
1.750000	-0.058993	-47.165637	-73.469807	164.233305	-73.469807	164.233305	-0.058932	-47.136097
1.800000	-0.060605	-48.456605	-72.438280	164.349448	-72.438280	164.349448	-0.060542	-48.426369
1.850000	-0.062208	-49.743534	-71.457877	164.165143	-71.457877	164.165143	-0.062143	-49.712613
1.900000	-0.063802	-51.026380	-70.524876	163.737875	-70.524876	163.737875	-0.063735	-50.994787
1.950000	-0.065387	-52.305103	-69.635611	163.112216	-69.635611	163.112216	-0.065319	-52.272853
2.000000	-0.066964	-53.579667	-68.786634	162.323055	-68.786634	162.323055	-0.066894	-53.546772
2.050000	-0.068533	-54.850036	-67.974770	161.397971	-67.974770	161.397971	-0.068462	-54.816511
2.100000	-0.070095	-56.116178	-67.197139	160.358981	-67.197139	160.358981	-0.070022	-56.082035
2.150000	-0.071650	-57.378060	-66.451141	159.223834	-66.451141	159.223834	-0.071576	-57.343315
2.200000	-0.073200	-58.635655	-65.734435	158.006967	-65.734435	158.006967	-0.073124	-58.600321
2.250000	-0.074744	-59.888937	-65.044921	156.720228	-65.044921	156.720228	-0.074668	-59.853029
2.300000	-0.076284	-61.137882	-64.380707	155.373421	-64.380707	155.373421	-0.076207	-61.101414
2.350000	-0.077821	-62.382467	-63.740092	153.974720	-63.740092	153.974720	-0.077743	-62.345453
2.400000	-0.079355	-63.622674	-63.121540	152.530989	-63.121540	152.530989	-0.079277	-63.585129
2.450000	-0.080888	-64.858484	-62.523661	151.048032	-62.523661	151.048032	-0.080809	-64.820423
2.500000	-0.082420	-66.089884	-61.945195	149.530787	-61.945195	149.530787	-0.082341	-66.051321
2.550000	-0.083952	-67.316667	-61.384226	147.982342	-61.384226	147.982342	-0.083873	-67.277617
2.600000	-0.085486	-68.539015	-60.840583	146.407752	-60.840583	146.407752	-0.085407	-68.499492
2.650000	-0.087022	-69.756921	-60.313300	144.810105	-60.313300	144.810105	-0.086943	-69.716939
2.700000	-0.088561	-70.970377	-59.801493	143.192088	-59.801493	143.192088	-0.088482	-70.929952
2.750000	-0.090104	-72.179381	-59.304353	141.556053	-59.304353	141.556053	-0.090026	-72.138526
2.800000	-0.091653	-73.383932	-58.821134	139.904062	-58.821134	139.904062	-0.091575	-73.342661
2.850000	-0.093208	-74.584030	-58.351147	138.237934	-58.351147	138.237934	-0.093130	-74.542357
2.900000	-0.094769	-75.779677	-57.893759	136.559276	-57.893759	136.559276	-0.094692	-75.737617
2.950000	-0.096339	-76.970879	-57.448380	134.869514	-57.448380	134.869514	-0.096262	-76.928445
3.000000	-0.097917	-78.157644	-57.014464	133.169917	-57.014464	133.169917	-0.097840	-78.114849
3.050000	-0.099504	-79.339979	-56.591505	131.461618	-56.591505	131.461618	-0.099429	-79.296837
3.100000	-0.101102	-80.517897	-56.179029	129.745630	-56.179029	129.745630	-0.101027	-80.474422
3.150000	-0.102711	-81.691410	-55.776594	128.022863	-55.776594	128.022863	-0.102637	-81.647614
3.200000	-0.104332	-82.860534	-55.383788	126.294136	-55.383788	126.294136	-0.104259	-82.816431
3.250000	-0.105966	-84.025285	-55.000225	124.560185	-55.000225	124.560185	-0.105893	-83.980888
3.300000	-0.107614	-85.185683	-54.625542	122.821676	-54.625542	122.821676	-0.107541	-85.141004
3.350000	-0.109276	-86.341748	-54.259399	121.079213	-54.259399	121.079213	-0.109204	-86.296800
3.400000	-0.110952	-87.493503	-53.901475	119.333342	-53.901475	119.333342	-0.110881	-87.448298
3.450000	-0.112645	-88.640972	-53.551469	117.584561	-53.551469	117.584561	-0.112574	-88.595523
3.500000	-0.114354	-89.784181	-53.209097	115.833322	-53.209097	115.833322	-0.114284	-89.738500
3.550000	-0.116080	-90.923159	-52.874090	114.080036	-52.874090	114.080036	-0.116010	-90.877258
3.600000	-0.117823	-92.057934	-52.546193	112.325081	-52.546193	112.325081	-0.117754	-92.011825
3.650000	-0.119585	-93.188537	-52.225167	110.568800	-52.225167	110.568800	-0.119517	-93.142232
3.700000	-0.121366	-94.315002	-51.910783	108.811507	-51.910783	108.811507	-0.121298	-94.268513
3.750000	-0.123166	-95.437362	-51.602826	107.053493	-51.602826	107.053493	-0.123099	-95.390700
3.800000	-0.124987	-96.555478	-51.300906	105.295013	-51.300906	105.295013	-0.124920	-96.508655
3.850000	-0.126829	-97.669566	-51.005030	103.536338	-51.005030	103.536338	-0.126763	-97.622593
3.900000	-0.128692	-98.779665	-50.715014	101.777691	-50.715014	101.777691	-0.128626	-98.732552
3.950000	-0.130577	-99.885813	-50.430677	100.019275	-50.430677	100.019275	-0.130512	-99.838573
4.000000	-0.132484	-100.988054	-50.151851	98.261276	-50.151851	98.261276	-0.132419	-100.940697
4.050000	-0.134414	-102.086429	-49.878374	96.503870	-49.878374	96.503870	-0.134349	-102.038966
4.100000	-0.136367	-103.180983	-49.610091	94.747215	-49.610091	94.747215	-0.136303	-103.133424
4.150000	-0.138344	-104.271761	-49.346855	92.991460	-49.346855	92.991460	-0.138280	-104.224117
4.200000	-0.140345	-105.358808	-49.088525	91.236740	-49.088525	91.236740	-0.140281	-105.311090
4.250000	-0.142370	-106.442172	-48.834966	89.483182	-48.834966	89.483182	-0.142307	-106.394391
4.300000	-0.144421	-107.521903	-48.586049	87.730902	-48.586049	87.730902	-0.144357	-107.474068
4.350000	-0.146496	-108.598048	-48.341650	85.980010	-48.341650	85.980010	-0.146433	-108.550170
4.400000	-0.148598	-109.670660	-48.101651	84.230605	-48.101651	84.230605	-0.148535	-109.622749
4.450000	-0.150726	-110.739789	-47.865938	82.482779	-47.865938	82.482779	-0.150663	-110.691855
4.500000	-0.152880	-111.805487	-47.634402	80.736619	-47.634402	80.736619	-0.152817	-111.757541
4.550000	-0.155061	-112.867809	-47.406938	78.992205	-47.406938	78.992205	-0.154999	-112.819860
4.600000	-0.157269	-113.926808	-47.183446	77.249609	-47.183446	77.249609	-0.157207	-113.878866
4.650000	-0.159505	-114.982539	-46.963829	75.508900	-46.963829	75.508900	-0.159443	-114.934615
4.700000	-0.161769	-116.035059	-46.747994	73.770141	-46.747994	73.770141	-0.161707	-115.987162
4.750000	-0.164061	-117.084423	-46.535851	72.033392	-46.535851	72.033392	-0.164000	-117.036564
4.800000	-0.166381	-118.130690	-46.327315	70.298705	-46.327315	70.298705	-0.166320	-118.082879
4.850000	-0.168731	-119.173917	-46.122301	68.566130	-46.122301	68.566130	-0.168670	-119.126163
4.900000	-0.171109	-120.214164	-45.920730	66.835715	-45.920730	66.835715	-0.171049	-120.166477
4.950000	-0.173517	-121.251488	-45.722525	65.107501	-45.722525	65.107501	-0.173457	-121.203879
5.000000	-0.175954	-122.285952	-45.527612	63.381528	-45.527612	63.381528	-0.175895	-122.238430
5.050000	-0.178423	-123.317496	-45.335875	61.657931	-45.335875	61.657931	-0.178364	-123.270071
5.100000	-0.180922	-124.346306	-45.147294	59.936647	-45.147294	59.936647	-0.180863	-124.298989
5.150000	-0.183451	-125.372445	-44.961802	58.217704	-44.961802	58.217704	-0.183392	-125.325244
5.200000	-0.186011	-126.395974	-44.779334	56.501129	-44.779334	56.501129	-0.185953	-126.348900
5.250000	-0.188601	-127.416956	-44.599827	54.786948	-44.599827	54.786948	-0.188544	-127.370019
5.300000	-0.191223	-128.435455	-44.423221	53.075182	-44.423221	53.075182	-0.191166	-128.388665
5.350000	-0.193876	-129.451534	-44.249457	51.365851	-44.249457	51.365851	-0.193819	-129.404902
5.400000	-0.196560	-130.465258	-44.078479	49.658972	-44.078479	49.658972	-0.196504	-130.418793
5.450000	-0.199276	-131.476692	-43.910230	47.954562	-43.910230	47.954562	-0.199221	-131.430404
5.500000	-0.202024	-132.485901	-43.744660	46.252633	-43.744660	46.252633	-0.201969	-132.439800
5.550000	-0.204804	-133.492949	-43.581715	44.553198	-43.581715	44.553198	-0.204750	-133.447046
5.600000	-0.207616	-134.497904	-43.421346	42.856266	-43.421346	42.856266	-0.207562	-134.452208
5.650000	-0.210460	-135.500830	-43.263505	41.161845	-43.263505	41.161845	-0.210407	-135.455352
5.700000	-0.213336	-136.501795	-43.108147	39.469941	-43.108147	39.469941	-0.213284	-136.456545
5.750000	-0.216245	-137.500866	-42.955225	37.780559	-42.955225	37.780559	-0.216194	-137.455853
5.800000	-0.219187	-138.498108	-42.804696	36.093703	-42.804696	36.093703	-0.219136	-138.453344
5.850000	-0.222161	-139.493591	-42.656518	34.409374	-42.656518	34.409374	-0.222111	-139.449085
5.900000	-0.225168	-140.487381	-42.510650	32.727572	-42.510650	32.727572	-0.225119	-140.443144
5.950000	-0.228208	-141.479547	-42.367052	31.048296	-42.367052	31.048296	-0.228160	-141.435589
6.000000	-0.231281	-142.470155	-42.225687	29.371543	-42.225687	29.371543	-0.231234	-142.426487
6.050000	-0.234388	-143.459276	-42.086517	27.697310	-42.086517	27.697310	-0.234341	-143.415908
6.100000	-0.237527	-144.446977	-41.949507	26.025592	-41.949507	26.025592	-0.237481	-144.403919
6.150000	-0.240699	-145.433327	-41.814621	24.356382	-41.814621	24.356382	-0.240655	-145.390591
6.200000	-0.243905	-146.418395	-41.681826	22.689673	-41.681826	22.689673	-0.243861	-146.375990
6.250000	-0.247143	-147.402251	-41.551091	21.025457	-41.551091	21.025457	-0.247101	-147.360187
6.300000	-0.250417	-148.384917	-41.422388	19.363832	-41.422388	19.363832	-0.250375	-148.343206
6.350000	-0.253723	-149.366514	-41.295685	17.704678	-41.295685	17.704678	-0.253683	-149.325167
6.400000	-0.257063	-150.347114	-41.170953	16.047985	-41.170953	16.047985	-0.257024	-150.306140
6.450000	-0.260436	-151.326786	-41.048163	14.393740	-41.048163	14.393740	-0.260398	-151.286196
6.500000	-0.263842	-152.305599	-40.927288	12.741930	-40.927288	12.741930	-0.263805	-152.265404
6.550000	-0.267281	-153.283624	-40.808302	11.092542	-40.808302	11.092542	-0.267245	-153.243834
6.600000	-0.270753	-154.260930	-40.691180	9.445561	-40.691180	9.445561	-0.270718	-154.221556
6.650000	-0.274258	-155.237588	-40.575897	7.800972	-40.575897	7.800972	-0.274225	-155.198640
6.700000	-0.277796	-156.213669	-40.462429	6.158760	-40.462429	6.158760	-0.277764	-156.175157
6.750000	-0.281367	-157.189242	-40.350755	4.518909	-40.350755	4.518909	-0.281335	-157.151177
6.800000	-0.284970	-158.164379	-40.240852	2.881402	-40.240852	2.881402	-0.284940	-158.126770
6.850000	-0.288605	-159.139149	-40.132701	1.246224	-40.132701	1.246224	-0.288576	-159.102007
6.900000	-0.292273	-160.113623	-40.026280	-0.386642	-40.026280	-0.386642	-0.292245	-160.076958
6.950000	-0.295974	-161.087872	-39.921571	-2.017213	-39.921571	-2.017213	-0.295947	-161.051694
7.000000	-0.299706	-162.061967	-39.818556	-3.645506	-39.818556	-3.645506	-0.299680	-162.026286
7.050000	-0.303470	-163.035978	-39.717217	-5.271537	-39.717217	-5.271537	-0.303445	-163.000804
7.100000	-0.307265	-164.009976	-39.617539	-6.895324	-39.617539	-6.895324	-0.307241	-163.975318
7.150000	-0.311092	-164.984032	-39.519504	-8.516881	-39.519504	-8.516881	-0.311069	-164.949900
7.200000	-0.314950	-165.958216	-39.423099	-10.136225	-39.423099	-10.136225	-0.314928	-165.924620
7.250000	-0.318838	-166.932600	-39.328310	-11.753372	-39.328310	-11.753372	-0.318818	-166.899549
7.300000	-0.322757	-167.907255	-39.235122	-13.368336	-39.235122	-13.368336	-0.322738	-167.874757
7.350000	-0.326707	-168.882250	-39.143523	-14.981132	-39.143523	-14.981132	-0.326688	-168.850315
7.400000	-0.330686	-169.857657	-39.053502	-16.591772	-39.053502	-16.591772	-0.330668	-169.826293
7.450000	-0.334695	-170.833546	-38.965047	-18.200269	-38.965047	-18.200269	-0.334678	-170.802762
7.500000	-0.338733	-171.809989	-38.878147	-19.806635	-38.878147	-19.806635	-0.338716	-171.779793
7.550000	-0.342801	-172.787086	-38.792825	-21.410789	-38.792825	-21.410789	-0.342785	-172.757486
7.600000	-0.346897	-173.764884	-38.709041	-23.012831	-38.709041	-23.012831	-0.346882	-173.735888
7.650000	-0.351022	-174.743454	-38.626789	-24.612769	-38.626789	-24.612769	-0.351007	-174.715068
7.700000	-0.355173	-175.722865	-38.546059	-26.210610	-38.546059	-26.210610	-0.355159	-175.695097
7.750000	-0.359352	-176.703188	-38.466844	-27.806357	-38.466844	-27.806357	-0.359338	-176.676045
7.800000	-0.363557	-177.684494	-38.389139	-29.400014	-38.389139	-29.400014	-0.363543	-177.657982
7.850000	-0.367788	-178.666853	-38.312938	-30.991581	-38.312938	-30.991581	-0.367775	-178.640977
7.900000	-0.372045	-179.650334	-38.238234	-32.581057	-38.238234	-32.581057	-0.372031	-179.625100
7.950000	-0.376327	179.364993	-38.165024	-34.168439	-38.165024	-34.168439	-0.376313	179.389579
8.000000	-0.380632	178.379058	-38.093303	-35.753722	-38.093303	-35.753722	-0.380618	178.402992
8.050000	-0.384962	177.391790	-38.023068	-37.336896	-38.023068	-37.336896	-0.384947	177.415068
8.100000	-0.389314	176.403122	-37.954315	-38.917954	-37.954315	-38.917954	-0.389299	176.425740
8.150000	-0.393688	175.412983	-37.887042	-40.496880	-37.887042	-40.496880	-0.393673	175.434939
8.200000	-0.398085	174.421305	-37.821247	-42.073661	-37.821247	-42.073661	-0.398068	174.442595
8.250000	-0.402502	173.428019	-37.756927	-43.648278	-37.756927	-43.648278	-0.402484	173.448642
8.300000	-0.406939	172.433056	-37.694083	-45.220711	-37.694083	-45.220711	-0.406920	172.453010
8.350000	-0.411395	171.436348	-37.632712	-46.790934	-37.632712	-46.790934	-0.411375	171.455634
8.400000	-0.415870	170.437827	-37.572814	-48.358921	-37.572814	-48.358921	-0.415849	170.456444
8.450000	-0.420363	169.437426	-37.514388	-49.924643	-37.514388	-49.924643	-0.420340	169.455374
8.500000	-0.424872	168.435076	-37.457436	-51.488065	-37.457436	-51.488065	-0.424847	168.452358
8.550000	-0.429397	167.430712	-37.401957	-53.049151	-37.401957	-53.049151	-0.429370	167.447329
8.600000	-0.433937	166.424265	-37.347952	-54.607862	-37.347952	-54.607862	-0.433907	166.440221
8.650000	-0.438491	165.415671	-37.295421	-56.164154	-37.295421	-56.164154	-0.438458	165.430969
8.700000	-0.443057	164.404862	-37.244366	-57.717979	-37.244366	-57.717979	-0.443022	164.419508
8.750000	-0.447636	163.391773	-37.194788	-59.269289	-37.194788	-59.269289	-0.447597	163.405773
8.800000	-0.452225	162.376235	-37.146741	-60.817915	-37.146741	-60.817915	-0.452183	162.389595
8.850000	-0.456824	161.358282	-37.100175	-62.363908	-37.100175	-62.363908	-0.456777	161.371010
8.900000	-0.461432	160.337850	-37.055091	-63.907207	-37.055091	-63.907207	-0.461380	160.349955
8.950000	-0.466046	159.314875	-37.011491	-65.447748	-37.011491	-65.447748	-0.465990	159.326367
9.000000	-0.470667	158.289295	-36.969377	-66.985460	-36.969377	-66.985460	-0.470606	158.300185
9.050000	-0.475292	157.261046	-36.928748	-68.520274	-36.928748	-68.520274	-0.475225	157.271347
9.100000	-0.479920	156.230068	-36.889608	-70.052113	-36.889608	-70.052113	-0.479848	156.239793
9.150000	-0.484551	155.196300	-36.851956	-71.580898	-36.851956	-71.580898	-0.484472	155.205463
9.200000	-0.489182	154.159681	-36.815794	-73.106546	-36.815794	-73.106546	-0.489096	154.168299
9.250000	-0.493813	153.120151	-36.781123	-74.628973	-36.781123	-74.628973	-0.493719	153.128241
9.300000	-0.498441	152.077652	-36.747943	-76.148089	-36.747943	-76.148089	-0.498339	152.085233
9.350000	-0.503065	151.032125	-36.716255	-77.663801	-36.716255	-77.663801	-0.502955	151.039217
9.400000	-0.507684	149.983514	-36.686058	-79.176015	-36.686058	-79.176015	-0.507565	149.990139
9.450000	-0.512297	148.931762	-36.657353	-80.684633	-36.657353	-80.684633	-0.512168	148.937943
9.500000	-0.516901	147.876813	-36.630140	-82.189552	-36.630140	-82.189552	-0.516761	147.882576
9.550000	-0.521495	146.818614	-36.604416	-83.690670	-36.604416	-83.690670	-0.521344	146.823984
9.600000	-0.526077	145.757111	-36.580181	-85.187879	-36.580181	-85.187879	-0.525915	145.762116
9.650000	-0.530646	144.692251	-36.557433	-86.681071	-36.557433	-86.681071	-0.530471	144.696922
9.700000	-0.535199	143.623983	-36.536170	-88.170134	-36.536170	-88.170134	-0.535012	143.628351
9.750000	-0.539736	142.552258	-36.516390	-89.654956	-36.516390	-89.654956	-0.539534	142.556356
9.800000	-0.544254	141.477025	-36.498089	-91.135420	-36.498089	-91.135420	-0.544037	141.480890
9.850000	-0.548751	140.398238	-36.481263	-92.611410	-36.481263	-92.611410	-0.548519	140.401906
9.900000	-0.553225	139.315850	-36.465909	-94.082808	-36.465909	-94.082808	-0.552977	139.319360
9.950000	-0.557675	138.229816	-36.452022	-95.549492	-36.452022	-95.549492	-0.557409	138.233210
10.000000	-0.562099	137.140092	-36.439597	-97.011341	-36.439597	-97.011341	-0.561814	137.143413
