! freq	dB(S11)	phase(S11)	dB(S12)	phase(S12)	
!     	dB(S21)	phase(S21)	dB(S22)	phase(S22)	
!S-par simulation data
#  GHz  S  DB  R 50
0.000000	-82.223639	0.000000	-0.000672	0.000000	-0.000672	0.000000	-82.223639	0.000000
0.050000	-44.525570	-91.119984	-0.007663	-3.028392	-0.007663	-3.028392	-44.506142	-90.127588
0.100000	-38.681835	-95.418842	-0.012189	-6.030455	-0.012189	-6.030455	-38.663083	-93.467178
0.150000	-35.240266	-99.486081	-0.017259	-9.021189	-0.017259	-9.021189	-35.220779	-96.564754
0.200000	-32.797978	-103.371484	-0.022217	-12.003824	-0.022217	-12.003824	-32.777721	-99.474452
0.250000	-30.914863	-107.140210	-0.026916	-14.981560	-0.026916	-14.981560	-30.893965	-102.261086
0.300000	-29.391400	-110.840254	-0.031484	-17.956899	-0.031484	-17.956899	-29.370137	-104.970926
0.350000	-28.118909	-114.496182	-0.036063	-20.930865	-0.036063	-20.930865	-28.097626	-107.626633
0.400000	-27.031606	-118.122938	-0.040749	-23.903850	-0.040749	-23.903850	-27.010659	-110.241352
0.450000	-26.092522	-121.725977	-0.045637	-26.875735	-0.045637	-26.875735	-26.072360	-112.815055
0.500000	-25.267891	-125.316294	-0.050730	-29.846675	-0.050730	-29.846675	-25.248831	-115.358956
0.550000	-24.539160	-128.898412	-0.056055	-32.816563	-0.056055	-32.816563	-24.521501	-117.873676
0.600000	-23.892102	-132.477135	-0.061629	-35.785368	-0.061629	-35.785368	-23.876093	-120.360389
0.650000	-23.315065	-136.057120	-0.067450	-38.753200	-0.067450	-38.753200	-23.300879	-122.820907
0.700000	-22.799102	-139.642409	-0.073516	-41.720324	-0.073516	-41.720324	-22.786848	-125.256318
0.750000	-22.336935	-143.236525	-0.079812	-44.687216	-0.079812	-44.687216	-22.326668	-127.667431
0.800000	-21.923018	-146.842797	-0.086299	-47.654594	-0.086299	-47.654594	-21.914760	-130.054349
0.850000	-21.553828	-150.465090	-0.092873	-50.623438	-0.092873	-50.623438	-21.547586	-132.415886
0.900000	-21.224389	-154.105782	-0.099327	-53.594380	-0.099327	-53.594380	-21.220160	-134.752627
0.950000	-20.932170	-157.768294	-0.105409	-56.567351	-0.105409	-56.567351	-20.929960	-137.063105
1.000000	-20.674667	-161.455802	-0.110931	-59.541275	-0.110931	-59.541275	-20.674503	-139.345946
1.050000	-20.449801	-165.171583	-0.115885	-62.514786	-0.115885	-62.514786	-20.451739	-141.599396
1.100000	-20.255836	-168.919061	-0.120397	-65.487164	-0.120397	-65.487164	-20.259967	-143.821309
1.150000	-20.091326	-172.701867	-0.124618	-68.458586	-0.124618	-68.458586	-20.097783	-146.009128
1.200000	-19.955070	-176.523897	-0.128642	-71.429763	-0.128642	-71.429763	-19.964031	-148.159855
1.250000	-19.846076	179.610633	-0.132506	-74.401537	-0.132506	-74.401537	-19.857763	-150.270015
1.300000	-19.764075	175.695954	-0.136209	-77.374722	-0.136209	-77.374722	-19.778769	-152.334540
1.350000	-19.707850	171.727901	-0.139740	-80.349960	-0.139740	-80.349960	-19.725872	-154.349692
1.400000	-19.676873	167.700819	-0.143083	-83.327811	-0.143083	-83.327811	-19.698587	-156.310203
1.450000	-19.670729	163.608403	-0.146229	-86.308771	-0.146229	-86.308771	-19.696544	-158.210065
1.500000	-19.689100	159.443598	-0.149170	-89.293290	-0.149170	-89.293290	-19.719469	-160.042428
1.550000	-19.731751	155.198469	-0.151906	-92.281790	-0.151906	-92.281790	-19.767165	-161.799475
1.600000	-19.798509	150.864057	-0.154445	-95.274666	-0.154445	-95.274666	-19.839493	-163.472275
1.650000	-19.889240	146.430214	-0.156796	-98.272298	-0.156796	-98.272298	-19.936355	-165.050609
1.700000	-20.003830	141.885410	-0.158976	-101.275044	-0.158976	-101.275044	-20.057662	-166.522765
1.750000	-20.142148	137.216515	-0.161005	-104.283248	-0.161005	-104.283248	-20.203306	-167.875298
1.800000	-20.304008	132.408549	-0.162906	-107.297235	-0.162906	-107.297235	-20.373113	-169.092766
1.850000	-20.489118	127.444413	-0.164709	-110.317312	-0.164709	-110.317312	-20.566787	-170.157426
1.900000	-20.697180	122.302445	-0.166441	-113.343838	-0.166441	-113.343838	-20.784014	-171.046772
1.950000	-20.927367	116.959584	-0.168138	-116.377089	-0.168138	-116.377089	-21.023908	-171.736594
2.000000	-21.178290	111.392392	-0.169835	-119.417242	-0.169835	-119.417242	-21.284983	-172.202023
2.050000	-21.448180	105.572445	-0.171568	-122.464519	-0.171568	-122.464519	-21.565309	-172.412941
2.100000	-21.734477	99.468339	-0.173375	-125.519124	-0.173375	-125.519124	-21.862071	-172.335982
2.150000	-22.033554	93.046175	-0.175295	-128.581236	-0.175295	-128.581236	-22.171265	-171.935106
2.200000	-22.340408	86.270666	-0.177366	-131.651015	-0.177366	-131.651015	-22.487337	-171.172918
2.250000	-22.648311	79.107193	-0.179626	-134.728599	-0.179626	-134.728599	-22.802801	-170.013104
2.300000	-22.948489	71.525148	-0.182114	-137.814108	-0.182114	-137.814108	-23.107883	-168.424398
2.350000	-23.229922	63.502858	-0.184866	-140.907641	-0.184866	-140.907641	-23.390338	-166.386385
2.400000	-23.479421	55.034073	-0.187919	-144.009281	-0.187919	-144.009281	-23.635611	-163.897036
2.450000	-23.682175	46.135388	-0.191306	-147.119095	-0.191306	-147.119095	-23.827578	-160.981059
2.500000	-23.822923	36.853002	-0.195061	-150.237136	-0.195061	-150.237136	-23.950030	-157.696931
2.550000	-23.885878	27.262182	-0.199223	-153.363628	-0.199223	-153.363628	-23.986806	-154.136466
2.600000	-23.862344	17.482997	-0.203811	-156.498426	-0.203811	-156.498426	-23.930172	-150.435478
2.650000	-23.747749	7.646255	-0.208851	-159.641557	-0.208851	-159.641557	-23.777345	-146.737772
2.700000	-23.543957	-2.114341	-0.214364	-162.793048	-0.214364	-162.793048	-23.532609	-143.184064
2.750000	-23.258820	-11.679260	-0.220372	-165.952924	-0.220372	-165.952924	-23.206325	-139.893902
2.800000	-22.904579	-20.955963	-0.226890	-169.121217	-0.226890	-169.121217	-22.812830	-136.953967
2.850000	-22.497538	-29.896007	-0.233917	-172.297712	-0.233917	-172.297712	-22.369819	-134.402149
2.900000	-22.048184	-38.446503	-0.241499	-175.483012	-0.241499	-175.483012	-21.888484	-132.284148
2.950000	-21.572545	-46.618395	-0.249625	-178.676884	-0.249625	-178.676884	-21.384951	-130.577987
3.000000	-21.082065	-54.428694	-0.258304	178.120588	-0.258304	178.120588	-20.870376	-129.259464
3.050000	-20.585889	-61.905855	-0.267538	174.909295	-0.267538	174.909295	-20.353425	-128.295084
3.100000	-20.090976	-69.084162	-0.277333	171.689104	-0.277333	171.689104	-19.840521	-127.647437
3.150000	-19.602244	-75.997890	-0.287694	168.459779	-0.287694	168.459779	-19.336067	-127.280769
3.200000	-19.123278	-82.683343	-0.298623	165.221117	-0.298623	165.221117	-18.843194	-127.158285
3.250000	-18.656484	-89.175844	-0.310118	161.972960	-0.310118	161.972960	-18.363934	-127.244843
3.300000	-18.203153	-95.505657	-0.322181	158.715039	-0.322181	158.715039	-17.899284	-127.510997
3.350000	-17.764090	-101.703187	-0.334801	155.447344	-0.334801	155.447344	-17.449834	-127.926925
3.400000	-17.338878	-107.785031	-0.348020	152.168894	-0.348020	152.168894	-17.014991	-128.478528
3.450000	-16.927486	-113.776811	-0.361829	148.879621	-0.361829	148.879621	-16.594622	-129.141071
3.500000	-16.529314	-119.696995	-0.376244	145.579087	-0.376244	145.579087	-16.188058	-129.897625
3.550000	-16.143560	-125.561628	-0.391284	142.266812	-0.391284	142.266812	-15.794463	-130.733716
3.600000	-15.769283	-131.384571	-0.406978	138.942273	-0.406978	138.942273	-15.412889	-131.637062
3.650000	-15.405443	-137.177707	-0.423359	135.604907	-0.423359	135.604907	-15.042312	-132.597348
3.700000	-15.050940	-142.951121	-0.440471	132.254112	-0.440471	132.254112	-14.681664	-133.606035
3.750000	-14.704639	-148.713258	-0.458368	128.889253	-0.458368	128.889253	-14.329853	-134.656191
3.800000	-14.365289	-154.471069	-0.477125	125.509440	-0.477125	125.509440	-13.985687	-135.742808
3.850000	-14.031832	-160.230176	-0.496810	122.114184	-0.496810	122.114184	-13.648164	-136.861232
3.900000	-13.703154	-165.994730	-0.517513	118.702777	-0.517513	118.702777	-13.316230	-138.008646
3.950000	-13.378183	-171.767653	-0.539340	115.274499	-0.539340	115.274499	-12.988873	-139.183376
4.000000	-13.055909	-177.550716	-0.562409	111.828628	-0.562409	111.828628	-12.665138	-140.384807
4.050000	-12.735400	176.655382	-0.586860	108.364452	-0.586860	108.364452	-12.344139	-141.613287
4.100000	-12.415814	170.850933	-0.612846	104.881280	-0.612846	104.881280	-12.025075	-142.870038
4.150000	-12.096415	165.037141	-0.640539	101.378451	-0.640539	101.378451	-11.707235	-144.157061
4.200000	-11.776462	159.215976	-0.670150	97.855152	-0.670150	97.855152	-11.389903	-145.477375
4.250000	-11.455515	153.390273	-0.701884	94.310920	-0.701884	94.310920	-11.072635	-146.834128
4.300000	-11.133287	147.563420	-0.735961	90.745384	-0.735961	90.745384	-10.755118	-148.230838
4.350000	-10.809574	141.739253	-0.772628	87.158171	-0.772628	87.158171	-10.437112	-149.671487
4.400000	-10.484316	135.921971	-0.812152	83.549020	-0.812152	83.549020	-10.118507	-151.160221
4.450000	-10.157594	130.116027	-0.854815	79.917803	-0.854815	79.917803	-9.799321	-152.701224
4.500000	-9.829629	124.326012	-0.900914	76.264543	-0.900914	76.264543	-9.479693	-154.298587
4.550000	-9.500766	118.556563	-0.950762	72.589431	-0.950762	72.589431	-9.159884	-155.956183
4.600000	-9.171411	112.812412	-1.004701	68.892741	-1.004701	68.892741	-8.840205	-157.677882
4.650000	-8.842082	107.098261	-1.063089	65.174970	-1.063089	65.174970	-8.521078	-159.467172
4.700000	-8.513562	101.418150	-1.126225	61.437130	-1.126225	61.437130	-8.203165	-161.326011
4.750000	-8.186576	95.776145	-1.194448	57.680260	-1.194448	57.680260	-7.887085	-163.256388
4.800000	-7.861897	90.176065	-1.268096	53.905634	-1.268096	53.905634	-7.573507	-165.259658
4.850000	-7.540331	84.621478	-1.347496	50.114772	-1.347496	50.114772	-7.263132	-167.336516
4.900000	-7.222693	79.115696	-1.432967	46.309441	-1.432967	46.309441	-6.956681	-169.486986
4.950000	-6.909799	73.661788	-1.524808	42.491646	-1.524808	42.491646	-6.654880	-171.710422
5.000000	-6.602439	68.262594	-1.623299	38.663630	-1.623299	38.663630	-6.358437	-174.005534
5.050000	-6.301330	62.921613	-1.728777	34.827781	-1.728777	34.827781	-6.068001	-176.371397
5.100000	-6.007264	57.640483	-1.841378	30.986921	-1.841378	30.986921	-5.784289	-178.804478
5.150000	-5.720896	52.421462	-1.961287	27.143896	-1.961287	27.143896	-5.507900	178.698219
5.200000	-5.442816	47.266651	-2.088647	23.301699	-2.088647	23.301699	-5.239376	176.140135
5.250000	-5.173540	42.178000	-2.223559	19.463438	-2.223559	19.463438	-4.979193	173.525085
5.300000	-4.913510	37.157320	-2.366080	15.632296	-2.366080	15.632296	-4.727760	170.857192
5.350000	-4.663086	32.206280	-2.516220	11.811498	-2.516220	11.811498	-4.485412	168.140811
5.400000	-4.422551	27.326401	-2.673944	8.004268	-2.673944	8.004268	-4.252412	165.380460
5.450000	-4.192150	22.519770	-2.839207	4.213982	-2.839207	4.213982	-4.028991	162.580420
5.500000	-3.972001	17.787268	-3.011850	0.443726	-3.011850	0.443726	-3.815260	159.745620
5.550000	-3.762136	13.129578	-3.191678	-3.303595	-3.191678	-3.303595	-3.611248	156.880861
5.600000	-3.562734	8.550134	-3.378563	-7.024170	-3.378563	-7.024170	-3.417123	153.989983
5.650000	-3.373317	4.044439	-3.572075	-10.717232	-3.572075	-10.717232	-3.232437	151.078857
5.700000	-3.193851	-0.385591	-3.771999	-14.379846	-3.771999	-14.379846	-3.057156	148.151178
5.750000	-3.024502	-4.735245	-3.978121	-18.007910	-3.978121	-18.007910	-2.891435	145.210128
5.800000	-2.864294	-9.013409	-4.189996	-21.603398	-4.189996	-21.603398	-2.734356	142.260713
5.850000	-2.714086	-13.206871	-4.407338	-25.158252	-4.407338	-25.158252	-2.586721	139.305301
5.900000	-2.572308	-17.330833	-4.629809	-28.678205	-4.629809	-28.678205	-2.447054	136.347967
5.950000	-2.439770	-21.372622	-4.856904	-32.155218	-4.856904	-32.155218	-2.316107	133.391596
6.000000	-2.315243	-25.343245	-5.088429	-35.593691	-5.088429	-35.593691	-2.192723	130.438672
6.050000	-2.198862	-29.237880	-5.323864	-38.989677	-5.323864	-38.989677	-2.077023	127.492020
6.100000	-2.090137	-33.059084	-5.562887	-42.343424	-5.562887	-42.343424	-1.968537	124.553726
6.150000	-1.988465	-36.810932	-5.805264	-45.656215	-5.805264	-45.656215	-1.866697	121.625398
6.200000	-1.894039	-40.487997	-6.050278	-48.923794	-6.050278	-48.923794	-1.771668	118.709868
6.250000	-1.805623	-44.102551	-6.298252	-52.152756	-6.298252	-52.152756	-1.682295	115.806656
6.300000	-1.724006	-47.641868	-6.547851	-55.334284	-6.547851	-55.334284	-1.599293	112.920150
6.350000	-1.647723	-51.121848	-6.799836	-58.477681	-6.799836	-58.477681	-1.521295	110.048238
6.400000	-1.577207	-54.534324	-7.053072	-61.576954	-7.053072	-61.576954	-1.448689	107.194412
6.450000	-1.511673	-57.887258	-7.307846	-64.636667	-7.307846	-64.636667	-1.380736	104.357812
6.500000	-1.450984	-61.180246	-7.563668	-67.655924	-7.563668	-67.655924	-1.317299	101.539810
6.550000	-1.394922	-64.414143	-7.820162	-70.634712	-7.820162	-70.634712	-1.258162	98.741325
6.600000	-1.342896	-67.595325	-8.077643	-73.576872	-8.077643	-73.576872	-1.202773	95.961312
6.650000	-1.295147	-70.718457	-8.334938	-76.478129	-8.334938	-76.478129	-1.151337	93.202794
6.700000	-1.251179	-73.788953	-8.592252	-79.341729	-8.592252	-79.341729	-1.103388	90.464925
6.750000	-1.210486	-76.812935	-8.850045	-82.171601	-8.850045	-82.171601	-1.058455	87.746231
6.800000	-1.173047	-79.789400	-9.107731	-84.966583	-9.107731	-84.966583	-1.016508	85.048020
6.850000	-1.138653	-82.720349	-9.365172	-87.727684	-9.365172	-87.727684	-0.977344	82.370384
6.900000	-1.107107	-85.607764	-9.622242	-90.455925	-9.622242	-90.455925	-0.940777	79.713374
6.950000	-1.078227	-88.453599	-9.878831	-93.152330	-9.878831	-93.152330	-0.906630	77.077004
7.000000	-1.051841	-91.259782	-10.134841	-95.817926	-10.134841	-95.817926	-0.874741	74.461259
7.050000	-1.027790	-94.028207	-10.390186	-98.453736	-10.390186	-98.453736	-0.844956	71.866100
7.100000	-1.005927	-96.760737	-10.644793	-101.060775	-10.644793	-101.060775	-0.817135	69.291470
7.150000	-0.986113	-99.459199	-10.898599	-103.640047	-10.898599	-103.640047	-0.791147	66.737294
7.200000	-0.968222	-102.125384	-11.151552	-106.192545	-11.151552	-106.192545	-0.766871	64.203487
7.250000	-0.952135	-104.761048	-11.403610	-108.719246	-11.403610	-108.719246	-0.744193	61.689953
7.300000	-0.937743	-107.367908	-11.654739	-111.221111	-11.654739	-111.221111	-0.723010	59.196590
7.350000	-0.924943	-109.947649	-11.904915	-113.699084	-11.904915	-113.699084	-0.703226	56.723290
7.400000	-0.913643	-112.501917	-12.154121	-116.154091	-12.154121	-116.154091	-0.684753	54.269940
7.450000	-0.903755	-115.032323	-12.402350	-118.587038	-12.402350	-118.587038	-0.667507	51.836428
7.500000	-0.895199	-117.540446	-12.649599	-120.998814	-12.649599	-120.998814	-0.651413	49.422636
7.550000	-0.887954	-120.027001	-12.895533	-123.389445	-12.895533	-123.389445	-0.636445	47.029295
7.600000	-0.881893	-122.494468	-13.140513	-125.760700	-13.140513	-125.760700	-0.622490	44.655428
7.650000	-0.876956	-124.944326	-13.384558	-128.113407	-13.384558	-128.113407	-0.609490	42.300917
7.700000	-0.873085	-127.378027	-13.627696	-130.448377	-13.627696	-130.448377	-0.597389	39.965644
7.750000	-0.870227	-129.796997	-13.869955	-132.766404	-13.869955	-132.766404	-0.586138	37.649489
7.800000	-0.868336	-132.202638	-14.111374	-135.068262	-14.111374	-135.068262	-0.575690	35.352333
7.850000	-0.867366	-134.596328	-14.351994	-137.354711	-14.351994	-137.354711	-0.566004	33.074056
7.900000	-0.867278	-136.979425	-14.591863	-139.626494	-14.591863	-139.626494	-0.557039	30.814538
7.950000	-0.868036	-139.353267	-14.831034	-141.884338	-14.831034	-141.884338	-0.548760	28.573655
8.000000	-0.869606	-141.719177	-15.069565	-144.128954	-15.069565	-144.128954	-0.541133	26.351287
8.050000	-0.871958	-144.078462	-15.307519	-146.361039	-15.307519	-146.361039	-0.534127	24.147306
8.100000	-0.875066	-146.432415	-15.544966	-148.581277	-15.544966	-148.581277	-0.527714	21.961588
8.150000	-0.878905	-148.782322	-15.781979	-150.790336	-15.781979	-150.790336	-0.521867	19.794003
8.200000	-0.883456	-151.129458	-16.018639	-152.988872	-16.018639	-152.988872	-0.516561	17.644420
8.250000	-0.888699	-153.475093	-16.255031	-155.177525	-16.255031	-155.177525	-0.511775	15.512705
8.300000	-0.894619	-155.820493	-16.491246	-157.356925	-16.491246	-157.356925	-0.507488	13.398720
8.350000	-0.901191	-158.166872	-16.727503	-159.527835	-16.727503	-159.527835	-0.503670	11.301990
8.400000	-0.908439	-160.515627	-16.963562	-161.690423	-16.963562	-161.690423	-0.500331	9.223316
8.450000	-0.916331	-162.867980	-17.199781	-163.845599	-17.199781	-163.845599	-0.497434	7.161872
8.500000	-0.924862	-165.225199	-17.436278	-165.993926	-17.436278	-165.993926	-0.494964	5.117507
8.550000	-0.934030	-167.588570	-17.673175	-168.135949	-17.673175	-168.135949	-0.492909	3.090069
8.600000	-0.943837	-169.959394	-17.910604	-170.272193	-17.910604	-170.272193	-0.491254	1.079398
8.650000	-0.954287	-172.338993	-18.148704	-172.403165	-18.148704	-172.403165	-0.489988	-0.914668
8.700000	-0.965388	-174.728719	-18.387621	-174.529345	-18.387621	-174.529345	-0.489099	-2.892295
8.750000	-0.977153	-177.129957	-18.627514	-176.651186	-18.627514	-176.651186	-0.488579	-4.853654
8.800000	-0.989645	-179.545131	-18.868174	-178.768863	-18.868174	-178.768863	-0.488440	-6.797823
8.850000	-1.002841	178.025076	-19.110164	179.116955	-19.110164	179.116955	-0.488649	-8.726104
8.900000	-1.016772	175.579109	-19.353670	177.005945	-19.353670	177.005945	-0.489199	-10.638680
8.950000	-1.031474	173.115332	-19.598889	174.897841	-19.598889	174.897841	-0.490082	-12.535742
9.000000	-1.046992	170.632017	-19.846032	172.792451	-19.846032	172.792451	-0.491291	-14.417482
9.050000	-1.063382	168.127313	-20.095319	170.689674	-20.095319	170.689674	-0.492820	-16.284100
9.100000	-1.080716	165.599231	-20.346984	168.589518	-20.346984	168.589518	-0.494663	-18.135797
9.150000	-1.099081	163.045602	-20.601271	166.492130	-20.601271	166.492130	-0.496815	-19.972779
9.200000	-1.118586	160.464043	-20.858437	164.397835	-20.858437	164.397835	-0.499272	-21.795257
9.250000	-1.139369	157.851900	-21.118747	162.307183	-21.118747	162.307183	-0.502029	-23.603445
9.300000	-1.161604	155.206184	-21.382474	160.221012	-21.382474	160.221012	-0.505082	-25.397561
9.350000	-1.185517	152.523486	-21.649890	158.140533	-21.649890	158.140533	-0.508427	-27.177826
9.400000	-1.211473	149.798287	-21.921110	156.067791	-21.921110	156.067791	-0.512072	-28.944006
9.450000	-1.239841	147.026479	-22.196455	154.005164	-22.196455	154.005164	-0.516007	-30.696602
9.500000	-1.271054	144.204073	-22.476258	151.955594	-22.476258	151.955594	-0.520220	-32.436284
9.550000	-1.306055	141.320461	-22.760301	149.924898	-22.760301	149.924898	-0.524725	-34.162477
9.600000	-1.345613	138.370990	-23.048777	147.918298	-23.048777	147.918298	-0.529500	-35.876251
9.650000	-1.391024	135.346004	-23.341292	145.943820	-23.341292	145.943820	-0.534543	-37.577826
9.700000	-1.444696	132.227573	-23.636437	144.015514	-23.636437	144.015514	-0.539860	-39.266744
9.750000	-1.509675	128.999910	-23.932012	142.149304	-23.932012	142.149304	-0.545436	-40.943507
9.800000	-1.590064	125.646669	-24.224133	140.362164	-24.224133	140.362164	-0.551244	-42.608714
9.850000	-1.692447	122.144552	-24.505285	138.673267	-24.505285	138.673267	-0.557253	-44.262457
9.900000	-1.831449	118.448703	-24.756757	137.099093	-24.756757	137.099093	-0.563402	-45.903471
9.950000	-2.022661	114.554734	-24.955682	135.570288	-24.955682	135.570288	-0.569562	-47.531401
10.000000	-2.300907	110.457566	-25.063055	133.834134	-25.063055	133.834134	-0.576216	-49.138063
