! freq	dB(S11)	phase(S11)	dB(S12)	phase(S12)	
!     	dB(S21)	phase(S21)	dB(S22)	phase(S22)	
!S-par simulation data
#  GHz  S  DB  R 50
0.000000	-83.766215	0.000000	-0.000563	0.000000	-0.000563	0.000000	-83.766215	0.000000
0.050000	-38.733162	-91.925492	-0.005010	-2.865008	-0.005010	-2.865008	-38.733230	-91.719497
0.100000	-32.793533	-95.244054	-0.012565	-5.693933	-0.012565	-5.693933	-32.794740	-95.208272
0.150000	-29.320392	-98.367126	-0.019889	-8.506705	-0.019889	-8.506705	-29.320138	-98.366016
0.200000	-26.866319	-101.371284	-0.027454	-11.314069	-0.027454	-11.314069	-26.865928	-101.376591
0.250000	-24.975171	-104.303260	-0.035760	-14.117614	-0.035760	-14.117614	-24.974933	-104.306613
0.300000	-23.442582	-107.190340	-0.044986	-16.916965	-0.044986	-16.916965	-23.442452	-107.189453
0.350000	-22.158609	-110.049275	-0.055106	-19.711759	-0.055106	-19.711759	-22.158503	-110.043985
0.400000	-21.058354	-112.888535	-0.066070	-22.501589	-0.066070	-22.501589	-21.058223	-112.879331
0.450000	-20.100846	-115.712656	-0.077834	-25.285930	-0.077834	-25.285930	-20.100670	-115.700199
0.500000	-19.256489	-118.525302	-0.090276	-28.064840	-0.090276	-28.064840	-19.256269	-118.510166
0.550000	-18.504959	-121.328012	-0.103316	-30.838149	-0.103316	-30.838149	-18.504706	-121.310665
0.600000	-17.832170	-124.121229	-0.116891	-33.605427	-0.116891	-33.605427	-17.831896	-124.102045
0.650000	-17.225991	-126.905751	-0.130896	-36.366747	-0.130896	-36.366747	-17.225708	-126.884988
0.700000	-16.677363	-129.681900	-0.145241	-39.122065	-0.145241	-39.122065	-16.677079	-129.659732
0.750000	-16.179845	-132.449556	-0.159846	-41.871114	-0.159846	-41.871114	-16.179565	-132.426090
0.800000	-15.727701	-135.208847	-0.174616	-44.613869	-0.174616	-44.613869	-15.727427	-135.184128
0.850000	-15.316057	-137.959984	-0.189455	-47.350410	-0.189455	-47.350410	-15.315789	-137.934009
0.900000	-14.941036	-140.703125	-0.204272	-50.080806	-0.204272	-50.080806	-14.940771	-140.675851
0.950000	-14.599510	-143.438417	-0.218976	-52.805134	-0.218976	-52.805134	-14.599246	-143.409768
1.000000	-14.288786	-146.166090	-0.233476	-55.523550	-0.233476	-55.523550	-14.288519	-146.135964
1.050000	-14.006579	-148.886428	-0.247681	-58.236267	-0.247681	-58.236267	-14.006305	-148.854701
1.100000	-13.750942	-151.599766	-0.261505	-60.943549	-0.261505	-60.943549	-13.750658	-151.566299
1.150000	-13.520212	-154.306493	-0.274864	-63.645714	-0.274864	-63.645714	-13.519915	-154.271134
1.200000	-13.312964	-157.007047	-0.287677	-66.343132	-0.287677	-66.343132	-13.312652	-156.969634
1.250000	-13.127977	-159.701912	-0.299868	-69.036221	-0.299868	-69.036221	-13.127648	-159.662277
1.300000	-12.964591	-162.391514	-0.311349	-71.725373	-0.311349	-71.725373	-12.964244	-162.349482
1.350000	-12.821533	-165.076544	-0.322068	-74.411192	-0.322068	-74.411192	-12.821168	-165.031939
1.400000	-12.698057	-167.757601	-0.331966	-77.094228	-0.331966	-77.094228	-12.697673	-167.710248
1.450000	-12.593542	-170.435315	-0.340987	-79.775066	-0.340987	-79.775066	-12.593140	-170.385035
1.500000	-12.507483	-173.110340	-0.349086	-82.454322	-0.349086	-82.454322	-12.507065	-173.056953
1.550000	-12.439484	-175.783349	-0.356221	-85.132640	-0.356221	-85.132640	-12.439049	-175.726673
1.600000	-12.389248	-178.455033	-0.362360	-87.810688	-0.362360	-87.810688	-12.388797	-178.394880
1.650000	-12.356577	178.873907	-0.367476	-90.489156	-0.367476	-90.489156	-12.356111	178.937728
1.700000	-12.341368	176.202764	-0.371552	-93.168746	-0.371552	-93.168746	-12.340887	176.270454
1.750000	-12.343609	173.530828	-0.374578	-95.850174	-0.374578	-95.850174	-12.343113	173.602596
1.800000	-12.363386	170.857393	-0.376550	-98.534165	-0.376550	-98.534165	-12.362874	170.933462
1.850000	-12.400879	168.181759	-0.377475	-101.221444	-0.377475	-101.221444	-12.400350	168.262370
1.900000	-12.456562	165.503205	-0.377355	-103.912790	-0.377355	-103.912790	-12.456014	165.588619
1.950000	-12.530825	162.821040	-0.376213	-106.608949	-0.376213	-106.608949	-12.530256	162.911548
2.000000	-12.623975	160.134659	-0.374091	-109.310588	-0.374091	-109.310588	-12.623382	160.230576
2.050000	-12.736631	157.443454	-0.371027	-112.018406	-0.371027	-112.018406	-12.736010	157.545132
2.100000	-12.869547	154.746856	-0.367068	-114.733083	-0.367068	-114.733083	-12.868895	154.854693
2.150000	-13.023625	152.044345	-0.362269	-117.455277	-0.362269	-117.455277	-13.022937	152.158789
2.200000	-13.199936	149.335456	-0.356691	-120.185619	-0.356691	-120.185619	-13.199206	149.457016
2.250000	-13.399739	146.619788	-0.350405	-122.924710	-0.350405	-122.924710	-13.398961	146.749049
2.300000	-13.624518	143.897020	-0.343486	-125.673116	-0.343486	-125.673116	-13.623685	144.034656
2.350000	-13.876017	141.166921	-0.336019	-128.431364	-0.336019	-128.431364	-13.875120	141.313714
2.400000	-14.156285	138.429371	-0.328095	-131.199938	-0.328095	-131.199938	-14.155316	138.586234
2.450000	-14.467745	135.684381	-0.319808	-133.979274	-0.319808	-133.979274	-14.466692	135.852387
2.500000	-14.813271	132.932120	-0.311261	-136.769758	-0.311261	-136.769758	-14.812120	133.112542
2.550000	-15.196789	130.172817	-0.302561	-139.571976	-0.302561	-139.571976	-15.195526	130.367219
2.600000	-15.621966	127.407263	-0.293824	-142.385952	-0.293824	-142.385952	-15.620570	127.617503
2.650000	-16.093831	124.636416	-0.285166	-145.211892	-0.285166	-145.211892	-16.092279	124.864770
2.700000	-16.618577	121.861663	-0.276704	-148.049935	-0.276704	-148.049935	-16.616839	122.110956
2.750000	-17.203937	119.084983	-0.268560	-150.900155	-0.268560	-150.900155	-17.201972	119.358776
2.800000	-17.859733	116.309191	-0.260855	-153.762553	-0.260855	-153.762553	-17.857487	116.612056
2.850000	-18.598701	113.538331	-0.253710	-156.637061	-0.253710	-156.637061	-18.596099	113.876271
2.900000	-19.437759	110.778355	-0.247246	-159.523535	-0.247246	-159.523535	-19.434693	111.159456
2.950000	-20.400074	108.038303	-0.241584	-162.421761	-0.241584	-162.421761	-20.396380	108.473822
3.000000	-21.518565	105.332565	-0.236839	-165.331450	-0.236839	-165.331450	-21.513982	105.838817
3.050000	-22.842295	102.685491	-0.233126	-168.252242	-0.233126	-168.252242	-22.836375	103.287379
3.100000	-24.449126	100.141820	-0.230551	-171.183705	-0.230551	-171.183705	-24.441026	100.880070
3.150000	-26.474366	97.798058	-0.229232	-174.125442	-0.229232	-174.125442	-26.462255	98.747535
3.200000	-29.183857	95.900395	-0.229266	-177.076868	-0.229266	-177.076868	-29.162803	97.222296
3.250000	-33.226193	95.302454	-0.230728	179.962760	-0.230728	179.962760	-33.176696	97.449307
3.300000	-41.065897	102.919539	-0.233695	176.994129	-0.233695	176.994129	-40.779355	108.267821
3.350000	-44.729039	-137.008898	-0.238234	174.017977	-0.238234	174.017977	-44.044524	-141.772123
3.400000	-34.640428	-107.261997	-0.244402	171.035086	-0.244402	171.035086	-34.588558	-109.982166
3.450000	-29.867117	-106.952749	-0.252246	168.046278	-0.252246	168.046278	-29.852338	-108.522145
3.500000	-26.778759	-108.652375	-0.261798	165.052404	-0.261798	165.052404	-26.772584	-109.762322
3.550000	-24.494122	-110.950810	-0.273080	162.054338	-0.273080	162.054338	-24.491096	-111.813319
3.600000	-22.682516	-113.510083	-0.286099	159.052970	-0.286099	159.052970	-22.680928	-114.217840
3.650000	-21.183876	-116.206620	-0.300853	156.049194	-0.300853	156.049194	-21.183038	-116.808407
3.700000	-19.908502	-118.984032	-0.317321	153.043904	-0.317321	153.043904	-19.908090	-119.508676
3.750000	-18.801045	-121.812645	-0.335474	150.037984	-0.335474	150.037984	-18.800890	-122.278591
3.800000	-17.825108	-124.675646	-0.355301	147.032323	-0.355301	147.032323	-17.825114	-125.095596
3.850000	-16.955116	-127.561336	-0.376708	144.027770	-0.376708	144.027770	-16.955227	-127.944060
3.900000	-16.172629	-130.462552	-0.399627	141.025125	-0.399627	141.025125	-16.172809	-130.814518
3.950000	-15.463854	-133.374216	-0.423976	138.025148	-0.423976	138.025148	-15.464081	-133.700323
4.000000	-14.818196	-136.292589	-0.449664	135.028546	-0.449664	135.028546	-14.818455	-136.596634
4.050000	-14.227336	-139.214831	-0.476590	132.035974	-0.476590	132.035974	-14.227616	-139.499812
4.100000	-13.684612	-142.138732	-0.504642	129.048025	-0.504642	129.048025	-13.684905	-142.407059
4.150000	-13.184604	-145.062548	-0.533703	126.065227	-0.533703	126.065227	-13.184905	-145.316182
4.200000	-12.722839	-147.984884	-0.563645	123.088041	-0.563645	123.088041	-12.723143	-148.225442
4.250000	-12.295577	-150.904626	-0.594336	120.116852	-0.594336	120.116852	-12.295882	-151.133455
4.300000	-11.899660	-153.820886	-0.625638	117.151972	-0.625638	117.151972	-11.899963	-154.039120
4.350000	-11.532394	-156.732969	-0.657408	114.193637	-0.657408	114.193637	-11.532693	-156.941567
4.400000	-11.191591	-159.640287	-0.689502	111.242076	-0.689502	111.242076	-11.191884	-159.840077
4.450000	-10.875243	-162.542445	-0.721766	108.297368	-0.721766	108.297368	-10.875528	-162.734138
4.500000	-10.581469	-165.439248	-0.754048	105.359432	-0.754048	105.359432	-10.581745	-165.623448
4.550000	-10.308735	-168.330564	-0.786197	102.428185	-0.786197	102.428185	-10.309000	-168.507797
4.600000	-10.055689	-171.216371	-0.818064	99.503461	-0.818064	99.503461	-10.055943	-171.387096
4.650000	-9.821141	-174.096745	-0.849498	96.585023	-0.849498	96.585023	-9.821383	-174.261362
4.700000	-9.604037	-176.971854	-0.880353	93.672556	-0.880353	93.672556	-9.604266	-177.130716
4.750000	-9.403442	-179.841955	-0.910483	90.765670	-0.910483	90.765670	-9.403657	-179.995368
4.800000	-9.218530	177.292617	-0.939745	87.863906	-0.939745	87.863906	-9.218731	177.144383
4.850000	-9.048570	174.431452	-0.968001	84.966733	-0.968001	84.966733	-9.048756	174.288161
4.900000	-8.892918	171.574065	-0.995116	82.073552	-0.995116	82.073552	-8.893087	171.435511
4.950000	-8.751007	168.719909	-1.020959	79.183699	-1.020959	79.183699	-8.751161	168.585912
5.000000	-8.622346	165.868372	-1.045405	76.296443	-1.045405	76.296443	-8.622484	165.738777
5.050000	-8.506753	163.018807	-1.068297	73.411010	-1.068297	73.411010	-8.506874	162.893481
5.100000	-8.403628	160.170428	-1.089552	70.526484	-1.089552	70.526484	-8.403733	160.049260
5.150000	-8.312678	157.322452	-1.109061	67.641946	-1.109061	67.641946	-8.312766	157.205353
5.200000	-8.233667	154.474051	-1.126723	64.756415	-1.126723	64.756415	-8.233740	154.360949
5.250000	-8.166423	151.624347	-1.142441	61.868854	-1.142441	61.868854	-8.166478	151.515190
5.300000	-8.110829	148.772423	-1.156128	58.978166	-1.156128	58.978166	-8.110868	148.667176
5.350000	-8.066831	145.917321	-1.167701	56.083198	-1.167701	56.083198	-8.066854	145.815967
5.400000	-8.034435	143.058049	-1.177088	53.182738	-1.177088	53.182738	-8.034441	142.960588
5.450000	-8.013710	140.193580	-1.184221	50.275516	-1.184221	50.275516	-8.013700	140.100030
5.500000	-8.004792	137.322858	-1.189044	47.360203	-1.189044	47.360203	-8.004766	137.233259
5.550000	-8.007887	134.444806	-1.191507	44.435413	-1.191507	44.435413	-8.007844	134.359214
5.600000	-8.023276	131.558323	-1.191573	41.499698	-1.191573	41.499698	-8.023216	131.476816
5.650000	-8.051461	128.662179	-1.189184	38.551398	-1.189184	38.551398	-8.051384	128.584860
5.700000	-8.092909	125.755219	-1.184323	35.588886	-1.184323	35.588886	-8.092813	125.682214
5.750000	-8.148036	122.836428	-1.177011	32.610660	-1.177011	32.610660	-8.147921	122.767891
5.800000	-8.217507	119.904708	-1.167253	29.615018	-1.167253	29.615018	-8.217371	119.840820
5.850000	-8.302111	116.958987	-1.155070	26.600195	-1.155070	26.600195	-8.301952	116.899963
5.900000	-8.402777	113.998244	-1.140498	23.564357	-1.140498	23.564357	-8.402593	113.944339
5.950000	-8.520599	111.021530	-1.123587	20.505607	-1.123587	20.505607	-8.520385	110.973040
6.000000	-8.656856	108.028003	-1.104409	17.421982	-1.104409	17.421982	-8.656608	107.985275
6.050000	-8.813047	105.016966	-1.083050	14.311452	-1.083050	14.311452	-8.812760	104.980406
6.100000	-8.990932	101.987921	-1.059623	11.171929	-1.059623	11.171929	-8.990597	101.958003
6.150000	-9.192573	98.940644	-1.034259	8.001261	-1.034259	8.001261	-9.192182	98.917928
6.200000	-9.420407	95.875279	-1.007120	4.797246	-1.007120	4.797246	-9.419948	95.860422
6.250000	-9.677316	92.792468	-0.978393	1.557631	-0.978393	1.557631	-9.676774	92.786252
6.300000	-9.967297	89.693228	-0.948269	-1.720751	-0.948269	-1.720751	-9.966651	89.696612
6.350000	-10.294005	86.580266	-0.917042	-5.039446	-0.917042	-5.039446	-10.293229	86.594387
6.400000	-10.662452	83.457227	-0.885003	-8.400781	-0.885003	-8.400781	-10.661512	83.483473
6.450000	-11.078772	80.329614	-0.852485	-11.807078	-0.852485	-11.807078	-11.077622	80.369698
6.500000	-11.550570	77.205589	-0.819864	-15.260621	-0.819864	-15.260621	-11.549146	77.261658
6.550000	-12.087415	74.097202	-0.787560	-18.763638	-0.787560	-18.763638	-12.085628	74.171992
6.600000	-12.701565	71.022362	-0.756045	-22.318258	-0.756045	-22.318258	-12.699287	71.119432
6.650000	-13.409074	68.008102	-0.725841	-25.926477	-0.725841	-25.926477	-13.406113	68.132187
6.700000	-14.230297	65.092254	-0.697465	-29.588798	-0.697465	-29.588798	-14.226362	65.249626
6.750000	-15.198090	62.350307	-0.671679	-33.310031	-0.671679	-33.310031	-15.192687	62.550415
6.800000	-16.354023	59.893710	-0.649107	-37.089580	-0.649107	-37.089580	-16.346297	60.150228
6.850000	-17.763412	57.931609	-0.630487	-40.928367	-0.630487	-40.928367	-17.751737	58.265875
6.900000	-19.530946	56.883862	-0.616607	-44.826886	-0.616607	-44.826886	-19.511847	57.331278
6.950000	-21.835296	57.718297	-0.608298	-48.785133	-0.608298	-48.785133	-21.800067	58.341042
7.000000	-24.986238	63.150291	-0.606431	-52.802536	-0.606431	-52.802536	-24.907727	64.049893
7.050000	-29.216205	82.613934	-0.611903	-56.877882	-0.611903	-56.877882	-28.995780	83.686071
7.100000	-30.818614	132.609808	-0.625671	-61.009517	-0.625671	-61.009517	-30.480452	131.942216
7.150000	-26.448300	166.007102	-0.648712	-65.194958	-0.648712	-65.194958	-26.311669	164.770133
7.200000	-22.454355	175.817415	-0.681841	-69.430165	-0.681841	-69.430165	-22.395400	174.853680
7.250000	-19.490907	177.960935	-0.725917	-73.710832	-0.725917	-73.710832	-19.458908	177.203303
7.300000	-17.195063	177.220222	-0.781742	-78.031850	-0.781742	-78.031850	-17.174863	176.594870
7.350000	-15.335541	175.125383	-0.850037	-82.387344	-0.850037	-82.387344	-15.321464	174.589042
7.400000	-13.780267	172.291274	-0.931427	-86.770737	-0.931427	-86.770737	-13.769759	171.818237
7.450000	-12.449622	169.011429	-1.026416	-91.174845	-1.026416	-91.174845	-12.441372	168.585527
7.500000	-11.292549	165.445149	-1.135373	-95.591994	-1.135373	-95.591994	-11.285819	165.055643
7.550000	-10.274633	161.686217	-1.258698	-100.014115	-1.258698	-100.014115	-10.268973	161.325571
7.600000	-9.371411	157.799950	-1.396258	-104.432814	-1.396258	-104.432814	-9.366535	157.462822
7.650000	-8.564838	153.829210	-1.547947	-108.839888	-1.547947	-108.839888	-8.560554	153.511620
7.700000	-7.841178	149.805655	-1.713500	-113.227302	-1.713500	-113.227302	-7.837354	149.504561
7.750000	-7.189652	145.753650	-1.892498	-117.587357	-1.892498	-117.587357	-7.186193	145.466678
7.800000	-6.601572	141.692520	-2.084386	-121.912829	-2.084386	-121.912829	-6.598411	141.417788
7.850000	-6.069769	137.637903	-2.288482	-126.197099	-2.288482	-126.197099	-6.066855	137.373894
7.900000	-5.588205	133.602590	-2.503996	-130.434245	-2.503996	-130.434245	-5.585499	133.348066
7.950000	-5.151901	129.597445	-2.730085	-134.618568	-2.730085	-134.618568	-5.149373	129.351375
8.000000	-4.756243	125.631016	-2.965752	-138.745913	-2.965752	-138.745913	-4.753870	125.392550
8.050000	-4.397159	121.710005	-3.209979	-142.813051	-3.209979	-142.813051	-4.394922	121.478429
8.100000	-4.071124	117.839832	-3.461745	-146.817308	-3.461745	-146.817308	-4.069008	117.614543
8.150000	-3.774991	114.024671	-3.720015	-150.756791	-3.720015	-150.756791	-3.772984	113.805152
8.200000	-3.506263	110.268770	-3.983673	-154.629048	-3.983673	-154.629048	-3.504353	110.054570
8.250000	-3.262196	106.573698	-4.251687	-158.434241	-4.251687	-158.434241	-3.260373	106.364432
8.300000	-3.039227	102.935642	-4.523493	-162.177944	-4.523493	-162.177944	-3.037483	102.730997
8.350000	-2.837952	99.365889	-4.797101	-165.849399	-4.797101	-165.849399	-2.836277	99.165541
8.400000	-2.653687	95.852399	-5.072815	-169.462355	-5.072815	-169.462355	-2.652075	95.656112
8.450000	-2.487120	92.405261	-5.348347	-173.007380	-5.348347	-173.007380	-2.485561	92.212781
8.500000	-2.335011	89.015167	-5.623924	-176.494870	-5.623924	-176.494870	-2.333498	88.826296
8.550000	-2.196929	85.685260	-5.897901	-179.922568	-5.897901	-179.922568	-2.195454	85.499801
8.600000	-2.071443	82.412617	-6.169550	176.705725	-6.169550	176.705725	-2.069997	82.230394
8.650000	-1.957086	79.192999	-6.438396	173.384927	-6.438396	173.384927	-1.955662	79.013850
8.700000	-1.853806	76.029208	-6.702323	170.116609	-6.702323	170.116609	-1.852394	75.852969
8.750000	-1.759405	72.910792	-6.962334	166.889853	-6.962334	166.889853	-1.757998	72.737325
8.800000	-1.674885	69.845096	-7.214525	163.709742	-7.214525	163.709742	-1.673472	69.674239
8.850000	-1.597948	66.819246	-7.460754	160.563264	-7.460754	160.563264	-1.596520	66.650866
8.900000	-1.529385	63.837357	-7.697123	157.451423	-7.697123	157.451423	-1.527931	63.671296
8.950000	-1.467893	60.890742	-7.924175	154.364589	-7.924175	154.364589	-1.466402	60.726855
9.000000	-1.413388	57.976555	-8.139895	151.297087	-8.139895	151.297087	-1.411848	57.814684
9.050000	-1.365681	55.090201	-8.342540	148.241132	-8.342540	148.241132	-1.364080	54.930179
9.100000	-1.324719	52.226452	-8.530080	145.187397	-8.530080	145.187397	-1.323042	52.068094
9.150000	-1.290613	49.379245	-8.700123	142.124474	-8.700123	142.124474	-1.288846	49.222346
9.200000	-1.263688	46.541427	-8.849814	139.038119	-8.849814	139.038119	-1.261816	46.385754
9.250000	-1.244554	43.704383	-8.975708	135.910164	-8.975708	135.910164	-1.242558	43.549666
9.300000	-1.234218	40.857540	-9.073600	132.716910	-9.073600	132.716910	-1.232077	40.703456
9.350000	-1.234269	37.987666	-9.138316	129.426725	-9.138316	129.426725	-1.231963	37.833826
9.400000	-1.247767	35.075773	-9.161780	125.989347	-9.161780	125.989347	-1.245271	34.921669
9.450000	-1.278521	32.100089	-9.136619	122.344206	-9.136619	122.344206	-1.275808	31.945089
9.500000	-1.333382	29.030495	-9.052117	118.395892	-9.052117	118.395892	-1.330425	28.873759
9.550000	-1.423371	25.830512	-8.895948	114.006926	-8.895948	114.006926	-1.420143	25.670912
9.600000	-1.568000	22.456885	-8.653158	108.960225	-8.653158	108.960225	-1.564480	22.292845
9.650000	-1.802937	18.875571	-8.308881	102.906986	-8.308881	102.906986	-1.799116	18.704787
9.700000	-2.197667	15.127450	-7.855496	95.257031	-7.855496	95.257031	-2.193572	14.946288
9.750000	-2.889626	11.635495	-7.323020	85.001487	-7.323020	85.001487	-2.885375	11.437255
9.800000	-4.074531	10.324391	-6.865805	70.740978	-6.865805	70.740978	-4.070888	10.093709
9.850000	-5.512768	17.003473	-6.919365	51.335086	-6.919365	51.335086	-5.516103	16.714350
9.900000	-5.257706	31.343565	-8.134230	28.799477	-8.134230	28.799477	-5.279869	31.075696
9.950000	-3.500777	36.088696	-10.681307	8.826667	-10.681307	8.826667	-3.527202	35.929088
10.000000	-2.231270	33.093800	-14.021314	-5.073381	-14.021314	-5.073381	-2.252559	32.993789
