! freq	dB(S11)	phase(S11)	dB(S12)	phase(S12)	
!     	dB(S21)	phase(S21)	dB(S22)	phase(S22)	
!S-par simulation data
#  GHz  S  DB  R 50
0.000000	-0.000000	0.000000	-346.743641	0.000000	-346.743641	0.000000	-0.000000	0.000000
0.050000	-0.001676	-0.821666	-103.377749	86.809796	-103.377749	86.809796	-0.007174	-2.226633
0.100000	-0.003265	-1.628645	-97.463479	86.203509	-97.463479	86.203509	-0.010651	-4.404162
0.150000	-0.004123	-2.433597	-94.019785	85.117765	-94.019785	85.117765	-0.012261	-6.584090
0.200000	-0.004757	-3.238849	-91.610915	83.907624	-91.610915	83.907624	-0.013617	-8.765699
0.250000	-0.005351	-4.044334	-89.785787	82.661472	-89.785787	82.661472	-0.015053	-10.947298
0.300000	-0.005970	-4.849804	-88.337645	81.418283	-88.337645	81.418283	-0.016653	-13.127878
0.350000	-0.006645	-5.655027	-87.164773	80.204914	-87.164773	80.204914	-0.018458	-15.306553
0.400000	-0.007378	-6.459868	-86.197444	79.037554	-86.197444	79.037554	-0.020450	-17.482927
0.450000	-0.008169	-7.264224	-85.394752	77.932137	-85.394752	77.932137	-0.022617	-19.656606
0.500000	-0.009018	-8.067984	-84.732840	76.909725	-84.732840	76.909725	-0.024950	-21.827110
0.550000	-0.009917	-8.871101	-84.190318	75.987577	-84.190318	75.987577	-0.027422	-23.994243
0.600000	-0.010860	-9.673532	-83.753029	75.186772	-83.753029	75.186772	-0.030013	-26.157800
0.650000	-0.011842	-10.475216	-83.413929	74.538957	-83.413929	74.538957	-0.032708	-28.317454
0.700000	-0.012857	-11.276117	-83.166478	74.079458	-83.166478	74.079458	-0.035485	-30.473009
0.750000	-0.013898	-12.076234	-83.003811	73.845131	-83.003811	73.845131	-0.038326	-32.624415
0.800000	-0.014962	-12.875534	-82.923702	73.891992	-82.923702	73.891992	-0.041215	-34.771480
0.850000	-0.016042	-13.673975	-82.926256	74.302518	-82.926256	74.302518	-0.044139	-36.913929
0.900000	-0.017135	-14.471580	-83.005162	75.150279	-83.005162	75.150279	-0.047082	-39.051857
0.950000	-0.018236	-15.268339	-83.156541	76.545725	-83.156541	76.545725	-0.050033	-41.185175
1.000000	-0.019343	-16.064196	-83.375962	78.673781	-83.375962	78.673781	-0.052983	-43.313554
1.050000	-0.020452	-16.859187	-83.645645	81.683870	-83.645645	81.683870	-0.055922	-45.437155
1.100000	-0.021561	-17.653308	-83.939757	85.772543	-83.939757	85.772543	-0.058845	-47.555948
1.150000	-0.022669	-18.446520	-84.212039	91.186473	-84.212039	91.186473	-0.061744	-49.669710
1.200000	-0.023773	-19.238830	-84.391346	98.021978	-84.391346	98.021978	-0.064616	-51.778479
1.250000	-0.024873	-20.030249	-84.391432	106.143595	-84.391432	106.143595	-0.067457	-53.882333
1.300000	-0.025967	-20.820752	-84.122450	115.129134	-84.122450	115.129134	-0.070266	-55.981156
1.350000	-0.027056	-21.610313	-83.534203	124.209477	-83.534203	124.209477	-0.073039	-58.074847
1.400000	-0.028138	-22.398961	-82.665429	132.594247	-82.665429	132.594247	-0.075777	-60.163592
1.450000	-0.029213	-23.186681	-81.591884	139.763856	-81.591884	139.763856	-0.078480	-62.247383
1.500000	-0.030282	-23.973416	-80.390511	145.461840	-80.390511	145.461840	-0.081147	-64.325977
1.550000	-0.031344	-24.759206	-79.149440	149.840822	-79.149440	149.840822	-0.083780	-66.399666
1.600000	-0.032400	-25.544039	-77.915067	153.083766	-77.915067	153.083766	-0.086380	-68.468479
1.650000	-0.033450	-26.327862	-76.708890	155.359590	-76.708890	155.359590	-0.088949	-70.532237
1.700000	-0.034495	-27.110687	-75.549088	156.886808	-75.549088	156.886808	-0.091487	-72.591117
1.750000	-0.035535	-27.892517	-74.442423	157.827849	-74.442423	157.827849	-0.093998	-74.645250
1.800000	-0.036570	-28.673324	-73.388164	158.294489	-73.388164	158.294489	-0.096484	-76.694628
1.850000	-0.037601	-29.453093	-72.384813	158.381939	-72.384813	158.381939	-0.098946	-78.739318
1.900000	-0.038629	-30.231800	-71.429115	158.161203	-71.429115	158.161203	-0.101387	-80.779352
1.950000	-0.039654	-31.009429	-70.518147	157.690932	-70.518147	157.690932	-0.103810	-82.814818
2.000000	-0.040677	-31.785976	-69.649317	157.018383	-69.649317	157.018383	-0.106216	-84.845861
2.050000	-0.041698	-32.561427	-68.819482	156.178228	-68.819482	156.178228	-0.108609	-86.872584
2.100000	-0.042719	-33.335765	-68.025713	155.198057	-68.025713	155.198057	-0.110990	-88.895101
2.150000	-0.043739	-34.108977	-67.265318	154.100022	-67.265318	154.100022	-0.113363	-90.913530
2.200000	-0.044759	-34.881047	-66.535850	152.902063	-66.535850	152.902063	-0.115729	-92.928001
2.250000	-0.045780	-35.651958	-65.835093	151.618828	-65.835093	151.618828	-0.118090	-94.938648
2.300000	-0.046802	-36.421698	-65.161045	150.262377	-65.161045	150.262377	-0.120449	-96.945618
2.350000	-0.047827	-37.190249	-64.511899	148.842713	-64.511899	148.842713	-0.122808	-98.949061
2.400000	-0.048853	-37.957598	-63.886023	147.368193	-63.886023	147.368193	-0.125170	-100.949139
2.450000	-0.049883	-38.723730	-63.281940	145.845842	-63.281940	145.845842	-0.127535	-102.946019
2.500000	-0.050916	-39.488630	-62.698311	144.281608	-62.698311	144.281608	-0.129906	-104.939877
2.550000	-0.051953	-40.252257	-62.133545	142.679851	-62.133545	142.679851	-0.132285	-106.930837
2.600000	-0.052995	-41.014623	-61.586964	141.045767	-61.586964	141.045767	-0.134674	-108.919156
2.650000	-0.054041	-41.775715	-61.057555	139.383046	-61.057555	139.383046	-0.137075	-110.905032
2.700000	-0.055093	-42.535520	-60.544389	137.694876	-60.544389	137.694876	-0.139488	-112.888668
2.750000	-0.056150	-43.294023	-60.046618	135.984026	-60.046618	135.984026	-0.141916	-114.870275
2.800000	-0.057214	-44.051213	-59.563461	134.252911	-59.563461	134.252911	-0.144360	-116.850071
2.850000	-0.058284	-44.807077	-59.094204	132.503640	-59.094204	132.503640	-0.146822	-118.828279
2.900000	-0.059361	-45.561604	-58.638185	130.738067	-58.638185	130.738067	-0.149302	-120.805127
2.950000	-0.060446	-46.314780	-58.194795	128.957821	-58.194795	128.957821	-0.151803	-122.780851
3.000000	-0.061538	-47.066596	-57.763471	127.164341	-57.763471	127.164341	-0.154325	-124.755692
3.050000	-0.062639	-47.817039	-57.343689	125.358901	-57.343689	125.358901	-0.156869	-126.729895
3.100000	-0.063748	-48.566101	-56.934967	123.542630	-56.934967	123.542630	-0.159436	-128.703710
3.150000	-0.064866	-49.313755	-56.536771	121.716434	-56.536771	121.716434	-0.162028	-130.677395
3.200000	-0.065994	-50.059991	-56.148700	119.881235	-56.148700	119.881235	-0.164645	-132.651218
3.250000	-0.067131	-50.804815	-55.770450	118.037930	-55.770450	118.037930	-0.167288	-134.625445
3.300000	-0.068279	-51.548218	-55.401657	116.187226	-55.401657	116.187226	-0.169959	-136.600345
3.350000	-0.069437	-52.290193	-55.041978	114.329759	-55.041978	114.329759	-0.172656	-138.576189
3.400000	-0.070605	-53.030730	-54.691098	112.466098	-54.691098	112.466098	-0.175381	-140.553252
3.450000	-0.071785	-53.769822	-54.348717	110.596754	-54.348717	110.596754	-0.178135	-142.531813
3.500000	-0.072976	-54.507463	-54.014557	108.722188	-54.014557	108.722188	-0.180917	-144.512153
3.550000	-0.074180	-55.243644	-53.688360	106.842816	-53.688360	106.842816	-0.183729	-146.494554
3.600000	-0.075395	-55.978361	-53.369881	104.959015	-53.369881	104.959015	-0.186570	-148.479303
3.650000	-0.076623	-56.711607	-53.058892	103.071127	-53.058892	103.071127	-0.189440	-150.466686
3.700000	-0.077864	-57.443376	-52.755179	101.179462	-52.755179	101.179462	-0.192340	-152.456992
3.750000	-0.079118	-58.173664	-52.458544	99.284304	-52.458544	99.284304	-0.195270	-154.450510
3.800000	-0.080386	-58.902433	-52.168739	97.385847	-52.168739	97.385847	-0.198229	-156.447614
3.850000	-0.081668	-59.629712	-51.885660	95.484407	-51.885660	95.484407	-0.201218	-158.448525
3.900000	-0.082965	-60.355496	-51.609143	93.580203	-51.609143	93.580203	-0.204237	-160.453533
3.950000	-0.084276	-61.079782	-51.339033	91.673441	-51.339033	91.673441	-0.207283	-162.462928
4.000000	-0.085602	-61.802568	-51.075187	89.764313	-51.075187	89.764313	-0.210358	-164.476999
4.050000	-0.086945	-62.523850	-50.817469	87.853002	-50.817469	87.853002	-0.213461	-166.496033
4.100000	-0.088303	-63.243626	-50.565754	85.939681	-50.565754	85.939681	-0.216591	-168.520316
4.150000	-0.089677	-63.961894	-50.319925	84.024516	-50.319925	84.024516	-0.219747	-170.550131
4.200000	-0.091068	-64.678654	-50.079873	82.107670	-50.079873	82.107670	-0.222928	-172.585759
4.250000	-0.092476	-65.393904	-49.845495	80.189301	-49.845495	80.189301	-0.226134	-174.627476
4.300000	-0.093902	-66.107643	-49.616698	78.269566	-49.616698	78.269566	-0.229364	-176.675556
4.350000	-0.095345	-66.819871	-49.393394	76.348621	-49.393394	76.348621	-0.232616	-178.730267
4.400000	-0.096807	-67.530572	-49.175502	74.426613	-49.175502	74.426613	-0.235889	179.208049
4.450000	-0.098288	-68.239746	-48.962954	72.503708	-48.962954	72.503708	-0.239182	177.139126
4.500000	-0.099788	-68.947410	-48.755682	70.580081	-48.755682	70.580081	-0.242494	175.062787
4.550000	-0.101308	-69.653566	-48.553624	68.655901	-48.553624	68.655901	-0.245822	172.978789
4.600000	-0.102847	-70.358215	-48.356720	66.731342	-48.356720	66.731342	-0.249165	170.886895
4.650000	-0.104407	-71.061360	-48.164918	64.806586	-48.164918	64.806586	-0.252521	168.786876
4.700000	-0.105988	-71.763002	-47.978169	62.881823	-47.978169	62.881823	-0.255889	166.678513
4.750000	-0.107590	-72.463144	-47.796430	60.957253	-47.796430	60.957253	-0.259266	164.561596
4.800000	-0.109213	-73.161789	-47.619661	59.033086	-47.619661	59.033086	-0.262650	162.435926
4.850000	-0.110859	-73.858940	-47.447827	57.109543	-47.447827	57.109543	-0.266040	160.301316
4.900000	-0.112527	-74.554601	-47.280897	55.186858	-47.280897	55.186858	-0.269432	158.157589
4.950000	-0.114218	-75.248777	-47.118844	53.265279	-47.118844	53.265279	-0.272825	156.004582
5.000000	-0.115932	-75.941470	-46.961643	51.345066	-46.961643	51.345066	-0.276216	153.842145
5.050000	-0.117671	-76.632654	-46.809323	49.426540	-46.809323	49.426540	-0.279602	151.669932
5.100000	-0.119434	-77.322366	-46.661824	47.509966	-46.661824	47.509966	-0.282981	149.488028
5.150000	-0.121221	-78.010611	-46.519132	45.595655	-46.519132	45.595655	-0.286350	147.296332
5.200000	-0.123034	-78.697395	-46.381235	43.683939	-46.381235	43.683939	-0.289706	145.094756
5.250000	-0.124872	-79.382724	-46.248123	41.775168	-46.248123	41.775168	-0.293047	142.883232
5.300000	-0.126736	-80.066603	-46.119790	39.869711	-46.119790	39.869711	-0.296369	140.661709
5.350000	-0.128627	-80.749040	-45.996231	37.967962	-45.996231	37.967962	-0.299671	138.430157
5.400000	-0.130544	-81.430041	-45.877444	36.070334	-45.877444	36.070334	-0.302948	136.188564
5.450000	-0.132489	-82.109614	-45.763428	34.177268	-45.763428	34.177268	-0.306198	133.936940
5.500000	-0.134461	-82.787765	-45.654184	32.289226	-45.654184	32.289226	-0.309418	131.675317
5.550000	-0.136461	-83.464503	-45.549714	30.406698	-45.549714	30.406698	-0.312605	129.403747
5.600000	-0.138490	-84.139835	-45.450023	28.530201	-45.450023	28.530201	-0.315757	127.122306
5.650000	-0.140548	-84.813754	-45.355157	26.660360	-45.355157	26.660360	-0.318869	124.830989
5.700000	-0.142636	-85.486271	-45.265125	24.797771	-45.265125	24.797771	-0.321939	122.529924
5.750000	-0.144753	-86.157408	-45.179893	22.942974	-45.179893	22.942974	-0.324965	120.219365
5.800000	-0.146901	-86.827175	-45.099468	21.096612	-45.099468	21.096612	-0.327944	117.899489
5.850000	-0.149079	-87.495581	-45.023857	19.259364	-45.023857	19.259364	-0.330874	115.570492
5.900000	-0.151288	-88.162636	-44.953066	17.431944	-44.953066	17.431944	-0.333752	113.232600
5.950000	-0.153529	-88.828351	-44.887102	15.615108	-44.887102	15.615108	-0.336577	110.886062
6.000000	-0.155801	-89.492736	-44.825969	13.809649	-44.825969	13.809649	-0.339345	108.531154
6.050000	-0.158105	-90.155801	-44.769672	12.016406	-44.769672	12.016406	-0.342055	106.168178
6.100000	-0.160442	-90.817558	-44.718214	10.236259	-44.718214	10.236259	-0.344706	103.797460
6.150000	-0.162812	-91.478018	-44.671595	8.470139	-44.671595	8.470139	-0.347296	101.419351
6.200000	-0.165214	-92.137192	-44.629815	6.719023	-44.629815	6.719023	-0.349824	99.034229
6.250000	-0.167651	-92.795092	-44.592869	4.983942	-44.592869	4.983942	-0.352288	96.642494
6.300000	-0.170122	-93.451704	-44.560852	3.266381	-44.560852	3.266381	-0.354688	94.244448
6.350000	-0.172627	-94.107068	-44.533650	1.567140	-44.533650	1.567140	-0.357023	91.840685
6.400000	-0.175167	-94.761197	-44.511246	-0.112574	-44.511246	-0.112574	-0.359294	89.431676
6.450000	-0.177742	-95.414104	-44.493616	-1.771487	-44.493616	-1.771487	-0.361501	87.017916
6.500000	-0.180352	-96.065802	-44.480731	-3.408260	-44.480731	-3.408260	-0.363645	84.599918
6.550000	-0.182998	-96.716306	-44.472554	-5.021480	-44.472554	-5.021480	-0.365727	82.178215
6.600000	-0.185680	-97.365630	-44.469040	-6.609663	-44.469040	-6.609663	-0.367747	79.753358
6.650000	-0.188398	-98.013789	-44.470131	-8.171244	-44.470131	-8.171244	-0.369708	77.325913
6.700000	-0.191152	-98.660802	-44.475746	-9.704698	-44.475746	-9.704698	-0.371613	74.896468
6.750000	-0.193944	-99.306682	-44.485815	-11.208218	-44.485815	-11.208218	-0.373462	72.465610
6.800000	-0.196773	-99.951430	-44.500300	-12.679553	-44.500300	-12.679553	-0.375259	70.033943
6.850000	-0.199639	-100.595060	-44.519098	-14.116617	-44.519098	-14.116617	-0.377006	67.602101
6.900000	-0.202544	-101.237621	-44.541953	-15.518426	-44.541953	-15.518426	-0.378708	65.170706
6.950000	-0.205485	-101.879120	-44.568761	-16.882511	-44.568761	-16.882511	-0.380370	62.740377
7.000000	-0.208467	-102.519536	-44.599476	-18.205119	-44.599476	-18.205119	-0.381993	60.311821
7.050000	-0.211486	-103.158936	-44.633723	-19.485748	-44.633723	-19.485748	-0.383586	57.885588
7.100000	-0.214544	-103.797339	-44.671276	-20.721980	-44.671276	-20.721980	-0.385151	55.462286
7.150000	-0.217642	-104.434713	-44.712012	-21.908670	-44.712012	-21.908670	-0.386695	53.042728
7.200000	-0.220780	-105.071124	-44.755483	-23.045095	-44.755483	-23.045095	-0.388224	50.627380
7.250000	-0.223956	-105.706598	-44.801325	-24.128614	-44.801325	-24.128614	-0.389744	48.216804
7.300000	-0.227173	-106.341124	-44.849185	-25.153986	-44.849185	-25.153986	-0.391264	45.811780
7.350000	-0.230431	-106.974738	-44.898541	-26.118219	-44.898541	-26.118219	-0.392790	43.412835
7.400000	-0.233729	-107.607482	-44.948812	-27.018828	-44.948812	-27.018828	-0.394331	41.020378
7.450000	-0.237068	-108.239368	-44.999346	-27.850268	-44.999346	-27.850268	-0.395896	38.635052
7.500000	-0.240449	-108.870404	-45.049310	-28.605851	-45.049310	-28.605851	-0.397499	36.257521
7.550000	-0.243871	-109.500654	-45.097780	-29.282690	-45.097780	-29.282690	-0.399151	33.887930
7.600000	-0.247335	-110.130147	-45.143610	-29.873989	-45.143610	-29.873989	-0.400866	31.526661
7.650000	-0.250844	-110.758881	-45.185035	-30.365929	-45.185035	-30.365929	-0.402670	29.174500
7.700000	-0.254396	-111.386938	-45.220302	-30.752918	-45.220302	-30.752918	-0.404584	26.831156
7.750000	-0.257992	-112.014366	-45.246805	-31.021349	-45.246805	-31.021349	-0.406646	24.496667
7.800000	-0.261637	-112.641203	-45.260101	-31.146224	-45.260101	-31.146224	-0.408920	22.171212
7.850000	-0.265333	-113.267548	-45.254445	-31.104187	-45.254445	-31.104187	-0.411496	19.853978
7.900000	-0.269085	-113.893517	-45.220654	-30.861198	-45.220654	-30.861198	-0.414525	17.543703
7.950000	-0.272909	-114.519272	-45.140727	-30.358966	-45.140727	-30.358966	-0.418333	15.238319
8.000000	-0.276838	-115.145095	-44.980050	-29.526252	-44.980050	-29.526252	-0.423618	12.933498
8.050000	-0.280950	-115.771440	-44.672008	-28.327808	-44.672008	-28.327808	-0.431973	10.621465
8.100000	-0.285502	-116.398943	-44.051903	-26.986972	-44.051903	-26.986972	-0.448403	8.289465
8.150000	-0.291303	-117.026320	-42.790888	-27.463640	-42.790888	-27.463640	-0.489607	5.948954
8.200000	-0.298820	-117.633411	-41.071329	-39.595848	-41.071329	-39.595848	-0.584188	4.039358
8.250000	-0.301139	-118.226640	-42.471872	-58.685318	-42.471872	-58.685318	-0.535087	2.659332
8.300000	-0.302786	-118.846176	-44.564771	-59.153202	-44.564771	-59.153202	-0.468510	0.427849
8.350000	-0.305880	-119.470048	-45.457932	-55.236585	-45.457932	-55.236585	-0.448766	-1.859520
8.400000	-0.309566	-120.093090	-45.827701	-52.103467	-45.827701	-52.103467	-0.442730	-4.088524
8.450000	-0.313531	-120.715143	-45.982724	-49.962430	-45.982724	-49.962430	-0.441650	-6.270986
8.500000	-0.317644	-121.336540	-46.052170	-48.467608	-46.052170	-48.467608	-0.442536	-8.420878
8.550000	-0.321857	-121.957519	-46.079365	-47.400831	-46.079365	-47.400831	-0.444445	-10.544508
8.600000	-0.326152	-122.578260	-46.082819	-46.638069	-46.082819	-46.638069	-0.446992	-12.644286
8.650000	-0.330516	-123.198936	-46.073408	-46.079923	-46.073408	-46.079923	-0.449950	-14.723516
8.700000	-0.334946	-123.819706	-46.056076	-45.686998	-46.056076	-45.686998	-0.453248	-16.781920
8.750000	-0.339433	-124.440692	-46.035201	-45.408676	-46.035201	-45.408676	-0.456793	-18.822985
8.800000	-0.343979	-125.062042	-46.013249	-45.232965	-46.013249	-45.232965	-0.460577	-20.846185
8.850000	-0.348586	-125.683915	-45.992854	-45.146148	-45.992854	-45.146148	-0.464584	-22.851924
8.900000	-0.353257	-126.306528	-45.977034	-45.141737	-45.977034	-45.141737	-0.468816	-24.839790
8.950000	-0.357998	-126.930148	-45.969480	-45.214121	-45.969480	-45.214121	-0.473281	-26.809548
9.000000	-0.362809	-127.554972	-45.973447	-45.352188	-45.973447	-45.352188	-0.477965	-28.762666
9.050000	-0.367699	-128.181302	-45.993280	-45.550887	-45.993280	-45.550887	-0.482877	-30.699337
9.100000	-0.372676	-128.809506	-46.034384	-45.804713	-46.034384	-45.804713	-0.488027	-32.619738
9.150000	-0.377756	-129.440040	-46.103665	-46.106753	-46.103665	-46.106753	-0.493432	-34.524045
9.200000	-0.382958	-130.073476	-46.210204	-46.447305	-46.210204	-46.447305	-0.499111	-36.412425
9.250000	-0.388332	-130.710968	-46.372109	-46.811523	-46.372109	-46.811523	-0.505123	-38.283608
9.300000	-0.393923	-131.353387	-46.606385	-47.167771	-46.606385	-47.167771	-0.511491	-40.138829
9.350000	-0.399805	-132.002018	-46.939676	-47.465257	-46.939676	-47.465257	-0.518262	-41.978604
9.400000	-0.406057	-132.657890	-47.401552	-47.633158	-47.401552	-47.633158	-0.525465	-43.804267
9.450000	-0.412986	-133.325445	-48.091918	-47.431890	-48.091918	-47.431890	-0.533312	-45.612880
9.500000	-0.420910	-134.007582	-49.125152	-46.415180	-49.125152	-46.415180	-0.541911	-47.405944
9.550000	-0.430516	-134.710179	-50.755806	-43.263072	-50.755806	-43.263072	-0.551521	-49.182657
9.600000	-0.443288	-135.443088	-53.486357	-32.582776	-53.486357	-32.582776	-0.562590	-50.940785
9.650000	-0.461790	-136.216839	-56.672444	5.551105	-56.672444	5.551105	-0.575623	-52.677630
9.700000	-0.492711	-137.048774	-51.743636	58.899117	-51.743636	58.899117	-0.591539	-54.382351
9.750000	-0.551744	-137.935966	-44.481229	69.458968	-44.481229	69.458968	-0.610673	-56.029394
9.800000	-0.670632	-138.724565	-38.511759	60.633679	-38.511759	60.633679	-0.627933	-57.565957
9.850000	-0.843797	-138.727972	-34.070978	37.632060	-34.070978	37.632060	-0.619986	-58.993783
9.900000	-0.861993	-137.860755	-32.351057	8.219681	-32.351057	8.219681	-0.581174	-60.592938
9.950000	-0.739548	-137.787988	-32.710355	-13.593379	-32.710355	-13.593379	-0.559677	-62.391224
10.000000	-0.649067	-138.362493	-33.538271	-26.570917	-33.538271	-26.570917	-0.559053	-64.175244
