! freq	dB(S11)	phase(S11)	dB(S12)	phase(S12)	
!     	dB(S21)	phase(S21)	dB(S22)	phase(S22)	
!S-par simulation data
#  GHz  S  DB  R 50
0.000000	0.000000	0.000000	-369.796146	0.000000	-369.796146	0.000000	-0.000000	0.000000
0.050000	-0.000164	-1.769631	-74.544936	-136.471782	-74.544936	-136.471782	-0.000149	-0.765496
0.100000	-0.000649	-3.538860	-72.006548	-162.866286	-72.006548	-162.866286	-0.000578	-1.530459
0.150000	-0.001450	-5.307285	-71.389366	-179.101263	-71.389366	-179.101263	-0.001245	-2.294446
0.200000	-0.002545	-7.074556	-71.231046	168.812259	-71.231046	168.812259	-0.002088	-3.057225
0.250000	-0.003918	-8.840320	-71.252466	158.841682	-71.252466	158.841682	-0.003052	-3.818690
0.300000	-0.005545	-10.604259	-71.366895	150.120421	-71.366895	150.120421	-0.004088	-4.578865
0.350000	-0.007399	-12.366089	-71.541839	142.251732	-71.541839	142.251732	-0.005159	-5.337849
0.400000	-0.009455	-14.125560	-71.762870	135.034153	-71.762870	135.034153	-0.006241	-6.095764
0.450000	-0.011682	-15.882455	-72.022917	128.356564	-72.022917	128.356564	-0.007320	-6.852732
0.500000	-0.014053	-17.636591	-72.318515	122.153410	-72.318515	122.153410	-0.008389	-7.608855
0.550000	-0.016539	-19.387816	-72.648311	116.384023	-72.648311	116.384023	-0.009447	-8.364213
0.600000	-0.019117	-21.136005	-73.012430	111.022631	-73.012430	111.022631	-0.010493	-9.118861
0.650000	-0.021761	-22.881023	-73.412395	106.057742	-73.412395	106.057742	-0.011528	-9.872830
0.700000	-0.024451	-24.622785	-73.850621	101.481803	-73.850621	101.481803	-0.012555	-10.626142
0.750000	-0.027167	-26.361263	-74.330467	97.291338	-74.330467	97.291338	-0.013576	-11.378812
0.800000	-0.029893	-28.096404	-74.856670	93.496020	-74.856670	93.496020	-0.014592	-12.130843
0.850000	-0.032615	-29.828168	-75.435275	90.116749	-75.435275	90.116749	-0.015604	-12.882231
0.900000	-0.035323	-31.556519	-76.073826	87.189637	-76.073826	87.189637	-0.016613	-13.632966
0.950000	-0.038008	-33.281428	-76.781582	84.772430	-76.781582	84.772430	-0.017621	-14.383039
1.000000	-0.040662	-35.002868	-77.569678	82.954841	-77.569678	82.954841	-0.018626	-15.132438
1.050000	-0.043281	-36.720815	-78.451021	81.875371	-78.451021	81.875371	-0.019630	-15.881148
1.100000	-0.045860	-38.435245	-79.439323	81.748907	-79.439323	81.748907	-0.020632	-16.629157
1.150000	-0.048398	-40.146138	-80.545706	82.911358	-80.545706	82.911358	-0.021632	-17.376451
1.200000	-0.050892	-41.853469	-81.768792	85.886306	-81.768792	85.886306	-0.022631	-18.123017
1.250000	-0.053343	-43.557218	-83.068673	91.456187	-83.068673	91.456187	-0.023627	-18.868839
1.300000	-0.055750	-45.257285	-84.297199	100.705041	-84.297199	100.705041	-0.024621	-19.613889
1.350000	-0.058115	-46.953726	-85.136672	114.061441	-85.136672	114.061441	-0.025612	-20.358168
1.400000	-0.060438	-48.646523	-85.178833	129.965060	-85.178833	129.965060	-0.026601	-21.101664
1.450000	-0.062723	-50.335656	-84.323932	144.848747	-84.323932	144.848747	-0.027588	-21.844361
1.500000	-0.064971	-52.021110	-82.906274	156.174119	-82.906274	156.174119	-0.028572	-22.586249
1.550000	-0.067184	-53.702868	-81.308981	163.765704	-81.308981	163.765704	-0.029553	-23.327311
1.600000	-0.069365	-55.380918	-79.741393	168.518333	-79.741393	168.518333	-0.030532	-24.067537
1.650000	-0.071516	-57.055251	-78.279034	171.332836	-78.279034	171.332836	-0.031508	-24.806911
1.700000	-0.073637	-58.725495	-76.929063	172.763155	-76.929063	172.763155	-0.032482	-25.545335
1.750000	-0.075735	-60.392334	-75.700744	173.428876	-75.700744	173.428876	-0.033455	-26.282956
1.800000	-0.077812	-62.055446	-74.571918	173.484247	-74.571918	173.484247	-0.034425	-27.019685
1.850000	-0.079868	-63.714835	-73.529334	173.108732	-73.529334	173.108732	-0.035394	-27.755509
1.900000	-0.081907	-65.370509	-72.561076	172.422617	-72.561076	172.422617	-0.036361	-28.490414
1.950000	-0.083931	-67.022480	-71.656966	171.508408	-71.656966	171.508408	-0.037328	-29.224386
2.000000	-0.085942	-68.670767	-70.808481	170.423973	-70.808481	170.423973	-0.038294	-29.957413
2.050000	-0.087942	-70.315390	-70.008524	169.210722	-70.008524	169.210722	-0.039260	-30.689479
2.100000	-0.089935	-71.956690	-69.253362	167.905050	-69.253362	167.905050	-0.040226	-31.420659
2.150000	-0.091920	-73.594030	-68.533271	166.514820	-68.533271	166.514820	-0.041192	-32.150755
2.200000	-0.093900	-75.227803	-67.846721	165.065609	-67.846721	165.065609	-0.042159	-32.879851
2.250000	-0.095879	-76.858050	-67.190174	163.569920	-67.190174	163.569920	-0.043127	-33.607933
2.300000	-0.097856	-78.484672	-66.559762	162.036163	-66.559762	162.036163	-0.044098	-34.334942
2.350000	-0.099835	-80.108056	-65.954850	160.474571	-65.954850	160.474571	-0.045070	-35.060967
2.400000	-0.101816	-81.728072	-65.372089	158.889110	-65.372089	158.889110	-0.046044	-35.785938
2.450000	-0.103802	-83.344783	-64.809552	157.284316	-64.809552	157.284316	-0.047022	-36.509843
2.500000	-0.105793	-84.958257	-64.265559	155.663742	-64.265559	155.663742	-0.048002	-37.232668
2.550000	-0.107793	-86.568434	-63.737976	154.029706	-63.737976	154.029706	-0.048987	-37.954354
2.600000	-0.109802	-88.175536	-63.226228	152.385002	-63.226228	152.385002	-0.049975	-38.674934
2.650000	-0.111821	-89.779646	-62.729166	150.731286	-62.729166	150.731286	-0.050968	-39.394396
2.700000	-0.113852	-91.380857	-62.245771	149.069849	-62.245771	149.069849	-0.051966	-40.112728
2.750000	-0.115897	-92.979262	-61.775138	147.401695	-61.775138	147.401695	-0.052969	-40.829919
2.800000	-0.117955	-94.574965	-61.316459	145.727595	-61.316459	145.727595	-0.053978	-41.545957
2.850000	-0.120030	-96.168070	-60.869011	144.048136	-60.869011	144.048136	-0.054992	-42.260831
2.900000	-0.122122	-97.758689	-60.432144	142.363754	-60.432144	142.363754	-0.056013	-42.974529
2.950000	-0.124232	-99.346939	-60.005276	140.674764	-60.005276	140.674764	-0.057041	-43.687040
3.000000	-0.126361	-100.932942	-59.587880	138.981390	-59.587880	138.981390	-0.058076	-44.398355
3.050000	-0.128511	-102.516823	-59.179480	137.283776	-59.179480	137.283776	-0.059118	-45.108463
3.100000	-0.130683	-104.098716	-58.779648	135.582006	-58.779648	135.582006	-0.060168	-45.817354
3.150000	-0.132877	-105.678757	-58.387993	133.876120	-58.387993	133.876120	-0.061227	-46.525019
3.200000	-0.135095	-107.257087	-58.004163	132.166120	-58.004163	132.166120	-0.062294	-47.231448
3.250000	-0.137338	-108.833853	-57.627835	130.451982	-57.627835	130.451982	-0.063369	-47.936631
3.300000	-0.139606	-110.409206	-57.258718	128.733663	-57.258718	128.733663	-0.064455	-48.640562
3.350000	-0.141902	-111.983303	-56.896547	127.011108	-56.896547	127.011108	-0.065549	-49.343230
3.400000	-0.144225	-113.556304	-56.541078	125.284252	-56.541078	125.284252	-0.066654	-50.044627
3.450000	-0.146576	-115.128376	-56.192091	123.553031	-56.192091	123.553031	-0.067769	-50.744747
3.500000	-0.148958	-116.699688	-55.849385	121.817378	-55.849385	121.817378	-0.068895	-51.443582
3.550000	-0.151369	-118.270417	-55.512775	120.077234	-55.512775	120.077234	-0.070032	-52.141124
3.600000	-0.153813	-119.840741	-55.182094	118.332544	-55.182094	118.332544	-0.071180	-52.837367
3.650000	-0.156288	-121.410845	-54.857187	116.583262	-54.857187	116.583262	-0.072340	-53.532304
3.700000	-0.158796	-122.980917	-54.537913	114.829356	-54.537913	114.829356	-0.073513	-54.225929
3.750000	-0.161338	-124.551152	-54.224145	113.070802	-54.224145	113.070802	-0.074697	-54.918236
3.800000	-0.163917	-126.121773	-53.915525	111.307391	-53.915525	111.307391	-0.075895	-55.609162
3.850000	-0.166531	-127.692975	-53.612207	109.539334	-53.612207	109.539334	-0.077106	-56.298760
3.900000	-0.169181	-129.264966	-53.314090	107.766654	-53.314090	107.766654	-0.078331	-56.987023
3.950000	-0.171868	-130.837958	-53.021082	105.989391	-53.021082	105.989391	-0.079570	-57.673949
4.000000	-0.174592	-132.412168	-52.733098	104.207603	-52.733098	104.207603	-0.080823	-58.359532
4.050000	-0.177355	-133.987816	-52.450058	102.421359	-52.450058	102.421359	-0.082091	-59.043769
4.100000	-0.180157	-135.565128	-52.171889	100.630750	-52.171889	100.630750	-0.083373	-59.726657
4.150000	-0.182999	-137.144333	-51.898521	98.835879	-51.898521	98.835879	-0.084671	-60.408191
4.200000	-0.185881	-138.725665	-51.629892	97.036865	-51.629892	97.036865	-0.085985	-61.088371
4.250000	-0.188803	-140.309362	-51.365941	95.233842	-51.365941	95.233842	-0.087315	-61.767192
4.300000	-0.191767	-141.895667	-51.106610	93.426958	-51.106610	93.426958	-0.088661	-62.444652
4.350000	-0.194772	-143.484827	-50.851845	91.616375	-50.851845	91.616375	-0.090025	-63.120751
4.400000	-0.197820	-145.077093	-50.601594	89.802266	-50.601594	89.802266	-0.091405	-63.795485
4.450000	-0.200911	-146.672720	-50.355807	87.984815	-50.355807	87.984815	-0.092803	-64.468854
4.500000	-0.204044	-148.271968	-50.114437	86.164217	-50.114437	86.164217	-0.094219	-65.140857
4.550000	-0.207222	-149.875101	-49.877435	84.340675	-49.877435	84.340675	-0.095654	-65.811493
4.600000	-0.210443	-151.482387	-49.644757	82.514400	-49.644757	82.514400	-0.097107	-66.480762
4.650000	-0.213708	-153.094098	-49.416357	80.685607	-49.416357	80.685607	-0.098580	-67.148664
4.700000	-0.217018	-154.710511	-49.192190	78.854519	-49.192190	78.854519	-0.100071	-67.815199
4.750000	-0.220373	-156.331905	-48.972213	77.021358	-48.972213	77.021358	-0.101583	-68.480367
4.800000	-0.223773	-157.958566	-48.756382	75.186350	-48.756382	75.186350	-0.103115	-69.144169
4.850000	-0.227217	-159.590780	-48.544652	73.349720	-48.544652	73.349720	-0.104668	-69.806607
4.900000	-0.230707	-161.228842	-48.336981	71.511692	-48.336981	71.511692	-0.106242	-70.467681
4.950000	-0.234243	-162.873047	-48.133325	69.672486	-48.133325	69.672486	-0.107838	-71.127394
5.000000	-0.237824	-164.523695	-47.933640	67.832319	-47.933640	67.832319	-0.109455	-71.785747
5.050000	-0.241452	-166.181397	-47.737863	65.991377	-47.737863	65.991377	-0.111096	-72.442684
5.100000	-0.245126	-167.846180	-47.545982	64.149904	-47.545982	64.149904	-0.112759	-73.098266
5.150000	-0.248844	-169.518357	-47.357953	62.308093	-47.357953	62.308093	-0.114445	-73.752496
5.200000	-0.252608	-171.198241	-47.173732	60.466125	-47.173732	60.466125	-0.116155	-74.405377
5.250000	-0.256415	-172.885702	-46.993274	58.624167	-46.993274	58.624167	-0.117888	-75.056986
5.300000	-0.260268	-174.581844	-46.816531	56.782379	-46.816531	56.782379	-0.119646	-75.707194
5.350000	-0.264166	-176.286648	-46.643465	54.940910	-46.643465	54.940910	-0.121429	-76.356064
5.400000	-0.268108	-178.000439	-46.474035	53.099896	-46.474035	53.099896	-0.123237	-77.003600
5.450000	-0.272094	-179.723545	-46.308202	51.259455	-46.308202	51.259455	-0.125070	-77.649806
5.500000	-0.276123	178.543702	-46.145926	49.419693	-46.145926	49.419693	-0.126930	-78.294687
5.550000	-0.280194	176.800971	-45.987171	47.580703	-45.987171	47.580703	-0.128816	-78.938248
5.600000	-0.284308	175.047926	-45.831901	45.742559	-45.831901	45.742559	-0.130728	-79.580494
5.650000	-0.288465	173.284114	-45.680091	43.905335	-45.680091	43.905335	-0.132669	-80.221416
5.700000	-0.292662	171.509186	-45.531715	42.069080	-45.531715	42.069080	-0.134637	-80.861020
5.750000	-0.296900	169.722921	-45.386735	40.233819	-45.386735	40.233819	-0.136633	-81.499325
5.800000	-0.301178	167.924981	-45.245127	38.399571	-45.245127	38.399571	-0.138657	-82.136339
5.850000	-0.305494	166.115029	-45.106867	36.566347	-45.106867	36.566347	-0.140711	-82.772068
5.900000	-0.309848	164.292729	-44.971937	34.734145	-44.971937	34.734145	-0.142793	-83.406517
5.950000	-0.314240	162.457746	-44.840321	32.902955	-44.840321	32.902955	-0.144905	-84.039694
6.000000	-0.318667	160.609747	-44.712009	31.072757	-44.712009	31.072757	-0.147048	-84.671605
6.050000	-0.323128	158.748400	-44.586994	29.243529	-44.586994	29.243529	-0.149220	-85.302259
6.100000	-0.327624	156.873378	-44.465272	27.415242	-44.465272	27.415242	-0.151424	-85.931662
6.150000	-0.332152	154.984357	-44.346846	25.587865	-44.346846	25.587865	-0.153659	-86.559823
6.200000	-0.336712	153.081017	-44.231722	23.761370	-44.231722	23.761370	-0.155925	-87.186748
6.250000	-0.341302	151.163042	-44.119913	21.935729	-44.119913	21.935729	-0.158224	-87.812447
6.300000	-0.345922	149.229794	-44.011481	20.110940	-44.011481	20.110940	-0.160556	-88.436901
6.350000	-0.350568	147.281288	-43.906408	18.286974	-43.906408	18.286974	-0.162920	-89.060146
6.400000	-0.355241	145.317231	-43.804724	16.463833	-43.804724	16.463833	-0.165318	-89.682190
6.450000	-0.359939	143.337339	-43.706462	14.641533	-43.706462	14.641533	-0.167749	-90.303042
6.500000	-0.364660	141.341338	-43.611662	12.820113	-43.611662	12.820113	-0.170215	-90.922712
6.550000	-0.369402	139.328962	-43.520369	10.999632	-43.520369	10.999632	-0.172714	-91.541210
6.600000	-0.374165	137.299961	-43.432635	9.180178	-43.432635	9.180178	-0.175249	-92.158544
6.650000	-0.378947	135.254096	-43.348517	7.361870	-43.348517	7.361870	-0.177819	-92.774724
6.700000	-0.383745	133.191143	-43.268076	5.544864	-43.268076	5.544864	-0.180424	-93.389761
6.750000	-0.388559	131.110892	-43.191381	3.729355	-43.191381	3.729355	-0.183065	-94.003665
6.800000	-0.393388	129.013152	-43.118503	1.915583	-43.118503	1.915583	-0.185742	-94.616447
6.850000	-0.398229	126.897749	-43.049522	0.103836	-43.049522	0.103836	-0.188456	-95.228117
6.900000	-0.403081	124.764333	-42.984558	-1.705509	-42.984558	-1.705509	-0.191208	-95.838674
6.950000	-0.407943	122.612767	-42.923702	-3.512035	-42.923702	-3.512035	-0.193997	-96.448130
7.000000	-0.412813	120.443134	-42.867008	-5.315296	-42.867008	-5.315296	-0.196823	-97.056508
7.050000	-0.417690	118.255347	-42.814567	-7.114749	-42.814567	-7.114749	-0.199688	-97.663819
7.100000	-0.422572	116.049347	-42.766476	-8.909781	-42.766476	-8.909781	-0.202592	-98.270076
7.150000	-0.427459	113.825096	-42.722831	-10.699698	-42.722831	-10.699698	-0.205534	-98.875291
7.200000	-0.432350	111.582588	-42.683731	-12.483723	-42.683731	-12.483723	-0.208515	-99.479474
7.250000	-0.437243	109.321843	-42.649274	-14.260990	-42.649274	-14.260990	-0.211535	-100.082640
7.300000	-0.442138	107.042914	-42.619556	-16.030544	-42.619556	-16.030544	-0.214595	-100.684800
7.350000	-0.447034	104.745883	-42.594674	-17.791332	-42.594674	-17.791332	-0.217696	-101.285967
7.400000	-0.451932	102.430864	-42.574719	-19.542203	-42.574719	-19.542203	-0.220836	-101.886155
7.450000	-0.456830	100.098005	-42.559780	-21.281901	-42.559780	-21.281901	-0.224018	-102.485376
7.500000	-0.461729	97.747491	-42.549939	-23.009067	-42.549939	-23.009067	-0.227240	-103.083644
7.550000	-0.466630	95.379164	-42.545386	-24.721891	-42.545386	-24.721891	-0.230505	-103.680952
7.600000	-0.471533	92.993665	-42.546078	-26.419057	-42.546078	-26.419057	-0.233812	-104.277335
7.650000	-0.476439	90.591287	-42.552070	-28.098865	-42.552070	-28.098865	-0.237160	-104.872808
7.700000	-0.481351	88.172357	-42.563409	-29.759501	-42.563409	-29.759501	-0.240551	-105.467384
7.750000	-0.486269	85.737243	-42.580126	-31.399037	-42.580126	-31.399037	-0.243984	-106.061077
7.800000	-0.491196	83.286346	-42.602237	-33.015428	-42.602237	-33.015428	-0.247460	-106.653903
7.850000	-0.496135	80.820105	-42.629745	-34.606517	-42.629745	-34.606517	-0.250980	-107.245877
7.900000	-0.501089	78.338995	-42.662629	-36.170031	-42.662629	-36.170031	-0.254543	-107.837014
7.950000	-0.506062	75.843527	-42.700851	-37.703584	-42.700851	-37.703584	-0.258149	-108.427328
8.000000	-0.511059	73.334246	-42.744348	-39.204679	-42.744348	-39.204679	-0.261800	-109.016837
8.050000	-0.516085	70.811729	-42.793034	-40.670710	-42.793034	-40.670710	-0.265495	-109.605555
8.100000	-0.521146	68.276586	-42.846791	-42.098966	-42.846791	-42.098966	-0.269235	-110.193498
8.150000	-0.526249	65.729336	-42.905520	-43.486161	-42.905520	-43.486161	-0.273020	-110.780676
8.200000	-0.531401	63.170669	-42.969032	-44.829283	-42.969032	-44.829283	-0.276851	-111.367105
8.250000	-0.536612	60.601413	-43.037057	-46.125770	-43.037057	-46.125770	-0.280727	-111.952809
8.300000	-0.541888	58.022287	-43.109333	-47.372541	-43.109333	-47.372541	-0.284649	-112.537807
8.350000	-0.547243	55.434032	-43.185556	-48.566448	-43.185556	-48.566448	-0.288617	-113.122115
8.400000	-0.552685	52.837407	-43.265370	-49.704286	-43.265370	-49.704286	-0.292631	-113.705751
8.450000	-0.558228	50.233184	-43.348369	-50.782822	-43.348369	-50.782822	-0.296692	-114.288733
8.500000	-0.563886	47.622149	-43.434084	-51.798806	-43.434084	-51.798806	-0.300799	-114.871078
8.550000	-0.569674	45.005094	-43.521986	-52.749010	-43.521986	-52.749010	-0.304954	-115.452805
8.600000	-0.575607	42.382818	-43.611476	-53.630259	-43.611476	-53.630259	-0.309156	-116.033933
8.650000	-0.581703	39.756120	-43.701879	-54.439478	-43.701879	-54.439478	-0.313405	-116.614481
8.700000	-0.587982	37.125794	-43.792441	-55.173744	-43.792441	-55.173744	-0.317702	-117.194466
8.750000	-0.594465	34.492631	-43.882323	-55.830354	-43.882323	-55.830354	-0.322048	-117.773910
8.800000	-0.601179	31.857380	-43.970518	-56.405116	-43.970518	-56.405116	-0.326442	-118.352819
8.850000	-0.608147	29.220869	-44.056032	-56.897734	-44.056032	-56.897734	-0.330886	-118.931228
8.900000	-0.615393	26.583839	-44.137745	-57.306734	-44.137745	-57.306734	-0.335378	-119.509154
8.950000	-0.622949	23.947012	-44.214439	-57.631269	-44.214439	-57.631269	-0.339919	-120.086619
9.000000	-0.630846	21.311084	-44.284811	-57.871255	-44.284811	-57.871255	-0.344510	-120.663644
9.050000	-0.639118	18.676719	-44.347474	-58.027516	-44.347474	-58.027516	-0.349150	-121.240250
9.100000	-0.647803	16.044549	-44.400974	-58.101928	-44.400974	-58.101928	-0.353840	-121.816457
9.150000	-0.656942	13.415168	-44.443807	-58.097566	-44.443807	-58.097566	-0.358581	-122.392289
9.200000	-0.666579	10.789132	-44.474445	-58.018838	-44.474445	-58.018838	-0.363372	-122.967766
9.250000	-0.676763	8.166953	-44.491364	-57.871598	-44.491364	-57.871598	-0.368213	-123.542911
9.300000	-0.687546	5.549099	-44.493083	-57.663223	-44.493083	-57.663223	-0.373106	-124.117747
9.350000	-0.698984	2.935987	-44.478200	-57.402650	-44.478200	-57.402650	-0.378050	-124.692297
9.400000	-0.711150	0.328049	-44.445233	-57.100035	-44.445233	-57.100035	-0.383046	-125.266581
9.450000	-0.724112	-2.274388	-44.393040	-56.767754	-44.393040	-56.767754	-0.388095	-125.840623
9.500000	-0.737937	-4.871117	-44.320939	-56.419560	-44.320939	-56.419560	-0.393195	-126.414452
9.550000	-0.752707	-7.461930	-44.228304	-56.069799	-44.228304	-56.069799	-0.398349	-126.988090
9.600000	-0.768511	-10.046669	-44.114796	-55.733587	-44.114796	-55.733587	-0.403555	-127.561564
9.650000	-0.785444	-12.625233	-43.980378	-55.426481	-43.980378	-55.426481	-0.408814	-128.134897
9.700000	-0.803613	-15.197573	-43.825327	-55.164144	-43.825327	-55.164144	-0.414126	-128.708115
9.750000	-0.823133	-17.763690	-43.650232	-54.961999	-43.650232	-54.961999	-0.419493	-129.281245
9.800000	-0.844131	-20.323635	-43.455973	-54.834912	-43.455973	-54.834912	-0.424913	-129.854311
9.850000	-0.866745	-22.877506	-43.243706	-54.796909	-43.243706	-54.796909	-0.430388	-130.427342
9.900000	-0.891127	-25.425443	-43.014828	-54.860953	-43.014828	-54.860953	-0.435918	-131.000364
9.950000	-0.917442	-27.967625	-42.770943	-55.038765	-42.770943	-55.038765	-0.441503	-131.573404
10.000000	-0.945872	-30.504263	-42.513830	-55.340715	-42.513830	-55.340715	-0.447144	-132.146491
