! freq	dB(S11)	phase(S11)	dB(S12)	phase(S12)	
!     	dB(S21)	phase(S21)	dB(S22)	phase(S22)	
!S-par simulation data
#  GHz  S  DB  R 50
0.000000	-83.703431	0.000000	-0.000567	0.000000	-0.000567	0.000000	-83.703431	0.000000
0.050000	-36.788652	-92.625265	-0.005041	-3.096597	-0.005041	-3.096597	-36.799170	-93.007679
0.100000	-30.793590	-95.670448	-0.014082	-6.159988	-0.014082	-6.159988	-30.799475	-96.417207
0.150000	-27.305946	-98.655120	-0.023896	-9.202734	-0.023896	-9.202734	-27.308381	-99.753147
0.200000	-24.845062	-101.624502	-0.034326	-12.237683	-0.034326	-12.237683	-24.846092	-103.074032
0.250000	-22.947627	-104.575635	-0.045887	-15.268562	-0.045887	-15.268562	-22.948652	-106.382916
0.300000	-21.407445	-107.505467	-0.058899	-18.295630	-0.058899	-18.295630	-21.409040	-109.675770
0.350000	-20.114203	-110.415178	-0.073407	-21.318340	-0.073407	-21.318340	-20.116425	-112.950268
0.400000	-19.002797	-113.306640	-0.089408	-24.335864	-0.089408	-24.335864	-19.005503	-116.205404
0.450000	-18.031952	-116.181545	-0.106898	-27.347179	-0.106898	-27.347179	-18.034940	-119.440827
0.500000	-17.172285	-119.042876	-0.125707	-30.351979	-0.125707	-30.351979	-17.175376	-122.658715
0.550000	-16.403451	-121.892314	-0.145735	-33.349804	-0.145735	-33.349804	-16.406499	-125.860383
0.600000	-15.711095	-124.730736	-0.166919	-36.339939	-0.166919	-36.339939	-15.713983	-129.046380
0.650000	-15.083241	-127.559606	-0.189105	-39.322388	-0.189105	-39.322388	-15.085885	-132.218312
0.700000	-14.510835	-130.379832	-0.212176	-42.297061	-0.212176	-42.297061	-14.513172	-135.377096
0.750000	-13.987212	-133.191833	-0.236043	-45.263615	-0.236043	-45.263615	-13.989191	-138.522909
0.800000	-13.506575	-135.996221	-0.260594	-48.222033	-0.260594	-48.222033	-13.508157	-141.656191
0.850000	-13.064025	-138.793612	-0.285713	-51.172435	-0.285713	-51.172435	-13.065178	-144.777347
0.900000	-12.655594	-141.584513	-0.311294	-54.114911	-0.311294	-54.114911	-12.656293	-147.886549
0.950000	-12.278015	-144.369389	-0.337238	-57.049544	-0.337238	-57.049544	-12.278240	-150.983819
1.000000	-11.928466	-147.148756	-0.363443	-59.976489	-0.363443	-59.976489	-11.928197	-154.069180
1.050000	-11.604518	-149.923162	-0.389810	-62.895944	-0.389810	-62.895944	-11.603742	-157.142623
1.100000	-11.304073	-152.693203	-0.416242	-65.808145	-0.416242	-65.808145	-11.302773	-160.204125
1.150000	-11.025297	-155.459527	-0.442643	-68.713366	-0.442643	-68.713366	-11.023460	-163.253654
1.200000	-10.766584	-158.222842	-0.468920	-71.611919	-0.468920	-71.611919	-10.764194	-166.291178
1.250000	-10.526516	-160.983917	-0.494982	-74.504148	-0.494982	-74.504148	-10.523558	-169.316668
1.300000	-10.304077	-163.743577	-0.520728	-77.390316	-0.520728	-77.390316	-10.300530	-172.329833
1.350000	-10.097899	-166.502781	-0.546080	-80.270975	-0.546080	-80.270975	-10.093741	-175.330915
1.400000	-9.906985	-169.262507	-0.570953	-83.146573	-0.570953	-83.146573	-9.902190	-178.319890
1.450000	-9.730443	-172.023804	-0.595266	-86.017589	-0.595266	-86.017589	-9.724978	178.703263
1.500000	-9.567469	-174.787797	-0.618942	-88.884529	-0.618942	-88.884529	-9.561298	175.738573
1.550000	-9.417344	-177.555683	-0.641906	-91.747927	-0.641906	-91.747927	-9.410422	172.786076
1.600000	-9.279419	179.671267	-0.664084	-94.608344	-0.664084	-94.608344	-9.271696	169.845822
1.650000	-9.153109	176.891702	-0.685407	-97.466368	-0.685407	-97.466368	-9.144524	166.917884
1.700000	-9.037887	174.104191	-0.705806	-100.322610	-0.705806	-100.322610	-9.028372	164.002356
1.750000	-8.933276	171.307223	-0.725216	-103.177714	-0.725216	-103.177714	-8.922755	161.099366
1.800000	-8.838849	168.499201	-0.743570	-106.032355	-0.743570	-106.032355	-8.827234	158.209081
1.850000	-8.754221	165.678440	-0.760807	-108.887252	-0.760807	-108.887252	-8.741414	155.331713
1.900000	-8.679139	162.842984	-0.776847	-111.743195	-0.776847	-111.743195	-8.665029	152.467672
1.950000	-8.613289	159.990890	-0.791631	-114.601058	-0.791631	-114.601058	-8.597753	149.617300
2.000000	-8.556300	157.120333	-0.805117	-117.461763	-0.805117	-117.461763	-8.539204	146.780854
2.050000	-8.507927	154.229219	-0.817262	-120.326336	-0.817262	-120.326336	-8.489124	143.958818
2.100000	-8.467953	151.315338	-0.828042	-123.195884	-0.828042	-123.195884	-8.447281	141.151762
2.150000	-8.436189	148.376355	-0.837454	-126.071554	-0.837454	-126.071554	-8.413471	138.360360
2.200000	-8.412469	145.409804	-0.845524	-128.954461	-0.845524	-128.954461	-8.387513	135.585396
2.250000	-8.396650	142.413072	-0.852296	-131.845626	-0.852296	-131.845626	-8.369244	132.827778
2.300000	-8.388609	139.383392	-0.857828	-134.745923	-0.857828	-134.745923	-8.358525	130.088551
2.350000	-8.388242	136.317829	-0.862174	-137.656095	-0.862174	-137.656095	-8.355232	127.368914
2.400000	-8.395465	133.213264	-0.865379	-140.576793	-0.865379	-140.576793	-8.359256	124.670228
2.450000	-8.410205	130.066382	-0.867474	-143.508651	-0.867474	-143.508651	-8.370501	121.994040
2.500000	-8.432404	126.873649	-0.868480	-146.452339	-0.868480	-146.452339	-8.388882	119.342097
2.550000	-8.462173	123.630126	-0.868390	-149.408882	-0.868390	-149.408882	-8.414473	116.716986
2.600000	-8.499311	120.332762	-0.867245	-152.378837	-0.867245	-152.378837	-8.447044	114.120406
2.650000	-8.543782	116.977232	-0.865070	-155.363080	-0.865070	-155.363080	-8.486524	111.554844
2.700000	-8.595553	113.558901	-0.861896	-158.362533	-0.861896	-158.362533	-8.532835	109.023075
2.750000	-8.654586	110.072801	-0.857763	-161.378155	-0.857763	-161.378155	-8.585894	106.528185
2.800000	-8.720835	106.513598	-0.852723	-164.410928	-0.852723	-164.410928	-8.645602	104.073594
2.850000	-8.794238	102.875567	-0.846835	-167.461846	-0.846835	-167.461846	-8.711836	101.663081
2.900000	-8.874711	99.152557	-0.840169	-170.531913	-0.840169	-170.531913	-8.784447	99.300809
2.950000	-8.962138	95.337962	-0.832805	-173.622137	-0.832805	-173.622137	-8.863244	96.991347
3.000000	-9.056359	91.424692	-0.824831	-176.733527	-0.824831	-176.733527	-8.947985	94.739684
3.050000	-9.157159	87.405147	-0.816346	-179.867087	-0.816346	-179.867087	-9.038363	92.551244
3.100000	-9.264249	83.271201	-0.807457	176.976178	-0.807457	176.976178	-9.133990	90.431888
3.150000	-9.377291	79.012749	-0.798279	173.795000	-0.798279	173.795000	-9.234409	88.388795
3.200000	-9.495762	74.620268	-0.788943	170.588357	-0.788943	170.588357	-9.338982	86.428883
3.250000	-9.618968	70.085375	-0.779591	167.355537	-0.779591	167.355537	-9.446904	84.558367
3.300000	-9.746092	65.397924	-0.770371	164.095577	-0.770371	164.095577	-9.557237	82.784515
3.350000	-9.876107	60.547458	-0.761441	160.807533	-0.761441	160.807533	-9.668842	81.114686
3.400000	-10.007746	55.523379	-0.752971	157.490483	-0.752971	157.490483	-9.780349	79.556132
3.450000	-10.139459	50.315194	-0.745143	154.143527	-0.745143	154.143527	-9.890131	78.115732
3.500000	-10.269381	44.912861	-0.738148	150.765798	-0.738148	150.765798	-9.996279	76.799647
3.550000	-10.395295	39.307228	-0.732192	147.356464	-0.732192	147.356464	-10.096592	75.612890
3.600000	-10.514616	33.490606	-0.727492	143.914734	-0.727492	143.914734	-10.188572	74.558817
3.650000	-10.624384	27.457447	-0.724276	140.439865	-0.724276	140.439865	-10.269442	73.638537
3.700000	-10.721291	21.205136	-0.722787	136.931171	-0.722787	136.931171	-10.336195	72.850296
3.750000	-10.801740	14.734825	-0.723280	133.388029	-0.723280	133.388029	-10.385661	72.188849
3.800000	-10.861416	8.047915	-0.726074	129.809116	-0.726074	129.809116	-10.414106	71.647165
3.850000	-10.896882	1.160625	-0.731409	126.194717	-0.731409	126.194717	-10.418800	71.208486
3.900000	-10.904509	-5.909802	-0.739573	122.544461	-0.739573	122.544461	-10.396911	70.854321
3.950000	-10.881084	-13.140356	-0.750870	118.858078	-0.750870	118.858078	-10.346071	70.561965
4.000000	-10.824058	-20.502787	-0.765610	115.135408	-0.765610	115.135408	-10.264553	70.305173
4.050000	-10.731763	-27.964679	-0.784115	111.376415	-0.784115	111.376415	-10.151420	70.055217
4.100000	-10.603573	-35.491013	-0.806712	107.581193	-0.806712	107.581193	-10.006611	69.782231
4.150000	-10.439987	-43.046041	-0.833736	103.749974	-0.833736	103.749974	-9.830971	69.456702
4.200000	-10.242601	-50.595247	-0.865524	99.883140	-0.865524	99.883140	-9.626197	69.050938
4.250000	-10.013990	-58.107131	-0.902415	95.981225	-0.902415	95.981225	-9.394728	68.540342
4.300000	-9.757515	-65.554595	-0.944747	92.044922	-0.944747	92.044922	-9.139579	67.904364
4.350000	-9.477082	-72.915819	-0.992857	88.075085	-0.992857	88.075085	-8.864164	67.127055
4.400000	-9.176610	-80.173350	-1.047137	84.072390	-1.047137	84.072390	-8.571846	66.195508
4.450000	-8.860483	-87.316232	-1.107914	80.038054	-1.107914	80.038054	-8.266372	65.103086
4.500000	-8.533456	-94.341688	-1.175341	75.974159	-1.175341	75.974159	-7.951820	63.851509
4.550000	-8.198914	-101.245643	-1.249844	71.881523	-1.249844	71.881523	-7.631074	62.438623
4.600000	-7.860585	-108.030897	-1.331641	67.761994	-1.331641	67.761994	-7.307350	60.870027
4.650000	-7.521596	-114.701795	-1.420980	63.617285	-1.420980	63.617285	-6.983366	59.152272
4.700000	-7.184635	-121.264190	-1.518103	59.449138	-1.518103	59.449138	-6.661478	57.293232
4.750000	-6.851984	-127.724952	-1.623245	55.259332	-1.623245	55.259332	-6.343712	55.301728
4.800000	-6.525637	-134.092964	-1.736518	51.049962	-1.736518	51.049962	-6.031858	53.189038
4.850000	-6.207142	-140.376525	-1.858062	46.822942	-1.858062	46.822942	-5.727324	50.965643
4.900000	-5.897732	-146.583971	-1.987988	42.580163	-1.987988	42.580163	-5.431247	48.642102
4.950000	-5.598360	-152.723499	-2.126377	38.323458	-2.126377	38.323458	-5.144521	46.228840
5.000000	-5.309739	-158.803056	-2.273285	34.054574	-2.273285	34.054574	-4.867822	43.735992
5.050000	-5.032423	-164.829550	-2.428832	29.774987	-2.428832	29.774987	-4.601691	41.172297
5.100000	-4.766720	-170.811277	-2.592925	25.486366	-2.592925	25.486366	-4.346433	38.548289
5.150000	-4.512800	-176.755227	-2.765548	21.189995	-2.765548	21.189995	-4.102228	35.872643
5.200000	-4.270708	177.331892	-2.946676	16.886955	-2.946676	16.886955	-3.869136	33.153465
5.250000	-4.040386	171.443624	-3.136270	12.578096	-3.136270	12.578096	-3.647119	30.398271
5.300000	-3.821691	165.573714	-3.334289	8.264021	-3.334289	8.264021	-3.436053	27.613985
5.350000	-3.614412	159.716069	-3.540693	3.945072	-3.540693	3.945072	-3.235744	24.806946
5.400000	-3.418284	153.864710	-3.755446	-0.378679	-3.755446	-0.378679	-3.045943	21.982916
5.450000	-3.232871	148.013857	-3.978485	-4.707334	-3.978485	-4.707334	-2.866235	19.147225
5.500000	-3.058132	142.157465	-4.209913	-9.041610	-4.209913	-9.041610	-2.696568	16.304199
5.550000	-2.893599	136.289539	-4.449700	-13.382216	-4.449700	-13.382216	-2.536483	13.458273
5.600000	-2.738751	130.404607	-4.697869	-17.730035	-4.697869	-17.730035	-2.385467	10.613081
5.650000	-2.593378	124.496292	-4.954546	-22.086567	-4.954546	-22.086567	-2.243290	7.771875
5.700000	-2.457099	118.558463	-5.219861	-26.453428	-5.219861	-26.453428	-2.109556	4.937509
5.750000	-2.329471	112.585389	-5.493991	-30.832328	-5.493991	-30.832328	-1.983805	2.112283
5.800000	-2.210132	106.571047	-5.777186	-35.225290	-5.777186	-35.225290	-1.865650	-0.701828
5.850000	-2.098737	100.509383	-6.069757	-39.634528	-6.069757	-39.634528	-1.754712	-3.503195
5.900000	-1.994958	94.394325	-6.372086	-44.062429	-6.372086	-44.062429	-1.650622	-6.290504
5.950000	-1.898292	88.221952	-6.684660	-48.510743	-6.684660	-48.510743	-1.552863	-9.063245
6.000000	-1.808884	81.981792	-7.007959	-52.983723	-7.007959	-52.983723	-1.461463	-11.819544
6.050000	-1.726236	75.670180	-7.342634	-57.483295	-7.342634	-57.483295	-1.375904	-14.559447
6.100000	-1.650110	69.281348	-7.689402	-62.012232	-7.689402	-62.012232	-1.295885	-17.282631
6.150000	-1.580293	62.809745	-8.049078	-66.573319	-8.049078	-66.573319	-1.221128	-19.988960
6.200000	-1.516591	56.250116	-8.422579	-71.169309	-8.422579	-71.169309	-1.151378	-22.678452
6.250000	-1.458832	49.597590	-8.810928	-75.802885	-8.810928	-75.802885	-1.086398	-25.351261
6.300000	-1.406921	42.846692	-9.215229	-80.477080	-9.215229	-80.477080	-1.026017	-28.007478
6.350000	-1.360659	35.994685	-9.636742	-85.193900	-9.636742	-85.193900	-0.969996	-30.647644
6.400000	-1.319915	29.038564	-10.076821	-89.955564	-10.076821	-89.955564	-0.918164	-33.272183
6.450000	-1.284564	21.976205	-10.536925	-94.764073	-10.536925	-94.764073	-0.870365	-35.881569
6.500000	-1.254478	14.806502	-11.018623	-99.621191	-11.018623	-99.621191	-0.826463	-38.476308
6.550000	-1.229520	7.529515	-11.523587	-104.528445	-11.523587	-104.528445	-0.786336	-41.056920
6.600000	-1.209577	0.145765	-12.053523	-109.487574	-12.053523	-109.487574	-0.749903	-43.623823
6.650000	-1.194440	-7.341303	-12.610285	-114.499473	-12.610285	-114.499473	-0.717045	-46.177615
6.700000	-1.183870	-14.926641	-13.195839	-119.564893	-13.195839	-119.564893	-0.687648	-48.718891
6.750000	-1.177674	-22.605444	-13.811992	-124.685792	-13.811992	-124.685792	-0.661666	-51.247988
6.800000	-1.175518	-30.369056	-14.460802	-129.863264	-14.460802	-129.863264	-0.638980	-53.765518
6.850000	-1.177062	-38.208076	-15.144243	-135.099607	-15.144243	-135.099607	-0.619500	-56.271981
6.900000	-1.181921	-46.111489	-15.864256	-140.398277	-15.864256	-140.398277	-0.603131	-58.767895
6.950000	-1.189664	-54.066769	-16.622708	-145.764486	-16.622708	-145.764486	-0.589774	-61.253822
7.000000	-1.199823	-62.060053	-17.421327	-151.205972	-17.421327	-151.205972	-0.579320	-63.730384
7.050000	-1.211901	-70.076360	-18.261626	-156.733984	-18.261626	-156.733984	-0.571654	-66.198288
7.100000	-1.225387	-78.099810	-19.144538	-162.365118	-19.144538	-162.365118	-0.566664	-68.658319
7.150000	-1.239754	-86.113648	-20.070296	-168.122847	-20.070296	-168.122847	-0.564232	-71.111419
7.200000	-1.254482	-94.101221	-21.039123	-174.036982	-21.039123	-174.036982	-0.564199	-73.558782
7.250000	-1.269090	-102.046097	-22.049608	179.851393	-22.049608	179.851393	-0.566433	-76.001696
7.300000	-1.283138	-109.932322	-23.098456	173.488788	-23.098456	173.488788	-0.570803	-78.441643
7.350000	-1.296236	-117.744726	-24.179502	166.807710	-24.179502	166.807710	-0.577182	-80.880299
7.400000	-1.308057	-125.469182	-25.282255	159.726771	-25.282255	159.726771	-0.585456	-83.319550
7.450000	-1.318339	-133.092831	-26.389928	152.154778	-26.389928	152.154778	-0.595517	-85.761487
7.500000	-1.326889	-140.604235	-27.477077	144.002582	-27.477077	144.002582	-0.607275	-88.208413
7.550000	-1.333555	-147.991589	-28.504418	135.198180	-28.504418	135.198180	-0.620679	-90.662994
7.600000	-1.338304	-155.248261	-29.427353	125.758516	-29.427353	125.758516	-0.635648	-93.127894
7.650000	-1.341139	-162.367572	-30.193039	115.809567	-30.193039	115.809567	-0.652148	-95.606062
7.700000	-1.342111	-169.344364	-30.753591	105.622614	-30.753591	105.622614	-0.670164	-98.100667
7.750000	-1.341317	-176.174919	-31.080261	95.585994	-31.080261	95.585994	-0.689704	-100.615104
7.800000	-1.338888	177.143089	-31.172821	86.112210	-31.172821	86.112210	-0.710799	-103.152994
7.850000	-1.334980	170.611376	-31.056437	77.531544	-31.056437	77.531544	-0.733508	-105.718335
7.900000	-1.329780	164.229032	-30.772329	70.010171	-30.772329	70.010171	-0.757897	-108.315094
7.950000	-1.323466	157.997516	-30.359303	63.584708	-30.359303	63.584708	-0.784098	-110.948322
8.000000	-1.316253	151.914054	-29.852771	58.157265	-29.852771	58.157265	-0.812230	-113.622660
8.050000	-1.308345	145.977716	-29.276939	53.587980	-29.276939	53.587980	-0.842472	-116.343870
8.100000	-1.299964	140.184202	-28.650186	49.699857	-28.650186	49.699857	-0.875001	-119.117384
8.150000	-1.291321	134.522508	-27.989225	46.313250	-27.989225	46.313250	-0.909893	-121.945690
8.200000	-1.282604	129.005802	-27.292494	43.337418	-27.292494	43.337418	-0.947714	-124.843158
8.250000	-1.274029	123.616746	-26.574942	40.609446	-26.574942	40.609446	-0.988512	-127.810948
8.300000	-1.265779	118.352796	-25.841450	38.040974	-25.841450	38.040974	-1.032624	-130.856945
8.350000	-1.258107	113.220169	-25.090325	35.555488	-25.090325	35.555488	-1.080761	-133.997986
8.400000	-1.251144	108.200811	-24.334368	33.084965	-24.334368	33.084965	-1.132958	-137.233358
8.450000	-1.245154	103.300733	-23.570956	30.583572	-23.570956	30.583572	-1.190077	-140.582514
8.500000	-1.240345	98.512982	-22.804678	28.013779	-22.804678	28.013779	-1.252671	-144.056333
8.550000	-1.236839	93.827287	-22.042022	25.356131	-22.042022	25.356131	-1.321074	-147.659669
8.600000	-1.235089	89.254199	-21.275785	22.575072	-21.275785	22.575072	-1.396972	-151.429152
8.650000	-1.235139	84.776619	-20.515790	19.669715	-20.515790	19.669715	-1.480502	-155.362979
8.700000	-1.237310	80.395278	-19.760611	16.623434	-19.760611	16.623434	-1.572977	-159.486433
8.750000	-1.242050	76.111925	-19.007719	13.416211	-19.007719	13.416211	-1.676239	-163.835552
8.800000	-1.249422	71.914721	-18.263602	10.053487	-18.263602	10.053487	-1.790784	-168.413763
8.850000	-1.260073	67.810342	-17.522971	6.507997	-17.522971	6.507997	-1.919421	-173.276477
8.900000	-1.274115	63.789288	-16.791215	2.784065	-16.791215	2.784065	-2.063057	-178.434119
8.950000	-1.292190	59.856016	-16.065449	-1.142053	-16.065449	-1.142053	-2.224775	176.054032
9.000000	-1.314742	56.009836	-15.346893	-5.283164	-15.346893	-5.283164	-2.407110	170.140898
9.050000	-1.342159	52.250362	-14.637547	-9.650504	-14.637547	-9.650504	-2.612588	163.777826
9.100000	-1.374837	48.579436	-13.939197	-14.258147	-13.939197	-14.258147	-2.844013	156.904754
9.150000	-1.413115	45.000662	-13.253980	-19.121229	-13.253980	-19.121229	-3.104191	149.451114
9.200000	-1.457268	41.520806	-12.584214	-24.258709	-12.584214	-24.258709	-3.395839	141.325169
9.250000	-1.507196	38.146115	-11.933928	-29.681796	-11.933928	-29.681796	-3.720061	132.439088
9.300000	-1.562437	34.884013	-11.307772	-35.398104	-11.307772	-35.398104	-4.075902	122.699136
9.350000	-1.622095	31.743415	-10.710858	-41.412363	-10.710858	-41.412363	-4.459134	112.002660
9.400000	-1.684696	28.734521	-10.148993	-47.725664	-10.148993	-47.725664	-4.860058	100.239714
9.450000	-1.748048	25.864286	-9.628633	-54.326307	-9.628633	-54.326307	-5.261171	87.335788
9.500000	-1.809412	23.134154	-9.155868	-61.188911	-9.155868	-61.188911	-5.636986	73.285708
9.550000	-1.865719	20.541592	-8.736168	-68.280676	-8.736168	-68.280676	-5.955038	58.162986
9.600000	-1.913793	18.078330	-8.374221	-75.559944	-8.374221	-75.559944	-6.180484	42.159268
9.650000	-1.950913	15.728211	-8.072785	-82.975496	-8.072785	-82.975496	-6.287351	25.603447
9.700000	-1.975245	13.469486	-7.832329	-90.472373	-7.832329	-90.472373	-6.268484	8.902910
9.750000	-1.985989	11.278457	-7.651391	-97.997779	-7.651391	-97.997779	-6.137954	-7.550707
9.800000	-1.983634	9.131488	-7.525905	-105.505437	-7.525905	-105.505437	-5.927315	-23.470241
9.850000	-1.969379	7.009042	-7.451245	-112.958934	-7.451245	-112.958934	-5.672888	-38.695720
9.900000	-1.945401	4.896063	-7.420327	-120.336916	-7.420327	-120.336916	-5.409158	-53.217337
9.950000	-1.913900	2.783575	-7.426768	-127.631019	-7.426768	-127.631019	-5.161710	-67.103428
10.000000	-1.877047	0.667470	-7.464480	-134.845890	-7.464480	-134.845890	-4.948061	-80.477312
