! freq	dB(S11)	phase(S11)	dB(S12)	phase(S12)	
!     	dB(S21)	phase(S21)	dB(S22)	phase(S22)	
!S-par simulation data
#  GHz  S  DB  R 50
0.000000	-80.970269	0.000000	-0.000777	0.000000	-0.000777	0.000000	-80.970269	0.000000
0.050000	-39.667760	-91.678394	-0.008002	-3.279249	-0.008002	-3.279249	-39.670987	-90.600725
0.100000	-33.708820	-96.524046	-0.015461	-6.507044	-0.015461	-6.507044	-33.693078	-94.405728
0.150000	-30.224300	-100.700821	-0.022458	-9.726023	-0.022458	-9.726023	-30.206522	-97.537425
0.200000	-27.762502	-104.703122	-0.030051	-12.938673	-0.030051	-12.938673	-27.743240	-100.493437
0.250000	-25.862471	-108.626151	-0.038295	-16.144569	-0.038295	-16.144569	-25.841928	-103.363570
0.300000	-24.318780	-112.499979	-0.047336	-19.342791	-0.047336	-19.342791	-24.297439	-106.179798
0.350000	-23.022037	-116.340050	-0.058411	-22.538703	-0.058411	-22.538703	-23.000279	-108.958693
0.400000	-21.907399	-120.156158	-0.068781	-25.744566	-0.068781	-25.744566	-21.885434	-111.709243
0.450000	-20.933457	-123.955331	-0.078936	-28.938658	-0.078936	-28.938658	-20.911387	-114.436598
0.500000	-20.071353	-127.743322	-0.090011	-32.127684	-0.090011	-32.127684	-20.049239	-117.144769
0.550000	-19.300630	-131.523901	-0.101838	-35.313465	-0.101838	-35.313465	-19.278527	-119.835934
0.600000	-18.606215	-135.299739	-0.114326	-38.496267	-0.114326	-38.496267	-18.584186	-122.511349
0.650000	-17.976898	-139.072791	-0.127420	-41.676079	-0.127420	-41.676079	-17.955019	-125.171479
0.700000	-17.403662	-142.844643	-0.141054	-44.852926	-0.141054	-44.852926	-17.382013	-127.816790
0.750000	-16.879219	-146.616533	-0.155150	-48.026865	-0.155150	-48.026865	-16.857875	-130.447611
0.800000	-16.397824	-150.389495	-0.169632	-51.197915	-0.169632	-51.197915	-16.376852	-133.063934
0.850000	-15.954931	-154.164498	-0.184420	-54.366057	-0.184420	-54.366057	-15.934387	-135.665469
0.900000	-15.546524	-157.942437	-0.199424	-57.531311	-0.199424	-57.531311	-15.526446	-138.252137
0.950000	-15.169762	-161.724353	-0.214558	-60.693558	-0.214558	-60.693558	-15.150173	-140.823186
1.000000	-14.820967	-165.510856	-0.229739	-63.852960	-0.229739	-63.852960	-14.801865	-143.379360
1.050000	-14.498126	-169.302955	-0.244900	-67.009420	-0.244900	-67.009420	-14.479493	-145.919952
1.100000	-14.199154	-173.101564	-0.259983	-70.162966	-0.259983	-70.162966	-14.180952	-148.444701
1.150000	-13.922226	-176.907625	-0.274940	-73.313689	-0.274940	-73.313689	-13.904402	-150.953339
1.200000	-13.665743	179.277893	-0.289730	-76.461759	-0.289730	-76.461759	-13.648227	-153.445606
1.250000	-13.428288	175.453995	-0.304317	-79.607424	-0.304317	-79.607424	-13.410996	-155.921242
1.300000	-13.208853	171.619409	-0.318660	-82.750962	-0.318660	-82.750962	-13.191688	-158.379620
1.350000	-13.006048	167.773295	-0.332731	-85.892804	-0.332731	-85.892804	-12.988907	-160.820854
1.400000	-12.818863	163.914590	-0.346497	-89.033365	-0.346497	-89.033365	-12.801635	-163.244700
1.450000	-12.646383	160.042212	-0.359926	-92.173091	-0.359926	-92.173091	-12.628955	-165.650920
1.500000	-12.487780	156.155067	-0.372987	-95.312443	-0.372987	-95.312443	-12.470038	-168.039280
1.550000	-12.342301	152.252051	-0.385648	-98.451894	-0.385648	-98.451894	-12.324135	-170.409553
1.600000	-12.209260	148.332053	-0.397882	-101.591921	-0.397882	-101.591921	-12.190564	-172.761521
1.650000	-12.088029	144.393954	-0.409665	-104.733006	-0.409665	-104.733006	-12.068707	-175.094977
1.700000	-11.978031	140.436635	-0.420974	-107.875629	-0.420974	-107.875629	-11.957998	-177.409733
1.750000	-11.878737	136.458975	-0.431790	-111.020266	-0.431790	-111.020266	-11.857922	-179.705627
1.800000	-11.789662	132.459852	-0.442097	-114.167392	-0.442097	-114.167392	-11.768003	178.017477
1.850000	-11.710358	128.438147	-0.451884	-117.317475	-0.451884	-117.317475	-11.687804	175.759682
1.900000	-11.640503	124.392470	-0.461136	-120.471022	-0.461136	-120.471022	-11.617004	173.521282
1.950000	-11.579709	120.321663	-0.469846	-123.628505	-0.469846	-123.628505	-11.555207	171.302362
2.000000	-11.527532	116.224865	-0.478019	-126.790334	-0.478019	-126.790334	-11.501952	169.102827
2.050000	-11.483650	112.100954	-0.485653	-129.956952	-0.485653	-129.956952	-11.456888	166.922852
2.100000	-11.447766	107.948801	-0.492751	-133.128791	-0.492751	-133.128791	-11.419684	164.762697
2.150000	-11.419609	103.767267	-0.499319	-136.306274	-0.499319	-136.306274	-11.390033	162.622718
2.200000	-11.398932	99.555200	-0.505363	-139.489817	-0.505363	-139.489817	-11.367651	160.503361
2.250000	-11.385508	95.311427	-0.510892	-142.679827	-0.510892	-142.679827	-11.352282	158.405146
2.300000	-11.379134	91.034746	-0.515916	-145.876704	-0.515916	-145.876704	-11.343695	156.328651
2.350000	-11.379626	86.723920	-0.520447	-149.080838	-0.520447	-149.080838	-11.341681	154.274506
2.400000	-11.386820	82.377665	-0.524497	-152.292613	-0.524497	-152.292613	-11.346053	152.243387
2.450000	-11.400573	77.994640	-0.528080	-155.512408	-0.528080	-155.512408	-11.356643	150.236021
2.500000	-11.420760	73.573431	-0.531211	-158.740595	-0.531211	-158.740595	-11.373299	148.253200
2.550000	-11.447407	69.111637	-0.533895	-161.977743	-0.533895	-161.977743	-11.396007	146.296365
2.600000	-11.480288	64.608472	-0.536158	-165.224036	-0.536158	-165.224036	-11.424511	144.365952
2.650000	-11.519331	60.062193	-0.538016	-168.479839	-0.538016	-168.479839	-11.458698	142.463043
2.700000	-11.564485	55.470907	-0.539486	-171.745518	-0.539486	-171.745518	-11.498466	140.588857
2.750000	-11.615711	50.832540	-0.540583	-175.021442	-0.540583	-175.021442	-11.543722	138.744766
2.800000	-11.672988	46.144812	-0.541326	-178.307983	-0.541326	-178.307983	-11.594377	136.932325
2.850000	-11.736305	41.405202	-0.541732	178.394480	-0.541732	178.394480	-11.650352	135.153296
2.900000	-11.805666	36.610907	-0.541819	175.085560	-0.541819	175.085560	-11.711565	133.409672
2.950000	-11.881081	31.758808	-0.541605	171.764862	-0.541605	171.764862	-11.777936	131.703711
3.000000	-11.962567	26.845417	-0.541110	168.431977	-0.541110	168.431977	-11.849379	130.037967
3.050000	-12.050141	21.866831	-0.540355	165.086483	-0.540355	165.086483	-11.925798	128.415322
3.100000	-12.143816	16.818674	-0.539361	161.727946	-0.539361	161.727946	-12.007078	126.839024
3.150000	-12.243645	11.695172	-0.538151	158.355758	-0.538151	158.355758	-12.093118	125.313313
3.200000	-12.349597	6.490616	-0.536752	154.969432	-0.536752	154.969432	-12.183734	123.842429
3.250000	-12.461560	1.199612	-0.535193	151.568622	-0.535193	151.568622	-12.278653	122.430419
3.300000	-12.579421	-4.184773	-0.533508	148.152815	-0.533508	148.152815	-12.377585	121.082374
3.350000	-12.702892	-9.667100	-0.531732	144.721942	-0.531732	144.721942	-12.480098	119.801718
3.400000	-12.831937	-15.262411	-0.529902	141.274473	-0.529902	141.274473	-12.585850	118.599045
3.450000	-12.966019	-20.976904	-0.528064	137.810336	-0.528064	137.810336	-12.694151	117.478747
3.500000	-13.104573	-26.820954	-0.526269	134.328933	-0.526269	134.328933	-12.804231	116.447925
3.550000	-13.246829	-32.805818	-0.524574	130.829643	-0.524574	130.829643	-12.915129	115.514050
3.600000	-13.391760	-38.943564	-0.523041	127.311830	-0.523041	127.311830	-13.025656	114.684821
3.650000	-13.538021	-45.246908	-0.521742	123.774842	-0.521742	123.774842	-13.134354	113.967949
3.700000	-13.683886	-51.728951	-0.520758	120.218012	-0.520758	120.218012	-13.239464	113.370864
3.750000	-13.827175	-58.402761	-0.520177	116.640666	-0.520177	116.640666	-13.338885	112.900305
3.800000	-13.965033	-65.283907	-0.520110	113.041806	-0.520110	113.041806	-13.429981	112.563772
3.850000	-14.094230	-72.380492	-0.520662	109.421051	-0.520662	109.421051	-13.509999	112.362999
3.900000	-14.210857	-79.700785	-0.521956	105.777732	-0.521956	105.777732	-13.575733	112.298891
3.950000	-14.310403	-87.249121	-0.524130	102.111196	-0.524130	102.111196	-13.623669	112.368871
4.000000	-14.387836	-95.024397	-0.527334	98.420817	-0.527334	98.420817	-13.650087	112.566039
4.050000	-14.437765	-103.018538	-0.531732	94.706002	-0.531732	94.706002	-13.651198	112.878448
4.100000	-14.454694	-111.215147	-0.537501	90.966207	-0.537501	90.966207	-13.623341	113.288605
4.150000	-14.433389	-119.588653	-0.544836	87.200949	-0.544836	87.200949	-13.563211	113.773348
4.200000	-14.368838	-128.105196	-0.553962	83.409565	-0.553962	83.409565	-13.467734	114.304331
4.250000	-14.257771	-136.720033	-0.565098	79.591855	-0.565098	79.591855	-13.335182	114.847761
4.300000	-14.098546	-145.383230	-0.578472	75.747735	-0.578472	75.747735	-13.164927	115.367630
4.350000	-13.891094	-154.042781	-0.594333	71.877116	-0.594333	71.877116	-12.957305	115.827248
4.400000	-13.637174	-162.647490	-0.612942	67.980052	-0.612942	67.980052	-12.713792	116.191028
4.450000	-13.340218	-171.150385	-0.634569	64.056753	-0.634569	64.056753	-12.436902	116.426388
4.500000	-13.005007	-179.511434	-0.659492	60.107601	-0.659492	60.107601	-12.130012	116.505289
4.550000	-12.637239	172.300782	-0.687994	56.133171	-0.687994	56.133171	-11.797120	116.405257
4.600000	-12.242895	164.309535	-0.720379	52.134127	-0.720379	52.134127	-11.442445	116.108853
4.650000	-11.828104	156.529470	-0.756953	48.111378	-0.756953	48.111378	-11.070397	115.604531
4.700000	-11.399259	148.964282	-0.797955	44.066393	-0.797955	44.066393	-10.685764	114.889490
4.750000	-10.961852	141.613499	-0.843649	40.000641	-0.843649	40.000641	-10.292759	113.963807
4.800000	-10.520766	134.472120	-0.894280	35.915826	-0.894280	35.915826	-9.895260	112.831489
4.850000	-10.080231	127.532037	-0.950074	31.813886	-0.950074	31.813886	-9.496752	111.499624
4.900000	-9.643830	120.783234	-1.011229	27.696983	-1.011229	27.696983	-9.100302	109.977601
4.950000	-9.214543	114.214739	-1.077906	23.567491	-1.077906	23.567491	-8.708559	108.276421
5.000000	-8.794803	107.815326	-1.150232	19.427977	-1.150232	19.427977	-8.323775	106.408129
5.050000	-8.386487	101.576142	-1.228358	15.281111	-1.228358	15.281111	-7.947755	104.383319
5.100000	-7.991287	95.484339	-1.312238	11.129912	-1.312238	11.129912	-7.582191	102.217285
5.150000	-7.610378	89.530273	-1.401845	6.977347	-1.401845	6.977347	-7.228323	99.922846
5.200000	-7.244636	83.705121	-1.497096	2.826437	-1.497096	2.826437	-6.887128	97.512574
5.250000	-6.894688	78.000888	-1.597846	-1.319791	-1.597846	-1.319791	-6.559348	94.998655
5.300000	-6.560945	72.410362	-1.703886	-5.458348	-1.703886	-5.458348	-6.245529	92.392787
5.350000	-6.243648	66.927038	-1.814946	-9.586338	-1.814946	-9.586338	-5.946035	89.706106
5.400000	-5.942884	61.545028	-1.930690	-13.701004	-1.930690	-13.701004	-5.661086	86.949141
5.450000	-5.658699	56.259827	-2.050742	-17.799602	-2.050742	-17.799602	-5.390832	84.131287
5.500000	-5.390943	51.065901	-2.174615	-21.879842	-2.174615	-21.879842	-5.135239	81.262231
5.550000	-5.139367	45.958112	-2.301777	-25.939769	-2.301777	-25.939769	-4.894159	78.350788
5.600000	-4.903624	40.931436	-2.431652	-29.977846	-2.431652	-29.977846	-4.667340	75.404998
5.650000	-4.683522	35.982565	-2.563615	-33.992413	-2.563615	-33.992413	-4.454645	72.431644
5.700000	-4.478776	31.107457	-2.696967	-37.982357	-2.696967	-37.982357	-4.255842	69.437277
5.750000	-4.288840	26.300330	-2.830989	-41.947600	-2.830989	-41.947600	-4.070447	66.428175
5.800000	-4.113329	21.556552	-2.964921	-45.888114	-2.964921	-45.888114	-3.898107	63.409548
5.850000	-3.951867	16.871236	-3.097967	-49.804357	-3.097967	-49.804357	-3.738459	60.386025
5.900000	-3.804097	12.239167	-3.229288	-53.697295	-3.229288	-53.697295	-3.591145	57.361680
5.950000	-3.669792	7.655075	-3.357967	-57.568264	-3.357967	-57.568264	-3.455906	54.340112
6.000000	-3.548869	3.113284	-3.482972	-61.419112	-3.482972	-61.419112	-3.332587	51.324581
6.050000	-3.440818	-1.394198	-3.603479	-65.253150	-3.603479	-65.253150	-3.220652	48.317565
6.100000	-3.345488	-5.874847	-3.718512	-69.073790	-3.718512	-69.073790	-3.119856	45.321201
6.150000	-3.262818	-10.336978	-3.827060	-72.885166	-3.827060	-72.885166	-3.030012	42.337243
6.200000	-3.192849	-14.789892	-3.928073	-76.692208	-3.928073	-76.692208	-2.950999	39.367114
6.250000	-3.135754	-19.244067	-4.020465	-80.500730	-4.020465	-80.500730	-2.882778	36.411945
6.300000	-3.092327	-23.712292	-4.102709	-84.318099	-4.102709	-84.318099	-2.825772	33.473215
6.350000	-3.062671	-28.208251	-4.173971	-88.152323	-4.173971	-88.152323	-2.779810	30.551143
6.400000	-3.047559	-32.747824	-4.233035	-92.012832	-4.233035	-92.012832	-2.745208	27.646415
6.450000	-3.048061	-37.349492	-4.278650	-95.910639	-4.278650	-95.910639	-2.722453	24.759791
6.500000	-3.065621	-42.034975	-4.309529	-99.858634	-4.309529	-99.858634	-2.712231	21.892283
6.550000	-3.102161	-46.830045	-4.324366	-103.871945	-4.324366	-103.871945	-2.715471	19.045401
6.600000	-3.160845	-51.770194	-4.321375	-107.971069	-4.321375	-107.971069	-2.733822	16.222206
6.650000	-3.244815	-56.892463	-4.299536	-112.176686	-4.299536	-112.176686	-2.768704	13.426340
6.700000	-3.357650	-62.236350	-4.258306	-116.509902	-4.258306	-116.509902	-2.821606	10.662910
6.750000	-3.506899	-67.873910	-4.195672	-121.008549	-4.195672	-121.008549	-2.896129	7.943691
6.800000	-3.699908	-73.875232	-4.111499	-125.706022	-4.111499	-125.706022	-2.995098	5.283509
6.850000	-3.947459	-80.338294	-4.005761	-130.646009	-4.005761	-130.646009	-3.122464	2.706734
6.900000	-4.264092	-87.392799	-3.879379	-135.880429	-3.879379	-135.880429	-3.282794	0.251122
6.950000	-4.668567	-95.205110	-3.734901	-141.466170	-3.734901	-141.466170	-3.480582	-2.027935
7.000000	-5.189241	-104.043895	-3.576506	-147.482913	-3.576506	-147.482913	-3.720856	-4.037235
7.050000	-5.859706	-114.261995	-3.412325	-154.004062	-3.412325	-154.004062	-4.004446	-5.649231
7.100000	-6.722038	-126.424076	-3.254775	-161.112205	-3.254775	-161.112205	-4.325214	-6.680686
7.150000	-7.813731	-141.451468	-3.122391	-168.882930	-3.122391	-168.882930	-4.661057	-6.901776
7.200000	-9.117064	-160.819467	-3.040317	-177.360178	-3.040317	-177.360178	-4.963106	-6.104729
7.250000	-10.406771	173.445080	-3.039951	173.462215	-3.039951	173.462215	-5.150498	-4.247566
7.300000	-11.018994	140.784564	-3.155889	163.671879	-3.155889	163.671879	-5.129543	-1.672403
7.350000	-10.294815	106.479378	-3.419849	153.456768	-3.419849	153.456768	-4.848521	0.832780
7.400000	-8.668049	77.470964	-3.849630	143.096291	-3.849630	143.096291	-4.350448	2.398363
7.450000	-6.944831	54.865489	-4.445403	132.901390	-4.445403	132.901390	-3.744656	2.564503
7.500000	-5.485554	36.960983	-5.188831	123.150552	-5.188831	123.150552	-3.140209	1.390476
7.550000	-4.346768	22.299265	-6.048851	114.042711	-6.048851	114.042711	-2.604601	-0.780213
7.600000	-3.485354	9.965354	-6.989429	105.671581	-6.989429	105.671581	-2.162405	-3.557298
7.650000	-2.839370	-0.615619	-7.978344	98.039710	-7.978344	98.039710	-1.811106	-6.637754
7.700000	-2.355473	-9.815385	-8.989323	91.103468	-8.989323	91.103468	-1.537990	-9.827619
7.750000	-1.991399	-17.911022	-10.002808	84.789777	-10.002808	84.789777	-1.327745	-13.012280
7.800000	-1.715576	-25.114633	-11.005089	79.016889	-11.005089	79.016889	-1.166410	-16.131306
7.850000	-1.505313	-31.587381	-11.985900	73.708393	-11.985900	73.708393	-1.042761	-19.156326
7.900000	-1.343489	-37.465783	-12.940111	68.788789	-12.940111	68.788789	-0.947629	-22.079079
7.950000	-1.218456	-42.848144	-13.862055	64.199161	-13.862055	64.199161	-0.874520	-24.899320
8.000000	-1.120341	-47.835919	-14.755003	59.873702	-14.755003	59.873702	-0.817682	-27.627324
8.050000	-1.043553	-52.484973	-15.614355	55.774621	-15.614355	55.774621	-0.773839	-30.268707
8.100000	-0.983377	-56.850290	-16.439225	51.863384	-16.439225	51.863384	-0.740171	-32.832170
8.150000	-0.936414	-60.974778	-17.227865	48.108817	-17.227865	48.108817	-0.714630	-35.325604
8.200000	-0.899974	-64.896762	-17.979966	44.482564	-17.979966	44.482564	-0.695584	-37.757313
8.250000	-0.871962	-68.649609	-18.696187	40.959750	-18.696187	40.959750	-0.681762	-40.135433
8.300000	-0.850887	-72.259323	-19.375920	37.520559	-19.375920	37.520559	-0.672264	-42.466712
8.350000	-0.835748	-75.745208	-20.016077	34.149478	-20.016077	34.149478	-0.666493	-44.756315
8.400000	-0.825179	-79.136458	-20.624162	30.826884	-20.624162	30.826884	-0.663619	-47.013368
8.450000	-0.819195	-82.435792	-21.186884	27.546968	-21.186884	27.546968	-0.663691	-49.238225
8.500000	-0.816728	-85.668833	-21.713434	24.294087	-21.713434	24.294087	-0.666059	-51.439583
8.550000	-0.817660	-88.843888	-22.197139	21.060879	-22.197139	21.060879	-0.670695	-53.620332
8.600000	-0.821633	-91.974134	-22.637904	17.839014	-22.637904	17.839014	-0.677407	-55.785342
8.650000	-0.828319	-95.072279	-23.037032	14.621329	-23.037032	14.621329	-0.686029	-57.939543
8.700000	-0.837837	-98.146300	-23.386975	11.401957	-23.386975	11.401957	-0.696708	-60.086547
8.750000	-0.849697	-101.208830	-23.695657	8.176434	-23.695657	8.176434	-0.709150	-62.231465
8.800000	-0.864406	-104.268456	-23.949317	4.937977	-23.949317	4.937977	-0.723821	-64.379205
8.850000	-0.881441	-107.334774	-24.158606	1.684969	-24.158606	1.684969	-0.740392	-66.533852
8.900000	-0.901285	-110.419508	-24.313131	-1.589885	-24.313131	-1.589885	-0.759357	-68.702438
8.950000	-0.923804	-113.530962	-24.416652	-4.889277	-24.416652	-4.889277	-0.780707	-70.889586
9.000000	-0.949065	-116.677775	-24.469430	-8.217266	-24.469430	-8.217266	-0.804616	-73.100700
9.050000	-0.977590	-119.875593	-24.464466	-11.583768	-24.464466	-11.583768	-0.831724	-75.346409
9.100000	-1.009561	-123.135210	-24.402283	-14.995804	-24.402283	-14.995804	-0.862395	-77.634700
9.150000	-1.045058	-126.464158	-24.285789	-18.459303	-24.285789	-18.459303	-0.896913	-79.971953
9.200000	-1.084607	-129.878281	-24.111602	-21.987896	-24.111602	-21.987896	-0.936105	-82.371276
9.250000	-1.129168	-133.403542	-23.871738	-25.605722	-23.871738	-25.605722	-0.981475	-84.855018
9.300000	-1.178730	-137.042531	-23.573730	-29.320573	-23.573730	-29.320573	-1.033451	-87.429346
9.350000	-1.233949	-140.811805	-23.216560	-33.153635	-23.216560	-33.153635	-1.093421	-90.112586
9.400000	-1.296682	-144.756261	-22.785975	-37.158339	-22.785975	-37.158339	-1.164983	-92.951838
9.450000	-1.367291	-148.881839	-22.289512	-41.355403	-22.289512	-41.355403	-1.249881	-95.964308
9.500000	-1.446804	-153.208209	-21.728156	-45.782660	-21.728156	-45.782660	-1.351353	-99.183416
9.550000	-1.537393	-157.779100	-21.093019	-50.514141	-21.093019	-50.514141	-1.475840	-102.676587
9.600000	-1.641300	-162.633928	-20.379777	-55.631563	-20.379777	-55.631563	-1.631720	-106.521632
9.650000	-1.761255	-167.815160	-19.585010	-61.238103	-19.585010	-61.238103	-1.831448	-110.823159
9.700000	-1.899912	-173.354062	-18.713237	-67.436246	-18.713237	-67.436246	-2.091092	-115.696072
9.750000	-2.062264	-179.315950	-17.757910	-74.413627	-17.757910	-74.413627	-2.441707	-121.359813
9.800000	-2.253597	174.252536	-16.725621	-82.368695	-16.725621	-82.368695	-2.929334	-128.089366
9.850000	-2.481199	167.302864	-15.627810	-91.565343	-15.627810	-91.565343	-3.633714	-136.321745
9.900000	-2.753150	159.821788	-14.493292	-102.278751	-14.493292	-102.278751	-4.687257	-146.711567
9.950000	-3.078820	151.839601	-13.364276	-114.878332	-13.364276	-114.878332	-6.354997	-160.643398
10.000000	-3.451695	143.563316	-12.317577	-129.609179	-12.317577	-129.609179	-9.122782	178.766023
