! freq	dB(S11)	phase(S11)	dB(S12)	phase(S12)	
!     	dB(S21)	phase(S21)	dB(S22)	phase(S22)	
!S-par simulation data
#  GHz  S  DB  R 50
0.000000	-0.000000	0.000000	-346.876257	0.000000	-346.876257	0.000000	-0.000000	0.000000
0.050000	-0.008845	-1.358486	-108.687179	84.640755	-108.687179	84.640755	-0.000979	-0.836620
0.100000	-0.013172	-2.779957	-102.340516	84.594484	-102.340516	84.594484	-0.003029	-1.681795
0.150000	-0.014711	-4.197820	-98.773352	84.390611	-98.773352	84.390611	-0.004989	-2.534375
0.200000	-0.015629	-5.611356	-96.324208	83.895960	-96.324208	83.895960	-0.006540	-3.390176
0.250000	-0.016402	-7.021947	-94.492078	83.246401	-94.492078	83.246401	-0.007736	-4.246820
0.300000	-0.017182	-8.430594	-93.050354	82.542591	-93.050354	82.542591	-0.008736	-5.103207
0.350000	-0.018014	-9.837479	-91.888805	81.829757	-91.888805	81.829757	-0.009619	-5.958977
0.400000	-0.018920	-11.242706	-90.941043	81.144867	-90.941043	81.144867	-0.010444	-6.813976
0.450000	-0.019905	-12.646277	-90.165398	80.517995	-90.165398	80.517995	-0.011250	-7.668149
0.500000	-0.020972	-14.048139	-89.534449	79.977484	-89.534449	79.977484	-0.012057	-8.521473
0.550000	-0.022118	-15.448211	-89.029639	79.553236	-89.029639	79.553236	-0.012880	-9.373934
0.600000	-0.023338	-16.846399	-88.638284	79.279357	-88.638284	79.279357	-0.013724	-10.225521
0.650000	-0.024629	-18.242599	-88.351761	79.196823	-88.351761	79.196823	-0.014593	-11.076219
0.700000	-0.025986	-19.636708	-88.164322	79.356634	-88.164322	79.356634	-0.015489	-11.926015
0.750000	-0.027402	-21.028622	-88.072196	79.823852	-88.072196	79.823852	-0.016411	-12.774892
0.800000	-0.028872	-22.418238	-88.072708	80.682934	-88.072708	80.682934	-0.017357	-13.622835
0.850000	-0.030390	-23.805457	-88.163179	82.044708	-88.163179	82.044708	-0.018327	-14.469828
0.900000	-0.031951	-25.190183	-88.339187	84.054948	-88.339187	84.054948	-0.019317	-15.315857
0.950000	-0.033550	-26.572324	-88.591617	86.903229	-88.591617	86.903229	-0.020327	-16.160906
1.000000	-0.035180	-27.951792	-88.901616	90.827162	-88.901616	90.827162	-0.021353	-17.004962
1.050000	-0.036837	-29.328504	-89.232587	96.099173	-89.232587	96.099173	-0.022393	-17.848012
1.100000	-0.038517	-30.702378	-89.519870	102.969721	-89.519870	102.969721	-0.023446	-18.690044
1.150000	-0.040215	-32.073340	-89.664100	111.532501	-89.664100	111.532501	-0.024509	-19.531046
1.200000	-0.041927	-33.441317	-89.543950	121.514061	-89.543950	121.514061	-0.025580	-20.371006
1.250000	-0.043649	-34.806241	-89.063586	132.131568	-89.063586	132.131568	-0.026657	-21.209913
1.300000	-0.045379	-36.167907	-88.194634	142.230814	-88.194634	142.230814	-0.027741	-22.047710
1.350000	-0.047113	-37.526388	-87.043051	150.947106	-87.043051	150.947106	-0.028827	-22.884432
1.400000	-0.048848	-38.881625	-85.730411	157.962558	-85.730411	157.962558	-0.029917	-23.720068
1.450000	-0.050583	-40.233563	-84.357808	163.350343	-84.357808	163.350343	-0.031007	-24.554607
1.500000	-0.052314	-41.582151	-82.990316	167.355964	-82.990316	167.355964	-0.032099	-25.388040
1.550000	-0.054042	-42.927339	-81.663221	170.253677	-81.663221	170.253677	-0.033191	-26.220354
1.600000	-0.055764	-44.269079	-80.392703	172.284861	-80.392703	172.284861	-0.034282	-27.051538
1.650000	-0.057479	-45.607329	-79.184176	173.642664	-79.184176	173.642664	-0.035373	-27.881582
1.700000	-0.059186	-46.942046	-78.037464	174.475506	-78.037464	174.475506	-0.036463	-28.710473
1.750000	-0.060885	-48.273192	-76.949733	174.895789	-76.949733	174.895789	-0.037551	-29.538200
1.800000	-0.062576	-49.600730	-75.917047	174.988523	-75.917047	174.988523	-0.038638	-30.364751
1.850000	-0.064258	-50.924625	-74.935170	174.818344	-74.935170	174.818344	-0.039724	-31.190112
1.900000	-0.065931	-52.244847	-73.999959	174.434832	-73.999959	174.434832	-0.040809	-32.014273
1.950000	-0.067595	-53.561364	-73.107540	173.876410	-73.107540	173.876410	-0.041892	-32.837219
2.000000	-0.069251	-54.874151	-72.254376	173.173178	-72.254376	173.173178	-0.042975	-33.658939
2.050000	-0.070900	-56.183181	-71.437276	172.348970	-71.437276	172.348970	-0.044057	-34.479418
2.100000	-0.072541	-57.488432	-70.653379	171.422857	-70.653379	171.422857	-0.045139	-35.298645
2.150000	-0.074175	-58.789885	-69.900129	170.410250	-69.900129	170.410250	-0.046221	-36.116605
2.200000	-0.075803	-60.087519	-69.175239	169.323720	-69.175239	169.323720	-0.047303	-36.933286
2.250000	-0.077426	-61.381320	-68.476664	168.173612	-68.476664	168.173612	-0.048386	-37.748673
2.300000	-0.079044	-62.671274	-67.802570	166.968507	-67.802570	166.968507	-0.049470	-38.562755
2.350000	-0.080659	-63.957370	-67.151311	165.715581	-67.151311	165.715581	-0.050556	-39.375517
2.400000	-0.082272	-65.239597	-66.521404	164.420875	-66.521404	164.420875	-0.051645	-40.186947
2.450000	-0.083883	-66.517950	-65.911507	163.089513	-65.911507	163.089513	-0.052735	-40.997031
2.500000	-0.085493	-67.792424	-65.320408	161.725862	-65.320408	161.725862	-0.053829	-41.805756
2.550000	-0.087105	-69.062846	-64.746133	160.332582	-64.746133	160.332582	-0.054927	-42.613051
2.600000	-0.088718	-70.329387	-64.188650	158.914247	-64.188650	158.914247	-0.056029	-43.418960
2.650000	-0.090333	-71.592049	-63.647031	157.473611	-63.647031	157.473611	-0.057135	-44.223472
2.700000	-0.091953	-72.850835	-63.120427	156.013080	-63.120427	156.013080	-0.058247	-45.026575
2.750000	-0.093578	-74.105753	-62.608057	154.534761	-62.608057	154.534761	-0.059364	-45.828257
2.800000	-0.095209	-75.356812	-62.109206	153.040511	-62.109206	153.040511	-0.060487	-46.628506
2.850000	-0.096847	-76.604023	-61.623213	151.531968	-61.623213	151.531968	-0.061617	-47.427311
2.900000	-0.098493	-77.847398	-61.149467	150.010589	-61.149467	150.010589	-0.062754	-48.224662
2.950000	-0.100149	-79.086955	-60.687402	148.477669	-60.687402	148.477669	-0.063899	-49.020548
3.000000	-0.101815	-80.322709	-60.236495	146.934363	-60.236495	146.934363	-0.065051	-49.814958
3.050000	-0.103492	-81.554682	-59.796257	145.381708	-59.796257	145.381708	-0.066212	-50.607883
3.100000	-0.105182	-82.782893	-59.366234	143.820636	-59.366234	143.820636	-0.067382	-51.399313
3.150000	-0.106885	-84.007368	-58.946003	142.251986	-58.946003	142.251986	-0.068562	-52.189239
3.200000	-0.108602	-85.228133	-58.535166	140.676516	-58.535166	140.676516	-0.069751	-52.977653
3.250000	-0.110335	-86.445214	-58.133354	139.094914	-58.133354	139.094914	-0.070951	-53.764546
3.300000	-0.112084	-87.658642	-57.740216	137.507803	-57.740216	137.507803	-0.072162	-54.549910
3.350000	-0.113851	-88.868448	-57.355428	135.915753	-57.355428	135.915753	-0.073384	-55.333738
3.400000	-0.115635	-90.074666	-56.978680	134.319283	-56.978680	134.319283	-0.074618	-56.116024
3.450000	-0.117438	-91.277331	-56.609683	132.718867	-56.609683	132.718867	-0.075864	-56.896759
3.500000	-0.119261	-92.476482	-56.248163	131.114939	-56.248163	131.114939	-0.077123	-57.675939
3.550000	-0.121105	-93.672156	-55.893862	129.507901	-55.893862	129.507901	-0.078394	-58.453558
3.600000	-0.122970	-94.864395	-55.546537	127.898119	-55.546537	127.898119	-0.079680	-59.229610
3.650000	-0.124857	-96.053241	-55.205954	126.285932	-55.205954	126.285932	-0.080979	-60.004090
3.700000	-0.126767	-97.238739	-54.871896	124.671654	-54.871896	124.671654	-0.082293	-60.776995
3.750000	-0.128701	-98.420934	-54.544153	123.055574	-54.544153	123.055574	-0.083621	-61.548321
3.800000	-0.130660	-99.599736	-54.222278	121.437906	-54.222278	121.437906	-0.084965	-62.317995
3.850000	-0.132644	-100.775337	-53.906355	119.818975	-53.906355	119.818975	-0.086325	-63.086082
3.900000	-0.134654	-101.947788	-53.596202	118.199008	-53.596202	118.199008	-0.087702	-63.852581
3.950000	-0.136690	-103.117142	-53.291647	116.578221	-53.291647	116.578221	-0.089094	-64.617490
4.000000	-0.138753	-104.283452	-52.992526	114.956810	-52.992526	114.956810	-0.090504	-65.380807
4.050000	-0.140844	-105.446775	-52.698682	113.334962	-52.698682	113.334962	-0.091931	-66.142532
4.100000	-0.142962	-106.607166	-52.409966	111.712850	-52.409966	111.712850	-0.093376	-66.902662
4.150000	-0.145110	-107.764685	-52.126235	110.090636	-52.126235	110.090636	-0.094838	-67.661200
4.200000	-0.147286	-108.919391	-51.847350	108.468469	-51.847350	108.468469	-0.096320	-68.418144
4.250000	-0.149493	-110.071345	-51.573181	106.846493	-51.573181	106.846493	-0.097821	-69.173496
4.300000	-0.151729	-111.220609	-51.303602	105.224840	-51.303602	105.224840	-0.099341	-69.927256
4.350000	-0.153996	-112.367247	-51.038493	103.603634	-51.038493	103.603634	-0.100880	-70.679428
4.400000	-0.156295	-113.511323	-50.777737	101.982991	-50.777737	101.982991	-0.102440	-71.430012
4.450000	-0.158624	-114.652903	-50.521223	100.363021	-50.521223	100.363021	-0.104021	-72.179011
4.500000	-0.160986	-115.792055	-50.268844	98.743825	-50.268844	98.743825	-0.105623	-72.926429
4.550000	-0.163380	-116.928846	-50.020498	97.125501	-50.020498	97.125501	-0.107246	-73.672269
4.600000	-0.165807	-118.063347	-49.776085	95.508138	-49.776085	95.508138	-0.108891	-74.416534
4.650000	-0.168268	-119.195627	-49.535510	93.891820	-49.535510	93.891820	-0.110558	-75.159230
4.700000	-0.170761	-120.325757	-49.298682	92.276628	-49.298682	92.276628	-0.112248	-75.900360
4.750000	-0.173289	-121.453812	-49.065511	90.662635	-49.065511	90.662635	-0.113961	-76.639931
4.800000	-0.175850	-122.579864	-48.835914	89.049911	-48.835914	89.049911	-0.115698	-77.377947
4.850000	-0.178446	-123.703987	-48.609807	87.438522	-48.609807	87.438522	-0.117458	-78.114414
4.900000	-0.181077	-124.826257	-48.387111	85.828530	-48.387111	85.828530	-0.119243	-78.849340
4.950000	-0.183743	-125.946752	-48.167750	84.219991	-48.167750	84.219991	-0.121053	-79.582730
5.000000	-0.186445	-127.065547	-47.951650	82.612961	-47.951650	82.612961	-0.122888	-80.314593
5.050000	-0.189184	-128.182655	-47.738652	81.007560	-47.738652	81.007560	-0.124749	-81.044869
5.100000	-0.191958	-129.298229	-47.528782	79.403769	-47.528782	79.403769	-0.126637	-81.773634
5.150000	-0.194769	-130.412349	-47.321972	77.801633	-47.321972	77.801633	-0.128551	-82.500895
5.200000	-0.197616	-131.525096	-47.118159	76.201193	-47.118159	76.201193	-0.130491	-83.226662
5.250000	-0.200500	-132.636552	-46.917279	74.602489	-46.917279	74.602489	-0.132460	-83.950944
5.300000	-0.203421	-133.746800	-46.719272	73.005557	-46.719272	73.005557	-0.134455	-84.673751
5.350000	-0.206378	-134.855923	-46.524080	71.410432	-46.524080	71.410432	-0.136479	-85.395091
5.400000	-0.209373	-135.964005	-46.331646	69.817147	-46.331646	69.817147	-0.138532	-86.114977
5.450000	-0.212406	-137.071132	-46.141916	68.225732	-46.141916	68.225732	-0.140613	-86.833418
5.500000	-0.215476	-138.177388	-45.954836	66.636218	-45.954836	66.636218	-0.142724	-87.550425
5.550000	-0.218585	-139.282862	-45.770356	65.048633	-45.770356	65.048633	-0.144865	-88.266009
5.600000	-0.221731	-140.387639	-45.588427	63.463002	-45.588427	63.463002	-0.147036	-88.980183
5.650000	-0.224915	-141.491808	-45.408999	61.879353	-45.408999	61.879353	-0.149237	-89.692958
5.700000	-0.228138	-142.595458	-45.232028	60.297710	-45.232028	60.297710	-0.151470	-90.404348
5.750000	-0.231399	-143.698677	-45.057468	58.718097	-45.057468	58.718097	-0.153734	-91.114363
5.800000	-0.234700	-144.801557	-44.885276	57.140539	-44.885276	57.140539	-0.156030	-91.823018
5.850000	-0.238039	-145.904187	-44.715411	55.565059	-44.715411	55.565059	-0.158359	-92.530326
5.900000	-0.241417	-147.006658	-44.547832	53.991680	-44.547832	53.991680	-0.160720	-93.236301
5.950000	-0.244834	-148.109064	-44.382500	52.420425	-44.382500	52.420425	-0.163115	-93.940956
6.000000	-0.248290	-149.211496	-44.219376	50.851319	-44.219376	50.851319	-0.165543	-94.644306
6.050000	-0.251786	-150.314048	-44.058426	49.284385	-44.058426	49.284385	-0.168005	-95.346366
6.100000	-0.255322	-151.416814	-43.899612	47.719647	-43.899612	47.719647	-0.170502	-96.047150
6.150000	-0.258897	-152.519888	-43.742901	46.157132	-43.742901	46.157132	-0.173034	-96.746673
6.200000	-0.262512	-153.623365	-43.588259	44.596864	-43.588259	44.596864	-0.175601	-97.444952
6.250000	-0.266168	-154.727342	-43.435655	43.038872	-43.435655	43.038872	-0.178204	-98.142001
6.300000	-0.269865	-155.831944	-43.285031	41.483285	-43.285031	41.483285	-0.180845	-98.837786
6.350000	-0.273602	-156.937247	-43.136387	39.930035	-43.136387	39.930035	-0.183523	-99.532376
6.400000	-0.277380	-158.043348	-42.989694	38.379153	-42.989694	38.379153	-0.186237	-100.225787
6.450000	-0.281198	-159.150347	-42.844923	36.830673	-42.844923	36.830673	-0.188989	-100.918037
6.500000	-0.285058	-160.258340	-42.702046	35.284629	-42.702046	35.284629	-0.191780	-101.609143
6.550000	-0.288958	-161.367427	-42.561037	33.741060	-42.561037	33.741060	-0.194608	-102.299123
6.600000	-0.292899	-162.477708	-42.421871	32.200005	-42.421871	32.200005	-0.197476	-102.987993
6.650000	-0.296881	-163.589284	-42.284521	30.661506	-42.284521	30.661506	-0.200382	-103.675773
6.700000	-0.300904	-164.702254	-42.148964	29.125607	-42.148964	29.125607	-0.203329	-104.362481
6.750000	-0.304970	-165.816719	-42.015176	27.592356	-42.015176	27.592356	-0.206315	-105.048135
6.800000	-0.309076	-166.932783	-41.883133	26.061802	-41.883133	26.061802	-0.209342	-105.732754
6.850000	-0.313225	-168.050545	-41.752814	24.533998	-41.752814	24.533998	-0.212410	-106.416357
6.900000	-0.317415	-169.170110	-41.624195	23.009000	-41.624195	23.009000	-0.215520	-107.098964
6.950000	-0.321648	-170.291579	-41.497255	21.486867	-41.497255	21.486867	-0.218671	-107.780595
7.000000	-0.325923	-171.415057	-41.371974	19.967661	-41.371974	19.967661	-0.221864	-108.461268
7.050000	-0.330241	-172.540646	-41.248329	18.451446	-41.248329	18.451446	-0.225100	-109.141005
7.100000	-0.334601	-173.668452	-41.126302	16.938292	-41.126302	16.938292	-0.228379	-109.819825
7.150000	-0.339004	-174.798578	-41.005872	15.428271	-41.005872	15.428271	-0.231701	-110.497750
7.200000	-0.343451	-175.931129	-40.887018	13.921458	-40.887018	13.921458	-0.235067	-111.174800
7.250000	-0.347941	-177.066211	-40.769722	12.417932	-40.769722	12.417932	-0.238477	-111.850996
7.300000	-0.352475	-178.203929	-40.653964	10.917777	-40.653964	10.917777	-0.241932	-112.526359
7.350000	-0.357052	-179.344388	-40.539725	9.421078	-40.539725	9.421078	-0.245432	-113.200912
7.400000	-0.361674	179.512306	-40.426984	7.927926	-40.426984	7.927926	-0.248978	-113.874676
7.450000	-0.366340	178.366047	-40.315724	6.438414	-40.315724	6.438414	-0.252569	-114.547673
7.500000	-0.371051	177.216728	-40.205925	4.952640	-40.205925	4.952640	-0.256206	-115.219925
7.550000	-0.375809	176.064100	-40.097571	3.470877	-40.097571	3.470877	-0.259891	-115.891425
7.600000	-0.380612	174.908190	-39.990641	1.993067	-39.990641	1.993067	-0.263624	-116.562228
7.650000	-0.385461	173.748892	-39.885115	0.519319	-39.885115	0.519319	-0.267404	-117.232357
7.700000	-0.390357	172.586098	-39.780973	-0.950254	-39.780973	-0.950254	-0.271231	-117.901834
7.750000	-0.395298	171.419702	-39.678195	-2.415536	-39.678195	-2.415536	-0.275107	-118.570685
7.800000	-0.400286	170.249599	-39.576761	-3.876408	-39.576761	-3.876408	-0.279031	-119.238932
7.850000	-0.405322	169.075680	-39.476650	-5.332747	-39.476650	-5.332747	-0.283003	-119.906599
7.900000	-0.410405	167.897841	-39.377842	-6.784427	-39.377842	-6.784427	-0.287025	-120.573712
7.950000	-0.415536	166.715975	-39.280314	-8.231318	-39.280314	-8.231318	-0.291096	-121.240293
8.000000	-0.420716	165.529976	-39.184046	-9.673288	-39.184046	-9.673288	-0.295216	-121.906368
8.050000	-0.425945	164.339740	-39.089014	-11.110201	-39.089014	-11.110201	-0.299387	-122.571962
8.100000	-0.431224	163.145161	-38.995197	-12.541919	-38.995197	-12.541919	-0.303608	-123.237100
8.150000	-0.436552	161.946135	-38.902571	-13.968300	-38.902571	-13.968300	-0.307879	-123.901808
8.200000	-0.441931	160.742558	-38.811112	-15.389200	-38.811112	-15.389200	-0.312202	-124.566111
8.250000	-0.447361	159.534326	-38.720797	-16.804472	-38.720797	-16.804472	-0.316575	-125.230034
8.300000	-0.452843	158.321338	-38.631600	-18.213967	-38.631600	-18.213967	-0.321000	-125.893605
8.350000	-0.458378	157.103490	-38.543495	-19.617533	-38.543495	-19.617533	-0.325477	-126.556850
8.400000	-0.463965	155.880683	-38.456457	-21.015017	-38.456457	-21.015017	-0.330006	-127.219795
8.450000	-0.469606	154.652815	-38.370458	-22.406262	-38.370458	-22.406262	-0.334587	-127.882466
8.500000	-0.475301	153.419789	-38.285472	-23.791111	-38.285472	-23.791111	-0.339220	-128.544893
8.550000	-0.481052	152.181506	-38.201469	-25.169404	-38.201469	-25.169404	-0.343906	-129.207100
8.600000	-0.486859	150.937869	-38.118421	-26.540979	-38.118421	-26.540979	-0.348646	-129.869118
8.650000	-0.492722	149.688783	-38.036298	-27.905674	-38.036298	-27.905674	-0.353438	-130.530972
8.700000	-0.498642	148.434155	-37.955070	-29.263323	-37.955070	-29.263323	-0.358284	-131.192692
8.750000	-0.504621	147.173891	-37.874705	-30.613761	-37.874705	-30.613761	-0.363183	-131.854306
8.800000	-0.510662	145.907649	-37.795174	-31.956492	-37.795174	-31.956492	-0.368138	-132.515840
8.850000	-0.516763	144.635585	-37.716441	-33.291660	-37.716441	-33.291660	-0.373147	-133.177328
8.900000	-0.522925	143.357612	-37.638470	-34.619096	-37.638470	-34.619096	-0.378210	-133.838800
8.950000	-0.529149	142.073645	-37.561227	-35.938629	-37.561227	-35.938629	-0.383327	-134.500285
9.000000	-0.535436	140.783602	-37.484677	-37.250087	-37.484677	-37.250087	-0.388498	-135.161813
9.050000	-0.541788	139.487404	-37.408783	-38.553298	-37.408783	-38.553298	-0.393724	-135.823413
9.100000	-0.548204	138.184973	-37.333509	-39.848089	-37.333509	-39.848089	-0.399005	-136.485117
9.150000	-0.554687	136.876235	-37.258816	-41.134283	-37.258816	-41.134283	-0.404339	-137.146955
9.200000	-0.561238	135.561116	-37.184666	-42.411707	-37.184666	-42.411707	-0.409729	-137.808958
9.250000	-0.567857	134.239550	-37.111019	-43.680184	-37.111019	-43.680184	-0.415173	-138.471156
9.300000	-0.574546	132.911469	-37.037835	-44.939537	-37.037835	-44.939537	-0.420672	-139.133583
9.350000	-0.581306	131.576811	-36.965073	-46.189587	-36.965073	-46.189587	-0.426225	-139.796269
9.400000	-0.588139	130.235518	-36.892691	-47.430155	-36.892691	-47.430155	-0.431833	-140.459247
9.450000	-0.595045	128.887534	-36.820645	-48.661062	-36.820645	-48.661062	-0.437496	-141.122549
9.500000	-0.602026	127.532808	-36.748893	-49.882124	-36.748893	-49.882124	-0.443214	-141.786208
9.550000	-0.609083	126.171292	-36.677390	-51.093158	-36.677390	-51.093158	-0.448986	-142.450257
9.600000	-0.616218	124.802943	-36.606091	-52.293981	-36.606091	-52.293981	-0.454812	-143.114730
9.650000	-0.623433	123.427723	-36.534950	-53.484404	-36.534950	-53.484404	-0.460693	-143.779660
9.700000	-0.630727	122.045597	-36.463921	-54.664239	-36.463921	-54.664239	-0.466628	-144.445081
9.750000	-0.638104	120.656535	-36.392955	-55.833296	-36.392955	-55.833296	-0.472616	-145.111028
9.800000	-0.645565	119.260513	-36.322005	-56.991379	-36.322005	-56.991379	-0.478659	-145.777536
9.850000	-0.653110	117.857513	-36.251021	-58.138293	-36.251021	-58.138293	-0.484756	-146.444639
9.900000	-0.660742	116.447519	-36.179955	-59.273838	-36.179955	-59.273838	-0.490906	-147.112373
9.950000	-0.668461	115.030525	-36.108754	-60.397810	-36.108754	-60.397810	-0.497109	-147.780774
10.000000	-0.676271	113.606526	-36.037368	-61.510001	-36.037368	-61.510001	-0.503365	-148.449879
