! freq	dB(S11)	phase(S11)	dB(S12)	phase(S12)	
!     	dB(S21)	phase(S21)	dB(S22)	phase(S22)	
!S-par simulation data
#  GHz  S  DB  R 50
0.000000	-0.000000	0.000000	-375.578307	0.000000	-375.578307	0.000000	-0.000000	0.000000
0.050000	-0.000095	-0.804199	-114.009606	83.918247	-114.009606	83.918247	-0.000096	-0.804206
0.100000	-0.000379	-1.608181	-108.596951	80.241129	-108.596951	80.241129	-0.000380	-1.608193
0.150000	-0.000839	-2.411743	-105.681505	78.723375	-105.681505	78.723375	-0.000841	-2.411759
0.200000	-0.001461	-3.214713	-103.689830	78.297889	-103.689830	78.297889	-0.001464	-3.214731
0.250000	-0.002234	-4.016895	-102.183429	78.318856	-102.183429	78.318856	-0.002239	-4.016911
0.300000	-0.003124	-4.818242	-100.981912	78.463956	-100.981912	78.463956	-0.003130	-4.818255
0.350000	-0.004117	-5.618644	-100.010048	78.656369	-100.010048	78.656369	-0.004124	-5.618651
0.400000	-0.005190	-6.418047	-99.223190	78.880813	-99.223190	78.880813	-0.005198	-6.418046
0.450000	-0.006325	-7.216424	-98.594107	79.159308	-98.594107	79.159308	-0.006334	-7.216414
0.500000	-0.007504	-8.013772	-98.105392	79.532347	-98.105392	79.532347	-0.007513	-8.013751
0.550000	-0.008711	-8.810101	-97.745929	80.053506	-97.745929	80.053506	-0.008721	-8.810070
0.600000	-0.009934	-9.605433	-97.508991	80.790446	-97.508991	80.790446	-0.009944	-9.605392
0.650000	-0.011163	-10.399797	-97.391010	81.829833	-97.391010	81.829833	-0.011172	-10.399746
0.700000	-0.012390	-11.193223	-97.390502	83.285809	-97.390502	83.285809	-0.012398	-11.193163
0.750000	-0.013609	-11.985742	-97.506649	85.312654	-97.506649	85.312654	-0.013616	-11.985674
0.800000	-0.014815	-12.777382	-97.736809	88.122383	-97.736809	88.122383	-0.014822	-12.777308
0.850000	-0.016007	-13.568169	-98.071587	92.005961	-98.071587	92.005961	-0.016013	-13.568089
0.900000	-0.017182	-14.358123	-98.485128	97.348468	-98.485128	97.348468	-0.017188	-14.358039
0.950000	-0.018341	-15.147261	-98.917787	104.604643	-98.917787	104.604643	-0.018345	-15.147173
1.000000	-0.019482	-15.935593	-99.252941	114.157911	-99.252941	114.157911	-0.019486	-15.935503
1.050000	-0.020607	-16.723128	-99.309353	125.977455	-99.309353	125.977455	-0.020610	-16.723036
1.100000	-0.021716	-17.509869	-98.898675	139.186612	-98.898675	139.186612	-0.021718	-17.509775
1.150000	-0.022810	-18.295814	-97.954763	152.107593	-97.954763	152.107593	-0.022812	-18.295721
1.200000	-0.023891	-19.080961	-96.595351	163.183327	-96.595351	163.183327	-0.023892	-19.080867
1.250000	-0.024959	-19.865303	-95.019990	171.803687	-95.019990	171.803687	-0.024960	-19.865210
1.300000	-0.026016	-20.648796	-93.377250	178.080653	-93.377250	178.080653	-0.026017	-20.648702
1.350000	-0.027063	-21.431462	-91.773522	-177.398659	-91.773522	-177.398659	-0.027064	-21.431369
1.400000	-0.028102	-22.213290	-90.245706	-174.194395	-90.245706	-174.194395	-0.028102	-22.213197
1.450000	-0.029134	-22.994265	-88.804999	-171.965809	-88.804999	-171.965809	-0.029134	-22.994172
1.500000	-0.030159	-23.774372	-87.450755	-170.464097	-87.450755	-170.464097	-0.030159	-23.774279
1.550000	-0.031179	-24.553595	-86.177489	-169.510757	-86.177489	-169.510757	-0.031179	-24.553501
1.600000	-0.032194	-25.331917	-84.978160	-168.977553	-84.978160	-168.977553	-0.032194	-25.331824
1.650000	-0.033206	-26.109322	-83.845626	-168.771432	-83.845626	-168.771432	-0.033206	-26.109228
1.700000	-0.034215	-26.885458	-82.748254	-168.890264	-82.748254	-168.890264	-0.034215	-26.885363
1.750000	-0.035222	-27.661101	-81.741106	-169.125342	-81.741106	-169.125342	-0.035222	-27.661004
1.800000	-0.036228	-28.435552	-80.767615	-169.551069	-80.767615	-169.551069	-0.036229	-28.435454
1.850000	-0.037233	-29.209154	-79.846718	-170.112974	-79.846718	-170.112974	-0.037234	-29.209054
1.900000	-0.038238	-29.981696	-78.962811	-170.785825	-78.962811	-170.785825	-0.038239	-29.981594
1.950000	-0.039243	-30.753180	-78.114043	-171.569622	-78.114043	-171.569622	-0.039244	-30.753075
2.000000	-0.040249	-31.523749	-77.304197	-172.418914	-77.304197	-172.418914	-0.040250	-31.523642
2.050000	-0.041255	-32.293038	-76.516530	-173.359896	-76.516530	-173.359896	-0.041257	-32.292929
2.100000	-0.042264	-33.061572	-75.768906	-174.339299	-75.768906	-174.339299	-0.042265	-33.061459
2.150000	-0.043274	-33.828592	-75.033678	-175.395542	-75.033678	-175.395542	-0.043276	-33.828477
2.200000	-0.044287	-34.595028	-74.339089	-176.473518	-74.339089	-176.473518	-0.044288	-34.594909
2.250000	-0.045303	-35.359709	-73.649415	-177.616698	-73.649415	-177.616698	-0.045304	-35.359587
2.300000	-0.046320	-36.123988	-73.000608	-178.771064	-73.000608	-178.771064	-0.046322	-36.123863
2.350000	-0.047343	-36.886260	-72.350938	-179.981361	-72.350938	-179.981361	-0.047345	-36.886131
2.400000	-0.048367	-37.648325	-71.742093	178.803940	-71.742093	178.803940	-0.048368	-37.648193
2.450000	-0.049398	-38.408122	-71.127889	177.540821	-71.127889	177.540821	-0.049400	-38.407986
2.500000	-0.050430	-39.167920	-70.554264	176.277701	-70.554264	176.277701	-0.050431	-39.167780
2.550000	-0.051470	-39.925179	-69.971769	174.972339	-69.971769	174.972339	-0.051472	-39.925036
2.600000	-0.052512	-40.682439	-69.425893	173.666976	-69.425893	173.666976	-0.052513	-40.682292
2.650000	-0.053563	-41.437319	-68.875511	172.330235	-68.875511	172.330235	-0.053564	-41.437168
2.700000	-0.054615	-42.191983	-68.354792	170.990642	-68.354792	170.990642	-0.054616	-42.191828
2.750000	-0.055677	-42.944436	-67.833177	169.627677	-67.833177	169.627677	-0.055678	-42.944278
2.800000	-0.056741	-43.696447	-67.335396	168.260038	-67.335396	168.260038	-0.056743	-43.696286
2.850000	-0.057816	-44.446430	-66.839719	166.875012	-66.839719	166.875012	-0.057817	-44.446266
2.900000	-0.058894	-45.195737	-66.362964	165.484190	-66.362964	165.484190	-0.058895	-45.195569
2.950000	-0.059983	-45.943208	-65.890807	164.080500	-65.890807	164.080500	-0.059983	-45.943037
3.000000	-0.061076	-46.689762	-65.433416	162.670375	-65.433416	162.670375	-0.061077	-46.689587
3.050000	-0.062179	-47.434683	-64.982698	161.250824	-64.982698	161.250824	-0.062180	-47.434504
3.100000	-0.063289	-48.178437	-64.543213	159.824539	-64.543213	159.824539	-0.063289	-48.178256
3.150000	-0.064408	-48.920771	-64.112127	158.391460	-64.112127	158.391460	-0.064408	-48.920587
3.200000	-0.065536	-49.661685	-63.689264	156.951589	-63.689264	156.951589	-0.065536	-49.661497
3.250000	-0.066673	-50.401398	-63.276230	155.506946	-63.276230	155.506946	-0.066673	-50.401208
3.300000	-0.067820	-51.139432	-62.868848	154.055622	-62.868848	154.055622	-0.067820	-51.139239
3.350000	-0.068975	-51.876495	-62.472477	152.601076	-62.472477	152.601076	-0.068975	-51.876298
3.400000	-0.070144	-52.611614	-62.079558	151.140086	-62.079558	151.140086	-0.070144	-52.611415
3.450000	-0.071319	-53.345997	-61.698621	149.677056	-61.698621	149.677056	-0.071319	-53.345794
3.500000	-0.072511	-54.078169	-61.319250	148.207910	-61.319250	148.207910	-0.072510	-54.077964
3.550000	-0.073707	-54.809846	-60.952653	146.737618	-60.952653	146.737618	-0.073706	-54.809638
3.600000	-0.074923	-55.539044	-60.586008	145.261601	-60.586008	145.261601	-0.074923	-55.538834
3.650000	-0.076142	-56.267992	-60.232773	143.785103	-60.232773	143.785103	-0.076141	-56.267779
3.700000	-0.077385	-56.994190	-59.878107	142.303319	-59.878107	142.303319	-0.077384	-56.993974
3.750000	-0.078627	-57.720388	-59.537357	140.821535	-59.537357	140.821535	-0.078626	-57.720169
3.800000	-0.079898	-58.443565	-59.193991	139.334937	-59.193991	139.334937	-0.079897	-58.443343
3.850000	-0.081169	-59.166741	-58.863685	137.848339	-58.863685	137.848339	-0.081167	-59.166517
3.900000	-0.082466	-59.887131	-58.532250	136.358088	-58.532250	136.358088	-0.082465	-59.886904
3.950000	-0.083766	-60.607268	-58.211841	134.867506	-58.211841	134.867506	-0.083765	-60.607038
4.000000	-0.085093	-61.324860	-57.891601	133.374206	-57.891601	133.374206	-0.085091	-61.324627
4.050000	-0.086424	-62.041942	-57.580583	131.880362	-57.580583	131.880362	-0.086423	-62.041706
4.100000	-0.087781	-62.756725	-57.270871	130.384550	-57.270871	130.384550	-0.087779	-62.756486
4.150000	-0.089145	-63.470741	-56.968782	128.888082	-56.968782	128.888082	-0.089144	-63.470500
4.200000	-0.090533	-64.182708	-56.668988	127.390238	-56.668988	127.390238	-0.090532	-64.182463
4.250000	-0.091933	-64.893650	-56.375398	125.891705	-56.375398	125.891705	-0.091931	-64.893402
4.300000	-0.093354	-65.602795	-56.084966	124.392259	-56.084966	124.392259	-0.093352	-65.602545
4.350000	-0.094790	-66.310658	-55.799478	122.892159	-55.799478	122.892159	-0.094789	-66.310404
4.400000	-0.096246	-67.016980	-55.517897	121.391496	-55.517897	121.391496	-0.096244	-67.016723
4.450000	-0.097721	-67.721761	-55.240143	119.890270	-55.240143	119.890270	-0.097719	-67.721501
4.500000	-0.099212	-68.425259	-54.966944	118.388739	-54.966944	118.388739	-0.099211	-68.424995
4.550000	-0.100727	-69.126960	-54.696579	116.886780	-54.696579	116.886780	-0.100726	-69.126694
4.600000	-0.102257	-69.827636	-54.431332	115.384693	-54.431332	115.384693	-0.102256	-69.827366
4.650000	-0.103814	-70.526262	-54.168036	113.882352	-54.168036	113.882352	-0.103813	-70.525989
4.700000	-0.105382	-71.224121	-53.910340	112.379995	-53.910340	112.379995	-0.105381	-71.223845
4.750000	-0.106984	-71.919680	-53.653814	110.877587	-53.653814	110.877587	-0.106983	-71.919399
4.800000	-0.108593	-72.614729	-53.403300	109.375216	-53.403300	109.375216	-0.108592	-72.614444
4.850000	-0.110240	-73.307230	-53.153264	107.873025	-53.153264	107.873025	-0.110239	-73.306942
4.900000	-0.111891	-73.999477	-52.909591	106.370873	-52.909591	106.370873	-0.111890	-73.999186
4.950000	-0.113585	-74.688935	-52.665783	104.869153	-52.665783	104.869153	-0.113584	-74.688640
5.000000	-0.115280	-75.378393	-52.428632	103.367433	-52.428632	103.367433	-0.115279	-75.378094
5.050000	-0.117024	-76.064824	-52.190805	101.866414	-52.190805	101.866414	-0.117023	-76.064521
5.100000	-0.118768	-76.751255	-51.959317	100.365396	-51.959317	100.365396	-0.118767	-76.750948
5.150000	-0.120559	-77.434930	-51.727803	98.865211	-51.727803	98.865211	-0.120558	-77.434618
5.200000	-0.122354	-78.118354	-51.501767	97.365102	-51.501767	97.365102	-0.122353	-78.118038
5.250000	-0.124193	-78.799290	-51.276285	95.865909	-51.276285	95.865909	-0.124193	-78.798970
5.300000	-0.126041	-79.479729	-51.055500	94.366899	-51.055500	94.366899	-0.126041	-79.479405
5.350000	-0.127931	-80.157949	-50.835788	92.868843	-50.835788	92.868843	-0.127930	-80.157620
5.400000	-0.129834	-80.835428	-50.620066	91.371103	-50.620066	91.371103	-0.129833	-80.835096
5.450000	-0.131774	-81.510954	-50.405878	89.874316	-50.405878	89.874316	-0.131774	-81.510617
5.500000	-0.133734	-82.185502	-50.195042	88.378005	-50.195042	88.378005	-0.133733	-82.185160
5.550000	-0.135727	-82.858357	-49.986147	86.882610	-49.986147	86.882610	-0.135727	-82.858011
5.600000	-0.137745	-83.530004	-49.780029	85.387870	-49.780029	85.387870	-0.137745	-83.529654
5.650000	-0.139793	-84.200218	-49.576214	83.893982	-49.576214	83.893982	-0.139793	-84.199863
5.700000	-0.141871	-84.868997	-49.374654	82.400946	-49.374654	82.400946	-0.141871	-84.868638
5.750000	-0.143975	-85.536597	-49.175716	80.908670	-49.175716	80.908670	-0.143975	-85.536233
5.800000	-0.146114	-86.202545	-48.978565	79.417460	-48.978565	79.417460	-0.146114	-86.202176
5.850000	-0.148276	-86.867562	-48.784315	77.926895	-48.784315	77.926895	-0.148275	-86.867188
5.900000	-0.150479	-87.530716	-48.591430	76.437622	-48.591430	76.437622	-0.150479	-87.530338
5.950000	-0.152699	-88.193183	-48.401689	74.948860	-48.401689	74.948860	-0.152698	-88.192800
6.000000	-0.154967	-88.853586	-48.212936	73.461631	-48.212936	73.461631	-0.154967	-88.853198
6.050000	-0.157247	-89.513537	-48.027537	71.974758	-48.027537	71.974758	-0.157247	-89.513145
6.100000	-0.159583	-90.171231	-47.842787	70.489669	-47.842787	70.489669	-0.159583	-90.170834
6.150000	-0.161925	-90.828702	-47.661573	69.004767	-47.661573	69.004767	-0.161924	-90.828301
6.200000	-0.164329	-91.483733	-47.480705	67.521912	-47.480705	67.521912	-0.164328	-91.483328
6.250000	-0.166733	-92.138764	-47.303526	66.039056	-47.303526	66.039056	-0.166733	-92.138354
6.300000	-0.169208	-92.791180	-47.126425	64.558521	-47.126425	64.558521	-0.169208	-92.790765
6.350000	-0.171683	-93.443597	-46.952862	63.077986	-46.952862	63.077986	-0.171683	-93.443177
6.400000	-0.174224	-94.093662	-46.779697	61.599653	-46.779697	61.599653	-0.174223	-94.093238
6.450000	-0.176771	-94.743514	-46.609649	60.121521	-46.609649	60.121521	-0.176770	-94.743086
6.500000	-0.179379	-95.391274	-46.440285	58.645456	-46.440285	58.645456	-0.179378	-95.390840
6.550000	-0.182000	-96.038614	-46.273654	57.169805	-46.273654	57.169805	-0.181999	-96.038176
6.600000	-0.184677	-96.684113	-46.107965	55.696071	-46.107965	55.696071	-0.184676	-96.683670
6.650000	-0.187373	-97.328997	-45.944659	54.222977	-45.944659	54.222977	-0.187372	-97.328550
6.700000	-0.190120	-97.972282	-45.782523	52.751635	-45.782523	52.751635	-0.190119	-97.971831
6.750000	-0.192893	-98.614767	-45.622453	51.281170	-45.622453	51.281170	-0.192892	-98.614311
6.800000	-0.195712	-99.255887	-45.463757	49.812279	-45.463757	49.812279	-0.195711	-99.255427
6.850000	-0.198563	-99.896033	-45.306840	48.344513	-45.306840	48.344513	-0.198562	-99.895568
6.900000	-0.201454	-100.535039	-45.151476	46.878131	-45.151476	46.878131	-0.201453	-100.534570
6.950000	-0.204386	-101.172906	-44.997632	45.413132	-44.997632	45.413132	-0.204385	-101.172433
7.000000	-0.207351	-101.809851	-44.845497	43.949313	-44.845497	43.949313	-0.207350	-101.809374
7.050000	-0.210364	-102.445504	-44.694649	42.487147	-44.694649	42.487147	-0.210363	-102.445022
7.100000	-0.213405	-103.080440	-44.545645	41.025947	-44.545645	41.025947	-0.213404	-103.079954
7.150000	-0.216501	-103.713944	-44.397720	39.566678	-44.397720	39.566678	-0.216500	-103.713454
7.200000	-0.219619	-104.346928	-44.251756	38.108150	-44.251756	38.108150	-0.219618	-104.346434
7.250000	-0.222800	-104.978351	-44.106684	36.651841	-44.106684	36.651841	-0.222798	-104.977852
7.300000	-0.225995	-105.609438	-43.963671	35.196035	-43.963671	35.196035	-0.225994	-105.608936
7.350000	-0.229262	-106.238850	-43.821385	33.742747	-43.821385	33.742747	-0.229260	-106.238344
7.400000	-0.232537	-106.868100	-43.681240	32.289715	-43.681240	32.289715	-0.232535	-106.867590
7.450000	-0.235891	-107.495573	-43.541676	30.839507	-43.541676	30.839507	-0.235889	-107.495059
7.500000	-0.239246	-108.123045	-43.404319	29.389299	-43.404319	29.389299	-0.239244	-108.122527
7.550000	-0.242688	-108.748653	-43.267415	27.942229	-43.267415	27.942229	-0.242687	-108.748130
7.600000	-0.246132	-109.374260	-43.132636	26.495159	-43.132636	26.495159	-0.246131	-109.373734
7.650000	-0.249658	-109.998227	-42.998468	25.051017	-42.998468	25.051017	-0.249656	-109.997697
7.700000	-0.253192	-110.622045	-42.866211	23.607141	-42.866211	23.607141	-0.253190	-110.621510
7.750000	-0.256802	-111.244437	-42.734704	22.165973	-42.734704	22.165973	-0.256800	-111.243898
7.800000	-0.260427	-111.866543	-42.604916	20.725346	-42.604916	20.725346	-0.260426	-111.866001
7.850000	-0.264122	-112.487426	-42.476001	19.287195	-42.476001	19.287195	-0.264120	-112.486880
7.900000	-0.267840	-113.107901	-42.348631	17.849869	-42.348631	17.849869	-0.267839	-113.107351
7.950000	-0.271621	-113.727344	-42.222240	16.414778	-42.222240	16.414778	-0.271620	-113.726789
8.000000	-0.275434	-114.346269	-42.097238	14.980804	-42.097238	14.980804	-0.275432	-114.345710
8.050000	-0.279302	-114.964341	-41.973307	13.548813	-41.973307	13.548813	-0.279300	-114.963777
8.100000	-0.283210	-115.581801	-41.850625	12.118239	-41.850625	12.118239	-0.283208	-115.581234
8.150000	-0.287166	-116.198572	-41.729093	10.689387	-41.729093	10.689387	-0.287164	-116.198000
8.200000	-0.291170	-116.814653	-41.608686	9.262259	-41.608686	9.262259	-0.291169	-116.814077
8.250000	-0.295215	-117.430197	-41.489493	7.836584	-41.489493	7.836584	-0.295214	-117.429616
8.300000	-0.299317	-118.044987	-41.371317	6.412944	-41.371317	6.412944	-0.299316	-118.044402
8.350000	-0.303453	-118.659377	-41.254407	4.990480	-41.254407	4.990480	-0.303451	-118.658788
8.400000	-0.307653	-119.272967	-41.138419	3.570368	-41.138419	3.570368	-0.307652	-119.272373
8.450000	-0.311880	-119.886280	-41.023738	2.151148	-41.023738	2.151148	-0.311879	-119.885681
8.500000	-0.316180	-120.498762	-40.909897	0.734602	-40.909897	0.734602	-0.316179	-120.498157
8.550000	-0.320499	-121.111074	-40.797394	-0.681345	-40.797394	-0.681345	-0.320498	-121.110465
8.600000	-0.324900	-121.722542	-40.685660	-2.094292	-40.685660	-2.094292	-0.324899	-121.721928
8.650000	-0.329311	-122.333934	-40.575284	-3.506937	-40.575284	-3.506937	-0.329310	-122.333314
8.700000	-0.333814	-122.944485	-40.465621	-4.916256	-40.465621	-4.916256	-0.333813	-122.943860
8.750000	-0.338319	-123.555037	-40.357325	-6.325574	-40.357325	-6.325574	-0.338318	-123.554406
8.800000	-0.342924	-124.164770	-40.249694	-7.731238	-40.249694	-7.731238	-0.342923	-124.164133
8.850000	-0.347532	-124.774504	-40.143382	-9.136902	-40.143382	-9.136902	-0.347531	-124.773861
8.900000	-0.352232	-125.383581	-40.037800	-10.539195	-40.037800	-10.539195	-0.352231	-125.382932
8.950000	-0.356943	-125.992599	-39.933437	-11.941182	-39.933437	-11.941182	-0.356942	-125.991943
9.000000	-0.361739	-126.601105	-39.829861	-13.340090	-39.829861	-13.340090	-0.361738	-126.600443
9.050000	-0.366555	-127.209510	-39.727416	-14.738382	-39.727416	-14.738382	-0.366553	-127.208841
9.100000	-0.371447	-127.817535	-39.625803	-16.133893	-39.625803	-16.133893	-0.371446	-127.816859
9.150000	-0.376368	-128.425434	-39.525245	-17.528477	-39.525245	-17.528477	-0.376366	-128.424750
9.200000	-0.381357	-129.033067	-39.425554	-18.920583	-39.425554	-18.920583	-0.381355	-129.032376
9.250000	-0.386383	-129.640567	-39.326854	-20.311449	-39.326854	-20.311449	-0.386381	-129.639868
9.300000	-0.391470	-130.247901	-39.229047	-21.700144	-39.229047	-21.700144	-0.391468	-130.247193
9.350000	-0.396602	-130.855115	-39.132177	-23.087288	-39.132177	-23.087288	-0.396600	-130.854399
9.400000	-0.401787	-131.462242	-39.036218	-24.472571	-39.036218	-24.472571	-0.401784	-131.461518
9.450000	-0.407026	-132.069284	-38.941151	-25.855992	-38.941151	-25.855992	-0.407023	-132.068550
9.500000	-0.412309	-132.676301	-38.847004	-27.237864	-38.847004	-27.237864	-0.412306	-132.675558
9.550000	-0.417655	-133.283286	-38.753715	-28.617567	-38.753715	-28.617567	-0.417651	-133.282533
9.600000	-0.423037	-133.890292	-38.661347	-29.996033	-38.661347	-29.996033	-0.423033	-133.889529
9.650000	-0.428490	-134.497340	-38.569812	-31.372025	-38.569812	-31.372025	-0.428485	-134.496566
9.700000	-0.433971	-135.104434	-38.479192	-32.747093	-38.479192	-32.747093	-0.433965	-135.103649
9.750000	-0.439532	-135.711667	-38.389390	-34.119388	-38.389390	-34.119388	-0.439525	-135.710871
9.800000	-0.445112	-136.318952	-38.300488	-35.491070	-38.300488	-35.491070	-0.445105	-136.318144
9.850000	-0.450780	-136.926495	-38.212396	-36.859684	-38.212396	-36.859684	-0.450772	-136.925675
9.900000	-0.456460	-137.534075	-38.125184	-38.227993	-38.125184	-38.227993	-0.456451	-137.533242
9.950000	-0.462236	-138.142057	-38.038784	-39.592947	-38.038784	-39.592947	-0.462226	-138.141211
10.000000	-0.468016	-138.750039	-37.953235	-40.957900	-37.953235	-40.957900	-0.468004	-138.749180
