! freq	dB(S11)	phase(S11)	dB(S12)	phase(S12)	
!     	dB(S21)	phase(S21)	dB(S22)	phase(S22)	
!S-par simulation data
#  GHz  S  DB  R 50
0.000000	-82.709646	0.000000	-0.000636	0.000000	-0.000636	0.000000	-82.709645	0.000000
0.050000	-53.359448	-85.823486	-0.005036	-2.521969	-0.005036	-2.521969	-53.205704	-82.172806
0.100000	-48.223501	-89.499539	-0.012348	-5.023963	-0.012348	-5.023963	-48.040084	-83.126007
0.150000	-45.256903	-96.088885	-0.017846	-7.514573	-0.017846	-7.514573	-44.985316	-86.049968
0.200000	-42.932964	-102.851563	-0.021521	-10.002244	-0.021521	-10.002244	-42.666783	-88.873100
0.250000	-41.001336	-108.855768	-0.024280	-12.489954	-0.024280	-12.489954	-40.781248	-91.164466
0.300000	-39.370995	-114.207666	-0.026595	-14.978288	-0.026595	-14.978288	-39.199625	-92.995585
0.350000	-37.975695	-119.130973	-0.028730	-17.467332	-0.028730	-17.467332	-37.844890	-94.490831
0.400000	-36.763986	-123.808411	-0.030838	-19.957017	-0.030838	-19.957017	-36.665421	-95.763166
0.450000	-35.696274	-128.353030	-0.032994	-22.447231	-0.032994	-22.447231	-35.623940	-96.894583
0.500000	-34.742649	-132.819114	-0.035234	-24.937927	-0.035234	-24.937927	-34.692652	-97.926887
0.550000	-33.880736	-137.237925	-0.037586	-27.429114	-0.037586	-27.429114	-33.850825	-98.884100
0.600000	-33.093779	-141.631898	-0.040055	-29.920784	-0.040055	-29.920784	-33.082653	-99.787757
0.650000	-32.368960	-146.012540	-0.042641	-32.412949	-0.042641	-32.412949	-32.375862	-100.650472
0.700000	-31.696094	-150.386532	-0.045342	-34.905662	-0.045342	-34.905662	-31.720680	-101.479915
0.750000	-31.066816	-154.757512	-0.048161	-37.399021	-0.048161	-37.399021	-31.109113	-102.280100
0.800000	-30.475163	-159.127700	-0.051080	-39.893028	-0.051080	-39.893028	-30.535037	-103.058426
0.850000	-29.914668	-163.497660	-0.054113	-42.387911	-0.054113	-42.387911	-29.992453	-103.814872
0.900000	-29.382110	-167.867193	-0.057234	-44.883610	-0.057234	-44.883610	-29.477679	-104.556307
0.950000	-28.872404	-172.235117	-0.060455	-47.380408	-0.060455	-47.380408	-28.985970	-105.283258
1.000000	-28.383424	-176.600182	-0.063759	-49.878287	-0.063759	-49.878287	-28.514846	-106.000520
1.050000	-27.911739	179.039886	-0.067149	-52.377470	-0.067149	-52.377470	-28.060930	-106.710655
1.100000	-27.455190	174.687297	-0.070622	-54.878070	-0.070622	-54.878070	-27.621920	-107.417186
1.150000	-27.012114	170.344302	-0.074174	-57.380175	-0.074174	-57.380175	-27.195984	-108.123758
1.200000	-26.579779	166.014847	-0.077812	-59.884090	-0.077812	-59.884090	-26.780391	-108.834382
1.250000	-26.158362	161.699638	-0.081526	-62.389690	-0.081526	-62.389690	-26.375036	-109.552027
1.300000	-25.744176	157.405551	-0.085336	-64.897545	-0.085336	-64.897545	-25.976304	-110.283041
1.350000	-25.338598	153.131499	-0.089229	-67.407368	-0.089229	-67.407368	-25.585313	-111.028799
1.400000	-24.939337	148.883099	-0.093221	-69.919562	-0.093221	-69.919562	-25.199753	-111.795332
1.450000	-24.545738	144.663341	-0.097319	-72.434261	-0.097319	-72.434261	-24.818882	-112.586884
1.500000	-24.157342	140.474896	-0.101530	-74.951582	-0.101530	-74.951582	-24.442173	-113.407404
1.550000	-23.773633	136.320667	-0.105865	-77.471670	-0.105865	-77.471670	-24.069069	-114.261017
1.600000	-23.394205	132.203400	-0.110335	-79.994667	-0.110335	-79.994667	-23.699137	-115.151697
1.650000	-23.018742	128.125659	-0.114952	-82.520708	-0.114952	-82.520708	-23.332057	-116.083223
1.700000	-22.646895	124.090226	-0.119732	-85.049957	-0.119732	-85.049957	-22.967481	-117.059595
1.750000	-22.278561	120.099068	-0.124689	-87.582524	-0.124689	-87.582524	-22.605339	-118.083927
1.800000	-21.913701	116.153868	-0.129836	-90.118512	-0.129836	-90.118512	-22.245631	-119.158959
1.850000	-21.552260	112.256268	-0.135189	-92.658031	-0.135189	-92.658031	-21.888358	-120.287333
1.900000	-21.194230	108.407668	-0.140766	-95.201185	-0.140766	-95.201185	-21.533573	-121.471366
1.950000	-20.839630	104.609226	-0.146581	-97.748070	-0.146581	-97.748070	-21.181367	-122.713047
2.000000	-20.488509	100.861869	-0.152651	-100.298778	-0.152651	-100.298778	-20.831864	-124.014043
2.050000	-20.140931	97.166300	-0.158993	-102.853390	-0.158993	-102.853390	-20.485207	-125.375710
2.100000	-19.796929	93.523266	-0.165624	-105.412006	-0.165624	-105.412006	-20.141505	-126.799407
2.150000	-19.456549	89.933321	-0.172563	-107.974718	-0.172563	-107.974718	-19.800882	-128.286229
2.200000	-19.119980	86.396070	-0.179822	-110.541558	-0.179822	-110.541558	-19.463609	-129.836091
2.250000	-18.787104	82.912727	-0.187425	-113.112690	-0.187425	-113.112690	-19.129629	-131.450805
2.300000	-18.458395	79.480798	-0.195372	-115.687997	-0.195372	-115.687997	-18.799504	-133.127684
2.350000	-18.133718	76.101232	-0.203685	-118.267639	-0.203685	-118.267639	-18.473151	-134.868148
2.400000	-17.813444	72.771585	-0.212363	-120.851508	-0.212363	-120.851508	-18.151009	-136.669490
2.450000	-17.496910	69.496271	-0.221457	-123.440092	-0.221457	-123.440092	-17.832435	-138.537365
2.500000	-17.185281	66.266825	-0.230918	-126.032762	-0.230918	-126.032762	-17.518680	-140.461628
2.550000	-16.877480	63.090570	-0.240821	-128.630303	-0.240821	-128.630303	-17.208663	-142.451535
2.600000	-16.574016	59.963322	-0.251152	-131.232483	-0.251152	-131.232483	-16.902941	-144.502184
2.650000	-16.274906	56.884265	-0.261923	-133.839375	-0.261923	-133.839375	-16.601556	-146.612809
2.700000	-15.980151	53.852535	-0.273146	-136.451061	-0.273146	-136.451061	-16.304527	-148.782600
2.750000	-15.689743	50.867235	-0.284831	-139.067628	-0.284831	-139.067628	-16.011861	-151.010706
2.800000	-15.403660	47.927438	-0.296993	-141.689169	-0.296993	-141.689169	-15.723543	-153.296250
2.850000	-15.121868	45.032191	-0.309642	-144.315784	-0.309642	-144.315784	-15.439545	-155.638336
2.900000	-14.844321	42.180519	-0.322794	-146.947578	-0.322794	-146.947578	-15.159821	-158.036057
2.950000	-14.570921	39.371830	-0.336468	-149.584716	-0.336468	-149.584716	-14.884270	-160.489012
3.000000	-14.301626	36.604886	-0.350676	-152.227291	-0.350676	-152.227291	-14.612845	-162.995998
3.050000	-14.036380	33.878453	-0.365435	-154.875400	-0.365435	-154.875400	-14.345482	-165.555825
3.100000	-13.775095	31.191487	-0.380762	-157.529167	-0.380762	-157.529167	-14.082085	-168.167565
3.150000	-13.517676	28.542927	-0.396676	-160.188723	-0.396676	-160.188723	-13.822547	-170.830289
3.200000	-13.264020	25.931693	-0.413200	-162.854197	-0.413200	-162.854197	-13.566752	-173.543064
3.250000	-13.014015	23.356687	-0.430356	-165.525722	-0.430356	-165.525722	-13.314576	-176.304952
3.300000	-12.767546	20.816790	-0.448167	-168.203432	-0.448167	-168.203432	-13.065890	-179.115007
3.350000	-12.524475	18.311019	-0.466664	-170.887493	-0.466664	-170.887493	-12.820541	178.027504
3.400000	-12.284661	15.838341	-0.485877	-173.578075	-0.485877	-173.578075	-12.578372	175.123347
3.450000	-12.048007	13.397234	-0.505829	-176.275252	-0.505829	-176.275252	-12.339277	172.173966
3.500000	-11.814382	10.986472	-0.526550	-178.979163	-0.526550	-178.979163	-12.103109	169.180371
3.550000	-11.583653	8.604802	-0.548074	178.310055	-0.548074	178.310055	-11.869725	166.143596
3.600000	-11.355687	6.250936	-0.570433	175.592262	-0.570433	175.592262	-11.638980	163.064705
3.650000	-11.130354	3.923556	-0.593665	172.867319	-0.593665	172.867319	-11.410732	159.944792
3.700000	-10.907522	1.621306	-0.617809	170.135087	-0.617809	170.135087	-11.184842	156.784988
3.750000	-10.687066	-0.657200	-0.642905	167.395424	-0.642905	167.395424	-10.961175	153.586463
3.800000	-10.468817	-2.913085	-0.669012	164.648080	-0.669012	164.648080	-10.739549	150.349901
3.850000	-10.252706	-5.148148	-0.696163	161.893026	-0.696163	161.893026	-10.519895	147.077121
3.900000	-10.038622	-7.363877	-0.724408	159.130130	-0.724408	159.130130	-10.302097	143.769423
3.950000	-9.826465	-9.561786	-0.753801	156.359265	-0.753801	156.359265	-10.086050	140.428153
4.000000	-9.616141	-11.743415	-0.784399	153.580311	-0.784399	153.580311	-9.871659	137.054703
4.050000	-9.407567	-13.910325	-0.816261	150.793159	-0.816261	150.793159	-9.658841	133.650512
4.100000	-9.200670	-16.064092	-0.849453	147.997713	-0.849453	147.997713	-9.447522	130.217062
4.150000	-8.995390	-18.206306	-0.884043	145.193893	-0.884043	145.193893	-9.237642	126.755882
4.200000	-8.791646	-20.338478	-0.920114	142.381553	-0.920114	142.381553	-9.029121	123.268302
4.250000	-8.589419	-22.462278	-0.957738	139.560694	-0.957738	139.560694	-8.821945	119.756088
4.300000	-8.388702	-24.579335	-0.996987	136.731340	-0.996987	136.731340	-8.616112	116.221013
4.350000	-8.189484	-26.691211	-1.037943	133.893502	-1.037943	133.893502	-8.411620	112.664750
4.400000	-7.991771	-28.799446	-1.080692	131.047224	-1.080692	131.047224	-8.208480	109.089001
4.450000	-7.795581	-30.905542	-1.125322	128.192580	-1.125322	128.192580	-8.006716	105.495493
4.500000	-7.600943	-33.010963	-1.171922	125.329680	-1.171922	125.329680	-7.806369	101.885968
4.550000	-7.407903	-35.117122	-1.220586	122.458673	-1.220586	122.458673	-7.607491	98.262180
4.600000	-7.216504	-37.225392	-1.271417	119.579710	-1.271417	119.579710	-7.410134	94.625842
4.650000	-7.026807	-39.337105	-1.324521	116.692988	-1.324521	116.692988	-7.214368	90.978702
4.700000	-6.838915	-41.453457	-1.379974	113.798859	-1.379974	113.798859	-7.020311	87.322643
4.750000	-6.652917	-43.575586	-1.437871	110.897641	-1.437871	110.897641	-6.828063	83.659419
4.800000	-6.468913	-45.704547	-1.498308	107.989695	-1.498308	107.989695	-6.637736	79.990769
4.850000	-6.287007	-47.841305	-1.561376	105.075428	-1.561376	105.075428	-6.449445	76.318414
4.900000	-6.107311	-49.986735	-1.627166	102.155289	-1.627166	102.155289	-6.263316	72.644051
4.950000	-5.929941	-52.141616	-1.695767	99.229770	-1.695767	99.229770	-6.079478	68.969348
5.000000	-5.755019	-54.306632	-1.767262	96.299402	-1.767262	96.299402	-5.898063	65.295943
5.050000	-5.582652	-56.482574	-1.841775	93.364689	-1.841775	93.364689	-5.719189	61.625516
5.100000	-5.412985	-58.669746	-1.919340	90.426326	-1.919340	90.426326	-5.543018	57.959602
5.150000	-5.246139	-60.868538	-2.000026	87.484954	-2.000026	87.484954	-5.369684	54.299713
5.200000	-5.082233	-63.079253	-2.083899	84.541237	-2.083899	84.541237	-5.199318	50.647309
5.250000	-4.921382	-65.302104	-2.171017	81.595866	-2.171017	81.595866	-5.032050	47.003802
5.300000	-4.763698	-67.537223	-2.261432	78.649547	-2.261432	78.649547	-4.868002	43.370544
5.350000	-4.609284	-69.784663	-2.355190	75.703003	-2.355190	75.703003	-4.707290	39.748829
5.400000	-4.458236	-72.044410	-2.452329	72.756960	-2.452329	72.756960	-4.550024	36.139888
5.450000	-4.310645	-74.316383	-2.552881	69.812149	-2.552881	69.812149	-4.396304	32.544887
5.500000	-4.166590	-76.600447	-2.656872	66.869295	-2.656872	66.869295	-4.246222	28.964922
5.550000	-4.026141	-78.896418	-2.764321	63.929113	-2.764321	63.929113	-4.099859	25.401015
5.600000	-3.889358	-81.204073	-2.875239	60.992302	-2.875239	60.992302	-3.957286	21.854114
5.650000	-3.756310	-83.523276	-2.989653	58.059588	-2.989653	58.059588	-3.818582	18.325293
5.700000	-3.627042	-85.853740	-3.107563	55.131640	-3.107563	55.131640	-3.683801	14.815362
5.750000	-3.501562	-88.195044	-3.228941	52.209023	-3.228941	52.209023	-3.552963	11.324826
5.800000	-3.379886	-90.546891	-3.353780	49.292309	-3.353780	49.292309	-3.426092	7.854293
5.850000	-3.262019	-92.908980	-3.482069	46.382023	-3.482069	46.382023	-3.303201	4.404286
5.900000	-3.147955	-95.281022	-3.613795	43.478639	-3.613795	43.478639	-3.184294	0.975232
5.950000	-3.037680	-97.662747	-3.748943	40.582579	-3.748943	40.582579	-3.069361	-2.432533
6.000000	-2.931167	-100.053905	-3.887501	37.694207	-3.887501	37.694207	-2.958384	-5.818771
6.050000	-2.828380	-102.454277	-4.029456	34.813825	-4.029456	34.813825	-2.851334	-9.183342
6.100000	-2.729276	-104.863679	-4.174798	31.941673	-4.174798	31.941673	-2.748175	-12.526207
6.150000	-2.633802	-107.281968	-4.323523	29.077925	-4.323523	29.077925	-2.648858	-15.847425
6.200000	-2.541899	-109.709046	-4.475632	26.222685	-4.475632	26.222685	-2.553330	-19.147162
6.250000	-2.453500	-112.144864	-4.631132	23.375992	-4.631132	23.375992	-2.461529	-22.425685
6.300000	-2.368586	-114.589617	-4.790050	20.537995	-4.790050	20.537995	-2.373447	-25.682925
6.350000	-2.287023	-117.043178	-4.952403	17.708403	-4.952403	17.708403	-2.288950	-28.919833
6.400000	-2.208726	-119.505669	-5.118231	14.887038	-5.118231	14.887038	-2.207960	-32.137004
6.450000	-2.133607	-121.977271	-5.287592	12.073657	-5.287592	12.073657	-2.130393	-35.335143
6.500000	-2.061573	-124.458228	-5.460562	9.267946	-5.460562	9.267946	-2.056163	-38.515064
6.550000	-1.992530	-126.948847	-5.637234	6.469529	-5.637234	6.469529	-1.985181	-41.677695
6.600000	-1.926380	-129.449498	-5.817727	3.677963	-5.817727	3.677963	-1.917358	-44.824078
6.650000	-1.863024	-131.960614	-6.002183	0.892746	-6.002183	0.892746	-1.852601	-47.955367
6.700000	-1.802364	-134.482696	-6.190773	-1.886683	-6.190773	-1.886683	-1.790820	-51.072837
6.750000	-1.744297	-137.016304	-6.383703	-4.660940	-6.383703	-4.660940	-1.731923	-54.177884
6.800000	-1.688725	-139.562067	-6.581211	-7.430692	-6.581211	-7.430692	-1.675821	-57.272027
6.850000	-1.635546	-142.120675	-6.783580	-10.196649	-6.783580	-10.196649	-1.622425	-60.356912
6.900000	-1.584682	-144.693039	-6.991141	-12.959539	-6.991141	-12.959539	-1.571675	-63.434260
6.950000	-1.536033	-147.280006	-7.204278	-15.720174	-7.204278	-15.720174	-1.523487	-66.506059
7.000000	-1.489481	-149.882310	-7.423430	-18.479396	-7.423430	-18.479396	-1.477758	-69.574462
7.050000	-1.444934	-152.500895	-7.649103	-21.238027	-7.649103	-21.238027	-1.434413	-72.641695
7.100000	-1.402299	-155.136764	-7.881883	-23.996888	-7.881883	-23.996888	-1.393384	-75.710144
7.150000	-1.361489	-157.790980	-8.122443	-26.756785	-8.122443	-26.756785	-1.354608	-78.782363
7.200000	-1.322421	-160.464666	-8.371556	-29.518485	-8.371556	-29.518485	-1.318031	-81.861092
7.250000	-1.285013	-163.158999	-8.630115	-32.282691	-8.630115	-32.282691	-1.283602	-84.949262
7.300000	-1.249191	-165.875214	-8.899148	-35.050010	-8.899148	-35.050010	-1.251282	-88.050013
7.350000	-1.214884	-168.614601	-9.179842	-37.820908	-9.179842	-37.820908	-1.221040	-91.166712
7.400000	-1.182029	-171.378505	-9.473574	-40.595654	-9.473574	-40.595654	-1.192855	-94.302968
7.450000	-1.150568	-174.168321	-9.781945	-43.374242	-9.781945	-43.374242	-1.166716	-97.462653
7.500000	-1.120450	-176.985498	-10.106822	-46.156296	-10.106822	-46.156296	-1.142628	-100.649925
7.550000	-1.091661	-179.832192	-10.450546	-48.940951	-10.450546	-48.940951	-1.120649	-103.870065
7.600000	-1.064142	177.290644	-10.815603	-51.726492	-10.815603	-51.726492	-1.100772	-107.127314
7.650000	-1.037874	174.381423	-11.205072	-54.510305	-11.205072	-54.510305	-1.083045	-110.426884
7.700000	-1.012848	171.438521	-11.622637	-57.288425	-11.622637	-57.288425	-1.067539	-113.774399
7.750000	-0.989073	168.460278	-12.072738	-60.055007	-12.072738	-60.055007	-1.054345	-117.175933
7.800000	-0.966573	165.445011	-12.560786	-62.801544	-12.560786	-62.801544	-1.043578	-120.638051
7.850000	-0.945390	162.391017	-13.093442	-65.515712	-13.093442	-65.515712	-1.035380	-124.167856
7.900000	-0.925589	159.296588	-13.679014	-68.179592	-13.679014	-68.179592	-1.029924	-127.773038
7.950000	-0.907261	156.160024	-14.328015	-70.766880	-14.328015	-70.766880	-1.027415	-131.461927
8.000000	-0.890524	152.979653	-15.053968	-73.238333	-15.053968	-73.238333	-1.028097	-135.243551
8.050000	-0.875529	149.753851	-15.874596	-75.534064	-15.874596	-75.534064	-1.032255	-139.127690
8.100000	-0.862465	146.481075	-16.813608	-77.559878	-16.813608	-77.559878	-1.040219	-143.124936
8.150000	-0.851588	143.159362	-17.903780	-79.154202	-17.903780	-79.154202	-1.052420	-147.248244
8.200000	-0.843186	139.787418	-19.190067	-80.035425	-19.190067	-80.035425	-1.069308	-151.510453
8.250000	-0.837569	136.364763	-20.733925	-79.692730	-20.733925	-79.692730	-1.091334	-155.923631
8.300000	-0.835126	132.890699	-22.612943	-77.085394	-22.612943	-77.085394	-1.119053	-160.502193
8.350000	-0.836207	129.366196	-24.883215	-70.166476	-24.883215	-70.166476	-1.152912	-165.256771
8.400000	-0.841484	125.789219	-27.275090	-54.302884	-27.275090	-54.302884	-1.193854	-170.211734
8.450000	-0.851479	122.161493	-28.305983	-26.524756	-28.305983	-26.524756	-1.242501	-175.381606
8.500000	-0.866861	118.484481	-26.563713	-0.266225	-26.563713	-0.266225	-1.299650	179.214015
8.550000	-0.888274	114.761326	-23.771269	13.595883	-23.771269	13.595883	-1.365991	173.558224
8.600000	-0.916427	110.995965	-21.193126	19.086028	-21.193126	19.086028	-1.442239	167.632140
8.650000	-0.952031	107.193739	-19.013065	20.306829	-19.013065	20.306829	-1.529016	161.417106
8.700000	-0.995756	103.361592	-17.171294	19.234151	-17.171294	19.234151	-1.626779	154.895310
8.750000	-1.048178	99.508208	-15.593975	16.795898	-15.593975	16.795898	-1.735720	148.050591
8.800000	-1.109802	95.644107	-14.224909	13.457855	-14.224909	13.457855	-1.855742	140.865711
8.850000	-1.180683	91.781822	-13.025256	9.493554	-13.025256	9.493554	-1.986010	133.334841
8.900000	-1.260625	87.935130	-11.967394	5.061707	-11.967394	5.061707	-2.125130	125.454188
8.950000	-1.348992	84.118795	-11.031810	0.268306	-11.031810	0.268306	-2.270925	117.227209
9.000000	-1.444635	80.347815	-10.204437	-4.809522	-10.204437	-4.809522	-2.420346	108.666405
9.050000	-1.545845	76.636422	-9.474846	-10.110917	-9.474846	-10.110917	-2.569483	99.795036
9.100000	-1.650355	72.997561	-8.835344	-15.585492	-8.835344	-15.585492	-2.713577	90.646645
9.150000	-1.755368	69.439974	-8.279280	-21.186194	-8.279280	-21.186194	-2.847462	81.271838
9.200000	-1.857842	65.967544	-7.800582	-26.870920	-7.800582	-26.870920	-2.966094	71.732866
9.250000	-1.954497	62.581101	-7.394816	-32.602597	-7.394816	-32.602597	-3.064422	62.099288
9.300000	-2.042301	59.274203	-7.056687	-38.346049	-7.056687	-38.346049	-3.138787	52.450875
9.350000	-2.118582	56.036259	-6.781386	-44.070460	-6.781386	-44.070460	-3.186767	42.868474
9.400000	-2.181209	52.852976	-6.564336	-49.748720	-6.564336	-49.748720	-3.207444	33.431033
9.450000	-2.228845	49.707306	-6.400808	-55.357933	-6.400808	-55.357933	-3.201616	24.209795
9.500000	-2.261012	46.581418	-6.286008	-60.879890	-6.286008	-60.879890	-3.171552	15.263046
9.550000	-2.277924	43.458442	-6.215497	-66.300294	-6.215497	-66.300294	-3.120412	6.635797
9.600000	-2.280377	40.323402	-6.185196	-71.608201	-6.185196	-71.608201	-3.051866	-1.640012
9.650000	-2.269664	37.163969	-6.191253	-76.795981	-6.191253	-76.795981	-2.969807	-9.545960
9.700000	-2.247521	33.971383	-6.229772	-81.860305	-6.229772	-81.860305	-2.878099	-17.079745
9.750000	-2.215721	30.739941	-6.297496	-86.799424	-6.297496	-86.799424	-2.780115	-24.245974
9.800000	-2.176052	27.466785	-6.391525	-91.613508	-6.391525	-91.613508	-2.678761	-31.056349
9.850000	-2.130228	24.151467	-6.509311	-96.304212	-6.509311	-96.304212	-2.576444	-37.527520
9.900000	-2.079820	20.795436	-6.648654	-100.874303	-6.648654	-100.874303	-2.475094	-43.679265
9.950000	-2.026229	17.401544	-6.807688	-105.327342	-6.807688	-105.327342	-2.376213	-49.533045
10.000000	-1.970667	13.973598	-6.984868	-109.667425	-6.984868	-109.667425	-2.280941	-55.110917
