! freq	dB(S11)	phase(S11)	dB(S12)	phase(S12)	
!     	dB(S21)	phase(S21)	dB(S22)	phase(S22)	
!S-par simulation data
#  GHz  S  DB  R 50
0.000000	-0.000000	0.000000	-379.766532	0.000000	-379.766532	0.000000	0.000000	0.000000
0.050000	-0.000111	-0.860117	-105.326164	23.991658	-105.326164	23.991658	-0.000109	-0.860722
0.100000	-0.000439	-1.719959	-104.439422	32.218716	-104.439422	32.218716	-0.000433	-1.721175
0.150000	-0.000969	-2.579270	-103.385668	40.660472	-103.385668	40.660472	-0.000957	-2.581112
0.200000	-0.001680	-3.437845	-102.307628	47.372521	-102.307628	47.372521	-0.001660	-3.440330
0.250000	-0.002555	-4.295454	-101.301938	52.391873	-101.301938	52.391873	-0.002528	-4.298601
0.300000	-0.003553	-5.152062	-100.415558	56.265670	-100.415558	56.265670	-0.003518	-5.155887
0.350000	-0.004652	-6.007556	-99.659354	59.270240	-99.659354	59.270240	-0.004613	-6.012072
0.400000	-0.005829	-6.861897	-99.035235	61.680105	-99.035235	61.680105	-0.005787	-6.867114
0.450000	-0.007061	-7.715080	-98.541077	63.706681	-98.541077	63.706681	-0.007017	-7.721001
0.500000	-0.008327	-8.567120	-98.174492	65.519765	-98.174492	65.519765	-0.008285	-8.573745
0.550000	-0.009613	-9.418047	-97.934469	67.267371	-97.934469	67.267371	-0.009575	-9.425371
0.600000	-0.010907	-10.267897	-97.822052	69.093492	-97.822052	69.093492	-0.010873	-10.275913
0.650000	-0.012200	-11.116710	-97.840457	71.156097	-97.840457	71.156097	-0.012172	-11.125409
0.700000	-0.013485	-11.964523	-97.994616	73.648727	-97.994616	73.648727	-0.013464	-11.973895
0.750000	-0.014758	-12.811368	-98.289538	76.829853	-98.289538	76.829853	-0.014744	-12.821404
0.800000	-0.016016	-13.657273	-98.725877	81.064076	-98.725877	81.064076	-0.016010	-13.667963
0.850000	-0.017259	-14.502259	-99.288804	86.872425	-99.288804	86.872425	-0.017260	-14.513593
0.900000	-0.018485	-15.346341	-99.922746	94.955117	-99.922746	94.955117	-0.018493	-15.358311
0.950000	-0.019695	-16.189527	-100.485345	106.048666	-100.485345	106.048666	-0.019709	-16.202128
1.000000	-0.020889	-17.031821	-100.707691	120.363992	-100.707691	120.363992	-0.020910	-17.045046
1.050000	-0.022069	-17.873223	-100.276028	136.673272	-100.276028	136.673272	-0.022095	-17.887068
1.100000	-0.023236	-18.713727	-99.097227	152.257183	-99.097227	152.257183	-0.023266	-18.728188
1.150000	-0.024390	-19.553325	-97.411074	164.826900	-97.411074	164.826900	-0.024424	-19.568400
1.200000	-0.025533	-20.392007	-95.537974	173.944793	-95.537974	173.944793	-0.025571	-20.407693
1.250000	-0.026665	-21.229759	-93.677340	-179.729723	-93.677340	-179.729723	-0.026706	-21.246055
1.300000	-0.027789	-22.066523	-91.902875	-175.462236	-91.902875	-175.462236	-0.027832	-22.083429
1.350000	-0.028904	-22.902324	-90.250436	-172.550063	-90.250436	-172.550063	-0.028949	-22.919839
1.400000	-0.030013	-23.737145	-88.716596	-170.597377	-88.716596	-170.597377	-0.030059	-23.755268
1.450000	-0.031115	-24.570965	-87.290606	-169.338018	-87.290606	-169.338018	-0.031163	-24.589697
1.500000	-0.032211	-25.403767	-85.960321	-168.591363	-85.960321	-168.591363	-0.032260	-25.423107
1.550000	-0.033303	-26.235531	-84.714330	-168.232569	-84.714330	-168.232569	-0.033353	-26.255479
1.600000	-0.034391	-27.066237	-83.542594	-168.173488	-83.542594	-168.173488	-0.034442	-27.086794
1.650000	-0.035476	-27.895865	-82.436502	-168.350509	-82.436502	-168.350509	-0.035527	-27.917030
1.700000	-0.036556	-28.724004	-81.364967	-168.766324	-81.364967	-168.766324	-0.036608	-28.745777
1.750000	-0.037636	-29.551563	-80.379843	-169.268027	-80.379843	-169.268027	-0.037688	-29.573945
1.800000	-0.038713	-30.377728	-79.426913	-169.914190	-79.426913	-169.914190	-0.038766	-30.400717
1.850000	-0.039789	-31.202897	-78.524400	-170.663539	-78.524400	-170.663539	-0.039842	-31.226492
1.900000	-0.040864	-32.026828	-77.657130	-171.499639	-77.657130	-171.499639	-0.040918	-32.051029
1.950000	-0.041939	-32.849521	-76.823446	-172.422490	-76.823446	-172.422490	-0.041993	-32.874327
2.000000	-0.043013	-33.671148	-76.027032	-173.398133	-76.027032	-173.398133	-0.043069	-33.696559
2.050000	-0.044088	-34.491283	-75.251700	-174.447684	-75.251700	-174.447684	-0.044145	-34.517296
2.100000	-0.045164	-35.310761	-74.521317	-175.522153	-74.521317	-175.522153	-0.045221	-35.337376
2.150000	-0.046240	-36.128536	-73.803013	-176.658629	-73.803013	-176.658629	-0.046299	-36.155752
2.200000	-0.047319	-36.945024	-73.108363	-177.833880	-73.108363	-177.833880	-0.047379	-36.972837
2.250000	-0.048399	-37.760206	-72.435795	-179.043595	-72.435795	-179.043595	-0.048460	-37.788616
2.300000	-0.049482	-38.574066	-71.783902	179.715912	-71.783902	179.715912	-0.049545	-38.603071
2.350000	-0.050568	-39.386587	-71.151417	178.447820	-71.151417	178.447820	-0.050632	-39.416185
2.400000	-0.051657	-40.197753	-70.537196	177.154882	-70.537196	177.154882	-0.051722	-40.227941
2.450000	-0.052750	-41.007548	-69.940201	175.839504	-69.940201	175.839504	-0.052816	-41.038325
2.500000	-0.053846	-41.815956	-69.359485	174.503794	-69.359485	174.503794	-0.053915	-41.847319
2.550000	-0.054948	-42.622901	-68.793265	173.148889	-68.793265	173.148889	-0.055018	-42.654848
2.600000	-0.056054	-43.428428	-68.241766	171.777299	-68.241766	171.777299	-0.056126	-43.460957
2.650000	-0.057165	-44.232523	-67.704252	170.390473	-67.704252	170.390473	-0.057239	-44.265632
2.700000	-0.058282	-45.035172	-67.180046	168.989712	-67.180046	168.989712	-0.058358	-45.068858
2.750000	-0.059406	-45.836362	-66.668525	167.576186	-66.668525	167.576186	-0.059483	-45.870623
2.800000	-0.060535	-46.636080	-66.169109	166.150954	-66.169109	166.150954	-0.060614	-46.670913
2.850000	-0.061672	-47.434314	-65.681262	164.714976	-65.681262	164.714976	-0.061753	-47.469717
2.900000	-0.062816	-48.231051	-65.204486	163.269125	-65.204486	163.269125	-0.062899	-48.267021
2.950000	-0.063967	-49.026280	-64.738316	161.814199	-64.738316	161.814199	-0.064052	-49.062815
3.000000	-0.065127	-49.819990	-64.282317	160.350929	-64.282317	160.350929	-0.065214	-49.857087
3.050000	-0.066295	-50.612169	-63.836085	158.879985	-63.836085	158.879985	-0.066384	-50.649827
3.100000	-0.067472	-51.402809	-63.399238	157.401986	-63.399238	157.401986	-0.067563	-51.441025
3.150000	-0.068658	-52.191898	-62.971420	155.917502	-62.971420	155.917502	-0.068751	-52.230670
3.200000	-0.069854	-52.979428	-62.552294	154.427062	-62.552294	154.427062	-0.069949	-53.018753
3.250000	-0.071061	-53.765391	-62.141544	152.931153	-62.141544	152.931153	-0.071157	-53.805266
3.300000	-0.072277	-54.549777	-61.738871	151.430231	-61.738871	151.430231	-0.072376	-54.590200
3.350000	-0.073507	-55.332301	-61.342234	149.924035	-61.342234	149.924035	-0.073607	-55.373270
3.400000	-0.074749	-56.113164	-60.952859	148.413471	-60.952859	148.413471	-0.074851	-56.154677
3.450000	-0.075997	-56.893190	-60.575348	146.901046	-60.575348	146.901046	-0.076101	-56.935246
3.500000	-0.077263	-57.670707	-60.199640	145.383038	-60.199640	145.383038	-0.077369	-57.713301
3.550000	-0.078535	-58.447662	-59.836530	143.864016	-59.836530	143.864016	-0.078643	-58.490794
3.600000	-0.079829	-59.221808	-59.473682	142.339931	-59.473682	142.339931	-0.079938	-59.265474
3.650000	-0.081125	-59.995670	-59.124006	140.815439	-59.124006	140.815439	-0.081236	-60.039871
3.700000	-0.082448	-60.766424	-58.773278	139.286469	-58.773278	139.286469	-0.082561	-60.811154
3.750000	-0.083771	-61.537177	-58.436164	137.757499	-58.436164	137.757499	-0.083885	-61.582437
3.800000	-0.085124	-62.304521	-58.096879	136.224681	-58.096879	136.224681	-0.085240	-62.350307
3.850000	-0.086477	-63.071865	-57.770350	134.691863	-57.770350	134.691863	-0.086595	-63.118177
3.900000	-0.087860	-63.836074	-57.443070	133.156345	-57.443070	133.156345	-0.087980	-63.882907
3.950000	-0.089246	-64.599997	-57.126573	131.620581	-57.126573	131.620581	-0.089368	-64.647352
4.000000	-0.090661	-65.361063	-56.810556	130.083017	-56.810556	130.083017	-0.090784	-65.408936
4.050000	-0.092081	-66.121557	-56.503578	128.545094	-56.503578	128.545094	-0.092205	-66.169948
4.100000	-0.093528	-66.879477	-56.198145	127.006060	-56.198145	127.006060	-0.093654	-66.928383
4.150000	-0.094984	-67.636539	-55.900210	125.466656	-55.900210	125.466656	-0.095112	-67.685959
4.200000	-0.096466	-68.391313	-55.604739	123.926656	-55.604739	123.926656	-0.096595	-68.441244
4.250000	-0.097960	-69.144943	-55.315403	122.386358	-55.315403	122.386358	-0.098091	-69.195384
4.300000	-0.099477	-69.896574	-55.029325	120.845832	-55.029325	120.845832	-0.099610	-69.947522
4.350000	-0.101011	-70.646777	-54.748173	119.305143	-54.748173	119.305143	-0.101145	-70.698232
4.400000	-0.102566	-71.395271	-54.470964	117.764471	-54.470964	117.764471	-0.102702	-71.447230
4.450000	-0.104141	-72.142055	-54.197608	116.223818	-54.197608	116.223818	-0.104279	-72.194517
4.500000	-0.105735	-72.887420	-53.928785	114.683328	-53.928785	114.683328	-0.105874	-72.940384
4.550000	-0.107354	-73.630799	-53.662863	113.143068	-53.662863	113.143068	-0.107495	-73.684262
4.600000	-0.108988	-74.373048	-53.401980	111.603040	-53.401980	111.603040	-0.109131	-74.427009
4.650000	-0.110653	-75.113038	-53.143152	110.063472	-53.143152	110.063472	-0.110796	-75.167495
4.700000	-0.112329	-75.852185	-52.889797	108.524139	-52.889797	108.524139	-0.112474	-75.907138
4.750000	-0.114041	-76.588807	-52.637744	106.985508	-52.637744	106.985508	-0.114188	-76.644252
4.800000	-0.115761	-77.324870	-52.391535	105.447065	-52.391535	105.447065	-0.115909	-77.380809
4.850000	-0.117521	-78.058148	-52.145961	103.909564	-52.145961	103.909564	-0.117672	-78.114576
4.900000	-0.119286	-78.791148	-51.906543	102.372170	-51.906543	102.372170	-0.119439	-78.848066
4.950000	-0.121098	-79.521109	-51.667169	100.835953	-51.667169	100.835953	-0.121252	-79.578514
5.000000	-0.122910	-80.251070	-51.434215	99.299736	-51.434215	99.299736	-0.123066	-80.308962
5.050000	-0.124775	-80.977747	-51.200779	97.764917	-51.200779	97.764917	-0.124932	-81.036123
5.100000	-0.126640	-81.704423	-50.973454	96.230098	-50.973454	96.230098	-0.126799	-81.763283
5.150000	-0.128555	-82.428120	-50.746244	94.696638	-50.746244	94.696638	-0.128716	-82.487463
5.200000	-0.130475	-83.151547	-50.524323	93.163301	-50.524323	93.163301	-0.130638	-83.211371
5.250000	-0.132441	-83.872298	-50.303052	91.631247	-50.303052	91.631247	-0.132606	-83.932601
5.300000	-0.134418	-84.592513	-50.086326	90.099449	-50.086326	90.099449	-0.134585	-84.653295
5.350000	-0.136438	-85.310351	-49.870727	88.568831	-49.870727	88.568831	-0.136607	-85.371611
5.400000	-0.138474	-86.027397	-49.659001	87.038607	-49.659001	87.038607	-0.138644	-86.089134
5.450000	-0.140549	-86.742360	-49.448827	85.509443	-49.448827	85.509443	-0.140722	-86.804571
5.500000	-0.142645	-87.456281	-49.241917	83.980809	-49.241917	83.980809	-0.142820	-87.518967
5.550000	-0.144778	-88.168408	-49.036940	82.453106	-49.036940	82.453106	-0.144954	-88.231567
5.600000	-0.146936	-88.879252	-48.834676	80.926067	-48.834676	80.926067	-0.147115	-88.942884
5.650000	-0.149127	-89.588584	-48.634681	79.399824	-48.634681	79.399824	-0.149308	-89.652687
5.700000	-0.151350	-90.296404	-48.436906	77.874377	-48.436906	77.874377	-0.151533	-90.360977
5.750000	-0.153600	-91.002985	-48.241695	76.349590	-48.241695	76.349590	-0.153786	-91.068028
5.800000	-0.155890	-91.707832	-48.048260	74.825725	-48.048260	74.825725	-0.156077	-91.773344
5.850000	-0.158202	-92.411709	-47.857651	73.302386	-47.857651	73.302386	-0.158392	-92.477688
5.900000	-0.160559	-93.113642	-47.668418	71.780094	-47.668418	71.780094	-0.160752	-93.180089
5.950000	-0.162935	-93.814862	-47.482239	70.258195	-47.482239	70.258195	-0.163129	-93.881775
6.000000	-0.165363	-94.513940	-47.297081	68.737470	-47.297081	68.737470	-0.165559	-94.581319
6.050000	-0.167803	-95.212553	-47.115172	67.217007	-47.115172	67.217007	-0.168002	-95.280397
6.100000	-0.170303	-95.908840	-46.933972	65.697848	-46.933972	65.697848	-0.170504	-95.977148
6.150000	-0.172809	-96.604899	-46.756184	64.178820	-46.756184	64.178820	-0.173013	-96.673671
6.200000	-0.175383	-97.298458	-46.578831	62.661233	-46.578831	62.661233	-0.175589	-97.367693
6.250000	-0.177957	-97.992017	-46.405027	61.143647	-46.405027	61.143647	-0.178166	-98.061716
6.300000	-0.180607	-98.682916	-46.231417	59.627653	-46.231417	59.627653	-0.180818	-98.753078
6.350000	-0.183257	-99.373816	-46.061210	58.111659	-46.061210	58.111659	-0.183471	-99.444440
6.400000	-0.185978	-100.062342	-45.891506	56.597154	-45.891506	56.597154	-0.186195	-100.133428
6.450000	-0.188706	-100.750652	-45.724807	55.082784	-45.724807	55.082784	-0.188925	-100.822200
6.500000	-0.191499	-101.436865	-45.558885	53.569808	-45.558885	53.569808	-0.191721	-101.508875
6.550000	-0.194307	-102.122658	-45.395611	52.057109	-45.395611	52.057109	-0.194531	-102.195130
6.600000	-0.197175	-102.806621	-45.233358	50.545713	-45.233358	50.545713	-0.197402	-102.879554
6.650000	-0.200063	-103.489973	-45.073430	49.034751	-45.073430	49.034751	-0.200293	-103.563368
6.700000	-0.203007	-104.171748	-44.914738	47.525000	-44.914738	47.525000	-0.203239	-104.245605
6.750000	-0.205978	-104.852736	-44.758081	46.015854	-44.758081	46.015854	-0.206214	-104.927055
6.800000	-0.208999	-105.532391	-44.602847	44.507827	-44.602847	44.507827	-0.209237	-105.607173
6.850000	-0.212055	-106.211095	-44.449390	43.000599	-44.449390	43.000599	-0.212296	-106.286339
6.900000	-0.215155	-106.888697	-44.297518	41.494388	-44.297518	41.494388	-0.215398	-106.964404
6.950000	-0.218297	-107.565198	-44.147193	39.989194	-44.147193	39.989194	-0.218543	-107.641368
7.000000	-0.221477	-108.240817	-43.998589	38.484905	-43.998589	38.484905	-0.221726	-108.317451
7.050000	-0.224707	-108.915200	-43.851331	36.981882	-43.851331	36.981882	-0.224959	-108.992298
7.100000	-0.227968	-109.588905	-43.705904	35.479634	-43.705904	35.479634	-0.228222	-109.666469
7.150000	-0.231288	-110.261257	-43.561647	33.978934	-43.561647	33.978934	-0.231545	-110.339287
7.200000	-0.234631	-110.933122	-43.419313	32.478858	-43.419313	32.478858	-0.234891	-111.011619
7.250000	-0.238042	-111.603531	-43.277993	30.980651	-43.277993	30.980651	-0.238305	-111.682496
7.300000	-0.241469	-112.273631	-43.138667	29.482890	-43.138667	29.482890	-0.241735	-112.353064
7.350000	-0.244972	-112.942187	-43.000220	27.987359	-43.000220	27.987359	-0.245241	-113.022091
7.400000	-0.248484	-113.610597	-42.863821	26.492067	-42.863821	26.492067	-0.248756	-113.690972
7.450000	-0.252081	-114.277394	-42.728181	24.999408	-42.728181	24.999408	-0.252356	-114.358242
7.500000	-0.255680	-114.944191	-42.594628	23.506748	-42.594628	23.506748	-0.255957	-115.025513
7.550000	-0.259372	-115.609324	-42.461731	22.017166	-42.461731	22.017166	-0.259652	-115.691123
7.600000	-0.263066	-116.274457	-42.330836	20.527584	-42.330836	20.527584	-0.263348	-116.356733
7.650000	-0.266846	-116.938154	-42.200721	19.041017	-42.200721	19.041017	-0.267132	-117.020910
7.700000	-0.270636	-117.601720	-42.072422	17.554725	-42.072422	17.554725	-0.270925	-117.684957
7.750000	-0.274506	-118.264064	-41.945004	16.071355	-41.945004	16.071355	-0.274797	-118.347784
7.800000	-0.278394	-118.926163	-41.819234	14.588570	-41.819234	14.588570	-0.278688	-119.010368
7.850000	-0.282354	-119.587238	-41.694429	13.108579	-41.694429	13.108579	-0.282651	-119.671932
7.900000	-0.286340	-120.247972	-41.571119	11.629519	-41.571119	11.629519	-0.286640	-120.333155
7.950000	-0.290392	-120.907864	-41.448843	10.153086	-41.448843	10.153086	-0.290694	-120.993540
8.000000	-0.294477	-121.567335	-41.327921	8.677966	-41.327921	8.677966	-0.294783	-121.653506
8.050000	-0.298621	-122.226132	-41.208087	7.205267	-41.208087	7.205267	-0.298929	-122.312802
8.100000	-0.302807	-122.884448	-41.089480	5.734296	-41.089480	5.734296	-0.303118	-122.971618
8.150000	-0.307043	-123.542240	-40.972002	4.265500	-40.972002	4.265500	-0.307357	-123.629914
8.200000	-0.311330	-124.199508	-40.855630	2.798877	-40.855630	2.798877	-0.311647	-124.287690
8.250000	-0.315659	-124.856385	-40.740422	1.334143	-40.740422	1.334143	-0.315979	-124.945078
8.300000	-0.320048	-125.512716	-40.626204	-0.127948	-40.626204	-0.127948	-0.320371	-125.601923
8.350000	-0.324471	-126.168771	-40.513177	-1.588473	-40.513177	-1.588473	-0.324797	-126.258496
8.400000	-0.328962	-126.824277	-40.401028	-3.045865	-40.401028	-3.045865	-0.329291	-126.914525
8.450000	-0.333479	-127.479606	-40.290094	-4.502047	-40.290094	-4.502047	-0.333811	-127.570378
8.500000	-0.338072	-128.134403	-40.179925	-5.954598	-40.179925	-5.954598	-0.338408	-128.225706
8.550000	-0.342684	-128.789101	-40.070994	-7.406321	-40.070994	-7.406321	-0.343023	-128.880937
8.600000	-0.347380	-129.443306	-39.962712	-8.853912	-39.962712	-8.853912	-0.347722	-129.535682
8.650000	-0.352086	-130.097471	-39.855693	-10.301082	-39.855693	-10.301082	-0.352432	-130.190389
8.700000	-0.356885	-130.751204	-39.749205	-11.743626	-39.749205	-11.743626	-0.357234	-130.844673
8.750000	-0.361686	-131.404937	-39.644006	-13.186169	-39.644006	-13.186169	-0.362038	-131.498956
8.800000	-0.366588	-132.058320	-39.539212	-14.623611	-39.539212	-14.623611	-0.366943	-132.152901
8.850000	-0.371492	-132.711703	-39.435667	-16.061052	-39.435667	-16.061052	-0.371851	-132.806847
8.900000	-0.376487	-133.364881	-39.332540	-17.493803	-39.332540	-17.493803	-0.376850	-133.460597
8.950000	-0.381494	-134.018040	-39.230551	-18.926126	-39.230551	-18.926126	-0.381861	-134.114329
9.000000	-0.386584	-134.671118	-39.128992	-20.354205	-39.128992	-20.354205	-0.386954	-134.767992
9.050000	-0.391692	-135.324180	-39.028459	-21.781435	-39.028459	-21.781435	-0.392067	-135.421641
9.100000	-0.396876	-135.977268	-38.928370	-23.204895	-38.928370	-23.204895	-0.397254	-136.075325
9.150000	-0.402086	-136.630364	-38.829189	-24.627099	-38.829189	-24.627099	-0.402468	-136.729021
9.200000	-0.407362	-137.283571	-38.730472	-26.046028	-38.730472	-26.046028	-0.407749	-137.382838
9.250000	-0.412672	-137.936834	-38.632540	-27.463321	-38.632540	-27.463321	-0.413064	-138.036716
9.300000	-0.418041	-138.590274	-38.535096	-28.877845	-38.535096	-28.877845	-0.418437	-138.690781
9.350000	-0.423451	-139.243841	-38.438307	-30.290392	-38.438307	-30.290392	-0.423852	-139.344978
9.400000	-0.428910	-139.897628	-38.342040	-31.700674	-38.342040	-31.700674	-0.429317	-139.999404
9.450000	-0.434419	-140.551637	-38.246288	-33.108692	-38.246288	-33.108692	-0.434830	-140.654061
9.500000	-0.439968	-141.205890	-38.151101	-34.514937	-38.151101	-34.514937	-0.440385	-141.308968
9.550000	-0.445573	-141.860484	-38.056280	-35.918699	-38.056280	-35.918699	-0.445996	-141.964228
9.600000	-0.451212	-142.515321	-37.962077	-37.321153	-37.962077	-37.321153	-0.451640	-142.619737
9.650000	-0.456912	-143.170645	-37.868082	-38.720989	-37.868082	-38.720989	-0.457347	-143.275746
9.700000	-0.462637	-143.826189	-37.774771	-40.119941	-37.774771	-40.119941	-0.463078	-143.931980
9.750000	-0.468430	-144.482393	-37.681496	-41.516241	-37.681496	-41.516241	-0.468878	-144.588889
9.800000	-0.474241	-145.138769	-37.588986	-42.912027	-37.588986	-42.912027	-0.474696	-145.245974
9.850000	-0.480125	-145.796005	-37.496329	-44.305242	-37.496329	-44.305242	-0.480587	-145.903936
9.900000	-0.486019	-146.453340	-37.404530	-45.698243	-37.404530	-45.698243	-0.486489	-146.562000
9.950000	-0.491990	-147.111764	-37.312389	-47.088888	-37.312389	-47.088888	-0.492469	-147.221174
10.000000	-0.497966	-147.770188	-37.221216	-48.479534	-37.221216	-48.479534	-0.498453	-147.880348
