! freq	dB(S11)	phase(S11)	dB(S12)	phase(S12)	
!     	dB(S21)	phase(S21)	dB(S22)	phase(S22)	
!S-par simulation data
#  GHz  S  DB  R 50
0.000000	-0.000000	-0.000000	-304.012372	180.000000	-304.012372	180.000000	-0.000000	-0.000000
0.050000	-0.000510	-0.765822	-105.503619	88.767238	-105.503619	88.767238	-0.001190	-1.977426
0.100000	-0.001673	-1.527547	-99.522295	87.403530	-99.522295	87.403530	-0.004191	-3.947004
0.150000	-0.002934	-2.285080	-96.065535	86.085471	-96.065535	86.085471	-0.007917	-5.906514
0.200000	-0.004054	-3.040067	-93.662635	84.799920	-93.662635	84.799920	-0.011591	-7.857632
0.250000	-0.005043	-3.793982	-91.841742	83.546761	-91.841742	83.546761	-0.014955	-9.803692
0.300000	-0.005942	-4.547367	-90.401786	82.334871	-90.401786	82.334871	-0.017957	-11.745962
0.350000	-0.006799	-5.300499	-89.233860	81.173588	-89.233860	81.173588	-0.020650	-13.685193
0.400000	-0.007650	-6.053475	-88.274516	80.074931	-88.274516	80.074931	-0.023102	-15.621482
0.450000	-0.008519	-6.806303	-87.490107	79.060751	-87.490107	79.060751	-0.025373	-17.554291
0.500000	-0.009416	-7.558997	-86.840182	78.133563	-86.840182	78.133563	-0.027540	-19.483775
0.550000	-0.010346	-8.311525	-86.313804	77.321862	-86.313804	77.321862	-0.029633	-21.409144
0.600000	-0.011305	-9.063855	-85.899278	76.653722	-85.899278	76.653722	-0.031681	-23.329828
0.650000	-0.012287	-9.815956	-85.584566	76.155340	-85.584566	76.155340	-0.033709	-25.245519
0.700000	-0.013282	-10.567778	-85.362566	75.862374	-85.362566	75.862374	-0.035731	-27.155839
0.750000	-0.014281	-11.319244	-85.231689	75.831173	-85.231689	75.831173	-0.037758	-29.060193
0.800000	-0.015276	-12.070271	-85.188777	76.126394	-85.188777	76.126394	-0.039795	-30.958186
0.850000	-0.016262	-12.820778	-85.230353	76.827699	-85.230353	76.827699	-0.041846	-32.849518
0.900000	-0.017236	-13.570680	-85.353240	78.041654	-85.353240	78.041654	-0.043914	-34.733855
0.950000	-0.018197	-14.319902	-85.552538	79.909930	-85.552538	79.909930	-0.045997	-36.610838
1.000000	-0.019147	-15.068379	-85.817807	82.611584	-85.817807	82.611584	-0.048095	-38.480153
1.050000	-0.020089	-15.816065	-86.128627	86.364909	-86.128627	86.364909	-0.050206	-40.341507
1.100000	-0.021025	-16.562925	-86.447472	91.409313	-86.447472	91.409313	-0.052327	-42.194623
1.150000	-0.021959	-17.308935	-86.711464	97.945303	-86.711464	97.945303	-0.054456	-44.039245
1.200000	-0.022891	-18.054082	-86.829181	106.007859	-86.829181	106.007859	-0.056588	-45.875133
1.250000	-0.023825	-18.798356	-86.695561	115.294190	-86.695561	115.294190	-0.058721	-47.702064
1.300000	-0.024761	-19.541733	-86.224968	125.072985	-86.224968	125.072985	-0.060852	-49.519629
1.350000	-0.025700	-20.284227	-85.422465	134.382126	-85.422465	134.382126	-0.062977	-51.327833
1.400000	-0.026641	-21.025835	-84.361654	142.492220	-84.361654	142.492220	-0.065092	-53.126506
1.450000	-0.027586	-21.766555	-83.145489	149.085858	-83.145489	149.085858	-0.067195	-54.915489
1.500000	-0.028533	-22.506382	-81.863893	154.187830	-81.863893	154.187830	-0.069284	-56.694640
1.550000	-0.029483	-23.245312	-80.577983	157.994603	-80.577983	157.994603	-0.071355	-58.463832
1.600000	-0.030435	-23.983339	-79.322962	160.745139	-79.322962	160.745139	-0.073407	-60.222953
1.650000	-0.031389	-24.720458	-78.116354	162.658570	-78.116354	162.658570	-0.075437	-61.971902
1.700000	-0.032344	-25.456661	-76.965166	163.914937	-76.965166	163.914937	-0.077445	-63.710593
1.750000	-0.033301	-26.191941	-75.870643	164.655274	-75.870643	164.655274	-0.079428	-65.438953
1.800000	-0.034259	-26.926289	-74.831093	164.987983	-74.831093	164.987983	-0.081385	-67.156921
1.850000	-0.035218	-27.659698	-73.843462	164.996013	-73.843462	164.996013	-0.083317	-68.864448
1.900000	-0.036178	-28.392146	-72.903615	164.740757	-72.903615	164.740757	-0.085221	-70.561383
1.950000	-0.037139	-29.123624	-72.008090	164.272707	-72.008090	164.272707	-0.087098	-72.247698
2.000000	-0.038100	-29.854131	-71.153973	163.632474	-71.153973	163.632474	-0.088948	-73.923493
2.050000	-0.039062	-30.583658	-70.337976	162.849871	-70.337976	162.849871	-0.090772	-75.588763
2.100000	-0.040026	-31.312193	-69.557101	161.948652	-69.557101	161.948652	-0.092570	-77.243512
2.150000	-0.040990	-32.039724	-68.808635	160.947912	-68.808635	160.947912	-0.094342	-78.887755
2.200000	-0.041956	-32.766242	-68.090137	159.863138	-68.090137	159.863138	-0.096089	-80.521515
2.250000	-0.042924	-33.491734	-67.399410	158.706996	-67.399410	158.706996	-0.097814	-82.144824
2.300000	-0.043894	-34.216143	-66.733391	157.487782	-66.733391	157.487782	-0.099515	-83.757272
2.350000	-0.044865	-34.939559	-66.092808	156.219220	-66.092808	156.219220	-0.101196	-85.359919
2.400000	-0.045839	-35.661916	-65.474594	154.905466	-65.474594	154.905466	-0.102858	-86.952256
2.450000	-0.046816	-36.383200	-64.877307	153.552650	-64.877307	153.552650	-0.104502	-88.534344
2.500000	-0.047796	-37.103401	-64.299636	152.165959	-64.299636	152.165959	-0.106129	-90.106250
2.550000	-0.048779	-37.822458	-63.739633	150.748691	-63.739633	150.748691	-0.107742	-91.667614
2.600000	-0.049766	-38.540407	-63.197073	149.306004	-63.197073	149.306004	-0.109342	-93.218959
2.650000	-0.050757	-39.257238	-62.670958	147.841062	-62.670958	147.841062	-0.110932	-94.760372
2.700000	-0.051753	-39.972937	-62.160371	146.356600	-62.160371	146.356600	-0.112512	-96.291944
2.750000	-0.052754	-40.687494	-61.664476	144.854982	-61.664476	144.854982	-0.114086	-97.813772
2.800000	-0.053760	-41.400899	-61.182502	143.338269	-61.182502	143.338269	-0.115655	-99.325958
2.850000	-0.054772	-42.113140	-60.713740	141.808252	-60.713740	141.808252	-0.117221	-100.828608
2.900000	-0.055789	-42.824206	-60.257536	140.266502	-60.257536	140.266502	-0.118785	-102.321830
2.950000	-0.056813	-43.534087	-59.813286	138.714394	-59.813286	138.714394	-0.120350	-103.805739
3.000000	-0.057844	-44.242773	-59.380429	137.153138	-59.380429	137.153138	-0.121918	-105.280452
3.050000	-0.058883	-44.950254	-58.958445	135.583802	-58.958445	135.583802	-0.123490	-106.746090
3.100000	-0.059928	-45.656520	-58.546851	134.007329	-58.546851	134.007329	-0.125068	-108.202775
3.150000	-0.060982	-46.361560	-58.145196	132.424554	-58.145196	132.424554	-0.126654	-109.650635
3.200000	-0.062044	-47.065367	-57.753061	130.836222	-57.753061	130.836222	-0.128249	-111.089798
3.250000	-0.063115	-47.767931	-57.370053	129.242995	-57.370053	129.242995	-0.129856	-112.520396
3.300000	-0.064194	-48.469242	-56.995805	127.645465	-56.995805	127.645465	-0.131475	-113.942564
3.350000	-0.065284	-49.169293	-56.629973	126.044161	-56.629973	126.044161	-0.133109	-115.356437
3.400000	-0.066383	-49.868075	-56.272235	124.439563	-56.272235	124.439563	-0.134758	-116.762153
3.450000	-0.067492	-50.565580	-55.922285	122.832100	-55.922285	122.832100	-0.136424	-118.159852
3.500000	-0.068612	-51.261801	-55.579840	121.222163	-55.579840	121.222163	-0.138108	-119.549676
3.550000	-0.069743	-51.956730	-55.244631	119.610106	-55.244631	119.610106	-0.139812	-120.931766
3.600000	-0.070885	-52.650360	-54.916403	117.996255	-54.916403	117.996255	-0.141536	-122.306267
3.650000	-0.072039	-53.342684	-54.594918	116.380907	-54.594918	116.380907	-0.143282	-123.673325
3.700000	-0.073205	-54.033697	-54.279949	114.764335	-54.279949	114.764335	-0.145051	-125.033086
3.750000	-0.074383	-54.723390	-53.971281	113.146795	-53.971281	113.146795	-0.146844	-126.385697
3.800000	-0.075575	-55.411702	-53.668520	111.528502	-53.668520	111.528502	-0.148662	-127.731009
3.850000	-0.076780	-56.098683	-53.371683	109.909718	-53.371683	109.909718	-0.150506	-129.069481
3.900000	-0.077998	-56.784329	-53.080587	108.290650	-53.080587	108.290650	-0.152375	-130.401263
3.950000	-0.079230	-57.468634	-52.795057	106.671494	-52.795057	106.671494	-0.154272	-131.726505
4.000000	-0.080477	-58.151595	-52.514925	105.052439	-52.514925	105.052439	-0.156195	-133.045357
4.050000	-0.081738	-58.833206	-52.240033	103.433662	-52.240033	103.433662	-0.158147	-134.357971
4.100000	-0.083015	-59.513463	-51.970229	101.815337	-51.970229	101.815337	-0.160127	-135.664496
4.150000	-0.084306	-60.192364	-51.705369	100.197629	-51.705369	100.197629	-0.162136	-136.965084
4.200000	-0.085614	-60.869905	-51.445315	98.580699	-51.445315	98.580699	-0.164174	-138.259887
4.250000	-0.086937	-61.546083	-51.189935	96.964703	-51.189935	96.964703	-0.166241	-139.549055
4.300000	-0.088277	-62.220895	-50.939101	95.349795	-50.939101	95.349795	-0.168337	-140.832740
4.350000	-0.089634	-62.894338	-50.692694	93.736124	-50.692694	93.736124	-0.170464	-142.111093
4.400000	-0.091008	-63.566411	-50.450596	92.123836	-50.450596	92.123836	-0.172620	-143.384264
4.450000	-0.092400	-64.237112	-50.212696	90.513074	-50.212696	90.513074	-0.174806	-144.652406
4.500000	-0.093810	-64.906439	-49.978886	88.903979	-49.978886	88.903979	-0.177022	-145.915667
4.550000	-0.095237	-65.574391	-49.749064	87.296690	-49.749064	87.296690	-0.179269	-147.174199
4.600000	-0.096684	-66.240967	-49.523129	85.691343	-49.523129	85.691343	-0.181545	-148.428151
4.650000	-0.098150	-66.906167	-49.300987	84.088071	-49.300987	84.088071	-0.183850	-149.677673
4.700000	-0.099635	-67.569991	-49.082544	82.487007	-49.082544	82.487007	-0.186186	-150.922915
4.750000	-0.101140	-68.232437	-48.867711	80.888279	-48.867711	80.888279	-0.188551	-152.164025
4.800000	-0.102665	-68.893508	-48.656403	79.292014	-48.656403	79.292014	-0.190946	-153.401152
4.850000	-0.104211	-69.553202	-48.448535	77.698338	-48.448535	77.698338	-0.193369	-154.634443
4.900000	-0.105778	-70.211522	-48.244028	76.107371	-48.244028	76.107371	-0.195822	-155.864046
4.950000	-0.107366	-70.868468	-48.042804	74.519233	-48.042804	74.519233	-0.198303	-157.090108
5.000000	-0.108975	-71.524041	-47.844786	72.934041	-47.844786	72.934041	-0.200812	-158.312775
5.050000	-0.110608	-72.178185	-47.649848	71.352046	-47.649848	71.352046	-0.203351	-159.532059
5.100000	-0.112264	-72.830960	-47.457980	69.773231	-47.457980	69.773231	-0.205917	-160.748252
5.150000	-0.113942	-73.482369	-47.269110	68.197701	-47.269110	68.197701	-0.208511	-161.961500
5.200000	-0.115643	-74.132414	-47.083174	66.625561	-47.083174	66.625561	-0.211131	-163.171946
5.250000	-0.117369	-74.781098	-46.900105	65.056911	-46.900105	65.056911	-0.213779	-164.379733
5.300000	-0.119118	-75.428425	-46.719841	63.491847	-46.719841	63.491847	-0.216452	-165.585004
5.350000	-0.120892	-76.074398	-46.542320	61.930463	-46.542320	61.930463	-0.219152	-166.787901
5.400000	-0.122691	-76.719019	-46.367483	60.372847	-46.367483	60.372847	-0.221877	-167.988566
5.450000	-0.124515	-77.362294	-46.195273	58.819085	-46.195273	58.819085	-0.224628	-169.187140
5.500000	-0.126364	-78.004226	-46.025633	57.269260	-46.025633	57.269260	-0.227404	-170.383762
5.550000	-0.128240	-78.644820	-45.858510	55.723448	-45.858510	55.723448	-0.230204	-171.578572
5.600000	-0.130142	-79.284080	-45.693850	54.181726	-45.693850	54.181726	-0.233029	-172.771708
5.650000	-0.132071	-79.922010	-45.531604	52.644164	-45.531604	52.644164	-0.235877	-173.963309
5.700000	-0.134027	-80.558617	-45.371721	51.110829	-45.371721	51.110829	-0.238750	-175.153513
5.750000	-0.136011	-81.193905	-45.214153	49.581786	-45.214153	49.581786	-0.241645	-176.342455
5.800000	-0.138023	-81.827881	-45.058854	48.057095	-45.058854	48.057095	-0.244564	-177.530271
5.850000	-0.140063	-82.460548	-44.905780	46.536813	-44.905780	46.536813	-0.247506	-178.717097
5.900000	-0.142132	-83.091915	-44.754886	45.020996	-44.754886	45.020996	-0.250471	-179.903068
5.950000	-0.144231	-83.721986	-44.606130	43.509696	-44.606130	43.509696	-0.253458	178.911683
6.000000	-0.146359	-84.350769	-44.459472	42.002961	-44.459472	42.002961	-0.256468	177.727023
6.050000	-0.148517	-84.978270	-44.314873	40.500840	-44.314873	40.500840	-0.259500	176.542820
6.100000	-0.150706	-85.604495	-44.172294	39.003378	-44.172294	39.003378	-0.262555	175.358942
6.150000	-0.152925	-86.229453	-44.031700	37.510619	-44.031700	37.510619	-0.265632	174.175258
6.200000	-0.155176	-86.853150	-43.893053	36.022606	-43.893053	36.022606	-0.268731	172.991638
6.250000	-0.157459	-87.475593	-43.756321	34.539382	-43.756321	34.539382	-0.271852	171.807952
6.300000	-0.159775	-88.096737	-43.621462	33.061200	-43.621462	33.061200	-0.274997	170.624058
6.350000	-0.162123	-88.716645	-43.488455	31.587895	-43.488455	31.587895	-0.278164	169.439831
6.400000	-0.164504	-89.335323	-43.357269	30.119509	-43.357269	30.119509	-0.281354	168.255143
6.450000	-0.166919	-89.952781	-43.227877	28.656088	-43.227877	28.656088	-0.284567	167.069868
6.500000	-0.169367	-90.569027	-43.100248	27.197677	-43.100248	27.197677	-0.287803	165.883881
6.550000	-0.171850	-91.184069	-42.974357	25.744326	-42.974357	25.744326	-0.291063	164.697057
6.600000	-0.174367	-91.797918	-42.850177	24.296087	-42.850177	24.296087	-0.294347	163.509271
6.650000	-0.176918	-92.410580	-42.727682	22.853014	-42.727682	22.853014	-0.297655	162.320400
6.700000	-0.179506	-93.022067	-42.606850	21.415170	-42.606850	21.415170	-0.300989	161.130321
6.750000	-0.182128	-93.632387	-42.487655	19.982618	-42.487655	19.982618	-0.304348	159.938912
6.800000	-0.184787	-94.241551	-42.370077	18.555431	-42.370077	18.555431	-0.307734	158.746052
6.850000	-0.187483	-94.849567	-42.254092	17.133687	-42.254092	17.133687	-0.311147	157.551619
6.900000	-0.190215	-95.456445	-42.139680	15.717472	-42.139680	15.717472	-0.314588	156.355494
6.950000	-0.192984	-96.062197	-42.026821	14.306879	-42.026821	14.306879	-0.318057	155.157556
7.000000	-0.195792	-96.666831	-41.915492	12.902013	-41.915492	12.902013	-0.321557	153.957687
7.050000	-0.198637	-97.270360	-41.805676	11.502988	-41.805676	11.502988	-0.325087	152.755767
7.100000	-0.201520	-97.872792	-41.697351	10.109927	-41.697351	10.109927	-0.328650	151.551679
7.150000	-0.204443	-98.474140	-41.590499	8.722969	-41.590499	8.722969	-0.332246	150.345303
7.200000	-0.207404	-99.074414	-41.485100	7.342264	-41.485100	7.342264	-0.335876	149.136523
7.250000	-0.210405	-99.673625	-41.381133	5.967976	-41.381133	5.967976	-0.339543	147.925221
7.300000	-0.213446	-100.271784	-41.278578	4.600286	-41.278578	4.600286	-0.343247	146.711279
7.350000	-0.216527	-100.868904	-41.177413	3.239392	-41.177413	3.239392	-0.346990	145.494579
7.400000	-0.219649	-101.464994	-41.077619	1.885506	-41.077619	1.885506	-0.350774	144.275004
7.450000	-0.222812	-102.060068	-40.979170	0.538864	-40.979170	0.538864	-0.354601	143.052436
7.500000	-0.226017	-102.654138	-40.882043	-0.800280	-40.882043	-0.800280	-0.358473	141.826755
7.550000	-0.229265	-103.247171	-40.786222	-2.131297	-40.786222	-2.131297	-0.362394	140.597697
7.600000	-0.232555	-103.839225	-40.691670	-3.454211	-40.691670	-3.454211	-0.366364	139.365275
7.650000	-0.235887	-104.430312	-40.598354	-4.768693	-40.598354	-4.768693	-0.370386	138.129368
7.700000	-0.239263	-105.020444	-40.506243	-6.074387	-40.506243	-6.074387	-0.374463	136.889853
7.750000	-0.242682	-105.609634	-40.415300	-7.370911	-40.415300	-7.370911	-0.378596	135.646603
7.800000	-0.246144	-106.197894	-40.325485	-8.657849	-40.325485	-8.657849	-0.382790	134.399491
7.850000	-0.249651	-106.785238	-40.236754	-9.934755	-40.236754	-9.934755	-0.387047	133.148386
7.900000	-0.253202	-107.371679	-40.149058	-11.201149	-40.149058	-11.201149	-0.391371	131.893154
7.950000	-0.256797	-107.957229	-40.062343	-12.456513	-40.062343	-12.456513	-0.395766	130.633656
8.000000	-0.260438	-108.541902	-39.976549	-13.700290	-39.976549	-13.700290	-0.400235	129.369749
8.050000	-0.264124	-109.125711	-39.891609	-14.931885	-39.891609	-14.931885	-0.404783	128.101285
8.100000	-0.267856	-109.708670	-39.807448	-16.150656	-39.807448	-16.150656	-0.409414	126.828108
8.150000	-0.271635	-110.290792	-39.723982	-17.355915	-39.723982	-17.355915	-0.414135	125.550056
8.200000	-0.275460	-110.872090	-39.641119	-18.546926	-39.641119	-18.546926	-0.418950	124.266957
8.250000	-0.279332	-111.452580	-39.558753	-19.722899	-39.558753	-19.722899	-0.423865	122.978629
8.300000	-0.283251	-112.032274	-39.476768	-20.882990	-39.476768	-20.882990	-0.428889	121.684880
8.350000	-0.287221	-112.611142	-39.394990	-22.025236	-39.394990	-22.025236	-0.434035	120.385155
8.400000	-0.291230	-113.189385	-39.313465	-23.153241	-39.313465	-23.153241	-0.439281	119.080719
8.450000	-0.295303	-113.766639	-39.231599	-24.256455	-39.231599	-24.256455	-0.444703	117.768251
8.500000	-0.299418	-114.343268	-39.149573	-25.342415	-39.149573	-25.342415	-0.450253	116.450296
8.550000	-0.303575	-114.919278	-39.067298	-26.410602	-39.067298	-26.410602	-0.455936	115.126726
8.600000	-0.307790	-115.494461	-38.984132	-27.453103	-38.984132	-27.453103	-0.461816	113.795138
8.650000	-0.312050	-116.069038	-38.900208	-28.474915	-38.900208	-28.474915	-0.467862	112.457166
8.700000	-0.316367	-116.642834	-38.814750	-29.468215	-38.814750	-29.468215	-0.474143	111.110448
8.750000	-0.320732	-117.216021	-38.727903	-30.437305	-38.727903	-30.437305	-0.480635	109.756335
8.800000	-0.325155	-117.788474	-38.638684	-31.374653	-38.638684	-31.374653	-0.487418	108.392537
8.850000	-0.329627	-118.360342	-38.547304	-32.284683	-38.547304	-32.284683	-0.494465	107.020377
8.900000	-0.334156	-118.931542	-38.452689	-33.160825	-38.452689	-33.160825	-0.501863	105.637768
8.950000	-0.338739	-119.502145	-38.354670	-34.004316	-38.354670	-34.004316	-0.509623	104.244975
9.000000	-0.343377	-120.072140	-38.252386	-34.811812	-38.252386	-34.811812	-0.517815	102.840761
9.050000	-0.348073	-120.641527	-38.144958	-35.580502	-38.144958	-35.580502	-0.526515	101.423955
9.100000	-0.352825	-121.210362	-38.032034	-36.311259	-38.032034	-36.311259	-0.535764	99.994480
9.150000	-0.357640	-121.778575	-37.911510	-36.996278	-37.911510	-36.996278	-0.545746	98.549160
9.200000	-0.362511	-122.346275	-37.783806	-37.640901	-37.783806	-37.640901	-0.556460	97.089219
9.250000	-0.367450	-122.913359	-37.645443	-38.234136	-37.645443	-38.234136	-0.568233	95.609624
9.300000	-0.372450	-123.479927	-37.496946	-38.782202	-37.496946	-38.782202	-0.581085	94.111599
9.350000	-0.377519	-124.045917	-37.334751	-39.277628	-37.334751	-39.277628	-0.595413	92.590349
9.400000	-0.382656	-124.611359	-37.157642	-39.722026	-37.157642	-39.722026	-0.611454	91.044422
9.450000	-0.387864	-125.176249	-36.963178	-40.115055	-36.963178	-40.115055	-0.629607	89.470709
9.500000	-0.393149	-125.740557	-36.747746	-40.455319	-36.747746	-40.455319	-0.650472	87.864484
9.550000	-0.398516	-126.304241	-36.506359	-40.743177	-36.506359	-40.743177	-0.674938	86.219513
9.600000	-0.403967	-126.867308	-36.236589	-40.985908	-36.236589	-40.985908	-0.703779	84.532556
9.650000	-0.409505	-127.429714	-35.933737	-41.190108	-35.933737	-41.190108	-0.738241	82.797469
9.700000	-0.415143	-127.991353	-35.588709	-41.365598	-35.588709	-41.365598	-0.780559	81.003425
9.750000	-0.420887	-128.552137	-35.194126	-41.532809	-35.194126	-41.532809	-0.833364	79.142247
9.800000	-0.426737	-129.111995	-34.745739	-41.718140	-34.745739	-41.718140	-0.899454	77.209315
9.850000	-0.432709	-129.670670	-34.226757	-41.965600	-34.226757	-41.965600	-0.985073	75.190522
9.900000	-0.438812	-130.227881	-33.622429	-42.343833	-33.622429	-42.343833	-1.098272	73.080888
9.950000	-0.445046	-130.783285	-32.919872	-42.948360	-32.919872	-42.948360	-1.249423	70.889258
10.000000	-0.451408	-131.336300	-32.097453	-43.935463	-32.097453	-43.935463	-1.454938	68.646500
