! freq	dB(S11)	phase(S11)	dB(S12)	phase(S12)	
!     	dB(S21)	phase(S21)	dB(S22)	phase(S22)	
!S-par simulation data
#  GHz  S  DB  R 50
0.000000	-0.000000	0.000000	-331.281438	180.000000	-331.281438	180.000000	-0.000000	0.000000
0.050000	-0.001485	-2.251461	-101.116818	88.585379	-101.116818	88.585379	-0.000684	-1.070467
0.100000	-0.004968	-4.491010	-95.141186	86.852685	-95.141186	86.852685	-0.002303	-2.135736
0.150000	-0.008897	-6.717175	-91.685872	85.204675	-91.685872	85.204675	-0.004147	-3.195267
0.200000	-0.012527	-8.934078	-89.277558	83.599777	-89.277558	83.599777	-0.005864	-4.251121
0.250000	-0.015733	-11.144846	-87.457185	82.036816	-87.457185	82.036816	-0.007384	-5.305028
0.300000	-0.018621	-13.351059	-86.020609	80.522125	-86.020609	80.522125	-0.008756	-6.358034
0.350000	-0.021328	-15.553229	-84.856347	79.062684	-84.856347	79.062684	-0.010044	-7.410618
0.400000	-0.023941	-17.751080	-83.900562	77.669351	-83.900562	77.669351	-0.011292	-8.462923
0.450000	-0.026517	-19.943849	-83.116053	76.358969	-83.116053	76.358969	-0.012529	-9.514940
0.500000	-0.029086	-22.131140	-82.471451	75.143204	-82.471451	75.143204	-0.013770	-10.566620
0.550000	-0.031663	-24.312302	-81.948071	74.040335	-81.948071	74.040335	-0.015023	-11.617873
0.600000	-0.034251	-26.486331	-81.536833	73.080278	-81.536833	73.080278	-0.016289	-12.668566
0.650000	-0.036847	-28.652808	-81.225592	72.287662	-81.225592	72.287662	-0.017568	-13.718603
0.700000	-0.039445	-30.811201	-81.007170	71.696249	-81.007170	71.696249	-0.018857	-14.767879
0.750000	-0.042038	-32.960652	-80.879921	71.359644	-80.879921	71.359644	-0.020154	-15.816256
0.800000	-0.044619	-35.100603	-80.840676	71.339040	-80.840676	71.339040	-0.021454	-16.863624
0.850000	-0.047181	-37.230636	-80.886057	71.709683	-80.886057	71.709683	-0.022758	-17.909893
0.900000	-0.049717	-39.350283	-81.013201	72.572306	-81.013201	72.572306	-0.024062	-18.954974
0.950000	-0.052222	-41.459047	-81.217916	74.061076	-81.217916	74.061076	-0.025366	-19.998776
1.000000	-0.054690	-43.556500	-81.491172	76.346387	-81.491172	76.346387	-0.026669	-21.041224
1.050000	-0.057120	-45.642248	-81.815118	79.638545	-81.815118	79.638545	-0.027972	-22.082250
1.100000	-0.059507	-47.715928	-82.156448	84.174974	-82.156448	84.174974	-0.029274	-23.121795
1.150000	-0.061849	-49.777211	-82.458147	90.171241	-82.458147	90.171241	-0.030576	-24.159807
1.200000	-0.064146	-51.825794	-82.634423	97.709384	-82.634423	97.709384	-0.031877	-25.196240
1.250000	-0.066397	-53.861406	-82.580681	106.568810	-82.580681	106.568810	-0.033179	-26.231054
1.300000	-0.068600	-55.883511	-82.201647	116.103819	-82.201647	116.103819	-0.034481	-27.264176
1.350000	-0.070757	-57.892173	-81.484741	125.360636	-81.484741	125.360636	-0.035784	-28.295609
1.400000	-0.072869	-59.887204	-80.490858	133.543337	-80.490858	133.543337	-0.037087	-29.325324
1.450000	-0.074937	-61.868437	-79.320662	140.248489	-79.320662	140.248489	-0.038390	-30.353294
1.500000	-0.076963	-63.835728	-78.068636	145.442899	-78.068636	145.442899	-0.039693	-31.379493
1.550000	-0.078948	-65.788959	-76.801848	149.299307	-76.801848	149.299307	-0.040997	-32.403898
1.600000	-0.080893	-67.728029	-75.560168	152.054005	-75.560168	152.054005	-0.042300	-33.426485
1.650000	-0.082802	-69.652861	-74.364114	153.932130	-74.364114	153.932130	-0.043603	-34.447234
1.700000	-0.084676	-71.563395	-73.222420	155.121713	-73.222420	155.121713	-0.044906	-35.466121
1.750000	-0.086517	-73.459591	-72.137259	155.771092	-72.137259	155.771092	-0.046209	-36.483127
1.800000	-0.088327	-75.341428	-71.107407	155.994569	-71.107407	155.994569	-0.047511	-37.498230
1.850000	-0.090109	-77.208900	-70.130017	155.879618	-70.130017	155.879618	-0.048813	-38.511410
1.900000	-0.091864	-79.061863	-69.201065	155.490943	-69.201065	155.490943	-0.050114	-39.522626
1.950000	-0.093594	-80.900345	-68.317090	154.881626	-68.317090	154.881626	-0.051415	-40.531858
2.000000	-0.095302	-82.724543	-67.475113	154.094236	-67.475113	154.094236	-0.052716	-41.539108
2.050000	-0.096990	-84.534515	-66.671801	153.159976	-66.671801	153.159976	-0.054017	-42.544356
2.100000	-0.098660	-86.330329	-65.904106	152.103647	-65.904106	152.103647	-0.055319	-43.547585
2.150000	-0.100313	-88.112068	-65.169270	150.945145	-65.169270	150.945145	-0.056621	-44.548775
2.200000	-0.101952	-89.879824	-64.464805	149.700573	-64.464805	149.700573	-0.057924	-45.547909
2.250000	-0.103577	-91.633703	-63.788477	148.383078	-63.788477	148.383078	-0.059228	-46.544970
2.300000	-0.105192	-93.373819	-63.138277	147.003482	-63.138277	147.003482	-0.060534	-47.539940
2.350000	-0.106796	-95.100297	-62.512397	145.570755	-62.512397	145.570755	-0.061842	-48.532804
2.400000	-0.108393	-96.813270	-61.909210	144.092391	-61.909210	144.092391	-0.063153	-49.523545
2.450000	-0.109983	-98.512880	-61.327244	142.574690	-61.327244	142.574690	-0.064466	-50.512148
2.500000	-0.111567	-100.199278	-60.765170	141.022982	-60.765170	141.022982	-0.065784	-51.498598
2.550000	-0.113148	-101.872200	-60.221282	139.440953	-60.221282	139.440953	-0.067105	-52.482810
2.600000	-0.114725	-103.532243	-59.695051	137.833559	-59.695051	137.833559	-0.068432	-53.464841
2.650000	-0.116301	-105.179577	-59.185468	136.204089	-59.185468	136.204089	-0.069763	-54.444678
2.700000	-0.117877	-106.814379	-58.691611	134.555386	-58.691611	134.555386	-0.071101	-55.422309
2.750000	-0.119454	-108.436832	-58.212636	132.889923	-58.212636	132.889923	-0.072444	-56.397723
2.800000	-0.121032	-110.047120	-57.747768	131.209856	-57.747768	131.209856	-0.073795	-57.370909
2.850000	-0.122613	-111.645436	-57.296294	129.517075	-57.296294	129.517075	-0.075154	-58.341857
2.900000	-0.124198	-113.231974	-56.857556	127.813242	-56.857556	127.813242	-0.076521	-59.310559
2.950000	-0.125788	-114.806931	-56.430948	126.099822	-56.430948	126.099822	-0.077896	-60.277006
3.000000	-0.127383	-116.370508	-56.015904	124.378112	-56.015904	124.378112	-0.079281	-61.241191
3.050000	-0.128984	-117.922910	-55.611905	122.649266	-55.611905	122.649266	-0.080676	-62.203107
3.100000	-0.130593	-119.464342	-55.218463	120.914308	-55.218463	120.914308	-0.082082	-63.162749
3.150000	-0.132210	-120.995013	-54.835127	119.174154	-54.835127	119.174154	-0.083498	-64.120112
3.200000	-0.133835	-122.515132	-54.461474	117.429625	-54.461474	117.429625	-0.084927	-65.075192
3.250000	-0.135470	-124.024910	-54.097110	115.681457	-54.097110	115.681457	-0.086368	-66.027985
3.300000	-0.137115	-125.524560	-53.741664	113.930312	-53.741664	113.930312	-0.087822	-66.978490
3.350000	-0.138771	-127.014294	-53.394789	112.176788	-53.394789	112.176788	-0.089290	-67.926705
3.400000	-0.140439	-128.494327	-53.056161	110.421424	-53.056161	110.421424	-0.090772	-68.872629
3.450000	-0.142119	-129.964873	-52.725472	108.664708	-52.725472	108.664708	-0.092268	-69.816263
3.500000	-0.143811	-131.426145	-52.402433	106.907083	-52.402433	106.907083	-0.093780	-70.757609
3.550000	-0.145517	-132.878359	-52.086772	105.148952	-52.086772	105.148952	-0.095308	-71.696667
3.600000	-0.147237	-134.321729	-51.778232	103.390680	-51.778232	103.390680	-0.096852	-72.633442
3.650000	-0.148972	-135.756468	-51.476568	101.632600	-51.476568	101.632600	-0.098414	-73.567937
3.700000	-0.150722	-137.182791	-51.181550	99.875015	-51.181550	99.875015	-0.099993	-74.500156
3.750000	-0.152487	-138.600909	-50.892959	98.118203	-50.892959	98.118203	-0.101590	-75.430106
3.800000	-0.154269	-140.010697	-50.610458	96.362471	-50.610458	96.362471	-0.103207	-76.357695
3.850000	-0.156068	-141.412723	-50.333997	94.608014	-50.333997	94.608014	-0.104843	-77.283029
3.900000	-0.157884	-142.807196	-50.063384	92.855038	-50.063384	92.855038	-0.106499	-78.206116
3.950000	-0.159718	-144.194326	-49.798440	91.103735	-49.798440	91.103735	-0.108175	-79.126965
4.000000	-0.161569	-145.574319	-49.538994	89.354277	-49.538994	89.354277	-0.109872	-80.045586
4.050000	-0.163440	-146.947383	-49.284881	87.606822	-49.284881	87.606822	-0.111590	-80.961990
4.100000	-0.165329	-148.313721	-49.035944	85.861514	-49.035944	85.861514	-0.113331	-81.876189
4.150000	-0.167237	-149.673537	-48.792035	84.118484	-48.792035	84.118484	-0.115094	-82.788194
4.200000	-0.169165	-151.027034	-48.553011	82.377851	-48.553011	82.377851	-0.116880	-83.698020
4.250000	-0.171112	-152.374410	-48.318734	80.639721	-48.318734	80.639721	-0.118689	-84.605680
4.300000	-0.173080	-153.715866	-48.089074	78.904193	-48.089074	78.904193	-0.120523	-85.511189
4.350000	-0.175069	-155.051597	-47.863906	77.171353	-47.863906	77.171353	-0.122380	-86.414562
4.400000	-0.177078	-156.381800	-47.643109	75.441279	-47.643109	75.441279	-0.124263	-87.315816
4.450000	-0.179108	-157.706667	-47.426568	73.714041	-47.426568	73.714041	-0.126171	-88.214968
4.500000	-0.181160	-159.026391	-47.214172	71.989700	-47.214172	71.989700	-0.128106	-89.112035
4.550000	-0.183233	-160.341162	-47.005816	70.268311	-47.005816	70.268311	-0.130066	-90.007037
4.600000	-0.185328	-161.651168	-46.801397	68.549922	-46.801397	68.549922	-0.132054	-90.899993
4.650000	-0.187445	-162.956595	-46.600818	66.834572	-46.600818	66.834572	-0.134069	-91.790921
4.700000	-0.189584	-164.257629	-46.403985	65.122297	-46.403985	65.122297	-0.136112	-92.679844
4.750000	-0.191745	-165.554451	-46.210807	63.413126	-46.210807	63.413126	-0.138183	-93.566783
4.800000	-0.193928	-166.847244	-46.021198	61.707084	-46.021198	61.707084	-0.140283	-94.451759
4.850000	-0.196134	-168.136186	-45.835075	60.004188	-45.835075	60.004188	-0.142412	-95.334796
4.900000	-0.198362	-169.421454	-45.652357	58.304455	-45.652357	58.304455	-0.144571	-96.215916
4.950000	-0.200612	-170.703225	-45.472969	56.607894	-45.472969	56.607894	-0.146760	-97.095145
5.000000	-0.202884	-171.981671	-45.296835	54.914513	-45.296835	54.914513	-0.148979	-97.972506
5.050000	-0.205180	-173.256836	-45.123875	53.224454	-45.123875	53.224454	-0.151232	-98.847946
5.100000	-0.207499	-174.529034	-44.954035	51.537580	-44.954035	51.537580	-0.153515	-99.721573
5.150000	-0.209839	-175.798433	-44.787252	49.853887	-44.787252	49.853887	-0.155831	-100.593413
5.200000	-0.212202	-177.065199	-44.623461	48.173372	-44.623461	48.173372	-0.158179	-101.463493
5.250000	-0.214586	-178.329497	-44.462602	46.496028	-44.462602	46.496028	-0.160560	-102.331842
5.300000	-0.216993	-179.591489	-44.304619	44.821847	-44.304619	44.821847	-0.162975	-103.198487
5.350000	-0.219421	179.148665	-44.149454	43.150822	-44.149454	43.150822	-0.165423	-104.063458
5.400000	-0.221871	177.890804	-43.997056	41.482941	-43.997056	41.482941	-0.167906	-104.926785
5.450000	-0.224341	176.634772	-43.847373	39.818195	-43.847373	39.818195	-0.170423	-105.788498
5.500000	-0.226833	175.380414	-43.700357	38.156574	-43.700357	38.156574	-0.172975	-106.648626
5.550000	-0.229345	174.127575	-43.555962	36.498068	-43.555962	36.498068	-0.175563	-107.507203
5.600000	-0.231878	172.876103	-43.414143	34.842666	-43.414143	34.842666	-0.178186	-108.364259
5.650000	-0.234431	171.625848	-43.274858	33.190362	-43.274858	33.190362	-0.180846	-109.219827
5.700000	-0.237003	170.376663	-43.138067	31.541146	-43.138067	31.541146	-0.183543	-110.073940
5.750000	-0.239595	169.128398	-43.003730	29.895014	-43.003730	29.895014	-0.186277	-110.926631
5.800000	-0.242205	167.880911	-42.871812	28.251962	-42.871812	28.251962	-0.189048	-111.777934
5.850000	-0.244834	166.634056	-42.742278	26.611988	-42.742278	26.611988	-0.191858	-112.627884
5.900000	-0.247481	165.387693	-42.615093	24.975094	-42.615093	24.975094	-0.194706	-113.476514
5.950000	-0.250146	164.141681	-42.490227	23.341282	-42.490227	23.341282	-0.197592	-114.323862
6.000000	-0.252827	162.895882	-42.367650	21.710561	-42.367650	21.710561	-0.200518	-115.169962
6.050000	-0.255525	161.650159	-42.247334	20.082941	-42.247334	20.082941	-0.203484	-116.014851
6.100000	-0.258239	160.404378	-42.129250	18.458436	-42.129250	18.458436	-0.206490	-116.858565
6.150000	-0.260968	159.158405	-42.013374	16.837066	-42.013374	16.837066	-0.209535	-117.701142
6.200000	-0.263713	157.912108	-41.899682	15.218852	-41.899682	15.218852	-0.212622	-118.542620
6.250000	-0.266471	156.665358	-41.788150	13.603823	-41.788150	13.603823	-0.215750	-119.383036
6.300000	-0.269243	155.417996	-41.678791	11.992152	-41.678791	11.992152	-0.218921	-120.222388
6.350000	-0.272029	154.169915	-41.571553	10.383740	-41.571553	10.383740	-0.222135	-121.060759
6.400000	-0.274826	152.920991	-41.466417	8.778631	-41.466417	8.778631	-0.225390	-121.898189
6.450000	-0.277636	151.671101	-41.363364	7.176874	-41.363364	7.176874	-0.228689	-122.734719
6.500000	-0.280456	150.420124	-41.262377	5.578524	-41.262377	5.578524	-0.232030	-123.570389
6.550000	-0.283287	149.167942	-41.163439	3.983643	-41.163439	3.983643	-0.235415	-124.405240
6.600000	-0.286127	147.914438	-41.066535	2.392298	-41.066535	2.392298	-0.238843	-125.239312
6.650000	-0.288976	146.659495	-40.971650	0.804564	-40.971650	0.804564	-0.242316	-126.072648
6.700000	-0.291833	145.403001	-40.878769	-0.779480	-40.878769	-0.779480	-0.245833	-126.905290
6.750000	-0.294697	144.144844	-40.787879	-2.359747	-40.787879	-2.359747	-0.249395	-127.737279
6.800000	-0.297569	142.884915	-40.698968	-3.936143	-40.698968	-3.936143	-0.253002	-128.568660
6.850000	-0.300446	141.623105	-40.612021	-5.508567	-40.612021	-5.508567	-0.256655	-129.399475
6.900000	-0.303329	140.359310	-40.527029	-7.076914	-40.527029	-7.076914	-0.260354	-130.229767
6.950000	-0.306216	139.093425	-40.443979	-8.641069	-40.443979	-8.641069	-0.264098	-131.059582
7.000000	-0.309108	137.825349	-40.362859	-10.200913	-40.362859	-10.200913	-0.267890	-131.888963
7.050000	-0.312002	136.554983	-40.283660	-11.756317	-40.283660	-11.756317	-0.271727	-132.717956
7.100000	-0.314899	135.282230	-40.206370	-13.307149	-40.206370	-13.307149	-0.275612	-133.546605
7.150000	-0.317798	134.006993	-40.130979	-14.853269	-40.130979	-14.853269	-0.279545	-134.374957
7.200000	-0.320699	132.729182	-40.057477	-16.394530	-40.057477	-16.394530	-0.283525	-135.203057
7.250000	-0.323599	131.448704	-39.985854	-17.930779	-39.985854	-17.930779	-0.287553	-136.030952
7.300000	-0.326500	130.165473	-39.916099	-19.461857	-39.916099	-19.461857	-0.291629	-136.858689
7.350000	-0.329400	128.879401	-39.848201	-20.987600	-39.848201	-20.987600	-0.295753	-137.686315
7.400000	-0.332299	127.590407	-39.782151	-22.507838	-39.782151	-22.507838	-0.299927	-138.513877
7.450000	-0.335196	126.298408	-39.717939	-24.022395	-39.717939	-24.022395	-0.304149	-139.341424
7.500000	-0.338091	125.003328	-39.655553	-25.531089	-39.655553	-25.531089	-0.308421	-140.169004
7.550000	-0.340983	123.704950	-39.595043	-27.033463	-39.595043	-27.033463	-0.312744	-140.996672
7.600000	-0.343871	122.403335	-39.536340	-28.529580	-39.536340	-28.529580	-0.317116	-141.824475
7.650000	-0.346756	121.098414	-39.479431	-30.019247	-39.479431	-30.019247	-0.321539	-142.652463
7.700000	-0.349637	119.790121	-39.424305	-31.502263	-39.424305	-31.502263	-0.326011	-143.480686
7.750000	-0.352513	118.478391	-39.370950	-32.978427	-39.370950	-32.978427	-0.330534	-144.309195
7.800000	-0.355385	117.163164	-39.319353	-34.447532	-39.319353	-34.447532	-0.335107	-145.138041
7.850000	-0.358252	115.844382	-39.269502	-35.909372	-39.269502	-35.909372	-0.339731	-145.967274
7.900000	-0.361114	114.521992	-39.221384	-37.363735	-39.221384	-37.363735	-0.344406	-146.796945
7.950000	-0.363971	113.195941	-39.174985	-38.810411	-39.174985	-38.810411	-0.349131	-147.627108
8.000000	-0.366823	111.866183	-39.130292	-40.249185	-39.130292	-40.249185	-0.353907	-148.457815
8.050000	-0.369670	110.532672	-39.087291	-41.679844	-39.087291	-41.679844	-0.358735	-149.289118
8.100000	-0.372512	109.195368	-39.045966	-43.102172	-39.045966	-43.102172	-0.363613	-150.121069
8.150000	-0.375349	107.854234	-39.006304	-44.515957	-39.006304	-44.515957	-0.368543	-150.953724
8.200000	-0.378181	106.509235	-38.968289	-45.920984	-38.968289	-45.920984	-0.373524	-151.787136
8.250000	-0.381009	105.160343	-38.931906	-47.317040	-38.931906	-47.317040	-0.378557	-152.621358
8.300000	-0.383834	103.807531	-38.897139	-48.703913	-38.897139	-48.703913	-0.383641	-153.456447
8.350000	-0.386655	102.450777	-38.863971	-50.081396	-38.863971	-50.081396	-0.388776	-154.292456
8.400000	-0.389473	101.090062	-38.832388	-51.449281	-38.832388	-51.449281	-0.393962	-155.129442
8.450000	-0.392289	99.725374	-38.802371	-52.807364	-38.802371	-52.807364	-0.399200	-155.967461
8.500000	-0.395104	98.356702	-38.773905	-54.155444	-38.773905	-54.155444	-0.404490	-156.806568
8.550000	-0.397918	96.984041	-38.746972	-55.493326	-38.746972	-55.493326	-0.409830	-157.646820
8.600000	-0.400733	95.607389	-38.721555	-56.820817	-38.721555	-56.820817	-0.415222	-158.488275
8.650000	-0.403549	94.226750	-38.697638	-58.137730	-38.697638	-58.137730	-0.420664	-159.330991
8.700000	-0.406368	92.842132	-38.675203	-59.443882	-38.675203	-59.443882	-0.426158	-160.175024
8.750000	-0.409192	91.453545	-38.654232	-60.739098	-38.654232	-60.739098	-0.431702	-161.020433
8.800000	-0.412021	90.060838	-38.634768	-62.022715	-38.634768	-62.022715	-0.437299	-161.867343
8.850000	-0.414857	88.664204	-38.616734	-63.295046	-38.616734	-63.295046	-0.442946	-162.715752
8.900000	-0.417701	87.263670	-38.600111	-64.555936	-38.600111	-64.555936	-0.448643	-163.565720
8.950000	-0.420557	85.859269	-38.584883	-65.805234	-38.584883	-65.805234	-0.454389	-164.417307
9.000000	-0.423424	84.451037	-38.571031	-67.042800	-38.571031	-67.042800	-0.460186	-165.270574
9.050000	-0.426306	83.039016	-38.558540	-68.268500	-38.558540	-68.268500	-0.466031	-166.125581
9.100000	-0.429204	81.623252	-38.547393	-69.482209	-38.547393	-69.482209	-0.471925	-166.982390
9.150000	-0.432121	80.203797	-38.537572	-70.683809	-38.537572	-70.683809	-0.477868	-167.841061
9.200000	-0.435059	78.780709	-38.529062	-71.873193	-38.529062	-71.873193	-0.483858	-168.701658
9.250000	-0.438020	77.354048	-38.521847	-73.050262	-38.521847	-73.050262	-0.489897	-169.564241
9.300000	-0.441007	75.923882	-38.515910	-74.214926	-38.515910	-74.214926	-0.495982	-170.428875
9.350000	-0.444023	74.490283	-38.511237	-75.367103	-38.511237	-75.367103	-0.502113	-171.295622
9.400000	-0.447070	73.053328	-38.507812	-76.506724	-38.507812	-76.506724	-0.508290	-172.164545
9.450000	-0.450151	71.613100	-38.505620	-77.633727	-38.505620	-77.633727	-0.514513	-173.035708
9.500000	-0.453270	70.169686	-38.504647	-78.748060	-38.504647	-78.748060	-0.520781	-173.909176
9.550000	-0.456429	68.723178	-38.504878	-79.849683	-38.504878	-79.849683	-0.527092	-174.785013
9.600000	-0.459632	67.273675	-38.506300	-80.938563	-38.506300	-80.938563	-0.533446	-175.663285
9.650000	-0.462882	65.821280	-38.508899	-82.014680	-38.508899	-82.014680	-0.539843	-176.544055
9.700000	-0.466182	64.366100	-38.512662	-83.078022	-38.512662	-83.078022	-0.546282	-177.427391
9.750000	-0.469536	62.908248	-38.517575	-84.128588	-38.517575	-84.128588	-0.552762	-178.313358
9.800000	-0.472948	61.447842	-38.523627	-85.166387	-38.523627	-85.166387	-0.559281	-179.202022
9.850000	-0.476421	59.985005	-38.530805	-86.191438	-38.530805	-86.191438	-0.565839	179.906551
9.900000	-0.479959	58.519864	-38.539097	-87.203771	-38.539097	-87.203771	-0.572435	179.012292
9.950000	-0.483566	57.052552	-38.548491	-88.203423	-38.548491	-88.203423	-0.579068	178.115136
10.000000	-0.487246	55.583205	-38.558976	-89.190444	-38.558976	-89.190444	-0.585736	177.215014
