! freq	dB(S11)	phase(S11)	dB(S12)	phase(S12)	
!     	dB(S21)	phase(S21)	dB(S22)	phase(S22)	
!S-par simulation data
#  GHz  S  DB  R 50
0.000000	-0.000000	0.000000	-324.672693	0.000000	-324.672693	0.000000	-0.000000	0.000000
0.050000	-0.002375	-1.049024	-105.082915	89.081074	-105.082915	89.081074	-0.002165	-1.041608
0.100000	-0.003071	-2.089648	-99.097906	88.100394	-99.097906	88.100394	-0.002922	-2.088499
0.150000	-0.003875	-3.131014	-95.624455	87.087744	-95.624455	87.087744	-0.003931	-3.132936
0.200000	-0.004931	-4.171664	-93.189132	86.080341	-93.189132	86.080341	-0.005242	-4.175119
0.250000	-0.006202	-5.211144	-91.324858	85.093404	-91.324858	85.093404	-0.006764	-5.215164
0.300000	-0.007671	-6.249038	-89.829421	84.136554	-89.829421	84.136554	-0.008441	-6.252813
0.350000	-0.009299	-7.285055	-88.593863	83.216444	-88.593863	83.216444	-0.010198	-7.288006
0.400000	-0.011039	-8.318938	-87.553917	82.339952	-87.553917	82.339952	-0.011962	-8.320761
0.450000	-0.012834	-9.350300	-86.672241	81.519200	-86.672241	81.519200	-0.013657	-9.351044
0.500000	-0.014607	-10.379299	-85.915677	80.757197	-85.915677	80.757197	-0.015235	-10.379362
0.550000	-0.016288	-11.405996	-85.264283	80.062603	-85.264283	80.062603	-0.016657	-11.406034
0.600000	-0.017801	-12.430620	-84.703508	79.445342	-84.703508	79.445342	-0.017907	-12.431422
0.650000	-0.019088	-13.453607	-84.222463	78.916864	-84.222463	78.916864	-0.018981	-13.455902
0.700000	-0.020115	-14.475583	-83.812828	78.490443	-83.812828	78.490443	-0.019900	-14.479823
0.750000	-0.020890	-15.497283	-83.471092	78.189911	-83.471092	78.189911	-0.020695	-15.503461
0.800000	-0.021505	-16.519352	-83.191710	78.035879	-83.191710	78.035879	-0.021424	-16.527000
0.850000	-0.022089	-17.541982	-82.969099	78.049653	-82.969099	78.049653	-0.022153	-17.550445
0.900000	-0.022744	-18.564923	-82.796104	78.244111	-82.796104	78.244111	-0.022929	-18.573672
0.950000	-0.023543	-19.587727	-82.672086	78.660463	-82.672086	78.660463	-0.023794	-19.596438
1.000000	-0.024516	-20.609817	-82.593475	79.335989	-82.593475	79.335989	-0.024771	-20.618437
1.050000	-0.025654	-21.630684	-82.556205	80.314152	-82.556205	80.314152	-0.025867	-21.639355
1.100000	-0.026926	-22.649970	-82.555214	81.644886	-82.555214	81.644886	-0.027075	-22.658912
1.150000	-0.028295	-23.667465	-82.583811	83.384179	-82.583811	83.384179	-0.028378	-23.676888
1.200000	-0.029726	-24.683068	-82.632894	85.592271	-82.632894	85.592271	-0.029754	-24.693128
1.250000	-0.031193	-25.696751	-82.690051	88.329492	-82.690051	88.329492	-0.031181	-25.707539
1.300000	-0.032674	-26.708439	-82.737284	91.675089	-82.737284	91.675089	-0.032640	-26.719990
1.350000	-0.034155	-27.718241	-82.752340	95.633293	-82.752340	95.633293	-0.034112	-27.730546
1.400000	-0.035626	-28.726185	-82.709259	100.189485	-82.709259	100.189485	-0.035585	-28.739214
1.450000	-0.037083	-29.732295	-82.580465	105.268844	-82.580465	105.268844	-0.037051	-29.746005
1.500000	-0.038521	-30.736589	-82.341204	110.726829	-82.341204	110.726829	-0.038503	-30.750934
1.550000	-0.039939	-31.739080	-81.974993	116.358299	-81.974993	116.358299	-0.039937	-31.754016
1.600000	-0.041338	-32.739773	-81.477894	121.928037	-81.477894	121.928037	-0.041352	-32.755259
1.650000	-0.042717	-33.738667	-80.859399	127.212898	-80.859399	127.212898	-0.042747	-33.754670
1.700000	-0.044078	-34.735757	-80.139455	132.038265	-80.139455	132.038265	-0.044123	-34.752250
1.750000	-0.045422	-35.731034	-79.343292	136.295996	-79.343292	136.295996	-0.045480	-35.747994
1.800000	-0.046751	-36.724486	-78.496395	139.942518	-78.496395	139.942518	-0.046820	-36.741896
1.850000	-0.048066	-37.716096	-77.621142	142.984346	-77.621142	142.984346	-0.048144	-37.733943
1.900000	-0.049369	-38.705848	-76.735350	145.459998	-76.735350	145.459998	-0.049454	-38.724122
1.950000	-0.050661	-39.693721	-75.852189	147.424290	-75.852189	147.424290	-0.050752	-39.712417
2.000000	-0.051945	-40.679696	-74.980820	148.937231	-74.980820	148.937231	-0.052039	-40.698808
2.050000	-0.053222	-41.663752	-74.127257	150.057322	-74.127257	150.057322	-0.053319	-41.683278
2.100000	-0.054494	-42.645866	-73.295185	150.838124	-73.295185	150.838124	-0.054591	-42.665804
2.150000	-0.055761	-43.626017	-72.486640	151.326914	-72.486640	151.326914	-0.055858	-43.646366
2.200000	-0.057025	-44.604182	-71.702519	151.564522	-71.702519	151.564522	-0.057122	-44.624942
2.250000	-0.058287	-45.580340	-70.942966	151.585768	-70.942966	151.585768	-0.058383	-45.601511
2.300000	-0.059549	-46.554469	-70.207628	151.420140	-70.207628	151.420140	-0.059644	-46.576051
2.350000	-0.060812	-47.526548	-69.495848	151.092528	-69.495848	151.092528	-0.060904	-47.548541
2.400000	-0.062076	-48.496555	-68.806784	150.623928	-68.806784	150.623928	-0.062166	-48.518960
2.450000	-0.063343	-49.464472	-68.139497	150.032062	-68.139497	150.032062	-0.063431	-49.487288
2.500000	-0.064614	-50.430278	-67.493007	149.331916	-67.493007	149.331916	-0.064699	-50.453506
2.550000	-0.065889	-51.393863	-66.865243	148.532540	-66.865243	148.532540	-0.065972	-51.417500
2.600000	-0.067170	-52.355299	-66.256468	147.649194	-66.256468	147.649194	-0.067250	-52.379346
2.650000	-0.068457	-53.314571	-65.665730	146.690882	-65.665730	146.690882	-0.068535	-53.339026
2.700000	-0.069750	-54.271663	-65.092120	145.665304	-65.092120	145.665304	-0.069826	-54.296525
2.750000	-0.071051	-55.226561	-64.534778	144.579055	-64.534778	144.579055	-0.071126	-55.251827
2.800000	-0.072361	-56.179249	-63.992896	143.437790	-63.992896	143.437790	-0.072433	-56.204919
2.850000	-0.073679	-57.129717	-63.465710	142.246357	-63.465710	142.246357	-0.073749	-57.155789
2.900000	-0.075006	-58.077953	-62.952509	141.008911	-62.952509	141.008911	-0.075075	-58.104423
2.950000	-0.076344	-59.023947	-62.452620	139.729002	-62.452620	139.729002	-0.076412	-59.050813
3.000000	-0.077691	-59.967688	-61.965418	138.409651	-61.965418	138.409651	-0.077759	-59.994948
3.050000	-0.079050	-60.909170	-61.490314	137.053408	-61.490314	137.053408	-0.079117	-60.936821
3.100000	-0.080421	-61.848386	-61.026756	135.662400	-61.026756	135.662400	-0.080486	-61.876424
3.150000	-0.081804	-62.785330	-60.574225	134.238370	-60.574225	134.238370	-0.081869	-62.813753
3.200000	-0.083199	-63.719998	-60.132234	132.782704	-60.132234	132.782704	-0.083263	-63.748803
3.250000	-0.084607	-64.652387	-59.700325	131.296451	-59.700325	131.296451	-0.084671	-64.681572
3.300000	-0.086028	-65.582497	-59.278064	129.780334	-59.278064	129.780334	-0.086093	-65.612057
3.350000	-0.087465	-66.510194	-58.864438	128.233049	-58.864438	128.233049	-0.087529	-66.540126
3.400000	-0.088913	-67.436041	-58.461585	126.661945	-58.461585	126.661945	-0.088978	-67.466344
3.450000	-0.090381	-68.358899	-58.064107	125.051854	-58.064107	125.051854	-0.090446	-68.389567
3.500000	-0.091862	-69.279829	-57.676258	123.415744	-57.676258	123.415744	-0.091927	-69.310861
3.550000	-0.093356	-70.198834	-57.297530	121.753110	-57.297530	121.753110	-0.093422	-70.230226
3.600000	-0.094869	-71.115224	-56.924822	120.052760	-56.924822	120.052760	-0.094936	-71.146973
3.650000	-0.096401	-72.029190	-56.558574	118.314164	-56.558574	118.314164	-0.096468	-72.061293
3.700000	-0.097947	-72.941264	-56.200381	116.543335	-56.200381	116.543335	-0.098015	-72.973718
3.750000	-0.099509	-73.851452	-55.849841	114.739026	-55.849841	114.739026	-0.099577	-73.884256
3.800000	-0.101096	-74.758594	-55.502379	112.872118	-55.502379	112.872118	-0.101165	-74.791743
3.850000	-0.102700	-75.663905	-55.161889	110.960371	-55.161889	110.960371	-0.102770	-75.697397
3.900000	-0.104320	-76.567400	-54.827980	109.000480	-54.827980	109.000480	-0.104391	-76.601234
3.950000	-0.105963	-77.468618	-54.498515	106.971953	-54.498515	106.971953	-0.106035	-77.502790
4.000000	-0.107631	-78.367469	-54.172319	104.852597	-54.172319	104.852597	-0.107704	-78.401978
4.050000	-0.109318	-79.264639	-53.851240	102.653540	-53.851240	102.653540	-0.109392	-79.299483
4.100000	-0.111026	-80.160156	-53.534883	100.367492	-53.534883	100.367492	-0.111101	-80.195334
4.150000	-0.112768	-81.053264	-53.218175	97.910204	-53.218175	97.910204	-0.112844	-81.088774
4.200000	-0.114538	-81.944837	-52.902946	95.289117	-52.902946	95.289117	-0.114616	-81.980678
4.250000	-0.116337	-82.835105	-52.588863	92.489899	-52.588863	92.489899	-0.116416	-82.871279
4.300000	-0.118173	-83.723982	-52.272620	89.440485	-52.272620	89.440485	-0.118253	-83.760487
4.350000	-0.120072	-84.611693	-51.944137	85.935679	-51.944137	85.935679	-0.120154	-84.648533
4.400000	-0.122036	-85.499148	-51.603228	81.971950	-51.603228	81.971950	-0.122120	-85.536324
4.450000	-0.124072	-86.386606	-51.248545	77.504380	-51.248545	77.504380	-0.124158	-86.424124
4.500000	-0.126297	-87.275726	-50.838911	71.850753	-50.838911	71.850753	-0.126386	-87.313597
4.550000	-0.128804	-88.168343	-50.351410	64.739279	-50.351410	64.739279	-0.128897	-88.206582
4.600000	-0.131980	-89.069268	-49.686295	54.972243	-49.686295	54.972243	-0.132080	-89.107905
4.650000	-0.136998	-89.988752	-48.615783	40.413889	-48.615783	40.413889	-0.137111	-90.027851
4.700000	-0.148667	-90.950169	-46.570367	16.422722	-46.570367	16.422722	-0.148816	-90.989864
4.750000	-0.198292	-91.940368	-42.256584	-32.090337	-42.256584	-32.090337	-0.198608	-91.980706
4.800000	-0.229398	-92.090536	-40.955069	-130.197057	-40.955069	-130.197057	-0.229775	-92.128650
4.850000	-0.166076	-92.947909	-45.110367	172.686984	-45.110367	172.686984	-0.166233	-92.986518
4.900000	-0.153007	-93.900705	-46.990142	146.213583	-46.990142	146.213583	-0.153123	-93.939962
4.950000	-0.150183	-94.809454	-47.708035	130.732756	-47.708035	130.732756	-0.150287	-94.849188
5.000000	-0.150115	-95.695449	-47.964248	120.392197	-47.964248	120.392197	-0.150214	-95.735582
5.050000	-0.151141	-96.568242	-48.006309	112.972542	-48.006309	112.972542	-0.151239	-96.608733
5.100000	-0.152653	-97.433090	-47.949551	107.199315	-47.949551	107.199315	-0.152751	-97.473917
5.150000	-0.154440	-98.292284	-47.839276	102.483866	-47.839276	102.483866	-0.154538	-98.333433
5.200000	-0.156401	-99.147120	-47.698512	98.482827	-47.698512	98.482827	-0.156499	-99.188582
5.250000	-0.158482	-99.998387	-47.539749	94.984645	-47.539749	94.984645	-0.158581	-100.040155
5.300000	-0.160654	-100.846592	-47.370164	91.852781	-47.370164	91.852781	-0.160753	-100.888661
5.350000	-0.162899	-101.692081	-47.194085	88.995571	-47.194085	88.995571	-0.162999	-101.734447
5.400000	-0.165206	-102.535100	-47.014230	86.349388	-47.014230	86.349388	-0.165307	-102.577760
5.450000	-0.167585	-103.375101	-46.830861	83.911047	-46.830861	83.911047	-0.167687	-103.418051
5.500000	-0.169991	-104.213959	-46.648759	81.546906	-46.648759	81.546906	-0.170094	-104.257198
5.550000	-0.172454	-105.050386	-46.466036	79.304238	-46.466036	79.304238	-0.172557	-105.093912
5.600000	-0.174957	-105.885075	-46.284030	77.148334	-46.284030	77.148334	-0.175061	-105.928887
5.650000	-0.177505	-106.717856	-46.102983	75.063444	-46.102983	75.063444	-0.177610	-106.761952
5.700000	-0.180098	-107.548727	-45.922915	73.049567	-45.922915	73.049567	-0.180204	-107.593107
5.750000	-0.182728	-108.378119	-45.744660	71.078065	-45.744660	71.078065	-0.182835	-108.422781
5.800000	-0.185409	-109.205438	-45.567463	69.165885	-45.567463	69.165885	-0.185517	-109.250383
5.850000	-0.188120	-110.031648	-45.392579	67.278979	-45.392579	67.278979	-0.188228	-110.076874
5.900000	-0.190887	-110.855639	-45.218739	65.442619	-45.218739	65.442619	-0.190996	-110.901146
5.950000	-0.193677	-111.678847	-45.047520	63.620887	-45.047520	63.620887	-0.193787	-111.724634
6.000000	-0.196532	-112.499707	-44.877287	61.843042	-44.877287	61.843042	-0.196642	-112.545774
6.050000	-0.199402	-113.320075	-44.709867	60.072957	-44.709867	60.072957	-0.199513	-113.366423
6.100000	-0.202345	-114.137989	-44.543360	58.341675	-44.543360	58.341675	-0.202456	-114.184617
6.150000	-0.205296	-114.955672	-44.379783	56.613567	-44.379783	56.613567	-0.205408	-115.002580
6.200000	-0.208327	-115.770816	-44.217045	54.920378	-44.217045	54.920378	-0.208440	-115.818004
6.250000	-0.211360	-116.585961	-44.057300	53.227190	-44.057300	53.227190	-0.211473	-116.633429
6.300000	-0.214482	-117.398510	-43.898330	51.565980	-43.898330	51.565980	-0.214595	-117.446259
6.350000	-0.217605	-118.211059	-43.742217	49.904770	-43.742217	49.904770	-0.217719	-118.259089
6.400000	-0.220811	-119.021387	-43.587146	48.268777	-43.587146	48.268777	-0.220926	-119.069699
6.450000	-0.224026	-119.831514	-43.434641	46.635077	-43.434641	46.635077	-0.224141	-119.880107
6.500000	-0.227319	-120.639765	-43.283387	45.021565	-43.283387	45.021565	-0.227434	-120.688641
6.550000	-0.230627	-121.447641	-43.134452	43.412091	-43.134452	43.412091	-0.230743	-121.496800
6.600000	-0.234007	-122.253961	-42.986933	41.818991	-42.986933	41.818991	-0.234123	-122.303403
6.650000	-0.237411	-123.059763	-42.841520	40.231348	-42.841520	40.231348	-0.237527	-123.109489
6.700000	-0.240879	-123.864299	-42.697654	38.657122	-42.697654	38.657122	-0.240996	-123.914309
6.750000	-0.244380	-124.668202	-42.555714	37.089603	-42.555714	37.089603	-0.244497	-124.718498
6.800000	-0.247938	-125.471104	-42.415416	35.533153	-42.415416	35.533153	-0.248056	-125.521685
6.850000	-0.251538	-126.273290	-42.276900	33.984608	-42.276900	33.984608	-0.251656	-126.324157
6.900000	-0.255189	-127.074709	-42.140093	32.445212	-42.140093	32.445212	-0.255307	-127.125864
6.950000	-0.258890	-127.875362	-42.004951	30.914965	-42.004951	30.914965	-0.259009	-127.926804
7.000000	-0.262634	-128.675455	-41.871562	29.392240	-41.871562	29.392240	-0.262754	-128.727185
7.050000	-0.266438	-129.474764	-41.739751	27.880046	-41.739751	27.880046	-0.266559	-129.526783
7.100000	-0.270278	-130.273689	-41.609710	26.373927	-41.609710	26.373927	-0.270399	-130.325997
7.150000	-0.274188	-131.071848	-41.481190	24.879960	-41.481190	24.879960	-0.274310	-131.124445
7.200000	-0.278126	-131.869770	-41.354434	23.390702	-41.354434	23.390702	-0.278248	-131.922656
7.250000	-0.282145	-132.666979	-41.229173	21.915572	-41.229173	21.915572	-0.282268	-132.720155
7.300000	-0.286183	-133.464064	-41.105646	20.443765	-41.105646	20.443765	-0.286307	-133.517530
7.350000	-0.290313	-134.260530	-40.983617	18.988575	-40.983617	18.988575	-0.290438	-134.314287
7.400000	-0.294455	-135.056953	-40.863268	17.535186	-40.863268	17.535186	-0.294580	-135.110999
7.450000	-0.298701	-135.852892	-40.744451	16.101622	-40.744451	16.101622	-0.298827	-135.907228
7.500000	-0.302949	-136.648832	-40.627237	14.668058	-40.627237	14.668058	-0.303075	-136.703457
7.550000	-0.307315	-137.444470	-40.511619	13.258545	-40.511619	13.258545	-0.307443	-137.499383
7.600000	-0.311684	-138.240108	-40.397519	11.849032	-40.397519	11.849032	-0.311812	-138.295310
7.650000	-0.316166	-139.035689	-40.285075	10.464681	-40.285075	10.464681	-0.316295	-139.091177
7.700000	-0.320661	-139.831265	-40.174083	9.082617	-40.174083	9.082617	-0.320791	-139.887039
7.750000	-0.325267	-140.627001	-40.064779	7.727372	-40.064779	7.727372	-0.325398	-140.683059
7.800000	-0.329897	-141.422769	-39.956889	6.377491	-39.956889	6.377491	-0.330029	-141.479110
7.850000	-0.334634	-142.218890	-39.850683	5.056726	-39.850683	5.056726	-0.334767	-142.275510
7.900000	-0.339409	-143.015128	-39.745879	3.745665	-39.745879	3.745665	-0.339542	-143.072026
7.950000	-0.344289	-143.811884	-39.642709	2.466786	-39.642709	2.466786	-0.344424	-143.869057
8.000000	-0.349224	-144.608900	-39.540941	1.203996	-39.540941	1.203996	-0.349359	-144.666344
8.050000	-0.354265	-145.406576	-39.440692	-0.022605	-39.440692	-0.022605	-0.354400	-145.464286
8.100000	-0.359381	-146.204723	-39.341828	-1.223357	-39.341828	-1.223357	-0.359517	-146.262696
8.150000	-0.364605	-147.003645	-39.244272	-2.382756	-39.244272	-2.382756	-0.364740	-147.061875
8.200000	-0.369936	-147.803343	-39.147992	-3.500801	-39.147992	-3.500801	-0.370071	-147.861824
8.250000	-0.375378	-148.603909	-39.052655	-4.570948	-39.052655	-4.570948	-0.375512	-148.662633
8.300000	-0.380975	-149.405688	-38.958194	-5.574036	-38.958194	-5.574036	-0.381108	-149.464646
8.350000	-0.386654	-150.208101	-38.864391	-6.539931	-38.864391	-6.539931	-0.386785	-150.267287
8.400000	-0.392566	-151.012358	-38.770277	-7.395470	-38.770277	-7.395470	-0.392694	-151.071756
8.450000	-0.398689	-151.818235	-38.675125	-8.146987	-38.675125	-8.146987	-0.398813	-151.877831
8.500000	-0.405070	-152.626008	-38.577539	-8.769326	-38.577539	-8.769326	-0.405189	-152.685784
8.550000	-0.411773	-153.436021	-38.475287	-9.228822	-38.475287	-9.228822	-0.411885	-153.495955
8.600000	-0.418893	-154.248714	-38.364723	-9.479753	-38.364723	-9.479753	-0.418995	-154.308779
8.650000	-0.426571	-155.064664	-38.239719	-9.459202	-38.239719	-9.459202	-0.426659	-155.124826
8.700000	-0.435025	-155.884636	-38.089663	-9.079840	-38.089663	-9.079840	-0.435094	-155.944848
8.750000	-0.444617	-156.709642	-37.895521	-8.220910	-37.895521	-8.220910	-0.444656	-156.769847
8.800000	-0.456077	-157.541297	-37.616105	-6.687454	-37.616105	-6.687454	-0.456073	-157.601414
8.850000	-0.470615	-158.380729	-37.179200	-4.312798	-37.179200	-4.312798	-0.470540	-158.440657
8.900000	-0.490823	-159.227476	-36.437523	-1.028080	-36.437523	-1.028080	-0.490627	-159.287114
8.950000	-0.522786	-160.068603	-35.097892	2.511205	-35.097892	2.511205	-0.522367	-160.127984
9.000000	-0.579057	-160.815048	-32.752444	2.789931	-32.752444	2.789931	-0.578242	-160.875052
9.050000	-0.645607	-161.058079	-29.728889	-10.455163	-29.728889	-10.455163	-0.644476	-161.121203
9.100000	-0.563798	-161.119696	-29.282405	-38.040634	-29.282405	-38.040634	-0.562582	-161.186830
9.150000	-0.479493	-162.115624	-31.262415	-53.053698	-31.262415	-53.053698	-0.478797	-162.186040
9.200000	-0.459905	-163.180440	-32.892853	-57.205986	-32.892853	-57.205986	-0.459628	-163.250730
9.250000	-0.459645	-164.151777	-33.911263	-58.016375	-33.911263	-58.016375	-0.459568	-164.221433
9.300000	-0.464564	-165.066266	-34.540707	-58.044344	-34.540707	-58.044344	-0.464583	-165.135429
9.350000	-0.471018	-165.949939	-34.939824	-58.015260	-34.939824	-58.015260	-0.471088	-166.018781
9.400000	-0.477945	-166.816083	-35.197033	-58.124374	-35.197033	-58.124374	-0.478043	-166.884732
9.450000	-0.484995	-167.671982	-35.364167	-58.408577	-35.364167	-58.408577	-0.485108	-167.740530
9.500000	-0.492053	-168.521916	-35.473143	-58.852177	-35.473143	-58.852177	-0.492172	-168.590424
9.550000	-0.499087	-169.368525	-35.544714	-59.423102	-35.544714	-59.423102	-0.499210	-169.437034
9.600000	-0.506088	-170.212957	-35.584925	-60.119847	-35.584925	-60.119847	-0.506210	-170.281501
9.650000	-0.513067	-171.056596	-35.606657	-60.901952	-35.606657	-60.901952	-0.513185	-171.125194
9.700000	-0.520028	-171.900096	-35.612084	-61.768046	-35.612084	-61.768046	-0.520141	-171.968766
9.750000	-0.526982	-172.744175	-35.605237	-62.704941	-35.605237	-62.704941	-0.527087	-172.812928
9.800000	-0.533939	-173.588846	-35.592450	-63.678768	-35.592450	-63.678768	-0.534036	-173.657687
9.850000	-0.540904	-174.434812	-35.571646	-64.705977	-35.571646	-64.705977	-0.540991	-174.503746
9.900000	-0.547887	-175.282378	-35.545582	-65.772307	-35.545582	-65.772307	-0.547962	-175.351409
9.950000	-0.554888	-176.131356	-35.516176	-66.865320	-35.516176	-66.865320	-0.554950	-176.200482
10.000000	-0.561911	-176.981830	-35.483883	-67.982696	-35.483883	-67.982696	-0.561959	-177.051053
