! freq	dB(S11)	phase(S11)	dB(S12)	phase(S12)	
!     	dB(S21)	phase(S21)	dB(S22)	phase(S22)	
!S-par simulation data
#  GHz  S  DB  R 50
0.000000	-81.412292	0.000000	-0.000738	0.000000	-0.000738	0.000000	-81.412292	0.000000
0.050000	-52.600525	75.580987	-0.003243	-2.559487	-0.003243	-2.559487	-52.589501	75.898896
0.100000	-47.335882	77.244728	-0.008996	-5.111454	-0.008996	-5.111454	-47.329310	77.298774
0.150000	-44.016261	77.090829	-0.015325	-7.652356	-0.015325	-7.652356	-44.017398	77.103818
0.200000	-41.589699	75.924771	-0.020831	-10.183813	-0.020831	-10.183813	-41.594182	75.934880
0.250000	-39.681814	74.315717	-0.025417	-12.710235	-0.025417	-12.710235	-39.687688	74.330302
0.300000	-38.109376	72.440478	-0.029190	-15.233878	-0.029190	-15.233878	-38.115652	72.461678
0.350000	-36.771449	70.404740	-0.032384	-17.756357	-0.032384	-17.756357	-36.777590	70.433028
0.400000	-35.606246	68.264034	-0.035197	-20.278519	-0.035197	-20.278519	-35.611928	68.299372
0.450000	-34.572838	66.046684	-0.037772	-22.800790	-0.037772	-22.800790	-34.577842	66.088836
0.500000	-33.644050	63.780242	-0.040240	-25.323320	-0.040240	-25.323320	-33.648270	63.828931
0.550000	-32.799880	61.476398	-0.042668	-27.846144	-0.042668	-27.846144	-32.803262	61.531324
0.600000	-32.025519	59.143194	-0.045104	-30.369255	-0.045104	-30.369255	-32.028046	59.204046
0.650000	-31.309710	56.786347	-0.047579	-32.892625	-0.047579	-32.892625	-31.311396	56.852810
0.700000	-30.643711	54.410040	-0.050118	-35.416223	-0.050118	-35.416223	-30.644592	54.481803
0.750000	-30.020328	52.016570	-0.052742	-37.940024	-0.052742	-37.940024	-30.020454	52.093314
0.800000	-29.434087	49.608735	-0.055461	-40.463993	-0.055461	-40.463993	-29.433528	49.690165
0.850000	-28.881006	47.189791	-0.058273	-42.988088	-0.058273	-42.988088	-28.879841	47.275668
0.900000	-28.356889	44.759954	-0.061193	-45.512298	-0.061193	-45.512298	-28.355204	44.850044
0.950000	-27.858871	42.320915	-0.064220	-48.036601	-0.064220	-48.036601	-27.856754	42.415036
1.000000	-27.384413	39.873699	-0.067356	-50.560981	-0.067356	-50.560981	-27.381953	39.971712
1.050000	-26.931386	37.419173	-0.070601	-53.085424	-0.070601	-53.085424	-26.928669	37.520985
1.100000	-26.497993	34.958079	-0.073954	-55.609921	-0.073954	-55.609921	-26.495102	35.063642
1.150000	-26.082718	32.491063	-0.077414	-58.134465	-0.077414	-58.134465	-26.079727	32.600378
1.200000	-25.684269	30.018700	-0.080979	-60.659050	-0.080979	-60.659050	-25.681247	30.131805
1.250000	-25.301547	27.541504	-0.084647	-63.183671	-0.084647	-63.183671	-25.298552	27.658477
1.300000	-24.933593	25.059861	-0.088417	-65.708327	-0.088417	-65.708327	-24.930676	25.180811
1.350000	-24.579646	22.574307	-0.092284	-68.233017	-0.092284	-68.233017	-24.576846	22.699366
1.400000	-24.239022	20.085244	-0.096246	-70.757739	-0.096246	-70.757739	-24.236366	20.214561
1.450000	-23.911132	17.593053	-0.100298	-73.282493	-0.100298	-73.282493	-23.908641	17.726784
1.500000	-23.595475	15.098092	-0.104436	-75.807282	-0.104436	-75.807282	-23.593158	15.236396
1.550000	-23.291624	12.600705	-0.108657	-78.332107	-0.108657	-78.332107	-23.289482	12.743735
1.600000	-22.999211	10.101219	-0.112956	-80.856970	-0.112956	-80.856970	-22.997238	10.249119
1.650000	-22.717927	7.599945	-0.117328	-83.381874	-0.117328	-83.381874	-22.716110	7.752846
1.700000	-22.447509	5.097182	-0.121768	-85.906824	-0.121768	-85.906824	-22.445831	5.255194
1.750000	-22.187739	2.593214	-0.126272	-88.431823	-0.126272	-88.431823	-22.186176	2.756430
1.800000	-21.938435	0.088310	-0.130833	-90.956878	-0.130833	-90.956878	-21.936961	0.256800
1.850000	-21.699448	-2.417275	-0.135446	-93.481994	-0.135446	-93.481994	-21.698037	-2.243460
1.900000	-21.470709	-4.923304	-0.140104	-96.007180	-0.140104	-96.007180	-21.469333	-4.744133
1.950000	-21.252144	-7.429547	-0.144801	-98.532445	-0.144801	-98.532445	-21.250774	-7.245005
2.000000	-21.043647	-9.935791	-0.149529	-101.057800	-0.149529	-101.057800	-21.042256	-9.745876
2.050000	-20.845180	-12.441844	-0.154281	-103.583257	-0.154281	-103.583257	-20.843742	-12.246565
2.100000	-20.656726	-14.947529	-0.159049	-106.108830	-0.159049	-106.108830	-20.655218	-14.746899
2.150000	-20.478291	-17.452684	-0.163825	-108.634538	-0.163825	-108.634538	-20.476693	-17.246718
2.200000	-20.309903	-19.957162	-0.168600	-111.160400	-0.168600	-111.160400	-20.308196	-19.745867
2.250000	-20.151610	-22.460825	-0.173365	-113.686441	-0.173365	-113.686441	-20.149780	-22.244202
2.300000	-20.003482	-24.963550	-0.178111	-116.212686	-0.178111	-116.212686	-20.001517	-24.741585
2.350000	-19.865611	-27.465224	-0.182830	-118.739167	-0.182830	-118.739167	-19.863502	-27.237883
2.400000	-19.738110	-29.965741	-0.187510	-121.265918	-0.187510	-121.265918	-19.735851	-29.732966
2.450000	-19.621115	-32.465001	-0.192143	-123.792981	-0.192143	-123.792981	-19.618703	-32.226709
2.500000	-19.514786	-34.962911	-0.196717	-126.320398	-0.196717	-126.320398	-19.512219	-34.718985
2.550000	-19.419529	-37.459344	-0.201222	-128.848231	-0.201222	-128.848231	-19.416806	-37.209628
2.600000	-19.335354	-39.954236	-0.205648	-131.376527	-0.205648	-131.376527	-19.332478	-39.698538
2.650000	-19.262500	-42.447492	-0.209985	-133.905348	-0.209985	-133.905348	-19.259475	-42.185576
2.700000	-19.201238	-44.939010	-0.214223	-136.434762	-0.214223	-136.434762	-19.198066	-44.670594
2.750000	-19.151870	-47.428675	-0.218353	-138.964844	-0.218353	-138.964844	-19.148555	-47.153430
2.800000	-19.114736	-49.916365	-0.222364	-141.495673	-0.222364	-141.495673	-19.111281	-49.633905
2.850000	-19.090214	-52.401937	-0.226247	-144.027338	-0.226247	-144.027338	-19.086621	-52.111821
2.900000	-19.078726	-54.885226	-0.229994	-146.559932	-0.229994	-146.559932	-19.074996	-54.586953
2.950000	-19.080743	-57.366043	-0.233597	-149.093556	-0.233597	-149.093556	-19.076876	-57.059043
3.000000	-19.096790	-59.844163	-0.237049	-151.628318	-0.237049	-151.628318	-19.092783	-59.527797
3.050000	-19.127454	-62.319323	-0.240342	-154.164331	-0.240342	-154.164331	-19.123302	-61.992871
3.100000	-19.173390	-64.791211	-0.243472	-156.701717	-0.243472	-156.701717	-19.169085	-64.453867
3.150000	-19.235509	-67.259412	-0.246433	-159.240618	-0.246433	-159.240618	-19.231041	-66.910262
3.200000	-19.314657	-69.723468	-0.249220	-161.781172	-0.249220	-161.781172	-19.310009	-69.361485
3.250000	-19.411592	-72.182884	-0.251834	-164.323500	-0.251834	-164.323500	-19.406744	-71.806925
3.300000	-19.527365	-74.637022	-0.254274	-166.867745	-0.254274	-166.867745	-19.522293	-74.245800
3.350000	-19.663166	-77.085110	-0.256542	-169.414052	-0.256542	-169.414052	-19.657839	-76.677171
3.400000	-19.820351	-79.526217	-0.258641	-171.962573	-0.258641	-171.962573	-19.814731	-79.099914
3.450000	-20.000471	-81.959214	-0.260574	-174.513460	-0.260574	-174.513460	-19.994511	-81.512665
3.500000	-20.205312	-84.382719	-0.262350	-177.066866	-0.262350	-177.066866	-20.198955	-83.913767
3.550000	-20.436938	-86.795033	-0.263976	-179.622948	-0.263976	-179.622948	-20.430114	-86.301189
3.600000	-20.697755	-89.194052	-0.265462	177.818140	-0.265462	177.818140	-20.690380	-88.672419
3.650000	-20.990589	-91.577147	-0.266823	175.256245	-0.266823	175.256245	-20.982557	-91.024327
3.700000	-21.318786	-93.940997	-0.268071	172.691216	-0.268071	172.691216	-21.309965	-93.352966
3.750000	-21.686344	-96.281365	-0.269226	170.122905	-0.269226	170.122905	-21.676568	-95.653310
3.800000	-22.098709	-98.591970	-0.270304	167.551094	-0.270304	167.551094	-22.087761	-97.917909
3.850000	-22.561252	-100.865955	-0.271330	164.975718	-0.271330	164.975718	-22.548853	-100.138662
3.900000	-23.081324	-103.093427	-0.272329	162.396652	-0.272329	162.396652	-23.067101	-102.303888
3.950000	-23.668201	-105.260798	-0.273325	159.813778	-0.273325	159.813778	-23.651643	-104.397566
4.000000	-24.333807	-107.348920	-0.274349	157.226993	-0.274349	157.226993	-24.314198	-106.397161
4.050000	-25.093821	-109.329955	-0.275431	154.636203	-0.275431	154.636203	-25.070119	-108.269986
4.100000	-25.969419	-111.161887	-0.276603	152.041330	-0.276603	152.041330	-25.940041	-109.966846
4.150000	-26.990129	-112.778296	-0.277900	149.442312	-0.277900	149.442312	-26.952549	-111.410277
4.200000	-28.198784	-114.067897	-0.279358	146.839106	-0.279358	146.839106	-28.148700	-112.471209
4.250000	-29.660604	-114.829728	-0.281016	144.231686	-0.281016	144.231686	-29.590058	-112.918535
4.300000	-31.481028	-114.662918	-0.282913	141.620048	-0.282913	141.620048	-31.373570	-112.297645
4.350000	-33.842762	-112.651193	-0.285089	139.004208	-0.285089	139.004208	-33.658776	-109.595484
4.400000	-37.073168	-106.125796	-0.287589	136.384163	-0.287589	136.384163	-36.694280	-102.019560
4.450000	-41.448345	-85.081519	-0.290458	133.759981	-0.290458	133.759981	-40.477626	-80.646737
4.500000	-43.075981	-32.669885	-0.293733	131.131799	-0.293733	131.131799	-41.739739	-35.289500
4.550000	-38.701437	2.985541	-0.297457	128.499734	-0.297457	128.499734	-38.161475	-1.905450
4.600000	-34.672240	14.587983	-0.301672	125.863933	-0.301672	125.863933	-34.454101	10.879383
4.650000	-31.696134	18.333148	-0.306419	123.224567	-0.306419	123.224567	-31.586881	15.536622
4.700000	-29.392432	19.233516	-0.311738	120.581837	-0.311738	120.581837	-29.329146	17.016832
4.750000	-27.521660	18.832461	-0.317667	117.935968	-0.317667	117.935968	-27.481394	17.002118
4.800000	-25.948970	17.742541	-0.324227	115.287273	-0.324227	115.287273	-25.921704	16.185990
4.850000	-24.591514	16.224309	-0.331486	112.635900	-0.331486	112.635900	-24.572177	14.868139
4.900000	-23.398354	14.440880	-0.339456	109.982234	-0.339456	109.982234	-23.384191	13.238382
4.950000	-22.334418	12.476541	-0.348166	107.326606	-0.348166	107.326606	-22.323794	11.395323
5.000000	-21.375021	10.383441	-0.357639	104.669371	-0.357639	104.669371	-21.366913	9.400182
5.050000	-20.502090	8.194838	-0.367905	102.010896	-0.367905	102.010896	-20.495824	7.292076
5.100000	-19.702245	5.935029	-0.378970	99.351593	-0.378970	99.351593	-19.697363	5.099620
5.150000	-18.965087	3.620239	-0.390846	96.691875	-0.390846	96.691875	-18.961268	2.841925
5.200000	-18.282455	1.262325	-0.403539	94.032167	-0.403539	94.032167	-18.279467	0.532948
5.250000	-17.647826	-1.129812	-0.417047	91.372908	-0.417047	91.372908	-17.645499	-1.816846
5.300000	-17.055909	-3.549330	-0.431368	88.714543	-0.431368	88.714543	-17.054115	-4.199427
5.350000	-16.502368	-5.990999	-0.446495	86.057537	-0.446495	86.057537	-16.501008	-6.608675
5.400000	-15.983590	-8.450348	-0.462407	83.402343	-0.462407	83.402343	-15.982590	-9.039373
5.450000	-15.496527	-10.923832	-0.479079	80.749406	-0.479079	80.749406	-15.495827	-11.487394
5.500000	-15.038590	-13.408561	-0.496480	78.099172	-0.496480	78.099172	-15.038144	-13.949390
5.550000	-14.607607	-15.902158	-0.514582	75.452104	-0.514582	75.452104	-14.607377	-16.422628
5.600000	-14.201558	-18.402415	-0.533329	72.808547	-0.533329	72.808547	-14.201514	-18.904553
5.650000	-13.818909	-20.907705	-0.552688	70.168997	-0.552688	70.168997	-13.819026	-21.393333
5.700000	-13.458226	-23.416443	-0.572603	67.533852	-0.572603	67.533852	-13.458484	-23.887164
5.750000	-13.118171	-25.927246	-0.593011	64.903426	-0.593011	64.903426	-13.118554	-26.384468
5.800000	-12.797615	-28.438951	-0.613845	62.278054	-0.613845	62.278054	-12.798108	-28.883933
5.850000	-12.495553	-30.950534	-0.635038	59.658034	-0.635038	59.658034	-12.496147	-31.384412
5.900000	-12.211094	-33.461101	-0.656514	57.043633	-0.656514	57.043633	-12.211778	-33.884900
5.950000	-11.943437	-35.969866	-0.678197	54.435083	-0.678197	54.435083	-11.944204	-36.384521
6.000000	-11.691868	-38.476147	-0.700004	51.832575	-0.700004	51.832575	-11.692711	-38.882512
6.050000	-11.455743	-40.979354	-0.721849	49.236256	-0.721849	49.236256	-11.456658	-41.378216
6.100000	-11.234486	-43.478984	-0.743644	46.646235	-0.743644	46.646235	-11.235467	-43.871071
6.150000	-11.027577	-45.974615	-0.765300	44.062570	-0.765300	44.062570	-11.028622	-46.360605
6.200000	-10.834550	-48.465904	-0.786723	41.485275	-0.786723	41.485275	-10.835657	-48.846431
6.250000	-10.654990	-50.952579	-0.807819	38.914315	-0.807819	38.914315	-10.656155	-51.328239
6.300000	-10.488738	-53.434333	-0.828483	36.349739	-0.828483	36.349739	-10.489961	-53.805703
6.350000	-10.335259	-55.911138	-0.848626	33.791270	-0.848626	33.791270	-10.336538	-56.278754
6.400000	-10.194262	-58.382932	-0.868156	31.238722	-0.868156	31.238722	-10.195598	-58.747307
6.450000	-10.065497	-60.849712	-0.886979	28.691854	-0.886979	28.691854	-10.066889	-61.211343
6.500000	-9.948751	-63.311539	-0.905002	26.150377	-0.905002	26.150377	-9.950200	-63.670905
6.550000	-9.843846	-65.768527	-0.922136	23.613951	-0.922136	23.613951	-9.845353	-66.126097
6.600000	-9.750642	-68.220847	-0.938294	21.082185	-0.938294	21.082185	-9.752208	-68.577082
6.650000	-9.669036	-70.668720	-0.953392	18.554639	-0.953392	18.554639	-9.670663	-71.024076
6.700000	-9.598915	-73.112430	-0.967353	16.030815	-0.967353	16.030815	-9.600606	-73.467359
6.750000	-9.540281	-75.552281	-0.980100	13.510188	-0.980100	13.510188	-9.542037	-75.907237
6.800000	-9.493285	-77.988589	-0.991542	10.992202	-0.991542	10.992202	-9.495111	-78.344035
6.850000	-9.458017	-80.421752	-1.001608	8.476215	-1.001608	8.476215	-9.459916	-80.778162
6.900000	-9.434223	-82.852288	-1.010279	5.961505	-1.010279	5.961505	-9.436200	-83.210130
6.950000	-9.422158	-85.280615	-1.017487	3.447386	-1.017487	3.447386	-9.424218	-85.640378
7.000000	-9.422444	-87.707159	-1.023128	0.933084	-1.023128	0.933084	-9.424592	-88.069369
7.050000	-9.434756	-90.132499	-1.027235	-1.582184	-1.027235	-1.582184	-9.436999	-90.497678
7.100000	-9.459374	-92.557120	-1.029777	-4.099213	-1.029777	-4.099213	-9.461719	-92.925819
7.150000	-9.497304	-94.981524	-1.030646	-6.619007	-1.030646	-6.619007	-9.499759	-95.354356
7.200000	-9.548391	-97.406230	-1.029900	-9.142350	-1.029900	-9.142350	-9.550965	-97.783818
7.250000	-9.613032	-99.831704	-1.027545	-11.670112	-1.027545	-11.670112	-9.615737	-100.214712
7.300000	-9.692272	-102.258439	-1.023527	-14.203421	-1.023527	-14.203421	-9.695120	-102.647609
7.350000	-9.786617	-104.686844	-1.017883	-16.743209	-1.017883	-16.743209	-9.789621	-105.082973
7.400000	-9.896499	-107.117221	-1.010675	-19.290301	-1.010675	-19.290301	-9.899676	-107.521159
7.450000	-10.023056	-109.549870	-1.001910	-21.845831	-1.001910	-21.845831	-10.026425	-109.962568
7.500000	-10.167637	-111.985001	-0.991609	-24.411039	-0.991609	-24.411039	-10.171219	-112.407535
7.550000	-10.330789	-114.422527	-0.979893	-26.986571	-0.979893	-26.986571	-10.334610	-114.856054
7.600000	-10.513847	-116.862290	-0.966832	-29.573431	-0.966832	-29.573431	-10.517935	-117.308102
7.650000	-10.719301	-119.303975	-0.952448	-32.173331	-0.952448	-32.173331	-10.723693	-119.763621
7.700000	-10.947972	-121.746760	-0.936917	-34.786596	-0.936917	-34.786596	-10.952709	-122.221910
7.750000	-11.201900	-124.189577	-0.920356	-37.414189	-0.920356	-37.414189	-11.207032	-124.682143
7.800000	-11.484339	-126.630734	-0.902860	-40.057755	-0.902860	-40.057755	-11.489929	-127.143028
7.850000	-11.797630	-129.067905	-0.884610	-42.717860	-0.884610	-42.717860	-11.803752	-129.602563
7.900000	-12.144815	-131.497977	-0.865788	-45.395184	-0.865788	-45.395184	-12.151564	-132.058058
7.950000	-12.530513	-133.916168	-0.846572	-48.091122	-0.846572	-48.091122	-12.538008	-134.505416
8.000000	-12.959829	-136.315737	-0.827187	-50.806755	-0.827187	-50.806755	-12.968225	-136.938718
8.050000	-13.438018	-138.688136	-0.807890	-53.542417	-0.807890	-53.542417	-13.447517	-139.350270
8.100000	-13.973119	-141.019173	-0.788982	-56.299535	-0.788982	-56.299535	-13.983994	-141.727332
8.150000	-14.574797	-143.287358	-0.770857	-59.079334	-0.770857	-59.079334	-14.587431	-144.050265
8.200000	-15.255437	-145.457275	-0.754071	-61.883218	-0.754071	-61.883218	-15.270388	-146.286171
8.250000	-16.031530	-147.462556	-0.739589	-64.713111	-0.739589	-64.713111	-16.049668	-148.372282
8.300000	-16.923504	-149.158716	-0.729498	-67.570328	-0.729498	-67.570328	-16.946321	-150.169035
8.350000	-17.939572	-150.172214	-0.729427	-70.442622	-0.729427	-70.442622	-17.969946	-151.307212
8.400000	-18.919776	-150.092251	-0.745933	-73.187247	-0.745933	-73.187247	-18.961085	-151.363459
8.450000	-19.884628	-152.548359	-0.714856	-75.753424	-0.714856	-75.753424	-19.934167	-154.014178
8.500000	-21.632829	-154.878195	-0.672153	-78.698054	-0.672153	-78.698054	-21.700717	-156.666413
8.550000	-23.881367	-154.485532	-0.655437	-81.701387	-0.655437	-81.701387	-23.989534	-156.765215
8.600000	-26.801283	-150.524167	-0.648351	-84.693974	-0.648351	-84.693974	-27.008156	-153.603532
8.650000	-30.766949	-137.345330	-0.646177	-87.685758	-0.646177	-87.685758	-31.287687	-141.508738
8.700000	-34.423234	-97.423010	-0.647955	-90.683032	-0.647955	-90.683032	-35.682958	-98.205589
8.750000	-31.831939	-49.860176	-0.653450	-93.688027	-0.653450	-93.688027	-32.462514	-45.358826
8.800000	-27.486432	-31.961591	-0.662810	-96.701268	-0.662810	-96.701268	-27.697276	-28.564331
8.850000	-24.228801	-26.536632	-0.676245	-99.722176	-0.676245	-99.722176	-24.322875	-24.100874
8.900000	-21.772913	-25.079628	-0.693748	-102.749157	-0.693748	-102.749157	-21.823276	-23.220882
8.950000	-19.823909	-25.366565	-0.715456	-105.780579	-0.715456	-105.780579	-19.854041	-23.875562
9.000000	-18.215919	-26.579803	-0.741692	-108.814573	-0.741692	-108.814573	-18.235351	-25.336044
9.050000	-16.852972	-28.291986	-0.772297	-111.848834	-0.772297	-111.848834	-16.866077	-27.227927
9.100000	-15.673925	-30.320351	-0.807308	-114.881175	-0.807308	-114.881175	-15.683021	-29.392114
9.150000	-14.638591	-32.565841	-0.846918	-117.909051	-0.846918	-117.909051	-14.645025	-31.742551
9.200000	-13.718786	-34.952785	-0.890882	-120.930329	-0.890882	-120.930329	-13.723361	-34.213715
9.250000	-12.894586	-37.443033	-0.939297	-123.942283	-0.939297	-123.942283	-12.897827	-36.772405
9.300000	-12.150794	-40.004710	-0.991971	-126.942684	-0.991971	-126.942684	-12.153047	-39.390924
9.350000	-11.475856	-42.616903	-1.048759	-129.929234	-1.048759	-129.929234	-11.477359	-42.051004
9.400000	-10.860711	-45.264087	-1.109480	-132.899732	-1.109480	-132.899732	-10.861635	-44.739022
9.450000	-10.298108	-47.934388	-1.173918	-135.852098	-1.173918	-135.852098	-10.298576	-47.444507
9.500000	-9.782134	-50.618499	-1.241829	-138.784398	-1.241829	-138.784398	-9.782239	-50.159207
9.550000	-9.307899	-53.308980	-1.312939	-141.694870	-1.312939	-141.694870	-9.307711	-52.876489
9.600000	-8.871358	-55.999760	-1.386957	-144.581825	-1.386957	-144.581825	-8.870932	-55.590899
9.650000	-8.469086	-58.685764	-1.463562	-147.443764	-1.463562	-147.443764	-8.468466	-58.297854
9.700000	-8.097940	-61.362904	-1.542391	-150.279801	-1.542391	-150.279801	-8.097160	-60.993690
9.750000	-7.755305	-64.027776	-1.623088	-153.089072	-1.623088	-153.089072	-7.754395	-63.675322
9.800000	-7.438891	-66.677539	-1.705287	-155.870978	-1.705287	-155.870978	-7.437874	-66.340168
9.850000	-7.146673	-69.309827	-1.788618	-158.625194	-1.788618	-158.625194	-7.145572	-68.986077
9.900000	-6.876854	-71.922676	-1.872713	-161.351675	-1.872713	-161.351675	-6.875686	-71.611264
9.950000	-6.627823	-74.514474	-1.957212	-164.050654	-1.957212	-164.050654	-6.626604	-74.214263
10.000000	-6.398134	-77.083909	-2.041770	-166.722631	-2.041770	-166.722631	-6.396880	-76.793887
