! freq	dB(S11)	phase(S11)	dB(S12)	phase(S12)	
!     	dB(S21)	phase(S21)	dB(S22)	phase(S22)	
!S-par simulation data
#  GHz  S  DB  R 50
0.000000	-0.000000	-0.000000	-355.884315	180.000000	-355.884315	180.000000	-0.000000	-0.000000
0.050000	-0.000103	-0.760175	-117.517159	85.481035	-117.517159	85.481035	-0.000103	-0.762818
0.100000	-0.000409	-1.520088	-111.981859	84.372998	-111.981859	84.372998	-0.000406	-1.525376
0.150000	-0.000906	-2.279477	-108.786875	84.302274	-108.786875	84.302274	-0.000901	-2.287419
0.200000	-0.001562	-3.038194	-106.537150	84.298444	-106.537150	84.298444	-0.001553	-3.048798
0.250000	-0.002358	-3.796075	-104.834894	84.231416	-104.834894	84.231416	-0.002346	-3.809348
0.300000	-0.003276	-4.552922	-103.512740	84.125472	-103.512740	84.125472	-0.003263	-4.568872
0.350000	-0.004274	-5.308846	-102.457317	84.033915	-102.457317	84.033915	-0.004259	-5.327476
0.400000	-0.005338	-6.063687	-101.627772	84.008014	-101.627772	84.008014	-0.005323	-6.084998
0.450000	-0.006443	-6.817548	-100.978488	84.093325	-100.978488	84.093325	-0.006429	-6.841539
0.500000	-0.007573	-7.570418	-100.491867	84.349110	-100.491867	84.349110	-0.007562	-7.597084
0.550000	-0.008715	-8.322345	-100.152957	84.841614	-100.152957	84.841614	-0.008707	-8.351680
0.600000	-0.009858	-9.073377	-99.953505	85.656240	-99.953505	85.656240	-0.009855	-9.105374
0.650000	-0.010996	-9.823559	-99.889185	86.906957	-99.889185	86.906957	-0.010997	-9.858209
0.700000	-0.012123	-10.572933	-99.957739	88.750794	-99.957739	88.750794	-0.012129	-10.610227
0.750000	-0.013237	-11.321534	-100.156204	91.408331	-100.156204	91.408331	-0.013247	-11.361464
0.800000	-0.014336	-12.069392	-100.475588	95.189929	-100.475588	95.189929	-0.014351	-12.111951
0.850000	-0.015417	-12.816409	-100.878909	100.945913	-100.878909	100.945913	-0.015437	-12.861587
0.900000	-0.016483	-13.562692	-101.310480	108.871840	-101.310480	108.871840	-0.016506	-13.610482
0.950000	-0.017542	-14.308615	-101.623534	118.055827	-101.623534	118.055827	-0.017569	-14.359015
1.000000	-0.018580	-15.053458	-101.523040	131.013991	-101.523040	131.013991	-0.018610	-15.106459
1.050000	-0.019615	-15.798062	-101.206835	143.915271	-101.206835	143.915271	-0.019646	-15.853661
1.100000	-0.020630	-16.541466	-99.924869	156.532129	-99.924869	156.532129	-0.020664	-16.599656
1.150000	-0.021644	-17.284747	-98.722131	168.718402	-98.722131	168.718402	-0.021679	-17.345527
1.200000	-0.022641	-18.026683	-96.871037	176.168239	-96.871037	176.168239	-0.022678	-18.090045
1.250000	-0.023639	-18.768619	-95.345973	-176.381923	-95.345973	-176.381923	-0.023676	-18.834562
1.300000	-0.024625	-19.509425	-93.675453	-172.070955	-93.675453	-172.070955	-0.024664	-19.577944
1.350000	-0.025607	-20.249491	-92.096095	-169.069022	-92.096095	-169.069022	-0.025645	-20.320583
1.400000	-0.026584	-20.988804	-90.614399	-167.022246	-90.614399	-167.022246	-0.026622	-21.062464
1.450000	-0.027556	-21.727350	-89.226474	-165.679487	-89.226474	-165.679487	-0.027595	-21.803573
1.500000	-0.028526	-22.465112	-87.924692	-164.863820	-87.924692	-164.863820	-0.028564	-22.543896
1.550000	-0.029492	-23.202076	-86.700597	-164.449702	-86.700597	-164.449702	-0.029531	-23.283416
1.600000	-0.030456	-23.938227	-85.546101	-164.346823	-85.546101	-164.346823	-0.030495	-24.022117
1.650000	-0.031418	-24.673548	-84.453903	-164.489157	-84.453903	-164.489157	-0.031457	-24.759984
1.700000	-0.032379	-25.407723	-83.394032	-164.878695	-83.394032	-164.878695	-0.032417	-25.496698
1.750000	-0.033338	-26.141452	-82.418390	-165.357039	-82.418390	-165.357039	-0.033377	-26.232963
1.800000	-0.034297	-26.874106	-81.473711	-165.983445	-81.473711	-165.983445	-0.034336	-26.968147
1.850000	-0.035256	-27.605992	-80.578247	-166.715609	-80.578247	-166.715609	-0.035295	-27.702558
1.900000	-0.036214	-28.336924	-79.717204	-167.535419	-79.717204	-167.535419	-0.036253	-28.436008
1.950000	-0.037173	-29.066901	-78.889040	-168.442877	-78.889040	-168.442877	-0.037212	-29.168497
2.000000	-0.038132	-29.796055	-78.097522	-169.402780	-78.097522	-169.402780	-0.038172	-29.900157
2.050000	-0.039092	-30.524058	-77.326658	-170.436105	-77.326658	-170.436105	-0.039132	-30.630658
2.100000	-0.040053	-31.251380	-76.593872	-171.500524	-76.593872	-171.500524	-0.040094	-31.360474
2.150000	-0.041015	-31.977343	-75.872440	-172.627130	-75.872440	-172.627130	-0.041057	-32.088920
2.200000	-0.041979	-32.702781	-75.189971	-173.771473	-75.189971	-173.771473	-0.042022	-32.816838
2.250000	-0.042946	-33.426643	-74.511690	-174.969025	-74.511690	-174.969025	-0.042990	-33.543168
2.300000	-0.043913	-34.150145	-73.872854	-176.175765	-73.872854	-176.175765	-0.043958	-34.269135
2.350000	-0.044885	-34.871846	-73.232627	-177.428442	-73.232627	-177.428442	-0.044931	-34.993287
2.400000	-0.045857	-35.593361	-72.632030	-178.684752	-72.632030	-178.684752	-0.045905	-35.717253
2.450000	-0.046836	-36.312842	-72.025670	-179.981031	-72.025670	-179.981031	-0.046885	-36.439169
2.500000	-0.047814	-37.032323	-71.458891	178.722691	-71.458891	178.722691	-0.047865	-37.161085
2.550000	-0.048801	-37.749528	-70.882907	177.391412	-70.882907	177.391412	-0.048853	-37.880708
2.600000	-0.049787	-38.466733	-70.342755	176.060133	-70.342755	176.060133	-0.049841	-38.600331
2.650000	-0.050782	-39.181802	-69.797732	174.702778	-69.797732	174.702778	-0.050837	-39.317802
2.700000	-0.051778	-39.896677	-69.281778	173.343053	-69.281778	173.343053	-0.051835	-40.035078
2.750000	-0.052783	-40.609568	-68.764560	171.963863	-68.764560	171.963863	-0.052842	-40.750354
2.800000	-0.053790	-41.322062	-68.270720	170.580779	-68.270720	170.580779	-0.053850	-41.465230
2.850000	-0.054806	-42.032732	-67.778626	169.183188	-67.778626	169.183188	-0.054868	-42.178270
2.900000	-0.055825	-42.742795	-67.305094	167.780761	-67.305094	167.780761	-0.055889	-42.890697
2.950000	-0.056853	-43.451205	-66.835827	166.367580	-66.835827	166.367580	-0.056919	-43.601460
3.000000	-0.057886	-44.158790	-66.381028	164.949023	-66.381028	164.949023	-0.057954	-44.311392
3.050000	-0.058928	-44.864903	-65.932601	163.522576	-65.932601	163.522576	-0.058997	-45.019841
3.100000	-0.059977	-45.569965	-65.495151	162.090495	-65.495151	162.090495	-0.060048	-45.727231
3.150000	-0.061033	-46.273745	-65.065835	160.652719	-65.065835	160.652719	-0.061106	-46.433330
3.200000	-0.062099	-46.976243	-64.644507	159.209251	-64.644507	159.209251	-0.062173	-47.138138
3.250000	-0.063172	-47.677656	-64.232787	157.761775	-64.232787	157.761775	-0.063248	-47.841853
3.300000	-0.064255	-48.377550	-63.826490	156.308691	-63.826490	156.308691	-0.064334	-48.544039
3.350000	-0.065346	-49.076564	-63.431031	154.852895	-63.431031	154.852895	-0.065427	-49.245338
3.400000	-0.066450	-49.773817	-63.038791	153.391676	-63.038791	153.391676	-0.066532	-49.944865
3.450000	-0.067559	-50.470401	-62.658406	151.928736	-62.658406	151.928736	-0.067644	-50.643718
3.500000	-0.068685	-51.164980	-62.279345	150.460633	-62.279345	150.460633	-0.068771	-51.340552
3.550000	-0.069814	-51.859107	-61.912981	148.991560	-61.912981	148.991560	-0.069903	-52.036931
3.600000	-0.070963	-52.550979	-61.546307	147.517635	-61.546307	147.517635	-0.071054	-52.731041
3.650000	-0.072114	-53.242624	-61.193018	146.043301	-61.193018	146.043301	-0.072207	-53.424921
3.700000	-0.073287	-53.931761	-60.838012	144.564465	-60.838012	144.564465	-0.073382	-54.116278
3.750000	-0.074461	-54.620899	-60.496948	143.085628	-60.496948	143.085628	-0.074558	-54.807635
3.800000	-0.075661	-55.307276	-60.152957	141.602663	-60.152957	141.602663	-0.075760	-55.496213
3.850000	-0.076861	-55.993653	-59.822072	140.119698	-59.822072	140.119698	-0.076963	-56.184792
3.900000	-0.078087	-56.677478	-59.489779	138.633571	-59.489779	138.633571	-0.078191	-56.870803
3.950000	-0.079316	-57.361072	-59.168544	137.147156	-59.168544	137.147156	-0.079421	-57.556580
4.000000	-0.080568	-58.042329	-58.847235	135.658359	-58.847235	135.658359	-0.080677	-58.240006
4.050000	-0.081826	-58.723118	-58.535164	134.169087	-58.535164	134.169087	-0.081937	-58.922962
4.100000	-0.083108	-59.401792	-58.224190	132.678058	-58.224190	132.678058	-0.083221	-59.603789
4.150000	-0.084397	-60.079760	-57.920836	131.186445	-57.920836	131.186445	-0.084512	-60.283907
4.200000	-0.085708	-60.755837	-57.619607	129.693575	-57.619607	129.693575	-0.085826	-60.962123
4.250000	-0.087031	-61.430969	-57.324556	128.200077	-57.324556	128.200077	-0.087150	-61.639387
4.300000	-0.088373	-62.104440	-57.032530	126.705713	-57.032530	126.705713	-0.088495	-62.314981
4.350000	-0.089730	-62.776725	-56.745397	125.210732	-56.745397	125.210732	-0.089855	-62.989381
4.400000	-0.091105	-63.447580	-56.462080	123.715187	-56.462080	123.715187	-0.091232	-63.662345
4.450000	-0.092498	-64.117007	-56.182510	122.219080	-56.182510	122.219080	-0.092628	-64.333871
4.500000	-0.093907	-64.785241	-55.907445	120.722636	-55.907445	120.722636	-0.094039	-65.004198
4.550000	-0.095338	-65.451805	-55.635106	119.225720	-55.635106	119.225720	-0.095472	-65.672846
4.600000	-0.096782	-66.117413	-55.367873	117.728629	-55.367873	117.728629	-0.096919	-66.340532
4.650000	-0.098252	-66.781110	-55.102457	116.231189	-55.102457	116.231189	-0.098392	-67.006297
4.700000	-0.099733	-67.444089	-54.842668	114.733682	-54.842668	114.733682	-0.099876	-67.671340
4.750000	-0.101244	-68.104917	-54.583886	113.235972	-54.583886	113.235972	-0.101390	-68.334221
4.800000	-0.102763	-68.765268	-54.331181	111.738256	-54.331181	111.738256	-0.102911	-68.996622
4.850000	-0.104317	-69.423229	-54.078765	110.240507	-54.078765	110.240507	-0.104468	-69.656621
4.900000	-0.105875	-70.080952	-53.832811	108.742771	-53.832811	108.742771	-0.106030	-70.316381
4.950000	-0.107474	-70.736051	-53.586507	107.245190	-53.586507	107.245190	-0.107631	-70.973503
5.000000	-0.109073	-71.391149	-53.346995	105.747609	-53.346995	105.747609	-0.109233	-71.630625
5.050000	-0.110717	-72.043392	-53.106566	104.250385	-53.106566	104.250385	-0.110881	-72.284878
5.100000	-0.112362	-72.695635	-52.872612	102.753161	-52.872612	102.753161	-0.112529	-72.939130
5.150000	-0.114051	-73.345268	-52.638430	101.256421	-52.638430	101.256421	-0.114220	-73.590761
5.200000	-0.115744	-73.994664	-52.409831	99.759725	-52.409831	99.759725	-0.115916	-74.242153
5.250000	-0.117478	-74.641697	-52.181620	98.263602	-52.181620	98.263602	-0.117653	-74.891171
5.300000	-0.119220	-75.288258	-51.958185	96.767592	-51.958185	96.767592	-0.119399	-75.539715
5.350000	-0.121000	-75.932703	-51.735689	95.272206	-51.735689	95.272206	-0.121182	-76.186134
5.400000	-0.122794	-76.576442	-51.517235	93.777027	-51.517235	93.777027	-0.122979	-76.831844
5.450000	-0.124622	-77.218311	-51.300215	92.282491	-51.300215	92.282491	-0.124811	-77.475676
5.500000	-0.126468	-77.859245	-51.086570	90.788277	-51.086570	90.788277	-0.126660	-78.118569
5.550000	-0.128346	-78.498554	-50.874800	89.294697	-50.874800	89.294697	-0.128541	-78.759830
5.600000	-0.130247	-79.136701	-50.665802	87.801570	-50.665802	87.801570	-0.130445	-79.399925
5.650000	-0.132176	-79.773466	-50.459072	86.309045	-50.459072	86.309045	-0.132377	-80.038632
5.700000	-0.134133	-80.408847	-50.254567	84.817121	-50.254567	84.817121	-0.134337	-80.675951
5.750000	-0.136114	-81.043086	-50.052678	83.325742	-50.052678	83.325742	-0.136322	-81.312123
5.800000	-0.138128	-81.675724	-49.852520	81.835128	-49.852520	81.835128	-0.138340	-81.946689
5.850000	-0.140163	-82.307457	-49.655287	80.344983	-49.655287	80.344983	-0.140378	-82.580346
5.900000	-0.142238	-82.937378	-49.459336	78.855779	-49.459336	78.855779	-0.142455	-83.212185
5.950000	-0.144328	-83.566625	-49.266582	77.366950	-49.266582	77.366950	-0.144548	-83.843349
6.000000	-0.146463	-84.193855	-49.074706	75.879249	-49.074706	75.879249	-0.146687	-84.472488
6.050000	-0.148610	-84.820641	-48.886266	74.391814	-48.886266	74.391814	-0.148837	-85.101182
6.100000	-0.150808	-85.445208	-48.698340	72.905704	-48.698340	72.905704	-0.151039	-85.727652
6.150000	-0.153013	-86.069557	-48.514056	71.419735	-48.514056	71.419735	-0.153246	-86.353902
6.200000	-0.155276	-86.691493	-48.329960	69.935300	-48.329960	69.935300	-0.155513	-86.977734
6.250000	-0.157540	-87.313430	-48.149685	68.450866	-48.149685	68.450866	-0.157779	-87.601565
6.300000	-0.159870	-87.932768	-47.969303	66.968183	-47.969303	66.968183	-0.160112	-88.222793
6.350000	-0.162200	-88.552106	-47.792592	65.485501	-47.792592	65.485501	-0.162445	-88.844021
6.400000	-0.164592	-89.169095	-47.616120	64.004492	-47.616120	64.004492	-0.164840	-89.462894
6.450000	-0.166991	-89.785869	-47.442869	62.523635	-47.442869	62.523635	-0.167241	-90.081553
6.500000	-0.169447	-90.400538	-47.270171	61.044356	-47.270171	61.044356	-0.169700	-90.698102
6.550000	-0.171915	-91.014786	-47.100283	59.565392	-47.100283	59.565392	-0.172171	-91.314230
6.600000	-0.174437	-91.627167	-46.931229	58.087897	-46.931229	58.087897	-0.174694	-91.928488
6.650000	-0.176976	-92.238925	-46.764610	56.610890	-46.764610	56.610890	-0.177236	-92.542124
6.700000	-0.179564	-92.849051	-46.599078	55.135228	-46.599078	55.135228	-0.179827	-93.154125
6.750000	-0.182177	-93.458360	-46.435636	53.660237	-46.435636	53.660237	-0.182442	-93.765309
6.800000	-0.184834	-94.066265	-46.273509	52.186454	-46.273509	52.186454	-0.185100	-94.375088
6.850000	-0.187521	-94.673167	-46.113158	50.713534	-46.113158	50.713534	-0.187789	-94.983863
6.900000	-0.190247	-95.278886	-45.954325	49.241673	-45.954325	49.241673	-0.190517	-95.591456
6.950000	-0.193011	-95.883423	-45.796980	47.770871	-45.796980	47.770871	-0.193282	-96.197867
7.000000	-0.195808	-96.486994	-45.641334	46.300970	-45.641334	46.300970	-0.196080	-96.803311
7.050000	-0.198650	-97.089210	-45.486913	44.832330	-45.486913	44.832330	-0.198924	-97.407402
7.100000	-0.201519	-97.690669	-45.334353	43.364424	-45.334353	43.364424	-0.201794	-98.010736
7.150000	-0.204440	-98.290612	-45.182779	41.897984	-45.182779	41.897984	-0.204716	-98.612556
7.200000	-0.207383	-98.889999	-45.033207	40.432103	-45.033207	40.432103	-0.207660	-99.213820
7.250000	-0.210386	-99.487715	-44.884404	38.967895	-44.884404	38.967895	-0.210663	-99.813417
7.300000	-0.213404	-100.085069	-44.737728	37.504064	-44.737728	37.504064	-0.213681	-100.412651
7.350000	-0.216490	-100.680608	-44.591622	36.042113	-44.591622	36.042113	-0.216767	-101.010075
7.400000	-0.219583	-101.275969	-44.447753	34.580352	-44.447753	34.580352	-0.219861	-101.607323
7.450000	-0.222754	-101.869381	-44.304273	33.120677	-44.304273	33.120677	-0.223031	-102.202626
7.500000	-0.225925	-102.462793	-44.163125	31.661002	-44.163125	31.661002	-0.226202	-102.797928
7.550000	-0.229181	-103.054130	-44.022203	30.203614	-44.022203	30.203614	-0.229457	-103.391163
7.600000	-0.232439	-103.645467	-43.883530	28.746226	-43.883530	28.746226	-0.232714	-103.984398
7.650000	-0.235775	-104.234949	-43.745263	27.290937	-43.745263	27.290937	-0.236049	-104.575788
7.700000	-0.239120	-104.824264	-43.609003	25.835838	-43.609003	25.835838	-0.239393	-105.167009
7.750000	-0.242538	-105.411938	-43.473310	24.382644	-43.473310	24.382644	-0.242809	-105.756599
7.800000	-0.245972	-105.999285	-43.339402	22.929831	-43.339402	22.929831	-0.246241	-106.345863
7.850000	-0.249473	-106.585197	-43.206207	21.478721	-43.206207	21.478721	-0.249740	-106.933702
7.900000	-0.252997	-107.170632	-43.074591	20.028179	-43.074591	20.028179	-0.253262	-107.521065
7.950000	-0.256582	-107.754829	-42.943821	18.579135	-42.943821	18.579135	-0.256844	-108.107201
8.000000	-0.260198	-108.338408	-42.814439	17.130841	-42.814439	17.130841	-0.260457	-108.692722
8.050000	-0.263868	-108.920939	-42.686024	15.683838	-42.686024	15.683838	-0.264124	-109.277204
8.100000	-0.267577	-109.502721	-42.558822	14.237759	-42.558822	14.237759	-0.267829	-109.860943
8.150000	-0.271333	-110.083635	-42.432693	12.792765	-42.432693	12.792765	-0.271582	-110.443822
8.200000	-0.275137	-110.663679	-42.307616	11.348857	-42.307616	11.348857	-0.275381	-111.025841
8.250000	-0.278981	-111.243025	-42.183709	9.905832	-42.183709	9.905832	-0.279221	-111.607168
8.300000	-0.282880	-111.821393	-42.060707	8.464042	-42.060707	8.464042	-0.283115	-112.187527
8.350000	-0.286812	-112.399222	-41.938960	7.022937	-41.938960	7.022937	-0.287042	-112.767355
8.400000	-0.290808	-112.975974	-41.817983	5.583200	-41.817983	5.583200	-0.291033	-113.346120
8.450000	-0.294830	-113.552339	-41.698337	4.143957	-41.698337	4.143957	-0.295049	-113.924502
8.500000	-0.298924	-114.127540	-41.579337	2.706198	-41.579337	2.706198	-0.299138	-114.501736
8.550000	-0.303036	-114.702492	-41.461736	1.268753	-41.461736	1.268753	-0.303244	-115.078727
8.600000	-0.307230	-115.276205	-41.344668	-0.167118	-41.344668	-0.167118	-0.307431	-115.654497
8.650000	-0.311433	-115.849800	-41.229057	-1.602840	-41.229057	-1.602840	-0.311628	-116.230151
8.700000	-0.315727	-116.422091	-41.113878	-3.036921	-41.113878	-3.036921	-0.315914	-116.804525
8.750000	-0.320023	-116.994382	-41.000207	-4.471002	-41.000207	-4.471002	-0.320203	-117.378899
8.800000	-0.324418	-117.565317	-40.886877	-5.903406	-40.886877	-5.903406	-0.324590	-117.951945
8.850000	-0.328815	-118.136253	-40.775006	-7.335809	-40.775006	-7.335809	-0.328980	-118.524991
8.900000	-0.333305	-118.706008	-40.663577	-8.766787	-40.663577	-8.766787	-0.333461	-119.096884
8.950000	-0.337804	-119.275656	-40.553470	-10.197636	-40.553470	-10.197636	-0.337952	-119.668673
9.000000	-0.342388	-119.844288	-40.443897	-11.627302	-40.443897	-11.627302	-0.342527	-120.239472
9.050000	-0.346991	-120.412718	-40.335521	-13.056732	-40.335521	-13.056732	-0.347120	-120.810074
9.100000	-0.351670	-120.980286	-40.227762	-14.485208	-40.227762	-14.485208	-0.351790	-121.379840
9.150000	-0.356377	-121.547568	-40.121086	-15.913367	-40.121086	-15.913367	-0.356487	-121.949327
9.200000	-0.361152	-122.114131	-40.015102	-17.340783	-40.015102	-17.340783	-0.361253	-122.518121
9.250000	-0.365963	-122.680337	-39.910098	-18.767828	-39.910098	-18.767828	-0.366054	-123.086569
9.300000	-0.370836	-123.245956	-39.805853	-20.194324	-39.805853	-20.194324	-0.370915	-123.654453
9.350000	-0.375752	-123.811158	-39.702495	-21.620426	-39.702495	-21.620426	-0.375821	-124.221936
9.400000	-0.380722	-124.375895	-39.599957	-23.046147	-39.599957	-23.046147	-0.380779	-124.788974
9.450000	-0.385744	-124.940167	-39.498225	-24.471488	-39.498225	-24.471488	-0.385790	-125.355568
9.500000	-0.390811	-125.504083	-39.397364	-25.896590	-39.397364	-25.896590	-0.390846	-125.921825
9.550000	-0.395939	-126.067502	-39.297238	-27.321358	-39.297238	-27.321358	-0.395963	-126.487608
9.600000	-0.401105	-126.630661	-39.198028	-28.746003	-39.198028	-28.746003	-0.401116	-127.053148
9.650000	-0.406340	-127.193302	-39.099493	-30.170399	-39.099493	-30.170399	-0.406339	-127.618201
9.700000	-0.411603	-127.755768	-39.001911	-31.594755	-39.001911	-31.594755	-0.411590	-128.183090
9.750000	-0.416945	-128.317711	-38.904958	-33.018987	-38.904958	-33.018987	-0.416919	-128.747493
9.800000	-0.422307	-128.879550	-38.808984	-34.443229	-38.808984	-34.443229	-0.422268	-129.311800
9.850000	-0.427756	-129.440873	-38.713606	-35.867513	-38.713606	-35.867513	-0.427704	-129.875634
9.900000	-0.433216	-130.002151	-38.619224	-37.291819	-38.619224	-37.291819	-0.433151	-130.439428
9.950000	-0.438772	-130.562935	-38.525418	-38.716375	-38.525418	-38.716375	-0.438694	-131.002778
10.000000	-0.444332	-131.123720	-38.432615	-40.140931	-38.432615	-40.140931	-0.444240	-131.566127
