! freq	dB(S11)	phase(S11)	dB(S12)	phase(S12)	
!     	dB(S21)	phase(S21)	dB(S22)	phase(S22)	
!S-par simulation data
#  GHz  S  DB  R 50
0.000000	-0.000000	-0.000000	-351.451888	180.000000	-351.451888	180.000000	-0.000000	-0.000000
0.050000	-0.000703	-0.926281	-72.753617	-33.530992	-72.753617	-33.530992	-0.000768	-0.927484
0.100000	-0.002590	-1.848317	-71.340686	-13.339682	-71.340686	-13.339682	-0.002809	-1.850148
0.150000	-0.005156	-2.763879	-71.002116	-2.977949	-71.002116	-2.977949	-0.005534	-2.765640
0.200000	-0.007909	-3.673037	-70.858572	4.193181	-70.858572	4.193181	-0.008399	-3.674275
0.250000	-0.010519	-4.576721	-70.771650	9.867953	-70.771650	9.867953	-0.011056	-4.577278
0.300000	-0.012853	-5.476925	-70.699304	14.806857	-70.699304	14.806857	-0.013394	-5.476851
0.350000	-0.014872	-6.374655	-70.629820	19.225504	-70.629820	19.225504	-0.015387	-6.374074
0.400000	-0.016598	-7.270804	-70.556627	23.265563	-70.556627	23.265563	-0.017071	-7.269856
0.450000	-0.018075	-8.165951	-70.476233	27.003627	-70.476233	27.003627	-0.018501	-8.164761
0.500000	-0.019351	-9.060440	-70.386531	30.484509	-70.386531	30.484509	-0.019729	-9.059107
0.550000	-0.020468	-9.954462	-70.286142	33.736427	-70.286142	33.736427	-0.020801	-9.953060
0.600000	-0.021463	-10.848106	-70.174124	36.778523	-70.174124	36.778523	-0.021754	-10.846689
0.650000	-0.022365	-11.741402	-70.049838	39.624803	-70.049838	39.624803	-0.022619	-11.740007
0.700000	-0.023197	-12.634344	-69.912870	42.286297	-69.912870	42.286297	-0.023419	-12.632998
0.750000	-0.023978	-13.526904	-69.762983	44.772253	-69.762983	44.772253	-0.024171	-13.525623
0.800000	-0.024723	-14.419041	-69.600085	47.090820	-69.600085	47.090820	-0.024891	-14.417837
0.850000	-0.025442	-15.310711	-69.424200	49.249428	-69.424200	49.249428	-0.025587	-15.309590
0.900000	-0.026144	-16.201866	-69.235445	51.255000	-69.235445	51.255000	-0.026271	-16.200830
0.950000	-0.026838	-17.092456	-69.034013	53.114062	-69.034013	53.114062	-0.026947	-17.091507
1.000000	-0.027528	-17.982432	-68.820149	54.832804	-68.820149	54.832804	-0.027621	-17.981570
1.050000	-0.028218	-18.871748	-68.594139	56.417105	-68.594139	56.417105	-0.028299	-18.870971
1.100000	-0.028914	-19.760358	-68.356292	57.872542	-68.356292	57.872542	-0.028982	-19.759664
1.150000	-0.029617	-20.648219	-68.106932	59.204395	-68.106932	59.204395	-0.029675	-20.647603
1.200000	-0.030330	-21.535287	-67.846381	60.417646	-67.846381	60.417646	-0.030379	-21.534747
1.250000	-0.031055	-22.421524	-67.574954	61.516979	-67.574954	61.516979	-0.031095	-22.421055
1.300000	-0.031794	-23.306851	-67.292086	62.502211	-67.292086	62.502211	-0.031827	-23.306450
1.350000	-0.032548	-24.191269	-66.998875	63.382345	-66.998875	63.382345	-0.032575	-24.190932
1.400000	-0.033318	-25.074744	-66.695562	64.161142	-66.695562	64.161142	-0.033340	-25.074466
1.450000	-0.034106	-25.957242	-66.382356	64.842083	-66.382356	64.842083	-0.034122	-25.957020
1.500000	-0.034910	-26.838734	-66.059426	65.428368	-66.059426	65.428368	-0.034922	-26.838564
1.550000	-0.035733	-27.719192	-65.726898	65.922933	-65.726898	65.922933	-0.035741	-27.719069
1.600000	-0.036574	-28.598587	-65.384853	66.328453	-65.384853	66.328453	-0.036579	-28.598509
1.650000	-0.037435	-29.476896	-65.033323	66.647352	-65.033323	66.647352	-0.037436	-29.476858
1.700000	-0.038314	-30.354095	-64.672289	66.881812	-64.672289	66.881812	-0.038313	-30.354094
1.750000	-0.039213	-31.230164	-64.301675	67.033780	-64.301675	67.033780	-0.039209	-31.230196
1.800000	-0.040131	-32.105084	-63.921345	67.104979	-63.921345	67.104979	-0.040126	-32.105145
1.850000	-0.041069	-32.978838	-63.531103	67.096911	-63.531103	67.096911	-0.041062	-32.978926
1.900000	-0.042027	-33.851412	-63.130682	67.010869	-63.130682	67.010869	-0.042018	-33.851523
1.950000	-0.043004	-34.722794	-62.719744	66.847938	-62.719744	66.847938	-0.042994	-34.722926
2.000000	-0.044002	-35.592977	-62.297870	66.609005	-62.297870	66.609005	-0.043990	-35.593125
2.050000	-0.045019	-36.461953	-61.864555	66.294761	-61.864555	66.294761	-0.045006	-36.462116
2.100000	-0.046055	-37.329722	-61.419200	65.905704	-61.419200	65.905704	-0.046043	-37.329897
2.150000	-0.047112	-38.196284	-60.961100	65.442143	-60.961100	65.442143	-0.047099	-38.196468
2.200000	-0.048188	-39.061647	-60.489430	64.904196	-60.489430	64.904196	-0.048174	-39.061837
2.250000	-0.049284	-39.925821	-60.003235	64.291791	-60.003235	64.291791	-0.049270	-39.926015
2.300000	-0.050400	-40.788825	-59.501406	63.604662	-59.501406	63.604662	-0.050386	-40.789021
2.350000	-0.051536	-41.650682	-58.982662	62.842340	-58.982662	62.842340	-0.051523	-41.650877
2.400000	-0.052693	-42.511428	-58.445523	62.004147	-58.445523	62.004147	-0.052679	-42.511620
2.450000	-0.053870	-43.371105	-57.888275	61.089177	-57.888275	61.089177	-0.053857	-43.371291
2.500000	-0.055069	-44.229770	-57.308928	60.096273	-57.308928	60.096273	-0.055056	-44.229950
2.550000	-0.056291	-45.087462	-56.702024	59.020461	-56.702024	59.020461	-0.056279	-45.087632
2.600000	-0.057537	-45.944322	-56.067278	57.863306	-56.067278	57.863306	-0.057525	-45.944480
2.650000	-0.058808	-46.800475	-55.401294	56.622566	-55.401294	56.622566	-0.058797	-46.800619
2.700000	-0.060107	-47.656087	-54.700015	55.295479	-54.700015	55.295479	-0.060096	-47.656214
2.750000	-0.061437	-48.511369	-53.958547	53.878594	-53.958547	53.878594	-0.061427	-48.511478
2.800000	-0.062804	-49.366607	-53.170915	52.367534	-53.170915	52.367534	-0.062795	-49.366694
2.850000	-0.064215	-50.222182	-52.329728	50.756624	-52.329728	50.756624	-0.064206	-50.222245
2.900000	-0.065682	-51.078619	-51.425684	49.038307	-51.425684	49.038307	-0.065673	-51.078652
2.950000	-0.067212	-51.936421	-50.466235	47.214788	-50.466235	47.214788	-0.067205	-51.936422
3.000000	-0.068848	-52.796933	-49.403943	45.249737	-49.403943	45.249737	-0.068841	-52.796895
3.050000	-0.070630	-53.661580	-48.233106	43.131878	-48.233106	43.131878	-0.070623	-53.661496
3.100000	-0.072636	-54.532764	-46.926069	40.828272	-46.926069	40.828272	-0.072629	-54.532623
3.150000	-0.075025	-55.414566	-45.438682	38.282001	-45.438682	38.282001	-0.075018	-55.414352
3.200000	-0.078125	-56.314222	-43.705486	35.392548	-43.705486	35.392548	-0.078116	-56.313911
3.250000	-0.082706	-57.245541	-41.626237	31.965566	-41.626237	31.965566	-0.082694	-57.245090
3.300000	-0.090901	-58.238332	-39.027682	27.566837	-39.027682	27.566837	-0.090881	-58.237662
3.350000	-0.111081	-59.375061	-35.502086	20.901455	-35.502086	20.901455	-0.111038	-59.373992
3.400000	-0.196608	-60.915375	-30.078723	6.490897	-30.078723	6.490897	-0.196459	-60.913431
3.450000	-0.752470	-60.305926	-22.775532	-56.798233	-22.775532	-56.798233	-0.751681	-60.305426
3.500000	-0.215863	-59.085699	-29.334388	-124.725886	-29.334388	-124.725886	-0.215668	-59.088075
3.550000	-0.122032	-60.640159	-34.504578	-140.143764	-34.504578	-140.143764	-0.121973	-60.641641
3.600000	-0.102411	-61.777529	-37.698183	-147.313183	-37.698183	-147.313183	-0.102385	-61.778597
3.650000	-0.096167	-62.762759	-39.939429	-152.227789	-39.939429	-152.227789	-0.096153	-62.763604
3.700000	-0.094002	-63.680585	-41.631328	-156.245015	-41.631328	-156.245015	-0.093994	-63.681291
3.750000	-0.093485	-64.562743	-42.966499	-159.830694	-42.966499	-159.830694	-0.093480	-64.563354
3.800000	-0.093756	-65.423690	-44.055048	-163.186312	-44.055048	-163.186312	-0.093754	-65.424232
3.850000	-0.094469	-66.270283	-44.951988	-166.405566	-44.951988	-166.405566	-0.094467	-66.270773
3.900000	-0.095445	-67.106587	-45.697839	-169.541610	-45.697839	-169.541610	-0.095445	-67.107037
3.950000	-0.096573	-67.936148	-46.344063	-172.629796	-46.344063	-172.629796	-0.096574	-67.936566
4.000000	-0.097827	-68.759070	-46.879546	-175.678546	-46.879546	-175.678546	-0.097829	-68.759463
4.050000	-0.099150	-69.577941	-47.353343	-178.705306	-47.353343	-178.705306	-0.099152	-69.578312
4.100000	-0.100532	-70.393130	-47.766504	178.286986	-47.766504	178.286986	-0.100534	-70.393484
4.150000	-0.101978	-71.203604	-48.095981	175.303428	-48.095981	175.303428	-0.101981	-71.203946
4.200000	-0.103460	-72.011246	-48.381782	172.336112	-48.381782	172.336112	-0.103463	-72.011577
4.250000	-0.104972	-72.816431	-48.629473	169.384075	-48.629473	169.384075	-0.104975	-72.816754
4.300000	-0.106514	-73.618913	-48.834658	166.450645	-48.834658	166.450645	-0.106517	-73.619230
4.350000	-0.108089	-74.418389	-48.995527	163.542501	-48.995527	163.542501	-0.108092	-74.418702
4.400000	-0.109684	-75.215929	-49.130504	160.653343	-49.130504	160.653343	-0.109688	-75.216240
4.450000	-0.111300	-76.011587	-49.240458	157.783887	-49.240458	157.783887	-0.111303	-76.011896
4.500000	-0.112943	-76.804651	-49.318002	154.945464	-49.318002	154.945464	-0.112947	-76.804962
4.550000	-0.114608	-77.595721	-49.373227	152.134472	-49.373227	152.134472	-0.114612	-77.596034
4.600000	-0.116292	-78.385146	-49.410926	149.347606	-49.410926	149.347606	-0.116295	-78.385462
4.650000	-0.117995	-79.172813	-49.430765	146.587890	-49.430765	146.587890	-0.117998	-79.173134
4.700000	-0.119726	-79.958087	-49.428905	143.868870	-49.428905	143.868870	-0.119729	-79.958414
4.750000	-0.121476	-80.741859	-49.414808	141.177284	-49.414808	141.177284	-0.121478	-80.742192
4.800000	-0.123244	-81.524147	-49.389155	138.513512	-49.389155	138.513512	-0.123247	-81.524487
4.850000	-0.125039	-82.304454	-49.349459	135.888652	-49.349459	135.888652	-0.125041	-82.304803
4.900000	-0.126859	-83.082962	-49.298545	133.301128	-49.298545	133.301128	-0.126861	-83.083319
4.950000	-0.128699	-83.860077	-49.239738	130.743343	-49.239738	130.743343	-0.128701	-83.860444
5.000000	-0.130560	-84.635812	-49.173600	128.215528	-49.173600	128.215528	-0.130562	-84.636189
5.050000	-0.132465	-85.408796	-49.094440	125.750168	-49.094440	125.750168	-0.132467	-85.409183
5.100000	-0.134371	-86.181779	-49.015995	123.284808	-49.015995	123.284808	-0.134372	-86.182178
5.150000	-0.136328	-86.951816	-48.925799	120.889193	-48.925799	120.889193	-0.136330	-86.952226
5.200000	-0.138291	-87.721585	-48.835410	118.499918	-48.835410	118.499918	-0.138292	-87.722006
5.250000	-0.140304	-88.488748	-48.736547	116.174754	-48.736547	116.174754	-0.140306	-88.489181
5.300000	-0.142328	-89.255390	-48.636938	113.862412	-48.636938	113.862412	-0.142330	-89.255835
5.350000	-0.144402	-90.019746	-48.531277	111.608107	-48.531277	111.608107	-0.144403	-90.020202
5.400000	-0.146492	-90.783339	-48.424522	109.373146	-48.424522	109.373146	-0.146493	-90.783808
5.450000	-0.148630	-91.544949	-48.313492	107.189827	-48.313492	107.189827	-0.148631	-91.545429
5.500000	-0.150792	-92.305567	-48.201113	105.032328	-48.201113	105.032328	-0.150793	-92.306058
5.550000	-0.152999	-93.064487	-48.085751	102.919839	-48.085751	102.919839	-0.153000	-93.064990
5.600000	-0.155238	-93.822195	-47.968789	100.839501	-47.968789	100.839501	-0.155239	-93.822709
5.650000	-0.157518	-94.578480	-47.849799	98.797382	-47.849799	98.797382	-0.157519	-94.579005
5.700000	-0.159840	-95.333341	-47.728885	96.793484	-47.728885	96.793484	-0.159841	-95.333876
5.750000	-0.162199	-96.087040	-47.606679	94.820938	-47.606679	94.820938	-0.162200	-96.087585
5.800000	-0.164609	-96.839113	-47.482094	92.892288	-47.482094	92.892288	-0.164611	-96.839666
5.850000	-0.167052	-97.590273	-47.356837	90.988145	-47.356837	90.988145	-0.167054	-97.590835
5.900000	-0.169557	-98.339611	-47.228564	89.133019	-47.228564	89.133019	-0.169559	-98.340180
5.950000	-0.172089	-99.088277	-47.100212	87.295696	-47.100212	87.295696	-0.172091	-99.088854
6.000000	-0.174695	-99.834931	-46.967980	85.511781	-46.967980	85.511781	-0.174698	-99.835514
6.050000	-0.177320	-100.581146	-46.836314	83.739241	-46.836314	83.739241	-0.177323	-100.581735
6.100000	-0.180035	-101.325164	-46.699638	82.023571	-46.699638	82.023571	-0.180037	-101.325757
6.150000	-0.182759	-102.068966	-46.564292	80.313280	-46.564292	80.313280	-0.182762	-102.069563
6.200000	-0.185587	-102.810393	-46.422500	78.662168	-46.422500	78.662168	-0.185590	-102.810992
6.250000	-0.188415	-103.551820	-46.282986	77.011055	-46.282986	77.011055	-0.188418	-103.552421
6.300000	-0.191363	-104.290697	-46.135249	75.420009	-46.135249	75.420009	-0.191366	-104.291298
6.350000	-0.194311	-105.029574	-45.989982	73.828963	-45.989982	73.828963	-0.194314	-105.030175
6.400000	-0.197373	-105.766148	-45.836323	72.288026	-45.836323	72.288026	-0.197377	-105.766747
6.450000	-0.200447	-106.502514	-45.684371	70.751645	-45.684371	70.751645	-0.200450	-106.503110
6.500000	-0.203629	-107.236815	-45.523947	69.255435	-45.523947	69.255435	-0.203632	-107.237407
6.550000	-0.206833	-107.970703	-45.364258	67.767259	-45.364258	67.767259	-0.206836	-107.971290
6.600000	-0.210138	-108.702758	-45.196162	66.309447	-45.196162	66.309447	-0.210141	-108.703339
6.650000	-0.213478	-109.434201	-45.027569	64.861756	-45.027569	64.861756	-0.213481	-109.434775
6.700000	-0.216911	-110.164034	-44.850840	63.434882	-44.850840	63.434882	-0.216913	-110.164600
6.750000	-0.220390	-110.893062	-44.672079	62.018416	-44.672079	62.018416	-0.220391	-110.893619
6.800000	-0.223952	-111.620697	-44.485714	60.613641	-44.485714	60.613641	-0.223953	-111.621243
6.850000	-0.227573	-112.347336	-44.295432	59.217215	-44.295432	59.217215	-0.227573	-112.347871
6.900000	-0.231267	-113.072792	-44.098411	57.823996	-44.098411	57.823996	-0.231266	-113.073317
6.950000	-0.235032	-113.797067	-43.895191	56.433982	-43.895191	56.433982	-0.235031	-113.797579
7.000000	-0.238858	-114.520365	-43.686508	55.039656	-43.686508	55.039656	-0.238855	-114.520865
7.050000	-0.242768	-115.242299	-43.468914	53.639292	-43.468914	53.639292	-0.242764	-115.242785
7.100000	-0.246726	-115.963459	-43.247628	52.228550	-43.247628	52.228550	-0.246720	-115.963932
7.150000	-0.250778	-116.683074	-43.014286	50.797051	-43.014286	50.797051	-0.250770	-116.683533
7.200000	-0.254866	-117.402115	-42.779597	49.351285	-42.779597	49.351285	-0.254856	-117.402561
7.250000	-0.259056	-118.119436	-42.529345	47.862722	-42.529345	47.862722	-0.259045	-118.119869
7.300000	-0.263270	-118.836379	-42.280716	46.359255	-42.280716	46.359255	-0.263256	-118.836800
7.350000	-0.267591	-119.551435	-42.012868	44.781269	-42.012868	44.781269	-0.267576	-119.551844
7.400000	-0.271925	-120.266305	-41.750195	43.192489	-41.750195	43.192489	-0.271907	-120.266703
7.450000	-0.276367	-120.979131	-41.464987	41.484990	-41.464987	41.484990	-0.276346	-120.979520
7.500000	-0.280812	-121.691957	-41.188848	39.777491	-41.188848	39.777491	-0.280788	-121.692337
7.550000	-0.285337	-122.403139	-40.896524	37.943138	-40.896524	37.943138	-0.285310	-122.403514
7.600000	-0.289909	-123.113290	-40.598234	36.010536	-40.598234	36.010536	-0.289879	-123.113661
7.650000	-0.294523	-123.822427	-40.295220	33.966349	-40.295220	33.966349	-0.294489	-123.822796
7.700000	-0.299173	-124.530567	-39.989164	31.796822	-39.989164	31.796822	-0.299136	-124.530939
7.750000	-0.303853	-125.237737	-39.682272	29.488259	-39.682272	29.488259	-0.303813	-125.238114
7.800000	-0.308556	-125.943962	-39.377357	27.027733	-39.377357	27.027733	-0.308513	-125.944348
7.850000	-0.313275	-126.649277	-39.077909	24.404093	-39.077909	24.404093	-0.313229	-126.649676
7.900000	-0.318001	-127.353721	-38.788130	21.609280	-38.788130	21.609280	-0.317952	-127.354138
7.950000	-0.322726	-128.057419	-38.511878	18.656960	-38.511878	18.656960	-0.322674	-128.057858
8.000000	-0.327438	-128.760275	-38.255776	15.517090	-38.255776	15.517090	-0.327385	-128.760741
8.050000	-0.332127	-129.462429	-38.025375	12.216035	-38.025375	12.216035	-0.332072	-129.462928
8.100000	-0.336781	-130.163961	-37.826645	8.774920	-37.826645	8.774920	-0.336724	-130.164497
8.150000	-0.341386	-130.864960	-37.665626	5.225181	-37.665626	5.225181	-0.341329	-130.865539
8.200000	-0.345928	-131.565541	-37.547158	1.611637	-37.547158	1.611637	-0.345871	-131.566170
8.250000	-0.350393	-132.265846	-37.473935	-2.011726	-37.473935	-2.011726	-0.350338	-132.266529
8.300000	-0.354767	-132.966029	-37.447041	-5.586232	-37.447041	-5.586232	-0.354715	-132.966772
8.350000	-0.359032	-133.666286	-37.466554	-9.046645	-37.466554	-9.046645	-0.358984	-133.667092
8.400000	-0.363186	-134.366797	-37.524999	-12.354065	-37.524999	-12.354065	-0.363143	-134.367670
8.450000	-0.367197	-135.067885	-37.623026	-15.427072	-37.623026	-15.427072	-0.367161	-135.068828
8.500000	-0.371071	-135.769756	-37.749543	-18.256721	-37.749543	-18.256721	-0.371043	-135.770769
8.550000	-0.374789	-136.472822	-37.898973	-20.794005	-37.898973	-20.794005	-0.374771	-136.473905
8.600000	-0.378350	-137.177444	-38.063162	-23.027651	-38.063162	-23.027651	-0.378344	-137.178594
8.650000	-0.381762	-137.883989	-38.234150	-24.963102	-38.234150	-24.963102	-0.381769	-137.885202
8.700000	-0.385022	-138.593170	-38.404657	-26.573361	-38.404657	-26.573361	-0.385044	-138.594439
8.750000	-0.388171	-139.305092	-38.569305	-27.914030	-38.569305	-27.914030	-0.388209	-139.306410
8.800000	-0.391224	-140.021075	-38.719425	-28.938679	-38.719425	-28.938679	-0.391277	-140.022433
8.850000	-0.394248	-140.740934	-38.853629	-29.723642	-38.853629	-29.723642	-0.394317	-140.742322
8.900000	-0.397318	-141.466012	-38.964403	-30.248800	-38.964403	-30.248800	-0.397400	-141.467422
8.950000	-0.400523	-142.196452	-39.050541	-30.557319	-39.050541	-30.557319	-0.400617	-142.197880
9.000000	-0.403997	-142.933077	-39.107966	-30.661072	-39.107966	-30.661072	-0.404100	-142.934525
9.050000	-0.407903	-143.676518	-39.133533	-30.575925	-39.133533	-30.575925	-0.408011	-143.678000
9.100000	-0.412385	-144.426609	-39.127588	-30.333682	-39.127588	-30.333682	-0.412493	-144.428147
9.150000	-0.417755	-145.184451	-39.083581	-29.930185	-39.083581	-29.930185	-0.417858	-145.186093
9.200000	-0.424082	-145.948685	-39.006152	-29.405144	-39.006152	-29.405144	-0.424178	-145.950486
9.250000	-0.431841	-146.720119	-38.886247	-28.747163	-38.886247	-28.747163	-0.431929	-146.722168
9.300000	-0.441034	-147.496807	-38.729384	-27.987352	-38.729384	-27.987352	-0.441116	-147.499194
9.350000	-0.452068	-148.278063	-38.528865	-27.121471	-38.528865	-27.121471	-0.452151	-148.280902
9.400000	-0.465018	-149.062026	-38.285666	-26.160714	-38.285666	-26.160714	-0.465115	-149.065423
9.450000	-0.480008	-149.846751	-37.997683	-25.107307	-37.997683	-25.107307	-0.480137	-149.850801
9.500000	-0.497212	-150.630063	-37.659221	-23.954284	-37.659221	-23.954284	-0.497399	-150.634841
9.550000	-0.516367	-151.410082	-37.274624	-22.707458	-37.274624	-22.707458	-0.516638	-151.415618
9.600000	-0.537614	-152.184303	-36.832706	-21.344145	-36.832706	-21.344145	-0.538001	-152.190584
9.650000	-0.560713	-152.950879	-36.330275	-19.848396	-36.330275	-19.848396	-0.561249	-152.957836
9.700000	-0.585413	-153.708414	-35.762634	-18.194336	-35.762634	-18.194336	-0.586126	-153.715927
9.750000	-0.611452	-154.455853	-35.122517	-16.341661	-35.122517	-16.341661	-0.612368	-154.463759
9.800000	-0.638560	-155.192582	-34.400813	-14.231678	-34.400813	-14.231678	-0.639696	-155.200686
9.850000	-0.666469	-155.918408	-33.586143	-11.778249	-33.586143	-11.778249	-0.667837	-155.926495
9.900000	-0.694932	-156.633493	-32.664506	-8.852758	-32.664506	-8.852758	-0.696536	-156.641344
9.950000	-0.723731	-157.338323	-31.620393	-5.262219	-31.620393	-5.262219	-0.725570	-157.345724
10.000000	-0.752684	-158.033447	-30.432846	-0.686624	-30.432846	-0.686624	-0.754750	-158.040199
