! freq	dB(S11)	phase(S11)	dB(S12)	phase(S12)	
!     	dB(S21)	phase(S21)	dB(S22)	phase(S22)	
!S-par simulation data
#  GHz  S  DB  R 50
0.000000	-0.000000	-0.000000	-382.890254	180.000000	-382.890254	180.000000	-0.000000	-0.000000
0.050000	-0.000141	-0.802846	-102.444421	-156.899121	-102.444421	-156.899121	-0.000137	-0.802737
0.100000	-0.000552	-1.605247	-100.825741	176.541563	-100.825741	176.541563	-0.000539	-1.605049
0.150000	-0.001202	-2.406822	-99.980521	160.692059	-99.980521	160.692059	-0.001175	-2.406573
0.200000	-0.002046	-3.207312	-99.219860	149.145643	-99.219860	149.145643	-0.002003	-3.207050
0.250000	-0.003044	-4.006476	-98.491170	140.293268	-98.491170	140.293268	-0.002987	-4.006241
0.300000	-0.004137	-4.804377	-97.812573	133.129908	-97.812573	133.129908	-0.004069	-4.804197
0.350000	-0.005293	-5.600986	-97.198777	127.322241	-97.198777	127.322241	-0.005218	-5.600877
0.400000	-0.006480	-6.396371	-96.660526	122.575202	-96.660526	122.575202	-0.006402	-6.396340
0.450000	-0.007676	-7.190624	-96.203738	118.690019	-96.203738	118.690019	-0.007599	-7.190668
0.500000	-0.008867	-7.983842	-95.831381	115.534476	-95.831381	115.534476	-0.008794	-7.983953
0.550000	-0.010044	-8.776117	-95.544925	113.026382	-95.544925	113.026382	-0.009976	-8.776281
0.600000	-0.011202	-9.567525	-95.345208	111.124142	-95.345208	111.124142	-0.011142	-9.567730
0.650000	-0.012340	-10.358128	-95.232815	109.822195	-95.232815	109.822195	-0.012287	-10.358359
0.700000	-0.013457	-11.147973	-95.208016	109.150358	-95.208016	109.150358	-0.013413	-11.148217
0.750000	-0.014557	-11.937089	-95.270173	109.176581	-95.270173	109.176581	-0.014521	-11.937335
0.800000	-0.015641	-12.725498	-95.416356	110.012564	-95.416356	110.012564	-0.015612	-12.725737
0.850000	-0.016711	-13.513208	-95.638644	111.820593	-95.638644	111.820593	-0.016688	-13.513433
0.900000	-0.017769	-14.300221	-95.919270	114.816492	-95.919270	114.816492	-0.017753	-14.300426
0.950000	-0.018819	-15.086533	-96.222769	119.255616	-96.222769	119.255616	-0.018807	-15.086714
1.000000	-0.019860	-15.872135	-96.485738	125.375618	-96.485738	125.375618	-0.019853	-15.872289
1.050000	-0.020896	-16.657014	-96.610121	133.262822	-96.610121	133.262822	-0.020892	-16.657140
1.100000	-0.021927	-17.441156	-96.475340	142.648325	-96.475340	142.648325	-0.021925	-17.441254
1.150000	-0.022954	-18.224544	-95.984182	152.769563	-95.984182	152.769563	-0.022954	-18.224614
1.200000	-0.023979	-19.007161	-95.121745	162.545248	-95.121745	162.545248	-0.023980	-19.007203
1.250000	-0.025001	-19.788988	-93.966681	171.058877	-93.966681	171.058877	-0.025003	-19.789004
1.300000	-0.026021	-20.569971	-92.626947	177.829087	-92.626947	177.829087	-0.026024	-20.569962
1.350000	-0.027041	-21.350125	-91.224948	-177.017015	-91.224948	-177.017015	-0.027044	-21.350093
1.400000	-0.028059	-22.129432	-89.827712	-173.229700	-89.827712	-173.229700	-0.028062	-22.129378
1.450000	-0.029076	-22.907872	-88.471452	-170.532099	-88.471452	-170.532099	-0.029079	-22.907799
1.500000	-0.030093	-23.685427	-87.172716	-168.681920	-87.172716	-168.681920	-0.030095	-23.685336
1.550000	-0.031109	-24.462080	-85.937004	-167.486029	-85.937004	-167.486029	-0.031110	-24.461972
1.600000	-0.032124	-25.237812	-84.764111	-166.796483	-84.764111	-166.796483	-0.032125	-25.237689
1.650000	-0.033139	-26.012605	-83.651118	-166.501595	-83.651118	-166.501595	-0.033139	-26.012469
1.700000	-0.034153	-26.786102	-82.569338	-166.595736	-82.569338	-166.595736	-0.034153	-26.785955
1.750000	-0.035168	-27.559094	-81.574656	-166.828632	-81.574656	-166.828632	-0.035166	-27.558937
1.800000	-0.036181	-28.330873	-80.612475	-167.284215	-80.612475	-167.284215	-0.036179	-28.330707
1.850000	-0.037195	-29.101786	-79.701506	-167.898861	-79.701506	-167.898861	-0.037192	-29.101611
1.900000	-0.038209	-29.871624	-78.827187	-168.638585	-78.827187	-168.638585	-0.038206	-29.871442
1.950000	-0.039223	-30.640387	-77.987605	-169.503387	-77.987605	-169.503387	-0.039219	-30.640198
2.000000	-0.040237	-31.408226	-77.186695	-170.438975	-77.186695	-170.438975	-0.040233	-31.408031
2.050000	-0.041252	-32.174771	-76.408132	-171.473660	-76.408132	-171.473660	-0.041247	-32.174571
2.100000	-0.042268	-32.940555	-75.669195	-172.547956	-75.669195	-172.547956	-0.042262	-32.940349
2.150000	-0.043284	-33.704816	-74.943179	-173.701472	-74.943179	-173.701472	-0.043279	-33.704606
2.200000	-0.044302	-34.468490	-74.257152	-174.876280	-74.257152	-174.876280	-0.044296	-34.468276
2.250000	-0.045321	-35.230404	-73.576791	-176.114960	-73.576791	-176.114960	-0.045315	-35.230185
2.300000	-0.046342	-35.991916	-72.936425	-177.364018	-72.936425	-177.364018	-0.046335	-35.991693
2.350000	-0.047365	-36.751421	-72.296078	-178.664968	-72.296078	-178.664968	-0.047359	-36.751194
2.400000	-0.048390	-37.510720	-71.695508	-179.969776	-71.695508	-179.969776	-0.048383	-37.510489
2.450000	-0.049419	-38.267757	-71.090525	178.682981	-71.090525	178.682981	-0.049413	-38.267521
2.500000	-0.050448	-39.024793	-70.524950	177.335737	-70.524950	177.335737	-0.050443	-39.024553
2.550000	-0.051485	-39.779304	-69.951455	175.953590	-69.951455	175.953590	-0.051479	-39.779060
2.600000	-0.052522	-40.533815	-69.413492	174.571443	-69.413492	174.571443	-0.052516	-40.533567
2.650000	-0.053567	-41.285961	-68.871634	173.164881	-68.871634	173.164881	-0.053561	-41.285708
2.700000	-0.054612	-42.037892	-68.358586	171.756100	-68.358586	171.756100	-0.054607	-42.037634
2.750000	-0.055667	-42.787629	-67.844972	170.330197	-67.844972	170.330197	-0.055662	-42.787367
2.800000	-0.056723	-43.536928	-67.354530	168.900871	-67.354530	168.900871	-0.056719	-43.536660
2.850000	-0.057789	-44.284215	-66.866292	167.459541	-66.866292	167.459541	-0.057785	-44.283942
2.900000	-0.058857	-45.030831	-66.396467	166.014210	-66.396467	166.014210	-0.058854	-45.030552
2.950000	-0.059936	-45.775628	-65.931162	164.560487	-65.931162	164.560487	-0.059932	-45.775343
3.000000	-0.061019	-46.519515	-65.480226	163.102568	-65.480226	163.102568	-0.061016	-46.519225
3.050000	-0.062111	-47.261784	-65.035759	161.638817	-65.035759	161.638817	-0.062108	-47.261487
3.100000	-0.063210	-48.002897	-64.602205	160.170902	-64.602205	160.170902	-0.063208	-48.002594
3.150000	-0.064318	-48.742603	-64.176761	158.698977	-64.176761	158.698977	-0.064316	-48.742293
3.200000	-0.065435	-49.480901	-63.759267	157.223044	-63.759267	157.223044	-0.065434	-49.480585
3.250000	-0.066561	-50.218010	-63.351267	155.744401	-63.351267	155.744401	-0.066560	-50.217687
3.300000	-0.067698	-50.953454	-62.948666	154.261965	-62.948666	154.261965	-0.067697	-50.953124
3.350000	-0.068842	-51.687935	-62.556729	152.777753	-62.556729	152.777753	-0.068841	-51.687597
3.400000	-0.070001	-52.420489	-62.167992	151.289985	-62.167992	151.289985	-0.070000	-52.420144
3.450000	-0.071166	-53.152313	-61.790902	149.801110	-61.790902	149.801110	-0.071165	-53.151961
3.500000	-0.072348	-53.881945	-61.415110	148.308916	-61.415110	148.308916	-0.072348	-53.881586
3.550000	-0.073535	-54.611086	-61.051793	146.816100	-61.051793	146.816100	-0.073535	-54.610719
3.600000	-0.074742	-55.337767	-60.688132	145.320183	-60.688132	145.320183	-0.074743	-55.337392
3.650000	-0.075953	-56.064200	-60.337633	143.824002	-60.337633	143.824002	-0.075953	-56.063817
3.700000	-0.077188	-56.787904	-59.985371	142.324917	-59.985371	142.324917	-0.077188	-56.787513
3.750000	-0.078423	-57.511607	-59.646841	140.825831	-59.646841	140.825831	-0.078423	-57.511209
3.800000	-0.079687	-58.232310	-59.305326	139.324018	-59.305326	139.324018	-0.079687	-58.231904
3.850000	-0.080951	-58.953014	-58.976732	137.822205	-58.976732	137.822205	-0.080952	-58.952599
3.900000	-0.082243	-59.670949	-58.646646	136.318219	-58.646646	136.318219	-0.082244	-59.670526
3.950000	-0.083538	-60.388632	-58.327466	134.814034	-58.327466	134.814034	-0.083539	-60.388202
4.000000	-0.084860	-61.103786	-58.008119	133.308121	-58.008119	133.308121	-0.084861	-61.103347
4.050000	-0.086188	-61.818433	-57.697883	131.801862	-57.697883	131.801862	-0.086189	-61.817986
4.100000	-0.087541	-62.530793	-57.388652	130.294237	-57.388652	130.294237	-0.087542	-62.530339
4.150000	-0.088903	-63.242392	-57.086932	128.786157	-57.086932	128.786157	-0.088904	-63.241929
4.200000	-0.090289	-63.951951	-56.787255	127.277014	-56.787255	127.277014	-0.090289	-63.951480
4.250000	-0.091687	-64.660490	-56.493665	125.767338	-56.493665	125.767338	-0.091687	-64.660011
4.300000	-0.093107	-65.367241	-56.203031	124.256855	-56.203031	124.256855	-0.093107	-65.366754
4.350000	-0.094542	-66.072716	-55.917217	122.745793	-55.917217	122.745793	-0.094543	-66.072221
4.400000	-0.095998	-66.776656	-55.635164	121.234140	-55.635164	121.234140	-0.095998	-66.776153
4.450000	-0.097473	-67.479062	-55.356804	119.721894	-55.356804	119.721894	-0.097473	-67.478551
4.500000	-0.098965	-68.180189	-55.082906	118.209238	-55.082906	118.209238	-0.098965	-68.179670
4.550000	-0.100481	-68.879527	-54.811706	116.696007	-54.811706	116.696007	-0.100481	-68.879000
4.600000	-0.102012	-69.577843	-54.545576	115.182516	-54.545576	115.182516	-0.102011	-69.577308
4.650000	-0.103571	-70.274115	-54.281263	113.668503	-54.281263	113.668503	-0.103570	-70.273573
4.700000	-0.105141	-70.969623	-54.022545	112.154347	-54.022545	112.154347	-0.105140	-70.969073
4.750000	-0.106744	-71.662838	-53.764868	110.639762	-53.764868	110.639762	-0.106743	-71.662280
4.800000	-0.108356	-72.355544	-53.513232	109.125118	-53.513232	109.125118	-0.108354	-72.354978
4.850000	-0.110005	-73.045709	-53.261957	107.610178	-53.261957	107.610178	-0.110004	-73.045135
4.900000	-0.111659	-73.735621	-53.017099	106.095228	-53.017099	106.095228	-0.111657	-73.735040
4.950000	-0.113356	-74.422750	-52.772010	104.580160	-52.772010	104.580160	-0.113354	-74.422161
5.000000	-0.115053	-75.109879	-52.533647	103.065093	-52.533647	103.065093	-0.115051	-75.109282
5.050000	-0.116800	-75.793987	-52.294537	101.550134	-52.294537	101.550134	-0.116798	-75.793383
5.100000	-0.118546	-76.478095	-52.061834	100.035176	-52.061834	100.035176	-0.118544	-76.477483
5.150000	-0.120340	-77.159452	-51.829082	98.520540	-51.829082	98.520540	-0.120337	-77.158832
5.200000	-0.122137	-77.840558	-51.601863	97.005933	-51.601863	97.005933	-0.122135	-77.839930
5.250000	-0.123979	-78.519179	-51.375213	95.491828	-51.375213	95.491828	-0.123976	-78.518544
5.300000	-0.125829	-79.197305	-51.153310	93.977823	-51.153310	93.977823	-0.125826	-79.196662
5.350000	-0.127720	-79.873212	-50.932522	92.464460	-50.932522	92.464460	-0.127717	-79.872562
5.400000	-0.129625	-80.548381	-50.715774	90.951310	-50.715774	90.951310	-0.129622	-80.547723
5.450000	-0.131567	-81.221597	-50.500620	89.438899	-50.500620	89.438899	-0.131563	-81.220931
5.500000	-0.133527	-81.893836	-50.288871	87.926857	-50.288871	87.926857	-0.133524	-81.893162
5.550000	-0.135521	-82.564383	-50.079136	86.415607	-50.079136	86.415607	-0.135518	-82.563702
5.600000	-0.137540	-83.233722	-49.872235	84.904923	-49.872235	84.904923	-0.137536	-83.233033
5.650000	-0.139587	-83.901628	-49.667711	83.395040	-49.667711	83.395040	-0.139584	-83.900931
5.700000	-0.141665	-84.568099	-49.465511	81.885958	-49.465511	81.885958	-0.141661	-84.567394
5.750000	-0.143767	-85.233390	-49.266002	80.377639	-49.266002	80.377639	-0.143764	-85.232678
5.800000	-0.145906	-85.897029	-49.068358	78.870390	-49.068358	78.870390	-0.145902	-85.896309
5.850000	-0.148065	-86.559736	-48.873673	77.363824	-48.873673	77.363824	-0.148061	-86.559007
5.900000	-0.150266	-87.220579	-48.680444	75.858624	-48.680444	75.858624	-0.150262	-87.219843
5.950000	-0.152483	-87.880733	-48.490402	74.353986	-48.490402	74.353986	-0.152479	-87.879989
6.000000	-0.154748	-88.538821	-48.301446	72.851033	-48.301446	72.851033	-0.154744	-88.538068
6.050000	-0.157025	-89.196456	-48.115873	71.348483	-48.115873	71.348483	-0.157021	-89.195695
6.100000	-0.159356	-89.851829	-47.931050	69.847949	-47.931050	69.847949	-0.159352	-89.851060
6.150000	-0.161693	-90.506980	-47.749777	68.347630	-47.749777	68.347630	-0.161689	-90.506203
6.200000	-0.164092	-91.159685	-47.568951	66.849661	-47.568951	66.849661	-0.164088	-91.158898
6.250000	-0.166492	-91.812389	-47.391812	65.351692	-47.391812	65.351692	-0.166488	-91.811594
6.300000	-0.168960	-92.462470	-47.214847	63.856402	-47.214847	63.856402	-0.168956	-92.461666
6.350000	-0.171429	-93.112551	-47.041415	62.361111	-47.041415	62.361111	-0.171425	-93.111739
6.400000	-0.173963	-93.760272	-46.868446	60.868346	-46.868446	60.868346	-0.173959	-93.759451
6.450000	-0.176503	-94.407779	-46.698593	59.375810	-46.698593	59.375810	-0.176500	-94.406949
6.500000	-0.179104	-95.053182	-46.529463	57.885603	-46.529463	57.885603	-0.179101	-95.052343
6.550000	-0.181718	-95.698165	-46.363065	56.395862	-46.363065	56.395862	-0.181714	-95.697317
6.600000	-0.184387	-96.341295	-46.197618	54.908213	-46.197618	54.908213	-0.184384	-96.340438
6.650000	-0.187076	-96.983807	-46.034551	53.421262	-46.034551	53.421262	-0.187072	-96.982940
6.700000	-0.189815	-97.624708	-45.872640	51.936139	-45.872640	51.936139	-0.189812	-97.623832
6.750000	-0.192580	-98.264803	-45.712783	50.451930	-45.712783	50.451930	-0.192577	-98.263918
6.800000	-0.195392	-98.903522	-45.554265	48.969265	-45.554265	48.969265	-0.195388	-98.902627
6.850000	-0.198236	-99.541257	-45.397500	47.487703	-45.397500	47.487703	-0.198233	-99.540352
6.900000	-0.201120	-100.177842	-45.242238	46.007393	-45.242238	46.007393	-0.201117	-100.176927
6.950000	-0.204045	-100.813276	-45.088449	44.528334	-45.088449	44.528334	-0.204042	-100.812351
7.000000	-0.207004	-101.447776	-44.936314	43.050239	-44.936314	43.050239	-0.207001	-101.446841
7.050000	-0.210011	-102.080968	-44.785390	41.573491	-44.785390	41.573491	-0.210009	-102.080023
7.100000	-0.213047	-102.713433	-44.636256	40.097432	-44.636256	40.097432	-0.213045	-102.712478
7.150000	-0.216139	-103.344445	-44.488090	38.622751	-44.488090	38.622751	-0.216137	-103.343480
7.200000	-0.219254	-103.974928	-44.341839	37.148513	-44.341839	37.148513	-0.219251	-103.973952
7.250000	-0.222432	-104.603823	-44.196330	35.675604	-44.196330	35.675604	-0.222430	-104.602837
7.300000	-0.225626	-105.232377	-44.052852	34.202933	-44.052852	34.202933	-0.225624	-105.231380
7.350000	-0.228894	-105.859221	-43.909904	32.731452	-43.909904	32.731452	-0.228891	-105.858213
7.400000	-0.232170	-106.485899	-43.769094	31.260057	-43.769094	31.260057	-0.232167	-106.484880
7.450000	-0.235528	-107.110757	-43.628618	29.789610	-43.628618	29.789610	-0.235525	-107.109728
7.500000	-0.238887	-107.735616	-43.490379	28.319163	-43.490379	28.319163	-0.238885	-107.734575
7.550000	-0.242338	-108.358556	-43.352296	26.849307	-43.352296	26.849307	-0.242336	-108.357505
7.600000	-0.245791	-108.981497	-43.216374	25.379451	-43.216374	25.379451	-0.245788	-108.980435
7.650000	-0.249330	-109.602744	-43.080776	23.909691	-43.080776	23.909691	-0.249327	-109.601671
7.700000	-0.252878	-110.223837	-42.947103	22.439940	-42.947103	22.439940	-0.252875	-110.222753
7.750000	-0.256506	-110.843448	-42.813913	20.969832	-42.813913	20.969832	-0.256503	-110.842354
7.800000	-0.260151	-111.462764	-42.682431	19.499653	-42.682431	19.499653	-0.260148	-111.461658
7.850000	-0.263870	-112.080800	-42.551584	18.028726	-42.551584	18.028726	-0.263867	-112.079684
7.900000	-0.267615	-112.698410	-42.422244	16.557549	-42.422244	16.557549	-0.267612	-112.697283
7.950000	-0.271428	-113.314932	-42.293684	15.085301	-42.293684	15.085301	-0.271425	-113.313794
8.000000	-0.275275	-113.930910	-42.166448	13.612518	-42.166448	13.612518	-0.275272	-113.929761
8.050000	-0.279183	-114.545979	-42.040128	12.138427	-42.040128	12.138427	-0.279180	-114.544819
8.100000	-0.283135	-115.160399	-41.914971	10.663400	-41.914971	10.663400	-0.283131	-115.159229
8.150000	-0.287141	-115.774079	-41.790857	9.186920	-41.790857	9.186920	-0.287136	-115.772898
8.200000	-0.291199	-116.387017	-41.667766	7.708985	-41.667766	7.708985	-0.291195	-116.385826
8.250000	-0.295304	-116.999370	-41.545833	6.229553	-41.545833	6.229553	-0.295299	-116.998169
8.300000	-0.299473	-117.610904	-41.424810	4.748026	-41.424810	4.748026	-0.299468	-117.609692
8.350000	-0.303679	-118.221995	-41.305044	3.265069	-41.305044	3.265069	-0.303674	-118.220773
8.400000	-0.307959	-118.832202	-41.186106	1.779253	-41.186106	1.779253	-0.307954	-118.830970
8.450000	-0.312269	-119.442097	-41.068507	0.292189	-41.068507	0.292189	-0.312263	-119.440856
8.500000	-0.316665	-120.051056	-40.951685	-1.198616	-40.951685	-1.198616	-0.316658	-120.049805
8.550000	-0.321081	-120.659820	-40.836262	-2.690369	-40.836262	-2.690369	-0.321074	-120.658561
8.600000	-0.325593	-121.267612	-40.721605	-4.186860	-40.721605	-4.186860	-0.325586	-121.266344
8.650000	-0.330118	-121.875313	-40.608381	-5.683882	-40.608381	-5.683882	-0.330110	-121.874036
8.700000	-0.334750	-122.482018	-40.495955	-7.186739	-40.495955	-7.186739	-0.334742	-122.480733
8.750000	-0.339385	-123.088723	-40.384965	-8.689596	-40.384965	-8.689596	-0.339377	-123.087431
8.800000	-0.344140	-123.694424	-40.274851	-10.199474	-40.274851	-10.199474	-0.344132	-123.693125
8.850000	-0.348898	-124.300125	-40.166117	-11.709352	-40.166117	-11.709352	-0.348889	-124.298819
8.900000	-0.353770	-124.904982	-40.058444	-13.226230	-40.058444	-13.226230	-0.353760	-124.903670
8.950000	-0.358653	-125.509762	-39.952064	-14.743745	-39.952064	-14.743745	-0.358643	-125.508444
9.000000	-0.363643	-126.113845	-39.846911	-16.268093	-39.846911	-16.268093	-0.363632	-126.112522
9.050000	-0.368655	-126.717788	-39.743003	-17.793808	-39.743003	-17.793808	-0.368644	-126.716461
9.100000	-0.373765	-127.321168	-39.640462	-19.326045	-39.640462	-19.326045	-0.373754	-127.319836
9.150000	-0.378910	-127.924360	-39.539163	-20.860456	-39.539163	-20.860456	-0.378898	-127.923025
9.200000	-0.384143	-128.527108	-39.439338	-22.400942	-39.439338	-22.400942	-0.384130	-128.525770
9.250000	-0.389422	-129.129634	-39.340799	-23.944465	-39.340799	-23.944465	-0.389409	-129.128294
9.300000	-0.394781	-129.731822	-39.243808	-25.493487	-39.243808	-25.493487	-0.394768	-129.730481
9.350000	-0.400198	-130.333769	-39.148200	-27.046438	-39.148200	-27.046438	-0.400185	-130.332428
9.400000	-0.405686	-130.935471	-39.054169	-28.604202	-39.054169	-28.604202	-0.405672	-130.934130
9.450000	-0.411244	-131.536927	-38.961677	-30.166781	-38.961677	-30.166781	-0.411230	-131.535587
9.500000	-0.416863	-132.138215	-38.870745	-31.733401	-38.870745	-31.733401	-0.416849	-132.136878
9.550000	-0.422566	-132.739268	-38.781568	-33.305679	-38.781568	-33.305679	-0.422551	-132.737934
9.600000	-0.428319	-133.340217	-38.693882	-34.881163	-38.693882	-34.881163	-0.428304	-133.338887
9.650000	-0.434169	-133.940956	-38.608232	-36.463060	-38.608232	-36.463060	-0.434155	-133.939633
9.700000	-0.440059	-134.541640	-38.523947	-38.047302	-38.523947	-38.047302	-0.440045	-134.540323
9.750000	-0.446061	-135.142157	-38.442045	-39.638578	-38.442045	-39.638578	-0.446046	-135.140848
9.800000	-0.452091	-135.742651	-38.361323	-41.231346	-38.361323	-41.231346	-0.452077	-135.741351
9.850000	-0.458247	-136.343035	-38.283397	-42.831582	-38.283397	-42.831582	-0.458233	-136.341747
9.900000	-0.464420	-136.943416	-38.206402	-44.432513	-38.206402	-44.432513	-0.464406	-136.942139
9.950000	-0.470734	-137.543759	-38.132684	-46.041099	-38.132684	-46.041099	-0.470721	-137.542496
10.000000	-0.477052	-138.144103	-38.059585	-47.649686	-38.059585	-47.649686	-0.477040	-138.142854
