! freq	dB(S11)	phase(S11)	dB(S12)	phase(S12)	
!     	dB(S21)	phase(S21)	dB(S22)	phase(S22)	
!S-par simulation data
#  GHz  S  DB  R 50
0.000000	-0.000000	0.000000	-366.877228	180.000000	-366.877228	180.000000	-0.000000	0.000000
0.050000	-0.000876	-1.405440	-108.594555	89.085494	-108.594555	89.085494	-0.000521	-0.811958
0.100000	-0.002998	-2.804678	-102.615638	87.952591	-102.615638	87.952591	-0.001742	-1.620005
0.150000	-0.005519	-4.196595	-99.160180	86.885067	-99.160180	86.885067	-0.003131	-2.423762
0.200000	-0.007918	-5.583189	-96.758996	85.856653	-96.758996	85.856653	-0.004409	-3.224708
0.250000	-0.010090	-6.967117	-94.940193	84.864335	-94.940193	84.864335	-0.005555	-4.024412
0.300000	-0.012047	-8.349474	-93.502884	83.916919	-93.502884	83.916919	-0.006594	-4.823509
0.350000	-0.013846	-9.730886	-92.338274	83.024124	-92.338274	83.024124	-0.007568	-5.622345
0.400000	-0.015541	-11.111544	-91.383060	82.198841	-91.383060	82.198841	-0.008512	-6.421044
0.450000	-0.017170	-12.491333	-90.603934	81.464838	-90.603934	81.464838	-0.009447	-7.219608
0.500000	-0.018768	-13.870175	-89.965486	80.832932	-89.965486	80.832932	-0.010387	-8.018010
0.550000	-0.020350	-15.247886	-89.449304	80.325025	-89.449304	80.325025	-0.011337	-8.816191
0.600000	-0.021929	-16.624271	-89.042647	79.968049	-89.042647	79.968049	-0.012298	-9.614084
0.650000	-0.023510	-17.999136	-88.736717	79.795509	-88.736717	79.795509	-0.013270	-10.411622
0.700000	-0.025098	-19.372300	-88.525536	79.849542	-88.525536	79.849542	-0.014252	-11.208738
0.750000	-0.026696	-20.743463	-88.410485	80.205315	-88.410485	80.205315	-0.015241	-12.005331
0.800000	-0.028306	-22.112454	-88.388093	80.943622	-88.388093	80.943622	-0.016237	-12.801335
0.850000	-0.029928	-23.479164	-88.453062	82.162820	-88.453062	82.162820	-0.017237	-13.596702
0.900000	-0.031560	-24.843625	-88.595413	83.947804	-88.595413	83.947804	-0.018239	-14.391429
0.950000	-0.033202	-26.205575	-88.812491	86.491323	-88.812491	86.491323	-0.019242	-15.185430
1.000000	-0.034854	-27.564893	-89.088945	90.001766	-89.088945	90.001766	-0.020246	-15.978663
1.050000	-0.036513	-28.921466	-89.395376	94.722788	-89.395376	94.722788	-0.021250	-16.771091
1.100000	-0.038178	-30.275187	-89.679683	100.895219	-89.679683	100.895219	-0.022253	-17.562680
1.150000	-0.039847	-31.625957	-89.859646	108.659764	-89.859646	108.659764	-0.023256	-18.353401
1.200000	-0.041520	-32.973686	-89.827529	117.887516	-89.827529	117.887516	-0.024259	-19.143230
1.250000	-0.043193	-34.318285	-89.481787	128.014580	-89.481787	128.014580	-0.025260	-19.932144
1.300000	-0.044867	-35.659532	-88.763298	138.051311	-88.763298	138.051311	-0.026262	-20.720085
1.350000	-0.046539	-36.997485	-87.739881	147.056604	-87.739881	147.056604	-0.027262	-21.507074
1.400000	-0.048208	-38.332074	-86.517094	154.544842	-86.517094	154.544842	-0.028263	-22.293098
1.450000	-0.049874	-39.663232	-85.198548	160.446934	-85.198548	160.446934	-0.029263	-23.078142
1.500000	-0.051535	-40.990895	-83.858960	164.931087	-83.858960	164.931087	-0.030263	-23.862195
1.550000	-0.053190	-42.315003	-82.542950	168.243520	-82.542950	168.243520	-0.031264	-24.645245
1.600000	-0.054839	-43.635501	-81.273481	170.623246	-81.273481	170.623246	-0.032264	-25.427281
1.650000	-0.056482	-44.952336	-80.060333	172.271157	-80.060333	172.271157	-0.033265	-26.208291
1.700000	-0.058118	-46.265457	-78.905993	173.345864	-78.905993	173.345864	-0.034267	-26.988264
1.750000	-0.059746	-47.574819	-77.809200	173.969348	-77.809200	173.969348	-0.035268	-27.767191
1.800000	-0.061368	-48.880376	-76.766934	174.234651	-76.766934	174.234651	-0.036271	-28.545061
1.850000	-0.062983	-50.182088	-75.775486	174.212838	-75.775486	174.212838	-0.037275	-29.321862
1.900000	-0.064591	-51.479917	-74.831005	173.958529	-74.831005	173.958529	-0.038279	-30.097583
1.950000	-0.066193	-52.773827	-73.929776	173.514069	-73.929776	173.514069	-0.039285	-30.872214
2.000000	-0.067789	-54.063784	-73.068338	172.912613	-73.068338	172.912613	-0.040292	-31.645744
2.050000	-0.069379	-55.349759	-72.243532	172.180382	-72.243532	172.180382	-0.041301	-32.418160
2.100000	-0.070964	-56.631723	-71.452500	171.338320	-71.452500	171.338320	-0.042312	-33.189451
2.150000	-0.072545	-57.909651	-70.692673	170.403317	-70.692673	170.403317	-0.043326	-33.959607
2.200000	-0.074122	-59.183520	-69.961745	169.389119	-69.961745	169.389119	-0.044341	-34.728614
2.250000	-0.075696	-60.453309	-69.257645	168.307009	-69.257645	168.307009	-0.045360	-35.496461
2.300000	-0.077267	-61.719000	-68.578515	167.166320	-68.578515	167.166320	-0.046381	-36.263137
2.350000	-0.078838	-62.980577	-67.922680	165.974832	-67.922680	165.974832	-0.047405	-37.028629
2.400000	-0.080407	-64.238027	-67.288632	164.739075	-67.288632	164.739075	-0.048434	-37.792926
2.450000	-0.081977	-65.491339	-66.675005	163.464563	-66.675005	163.464563	-0.049466	-38.556015
2.500000	-0.083548	-66.740503	-66.080561	162.155980	-66.080561	162.155980	-0.050502	-39.317885
2.550000	-0.085121	-67.985334	-65.503300	160.816184	-65.503300	160.816184	-0.051543	-40.078470
2.600000	-0.086697	-69.226006	-64.943172	159.450021	-64.943172	159.450021	-0.052589	-40.837811
2.650000	-0.088277	-70.462519	-64.399225	158.060402	-64.399225	158.060402	-0.053640	-41.595897
2.700000	-0.089862	-71.694873	-63.870588	156.649852	-63.870588	156.649852	-0.054697	-42.352717
2.750000	-0.091452	-72.923071	-63.356457	155.220574	-63.356457	155.220574	-0.055759	-43.108259
2.800000	-0.093049	-74.147118	-62.856095	153.774492	-62.856095	153.774492	-0.056828	-43.862512
2.850000	-0.094653	-75.367020	-62.368819	152.313299	-62.368819	152.313299	-0.057904	-44.615465
2.900000	-0.096266	-76.582788	-61.893997	150.838485	-61.893997	150.838485	-0.058986	-45.367108
2.950000	-0.097887	-77.794433	-61.431041	149.351367	-61.431041	149.351367	-0.060076	-46.117431
3.000000	-0.099519	-79.001968	-60.979405	147.853113	-60.979405	147.853113	-0.061173	-46.866424
3.050000	-0.101161	-80.205408	-60.538581	146.344765	-60.538581	146.344765	-0.062278	-47.614076
3.100000	-0.102815	-81.404772	-60.108092	144.827252	-60.108092	144.827252	-0.063392	-48.360378
3.150000	-0.104481	-82.600078	-59.687493	143.301406	-59.687493	143.301406	-0.064514	-49.105321
3.200000	-0.106161	-83.791347	-59.276366	141.767977	-59.276366	141.767977	-0.065646	-49.848897
3.250000	-0.107854	-84.978605	-58.874320	140.227640	-58.874320	140.227640	-0.066786	-50.591095
3.300000	-0.109563	-86.161874	-58.480984	138.681008	-58.480984	138.681008	-0.067937	-51.331909
3.350000	-0.111287	-87.341183	-58.096013	137.128638	-58.096013	137.128638	-0.069097	-52.071329
3.400000	-0.113027	-88.516561	-57.719078	135.571036	-57.719078	135.571036	-0.070268	-52.809349
3.450000	-0.114784	-89.688037	-57.349871	134.008667	-57.349871	134.008667	-0.071450	-53.545961
3.500000	-0.116558	-90.855644	-56.988099	132.441959	-56.988099	132.441959	-0.072643	-54.281159
3.550000	-0.118351	-92.019417	-56.633486	130.871304	-56.633486	130.871304	-0.073848	-55.014934
3.600000	-0.120163	-93.179391	-56.285772	129.297067	-56.285772	129.297067	-0.075065	-55.747282
3.650000	-0.121995	-94.335603	-55.944708	127.719584	-55.944708	127.719584	-0.076293	-56.478197
3.700000	-0.123847	-95.488093	-55.610061	126.139170	-55.610061	126.139170	-0.077535	-57.207672
3.750000	-0.125720	-96.636900	-55.281608	124.556118	-55.281608	124.556118	-0.078789	-57.935703
3.800000	-0.127615	-97.781910	-54.958880	122.970609	-54.958880	122.970609	-0.080058	-58.662221
3.850000	-0.129533	-98.923328	-54.641957	121.383015	-54.641957	121.383015	-0.081340	-59.387286
3.900000	-0.131473	-100.061198	-54.330646	119.793572	-54.330646	119.793572	-0.082636	-60.110892
3.950000	-0.133436	-101.195567	-54.024769	118.202505	-54.024769	118.202505	-0.083947	-60.833037
4.000000	-0.135424	-102.326482	-53.724153	116.610026	-53.724153	116.610026	-0.085273	-61.553717
4.050000	-0.137436	-103.453993	-53.428635	115.016334	-53.428635	115.016334	-0.086614	-62.272928
4.100000	-0.139473	-104.578151	-53.138061	113.421616	-53.138061	113.421616	-0.087971	-62.990670
4.150000	-0.141535	-105.699006	-52.852284	111.826051	-52.852284	111.826051	-0.089344	-63.706938
4.200000	-0.143623	-106.816613	-52.571167	110.229804	-52.571167	110.229804	-0.090733	-64.421732
4.250000	-0.145738	-107.931024	-52.294575	108.633034	-52.294575	108.633034	-0.092139	-65.135050
4.300000	-0.147880	-109.042296	-52.022385	107.035889	-52.022385	107.035889	-0.093563	-65.846890
4.350000	-0.150049	-110.150485	-51.754477	105.438512	-51.754477	105.438512	-0.095004	-66.557252
4.400000	-0.152246	-111.255648	-51.490738	103.841034	-51.490738	103.841034	-0.096463	-67.266137
4.450000	-0.154472	-112.357844	-51.231061	102.243580	-51.231061	102.243580	-0.097940	-67.973542
4.500000	-0.156726	-113.457133	-50.975344	100.646271	-50.975344	100.646271	-0.099436	-68.679469
4.550000	-0.159010	-114.553575	-50.723490	99.049216	-50.723490	99.049216	-0.100952	-69.383919
4.600000	-0.161323	-115.647233	-50.475407	97.452524	-50.475407	97.452524	-0.102487	-70.086893
4.650000	-0.163667	-116.738167	-50.231008	95.856293	-50.231008	95.856293	-0.104042	-70.788390
4.700000	-0.166041	-117.826443	-49.990209	94.260618	-49.990209	94.260618	-0.105618	-71.488415
4.750000	-0.168446	-118.912125	-49.752932	92.665590	-49.752932	92.665590	-0.107215	-72.186968
4.800000	-0.170883	-119.995277	-49.519100	91.071294	-49.519100	91.071294	-0.108833	-72.884051
4.850000	-0.173351	-121.075967	-49.288642	89.477811	-49.288642	89.477811	-0.110472	-73.579668
4.900000	-0.175852	-122.154260	-49.061490	87.885219	-49.061490	87.885219	-0.112134	-74.273821
4.950000	-0.178385	-123.230226	-48.837579	86.293592	-48.837579	86.293592	-0.113819	-74.966514
5.000000	-0.180951	-124.303932	-48.616846	84.702999	-48.616846	84.702999	-0.115527	-75.657751
5.050000	-0.183552	-125.375356	-48.399132	83.113562	-48.399132	83.113562	-0.117259	-76.347471
5.100000	-0.186186	-126.444668	-48.184489	81.525300	-48.184489	81.525300	-0.119015	-77.035744
5.150000	-0.188855	-127.511936	-47.972862	79.938276	-47.972862	79.938276	-0.120795	-77.722573
5.200000	-0.191558	-128.577234	-47.764201	78.352552	-47.764201	78.352552	-0.122600	-78.407964
5.250000	-0.194296	-129.640634	-47.558454	76.768190	-47.558454	76.768190	-0.124431	-79.091921
5.300000	-0.197068	-130.702209	-47.355575	75.185246	-47.355575	75.185246	-0.126287	-79.774451
5.350000	-0.199876	-131.762033	-47.155517	73.603780	-47.155517	73.603780	-0.128169	-80.455559
5.400000	-0.202720	-132.820180	-46.958238	72.023850	-46.958238	72.023850	-0.130078	-81.135251
5.450000	-0.205600	-133.876725	-46.763693	70.445512	-46.763693	70.445512	-0.132015	-81.813534
5.500000	-0.208516	-134.931744	-46.571844	68.868822	-46.571844	68.868822	-0.133978	-82.490414
5.550000	-0.211469	-135.985313	-46.382650	67.293839	-46.382650	67.293839	-0.135970	-83.165898
5.600000	-0.214458	-137.037509	-46.196075	65.720618	-46.196075	65.720618	-0.137990	-83.839994
5.650000	-0.217485	-138.088410	-46.012082	64.149216	-46.012082	64.149216	-0.140038	-84.512709
5.700000	-0.220549	-139.138094	-45.830635	62.579691	-45.830635	62.579691	-0.142117	-85.184051
5.750000	-0.223651	-140.186639	-45.651700	61.012101	-45.651700	61.012101	-0.144225	-85.854028
5.800000	-0.226791	-141.234125	-45.475244	59.446505	-45.475244	59.446505	-0.146363	-86.522649
5.850000	-0.229970	-142.280632	-45.301236	57.882960	-45.301236	57.882960	-0.148532	-87.189921
5.900000	-0.233186	-143.326239	-45.129643	56.321527	-45.129643	56.321527	-0.150732	-87.855854
5.950000	-0.236441	-144.371028	-44.960435	54.762267	-44.960435	54.762267	-0.152963	-88.520457
6.000000	-0.239736	-145.415080	-44.793581	53.205240	-44.793581	53.205240	-0.155227	-89.183739
6.050000	-0.243069	-146.458477	-44.629054	51.650508	-44.629054	51.650508	-0.157523	-89.845710
6.100000	-0.246442	-147.501301	-44.466823	50.098135	-44.466823	50.098135	-0.159852	-90.506380
6.150000	-0.249854	-148.543636	-44.306861	48.548182	-44.306861	48.548182	-0.162215	-91.165759
6.200000	-0.253307	-149.585565	-44.149141	47.000714	-44.149141	47.000714	-0.164611	-91.823858
6.250000	-0.256799	-150.627171	-43.993633	45.455795	-43.993633	45.455795	-0.167042	-92.480686
6.300000	-0.260333	-151.668534	-43.840290	43.913607	-43.840290	43.913607	-0.169509	-93.136201
6.350000	-0.263907	-152.709752	-43.689112	42.374104	-43.689112	42.374104	-0.172011	-93.790469
6.400000	-0.267522	-153.750910	-43.540070	40.837351	-43.540070	40.837351	-0.174549	-94.443501
6.450000	-0.271177	-154.792095	-43.393139	39.303413	-43.393139	39.303413	-0.177123	-95.095310
6.500000	-0.274874	-155.833393	-43.248293	37.772357	-43.248293	37.772357	-0.179733	-95.745906
6.550000	-0.278611	-156.874891	-43.105504	36.244246	-43.105504	36.244246	-0.182381	-96.395302
6.600000	-0.282389	-157.916676	-42.964748	34.719147	-42.964748	34.719147	-0.185066	-97.043510
6.650000	-0.286209	-158.958837	-42.825997	33.197122	-42.825997	33.197122	-0.187788	-97.690543
6.700000	-0.290070	-160.001461	-42.689226	31.678237	-42.689226	31.678237	-0.190549	-98.336414
6.750000	-0.293972	-161.044638	-42.554409	30.162553	-42.554409	30.162553	-0.193349	-98.981135
6.800000	-0.297916	-162.088457	-42.421519	28.650133	-42.421519	28.650133	-0.196188	-99.624719
6.850000	-0.301901	-163.133007	-42.290531	27.141037	-42.290531	27.141037	-0.199066	-100.267181
6.900000	-0.305928	-164.178379	-42.161418	25.635324	-42.161418	25.635324	-0.201984	-100.908534
6.950000	-0.309997	-165.224663	-42.034154	24.133052	-42.034154	24.133052	-0.204943	-101.548791
7.000000	-0.314108	-166.271951	-41.908714	22.634276	-41.908714	22.634276	-0.207942	-102.187967
7.050000	-0.318260	-167.320334	-41.785070	21.139051	-41.785070	21.139051	-0.210982	-102.826076
7.100000	-0.322455	-168.369904	-41.663196	19.647427	-41.663196	19.647427	-0.214064	-103.463133
7.150000	-0.326691	-169.420752	-41.543067	18.159456	-41.543067	18.159456	-0.217188	-104.099152
7.200000	-0.330969	-170.472973	-41.424655	16.675183	-41.424655	16.675183	-0.220354	-104.734149
7.250000	-0.335289	-171.526659	-41.307934	15.194652	-41.307934	15.194652	-0.223562	-105.368139
7.300000	-0.339651	-172.581904	-41.192877	13.717906	-41.192877	13.717906	-0.226814	-106.001136
7.350000	-0.344055	-173.638801	-41.079458	12.244982	-41.079458	12.244982	-0.230108	-106.633157
7.400000	-0.348501	-174.697445	-40.967650	10.775916	-40.967650	10.775916	-0.233447	-107.264218
7.450000	-0.352989	-175.757931	-40.857426	9.310739	-40.857426	9.310739	-0.236829	-107.894335
7.500000	-0.357519	-176.820354	-40.748759	7.849480	-40.748759	7.849480	-0.240256	-108.523523
7.550000	-0.362092	-177.884903	-40.641631	6.392336	-40.641631	6.392336	-0.243730	-109.151762
7.600000	-0.366707	-178.951588	-40.536007	4.939158	-40.536007	4.939158	-0.247248	-109.779107
7.650000	-0.371364	179.979494	-40.431861	3.489961	-40.431861	3.489961	-0.250812	-110.405576
7.700000	-0.376062	178.908246	-40.329166	2.044758	-40.329166	2.044758	-0.254421	-111.031187
7.750000	-0.380801	177.834572	-40.227894	0.603558	-40.227894	0.603558	-0.258077	-111.655956
7.800000	-0.385582	176.758374	-40.128020	-0.833635	-40.128020	-0.833635	-0.261778	-112.279902
7.850000	-0.390405	175.679556	-40.029515	-2.266821	-40.029515	-2.266821	-0.265526	-112.903042
7.900000	-0.395268	174.598019	-39.932355	-3.696005	-39.932355	-3.696005	-0.269321	-113.525395
7.950000	-0.400172	173.513666	-39.836511	-5.121196	-39.836511	-5.121196	-0.273163	-114.146979
8.000000	-0.405117	172.426400	-39.741959	-6.542407	-39.741959	-6.542407	-0.277052	-114.767813
8.050000	-0.410103	171.336120	-39.648673	-7.959656	-39.648673	-7.959656	-0.280988	-115.387915
8.100000	-0.415130	170.242730	-39.556625	-9.372967	-39.556625	-9.372967	-0.284972	-116.007305
8.150000	-0.420197	169.146131	-39.465792	-10.782365	-39.465792	-10.782365	-0.289004	-116.626003
8.200000	-0.425303	168.046225	-39.376148	-12.187883	-39.376148	-12.187883	-0.293084	-117.244028
8.250000	-0.430450	166.942912	-39.287667	-13.589558	-39.287667	-13.589558	-0.297213	-117.861399
8.300000	-0.435637	165.836094	-39.200326	-14.987431	-39.200326	-14.987431	-0.301390	-118.478138
8.350000	-0.440863	164.725673	-39.114099	-16.381547	-39.114099	-16.381547	-0.305615	-119.094265
8.400000	-0.446129	163.611550	-39.028964	-17.771958	-39.028964	-17.771958	-0.309889	-119.709799
8.450000	-0.451433	162.493627	-38.944897	-19.158718	-38.944897	-19.158718	-0.314212	-120.324763
8.500000	-0.456777	161.371804	-38.861875	-20.541887	-38.861875	-20.541887	-0.318585	-120.939178
8.550000	-0.462159	160.245985	-38.779875	-21.921530	-38.779875	-21.921530	-0.323006	-121.553065
8.600000	-0.467579	159.116070	-38.698876	-23.297715	-38.698876	-23.297715	-0.327476	-122.166446
8.650000	-0.473038	157.981963	-38.618855	-24.670515	-38.618855	-24.670515	-0.331996	-122.779343
8.700000	-0.478534	156.843565	-38.539793	-26.040008	-38.539793	-26.040008	-0.336566	-123.391778
8.750000	-0.484067	155.700781	-38.461668	-27.406277	-38.461668	-27.406277	-0.341185	-124.003775
8.800000	-0.489639	154.553313	-38.384471	-28.769274	-38.384471	-28.769274	-0.345855	-124.615339
8.850000	-0.495249	153.401257	-38.308172	-30.129231	-38.308172	-30.129231	-0.350575	-125.226514
8.900000	-0.500894	152.244518	-38.232753	-31.486242	-38.232753	-31.486242	-0.355344	-125.837321
8.950000	-0.506576	151.083000	-38.158197	-32.840407	-38.158197	-32.840407	-0.360163	-126.447786
9.000000	-0.512293	149.916610	-38.084487	-34.191828	-38.084487	-34.191828	-0.365032	-127.057934
9.050000	-0.518046	148.745254	-38.011605	-35.540612	-38.011605	-35.540612	-0.369950	-127.667787
9.100000	-0.523835	147.568840	-37.939538	-36.886867	-37.939538	-36.886867	-0.374917	-128.277373
9.150000	-0.529658	146.387277	-37.868269	-38.230707	-37.868269	-38.230707	-0.379934	-128.886715
9.200000	-0.535515	145.200474	-37.797785	-39.572250	-37.797785	-39.572250	-0.385000	-129.495841
9.250000	-0.541407	144.008343	-37.728074	-40.911614	-37.728074	-40.911614	-0.390115	-130.104775
9.300000	-0.547332	142.810795	-37.659122	-42.248922	-37.659122	-42.248922	-0.395279	-130.713545
9.350000	-0.553291	141.607744	-37.590918	-43.584300	-37.590918	-43.584300	-0.400492	-131.322177
9.400000	-0.559282	140.399105	-37.523453	-44.917876	-37.523453	-44.917876	-0.405754	-131.930699
9.450000	-0.565306	139.184794	-37.456716	-46.249781	-37.456716	-46.249781	-0.411064	-132.539138
9.500000	-0.571363	137.964730	-37.390700	-47.580148	-37.390700	-47.580148	-0.416422	-133.147522
9.550000	-0.577451	136.738832	-37.325395	-48.909112	-37.325395	-48.909112	-0.421828	-133.755880
9.600000	-0.583571	135.507021	-37.260797	-50.236811	-37.260797	-50.236811	-0.427283	-134.364241
9.650000	-0.589721	134.269223	-37.196899	-51.563383	-37.196899	-51.563383	-0.432784	-134.972633
9.700000	-0.595903	133.025362	-37.133698	-52.888969	-37.133698	-52.888969	-0.438333	-135.581088
9.750000	-0.602114	131.775368	-37.071188	-54.213710	-37.071188	-54.213710	-0.443929	-136.189635
9.800000	-0.608356	130.519170	-37.009369	-55.537751	-37.009369	-55.537751	-0.449572	-136.798304
9.850000	-0.614627	129.256701	-36.948238	-56.861234	-36.948238	-56.861234	-0.455260	-137.407128
9.900000	-0.620927	127.987899	-36.887796	-58.184304	-36.887796	-58.184304	-0.460995	-138.016137
9.950000	-0.627256	126.712701	-36.828044	-59.507106	-36.828044	-59.507106	-0.466775	-138.625364
10.000000	-0.633613	125.431049	-36.768983	-60.829784	-36.768983	-60.829784	-0.472600	-139.234842
