! freq	dB(S11)	phase(S11)	dB(S12)	phase(S12)	
!     	dB(S21)	phase(S21)	dB(S22)	phase(S22)	
!S-par simulation data
#  GHz  S  DB  R 50
0.000000	-0.000000	0.000000	-325.327716	0.000000	-325.327716	0.000000	-0.000000	0.000000
0.050000	-0.003392	-1.441980	-89.805714	88.392601	-89.805714	88.392601	-0.003196	-1.441293
0.100000	-0.006094	-2.855857	-83.802783	87.072347	-83.802783	87.072347	-0.005967	-2.855337
0.150000	-0.007483	-4.267541	-80.297265	85.704773	-80.297265	85.704773	-0.007430	-4.266400
0.200000	-0.008517	-5.680004	-77.818881	84.325177	-77.818881	84.325177	-0.008499	-5.678074
0.250000	-0.009521	-7.092704	-75.906278	82.945155	-75.906278	82.945155	-0.009515	-7.089991
0.300000	-0.010598	-8.505047	-74.354322	81.570160	-74.354322	81.570160	-0.010590	-8.501588
0.350000	-0.011774	-9.916641	-73.051919	80.203146	-73.051919	80.203146	-0.011759	-9.912475
0.400000	-0.013090	-11.326789	-71.938757	78.850673	-71.938757	78.850673	-0.013064	-11.321962
0.450000	-0.014448	-12.736468	-70.957560	77.502871	-70.957560	77.502871	-0.014409	-12.730994
0.500000	-0.015973	-14.143600	-70.101084	76.181019	-70.101084	76.181019	-0.015920	-14.137530
0.550000	-0.017536	-15.549933	-69.328667	74.867741	-69.328667	74.867741	-0.017470	-15.543279
0.600000	-0.019205	-16.953917	-68.638708	73.579801	-68.638708	73.579801	-0.019127	-16.946710
0.650000	-0.020928	-18.356191	-68.012818	72.311751	-68.012818	72.311751	-0.020838	-18.348447
0.700000	-0.022704	-19.756755	-67.441441	71.063593	-67.441441	71.063593	-0.022604	-19.748490
0.750000	-0.024535	-21.154502	-66.924969	69.851109	-66.924969	69.851109	-0.024428	-21.145733
0.800000	-0.026386	-22.551270	-66.443960	68.651154	-66.443960	68.651154	-0.026273	-22.542002
0.850000	-0.028281	-23.944245	-66.012326	67.503733	-66.012326	67.503733	-0.028164	-23.934492
0.900000	-0.030182	-25.336033	-65.608401	66.374352	-65.608401	66.374352	-0.030064	-25.325796
0.950000	-0.032100	-26.724935	-65.239346	65.288781	-65.239346	65.288781	-0.031982	-26.714218
1.000000	-0.034020	-28.111492	-64.898486	64.242201	-64.898486	64.242201	-0.033904	-28.100295
1.050000	-0.035943	-29.496173	-64.580642	63.226815	-64.580642	63.226815	-0.035830	-29.484496
1.100000	-0.037858	-30.877289	-64.292269	62.276201	-64.292269	62.276201	-0.037750	-30.865129
1.150000	-0.039770	-32.257248	-64.018838	61.347225	-64.018838	61.347225	-0.039667	-32.244604
1.200000	-0.041665	-33.633112	-63.772714	60.499276	-63.772714	60.499276	-0.041569	-33.619979
1.250000	-0.043552	-35.007387	-63.540084	59.685400	-63.540084	59.685400	-0.043463	-34.993763
1.300000	-0.045423	-36.378674	-63.325830	58.935581	-63.325830	58.935581	-0.045342	-36.364556
1.350000	-0.047278	-37.747101	-63.127166	58.251797	-63.127166	58.251797	-0.047204	-37.732484
1.400000	-0.049121	-39.113707	-62.939443	57.610036	-62.939443	57.610036	-0.049056	-39.098590
1.450000	-0.050940	-40.476131	-62.768336	57.071406	-62.768336	57.071406	-0.050882	-40.460509
1.500000	-0.052751	-41.837280	-62.603924	56.565158	-62.603924	56.565158	-0.052701	-41.821153
1.550000	-0.054538	-43.194230	-62.452397	56.168334	-62.452397	56.168334	-0.054495	-43.177596
1.600000	-0.056315	-44.549181	-62.306707	55.825888	-62.306707	55.825888	-0.056279	-44.532039
1.650000	-0.058076	-45.901165	-62.168147	55.564071	-62.168147	55.564071	-0.058046	-45.883515
1.700000	-0.059820	-47.249442	-62.034452	55.405659	-62.034452	55.405659	-0.059795	-47.231285
1.750000	-0.061555	-48.595865	-61.904109	55.298948	-61.904109	55.298948	-0.061535	-48.577202
1.800000	-0.063276	-49.938688	-61.774567	55.292430	-61.774567	55.292430	-0.063261	-49.919521
1.850000	-0.064987	-51.278940	-61.646135	55.357479	-61.646135	55.357479	-0.064976	-51.259272
1.900000	-0.066689	-52.616058	-61.514881	55.505789	-61.514881	55.505789	-0.066681	-52.595892
1.950000	-0.068382	-53.950043	-61.380958	55.737359	-61.380958	55.737359	-0.068375	-53.929383
2.000000	-0.070068	-55.281383	-61.241830	56.031708	-61.241830	56.031708	-0.070064	-55.260232
2.050000	-0.071747	-56.609021	-61.094930	56.413947	-61.094930	56.413947	-0.071744	-56.587385
2.100000	-0.073424	-57.934523	-60.941995	56.837077	-60.941995	56.837077	-0.073422	-57.912405
2.150000	-0.075095	-59.255753	-60.775065	57.341988	-60.775065	57.341988	-0.075093	-59.233161
2.200000	-0.076765	-60.575370	-60.603035	57.867591	-60.603035	57.867591	-0.076763	-60.552307
2.250000	-0.078433	-61.890151	-60.410128	58.455274	-60.410128	58.455274	-0.078430	-61.866625
2.300000	-0.080102	-63.203854	-60.214845	59.048552	-60.214845	59.048552	-0.080098	-63.179867
2.350000	-0.081772	-64.512168	-59.991802	59.669805	-59.991802	59.669805	-0.081767	-64.487729
2.400000	-0.083443	-65.819942	-59.770661	60.289380	-59.770661	60.289380	-0.083437	-65.795053
2.450000	-0.085121	-67.121792	-59.515603	60.890502	-59.515603	60.890502	-0.085112	-67.096464
2.500000	-0.086799	-68.423641	-59.267821	61.491624	-59.267821	61.491624	-0.086788	-68.397874
2.550000	-0.088488	-69.719055	-58.981281	62.020371	-58.981281	62.020371	-0.088475	-69.692860
2.600000	-0.090178	-71.014469	-58.703894	62.549117	-58.703894	62.549117	-0.090163	-70.987846
2.650000	-0.091882	-72.304031	-58.392545	62.969999	-58.392545	62.969999	-0.091865	-72.276990
2.700000	-0.093588	-73.593061	-58.088246	63.381075	-58.088246	63.381075	-0.093569	-73.565604
2.750000	-0.095311	-74.876837	-57.756192	63.665183	-57.756192	63.665183	-0.095290	-74.848971
2.800000	-0.097038	-76.159562	-57.429050	63.923898	-57.429050	63.923898	-0.097014	-76.131288
2.850000	-0.098783	-77.437636	-57.080913	64.051211	-57.080913	64.051211	-0.098757	-77.408961
2.900000	-0.100535	-78.714160	-56.735677	64.134724	-56.735677	64.134724	-0.100507	-78.685086
2.950000	-0.102305	-79.986636	-56.376073	64.093526	-56.376073	64.093526	-0.102275	-79.957168
3.000000	-0.104086	-81.257089	-56.017552	63.989974	-56.017552	63.989974	-0.104054	-81.227229
3.050000	-0.105885	-82.524091	-55.650713	63.775516	-55.650713	63.775516	-0.105851	-82.493844
3.100000	-0.107698	-83.788630	-55.283319	63.481841	-55.283319	63.481841	-0.107663	-83.757997
3.150000	-0.109529	-85.050304	-54.912866	63.094659	-54.912866	63.094659	-0.109492	-85.019287
3.200000	-0.111378	-86.309114	-54.540352	62.613971	-54.540352	62.613971	-0.111340	-86.277716
3.250000	-0.113243	-87.565627	-54.169203	62.058183	-54.169203	62.058183	-0.113205	-87.533848
3.300000	-0.115132	-88.818922	-53.794546	61.397257	-53.794546	61.397257	-0.115093	-88.786765
3.350000	-0.117035	-90.070602	-53.425802	60.683668	-53.425802	60.683668	-0.116995	-90.038067
3.400000	-0.118964	-91.319053	-53.053709	59.864756	-53.053709	59.864756	-0.118923	-91.286141
3.450000	-0.120916	-92.564994	-52.682189	58.963819	-52.682189	58.963819	-0.120874	-92.531706
3.500000	-0.122884	-93.809242	-52.316398	58.007563	-52.316398	58.007563	-0.122842	-93.775578
3.550000	-0.124887	-95.050053	-51.945219	56.937606	-51.945219	56.937606	-0.124845	-95.016013
3.600000	-0.126902	-96.289839	-51.583198	55.833341	-51.583198	55.833341	-0.126860	-96.255423
3.650000	-0.128955	-97.526337	-51.215942	54.617286	-51.215942	54.617286	-0.128913	-97.491544
3.700000	-0.131026	-98.761472	-50.854674	53.352671	-50.854674	53.352671	-0.130984	-98.726303
3.750000	-0.133126	-99.994469	-50.494393	52.011746	-50.494393	52.011746	-0.133084	-99.958921
3.800000	-0.135259	-101.225367	-50.133617	50.590064	-50.133617	50.590064	-0.135217	-101.189440
3.850000	-0.137409	-102.455149	-49.779651	49.125427	-49.779651	49.125427	-0.137367	-102.418842
3.900000	-0.139608	-103.682279	-49.418447	47.546531	-49.418447	47.546531	-0.139566	-103.645591
3.950000	-0.141821	-104.908712	-49.065348	45.934116	-49.065348	45.934116	-0.141780	-104.871642
4.000000	-0.144081	-106.133073	-48.706532	44.216718	-48.706532	44.216718	-0.144040	-106.095619
4.050000	-0.146368	-107.356496	-48.350262	42.439455	-48.350262	42.439455	-0.146327	-107.318657
4.100000	-0.148690	-108.578747	-47.994003	40.587361	-47.994003	40.587361	-0.148649	-108.540522
4.150000	-0.151059	-109.799852	-47.631449	38.632403	-47.631449	38.632403	-0.151018	-109.761238
4.200000	-0.153448	-111.020484	-47.275393	36.635091	-47.275393	36.635091	-0.153407	-110.981482
4.250000	-0.155909	-112.240118	-46.901953	34.481391	-46.901953	34.481391	-0.155868	-112.200724
4.300000	-0.158393	-113.459654	-46.533794	32.279930	-46.533794	32.279930	-0.158351	-113.419868
4.350000	-0.160942	-114.678966	-46.151921	29.938404	-46.151921	29.938404	-0.160900	-114.638787
4.400000	-0.163542	-115.898608	-45.762465	27.489196	-45.762465	27.489196	-0.163500	-115.858034
4.450000	-0.166193	-117.118578	-45.367113	24.932306	-45.367113	24.932306	-0.166151	-117.077610
4.500000	-0.168943	-118.340039	-44.943560	22.176067	-44.943560	22.176067	-0.168900	-118.298675
4.550000	-0.171728	-119.562067	-44.524075	19.349134	-44.524075	19.349134	-0.171684	-119.520307
4.600000	-0.174682	-120.787806	-44.048180	16.204539	-44.048180	16.204539	-0.174638	-120.745651
4.650000	-0.177713	-122.015503	-43.564016	12.936347	-43.564016	12.936347	-0.177668	-121.972954
4.700000	-0.180929	-123.247953	-43.029886	9.367992	-43.029886	9.367992	-0.180885	-123.205012
4.750000	-0.184297	-124.484388	-42.469809	5.592091	-42.469809	5.592091	-0.184252	-124.441060
4.800000	-0.188023	-125.730092	-41.820850	1.378107	-41.820850	1.378107	-0.187979	-125.686384
4.850000	-0.192206	-126.986871	-41.081121	-3.282883	-41.081121	-3.282883	-0.192162	-126.942796
4.900000	-0.197087	-128.259008	-40.224429	-8.483609	-40.224429	-8.483609	-0.197045	-128.214586
4.950000	-0.203282	-129.556394	-39.179270	-14.452150	-39.179270	-14.452150	-0.203245	-129.511664
5.000000	-0.211535	-130.887254	-37.927519	-21.301757	-37.927519	-21.301757	-0.211507	-130.842273
5.050000	-0.224799	-132.283293	-36.281614	-29.641983	-36.281614	-29.641983	-0.224792	-132.238191
5.100000	-0.250076	-133.792596	-34.070607	-40.309049	-34.070607	-40.309049	-0.250122	-133.747632
5.150000	-0.314551	-135.523773	-30.899806	-55.811822	-30.899806	-55.811822	-0.314764	-135.479525
5.200000	-0.552714	-137.402328	-26.247691	-85.334313	-26.247691	-85.334313	-0.553648	-137.359250
5.250000	-0.882081	-135.305721	-23.498141	-152.081334	-23.498141	-152.081334	-0.884182	-135.248898
5.300000	-0.462744	-135.502435	-27.478233	155.065054	-27.478233	155.065054	-0.462810	-135.437993
5.350000	-0.390228	-137.347014	-30.417792	120.131972	-30.417792	120.131972	-0.388158	-137.283480
5.400000	-0.349115	-138.256222	-35.913690	87.203933	-35.913690	87.203933	-0.346872	-138.212660
5.450000	-0.279707	-139.712870	-39.572528	86.783685	-39.572528	86.783685	-0.278963	-139.669342
5.500000	-0.259236	-141.156940	-40.701095	82.528057	-40.701095	82.528057	-0.258885	-141.111059
5.550000	-0.251895	-142.524083	-41.312833	75.653472	-41.312833	75.653472	-0.251681	-142.476631
5.600000	-0.250453	-143.832735	-41.610133	68.523404	-41.610133	68.523404	-0.250286	-143.784271
5.650000	-0.249501	-145.135670	-41.882083	61.441602	-41.882083	61.441602	-0.249375	-145.086245
5.700000	-0.250957	-146.405862	-41.939584	55.210484	-41.939584	55.210484	-0.250846	-146.355729
5.750000	-0.252600	-147.673273	-41.975623	49.145868	-41.975623	49.145868	-0.252503	-147.622448
5.800000	-0.255066	-148.928443	-41.915947	43.813870	-41.915947	43.813870	-0.254976	-148.877005
5.850000	-0.257708	-150.181451	-41.835096	38.714961	-41.835096	38.714961	-0.257624	-150.129412
5.900000	-0.260701	-151.430134	-41.712382	34.082234	-41.712382	34.082234	-0.260621	-151.377519
5.950000	-0.263852	-152.677908	-41.572927	29.695822	-41.572927	29.695822	-0.263776	-152.624723
6.000000	-0.267173	-153.924704	-41.416161	25.574673	-41.416161	25.574673	-0.267100	-153.870954
6.050000	-0.270641	-155.172110	-41.246407	21.684821	-41.246407	21.684821	-0.270570	-155.117795
6.100000	-0.274196	-156.419875	-41.070820	17.931025	-41.070820	17.931025	-0.274127	-156.364994
6.150000	-0.277894	-157.669945	-40.884378	14.380460	-40.884378	14.380460	-0.277826	-157.614489
6.200000	-0.281633	-158.920674	-40.697848	10.887960	-40.697848	10.887960	-0.281567	-158.864642
6.250000	-0.285516	-160.175573	-40.501004	7.565121	-40.501004	7.565121	-0.285450	-160.118950
6.300000	-0.289422	-161.431236	-40.306322	4.265084	-40.306322	4.265084	-0.289357	-161.374019
6.350000	-0.293458	-162.692269	-40.102604	1.080421	-40.102604	1.080421	-0.293393	-162.634439
6.400000	-0.297524	-163.954852	-39.900215	-2.086645	-39.900215	-2.086645	-0.297459	-163.896404
6.450000	-0.301694	-165.222857	-39.691015	-5.192117	-39.691015	-5.192117	-0.301627	-165.163772
6.500000	-0.305912	-166.493860	-39.480669	-8.281796	-39.480669	-8.281796	-0.305844	-166.434127
6.550000	-0.310212	-167.769959	-39.265234	-11.344624	-39.265234	-11.344624	-0.310142	-167.709562
6.600000	-0.314580	-169.050841	-39.045354	-14.401271	-39.045354	-14.401271	-0.314507	-168.989764
6.650000	-0.319012	-170.336164	-38.822162	-17.452179	-38.822162	-17.452179	-0.318936	-170.274392
6.700000	-0.323547	-171.629376	-38.587872	-20.516028	-38.587872	-20.516028	-0.323467	-171.566882
6.750000	-0.328133	-172.926533	-38.351620	-23.586348	-38.351620	-23.586348	-0.328049	-172.863303
6.800000	-0.332787	-174.228996	-38.109391	-26.677005	-38.109391	-26.677005	-0.332698	-174.165014
6.850000	-0.337563	-175.541237	-37.851848	-29.805127	-37.851848	-29.805127	-0.337468	-175.476469
6.900000	-0.342349	-176.854128	-37.600041	-32.936794	-37.600041	-32.936794	-0.342249	-176.788572
6.950000	-0.347346	-178.183904	-37.312941	-36.160637	-37.312941	-36.160637	-0.347239	-178.117501
7.000000	-0.352346	-179.513680	-37.035029	-39.384479	-37.035029	-39.384479	-0.352232	-179.446429
7.050000	-0.357546	179.141643	-36.723340	-42.705872	-36.723340	-42.705872	-0.357425	179.209797
7.100000	-0.362826	177.791235	-36.406752	-46.064783	-36.406752	-46.064783	-0.362697	177.860313
7.150000	-0.368217	176.433504	-36.078521	-49.475806	-36.078521	-49.475806	-0.368081	176.503536
7.200000	-0.373826	175.061694	-35.718707	-52.987881	-35.718707	-52.987881	-0.373682	175.132738
7.250000	-0.379637	173.678174	-35.334443	-56.586300	-35.334443	-56.586300	-0.379485	173.750283
7.300000	-0.385712	172.280695	-34.918238	-60.288435	-34.918238	-60.288435	-0.385551	172.353933
7.350000	-0.392137	170.866860	-34.461668	-64.111519	-34.461668	-64.111519	-0.391967	170.941310
7.400000	-0.398973	169.436174	-33.964440	-68.057234	-33.964440	-68.057234	-0.398791	169.511925
7.450000	-0.406340	167.986223	-33.420188	-72.139965	-33.420188	-72.139965	-0.406147	168.063386
7.500000	-0.414412	166.513927	-32.821461	-76.377091	-32.821461	-76.377091	-0.414204	166.592634
7.550000	-0.423437	165.015292	-32.159558	-80.790258	-32.159558	-80.790258	-0.423210	165.095711
7.600000	-0.433678	163.487022	-31.432511	-85.395362	-31.432511	-85.395362	-0.433425	163.569346
7.650000	-0.445989	161.915943	-30.603063	-90.266914	-30.603063	-90.266914	-0.445701	162.000472
7.700000	-0.461581	160.288785	-29.645690	-95.475474	-29.645690	-95.475474	-0.461236	160.375929
7.750000	-0.481836	158.595489	-28.561505	-101.073904	-28.561505	-101.073904	-0.481404	158.685754
7.800000	-0.510750	156.802017	-27.287738	-107.263694	-27.287738	-107.263694	-0.510173	156.896200
7.850000	-0.555015	154.869827	-25.787482	-114.300768	-25.787482	-114.300768	-0.554185	154.969085
7.900000	-0.630900	152.728370	-23.977251	-122.742468	-23.977251	-122.742468	-0.629580	152.834542
7.950000	-0.778370	150.291654	-21.762412	-133.707803	-21.762412	-133.707803	-0.776000	150.407582
8.000000	-1.110741	147.630944	-19.057619	-149.825403	-19.057619	-149.825403	-1.105757	147.759720
8.050000	-1.864282	146.578216	-16.200650	-176.788877	-16.200650	-176.788877	-1.852588	146.707798
8.100000	-2.341811	152.668768	-15.210576	142.587008	-15.210576	142.587008	-2.325685	152.729094
8.150000	-1.534595	155.578689	-17.302730	107.472944	-17.302730	107.472944	-1.526137	155.604659
8.200000	-1.004243	153.472600	-20.056436	86.540989	-20.056436	86.540989	-1.000131	153.506836
8.250000	-0.778036	150.918092	-22.383615	73.388903	-22.383615	73.388903	-0.775723	150.962256
8.300000	-0.672690	148.601683	-24.252892	63.891704	-24.252892	63.891704	-0.671242	148.653324
8.350000	-0.618562	146.500857	-25.759954	56.324627	-25.759954	56.324627	-0.617593	146.558084
8.400000	-0.588372	144.542686	-27.001444	49.875217	-27.001444	49.875217	-0.587698	144.604276
8.450000	-0.571201	142.680327	-28.026897	44.177454	-28.026897	44.177454	-0.570722	142.745447
8.500000	-0.561025	140.876611	-28.900515	38.977882	-28.900515	38.977882	-0.560685	140.944730
8.550000	-0.555468	139.114347	-29.637511	34.184528	-29.637511	34.184528	-0.555228	139.185064
8.600000	-0.552664	137.377169	-30.276612	29.688678	-30.276612	29.688678	-0.552500	137.450214
8.650000	-0.551850	135.657308	-30.826329	25.457164	-30.826329	25.457164	-0.551741	135.732468
8.700000	-0.552422	133.947983	-31.300931	21.453459	-31.300931	21.453459	-0.552355	134.025094
8.750000	-0.553991	132.244302	-31.711667	17.650905	-31.711667	17.650905	-0.553953	132.323237
8.800000	-0.556319	130.542609	-32.064959	14.036049	-32.064959	14.036049	-0.556299	130.623264
8.850000	-0.559191	128.840027	-32.371503	10.583898	-32.371503	10.583898	-0.559180	128.922320
8.900000	-0.562483	127.134516	-32.637014	7.280439	-32.637014	7.280439	-0.562473	127.218382
8.950000	-0.566105	125.424469	-32.866243	4.113029	-32.866243	4.113029	-0.566088	125.509854
9.000000	-0.569989	123.708608	-33.063166	1.069773	-33.063166	1.069773	-0.569959	123.795470
9.050000	-0.574083	121.985904	-33.231145	-1.860920	-33.231145	-1.860920	-0.574036	122.074209
9.100000	-0.578349	120.255521	-33.373076	-4.690639	-33.373076	-4.690639	-0.578278	120.345242
9.150000	-0.582756	118.516775	-33.491521	-7.431141	-33.491521	-7.431141	-0.582658	118.607896
9.200000	-0.587278	116.769106	-33.588836	-10.094356	-33.588836	-10.094356	-0.587151	116.861619
9.250000	-0.591898	115.012055	-33.667286	-12.692204	-33.667286	-12.692204	-0.591739	115.105962
9.300000	-0.596599	113.245248	-33.729138	-15.236204	-33.729138	-15.236204	-0.596408	113.340560
9.350000	-0.601368	111.468379	-33.776730	-17.736893	-33.776730	-17.736893	-0.601147	111.565119
9.400000	-0.606195	109.681207	-33.812480	-20.203129	-33.812480	-20.203129	-0.605946	109.779410
9.450000	-0.611072	107.883541	-33.838854	-22.641415	-33.838854	-22.641415	-0.610800	107.983258
9.500000	-0.615990	106.075241	-33.858269	-25.055410	-33.858269	-25.055410	-0.615703	106.176537
9.550000	-0.620946	104.256208	-33.872974	-27.445785	-33.872974	-27.445785	-0.620651	104.359166
9.600000	-0.625933	102.426383	-33.884914	-29.810506	-33.884914	-29.810506	-0.625643	102.531105
9.650000	-0.630948	100.585745	-33.895636	-32.145484	-33.895636	-32.145484	-0.630677	100.692354
9.700000	-0.635987	98.734305	-33.906231	-34.445477	-33.906231	-34.445477	-0.635753	98.842948
9.750000	-0.641048	96.872110	-33.917346	-36.705024	-33.917346	-36.705024	-0.640871	96.982957
9.800000	-0.646129	94.999234	-33.929245	-38.919230	-33.929245	-38.919230	-0.646032	95.112487
9.850000	-0.651227	93.115786	-33.941899	-41.084290	-33.941899	-41.084290	-0.651239	93.231672
9.900000	-0.656343	91.221900	-33.955083	-43.197741	-33.955083	-43.197741	-0.656494	91.340680
9.950000	-0.661475	89.317741	-33.968468	-45.258459	-33.968468	-45.258459	-0.661799	89.439710
10.000000	-0.666623	87.403501	-33.981693	-47.266504	-33.981693	-47.266504	-0.667159	87.528990
