! freq	dB(S11)	phase(S11)	dB(S12)	phase(S12)	
!     	dB(S21)	phase(S21)	dB(S22)	phase(S22)	
!S-par simulation data
#  GHz  S  DB  R 50
0.000000	-85.884355	0.000000	-0.000441	0.000000	-0.000441	0.000000	-85.884355	0.000000
0.050000	-35.420549	-92.908327	-0.004506	-2.990949	-0.004506	-2.990949	-35.414637	-92.827810
0.100000	-29.410804	-96.092258	-0.014086	-5.957231	-0.014086	-5.957231	-29.408124	-95.913831
0.150000	-25.910475	-99.236668	-0.025917	-8.902188	-0.025917	-8.902188	-25.909675	-98.939260
0.200000	-23.447092	-102.363527	-0.039115	-11.835241	-0.039115	-11.835241	-23.444425	-101.942233
0.250000	-21.557225	-105.449895	-0.053797	-14.761207	-0.053797	-14.761207	-21.550069	-104.923753
0.300000	-20.030558	-108.484582	-0.070167	-17.681046	-0.070167	-17.681046	-20.019950	-107.876825
0.350000	-18.754096	-111.476064	-0.088365	-20.594001	-0.088365	-20.594001	-18.743211	-110.793681
0.400000	-17.660421	-114.440374	-0.108359	-23.499148	-0.108359	-23.499148	-17.651713	-113.673671
0.450000	-16.707955	-117.387987	-0.130142	-26.395104	-0.130142	-26.395104	-16.702152	-116.521627
0.500000	-15.868417	-120.324807	-0.153607	-29.280758	-0.153607	-29.280758	-15.864931	-119.347244
0.550000	-15.120314	-123.253620	-0.178513	-32.156017	-0.178513	-32.156017	-15.118242	-122.159406
0.600000	-14.449579	-126.174558	-0.204770	-35.019795	-0.204770	-35.019795	-14.448159	-124.961860
0.650000	-13.845765	-129.086924	-0.232246	-37.870978	-0.232246	-37.870978	-13.844534	-127.755897
0.700000	-13.298616	-131.990664	-0.260679	-40.710063	-0.260679	-40.710063	-13.297383	-130.541739
0.750000	-12.801045	-134.885128	-0.289892	-43.536869	-0.289892	-43.536869	-12.799729	-133.318261
0.800000	-12.348242	-137.769146	-0.319723	-46.350691	-0.319723	-46.350691	-12.346778	-136.083303
0.850000	-11.935125	-140.642374	-0.349955	-49.151871	-0.349955	-49.151871	-11.933398	-138.835138
0.900000	-11.557565	-143.504684	-0.380396	-51.940786	-0.380396	-51.940786	-11.555419	-141.572063
0.950000	-11.212426	-146.356046	-0.410859	-54.717712	-0.410859	-54.717712	-11.209714	-144.292357
1.000000	-10.896975	-149.196837	-0.441160	-57.483133	-0.441160	-57.483133	-10.893629	-146.995003
1.050000	-10.608887	-152.027764	-0.471122	-60.237683	-0.471122	-60.237683	-10.604948	-149.679853
1.100000	-10.346155	-154.849805	-0.500569	-62.982166	-0.500569	-62.982166	-10.341759	-152.347554
1.150000	-10.107041	-157.664139	-0.529321	-65.717575	-0.529321	-65.717575	-10.102362	-154.999214
1.200000	-9.890028	-160.472082	-0.557180	-68.445081	-0.557180	-68.445081	-9.885227	-157.636047
1.250000	-9.693792	-163.275040	-0.583909	-71.165923	-0.583909	-71.165923	-9.688988	-160.259152
1.300000	-9.517519	-166.074454	-0.609184	-73.880999	-0.609184	-73.880999	-9.512775	-162.869188
1.350000	-9.359871	-168.871986	-0.632752	-76.590817	-0.632752	-76.590817	-9.355198	-165.467212
1.400000	-9.219998	-171.669271	-0.654442	-79.295224	-0.654442	-79.295224	-9.215370	-168.053883
1.450000	-9.097180	-174.468037	-0.674233	-81.994331	-0.674233	-81.994331	-9.092542	-170.629802
1.500000	-8.990820	-177.270116	-0.692176	-84.689119	-0.692176	-84.689119	-8.986098	-173.195536
1.550000	-8.900435	179.922534	-0.708286	-87.381296	-0.708286	-87.381296	-8.895539	-175.751625
1.600000	-8.825649	177.107822	-0.722516	-90.072822	-0.722516	-90.072822	-8.820481	-178.298581
1.650000	-8.766193	174.283505	-0.734780	-92.765615	-0.734780	-92.765615	-8.760643	179.163123
1.700000	-8.721895	171.447175	-0.744979	-95.461484	-0.744979	-95.461484	-8.715848	176.633073
1.750000	-8.692687	168.596239	-0.753026	-98.162172	-0.753026	-98.162172	-8.686018	174.110926
1.800000	-8.678601	165.727900	-0.758845	-100.869400	-0.758845	-100.869400	-8.671174	171.596447
1.850000	-8.679773	162.839131	-0.762378	-103.584908	-0.762378	-103.584908	-8.671439	169.089530
1.900000	-8.696619	159.926350	-0.763554	-106.310606	-0.763554	-106.310606	-8.687211	166.590323
1.950000	-8.729507	156.985840	-0.762348	-109.048389	-0.762348	-109.048389	-8.718839	164.099120
2.000000	-8.778755	154.013913	-0.758773	-111.800044	-0.758773	-111.800044	-8.766614	161.616402
2.050000	-8.844981	151.006219	-0.752837	-114.567527	-0.752837	-114.567527	-8.831121	159.143067
2.100000	-8.928948	147.957936	-0.744562	-117.352864	-0.744562	-117.352864	-8.913085	156.680434
2.150000	-9.031587	144.863680	-0.733987	-120.158142	-0.733987	-120.158142	-9.013381	154.230346
2.200000	-9.154010	141.717394	-0.721172	-122.985521	-0.721172	-122.985521	-9.133058	151.795300
2.250000	-9.297541	138.512201	-0.706194	-125.837225	-0.706194	-125.837225	-9.273357	149.378615
2.300000	-9.463747	135.240216	-0.689153	-128.715546	-0.689153	-128.715546	-9.435737	146.984648
2.350000	-9.654477	131.892307	-0.670171	-131.622844	-0.670171	-131.622844	-9.621909	144.619077
2.400000	-9.871908	128.457769	-0.649394	-134.561542	-0.649394	-134.561542	-9.833876	142.289269
2.450000	-10.118607	124.923891	-0.626995	-137.534126	-0.626995	-137.534126	-10.073973	140.004772
2.500000	-10.397609	121.275373	-0.603178	-140.543141	-0.603178	-140.543141	-10.344927	137.777978
2.550000	-10.713093	117.490079	-0.578154	-143.592091	-0.578154	-143.592091	-10.650473	135.627115
2.600000	-11.068796	113.546850	-0.552227	-146.682828	-0.552227	-146.682828	-10.993805	133.572505
2.650000	-11.469790	109.415684	-0.525704	-149.818029	-0.525704	-149.818029	-11.379211	131.642658
2.700000	-11.922117	105.057731	-0.498936	-153.000388	-0.498936	-153.000388	-11.811631	129.875612
2.750000	-12.432973	100.421598	-0.472314	-156.232606	-0.472314	-156.232606	-12.296685	128.322654
2.800000	-13.010891	95.437713	-0.446279	-159.517362	-0.446279	-159.517362	-12.840600	127.053740
2.850000	-13.665851	90.009566	-0.421321	-162.857295	-0.421321	-162.857295	-13.449932	126.165436
2.900000	-14.409131	83.999886	-0.397985	-166.254972	-0.397985	-166.254972	-14.130794	125.792458
2.950000	-15.252427	77.208644	-0.376873	-169.712851	-0.376873	-169.712851	-14.887056	126.123928
3.000000	-16.205069	69.338633	-0.358644	-173.233243	-0.358644	-173.233243	-15.716385	127.424154
3.050000	-17.266452	59.945697	-0.344020	-176.818264	-0.344020	-176.818264	-16.602023	130.051930
3.100000	-18.407253	48.385696	-0.333787	179.530217	-0.333787	179.530217	-17.497259	134.453907
3.150000	-19.524636	33.795949	-0.328860	175.809884	-0.328860	175.809884	-18.298425	141.089795
3.200000	-20.379471	15.559054	-0.330183	172.019517	-0.330183	172.019517	-18.830144	150.043486
3.250000	-20.626216	-5.539187	-0.338672	168.159131	-0.338672	168.159131	-18.900006	160.505917
3.300000	-20.065250	-26.820087	-0.355355	164.228512	-0.355355	164.228512	-18.421479	170.835959
3.350000	-18.885376	-45.632452	-0.381060	160.229710	-0.381060	160.229710	-17.503008	179.506249
3.400000	-17.404506	-60.907335	-0.417310	156.160675	-0.417310	156.160675	-16.319537	-174.305803
3.450000	-15.886985	-73.204518	-0.465112	152.024249	-0.465112	152.024249	-15.051083	-170.473234
3.500000	-14.446838	-83.349446	-0.525707	147.822556	-0.525707	147.822556	-13.798781	-168.562428
3.550000	-13.122045	-92.030724	-0.600162	143.559370	-0.600162	143.559370	-12.611575	-168.102377
3.600000	-11.916200	-99.705955	-0.689620	139.238702	-0.689620	139.238702	-11.506754	-168.730575
3.650000	-10.821577	-106.678164	-0.795190	134.865325	-0.795190	134.865325	-10.487411	-170.178301
3.700000	-9.827492	-113.147620	-0.917930	130.444740	-0.917930	130.444740	-9.550502	-172.250744
3.750000	-8.923386	-119.248108	-1.058834	125.983106	-1.058834	125.983106	-8.690699	-174.806242
3.800000	-8.099825	-125.067890	-1.218994	121.486852	-1.218994	121.486852	-7.902122	-177.743451
3.850000	-7.348736	-130.672227	-1.399050	116.963608	-1.399050	116.963608	-7.179180	179.020890
3.900000	-6.663094	-136.103482	-1.599722	112.420854	-1.599722	112.420854	-6.516570	175.546907
3.950000	-6.036875	-141.391060	-1.821630	107.866220	-1.821630	107.866220	-5.909494	171.881921
4.000000	-5.464863	-146.555361	-2.065307	103.307325	-2.065307	103.307325	-5.353626	168.063873
4.050000	-4.942493	-151.610488	-2.331203	98.751633	-2.331203	98.751633	-4.845055	164.123663
4.100000	-4.465860	-156.565392	-2.619808	94.206441	-2.619808	94.206441	-4.380365	160.086152
4.150000	-4.031239	-161.427316	-2.931377	89.678506	-2.931377	89.678506	-3.956205	155.973243
4.200000	-3.635264	-166.201062	-3.266207	85.173977	-3.266207	85.173977	-3.569500	151.802732
4.250000	-3.274896	-170.889822	-3.624657	80.698429	-3.624657	80.698429	-3.217434	147.589239
4.300000	-2.947489	-175.495305	-4.007202	76.257109	-4.007202	76.257109	-2.897542	143.344744
4.350000	-2.650034	179.978839	-4.414232	71.853454	-4.414232	71.853454	-2.606962	139.079666
4.400000	-2.380588	175.532872	-4.846575	67.492077	-4.846575	67.492077	-2.343865	134.801690
4.450000	-2.136896	171.165073	-5.305068	63.176137	-5.305068	63.176137	-2.106098	130.517479
4.500000	-1.916680	166.872825	-5.790825	58.907716	-5.790825	58.907716	-1.891467	126.232129
4.550000	-1.718017	162.654212	-6.305355	54.688966	-6.305355	54.688966	-1.698121	121.949348
4.600000	-1.539134	158.507132	-6.850598	50.521799	-6.850598	50.521799	-1.524348	117.671750
4.650000	-1.378398	154.429289	-7.429029	46.408056	-7.429029	46.408056	-1.368570	113.401002
4.700000	-1.234311	150.418197	-8.043793	42.349739	-8.043793	42.349739	-1.229338	109.137953
4.750000	-1.105502	146.471205	-8.698885	38.349297	-8.698885	38.349297	-1.105326	104.882751
4.800000	-0.990724	142.585519	-9.399389	34.410020	-9.399389	34.410020	-0.995327	100.634942
4.850000	-0.888846	138.758231	-10.151810	30.536588	-10.151810	30.536588	-0.898247	96.393565
4.900000	-0.798846	134.986345	-10.964555	26.735888	-10.964555	26.735888	-0.813101	92.157225
4.950000	-0.719806	131.266804	-11.848629	23.018265	-11.848629	23.018265	-0.739002	87.924163
5.000000	-0.650907	127.596511	-12.818705	19.399564	-12.818705	19.399564	-0.675164	83.692305
5.050000	-0.592017	123.975396	-13.893681	15.916513	-13.893681	15.916513	-0.621507	79.459031
5.100000	-0.541106	120.393213	-15.104207	12.585553	-15.104207	12.585553	-0.575991	75.222264
5.150000	-0.498895	116.853307	-16.488901	9.510004	-16.488901	9.510004	-0.539411	70.978448
5.200000	-0.464152	113.348847	-18.112784	6.792585	-18.112784	6.792585	-0.510541	66.725337
5.250000	-0.436760	109.878112	-20.079066	4.722691	-20.079066	4.722691	-0.489317	62.459306
5.300000	-0.416524	106.438626	-22.573449	3.950725	-22.573449	3.950725	-0.475588	58.176652
5.350000	-0.402658	103.025093	-25.977940	6.120236	-25.977940	6.120236	-0.468586	53.875170
5.400000	-0.395864	99.637862	-30.977630	20.834107	-30.977630	20.834107	-0.469124	49.547946
5.450000	-0.394897	96.269861	-35.793334	76.402967	-35.793334	76.402967	-0.475934	45.195319
5.500000	-0.400954	92.921634	-30.169389	122.856602	-30.169389	122.856602	-0.490386	40.806811
5.550000	-0.412962	89.587010	-25.464134	134.056557	-25.464134	134.056557	-0.511388	36.383450
5.600000	-0.431799	86.264177	-22.263204	135.630262	-22.263204	135.630262	-0.539994	31.915162
5.650000	-0.457312	82.949061	-19.889933	134.480902	-19.889933	134.480902	-0.576126	27.398512
5.700000	-0.489698	79.638007	-18.007618	132.196863	-18.007618	132.196863	-0.620102	22.827960
5.750000	-0.529920	76.327346	-16.443548	129.258363	-16.443548	129.258363	-0.673123	18.191894
5.800000	-0.578391	73.012755	-15.101295	125.937297	-15.101295	125.937297	-0.735789	13.483287
5.850000	-0.636014	69.689704	-13.920457	122.345464	-13.920457	122.345464	-0.809283	8.691398
5.900000	-0.703978	66.353226	-12.860907	118.540177	-12.860907	118.540177	-0.895154	3.803463
5.950000	-0.783660	62.998245	-11.894883	114.551786	-11.894883	114.551786	-0.995213	-1.194021
6.000000	-0.876955	59.619301	-11.001988	110.391047	-11.001988	110.391047	-1.111946	-6.318096
6.050000	-0.986329	56.210747	-10.166820	106.057016	-10.166820	106.057016	-1.248608	-11.589254
6.100000	-1.115007	52.767027	-9.377443	101.539541	-9.377443	101.539541	-1.409503	-17.032345
6.150000	-1.267238	49.283223	-8.624451	96.820180	-8.624451	96.820180	-1.600388	-22.677748
6.200000	-1.448661	45.756124	-7.900412	91.872139	-7.900412	91.872139	-1.829074	-28.562895
6.250000	-1.666833	42.186214	-7.199605	86.659511	-7.199605	86.659511	-2.106327	-34.734245
6.300000	-1.932705	38.581192	-6.517469	81.130595	-6.517469	81.130595	-2.448280	-41.255957
6.350000	-2.259833	34.964957	-5.852462	75.230230	-5.852462	75.230230	-2.876335	-48.197784
6.400000	-2.667284	31.389441	-5.205053	68.885692	-5.205053	68.885692	-3.422963	-55.653368
6.450000	-3.180704	27.961402	-4.579211	62.009695	-4.579211	62.009695	-4.137651	-63.742590
6.500000	-3.831818	24.883383	-3.983800	54.510920	-3.983800	54.510920	-5.096277	-72.610188
6.550000	-4.661814	22.580628	-3.434736	46.263034	-3.434736	46.263034	-6.436927	-82.499266
6.600000	-5.695599	21.826030	-2.957613	37.179328	-2.957613	37.179328	-8.402499	-93.755085
6.650000	-6.889105	23.964484	-2.588709	27.204305	-2.588709	27.204305	-11.529759	-107.232330
6.700000	-7.972537	30.692351	-2.375061	16.366059	-2.375061	16.366059	-17.472852	-127.218436
6.750000	-8.332780	41.749078	-2.366189	4.836801	-2.366189	4.836801	-27.328323	120.479355
6.800000	-7.577688	52.304482	-2.601611	-7.059537	-2.601611	-7.059537	-15.084167	54.933227
6.850000	-6.177610	57.788807	-3.098479	-18.897923	-3.098479	-18.897923	-9.849465	36.276592
6.900000	-4.765904	58.312204	-3.846151	-30.252416	-3.846151	-30.252416	-6.876738	21.666047
6.950000	-3.608150	55.852520	-4.810834	-40.804666	-4.810834	-40.804666	-4.982710	8.783958
7.000000	-2.732065	51.956376	-5.951842	-50.386169	-5.951842	-50.386169	-3.720123	-2.799846
7.050000	-2.090261	47.509077	-7.234105	-58.955620	-7.234105	-58.955620	-2.858772	-13.269898
7.100000	-1.626197	42.960012	-8.634454	-66.541251	-8.634454	-66.541251	-2.263142	-22.775946
7.150000	-1.290436	38.516221	-10.146457	-73.210371	-10.146457	-73.210371	-1.845411	-31.476168
7.200000	-1.047969	34.262086	-11.775996	-78.994681	-11.775996	-78.994681	-1.551302	-39.499148
7.250000	-0.872058	30.218834	-13.547984	-83.894947	-13.547984	-83.894947	-1.342919	-46.970535
7.300000	-0.745214	26.385627	-15.500367	-87.791318	-15.500367	-87.791318	-1.196581	-53.981960
7.350000	-0.653425	22.741374	-17.707559	-90.434613	-17.707559	-90.434613	-1.094051	-60.626579
7.400000	-0.588403	19.272256	-20.268946	-91.095278	-20.268946	-91.095278	-1.024726	-66.961114
7.450000	-0.542713	15.952844	-23.359569	-88.206058	-23.359569	-88.206058	-0.979278	-73.050513
7.500000	-0.512151	12.769926	-27.076165	-76.944142	-27.076165	-76.944142	-0.952476	-78.931831
7.550000	-0.492875	9.704503	-30.357180	-47.440999	-30.357180	-47.440999	-0.939576	-84.646357
7.600000	-0.482547	6.745968	-29.469302	-10.061709	-29.469302	-10.061709	-0.937704	-90.220150
7.650000	-0.478843	3.877556	-26.491656	9.553821	-26.491656	9.553821	-0.944001	-95.684475
7.700000	-0.480408	1.089995	-23.881554	16.671196	-23.881554	16.671196	-0.956800	-101.058563
7.750000	-0.486352	-1.621222	-21.875005	18.472045	-21.875005	18.472045	-0.975001	-106.355847
7.800000	-0.495673	-4.265149	-20.311030	18.058426	-20.311030	18.058426	-0.997354	-111.593646
7.850000	-0.507594	-6.850298	-19.052214	16.539795	-19.052214	16.539795	-1.022884	-116.786567
7.900000	-0.521615	-9.381672	-18.012732	14.383198	-18.012732	14.383198	-1.050951	-121.945012
7.950000	-0.537435	-11.859866	-17.140820	11.816811	-17.140820	11.816811	-1.081136	-127.076960
8.000000	-0.554570	-14.292839	-16.393591	9.011409	-16.393591	9.011409	-1.112812	-132.193292
8.050000	-0.572749	-16.684230	-15.744481	6.042991	-15.744481	6.042991	-1.145604	-137.301309
8.100000	-0.591769	-19.036130	-15.175340	2.957295	-15.175340	2.957295	-1.179207	-142.407554
8.150000	-0.611451	-21.349652	-14.673282	-0.215572	-14.673282	-0.215572	-1.213326	-147.518860
8.200000	-0.631593	-23.629774	-14.225293	-3.448806	-14.225293	-3.448806	-1.247674	-152.640545
8.250000	-0.652064	-25.878494	-13.823313	-6.729265	-13.823313	-6.729265	-1.282035	-157.777357
8.300000	-0.672754	-28.096190	-13.462079	-10.049186	-13.462079	-10.049186	-1.316177	-162.934945
8.350000	-0.693544	-30.285351	-13.135870	-13.400632	-13.135870	-13.400632	-1.349894	-168.117433
8.400000	-0.714337	-32.447957	-12.840307	-16.778609	-12.840307	-16.778609	-1.383007	-173.328367
8.450000	-0.735043	-34.585349	-12.572194	-20.180062	-12.572194	-20.180062	-1.415333	-178.571476
8.500000	-0.755579	-36.698935	-12.328836	-23.602784	-12.328836	-23.602784	-1.446702	176.149969
8.550000	-0.775864	-38.790048	-12.108044	-27.045291	-12.108044	-27.045291	-1.476950	170.832992
8.600000	-0.795820	-40.859967	-11.908036	-30.506622	-11.908036	-30.506622	-1.505923	165.474901
8.650000	-0.815373	-42.909934	-11.727369	-33.986192	-11.727369	-33.986192	-1.533475	160.073268
8.700000	-0.834447	-44.941172	-11.564884	-37.483681	-11.564884	-37.483681	-1.559468	154.625921
8.750000	-0.852968	-46.954898	-11.419665	-40.998951	-11.419665	-40.998951	-1.583778	149.130927
8.800000	-0.870848	-48.952016	-11.291320	-44.532377	-11.291320	-44.532377	-1.606249	143.585470
8.850000	-0.888025	-50.934163	-11.179021	-48.083636	-11.179021	-48.083636	-1.626825	137.989094
8.900000	-0.904428	-52.902634	-11.082425	-51.652824	-11.082425	-51.652824	-1.645428	132.340488
8.950000	-0.919984	-54.858776	-11.001343	-55.240039	-11.001343	-55.240039	-1.662003	126.638494
9.000000	-0.934626	-56.803999	-10.935735	-58.845350	-10.935735	-58.845350	-1.676519	120.882071
9.050000	-0.948285	-58.739792	-10.885704	-62.468771	-10.885704	-62.468771	-1.688972	115.070254
9.100000	-0.960898	-60.667729	-10.851499	-66.110239	-10.851499	-66.110239	-1.699391	109.202108
9.150000	-0.972406	-62.589487	-10.833515	-69.769575	-10.833515	-69.769575	-1.707838	103.276673
9.200000	-0.982784	-64.506902	-10.831903	-73.446065	-10.831903	-73.446065	-1.714453	97.294267
9.250000	-0.991917	-66.421729	-10.848374	-77.140163	-10.848374	-77.140163	-1.719278	91.250313
9.300000	-0.999806	-68.336164	-10.883282	-80.850495	-10.883282	-80.850495	-1.722568	85.145320
9.350000	-1.006424	-70.252410	-10.937769	-84.575939	-10.937769	-84.575939	-1.724561	78.977491
9.400000	-1.011757	-72.172839	-11.013230	-88.314922	-11.013230	-88.314922	-1.725547	72.744590
9.450000	-1.015804	-74.100006	-11.111363	-92.065262	-11.111363	-92.065262	-1.725876	66.443839
9.500000	-1.018582	-76.036677	-11.234228	-95.823944	-11.234228	-95.823944	-1.725959	60.071796
9.550000	-1.020130	-77.985846	-11.384328	-99.586814	-11.384328	-99.586814	-1.726275	53.624229
9.600000	-1.020505	-79.950862	-11.564852	-103.348077	-11.564852	-103.348077	-1.727381	47.095559
9.650000	-1.019800	-81.935443	-11.779722	-107.099470	-11.779722	-107.099470	-1.729935	40.478975
9.700000	-1.018160	-83.943325	-12.033277	-110.829613	-12.033277	-110.829613	-1.734663	33.767712
9.750000	-1.015768	-85.978862	-12.331322	-114.522148	-12.331322	-114.522148	-1.742419	26.952476
9.800000	-1.012866	-88.046798	-12.681051	-118.153609	-12.681051	-118.153609	-1.754179	20.022439
9.850000	-1.009778	-90.151990	-13.091067	-121.690652	-13.091067	-121.690652	-1.771024	12.966122
9.900000	-1.006911	-92.299991	-13.572621	-125.083596	-13.572621	-125.083596	-1.794228	5.769240
9.950000	-1.004777	-94.496209	-14.139325	-128.261218	-14.139325	-128.261218	-1.825162	-1.582597
10.000000	-1.004912	-96.725398	-14.769178	-131.084536	-14.769178	-131.084536	-1.864266	-8.842845
