! freq	dB(S11)	phase(S11)	dB(S12)	phase(S12)	
!     	dB(S21)	phase(S21)	dB(S22)	phase(S22)	
!S-par simulation data
#  GHz  S  DB  R 50
0.000000	-0.000000	0.000000	-380.564290	0.000000	-380.564290	0.000000	-0.000000	0.000000
0.050000	-0.000094	-0.774835	-102.208946	16.795862	-102.208946	16.795862	-0.000096	-0.804536
0.100000	-0.000374	-1.549455	-101.816670	21.890184	-101.816670	21.890184	-0.000381	-1.608853
0.150000	-0.000829	-2.323658	-101.314918	28.435178	-101.314918	28.435178	-0.000844	-2.412745
0.200000	-0.001442	-3.097274	-100.737427	34.470423	-100.737427	34.470423	-0.001469	-3.216040
0.250000	-0.002205	-3.870107	-100.136560	39.617048	-100.136560	39.617048	-0.002245	-4.018538
0.300000	-0.003082	-4.642114	-99.560310	43.978478	-99.560310	43.978478	-0.003139	-4.820197
0.350000	-0.004059	-5.413182	-99.033634	47.636589	-99.033634	47.636589	-0.004134	-5.620904
0.400000	-0.005114	-6.183262	-98.574298	50.733173	-98.574298	50.733173	-0.005210	-6.420607
0.450000	-0.006228	-6.952328	-98.193462	53.407208	-98.193462	53.407208	-0.006346	-7.219281
0.500000	-0.007382	-7.720378	-97.898614	55.787649	-97.898614	55.787649	-0.007525	-8.016924
0.550000	-0.008562	-8.487428	-97.695575	57.995318	-97.695575	57.995318	-0.008733	-8.813548
0.600000	-0.009753	-9.253501	-97.589810	60.149069	-97.589810	60.149069	-0.009955	-9.609176
0.650000	-0.010947	-10.018631	-97.587219	62.374787	-97.587219	62.374787	-0.011183	-10.403836
0.700000	-0.012134	-10.782852	-97.694509	64.817624	-97.694509	64.817624	-0.012408	-11.197562
0.750000	-0.013310	-11.546200	-97.918976	67.659200	-97.918976	67.659200	-0.013625	-11.990383
0.800000	-0.014469	-12.308708	-98.267154	71.142553	-98.267154	71.142553	-0.014829	-12.782328
0.850000	-0.015610	-13.070407	-98.740900	75.607629	-98.740900	75.607629	-0.016019	-13.573422
0.900000	-0.016731	-13.831320	-99.327647	81.534335	-99.327647	81.534335	-0.017192	-14.363687
0.950000	-0.017831	-14.591469	-99.978621	89.562888	-99.978621	89.562888	-0.018347	-15.153137
1.000000	-0.018911	-15.350870	-100.569266	100.381253	-100.569266	100.381253	-0.019487	-15.941785
1.050000	-0.019971	-16.109534	-100.861306	114.265167	-100.861306	114.265167	-0.020609	-16.729637
1.100000	-0.021014	-16.867469	-100.559093	130.250924	-100.559093	130.250924	-0.021716	-17.516695
1.150000	-0.022039	-17.624676	-99.537241	145.899651	-99.537241	145.899651	-0.022809	-18.302960
1.200000	-0.023049	-18.381155	-97.983048	158.895274	-97.983048	158.895274	-0.023888	-19.088427
1.250000	-0.024046	-19.136904	-96.199934	168.575051	-96.199934	168.575051	-0.024955	-19.873089
1.300000	-0.025029	-19.891882	-94.385159	175.360720	-94.385159	175.360720	-0.026011	-20.656901
1.350000	-0.026003	-20.646113	-92.652556	-179.861300	-92.652556	-179.861300	-0.027058	-21.439887
1.400000	-0.026968	-21.399586	-91.030065	-176.509512	-91.030065	-176.509512	-0.028096	-22.222034
1.450000	-0.027925	-22.152290	-89.519273	-174.175232	-89.519273	-174.175232	-0.029127	-23.003328
1.500000	-0.028877	-22.904209	-88.112122	-172.579439	-88.112122	-172.579439	-0.030152	-23.783753
1.550000	-0.029823	-23.655329	-86.797929	-171.531319	-86.797929	-171.531319	-0.031172	-24.563293
1.600000	-0.030767	-24.405636	-85.566103	-170.898461	-85.566103	-170.898461	-0.032187	-25.341932
1.650000	-0.031707	-25.155113	-84.407086	-170.587164	-84.407086	-170.587164	-0.033199	-26.119652
1.700000	-0.032647	-25.903441	-83.286940	-170.595012	-83.286940	-170.595012	-0.034207	-26.896103
1.750000	-0.033585	-26.651322	-82.261193	-170.717042	-82.261193	-170.717042	-0.035215	-27.672058
1.800000	-0.034525	-27.398122	-81.270988	-171.027575	-81.270988	-171.027575	-0.036221	-28.446823
1.850000	-0.035465	-28.144150	-80.335521	-171.472755	-80.335521	-171.472755	-0.037226	-29.220736
1.900000	-0.036406	-28.889215	-79.438264	-172.029222	-79.438264	-172.029222	-0.038231	-29.993589
1.950000	-0.037350	-29.633316	-78.577260	-172.696977	-78.577260	-172.696977	-0.039236	-30.765383
2.000000	-0.038297	-30.376584	-77.756144	-173.431701	-77.756144	-173.431701	-0.040241	-31.536261
2.050000	-0.039247	-31.118684	-76.957669	-174.260180	-76.957669	-174.260180	-0.041248	-32.305858
2.100000	-0.040199	-31.860093	-76.200138	-175.128829	-76.200138	-175.128829	-0.042256	-33.074699
2.150000	-0.041157	-32.600119	-75.455036	-176.077815	-75.455036	-176.077815	-0.043267	-33.842027
2.200000	-0.042118	-33.339609	-74.751491	-177.050079	-74.751491	-177.050079	-0.044279	-34.608770
2.250000	-0.043086	-34.077491	-74.052604	-178.092181	-74.052604	-178.092181	-0.045295	-35.373756
2.300000	-0.044055	-34.815005	-73.395550	-179.146570	-73.395550	-179.146570	-0.046312	-36.138341
2.350000	-0.045033	-35.550675	-72.737178	179.737606	-72.737178	179.737606	-0.047334	-36.900918
2.400000	-0.046013	-36.286156	-72.120651	178.616822	-72.120651	178.616822	-0.048358	-37.663288
2.450000	-0.047003	-37.019551	-71.498179	177.441472	-71.498179	177.441472	-0.049389	-38.423389
2.500000	-0.047993	-37.752946	-70.917349	176.266122	-70.917349	176.266122	-0.050420	-39.183490
2.550000	-0.048996	-38.484004	-70.326985	175.041942	-70.326985	175.041942	-0.051460	-39.941054
2.600000	-0.049998	-39.215063	-69.774207	173.817763	-69.774207	173.817763	-0.052501	-40.698618
2.650000	-0.051013	-39.943927	-69.216470	172.556398	-69.216470	172.556398	-0.053551	-41.453801
2.700000	-0.052029	-40.672591	-68.689148	171.291652	-68.689148	171.291652	-0.054602	-42.208768
2.750000	-0.053057	-41.399216	-68.160666	169.998544	-68.160666	169.998544	-0.055664	-42.961524
2.800000	-0.054087	-42.125433	-67.656594	168.699763	-67.656594	168.699763	-0.056727	-43.713839
2.850000	-0.055128	-42.849777	-67.154517	167.379403	-67.154517	167.379403	-0.057801	-44.464125
2.900000	-0.056173	-43.573496	-66.671800	166.051849	-66.671800	166.051849	-0.058879	-45.213735
2.950000	-0.057228	-44.295519	-66.193699	164.707992	-66.193699	164.707992	-0.059966	-45.961509
3.000000	-0.058289	-45.016694	-65.730690	163.355982	-65.730690	163.355982	-0.061058	-46.708365
3.050000	-0.059359	-45.736359	-65.274472	161.991805	-65.274472	161.991805	-0.062161	-47.453589
3.100000	-0.060436	-46.454945	-64.829732	160.618936	-64.829732	160.618936	-0.063270	-48.197647
3.150000	-0.061521	-47.172218	-64.393580	159.237158	-64.393580	159.237158	-0.064388	-48.940284
3.200000	-0.062616	-47.888177	-63.965836	157.846468	-63.965836	157.846468	-0.065515	-49.681500
3.250000	-0.063717	-48.603026	-63.548160	156.449435	-63.548160	156.449435	-0.066650	-50.421517
3.300000	-0.064830	-49.316321	-63.136282	155.043521	-63.136282	155.043521	-0.067797	-51.159854
3.350000	-0.065949	-50.028717	-62.735682	153.633280	-62.735682	153.633280	-0.068951	-51.897220
3.400000	-0.067081	-50.739315	-62.338656	152.214384	-62.338656	152.214384	-0.070119	-52.632642
3.450000	-0.068218	-51.449231	-61.953890	150.792731	-61.953890	150.792731	-0.071292	-53.367328
3.500000	-0.069370	-52.157102	-61.570804	149.362805	-61.570804	149.362805	-0.072483	-54.099804
3.550000	-0.070527	-52.864513	-61.200763	147.931325	-61.200763	147.931325	-0.073678	-54.831784
3.600000	-0.071701	-53.569630	-60.830788	146.492080	-60.830788	146.492080	-0.074893	-55.561286
3.650000	-0.072877	-54.274515	-60.474478	145.052184	-60.474478	145.052184	-0.076111	-56.290537
3.700000	-0.074075	-54.976854	-60.116860	143.605128	-60.116860	143.605128	-0.077352	-57.017039
3.750000	-0.075272	-55.679194	-59.773386	142.158072	-59.773386	142.158072	-0.078594	-57.743540
3.800000	-0.076495	-56.378735	-59.427433	140.704540	-59.427433	140.704540	-0.079863	-58.467021
3.850000	-0.077717	-57.078276	-59.094733	139.251007	-59.094733	139.251007	-0.081132	-59.190502
3.900000	-0.078963	-57.775235	-58.761057	137.792621	-58.761057	137.792621	-0.082429	-59.911196
3.950000	-0.080212	-58.471961	-58.438568	136.333795	-58.438568	136.333795	-0.083728	-60.631638
4.000000	-0.081483	-59.166327	-58.116408	134.871431	-58.116408	134.871431	-0.085052	-61.349534
4.050000	-0.082760	-59.860221	-57.803608	133.408360	-57.803608	133.408360	-0.086383	-62.066921
4.100000	-0.084058	-60.551984	-57.492266	131.942805	-57.492266	131.942805	-0.087738	-62.782009
4.150000	-0.085364	-61.243036	-57.188670	130.476422	-57.188670	130.476422	-0.089101	-63.496331
4.200000	-0.086691	-61.932187	-56.887508	129.008382	-56.887508	129.008382	-0.090487	-64.208604
4.250000	-0.088029	-62.620387	-56.592661	127.539512	-56.592661	127.539512	-0.091885	-64.919852
4.300000	-0.089386	-63.306920	-56.301093	126.069619	-56.301093	126.069619	-0.093305	-65.629305
4.350000	-0.090756	-63.992262	-56.014572	124.598995	-56.014572	124.598995	-0.094739	-66.337474
4.400000	-0.092145	-64.676173	-55.732060	123.127815	-55.732060	123.127815	-0.096193	-67.044104
4.450000	-0.093551	-65.358653	-55.453467	121.656080	-55.453467	121.656080	-0.097666	-67.749194
4.500000	-0.094972	-66.039941	-55.179511	120.184119	-55.179511	120.184119	-0.099156	-68.453001
4.550000	-0.096415	-66.719558	-54.908474	118.711839	-54.908474	118.711839	-0.100669	-69.155012
4.600000	-0.097871	-67.398222	-54.642615	117.239543	-54.642615	117.239543	-0.102196	-69.855999
4.650000	-0.099353	-68.074978	-54.378784	115.767215	-54.378784	115.767215	-0.103751	-70.554936
4.700000	-0.100846	-68.751020	-54.120596	114.294982	-54.120596	114.294982	-0.105317	-71.253107
4.750000	-0.102369	-69.424920	-53.863642	112.823034	-53.863642	112.823034	-0.106916	-71.948979
4.800000	-0.103900	-70.098344	-53.612730	111.351213	-53.612730	111.351213	-0.108523	-72.644341
4.850000	-0.105466	-70.769394	-53.362345	109.880020	-53.362345	109.880020	-0.110167	-73.337158
4.900000	-0.107037	-71.440207	-53.118342	108.408916	-53.118342	108.408916	-0.111816	-74.029721
4.950000	-0.108649	-72.108416	-52.874236	106.938797	-52.874236	106.938797	-0.113507	-74.719497
5.000000	-0.110261	-72.776625	-52.636802	105.468678	-52.636802	105.468678	-0.115199	-75.409273
5.050000	-0.111919	-73.442006	-52.398702	103.999907	-52.398702	103.999907	-0.116940	-76.096025
5.100000	-0.113579	-74.107387	-52.166955	102.531137	-52.166955	102.531137	-0.118681	-76.782776
5.150000	-0.115283	-74.770190	-51.935174	101.063816	-51.935174	101.063816	-0.120468	-77.466775
5.200000	-0.116991	-75.432758	-51.708880	99.596627	-51.708880	99.596627	-0.122260	-78.150523
5.250000	-0.118742	-76.092996	-51.483117	98.130921	-51.483117	98.130921	-0.124096	-78.831786
5.300000	-0.120502	-76.752768	-51.262058	96.665511	-51.262058	96.665511	-0.125941	-79.512553
5.350000	-0.122301	-77.410459	-51.042037	95.201563	-51.042037	95.201563	-0.127826	-80.191103
5.400000	-0.124114	-78.067455	-50.826007	93.738101	-50.826007	93.738101	-0.129725	-80.868914
5.450000	-0.125963	-78.722617	-50.611471	92.276033	-50.611471	92.276033	-0.131661	-81.544774
5.500000	-0.127831	-79.376861	-50.400278	90.814662	-50.400278	90.814662	-0.133616	-82.219657
5.550000	-0.129732	-80.029515	-50.190989	89.354583	-50.190989	89.354583	-0.135605	-82.892852
5.600000	-0.131657	-80.681032	-49.984456	87.895428	-49.984456	87.895428	-0.137618	-83.564840
5.650000	-0.133612	-81.331200	-49.780192	86.437435	-49.780192	86.437435	-0.139661	-84.235397
5.700000	-0.135596	-81.980019	-49.578153	84.980604	-49.578153	84.980604	-0.141734	-84.904522
5.750000	-0.137605	-82.627727	-49.378710	83.524784	-49.378710	83.524784	-0.143832	-85.572470
5.800000	-0.139650	-83.273880	-49.181011	82.070378	-49.181011	82.070378	-0.145967	-86.238770
5.850000	-0.141715	-83.919154	-48.986198	80.616813	-48.986198	80.616813	-0.148122	-86.904141
5.900000	-0.143822	-84.562674	-48.792698	79.164928	-48.792698	79.164928	-0.150319	-87.567654
5.950000	-0.145945	-85.205545	-48.602339	77.713698	-48.602339	77.713698	-0.152533	-88.230481
6.000000	-0.148116	-85.846469	-48.412908	76.264429	-48.412908	76.264429	-0.154795	-88.891248
6.050000	-0.150298	-86.486968	-48.226841	74.815613	-48.226841	74.815613	-0.157069	-89.551566
6.100000	-0.152535	-87.125338	-48.041357	73.369061	-48.041357	73.369061	-0.159397	-90.209632
6.150000	-0.154778	-87.763498	-47.859431	71.922744	-47.859431	71.922744	-0.161732	-90.867477
6.200000	-0.157082	-88.399357	-47.677785	70.479015	-47.677785	70.479015	-0.164128	-91.522889
6.250000	-0.159386	-89.035215	-47.499861	69.035287	-47.499861	69.035287	-0.166526	-92.178300
6.300000	-0.161759	-89.668610	-47.321952	67.594504	-47.321952	67.594504	-0.168992	-92.831106
6.350000	-0.164132	-90.302004	-47.147615	66.153721	-47.147615	66.153721	-0.171459	-93.483911
6.400000	-0.166570	-90.933185	-46.973636	64.715762	-46.973636	64.715762	-0.173991	-94.134375
6.450000	-0.169013	-91.564166	-46.802800	63.278060	-46.802800	63.278060	-0.176530	-94.784626
6.500000	-0.171516	-92.193179	-46.632634	61.843056	-46.632634	61.843056	-0.179129	-95.432792
6.550000	-0.174032	-92.821799	-46.465222	60.408592	-46.465222	60.408592	-0.181740	-96.080541
6.600000	-0.176601	-93.448692	-46.298757	58.976689	-46.298757	58.976689	-0.184407	-96.726456
6.650000	-0.179190	-94.075009	-46.134697	57.545641	-46.134697	57.545641	-0.187093	-97.371759
6.700000	-0.181827	-94.699832	-45.971833	56.117005	-45.971833	56.117005	-0.189830	-98.015471
6.750000	-0.184490	-95.323907	-45.811061	54.689575	-45.811061	54.689575	-0.192592	-98.658387
6.800000	-0.187196	-95.946713	-45.651703	53.264390	-45.651703	53.264390	-0.195400	-99.299945
6.850000	-0.189934	-96.568611	-45.494158	51.840808	-45.494158	51.840808	-0.198240	-99.940534
6.900000	-0.192711	-97.189456	-45.338217	50.419281	-45.338217	50.419281	-0.201119	-100.579989
6.950000	-0.195526	-97.809248	-45.183845	48.999807	-45.183845	48.999807	-0.204039	-101.218313
7.000000	-0.198374	-98.428191	-45.031238	47.582166	-45.031238	47.582166	-0.206992	-101.855719
7.050000	-0.201267	-99.045948	-44.879986	46.167089	-44.879986	46.167089	-0.209991	-102.491842
7.100000	-0.204187	-99.663053	-44.730635	44.753584	-44.730635	44.753584	-0.213019	-103.127253
7.150000	-0.207159	-100.278853	-44.582456	43.343223	-44.582456	43.343223	-0.216101	-103.761242
7.200000	-0.210152	-100.894186	-44.436287	41.934130	-44.436287	41.934130	-0.219204	-104.394714
7.250000	-0.213204	-101.508112	-44.291134	40.528837	-44.291134	40.528837	-0.222370	-105.026638
7.300000	-0.216271	-102.121741	-44.148076	39.124452	-44.148076	39.124452	-0.225550	-105.658229
7.350000	-0.219406	-102.733882	-44.005904	37.724609	-44.005904	37.724609	-0.228801	-106.288158
7.400000	-0.222548	-103.345881	-43.865889	36.325255	-43.865889	36.325255	-0.232059	-106.917927
7.450000	-0.225765	-103.956327	-43.726655	34.931274	-43.726655	34.931274	-0.235396	-107.545935
7.500000	-0.228984	-104.566773	-43.589617	33.537294	-43.589617	33.537294	-0.238734	-108.173943
7.550000	-0.232285	-105.175622	-43.453275	32.149618	-43.453275	32.149618	-0.242158	-108.800105
7.600000	-0.235588	-105.784472	-43.319040	30.761942	-43.319040	30.761942	-0.245583	-109.426266
7.650000	-0.238968	-106.391954	-43.185655	29.380476	-43.185655	29.380476	-0.249089	-110.050807
7.700000	-0.242356	-106.999310	-43.054181	27.999574	-43.054181	27.999574	-0.252603	-110.675199
7.750000	-0.245816	-107.605514	-42.923686	26.624731	-42.923686	26.624731	-0.256192	-111.298184
7.800000	-0.249292	-108.211488	-42.794928	25.251098	-42.794928	25.251098	-0.259796	-111.920886
7.850000	-0.252833	-108.816510	-42.667254	23.883307	-42.667254	23.883307	-0.263468	-112.542383
7.900000	-0.256398	-109.421216	-42.541167	22.517463	-42.541167	22.517463	-0.267164	-113.163477
7.950000	-0.260022	-110.025158	-42.416246	21.157171	-42.416246	21.157171	-0.270921	-113.783555
8.000000	-0.263677	-110.628718	-42.292780	19.799654	-42.292780	19.799654	-0.274709	-114.403124
8.050000	-0.267385	-111.231685	-42.170542	18.447318	-42.170542	18.447318	-0.278551	-115.021854
8.100000	-0.271132	-111.834229	-42.049645	17.098684	-42.049645	17.098684	-0.282433	-115.639984
8.150000	-0.274927	-112.436333	-41.930019	15.754776	-41.930019	15.754776	-0.286362	-116.257438
8.200000	-0.278769	-113.037997	-41.811635	14.415595	-41.811635	14.415595	-0.290338	-116.874217
8.250000	-0.282651	-113.639355	-41.694549	13.080594	-41.694549	13.080594	-0.294354	-117.490469
8.300000	-0.286590	-114.240284	-41.578616	11.751445	-41.578616	11.751445	-0.298426	-118.105986
8.350000	-0.290563	-114.841019	-41.463997	10.425836	-41.463997	10.425836	-0.302531	-118.721113
8.400000	-0.294602	-115.441365	-41.350450	9.107305	-41.350450	9.107305	-0.306699	-119.335460
8.450000	-0.298668	-116.041607	-41.238222	7.791577	-41.238222	7.791577	-0.310892	-119.949539
8.500000	-0.302809	-116.641533	-41.126991	6.484254	-41.126991	6.484254	-0.315158	-120.562811
8.550000	-0.306970	-117.241417	-41.017075	5.178897	-41.017075	5.178897	-0.319441	-121.175920
8.600000	-0.311219	-117.841093	-40.908084	3.883368	-40.908084	3.883368	-0.323805	-121.788214
8.650000	-0.315478	-118.440763	-40.800401	2.588871	-40.800401	2.588871	-0.328179	-122.400435
8.700000	-0.319837	-119.040370	-40.693570	1.305719	-40.693570	1.305719	-0.332641	-123.011850
8.750000	-0.324198	-119.639977	-40.588037	0.022567	-40.588037	0.022567	-0.337106	-123.623265
8.800000	-0.328673	-120.239706	-40.483281	-1.247634	-40.483281	-1.247634	-0.341669	-124.233902
8.850000	-0.333149	-120.839436	-40.379774	-2.517836	-40.379774	-2.517836	-0.346233	-124.844539
8.900000	-0.337734	-121.439463	-40.277043	-3.775652	-40.277043	-3.775652	-0.350888	-125.454558
8.950000	-0.342331	-122.039518	-40.175473	-5.032343	-40.175473	-5.032343	-0.355552	-126.064521
9.000000	-0.347032	-122.640023	-40.074673	-6.277318	-40.074673	-6.277318	-0.360300	-126.674012
9.050000	-0.351756	-123.240618	-39.974949	-7.519951	-39.974949	-7.519951	-0.365065	-127.283407
9.100000	-0.356579	-123.841789	-39.875982	-8.751645	-39.875982	-8.751645	-0.369906	-127.892460
9.150000	-0.361437	-124.443152	-39.778007	-9.979692	-39.778007	-9.979692	-0.374773	-128.501397
9.200000	-0.366387	-125.045188	-39.680776	-11.197678	-39.680776	-11.197678	-0.379706	-129.110103
9.250000	-0.371386	-125.647560	-39.584448	-12.410633	-39.584448	-12.410633	-0.384675	-129.718694
9.300000	-0.376472	-126.250670	-39.488853	-13.614500	-39.488853	-13.614500	-0.389703	-130.327150
9.350000	-0.381622	-126.854307	-39.394068	-14.811878	-39.394068	-14.811878	-0.394773	-130.935509
9.400000	-0.386851	-127.458712	-39.300006	-16.001237	-39.300006	-16.001237	-0.399895	-131.543810
9.450000	-0.392161	-128.063886	-39.206655	-17.182577	-39.206655	-17.182577	-0.405068	-132.152054
9.500000	-0.397543	-128.669821	-39.114025	-18.357053	-39.114025	-18.357053	-0.410283	-132.760300
9.550000	-0.403026	-129.276820	-39.021995	-19.521921	-39.021995	-19.521921	-0.415558	-133.368549
9.600000	-0.408571	-129.884529	-38.930692	-20.681163	-38.930692	-20.681163	-0.420868	-133.976842
9.650000	-0.414239	-130.493659	-38.839867	-21.829151	-38.839867	-21.829151	-0.426245	-134.585220
9.700000	-0.419959	-131.103403	-38.749787	-22.972824	-38.749787	-22.972824	-0.431650	-135.193662
9.750000	-0.425828	-131.714990	-38.660050	-24.103551	-38.660050	-24.103551	-0.437129	-135.802295
9.800000	-0.431735	-132.327044	-38.571088	-25.231343	-38.571088	-25.231343	-0.442627	-136.410993
9.850000	-0.437822	-132.941433	-38.482318	-26.344456	-38.482318	-26.344456	-0.448208	-137.020011
9.900000	-0.443932	-133.556087	-38.394367	-27.456074	-38.394367	-27.456074	-0.453801	-137.629072
9.950000	-0.450256	-134.173646	-38.306442	-28.551245	-38.306442	-28.551245	-0.459483	-138.238609
10.000000	-0.456585	-134.791206	-38.219397	-29.646416	-38.219397	-29.646416	-0.465169	-138.848145
