! freq	dB(S11)	phase(S11)	dB(S12)	phase(S12)	
!     	dB(S21)	phase(S21)	dB(S22)	phase(S22)	
!S-par simulation data
#  GHz  S  DB  R 50
0.000000	-0.000000	0.000000	-340.478324	0.000000	-340.478324	0.000000	-0.000000	0.000000
0.050000	-0.001475	-2.251510	-105.372692	88.663512	-105.372692	88.663512	-0.000531	-0.819167
0.100000	-0.004947	-4.491273	-99.400762	87.083342	-99.400762	87.083342	-0.001766	-1.634194
0.150000	-0.008878	-6.717789	-95.956688	85.577875	-95.956688	85.577875	-0.003143	-2.444807
0.200000	-0.012519	-8.935142	-93.564629	84.115331	-93.564629	84.115331	-0.004403	-3.252713
0.250000	-0.015738	-11.146485	-91.765846	82.699247	-91.765846	82.699247	-0.005511	-4.059253
0.300000	-0.018636	-13.353458	-90.356608	81.339842	-90.356608	81.339842	-0.006514	-4.865201
0.350000	-0.021349	-15.556620	-89.225357	80.047689	-89.225357	80.047689	-0.007464	-5.670900
0.400000	-0.023965	-17.755741	-88.308919	78.838244	-88.308919	78.838244	-0.008398	-6.476458
0.450000	-0.026539	-19.950115	-87.571539	77.735303	-87.571539	77.735303	-0.009336	-7.281886
0.500000	-0.029105	-22.139364	-86.981967	76.756938	-86.981967	76.756938	-0.010291	-8.087167
0.550000	-0.031677	-24.322867	-86.522605	75.930944	-86.522605	75.930944	-0.011265	-8.892257
0.600000	-0.034258	-26.499671	-86.186494	75.303111	-86.186494	75.303111	-0.012258	-9.697087
0.650000	-0.036847	-28.669368	-85.962359	74.914748	-85.962359	74.914748	-0.013266	-10.501600
0.700000	-0.039438	-30.831448	-85.844431	74.823538	-85.844431	74.823538	-0.014283	-11.305728
0.750000	-0.042027	-32.985092	-85.833163	75.122507	-85.833163	75.122507	-0.015305	-12.109381
0.800000	-0.044605	-35.129765	-85.926360	75.925138	-85.926360	75.925138	-0.016327	-12.912477
0.850000	-0.047166	-37.265065	-86.119993	77.378336	-86.119993	77.378336	-0.017347	-13.714946
0.900000	-0.049704	-39.390547	-86.407341	79.684553	-86.407341	79.684553	-0.018362	-14.516720
0.950000	-0.052214	-41.505733	-86.773183	83.116276	-86.773183	83.116276	-0.019373	-15.317733
1.000000	-0.054692	-43.610217	-87.183141	88.007308	-87.183141	88.007308	-0.020379	-16.117930
1.050000	-0.057133	-45.703621	-87.569633	94.703550	-87.569633	94.703550	-0.021383	-16.917268
1.100000	-0.059536	-47.785600	-87.818341	103.401773	-87.818341	103.401773	-0.022384	-17.715709
1.150000	-0.061898	-49.855840	-87.777611	113.854191	-87.777611	113.854191	-0.023384	-18.513227
1.200000	-0.064218	-51.914054	-87.319774	125.134888	-87.319774	125.134888	-0.024384	-19.309799
1.250000	-0.066495	-53.959982	-86.427864	135.886685	-86.427864	135.886685	-0.025385	-20.105407
1.300000	-0.068728	-55.993115	-85.200941	144.977004	-85.200941	144.977004	-0.026388	-20.900015
1.350000	-0.070917	-58.013514	-83.802898	152.061834	-83.802898	152.061834	-0.027392	-21.693634
1.400000	-0.073065	-60.020998	-82.354391	157.290258	-82.354391	157.290258	-0.028399	-22.486253
1.450000	-0.075171	-62.015407	-80.927205	161.000115	-80.927205	161.000115	-0.029408	-23.277862
1.500000	-0.077237	-63.996606	-79.556484	163.533454	-79.556484	163.533454	-0.030418	-24.068454
1.550000	-0.079264	-65.964478	-78.255930	165.172433	-78.255930	165.172433	-0.031431	-24.858018
1.600000	-0.081253	-67.918929	-77.028190	166.132343	-77.028190	166.132343	-0.032445	-25.646546
1.650000	-0.083208	-69.859882	-75.870726	166.572831	-75.870726	166.572831	-0.033460	-26.434028
1.700000	-0.085129	-71.787280	-74.778855	166.611577	-74.778855	166.611577	-0.034477	-27.220456
1.750000	-0.087018	-73.701085	-73.747238	166.335743	-73.747238	166.335743	-0.035494	-28.005818
1.800000	-0.088878	-75.601271	-72.770586	165.810525	-72.770586	165.810525	-0.036513	-28.790105
1.850000	-0.090709	-77.487834	-71.843961	165.085283	-71.843961	165.085283	-0.037532	-29.573305
1.900000	-0.092515	-79.360634	-70.962411	164.196431	-70.962411	164.196431	-0.038553	-30.355396
1.950000	-0.094297	-81.219695	-70.122067	163.174120	-70.122067	163.174120	-0.039573	-31.136365
2.000000	-0.096057	-83.065205	-69.319862	162.042848	-69.319862	162.042848	-0.040595	-31.916213
2.050000	-0.097797	-84.897214	-68.552620	160.820729	-68.552620	160.820729	-0.041618	-32.694928
2.100000	-0.099520	-86.715787	-67.817527	159.522341	-67.817527	159.522341	-0.042641	-33.472497
2.150000	-0.101225	-88.520999	-67.112094	158.159527	-67.112094	158.159527	-0.043666	-34.248909
2.200000	-0.102917	-90.312938	-66.434105	156.741993	-66.434105	156.741993	-0.044693	-35.024150
2.250000	-0.104595	-92.091702	-65.781586	155.277759	-65.781586	155.277759	-0.045720	-35.798209
2.300000	-0.106263	-93.857398	-65.152772	153.773505	-65.152772	153.773505	-0.046750	-36.571072
2.350000	-0.107920	-95.610145	-64.546080	152.234828	-64.546080	152.234828	-0.047783	-37.342727
2.400000	-0.109569	-97.350066	-63.960085	150.666454	-63.960085	150.666454	-0.048817	-38.113161
2.450000	-0.111212	-99.077299	-63.393497	149.072394	-63.393497	149.072394	-0.049855	-38.882362
2.500000	-0.112849	-100.791983	-62.845152	147.456071	-62.845152	147.456071	-0.050896	-39.650318
2.550000	-0.114482	-102.493870	-62.313490	145.819869	-62.313490	145.819869	-0.051940	-40.416973
2.600000	-0.116112	-104.183526	-61.798108	144.167028	-61.798108	144.167028	-0.052989	-41.182358
2.650000	-0.117741	-105.861114	-61.298115	142.499710	-61.298115	142.499710	-0.054042	-41.946458
2.700000	-0.119369	-107.526802	-60.812696	140.819800	-60.812696	140.819800	-0.055100	-42.709264
2.750000	-0.120997	-109.180764	-60.341100	139.128945	-60.341100	139.128945	-0.056163	-43.470762
2.800000	-0.122628	-110.823180	-59.882638	137.428591	-59.882638	137.428591	-0.057232	-44.230942
2.850000	-0.124261	-112.454231	-59.436672	135.720007	-59.436672	135.720007	-0.058307	-44.989792
2.900000	-0.125898	-114.074106	-59.002616	134.004319	-59.002616	134.004319	-0.059388	-45.747300
2.950000	-0.127539	-115.682993	-58.579921	132.282520	-58.579921	132.282520	-0.060477	-46.503457
3.000000	-0.129185	-117.281088	-58.168083	130.555494	-58.168083	130.555494	-0.061572	-47.258252
3.050000	-0.130838	-118.868587	-57.766628	128.824028	-57.766628	128.824028	-0.062676	-48.011674
3.100000	-0.132498	-120.445689	-57.375119	127.088824	-57.375119	127.088824	-0.063787	-48.763713
3.150000	-0.134166	-122.012596	-56.993143	125.350510	-56.993143	125.350510	-0.064907	-49.514361
3.200000	-0.135843	-123.569510	-56.620317	123.609651	-56.620317	123.609651	-0.066036	-50.263606
3.250000	-0.137528	-125.116637	-56.256281	121.866754	-56.256281	121.866754	-0.067175	-51.011442
3.300000	-0.139224	-126.654183	-55.900699	120.122275	-55.900699	120.122275	-0.068324	-51.757858
3.350000	-0.140931	-128.182356	-55.553251	118.376627	-55.553251	118.376627	-0.069482	-52.502848
3.400000	-0.142648	-129.701364	-55.213640	116.630181	-55.213640	116.630181	-0.070652	-53.246401
3.450000	-0.144378	-131.211416	-54.881585	114.883276	-54.881585	114.883276	-0.071833	-53.988512
3.500000	-0.146120	-132.712721	-54.556819	113.136218	-54.556819	113.136218	-0.073025	-54.729173
3.550000	-0.147875	-134.205490	-54.239093	111.389285	-54.239093	111.389285	-0.074229	-55.468378
3.600000	-0.149643	-135.689931	-53.928168	109.642731	-53.928168	109.642731	-0.075445	-56.206118
3.650000	-0.151425	-137.166255	-53.623819	107.896784	-53.623819	107.896784	-0.076674	-56.942390
3.700000	-0.153222	-138.634671	-53.325835	106.151656	-53.325835	106.151656	-0.077917	-57.677186
3.750000	-0.155034	-140.095389	-53.034011	104.407538	-53.034011	104.407538	-0.079173	-58.410502
3.800000	-0.156862	-141.548300	-52.748008	102.664664	-52.748008	102.664664	-0.080443	-59.142267
3.850000	-0.158706	-142.993947	-52.467809	100.923147	-52.467809	100.923147	-0.081728	-59.872542
3.900000	-0.160566	-144.432537	-52.193238	99.183132	-52.193238	99.183132	-0.083028	-60.601322
3.950000	-0.162443	-145.864276	-51.924128	97.444750	-51.924128	97.444750	-0.084343	-61.328604
4.000000	-0.164336	-147.289369	-51.660320	95.708121	-51.660320	95.708121	-0.085674	-62.054385
4.050000	-0.166247	-148.708019	-51.401661	93.973355	-51.401661	93.973355	-0.087020	-62.778661
4.100000	-0.168175	-150.120429	-51.148008	92.240553	-51.148008	92.240553	-0.088383	-63.501429
4.150000	-0.170122	-151.526800	-50.899220	90.509804	-50.899220	90.509804	-0.089763	-64.222688
4.200000	-0.172086	-152.927332	-50.655166	88.781191	-50.655166	88.781191	-0.091160	-64.942436
4.250000	-0.174068	-154.322224	-50.415719	87.054791	-50.415719	87.054791	-0.092575	-65.660671
4.300000	-0.176069	-155.711671	-50.180756	85.330670	-50.180756	85.330670	-0.094008	-66.377392
4.350000	-0.178088	-157.095871	-49.950162	83.608890	-49.950162	83.608890	-0.095459	-67.092598
4.400000	-0.180126	-158.475016	-49.723825	81.889506	-49.723825	81.889506	-0.096929	-67.806290
4.450000	-0.182183	-159.849299	-49.501638	80.172567	-49.501638	80.172567	-0.098418	-68.518466
4.500000	-0.184259	-161.218910	-49.283499	78.458117	-49.283499	78.458117	-0.099926	-69.229129
4.550000	-0.186354	-162.584039	-49.069308	76.746196	-49.069308	76.746196	-0.101455	-69.938277
4.600000	-0.188468	-163.944871	-48.858972	75.036837	-48.858972	75.036837	-0.103004	-70.645914
4.650000	-0.190601	-165.301593	-48.652399	73.330070	-48.652399	73.330070	-0.104574	-71.352039
4.700000	-0.192753	-166.654388	-48.449502	71.625921	-48.449502	71.625921	-0.106165	-72.056655
4.750000	-0.194924	-168.003437	-48.250197	69.924411	-48.250197	69.924411	-0.107778	-72.759764
4.800000	-0.197113	-169.348921	-48.054405	68.225560	-48.054405	68.225560	-0.109412	-73.461369
4.850000	-0.199322	-170.691018	-47.862047	66.529383	-47.862047	66.529383	-0.111070	-74.161473
4.900000	-0.201549	-172.029903	-47.673049	64.835892	-47.673049	64.835892	-0.112749	-74.860078
4.950000	-0.203795	-173.365750	-47.487340	63.145097	-47.487340	63.145097	-0.114452	-75.557189
5.000000	-0.206059	-174.698733	-47.304852	61.457004	-47.304852	61.457004	-0.116179	-76.252810
5.050000	-0.208342	-176.028913	-47.125494	59.771737	-47.125494	59.771737	-0.117931	-76.946879
5.100000	-0.210642	-177.356582	-46.949234	58.089182	-46.949234	58.089182	-0.119707	-77.639468
5.150000	-0.212960	-178.681906	-46.776009	56.409339	-46.776009	56.409339	-0.121508	-78.330580
5.200000	-0.215295	179.994950	-46.605761	54.732209	-46.605761	54.732209	-0.123334	-79.020222
5.250000	-0.217647	178.673823	-46.438435	53.057790	-46.438435	53.057790	-0.125186	-79.708398
5.300000	-0.220016	177.354553	-46.273977	51.386081	-46.273977	51.386081	-0.127063	-80.395115
5.350000	-0.222400	176.036982	-46.112334	49.717080	-46.112334	49.717080	-0.128968	-81.080379
5.400000	-0.224800	174.720953	-45.953457	48.050782	-45.953457	48.050782	-0.130899	-81.764197
5.450000	-0.227215	173.406312	-45.797299	46.387187	-45.797299	46.387187	-0.132857	-82.446575
5.500000	-0.229645	172.092906	-45.643815	44.726290	-45.643815	44.726290	-0.134844	-83.127521
5.550000	-0.232089	170.780584	-45.492962	43.068091	-45.492962	43.068091	-0.136858	-83.807041
5.600000	-0.234546	169.469197	-45.344697	41.412587	-45.344697	41.412587	-0.138900	-84.485145
5.650000	-0.237016	168.158600	-45.198981	39.759779	-45.198981	39.759779	-0.140972	-85.161839
5.700000	-0.239499	166.848648	-45.055777	38.109668	-45.055777	38.109668	-0.143073	-85.837133
5.750000	-0.241993	165.539198	-44.915048	36.462257	-44.915048	36.462257	-0.145204	-86.511035
5.800000	-0.244498	164.230110	-44.776760	34.817549	-44.776760	34.817549	-0.147364	-87.183553
5.850000	-0.247014	162.921246	-44.640880	33.175553	-44.640880	33.175553	-0.149556	-87.854697
5.900000	-0.249539	161.612468	-44.507377	31.536277	-44.507377	31.536277	-0.151778	-88.524477
5.950000	-0.252073	160.303644	-44.376222	29.899733	-44.376222	29.899733	-0.154031	-89.192902
6.000000	-0.254615	158.994641	-44.247385	28.265936	-44.247385	28.265936	-0.156317	-89.859982
6.050000	-0.257164	157.685329	-44.120841	26.634904	-44.120841	26.634904	-0.158634	-90.525727
6.100000	-0.259719	156.375581	-43.996563	25.006658	-43.996563	25.006658	-0.160984	-91.190148
6.150000	-0.262280	155.065270	-43.874527	23.381223	-43.874527	23.381223	-0.163367	-91.853255
6.200000	-0.264846	153.754275	-43.754711	21.758628	-43.754711	21.758628	-0.165783	-92.515061
6.250000	-0.267415	152.442472	-43.637093	20.138907	-43.637093	20.138907	-0.168234	-93.175575
6.300000	-0.269987	151.129699	-43.521680	18.522226	-43.521680	18.522226	-0.170719	-93.834754
6.350000	-0.272561	149.815874	-43.408428	16.908503	-43.408428	16.908503	-0.173240	-94.492666
6.400000	-0.275136	148.500882	-43.297318	15.297785	-43.297318	15.297785	-0.175795	-95.149323
6.450000	-0.277711	147.184614	-43.188333	13.690125	-43.188333	13.690125	-0.178386	-95.804738
6.500000	-0.280285	145.866958	-43.081454	12.085581	-43.081454	12.085581	-0.181013	-96.458923
6.550000	-0.282856	144.547810	-42.976667	10.484217	-42.976667	10.484217	-0.183675	-97.111890
6.600000	-0.285424	143.227064	-42.873956	8.886101	-42.873956	8.886101	-0.186375	-97.763652
6.650000	-0.287989	141.904620	-42.773307	7.291307	-42.773307	7.291307	-0.189111	-98.414223
6.700000	-0.290548	140.580378	-42.674705	5.699916	-42.674705	5.699916	-0.191885	-99.063616
6.750000	-0.293101	139.254242	-42.578137	4.112013	-42.578137	4.112013	-0.194697	-99.711845
6.800000	-0.295647	137.926118	-42.483589	2.527692	-42.483589	2.527692	-0.197546	-100.358922
6.850000	-0.298184	136.595914	-42.391051	0.947048	-42.391051	0.947048	-0.200435	-101.004864
6.900000	-0.300712	135.263544	-42.300509	-0.629813	-42.300509	-0.629813	-0.203362	-101.649682
6.950000	-0.303230	133.928922	-42.211951	-2.202782	-42.211951	-2.202782	-0.206328	-102.293393
7.000000	-0.305737	132.591964	-42.125367	-3.771744	-42.125367	-3.771744	-0.209334	-102.936010
7.050000	-0.308231	131.252592	-42.040744	-5.336575	-42.040744	-5.336575	-0.212381	-103.577549
7.100000	-0.310712	129.910729	-41.958072	-6.897150	-41.958072	-6.897150	-0.215467	-104.218024
7.150000	-0.313179	128.566301	-41.877339	-8.453333	-41.877339	-8.453333	-0.218594	-104.857451
7.200000	-0.315630	127.219238	-41.798535	-10.004987	-41.798535	-10.004987	-0.221763	-105.495846
7.250000	-0.318065	125.869473	-41.721648	-11.551965	-41.721648	-11.551965	-0.224973	-106.133223
7.300000	-0.320483	124.516942	-41.646667	-13.094117	-41.646667	-13.094117	-0.228225	-106.769599
7.350000	-0.322883	123.161584	-41.573580	-14.631289	-41.573580	-14.631289	-0.231518	-107.404989
7.400000	-0.325264	121.803342	-41.502376	-16.163318	-41.502376	-16.163318	-0.234855	-108.039411
7.450000	-0.327625	120.442162	-41.433044	-17.690038	-41.433044	-17.690038	-0.238234	-108.672880
7.500000	-0.329966	119.077995	-41.365570	-19.211281	-41.365570	-19.211281	-0.241657	-109.305413
7.550000	-0.332284	117.710658	-41.300002	-20.726614	-41.300002	-20.726614	-0.245125	-109.936988
7.600000	-0.334580	116.340240	-41.236268	-22.236098	-41.236268	-22.236098	-0.248636	-110.567663
7.650000	-0.336854	114.966702	-41.174357	-23.739548	-41.174357	-23.739548	-0.252192	-111.197454
7.700000	-0.339104	113.590008	-41.114252	-25.236777	-41.114252	-25.236777	-0.255793	-111.826379
7.750000	-0.341330	112.210129	-41.055942	-26.727594	-41.055942	-26.727594	-0.259438	-112.454456
7.800000	-0.343532	110.827036	-40.999409	-28.211805	-40.999409	-28.211805	-0.263128	-113.081702
7.850000	-0.345709	109.440707	-40.944640	-29.689213	-40.944640	-29.689213	-0.266864	-113.708136
7.900000	-0.347861	108.051122	-40.891618	-31.159621	-40.891618	-31.159621	-0.270645	-114.333776
7.950000	-0.349988	106.658267	-40.840327	-32.622827	-40.840327	-32.622827	-0.274473	-114.958639
8.000000	-0.352088	105.262130	-40.790749	-34.078630	-40.790749	-34.078630	-0.278346	-115.582745
8.050000	-0.354163	103.862706	-40.742868	-35.526825	-40.742868	-35.526825	-0.282266	-116.206113
8.100000	-0.356212	102.459993	-40.696664	-36.967208	-40.696664	-36.967208	-0.286233	-116.828761
8.150000	-0.358235	101.053992	-40.652121	-38.399574	-40.652121	-38.399574	-0.290247	-117.450708
8.200000	-0.360232	99.644711	-40.609217	-39.823718	-40.609217	-39.823718	-0.294308	-118.071973
8.250000	-0.362203	98.232160	-40.567933	-41.239436	-40.567933	-41.239436	-0.298417	-118.692577
8.300000	-0.364150	96.816356	-40.528250	-42.646523	-40.528250	-42.646523	-0.302573	-119.312539
8.350000	-0.366071	95.397319	-40.490146	-44.044775	-40.490146	-44.044775	-0.306777	-119.931879
8.400000	-0.367967	93.975074	-40.453599	-45.433991	-40.453599	-45.433991	-0.311030	-120.550616
8.450000	-0.369840	92.549652	-40.418589	-46.813970	-40.418589	-46.813970	-0.315331	-121.168771
8.500000	-0.371690	91.121085	-40.385092	-48.184513	-40.385092	-48.184513	-0.319680	-121.786365
8.550000	-0.373517	89.689415	-40.353087	-49.545426	-40.353087	-49.545426	-0.324078	-122.403418
8.600000	-0.375323	88.254684	-40.322549	-50.896513	-40.322549	-50.896513	-0.328525	-123.019952
8.650000	-0.377108	86.816941	-40.293457	-52.237585	-40.293457	-52.237585	-0.333020	-123.635986
8.700000	-0.378874	85.376241	-40.265785	-53.568455	-40.265785	-53.568455	-0.337565	-124.251543
8.750000	-0.380622	83.932642	-40.239511	-54.888937	-40.239511	-54.888937	-0.342160	-124.866643
8.800000	-0.382353	82.486088	-40.214666	-56.198385	-40.214666	-56.198385	-0.346805	-125.481291
8.850000	-0.384069	81.036772	-40.191167	-57.497074	-40.191167	-57.497074	-0.351501	-126.095529
8.900000	-0.385771	79.584769	-40.168992	-58.784834	-40.168992	-58.784834	-0.356246	-126.709378
8.950000	-0.387462	78.130157	-40.148114	-60.061497	-40.148114	-60.061497	-0.361041	-127.322861
9.000000	-0.389143	76.673021	-40.128511	-61.326902	-40.128511	-61.326902	-0.365885	-127.936001
9.050000	-0.390816	75.213447	-40.110156	-62.580892	-40.110156	-62.580892	-0.370780	-128.548819
9.100000	-0.392484	73.751528	-40.093026	-63.823315	-40.093026	-63.823315	-0.375724	-129.161340
9.150000	-0.394148	72.287363	-40.077096	-65.054024	-40.077096	-65.054024	-0.380718	-129.773586
9.200000	-0.395811	70.821054	-40.062342	-66.272878	-40.062342	-66.272878	-0.385762	-130.385581
9.250000	-0.397476	69.352706	-40.048741	-67.479742	-40.048741	-67.479742	-0.390857	-130.997349
9.300000	-0.399145	67.882432	-40.036268	-68.674486	-40.036268	-68.674486	-0.396001	-131.608912
9.350000	-0.400821	66.410346	-40.024900	-69.856985	-40.024900	-69.856985	-0.401195	-132.220297
9.400000	-0.402506	64.936570	-40.014615	-71.027121	-40.014615	-71.027121	-0.406439	-132.831526
9.450000	-0.404204	63.461226	-40.005390	-72.184783	-40.005390	-72.184783	-0.411733	-133.442624
9.500000	-0.405917	61.984445	-39.997204	-73.329863	-39.997204	-73.329863	-0.417077	-134.053617
9.550000	-0.407650	60.506357	-39.990033	-74.462263	-39.990033	-74.462263	-0.422470	-134.664529
9.600000	-0.409404	59.027100	-39.983859	-75.581889	-39.983859	-75.581889	-0.427913	-135.275386
9.650000	-0.411184	57.546814	-39.978659	-76.688652	-39.978659	-76.688652	-0.433405	-135.886213
9.700000	-0.412992	56.065643	-39.974416	-77.782473	-39.974416	-77.782473	-0.438947	-136.497036
9.750000	-0.414833	54.583733	-39.971109	-78.863277	-39.971109	-78.863277	-0.444538	-137.107882
9.800000	-0.416710	53.101237	-39.968720	-79.930995	-39.968720	-79.930995	-0.450177	-137.718776
9.850000	-0.418626	51.618308	-39.967232	-80.985566	-39.967232	-80.985566	-0.455866	-138.329746
9.900000	-0.420586	50.135103	-39.966628	-82.026935	-39.966628	-82.026935	-0.461602	-138.940818
9.950000	-0.422593	48.651782	-39.966891	-83.055053	-39.966891	-83.055053	-0.467387	-139.552019
10.000000	-0.424650	47.168509	-39.968008	-84.069878	-39.968008	-84.069878	-0.473220	-140.163378
