! freq	dB(S11)	phase(S11)	dB(S12)	phase(S12)	
!     	dB(S21)	phase(S21)	dB(S22)	phase(S22)	
!S-par simulation data
#  GHz  S  DB  R 50
0.000000	-86.237289	0.000000	-0.000424	0.000000	-0.000424	0.000000	-86.237289	0.000000
0.050000	-43.227067	-92.784219	-0.003230	-2.466038	-0.003230	-2.466038	-43.248216	-92.667999
0.100000	-37.231268	-95.183444	-0.008906	-4.908014	-0.008906	-4.908014	-37.235108	-94.930935
0.150000	-33.727881	-97.656805	-0.014397	-7.331698	-0.014397	-7.331698	-33.728424	-97.282858
0.200000	-31.251753	-100.152032	-0.019156	-9.747684	-0.019156	-9.747684	-31.251169	-99.656461
0.250000	-29.341778	-102.655654	-0.023510	-12.161118	-0.023510	-12.161118	-29.340707	-102.037743
0.300000	-27.792121	-105.162801	-0.027795	-14.573618	-0.027795	-14.573618	-27.790821	-104.421852
0.350000	-26.493803	-107.671272	-0.032230	-16.985406	-0.032230	-16.985406	-26.492405	-106.806550
0.400000	-25.380398	-110.179800	-0.036917	-19.396338	-0.036917	-19.396338	-25.378976	-109.190562
0.450000	-24.409647	-112.687672	-0.041909	-21.806144	-0.041909	-21.806144	-24.408249	-111.573114
0.500000	-23.553513	-115.194332	-0.047236	-24.214479	-0.047236	-24.214479	-23.552176	-113.953532
0.550000	-22.790805	-117.699455	-0.052884	-26.621137	-0.052884	-26.621137	-22.789556	-116.331433
0.600000	-22.106128	-120.202809	-0.058833	-29.025934	-0.058833	-29.025934	-22.104990	-118.706499
0.650000	-21.488481	-122.704148	-0.065064	-31.428643	-0.065064	-31.428643	-21.487475	-121.078350
0.700000	-20.928911	-125.203331	-0.071545	-33.829128	-0.071545	-33.829128	-20.928056	-123.446731
0.750000	-20.419828	-127.700334	-0.078232	-36.227355	-0.078232	-36.227355	-20.419142	-125.811538
0.800000	-19.955764	-130.195082	-0.085091	-38.623235	-0.085091	-38.623235	-19.955265	-128.172561
0.850000	-19.532667	-132.687495	-0.092083	-41.016657	-0.092083	-41.016657	-19.532372	-130.529530
0.900000	-19.145908	-135.177703	-0.099160	-43.407729	-0.099160	-43.407729	-19.145833	-132.882514
0.950000	-18.792311	-137.665772	-0.106282	-45.796480	-0.106282	-45.796480	-18.792472	-135.231437
1.000000	-18.470134	-140.151694	-0.113406	-48.182847	-0.113406	-48.182847	-18.470551	-137.576025
1.050000	-18.176271	-142.635707	-0.120488	-50.567031	-0.120488	-50.567031	-18.176959	-139.916449
1.100000	-17.908734	-145.117984	-0.127488	-52.949149	-0.127488	-52.949149	-17.909710	-142.252724
1.150000	-17.666529	-147.598673	-0.134363	-55.329270	-0.134363	-55.329270	-17.667813	-144.584712
1.200000	-17.448001	-150.078041	-0.141074	-57.707590	-0.141074	-57.707590	-17.449610	-146.912512
1.250000	-17.251601	-152.556382	-0.147588	-60.084330	-0.147588	-60.084330	-17.253554	-149.236265
1.300000	-17.076668	-155.033981	-0.153867	-62.459666	-0.153867	-62.459666	-17.078984	-151.555958
1.350000	-16.922665	-157.511176	-0.159871	-64.833811	-0.159871	-64.833811	-16.925365	-153.871602
1.400000	-16.788224	-159.988353	-0.165583	-67.207054	-0.165583	-67.207054	-16.791329	-156.183437
1.450000	-16.672812	-162.465901	-0.170973	-69.579648	-0.170973	-69.579648	-16.676342	-158.491548
1.500000	-16.576851	-164.944307	-0.176000	-71.951856	-0.176000	-71.951856	-16.580830	-160.795850
1.550000	-16.499024	-167.424001	-0.180662	-74.323994	-0.180662	-74.323994	-16.503476	-163.096649
1.600000	-16.439060	-169.905471	-0.184941	-76.696355	-0.184941	-76.696355	-16.444011	-165.394039
1.650000	-16.397561	-172.389365	-0.188806	-79.069279	-0.188806	-79.069279	-16.403038	-167.687965
1.700000	-16.373984	-174.876222	-0.192256	-81.443086	-0.192256	-81.443086	-16.380018	-169.978598
1.750000	-16.368050	-177.366604	-0.195290	-83.818083	-0.195290	-83.818083	-16.374672	-172.266049
1.800000	-16.380123	-179.861223	-0.197899	-86.194622	-0.197899	-86.194622	-16.387366	-174.550305
1.850000	-16.410402	177.639204	-0.200083	-88.573041	-0.200083	-88.573041	-16.418306	-176.831367
1.900000	-16.459391	175.133832	-0.201841	-90.953709	-0.201841	-90.953709	-16.467998	-179.109158
1.950000	-16.527504	172.621796	-0.203181	-93.336978	-0.203181	-93.336978	-16.536861	178.616420
2.000000	-16.615065	170.102249	-0.204118	-95.723163	-0.204118	-95.723163	-16.625223	176.345497
2.050000	-16.722722	167.574196	-0.204668	-98.112596	-0.204668	-98.112596	-16.733741	174.078319
2.100000	-16.851262	165.036544	-0.204849	-100.505607	-0.204849	-100.505607	-16.863209	171.815232
2.150000	-17.001631	162.488076	-0.204684	-102.902516	-0.204684	-102.902516	-17.014581	169.556708
2.200000	-17.174951	159.927433	-0.204198	-105.303632	-0.204198	-105.303632	-17.188992	167.303368
2.250000	-17.372552	157.353071	-0.203420	-107.709257	-0.203420	-107.709257	-17.387784	165.056027
2.300000	-17.596005	154.763220	-0.202383	-110.119678	-0.202383	-110.119678	-17.612546	162.815733
2.350000	-17.847166	152.155825	-0.201121	-112.535169	-0.201121	-112.535169	-17.865154	160.583832
2.400000	-18.128235	149.528461	-0.199674	-114.955987	-0.199674	-114.955987	-18.147832	158.362048
2.450000	-18.441825	146.878229	-0.198083	-117.382372	-0.198083	-117.382372	-18.463227	156.152592
2.500000	-18.791064	144.201602	-0.196391	-119.814548	-0.196391	-119.814548	-18.814504	153.958308
2.550000	-19.180113	141.493614	-0.194645	-122.252817	-0.194645	-122.252817	-19.205878	151.783276
2.600000	-19.613177	138.749123	-0.192896	-124.697266	-0.192896	-124.697266	-19.641618	149.632135
2.650000	-20.095871	135.960940	-0.191194	-127.148052	-0.191194	-127.148052	-20.127427	147.511368
2.700000	-20.635183	133.119592	-0.189592	-129.605310	-0.189592	-129.605310	-20.670409	145.429705
2.750000	-21.239926	130.212281	-0.188145	-132.069151	-0.188145	-132.069151	-21.279541	143.399135
2.800000	-21.921428	127.221235	-0.186907	-134.539659	-0.186907	-134.539659	-21.966380	141.436508
2.850000	-22.694816	124.119782	-0.185939	-137.016949	-0.185939	-137.016949	-22.746393	139.567254
2.900000	-23.579963	120.869661	-0.185296	-139.501017	-0.185296	-139.501017	-23.639964	137.828333
2.950000	-24.604576	117.410988	-0.185036	-141.991850	-0.185036	-141.991850	-24.675620	136.277900
3.000000	-25.808727	113.644183	-0.185216	-144.489426	-0.185216	-144.489426	-25.894824	135.013219
3.050000	-27.252979	109.392135	-0.185896	-146.993695	-0.185896	-146.993695	-27.360682	134.208604
3.100000	-29.034375	104.308399	-0.187131	-149.504578	-0.187131	-149.504578	-29.175367	134.208586
3.150000	-31.319686	97.594752	-0.188985	-152.022025	-0.188985	-152.022025	-31.517476	135.819602
3.200000	-34.407902	87.031577	-0.191513	-154.545899	-0.191513	-154.545899	-34.717576	141.351523
3.250000	-38.674082	64.670505	-0.194764	-157.075986	-0.194764	-157.075986	-39.221546	159.581318
3.300000	-41.475615	11.019057	-0.198792	-159.612102	-0.198792	-159.612102	-41.874165	-147.941279
3.350000	-37.617244	-36.144428	-0.203647	-162.154035	-0.203647	-162.154035	-37.511491	-106.772163
3.400000	-33.383793	-55.565298	-0.209375	-164.701551	-0.209375	-164.701551	-33.231885	-93.860176
3.450000	-30.273616	-65.303349	-0.216023	-167.254392	-0.216023	-167.254392	-30.139804	-89.840579
3.500000	-27.898147	-71.738213	-0.223633	-169.812279	-0.223633	-169.812279	-27.783197	-88.826656
3.550000	-25.989157	-76.724792	-0.232244	-172.374912	-0.232244	-172.374912	-25.888913	-89.139876
3.600000	-24.396366	-80.958027	-0.241893	-174.941974	-0.241893	-174.941974	-24.307336	-90.150009
3.650000	-23.031025	-84.755052	-0.252599	-177.513090	-0.252599	-177.513090	-22.950673	-91.567899
3.700000	-21.836456	-88.270627	-0.264421	179.911986	-0.264421	179.911986	-21.762973	-93.251878
3.750000	-20.775425	-91.601817	-0.277367	177.333684	-0.277367	177.333684	-20.707484	-95.112241
3.800000	-19.821562	-94.802760	-0.291470	174.752348	-0.291470	174.752348	-19.758175	-97.098639
3.850000	-18.955902	-97.910335	-0.306733	172.168397	-0.306733	172.168397	-18.896318	-99.176332
3.900000	-18.164097	-100.947055	-0.323189	169.582187	-0.323189	169.582187	-18.107735	-101.323879
3.950000	-17.435313	-103.930935	-0.340812	166.994173	-0.340812	166.994173	-17.381714	-103.523769
4.000000	-16.760891	-106.872720	-0.359621	164.404721	-0.359621	164.404721	-16.709689	-105.765347
4.050000	-16.133959	-109.780825	-0.379613	161.814227	-0.379613	161.814227	-16.084859	-108.040058
4.100000	-15.548937	-112.661501	-0.400784	159.223080	-0.400784	159.223080	-15.501697	-110.341348
4.150000	-15.001228	-115.519461	-0.423125	156.631666	-0.423125	156.631666	-14.955652	-112.664090
4.200000	-14.486998	-118.358309	-0.446622	154.040365	-0.446622	154.040365	-14.442921	-115.004205
4.250000	-14.003013	-121.180828	-0.471260	151.449547	-0.471260	151.449547	-13.960297	-117.358387
4.300000	-13.546513	-123.989187	-0.497017	148.859570	-0.497017	148.859570	-13.505045	-119.723925
4.350000	-13.115126	-126.785093	-0.523868	146.270782	-0.523868	146.270782	-13.074809	-122.098565
4.400000	-12.706825	-129.569788	-0.551797	143.683536	-0.551797	143.683536	-12.667579	-124.480473
4.450000	-12.319818	-132.344379	-0.580771	141.098158	-0.580771	141.098158	-12.281575	-126.867999
4.500000	-11.952438	-135.109954	-0.610735	138.514898	-0.610735	138.514898	-11.915140	-129.259665
4.550000	-11.603346	-137.867006	-0.641670	135.934083	-0.641670	135.934083	-11.566946	-131.654397
4.600000	-11.271259	-140.616176	-0.673531	133.355958	-0.673531	133.355958	-11.235716	-134.051152
4.650000	-10.955048	-143.357928	-0.706277	130.780763	-0.706277	130.780763	-10.920329	-136.449060
4.700000	-10.653705	-146.092629	-0.739866	128.208728	-0.739866	128.208728	-10.619784	-138.847368
4.750000	-10.366330	-148.820570	-0.774258	125.640073	-0.774258	125.640073	-10.333186	-141.245418
4.800000	-10.092049	-151.542085	-0.809399	123.074949	-0.809399	123.074949	-10.059664	-143.642650
4.850000	-9.830092	-154.257411	-0.845245	120.513511	-0.845245	120.513511	-9.798455	-146.038587
4.900000	-9.579796	-156.966696	-0.881751	117.955935	-0.881751	117.955935	-9.548898	-148.432801
4.950000	-9.340399	-159.670287	-0.918858	115.402225	-0.918858	115.402225	-9.310235	-150.825008
5.000000	-9.111364	-162.368262	-0.956525	112.852534	-0.956525	112.852534	-9.081932	-153.214896
5.050000	-8.892219	-165.060666	-0.994710	110.307021	-0.994710	110.307021	-8.863523	-155.602173
5.100000	-8.682356	-167.747775	-1.033356	107.765645	-1.033356	107.765645	-8.654399	-157.986714
5.150000	-8.481288	-170.429736	-1.072416	105.228434	-1.072416	105.228434	-8.454079	-160.368382
5.200000	-8.288562	-173.106692	-1.111843	102.695396	-1.111843	102.695396	-8.262111	-162.747086
5.250000	-8.103753	-175.778784	-1.151590	100.166520	-1.151590	100.166520	-8.078072	-165.122768
5.300000	-7.926461	-178.446149	-1.191613	97.641778	-1.191613	97.641778	-7.901566	-167.495405
5.350000	-7.756312	178.891076	-1.231868	95.121125	-1.231868	95.121125	-7.732220	-169.865006
5.400000	-7.592951	176.232757	-1.272312	92.604501	-1.272312	92.604501	-7.569683	-172.231608
5.450000	-7.436045	173.578758	-1.312904	90.091832	-1.312904	90.091832	-7.413623	-174.595272
5.500000	-7.285280	170.928949	-1.353605	87.583028	-1.353605	87.583028	-7.263728	-176.956086
5.550000	-7.140357	168.283201	-1.394377	85.077991	-1.394377	85.077991	-7.119702	-179.314156
5.600000	-7.000997	165.641386	-1.435184	82.576607	-1.435184	82.576607	-6.981266	178.330392
5.650000	-6.866964	163.003422	-1.475989	80.078793	-1.475989	80.078793	-6.848188	175.977441
5.700000	-6.738003	160.369185	-1.516760	77.584413	-1.516760	77.584413	-6.720215	173.626826
5.750000	-6.613841	157.738521	-1.557467	75.093289	-1.557467	75.093289	-6.597073	171.278350
5.800000	-6.494250	155.111321	-1.598083	72.605276	-1.598083	72.605276	-6.478536	168.931830
5.850000	-6.379014	152.487485	-1.638581	70.120224	-1.638581	70.120224	-6.364390	166.587074
5.900000	-6.267930	149.866919	-1.678937	67.637978	-1.678937	67.637978	-6.254432	164.243884
5.950000	-6.160802	147.249535	-1.719129	65.158378	-1.719129	65.158378	-6.148467	161.902054
6.000000	-6.057446	144.635258	-1.759137	62.681266	-1.759137	62.681266	-6.046312	159.561375
6.050000	-5.957688	142.024019	-1.798940	60.206479	-1.798940	60.206479	-5.947792	157.221632
6.100000	-5.861362	139.415761	-1.838523	57.733857	-1.838523	57.733857	-5.852741	154.882612
6.150000	-5.768309	136.810437	-1.877871	55.263237	-1.877871	55.263237	-5.761002	152.544099
6.200000	-5.678382	134.208011	-1.916971	52.794462	-1.916971	52.794462	-5.672423	150.205877
6.250000	-5.591438	131.608458	-1.955809	50.327374	-1.955809	50.327374	-5.586863	147.867734
6.300000	-5.507386	129.011829	-1.994367	47.861851	-1.994367	47.861851	-5.504231	145.529451
6.350000	-5.426055	126.418059	-2.032645	45.397706	-2.032645	45.397706	-5.424350	143.190820
6.400000	-5.347324	123.827164	-2.070636	42.934797	-2.070636	42.934797	-5.347101	140.851638
6.450000	-5.271081	121.239166	-2.108332	40.472983	-2.108332	40.472983	-5.272367	138.511709
6.500000	-5.197221	118.654104	-2.145729	38.012132	-2.145729	38.012132	-5.200040	136.170843
6.550000	-5.125644	116.072027	-2.182822	35.552119	-2.182822	35.552119	-5.130017	133.828856
6.600000	-5.056256	113.492996	-2.219607	33.092823	-2.219607	33.092823	-5.062201	131.485571
6.650000	-4.988970	110.917085	-2.256081	30.634132	-2.256081	30.634132	-4.996501	129.140820
6.700000	-4.923704	108.344377	-2.292241	28.175943	-2.292241	28.175943	-4.932831	126.794442
6.750000	-4.860382	105.774969	-2.328084	25.718156	-2.328084	25.718156	-4.871109	124.446287
6.800000	-4.798933	103.208965	-2.363608	23.260683	-2.363608	23.260683	-4.811261	122.096212
6.850000	-4.739293	100.646482	-2.398810	20.803442	-2.398810	20.803442	-4.753216	119.744082
6.900000	-4.681415	98.087683	-2.433682	18.346359	-2.433682	18.346359	-4.696923	117.389750
6.950000	-4.625244	95.532707	-2.468221	15.889366	-2.468221	15.889366	-4.642320	115.033096
7.000000	-4.570717	92.981652	-2.502426	13.432400	-2.502426	13.432400	-4.589338	112.674039
7.050000	-4.517787	90.434666	-2.536294	10.975410	-2.536294	10.975410	-4.537925	110.312483
7.100000	-4.466417	87.891898	-2.569817	8.518348	-2.569817	8.518348	-4.488036	107.948342
7.150000	-4.416570	85.353503	-2.602988	6.061174	-2.602988	6.061174	-4.439630	105.581537
7.200000	-4.368217	82.819640	-2.635799	3.603851	-2.635799	3.603851	-4.392670	103.211997
7.250000	-4.321332	80.290466	-2.668239	1.146346	-2.668239	1.146346	-4.347124	100.839660
7.300000	-4.275894	77.766140	-2.700294	-1.311369	-2.700294	-1.311369	-4.302966	98.464470
7.350000	-4.231887	75.246820	-2.731950	-3.769322	-2.731950	-3.769322	-4.260173	96.086379
7.400000	-4.189298	72.732659	-2.763191	-6.227540	-2.763191	-6.227540	-4.218727	93.705342
7.450000	-4.148122	70.223809	-2.793997	-8.686051	-2.793997	-8.686051	-4.178616	91.321321
7.500000	-4.108354	67.720414	-2.824345	-11.144882	-2.824345	-11.144882	-4.139831	88.934280
7.550000	-4.070024	65.222734	-2.854197	-13.604077	-2.854197	-13.604077	-4.102396	86.544119
7.600000	-4.033112	62.730778	-2.883537	-16.063668	-2.883537	-16.063668	-4.066286	84.150874
7.650000	-3.997628	60.244662	-2.912334	-18.523700	-2.912334	-18.523700	-4.031510	81.754511
7.700000	-3.963590	57.764489	-2.940551	-20.984229	-2.940551	-20.984229	-3.998081	79.354999
7.750000	-3.931017	55.290346	-2.968152	-23.445323	-2.968152	-23.445323	-3.966016	76.952300
7.800000	-3.899935	52.822305	-2.995092	-25.907064	-2.995092	-25.907064	-3.935338	74.546374
7.850000	-3.870375	50.360420	-3.021326	-28.369549	-3.021326	-28.369549	-3.906078	72.137170
7.900000	-3.842373	47.904724	-3.046803	-30.832896	-3.046803	-30.832896	-3.878272	69.724632
7.950000	-3.815970	45.455226	-3.071467	-33.297244	-3.071467	-33.297244	-3.851960	67.308690
8.000000	-3.791215	43.011913	-3.095260	-35.762758	-3.095260	-35.762758	-3.827193	64.889263
8.050000	-3.768161	40.574745	-3.118117	-38.229631	-3.118117	-38.229631	-3.804025	62.466250
8.100000	-3.746868	38.143651	-3.139970	-40.698087	-3.139970	-40.698087	-3.782521	60.039534
8.150000	-3.727424	35.718597	-3.160731	-43.168412	-3.160731	-43.168412	-3.762771	57.608932
8.200000	-3.709909	33.299441	-3.180319	-45.640918	-3.180319	-45.640918	-3.744860	55.174271
8.250000	-3.694386	30.885948	-3.198663	-48.115932	-3.198663	-48.115932	-3.728858	52.735399
8.300000	-3.680950	28.477908	-3.215673	-50.593854	-3.215673	-50.593854	-3.714868	50.292086
8.350000	-3.669771	26.075211	-3.231208	-53.075247	-3.231208	-53.075247	-3.703067	47.843921
8.400000	-3.660727	23.677069	-3.245331	-55.560214	-3.245331	-55.560214	-3.693346	45.391123
8.450000	-3.654317	21.283867	-3.257683	-58.050000	-3.257683	-58.050000	-3.686207	42.932519
8.500000	-3.650348	18.894621	-3.268381	-60.544620	-3.268381	-60.544620	-3.681475	40.468457
8.550000	-3.649181	16.509200	-3.277169	-63.045226	-3.277169	-63.045226	-3.679523	37.998020
8.600000	-3.650940	14.127039	-3.283959	-65.552518	-3.283959	-65.552518	-3.680486	35.520812
8.650000	-3.655702	11.747479	-3.288705	-68.067135	-3.288705	-68.067135	-3.684458	33.036525
8.700000	-3.664001	9.370133	-3.291059	-70.590895	-3.291059	-70.590895	-3.691991	30.543754
8.750000	-3.675544	6.994079	-3.291243	-73.123492	-3.291243	-73.123492	-3.702804	28.043073
8.800000	-3.691403	4.618778	-3.288581	-75.668458	-3.288581	-75.668458	-3.718000	25.531683
8.850000	-3.711052	2.243349	-3.283474	-78.224759	-3.283474	-78.224759	-3.737060	23.010763
8.900000	-3.735500	-0.133135	-3.275341	-80.795994	-3.275341	-80.795994	-3.761030	20.477612
8.950000	-3.764698	-2.511463	-3.264303	-83.382487	-3.264303	-83.382487	-3.789875	17.932257
9.000000	-3.799288	-4.892699	-3.250077	-85.986824	-3.250077	-85.986824	-3.824270	15.372946
9.050000	-3.839891	-7.277940	-3.232431	-88.611536	-3.232431	-88.611536	-3.864869	12.798027
9.100000	-3.886621	-9.667898	-3.211466	-91.257365	-3.211466	-91.257365	-3.911806	10.207256
9.150000	-3.941042	-12.064429	-3.186514	-93.930219	-3.186514	-93.930219	-3.966716	7.596604
9.200000	-4.002670	-14.467469	-3.158076	-96.628438	-3.158076	-96.628438	-4.029111	4.967671
9.250000	-4.073931	-16.879575	-3.125205	-99.361097	-3.125205	-99.361097	-4.101532	2.314457
9.300000	-4.154353	-19.300225	-3.088472	-102.126177	-3.088472	-102.126177	-4.183506	-0.361082
9.350000	-4.246229	-21.731329	-3.047220	-104.931981	-3.047220	-104.931981	-4.277452	-3.063933
9.400000	-4.350329	-24.172855	-3.001586	-107.780649	-3.001586	-107.780649	-4.384204	-5.794697
9.450000	-4.467979	-26.624775	-2.951555	-110.676106	-2.951555	-110.676106	-4.505189	-8.554902
9.500000	-4.601937	-29.087429	-2.896720	-113.627260	-2.896720	-113.627260	-4.643362	-11.348748
9.550000	-4.754009	-31.559217	-2.837206	-116.638679	-2.837206	-116.638679	-4.800705	-14.177124
9.600000	-4.926912	-34.037719	-2.773002	-119.717581	-2.773002	-119.717581	-4.980209	-17.041738
9.650000	-5.123899	-36.518661	-2.704168	-122.872095	-2.704168	-122.872095	-5.185504	-19.943630
9.700000	-5.348501	-38.995227	-2.630933	-126.110017	-2.630933	-126.110017	-5.420621	-22.882179
9.750000	-5.605122	-41.457098	-2.553588	-129.440652	-2.553588	-129.440652	-5.690690	-25.855374
9.800000	-5.899007	-43.888855	-2.472575	-132.874221	-2.472575	-132.874221	-6.002006	-28.858520
9.850000	-6.236407	-46.267750	-2.388518	-136.421878	-2.388518	-136.421878	-6.362366	-31.882787
9.900000	-6.624745	-48.560452	-2.302272	-140.095704	-2.302272	-140.095704	-6.781521	-34.912972
9.950000	-7.072781	-50.718202	-2.214977	-143.908642	-2.214977	-143.908642	-7.271808	-37.923949
10.000000	-7.590692	-52.669546	-2.128119	-147.874355	-2.128119	-147.874355	-7.849037	-40.874892
