! freq	dB(S11)	phase(S11)	dB(S12)	phase(S12)	
!     	dB(S21)	phase(S21)	dB(S22)	phase(S22)	
!S-par simulation data
#  GHz  S  DB  R 50
0.000000	-0.000000	-0.000000	-341.652782	180.000000	-341.652782	180.000000	-0.000000	-0.000000
0.050000	-0.001529	-3.483667	-94.212559	88.029909	-94.212559	88.029909	-0.000384	-0.871782
0.100000	-0.005512	-6.956018	-88.217532	85.798153	-88.217532	85.798153	-0.001371	-1.741164
0.150000	-0.010762	-10.411283	-84.742148	83.637477	-84.742148	83.637477	-0.002647	-2.607324
0.200000	-0.016294	-13.849508	-82.307964	81.508847	-82.307964	81.508847	-0.003975	-3.470882
0.250000	-0.021650	-17.271796	-80.452958	79.409617	-80.452958	79.409617	-0.005256	-4.332667
0.300000	-0.026694	-20.678984	-78.971249	77.342624	-78.971249	77.342624	-0.006470	-5.193354
0.350000	-0.031446	-24.070951	-77.753148	75.312585	-77.753148	75.312585	-0.007630	-6.053343
0.400000	-0.035966	-27.446802	-76.733312	73.325096	-76.733312	73.325096	-0.008755	-6.912831
0.450000	-0.040311	-30.805524	-75.868737	71.385347	-75.868737	71.385347	-0.009859	-7.771904
0.500000	-0.044512	-34.143715	-75.135855	69.505593	-75.135855	69.505593	-0.010952	-8.630534
0.550000	-0.048609	-37.462629	-74.506536	67.684641	-74.506536	67.684641	-0.012041	-9.488762
0.600000	-0.052603	-40.758960	-73.970561	65.935898	-73.970561	65.935898	-0.013128	-10.346516
0.650000	-0.056499	-44.030868	-73.517323	64.269831	-73.517323	64.269831	-0.014214	-11.203748
0.700000	-0.060294	-47.276788	-73.138383	62.697981	-73.138383	62.697981	-0.015300	-12.060410
0.750000	-0.063987	-50.495596	-72.826623	61.232173	-72.826623	61.232173	-0.016386	-12.916464
0.800000	-0.067583	-53.688414	-72.572643	59.876564	-72.572643	59.876564	-0.017471	-13.771920
0.850000	-0.071062	-56.850040	-72.379822	58.665906	-72.379822	58.665906	-0.018554	-14.626645
0.900000	-0.074431	-59.982117	-72.240067	57.608308	-72.240067	57.608308	-0.019636	-15.480659
0.950000	-0.077687	-63.083304	-72.151427	56.729106	-72.151427	56.729106	-0.020717	-16.333913
1.000000	-0.080829	-66.152916	-72.111294	56.055340	-72.111294	56.055340	-0.021795	-17.186374
1.050000	-0.083857	-69.190384	-72.117107	55.618885	-72.117107	55.618885	-0.022872	-18.038007
1.100000	-0.086773	-72.195260	-72.166058	55.457228	-72.166058	55.457228	-0.023948	-18.888780
1.150000	-0.089579	-75.167204	-72.254737	55.614172	-72.254737	55.614172	-0.025022	-19.738662
1.200000	-0.092277	-78.105982	-72.378661	56.140252	-72.378661	56.140252	-0.026095	-20.587623
1.250000	-0.094871	-81.011457	-72.531656	57.092453	-72.531656	57.092453	-0.027168	-21.435634
1.300000	-0.097363	-83.882860	-72.705155	58.544655	-72.705155	58.544655	-0.028240	-22.282645
1.350000	-0.099759	-86.720962	-72.886262	60.549916	-72.886262	60.549916	-0.029311	-23.128648
1.400000	-0.102064	-89.525886	-73.058296	63.162391	-73.058296	63.162391	-0.030383	-23.973618
1.450000	-0.104283	-92.297829	-73.199680	66.414598	-73.199680	66.414598	-0.031455	-24.817530
1.500000	-0.106420	-95.037053	-73.284410	70.299049	-73.284410	70.299049	-0.032528	-25.660357
1.550000	-0.108479	-97.743881	-73.284287	74.748691	-73.284287	74.748691	-0.033602	-26.502076
1.600000	-0.110467	-100.418688	-73.173240	79.624560	-73.173240	79.624560	-0.034676	-27.342663
1.650000	-0.112386	-103.061902	-72.933004	84.721255	-72.933004	84.721255	-0.035751	-28.182097
1.700000	-0.114243	-105.673991	-72.557956	89.795548	-72.557956	89.795548	-0.036828	-29.020355
1.750000	-0.116041	-108.255463	-72.056624	94.610644	-72.056624	94.610644	-0.037905	-29.857417
1.800000	-0.117784	-110.806861	-71.448980	98.977842	-71.448980	98.977842	-0.038984	-30.693262
1.850000	-0.119478	-113.328757	-70.761047	102.779051	-70.761047	102.779051	-0.040065	-31.527871
1.900000	-0.121119	-115.817756	-70.005860	105.880414	-70.005860	105.880414	-0.041147	-32.361046
1.950000	-0.122724	-118.282257	-69.235255	108.460494	-69.235255	108.460494	-0.042231	-33.193111
2.000000	-0.124291	-120.719128	-68.452985	110.477569	-68.452985	110.477569	-0.043316	-34.023886
2.050000	-0.125823	-123.129021	-67.672687	111.987753	-67.672687	111.987753	-0.044403	-34.853354
2.100000	-0.127323	-125.512601	-66.903825	113.052667	-66.903825	113.052667	-0.045492	-35.681501
2.150000	-0.128795	-127.870540	-66.152591	113.732360	-66.152591	113.732360	-0.046584	-36.508309
2.200000	-0.130242	-130.203518	-65.422762	114.081701	-65.422762	114.081701	-0.047677	-37.333766
2.250000	-0.131667	-132.512219	-64.716412	114.149002	-64.716412	114.149002	-0.048773	-38.157857
2.300000	-0.133073	-134.797327	-64.034448	113.975875	-64.034448	113.975875	-0.049871	-38.980570
2.350000	-0.134462	-137.059528	-63.376999	113.597709	-63.376999	113.597709	-0.050972	-39.801891
2.400000	-0.135836	-139.299505	-62.743696	113.044398	-62.743696	113.044398	-0.052076	-40.621808
2.450000	-0.137199	-141.517938	-62.133859	112.341115	-62.133859	112.341115	-0.053184	-41.440311
2.500000	-0.138553	-143.715503	-61.546622	111.509049	-61.546622	111.509049	-0.054295	-42.257388
2.550000	-0.139898	-145.892022	-60.980387	110.561939	-60.980387	110.561939	-0.055410	-43.072965
2.600000	-0.141238	-148.049063	-60.434933	109.520118	-60.434933	109.520118	-0.056529	-43.887096
2.650000	-0.142575	-150.187280	-59.909237	108.396095	-59.909237	108.396095	-0.057652	-44.699770
2.700000	-0.143911	-152.307316	-59.402302	107.200520	-59.402302	107.200520	-0.058781	-45.510980
2.750000	-0.145246	-154.409806	-58.913175	105.942493	-58.913175	105.942493	-0.059914	-46.320716
2.800000	-0.146582	-156.495373	-58.440947	104.629818	-58.440947	104.629818	-0.061054	-47.128970
2.850000	-0.147922	-158.564630	-57.984763	103.269211	-57.984763	103.269211	-0.062199	-47.935735
2.900000	-0.149266	-160.618180	-57.543818	101.866470	-57.543818	101.866470	-0.063351	-48.741004
2.950000	-0.150615	-162.656611	-57.117359	100.426622	-57.117359	100.426622	-0.064510	-49.544770
3.000000	-0.151971	-164.680502	-56.704683	98.954036	-56.704683	98.954036	-0.065676	-50.347027
3.050000	-0.153334	-166.690420	-56.305131	97.452526	-56.305131	97.452526	-0.066850	-51.147768
3.100000	-0.154706	-168.686916	-55.918092	95.925429	-55.918092	95.925429	-0.068032	-51.946987
3.150000	-0.156088	-170.670534	-55.542993	94.375676	-55.542993	94.375676	-0.069224	-52.744680
3.200000	-0.157479	-172.641800	-55.179303	92.805847	-55.179303	92.805847	-0.070424	-53.540842
3.250000	-0.158881	-174.601232	-54.826523	91.218222	-54.826523	91.218222	-0.071635	-54.335467
3.300000	-0.160295	-176.549332	-54.484192	89.614819	-54.484192	89.614819	-0.072855	-55.128551
3.350000	-0.161721	-178.486591	-54.151876	87.997435	-54.151876	87.997435	-0.074087	-55.920090
3.400000	-0.163158	179.586513	-53.829171	86.367665	-53.829171	86.367665	-0.075330	-56.710080
3.450000	-0.164609	177.669514	-53.515701	84.726939	-53.515701	84.726939	-0.076585	-57.498517
3.500000	-0.166072	175.761959	-53.211113	83.076536	-53.211113	83.076536	-0.077852	-58.285399
3.550000	-0.167549	173.863407	-52.915077	81.417603	-52.915077	81.417603	-0.079132	-59.070723
3.600000	-0.169039	171.973429	-52.627283	79.751175	-52.627283	79.751175	-0.080426	-59.854485
3.650000	-0.170542	170.091609	-52.347444	78.078187	-52.347444	78.078187	-0.081733	-60.636683
3.700000	-0.172059	168.217541	-52.075288	76.399486	-52.075288	76.399486	-0.083055	-61.417315
3.750000	-0.173588	166.350833	-51.810561	74.715840	-51.810561	74.715840	-0.084392	-62.196379
3.800000	-0.175132	164.491388	-51.553006	73.027797	-51.553006	73.027797	-0.085746	-62.973805
3.850000	-0.176688	162.638519	-51.302434	71.336202	-51.302434	71.336202	-0.087115	-63.749661
3.900000	-0.178257	160.791866	-51.058636	69.641639	-51.058636	69.641639	-0.088500	-64.523944
3.950000	-0.179838	158.951084	-50.821413	67.944643	-50.821413	67.944643	-0.089903	-65.296655
4.000000	-0.181431	157.115836	-50.590579	66.245708	-50.590579	66.245708	-0.091323	-66.067793
4.050000	-0.183036	155.285798	-50.365958	64.545296	-50.365958	64.545296	-0.092761	-66.837357
4.100000	-0.184652	153.460653	-50.147386	62.843834	-50.147386	62.843834	-0.094217	-67.605348
4.150000	-0.186279	151.640096	-49.934710	61.141725	-49.934710	61.141725	-0.095692	-68.371767
4.200000	-0.187915	149.823832	-49.727782	59.439346	-49.727782	59.439346	-0.097186	-69.136613
4.250000	-0.189561	148.011575	-49.526468	57.737055	-49.526468	57.737055	-0.098700	-69.899889
4.300000	-0.191216	146.203048	-49.330638	56.035191	-49.330638	56.035191	-0.100234	-70.661594
4.350000	-0.192880	144.397983	-49.140172	54.334077	-49.140172	54.334077	-0.101789	-71.421732
4.400000	-0.194551	142.596121	-48.954957	52.634025	-48.954957	52.634025	-0.103365	-72.180304
4.450000	-0.196229	140.797212	-48.774884	50.935333	-48.774884	50.935333	-0.104962	-72.937313
4.500000	-0.197914	139.001012	-48.599855	49.238292	-48.599855	49.238292	-0.106580	-73.692761
4.550000	-0.199605	137.207286	-48.429775	47.543186	-48.429775	47.543186	-0.108222	-74.446651
4.600000	-0.201301	135.415807	-48.264556	45.850290	-48.264556	45.850290	-0.109885	-75.198987
4.650000	-0.203001	133.626353	-48.104114	44.159877	-48.104114	44.159877	-0.111572	-75.949773
4.700000	-0.204706	131.838711	-47.948371	42.472217	-47.948371	42.472217	-0.113282	-76.699013
4.750000	-0.206414	130.052670	-47.797254	40.787576	-47.797254	40.787576	-0.115016	-77.446712
4.800000	-0.208126	128.268029	-47.650695	39.106221	-47.650695	39.106221	-0.116775	-78.192875
4.850000	-0.209840	126.484588	-47.508629	37.428417	-47.508629	37.428417	-0.118558	-78.937507
4.900000	-0.211557	124.702153	-47.370997	35.754432	-47.370997	35.754432	-0.120366	-79.680614
4.950000	-0.213275	122.920534	-47.237742	34.084533	-47.237742	34.084533	-0.122199	-80.422203
5.000000	-0.214996	121.139540	-47.108813	32.418992	-47.108813	32.418992	-0.124058	-81.162281
5.050000	-0.216719	119.358997	-46.984269	30.758296	-46.984269	30.758296	-0.125945	-81.900790
5.100000	-0.218445	117.578689	-46.863964	29.102534	-46.863964	29.102534	-0.127858	-82.637804
5.150000	-0.220173	115.798430	-46.747856	27.451988	-46.747856	27.451988	-0.129799	-83.373331
5.200000	-0.221904	114.018029	-46.635906	25.806943	-46.635906	25.806943	-0.131767	-84.107380
5.250000	-0.223639	112.237292	-46.528080	24.167691	-46.528080	24.167691	-0.133763	-84.839961
5.300000	-0.225379	110.456019	-46.424345	22.534527	-46.424345	22.534527	-0.135787	-85.571084
5.350000	-0.227126	108.674000	-46.324674	20.907752	-46.324674	20.907752	-0.137840	-86.300759
5.400000	-0.228882	106.891017	-46.229042	19.287672	-46.229042	19.287672	-0.139922	-87.028997
5.450000	-0.230648	105.106833	-46.137428	17.674600	-46.137428	17.674600	-0.142033	-87.755810
5.500000	-0.232429	103.321198	-46.049814	16.068851	-46.049814	16.068851	-0.144175	-88.481211
5.550000	-0.234226	101.533836	-45.966188	14.470749	-45.966188	14.470749	-0.146346	-89.205211
5.600000	-0.236046	99.744444	-45.886543	12.880619	-45.886543	12.880619	-0.148549	-89.927825
5.650000	-0.237894	97.952685	-45.810873	11.298795	-45.810873	11.298795	-0.150783	-90.649067
5.700000	-0.239776	96.158177	-45.739184	9.725614	-45.739184	9.725614	-0.153048	-91.368950
5.750000	-0.241700	94.360488	-45.671484	8.161418	-45.671484	8.161418	-0.155345	-92.087491
5.800000	-0.243677	92.559121	-45.607792	6.606553	-45.607792	6.606553	-0.157675	-92.804704
5.850000	-0.245719	90.753499	-45.548136	5.061371	-45.548136	5.061371	-0.160038	-93.520606
5.900000	-0.247842	88.942946	-45.492555	3.526228	-45.492555	3.526228	-0.162433	-94.235215
5.950000	-0.250065	87.126664	-45.441102	2.001486	-45.441102	2.001486	-0.164863	-94.948546
6.000000	-0.252413	85.303701	-45.393850	0.487515	-45.393850	0.487515	-0.167326	-95.660620
6.050000	-0.254916	83.472910	-45.350893	-1.015308	-45.350893	-1.015308	-0.169824	-96.371454
6.100000	-0.257615	81.632900	-45.312351	-2.506589	-45.312351	-2.506589	-0.172357	-97.081068
6.150000	-0.260560	79.781964	-45.278385	-3.985916	-45.278385	-3.985916	-0.174924	-97.789483
6.200000	-0.263819	77.917985	-45.249198	-5.452847	-45.249198	-5.452847	-0.177528	-98.496717
6.250000	-0.267482	76.038312	-45.225059	-6.906887	-45.225059	-6.906887	-0.180167	-99.202794
6.300000	-0.271701	74.138541	-45.206572	-8.346848	-45.206572	-8.346848	-0.182844	-99.907687
6.350000	-0.276634	72.214850	-45.194003	-9.772563	-45.194003	-9.772563	-0.185558	-100.611470
6.400000	-0.282530	70.261310	-45.187999	-11.183071	-45.187999	-11.183071	-0.188310	-101.314165
6.450000	-0.289753	68.269975	-45.189444	-12.577009	-45.189444	-12.577009	-0.191099	-102.015798
6.500000	-0.298722	66.233076	-45.199045	-13.953423	-45.199045	-13.953423	-0.193924	-102.716450
6.550000	-0.310438	64.131006	-45.219351	-15.307293	-45.219351	-15.307293	-0.196789	-103.416046
6.600000	-0.326164	61.944031	-45.252515	-16.633884	-45.252515	-16.633884	-0.199693	-104.114658
6.650000	-0.348152	59.639959	-45.302303	-17.923288	-45.302303	-17.923288	-0.202637	-104.812317
6.700000	-0.380396	57.169377	-45.374519	-19.156682	-45.374519	-19.156682	-0.205621	-105.509052
6.750000	-0.430799	54.449539	-45.478890	-20.294064	-45.478890	-20.294064	-0.208647	-106.204890
6.800000	-0.514756	51.352818	-45.630127	-21.252332	-45.630127	-21.252332	-0.211714	-106.899884
6.850000	-0.672466	47.618087	-45.856691	-21.801909	-45.856691	-21.801909	-0.214826	-107.594040
6.900000	-1.012972	42.809605	-46.194169	-21.301428	-46.194169	-21.301428	-0.217984	-108.287410
6.950000	-1.909244	36.490053	-46.585123	-17.784862	-46.585123	-17.784862	-0.221189	-108.980034
7.000000	-4.621592	34.255567	-46.092112	-9.055759	-46.092112	-9.055759	-0.224445	-109.671954
7.050000	-5.566784	64.527544	-44.099846	-10.026468	-44.099846	-10.026468	-0.227754	-110.363218
7.100000	-2.414594	67.970154	-43.523339	-19.071612	-43.523339	-19.071612	-0.231121	-111.053881
7.150000	-1.265442	61.940140	-43.671408	-24.698792	-43.671408	-24.698792	-0.234551	-111.744008
7.200000	-0.833766	57.045327	-43.886143	-28.130904	-43.886143	-28.130904	-0.238048	-112.433698
7.250000	-0.636590	53.252540	-44.078874	-30.655850	-44.078874	-30.655850	-0.241626	-113.123100
7.300000	-0.531422	50.121726	-44.259102	-32.840793	-44.259102	-32.840793	-0.245303	-113.812471
7.350000	-0.470967	47.411243	-44.456409	-34.976548	-44.456409	-34.976548	-0.249143	-114.502288
7.400000	-0.433788	44.961855	-44.726807	-37.289685	-44.726807	-37.289685	-0.253296	-115.193364
7.450000	-0.411767	42.693908	-45.236958	-39.885304	-45.236958	-39.885304	-0.258325	-115.886884
7.500000	-0.402032	40.572170	-46.441290	-41.186801	-46.441290	-41.186801	-0.265820	-116.579762
7.550000	-0.391595	38.668517	-47.424561	-24.023700	-47.424561	-24.023700	-0.275752	-117.220123
7.600000	-0.362589	36.720092	-44.958682	-21.869346	-44.958682	-21.869346	-0.273376	-117.864301
7.650000	-0.350123	34.760638	-44.333462	-27.737985	-44.333462	-27.737985	-0.273448	-118.554430
7.700000	-0.344391	32.867323	-44.231164	-31.314150	-44.231164	-31.314150	-0.276032	-119.244945
7.750000	-0.340925	31.023377	-44.228661	-33.639998	-44.228661	-33.639998	-0.279414	-119.932355
7.800000	-0.338788	29.219478	-44.248387	-35.310353	-44.248387	-35.310353	-0.283128	-120.617556
7.850000	-0.337437	27.442192	-44.270939	-36.673686	-44.270939	-36.673686	-0.286989	-121.301577
7.900000	-0.336785	25.689712	-44.291954	-37.813446	-44.291954	-37.813446	-0.290958	-121.984679
7.950000	-0.336717	23.958532	-44.309520	-38.798324	-44.309520	-38.798324	-0.295012	-122.667123
8.000000	-0.337159	22.245989	-44.322871	-39.667235	-44.322871	-39.667235	-0.299136	-123.349078
8.050000	-0.338062	20.549975	-44.331571	-40.443568	-44.331571	-40.443568	-0.303326	-124.030666
8.100000	-0.339398	18.868763	-44.335223	-41.141952	-44.335223	-41.141952	-0.307579	-124.711980
8.150000	-0.341172	17.201298	-44.333132	-41.769536	-44.333132	-41.769536	-0.311894	-125.393092
8.200000	-0.343393	15.546168	-44.324559	-42.332479	-44.324559	-42.332479	-0.316271	-126.074077
8.250000	-0.346078	13.901721	-44.308732	-42.836147	-44.308732	-42.836147	-0.320709	-126.755002
8.300000	-0.349286	12.266764	-44.284284	-43.281757	-44.284284	-43.281757	-0.325208	-127.435929
8.350000	-0.353115	10.640028	-44.249238	-43.669018	-44.249238	-43.669018	-0.329769	-128.116915
8.400000	-0.357724	9.020054	-44.200646	-43.996421	-44.200646	-43.996421	-0.334395	-128.798023
8.450000	-0.363376	7.405052	-44.133963	-44.261860	-44.133963	-44.261860	-0.339089	-129.479316
8.500000	-0.370522	5.792675	-44.041869	-44.464433	-44.041869	-44.464433	-0.343855	-130.160863
8.550000	-0.379742	4.180007	-43.915868	-44.612993	-43.915868	-44.612993	-0.348696	-130.842709
8.600000	-0.393008	2.562463	-43.727449	-44.727259	-43.727449	-44.727259	-0.353638	-131.524985
8.650000	-0.413679	0.935450	-43.436981	-44.924941	-43.436981	-44.924941	-0.358709	-132.207724
8.700000	-0.450484	-0.695504	-42.961443	-45.640932	-42.961443	-45.640932	-0.363981	-132.890837
8.750000	-0.525957	-2.228091	-42.177675	-48.687100	-42.177675	-48.687100	-0.369621	-133.573229
8.800000	-0.631287	-2.990474	-41.569371	-59.840308	-41.569371	-59.840308	-0.375374	-134.249179
8.850000	-0.511400	-3.464412	-43.421425	-71.189883	-43.421425	-71.189883	-0.379079	-134.925908
8.900000	-0.404583	-5.263894	-45.105189	-65.841602	-45.105189	-65.841602	-0.383316	-135.615439
8.950000	-0.380646	-7.101065	-45.505234	-59.473307	-45.505234	-59.473307	-0.388353	-136.305203
9.000000	-0.382221	-8.829330	-45.514686	-55.076768	-45.514686	-55.076768	-0.393595	-136.994766
9.050000	-0.395685	-10.506654	-45.402501	-51.362012	-45.402501	-51.362012	-0.398885	-137.685156
9.100000	-0.421087	-12.175416	-45.159418	-47.294566	-45.159418	-47.294566	-0.404164	-138.377019
9.150000	-0.475392	-13.831645	-44.491812	-42.360983	-44.491812	-42.360983	-0.409409	-139.072040
9.200000	-0.589785	-15.195195	-42.852130	-40.210123	-42.852130	-40.210123	-0.414933	-139.773081
9.250000	-0.649025	-15.511354	-41.324552	-51.035069	-41.324552	-51.035069	-0.422026	-140.476923
9.300000	-0.529444	-16.384314	-41.864852	-62.299133	-41.864852	-62.299133	-0.429455	-141.170921
9.350000	-0.459204	-17.941876	-42.725553	-65.924367	-42.725553	-65.924367	-0.435837	-141.865520
9.400000	-0.432387	-19.529091	-43.316287	-66.868064	-43.316287	-66.868064	-0.441980	-142.565080
9.450000	-0.423524	-21.058847	-43.710545	-67.126643	-43.710545	-67.126643	-0.448231	-143.269380
9.500000	-0.422037	-22.540093	-44.006822	-67.286657	-44.006822	-67.286657	-0.454694	-143.978052
9.550000	-0.423497	-23.989291	-44.275056	-67.504063	-44.275056	-67.504063	-0.461449	-144.691218
9.600000	-0.426720	-25.415834	-44.539186	-67.779387	-44.539186	-67.779387	-0.468510	-145.408652
9.650000	-0.431200	-26.821718	-44.816950	-68.126402	-44.816950	-68.126402	-0.475958	-146.131162
9.700000	-0.436725	-28.205021	-45.154768	-68.551153	-45.154768	-68.551153	-0.484100	-146.863168
9.750000	-0.442670	-29.578455	-45.549283	-68.992908	-45.549283	-68.992908	-0.492628	-147.600789
9.800000	-0.449311	-30.935409	-46.071298	-69.395638	-46.071298	-69.395638	-0.501931	-148.349416
9.850000	-0.456581	-32.279086	-46.769155	-69.563086	-46.769155	-69.563086	-0.512116	-149.108566
9.900000	-0.464634	-33.609004	-47.712471	-69.019570	-47.712471	-69.019570	-0.523485	-149.879046
9.950000	-0.473799	-34.916108	-48.967717	-66.532729	-48.967717	-66.532729	-0.536672	-150.663580
10.000000	-0.481088	-36.180876	-50.437377	-61.075172	-50.437377	-61.075172	-0.552008	-151.461500
