! freq	dB(S11)	phase(S11)	dB(S12)	phase(S12)	
!     	dB(S21)	phase(S21)	dB(S22)	phase(S22)	
!S-par simulation data
#  GHz  S  DB  R 50
0.000000	-0.000000	0.000000	-304.590708	0.000000	-304.590708	0.000000	-0.000000	0.000000
0.050000	-0.002469	-4.236924	-68.905928	87.091443	-68.905928	87.091443	-0.000967	-1.632417
0.100000	-0.008874	-8.459257	-62.895427	84.123227	-62.895427	84.123227	-0.003403	-3.258705
0.150000	-0.017130	-12.658315	-59.399985	81.170249	-59.399985	81.170249	-0.006423	-4.877347
0.200000	-0.025523	-16.831965	-56.936959	78.261134	-56.936959	78.261134	-0.009421	-6.490329
0.250000	-0.033161	-20.979106	-55.041140	75.388646	-55.041140	75.388646	-0.012153	-8.099881
0.300000	-0.039773	-25.099018	-53.505842	72.542384	-53.505842	72.542384	-0.014586	-9.707669
0.350000	-0.045466	-29.191429	-52.220461	69.716446	-52.220461	69.716446	-0.016781	-11.314580
0.400000	-0.050403	-33.254263	-51.119776	66.909683	-51.119776	66.909683	-0.018797	-12.920914
0.450000	-0.054740	-37.283616	-50.162535	64.123573	-50.162535	64.123573	-0.020686	-14.526690
0.500000	-0.058657	-41.278557	-49.318780	61.358500	-49.318780	61.358500	-0.022499	-16.131846
0.550000	-0.062264	-45.236635	-48.567863	58.616100	-48.567863	58.616100	-0.024266	-17.736250
0.600000	-0.065634	-49.153571	-47.895343	55.899296	-47.895343	55.899296	-0.026011	-19.339704
0.650000	-0.068838	-53.028572	-47.288752	53.208918	-47.288752	53.208918	-0.027753	-20.942090
0.700000	-0.071918	-56.860196	-46.738710	50.546218	-46.738710	50.546218	-0.029502	-22.543284
0.750000	-0.074898	-60.645400	-46.238392	47.913509	-46.238392	47.913509	-0.031269	-24.143122
0.800000	-0.077799	-64.382869	-45.781709	45.312032	-45.781709	45.312032	-0.033058	-25.741487
0.850000	-0.080633	-68.072053	-45.363461	42.742543	-45.363461	42.742543	-0.034873	-27.338295
0.900000	-0.083408	-71.712219	-44.979427	40.205930	-44.979427	40.205930	-0.036715	-28.933458
0.950000	-0.086127	-75.302561	-44.626114	37.703149	-44.626114	37.703149	-0.038584	-30.526887
1.000000	-0.088792	-78.842695	-44.300463	35.234895	-44.300463	35.234895	-0.040479	-32.118508
1.050000	-0.091402	-82.332461	-43.999815	32.801727	-43.999815	32.801727	-0.042401	-33.708256
1.100000	-0.093956	-85.771902	-43.721843	30.404076	-43.721843	30.404076	-0.044346	-35.296072
1.150000	-0.096453	-89.161252	-43.464489	28.042252	-43.464489	28.042252	-0.046312	-36.881906
1.200000	-0.098890	-92.500917	-43.225919	25.716450	-43.225919	25.716450	-0.048298	-38.465713
1.250000	-0.101267	-95.791457	-43.004495	23.426758	-43.004495	23.426758	-0.050300	-40.047455
1.300000	-0.103581	-99.032536	-42.798948	21.173943	-42.798948	21.173943	-0.052316	-41.627054
1.350000	-0.105831	-102.226054	-42.607698	18.957103	-42.607698	18.957103	-0.054345	-43.204530
1.400000	-0.108017	-105.372945	-42.429525	16.776034	-42.429525	16.776034	-0.056382	-44.779861
1.450000	-0.110139	-108.474239	-42.263313	14.630443	-42.263313	14.630443	-0.058427	-46.353034
1.500000	-0.112197	-111.531042	-42.108034	12.519960	-42.108034	12.519960	-0.060476	-47.924038
1.550000	-0.114190	-114.544527	-41.962744	10.444138	-41.962744	10.444138	-0.062529	-49.492869
1.600000	-0.116122	-117.515925	-41.826565	8.402459	-41.826565	8.402459	-0.064582	-51.059525
1.650000	-0.117992	-120.446508	-41.698684	6.394333	-41.698684	6.394333	-0.066636	-52.624012
1.700000	-0.119802	-123.337588	-41.578344	4.419106	-41.578344	4.419106	-0.068689	-54.186338
1.750000	-0.121555	-126.190500	-41.464835	2.476060	-41.464835	2.476060	-0.070739	-55.746517
1.800000	-0.123253	-129.006603	-41.357496	0.564414	-41.357496	0.564414	-0.072785	-57.304564
1.850000	-0.124899	-131.787265	-41.255704	-1.316670	-41.255704	-1.316670	-0.074828	-58.860503
1.900000	-0.126495	-134.533509	-41.158911	-3.167781	-41.158911	-3.167781	-0.076867	-60.414335
1.950000	-0.128044	-137.246759	-41.066552	-4.989908	-41.066552	-4.989908	-0.078901	-61.966091
2.000000	-0.129551	-139.928761	-40.978068	-6.784390	-40.978068	-6.784390	-0.080931	-63.515826
2.050000	-0.131019	-142.580882	-40.892970	-8.552297	-40.892970	-8.552297	-0.082957	-65.063577
2.100000	-0.132451	-145.204479	-40.810797	-10.294752	-40.810797	-10.294752	-0.084979	-66.609385
2.150000	-0.133853	-147.800895	-40.731113	-12.012931	-40.731113	-12.012931	-0.086998	-68.153294
2.200000	-0.135227	-150.371457	-40.653506	-13.708062	-40.653506	-13.708062	-0.089014	-69.695350
2.250000	-0.136577	-152.917474	-40.577588	-15.381423	-40.577588	-15.381423	-0.091029	-71.235604
2.300000	-0.137908	-155.440237	-40.502992	-17.034339	-40.502992	-17.034339	-0.093044	-72.774112
2.350000	-0.139224	-157.941015	-40.429372	-18.668182	-40.429372	-18.668182	-0.095059	-74.310929
2.400000	-0.140529	-160.421053	-40.356404	-20.284371	-40.356404	-20.284371	-0.097077	-75.846118
2.450000	-0.141827	-162.881575	-40.283781	-21.884364	-40.283781	-21.884364	-0.099097	-77.379742
2.500000	-0.143122	-165.323783	-40.211218	-23.469660	-40.211218	-23.469660	-0.101122	-78.911868
2.550000	-0.144418	-167.748507	-40.138424	-25.041548	-40.138424	-25.041548	-0.103153	-80.442539
2.600000	-0.145720	-170.157297	-40.065163	-26.601918	-40.065163	-26.601918	-0.105192	-81.971860
2.650000	-0.147031	-172.551278	-39.991206	-28.152374	-39.991206	-28.152374	-0.107241	-83.499910
2.700000	-0.148356	-174.931554	-39.916341	-29.694542	-39.916341	-29.694542	-0.109300	-85.026769
2.750000	-0.149699	-177.299203	-39.840374	-31.230073	-39.840374	-31.230073	-0.111372	-86.552521
2.800000	-0.151063	-179.655280	-39.763128	-32.760632	-39.763128	-32.760632	-0.113459	-88.077253
2.850000	-0.152452	177.999186	-39.684445	-34.287899	-39.684445	-34.287899	-0.115561	-89.601056
2.900000	-0.153870	175.663186	-39.604181	-35.813559	-39.604181	-35.813559	-0.117682	-91.124023
2.950000	-0.155324	173.336492	-39.521957	-37.339452	-39.521957	-37.339452	-0.119823	-92.646187
3.000000	-0.156811	171.016608	-39.438125	-38.867170	-39.438125	-38.867170	-0.121985	-94.167782
3.050000	-0.158338	168.703356	-39.352381	-40.398370	-39.352381	-40.398370	-0.124169	-95.688844
3.100000	-0.159908	166.395819	-39.264644	-41.934715	-39.264644	-41.934715	-0.126377	-97.209480
3.150000	-0.161524	164.093101	-39.174850	-43.477850	-39.174850	-43.477850	-0.128612	-98.729801
3.200000	-0.163189	161.794330	-39.082948	-45.029395	-39.082948	-45.029395	-0.130874	-100.249920
3.250000	-0.164906	159.498654	-38.988902	-46.590945	-38.988902	-46.590945	-0.133166	-101.769953
3.300000	-0.166679	157.205240	-38.892686	-48.164057	-38.892686	-48.164057	-0.135489	-103.290021
3.350000	-0.168509	154.913278	-38.794289	-49.750253	-38.794289	-49.750253	-0.137843	-104.810246
3.400000	-0.170401	152.621976	-38.693708	-51.351015	-38.693708	-51.351015	-0.140232	-106.330756
3.450000	-0.172355	150.330563	-38.590954	-52.967778	-38.590954	-52.967778	-0.142655	-107.851680
3.500000	-0.174375	148.038288	-38.486046	-54.601928	-38.486046	-54.601928	-0.145115	-109.373150
3.550000	-0.176464	145.744420	-38.379011	-56.254801	-38.379011	-56.254801	-0.147613	-110.895304
3.600000	-0.178622	143.448246	-38.269885	-57.927676	-38.269885	-57.927676	-0.150150	-112.418281
3.650000	-0.180853	141.149073	-38.158712	-59.621778	-38.158712	-59.621778	-0.152727	-113.942223
3.700000	-0.183158	138.846230	-38.045541	-61.338273	-38.045541	-61.338273	-0.155345	-115.467277
3.750000	-0.185540	136.539063	-37.930428	-63.078266	-37.930428	-63.078266	-0.158005	-116.993592
3.800000	-0.188003	134.226694	-37.813283	-64.843914	-37.813283	-64.843914	-0.160711	-118.521389
3.850000	-0.190545	131.908699	-37.694321	-66.635169	-37.694321	-66.635169	-0.163462	-120.050770
3.900000	-0.193170	129.584490	-37.573609	-68.452939	-37.573609	-68.452939	-0.166258	-121.581894
3.950000	-0.195876	127.253495	-37.451218	-70.298072	-37.451218	-70.298072	-0.169100	-123.114923
4.000000	-0.198667	124.915166	-37.327219	-72.171351	-37.327219	-72.171351	-0.171989	-124.650023
4.050000	-0.201543	122.568975	-37.201686	-74.073494	-37.201686	-74.073494	-0.174927	-126.187364
4.100000	-0.204506	120.214415	-37.074690	-76.005159	-37.074690	-76.005159	-0.177913	-127.727115
4.150000	-0.207556	117.851002	-36.946305	-77.966940	-36.946305	-77.966940	-0.180948	-129.269453
4.200000	-0.210695	115.478274	-36.816603	-79.959367	-36.816603	-79.959367	-0.184033	-130.814554
4.250000	-0.213924	113.095793	-36.685655	-81.982911	-36.685655	-81.982911	-0.187169	-132.362601
4.300000	-0.217242	110.703145	-36.553529	-84.037981	-36.553529	-84.037981	-0.190356	-133.913775
4.350000	-0.220652	108.299939	-36.420292	-86.124926	-36.420292	-86.124926	-0.193595	-135.468264
4.400000	-0.224142	105.887280	-36.286410	-88.239806	-36.286410	-88.239806	-0.196878	-137.025774
4.450000	-0.227738	103.461805	-36.151105	-90.391637	-36.151105	-90.391637	-0.200222	-138.587478
4.500000	-0.231427	101.024746	-36.014872	-92.576043	-36.014872	-92.576043	-0.203618	-140.153076
4.550000	-0.235210	98.575817	-35.877767	-94.793134	-35.877767	-94.793134	-0.207067	-141.722765
4.600000	-0.239088	96.114764	-35.739839	-97.042965	-35.739839	-97.042965	-0.210570	-143.296745
4.650000	-0.243062	93.641358	-35.601134	-99.325531	-35.601134	-99.325531	-0.214126	-144.875219
4.700000	-0.247132	91.155403	-35.461695	-101.640774	-35.461695	-101.640774	-0.217737	-146.458389
4.750000	-0.251299	88.656731	-35.321558	-103.988579	-35.321558	-103.988579	-0.221401	-148.046464
4.800000	-0.255565	86.145207	-35.180757	-106.368774	-35.180757	-106.368774	-0.225119	-149.639651
4.850000	-0.259929	83.620726	-35.039319	-108.781133	-35.039319	-108.781133	-0.228891	-151.238162
4.900000	-0.264393	81.083219	-34.897267	-111.225377	-34.897267	-111.225377	-0.232717	-152.842208
4.950000	-0.268958	78.532646	-34.754620	-113.701169	-34.754620	-113.701169	-0.236597	-154.452005
5.000000	-0.273625	75.969004	-34.611392	-116.208122	-34.611392	-116.208122	-0.240532	-156.067767
5.050000	-0.278398	73.392041	-34.467525	-118.746448	-34.467525	-118.746448	-0.244521	-157.689853
5.100000	-0.283276	70.802109	-34.323086	-121.314971	-34.323086	-121.314971	-0.248565	-159.318352
5.150000	-0.288260	68.199310	-34.178076	-123.913139	-34.178076	-123.913139	-0.252662	-160.953482
5.200000	-0.293353	65.583782	-34.032486	-126.540349	-34.032486	-126.540349	-0.256812	-162.595466
5.250000	-0.298556	62.955697	-33.886305	-129.195947	-33.886305	-129.195947	-0.261016	-164.244524
5.300000	-0.303870	60.315265	-33.739518	-131.879228	-33.739518	-131.879228	-0.265272	-165.900879
5.350000	-0.309300	57.662730	-33.592105	-134.589438	-33.592105	-134.589438	-0.269581	-167.564755
5.400000	-0.314846	54.998369	-33.444041	-137.325775	-33.444041	-137.325775	-0.273942	-169.236372
5.450000	-0.320511	52.322495	-33.295297	-140.087393	-33.295297	-140.087393	-0.278355	-170.915955
5.500000	-0.326299	49.635456	-33.145841	-142.873398	-33.145841	-142.873398	-0.282819	-172.603725
5.550000	-0.332212	46.937631	-32.995636	-145.682854	-32.995636	-145.682854	-0.287335	-174.299904
5.600000	-0.338254	44.229432	-32.844643	-148.514784	-32.844643	-148.514784	-0.291900	-176.004714
5.650000	-0.344429	41.511198	-32.692779	-151.368393	-32.692779	-151.368393	-0.296516	-177.718472
5.700000	-0.350742	38.783419	-32.539997	-154.242592	-32.539997	-154.242592	-0.301181	-179.441404
5.750000	-0.357194	36.046705	-32.386283	-157.136059	-32.386283	-157.136059	-0.305895	178.826369
5.800000	-0.363790	33.301584	-32.231588	-160.047674	-32.231588	-160.047674	-0.310657	177.084633
5.850000	-0.370535	30.548607	-32.075855	-162.976291	-32.075855	-162.976291	-0.315466	175.333176
5.900000	-0.377432	27.788351	-31.919031	-165.920740	-31.919031	-165.920740	-0.320321	173.571790
5.950000	-0.384487	25.021410	-31.761056	-168.879829	-31.761056	-168.879829	-0.325223	171.800268
6.000000	-0.391704	22.248395	-31.601872	-171.852349	-31.601872	-171.852349	-0.330170	170.018407
6.050000	-0.399089	19.469935	-31.441417	-174.837082	-31.441417	-174.837082	-0.335161	168.226009
6.100000	-0.406647	16.686670	-31.279631	-177.832796	-31.279631	-177.832796	-0.340196	166.422881
6.150000	-0.414383	13.899248	-31.116450	179.161743	-31.116450	179.161743	-0.345274	164.608832
6.200000	-0.422302	11.108328	-30.951811	176.147768	-30.951811	176.147768	-0.350394	162.783677
6.250000	-0.430411	8.314570	-30.785650	173.126512	-30.785650	173.126512	-0.355556	160.947239
6.300000	-0.438720	5.518603	-30.617794	170.099092	-30.617794	170.099092	-0.360761	159.099091
6.350000	-0.447231	2.721149	-30.448280	167.066876	-30.448280	167.066876	-0.366005	157.239312
6.400000	-0.455949	-0.077138	-30.277040	164.031055	-30.277040	164.031055	-0.371291	155.367743
6.450000	-0.464882	-2.875613	-30.104008	160.992798	-30.104008	160.992798	-0.376615	153.484232
6.500000	-0.474035	-5.673642	-29.929116	157.953248	-29.929116	157.953248	-0.381980	151.588635
6.550000	-0.483416	-8.470607	-29.752295	154.913519	-29.752295	154.913519	-0.387384	149.680815
6.600000	-0.493031	-11.265906	-29.573476	151.874688	-29.573476	151.874688	-0.392828	147.760643
6.650000	-0.502887	-14.058959	-29.392586	148.837797	-29.392586	148.837797	-0.398311	145.828002
6.700000	-0.512991	-16.849209	-29.209552	145.803845	-29.209552	145.803845	-0.403835	143.882780
6.750000	-0.523351	-19.636126	-29.024300	142.773786	-29.024300	142.773786	-0.409400	141.924878
6.800000	-0.533974	-22.419208	-28.836752	139.748523	-28.836752	139.748523	-0.415007	139.954202
6.850000	-0.544868	-25.197986	-28.646826	136.728912	-28.646826	136.728912	-0.420659	137.970673
6.900000	-0.556045	-27.971970	-28.454362	133.715828	-28.454362	133.715828	-0.426356	135.974077
6.950000	-0.567513	-30.740748	-28.259266	130.710035	-28.259266	130.710035	-0.432102	133.964351
7.000000	-0.579278	-33.504016	-28.061514	127.712138	-28.061514	127.712138	-0.437899	131.941584
7.050000	-0.591351	-36.261459	-27.861006	124.722748	-27.861006	124.722748	-0.443751	129.905734
7.100000	-0.603741	-39.012805	-27.657635	121.742411	-27.657635	121.742411	-0.449663	127.856770
7.150000	-0.616460	-41.757829	-27.451284	118.771604	-27.451284	118.771604	-0.455638	125.794668
7.200000	-0.629520	-44.496352	-27.241832	115.810732	-27.241832	115.810732	-0.461685	123.719413
7.250000	-0.642933	-47.228244	-27.029143	112.860126	-27.029143	112.860126	-0.467809	121.630999
7.300000	-0.656713	-49.953429	-26.813073	109.920040	-26.813073	109.920040	-0.474020	119.529424
7.350000	-0.670877	-52.671879	-26.593465	106.990648	-26.593465	106.990648	-0.480328	117.414692
7.400000	-0.685442	-55.383624	-26.370146	104.072039	-26.370146	104.072039	-0.486744	115.286812
7.450000	-0.700426	-58.088750	-26.142928	101.164216	-26.142928	101.164216	-0.493282	113.145794
7.500000	-0.715851	-60.787401	-25.911607	98.267088	-25.911607	98.267088	-0.499958	110.991647
7.550000	-0.731750	-63.479650	-25.675714	95.380689	-25.675714	95.380689	-0.506794	108.824090
7.600000	-0.748141	-66.165910	-25.435219	92.504484	-25.435219	92.504484	-0.513808	106.643408
7.650000	-0.765056	-68.846518	-25.189845	89.638061	-25.189845	89.638061	-0.521026	104.449588
7.700000	-0.782529	-71.521879	-24.939286	86.780883	-24.939286	86.780883	-0.528476	102.242601
7.750000	-0.800598	-74.192469	-24.683205	83.932278	-24.683205	83.932278	-0.536193	100.022395
7.800000	-0.819311	-76.858839	-24.421228	81.091429	-24.421228	81.091429	-0.544215	97.788890
7.850000	-0.838718	-79.521622	-24.152938	78.257350	-24.152938	78.257350	-0.552589	95.541968
7.900000	-0.858880	-82.181533	-23.877873	75.428871	-23.877873	75.428871	-0.561367	93.281467
7.950000	-0.879867	-84.839380	-23.595517	72.604610	-23.595517	72.604610	-0.570614	91.007161
8.000000	-0.901761	-87.496069	-23.305294	69.782940	-23.305294	69.782940	-0.580402	88.718755
8.050000	-0.924658	-90.152615	-23.006558	66.961951	-23.006558	66.961951	-0.590821	86.415862
8.100000	-0.948670	-92.810151	-22.698585	64.139404	-22.698585	64.139404	-0.601974	84.097983
8.150000	-0.973947	-95.469982	-22.380307	61.312581	-22.380307	61.312581	-0.613997	81.764305
8.200000	-1.000655	-98.133575	-22.050734	58.478252	-22.050734	58.478252	-0.627046	79.413990
8.250000	-1.028977	-100.802499	-21.709033	55.632740	-21.709033	55.632740	-0.641298	77.046181
8.300000	-1.059149	-103.478541	-21.353994	52.771612	-21.353994	52.771612	-0.656978	74.659592
8.350000	-1.091462	-106.163706	-20.984229	49.889559	-20.984229	49.889559	-0.674366	72.252616
8.400000	-1.126274	-108.860260	-20.598148	46.980177	-20.598148	46.980177	-0.693809	69.823249
8.450000	-1.164031	-111.570764	-20.193918	44.035675	-20.193918	44.035675	-0.715746	67.368993
8.500000	-1.205298	-114.298121	-19.769415	41.046492	-19.769415	41.046492	-0.740736	64.886733
8.550000	-1.250686	-117.045105	-19.323274	38.002359	-19.323274	38.002359	-0.769397	62.373389
8.600000	-1.301348	-119.816583	-18.850244	34.885198	-18.850244	34.885198	-0.802884	59.822390
8.650000	-1.358398	-122.616257	-18.348153	31.677659	-18.348153	31.677659	-0.842356	57.228509
8.700000	-1.423472	-125.448894	-17.813007	28.355432	-17.813007	28.355432	-0.889525	54.584113
8.750000	-1.498787	-128.319695	-17.240097	24.886779	-17.240097	24.886779	-0.946754	51.879669
8.800000	-1.587597	-131.234547	-16.622814	21.226901	-16.622814	21.226901	-1.017577	49.102412
8.850000	-1.694194	-134.197764	-15.955358	17.319846	-15.955358	17.319846	-1.106792	46.238505
8.900000	-1.824689	-137.211184	-15.231201	13.089835	-15.231201	13.089835	-1.221432	43.272096
8.950000	-1.988975	-140.271160	-14.439606	8.418430	-14.439606	8.418430	-1.373249	40.183624
9.000000	-2.201060	-143.355410	-13.572934	3.148284	-13.572934	3.148284	-1.579836	36.962175
9.050000	-2.482409	-146.400653	-12.624482	-2.953223	-12.624482	-2.953223	-1.870110	33.620332
9.100000	-2.865145	-149.241583	-11.593388	-10.234342	-11.593388	-10.234342	-2.292689	30.249824
9.150000	-3.389228	-151.471461	-10.499057	-19.187814	-10.499057	-19.187814	-2.925146	27.182086
9.200000	-4.072189	-152.154656	-9.405385	-30.468670	-9.405385	-30.468670	-3.870581	25.432786
9.250000	-4.770600	-149.665216	-8.465012	-44.702170	-8.465012	-44.702170	-5.125069	27.611400
9.300000	-4.949452	-143.526423	-7.942879	-61.873093	-7.942879	-61.873093	-6.022800	37.150512
9.350000	-4.188208	-138.364090	-8.104295	-80.457086	-8.104295	-80.457086	-5.343056	48.804593
9.400000	-3.077673	-138.452038	-8.973053	-97.860830	-8.973053	-97.860830	-3.782431	52.579462
9.450000	-2.229681	-142.168788	-10.305589	-112.333179	-10.305589	-112.333179	-2.530501	50.276775
9.500000	-1.714892	-147.024509	-11.828053	-123.685390	-11.828053	-123.685390	-1.746378	46.023170
9.550000	-1.425555	-151.902259	-13.374146	-132.496648	-13.374146	-132.496648	-1.277339	41.575068
9.600000	-1.267266	-156.499653	-14.874171	-139.431756	-14.874171	-139.431756	-0.992011	37.420583
9.650000	-1.183902	-160.794323	-16.305985	-144.988543	-16.305985	-144.988543	-0.813385	33.632255
9.700000	-1.143620	-164.839170	-17.672427	-149.519558	-17.672427	-149.519558	-0.697682	30.167797
9.750000	-1.129222	-168.691013	-18.980015	-153.241079	-18.980015	-153.241079	-0.620959	26.971144
9.800000	-1.130422	-172.403108	-20.245814	-156.308380	-20.245814	-156.308380	-0.568533	23.984752
9.850000	-1.141691	-176.012663	-21.479439	-158.795063	-21.479439	-158.795063	-0.532313	21.169108
9.900000	-1.159585	-179.549423	-22.691961	-160.736669	-22.691961	-160.736669	-0.507080	18.492032
9.950000	-1.181988	176.963885	-23.893180	-162.131499	-23.893180	-162.131499	-0.489494	15.928974
10.000000	-1.207575	173.509778	-25.091153	-162.943385	-25.091153	-162.943385	-0.477365	13.461164
