! freq	dB(S11)	phase(S11)	dB(S12)	phase(S12)	
!     	dB(S21)	phase(S21)	dB(S22)	phase(S22)	
!S-par simulation data
#  GHz  S  DB  R 50
0.000000	-0.000000	0.000000	-337.360061	0.000000	-337.360061	0.000000	-0.000000	0.000000
0.050000	-0.001653	-0.778773	-108.931880	81.085183	-108.931880	81.085183	-0.003302	-1.309540
0.100000	-0.004219	-1.573368	-103.001680	84.021500	-103.001680	84.021500	-0.008012	-2.650716
0.150000	-0.006003	-2.375477	-99.557061	84.333687	-99.557061	84.333687	-0.011034	-4.004434
0.200000	-0.007174	-3.178764	-97.155894	84.024982	-97.155894	84.024982	-0.012936	-5.359185
0.250000	-0.008020	-3.981495	-95.345532	83.477362	-95.345532	83.477362	-0.014286	-6.712315
0.300000	-0.008740	-4.783414	-93.914695	82.851438	-93.914695	82.851438	-0.015435	-8.063629
0.350000	-0.009406	-5.584487	-92.758181	82.204825	-92.758181	82.204825	-0.016501	-9.413090
0.400000	-0.010063	-6.384757	-91.811955	81.580303	-91.811955	81.580303	-0.017559	-10.760762
0.450000	-0.010735	-7.184260	-91.035464	81.010118	-91.035464	81.010118	-0.018645	-12.106669
0.500000	-0.011432	-7.983017	-90.401833	80.523344	-90.401833	80.523344	-0.019777	-13.450799
0.550000	-0.012161	-8.781035	-89.892769	80.149895	-89.892769	80.149895	-0.020962	-14.793110
0.600000	-0.012922	-9.578309	-89.495680	79.923396	-89.495680	79.923396	-0.022205	-16.133539
0.650000	-0.013717	-10.374830	-89.201937	79.883875	-89.201937	79.883875	-0.023504	-17.472016
0.700000	-0.014543	-11.170585	-89.005708	80.080821	-89.005708	80.080821	-0.024857	-18.808461
0.750000	-0.015399	-11.965558	-88.903089	80.577003	-88.903089	80.577003	-0.026260	-20.142794
0.800000	-0.016281	-12.759733	-88.891252	81.453463	-88.891252	81.453463	-0.027708	-21.474932
0.850000	-0.017188	-13.553093	-88.967393	82.815972	-88.967393	82.815972	-0.029198	-22.804795
0.900000	-0.018117	-14.345622	-89.127114	84.802917	-89.127114	84.802917	-0.030725	-24.132303
0.950000	-0.019065	-15.137306	-89.361708	87.593421	-89.361708	87.593421	-0.032283	-25.457379
1.000000	-0.020029	-15.928130	-89.653568	91.411417	-89.653568	91.411417	-0.033868	-26.779950
1.050000	-0.021008	-16.718079	-89.968951	96.514509	-89.968951	96.514509	-0.035477	-28.099946
1.100000	-0.021998	-17.507141	-90.248535	103.144946	-90.248535	103.144946	-0.037103	-29.417297
1.150000	-0.022998	-18.295303	-90.400689	111.411659	-90.400689	111.411659	-0.038745	-30.731940
1.200000	-0.024006	-19.082554	-90.310827	121.099851	-90.310827	121.099851	-0.040398	-32.043813
1.250000	-0.025020	-19.868882	-89.881805	131.521455	-89.881805	131.521455	-0.042058	-33.352856
1.300000	-0.026038	-20.654235	-89.073022	141.597648	-89.073022	141.597648	-0.043724	-34.658886
1.350000	-0.027061	-21.438643	-87.974307	150.438785	-87.974307	150.438785	-0.045393	-35.961972
1.400000	-0.028085	-22.222095	-86.700024	157.661508	-86.700024	157.661508	-0.047061	-37.262064
1.450000	-0.029111	-23.004581	-85.351632	163.281457	-85.351632	163.281457	-0.048728	-38.559112
1.500000	-0.030137	-23.786090	-83.997642	167.511421	-83.997642	167.511421	-0.050392	-39.853072
1.550000	-0.031164	-24.566613	-82.676871	170.612404	-82.676871	170.612404	-0.052051	-41.143898
1.600000	-0.032190	-25.346138	-81.408153	172.823096	-81.408153	172.823096	-0.053705	-42.431548
1.650000	-0.033215	-26.124656	-80.198666	174.338450	-80.198666	174.338450	-0.055352	-43.715983
1.700000	-0.034240	-26.902155	-79.049350	175.310086	-79.049350	175.310086	-0.056993	-44.997164
1.750000	-0.035263	-27.678624	-77.958056	175.853667	-77.958056	175.853667	-0.058626	-46.275055
1.800000	-0.036285	-28.454054	-76.921266	176.057060	-76.921266	176.057060	-0.060252	-47.549621
1.850000	-0.037306	-29.228431	-75.935000	175.987256	-75.935000	175.987256	-0.061870	-48.820830
1.900000	-0.038326	-30.001747	-74.995268	175.695723	-74.995268	175.695723	-0.063482	-50.088652
1.950000	-0.039345	-30.773987	-74.098289	175.222382	-74.098289	175.222382	-0.065086	-51.353056
2.000000	-0.040363	-31.545142	-73.240580	174.598522	-73.240580	174.598522	-0.066683	-52.614016
2.050000	-0.041381	-32.315200	-72.418981	173.848920	-72.418981	173.848920	-0.068275	-53.871506
2.100000	-0.042399	-33.084148	-71.630649	172.993401	-71.630649	172.993401	-0.069861	-55.125503
2.150000	-0.043417	-33.851975	-70.873033	172.047979	-70.873033	172.047979	-0.071442	-56.375985
2.200000	-0.044436	-34.618669	-70.143850	171.025717	-70.143850	171.025717	-0.073018	-57.622932
2.250000	-0.045455	-35.384217	-69.441051	169.937357	-69.441051	169.937357	-0.074592	-58.866325
2.300000	-0.046477	-36.148609	-68.762801	168.791808	-68.762801	168.791808	-0.076163	-60.106148
2.350000	-0.047499	-36.911831	-68.107448	167.596517	-68.107448	167.596517	-0.077732	-61.342388
2.400000	-0.048524	-37.673872	-67.473504	166.357752	-67.473504	166.357752	-0.079301	-62.575030
2.450000	-0.049552	-38.434720	-66.859623	165.080821	-66.859623	165.080821	-0.080870	-63.804065
2.500000	-0.050583	-39.194363	-66.264587	163.770255	-66.264587	163.770255	-0.082439	-65.029483
2.550000	-0.051618	-39.952736	-65.686396	162.428798	-65.686396	162.428798	-0.084011	-66.251120
2.600000	-0.052656	-40.709880	-65.125036	161.061196	-65.125036	161.061196	-0.085586	-67.469128
2.650000	-0.053699	-41.465783	-64.579574	159.670300	-64.579574	159.670300	-0.087166	-68.683504
2.700000	-0.054747	-42.220434	-64.049156	158.258596	-64.049156	158.258596	-0.088750	-69.894248
2.750000	-0.055800	-42.973822	-63.532998	156.828265	-63.532998	156.828265	-0.090340	-71.101360
2.800000	-0.056859	-43.725935	-63.030380	155.381224	-63.030380	155.381224	-0.091937	-72.304842
2.850000	-0.057924	-44.476764	-62.540638	153.919166	-62.540638	153.919166	-0.093542	-73.504700
2.900000	-0.058996	-45.226297	-62.063159	152.443594	-62.063159	152.443594	-0.095156	-74.700941
2.950000	-0.060075	-45.974525	-61.597373	150.955842	-61.597373	150.955842	-0.096780	-75.893572
3.000000	-0.061161	-46.721438	-61.142754	149.457103	-61.142754	149.457103	-0.098414	-77.082604
3.050000	-0.062255	-47.467025	-60.698811	147.948443	-60.698811	147.948443	-0.100060	-78.268050
3.100000	-0.063358	-48.211278	-60.265088	146.430822	-60.265088	146.430822	-0.101718	-79.449923
3.150000	-0.064469	-48.954186	-59.841158	144.905101	-59.841158	144.905101	-0.103390	-80.628238
3.200000	-0.065590	-49.695742	-59.426624	143.372060	-59.426624	143.372060	-0.105076	-81.803015
3.250000	-0.066720	-50.435937	-59.021113	141.832404	-59.021113	141.832404	-0.106776	-82.974272
3.300000	-0.067860	-51.174763	-58.624274	140.286771	-58.624274	140.286771	-0.108493	-84.142031
3.350000	-0.069010	-51.912211	-58.235780	138.735745	-58.235780	138.735745	-0.110226	-85.306314
3.400000	-0.070171	-52.648274	-57.855320	137.179856	-57.855320	137.179856	-0.111976	-86.467147
3.450000	-0.071344	-53.382945	-57.482605	135.619588	-57.482605	135.619588	-0.113744	-87.624555
3.500000	-0.072528	-54.116217	-57.117360	134.055384	-57.117360	134.055384	-0.115532	-88.778568
3.550000	-0.073723	-54.848084	-56.759325	132.487652	-56.759325	132.487652	-0.117338	-89.929214
3.600000	-0.074932	-55.578538	-56.408255	130.916766	-56.408255	130.916766	-0.119165	-91.076526
3.650000	-0.076153	-56.307575	-56.063919	129.343070	-56.063919	129.343070	-0.121014	-92.220536
3.700000	-0.077387	-57.035189	-55.726095	127.766881	-55.726095	127.766881	-0.122883	-93.361278
3.750000	-0.078634	-57.761375	-55.394576	126.188493	-55.394576	126.188493	-0.124775	-94.498790
3.800000	-0.079896	-58.486065	-55.068901	124.608106	-55.068901	124.608106	-0.126691	-95.632971
3.850000	-0.081173	-59.209318	-54.749165	123.026064	-54.749165	123.026064	-0.128631	-96.764003
3.900000	-0.082464	-59.931129	-54.435188	121.442599	-54.435188	121.442599	-0.130595	-97.891925
3.950000	-0.083770	-60.651494	-54.126798	119.857927	-54.126798	119.857927	-0.132584	-99.016779
4.000000	-0.085092	-61.370411	-53.823830	118.272247	-53.823830	118.272247	-0.134598	-100.138611
4.050000	-0.086429	-62.087876	-53.526127	116.685747	-53.526127	116.685747	-0.136638	-101.257464
4.100000	-0.087783	-62.803888	-53.233541	115.098602	-53.233541	115.098602	-0.138705	-102.373385
4.150000	-0.089153	-63.518443	-52.945927	113.510975	-52.945927	113.510975	-0.140799	-103.486422
4.200000	-0.090540	-64.231540	-52.663149	111.923020	-52.663149	111.923020	-0.142920	-104.596624
4.250000	-0.091945	-64.943178	-52.385076	110.334880	-52.385076	110.334880	-0.145070	-105.704042
4.300000	-0.093367	-65.653356	-52.111583	108.746689	-52.111583	108.746689	-0.147248	-106.808726
4.350000	-0.094808	-66.362072	-51.842550	107.158575	-51.842550	107.158575	-0.149456	-107.910730
4.400000	-0.096267	-67.069328	-51.577860	105.570657	-51.577860	105.570657	-0.151693	-109.010108
4.450000	-0.097745	-67.775122	-51.317404	103.983046	-51.317404	103.983046	-0.153961	-110.106915
4.500000	-0.099242	-68.479455	-51.061074	102.395848	-51.061074	102.395848	-0.156259	-111.201207
4.550000	-0.100759	-69.182328	-50.808769	100.809163	-50.808769	100.809163	-0.158588	-112.293042
4.600000	-0.102295	-69.883742	-50.560390	99.223084	-50.560390	99.223084	-0.160948	-113.382477
4.650000	-0.103853	-70.583698	-50.315842	97.637701	-50.315842	97.637701	-0.163341	-114.469574
4.700000	-0.105431	-71.282199	-50.075035	96.053097	-50.075035	96.053097	-0.165766	-115.554391
4.750000	-0.107030	-71.979246	-49.837880	94.469352	-49.837880	94.469352	-0.168224	-116.636991
4.800000	-0.108651	-72.674843	-49.604293	92.886540	-49.604293	92.886540	-0.170715	-117.717436
4.850000	-0.110294	-73.368991	-49.374193	91.304733	-49.374193	91.304733	-0.173240	-118.795791
4.900000	-0.111960	-74.061695	-49.147499	89.723998	-49.147499	89.723998	-0.175799	-119.872118
4.950000	-0.113648	-74.752957	-48.924137	88.144399	-48.924137	88.144399	-0.178392	-120.946485
5.000000	-0.115360	-75.442782	-48.704033	86.565995	-48.704033	86.565995	-0.181020	-122.018957
5.050000	-0.117096	-76.131111	-48.487019	84.988902	-48.487019	84.988902	-0.183685	-123.089525
5.100000	-0.118856	-76.818013	-48.273131	83.413122	-48.273131	83.413122	-0.186386	-124.158339
5.150000	-0.120641	-77.503491	-48.062302	81.838705	-48.062302	81.838705	-0.189122	-125.225470
5.200000	-0.122450	-78.187552	-47.854468	80.265699	-47.854468	80.265699	-0.191895	-126.290986
5.250000	-0.124285	-78.870201	-47.649567	78.694152	-47.649567	78.694152	-0.194704	-127.354959
5.300000	-0.126146	-79.551443	-47.447537	77.124107	-47.447537	77.124107	-0.197550	-128.417460
5.350000	-0.128032	-80.231285	-47.248321	75.555604	-47.248321	75.555604	-0.200434	-129.478561
5.400000	-0.129945	-80.909734	-47.051863	73.988685	-47.051863	73.988685	-0.203355	-130.538335
5.450000	-0.131885	-81.586797	-46.858107	72.423386	-46.858107	72.423386	-0.206314	-131.596857
5.500000	-0.133853	-82.262481	-46.667000	70.859742	-46.667000	70.859742	-0.209312	-132.654200
5.550000	-0.135848	-82.936793	-46.478492	69.297788	-46.478492	69.297788	-0.212348	-133.710440
5.600000	-0.137871	-83.609741	-46.292532	67.737555	-46.292532	67.737555	-0.215423	-134.765653
5.650000	-0.139922	-84.281333	-46.109073	66.179074	-46.109073	66.179074	-0.218536	-135.819915
5.700000	-0.142003	-84.951579	-45.928067	64.622375	-45.928067	64.622375	-0.221690	-136.873305
5.750000	-0.144113	-85.620486	-45.749470	63.067484	-45.749470	63.067484	-0.224883	-137.925899
5.800000	-0.146253	-86.288064	-45.573239	61.514428	-45.573239	61.514428	-0.228116	-138.977777
5.850000	-0.148423	-86.954322	-45.399329	59.963232	-45.399329	59.963232	-0.231389	-140.029017
5.900000	-0.150623	-87.619270	-45.227702	58.413920	-45.227702	58.413920	-0.234703	-141.079700
5.950000	-0.152855	-88.282918	-45.058316	56.866514	-45.058316	56.866514	-0.238057	-142.129907
6.000000	-0.155118	-88.945277	-44.891134	55.321037	-44.891134	55.321037	-0.241452	-143.179718
6.050000	-0.157413	-89.606356	-44.726118	53.777509	-44.726118	53.777509	-0.244889	-144.229216
6.100000	-0.159740	-90.266167	-44.563232	52.235950	-44.563232	52.235950	-0.248366	-145.278482
6.150000	-0.162099	-90.924721	-44.402441	50.696379	-44.402441	50.696379	-0.251886	-146.327600
6.200000	-0.164492	-91.582029	-44.243711	49.158816	-44.243711	49.158816	-0.255447	-147.376653
6.250000	-0.166918	-92.238103	-44.087009	47.623277	-44.087009	47.623277	-0.259050	-148.425726
6.300000	-0.169380	-92.892904	-43.932272	46.089870	-43.932272	46.089870	-0.262697	-149.474910
6.350000	-0.171876	-93.546496	-43.779505	44.558523	-43.779505	44.558523	-0.266386	-150.524292
6.400000	-0.174406	-94.198893	-43.628678	43.029253	-43.628678	43.029253	-0.270118	-151.573957
6.450000	-0.176972	-94.850107	-43.479762	41.502076	-43.479762	41.502076	-0.273893	-152.623990
6.500000	-0.179573	-95.500152	-43.332729	39.977008	-43.332729	39.977008	-0.277710	-153.674480
6.550000	-0.182211	-96.149042	-43.187553	38.454065	-43.187553	38.454065	-0.281571	-154.725513
6.600000	-0.184884	-96.796789	-43.044209	36.933262	-43.044209	36.933262	-0.285474	-155.777177
6.650000	-0.187595	-97.443410	-42.902670	35.414614	-42.902670	35.414614	-0.289421	-156.829561
6.700000	-0.190342	-98.088917	-42.762913	33.898138	-42.762913	33.898138	-0.293411	-157.882753
6.750000	-0.193127	-98.733326	-42.624914	32.383850	-42.624914	32.383850	-0.297444	-158.936842
6.800000	-0.195950	-99.376652	-42.488652	30.871764	-42.488652	30.871764	-0.301521	-159.991919
6.850000	-0.198811	-100.018910	-42.354105	29.361899	-42.354105	29.361899	-0.305642	-161.048074
6.900000	-0.201711	-100.660116	-42.221252	27.854269	-42.221252	27.854269	-0.309806	-162.105396
6.950000	-0.204650	-101.300285	-42.090072	26.348893	-42.090072	26.348893	-0.314014	-163.163979
7.000000	-0.207629	-101.939435	-41.960548	24.845788	-41.960548	24.845788	-0.318266	-164.223911
7.050000	-0.210648	-102.577581	-41.832660	23.344973	-41.832660	23.344973	-0.322561	-165.285287
7.100000	-0.213706	-103.214740	-41.706391	21.846465	-41.706391	21.846465	-0.326900	-166.348197
7.150000	-0.216806	-103.850930	-41.581723	20.350286	-41.581723	20.350286	-0.331283	-167.412735
7.200000	-0.219946	-104.486167	-41.458641	18.856454	-41.458641	18.856454	-0.335709	-168.478993
7.250000	-0.223128	-105.120471	-41.337129	17.364992	-41.337129	17.364992	-0.340179	-169.547065
7.300000	-0.226351	-105.753858	-41.217172	15.875922	-41.217172	15.875922	-0.344693	-170.617045
7.350000	-0.229617	-106.386347	-41.098755	14.389267	-41.098755	14.389267	-0.349251	-171.689026
7.400000	-0.232925	-107.017957	-40.981865	12.905051	-40.981865	12.905051	-0.353852	-172.763102
7.450000	-0.236276	-107.648707	-40.866488	11.423299	-40.866488	11.423299	-0.358496	-173.839369
7.500000	-0.239671	-108.278617	-40.752613	9.944038	-40.752613	9.944038	-0.363183	-174.917921
7.550000	-0.243111	-108.907670	-40.640229	8.467408	-40.640229	8.467408	-0.367916	-175.998961
7.600000	-0.246594	-109.535925	-40.529324	6.993328	-40.529324	6.993328	-0.372691	-177.082484
7.650000	-0.250122	-110.163400	-40.419889	5.521830	-40.419889	5.521830	-0.377509	-178.168587
7.700000	-0.253695	-110.790118	-40.311912	4.052946	-40.311912	4.052946	-0.382370	-179.257365
7.750000	-0.257313	-111.416098	-40.205384	2.586709	-40.205384	2.586709	-0.387273	179.651087
7.800000	-0.260976	-112.041363	-40.100295	1.123155	-40.100295	1.123155	-0.392218	178.556673
7.850000	-0.264685	-112.665935	-39.996636	-0.337680	-39.996636	-0.337680	-0.397205	177.459297
7.900000	-0.268440	-113.289834	-39.894398	-1.795758	-39.894398	-1.795758	-0.402233	176.358862
7.950000	-0.272242	-113.913085	-39.793573	-3.251038	-39.793573	-3.251038	-0.407303	175.255274
8.000000	-0.276090	-114.535709	-39.694153	-4.703479	-39.694153	-4.703479	-0.412414	174.148436
8.050000	-0.279985	-115.157730	-39.596131	-6.153039	-39.596131	-6.153039	-0.417565	173.038253
8.100000	-0.283928	-115.779172	-39.499498	-7.599670	-39.499498	-7.599670	-0.422756	171.924629
8.150000	-0.287918	-116.400059	-39.404249	-9.043328	-39.404249	-9.043328	-0.427987	170.807468
8.200000	-0.291957	-117.020415	-39.310377	-10.483964	-39.310377	-10.483964	-0.433257	169.686676
8.250000	-0.296043	-117.640265	-39.217875	-11.921527	-39.217875	-11.921527	-0.438566	168.562157
8.300000	-0.300179	-118.259634	-39.126737	-13.355966	-39.126737	-13.355966	-0.443913	167.433816
8.350000	-0.304364	-118.878549	-39.036958	-14.787227	-39.036958	-14.787227	-0.449298	166.301559
8.400000	-0.308598	-119.497034	-38.948530	-16.215254	-38.948530	-16.215254	-0.454720	165.165293
8.450000	-0.312881	-120.115117	-38.861450	-17.639991	-38.861450	-17.639991	-0.460179	164.024923
8.500000	-0.317215	-120.732824	-38.775712	-19.061378	-38.775712	-19.061378	-0.465674	162.880357
8.550000	-0.321599	-121.350184	-38.691309	-20.479355	-38.691309	-20.479355	-0.471204	161.731503
8.600000	-0.326033	-121.967223	-38.608238	-21.893859	-38.608238	-21.893859	-0.476769	160.578268
8.650000	-0.330519	-122.583971	-38.526493	-23.304827	-38.526493	-23.304827	-0.482367	159.420562
8.700000	-0.335055	-123.200456	-38.446070	-24.712193	-38.446070	-24.712193	-0.487999	158.258294
8.750000	-0.339644	-123.816708	-38.366962	-26.115890	-38.366962	-26.115890	-0.493663	157.091375
8.800000	-0.344286	-124.432748	-38.289194	-27.515683	-38.289194	-27.515683	-0.499359	155.919507
8.850000	-0.348980	-125.048619	-38.212733	-28.911662	-38.212733	-28.911662	-0.505086	154.742804
8.900000	-0.353727	-125.664350	-38.137576	-30.303755	-38.137576	-30.303755	-0.510843	153.561180
8.950000	-0.358526	-126.279973	-38.063717	-31.691889	-38.063717	-31.691889	-0.516628	152.374550
9.000000	-0.363378	-126.895521	-37.991151	-33.075989	-37.991151	-33.075989	-0.522441	151.182832
9.050000	-0.368284	-127.511026	-37.919873	-34.455980	-37.919873	-34.455980	-0.528281	149.985942
9.100000	-0.373244	-128.126522	-37.849879	-35.831785	-37.849879	-35.831785	-0.534146	148.783799
9.150000	-0.378257	-128.742041	-37.781162	-37.203327	-37.781162	-37.203327	-0.540035	147.576326
9.200000	-0.383325	-129.357620	-37.713718	-38.570526	-37.713718	-38.570526	-0.545947	146.363444
9.250000	-0.388447	-129.973292	-37.647540	-39.933303	-37.647540	-39.933303	-0.551882	145.145077
9.300000	-0.393624	-130.589094	-37.582624	-41.291578	-37.582624	-41.291578	-0.557837	143.921153
9.350000	-0.398856	-131.205062	-37.518963	-42.645269	-37.518963	-42.645269	-0.563812	142.691599
9.400000	-0.404144	-131.821233	-37.456551	-43.994295	-37.456551	-43.994295	-0.569804	141.456346
9.450000	-0.409487	-132.437646	-37.395382	-45.338573	-37.395382	-45.338573	-0.575814	140.215327
9.500000	-0.414887	-133.054338	-37.335450	-46.678021	-37.335450	-46.678021	-0.581838	138.968478
9.550000	-0.420342	-133.671349	-37.276749	-48.012556	-37.276749	-48.012556	-0.587877	137.715735
9.600000	-0.425855	-134.288719	-37.219271	-49.342095	-37.219271	-49.342095	-0.593928	136.457039
9.650000	-0.431424	-134.906489	-37.163009	-50.666554	-37.163009	-50.666554	-0.599989	135.192334
9.700000	-0.437051	-135.524701	-37.107957	-51.985850	-37.107957	-51.985850	-0.606060	133.921566
9.750000	-0.442735	-136.143396	-37.054106	-53.299901	-37.054106	-53.299901	-0.612138	132.644684
9.800000	-0.448478	-136.762618	-37.001449	-54.608623	-37.001449	-54.608623	-0.618222	131.361641
9.850000	-0.454278	-137.382412	-36.949978	-55.911934	-36.949978	-55.911934	-0.624310	130.072392
9.900000	-0.460137	-138.002822	-36.899685	-57.209751	-36.899685	-57.209751	-0.630400	128.776897
9.950000	-0.466056	-138.623894	-36.850562	-58.501995	-36.850562	-58.501995	-0.636491	127.475119
10.000000	-0.472033	-139.245676	-36.802599	-59.788583	-36.802599	-59.788583	-0.642580	126.167025
