! freq	dB(S11)	phase(S11)	dB(S12)	phase(S12)	
!     	dB(S21)	phase(S21)	dB(S22)	phase(S22)	
!S-par simulation data
#  GHz  S  DB  R 50
0.000000	-82.798770	0.000000	-0.000629	0.000000	-0.000629	0.000000	-82.798771	0.000000
0.050000	-35.419137	-90.881286	-0.014447	-3.277947	-0.014447	-3.277947	-35.419320	-90.858639
0.100000	-29.587145	-95.065822	-0.023817	-6.477325	-0.023817	-6.477325	-29.587404	-95.062575
0.150000	-26.137689	-98.895550	-0.033327	-9.678372	-0.033327	-9.678372	-26.137715	-98.895996
0.200000	-23.688426	-102.482631	-0.044968	-12.876837	-0.044968	-12.876837	-23.688435	-102.483422
0.250000	-21.794896	-105.933473	-0.058879	-16.069850	-0.058879	-16.069850	-21.794942	-105.933710
0.300000	-20.255674	-109.299467	-0.074944	-19.256373	-0.074944	-19.256373	-20.255749	-109.298978
0.350000	-18.962114	-112.609146	-0.093003	-22.436182	-0.093003	-22.436182	-18.962200	-112.608048
0.400000	-17.849398	-115.878398	-0.112965	-25.609079	-0.112965	-25.609079	-17.849480	-115.876908
0.450000	-16.876023	-119.116770	-0.134791	-28.774659	-0.134791	-28.774659	-16.876093	-119.115122
0.500000	-16.013129	-122.331471	-0.158366	-31.932770	-0.158366	-31.932770	-16.013186	-122.329857
0.550000	-15.240291	-125.526679	-0.183607	-35.083089	-0.183607	-35.083089	-15.240338	-125.525242
0.600000	-14.542473	-128.705018	-0.210431	-38.225224	-0.210431	-38.225224	-14.542513	-128.703854
0.650000	-13.908461	-131.867954	-0.238778	-41.358612	-0.238778	-41.358612	-13.908497	-131.867117
0.700000	-13.329258	-135.016723	-0.268542	-44.482900	-0.268542	-44.482900	-13.329295	-135.016230
0.750000	-12.797601	-138.152237	-0.299605	-47.597854	-0.299605	-47.597854	-12.797643	-138.152080
0.800000	-12.307734	-141.274988	-0.331866	-50.703175	-0.331866	-50.703175	-12.307782	-141.275139
0.850000	-11.855331	-144.384877	-0.365249	-53.798246	-0.365249	-53.798246	-11.855386	-144.385293
0.900000	-11.435855	-147.482796	-0.399596	-56.883380	-0.399596	-56.883380	-11.435918	-147.483430
0.950000	-11.046174	-150.568739	-0.434813	-59.958267	-0.434813	-59.958267	-11.046245	-150.569538
1.000000	-10.683428	-153.642917	-0.470789	-63.022846	-0.470789	-63.022846	-10.683507	-153.643825
1.050000	-10.345152	-156.705542	-0.507413	-66.077115	-0.507413	-66.077115	-10.345238	-156.706508
1.100000	-10.029203	-159.756841	-0.544576	-69.121131	-0.544576	-69.121131	-10.029295	-159.757814
1.150000	-9.733702	-162.797062	-0.582171	-72.155009	-0.582171	-72.155009	-9.733799	-162.797995
1.200000	-9.456994	-165.826476	-0.620095	-75.178913	-0.620095	-75.178913	-9.457093	-165.827328
1.250000	-9.197606	-168.845382	-0.658247	-78.193058	-0.658247	-78.193058	-9.197706	-168.846116
1.300000	-8.954409	-171.853896	-0.696527	-81.197504	-0.696527	-81.197504	-8.954509	-171.854478
1.350000	-8.726030	-174.852600	-0.734842	-84.192764	-0.734842	-84.192764	-8.726127	-174.853003
1.400000	-8.511407	-177.841877	-0.773107	-87.179179	-0.773107	-87.179179	-8.511500	-177.842077
1.450000	-8.309580	179.177869	-0.811237	-90.157119	-0.811237	-90.157119	-8.309668	179.177890
1.500000	-8.119676	176.206212	-0.849158	-93.126984	-0.849158	-93.126984	-8.119758	176.206469
1.550000	-7.940901	173.242706	-0.886795	-96.089200	-0.886795	-96.089200	-7.940976	173.243213
1.600000	-7.772528	170.286890	-0.924085	-99.044211	-0.924085	-99.044211	-7.772595	170.287658
1.650000	-7.613890	167.338289	-0.960964	-101.992482	-0.960964	-101.992482	-7.613948	167.339327
1.700000	-7.464374	164.396418	-0.997377	-104.934488	-0.997377	-104.934488	-7.464424	164.397733
1.750000	-7.323414	161.460783	-1.033275	-107.870720	-1.033275	-107.870720	-7.323456	161.462384
1.800000	-7.190489	158.530885	-1.068610	-110.801671	-1.068610	-110.801671	-7.190523	158.532778
1.850000	-7.065114	155.606221	-1.103343	-113.727845	-1.103343	-113.727845	-7.065142	155.608415
1.900000	-6.946898	152.686333	-1.137430	-116.649702	-1.137430	-116.649702	-6.946919	152.688837
1.950000	-6.835415	149.770703	-1.170838	-119.567765	-1.170838	-119.567765	-6.835431	149.773528
2.000000	-6.730219	146.858780	-1.203551	-122.482580	-1.203551	-122.482580	-6.730231	146.861940
2.050000	-6.630948	143.950072	-1.235547	-125.394643	-1.235547	-125.394643	-6.630957	143.953582
2.100000	-6.537265	141.044094	-1.266808	-128.304444	-1.266808	-128.304444	-6.537272	141.047971
2.150000	-6.448854	138.140369	-1.297320	-131.212464	-1.297320	-131.212464	-6.448861	138.144635
2.200000	-6.365419	135.238430	-1.327074	-134.119175	-1.327074	-134.119175	-6.365426	135.243108
2.250000	-6.286683	132.337824	-1.356062	-137.025037	-1.356062	-137.025037	-6.286693	132.342941
2.300000	-6.212540	129.438122	-1.384244	-139.930507	-1.384244	-139.930507	-6.212553	129.443710
2.350000	-6.142395	126.538852	-1.411702	-142.836014	-1.411702	-142.836014	-6.142412	126.544943
2.400000	-6.076220	123.639641	-1.438393	-145.741966	-1.438393	-145.741966	-6.076241	123.646271
2.450000	-6.013799	120.740092	-1.464319	-148.648769	-1.464319	-148.648769	-6.013825	120.747301
2.500000	-5.954930	117.839823	-1.489487	-151.556812	-1.489487	-151.556812	-5.954961	117.847654
2.550000	-5.899546	114.938404	-1.513869	-154.466558	-1.513869	-154.466558	-5.899583	114.946906
2.600000	-5.847332	112.035523	-1.537512	-157.378306	-1.537512	-157.378306	-5.847374	112.044744
2.650000	-5.798123	109.130852	-1.560426	-160.292396	-1.560426	-160.292396	-5.798169	109.140843
2.700000	-5.751760	106.224079	-1.582623	-163.209149	-1.582623	-163.209149	-5.751809	106.234896
2.750000	-5.708097	103.314912	-1.604116	-166.128871	-1.604116	-166.128871	-5.708148	103.326612
2.800000	-5.666997	100.403076	-1.624916	-169.051850	-1.624916	-169.051850	-5.667049	100.415719
2.850000	-5.628331	97.488313	-1.645038	-171.978358	-1.645038	-171.978358	-5.628381	97.501960
2.900000	-5.591980	94.570381	-1.664493	-174.908652	-1.664493	-174.908652	-5.592027	94.585098
2.950000	-5.557832	91.649058	-1.683296	-177.842973	-1.683296	-177.842973	-5.557875	91.664909
3.000000	-5.525787	88.724133	-1.701457	179.218452	-1.701457	179.218452	-5.525822	88.741188
3.050000	-5.495750	85.795414	-1.718989	176.275409	-1.718989	176.275409	-5.495775	85.813742
3.100000	-5.467636	82.862721	-1.735901	173.327700	-1.735901	173.327700	-5.467647	82.882396
3.150000	-5.441366	79.925889	-1.752203	170.375135	-1.752203	170.375135	-5.441362	79.946985
3.200000	-5.416872	76.984765	-1.767902	167.417538	-1.767902	167.417538	-5.416850	77.007359
3.250000	-5.394092	74.039207	-1.783004	164.454741	-1.783004	164.454741	-5.394050	74.063379
3.300000	-5.372974	71.089082	-1.797514	161.486584	-1.797514	161.486584	-5.372908	71.114915
3.350000	-5.353472	68.134269	-1.811434	158.512915	-1.811434	158.512915	-5.353381	68.161846
3.400000	-5.335552	65.174649	-1.824763	155.533586	-1.824763	155.533586	-5.335432	65.204060
3.450000	-5.319184	62.210113	-1.837499	152.548455	-1.837499	152.548455	-5.319034	62.241449
3.500000	-5.304350	59.240552	-1.849636	149.557380	-1.849636	149.557380	-5.304167	59.273909
3.550000	-5.291039	56.265862	-1.861169	146.560218	-1.861169	146.560218	-5.290823	56.301339
3.600000	-5.279252	53.285934	-1.872084	143.556826	-1.872084	143.556826	-5.278999	53.323637
3.650000	-5.268995	50.300662	-1.882370	140.547057	-1.882370	140.547057	-5.268705	50.340700
3.700000	-5.260287	47.309931	-1.892009	137.530757	-1.892009	137.530757	-5.259958	47.352421
3.750000	-5.253156	44.313622	-1.900981	134.507762	-1.900981	134.507762	-5.252787	44.358686
3.800000	-5.247713	41.311348	-1.909232	131.477592	-1.909232	131.477592	-5.247303	41.359124
3.850000	-5.243940	38.303209	-1.916763	128.440346	-1.916763	128.440346	-5.243489	38.353835
3.900000	-5.241899	35.289046	-1.923544	125.395817	-1.923544	125.395817	-5.241406	35.342669
3.950000	-5.241663	32.268679	-1.929541	122.343778	-1.929541	122.343778	-5.241129	32.325459
4.000000	-5.243320	29.241912	-1.934715	119.283977	-1.934715	119.283977	-5.242743	29.302017
4.050000	-5.246968	26.208519	-1.939025	116.216136	-1.939025	116.216136	-5.246350	26.272131
4.100000	-5.252721	23.168252	-1.942426	113.139948	-1.942426	113.139948	-5.252061	23.235564
4.150000	-5.260709	20.120829	-1.944868	110.055068	-1.944868	110.055068	-5.260007	20.192050
4.200000	-5.271074	17.065935	-1.946300	106.961118	-1.946300	106.961118	-5.270330	17.141289
4.250000	-5.283978	14.003218	-1.946666	103.857675	-1.946666	103.857675	-5.283191	14.082945
4.300000	-5.299602	10.932283	-1.945904	100.744269	-1.945904	100.744269	-5.298772	11.016644
4.350000	-5.318145	7.852692	-1.943954	97.620380	-1.943954	97.620380	-5.317271	7.941967
4.400000	-5.339395	4.765222	-1.940921	94.486957	-1.940921	94.486957	-5.338475	4.859670
4.450000	-5.364469	1.666777	-1.936385	91.340270	-1.936385	91.340270	-5.363502	1.766768
4.500000	-5.393204	-1.441954	-1.930452	88.181170	-1.930452	88.181170	-5.392186	-1.336064
4.550000	-5.425901	-4.561627	-1.923045	85.008875	-1.923045	85.008875	-5.424829	-4.449455
4.600000	-5.462894	-7.692966	-1.914088	81.822522	-1.914088	81.822522	-5.461763	-7.574094
4.650000	-5.504551	-10.836763	-1.903503	78.621162	-1.903503	78.621162	-5.503355	-10.710736
4.700000	-5.551282	-13.993883	-1.891210	75.403747	-1.891210	75.403747	-5.550015	-13.860205
4.750000	-5.603542	-17.165267	-1.877126	72.169130	-1.877126	72.169130	-5.602196	-17.023396
4.800000	-5.662114	-20.352668	-1.861085	68.915163	-1.861085	68.915163	-5.660678	-20.201981
4.850000	-5.726961	-23.555591	-1.843200	65.642402	-1.843200	65.642402	-5.725424	-23.395468
4.900000	-5.799031	-26.776073	-1.823287	62.348312	-1.823287	62.348312	-5.797378	-26.605795
4.950000	-5.879030	-30.015392	-1.801272	59.031240	-1.801272	59.031240	-5.877246	-29.834162
5.000000	-5.967753	-33.274915	-1.777082	55.689383	-1.777082	55.689383	-5.965819	-33.081848
5.050000	-6.066413	-36.556865	-1.750573	52.319808	-1.750573	52.319808	-6.064306	-36.350938
5.100000	-6.175774	-39.862124	-1.721760	48.921163	-1.721760	48.921163	-6.173468	-39.642218
5.150000	-6.297005	-43.192313	-1.690596	45.491087	-1.690596	45.491087	-6.294471	-42.957170
5.200000	-6.431444	-46.549117	-1.657047	42.027007	-1.657047	42.027007	-6.428645	-46.297309
5.250000	-6.580625	-49.934266	-1.621091	38.526128	-1.621091	38.526128	-6.577521	-49.664163
5.300000	-6.746323	-53.349501	-1.582730	34.985418	-1.582730	34.985418	-6.742864	-53.059230
5.350000	-6.930598	-56.796533	-1.541986	31.401588	-1.541986	31.401588	-6.926725	-56.483930
5.400000	-7.135858	-60.276982	-1.498912	27.771084	-1.498912	27.771084	-7.131500	-59.939522
5.450000	-7.364936	-63.792282	-1.453595	24.090069	-1.453595	24.090069	-7.360007	-63.426999
5.500000	-7.621192	-67.343553	-1.406161	20.354411	-1.406161	20.354411	-7.615586	-66.946928
5.550000	-7.908645	-70.931413	-1.356787	16.559677	-1.356787	16.559677	-7.902229	-70.499228
5.600000	-8.232144	-74.555700	-1.305707	12.701124	-1.305707	12.701124	-8.224749	-74.082843
5.650000	-8.597958	-78.215414	-1.253210	8.772897	-1.253210	8.772897	-8.589363	-77.695527
5.700000	-9.013538	-81.907205	-1.199693	4.769458	-1.199693	4.769458	-9.003449	-81.332324
5.750000	-9.487796	-85.624528	-1.145659	0.685914	-1.145659	0.685914	-9.475815	-84.984630
5.800000	-10.032494	-89.356778	-1.091700	-3.483609	-1.091700	-3.483609	-10.018065	-88.638899
5.850000	-10.662947	-93.086301	-1.038533	-7.745170	-1.038533	-7.745170	-10.645265	-92.273281
5.900000	-11.399595	-96.783879	-0.987018	-12.104927	-0.987018	-12.104927	-11.377447	-95.852378
5.950000	-12.270557	-100.400478	-0.938175	-16.569028	-0.938175	-16.569028	-12.242024	-99.317708
6.000000	-13.315989	-103.851082	-0.893197	-21.143471	-0.893197	-21.143471	-13.277846	-102.569112
6.050000	-14.596012	-106.980096	-0.853470	-25.833919	-0.853470	-25.833919	-14.542392	-105.425386
6.100000	-16.206147	-109.478410	-0.820585	-30.645470	-0.820585	-30.645470	-16.125206	-107.531395
6.150000	-18.309741	-110.652138	-0.796338	-35.582389	-0.796338	-35.582389	-18.173822	-108.106414
6.200000	-21.207389	-108.632008	-0.782736	-40.647791	-0.782736	-40.647791	-20.937269	-105.132675
6.250000	-25.396655	-96.922977	-0.781981	-45.843292	-0.781981	-45.843292	-24.704518	-92.285367
6.300000	-29.001549	-52.127452	-0.796832	-51.171402	-0.796832	-51.171402	-27.521971	-52.554843
6.350000	-25.032996	-7.904049	-0.829512	-56.626626	-0.829512	-56.626626	-24.362454	-13.072544
6.400000	-20.461409	4.526446	-0.882215	-62.201828	-0.882215	-62.201828	-20.215780	0.492404
6.450000	-17.148078	6.041682	-0.958028	-67.892311	-0.958028	-67.892311	-17.032503	3.020443
6.500000	-14.650843	4.055205	-1.059156	-73.685792	-1.059156	-73.685792	-14.586612	1.656371
6.550000	-12.669496	0.514467	-1.187796	-79.568467	-1.187796	-79.568467	-12.630021	-1.481241
6.600000	-11.042148	-3.857399	-1.346039	-85.524383	-1.346039	-85.524383	-11.016323	-5.575570
6.650000	-9.675325	-8.718226	-1.535165	-91.534349	-1.535165	-91.534349	-9.657787	-10.234795
6.700000	-8.510363	-13.885889	-1.756002	-97.578204	-1.756002	-97.578204	-8.498220	-15.250088
6.750000	-7.508066	-19.249172	-2.008895	-103.635408	-2.008895	-103.635408	-7.499625	-20.494696
6.800000	-6.640695	-24.732652	-2.293623	-109.685729	-2.293623	-109.685729	-6.634900	-25.883534
6.850000	-5.887581	-30.281692	-2.609423	-115.710115	-2.609423	-115.710115	-5.883740	-31.355670
6.900000	-5.232846	-35.855042	-2.955122	-121.691149	-2.955122	-121.691149	-5.230483	-36.865653
6.950000	-4.663446	-41.420693	-3.329012	-127.614100	-3.329012	-127.614100	-4.662225	-42.378465
7.000000	-4.168245	-46.954574	-3.729066	-133.467748	-3.729066	-133.467748	-4.167923	-47.867841
7.050000	-3.737946	-52.438777	-4.153176	-139.243815	-4.153176	-139.243815	-3.738344	-53.314311
7.100000	-3.364507	-57.860470	-4.599160	-144.937196	-4.599160	-144.937196	-3.365488	-58.703868
7.150000	-3.040905	-63.211121	-5.064854	-150.545805	-5.064854	-150.545805	-3.042367	-64.027075
7.200000	-2.762054	-68.483051	-5.547745	-156.067462	-5.547745	-156.067462	-2.763920	-69.275669
7.250000	-2.520446	-73.679455	-6.046545	-161.510798	-6.046545	-161.510798	-2.522659	-74.452042
7.300000	-2.312325	-78.798578	-6.559242	-166.878532	-6.559242	-166.878532	-2.314842	-79.554112
7.350000	-2.133525	-83.842862	-7.084263	-172.177663	-7.084263	-172.177663	-2.136317	-84.583957
7.400000	-1.980406	-88.816229	-7.620217	-177.416649	-7.620217	-177.416649	-1.983450	-89.545199
7.450000	-1.849785	-93.723707	-8.165891	177.394846	-8.165891	177.394846	-1.853069	-94.442620
7.500000	-1.738892	-98.571116	-8.720221	172.246154	-8.720221	172.246154	-1.742410	-99.281838
7.550000	-1.645631	-103.363798	-9.281611	167.126079	-9.281611	167.126079	-1.649381	-104.068057
7.600000	-1.567532	-108.109762	-9.849772	162.021408	-9.849772	162.021408	-1.571516	-108.809110
7.650000	-1.502798	-112.815864	-10.423868	156.919087	-10.423868	156.919087	-1.507022	-113.511736
7.700000	-1.449873	-117.488994	-11.003023	151.805347	-11.003023	151.805347	-1.454346	-118.182734
7.750000	-1.407415	-122.135991	-11.586250	146.665680	-11.586250	146.665680	-1.412148	-122.828869
7.800000	-1.374264	-126.763576	-12.172368	141.484782	-12.172368	141.484782	-1.379272	-127.456805
7.850000	-1.349422	-131.378307	-12.759898	136.246512	-12.759898	136.246512	-1.354721	-132.073061
7.900000	-1.332031	-135.986552	-13.346947	130.933856	-13.346947	130.933856	-1.337639	-136.683979
7.950000	-1.321357	-140.594475	-13.931067	125.528964	-13.931067	125.528964	-1.327296	-141.295711
8.000000	-1.316777	-145.208027	-14.509086	120.013279	-14.509086	120.013279	-1.323070	-145.914214
8.050000	-1.317764	-149.832952	-15.076929	114.367852	-15.076929	114.367852	-1.324440	-150.545255
8.100000	-1.323885	-154.474803	-15.629411	108.573906	-15.629411	108.573906	-1.330975	-155.194422
8.150000	-1.334840	-159.139264	-16.159379	102.611780	-16.159379	102.611780	-1.342383	-159.867472
8.200000	-1.350361	-163.831755	-16.658663	96.465909	-16.658663	96.465909	-1.358402	-164.569908
8.250000	-1.370226	-168.557183	-17.118230	90.127717	-17.118230	90.127717	-1.378818	-169.306726
8.300000	-1.394359	-173.320669	-17.526857	83.593773	-17.526857	83.593773	-1.403569	-174.083185
8.350000	-1.422669	-178.125991	-17.874493	76.875201	-17.874493	76.875201	-1.432573	-178.903180
8.400000	-1.455575	177.018689	-18.142455	69.978162	-18.142455	69.978162	-1.466276	176.224797
8.450000	-1.493263	172.109132	-18.319655	62.939408	-18.319655	62.939408	-1.504885	171.296283
8.500000	-1.536264	167.139222	-18.393178	55.800944	-18.393178	55.800944	-1.548964	166.304812
8.550000	-1.585383	162.102133	-18.351878	48.612316	-18.351878	48.612316	-1.599362	161.243109
8.600000	-1.641806	156.990029	-18.187200	41.423819	-18.187200	41.423819	-1.657323	156.102757
8.650000	-1.707245	151.793695	-17.893624	34.277672	-17.893624	34.277672	-1.724644	150.873788
8.700000	-1.784178	146.502093	-17.468607	27.198626	-17.468607	27.198626	-1.803915	145.544171
8.750000	-1.876205	141.101884	-16.912066	20.185435	-16.912066	20.185435	-1.898902	140.099244
8.800000	-1.989008	135.574952	-16.222777	13.203342	-16.222777	13.203342	-2.015553	134.518933
8.850000	-2.130465	129.904125	-15.405381	6.176728	-15.405381	6.176728	-2.162124	128.783654
8.900000	-2.312976	124.069779	-14.462650	-1.013776	-14.462650	-1.013776	-2.351644	122.870277
8.950000	-2.556026	118.057513	-13.398079	-8.540860	-13.398079	-8.540860	-2.604666	116.759470
9.000000	-2.890953	111.876306	-12.217555	-16.644021	-12.217555	-16.644021	-2.954450	110.453423
9.050000	-3.367280	105.607893	-10.936067	-25.636818	-10.936067	-25.636818	-3.454130	104.025823
9.100000	-4.070612	99.551347	-9.576128	-35.971853	-9.576128	-35.971853	-4.197200	97.769385
9.150000	-5.116457	94.611348	-8.203611	-48.152948	-8.203611	-48.152948	-5.315878	92.614722
9.200000	-6.574935	93.235379	-6.941011	-62.656262	-6.941011	-62.656262	-6.912141	91.212029
9.250000	-7.983681	99.818487	-5.984899	-79.495105	-5.984899	-79.495105	-8.509094	98.750874
9.300000	-7.853887	112.554021	-5.537512	-97.717901	-5.537512	-97.717901	-8.350475	113.497966
9.350000	-6.188285	118.597392	-5.664922	-115.539076	-5.664922	-115.539076	-6.469409	120.249999
9.400000	-4.551885	116.140487	-6.240294	-131.396771	-6.240294	-131.396771	-4.696568	117.579717
9.450000	-3.428571	110.116683	-7.056021	-144.752463	-7.056021	-144.752463	-3.507746	111.242231
9.500000	-2.712359	103.247801	-7.952432	-155.852944	-7.952432	-155.852944	-2.758676	104.121053
9.550000	-2.253495	96.479838	-8.842820	-165.177610	-8.842820	-165.177610	-2.281924	97.164923
9.600000	-1.949857	90.068497	-9.690792	-173.182935	-9.690792	-173.182935	-1.967789	90.612984
9.650000	-1.741622	84.046322	-10.484374	179.793592	-10.484374	179.793592	-1.753041	84.484310
9.700000	-1.592430	78.373023	-11.226186	173.494287	-11.226186	173.494287	-1.599595	78.728682
9.750000	-1.481398	73.001372	-11.922020	167.748152	-11.922020	167.748152	-1.485678	73.292452
9.800000	-1.395758	67.888548	-12.578900	162.436651	-12.578900	162.436651	-1.398018	68.128395
9.850000	-1.327494	62.999377	-13.203635	157.477736	-13.203635	157.477736	-1.328298	63.198260
9.900000	-1.271556	58.308379	-13.801398	152.818195	-13.801398	152.818195	-1.271280	58.474453
9.950000	-1.224538	53.794600	-14.376819	148.420140	-14.376819	148.420140	-1.223435	53.934427
10.000000	-1.183484	49.423054	-14.940089	144.230495	-14.940089	144.230495	-1.181706	49.541416
