! freq	dB(S11)	phase(S11)	dB(S12)	phase(S12)	
!     	dB(S21)	phase(S21)	dB(S22)	phase(S22)	
!S-par simulation data
#  GHz  S  DB  R 50
0.000000	-0.000000	0.000000	-334.991827	180.000000	-334.991827	180.000000	0.000000	0.000000
0.050000	-0.000227	-0.961021	-76.987282	-147.688124	-76.987282	-147.688124	-0.000164	-1.769974
0.100000	-0.000869	-1.921088	-75.306964	-172.801870	-75.306964	-172.801870	-0.000650	-3.539500
0.150000	-0.001843	-2.879477	-74.854440	172.428787	-74.854440	172.428787	-0.001452	-5.308127
0.200000	-0.003034	-3.835898	-74.618340	161.199448	-74.618340	161.199448	-0.002549	-7.075463
0.250000	-0.004347	-4.790308	-74.445679	151.737935	-74.445679	151.737935	-0.003923	-8.841109
0.300000	-0.005709	-5.742871	-74.298651	143.365502	-74.298651	143.365502	-0.005552	-10.604701
0.350000	-0.007076	-6.693826	-74.168853	135.785618	-74.168853	135.785618	-0.007408	-12.365911
0.400000	-0.008425	-7.643405	-74.056617	128.847170	-74.056617	128.847170	-0.009465	-14.124444
0.450000	-0.009746	-8.591799	-73.965036	122.462170	-73.965036	122.462170	-0.011693	-15.880039
0.500000	-0.011039	-9.539144	-73.897901	116.573256	-73.897901	116.573256	-0.014064	-17.632471
0.550000	-0.012310	-10.485529	-73.858946	111.139789	-73.858946	111.139789	-0.016551	-19.381543
0.600000	-0.013562	-11.431003	-73.851599	106.131649	-73.851599	106.131649	-0.019126	-21.127090
0.650000	-0.014801	-12.375578	-73.879367	101.530651	-73.879367	101.530651	-0.021768	-22.868925
0.700000	-0.016032	-13.319255	-73.945163	97.320714	-73.945163	97.320714	-0.024453	-24.606923
0.750000	-0.017259	-14.262029	-74.051263	93.488508	-74.051263	93.488508	-0.027163	-26.341020
0.800000	-0.018484	-15.203879	-74.200283	90.031819	-74.200283	90.031819	-0.029882	-28.071123
0.850000	-0.019709	-16.144779	-74.394891	86.956029	-74.394891	86.956029	-0.032595	-29.797150
0.900000	-0.020935	-17.084700	-74.637877	84.275508	-74.637877	84.275508	-0.035291	-31.519027
0.950000	-0.022163	-18.023612	-74.932165	82.015670	-74.932165	82.015670	-0.037962	-33.236685
1.000000	-0.023392	-18.961483	-75.280737	80.215935	-75.280737	80.215935	-0.040601	-34.950060
1.050000	-0.024622	-19.898285	-75.686407	78.933858	-75.686407	78.933858	-0.043201	-36.659088
1.100000	-0.025854	-20.833987	-76.151289	78.250769	-76.151289	78.250769	-0.045760	-38.363709
1.150000	-0.027086	-21.768561	-76.675755	78.279080	-76.675755	78.279080	-0.048275	-40.063863
1.200000	-0.028318	-22.701978	-77.256427	79.170776	-77.256427	79.170776	-0.050744	-41.759492
1.250000	-0.029549	-23.634213	-77.882539	81.124591	-77.882539	81.124591	-0.053166	-43.450538
1.300000	-0.030778	-24.565212	-78.528113	84.418719	-78.528113	84.418719	-0.055542	-45.136840
1.350000	-0.032006	-25.494975	-79.144431	89.286508	-79.144431	89.286508	-0.057873	-46.818444
1.400000	-0.033231	-26.423478	-79.650554	95.894106	-79.650554	95.894106	-0.060160	-48.495294
1.450000	-0.034454	-27.350698	-79.935955	104.133017	-79.935955	104.133017	-0.062406	-50.167338
1.500000	-0.035674	-28.276609	-79.892394	113.440537	-79.892394	113.440537	-0.064611	-51.834524
1.550000	-0.036890	-29.201191	-79.470737	122.856684	-79.470737	122.856684	-0.066779	-53.496804
1.600000	-0.038103	-30.124419	-78.713624	131.407766	-78.713624	131.407766	-0.068912	-55.154131
1.650000	-0.039313	-31.046272	-77.726143	138.500630	-77.726143	138.500630	-0.071012	-56.806464
1.700000	-0.040519	-31.966589	-76.600649	143.855356	-76.600649	143.855356	-0.073078	-58.453267
1.750000	-0.041722	-32.885609	-75.459464	147.928760	-75.459464	147.928760	-0.075119	-60.095437
1.800000	-0.042923	-33.803188	-74.329943	150.824218	-74.329943	150.824218	-0.077135	-61.732504
1.850000	-0.044120	-34.719307	-73.237989	152.788880	-73.237989	152.788880	-0.079128	-63.364441
1.900000	-0.045315	-35.633943	-72.194982	154.032173	-72.194982	154.032173	-0.081100	-64.991225
1.950000	-0.046509	-36.547077	-71.204250	154.718892	-71.204250	154.718892	-0.083053	-66.612837
2.000000	-0.047700	-37.458689	-70.264990	154.974725	-70.264990	154.974725	-0.084991	-68.229264
2.050000	-0.048890	-38.368759	-69.374454	154.894529	-69.374454	154.894529	-0.086914	-69.840495
2.100000	-0.050080	-39.277267	-68.529124	154.549893	-68.529124	154.549893	-0.088825	-71.446528
2.150000	-0.051269	-40.184195	-67.725303	153.995134	-67.725303	153.995134	-0.090727	-73.047363
2.200000	-0.052458	-41.089524	-66.959422	153.271785	-66.959422	153.271785	-0.092620	-74.643005
2.250000	-0.053648	-41.993235	-66.228161	152.411889	-66.228161	152.411889	-0.094507	-76.233466
2.300000	-0.054840	-42.895310	-65.528503	151.440393	-65.528503	151.440393	-0.096390	-77.818763
2.350000	-0.056033	-43.795733	-64.857735	150.376892	-64.857735	150.376892	-0.098270	-79.398916
2.400000	-0.057228	-44.694486	-64.213436	149.236908	-64.213436	149.236908	-0.100149	-80.973952
2.450000	-0.058426	-45.591552	-63.593446	148.032835	-63.593446	148.032835	-0.102028	-82.543902
2.500000	-0.059628	-46.486916	-62.995844	146.774644	-62.995844	146.774644	-0.103910	-84.108804
2.550000	-0.060834	-47.380486	-62.418143	145.468713	-62.418143	145.468713	-0.105795	-85.668483
2.600000	-0.062045	-48.272322	-61.859683	144.123795	-61.859683	144.123795	-0.107685	-87.223206
2.650000	-0.063261	-49.162409	-61.319091	142.745154	-61.319091	142.745154	-0.109582	-88.773026
2.700000	-0.064483	-50.050733	-60.795138	141.337139	-60.795138	141.337139	-0.111486	-90.318000
2.750000	-0.065711	-50.937281	-60.286724	139.903363	-60.286724	139.903363	-0.113399	-91.858189
2.800000	-0.066945	-51.822040	-59.792863	138.446838	-59.792863	138.446838	-0.115323	-93.393660
2.850000	-0.068188	-52.704999	-59.312665	136.970090	-59.312665	136.970090	-0.117258	-94.924484
2.900000	-0.069438	-53.586145	-58.845329	135.475243	-58.845329	135.475243	-0.119205	-96.450737
2.950000	-0.070697	-54.465468	-58.390130	133.964094	-58.390130	133.964094	-0.121166	-97.972499
3.000000	-0.071965	-55.342959	-57.946412	132.438167	-57.946412	132.438167	-0.123142	-99.489853
3.050000	-0.073242	-56.218606	-57.513580	130.898763	-57.513580	130.898763	-0.125133	-101.002888
3.100000	-0.074530	-57.092401	-57.091093	129.346999	-57.091093	129.346999	-0.127142	-102.511697
3.150000	-0.075828	-57.964337	-56.678457	127.783836	-56.678457	127.783836	-0.129167	-104.016377
3.200000	-0.077137	-58.834405	-56.275223	126.210109	-56.275223	126.210109	-0.131212	-105.517027
3.250000	-0.078458	-59.702599	-55.880979	124.626548	-55.880979	124.626548	-0.133276	-107.013752
3.300000	-0.079791	-60.568912	-55.495349	123.033796	-55.495349	123.033796	-0.135361	-108.506660
3.350000	-0.081137	-61.433339	-55.117987	121.432422	-55.117987	121.432422	-0.137467	-109.995862
3.400000	-0.082496	-62.295874	-54.748576	119.822938	-54.748576	119.822938	-0.139596	-111.481474
3.450000	-0.083869	-63.156515	-54.386824	118.205805	-54.386824	118.205805	-0.141747	-112.963613
3.500000	-0.085255	-64.015256	-54.032462	116.581445	-54.032462	116.581445	-0.143923	-114.442402
3.550000	-0.086657	-64.872096	-53.685242	114.950251	-53.685242	114.950251	-0.146123	-115.917966
3.600000	-0.088073	-65.727032	-53.344933	113.312585	-53.344933	113.312585	-0.148349	-117.390431
3.650000	-0.089505	-66.580062	-53.011322	111.668791	-53.011322	111.668791	-0.150601	-118.859930
3.700000	-0.090953	-67.431187	-52.684211	110.019199	-52.684211	110.019199	-0.152879	-120.326597
3.750000	-0.092418	-68.280404	-52.363416	108.364122	-52.363416	108.364122	-0.155186	-121.790568
3.800000	-0.093900	-69.127633	-52.048539	106.703657	-52.048539	106.703657	-0.157522	-123.251879
3.850000	-0.095400	-69.972958	-51.739669	105.038340	-51.739669	105.038340	-0.159888	-124.710789
3.900000	-0.096918	-70.816379	-51.436653	103.368465	-51.436653	103.368465	-0.162283	-126.167444
3.950000	-0.098454	-71.657901	-51.139349	101.694323	-51.139349	101.694323	-0.164708	-127.621991
4.000000	-0.100009	-72.497526	-50.847621	100.016201	-50.847621	100.016201	-0.167164	-129.074581
4.050000	-0.101584	-73.335257	-50.561342	98.334388	-50.561342	98.334388	-0.169652	-130.525366
4.100000	-0.103178	-74.171100	-50.280392	96.649170	-50.280392	96.649170	-0.172172	-131.974501
4.150000	-0.104793	-75.005059	-50.004654	94.960834	-50.004654	94.960834	-0.174725	-133.422143
4.200000	-0.106428	-75.837141	-49.734018	93.269664	-49.734018	93.269664	-0.177311	-134.868452
4.250000	-0.108084	-76.667351	-49.468379	91.575946	-49.468379	91.575946	-0.179930	-136.313588
4.300000	-0.109762	-77.495697	-49.207636	89.879965	-49.207636	89.879965	-0.182584	-137.757715
4.350000	-0.111463	-78.322185	-48.951691	88.182004	-48.951691	88.182004	-0.185272	-139.200998
4.400000	-0.113185	-79.146826	-48.700449	86.482345	-48.700449	86.482345	-0.187995	-140.643605
4.450000	-0.114931	-79.969626	-48.453819	84.781267	-48.453819	84.781267	-0.190754	-142.085703
4.500000	-0.116700	-80.790595	-48.211711	83.079046	-48.211711	83.079046	-0.193548	-143.527465
4.550000	-0.118494	-81.609744	-47.974040	81.375955	-47.974040	81.375955	-0.196378	-144.969063
4.600000	-0.120311	-82.427083	-47.740719	79.672263	-47.740719	79.672263	-0.199245	-146.410670
4.650000	-0.122153	-83.242623	-47.511666	77.968233	-47.511666	77.968233	-0.202148	-147.852463
4.700000	-0.124021	-84.056375	-47.286799	76.264121	-47.286799	76.264121	-0.205089	-149.294619
4.750000	-0.125914	-84.868352	-47.066040	74.560179	-47.066040	74.560179	-0.208067	-150.737316
4.800000	-0.127833	-85.678566	-46.849308	72.856650	-46.849308	72.856650	-0.211082	-152.180736
4.850000	-0.129779	-86.487031	-46.636528	71.153766	-46.636528	71.153766	-0.214135	-153.625060
4.900000	-0.131752	-87.293761	-46.427623	69.451756	-46.427623	69.451756	-0.217226	-155.070470
4.950000	-0.133753	-88.098769	-46.222518	67.750833	-46.222518	67.750833	-0.220354	-156.517152
5.000000	-0.135781	-88.902071	-46.021140	66.051205	-46.021140	66.051205	-0.223521	-157.965292
5.050000	-0.137839	-89.703609	-45.823381	64.353140	-45.823381	64.353140	-0.226728	-159.415156
5.100000	-0.139927	-90.503473	-45.629213	62.656764	-45.629213	62.656764	-0.229973	-160.866869
5.150000	-0.142043	-91.301680	-45.438565	60.962247	-45.438565	60.962247	-0.233256	-162.320620
5.200000	-0.144189	-92.098246	-45.251370	59.269750	-45.251370	59.269750	-0.236577	-163.776601
5.250000	-0.146365	-92.893189	-45.067558	57.579418	-45.067558	57.579418	-0.239937	-165.235001
5.300000	-0.148572	-93.686527	-44.887063	55.891388	-44.887063	55.891388	-0.243335	-166.696015
5.350000	-0.150811	-94.478277	-44.709821	54.205783	-44.709821	54.205783	-0.246771	-168.159833
5.400000	-0.153080	-95.268459	-44.535769	52.522714	-44.535769	52.522714	-0.250245	-169.626652
5.450000	-0.155382	-96.057092	-44.364845	50.842280	-44.364845	50.842280	-0.253757	-171.096664
5.500000	-0.157716	-96.844196	-44.196989	49.164571	-44.196989	49.164571	-0.257307	-172.570066
5.550000	-0.160083	-97.629790	-44.032143	47.489665	-44.032143	47.489665	-0.260894	-174.047053
5.600000	-0.162484	-98.413895	-43.870253	45.817627	-43.870253	45.817627	-0.264518	-175.527822
5.650000	-0.164918	-99.196532	-43.711263	44.148516	-43.711263	44.148516	-0.268179	-177.012570
5.700000	-0.167387	-99.977722	-43.555122	42.482380	-43.555122	42.482380	-0.271876	-178.501493
5.750000	-0.169890	-100.757487	-43.401782	40.819258	-43.401782	40.819258	-0.275610	-179.994790
5.800000	-0.172428	-101.535850	-43.251194	39.159183	-43.251194	39.159183	-0.279380	178.507342
5.850000	-0.175001	-102.312833	-43.103313	37.502180	-43.103313	37.502180	-0.283185	177.004705
5.900000	-0.177611	-103.088458	-42.958098	35.848268	-42.958098	35.848268	-0.287026	175.497101
5.950000	-0.180257	-103.862750	-42.815507	34.197462	-42.815507	34.197462	-0.290900	173.984333
6.000000	-0.182940	-104.635732	-42.675504	32.549774	-42.675504	32.549774	-0.294809	172.466203
6.050000	-0.185660	-105.407428	-42.538053	30.905211	-42.538053	30.905211	-0.298752	170.942514
6.100000	-0.188418	-106.177863	-42.403122	29.263779	-42.403122	29.263779	-0.302728	169.413070
6.150000	-0.191214	-106.947062	-42.270679	27.625487	-42.270679	27.625487	-0.306735	167.877674
6.200000	-0.194048	-107.715050	-42.140698	25.990339	-42.140698	25.990339	-0.310775	166.336132
6.250000	-0.196921	-108.481852	-42.013152	24.358346	-42.013152	24.358346	-0.314846	164.788249
6.300000	-0.199835	-109.247447	-41.888047	22.729659	-41.888047	22.729659	-0.318948	163.233539
6.350000	-0.202789	-110.011910	-41.765338	21.104157	-41.765338	21.104157	-0.323080	161.672085
6.400000	-0.205783	-110.775271	-41.645007	19.481865	-41.645007	19.481865	-0.327241	160.103699
6.450000	-0.208818	-111.537555	-41.527038	17.862813	-41.527038	17.862813	-0.331430	158.528190
6.500000	-0.211894	-112.298790	-41.411417	16.247041	-41.411417	16.247041	-0.335646	156.945373
6.550000	-0.215011	-113.059005	-41.298131	14.634596	-41.298131	14.634596	-0.339888	155.355062
6.600000	-0.218170	-113.818226	-41.187170	13.025539	-41.187170	13.025539	-0.344157	153.757077
6.650000	-0.221371	-114.576484	-41.078526	11.419940	-41.078526	11.419940	-0.348449	152.151236
6.700000	-0.224614	-115.333807	-40.972190	9.817883	-40.972190	9.817883	-0.352766	150.537362
6.750000	-0.227900	-116.090224	-40.868157	8.219466	-40.868157	8.219466	-0.357105	148.915283
6.800000	-0.231230	-116.845765	-40.766423	6.624800	-40.766423	6.624800	-0.361466	147.284827
6.850000	-0.234603	-117.600459	-40.666983	5.034012	-40.666983	5.034012	-0.365848	145.645828
6.900000	-0.238021	-118.354338	-40.569833	3.447247	-40.569833	3.447247	-0.370250	143.998123
6.950000	-0.241482	-119.107432	-40.474973	1.864663	-40.474973	1.864663	-0.374671	142.341552
7.000000	-0.244989	-119.859771	-40.382398	0.286440	-40.382398	0.286440	-0.379110	140.675961
7.050000	-0.248540	-120.611388	-40.292106	-1.287229	-40.292106	-1.287229	-0.383565	139.001202
7.100000	-0.252137	-121.362314	-40.204096	-2.856130	-40.204096	-2.856130	-0.388037	137.317130
7.150000	-0.255780	-122.112581	-40.118363	-4.420033	-40.118363	-4.420033	-0.392523	135.623607
7.200000	-0.259468	-122.862220	-40.034904	-5.978686	-40.034904	-5.978686	-0.397023	133.920499
7.250000	-0.263204	-123.611266	-39.953715	-7.531824	-39.953715	-7.531824	-0.401536	132.207682
7.300000	-0.266985	-124.359752	-39.874789	-9.079161	-39.874789	-9.079161	-0.406061	130.485035
7.350000	-0.270814	-125.107709	-39.798119	-10.620394	-39.798119	-10.620394	-0.410596	128.752446
7.400000	-0.274691	-125.855173	-39.723695	-12.155202	-39.723695	-12.155202	-0.415142	127.009810
7.450000	-0.278614	-126.602177	-39.651507	-13.683249	-39.651507	-13.683249	-0.419696	125.257031
7.500000	-0.282586	-127.348756	-39.581540	-15.204182	-39.581540	-15.204182	-0.424259	123.494021
7.550000	-0.286608	-128.094929	-39.513852	-16.717292	-39.513852	-16.717292	-0.428828	121.720248
7.600000	-0.290679	-128.840750	-39.448353	-18.222503	-39.448353	-18.222503	-0.433405	119.936089
7.650000	-0.294798	-129.586255	-39.385019	-19.719420	-39.385019	-19.719420	-0.437986	118.141485
7.700000	-0.298967	-130.331479	-39.323827	-21.207635	-39.323827	-21.207635	-0.442573	116.336388
7.750000	-0.303182	-131.076471	-39.264654	-22.687242	-39.264654	-22.687242	-0.447164	114.521332
7.800000	-0.307449	-131.821242	-39.207635	-24.156924	-39.207635	-24.156924	-0.451758	112.695262
7.850000	-0.311765	-132.565842	-39.152660	-25.616638	-39.152660	-25.616638	-0.456356	110.858619
7.900000	-0.316132	-133.310308	-39.099690	-27.065943	-39.099690	-27.065943	-0.460957	109.011400
7.950000	-0.320549	-134.054678	-39.048683	-28.504396	-39.048683	-28.504396	-0.465560	107.153616
8.000000	-0.325016	-134.798988	-38.999589	-29.931551	-38.999589	-29.931551	-0.470166	105.285288
8.050000	-0.329534	-135.543279	-38.952359	-31.346959	-38.952359	-31.346959	-0.474774	103.406454
8.100000	-0.334103	-136.287589	-38.906937	-32.750172	-38.906937	-32.750172	-0.479384	101.517164
8.150000	-0.338723	-137.031958	-38.863279	-34.140603	-38.863279	-34.140603	-0.483997	99.617369
8.200000	-0.343395	-137.776427	-38.821320	-35.517795	-38.821320	-35.517795	-0.488613	97.707153
8.250000	-0.348119	-138.521035	-38.780976	-36.881448	-38.780976	-36.881448	-0.493233	95.786725
8.300000	-0.352894	-139.265823	-38.742173	-38.231131	-38.742173	-38.231131	-0.497857	93.856195
8.350000	-0.357720	-140.010833	-38.704836	-39.566423	-38.704836	-39.566423	-0.502485	91.915690
8.400000	-0.362599	-140.756104	-38.668885	-40.886911	-38.668885	-40.886911	-0.507120	89.965354
8.450000	-0.367529	-141.501679	-38.634234	-42.192191	-38.634234	-42.192191	-0.511762	88.005345
8.500000	-0.372511	-142.247600	-38.600796	-43.481872	-38.600796	-43.481872	-0.516412	86.035840
8.550000	-0.377546	-142.993910	-38.568478	-44.755576	-38.568478	-44.755576	-0.521072	84.057032
8.600000	-0.382632	-143.740651	-38.537185	-46.012936	-38.537185	-46.012936	-0.525744	82.069130
8.650000	-0.387771	-144.487866	-38.506818	-47.253603	-38.506818	-47.253603	-0.530431	80.072360
8.700000	-0.392962	-145.235600	-38.477272	-48.477240	-38.477272	-48.477240	-0.535133	78.066967
8.750000	-0.398206	-145.983897	-38.448442	-49.683525	-38.448442	-49.683525	-0.539853	76.053211
8.800000	-0.403503	-146.732816	-38.420226	-50.871764	-38.420226	-50.871764	-0.544595	74.031201
8.850000	-0.408852	-147.482390	-38.392497	-52.042045	-38.392497	-52.042045	-0.549362	72.001415
8.900000	-0.414254	-148.232665	-38.365139	-53.194098	-38.365139	-53.194098	-0.554155	69.964165
8.950000	-0.419708	-148.983687	-38.338031	-54.327668	-38.338031	-54.327668	-0.558979	67.919780
9.000000	-0.425215	-149.735502	-38.311049	-55.442516	-38.311049	-55.442516	-0.563837	65.868606
9.050000	-0.430774	-150.488157	-38.284069	-56.538420	-38.284069	-56.538420	-0.568733	63.811004
9.100000	-0.436385	-151.241701	-38.256960	-57.615175	-38.256960	-57.615175	-0.573671	61.747350
9.150000	-0.442048	-151.996182	-38.229589	-58.672590	-38.229589	-58.672590	-0.578655	59.678035
9.200000	-0.447764	-152.751648	-38.201822	-59.710491	-38.201822	-59.710491	-0.583690	57.603465
9.250000	-0.453531	-153.508149	-38.173518	-60.728718	-38.173518	-60.728718	-0.588780	55.524059
9.300000	-0.459350	-154.265734	-38.144537	-61.727125	-38.144537	-61.727125	-0.593930	53.440252
9.350000	-0.465222	-155.024453	-38.114733	-62.705581	-38.114733	-62.705581	-0.599144	51.352487
9.400000	-0.471145	-155.784372	-38.083943	-63.663746	-38.083943	-63.663746	-0.604430	49.261189
9.450000	-0.477120	-156.545542	-38.052009	-64.601512	-38.052009	-64.601512	-0.609793	47.166842
9.500000	-0.483146	-157.308004	-38.018785	-65.519002	-38.018785	-65.519002	-0.615237	45.069962
9.550000	-0.489224	-158.071809	-37.984112	-66.416132	-37.984112	-66.416132	-0.620768	42.971037
9.600000	-0.495352	-158.837012	-37.947824	-67.292829	-37.947824	-67.292829	-0.626391	40.870562
9.650000	-0.501531	-159.603665	-37.909750	-68.149026	-37.909750	-68.149026	-0.632114	38.769040
9.700000	-0.507759	-160.371823	-37.869717	-68.984665	-37.869717	-68.984665	-0.637941	36.666980
9.750000	-0.514038	-161.141541	-37.827543	-69.799697	-37.827543	-69.799697	-0.643879	34.564894
9.800000	-0.520367	-161.912875	-37.783042	-70.594074	-37.783042	-70.594074	-0.649934	32.463300
9.850000	-0.526744	-162.685880	-37.736022	-71.367755	-37.736022	-71.367755	-0.656112	30.362718
9.900000	-0.533171	-163.460614	-37.686282	-72.120704	-37.686282	-72.120704	-0.662420	28.263670
9.950000	-0.539646	-164.237134	-37.633617	-72.852885	-37.633617	-72.852885	-0.668862	26.166678
10.000000	-0.546170	-165.015499	-37.577809	-73.564262	-37.577809	-73.564262	-0.675447	24.072264
