! freq	dB(S11)	phase(S11)	dB(S12)	phase(S12)	
!     	dB(S21)	phase(S21)	dB(S22)	phase(S22)	
!S-par simulation data
#  GHz  S  DB  R 50
0.000000	-86.212403	0.000000	-0.000425	0.000000	-0.000425	0.000000	-86.212403	0.000000
0.050000	-36.262388	-92.728790	-0.004000	-2.778631	-0.004000	-2.778631	-36.260753	-92.553132
0.100000	-30.252711	-95.729487	-0.012579	-5.535222	-0.012579	-5.535222	-30.250899	-95.378319
0.150000	-26.748876	-98.662490	-0.023243	-8.270986	-0.023243	-8.270986	-26.746793	-98.136176
0.200000	-24.274387	-101.571296	-0.034974	-10.995020	-0.034974	-10.995020	-24.271979	-100.870265
0.250000	-22.367074	-104.462188	-0.047835	-13.712481	-0.047835	-13.712481	-22.364318	-103.586870
0.300000	-20.820795	-107.336164	-0.062069	-16.425258	-0.062069	-16.425258	-20.817703	-106.286890
0.350000	-19.524634	-110.193697	-0.077776	-19.133598	-0.077776	-19.133598	-19.521256	-108.970607
0.400000	-18.412776	-113.034439	-0.095024	-21.836871	-0.095024	-21.836871	-18.409180	-111.637435
0.450000	-17.443313	-115.857543	-0.113876	-24.533947	-0.113876	-24.533947	-17.439583	-114.286236
0.500000	-16.586120	-118.664077	-0.134209	-27.224255	-0.134209	-27.224255	-16.582335	-116.917820
0.550000	-15.820318	-121.454472	-0.155952	-29.907009	-0.155952	-29.907009	-15.816546	-119.532382
0.600000	-15.131136	-124.228650	-0.179075	-32.581082	-0.179075	-32.581082	-15.127430	-122.129591
0.650000	-14.506218	-126.988003	-0.203431	-35.246132	-0.203431	-35.246132	-14.502607	-124.710729
0.700000	-13.936260	-129.733554	-0.228901	-37.901740	-0.228901	-37.901740	-13.932750	-127.276752
0.750000	-13.414410	-132.465823	-0.255400	-40.547173	-0.255400	-40.547173	-13.410984	-129.828102
0.800000	-12.934745	-135.185792	-0.282805	-43.182110	-0.282805	-43.182110	-12.931373	-132.365770
0.850000	-12.492313	-137.894487	-0.310982	-45.806428	-0.310982	-45.806428	-12.488951	-134.890837
0.900000	-12.083123	-140.592728	-0.339809	-48.419990	-0.339809	-48.419990	-12.079728	-137.404163
0.950000	-11.703918	-143.281172	-0.369167	-51.022666	-0.369167	-51.022666	-11.700445	-139.906440
1.000000	-11.351903	-145.960434	-0.398935	-53.614440	-0.398935	-53.614440	-11.348316	-142.398303
1.050000	-11.024694	-148.631036	-0.428995	-56.195363	-0.428995	-56.195363	-11.020969	-144.880271
1.100000	-10.720241	-151.293416	-0.459229	-58.765549	-0.459229	-58.765549	-10.716367	-147.352750
1.150000	-10.436764	-153.947937	-0.489522	-61.325172	-0.489522	-61.325172	-10.432745	-149.816040
1.200000	-10.172708	-156.594897	-0.519764	-63.874457	-0.519764	-63.874457	-10.168560	-152.270348
1.250000	-9.926698	-159.234545	-0.549848	-66.413683	-0.549848	-66.413683	-9.922450	-154.715808
1.300000	-9.697734	-161.866945	-0.579661	-68.942968	-0.579661	-68.942968	-9.693426	-157.152311
1.350000	-9.484497	-164.492443	-0.609111	-71.462896	-0.609111	-71.462896	-9.480173	-159.580091
1.400000	-9.286003	-167.111222	-0.638105	-73.973872	-0.638105	-73.973872	-9.281709	-161.999180
1.450000	-9.101363	-169.723466	-0.666556	-76.476334	-0.666556	-76.476334	-9.097144	-164.409616
1.500000	-8.929766	-172.329372	-0.694380	-78.970747	-0.694380	-78.970747	-8.925664	-166.811456
1.550000	-8.770471	-174.929160	-0.721501	-81.457607	-0.721501	-81.457607	-8.766521	-169.204795
1.600000	-8.622799	-177.523081	-0.747848	-83.937430	-0.747848	-83.937430	-8.619028	-171.589771
1.650000	-8.486123	179.888582	-0.773354	-86.410754	-0.773354	-86.410754	-8.482549	-173.966576
1.700000	-8.360665	177.305988	-0.797861	-88.877599	-0.797861	-88.877599	-8.357296	-176.334708
1.750000	-8.244349	174.727814	-0.821496	-91.339608	-0.821496	-91.339608	-8.241182	-178.695935
1.800000	-8.137412	172.154113	-0.844128	-93.796835	-0.844128	-93.796835	-8.134435	178.950068
1.850000	-8.039394	169.584436	-0.865714	-96.249870	-0.865714	-96.249870	-8.036587	176.602873
1.900000	-7.949865	167.018294	-0.886215	-98.699308	-0.886215	-98.699308	-7.947203	174.261999
1.950000	-7.868430	164.455161	-0.905601	-101.145748	-0.905601	-101.145748	-7.865882	171.926916
2.000000	-7.794719	161.894476	-0.923845	-103.589793	-0.923845	-103.589793	-7.792251	169.597051
2.050000	-7.728390	159.335650	-0.940925	-106.032042	-0.940925	-106.032042	-7.725967	167.271794
2.100000	-7.669125	156.778067	-0.956826	-108.473096	-0.956826	-108.473096	-7.666711	164.950505
2.150000	-7.616630	154.221096	-0.971537	-110.913548	-0.971537	-110.913548	-7.614193	162.632520
2.200000	-7.570633	151.664087	-0.985051	-113.353987	-0.985051	-113.353987	-7.568142	160.317159
2.250000	-7.530880	149.106385	-0.997367	-115.794995	-0.997367	-115.794995	-7.528312	158.003733
2.300000	-7.497139	146.547331	-1.008488	-118.237144	-1.008488	-118.237144	-7.494473	155.691545
2.350000	-7.469194	143.986269	-1.018422	-120.680996	-1.018422	-120.680996	-7.466417	153.379902
2.400000	-7.446845	141.422555	-1.027180	-123.127099	-1.027180	-123.127099	-7.443951	151.068118
2.450000	-7.429908	138.855556	-1.034779	-125.575992	-1.034779	-125.575992	-7.426897	148.755516
2.500000	-7.418212	136.284659	-1.041237	-128.028194	-1.041237	-128.028194	-7.415091	146.441435
2.550000	-7.411812	133.709059	-1.046530	-130.484403	-1.046530	-130.484403	-7.408595	144.125108
2.600000	-7.410334	131.128370	-1.050736	-132.944962	-1.050736	-132.944962	-7.407043	141.805981
2.650000	-7.413641	128.542075	-1.053884	-135.410340	-1.053884	-135.410340	-7.410300	139.483456
2.700000	-7.421604	125.949696	-1.056008	-137.880989	-1.056008	-137.880989	-7.418242	137.156959
2.750000	-7.434099	123.350794	-1.057144	-140.357340	-1.057144	-140.357340	-7.430751	134.825940
2.800000	-7.451010	120.744976	-1.057330	-142.839807	-1.057330	-142.839807	-7.447711	132.489873
2.850000	-7.472223	118.131898	-1.056607	-145.328779	-1.056607	-145.328779	-7.469012	130.148257
2.900000	-7.497629	115.511262	-1.055018	-147.824628	-1.055018	-147.824628	-7.494545	127.800612
2.950000	-7.527119	112.882825	-1.052608	-150.327702	-1.052608	-150.327702	-7.524201	125.446480
3.000000	-7.560585	110.246391	-1.049423	-152.838329	-1.049423	-152.838329	-7.557871	123.085422
3.050000	-7.597919	107.601821	-1.045512	-155.356815	-1.045512	-155.356815	-7.595447	120.717014
3.100000	-7.639009	104.949027	-1.040923	-157.883441	-1.040923	-157.883441	-7.636814	118.340847
3.150000	-7.683743	102.287972	-1.035706	-160.418470	-1.035706	-160.418470	-7.681859	115.956525
3.200000	-7.732002	99.618675	-1.029912	-162.962140	-1.029912	-162.962140	-7.730461	113.563659
3.250000	-7.783665	96.941202	-1.023593	-165.514668	-1.023593	-165.514668	-7.782495	111.161864
3.300000	-7.838602	94.255673	-1.016799	-168.076249	-1.016799	-168.076249	-7.837830	108.750757
3.350000	-7.896681	91.562255	-1.009583	-170.647059	-1.009583	-170.647059	-7.896331	106.329955
3.400000	-7.957757	88.861161	-1.001995	-173.227250	-1.001995	-173.227250	-7.957853	103.899070
3.450000	-8.021683	86.152652	-0.994087	-175.816956	-0.994087	-175.816956	-8.022246	101.457703
3.500000	-8.088300	83.437031	-0.985908	-178.416290	-0.985908	-178.416290	-8.089351	99.005449
3.550000	-8.157441	80.714642	-0.977510	178.974653	-0.977510	178.974653	-8.159000	96.541886
3.600000	-8.228931	77.985869	-0.968940	176.355796	-0.968940	176.355796	-8.231020	94.066577
3.650000	-8.302585	75.251132	-0.960246	173.727078	-0.960246	173.727078	-8.305226	91.579067
3.700000	-8.378209	72.510887	-0.951475	171.088456	-0.951475	171.088456	-8.381427	89.078882
3.750000	-8.455601	69.765620	-0.942670	168.439900	-0.942670	168.439900	-8.459421	86.565527
3.800000	-8.534573	67.015680	-0.933878	165.780961	-0.933878	165.780961	-8.539027	84.037864
3.850000	-8.614857	64.261832	-0.925142	163.112072	-0.925142	163.112072	-8.619976	81.495924
3.900000	-8.696223	61.504651	-0.916502	160.433240	-0.916502	160.433240	-8.702045	78.939144
3.950000	-8.778433	58.744730	-0.907995	157.744485	-0.907995	157.744485	-8.784998	76.366943
4.000000	-8.861242	55.982682	-0.899657	155.045835	-0.899657	155.045835	-8.868595	73.778718
4.050000	-8.944400	53.219138	-0.891522	152.337325	-0.891522	152.337325	-8.952589	71.173854
4.100000	-9.027649	50.454738	-0.883622	149.618994	-0.883622	149.618994	-9.036724	68.551722
4.150000	-9.110726	47.690132	-0.875987	146.890887	-0.875987	146.890887	-9.120743	65.911684
4.200000	-9.193366	44.925976	-0.868646	144.153052	-0.868646	144.153052	-9.204380	63.253096
4.250000	-9.275297	42.162924	-0.861623	141.405539	-0.861623	141.405539	-9.287369	60.575316
4.300000	-9.356249	39.401626	-0.854943	138.648398	-0.854943	138.648398	-9.369437	57.877706
4.350000	-9.435947	36.642721	-0.848629	135.881678	-0.848629	135.881678	-9.450312	55.159640
4.400000	-9.514120	33.886828	-0.842700	133.105427	-0.842700	133.105427	-9.529721	52.420510
4.450000	-9.590495	31.134547	-0.837175	130.319690	-0.837175	130.319690	-9.607391	49.659729
4.500000	-9.664803	28.386442	-0.832071	127.524508	-0.832071	127.524508	-9.683052	46.876743
4.550000	-9.736779	25.643039	-0.827403	124.719919	-0.827403	124.719919	-9.756435	44.071035
4.600000	-9.806165	22.904814	-0.823184	121.905952	-0.823184	121.905952	-9.827280	41.242131
4.650000	-9.872707	20.172186	-0.819428	119.082632	-0.819428	119.082632	-9.895331	38.389607
4.700000	-9.936164	17.445508	-0.816146	116.249977	-0.816146	116.249977	-9.960340	35.513098
4.750000	-9.996302	14.725055	-0.813346	113.407997	-0.813346	113.407997	-10.022074	32.612301
4.800000	-10.052901	12.011016	-0.811037	110.556692	-0.811037	110.556692	-10.080307	29.686981
4.850000	-10.105754	9.303486	-0.809228	107.696056	-0.809228	107.696056	-10.134830	26.736976
4.900000	-10.154672	6.602454	-0.807924	104.826071	-0.807924	104.826071	-10.185452	23.762200
4.950000	-10.199483	3.907801	-0.807131	101.946711	-0.807131	101.946711	-10.231996	20.762649
5.000000	-10.240035	1.219289	-0.806855	99.057939	-0.806855	99.057939	-10.274309	17.738399
5.050000	-10.275995	-1.463217	-0.807121	96.159292	-0.807121	96.159292	-10.312057	14.688551
5.100000	-10.307454	-4.140489	-0.807910	93.251119	-0.807910	93.251119	-10.345328	11.614432
5.150000	-10.334334	-6.813160	-0.809226	90.333349	-0.809226	90.333349	-10.374039	8.516373
5.200000	-10.356583	-9.481992	-0.811070	87.405895	-0.811070	87.405895	-10.398138	5.394778
5.250000	-10.374177	-12.147869	-0.813443	84.468660	-0.813443	84.468660	-10.417596	2.250127
5.300000	-10.387123	-14.811797	-0.816345	81.521533	-0.816345	81.521533	-10.432414	-0.917038
5.350000	-10.395454	-17.474894	-0.819778	78.564389	-0.819778	78.564389	-10.442621	-4.106115
5.400000	-10.399237	-20.138384	-0.823739	75.597086	-0.823739	75.597086	-10.448274	-7.316452
5.450000	-10.398566	-22.803584	-0.828229	72.619467	-0.828229	72.619467	-10.449458	-10.547354
5.500000	-10.393565	-25.471899	-0.833245	69.631358	-0.833245	69.631358	-10.446286	-13.798095
5.550000	-10.384387	-28.144809	-0.838785	66.632567	-0.838785	66.632567	-10.438897	-17.067924
5.600000	-10.371210	-30.823859	-0.844845	63.622878	-0.844845	63.622878	-10.427455	-20.356080
5.650000	-10.354240	-33.510646	-0.851423	60.602058	-0.851423	60.602058	-10.412147	-23.661798
5.700000	-10.333702	-36.206818	-0.858513	57.569846	-0.858513	57.569846	-10.393181	-26.984321
5.750000	-10.309844	-38.914057	-0.866110	54.525958	-0.866110	54.525958	-10.370783	-30.322914
5.800000	-10.282930	-41.634082	-0.874210	51.470080	-0.874210	51.470080	-10.345197	-33.676868
5.850000	-10.253387	-44.367668	-0.882779	48.402611	-0.882779	48.402611	-10.316836	-37.044707
5.900000	-10.221271	-47.117808	-0.891850	45.322157	-0.891850	45.322157	-10.285721	-40.427001
5.950000	-10.186786	-49.887607	-0.901442	42.227488	-0.901442	42.227488	-10.252015	-43.823890
6.000000	-10.150535	-52.676359	-0.911486	39.119947	-0.911486	39.119947	-10.216323	-47.233077
6.050000	-10.112676	-55.487559	-0.922011	35.997967	-0.922011	35.997967	-10.178757	-50.655130
6.100000	-10.073548	-58.322712	-0.933001	32.861273	-0.933001	32.861273	-10.139634	-54.089463
6.150000	-10.033500	-61.182850	-0.944433	29.709844	-0.944433	29.709844	-10.099282	-57.535353
6.200000	-9.992736	-64.072673	-0.956345	26.541508	-0.956345	26.541508	-10.057838	-60.993781
6.250000	-9.951645	-66.989817	-0.968666	23.358077	-0.968666	23.358077	-10.015715	-64.462855
6.300000	-9.910418	-69.943290	-0.981486	20.155112	-0.981486	20.155112	-9.972974	-67.945106
6.350000	-9.869360	-72.928436	-0.994714	16.935517	-0.994714	16.935517	-9.929974	-71.438157
6.400000	-9.828721	-75.953345	-1.008421	13.695466	-1.008421	13.695466	-9.886836	-74.944104
6.450000	-9.788693	-79.017017	-1.022572	10.435833	-1.022572	10.435833	-9.843756	-78.462108
6.500000	-9.749495	-82.123958	-1.037197	7.154697	-1.037197	7.154697	-9.800870	-81.993113
6.550000	-9.711314	-85.278163	-1.052323	3.850413	-1.052323	3.850413	-9.758288	-85.537940
6.600000	-9.674221	-88.479259	-1.067936	0.523469	-1.067936	0.523469	-9.716074	-89.096183
6.650000	-9.638467	-91.737879	-1.084139	-2.830933	-1.084139	-2.830933	-9.674288	-92.670605
6.700000	-9.603924	-95.048330	-1.100879	-6.209795	-1.100879	-6.209795	-9.632888	-96.259410
6.750000	-9.570846	-98.426376	-1.118324	-9.620216	-1.118324	-9.620216	-9.591848	-99.866768
6.800000	-9.538996	-101.865638	-1.136430	-13.058928	-1.136430	-13.058928	-9.551040	-103.490780
6.850000	-9.508421	-105.378961	-1.155360	-16.531544	-1.155360	-16.531544	-9.510292	-107.134793
6.900000	-9.478906	-108.967480	-1.175167	-20.038274	-1.175167	-20.038274	-9.469384	-110.798984
6.950000	-9.450219	-112.636995	-1.195970	-23.581428	-1.195970	-23.581428	-9.428010	-114.484786
7.000000	-9.422072	-116.398782	-1.217971	-27.165740	-1.217971	-27.165740	-9.385736	-118.195089
7.050000	-9.394027	-120.248873	-1.241201	-30.789135	-1.241201	-30.789135	-9.342250	-121.928750
7.100000	-9.365489	-124.211982	-1.266101	-34.462193	-1.266101	-34.462193	-9.296650	-125.692236
7.150000	-9.335950	-128.275478	-1.292608	-38.179083	-1.292608	-38.179083	-9.248737	-129.482207
7.200000	-9.304316	-132.467680	-1.321320	-41.951877	-1.321320	-41.951877	-9.197164	-133.306240
7.250000	-9.269943	-136.780896	-1.352282	-45.777034	-1.352282	-45.777034	-9.141572	-137.162520
7.300000	-9.231411	-141.234586	-1.386066	-49.662860	-1.386066	-49.662860	-9.080547	-141.056708
7.350000	-9.187477	-145.835673	-1.423070	-53.612371	-1.423070	-53.612371	-9.013055	-144.991423
7.400000	-9.136866	-150.588085	-1.463688	-57.627487	-1.463688	-57.627487	-8.938118	-148.968886
7.450000	-9.077043	-155.517376	-1.508915	-61.719835	-1.508915	-61.719835	-8.853447	-152.998151
7.500000	-9.007685	-160.606489	-1.558761	-65.882749	-1.558761	-65.882749	-8.759232	-157.076388
7.550000	-8.923997	-165.903179	-1.615205	-70.138925	-1.615205	-70.138925	-8.651161	-161.222123
7.600000	-8.826753	-171.375625	-1.677977	-74.475934	-1.677977	-74.475934	-8.530586	-165.429172
7.650000	-8.711827	-177.052790	-1.748954	-78.909836	-1.748954	-78.909836	-8.394124	-169.713398
7.700000	-8.576930	177.062137	-1.829453	-83.446034	-1.829453	-83.446034	-8.240273	-174.083845
7.750000	-8.420049	170.969495	-1.920942	-88.089347	-1.920942	-88.089347	-8.067811	-178.550103
7.800000	-8.239131	164.669477	-2.025253	-92.845888	-2.025253	-92.845888	-7.875489	176.876041
7.850000	-8.032495	158.165341	-2.144516	-97.721516	-2.144516	-97.721516	-7.662372	172.181830
7.900000	-7.798996	151.463611	-2.281199	-102.721570	-2.281199	-102.721570	-7.427945	167.353838
7.950000	-7.537849	144.572429	-2.438345	-107.851788	-2.438345	-107.851788	-7.171930	162.376853
8.000000	-7.249634	137.506047	-2.619186	-113.114674	-2.619186	-113.114674	-6.895092	157.238083
8.050000	-6.935952	130.281400	-2.827352	-118.510678	-2.827352	-118.510678	-6.598919	151.926211
8.100000	-6.599283	122.917039	-3.067014	-124.038191	-3.067014	-124.038191	-6.285512	146.431310
8.150000	-6.243143	115.433685	-3.342799	-129.692095	-3.342799	-129.692095	-5.957724	140.746549
8.200000	-5.871998	107.853938	-3.659751	-135.462848	-3.659751	-135.462848	-5.619121	134.869199
8.250000	-5.491099	100.202114	-4.023266	-141.335533	-4.023266	-141.335533	-5.273873	128.801569
8.300000	-5.106249	92.504184	-4.438984	-147.288951	-4.438984	-147.288951	-4.926608	122.551776
8.350000	-4.723470	84.787827	-4.912809	-153.294914	-4.912809	-153.294914	-4.582171	116.133511
8.400000	-4.348857	77.082946	-5.450517	-159.316727	-5.450517	-159.316727	-4.245514	109.567378
8.450000	-3.988158	69.420380	-6.057078	-165.309734	-6.057078	-165.309734	-3.921344	102.881988
8.500000	-3.646266	61.831627	-6.737363	-171.221932	-6.737363	-171.221932	-3.613720	96.109307
8.550000	-3.327124	54.348229	-7.495672	-176.993622	-7.495672	-176.993622	-3.325948	89.284889
8.600000	-3.033576	47.000705	-8.335677	177.442535	-8.335677	177.442535	-3.060434	82.446167
8.650000	-2.767308	39.817375	-9.260418	172.161948	-9.260418	172.161948	-2.818617	75.630588
8.700000	-2.528896	32.823219	-10.272332	167.249524	-10.272332	167.249524	-2.600996	68.873840
8.750000	-2.317928	26.038934	-11.373251	162.802646	-11.373251	162.802646	-2.407218	62.208332
8.800000	-2.133486	19.483766	-12.562955	158.946917	-12.562955	158.946917	-2.236499	55.664160
8.850000	-1.973410	13.165121	-13.841478	155.817924	-13.841478	155.817924	-2.086970	49.262739
8.900000	-1.835711	7.091616	-15.203353	153.610130	-15.203353	153.610130	-1.956915	43.023797
8.950000	-1.717456	1.257141	-16.642766	152.522730	-16.642766	152.522730	-1.843799	36.954834
9.000000	-1.616483	-4.338145	-18.136472	152.851513	-18.136472	152.851513	-1.745757	31.065725
9.050000	-1.530474	-9.700172	-19.639798	154.921984	-19.639798	154.921984	-1.660793	25.360452
9.100000	-1.457547	-14.831669	-21.060632	159.077896	-21.060632	159.077896	-1.587294	19.844513
9.150000	-1.395493	-19.746950	-22.275215	165.318303	-22.275215	165.318303	-1.523365	14.512751
9.200000	-1.342516	-24.459078	-23.144262	173.114159	-23.144262	173.114159	-1.467474	9.359688
9.250000	-1.297155	-28.979714	-23.582216	-178.627966	-23.582216	-178.627966	-1.418380	4.380066
9.300000	-1.258176	-33.320670	-23.620510	-171.141637	-23.620510	-171.141637	-1.375036	-0.432312
9.350000	-1.224543	-37.493615	-23.382051	-165.216492	-23.382051	-165.216492	-1.336570	-5.084238
9.400000	-1.195470	-41.507342	-23.001972	-161.063990	-23.001972	-161.063990	-1.302324	-9.580300
9.450000	-1.170239	-45.373144	-22.582662	-158.472825	-22.582662	-158.472825	-1.271696	-13.928060
9.500000	-1.148229	-49.103845	-22.181477	-157.094185	-22.181477	-157.094185	-1.244157	-18.137308
9.550000	-1.129010	-52.708923	-21.824774	-156.630894	-21.824774	-156.630894	-1.219346	-22.215031
9.600000	-1.112244	-56.197171	-21.522590	-156.843879	-21.522590	-156.843879	-1.196975	-26.167972
9.650000	-1.097674	-59.576707	-21.276584	-157.552021	-21.276584	-157.552021	-1.176824	-30.002585
9.700000	-1.085120	-62.854175	-21.084892	-158.623411	-21.084892	-158.623411	-1.158740	-33.724086
9.750000	-1.074469	-66.035025	-20.944354	-159.960689	-20.944354	-159.960689	-1.142625	-37.336663
9.800000	-1.065570	-69.128032	-20.849378	-161.483405	-20.849378	-161.483405	-1.128338	-40.848634
9.850000	-1.058360	-72.138813	-20.795815	-163.137969	-20.795815	-163.137969	-1.115813	-44.265096
9.900000	-1.052795	-75.072467	-20.779918	-164.883624	-20.779918	-164.883624	-1.105006	-47.590822
9.950000	-1.048855	-77.933618	-20.798428	-166.688852	-20.798428	-166.688852	-1.095887	-50.830270
10.000000	-1.046530	-80.726447	-20.848586	-168.528760	-20.848586	-168.528760	-1.088439	-53.987602
