! freq	dB(S11)	phase(S11)	dB(S12)	phase(S12)	
!     	dB(S21)	phase(S21)	dB(S22)	phase(S22)	
!S-par simulation data
#  GHz  S  DB  R 50
0.000000	-0.000000	0.000000	-322.136468	0.000000	-322.136468	0.000000	-0.000000	0.000000
0.050000	-0.000832	-1.337048	-101.952564	88.834745	-101.952564	88.834745	-0.000833	-1.337836
0.100000	-0.002846	-2.668214	-95.965891	87.476823	-95.965891	87.476823	-0.002849	-2.669784
0.150000	-0.005236	-3.992463	-92.496056	86.172661	-92.496056	86.172661	-0.005241	-3.994805
0.200000	-0.007508	-5.311721	-90.073257	84.899217	-90.073257	84.899217	-0.007515	-5.314830
0.250000	-0.009567	-6.628517	-88.227669	83.652847	-88.227669	83.652847	-0.009575	-6.632390
0.300000	-0.011422	-7.943903	-86.757108	82.439290	-86.757108	82.439290	-0.011432	-7.948537
0.350000	-0.013129	-9.258485	-85.552295	81.264839	-85.552295	81.264839	-0.013140	-9.263879
0.400000	-0.014738	-10.572455	-84.549096	80.137783	-84.549096	80.137783	-0.014751	-10.578607
0.450000	-0.016287	-11.885731	-83.711667	79.073352	-83.711667	79.073352	-0.016300	-11.892638
0.500000	-0.017806	-13.198241	-83.005651	78.077204	-83.005651	78.077204	-0.017822	-13.205900
0.550000	-0.019313	-14.509823	-82.411575	77.161807	-82.411575	77.161807	-0.019330	-14.518232
0.600000	-0.020817	-15.820306	-81.915472	76.341820	-81.915472	76.341820	-0.020835	-15.829462
0.650000	-0.022324	-17.129521	-81.507161	75.634617	-81.507161	75.634617	-0.022344	-17.139420
0.700000	-0.023839	-18.437307	-81.179149	75.060960	-81.179149	75.060960	-0.023861	-18.447945
0.750000	-0.025365	-19.743410	-80.929890	74.657542	-80.929890	74.657542	-0.025388	-19.754782
0.800000	-0.026903	-21.047680	-80.754806	74.459495	-80.754806	74.459495	-0.026927	-21.059781
0.850000	-0.028452	-22.350022	-80.648921	74.506028	-80.648921	74.506028	-0.028478	-22.362846
0.900000	-0.030013	-23.650463	-80.604778	74.826071	-80.604778	74.826071	-0.030039	-23.664005
0.950000	-0.031583	-24.948781	-80.623344	75.495525	-80.623344	75.495525	-0.031611	-24.963035
1.000000	-0.033164	-26.244874	-80.700925	76.591380	-80.700925	76.591380	-0.033193	-26.259833
1.050000	-0.034752	-27.538646	-80.831911	78.208064	-80.831911	78.208064	-0.034783	-27.554303
1.100000	-0.036348	-28.830010	-81.007163	80.458750	-81.007163	80.458750	-0.036379	-28.846358
1.150000	-0.037948	-30.118883	-81.211674	83.472984	-81.211674	83.472984	-0.037981	-30.135915
1.200000	-0.039553	-31.405190	-81.421505	87.386078	-81.421505	87.386078	-0.039587	-31.422899
1.250000	-0.041160	-32.688859	-81.600527	92.313164	-81.600527	92.313164	-0.041195	-32.707236
1.300000	-0.042768	-33.969704	-81.692456	98.340947	-81.692456	98.340947	-0.042804	-33.988741
1.350000	-0.044376	-35.247776	-81.638469	105.305530	-81.638469	105.305530	-0.044413	-35.267465
1.400000	-0.045983	-36.523019	-81.383874	112.886446	-81.383874	112.886446	-0.046021	-36.543351
1.450000	-0.047587	-37.795378	-80.899765	120.598135	-80.899765	120.598135	-0.047626	-37.816344
1.500000	-0.049188	-39.064800	-80.195661	127.922390	-80.195661	127.922390	-0.049228	-39.086392
1.550000	-0.050786	-40.331238	-79.314165	134.457983	-79.314165	134.457983	-0.050826	-40.353447
1.600000	-0.052379	-41.594646	-78.312625	139.993911	-78.312625	139.993911	-0.052421	-41.617462
1.650000	-0.053968	-42.854980	-77.245466	144.491723	-77.245466	144.491723	-0.054010	-42.878395
1.700000	-0.055552	-44.112200	-76.155043	148.023699	-76.155043	148.023699	-0.055594	-44.136204
1.750000	-0.057130	-45.366268	-75.070223	150.712524	-75.070223	150.712524	-0.057174	-45.390851
1.800000	-0.058704	-46.617148	-74.008766	152.691230	-74.008766	152.691230	-0.058748	-46.642300
1.850000	-0.060272	-47.864805	-72.980553	154.082840	-72.980553	154.082840	-0.060317	-47.890517
1.900000	-0.061836	-49.109207	-71.990336	154.992831	-71.990336	154.992831	-0.061881	-49.135470
1.950000	-0.063395	-50.350326	-71.039710	155.508227	-71.039710	155.508227	-0.063441	-50.377129
2.000000	-0.064949	-51.588132	-70.128421	155.699487	-70.128421	155.699487	-0.064996	-51.615465
2.050000	-0.066500	-52.822601	-69.255187	155.623219	-69.255187	155.623219	-0.066548	-52.850454
2.100000	-0.068048	-54.053709	-68.418201	155.324835	-68.418201	155.324835	-0.068096	-54.082072
2.150000	-0.069593	-55.281432	-67.615428	154.840857	-67.615428	154.840857	-0.069641	-55.310295
2.200000	-0.071136	-56.505753	-66.844779	154.200786	-66.844779	154.200786	-0.071185	-56.535104
2.250000	-0.072678	-57.726651	-66.104214	153.428595	-66.104214	153.428595	-0.072727	-57.756481
2.300000	-0.074219	-58.944111	-65.391790	152.543885	-65.391790	152.543885	-0.074268	-58.974410
2.350000	-0.075759	-60.158118	-64.705687	151.562790	-64.705687	151.562790	-0.075809	-60.188875
2.400000	-0.077301	-61.368660	-64.044216	150.498681	-64.044216	150.498681	-0.077351	-61.399864
2.450000	-0.078844	-62.575726	-63.405822	149.362708	-63.405822	149.362708	-0.078894	-62.607367
2.500000	-0.080390	-63.779307	-62.789074	148.164228	-62.789074	148.164228	-0.080439	-63.811373
2.550000	-0.081938	-64.979244	-62.191768	146.909082	-62.191768	146.909082	-0.081988	-65.011725
2.600000	-0.083491	-66.175683	-61.613712	145.606550	-61.613712	145.606550	-0.083541	-66.208567
2.650000	-0.085049	-67.368622	-61.053785	144.262251	-61.053785	144.262251	-0.085099	-67.401899
2.700000	-0.086612	-68.558058	-60.510961	142.881012	-60.510961	142.881012	-0.086662	-68.591717
2.750000	-0.088182	-69.743992	-59.984297	141.467009	-59.984297	141.467009	-0.088232	-69.778022
2.800000	-0.089759	-70.926428	-59.472927	140.023863	-59.472927	140.023863	-0.089809	-70.960817
2.850000	-0.091344	-72.105368	-58.976054	138.554731	-58.976054	138.554731	-0.091394	-72.140107
2.900000	-0.092938	-73.280819	-58.492942	137.062373	-58.492942	137.062373	-0.092988	-73.315895
2.950000	-0.094542	-74.452788	-58.022910	135.549216	-58.022910	135.549216	-0.094592	-74.488191
3.000000	-0.096157	-75.621285	-57.565330	134.017397	-57.565330	134.017397	-0.096206	-75.657004
3.050000	-0.097783	-76.786322	-57.119619	132.468805	-57.119619	132.468805	-0.097832	-76.822345
3.100000	-0.099421	-77.947910	-56.685234	130.905119	-56.685234	130.905119	-0.099470	-77.984226
3.150000	-0.101072	-79.106065	-56.261671	129.327830	-56.261671	129.327830	-0.101121	-79.142663
3.200000	-0.102737	-80.260803	-55.848462	127.738272	-55.848462	127.738272	-0.102785	-80.297672
3.250000	-0.104416	-81.412143	-55.445168	126.137637	-55.445168	126.137637	-0.104464	-81.449272
3.300000	-0.106111	-82.560104	-55.051379	124.526996	-55.051379	124.526996	-0.106158	-82.597481
3.350000	-0.107821	-83.704707	-54.666713	122.907312	-54.666713	122.907312	-0.107868	-83.742321
3.400000	-0.109548	-84.845976	-54.290810	121.279457	-54.290810	121.279457	-0.109595	-84.883817
3.450000	-0.111292	-85.983936	-53.923333	119.644216	-53.923333	119.644216	-0.111339	-86.021991
3.500000	-0.113055	-87.118612	-53.563966	118.002303	-53.563966	118.002303	-0.113101	-87.156871
3.550000	-0.114836	-88.250034	-53.212410	116.354368	-53.212410	116.354368	-0.114881	-88.288484
3.600000	-0.116637	-89.378229	-52.868385	114.701003	-52.868385	114.701003	-0.116681	-89.416860
3.650000	-0.118457	-90.503230	-52.531627	113.042747	-52.531627	113.042747	-0.118501	-90.542031
3.700000	-0.120299	-91.625069	-52.201885	111.380097	-52.201885	111.380097	-0.120342	-91.664028
3.750000	-0.122162	-92.743780	-51.878922	109.713506	-51.878922	109.713506	-0.122204	-92.782885
3.800000	-0.124048	-93.859266	-51.562301	108.043258	-51.562301	108.043258	-0.124089	-93.898506
3.850000	-0.125956	-94.971700	-51.252047	106.369907	-51.252047	106.369907	-0.125997	-95.011063
3.900000	-0.127888	-96.081120	-50.947956	104.693806	-50.947956	104.693806	-0.127928	-96.120596
3.950000	-0.129843	-97.187567	-50.649837	103.015282	-50.649837	103.015282	-0.129883	-97.227143
4.000000	-0.131823	-98.291082	-50.357506	101.334639	-50.357506	101.334639	-0.131862	-98.330748
4.050000	-0.133828	-99.391707	-50.070792	99.652163	-50.070792	99.652163	-0.133866	-99.431451
4.100000	-0.135859	-100.489488	-49.789528	97.968118	-49.789528	97.968118	-0.135896	-100.529298
4.150000	-0.137916	-101.584468	-49.513558	96.282752	-49.513558	96.282752	-0.137952	-101.624334
4.200000	-0.140000	-102.676695	-49.242731	94.596298	-49.242731	94.596298	-0.140034	-102.716605
4.250000	-0.142110	-103.766217	-48.976904	92.908975	-48.976904	92.908975	-0.142144	-103.806160
4.300000	-0.144249	-104.853083	-48.715940	91.220990	-48.715940	91.220990	-0.144282	-104.893047
4.350000	-0.146416	-105.937343	-48.459710	89.532536	-48.459710	89.532536	-0.146448	-105.977316
4.400000	-0.148611	-107.019049	-48.208087	87.843798	-48.208087	87.843798	-0.148642	-107.059020
4.450000	-0.150836	-108.098253	-47.960952	86.154949	-47.960952	86.154949	-0.150866	-108.138211
4.500000	-0.153091	-109.175009	-47.718191	84.466156	-47.718191	84.466156	-0.153120	-109.214942
4.550000	-0.155376	-110.249373	-47.479693	82.777575	-47.479693	82.777575	-0.155403	-110.289269
4.600000	-0.157692	-111.321400	-47.245352	81.089355	-47.245352	81.089355	-0.157718	-111.361249
4.650000	-0.160039	-112.391148	-47.015067	79.401638	-47.015067	79.401638	-0.160064	-112.430937
4.700000	-0.162418	-113.458675	-46.788740	77.714560	-46.788740	77.714560	-0.162441	-113.498393
4.750000	-0.164829	-114.524040	-46.566277	76.028249	-46.566277	76.028249	-0.164851	-114.563675
4.800000	-0.167272	-115.587304	-46.347587	74.342828	-46.347587	74.342828	-0.167293	-115.626845
4.850000	-0.169749	-116.648528	-46.132584	72.658415	-46.132584	72.658415	-0.169768	-116.687963
4.900000	-0.172259	-117.707775	-45.921184	70.975121	-45.921184	70.975121	-0.172277	-117.747092
4.950000	-0.174803	-118.765108	-45.713304	69.293054	-45.713304	69.293054	-0.174819	-118.804295
5.000000	-0.177381	-119.820591	-45.508867	67.612314	-45.508867	67.612314	-0.177396	-119.859636
5.050000	-0.179995	-120.874216	-45.307741	65.933064	-45.307741	65.933064	-0.180008	-120.913107
5.100000	-0.182645	-121.926129	-45.109915	64.255339	-45.109915	64.255339	-0.182656	-121.964854
5.150000	-0.185330	-122.976398	-44.915319	62.579224	-44.915319	62.579224	-0.185340	-123.014945
5.200000	-0.188051	-124.025091	-44.723884	60.904802	-44.723884	60.904802	-0.188059	-124.063448
5.250000	-0.190808	-125.072278	-44.535542	59.232151	-44.535542	59.232151	-0.190814	-125.110432
5.300000	-0.193602	-126.118028	-44.350229	57.561343	-44.350229	57.561343	-0.193606	-126.155967
5.350000	-0.196433	-127.162413	-44.167883	55.892447	-44.167883	55.892447	-0.196435	-127.200124
5.400000	-0.199301	-128.205504	-43.988443	54.225529	-43.988443	54.225529	-0.199301	-128.242976
5.450000	-0.202207	-129.247375	-43.811851	52.560648	-43.811851	52.560648	-0.202205	-129.284594
5.500000	-0.205151	-130.288099	-43.638049	50.897860	-43.638049	50.897860	-0.205147	-130.325053
5.550000	-0.208133	-131.327750	-43.466983	49.237216	-43.466983	49.237216	-0.208127	-131.364427
5.600000	-0.211154	-132.366405	-43.298599	47.578765	-43.298599	47.578765	-0.211146	-132.402791
5.650000	-0.214214	-133.404139	-43.132846	45.922550	-43.132846	45.922550	-0.214204	-133.440222
5.700000	-0.217313	-134.441030	-42.969673	44.268610	-42.969673	44.268610	-0.217301	-134.476795
5.750000	-0.220452	-135.477156	-42.809033	42.616980	-42.809033	42.616980	-0.220438	-135.512591
5.800000	-0.223631	-136.512595	-42.650878	40.967691	-42.650878	40.967691	-0.223614	-136.547686
5.850000	-0.226850	-137.547427	-42.495162	39.320770	-42.495162	39.320770	-0.226830	-137.582160
5.900000	-0.230110	-138.581733	-42.341844	37.676240	-42.341844	37.676240	-0.230087	-138.616095
5.950000	-0.233410	-139.615593	-42.190879	36.034120	-42.190879	36.034120	-0.233385	-139.649570
6.000000	-0.236751	-140.649091	-42.042226	34.394427	-42.042226	34.394427	-0.236723	-140.682669
6.050000	-0.240133	-141.682309	-41.895848	32.757170	-41.895848	32.757170	-0.240103	-141.715473
6.100000	-0.243557	-142.715331	-41.751705	31.122360	-41.751705	31.122360	-0.243524	-142.748066
6.150000	-0.247022	-143.748241	-41.609762	29.489999	-41.609762	29.489999	-0.246986	-143.780534
6.200000	-0.250530	-144.781126	-41.469982	27.860090	-41.469982	27.860090	-0.250491	-144.812960
6.250000	-0.254080	-145.814071	-41.332333	26.232631	-41.332333	26.232631	-0.254037	-145.845432
6.300000	-0.257673	-146.847174	-41.196781	24.607721	-41.196781	24.607721	-0.257628	-146.878045
6.350000	-0.261310	-147.880520	-41.063299	22.985246	-41.063299	22.985246	-0.261261	-147.910887
6.400000	-0.264989	-148.914199	-40.931858	21.365196	-40.931858	21.365196	-0.264937	-148.944045
6.450000	-0.268711	-149.948300	-40.802429	19.747555	-40.802429	19.747555	-0.268655	-149.977609
6.500000	-0.272476	-150.982914	-40.674985	18.132309	-40.674985	18.132309	-0.272417	-151.011669
6.550000	-0.276284	-152.018132	-40.549502	16.519438	-40.549502	16.519438	-0.276222	-152.046316
6.600000	-0.280136	-153.054047	-40.425955	14.908923	-40.425955	14.908923	-0.280070	-153.081643
6.650000	-0.284032	-154.090751	-40.304321	13.300742	-40.304321	13.300742	-0.283962	-154.117743
6.700000	-0.287971	-155.128339	-40.184580	11.694871	-40.184580	11.694871	-0.287898	-155.154707
6.750000	-0.291954	-156.166905	-40.066710	10.091287	-40.066710	10.091287	-0.291877	-156.192632
6.800000	-0.295981	-157.206545	-39.950695	8.489963	-39.950695	8.489963	-0.295900	-157.231613
6.850000	-0.300052	-158.247355	-39.836516	6.890874	-39.836516	6.890874	-0.299967	-158.271745
6.900000	-0.304168	-159.289434	-39.724158	5.293994	-39.724158	5.293994	-0.304079	-159.313126
6.950000	-0.308328	-160.332878	-39.613606	3.699297	-39.613606	3.699297	-0.308235	-160.355853
7.000000	-0.312532	-161.377787	-39.504848	2.106756	-39.504848	2.106756	-0.312435	-161.400025
7.050000	-0.316781	-162.424261	-39.397870	0.516346	-39.397870	0.516346	-0.316679	-162.445742
7.100000	-0.321074	-163.472401	-39.292663	-1.071957	-39.292663	-1.071957	-0.320968	-163.493104
7.150000	-0.325413	-164.522308	-39.189217	-2.658176	-39.189217	-2.658176	-0.325302	-164.542211
7.200000	-0.329795	-165.574085	-39.087525	-4.242334	-39.087525	-4.242334	-0.329680	-165.593167
7.250000	-0.334223	-166.627836	-38.987579	-5.824449	-38.987579	-5.824449	-0.334103	-166.646074
7.300000	-0.338696	-167.683664	-38.889373	-7.404539	-38.889373	-7.404539	-0.338571	-167.701035
7.350000	-0.343213	-168.741674	-38.792904	-8.982619	-38.792904	-8.982619	-0.343083	-168.758155
7.400000	-0.347775	-169.801973	-38.698167	-10.558701	-38.698167	-10.558701	-0.347641	-169.817540
7.450000	-0.352382	-170.864667	-38.605161	-12.132792	-38.605161	-12.132792	-0.352243	-170.879296
7.500000	-0.357035	-171.929864	-38.513885	-13.704899	-38.513885	-13.704899	-0.356890	-171.943530
7.550000	-0.361734	-172.997791	-38.424374	-15.274936	-38.424374	-15.274936	-0.361584	-173.010468
7.600000	-0.366477	-174.068449	-38.336596	-16.842984	-38.336596	-16.842984	-0.366322	-174.080110
7.650000	-0.371266	-175.141947	-38.250554	-18.409035	-38.250554	-18.409035	-0.371106	-175.152566
7.700000	-0.376100	-176.218398	-38.166250	-19.973076	-38.166250	-19.973076	-0.375934	-176.227946
7.750000	-0.380979	-177.297913	-38.083689	-21.535088	-38.083689	-21.535088	-0.380807	-177.306363
7.800000	-0.385902	-178.380605	-38.002873	-23.095045	-38.002873	-23.095045	-0.385725	-178.387928
7.850000	-0.390870	-179.466587	-37.923808	-24.652917	-37.923808	-24.652917	-0.390688	-179.472753
7.900000	-0.395883	179.444026	-37.846501	-26.208669	-37.846501	-26.208669	-0.395695	179.439047
7.950000	-0.400941	178.351119	-37.770957	-27.762256	-37.770957	-27.762256	-0.400747	178.347359
8.000000	-0.406044	177.254578	-37.697184	-29.313630	-37.697184	-29.313630	-0.405843	177.252067
8.050000	-0.411191	176.154284	-37.625188	-30.862734	-37.625188	-30.862734	-0.410985	176.153055
8.100000	-0.416382	175.050121	-37.554977	-32.409505	-37.554977	-32.409505	-0.416170	175.050208
8.150000	-0.421618	173.941971	-37.486561	-33.953872	-37.486561	-33.953872	-0.421400	173.943408
8.200000	-0.426898	172.829715	-37.419946	-35.495758	-37.419946	-35.495758	-0.426674	172.832537
8.250000	-0.432223	171.713235	-37.355141	-37.035078	-37.355141	-37.035078	-0.431992	171.717477
8.300000	-0.437592	170.592410	-37.292156	-38.571739	-37.292156	-38.571739	-0.437354	170.598109
8.350000	-0.443005	169.467120	-37.230998	-40.105642	-37.230998	-40.105642	-0.442761	169.474315
8.400000	-0.448462	168.337245	-37.171676	-41.636678	-37.171676	-41.636678	-0.448211	168.345973
8.450000	-0.453962	167.202663	-37.114199	-43.164734	-37.114199	-43.164734	-0.453705	167.212964
8.500000	-0.459507	166.063252	-37.058574	-44.689687	-37.058574	-44.689687	-0.459242	166.075167
8.550000	-0.465095	164.918890	-37.004810	-46.211407	-37.004810	-46.211407	-0.464823	164.932460
8.600000	-0.470726	163.769456	-36.952914	-47.729757	-36.952914	-47.729757	-0.470447	163.784723
8.650000	-0.476401	162.614826	-36.902893	-49.244594	-36.902893	-49.244594	-0.476115	162.631834
8.700000	-0.482119	161.454877	-36.854753	-50.755767	-36.854753	-50.755767	-0.481826	161.473670
8.750000	-0.487880	160.289486	-36.808501	-52.263119	-36.808501	-52.263119	-0.487579	160.310111
8.800000	-0.493686	159.118284	-36.764214	-53.766304	-36.764214	-53.766304	-0.493378	159.140788
8.850000	-0.499535	157.941382	-36.721825	-55.265319	-36.721825	-55.265319	-0.499218	157.965813
8.900000	-0.505426	156.758658	-36.681339	-56.759986	-36.681339	-56.759986	-0.505102	156.785066
8.950000	-0.511360	155.569989	-36.642756	-58.250124	-36.642756	-58.250124	-0.511027	155.598424
9.000000	-0.517336	154.375253	-36.606079	-59.735546	-36.606079	-59.735546	-0.516995	154.405766
9.050000	-0.523354	153.174327	-36.571308	-61.216061	-36.571308	-61.216061	-0.523005	153.206970
9.100000	-0.529415	151.967091	-36.538442	-62.691475	-36.538442	-62.691475	-0.529057	152.001917
9.150000	-0.535517	150.753421	-36.507478	-64.161587	-36.507478	-64.161587	-0.535151	150.790487
9.200000	-0.541661	149.533200	-36.478414	-65.626196	-36.478414	-65.626196	-0.541286	149.572559
9.250000	-0.547847	148.306305	-36.451245	-67.085098	-36.451245	-67.085098	-0.547462	148.348017
9.300000	-0.554075	147.072620	-36.425966	-68.538085	-36.425966	-68.538085	-0.553680	147.116741
9.350000	-0.560343	145.832026	-36.402569	-69.984950	-36.402569	-69.984950	-0.559939	145.878616
9.400000	-0.566653	144.584406	-36.381047	-71.425482	-36.381047	-71.425482	-0.566239	144.633527
9.450000	-0.573004	143.329646	-36.361390	-72.859473	-36.361390	-72.859473	-0.572579	143.381360
9.500000	-0.579396	142.067633	-36.343586	-74.286711	-36.343586	-74.286711	-0.578961	142.122002
9.550000	-0.585829	140.798254	-36.327624	-75.706988	-36.327624	-75.706988	-0.585382	140.855343
9.600000	-0.592302	139.521399	-36.313489	-77.120097	-36.313489	-77.120097	-0.591845	139.581273
9.650000	-0.598816	138.236960	-36.301168	-78.525829	-36.301168	-78.525829	-0.598347	138.299687
9.700000	-0.605371	136.944832	-36.290643	-79.923982	-36.290643	-79.923982	-0.604890	137.010479
9.750000	-0.611966	135.644911	-36.281897	-81.314354	-36.281897	-81.314354	-0.611472	135.713548
9.800000	-0.618601	134.337096	-36.274912	-82.696747	-36.274912	-82.696747	-0.618095	134.408793
9.850000	-0.625277	133.021288	-36.269667	-84.070967	-36.269667	-84.070967	-0.624757	133.096117
9.900000	-0.631993	131.697394	-36.266141	-85.436823	-36.266141	-85.436823	-0.631459	131.775427
9.950000	-0.638748	130.365321	-36.264311	-86.794131	-36.264311	-86.794131	-0.638201	130.446632
10.000000	-0.645544	129.024980	-36.264154	-88.142709	-36.264154	-88.142709	-0.644982	129.109644
