! freq	dB(S11)	phase(S11)	dB(S12)	phase(S12)	
!     	dB(S21)	phase(S21)	dB(S22)	phase(S22)	
!S-par simulation data
#  GHz  S  DB  R 50
0.000000	-79.789792	0.000000	-0.000890	0.000000	-0.000890	0.000000	-79.789792	0.000000
0.050000	-37.833012	-93.507732	-0.005090	-3.892280	-0.005090	-3.892280	-37.837107	-93.247386
0.100000	-31.850433	-97.713792	-0.014627	-7.753999	-0.014627	-7.753999	-31.852495	-97.188270
0.150000	-28.391982	-101.779683	-0.025518	-11.587406	-0.025518	-11.587406	-28.391567	-100.980843
0.200000	-25.973956	-105.822167	-0.036535	-15.405900	-0.036535	-15.405900	-25.971542	-104.743488
0.250000	-24.136326	-109.858293	-0.047751	-19.215505	-0.047751	-19.215505	-24.132722	-108.496008
0.300000	-22.671087	-113.888187	-0.059383	-23.018671	-0.059383	-23.018671	-22.667022	-112.241071
0.350000	-21.469712	-117.906748	-0.071540	-26.815660	-0.071540	-26.815660	-21.465595	-115.973857
0.400000	-20.464279	-121.910721	-0.084149	-30.606466	-0.084149	-30.606466	-20.460226	-119.689453
0.450000	-19.614184	-125.898315	-0.097083	-34.390673	-0.097083	-34.390673	-19.610186	-123.383706
0.500000	-18.894938	-129.869237	-0.110138	-38.167742	-0.110138	-38.167742	-18.890969	-127.053552
0.550000	-18.281800	-133.826947	-0.123082	-41.938445	-0.123082	-41.938445	-18.277854	-130.701329
0.600000	-17.763394	-137.773523	-0.135673	-45.702927	-0.135673	-45.702927	-17.759481	-134.327075
0.650000	-17.328874	-141.712238	-0.147673	-49.462027	-0.147673	-49.462027	-17.325007	-137.932462
0.700000	-16.970634	-145.646393	-0.158857	-53.216824	-0.158857	-53.216824	-16.966814	-141.518892
0.750000	-16.685661	-149.579507	-0.168965	-56.968615	-0.168965	-56.968615	-16.681872	-145.086808
0.800000	-16.465050	-153.515109	-0.177913	-60.719204	-0.177913	-60.719204	-16.461260	-148.638502
0.850000	-16.308495	-157.456804	-0.185516	-64.470233	-0.185516	-64.470233	-16.304655	-152.173705
0.900000	-16.218305	-161.409488	-0.191573	-68.223962	-0.191573	-68.223962	-16.214343	-155.691366
0.950000	-16.188974	-165.376610	-0.196142	-71.982250	-0.196142	-71.982250	-16.184801	-159.192205
1.000000	-16.224414	-169.363661	-0.199122	-75.747463	-0.199122	-75.747463	-16.219917	-162.673900
1.050000	-16.329914	-173.377908	-0.200462	-79.522475	-0.200462	-79.522475	-16.324937	-166.132563
1.100000	-16.504118	-177.423914	-0.200339	-83.308827	-0.200339	-83.308827	-16.498469	-169.565585
1.150000	-16.756543	178.488438	-0.198770	-87.109479	-0.198770	-87.109479	-16.749949	-172.964848
1.200000	-17.097399	174.346576	-0.195884	-90.927370	-0.195884	-90.927370	-17.089459	-176.317993
1.250000	-17.532519	170.141004	-0.191957	-94.763509	-0.191957	-94.763509	-17.522673	-179.612871
1.300000	-18.082665	165.848861	-0.187162	-98.621274	-0.187162	-98.621274	-18.070017	177.178476
1.350000	-18.766551	161.446253	-0.181819	-102.501926	-0.181819	-102.501926	-18.749689	174.090820
1.400000	-19.622049	156.882170	-0.176248	-106.408829	-0.176248	-106.408829	-19.598463	171.197206
1.450000	-20.693675	152.089719	-0.170849	-110.342713	-0.170849	-110.342713	-20.658829	168.602171
1.500000	-22.057943	146.939486	-0.166046	-114.304991	-0.166046	-114.304991	-22.002723	166.506773
1.550000	-23.850205	141.140383	-0.162334	-118.297523	-0.162334	-118.297523	-23.753305	165.359949
1.600000	-26.322031	134.006475	-0.160210	-122.320562	-0.160210	-122.320562	-26.124059	166.193318
1.650000	-30.048626	123.287760	-0.160198	-126.374299	-0.160198	-126.374299	-29.523888	172.115560
1.700000	-36.300339	92.831901	-0.162980	-130.459815	-0.162980	-130.459815	-34.124423	-162.483455
1.750000	-37.408742	4.422842	-0.168964	-134.574677	-0.168964	-134.574677	-34.463037	-105.811001
1.800000	-30.098050	-32.373679	-0.178809	-138.718536	-0.178809	-138.718536	-29.282654	-76.832293
1.850000	-25.586072	-44.454624	-0.193092	-142.889623	-0.193092	-142.889623	-25.235282	-69.764342
1.900000	-22.474969	-52.071539	-0.212427	-147.085807	-0.212427	-147.085807	-22.274091	-68.756715
1.950000	-20.103898	-58.220474	-0.237344	-151.304002	-0.237344	-151.304002	-19.969465	-69.977217
2.000000	-18.189370	-63.716161	-0.268246	-155.540360	-0.268246	-155.540360	-18.090427	-72.243909
2.050000	-16.586151	-68.862315	-0.305520	-159.790773	-0.305520	-159.790773	-16.508544	-75.089419
2.100000	-15.211116	-73.802738	-0.349304	-164.050552	-0.349304	-164.050552	-15.147459	-78.280221
2.150000	-14.010978	-78.602241	-0.400087	-168.315131	-0.400087	-168.315131	-13.956976	-81.703354
2.200000	-12.951281	-83.304025	-0.457859	-172.579079	-0.457859	-172.579079	-12.904289	-85.276726
2.250000	-12.007516	-87.930024	-0.522631	-176.836904	-0.522631	-176.836904	-11.965795	-88.951279
2.300000	-11.161912	-92.492143	-0.594327	178.917187	-0.594327	178.917187	-11.124266	-92.692958
2.350000	-10.400337	-96.999919	-0.672384	174.687754	-0.672384	174.687754	-10.365918	-96.474873
2.400000	-9.712298	-101.455194	-0.756586	170.480222	-0.756586	170.480222	-9.680477	-100.279879
2.450000	-9.089255	-105.859465	-0.846435	166.299361	-0.846435	166.299361	-9.059554	-104.093200
2.500000	-8.524212	-110.213068	-0.941330	162.149502	-0.941330	162.149502	-8.496256	-107.903063
2.550000	-8.011749	-114.514638	-1.040629	158.035275	-1.040629	158.035275	-7.985241	-111.699549
2.600000	-7.546495	-118.764831	-1.143468	153.959164	-1.143468	153.959164	-7.521194	-115.475256
2.650000	-7.124151	-122.963293	-1.249009	149.923669	-1.249009	149.923669	-7.099855	-119.224251
2.700000	-6.740974	-127.109925	-1.356366	145.930605	-1.356366	145.930605	-6.717516	-122.941948
2.750000	-6.393684	-131.205009	-1.464619	141.981088	-1.464619	141.981088	-6.370918	-126.624949
2.800000	-6.079386	-135.249270	-1.572823	138.075534	-1.572823	138.075534	-6.057187	-130.270922
2.850000	-5.795521	-139.243927	-1.680024	134.213669	-1.680024	134.213669	-5.773777	-133.878500
2.900000	-5.539826	-143.190708	-1.785266	130.394554	-1.785266	130.394554	-5.518436	-137.447187
2.950000	-5.310304	-147.091859	-1.887601	126.616606	-1.887601	126.616606	-5.289176	-140.977283
3.000000	-5.105204	-150.950139	-1.986089	122.877623	-1.986089	122.877623	-5.084252	-144.469814
3.050000	-4.923004	-154.768818	-2.079811	119.174812	-2.079811	119.174812	-4.902144	-147.926467
3.100000	-4.762400	-158.551664	-2.167866	115.504804	-2.167866	115.504804	-4.741551	-151.349537
3.150000	-4.624798	-162.299186	-2.248223	111.867094	-2.248223	111.867094	-4.603866	-154.738048
3.200000	-4.504500	-166.024227	-2.322125	108.249811	-2.322125	108.249811	-4.483411	-158.103405
3.250000	-4.403181	-169.727966	-2.387772	104.651661	-2.387772	104.651661	-4.381844	-161.445512
3.300000	-4.320402	-173.416239	-2.444346	101.066992	-2.444346	101.066992	-4.298720	-164.768772
3.350000	-4.254907	-177.095467	-2.491688	97.489622	-2.491688	97.489622	-4.232779	-168.078491
3.400000	-4.208185	179.228048	-2.528174	93.913190	-2.528174	93.913190	-4.185484	-171.378918
3.450000	-4.181705	175.545238	-2.552287	90.328561	-2.552287	90.328561	-4.158272	-174.676555
3.500000	-4.173571	171.848830	-2.564879	86.728661	-2.564879	86.728661	-4.149244	-177.977827
3.550000	-4.186353	168.128016	-2.564270	83.102416	-2.564270	83.102416	-4.160916	178.709802
3.600000	-4.221138	164.372916	-2.550025	79.439767	-2.550025	79.439767	-4.194332	175.379096
3.650000	-4.279070	160.573570	-2.522040	75.730495	-2.522040	75.730495	-4.250583	172.022921
3.700000	-4.365322	156.711863	-2.478309	71.955699	-2.478309	71.955699	-4.334717	168.629676
3.750000	-4.479132	152.783906	-2.420705	68.111297	-2.420705	68.111297	-4.445923	165.196702
3.800000	-4.632021	148.755528	-2.345444	64.161122	-2.345444	64.161122	-4.595425	161.704220
3.850000	-4.822862	144.628888	-2.255803	60.106985	-2.255803	60.106985	-4.781996	158.155251
3.900000	-5.064174	140.371621	-2.149901	55.913750	-2.149901	55.913750	-5.017706	154.534983
3.950000	-5.366894	135.961551	-2.028309	51.556211	-2.028309	51.556211	-5.312938	150.838533
4.000000	-5.745463	131.375796	-1.892196	47.007141	-1.892196	47.007141	-5.681273	147.066939
4.050000	-6.220673	126.588323	-1.743196	42.233758	-1.743196	42.233758	-6.142066	143.230524
4.100000	-6.821932	121.573355	-1.583908	37.199662	-1.583908	37.199662	-6.722228	139.359260
4.150000	-7.592210	116.308999	-1.418229	31.865369	-1.418229	31.865369	-7.460090	135.521083
4.200000	-8.598916	110.782845	-1.251788	26.185937	-1.251788	26.185937	-8.413462	131.864450
4.250000	-9.949366	105.018650	-1.092566	20.121925	-1.092566	20.121925	-9.667909	128.709313
4.300000	-11.835645	99.126471	-0.951001	13.640274	-0.951001	13.640274	-11.357415	126.779091
4.350000	-14.663364	93.496709	-0.840291	6.718502	-0.840291	6.718502	-13.690368	127.921164
4.400000	-19.579985	90.013338	-0.776207	-0.644890	-0.776207	-0.644890	-16.852105	137.553549
4.450000	-31.695569	131.674602	-0.776209	-8.420805	-0.776209	-8.420805	-19.507709	167.873076
4.500000	-21.706974	-126.825719	-0.857697	-16.541752	-0.857697	-16.541752	-17.390813	-155.591146
4.550000	-14.877450	-128.859847	-1.035496	-24.899774	-1.035496	-24.899774	-13.499393	-142.113674
4.600000	-11.075862	-135.614974	-1.319458	-33.353310	-1.319458	-33.353310	-10.424228	-140.795050
4.650000	-8.521068	-143.303922	-1.711818	-41.741970	-1.711818	-41.741970	-8.140703	-143.948527
4.700000	-6.676486	-151.156581	-2.205838	-49.913911	-2.205838	-49.913911	-6.425003	-148.896773
4.750000	-5.302429	-158.853652	-2.789472	-57.739625	-2.789472	-57.739625	-5.121862	-154.561037
4.800000	-4.258937	-166.234865	-3.445407	-65.141381	-3.445407	-65.141381	-4.121762	-160.410557
4.850000	-3.459301	-173.214804	-4.156794	-72.071191	-4.156794	-72.071191	-3.350621	-166.181333
4.900000	-2.841924	-179.761306	-4.907309	-78.518209	-4.907309	-78.518209	-2.753025	-171.735538
4.950000	-2.362012	174.124005	-5.682887	-84.496628	-5.682887	-84.496628	-2.287461	-177.010581
5.000000	-1.986398	168.419091	-6.472202	-90.036338	-6.472202	-90.036338	-1.922630	178.012677
5.050000	-1.691280	163.097278	-7.265259	-95.168776	-7.265259	-95.168776	-1.635835	173.333970
5.100000	-1.456745	158.113840	-8.056951	-99.942603	-8.056951	-99.942603	-1.407912	168.929393
5.150000	-1.268985	153.431429	-8.842974	-104.397560	-8.842974	-104.397560	-1.225515	164.775093
5.200000	-1.117586	149.014713	-9.620429	-108.570727	-9.620429	-108.570727	-1.078546	160.845685
5.250000	-0.994654	144.831391	-10.387459	-112.495742	-10.387459	-112.495742	-0.959331	157.116368
5.300000	-0.894175	140.852541	-11.142952	-116.202623	-11.142952	-116.202623	-0.862012	153.563997
5.350000	-0.811541	137.052573	-11.886293	-119.717961	-11.886293	-119.717961	-0.782093	150.167522
5.400000	-0.743202	133.408983	-12.617169	-123.065301	-12.617169	-123.065301	-0.716105	146.908085
5.450000	-0.687316	129.913864	-13.328341	-126.252910	-13.328341	-126.252910	-0.662245	143.779398
5.500000	-0.639848	126.525607	-14.033179	-129.325960	-14.033179	-129.325960	-0.616561	140.745257
5.550000	-0.600132	123.240905	-14.724795	-132.289248	-14.724795	-132.289248	-0.578390	137.803136
5.600000	-0.566876	120.045811	-15.402402	-135.160319	-15.402402	-135.160319	-0.546451	134.941170
5.650000	-0.539095	116.927464	-16.064575	-137.957556	-16.064575	-137.957556	-0.519751	132.148555
5.700000	-0.516059	113.873601	-16.708888	-140.701871	-16.708888	-140.701871	-0.497532	129.415229
5.750000	-0.497285	110.871934	-17.331340	-143.419395	-17.331340	-143.419395	-0.479252	126.731472
5.800000	-0.482560	107.909288	-17.925438	-146.146021	-17.925438	-146.146021	-0.464583	124.087386
5.850000	-0.471738	104.970280	-18.485830	-148.925863	-18.485830	-148.925863	-0.453234	121.471370
5.900000	-0.465792	102.037442	-18.989908	-151.845916	-18.989908	-151.845916	-0.445757	118.872928
5.950000	-0.467180	99.076736	-19.400169	-155.093242	-19.400169	-155.093242	-0.443598	116.271910
6.000000	-0.479294	96.046506	-19.683237	-158.904200	-19.683237	-158.904200	-0.448656	113.642512
6.050000	-0.516280	92.848839	-19.731052	-164.004295	-19.731052	-164.004295	-0.469462	110.932043
6.100000	-0.618190	89.321293	-19.376250	-172.004630	-19.376250	-172.004630	-0.529556	108.058860
6.150000	-0.928627	85.371625	-18.413157	172.704370	-18.413157	172.704370	-0.709482	105.017748
6.200000	-1.906630	85.003938	-17.648647	133.466450	-17.648647	133.466450	-1.224497	104.109276
6.250000	-1.329302	90.886206	-23.428131	77.303308	-23.428131	77.303308	-0.894820	106.234408
6.300000	-0.698742	87.362401	-32.947912	45.395293	-32.947912	45.395293	-0.545468	103.372240
6.350000	-0.514885	83.685156	-42.634774	4.122883	-42.634774	4.122883	-0.441755	100.405640
6.400000	-0.446519	80.518680	-44.517739	-54.775659	-44.517739	-54.775659	-0.403304	97.726112
6.450000	-0.413923	77.646695	-42.488038	-72.123806	-42.488038	-72.123806	-0.385143	95.214100
6.500000	-0.394177	74.917836	-40.950079	-72.645231	-40.950079	-72.645231	-0.374296	92.783112
6.550000	-0.382245	72.299861	-39.671776	-66.535954	-39.671776	-66.535954	-0.367936	90.413964
6.600000	-0.374766	69.761263	-38.258048	-59.366962	-38.258048	-59.366962	-0.364193	88.087356
6.650000	-0.369536	67.269347	-36.769467	-53.312340	-36.769467	-53.312340	-0.361823	85.784099
6.700000	-0.366126	64.818256	-35.257945	-49.004524	-35.257945	-49.004524	-0.360621	83.499095
6.750000	-0.363394	62.382755	-33.889169	-45.449027	-33.889169	-45.449027	-0.359861	81.220811
6.800000	-0.362213	59.982528	-32.530386	-43.795960	-32.530386	-43.795960	-0.360206	78.953243
6.850000	-0.361398	57.589667	-31.319137	-42.531764	-31.319137	-42.531764	-0.360832	76.686673
6.900000	-0.361622	55.216413	-30.164684	-42.290428	-30.164684	-42.290428	-0.362281	74.420927
6.950000	-0.362386	52.849723	-29.102596	-42.409140	-29.102596	-42.409140	-0.364200	72.151609
7.000000	-0.363789	50.490788	-28.110761	-42.953362	-28.110761	-42.953362	-0.366675	69.878070
7.050000	-0.366079	48.135961	-27.161426	-43.867375	-27.161426	-43.867375	-0.369981	67.592726
7.100000	-0.368711	45.782714	-26.285152	-44.923615	-26.285152	-44.923615	-0.373606	65.302840
7.150000	-0.372735	43.426688	-25.410614	-46.333243	-25.410614	-46.333243	-0.378605	62.987694
7.200000	-0.377216	41.067580	-24.592571	-47.815946	-24.592571	-47.815946	-0.384073	60.663059
7.250000	-0.383009	38.699346	-23.783204	-49.502940	-23.783204	-49.502940	-0.390884	58.311029
7.300000	-0.389979	36.319105	-22.993308	-51.306640	-22.993308	-51.306640	-0.398935	55.933206
7.350000	-0.398067	33.927507	-22.226392	-53.220738	-22.226392	-53.220738	-0.408163	53.530983
7.400000	-0.407886	31.515588	-21.462914	-55.257283	-21.462914	-55.257283	-0.419243	51.091092
7.450000	-0.419988	29.075703	-20.692554	-57.427641	-20.692554	-57.427641	-0.432786	48.602597
7.500000	-0.434887	26.600751	-19.912179	-59.728480	-19.912179	-59.728480	-0.449374	46.056974
7.550000	-0.453084	24.084766	-19.122218	-62.157898	-19.122218	-62.157898	-0.469578	43.447307
7.600000	-0.475478	21.517904	-18.317556	-64.727782	-18.317556	-64.727782	-0.494408	40.760661
7.650000	-0.503295	18.887995	-17.492881	-67.455294	-17.492881	-67.455294	-0.525244	37.980897
7.700000	-0.538232	16.179840	-16.642582	-70.364195	-16.642582	-70.364195	-0.564004	35.087639
7.750000	-0.582686	13.374276	-15.760652	-73.486799	-15.760652	-73.486799	-0.613398	32.054871
7.800000	-0.641622	10.433749	-14.827852	-76.894220	-14.827852	-76.894220	-0.679054	28.830253
7.850000	-0.720480	7.328406	-13.842408	-80.643119	-13.842408	-80.643119	-0.767196	25.371466
7.900000	-0.824416	4.040076	-12.816402	-84.771514	-12.816402	-84.771514	-0.883812	21.651116
7.950000	-0.972058	0.479730	-11.712438	-89.478140	-11.712438	-89.478140	-1.050385	17.535081
8.000000	-1.186252	-3.411602	-10.530192	-94.934550	-10.530192	-94.934550	-1.293844	12.919098
8.050000	-1.504602	-7.686624	-9.273941	-101.378244	-9.273941	-101.378244	-1.659522	7.679303
8.100000	-1.999656	-12.363265	-7.947549	-109.203067	-7.947549	-109.203067	-2.237838	1.661090
8.150000	-2.793281	-17.226973	-6.589556	-118.885464	-6.589556	-118.885464	-3.192608	-5.142658
8.200000	-4.104123	-21.243182	-5.286578	-131.056033	-5.286578	-131.056033	-4.869701	-12.090663
8.250000	-6.138162	-20.861506	-4.222178	-146.004984	-4.222178	-146.004984	-7.897131	-15.506094
8.300000	-8.262811	-8.269443	-3.637803	-163.162229	-3.637803	-163.162229	-12.543870	1.720086
8.350000	-7.897765	12.620679	-3.692340	179.297601	-3.692340	179.297601	-11.622191	46.621372
8.400000	-5.789999	21.570485	-4.294436	163.449322	-4.294436	163.449322	-7.410545	57.056982
8.450000	-4.075565	21.024919	-5.211244	150.319530	-5.211244	150.319530	-4.892192	53.296097
8.500000	-2.972483	17.498198	-6.231203	139.762184	-6.231203	139.762184	-3.457843	47.310770
8.550000	-2.284123	13.381518	-7.227705	131.316398	-7.227705	131.316398	-2.609567	41.499796
8.600000	-1.827499	9.377185	-8.164209	124.290874	-8.164209	124.290874	-2.061266	36.245958
8.650000	-1.526867	5.673023	-9.001273	118.422516	-9.001273	118.422516	-1.705650	31.607845
8.700000	-1.315237	2.248803	-9.752059	113.314924	-9.752059	113.314924	-1.457289	27.434816
8.750000	-1.162399	-0.933568	-10.420067	108.771138	-10.420067	108.771138	-1.278714	23.630474
8.800000	-1.050436	-3.911105	-11.007225	104.658925	-11.007225	104.658925	-1.148151	20.121665
8.850000	-0.967666	-6.718686	-11.515727	100.878803	-11.515727	100.878803	-1.051628	16.848344
8.900000	-0.905140	-9.396251	-11.954533	97.338251	-11.954533	97.338251	-0.978607	13.749660
8.950000	-0.857413	-11.973904	-12.330181	93.973025	-12.330181	93.973025	-0.922723	10.781889
9.000000	-0.821457	-14.471655	-12.643502	90.740412	-12.643502	90.740412	-0.880458	7.916136
9.050000	-0.795047	-16.908443	-12.895841	87.601449	-12.895841	87.601449	-0.849252	5.125885
9.100000	-0.776758	-19.301057	-13.087387	84.521405	-13.087387	84.521405	-0.827490	2.387996
9.150000	-0.765794	-21.665100	-13.217141	81.466915	-13.217141	81.466915	-0.814303	-0.318819
9.200000	-0.761916	-24.015898	-13.282831	78.403176	-13.282831	78.403176	-0.809488	-3.015379
9.250000	-0.765458	-26.369433	-13.280790	75.290787	-13.280790	75.290787	-0.813541	-5.723408
9.300000	-0.777445	-28.743499	-13.205953	72.081362	-13.205953	72.081362	-0.827814	-8.467229
9.350000	-0.799821	-31.157837	-13.051336	68.714820	-13.051336	68.714820	-0.854804	-11.274214
9.400000	-0.837477	-33.644600	-12.799881	65.078472	-12.799881	65.078472	-0.900723	-14.190220
9.450000	-0.894764	-36.225361	-12.452176	61.080487	-12.452176	61.080487	-0.971232	-17.246383
9.500000	-0.983869	-38.943234	-11.986971	56.507770	-11.986971	56.507770	-1.082016	-20.508908
9.550000	-1.125602	-41.835014	-11.390107	51.050298	-11.390107	51.050298	-1.260391	-24.044112
9.600000	-1.348366	-44.893769	-10.669450	44.364177	-10.669450	44.364177	-1.544971	-27.870167
9.650000	-1.725268	-48.006678	-9.825333	35.606283	-9.825333	35.606283	-2.038330	-31.914668
9.700000	-2.351484	-50.543999	-8.958003	23.855206	-8.958003	23.855206	-2.893699	-35.440238
9.750000	-3.269390	-50.634892	-8.311918	8.230953	-8.311918	8.230953	-4.249856	-35.794764
9.800000	-4.062629	-45.588930	-8.305384	-10.791099	-8.305384	-10.791099	-5.565493	-27.890976
9.850000	-3.876306	-38.287733	-9.243987	-30.064445	-9.243987	-30.064445	-5.254388	-15.652473
9.900000	-3.053278	-35.310049	-10.909485	-45.964431	-10.909485	-45.964431	-3.934515	-11.048236
9.950000	-2.329427	-36.058171	-12.863950	-57.575361	-12.863950	-57.575361	-2.872990	-12.154016
10.000000	-1.846607	-38.239307	-14.820276	-65.621148	-14.820276	-65.621148	-2.203480	-15.082850
