! freq	dB(S11)	phase(S11)	dB(S12)	phase(S12)	
!     	dB(S21)	phase(S21)	dB(S22)	phase(S22)	
!S-par simulation data
#  GHz  S  DB  R 50
0.000000	-0.000000	0.000000	-314.791536	0.000000	-314.791536	0.000000	-0.000000	0.000000
0.050000	-0.000236	-0.750475	-103.413311	80.674059	-103.413311	80.674059	-0.013806	-2.052786
0.100000	-0.000905	-1.501898	-97.820398	82.671342	-97.820398	82.671342	-0.020426	-4.202910
0.150000	-0.001902	-2.254938	-94.446510	82.742906	-94.446510	82.742906	-0.022748	-6.346540
0.200000	-0.003093	-3.009774	-92.065251	82.171504	-92.065251	82.171504	-0.024116	-8.482623
0.250000	-0.004364	-3.766264	-90.253082	81.331134	-90.253082	81.331134	-0.025257	-10.613236
0.300000	-0.005628	-4.524010	-88.814717	80.374486	-88.814717	80.374486	-0.026393	-12.739289
0.350000	-0.006835	-5.282527	-87.644635	79.375486	-87.644635	79.375486	-0.027604	-14.861000
0.400000	-0.007967	-6.041350	-86.679771	78.377837	-86.679771	78.377837	-0.028918	-16.978262
0.450000	-0.009022	-6.800092	-85.879773	77.412535	-85.879773	77.412535	-0.030346	-19.090820
0.500000	-0.010011	-7.558458	-85.217589	76.505444	-85.217589	76.505444	-0.031887	-21.198341
0.550000	-0.010950	-8.316242	-84.674520	75.681216	-84.674520	75.681216	-0.033539	-23.300459
0.600000	-0.011855	-9.073305	-84.237410	74.965776	-84.237410	74.965776	-0.035294	-25.396794
0.650000	-0.012739	-9.829551	-83.897830	74.390202	-83.897830	74.390202	-0.037147	-27.486892
0.700000	-0.013613	-10.584927	-83.649266	73.990360	-83.649266	73.990360	-0.039087	-29.570365
0.750000	-0.014485	-11.339415	-83.486291	73.807350	-83.486291	73.807350	-0.041105	-31.646917
0.800000	-0.015362	-12.093004	-83.405707	73.894343	-83.405707	73.894343	-0.043191	-33.716198
0.850000	-0.016246	-12.845691	-83.405065	74.318741	-83.405065	74.318741	-0.045337	-35.777871
0.900000	-0.017141	-13.597475	-83.481885	75.166804	-83.481885	75.166804	-0.047531	-37.831620
0.950000	-0.018046	-14.348363	-83.632498	76.549220	-83.632498	76.549220	-0.049767	-39.877145
1.000000	-0.018961	-15.098358	-83.850178	78.606915	-83.850178	78.606915	-0.052034	-41.914163
1.050000	-0.019887	-15.847465	-84.122081	81.514661	-84.122081	81.514661	-0.054326	-43.942412
1.100000	-0.020822	-16.595688	-84.424498	85.476296	-84.424498	85.476296	-0.056633	-45.961645
1.150000	-0.021766	-17.343032	-84.716401	90.698580	-84.716401	90.698580	-0.058951	-47.971638
1.200000	-0.022716	-18.089497	-84.933375	97.323657	-84.933375	97.323657	-0.061270	-49.972181
1.250000	-0.023672	-18.835086	-84.988593	105.307429	-84.988593	105.307429	-0.063587	-51.963084
1.300000	-0.024633	-19.579779	-84.784262	114.288644	-84.784262	114.288644	-0.065895	-53.943957
1.350000	-0.025598	-20.323594	-84.270236	123.517486	-84.270236	123.517486	-0.068190	-55.914857
1.400000	-0.026564	-21.066528	-83.460019	132.182577	-83.460019	132.182577	-0.070468	-57.875645
1.450000	-0.027533	-21.808579	-82.424891	139.691033	-82.424891	139.691033	-0.072725	-59.826200
1.500000	-0.028503	-22.549742	-81.255439	145.800625	-81.255439	145.800625	-0.074958	-61.766417
1.550000	-0.029473	-23.290012	-80.029168	150.546823	-80.029168	150.546823	-0.077166	-63.696208
1.600000	-0.030443	-24.029384	-78.799160	154.104140	-78.799160	154.104140	-0.079346	-65.615496
1.650000	-0.031413	-24.767849	-77.596687	156.682674	-77.596687	156.682674	-0.081497	-67.524223
1.700000	-0.032382	-25.505401	-76.437877	158.476908	-76.437877	158.476908	-0.083618	-69.422342
1.750000	-0.033351	-26.242032	-75.329607	159.648812	-75.329607	159.648812	-0.085708	-71.309822
1.800000	-0.034319	-26.977732	-74.273515	160.327023	-74.273515	160.327023	-0.087769	-73.186642
1.850000	-0.035285	-27.712494	-73.268468	160.611684	-73.268468	160.611684	-0.089799	-75.052796
1.900000	-0.036252	-28.446295	-72.311376	160.577552	-72.311376	160.577552	-0.091799	-76.908175
1.950000	-0.037217	-29.179127	-71.399372	160.286279	-71.399372	160.286279	-0.093771	-78.752797
2.000000	-0.038182	-29.910988	-70.529859	159.787416	-70.529859	159.787416	-0.095714	-80.586808
2.050000	-0.039147	-30.641868	-69.699659	159.117295	-69.699659	159.117295	-0.097632	-82.410248
2.100000	-0.040112	-31.371755	-68.905793	158.304778	-68.905793	158.304778	-0.099524	-84.223169
2.150000	-0.041078	-32.100639	-68.145519	157.372995	-68.145519	157.372995	-0.101393	-86.025632
2.200000	-0.042044	-32.828507	-67.416335	156.340643	-67.416335	156.340643	-0.103241	-87.817708
2.250000	-0.043011	-33.555347	-66.715977	155.222966	-66.715977	155.222966	-0.105069	-89.599478
2.300000	-0.043980	-34.281149	-66.042396	154.032490	-66.042396	154.032490	-0.106879	-91.371030
2.350000	-0.044950	-35.005900	-65.393742	152.779591	-65.393742	152.779591	-0.108673	-93.132462
2.400000	-0.045923	-35.729588	-64.768343	151.472924	-64.768343	151.472924	-0.110454	-94.883880
2.450000	-0.046898	-36.452201	-64.164686	150.119755	-64.164686	150.119755	-0.112223	-96.625398
2.500000	-0.047876	-37.173727	-63.581399	148.726228	-63.581399	148.726228	-0.113982	-98.357138
2.550000	-0.048857	-37.894130	-63.016858	147.296906	-63.016858	147.296906	-0.115734	-100.079020
2.600000	-0.049843	-38.613423	-62.470359	145.837085	-62.470359	145.837085	-0.117480	-101.791393
2.650000	-0.050832	-39.331592	-61.940861	144.350566	-61.940861	144.350566	-0.119222	-103.494399
2.700000	-0.051826	-40.048628	-61.427414	142.840633	-61.427414	142.840633	-0.120963	-105.188185
2.750000	-0.052825	-40.764455	-60.928415	141.309116	-60.928415	141.309116	-0.122705	-106.872420
2.800000	-0.053830	-41.479175	-60.444432	139.760492	-60.444432	139.760492	-0.124449	-108.548149
2.850000	-0.054840	-42.192726	-59.974103	138.195993	-59.974103	138.195993	-0.126197	-110.215142
2.900000	-0.055857	-42.905099	-59.516748	136.617524	-59.516748	136.617524	-0.127952	-111.873566
2.950000	-0.056880	-43.616281	-59.071737	135.026759	-59.071737	135.026759	-0.129713	-113.523597
3.000000	-0.057910	-44.326264	-58.638487	133.425183	-58.638487	133.425183	-0.131485	-115.165414
3.050000	-0.058947	-45.035036	-58.216458	131.814110	-58.216458	131.814110	-0.133267	-116.799198
3.100000	-0.059992	-45.742588	-57.805146	130.194707	-57.805146	130.194707	-0.135061	-118.425137
3.150000	-0.061046	-46.448911	-57.404084	128.568015	-57.404084	128.568015	-0.136869	-120.043421
3.200000	-0.062107	-47.153993	-57.012835	126.934965	-57.012835	126.934965	-0.138693	-121.654243
3.250000	-0.063178	-47.857828	-56.630992	125.296388	-56.630992	125.296388	-0.140533	-123.257801
3.300000	-0.064258	-48.560405	-56.258171	123.653030	-56.258171	123.653030	-0.142391	-124.854293
3.350000	-0.065347	-49.261715	-55.894017	122.005564	-55.894017	122.005564	-0.144268	-126.443924
3.400000	-0.066447	-49.961752	-55.538192	120.354592	-55.538192	120.354592	-0.146165	-128.026897
3.450000	-0.067557	-50.660507	-55.190382	118.700660	-55.190382	118.700660	-0.148083	-129.603421
3.500000	-0.068677	-51.357971	-54.850291	117.044260	-54.850291	117.044260	-0.150024	-131.173705
3.550000	-0.069809	-52.054139	-54.517638	115.385837	-54.517638	115.385837	-0.151987	-132.737962
3.600000	-0.070952	-52.749001	-54.192160	113.725797	-54.192160	113.725797	-0.153975	-134.296404
3.650000	-0.072107	-53.442553	-53.873608	112.064505	-53.873608	112.064505	-0.155987	-135.849249
3.700000	-0.073274	-54.134787	-53.561749	110.402295	-53.561749	110.402295	-0.158025	-137.396713
3.750000	-0.074454	-54.825698	-53.256358	108.739471	-53.256358	108.739471	-0.160089	-138.939015
3.800000	-0.075647	-55.515220	-52.957051	107.076306	-52.957051	107.076306	-0.162181	-140.476171
3.850000	-0.076853	-56.203407	-52.663822	105.413078	-52.663822	105.413078	-0.164301	-142.008627
3.900000	-0.078073	-56.890254	-52.376481	103.750015	-52.376481	103.750015	-0.166450	-143.536606
3.950000	-0.079307	-57.575754	-52.094847	102.087327	-52.094847	102.087327	-0.168626	-145.060332
4.000000	-0.080555	-58.259905	-51.818748	100.425207	-51.818748	100.425207	-0.170832	-146.580029
4.050000	-0.081818	-58.942701	-51.548022	98.763831	-51.548022	98.763831	-0.173068	-148.095923
4.100000	-0.083097	-59.624139	-51.282512	97.103365	-51.282512	97.103365	-0.175334	-149.608241
4.150000	-0.084390	-60.304216	-51.022072	95.443958	-51.022072	95.443958	-0.177630	-151.117209
4.200000	-0.085700	-60.982927	-50.766561	93.785751	-50.766561	93.785751	-0.179956	-152.623055
4.250000	-0.087025	-61.660271	-50.515845	92.128874	-50.515845	92.128874	-0.182314	-154.126009
4.300000	-0.088367	-62.336243	-50.269796	90.473448	-50.269796	90.473448	-0.184703	-155.626298
4.350000	-0.089726	-63.010843	-50.028292	88.819586	-50.028292	88.819586	-0.187124	-157.124151
4.400000	-0.091102	-63.684068	-49.791218	87.167394	-49.791218	87.167394	-0.189576	-158.619799
4.450000	-0.092496	-64.355916	-49.558462	85.516971	-49.558462	85.516971	-0.192060	-160.113471
4.500000	-0.093908	-65.026387	-49.329918	83.868411	-49.329918	83.868411	-0.194576	-161.605398
4.550000	-0.095338	-65.695478	-49.105485	82.221802	-49.105485	82.221802	-0.197124	-163.095809
4.600000	-0.096787	-66.363189	-48.885065	80.577229	-48.885065	80.577229	-0.199705	-164.584936
4.650000	-0.098255	-67.029520	-48.668567	78.934773	-48.668567	78.934773	-0.202317	-166.073010
4.700000	-0.099743	-67.694470	-48.455901	77.294509	-48.455901	77.294509	-0.204963	-167.560261
4.750000	-0.101250	-68.358039	-48.246983	75.656514	-48.246983	75.656514	-0.207640	-169.046921
4.800000	-0.102777	-69.020228	-48.041730	74.020857	-48.041730	74.020857	-0.210350	-170.533220
4.850000	-0.104326	-69.681038	-47.840065	72.387609	-47.840065	72.387609	-0.213092	-172.019390
4.900000	-0.105895	-70.340469	-47.641913	70.756839	-47.641913	70.756839	-0.215867	-173.505661
4.950000	-0.107485	-70.998522	-47.447202	69.128612	-47.447202	69.128612	-0.218674	-174.992266
5.000000	-0.109097	-71.655200	-47.255864	67.502994	-47.255864	67.502994	-0.221514	-176.479434
5.050000	-0.110733	-72.310444	-47.067800	65.880170	-47.067800	65.880170	-0.224387	-177.967442
5.100000	-0.112391	-72.964316	-46.882985	64.260092	-46.882985	64.260092	-0.227292	-179.456496
5.150000	-0.114071	-73.616819	-46.701360	62.642824	-46.701360	62.642824	-0.230229	179.053173
5.200000	-0.115775	-74.267955	-46.522865	61.028431	-46.522865	61.028431	-0.233198	177.561335
5.250000	-0.117503	-74.917727	-46.347444	59.416979	-46.347444	59.416979	-0.236199	176.067760
5.300000	-0.119255	-75.566138	-46.175042	57.808534	-46.175042	57.808534	-0.239232	174.572218
5.350000	-0.121031	-76.213192	-46.005608	56.203164	-46.005608	56.203164	-0.242296	173.074480
5.400000	-0.122832	-76.858893	-45.839091	54.600938	-45.839091	54.600938	-0.245391	171.574317
5.450000	-0.124659	-77.503243	-45.675444	53.001926	-45.675444	53.001926	-0.248518	170.071500
5.500000	-0.126511	-78.146248	-45.514620	51.406200	-45.514620	51.406200	-0.251675	168.565801
5.550000	-0.128389	-78.787912	-45.356574	49.813834	-45.356574	49.813834	-0.254864	167.056992
5.600000	-0.130293	-79.428239	-45.201263	48.224905	-45.201263	48.224905	-0.258083	165.544846
5.650000	-0.132225	-80.067235	-45.048647	46.639492	-45.048647	46.639492	-0.261332	164.029138
5.700000	-0.134183	-80.704905	-44.898685	45.057676	-44.898685	45.057676	-0.264612	162.509640
5.750000	-0.136169	-81.341253	-44.751339	43.479541	-44.751339	43.479541	-0.267921	160.986129
5.800000	-0.138184	-81.976286	-44.606572	41.905175	-44.606572	41.905175	-0.271261	159.458379
5.850000	-0.140226	-82.610009	-44.464349	40.334670	-44.464349	40.334670	-0.274629	157.926168
5.900000	-0.142297	-83.242429	-44.324633	38.768120	-44.324633	38.768120	-0.278028	156.389274
5.950000	-0.144398	-83.873552	-44.187393	37.205624	-44.187393	37.205624	-0.281455	154.847475
6.000000	-0.146528	-84.503384	-44.052596	35.647286	-44.052596	35.647286	-0.284911	153.300552
6.050000	-0.148688	-85.131932	-43.920210	34.093211	-43.920210	34.093211	-0.288396	151.748285
6.100000	-0.150878	-85.759203	-43.790205	32.543513	-43.790205	32.543513	-0.291909	150.190458
6.150000	-0.153099	-86.385204	-43.662551	30.998308	-43.662551	30.998308	-0.295450	148.626856
6.200000	-0.155352	-87.009942	-43.537219	29.457719	-43.537219	29.457719	-0.299020	147.057263
6.250000	-0.157635	-87.633426	-43.414182	27.921873	-43.414182	27.921873	-0.302617	145.481468
6.300000	-0.159952	-88.255608	-43.293438	26.391122	-43.293438	26.391122	-0.306243	143.898972
6.350000	-0.162302	-88.876552	-43.174937	24.865400	-43.174937	24.865400	-0.309896	142.309836
6.400000	-0.164684	-89.496266	-43.058651	23.344855	-43.058651	23.344855	-0.313576	140.713856
6.450000	-0.167099	-90.114759	-42.944556	21.829638	-42.944556	21.829638	-0.317284	139.110828
6.500000	-0.169548	-90.732037	-42.832624	20.319909	-42.832624	20.319909	-0.321018	137.500552
6.550000	-0.172030	-91.348112	-42.722829	18.815836	-42.722829	18.815836	-0.324779	135.882829
6.600000	-0.174547	-91.962991	-42.615145	17.317591	-42.615145	17.317591	-0.328567	134.257467
6.650000	-0.177099	-92.576684	-42.509547	15.825357	-42.509547	15.825357	-0.332381	132.624273
6.700000	-0.179685	-93.189199	-42.406008	14.339321	-42.406008	14.339321	-0.336222	130.983060
6.750000	-0.182307	-93.800548	-42.304502	12.859680	-42.304502	12.859680	-0.340089	129.333644
6.800000	-0.184965	-94.410738	-42.205001	11.386638	-42.205001	11.386638	-0.343983	127.675845
6.850000	-0.187659	-95.019781	-42.107477	9.920406	-42.107477	9.920406	-0.347903	126.009487
6.900000	-0.190389	-95.627686	-42.011904	8.461204	-42.011904	8.461204	-0.351849	124.334400
6.950000	-0.193156	-96.234464	-41.918250	7.009258	-41.918250	7.009258	-0.355823	122.650416
7.000000	-0.195961	-96.840125	-41.826488	5.564804	-41.826488	5.564804	-0.359823	120.957376
7.050000	-0.198803	-97.444679	-41.736584	4.128082	-41.736584	4.128082	-0.363850	119.255122
7.100000	-0.201683	-98.048138	-41.648507	2.699344	-41.648507	2.699344	-0.367905	117.543506
7.150000	-0.204601	-98.650511	-41.562223	1.278844	-41.562223	1.278844	-0.371987	115.822383
7.200000	-0.207558	-99.251812	-41.477696	-0.133154	-41.477696	-0.133154	-0.376097	114.091615
7.250000	-0.210554	-99.852049	-41.394889	-1.536383	-41.394889	-1.536383	-0.380235	112.351073
7.300000	-0.213588	-100.451281	-41.313724	-2.930976	-41.313724	-2.930976	-0.384401	110.601069
7.350000	-0.216664	-101.049417	-41.234247	-4.315744	-41.234247	-4.315744	-0.388598	108.840506
7.400000	-0.219779	-101.646525	-41.156365	-5.690898	-41.156365	-5.690898	-0.392826	107.069818
7.450000	-0.222935	-102.242618	-41.080033	-7.056154	-41.080033	-7.056154	-0.397084	105.288905
7.500000	-0.226132	-102.837708	-41.005201	-8.411221	-41.005201	-8.411221	-0.401374	103.497674
7.550000	-0.229370	-103.431785	-40.931834	-9.755577	-40.931834	-9.755577	-0.405697	101.695816
7.600000	-0.232650	-104.024884	-40.859860	-11.089153	-40.859860	-11.089153	-0.410054	99.883484
7.650000	-0.235972	-104.617018	-40.789221	-12.411662	-40.789221	-12.411662	-0.414445	98.060615
7.700000	-0.239335	-105.208198	-40.719855	-13.722820	-40.719855	-13.722820	-0.418873	96.227157
7.750000	-0.242741	-105.798439	-40.651698	-15.022348	-40.651698	-15.022348	-0.423338	94.383069
7.800000	-0.246190	-106.387752	-40.584683	-16.309973	-40.584683	-16.309973	-0.427842	92.528321
7.850000	-0.249681	-106.976152	-40.518737	-17.585432	-40.518737	-17.585432	-0.432386	90.662893
7.900000	-0.253216	-107.563651	-40.453788	-18.848470	-40.453788	-18.848470	-0.436973	88.786779
7.950000	-0.256794	-108.150262	-40.389755	-20.098848	-40.389755	-20.098848	-0.441603	86.899985
8.000000	-0.260416	-108.736001	-40.326558	-21.336339	-40.326558	-21.336339	-0.446280	85.002526
8.050000	-0.264081	-109.320879	-40.264111	-22.560734	-40.264111	-22.560734	-0.451004	83.094436
8.100000	-0.267792	-109.904912	-40.202325	-23.771843	-40.202325	-23.771843	-0.455779	81.175756
8.150000	-0.271547	-110.488104	-40.141109	-24.969350	-40.141109	-24.969350	-0.460606	79.246433
8.200000	-0.275347	-111.070471	-40.080363	-26.153105	-40.080363	-26.153105	-0.465490	77.306538
8.250000	-0.279193	-111.652035	-40.019989	-27.323139	-40.019989	-27.323139	-0.470431	75.356275
8.300000	-0.283084	-112.232810	-39.959883	-28.479363	-39.959883	-28.479363	-0.475434	73.395745
8.350000	-0.287021	-112.812791	-39.899931	-29.621317	-39.899931	-29.621317	-0.480502	71.424772
8.400000	-0.291001	-113.392069	-39.840066	-30.750403	-39.840066	-30.750403	-0.485631	69.444513
8.450000	-0.295031	-113.970542	-39.780112	-31.864469	-39.780112	-31.864469	-0.490837	67.453569
8.500000	-0.299105	-114.548326	-39.720026	-32.965434	-39.720026	-32.965434	-0.496113	65.453428
8.550000	-0.303226	-115.125379	-39.659650	-34.052320	-39.659650	-34.052320	-0.501467	63.443523
8.600000	-0.307394	-115.701731	-39.598884	-35.125514	-39.598884	-35.125514	-0.506903	61.424227
8.650000	-0.311607	-116.277425	-39.537648	-36.185704	-39.537648	-36.185704	-0.512421	59.396105
8.700000	-0.315870	-116.852410	-39.475735	-37.231810	-39.475735	-37.231810	-0.518033	57.358510
8.750000	-0.320176	-117.426805	-39.413204	-38.266102	-39.413204	-38.266102	-0.523730	55.313034
8.800000	-0.324535	-118.000489	-39.349677	-39.286151	-39.349677	-39.286151	-0.529535	53.258125
8.850000	-0.328937	-118.573612	-39.285328	-40.294968	-39.285328	-40.294968	-0.535434	51.195820
8.900000	-0.333389	-119.146096	-39.219822	-41.291039	-39.219822	-41.291039	-0.541445	49.125162
8.950000	-0.337888	-119.718015	-39.153206	-42.275923	-39.153206	-42.275923	-0.547563	47.047197
9.000000	-0.342435	-120.289363	-39.085312	-43.249639	-39.085312	-43.249639	-0.553798	44.961949
9.050000	-0.347030	-120.860146	-39.016003	-44.212472	-39.016003	-44.212472	-0.560155	42.869611
9.100000	-0.351672	-121.430423	-38.945336	-45.165752	-38.945336	-45.165752	-0.566632	40.771042
9.150000	-0.356365	-122.000140	-38.872935	-46.108729	-38.872935	-46.108729	-0.573250	38.665734
9.200000	-0.361102	-122.569404	-38.799096	-47.043606	-38.799096	-47.043606	-0.579991	36.555103
9.250000	-0.365892	-123.138137	-38.723287	-47.969363	-38.723287	-47.969363	-0.586887	34.438440
9.300000	-0.370728	-123.706438	-38.645850	-48.888056	-38.645850	-48.888056	-0.593918	32.317062
9.350000	-0.375613	-124.274274	-38.566420	-49.799517	-38.566420	-49.799517	-0.601107	30.190796
9.400000	-0.380547	-124.841688	-38.485084	-50.704833	-38.485084	-50.704833	-0.608449	28.060315
9.450000	-0.385528	-125.408697	-38.401781	-51.604724	-38.401781	-51.604724	-0.615951	25.926036
9.500000	-0.390559	-125.975297	-38.316292	-52.499635	-38.316292	-52.499635	-0.623626	23.788178
9.550000	-0.395636	-126.541550	-38.228908	-53.390813	-38.228908	-53.390813	-0.631460	21.647540
9.600000	-0.400765	-127.107413	-38.139059	-54.278405	-38.139059	-54.278405	-0.639488	19.504093
9.650000	-0.405939	-127.672971	-38.047306	-55.163744	-38.047306	-55.163744	-0.647682	17.358742
9.700000	-0.411165	-128.238186	-37.953062	-56.047233	-37.953062	-56.047233	-0.656078	15.211612
9.750000	-0.416437	-128.803119	-37.856741	-56.929836	-37.856741	-56.929836	-0.664655	13.063357
9.800000	-0.421758	-129.367768	-37.758064	-57.812271	-37.758064	-57.812271	-0.673432	10.914357
9.850000	-0.427127	-129.932157	-37.657081	-58.695302	-37.657081	-58.695302	-0.682412	8.765084
9.900000	-0.432542	-130.496316	-37.553914	-59.579650	-37.553914	-59.579650	-0.691589	6.615998
9.950000	-0.438009	-131.060243	-37.448213	-60.466242	-37.448213	-60.466242	-0.700989	4.467605
10.000000	-0.443518	-131.623989	-37.340531	-61.355424	-37.340531	-61.355424	-0.710584	2.320219
