! freq	dB(S11)	phase(S11)	dB(S12)	phase(S12)	
!     	dB(S21)	phase(S21)	dB(S22)	phase(S22)	
!S-par simulation data
#  GHz  S  DB  R 50
0.000000	-82.058333	0.000000	-0.000685	0.000000	-0.000685	0.000000	-82.058333	0.000000
0.050000	-66.777816	74.408224	-0.005803	-2.629460	-0.005803	-2.629460	-67.160149	70.004531
0.100000	-61.437175	75.279537	-0.012432	-5.210400	-0.012432	-5.210400	-61.446219	66.219427
0.150000	-58.608757	75.576924	-0.016483	-7.775843	-0.016483	-7.775843	-58.190807	60.194801
0.200000	-56.658493	77.092415	-0.019201	-10.340249	-0.019201	-10.340249	-55.908783	54.451578
0.250000	-55.052577	79.531315	-0.021362	-12.905842	-0.021362	-12.905842	-54.111038	49.357620
0.300000	-53.560984	82.257733	-0.023351	-15.472510	-0.023351	-15.472510	-52.572775	44.902770
0.350000	-52.127131	84.765153	-0.025347	-18.039693	-0.025347	-18.039693	-51.194579	40.897091
0.400000	-50.725081	86.781632	-0.027413	-20.607079	-0.027413	-20.607079	-49.918401	37.261685
0.450000	-49.358147	88.186249	-0.029577	-23.174416	-0.029577	-23.174416	-48.714701	33.910969
0.500000	-48.021376	88.911709	-0.031856	-25.741506	-0.031856	-25.741506	-47.558219	30.797047
0.550000	-46.735353	89.053832	-0.034240	-28.308262	-0.034240	-28.308262	-46.447761	27.854739
0.600000	-45.507041	88.697626	-0.036718	-30.874649	-0.036718	-30.874649	-45.380516	25.046201
0.650000	-44.336748	87.914441	-0.039280	-33.440660	-0.039280	-33.440660	-44.352976	22.346315
0.700000	-43.223054	86.770219	-0.041916	-36.006311	-0.041916	-36.006311	-43.362659	19.735293
0.750000	-42.163520	85.322844	-0.044617	-38.571638	-0.044617	-38.571638	-42.407658	17.197241
0.800000	-41.153643	83.616635	-0.047374	-41.136688	-0.047374	-41.136688	-41.484878	14.720381
0.850000	-40.187024	81.683456	-0.050183	-43.701512	-0.050183	-43.701512	-40.589511	12.296178
0.900000	-39.266769	79.578941	-0.053032	-46.266203	-0.053032	-46.266203	-39.726385	9.910860
0.950000	-38.389613	77.330742	-0.055916	-48.830831	-0.055916	-48.830831	-38.894184	7.557342
1.000000	-37.552547	74.961982	-0.058832	-51.395468	-0.058832	-51.395468	-38.091680	5.229678
1.050000	-36.752828	72.492032	-0.061778	-53.960185	-0.061778	-53.960185	-37.317711	2.922873
1.100000	-35.987969	69.937170	-0.064751	-56.525053	-0.064751	-56.525053	-36.571182	0.632733
1.150000	-35.253627	67.306758	-0.067754	-59.090159	-0.067754	-59.090159	-35.848689	-1.643520
1.200000	-34.549204	64.615874	-0.070785	-61.655572	-0.070785	-61.655572	-35.150809	-3.909567
1.250000	-33.874142	61.876907	-0.073845	-64.221341	-0.073845	-64.221341	-34.478050	-6.168309
1.300000	-33.226716	59.097883	-0.076936	-66.787522	-0.076936	-66.787522	-33.829461	-8.421721
1.350000	-32.605385	56.285665	-0.080059	-69.354168	-0.080059	-69.354168	-33.204150	-10.671456
1.400000	-32.008760	53.446133	-0.083217	-71.921325	-0.083217	-71.921325	-32.601283	-12.918895
1.450000	-31.435510	50.584228	-0.086414	-74.489041	-0.086414	-74.489041	-32.019977	-15.165186
1.500000	-30.883267	47.702869	-0.089655	-77.057418	-0.089655	-77.057418	-31.458016	-17.411361
1.550000	-30.352708	44.807993	-0.092942	-79.626429	-0.092942	-79.626429	-30.916709	-19.658272
1.600000	-29.842879	41.902695	-0.096275	-82.196099	-0.096275	-82.196099	-30.395375	-21.906539
1.650000	-29.352923	38.989648	-0.099659	-84.766454	-0.099659	-84.766454	-29.893384	-24.156670
1.700000	-28.882321	36.071320	-0.103095	-87.337482	-0.103095	-87.337482	-29.410471	-26.408974
1.750000	-28.429636	33.149254	-0.106590	-89.909282	-0.106590	-89.909282	-28.945175	-28.664075
1.800000	-27.994729	30.225555	-0.110144	-92.481824	-0.110144	-92.481824	-28.497595	-30.922109
1.850000	-27.577069	27.301744	-0.113759	-95.055116	-0.113759	-95.055116	-28.067315	-33.183281
1.900000	-27.176164	24.379149	-0.117439	-97.629169	-0.117439	-97.629169	-27.653925	-35.447778
1.950000	-26.791616	21.458914	-0.121182	-100.203986	-0.121182	-100.203986	-27.257107	-37.715705
2.000000	-26.423059	18.541960	-0.124991	-102.779554	-0.124991	-102.779554	-26.876569	-39.987088
2.050000	-26.070139	15.629082	-0.128863	-105.355871	-0.128863	-105.355871	-26.512005	-42.261952
2.100000	-25.732541	12.720950	-0.132800	-107.932930	-0.132800	-107.932930	-26.163137	-44.540295
2.150000	-25.409983	9.818129	-0.136799	-110.510723	-0.136799	-110.510723	-25.829716	-46.822085
2.200000	-25.102218	6.921086	-0.140859	-113.089241	-0.140859	-113.089241	-25.511515	-49.107269
2.250000	-24.809030	4.030209	-0.144976	-115.668476	-0.144976	-115.668476	-25.208334	-51.395773
2.300000	-24.530231	1.145814	-0.149148	-118.248419	-0.149148	-118.248419	-24.919998	-53.687504
2.350000	-24.265664	-1.731844	-0.153371	-120.829061	-0.153371	-120.829061	-24.646355	-55.982352
2.400000	-24.015199	-4.602567	-0.157638	-123.410394	-0.157638	-123.410394	-24.387280	-58.280193
2.450000	-23.778736	-7.466201	-0.161946	-125.992415	-0.161946	-125.992415	-24.142670	-60.580888
2.500000	-23.556200	-10.322636	-0.166288	-128.575119	-0.166288	-128.575119	-23.912448	-62.884285
2.550000	-23.347743	-13.171634	-0.170658	-131.158521	-0.170658	-131.158521	-23.696764	-65.190269
2.600000	-23.153175	-16.013308	-0.175047	-133.742610	-0.175047	-133.742610	-23.495419	-67.498601
2.650000	-22.972502	-18.847641	-0.179447	-136.327392	-0.179447	-136.327392	-23.308410	-69.809091
2.700000	-22.805759	-21.674635	-0.183851	-138.912880	-0.183851	-138.912880	-23.135764	-72.121530
2.750000	-22.653012	-24.494312	-0.188250	-141.499089	-0.188250	-141.499089	-22.977534	-74.435697
2.800000	-22.514355	-27.306711	-0.192634	-144.086039	-0.192634	-144.086039	-22.833803	-76.751355
2.850000	-22.389917	-30.111880	-0.196995	-146.673759	-0.196995	-146.673759	-22.704688	-79.068245
2.900000	-22.279859	-32.909880	-0.201323	-149.262279	-0.201323	-149.262279	-22.590338	-81.386090
2.950000	-22.184379	-35.700776	-0.205609	-151.851638	-0.205609	-151.851638	-22.490939	-83.704585
3.000000	-22.103714	-38.484641	-0.209842	-154.441879	-0.209842	-154.441879	-22.406715	-86.023398
3.050000	-22.038145	-41.261547	-0.214015	-157.033054	-0.214015	-157.033054	-22.337934	-88.342160
3.100000	-21.987996	-44.031569	-0.218117	-159.625218	-0.218117	-159.625218	-22.284910	-90.660463
3.150000	-21.953820	-46.794704	-0.222141	-162.218446	-0.222141	-162.218446	-22.248186	-92.977834
3.200000	-21.936069	-49.551019	-0.226076	-164.812809	-0.226076	-164.812809	-22.228205	-95.293737
3.250000	-21.935068	-52.300645	-0.229916	-167.408370	-0.229916	-167.408370	-22.225277	-97.607592
3.300000	-21.951383	-55.043626	-0.233656	-170.005210	-0.233656	-170.005210	-22.239958	-99.918723
3.350000	-21.985659	-57.779991	-0.237288	-172.603414	-0.237288	-172.603414	-22.272884	-102.226353
3.400000	-22.038628	-60.509748	-0.240807	-175.203071	-0.240807	-175.203071	-22.324780	-104.529579
3.450000	-22.111129	-63.232882	-0.244210	-177.804278	-0.244210	-177.804278	-22.396475	-106.827349
3.500000	-22.204116	-65.949344	-0.247494	179.592869	-0.247494	179.592869	-22.488916	-109.118431
3.550000	-22.318682	-68.659049	-0.250656	176.988268	-0.250656	176.988268	-22.603188	-111.401364
3.600000	-22.456078	-71.361863	-0.253697	174.381814	-0.253697	174.381814	-22.740535	-113.674413
3.650000	-22.617747	-74.057591	-0.256616	171.773403	-0.256616	171.773403	-22.902388	-115.935501
3.700000	-22.805352	-76.745965	-0.259416	169.162929	-0.259416	169.162929	-23.090401	-118.182120
3.750000	-23.020827	-79.426623	-0.262101	166.550284	-0.262101	166.550284	-23.306492	-120.411222
3.800000	-23.266970	-82.098893	-0.264674	163.935311	-0.264674	163.935311	-23.553443	-122.618501
3.850000	-23.545935	-84.762297	-0.267143	161.317954	-0.267143	161.317954	-23.833372	-124.799630
3.900000	-23.860874	-87.415986	-0.269516	158.698113	-0.269516	158.698113	-24.149387	-126.948714
3.950000	-24.215554	-90.058847	-0.271803	156.075689	-0.271803	156.075689	-24.505185	-129.058266
4.000000	-24.614525	-92.689401	-0.274015	153.450592	-0.274015	153.450592	-24.905214	-131.118661
4.050000	-25.063350	-95.305682	-0.276165	150.822736	-0.276165	150.822736	-25.354875	-133.117322
4.100000	-25.568925	-97.905026	-0.278266	148.192040	-0.278266	148.192040	-25.860806	-135.037528
4.150000	-26.139932	-100.483774	-0.280333	145.558434	-0.280333	145.558434	-26.431276	-136.856590
4.200000	-26.787513	-103.036785	-0.282382	142.921855	-0.282382	142.921855	-27.076741	-138.542991
4.250000	-27.526289	-105.556639	-0.284430	140.282250	-0.284430	140.282250	-27.810655	-140.051726
4.300000	-28.375975	-108.032265	-0.286497	137.639577	-0.286497	137.639577	-28.650666	-141.316416
4.350000	-29.364046	-110.446438	-0.288599	134.993805	-0.288599	134.993805	-29.620410	-142.235315
4.400000	-30.530968	-112.769375	-0.290760	132.344882	-0.290760	132.344882	-30.752592	-142.636525
4.450000	-31.938176	-114.948114	-0.292998	129.692801	-0.292998	129.692801	-32.091937	-142.225419
4.500000	-33.686323	-116.880711	-0.295334	127.037606	-0.295334	127.037606	-33.699642	-140.472516
4.550000	-35.960362	-118.330768	-0.297789	124.379318	-0.297789	124.379318	-35.652169	-136.301980
4.600000	-39.156671	-118.605656	-0.300383	121.717974	-0.300383	121.717974	-37.989192	-127.397288
4.650000	-44.391679	-114.389514	-0.303135	119.053625	-0.303135	119.053625	-40.392801	-109.272331
4.700000	-53.756744	-55.598815	-0.306067	116.386334	-0.306067	116.386334	-41.358018	-80.033647
4.750000	-46.143004	27.583120	-0.309195	113.716182	-0.309195	113.716182	-39.695409	-52.611709
4.800000	-39.782426	34.987183	-0.312539	111.043260	-0.312539	111.043260	-37.025528	-36.923687
4.850000	-36.041221	35.275666	-0.316113	108.367675	-0.316113	108.367675	-34.560478	-29.367537
4.900000	-33.388705	34.038195	-0.319934	105.689546	-0.319934	105.689546	-32.483093	-25.905350
4.950000	-31.330853	32.224588	-0.324014	103.009004	-0.324014	103.009004	-30.734277	-24.574127
5.000000	-29.648993	30.133227	-0.328365	100.326189	-0.328365	100.326189	-29.239552	-24.453833
5.050000	-28.227155	27.886291	-0.333001	97.641212	-0.333001	97.641212	-27.940983	-25.088867
5.100000	-26.997095	25.548175	-0.337922	94.954281	-0.337922	94.954281	-26.797623	-26.206426
5.150000	-25.914731	23.151668	-0.343134	92.265563	-0.343134	92.265563	-25.779307	-27.659212
5.200000	-24.950123	20.716630	-0.348635	89.575230	-0.348635	89.575230	-24.863925	-29.354513
5.250000	-24.082016	18.255869	-0.354426	86.883457	-0.354426	86.883457	-24.034922	-31.231331
5.300000	-23.294790	15.778091	-0.360500	84.190421	-0.360500	84.190421	-23.279647	-33.248027
5.350000	-22.576641	13.289498	-0.366849	81.496296	-0.366849	81.496296	-22.588253	-35.375278
5.400000	-21.918437	10.794694	-0.373463	78.801254	-0.373463	78.801254	-21.952947	-37.591900
5.450000	-21.312978	8.297234	-0.380327	76.105462	-0.380327	76.105462	-21.367480	-39.882249
5.500000	-20.754498	5.799965	-0.387422	73.409079	-0.387422	73.409079	-20.826770	-42.234571
5.550000	-20.238313	3.305249	-0.394728	70.712253	-0.394728	70.712253	-20.326649	-44.639905
5.600000	-19.760578	0.815111	-0.402221	68.015120	-0.402221	68.015120	-19.863662	-47.091351
5.650000	-19.318230	-1.668571	-0.409875	65.317801	-0.409875	65.317801	-19.435060	-49.583954
5.700000	-18.908630	-4.144113	-0.417660	62.620401	-0.417660	62.620401	-19.038450	-52.113452
5.750000	-18.529416	-6.610062	-0.425541	59.923004	-0.425541	59.923004	-18.671667	-54.676239
5.800000	-18.178692	-9.064954	-0.433482	57.225670	-0.433482	57.225670	-18.332983	-57.269898
5.850000	-17.854851	-11.507353	-0.441447	54.528434	-0.441447	54.528434	-18.020939	-59.892624
5.900000	-17.556533	-13.935816	-0.449396	51.831305	-0.449396	51.831305	-17.734302	-62.543133
5.950000	-17.282584	-16.348873	-0.457289	49.134260	-0.457289	49.134260	-17.472039	-65.220594
6.000000	-17.032030	-18.745000	-0.465084	46.437251	-0.465084	46.437251	-17.233287	-67.924582
6.050000	-16.804055	-21.122595	-0.472739	43.740195	-0.472739	43.740195	-17.017337	-70.655047
6.100000	-16.597981	-23.479951	-0.480210	41.042974	-0.480210	41.042974	-16.823620	-73.412291
6.150000	-16.413258	-25.815227	-0.487456	38.345439	-0.487456	38.345439	-16.651696	-76.196961
6.200000	-16.249446	-28.126422	-0.494433	35.647402	-0.494433	35.647402	-16.501241	-79.010053
6.250000	-16.106215	-30.411334	-0.501102	32.948642	-0.501102	32.948642	-16.372048	-81.852919
6.300000	-15.983738	-32.666831	-0.507414	30.248870	-0.507414	30.248870	-16.264456	-84.728022
6.350000	-15.881488	-34.890732	-0.513339	27.547802	-0.513339	27.547802	-16.178063	-87.636884
6.400000	-15.799414	-37.079933	-0.518844	24.845103	-0.518844	24.845103	-16.112989	-90.582124
6.450000	-15.737555	-39.230913	-0.523897	22.140399	-0.523897	22.140399	-16.069464	-93.566868
6.500000	-15.696032	-41.339652	-0.528472	19.433284	-0.528472	19.433284	-16.047834	-96.594819
6.550000	-15.675054	-43.401535	-0.532547	16.723313	-0.532547	16.723313	-16.048566	-99.670349
6.600000	-15.674909	-45.411231	-0.536105	14.010012	-0.536105	14.010012	-16.072252	-102.798608
6.650000	-15.695971	-47.362557	-0.539135	11.292872	-0.539135	11.292872	-16.119623	-105.985672
6.700000	-15.738689	-49.248303	-0.541632	8.571358	-0.541632	8.571358	-16.191556	-109.238721
6.750000	-15.803589	-51.060028	-0.543599	5.844908	-0.543599	5.844908	-16.289088	-112.566270
6.800000	-15.891263	-52.787800	-0.545046	3.112934	-0.545046	3.112934	-16.413426	-115.978469
6.850000	-16.002361	-54.419896	-0.545991	0.374832	-0.545991	0.374832	-16.565967	-119.487478
6.900000	-16.137748	-55.941374	-0.546458	-2.370083	-0.546458	-2.370083	-16.748525	-123.109041
6.950000	-16.298105	-57.335193	-0.546484	-5.122459	-0.546484	-5.122459	-16.962915	-126.861550
7.000000	-16.483882	-58.582351	-0.546119	-7.882882	-0.546119	-7.882882	-17.210927	-130.766174
7.050000	-16.695586	-59.659059	-0.545420	-10.651994	-0.545420	-10.651994	-17.494761	-134.850216
7.100000	-16.933487	-60.536865	-0.544455	-13.430431	-0.544455	-13.430431	-17.816766	-139.147714
7.150000	-17.197449	-61.181801	-0.543303	-16.218819	-0.543303	-16.218819	-18.179342	-143.701444
7.200000	-17.486712	-61.552624	-0.542052	-19.017793	-0.542052	-19.017793	-18.584809	-148.566597
7.250000	-17.799459	-61.599247	-0.540807	-21.828004	-0.540807	-21.828004	-19.034995	-153.815441
7.300000	-18.132139	-61.268530	-0.539681	-24.649912	-0.539681	-24.649912	-19.530210	-159.534234
7.350000	-18.479069	-60.498214	-0.538799	-27.484019	-0.538799	-27.484019	-20.068639	-165.835756
7.400000	-18.831394	-59.221673	-0.538298	-30.330777	-0.538298	-30.330777	-20.644162	-172.860909
7.450000	-19.176043	-57.373706	-0.538324	-33.190579	-0.538324	-33.190579	-21.243195	179.221076
7.500000	-19.494783	-54.901236	-0.539036	-36.063745	-0.539036	-36.063745	-21.840052	170.223500
7.550000	-19.762944	-51.773325	-0.540612	-38.950669	-0.540612	-38.950669	-22.389842	159.962639
7.600000	-19.952677	-48.025776	-0.543224	-41.851357	-0.543224	-41.851357	-22.828044	148.379852
7.650000	-20.034729	-43.760175	-0.547055	-44.765861	-0.547055	-44.765861	-23.074584	135.616806
7.700000	-19.984572	-39.158321	-0.552299	-47.694127	-0.552299	-47.694127	-23.056862	122.114285
7.750000	-19.788821	-34.465152	-0.559154	-50.635986	-0.559154	-50.635986	-22.742763	108.556732
7.800000	-19.449363	-29.946247	-0.567822	-53.591146	-0.567822	-53.591146	-22.158782	95.644475
7.850000	-18.981737	-25.840650	-0.578525	-56.559283	-0.578525	-56.559283	-21.373491	83.863332
7.900000	-18.413454	-22.311466	-0.591458	-59.539761	-0.591458	-59.539761	-20.469961	73.376795
7.950000	-17.774665	-19.438921	-0.606818	-62.531843	-0.606818	-62.531843	-19.515894	64.124565
8.000000	-17.093017	-17.236167	-0.624802	-65.534687	-0.624802	-65.534687	-18.557108	55.944997
8.050000	-16.391288	-15.670099	-0.645601	-68.547307	-0.645601	-68.547307	-17.621137	48.652411
8.100000	-15.686696	-14.682442	-0.669395	-71.568579	-0.669395	-71.568579	-16.722779	42.076217
8.150000	-14.991245	-14.207691	-0.696371	-74.597275	-0.696371	-74.597275	-15.868727	36.076338
8.200000	-14.313252	-14.176856	-0.726684	-77.631976	-0.726684	-77.631976	-15.061375	30.537371
8.250000	-13.658099	-14.524459	-0.760456	-80.671124	-0.760456	-80.671124	-14.300606	25.367736
8.300000	-13.028801	-15.194858	-0.797803	-83.713091	-0.797803	-83.713091	-13.584778	20.498654
8.350000	-12.426969	-16.138767	-0.838804	-86.756153	-0.838804	-86.756153	-12.911692	15.875792
8.400000	-11.852994	-17.318891	-0.883596	-89.798476	-0.883596	-89.798476	-12.278753	11.461080
8.450000	-11.307023	-18.696475	-0.932178	-92.838164	-0.932178	-92.838164	-11.683656	7.218869
8.500000	-10.788573	-20.241762	-0.984570	-95.873289	-0.984570	-95.873289	-11.124024	3.123779
8.550000	-10.296912	-21.929426	-1.040764	-98.901893	-1.040764	-98.901893	-10.597626	-0.844234
8.600000	-9.831157	-23.737853	-1.100727	-101.922006	-1.100727	-101.922006	-10.102393	-4.701082
8.650000	-9.390342	-25.648532	-1.164394	-104.931670	-1.164394	-104.931670	-9.636417	-8.459447
8.700000	-8.973464	-27.645545	-1.231675	-107.928956	-1.231675	-107.928956	-9.197942	-12.129490
8.750000	-8.579511	-29.715148	-1.302453	-110.911984	-1.302453	-110.911984	-8.785348	-15.719384
8.800000	-8.207565	-31.846151	-1.376620	-113.878679	-1.376620	-113.878679	-8.397239	-19.234756
8.850000	-7.856576	-34.027210	-1.453963	-116.827524	-1.453963	-116.827524	-8.032152	-22.682094
8.900000	-7.525578	-36.249354	-1.534289	-119.756894	-1.534289	-119.756894	-7.688798	-26.065767
8.950000	-7.213640	-38.504744	-1.617385	-122.665282	-1.617385	-122.665282	-7.365974	-29.389387
9.000000	-6.919859	-40.786528	-1.703016	-125.551304	-1.703016	-125.551304	-7.062558	-32.655973
9.050000	-6.643371	-43.088712	-1.790932	-128.413716	-1.790932	-128.413716	-6.777499	-35.868083
9.100000	-6.383342	-45.406061	-1.880868	-131.251418	-1.880868	-131.251418	-6.509811	-39.027917
9.150000	-6.138975	-47.734012	-1.972545	-134.063459	-1.972545	-134.063459	-6.258566	-42.137400
9.200000	-5.909589	-50.068626	-2.065676	-136.848784	-2.065676	-136.848784	-6.022976	-45.197797
9.250000	-5.694411	-52.406382	-2.159956	-139.606874	-2.159956	-139.606874	-5.802172	-48.210936
9.300000	-5.492703	-54.744312	-2.255080	-142.337386	-2.255080	-142.337386	-5.595335	-51.178499
9.350000	-5.303799	-57.079909	-2.350743	-145.040005	-2.350743	-145.040005	-5.401730	-54.101859
9.400000	-5.127064	-59.411050	-2.446638	-147.714572	-2.446638	-147.714572	-5.220667	-56.982333
9.450000	-4.961899	-61.735959	-2.542458	-150.361079	-2.542458	-150.361079	-5.051494	-59.821208
9.500000	-4.807735	-64.053173	-2.637896	-152.979665	-2.637896	-152.979665	-4.893597	-62.619749
9.550000	-4.664033	-66.361510	-2.732652	-155.570611	-2.732652	-155.570611	-4.746401	-65.379211
9.600000	-4.530761	-68.659382	-2.826286	-158.132659	-2.826286	-158.132659	-4.609844	-68.098553
9.650000	-4.406232	-70.947755	-2.918861	-160.670628	-2.918861	-160.670628	-4.482197	-70.784889
9.700000	-4.291335	-73.224230	-3.009669	-163.180488	-3.009669	-163.180488	-4.364336	-73.433046
9.750000	-4.184659	-75.490001	-3.098785	-165.666507	-3.098785	-165.666507	-4.254819	-76.048997
9.800000	-4.086368	-77.744051	-3.185723	-168.127676	-3.185723	-168.127676	-4.153793	-78.631415
9.850000	-3.995959	-79.986605	-3.270282	-170.565470	-3.270282	-170.565470	-4.060735	-81.182192
9.900000	-3.912839	-82.218232	-3.352343	-172.981877	-3.352343	-172.981877	-3.975034	-83.703781
9.950000	-3.837328	-84.438104	-3.431326	-175.376039	-3.431326	-175.376039	-3.896994	-86.194599
10.000000	-3.768154	-86.648240	-3.507574	-177.752362	-3.507574	-177.752362	-3.825330	-88.660254
