! freq	dB(S11)	phase(S11)	dB(S12)	phase(S12)	
!     	dB(S21)	phase(S21)	dB(S22)	phase(S22)	
!S-par simulation data
#  GHz  S  DB  R 50
0.000000	-78.618187	0.000000	-0.001018	0.000000	-0.001018	0.000000	-78.618187	0.000000
0.050000	-46.739708	-85.285612	-0.007454	-3.452305	-0.007454	-3.452305	-46.734622	-85.261697
0.100000	-40.902604	-92.739193	-0.015219	-6.849436	-0.015219	-6.849436	-40.902668	-92.645363
0.150000	-37.450860	-97.585248	-0.021036	-10.232973	-0.021036	-10.232973	-37.452011	-97.438696
0.200000	-35.015316	-101.768793	-0.026300	-13.613498	-0.026300	-13.613498	-35.016892	-101.570861
0.250000	-33.150931	-105.658407	-0.031490	-16.991621	-0.031490	-16.991621	-33.152755	-105.408952
0.300000	-31.655241	-109.409364	-0.036703	-20.367542	-0.036703	-20.367542	-31.657278	-109.107794
0.350000	-30.417721	-113.082765	-0.041921	-23.741754	-0.041921	-23.741754	-30.419984	-112.728345
0.400000	-29.371397	-116.709341	-0.047118	-27.114833	-0.047118	-27.114833	-29.373925	-116.301295
0.450000	-28.482305	-120.298593	-0.052268	-30.487176	-0.052268	-30.487176	-28.485174	-119.835950
0.500000	-27.713479	-123.865769	-0.057370	-33.859350	-0.057370	-33.859350	-27.716746	-123.347705
0.550000	-27.048771	-127.413958	-0.062410	-37.231711	-0.062410	-37.231711	-27.052502	-126.839553
0.600000	-26.474549	-130.946125	-0.067380	-40.604602	-0.067380	-40.604602	-26.478805	-130.314388
0.650000	-25.974944	-134.465986	-0.072281	-43.978223	-0.072281	-43.978223	-25.979758	-133.775948
0.700000	-25.549184	-137.973102	-0.077087	-47.352999	-0.077087	-47.352999	-25.554591	-137.223451
0.750000	-25.185212	-141.470352	-0.081798	-50.729049	-0.081798	-50.729049	-25.191225	-140.659726
0.800000	-24.878603	-144.959013	-0.086402	-54.106629	-0.086402	-54.106629	-24.885229	-144.085806
0.850000	-24.631034	-148.439755	-0.090872	-57.486226	-0.090872	-57.486226	-24.638285	-147.501857
0.900000	-24.432374	-151.915281	-0.095216	-60.867813	-0.095216	-60.867813	-24.440260	-150.910612
0.950000	-24.288586	-155.386529	-0.099400	-64.252092	-0.099400	-64.252092	-24.297135	-154.312270
1.000000	-24.192061	-158.855679	-0.103435	-67.639043	-0.103435	-67.639043	-24.201304	-157.709016
1.050000	-24.146055	-162.324323	-0.107301	-71.029244	-0.107301	-71.029244	-24.156041	-161.101785
1.100000	-24.149728	-165.794137	-0.110999	-74.422993	-0.110999	-74.422993	-24.160522	-164.491837
1.150000	-24.201900	-169.266676	-0.114534	-77.820515	-0.114534	-77.820515	-24.213578	-167.880310
1.200000	-24.308885	-172.743928	-0.117893	-81.222585	-0.117893	-81.222585	-24.321549	-171.267999
1.250000	-24.464893	-176.226679	-0.121109	-84.628881	-0.121109	-84.628881	-24.478657	-174.655691
1.300000	-24.684134	-179.718183	-0.124158	-88.040820	-0.124158	-88.040820	-24.699159	-178.044029
1.350000	-24.959446	176.781497	-0.127087	-91.457671	-0.127087	-91.457671	-24.975906	178.566756
1.400000	-25.304668	173.268612	-0.129892	-94.880639	-0.129892	-94.880639	-25.322801	175.176353
1.450000	-25.721647	169.741868	-0.132607	-98.309489	-0.132607	-98.309489	-25.741744	171.784959
1.500000	-26.221985	166.197451	-0.135253	-101.744771	-0.135253	-101.744771	-26.244428	168.392970
1.550000	-26.819638	162.630705	-0.137857	-105.186896	-0.137857	-105.186896	-26.844942	165.001278
1.600000	-27.526785	159.037652	-0.140455	-108.635589	-0.140455	-108.635589	-27.555635	161.611344
1.650000	-28.376500	155.404797	-0.143086	-112.092031	-0.143086	-112.092031	-28.409908	158.226352
1.700000	-29.392605	151.724439	-0.145784	-115.555292	-0.145784	-115.555292	-29.432020	154.849942
1.750000	-30.634859	147.967669	-0.148601	-119.026297	-0.148601	-119.026297	-30.682618	151.491059
1.800000	-32.185871	144.090634	-0.151585	-122.504994	-0.151585	-122.504994	-32.245971	148.165123
1.850000	-34.195462	139.997073	-0.154786	-125.991542	-0.154786	-125.991542	-34.275657	144.905931
1.900000	-36.969843	135.427943	-0.158261	-129.486196	-0.158261	-129.486196	-37.088466	141.805505
1.950000	-41.298970	129.387773	-0.162057	-132.989130	-0.162057	-132.989130	-41.519151	139.226301
2.000000	-50.670367	111.311315	-0.166212	-136.500425	-0.166212	-136.500425	-51.690816	141.633736
2.050000	-49.303239	-30.056077	-0.170757	-140.020226	-0.170757	-140.020226	-49.246371	-57.309329
2.100000	-40.466383	-49.223951	-0.175717	-143.548645	-0.175717	-143.548645	-40.335106	-55.370333
2.150000	-36.027764	-55.194065	-0.181109	-147.085748	-0.181109	-147.085748	-35.936808	-58.066370
2.200000	-33.047051	-59.784851	-0.186942	-150.631557	-0.186942	-150.631557	-32.977861	-61.228404
2.250000	-30.796923	-63.932414	-0.193224	-154.186058	-0.193224	-154.186058	-30.740981	-64.547253
2.300000	-28.989101	-67.884251	-0.199957	-157.749205	-0.199957	-157.749205	-28.942013	-67.940337
2.350000	-27.479757	-71.734796	-0.207141	-161.320940	-0.207141	-161.320940	-27.438984	-71.375903
2.400000	-26.186694	-75.528032	-0.214772	-164.901195	-0.214772	-164.901195	-26.150638	-74.839064
2.450000	-25.058475	-79.287274	-0.222842	-168.489907	-0.222842	-168.489907	-25.026063	-78.321891
2.500000	-24.060745	-83.026093	-0.231339	-172.087025	-0.231339	-172.087025	-24.031220	-81.819764
2.550000	-23.169537	-86.752853	-0.240256	-175.692696	-0.240256	-175.692696	-23.142342	-85.330043
2.600000	-22.367211	-90.473501	-0.249560	-179.306729	-0.249560	-179.306729	-22.341924	-88.850602
2.650000	-21.640500	-94.191937	-0.259226	177.070856	-0.259226	177.070856	-21.616790	-92.380243
2.700000	-20.979151	-97.911057	-0.269224	173.440005	-0.269224	173.440005	-20.956756	-95.918168
2.750000	-20.375066	-101.633127	-0.279520	169.800625	-0.279520	169.800625	-20.353770	-99.463862
2.800000	-19.821722	-105.359998	-0.290074	166.152580	-0.290074	166.152580	-19.801348	-103.017019
2.850000	-19.313777	-109.093262	-0.300847	162.495689	-0.300847	162.495689	-19.294175	-106.577493
2.900000	-18.846787	-112.834339	-0.311794	158.829720	-0.311794	158.829720	-18.827830	-110.145269
2.950000	-18.417003	-116.584548	-0.322872	155.154390	-0.322872	155.154390	-18.398582	-113.720439
3.000000	-18.021220	-120.345149	-0.334034	151.469360	-0.334034	151.469360	-18.003243	-117.303190
3.050000	-17.656668	-124.117373	-0.345235	147.774234	-0.345235	147.774234	-17.639053	-120.893787
3.100000	-17.320915	-127.902447	-0.356430	144.068557	-0.356430	144.068557	-17.303592	-124.492570
3.150000	-17.011965	-131.701772	-0.367574	140.351690	-0.367574	140.351690	-16.994872	-128.100044
3.200000	-16.727873	-135.516645	-0.378626	136.623037	-0.378626	136.623037	-16.710957	-131.716694
3.250000	-16.466712	-139.348195	-0.389548	132.882081	-0.389548	132.882081	-16.449925	-135.342958
3.300000	-16.226846	-143.197732	-0.400309	129.128126	-0.400309	129.128126	-16.210147	-138.979423
3.350000	-16.006365	-147.066000	-0.410886	125.360837	-0.410886	125.360837	-15.989719	-142.626400
3.400000	-15.804645	-150.955605	-0.421244	121.578533	-0.421244	121.578533	-15.788018	-146.285285
3.450000	-15.619841	-154.867326	-0.431375	117.780794	-0.431375	117.780794	-15.603204	-149.956494
3.500000	-15.450855	-158.803188	-0.441263	113.966285	-0.441263	113.966285	-15.434183	-153.641203
3.550000	-15.295806	-162.763635	-0.450920	110.134738	-0.450920	110.134738	-15.279077	-157.339768
3.600000	-15.153631	-166.750675	-0.460346	106.284760	-0.460346	106.284760	-15.136827	-161.053491
3.650000	-15.022577	-170.764736	-0.469567	102.416018	-0.469567	102.416018	-15.005682	-164.782871
3.700000	-14.902046	-174.810096	-0.478587	98.525458	-0.478587	98.525458	-14.885051	-168.530772
3.750000	-14.789424	-178.883539	-0.487468	94.615211	-0.487468	94.615211	-14.772325	-172.295719
3.800000	-14.684459	177.006686	-0.496227	90.679291	-0.496227	90.679291	-14.667258	-176.083436
3.850000	-14.584449	172.866141	-0.504940	86.721412	-0.504940	86.721412	-14.567160	-179.891162
3.900000	-14.488251	168.688139	-0.513667	82.736477	-0.513667	82.736477	-14.470901	176.275718
3.950000	-14.393910	164.474831	-0.522481	78.725665	-0.522481	78.725665	-14.376538	172.417521
4.000000	-14.299573	160.223580	-0.531475	74.686542	-0.531475	74.686542	-14.282239	168.530922
4.050000	-14.203260	155.932553	-0.540753	70.617120	-0.540753	70.617120	-14.186049	164.612830
4.100000	-14.103295	151.603852	-0.550401	66.518280	-0.550401	66.518280	-14.086306	160.663021
4.150000	-13.996758	147.231259	-0.560609	62.384157	-0.560609	62.384157	-13.980133	156.673761
4.200000	-13.883018	142.821293	-0.571417	58.218975	-0.571417	58.218975	-13.866900	152.648531
4.250000	-13.757880	138.365593	-0.583126	54.014274	-0.583126	54.014274	-13.742473	148.575974
4.300000	-13.621495	133.871229	-0.595762	49.774680	-0.595762	49.774680	-13.606990	144.460339
4.350000	-13.470113	129.333430	-0.609644	45.493951	-0.609644	45.493951	-13.456745	140.292578
4.400000	-13.302897	124.754846	-0.624918	41.172544	-0.624918	41.172544	-13.290896	136.072154
4.450000	-13.118609	120.136653	-0.641794	36.809399	-0.641794	36.809399	-13.108195	131.796804
4.500000	-12.914290	115.476588	-0.660660	32.399539	-0.660660	32.399539	-12.905692	127.459314
4.550000	-12.689426	110.776585	-0.681776	27.942314	-0.681776	27.942314	-12.682836	123.058478
4.600000	-12.442959	106.036964	-0.705505	23.435310	-0.705505	23.435310	-12.438526	118.591120
4.650000	-12.174143	101.257931	-0.732268	18.876017	-0.732268	18.876017	-12.171965	114.054345
4.700000	-11.883065	96.440048	-0.762489	14.262670	-0.762489	14.262670	-11.883173	109.446659
4.750000	-11.569942	91.583228	-0.796677	9.593032	-0.796677	9.593032	-11.572296	104.766326
4.800000	-11.235393	86.687071	-0.835402	4.864909	-0.835402	4.864909	-11.239881	100.012018
4.850000	-10.880439	81.750844	-0.879305	0.076211	-0.879305	0.076211	-10.886878	95.182828
4.900000	-10.506484	76.773504	-0.929102	-4.774990	-0.929102	-4.774990	-10.514629	90.278273
4.950000	-10.115293	71.753752	-0.985590	-9.690374	-0.985590	-9.690374	-10.124847	85.298303
5.000000	-9.708952	66.690131	-1.049648	-14.671280	-1.049648	-14.671280	-9.719585	80.243324
5.050000	-9.289383	61.580493	-1.122366	-19.719564	-1.122366	-19.719564	-9.300740	75.113182
5.100000	-8.859700	56.424166	-1.204685	-24.834563	-1.204685	-24.834563	-8.871427	69.910449
5.150000	-8.422716	51.220206	-1.297722	-30.015857	-1.297722	-30.015857	-8.434475	64.637248
5.200000	-7.981373	45.968246	-1.402654	-35.262185	-1.402654	-35.262185	-7.992854	59.296447
5.250000	-7.538692	40.668711	-1.520704	-40.571315	-1.520704	-40.571315	-7.549624	53.891766
5.300000	-7.097710	35.323016	-1.653115	-45.939936	-1.653115	-45.939936	-7.107867	48.427896
5.350000	-6.661425	29.933744	-1.801127	-51.363561	-1.801127	-51.363561	-6.670628	42.910588
5.400000	-6.232738	24.504775	-1.965940	-56.836476	-1.965940	-56.836476	-6.240855	37.346727
5.450000	-5.814332	19.041092	-2.148825	-62.352059	-2.148825	-62.352059	-5.821267	31.744076
5.500000	-5.408866	13.549652	-2.350720	-67.901771	-2.350720	-67.901771	-5.414558	26.112199
5.550000	-5.018659	8.038599	-2.572405	-73.476148	-2.572405	-73.476148	-5.023070	20.461510
5.600000	-4.645629	2.517044	-2.814385	-79.064996	-2.814385	-79.064996	-4.648737	14.803038
5.650000	-4.291470	-3.005094	-3.077470	-84.657680	-3.077470	-84.657680	-4.293254	9.148482
5.700000	-3.957495	-8.516861	-3.361739	-90.242637	-3.361739	-90.242637	-3.957933	3.510195
5.750000	-3.644303	-14.008032	-3.666826	-95.809213	-3.666826	-95.809213	-3.643370	-2.100692
5.800000	-3.352608	-19.467334	-3.992719	-101.346013	-3.992719	-101.346013	-3.350271	-7.671866
5.850000	-3.082692	-24.883827	-4.338899	-106.842075	-4.338899	-106.842075	-3.078912	-13.191649
5.900000	-2.833979	-30.249321	-4.704436	-112.289230	-4.704436	-112.289230	-2.828717	-18.651637
5.950000	-2.606507	-35.553141	-5.088501	-117.677053	-5.088501	-117.677053	-2.599726	-24.040489
6.000000	-2.399010	-40.790325	-5.489954	-123.000728	-5.489954	-123.000728	-2.390685	-29.353369
6.050000	-2.211038	-45.952716	-5.907550	-128.252473	-5.907550	-128.252473	-2.201154	-34.581666
6.100000	-2.041663	-51.034806	-6.339831	-133.427164	-6.339831	-133.427164	-2.030220	-39.719654
6.150000	-1.888672	-56.039637	-6.786167	-138.527961	-6.786167	-138.527961	-1.875694	-44.771021
6.200000	-1.751856	-60.959875	-7.244753	-143.548201	-7.244753	-143.548201	-1.737379	-49.727666
6.250000	-1.630021	-65.794548	-7.714121	-148.487472	-7.714121	-148.487472	-1.614095	-54.588461
6.300000	-1.521377	-70.548352	-8.193857	-153.350813	-8.193857	-153.350813	-1.504064	-59.358492
6.350000	-1.424838	-75.222778	-8.683064	-158.140321	-8.683064	-158.140321	-1.406202	-64.039154
6.400000	-1.340052	-79.814576	-9.179346	-162.853973	-9.179346	-162.853973	-1.320159	-68.626347
6.450000	-1.265401	-84.331312	-9.682876	-167.499903	-9.682876	-167.499903	-1.244307	-73.128093
6.500000	-1.199801	-88.777940	-10.193445	-172.083864	-10.193445	-172.083864	-1.177553	-77.549465
6.550000	-1.142512	-93.157624	-10.710283	-176.610167	-10.710283	-176.610167	-1.119138	-81.893455
6.600000	-1.093210	-97.470682	-11.231122	178.918813	-11.231122	178.918813	-1.068722	-86.159593
6.650000	-1.050580	-101.727059	-11.757693	174.492557	-11.757693	174.492557	-1.024971	-90.358656
6.700000	-1.013950	-105.931931	-12.290192	170.104642	-12.290192	170.104642	-0.987195	-94.495943
6.750000	-0.983361	-110.084906	-12.825264	165.751853	-12.825264	165.751853	-0.955412	-98.569820
6.800000	-0.957478	-114.198209	-13.367288	161.422596	-13.367288	161.422596	-0.928283	-102.594165
6.850000	-0.936390	-118.272405	-13.913161	157.112062	-13.913161	157.112062	-0.905878	-106.568323
6.900000	-0.919418	-122.314883	-14.464784	152.811697	-14.464784	152.811697	-0.887517	-110.500298
6.950000	-0.906190	-126.330993	-15.022633	148.513550	-15.022633	148.513550	-0.872823	-114.395421
7.000000	-0.896577	-130.324758	-15.585430	144.209158	-15.585430	144.209158	-0.861668	-118.257058
7.050000	-0.889906	-134.303674	-16.157353	139.891182	-16.157353	139.891182	-0.853389	-122.093878
7.100000	-0.886437	-138.270984	-16.733880	135.546921	-16.733880	135.546921	-0.848243	-125.907141
7.150000	-0.885400	-142.233712	-17.321778	131.172147	-17.321778	131.172147	-0.845479	-129.705845
7.200000	-0.887047	-146.196860	-17.916794	126.749875	-17.916794	126.749875	-0.845350	-133.492905
7.250000	-0.890880	-150.165519	-18.524204	122.275620	-18.524204	122.275620	-0.847374	-137.274740
7.300000	-0.896930	-154.145718	-19.143020	117.732850	-19.143020	117.732850	-0.851587	-141.056287
7.350000	-0.905031	-158.142609	-19.775249	113.109927	-19.775249	113.109927	-0.857833	-144.842705
7.400000	-0.915005	-162.160809	-20.423870	108.395916	-20.423870	108.395916	-0.865940	-148.638851
7.450000	-0.926946	-166.208131	-21.087539	103.564692	-21.087539	103.564692	-0.876007	-152.451156
7.500000	-0.940507	-170.285146	-21.773449	98.617064	-21.773449	98.617064	-0.887692	-156.281905
7.550000	-0.955992	-174.404877	-22.476626	93.501933	-22.476626	93.501933	-0.901307	-160.141314
7.600000	-0.972994	-178.564098	-23.206828	88.228840	-23.206828	88.228840	-0.916446	-164.028723
7.650000	-0.991721	177.225020	-23.961160	82.741062	-23.961160	82.741062	-0.933326	-167.954307
7.700000	-1.011980	172.962275	-24.745914	77.026137	-24.745914	77.026137	-0.951760	-171.919530
7.750000	-1.033789	168.640544	-25.562473	71.034445	-25.562473	71.034445	-0.971778	-175.931161
7.800000	-1.057071	164.256916	-26.414816	64.729083	-26.414816	64.729083	-0.993314	-179.992674
7.850000	-1.081855	159.802770	-27.302518	58.029583	-27.302518	58.029583	-1.016422	175.887615
7.900000	-1.108035	155.275945	-28.228719	50.875564	-28.228719	50.875564	-1.041016	171.706563
7.950000	-1.135530	150.673265	-29.194315	43.187828	-29.194315	43.187828	-1.067044	167.460168
8.000000	-1.164303	145.987678	-30.193549	34.834830	-30.193549	34.834830	-1.094511	163.140836
8.050000	-1.194201	141.219843	-31.223220	25.728288	-31.223220	25.728288	-1.123297	158.747621
8.100000	-1.225151	136.363009	-32.264539	15.696415	-32.264539	15.696415	-1.153386	154.272737
8.150000	-1.256987	131.417097	-33.295549	4.631969	-33.295549	4.631969	-1.184661	149.714222
8.200000	-1.289551	126.380355	-34.279326	-7.551818	-34.279326	-7.551818	-1.217022	145.068421
8.250000	-1.322665	121.249165	-35.160248	-20.872918	-35.160248	-20.872918	-1.250366	140.329460
8.300000	-1.356106	116.027379	-35.893730	-35.108091	-35.893730	-35.108091	-1.284513	135.498635
8.350000	-1.389639	110.711065	-36.426256	-49.918914	-36.426256	-49.918914	-1.319319	130.568977
8.400000	-1.423006	105.305570	-36.756958	-64.777717	-36.756958	-64.777717	-1.354563	125.542789
8.450000	-1.455927	99.812574	-36.910146	-79.208869	-36.910146	-79.208869	-1.390027	120.418269
8.500000	-1.488089	94.234836	-36.940939	-92.860209	-36.940939	-92.860209	-1.425447	115.194189
8.550000	-1.519228	88.580536	-36.916544	-105.626976	-36.916544	-105.626976	-1.460559	109.875566
8.600000	-1.548957	82.851967	-36.895613	-117.476911	-36.895613	-117.476911	-1.495020	104.459550
8.650000	-1.577045	77.060427	-36.926050	-128.562387	-36.926050	-128.562387	-1.528547	98.954664
8.700000	-1.603162	71.213046	-37.046717	-139.006189	-37.046717	-139.006189	-1.560783	93.363665
8.750000	-1.627027	65.319756	-37.291178	-148.960907	-37.291178	-148.960907	-1.591374	87.692730
8.800000	-1.648483	59.392295	-37.686433	-158.584692	-37.686433	-158.584692	-1.620049	81.951614
8.850000	-1.667180	53.440766	-38.278387	-168.020417	-38.278387	-168.020417	-1.646354	76.145488
8.900000	-1.683137	47.478528	-39.106100	-177.459139	-39.106100	-177.459139	-1.670138	70.288088
8.950000	-1.696166	41.517538	-40.249337	172.839944	-40.249337	172.839944	-1.691057	64.388686
9.000000	-1.706262	35.570571	-41.827953	162.399002	-41.827953	162.399002	-1.708922	58.459943
9.050000	-1.713427	29.650419	-44.062953	150.059517	-44.062953	150.059517	-1.723554	52.514627
9.100000	-1.717844	23.767597	-47.367709	132.711653	-47.367709	132.711653	-1.734982	46.565897
9.150000	-1.719523	17.936018	-51.861054	94.772819	-51.861054	94.772819	-1.743026	40.627689
9.200000	-1.718862	12.161004	-52.144108	26.247302	-52.144108	26.247302	-1.748015	34.711146
9.250000	-1.715827	6.459464	-46.655368	-12.152501	-46.655368	-12.152501	-1.749717	28.832527
9.300000	-1.710887	0.834151	-42.540253	-30.208607	-42.540253	-30.208607	-1.748594	23.001386
9.350000	-1.704322	-4.709200	-39.519808	-42.039277	-39.519808	-42.039277	-1.744895	17.227438
9.400000	-1.696321	-10.155594	-37.148024	-51.441757	-37.148024	-51.441757	-1.738701	11.528123
9.450000	-1.687367	-15.511740	-35.207090	-59.794302	-35.207090	-59.794302	-1.730632	5.903608
9.500000	-1.677708	-20.767114	-33.556589	-67.464137	-33.556589	-67.464137	-1.720905	0.367506
9.550000	-1.667716	-25.920159	-32.117830	-74.698429	-32.117830	-74.698429	-1.709966	-5.073894
9.600000	-1.657715	-30.976878	-30.841301	-81.634972	-30.841301	-81.634972	-1.698270	-10.422449
9.650000	-1.648075	-35.924037	-29.683441	-88.315221	-29.683441	-88.315221	-1.686176	-15.661226
9.700000	-1.639099	-40.774230	-28.621889	-94.816314	-28.621889	-94.816314	-1.674159	-20.799362
9.750000	-1.631104	-45.526717	-27.634096	-101.166933	-27.634096	-101.166933	-1.662605	-25.833238
9.800000	-1.624535	-50.177385	-26.698510	-107.389945	-26.698510	-107.389945	-1.652013	-30.755253
9.850000	-1.619568	-54.739413	-25.805674	-113.523638	-25.805674	-113.523638	-1.642676	-35.577391
9.900000	-1.616709	-59.207762	-24.936849	-119.586349	-24.936849	-119.586349	-1.635130	-40.291494
9.950000	-1.616267	-63.590008	-24.081016	-125.611194	-24.081016	-125.611194	-1.629748	-44.903872
10.000000	-1.618443	-67.894396	-23.231250	-131.628870	-23.231250	-131.628870	-1.626774	-49.422387
