! freq	dB(S11)	phase(S11)	dB(S12)	phase(S12)	
!     	dB(S21)	phase(S21)	dB(S22)	phase(S22)	
!S-par simulation data
#  GHz  S  DB  R 50
0.000000	-0.000000	0.000000	-343.721845	0.000000	-343.721845	0.000000	-0.000000	0.000000
0.050000	-0.000446	-0.767316	-94.100875	88.652402	-94.100875	88.652402	-0.001203	-1.951717
0.100000	-0.001573	-1.532006	-88.091255	87.304423	-88.091255	87.304423	-0.004162	-3.895059
0.150000	-0.002992	-2.293341	-84.588529	85.962098	-84.588529	85.962098	-0.007748	-5.828037
0.200000	-0.004406	-3.051998	-82.117538	84.634931	-82.117538	84.634931	-0.011213	-7.752814
0.250000	-0.005705	-3.809236	-80.212011	83.321402	-80.212011	83.321402	-0.014365	-9.672900
0.300000	-0.006866	-4.565648	-78.666995	82.020119	-78.666995	82.020119	-0.017190	-11.589601
0.350000	-0.007904	-5.321638	-77.372825	80.731071	-77.372825	80.731071	-0.019756	-13.503639
0.400000	-0.008847	-6.077381	-76.264335	79.456200	-76.264335	79.456200	-0.022134	-15.415095
0.450000	-0.009720	-6.832912	-75.301096	78.199661	-75.301096	78.199661	-0.024378	-17.323451
0.500000	-0.010553	-7.588234	-74.452158	76.962465	-74.452158	76.962465	-0.026545	-19.228581
0.550000	-0.011364	-8.343304	-73.696928	75.747167	-73.696928	75.747167	-0.028666	-21.130045
0.600000	-0.012163	-9.098073	-73.020185	74.556375	-73.020185	74.556375	-0.030760	-23.027399
0.650000	-0.012960	-9.852489	-72.410349	73.392764	-72.410349	73.392764	-0.032841	-24.920208
0.700000	-0.013762	-10.606504	-71.858399	72.259102	-71.858399	72.259102	-0.034919	-26.808057
0.750000	-0.014575	-11.360040	-71.358297	71.160466	-71.358297	71.160466	-0.037001	-28.690203
0.800000	-0.015400	-12.113053	-70.904054	70.100127	-70.904054	70.100127	-0.039091	-30.566257
0.850000	-0.016241	-12.865510	-70.490370	69.080707	-70.490370	69.080707	-0.041189	-32.435984
0.900000	-0.017097	-13.617418	-70.111931	68.102455	-70.111931	68.102455	-0.043297	-34.299529
0.950000	-0.017969	-14.368709	-69.766398	67.171319	-69.766398	67.171319	-0.045413	-36.156218
1.000000	-0.018857	-15.119350	-69.450822	66.291101	-69.450822	66.291101	-0.047535	-38.005758
1.050000	-0.019760	-15.869313	-69.162617	65.465789	-69.162617	65.465789	-0.049662	-39.847874
1.100000	-0.020678	-16.618569	-68.899482	64.699559	-68.899482	64.699559	-0.051790	-41.682312
1.150000	-0.021610	-17.367091	-68.659331	63.996773	-68.659331	63.996773	-0.053918	-43.508833
1.200000	-0.022554	-18.114855	-68.440239	63.361973	-68.440239	63.361973	-0.056042	-45.327216
1.250000	-0.023510	-18.861839	-68.240399	62.799859	-68.240399	62.799859	-0.058160	-47.137256
1.300000	-0.024476	-19.607984	-68.058609	62.318873	-68.058609	62.318873	-0.060267	-48.938385
1.350000	-0.025451	-20.353306	-67.892542	61.920790	-67.892542	61.920790	-0.062363	-50.730792
1.400000	-0.026433	-21.097785	-67.740495	61.610567	-67.740495	61.610567	-0.064445	-52.514321
1.450000	-0.027422	-21.841405	-67.600739	61.393102	-67.600739	61.393102	-0.066510	-54.288826
1.500000	-0.028416	-22.584148	-67.471501	61.273121	-67.471501	61.273121	-0.068556	-56.054177
1.550000	-0.029413	-23.325999	-67.350933	61.255050	-67.350933	61.255050	-0.070583	-57.810258
1.600000	-0.030414	-24.066944	-67.237101	61.342843	-67.237101	61.342843	-0.072589	-59.556962
1.650000	-0.031416	-24.806968	-67.127967	61.539789	-67.127967	61.539789	-0.074573	-61.294199
1.700000	-0.032420	-25.546060	-67.021384	61.848280	-67.021384	61.848280	-0.076534	-63.021886
1.750000	-0.033423	-26.284205	-66.915097	62.269557	-66.915097	62.269557	-0.078471	-64.739955
1.800000	-0.034427	-27.021393	-66.806754	62.803438	-66.806754	62.803438	-0.080385	-66.448349
1.850000	-0.035429	-27.757611	-66.693929	63.448041	-66.693929	63.448041	-0.082275	-68.147019
1.900000	-0.036430	-28.492850	-66.574161	64.199523	-66.574161	64.199523	-0.084141	-69.835929
1.950000	-0.037428	-29.227098	-66.444996	65.051864	-66.444996	65.051864	-0.085985	-71.515052
2.000000	-0.038425	-29.960345	-66.304057	65.996716	-66.304057	65.996716	-0.087805	-73.184372
2.050000	-0.039419	-30.692581	-66.149114	67.023353	-66.149114	67.023353	-0.089604	-74.843880
2.100000	-0.040410	-31.423797	-65.978160	68.118749	-65.978160	68.118749	-0.091382	-76.493578
2.150000	-0.041399	-32.153982	-65.789490	69.267794	-65.789490	69.267794	-0.093141	-78.133477
2.200000	-0.042386	-32.883129	-65.581774	70.453660	-65.581774	70.453660	-0.094880	-79.763594
2.250000	-0.043370	-33.611227	-65.354112	71.658293	-65.354112	71.658293	-0.096602	-81.383957
2.300000	-0.044351	-34.338267	-65.106068	72.863012	-65.106068	72.863012	-0.098308	-82.994601
2.350000	-0.045331	-35.064240	-64.837682	74.049156	-64.837682	74.049156	-0.099999	-84.595567
2.400000	-0.046310	-35.789137	-64.549456	75.198735	-64.549456	75.198735	-0.101676	-86.186904
2.450000	-0.047287	-36.512949	-64.242304	76.295024	-64.242304	76.295024	-0.103342	-87.768670
2.500000	-0.048263	-37.235668	-63.917501	77.323054	-63.917501	77.323054	-0.104998	-89.340926
2.550000	-0.049240	-37.957235	-63.575365	78.265953	-63.575365	78.265953	-0.106645	-90.903335
2.600000	-0.050216	-38.677690	-63.218949	79.116488	-63.218949	79.116488	-0.108285	-92.456386
2.650000	-0.051194	-39.397023	-62.850140	79.866829	-62.850140	79.866829	-0.109919	-94.000162
2.700000	-0.052174	-40.115225	-62.470863	80.511432	-62.470863	80.511432	-0.111550	-95.534751
2.750000	-0.053155	-40.832287	-62.083009	81.046852	-62.083009	81.046852	-0.113179	-97.060244
2.800000	-0.054140	-41.548201	-61.688394	81.471508	-61.688394	81.471508	-0.114807	-98.576739
2.850000	-0.055128	-42.262956	-61.288714	81.785415	-61.288714	81.785415	-0.116437	-100.084340
2.900000	-0.056120	-42.976545	-60.885529	81.989901	-60.885529	81.989901	-0.118068	-101.583153
2.950000	-0.057117	-43.688958	-60.480244	82.087340	-60.480244	82.087340	-0.119704	-103.073290
3.000000	-0.058120	-44.400186	-60.074106	82.080905	-60.074106	82.080905	-0.121346	-104.554866
3.050000	-0.059129	-45.110221	-59.668207	81.974347	-59.668207	81.974347	-0.122994	-106.028003
3.100000	-0.060146	-45.819053	-59.263488	81.771809	-59.263488	81.771809	-0.124651	-107.492822
3.150000	-0.061170	-46.526674	-58.860751	81.477666	-58.860751	81.477666	-0.126317	-108.949451
3.200000	-0.062202	-47.233075	-58.460668	81.096401	-58.460668	81.096401	-0.127995	-110.398022
3.250000	-0.063244	-47.938248	-58.063798	80.632503	-58.063798	80.632503	-0.129684	-111.838667
3.300000	-0.064295	-48.642184	-57.670592	80.090388	-57.670592	80.090388	-0.131387	-113.271524
3.350000	-0.065356	-49.344876	-57.281411	79.474346	-57.281411	79.474346	-0.133105	-114.696733
3.400000	-0.066429	-50.046314	-56.896537	78.788494	-56.896537	78.788494	-0.134839	-116.114438
3.450000	-0.067512	-50.746493	-56.516180	78.036750	-56.516180	78.036750	-0.136589	-117.524783
3.500000	-0.068608	-51.445403	-56.140490	77.222817	-56.140490	77.222817	-0.138358	-118.927918
3.550000	-0.069717	-52.143037	-55.769564	76.350169	-55.769564	76.350169	-0.140145	-120.323994
3.600000	-0.070838	-52.839389	-55.403455	75.422049	-55.403455	75.422049	-0.141952	-121.713165
3.650000	-0.071974	-53.534452	-55.042176	74.441471	-55.042176	74.441471	-0.143780	-123.095587
3.700000	-0.073123	-54.228220	-54.685708	73.411218	-54.685708	73.411218	-0.145630	-124.471418
3.750000	-0.074287	-54.920685	-54.334003	72.333857	-54.334003	72.333857	-0.147502	-125.840821
3.800000	-0.075466	-55.611787	-53.986593	71.209893	-53.986593	71.209893	-0.149399	-127.203695
3.850000	-0.076661	-56.301574	-53.643802	70.043492	-53.643802	70.043492	-0.151320	-128.560485
3.900000	-0.077872	-56.990044	-53.305514	68.836575	-53.305514	68.836575	-0.153266	-129.911362
3.950000	-0.079099	-57.677191	-52.971596	67.590880	-52.971596	67.590880	-0.155238	-131.256497
4.000000	-0.080342	-58.363011	-52.641905	66.307962	-52.641905	66.307962	-0.157236	-132.596064
4.050000	-0.081602	-59.047500	-52.316281	64.989208	-52.316281	64.989208	-0.159262	-133.930243
4.100000	-0.082879	-59.730656	-51.994555	63.635841	-51.994555	63.635841	-0.161315	-135.259213
4.150000	-0.084174	-60.412475	-51.676545	62.248925	-51.676545	62.248925	-0.163397	-136.583158
4.200000	-0.085486	-61.092956	-51.362060	60.829372	-51.362060	60.829372	-0.165509	-137.902267
4.250000	-0.086816	-61.772096	-51.050898	59.377948	-51.050898	59.377948	-0.167650	-139.216732
4.300000	-0.088165	-62.449895	-50.742846	57.895273	-50.742846	57.895273	-0.169822	-140.526747
4.350000	-0.089532	-63.126352	-50.437679	56.381824	-50.437679	56.381824	-0.172026	-141.832515
4.400000	-0.090917	-63.801466	-50.135161	54.837942	-50.135161	54.837942	-0.174262	-143.134240
4.450000	-0.092322	-64.475239	-49.835044	53.263824	-49.835044	53.263824	-0.176532	-144.432136
4.500000	-0.093745	-65.147672	-49.537063	51.659530	-49.537063	51.659530	-0.178835	-145.726420
4.550000	-0.095188	-65.818766	-49.240941	50.024975	-49.240941	50.024975	-0.181174	-147.017319
4.600000	-0.096650	-66.488525	-48.946380	48.359931	-48.946380	48.359931	-0.183549	-148.305067
4.650000	-0.098133	-67.156951	-48.653063	46.664020	-48.653063	46.664020	-0.185962	-149.589908
4.700000	-0.099635	-67.824049	-48.360652	44.936707	-48.360652	44.936707	-0.188414	-150.872098
4.750000	-0.101157	-68.489824	-48.068781	43.177293	-48.068781	43.177293	-0.190907	-152.151904
4.800000	-0.102700	-69.154282	-47.777057	41.384909	-47.777057	41.384909	-0.193442	-153.429610
4.850000	-0.104263	-69.817429	-47.485050	39.558499	-47.485050	39.558499	-0.196022	-154.705515
4.900000	-0.105847	-70.479273	-47.192293	37.696809	-47.192293	37.696809	-0.198650	-155.979938
4.950000	-0.107453	-71.139825	-46.898275	35.798370	-46.898275	35.798370	-0.201328	-157.253222
5.000000	-0.109079	-71.799094	-46.602431	33.861477	-46.602431	33.861477	-0.204060	-158.525736
5.050000	-0.110736	-72.456600	-46.298858	31.867485	-46.298858	31.867485	-0.206875	-159.797909
5.100000	-0.112404	-73.113535	-45.998998	29.852960	-45.998998	29.852960	-0.209722	-161.070294
5.150000	-0.114100	-73.768878	-45.691525	27.781159	-45.691525	27.781159	-0.212656	-162.343270
5.200000	-0.115817	-74.423109	-45.379666	25.663474	-45.379666	25.663474	-0.215665	-163.617560
5.250000	-0.117554	-75.076345	-45.065762	23.504733	-45.065762	23.504733	-0.218743	-164.893024
5.300000	-0.119323	-75.727971	-44.736941	21.268091	-44.736941	21.268091	-0.221961	-166.172106
5.350000	-0.121104	-76.379065	-44.411346	19.004680	-44.411346	19.004680	-0.225229	-167.452542
5.400000	-0.122925	-77.028326	-44.061213	16.634713	-44.061213	16.634713	-0.228713	-168.739801
5.450000	-0.124762	-77.677009	-43.709343	14.222863	-43.709343	14.222863	-0.232296	-170.030486
5.500000	-0.126631	-78.324458	-43.339898	11.721783	-43.339898	11.721783	-0.236087	-171.328470
5.550000	-0.128530	-78.970949	-42.951361	9.130519	-42.951361	9.130519	-0.240129	-172.635502
5.600000	-0.130450	-79.616758	-42.556158	6.474838	-42.556158	6.474838	-0.244351	-173.948997
5.650000	-0.132419	-80.261387	-42.116236	3.662111	-42.116236	3.662111	-0.249108	-175.281408
5.700000	-0.134403	-80.905711	-41.679266	0.802859	-41.679266	0.802859	-0.254038	-176.619756
5.750000	-0.136441	-81.549203	-41.191516	-2.232662	-41.191516	-2.232662	-0.259717	-177.983058
5.800000	-0.138526	-82.192308	-40.665999	-5.416755	-40.665999	-5.416755	-0.266160	-179.370135
5.850000	-0.140667	-82.835249	-40.095330	-8.771062	-40.095330	-8.771062	-0.273631	179.212790
5.900000	-0.142873	-83.478301	-39.475875	-12.311460	-39.475875	-12.311460	-0.282432	177.759753
5.950000	-0.145176	-84.121919	-38.782234	-16.101673	-38.782234	-16.101673	-0.293384	176.253429
6.000000	-0.147608	-84.766706	-38.003942	-20.179440	-38.003942	-20.179440	-0.307411	174.678917
6.050000	-0.150239	-85.413636	-37.113236	-24.627583	-37.113236	-24.627583	-0.326397	173.007296
6.100000	-0.153175	-86.063997	-36.088074	-29.538169	-36.088074	-29.538169	-0.353221	171.202588
6.150000	-0.156631	-86.719881	-34.889451	-35.075787	-34.889451	-35.075787	-0.393553	169.202707
6.200000	-0.161121	-87.385262	-33.438087	-41.577470	-33.438087	-41.577470	-0.460921	166.884109
6.250000	-0.167772	-88.066037	-31.652468	-49.602511	-31.652468	-49.602511	-0.585163	164.051046
6.300000	-0.179738	-88.771431	-29.390663	-60.438996	-29.390663	-60.438996	-0.852913	160.326607
6.350000	-0.206793	-89.499304	-26.498189	-77.349019	-26.498189	-77.349019	-1.569801	155.273870
6.400000	-0.269603	-90.077039	-23.383875	-108.449530	-23.383875	-108.449530	-3.814868	153.431620
6.450000	-0.294422	-90.103345	-23.093459	-155.979567	-23.093459	-155.979567	-4.555813	178.810177
6.500000	-0.238375	-90.493050	-26.234060	169.131757	-26.234060	169.131757	-1.947008	-178.674673
6.550000	-0.208595	-91.162086	-29.420243	149.895476	-29.420243	149.895476	-1.039185	176.391358
6.600000	-0.196936	-91.844262	-31.948689	137.355954	-31.948689	137.355954	-0.708710	172.547446
6.650000	-0.192437	-92.509153	-33.939562	127.707699	-33.939562	127.707699	-0.560396	169.631254
6.700000	-0.191033	-93.159610	-35.541645	119.487490	-35.541645	119.487490	-0.482779	167.258481
6.750000	-0.191176	-93.799818	-36.848887	112.087159	-36.848887	112.087159	-0.438059	165.214844
6.800000	-0.192185	-94.432663	-37.922654	105.225438	-37.922654	105.225438	-0.410632	163.381924
6.850000	-0.193713	-95.060153	-38.813509	98.755450	-38.813509	98.755450	-0.392934	161.687347
6.900000	-0.195621	-95.682969	-39.524342	92.656175	-39.524342	92.656175	-0.381848	160.100570
6.950000	-0.197731	-96.302935	-40.134803	86.811468	-40.134803	86.811468	-0.374001	158.572499
7.000000	-0.200022	-96.920090	-40.635617	81.245978	-40.635617	81.245978	-0.368859	157.097130
7.050000	-0.202454	-97.534847	-41.043892	75.949395	-41.043892	75.949395	-0.365609	155.661557
7.100000	-0.204999	-98.147510	-41.374052	70.913899	-41.374052	70.913899	-0.363723	154.256579
7.150000	-0.207640	-98.758305	-41.638384	66.131581	-41.638384	66.131581	-0.362848	152.875458
7.200000	-0.210364	-99.367410	-41.847388	61.593382	-41.847388	61.593382	-0.362738	151.513143
7.250000	-0.213161	-99.974962	-42.010031	57.288871	-42.010031	57.288871	-0.363221	150.165768
7.300000	-0.216026	-100.581073	-42.133952	53.206452	-42.133952	53.206452	-0.364169	148.830321
7.350000	-0.218952	-101.185837	-42.225633	49.333751	-42.225633	49.333751	-0.365488	147.504416
7.400000	-0.221937	-101.789331	-42.290557	45.658041	-42.290557	45.658041	-0.367107	146.186135
7.450000	-0.224977	-102.391623	-42.333347	42.166618	-42.333347	42.166618	-0.368972	144.873914
7.500000	-0.228070	-102.992773	-42.357889	38.847117	-42.357889	38.847117	-0.371041	143.566465
7.550000	-0.231242	-103.592248	-42.360647	35.771468	-42.360647	35.771468	-0.373358	142.264249
7.600000	-0.234416	-104.191722	-42.363405	32.695820	-42.363405	32.695820	-0.375676	140.962033
7.650000	-0.237682	-104.789305	-42.347432	29.883793	-42.347432	29.883793	-0.378224	139.663562
7.700000	-0.240957	-105.386715	-42.329790	27.095732	-42.329790	27.095732	-0.380792	138.365432
7.750000	-0.244314	-105.982562	-42.301396	24.515633	-42.301396	24.515633	-0.383512	137.068501
7.800000	-0.247689	-106.578095	-42.270946	21.977125	-42.270946	21.977125	-0.386263	135.771810
7.850000	-0.251135	-107.172358	-42.234787	19.603343	-42.234787	19.603343	-0.389114	134.474699
7.900000	-0.254605	-107.766198	-42.196849	17.284468	-42.196849	17.284468	-0.391999	133.177449
7.950000	-0.258138	-108.359035	-42.156370	15.097250	-42.156370	15.097250	-0.394953	131.878789
8.000000	-0.261704	-108.951370	-42.114734	12.975862	-42.114734	12.975862	-0.397940	130.579423
8.050000	-0.265323	-109.542950	-42.072510	10.961081	-42.072510	10.961081	-0.400973	129.278096
8.100000	-0.268982	-110.133991	-42.029933	9.022449	-42.029933	9.022449	-0.404038	127.975368
8.150000	-0.272686	-110.724505	-41.987915	7.171506	-41.987915	7.171506	-0.407134	126.670444
8.200000	-0.276437	-111.314492	-41.946448	5.408252	-41.946448	5.408252	-0.410261	125.363325
8.250000	-0.280227	-111.904160	-41.906128	3.718261	-41.906128	3.718261	-0.413408	124.054011
8.300000	-0.284070	-112.493383	-41.867319	2.130837	-41.867319	2.130837	-0.416582	122.741625
8.350000	-0.287940	-113.082482	-41.829617	0.594404	-41.829617	0.594404	-0.419769	121.427584
8.400000	-0.291860	-113.671332	-41.793940	-0.840046	-41.793940	-0.840046	-0.422977	120.110233
8.450000	-0.295839	-114.260116	-41.760961	-2.150154	-41.760961	-2.150154	-0.426208	118.788777
8.500000	-0.299857	-114.848992	-41.729886	-3.372770	-41.729886	-3.372770	-0.429453	117.464492
8.550000	-0.303914	-115.438023	-41.700710	-4.504169	-41.700710	-4.504169	-0.432713	116.137307
8.600000	-0.308026	-116.027450	-41.674070	-5.500188	-41.674070	-5.500188	-0.435991	114.805978
8.650000	-0.312192	-116.617543	-41.649501	-6.350106	-41.649501	-6.350106	-0.439289	113.470521
8.700000	-0.316404	-117.208350	-41.626176	-7.071549	-41.626176	-7.071549	-0.442606	112.131677
8.750000	-0.320663	-117.799983	-41.603867	-7.656694	-41.603867	-7.656694	-0.445941	110.789363
8.800000	-0.325009	-118.393624	-41.581087	-7.970133	-41.581087	-7.970133	-0.449316	109.440935
8.850000	-0.329422	-118.989040	-41.555560	-8.076346	-41.555560	-8.076346	-0.452727	108.088438
8.900000	-0.333908	-119.586512	-41.525593	-7.954636	-41.525593	-7.954636	-0.456178	106.731712
8.950000	-0.338505	-120.187230	-41.486199	-7.496739	-41.486199	-7.496739	-0.459696	105.369247
9.000000	-0.343273	-120.792968	-41.424662	-6.572622	-41.424662	-6.572622	-0.463326	103.999786
9.050000	-0.348219	-121.403647	-41.334876	-5.232340	-41.334876	-5.232340	-0.467079	102.624526
9.100000	-0.353377	-122.019990	-41.210049	-3.437126	-41.210049	-3.437126	-0.470978	101.243079
9.150000	-0.359067	-122.648995	-40.986370	-0.770169	-40.986370	-0.770169	-0.475253	99.850023
9.200000	-0.365234	-123.287676	-40.677241	2.432183	-40.677241	2.432183	-0.479862	98.449274
9.250000	-0.372690	-123.948929	-40.146643	6.589087	-40.146643	6.589087	-0.485357	97.032172
9.300000	-0.382004	-124.636365	-39.357731	11.366847	-39.357731	11.366847	-0.492097	95.598059
9.350000	-0.395168	-125.366432	-38.165963	16.411340	-38.165963	16.411340	-0.501339	94.138459
9.400000	-0.416500	-126.162629	-36.436028	20.808775	-36.436028	20.808775	-0.515698	92.642374
9.450000	-0.457983	-127.061089	-34.011113	22.748501	-34.011113	22.748501	-0.542151	91.095373
9.500000	-0.554578	-128.055847	-30.814127	18.737709	-30.814127	18.737709	-0.599824	89.517508
9.550000	-0.779873	-128.603193	-27.289525	1.884404	-27.289525	1.884404	-0.722453	88.241529
9.600000	-0.932746	-127.131353	-25.853010	-30.473558	-25.853010	-30.473558	-0.784542	88.008973
9.650000	-0.740780	-126.403439	-27.567432	-55.886725	-27.567432	-55.886725	-0.670849	87.233678
9.700000	-0.600667	-127.003043	-29.712112	-67.531788	-29.712112	-67.531788	-0.595769	85.768440
9.750000	-0.536689	-127.791389	-31.374594	-72.682034	-31.374594	-72.682034	-0.563018	84.224347
9.800000	-0.506563	-128.547948	-32.594988	-75.168569	-32.594988	-75.168569	-0.548312	82.705881
9.850000	-0.491685	-129.259089	-33.502022	-76.512938	-33.502022	-76.512938	-0.541502	81.214440
9.900000	-0.484323	-129.936436	-34.198000	-77.355831	-34.198000	-77.355831	-0.538480	79.741323
9.950000	-0.481266	-130.589194	-34.739395	-77.966081	-34.739395	-77.966081	-0.537570	78.280504
10.000000	-0.480799	-131.224487	-35.169123	-78.480075	-35.169123	-78.480075	-0.537891	76.827629
