! freq	dB(S11)	phase(S11)	dB(S12)	phase(S12)	
!     	dB(S21)	phase(S21)	dB(S22)	phase(S22)	
!S-par simulation data
#  GHz  S  DB  R 50
0.000000	-83.795021	0.000000	-0.000563	0.000000	-0.000563	0.000000	-83.795019	0.000000
0.050000	-48.089367	-85.984023	-0.004267	-2.502978	-0.004267	-2.502978	-48.252721	-93.026293
0.100000	-42.282799	-87.817748	-0.009581	-4.973049	-0.009581	-4.973049	-42.346716	-97.917085
0.150000	-38.798918	-88.829326	-0.013700	-7.431636	-0.013700	-7.431636	-38.919950	-103.171295
0.200000	-36.294492	-89.488224	-0.017253	-9.888320	-0.017253	-9.888320	-36.437964	-108.564840
0.250000	-34.331767	-89.992760	-0.020727	-12.344780	-0.020727	-12.344780	-34.467552	-113.795550
0.300000	-32.710988	-90.422034	-0.024297	-14.801150	-0.024297	-14.801150	-32.830823	-118.859464
0.350000	-31.326485	-90.817111	-0.027993	-17.257505	-0.027993	-17.257505	-31.430434	-123.817040
0.400000	-30.113655	-91.196850	-0.031821	-19.714007	-0.031821	-19.714007	-30.203210	-128.697874
0.450000	-29.029439	-91.574727	-0.035785	-22.170938	-0.035785	-22.170938	-29.106023	-133.515998
0.500000	-28.046820	-91.960147	-0.039879	-24.628558	-0.039879	-24.628558	-28.111692	-138.283534
0.550000	-27.144924	-92.360311	-0.044120	-27.087174	-0.044120	-27.087174	-27.199004	-143.002489
0.600000	-26.309621	-92.780064	-0.048518	-29.547003	-0.048518	-29.547003	-26.353670	-147.675821
0.650000	-25.529271	-93.224275	-0.053100	-32.008301	-0.053100	-32.008301	-25.563889	-152.302771
0.700000	-24.795628	-93.696151	-0.057889	-34.471236	-0.057889	-34.471236	-24.821354	-156.883969
0.750000	-24.101786	-94.199007	-0.062915	-36.935988	-0.062915	-36.935988	-24.119098	-161.418667
0.800000	-23.442445	-94.735357	-0.068208	-39.402695	-0.068208	-39.402695	-23.451796	-165.906639
0.850000	-22.813375	-95.307219	-0.073798	-41.871470	-0.073798	-41.871470	-22.815196	-170.347838
0.900000	-22.211046	-95.916439	-0.079716	-44.342420	-0.079716	-44.342420	-22.205745	-174.742077
0.950000	-21.632556	-96.564555	-0.085994	-46.815637	-0.085994	-46.815637	-21.620518	-179.089315
1.000000	-21.075458	-97.252948	-0.092667	-49.291206	-0.092667	-49.291206	-21.057040	176.610471
1.050000	-20.537912	-97.982170	-0.099764	-51.769168	-0.099764	-51.769168	-20.513441	172.356510
1.100000	-20.018263	-98.752846	-0.107317	-54.249570	-0.107317	-54.249570	-19.988031	168.148261
1.150000	-19.514974	-99.565839	-0.115363	-56.732472	-0.115363	-56.732472	-19.479231	163.985524
1.200000	-19.027218	-100.420212	-0.123920	-59.217828	-0.123920	-59.217828	-18.986183	159.866289
1.250000	-18.553764	-101.316684	-0.133028	-61.705687	-0.133028	-61.705687	-18.507607	155.790374
1.300000	-18.093566	-102.255814	-0.142729	-64.196086	-0.142729	-64.196086	-18.042412	151.757431
1.350000	-17.646078	-103.236651	-0.153045	-66.688969	-0.153045	-66.688969	-17.590023	147.765653
1.400000	-17.210654	-104.258817	-0.164009	-69.184303	-0.164009	-69.184303	-17.149761	143.813875
1.450000	-16.786728	-105.321827	-0.175652	-71.682046	-0.175652	-71.682046	-16.721039	139.900879
1.500000	-16.373808	-106.425114	-0.188005	-74.182140	-0.188005	-74.182140	-16.303349	136.025424
1.550000	-15.971457	-107.568034	-0.201099	-76.684512	-0.201099	-76.684512	-15.896252	132.186255
1.600000	-15.579230	-108.750195	-0.214970	-79.189094	-0.214970	-79.189094	-15.499310	128.382410
1.650000	-15.196833	-109.970618	-0.229644	-81.695770	-0.229644	-81.695770	-15.112253	124.612479
1.700000	-14.823981	-111.228398	-0.245147	-84.204420	-0.245147	-84.204420	-14.734831	120.875230
1.750000	-14.460397	-112.522702	-0.261507	-86.714913	-0.261507	-86.714913	-14.366813	117.169611
1.800000	-14.105828	-113.852671	-0.278750	-89.227104	-0.278750	-89.227104	-14.008005	113.494681
1.850000	-13.760047	-115.217425	-0.296901	-91.740835	-0.296901	-91.740835	-13.658240	109.849627
1.900000	-13.422819	-116.616246	-0.315988	-94.255939	-0.315988	-94.255939	-13.317353	106.233935
1.950000	-13.093961	-118.048214	-0.336034	-96.772228	-0.336034	-96.772228	-12.985227	102.647079
2.000000	-12.773319	-119.512229	-0.357053	-99.289496	-0.357053	-99.289496	-12.661770	99.088534
2.050000	-12.460725	-121.007375	-0.379063	-101.807530	-0.379063	-101.807530	-12.346868	95.558073
2.100000	-12.156024	-122.532734	-0.402079	-104.326110	-0.402079	-104.326110	-12.040402	92.055588
2.150000	-11.859069	-124.087391	-0.426115	-106.845002	-0.426115	-106.845002	-11.742248	88.581064
2.200000	-11.569651	-125.671403	-0.451216	-109.363960	-0.451216	-109.363960	-11.452223	85.135543
2.250000	-11.287777	-127.282038	-0.477326	-111.882733	-0.477326	-111.882733	-11.170287	81.717279
2.300000	-11.013251	-128.919247	-0.504479	-114.401068	-0.504479	-114.401068	-10.896228	78.327188
2.350000	-10.745948	-130.582144	-0.532678	-116.918703	-0.532678	-116.918703	-10.629879	74.965328
2.400000	-10.485750	-132.269854	-0.561921	-119.435371	-0.561921	-119.435371	-10.371066	71.631708
2.450000	-10.232541	-133.981515	-0.592205	-121.950804	-0.592205	-121.950804	-10.119608	68.326275
2.500000	-9.986205	-135.716279	-0.623523	-124.464732	-0.623523	-124.464732	-9.875324	65.048911
2.550000	-9.746637	-137.473780	-0.655883	-126.976840	-0.655883	-126.976840	-9.638045	61.800027
2.600000	-9.513731	-139.252703	-0.689253	-129.486895	-0.689253	-129.486895	-9.407589	58.578756
2.650000	-9.287378	-141.052252	-0.723614	-131.994633	-0.723614	-131.994633	-9.183783	55.384783
2.700000	-9.067468	-142.871654	-0.758947	-134.499798	-0.758947	-134.499798	-8.966462	52.217749
2.750000	-8.853891	-144.710155	-0.795228	-137.002140	-0.795228	-137.002140	-8.755466	49.077255
2.800000	-8.646539	-146.567024	-0.832431	-139.501417	-0.832431	-139.501417	-8.550647	45.962880
2.850000	-8.445302	-148.441554	-0.870528	-141.997399	-0.870528	-141.997399	-8.351860	42.874187
2.900000	-8.250071	-150.333063	-0.909484	-144.489869	-0.909484	-144.489869	-8.158971	39.810729
2.950000	-8.060737	-152.240894	-0.949266	-146.978622	-0.949266	-146.978622	-7.971853	36.772059
3.000000	-7.877190	-154.164419	-0.989835	-149.463468	-0.989835	-149.463468	-7.790383	33.757736
3.050000	-7.699318	-156.103035	-1.031152	-151.944236	-1.031152	-151.944236	-7.614445	30.767323
3.100000	-7.527012	-158.056170	-1.073172	-154.420770	-1.073172	-154.420770	-7.443927	27.800396
3.150000	-7.360183	-160.023427	-1.115857	-156.892886	-1.115857	-156.892886	-7.278745	24.856785
3.200000	-7.198722	-162.004278	-1.159158	-159.360466	-1.159158	-159.360466	-7.118797	21.936071
3.250000	-7.042493	-163.998090	-1.203020	-161.823462	-1.203020	-161.823462	-6.963957	19.037609
3.300000	-6.891382	-166.004416	-1.247394	-164.281806	-1.247394	-164.281806	-6.814124	16.161011
3.350000	-6.745275	-168.022840	-1.292228	-166.735449	-1.292228	-166.735449	-6.669199	13.305894
3.400000	-6.604058	-170.052979	-1.337471	-169.184368	-1.337471	-169.184368	-6.529081	10.471880
3.450000	-6.467615	-172.094480	-1.383067	-171.628561	-1.383067	-171.628561	-6.393674	7.658589
3.500000	-6.335833	-174.147026	-1.428965	-174.068054	-1.428965	-174.068054	-6.262878	4.865642
3.550000	-6.208596	-176.210328	-1.475108	-176.502897	-1.475108	-176.502897	-6.136597	2.092654
3.600000	-6.085791	-178.284132	-1.521444	-178.933164	-1.521444	-178.933164	-6.014732	-0.660769
3.650000	-5.967304	179.631785	-1.567917	178.641044	-1.567917	178.641044	-5.897185	-3.395029
3.700000	-5.853021	177.537616	-1.614473	176.219601	-1.614473	176.219601	-5.783860	-6.110541
3.750000	-5.742829	175.433523	-1.661059	173.802355	-1.661059	173.802355	-5.674659	-8.807736
3.800000	-5.636674	173.319426	-1.707615	171.389212	-1.707615	171.389212	-5.569541	-11.486682
3.850000	-5.534384	171.195642	-1.754094	168.979877	-1.754094	168.979877	-5.468351	-14.148247
3.900000	-5.435850	169.062245	-1.800446	166.574118	-1.800446	166.574118	-5.370991	-16.792920
3.950000	-5.340962	166.919279	-1.846621	164.171682	-1.846621	164.171682	-5.277361	-19.421216
4.000000	-5.249610	164.766766	-1.892571	161.772290	-1.892571	161.772290	-5.187366	-22.033674
4.050000	-5.161688	162.604701	-1.938252	159.375636	-1.938252	159.375636	-5.100908	-24.630860
4.100000	-5.077087	160.433056	-1.983619	156.981393	-1.983619	156.981393	-5.017890	-27.213372
4.150000	-4.995704	158.251781	-2.028630	154.589208	-2.028630	154.589208	-4.938216	-29.781835
4.200000	-4.917433	156.060806	-2.073246	152.198706	-2.073246	152.198706	-4.861791	-32.336911
4.250000	-4.842173	153.860043	-2.117430	149.809487	-2.117430	149.809487	-4.788521	-34.879293
4.300000	-4.769822	151.649383	-2.161147	147.421129	-2.161147	147.421129	-4.718311	-37.409711
4.350000	-4.700280	149.428707	-2.204367	145.033187	-2.204367	145.033187	-4.651070	-39.928932
4.400000	-4.633471	147.197764	-2.247051	142.645185	-2.247051	142.645185	-4.586730	-42.437663
4.450000	-4.569297	144.956400	-2.289173	140.256618	-2.289173	140.256618	-4.525201	-44.936780
4.500000	-4.507636	142.704567	-2.330720	137.866970	-2.330720	137.866970	-4.466365	-47.427293
4.550000	-4.448394	140.442095	-2.371671	135.475704	-2.371671	135.475704	-4.410135	-49.910143
4.600000	-4.391476	138.168810	-2.412012	133.082262	-2.412012	133.082262	-4.356425	-52.386317
4.650000	-4.336790	135.884532	-2.451731	130.686061	-2.451731	130.686061	-4.305147	-54.856855
4.700000	-4.284244	133.589077	-2.490818	128.286497	-2.490818	128.286497	-4.256217	-57.322847
4.750000	-4.233746	131.282261	-2.529271	125.882943	-2.529271	125.882943	-4.209551	-59.785441
4.800000	-4.185205	128.963902	-2.567088	123.474746	-2.567088	123.474746	-4.165068	-62.245841
4.850000	-4.138531	126.633819	-2.604274	121.061233	-2.604274	121.061233	-4.122685	-64.705315
4.900000	-4.093634	124.291837	-2.640836	118.641701	-2.640836	118.641701	-4.082322	-67.165195
4.950000	-4.050423	121.937788	-2.676790	116.215426	-2.676790	116.215426	-4.043899	-69.626884
5.000000	-4.008810	119.571512	-2.712151	113.781656	-2.712151	113.781656	-4.007338	-72.091856
5.050000	-3.968790	117.191967	-2.746895	111.338957	-2.746895	111.338957	-3.972671	-74.562138
5.100000	-3.930069	114.801054	-2.781162	108.887972	-2.781162	108.887972	-3.939562	-77.038374
5.150000	-3.892741	112.396711	-2.814885	106.426400	-2.814885	106.426400	-3.908172	-79.523408
5.200000	-3.856603	109.980057	-2.848164	103.954363	-2.848164	103.954363	-3.878279	-82.018200
5.250000	-3.821601	107.550513	-2.881023	101.470517	-2.881023	101.470517	-3.849861	-84.525100
5.300000	-3.787656	105.107762	-2.913507	98.973677	-2.913507	98.973677	-3.822864	-87.046411
5.350000	-3.754603	102.652759	-2.945710	96.463884	-2.945710	96.463884	-3.797109	-89.583103
5.400000	-3.722441	100.183725	-2.977652	93.938166	-2.977652	93.938166	-3.772677	-92.139860
5.450000	-3.690950	97.702916	-3.009462	91.398105	-3.009462	91.398105	-3.749290	-94.715661
5.500000	-3.660126	95.207852	-3.041188	88.839387	-3.041188	88.839387	-3.727060	-97.317440
5.550000	-3.629776	92.700828	-3.072951	86.263851	-3.072951	86.263851	-3.705731	-99.943658
5.600000	-3.599820	90.180423	-3.104855	83.668097	-3.104855	83.668097	-3.685314	-102.600408
5.650000	-3.570121	87.647473	-3.137017	81.051972	-3.137017	81.051972	-3.665664	-105.289013
5.700000	-3.540548	85.102094	-3.169573	78.414107	-3.169573	78.414107	-3.646682	-108.012748
5.750000	-3.510962	82.543692	-3.202692	75.751722	-3.202692	75.751722	-3.628294	-110.777303
5.800000	-3.481239	79.973856	-3.236482	73.066122	-3.236482	73.066122	-3.610331	-113.581594
5.850000	-3.451164	77.390621	-3.271250	70.351144	-3.271250	70.351144	-3.592730	-116.437503
5.900000	-3.420665	74.796494	-3.307041	67.610364	-3.307041	67.610364	-3.575313	-119.339865
5.950000	-3.389452	72.189571	-3.344276	64.836855	-3.344276	64.836855	-3.557954	-122.302485
6.000000	-3.357452	69.571601	-3.383040	62.032870	-3.383040	62.032870	-3.540505	-125.322391
6.050000	-3.324386	66.941823	-3.423746	59.193794	-3.423746	59.193794	-3.522781	-128.409546
6.100000	-3.290067	64.300561	-3.466688	56.318111	-3.466688	56.318111	-3.504607	-131.568097
6.150000	-3.254359	61.648471	-3.512104	53.405562	-3.512104	53.405562	-3.485822	-134.799719
6.200000	-3.216880	58.984549	-3.560620	50.450275	-3.560620	50.450275	-3.466145	-138.117294
6.250000	-3.177438	56.309124	-3.612616	47.451100	-3.612616	47.451100	-3.445363	-141.524387
6.300000	-3.135726	53.621792	-3.668685	44.404515	-3.668685	44.404515	-3.423190	-145.029379
6.350000	-3.091493	50.922335	-3.729387	41.308181	-3.729387	41.308181	-3.399357	-148.638230
6.400000	-3.044445	48.210185	-3.795413	38.158950	-3.795413	38.158950	-3.373551	-152.358544
6.450000	-2.994276	45.484548	-3.867548	34.953512	-3.867548	34.953512	-3.345435	-156.198253
6.500000	-2.940676	42.744366	-3.946690	31.688394	-3.946690	31.688394	-3.314644	-160.165577
6.550000	-2.883328	39.988268	-4.033865	28.359984	-4.033865	28.359984	-3.280789	-164.268966
6.600000	-2.821924	37.214523	-4.130250	24.964552	-4.130250	24.964552	-3.243456	-168.517024
6.650000	-2.756165	34.420994	-4.237193	21.498295	-4.237193	21.498295	-3.202214	-172.918403
6.700000	-2.685596	31.604248	-4.356643	17.954823	-4.356643	17.954823	-3.156453	-177.487239
6.750000	-2.610309	28.762650	-4.489691	14.335103	-4.489691	14.335103	-3.106023	177.778414
6.800000	-2.530019	25.892212	-4.638572	10.634099	-4.638572	10.634099	-3.050407	172.867570
6.850000	-2.444486	22.988065	-4.805987	6.846714	-4.805987	6.846714	-2.989069	167.769131
6.900000	-2.353741	20.045708	-4.994578	2.970883	-4.994578	2.970883	-2.921697	162.478478
6.950000	-2.257897	17.059916	-5.207524	-0.995325	-5.207524	-0.995325	-2.848017	156.990975
7.000000	-2.157246	14.025383	-5.448347	-5.052192	-5.448347	-5.052192	-2.767910	151.304935
7.050000	-2.052227	10.936385	-5.721212	-9.198949	-5.721212	-9.198949	-2.681371	145.419860
7.100000	-1.943472	7.787189	-6.030911	-13.432793	-6.030911	-13.432793	-2.588582	139.337898
7.150000	-1.831829	4.572326	-6.382966	-17.748261	-6.382966	-17.748261	-2.489946	133.064265
7.200000	-1.718366	1.286715	-6.783841	-22.136618	-6.783841	-22.136618	-2.386097	126.607152
7.250000	-1.604383	-2.074005	-7.241137	-26.584622	-7.241137	-26.584622	-2.277935	119.978255
7.300000	-1.491405	-5.511766	-7.763175	-31.072504	-7.763175	-31.072504	-2.166706	113.195516
7.350000	-1.381083	-9.027330	-8.360047	-35.573715	-8.360047	-35.573715	-2.053845	106.279325
7.400000	-1.275168	-12.619389	-9.043791	-40.051965	-9.043791	-40.051965	-1.940991	99.253840
7.450000	-1.175433	-16.284357	-9.829050	-44.457620	-9.829050	-44.457620	-1.829917	92.146605
7.500000	-1.083587	-20.016289	-10.734099	-48.721861	-10.734099	-48.721861	-1.722444	84.987956
7.550000	-1.001291	-23.807511	-11.782750	-52.742210	-11.782750	-52.742210	-1.620411	77.810386
7.600000	-0.929772	-27.647065	-13.005832	-56.370792	-13.005832	-56.370792	-1.525413	70.647814
7.650000	-0.870012	-31.523226	-14.446513	-59.368137	-14.446513	-59.368137	-1.438828	63.533485
7.700000	-0.822631	-35.423352	-16.166185	-61.316630	-16.166185	-61.316630	-1.361724	56.499459
7.750000	-0.787867	-39.334519	-18.251811	-61.410278	-18.251811	-61.410278	-1.294820	49.575598
7.800000	-0.765587	-43.244145	-20.808253	-57.911275	-20.808253	-57.911275	-1.238471	42.788705
7.850000	-0.755417	-47.140355	-23.802804	-46.681695	-23.802804	-46.681695	-1.192774	36.163338
7.900000	-0.756531	-51.012771	-26.175576	-21.204328	-26.175576	-21.204328	-1.157374	29.717777
7.950000	-0.767933	-54.852788	-25.494129	10.220544	-25.494129	10.220544	-1.131701	23.466134
8.000000	-0.788528	-58.653543	-22.880242	28.384804	-22.880242	28.384804	-1.115031	17.418759
8.050000	-0.817149	-62.409956	-20.389719	35.612144	-20.389719	35.612144	-1.106525	11.582073
8.100000	-0.852623	-66.118623	-18.382218	37.720586	-18.382218	37.720586	-1.105285	5.958960
8.150000	-0.893837	-69.777376	-16.778490	37.407472	-16.778490	37.407472	-1.110435	0.550387
8.200000	-0.939708	-73.385610	-15.476245	35.854421	-15.476245	35.854421	-1.121078	-4.646465
8.250000	-0.989280	-76.943408	-14.399815	33.615897	-14.399815	33.615897	-1.136412	-9.634879
8.300000	-1.041621	-80.453154	-13.494600	30.992499	-13.494600	30.992499	-1.155585	-14.425769
8.350000	-1.096005	-83.916983	-12.722800	28.142395	-12.722800	28.142395	-1.177928	-19.027672
8.400000	-1.151833	-87.336431	-12.058081	25.159012	-12.058081	25.159012	-1.202912	-23.445703
8.450000	-1.208575	-90.713073	-11.481113	22.102948	-11.481113	22.102948	-1.230070	-27.684343
8.500000	-1.265776	-94.051474	-10.974629	19.015662	-10.974629	19.015662	-1.258885	-31.760256
8.550000	-1.323106	-97.354324	-10.526830	15.921078	-10.526830	15.921078	-1.289016	-35.682149
8.600000	-1.380264	-100.622624	-10.129793	12.836137	-10.129793	12.836137	-1.320218	-39.451046
8.650000	-1.437068	-103.860833	-9.774381	9.771075	-9.774381	9.771075	-1.352201	-43.083356
8.700000	-1.493375	-107.071568	-9.454456	6.732317	-9.454456	6.732317	-1.384782	-46.587627
8.750000	-1.549041	-110.256354	-9.165712	3.725148	-9.165712	3.725148	-1.417824	-49.967312
8.800000	-1.604014	-113.418073	-8.903507	0.751391	-8.903507	0.751391	-1.451204	-53.232537
8.850000	-1.658278	-116.559349	-8.664012	-2.188578	-8.664012	-2.188578	-1.484834	-56.392703
8.900000	-1.711795	-119.681824	-8.444579	-5.093860	-8.444579	-5.093860	-1.518657	-59.452482
8.950000	-1.764556	-122.787239	-8.242823	-7.964397	-8.242823	-7.964397	-1.552630	-62.417170
9.000000	-1.816621	-125.877993	-8.056149	-10.802287	-8.056149	-10.802287	-1.586732	-65.296236
9.050000	-1.868015	-128.955647	-7.882790	-13.608502	-7.882790	-13.608502	-1.620951	-68.094872
9.100000	-1.918735	-132.021221	-7.721546	-16.382930	-7.721546	-16.382930	-1.655290	-70.814901
9.150000	-1.968877	-135.076788	-7.570570	-19.128669	-7.570570	-19.128669	-1.689761	-73.465435
9.200000	-2.018491	-138.123639	-7.428691	-21.847197	-7.428691	-21.847197	-1.724382	-76.051045
9.250000	-2.067594	-141.162682	-7.295124	-24.538906	-7.295124	-24.538906	-1.759183	-78.573423
9.300000	-2.116268	-144.195349	-7.168736	-27.206265	-7.168736	-27.206265	-1.794193	-81.038885
9.350000	-2.164573	-147.222759	-7.048671	-29.851085	-7.048671	-29.851085	-1.829448	-83.451950
9.400000	-2.212545	-150.245771	-6.934341	-32.474265	-6.934341	-32.474265	-1.864992	-85.814859
9.450000	-2.260237	-153.265336	-6.825098	-35.077350	-6.825098	-35.077350	-1.900870	-88.131224
9.500000	-2.307713	-156.282389	-6.720291	-37.662337	-6.720291	-37.662337	-1.937125	-90.405608
9.550000	-2.355012	-159.297669	-6.619474	-40.230381	-6.619474	-40.230381	-1.973809	-92.640552
9.600000	-2.402165	-162.311871	-6.522285	-42.782335	-6.522285	-42.782335	-2.010987	-94.837836
9.650000	-2.449229	-165.325697	-6.428232	-45.320201	-6.428232	-45.320201	-2.048701	-97.001896
9.700000	-2.496238	-168.339716	-6.336985	-47.845166	-6.336985	-47.845166	-2.087007	-99.135265
9.750000	-2.543206	-171.354525	-6.248355	-50.357571	-6.248355	-50.357571	-2.126005	-101.238423
9.800000	-2.590184	-174.370542	-6.161938	-52.859589	-6.161938	-52.859589	-2.165718	-103.316267
9.850000	-2.637185	-177.388201	-6.077559	-55.351862	-6.077559	-55.351862	-2.206229	-105.370052
9.900000	-2.684238	179.592210	-5.994972	-57.835756	-5.994972	-57.835756	-2.247583	-107.402831
9.950000	-2.731339	176.570180	-5.914089	-60.311448	-5.914089	-60.311448	-2.289924	-109.414716
10.000000	-2.778528	173.545841	-5.834631	-62.780946	-5.834631	-62.780946	-2.333208	-111.410553
