! freq	dB(S11)	phase(S11)	dB(S12)	phase(S12)	
!     	dB(S21)	phase(S21)	dB(S22)	phase(S22)	
!S-par simulation data
#  GHz  S  DB  R 50
0.000000	-83.152428	0.000000	-0.000604	0.000000	-0.000604	0.000000	-83.152428	0.000000
0.050000	-60.476287	-88.336956	-0.004155	-2.498808	-0.004155	-2.498808	-60.474001	-88.302060
0.100000	-54.488384	-93.049691	-0.011474	-4.965773	-0.011474	-4.965773	-54.486107	-92.978116
0.150000	-50.994982	-96.336602	-0.018301	-7.404912	-0.018301	-7.404912	-50.992734	-96.228521
0.200000	-48.532058	-99.277213	-0.023476	-9.831460	-0.023476	-9.831460	-48.529853	-99.132421
0.250000	-46.638929	-102.075522	-0.027266	-12.253875	-0.027266	-12.253875	-46.636783	-101.893657
0.300000	-45.109996	-104.803701	-0.030149	-14.675798	-0.030149	-14.675798	-45.107922	-104.584278
0.350000	-43.835526	-107.492665	-0.032489	-17.098451	-0.032489	-17.098451	-43.833542	-107.235082
0.400000	-42.750012	-110.157987	-0.034517	-19.522124	-0.034517	-19.522124	-42.748135	-109.861526
0.450000	-41.811207	-112.808471	-0.036380	-21.946782	-0.036380	-21.946782	-41.809459	-112.472297
0.500000	-40.990280	-115.449573	-0.038164	-24.372296	-0.038164	-24.372296	-40.988684	-115.072725
0.550000	-40.266684	-118.084944	-0.039928	-26.798528	-0.039928	-26.798528	-40.265265	-117.666334
0.600000	-39.625265	-120.717213	-0.041706	-29.225353	-0.041706	-29.225353	-39.624055	-120.255616
0.650000	-39.054846	-123.348408	-0.043521	-31.652671	-0.043521	-31.652671	-39.053877	-122.842436
0.700000	-38.546514	-125.980232	-0.045387	-34.080399	-0.045387	-34.080399	-38.545826	-125.428337
0.750000	-38.092919	-128.614120	-0.047313	-36.508468	-0.047313	-36.508468	-38.092555	-128.014607
0.800000	-37.688409	-131.251377	-0.049304	-38.936830	-0.049304	-38.936830	-37.688419	-130.602370
0.850000	-37.328383	-133.893242	-0.051360	-41.365453	-0.051360	-41.365453	-37.328825	-133.192676
0.900000	-37.009055	-136.540931	-0.053483	-43.794311	-0.053483	-43.794311	-37.009994	-135.786535
0.950000	-36.727280	-139.195669	-0.055671	-46.223390	-0.055671	-46.223390	-36.728790	-138.384949
1.000000	-36.480418	-141.858705	-0.057922	-48.652684	-0.057922	-48.652684	-36.482584	-140.988928
1.050000	-36.266243	-144.531335	-0.060235	-51.082194	-0.060235	-51.082194	-36.269163	-143.599508
1.100000	-36.082861	-147.214912	-0.062604	-53.511925	-0.062604	-53.511925	-36.086647	-146.217758
1.150000	-35.928656	-149.910856	-0.065028	-55.941890	-0.065028	-55.941890	-35.933436	-148.844792
1.200000	-35.802235	-152.620664	-0.067501	-58.372106	-0.067501	-58.372106	-35.808156	-151.481775
1.250000	-35.702395	-155.345921	-0.070021	-60.802595	-0.070021	-60.802595	-35.709627	-154.129927
1.300000	-35.628614	-158.088714	-0.072585	-63.233389	-0.072585	-63.233389	-35.637357	-156.790834
1.350000	-35.579424	-160.850490	-0.075187	-65.664512	-0.075187	-65.664512	-35.589903	-159.465601
1.400000	-35.554004	-163.633131	-0.077824	-68.095998	-0.077824	-68.095998	-35.566480	-162.155648
1.450000	-35.551619	-166.438627	-0.080494	-70.527881	-0.080494	-70.527881	-35.566390	-164.862459
1.500000	-35.571591	-169.269076	-0.083192	-72.960200	-0.083192	-72.960200	-35.589003	-167.587588
1.550000	-35.613287	-172.126683	-0.085915	-75.392997	-0.085915	-75.392997	-35.633737	-170.332654
1.600000	-35.676094	-175.013755	-0.088663	-77.826312	-0.088663	-77.826312	-35.700043	-173.099338
1.650000	-35.759400	-177.932693	-0.091431	-80.260190	-0.091431	-80.260190	-35.787378	-175.889376
1.700000	-35.862576	179.114026	-0.094220	-82.694677	-0.094220	-82.694677	-35.895195	-178.704544
1.750000	-35.984947	176.123873	-0.097026	-85.129816	-0.097026	-85.129816	-36.022912	178.453357
1.800000	-36.125769	173.094304	-0.099850	-87.565655	-0.099850	-87.565655	-36.169892	175.582531
1.850000	-36.284201	170.022814	-0.102691	-90.002238	-0.102691	-90.002238	-36.335413	172.681224
1.900000	-36.459397	166.906508	-0.105548	-92.439621	-0.105548	-92.439621	-36.518776	169.747408
1.950000	-36.650152	163.743146	-0.108422	-94.877849	-0.108422	-94.877849	-36.718927	166.779547
2.000000	-36.854966	160.531422	-0.111313	-97.316957	-0.111313	-97.316957	-36.934520	163.776783
2.050000	-37.072234	157.270093	-0.114222	-99.756989	-0.114222	-99.756989	-37.164128	160.738307
2.100000	-37.300064	153.958693	-0.117151	-102.197983	-0.117151	-102.197983	-37.406037	157.663873
2.150000	-37.536225	150.597819	-0.120100	-104.639980	-0.120100	-104.639980	-37.658196	154.554006
2.200000	-37.778109	147.189474	-0.123071	-107.083016	-0.123071	-107.083016	-37.918158	151.410251
2.250000	-38.022690	143.737466	-0.126065	-109.527126	-0.126065	-109.527126	-38.183032	148.235471
2.300000	-38.266498	140.247845	-0.129086	-111.972344	-0.129086	-111.972344	-38.449425	145.034184
2.350000	-38.505606	136.729367	-0.132133	-114.418701	-0.132133	-114.418701	-38.713404	141.812922
2.400000	-38.735639	133.193920	-0.135209	-116.866226	-0.135209	-116.866226	-38.970469	138.580593
2.450000	-38.951807	129.656866	-0.138317	-119.314947	-0.138317	-119.314947	-39.215555	135.348779
2.500000	-39.148974	126.137218	-0.141457	-121.764889	-0.141457	-121.764889	-39.443059	132.131929
2.550000	-39.321038	122.659002	-0.144632	-124.216105	-0.144632	-124.216105	-39.646166	128.948504
2.600000	-39.463018	119.247683	-0.147844	-126.668590	-0.147844	-126.668590	-39.818981	125.818182
2.650000	-39.569459	115.931158	-0.151092	-129.122368	-0.151092	-129.122368	-39.954928	122.762709
2.700000	-39.635118	112.737969	-0.154379	-131.577460	-0.154379	-131.577460	-40.047491	119.804424
2.750000	-39.655135	109.695486	-0.157706	-134.033886	-0.157706	-134.033886	-40.090472	116.964691
2.800000	-39.625208	106.827822	-0.161073	-136.491668	-0.161073	-136.491668	-40.078287	114.262066
2.850000	-39.541742	104.153724	-0.164481	-138.950827	-0.164481	-138.950827	-40.006252	111.710403
2.900000	-39.401996	101.684706	-0.167931	-141.411385	-0.167931	-141.411385	-39.870863	109.317202
2.950000	-39.204210	99.423720	-0.171423	-143.873366	-0.171423	-143.873366	-39.670027	107.082506
3.000000	-38.947709	97.364597	-0.174958	-146.336792	-0.174958	-146.336792	-39.403223	104.998572
3.050000	-38.632980	95.492383	-0.178536	-148.801690	-0.178536	-148.801690	-39.071566	103.050456
3.100000	-38.261700	93.784561	-0.182157	-151.268087	-0.182157	-151.268087	-38.677761	101.217404
3.150000	-37.835909	92.214117	-0.185823	-153.736027	-0.185823	-153.736027	-38.225084	99.475530
3.200000	-37.359478	90.748559	-0.189534	-156.205544	-0.189534	-156.205544	-37.718859	97.797795
3.250000	-36.838017	89.354298	-0.193290	-158.676653	-0.193290	-158.676653	-37.166164	96.157727
3.300000	-36.276993	88.000799	-0.197092	-161.149389	-0.197092	-161.149389	-36.573711	94.532186
3.350000	-35.682252	86.660729	-0.200942	-163.623789	-0.200942	-163.623789	-35.948363	92.901465
3.400000	-35.059749	85.310984	-0.204842	-166.099892	-0.204842	-166.099892	-35.296828	91.249803
3.450000	-34.415308	83.933129	-0.208794	-168.577737	-0.208794	-168.577737	-34.625433	89.565421
3.500000	-33.754439	82.513352	-0.212801	-171.057367	-0.212801	-171.057367	-33.939963	87.840217
3.550000	-33.082192	81.042077	-0.216865	-173.538825	-0.216865	-173.538825	-33.245571	86.069249
3.600000	-32.403084	79.513368	-0.220992	-176.022155	-0.220992	-176.022155	-32.546740	84.250150
3.650000	-31.721062	77.924262	-0.225187	-178.507400	-0.225187	-178.507400	-31.847295	82.382528
3.700000	-31.039506	76.274101	-0.229454	179.005396	-0.229454	179.005396	-31.150442	80.467430
3.750000	-30.361256	74.563926	-0.233800	176.516188	-0.233800	176.516188	-30.458820	78.506890
3.800000	-29.687707	72.794781	-0.238235	174.024889	-0.238235	174.024889	-29.773609	76.502702
3.850000	-29.021844	70.971008	-0.242766	171.531502	-0.242766	171.531502	-29.097598	74.458858
3.900000	-28.365185	69.096062	-0.247402	169.035989	-0.247402	169.035989	-28.432113	72.378477
3.950000	-27.718917	67.173582	-0.252153	166.538316	-0.252153	166.538316	-27.778168	70.264654
4.000000	-27.083952	65.207222	-0.257030	164.038452	-0.257030	164.038452	-27.136519	68.120361
4.050000	-26.460968	63.200538	-0.262046	161.536371	-0.262046	161.536371	-26.507708	65.948393
4.100000	-25.850454	61.156912	-0.267214	159.032052	-0.267214	159.032052	-25.892105	63.751331
4.150000	-25.252745	59.079502	-0.272548	156.525482	-0.272548	156.525482	-25.289943	61.531530
4.200000	-24.668047	56.971226	-0.278062	154.016652	-0.278062	154.016652	-24.701339	59.291116
4.250000	-24.096470	54.834751	-0.283773	151.505563	-0.283773	151.505563	-24.126328	57.031996
4.300000	-23.538219	52.672684	-0.289695	148.992242	-0.289695	148.992242	-23.565053	54.755989
4.350000	-22.992781	50.486701	-0.295851	146.476660	-0.295851	146.476660	-23.016943	52.464266
4.400000	-22.460241	48.278946	-0.302256	143.958857	-0.302256	143.958857	-22.482036	50.158276
4.450000	-21.940515	46.051217	-0.308930	141.438873	-0.308930	141.438873	-21.960210	47.839218
4.500000	-21.433621	43.805259	-0.315888	138.916778	-0.315888	138.916778	-21.451448	45.508235
4.550000	-20.939394	41.542477	-0.323150	136.392634	-0.323150	136.392634	-20.955555	43.166238
4.600000	-20.457992	39.264490	-0.330726	133.866562	-0.330726	133.866562	-20.472666	40.814268
4.650000	-19.988598	36.971771	-0.338649	131.338563	-0.338649	131.338563	-20.001940	38.452611
4.700000	-19.531277	34.665618	-0.346930	128.808772	-0.346930	128.808772	-19.543424	36.082092
4.750000	-19.085792	32.346911	-0.355592	126.277292	-0.355592	126.277292	-19.096867	33.703262
4.800000	-18.652058	30.016616	-0.364646	123.744267	-0.364646	123.744267	-18.662167	31.316732
4.850000	-18.229888	27.675524	-0.374110	121.209834	-0.374110	121.209834	-18.239129	28.923003
4.900000	-17.819104	25.324370	-0.383999	118.674147	-0.383999	118.674147	-17.827560	26.522545
4.950000	-17.419528	22.963845	-0.394327	116.137371	-0.394327	116.137371	-17.427275	24.115809
5.000000	-17.030990	20.594603	-0.405106	113.599683	-0.405106	113.599683	-17.038097	21.703228
5.050000	-16.653271	18.217190	-0.416351	111.061267	-0.416351	111.061267	-16.659797	19.285171
5.100000	-16.286284	15.832302	-0.428068	108.522334	-0.428068	108.522334	-16.292285	16.862122
5.150000	-15.929876	13.440524	-0.440263	105.983094	-0.440263	105.983094	-15.935399	14.434497
5.200000	-15.583897	11.042430	-0.452940	103.443769	-0.452940	103.443769	-15.588988	12.002713
5.250000	-15.248206	8.638580	-0.466104	100.904588	-0.466104	100.904588	-15.252903	9.567191
5.300000	-14.922663	6.229528	-0.479752	98.365786	-0.479752	98.365786	-14.927002	7.128354
5.350000	-14.607123	3.815789	-0.493887	95.827613	-0.493887	95.827613	-14.611135	4.686611
5.400000	-14.301473	1.397937	-0.508501	93.290317	-0.508501	93.290317	-14.305188	2.242416
5.450000	-14.005591	-1.023480	-0.523584	90.754146	-0.523584	90.754146	-14.009034	-0.203789
5.500000	-13.719349	-3.447934	-0.539124	88.219353	-0.539124	88.219353	-13.722544	-2.651569
5.550000	-13.442627	-5.874902	-0.555108	85.686189	-0.555108	85.686189	-13.445593	-5.100486
5.600000	-13.175302	-8.303872	-0.571518	83.154904	-0.571518	83.154904	-13.178058	-7.550109
5.650000	-12.917266	-10.734349	-0.588335	80.625761	-0.588335	80.625761	-12.919830	-10.000007
5.700000	-12.668409	-13.165836	-0.605535	78.099004	-0.605535	78.099004	-12.670795	-12.449752
5.750000	-12.428608	-15.597854	-0.623090	75.574858	-0.623090	75.574858	-12.430829	-14.898934
5.800000	-12.197749	-18.029947	-0.640969	73.053549	-0.640969	73.053549	-12.199817	-17.347154
5.850000	-11.975796	-20.461665	-0.659145	70.535373	-0.659145	70.535373	-11.977722	-19.793993
5.900000	-11.762510	-22.892617	-0.677571	68.020399	-0.677571	68.020399	-11.764302	-22.239152
5.950000	-11.557833	-25.322415	-0.696214	65.508876	-0.696214	65.508876	-11.559501	-24.682266
6.000000	-11.361659	-27.750703	-0.715032	63.000978	-0.715032	63.000978	-11.363210	-27.123023
6.050000	-11.173785	-30.177202	-0.733980	60.496778	-0.733980	60.496778	-11.175225	-29.561200
6.100000	-10.994321	-32.601519	-0.753016	57.996605	-0.753016	57.996605	-10.995655	-31.996399
6.150000	-10.823053	-35.023447	-0.772087	55.500477	-0.772087	55.500477	-10.824287	-34.428469
6.200000	-10.659883	-37.442764	-0.791144	53.008491	-0.791144	53.008491	-10.661021	-36.857216
6.250000	-10.504717	-39.859286	-0.810135	50.520724	-0.810135	50.520724	-10.505763	-39.282484
6.300000	-10.357525	-42.272833	-0.829003	48.037273	-0.829003	48.037273	-10.358483	-41.704110
6.350000	-10.218167	-44.683328	-0.847694	45.558122	-0.847694	45.558122	-10.219040	-44.122049
6.400000	-10.086561	-47.090705	-0.866153	43.083270	-0.866153	43.083270	-10.087351	-46.536252
6.450000	-9.962633	-49.494937	-0.884323	40.612695	-0.884323	40.612695	-9.963344	-48.946709
6.500000	-9.846480	-51.895948	-0.902135	38.146458	-0.902135	38.146458	-9.847112	-51.353348
6.550000	-9.737747	-54.293945	-0.919550	35.684275	-0.919550	35.684275	-9.738303	-53.756414
6.600000	-9.636508	-56.688945	-0.936504	33.226132	-0.936504	33.226132	-9.636990	-56.155924
6.650000	-9.542716	-59.081074	-0.952940	30.771896	-0.952940	30.771896	-9.543126	-58.552014
6.700000	-9.456333	-61.470491	-0.968801	28.321406	-0.968801	28.321406	-9.456672	-60.944849
6.750000	-9.377329	-63.857391	-0.984033	25.874474	-0.984033	25.874474	-9.377599	-63.334629
6.800000	-9.305684	-66.241999	-0.998582	23.430886	-0.998582	23.430886	-9.305887	-65.721586
6.850000	-9.241389	-68.624574	-1.012395	20.990397	-1.012395	20.990397	-9.241524	-68.105977
6.900000	-9.184519	-71.005387	-1.025412	18.552768	-1.025412	18.552768	-9.184589	-70.488068
6.950000	-9.135091	-73.384764	-1.037585	16.117691	-1.037585	16.117691	-9.135095	-72.868182
7.000000	-9.093051	-75.763065	-1.048875	13.684815	-1.048875	13.684815	-9.092991	-75.246681
7.050000	-9.058436	-78.140654	-1.059240	11.253793	-1.059240	11.253793	-9.058312	-77.623923
7.100000	-9.031292	-80.517920	-1.068641	8.824255	-1.068641	8.824255	-9.031106	-80.000287
7.150000	-9.011683	-82.895267	-1.077040	6.395810	-1.077040	6.395810	-9.011433	-82.376168
7.200000	-8.999682	-85.273121	-1.084403	3.968044	-1.084403	3.968044	-8.999368	-84.751977
7.250000	-8.995380	-87.651923	-1.090703	1.540525	-1.090703	1.540525	-8.995003	-87.128141
7.300000	-8.998883	-90.032129	-1.095912	-0.887201	-1.095912	-0.887201	-8.998440	-89.505098
7.350000	-9.010311	-92.414209	-1.100009	-3.315601	-1.100009	-3.315601	-9.009803	-91.883296
7.400000	-9.029803	-94.798644	-1.102979	-5.745160	-1.102979	-5.745160	-9.029228	-94.263194
7.450000	-9.057515	-97.185929	-1.104807	-8.176377	-1.104807	-8.176377	-9.056871	-96.645259
7.500000	-9.093623	-99.576565	-1.105488	-10.609761	-1.105488	-10.609761	-9.092907	-99.029963
7.550000	-9.138506	-101.971164	-1.104993	-13.045904	-1.104993	-13.045904	-9.137716	-101.417867
7.600000	-9.192201	-104.370174	-1.103350	-15.485288	-1.103350	-15.485288	-9.191333	-103.809396
7.650000	-9.254947	-106.774127	-1.100568	-17.928447	-1.100568	-17.928447	-9.253998	-106.205040
7.700000	-9.327007	-109.183563	-1.096660	-20.375919	-1.096660	-20.375919	-9.325972	-108.605290
7.750000	-9.408671	-111.599032	-1.091647	-22.828243	-1.091647	-22.828243	-9.407546	-111.010642
7.800000	-9.500256	-114.021089	-1.085554	-25.285955	-1.085554	-25.285955	-9.499034	-113.421594
7.850000	-9.602110	-116.450305	-1.078410	-27.749589	-1.078410	-27.749589	-9.600786	-115.838647
7.900000	-9.714614	-118.887258	-1.070254	-30.219670	-1.070254	-30.219670	-9.713181	-118.262304
7.950000	-9.838003	-121.332369	-1.061145	-32.696570	-1.061145	-32.696570	-9.836455	-120.692925
8.000000	-9.973151	-123.786625	-1.051090	-35.181113	-1.051090	-35.181113	-9.971479	-123.131347
8.050000	-10.120328	-126.250447	-1.040169	-37.673614	-1.040169	-37.673614	-10.118524	-125.577908
8.100000	-10.280084	-128.724475	-1.028440	-40.174541	-1.028440	-40.174541	-10.278140	-128.033127
8.150000	-10.453080	-131.209440	-1.015966	-42.684388	-1.015966	-42.684388	-10.450987	-130.497582
8.200000	-10.639985	-133.706047	-1.002819	-45.203581	-1.002819	-45.203581	-10.637732	-132.971813
8.250000	-10.841478	-136.214965	-0.989079	-47.732461	-0.989079	-47.732461	-10.839057	-135.456313
8.300000	-11.058371	-138.736962	-0.974827	-50.271385	-0.974827	-50.271385	-11.055772	-137.951633
8.350000	-11.291517	-141.272789	-0.960151	-52.820626	-0.960151	-52.820626	-11.288732	-140.458289
8.400000	-11.542109	-143.823595	-0.945134	-55.380659	-0.945134	-55.380659	-11.539127	-142.977088
8.450000	-11.811120	-146.390144	-0.929877	-57.951582	-0.929877	-57.951582	-11.807933	-145.508488
8.500000	-12.099800	-148.973483	-0.914476	-60.533592	-0.914476	-60.533592	-12.096401	-148.053136
8.550000	-12.409554	-151.574773	-0.899031	-63.126833	-0.899031	-63.126833	-12.405937	-150.611721
8.600000	-12.741969	-154.195322	-0.883645	-65.731405	-0.883645	-65.731405	-12.738129	-153.184988
8.650000	-13.098849	-156.836626	-0.868419	-68.347351	-0.868419	-68.347351	-13.094785	-155.773760
8.700000	-13.482253	-159.500420	-0.853458	-70.974665	-0.853458	-70.974665	-13.477967	-158.378958
8.750000	-13.894548	-162.188755	-0.838866	-73.613283	-0.838866	-73.613283	-13.890050	-161.001643
8.800000	-14.338627	-164.904532	-0.824753	-76.263248	-0.824753	-76.263248	-14.333933	-163.643355
8.850000	-14.817533	-167.650442	-0.811217	-78.924220	-0.811217	-78.924220	-14.812673	-166.305359
8.900000	-15.335036	-170.430291	-0.798355	-81.595968	-0.798355	-81.595968	-15.330057	-168.989534
8.950000	-15.895625	-173.248924	-0.786263	-84.278208	-0.786263	-84.278208	-15.890600	-171.698269
9.000000	-16.504710	-176.112634	-0.775031	-86.970603	-0.775031	-86.970603	-16.499752	-174.434678
9.050000	-17.168896	-179.029774	-0.764744	-89.672766	-0.764744	-89.672766	-17.164177	-177.202917
9.100000	-17.896374	177.988321	-0.755482	-92.384265	-0.755482	-92.384265	-17.892166	179.991318
9.150000	-18.697488	174.925884	-0.747317	-95.104626	-0.747317	-95.104626	-18.694214	177.140022
9.200000	-19.585596	171.759040	-0.740326	-97.833409	-0.740326	-97.833409	-19.583947	174.230893
9.250000	-20.578215	168.453835	-0.734560	-100.570017	-0.734560	-100.570017	-20.579338	171.246304
9.300000	-21.699197	164.958246	-0.730060	-103.313837	-0.730060	-103.313837	-21.705068	168.158922
9.350000	-22.982109	161.187070	-0.726864	-106.064275	-0.726864	-106.064275	-22.996321	164.923417
9.400000	-24.476150	156.993219	-0.724998	-108.820724	-0.724998	-108.820724	-24.505695	161.460463
9.450000	-26.257136	152.101323	-0.724480	-111.582574	-0.724480	-111.582574	-26.316938	157.618854
9.500000	-28.448871	145.936346	-0.725316	-114.349215	-0.725316	-114.349215	-28.575294	153.073460
9.550000	-31.264025	137.101726	-0.727502	-117.120048	-0.727502	-117.120048	-31.564980	146.986675
9.600000	-35.031334	121.351800	-0.731030	-119.894506	-0.731030	-119.894506	-35.944421	136.376506
9.650000	-39.242350	84.315581	-0.735881	-122.672040	-0.735881	-122.672040	-43.085860	101.673607
9.700000	-38.321122	28.679497	-0.742007	-125.452098	-0.742007	-125.452098	-41.748047	14.079836
9.750000	-34.182040	-0.081585	-0.749364	-128.234203	-0.749364	-128.234203	-35.364359	-12.921557
9.800000	-30.928815	-13.151555	-0.757899	-131.017930	-0.757899	-131.017930	-31.514263	-22.349967
9.850000	-28.524952	-20.944397	-0.767552	-133.802913	-0.767552	-133.802913	-28.889627	-28.001399
9.900000	-26.671907	-26.553975	-0.778254	-136.588847	-0.778254	-136.588847	-26.931131	-32.277937
9.950000	-25.188610	-31.066976	-0.789934	-139.375499	-0.789934	-139.375499	-25.388806	-35.894538
10.000000	-23.968244	-34.948080	-0.802511	-142.162708	-0.802511	-142.162708	-24.131744	-39.135462
