! freq	dB(S11)	phase(S11)	dB(S12)	phase(S12)	
!     	dB(S21)	phase(S21)	dB(S22)	phase(S22)	
!S-par simulation data
#  GHz  S  DB  R 50
0.000000	-0.000000	0.000000	-390.489007	180.000000	-390.489007	180.000000	0.000000	0.000000
0.050000	-0.000108	-0.804258	-117.669519	97.233076	-117.669519	97.233076	-0.000104	-0.807245
0.100000	-0.000426	-1.608244	-110.915321	95.602292	-110.915321	95.602292	-0.000413	-1.614234
0.150000	-0.000940	-2.411710	-107.177621	93.352142	-107.177621	93.352142	-0.000913	-2.420732
0.200000	-0.001626	-3.214457	-104.665866	91.567406	-104.665866	91.567406	-0.001583	-3.226547
0.250000	-0.002469	-4.016265	-102.820801	90.191519	-102.820801	90.191519	-0.002409	-4.031465
0.300000	-0.003426	-4.817109	-101.391727	89.082025	-101.391727	89.082025	-0.003351	-4.835452
0.350000	-0.004477	-5.616889	-100.261005	88.197802	-100.261005	88.197802	-0.004390	-5.638403
0.400000	-0.005597	-6.415581	-99.358954	87.513649	-99.358954	87.513649	-0.005503	-6.440283
0.450000	-0.006763	-7.213189	-98.642920	87.027552	-98.642920	87.027552	-0.006667	-7.241087
0.500000	-0.007959	-8.009739	-98.085698	86.755025	-98.085698	86.755025	-0.007864	-8.040831
0.550000	-0.009168	-8.805270	-97.669682	86.727550	-97.669682	86.727550	-0.009079	-8.839546
0.600000	-0.010380	-9.599827	-97.383592	86.993982	-97.383592	86.993982	-0.010301	-9.637271
0.650000	-0.011587	-10.393455	-97.220424	87.624594	-97.220424	87.624594	-0.011520	-10.434046
0.700000	-0.012784	-11.186195	-97.175855	88.718041	-97.175855	88.718041	-0.012731	-11.229912
0.750000	-0.013967	-11.978083	-97.246517	90.411843	-97.246517	90.411843	-0.013928	-12.024903
0.800000	-0.015134	-12.769151	-97.427386	92.896697	-97.427386	92.896697	-0.015110	-12.819052
0.850000	-0.016285	-13.559420	-97.707102	96.432838	-97.707102	96.432838	-0.016276	-13.612381
0.900000	-0.017419	-14.348909	-98.059352	101.359236	-98.059352	101.359236	-0.017425	-14.404911
0.950000	-0.018538	-15.137626	-98.428330	108.067501	-98.428330	108.067501	-0.018557	-15.196653
1.000000	-0.019643	-15.925579	-98.710316	116.880793	-98.710316	116.880793	-0.019673	-15.987616
1.050000	-0.020733	-16.712767	-98.748221	127.775816	-98.748221	127.775816	-0.020774	-16.777801
1.100000	-0.021812	-17.499187	-98.376063	140.034016	-98.376063	140.034016	-0.021862	-17.567208
1.150000	-0.022880	-18.284832	-97.521149	152.238608	-97.521149	152.238608	-0.022938	-18.355831
1.200000	-0.023938	-19.069694	-96.265419	162.963873	-96.265419	162.963873	-0.024003	-19.143663
1.250000	-0.024988	-19.853760	-94.777956	171.516376	-94.777956	171.516376	-0.025059	-19.930694
1.300000	-0.026030	-20.636982	-93.198453	177.865143	-93.198453	177.865143	-0.026105	-20.716874
1.350000	-0.027065	-21.419380	-91.637003	-177.504770	-91.637003	-177.504770	-0.027145	-21.502224
1.400000	-0.028096	-22.200937	-90.136855	-174.194103	-90.136855	-174.194103	-0.028178	-22.286731
1.450000	-0.029121	-22.981637	-88.714262	-171.876453	-88.714262	-171.876453	-0.029206	-23.070376
1.500000	-0.030143	-23.761464	-87.372019	-170.305736	-87.372019	-170.305736	-0.030230	-23.853143
1.550000	-0.031161	-24.540401	-86.106850	-169.301754	-86.106850	-169.301754	-0.031249	-24.635016
1.600000	-0.032177	-25.318428	-84.913117	-168.733309	-84.913117	-168.733309	-0.032266	-25.415976
1.650000	-0.033190	-26.095530	-83.784562	-168.504340	-83.784562	-168.504340	-0.033281	-26.196005
1.700000	-0.034201	-26.871352	-82.690117	-168.612478	-82.690117	-168.612478	-0.034293	-26.974748
1.750000	-0.035212	-27.646675	-81.685222	-168.841176	-81.685222	-168.841176	-0.035305	-27.752989
1.800000	-0.036221	-28.420798	-80.713586	-169.266979	-80.713586	-169.266979	-0.036315	-28.530023
1.850000	-0.037230	-29.194064	-79.794211	-169.833571	-79.794211	-169.833571	-0.037325	-29.306195
1.900000	-0.038239	-29.966264	-78.911682	-170.514209	-78.911682	-170.514209	-0.038336	-30.081294
1.950000	-0.039249	-30.737397	-78.064165	-171.308893	-78.064165	-171.308893	-0.039346	-30.855320
2.000000	-0.040258	-31.507612	-77.255507	-172.170422	-77.255507	-172.170422	-0.040357	-31.628420
2.050000	-0.041269	-32.276540	-76.469017	-173.125533	-76.469017	-173.125533	-0.041370	-32.400225
2.100000	-0.042281	-33.044710	-75.722516	-174.119543	-75.722516	-174.119543	-0.042383	-33.171265
2.150000	-0.043294	-33.811362	-74.988475	-175.191349	-74.988475	-175.191349	-0.043399	-33.940776
2.200000	-0.044309	-34.577428	-74.294995	-176.284971	-74.294995	-176.284971	-0.044416	-34.709697
2.250000	-0.045327	-35.341735	-73.606543	-177.444041	-73.606543	-177.444041	-0.045436	-35.476845
2.300000	-0.046346	-36.105641	-72.958850	-178.614238	-72.958850	-178.614238	-0.046458	-36.243588
2.350000	-0.047369	-36.867539	-72.310437	-179.840073	-72.310437	-179.840073	-0.047484	-37.008306
2.400000	-0.048394	-37.629230	-71.702709	178.929753	-71.702709	178.929753	-0.048512	-37.772816
2.450000	-0.049425	-38.388654	-71.089786	177.651852	-71.089786	177.651852	-0.049546	-38.535040
2.500000	-0.050455	-39.148079	-70.517277	176.373952	-70.517277	176.373952	-0.050580	-39.297264
2.550000	-0.051495	-39.904970	-69.936066	175.054798	-69.936066	175.054798	-0.051623	-40.056934
2.600000	-0.052534	-40.661861	-69.391320	173.735643	-69.391320	173.735643	-0.052666	-40.816603
2.650000	-0.053583	-41.416377	-68.842186	172.386122	-68.842186	172.386122	-0.053718	-41.573877
2.700000	-0.054633	-42.170678	-68.322592	171.033840	-68.322592	171.033840	-0.054771	-42.330934
2.750000	-0.055692	-42.922774	-67.802177	169.659140	-67.802177	169.659140	-0.055834	-43.085768
2.800000	-0.056753	-43.674430	-67.305500	168.279956	-67.305500	168.279956	-0.056900	-43.840157
2.850000	-0.057824	-44.424063	-66.810964	166.884233	-66.810964	166.884233	-0.057975	-44.592507
2.900000	-0.058899	-45.173022	-66.335277	165.482997	-66.335277	165.482997	-0.059053	-45.344178
2.950000	-0.059983	-45.920151	-65.864195	164.069616	-65.864195	164.069616	-0.060142	-46.094004
3.000000	-0.061073	-46.666366	-65.407823	162.650163	-65.407823	162.650163	-0.061235	-46.842907
3.050000	-0.062172	-47.410953	-64.958106	161.221875	-64.958106	161.221875	-0.062338	-47.590170
3.100000	-0.063278	-48.154378	-64.519581	159.787277	-64.519581	159.787277	-0.063448	-48.336261
3.150000	-0.064392	-48.896386	-64.089419	158.346351	-64.089419	158.346351	-0.064567	-49.080925
3.200000	-0.065517	-49.636979	-63.667445	156.899098	-63.667445	156.899098	-0.065695	-49.824162
3.250000	-0.066649	-50.376376	-63.255255	155.447423	-63.255255	155.447423	-0.066832	-50.566194
3.300000	-0.067793	-51.114098	-62.848686	153.989557	-62.848686	153.989557	-0.067980	-51.306538
3.350000	-0.068944	-51.850852	-62.453077	152.528717	-62.453077	152.528717	-0.069135	-52.045906
3.400000	-0.070109	-52.585668	-62.060889	151.061928	-62.060889	151.061928	-0.070305	-52.783323
3.450000	-0.071280	-53.319749	-61.680631	149.593261	-61.680631	149.593261	-0.071480	-53.519999
3.500000	-0.072469	-54.051627	-61.301908	148.118961	-61.301908	148.118961	-0.072673	-54.254456
3.550000	-0.073662	-54.783010	-60.935908	146.643606	-60.935908	146.643606	-0.073870	-54.988415
3.600000	-0.074875	-55.511921	-60.569826	145.162982	-60.569826	145.162982	-0.075088	-55.719883
3.650000	-0.076091	-56.240582	-60.217109	143.681916	-60.217109	143.681916	-0.076308	-56.451101
3.700000	-0.077332	-56.966500	-59.862921	142.195979	-59.862921	142.195979	-0.077553	-57.179556
3.750000	-0.078572	-57.692418	-59.522612	140.710043	-59.522612	140.710043	-0.078798	-57.908011
3.800000	-0.079840	-58.415321	-59.179642	139.219657	-59.179642	139.219657	-0.080071	-58.633431
3.850000	-0.081109	-59.138224	-58.849702	137.729271	-58.849702	137.729271	-0.081344	-59.358850
3.900000	-0.082405	-59.858347	-58.518587	136.235490	-58.518587	136.235490	-0.082645	-60.081471
3.950000	-0.083704	-60.578217	-58.198471	134.741400	-58.198471	134.741400	-0.083949	-60.803837
4.000000	-0.085030	-61.295546	-57.878480	133.244762	-57.878480	133.244762	-0.085279	-61.523646
4.050000	-0.086360	-62.012367	-57.567690	131.747615	-57.567690	131.747615	-0.086615	-62.242944
4.100000	-0.087716	-62.726892	-57.258162	130.248599	-57.258162	130.248599	-0.087975	-62.959931
4.150000	-0.089080	-63.440652	-56.956237	128.748960	-56.956237	128.748960	-0.089345	-63.676148
4.200000	-0.090468	-64.152366	-56.656572	127.247991	-56.656572	127.247991	-0.090738	-64.390306
4.250000	-0.091868	-64.863057	-56.363090	125.746358	-56.363090	125.746358	-0.092143	-65.103435
4.300000	-0.093289	-65.571954	-56.072736	124.243819	-56.072736	124.243819	-0.093570	-65.814759
4.350000	-0.094725	-66.279570	-55.787307	122.740634	-55.787307	122.740634	-0.095013	-66.524794
4.400000	-0.096182	-66.985647	-55.505763	121.236868	-55.505763	121.236868	-0.096475	-67.233281
4.450000	-0.097657	-67.690186	-55.228024	119.732523	-55.228024	119.732523	-0.097956	-67.940220
4.500000	-0.099149	-68.393443	-54.954827	118.227841	-54.954827	118.227841	-0.099455	-68.645870
4.550000	-0.100665	-69.094907	-54.684444	116.722690	-54.684444	116.722690	-0.100977	-69.349716
4.600000	-0.102195	-69.795346	-54.419169	115.217376	-54.419169	115.217376	-0.102514	-70.052531
4.650000	-0.103753	-70.493738	-54.155828	113.711737	-54.155828	113.711737	-0.104079	-70.753287
4.700000	-0.105323	-71.191364	-53.898084	112.206049	-53.898084	112.206049	-0.105656	-71.453273
4.750000	-0.106925	-71.886692	-53.641494	110.700212	-53.641494	110.700212	-0.107266	-72.150948
4.800000	-0.108535	-72.581511	-53.390917	109.194386	-53.390917	109.194386	-0.108883	-72.848111
4.850000	-0.110183	-73.273786	-53.140806	107.688616	-53.140806	107.688616	-0.110539	-73.542715
4.900000	-0.111835	-73.965807	-52.897061	106.182872	-52.897061	106.182872	-0.112199	-74.237064
4.950000	-0.113530	-74.655042	-52.653174	104.677410	-52.653174	104.677410	-0.113903	-74.928612
5.000000	-0.115226	-75.344278	-52.415949	103.171949	-52.415949	103.171949	-0.115607	-75.620159
5.050000	-0.116971	-76.030490	-52.178046	101.667020	-52.178046	101.667020	-0.117361	-76.308668
5.100000	-0.118716	-76.716702	-51.946487	100.162090	-51.946487	100.162090	-0.119115	-76.997176
5.150000	-0.120507	-77.400161	-51.714907	98.657837	-51.714907	98.657837	-0.120916	-77.682916
5.200000	-0.122303	-78.083370	-51.488807	97.153646	-51.488807	97.153646	-0.122722	-78.368405
5.250000	-0.124143	-78.764095	-51.263273	95.650229	-51.263273	95.650229	-0.124571	-79.051396
5.300000	-0.125991	-79.444323	-51.042440	94.146967	-51.042440	94.146967	-0.126430	-79.733888
5.350000	-0.127881	-80.122334	-50.822693	92.644535	-50.822693	92.644535	-0.128330	-80.414152
5.400000	-0.129784	-80.799607	-50.606941	91.142379	-50.606941	91.142379	-0.130244	-81.093673
5.450000	-0.131725	-81.474927	-50.392738	89.641071	-50.392738	89.641071	-0.132196	-81.771232
5.500000	-0.133684	-82.149272	-50.181895	88.140186	-50.181895	88.140186	-0.134167	-82.447811
5.550000	-0.135677	-82.821926	-49.973009	86.640132	-49.973009	86.640132	-0.136172	-83.122691
5.600000	-0.137694	-83.493374	-49.766909	85.140672	-49.766909	85.140672	-0.138201	-83.796358
5.650000	-0.139742	-84.163390	-49.563128	83.641994	-49.563128	83.641994	-0.140260	-84.468586
5.700000	-0.141819	-84.831973	-49.361614	82.144099	-49.361614	82.144099	-0.142350	-85.139376
5.750000	-0.143922	-85.499379	-49.162735	80.646912	-49.162735	80.646912	-0.144466	-85.808981
5.800000	-0.146060	-86.165134	-48.965659	79.150714	-48.965659	79.150714	-0.146618	-86.476929
5.850000	-0.148220	-86.829960	-48.771493	77.655122	-48.771493	77.655122	-0.148791	-87.143943
5.900000	-0.150422	-87.492926	-48.578713	76.160742	-48.578713	76.160742	-0.151007	-87.809089
5.950000	-0.152640	-88.155205	-48.389082	74.666844	-48.389082	74.666844	-0.153239	-88.473544
6.000000	-0.154907	-88.815421	-48.200461	73.174392	-48.200461	73.174392	-0.155520	-89.135928
6.050000	-0.157185	-89.475187	-48.015197	71.682279	-48.015197	71.682279	-0.157813	-89.797860
6.100000	-0.159518	-90.132698	-47.830606	70.191857	-47.830606	70.191857	-0.160162	-90.457527
6.150000	-0.161857	-90.789987	-47.649549	68.701612	-47.649549	68.701612	-0.162517	-91.116971
6.200000	-0.164259	-91.444838	-47.468865	67.213311	-47.468865	67.213311	-0.164935	-91.773967
6.250000	-0.166661	-92.099688	-47.291863	65.725009	-47.291863	65.725009	-0.167353	-92.430962
6.300000	-0.169133	-92.751925	-47.114967	64.238909	-47.114967	64.238909	-0.169842	-93.085334
6.350000	-0.171606	-93.404162	-46.941602	62.752810	-46.941602	62.752810	-0.172331	-93.739707
6.400000	-0.174143	-94.054049	-46.768657	61.268793	-46.768657	61.268793	-0.174886	-94.391720
6.450000	-0.176687	-94.703723	-46.598823	59.784965	-46.598823	59.784965	-0.177448	-95.043520
6.500000	-0.179292	-95.351304	-46.429689	58.303082	-46.429689	58.303082	-0.180072	-95.693219
6.550000	-0.181910	-95.998466	-46.263285	56.821588	-46.263285	56.821588	-0.182708	-96.342498
6.600000	-0.184584	-96.643785	-46.097832	55.341882	-46.097832	55.341882	-0.185402	-96.989928
6.650000	-0.187277	-97.288490	-45.934761	53.862773	-45.934761	53.862773	-0.188114	-97.636742
6.700000	-0.190020	-97.931594	-45.772864	52.385279	-45.772864	52.385279	-0.190878	-98.281950
6.750000	-0.192790	-98.573897	-45.613031	50.908595	-45.613031	50.908595	-0.193669	-98.926354
6.800000	-0.195605	-99.214833	-45.454572	49.433342	-45.454572	49.433342	-0.196506	-99.569388
6.850000	-0.198453	-99.854793	-45.297889	47.959112	-45.297889	47.959112	-0.199376	-100.211443
6.900000	-0.201341	-100.493611	-45.142755	46.486119	-45.142755	46.486119	-0.202287	-100.852353
6.950000	-0.204270	-101.131287	-44.989137	45.014365	-44.989137	45.014365	-0.205238	-101.492118
7.000000	-0.207232	-101.768038	-44.837221	43.543645	-44.837221	43.543645	-0.208224	-102.130955
7.050000	-0.210242	-102.403492	-44.686585	42.074375	-44.686585	42.074375	-0.211259	-102.768494
7.100000	-0.213280	-103.038227	-44.537786	40.605933	-44.537786	40.605933	-0.214322	-103.405311
7.150000	-0.216373	-103.671523	-44.390054	39.139147	-44.390054	39.139147	-0.217441	-104.040687
7.200000	-0.219488	-104.304296	-44.244276	37.672979	-44.244276	37.672979	-0.220583	-104.675538
7.250000	-0.222666	-104.935500	-44.099375	36.208666	-44.099375	36.208666	-0.223789	-105.308817
7.300000	-0.225859	-105.566366	-43.956525	34.744762	-43.956525	34.744762	-0.227010	-105.941758
7.350000	-0.229123	-106.195544	-43.814383	33.282901	-43.814383	33.282901	-0.230305	-106.573009
7.400000	-0.232395	-106.824559	-43.674377	31.821243	-43.674377	31.821243	-0.233607	-107.204096
7.450000	-0.235747	-107.451781	-43.534927	30.361804	-43.534927	30.361804	-0.236991	-107.833388
7.500000	-0.239100	-108.079002	-43.397680	28.902365	-43.397680	28.902365	-0.240377	-108.462680
7.550000	-0.242542	-108.704339	-43.260859	27.445308	-43.260859	27.445308	-0.243852	-109.090084
7.600000	-0.245984	-109.329675	-43.126159	25.988251	-43.126159	25.988251	-0.247330	-109.717488
7.650000	-0.249509	-109.953349	-42.992043	24.533332	-42.992043	24.533332	-0.250891	-110.343229
7.700000	-0.253042	-110.576872	-42.859833	23.078607	-42.859833	23.078607	-0.254462	-110.968819
7.750000	-0.256651	-111.198946	-42.728348	21.625778	-42.728348	21.625778	-0.258110	-111.592959
7.800000	-0.260276	-111.820731	-42.598575	20.173327	-42.598575	20.173327	-0.261776	-112.216809
7.850000	-0.263971	-112.441268	-42.469653	18.722533	-42.469653	18.722533	-0.265513	-112.839411
7.900000	-0.267689	-113.061389	-42.342268	17.272291	-42.342268	17.272291	-0.269275	-113.461597
7.950000	-0.271471	-113.680453	-42.215844	15.823473	-42.215844	15.823473	-0.273103	-114.082726
8.000000	-0.275284	-114.298989	-42.090801	14.375365	-42.090801	14.375365	-0.276963	-114.703326
8.050000	-0.279153	-114.916647	-41.966815	12.928457	-41.966815	12.928457	-0.280882	-115.323048
8.100000	-0.283063	-115.533676	-41.844071	11.482404	-41.844071	11.482404	-0.284842	-115.942142
8.150000	-0.287021	-116.149994	-41.722468	10.037335	-41.722468	10.037335	-0.288854	-116.560523
8.200000	-0.291027	-116.765598	-41.601983	8.593250	-41.601983	8.593250	-0.292916	-117.178192
8.250000	-0.295075	-117.380643	-41.482711	7.149948	-41.482711	7.149948	-0.297021	-117.795301
8.300000	-0.299180	-117.994905	-41.364451	5.707740	-41.364451	5.707740	-0.301186	-118.411627
8.350000	-0.303318	-118.608748	-41.247461	4.266125	-41.247461	4.266125	-0.305387	-119.027533
8.400000	-0.307522	-119.221752	-41.131396	2.825698	-41.131396	2.825698	-0.309657	-119.642600
8.450000	-0.311752	-119.834462	-41.016644	1.385691	-41.016644	1.385691	-0.313955	-120.257374
8.500000	-0.316057	-120.446294	-40.902745	-0.053054	-40.902745	-0.053054	-0.318331	-120.871267
8.550000	-0.320379	-121.057944	-40.790191	-1.491535	-40.790191	-1.491535	-0.322727	-121.484980
8.600000	-0.324785	-121.668691	-40.678435	-2.928698	-40.678435	-2.928698	-0.327211	-122.097788
8.650000	-0.329201	-122.279355	-40.568041	-4.365738	-40.568041	-4.365738	-0.331706	-122.710512
8.700000	-0.333709	-122.889106	-40.458409	-5.801421	-40.458409	-5.801421	-0.336299	-123.322322
8.750000	-0.338219	-123.498858	-40.350144	-7.237103	-40.350144	-7.237103	-0.340895	-123.934133
8.800000	-0.342829	-124.107705	-40.242620	-8.671405	-40.242620	-8.671405	-0.345599	-124.545035
8.850000	-0.347442	-124.716553	-40.136411	-10.105708	-40.136411	-10.105708	-0.350306	-125.155938
8.900000	-0.352148	-125.324657	-40.031026	-11.538835	-40.031026	-11.538835	-0.355113	-125.766094
8.950000	-0.356865	-125.932693	-39.926862	-12.971855	-39.926862	-12.971855	-0.359932	-126.376181
9.000000	-0.361666	-126.540132	-39.823592	-14.403886	-39.823592	-14.403886	-0.364843	-126.985666
9.050000	-0.366487	-127.147452	-39.721468	-15.835719	-39.721468	-15.835719	-0.369776	-127.595031
9.100000	-0.371385	-127.754307	-39.620294	-17.266728	-39.620294	-17.266728	-0.374793	-128.203926
9.150000	-0.376311	-128.361006	-39.520207	-18.697463	-39.520207	-18.697463	-0.379840	-128.812663
9.200000	-0.381305	-128.967358	-39.421113	-20.127521	-39.421113	-20.127521	-0.384964	-129.421047
9.250000	-0.386336	-129.573537	-39.323063	-21.557240	-39.323063	-21.557240	-0.390128	-130.029254
9.300000	-0.391428	-130.179469	-39.226036	-22.986409	-39.226036	-22.986409	-0.395359	-130.637208
9.350000	-0.396564	-130.785227	-39.130029	-24.415186	-39.130029	-24.415186	-0.400640	-131.244981
9.400000	-0.401753	-131.390824	-39.035059	-25.843523	-39.035059	-25.843523	-0.405981	-131.852588
9.450000	-0.406995	-131.996262	-38.941104	-27.271421	-38.941104	-27.271421	-0.411381	-132.460028
9.500000	-0.412282	-132.601611	-38.848185	-28.698973	-38.848185	-28.698973	-0.416831	-133.067372
9.550000	-0.417629	-133.206835	-38.756292	-30.126043	-38.756292	-30.126043	-0.422351	-133.674580
9.600000	-0.423013	-133.812022	-38.665421	-31.552850	-38.665421	-31.552850	-0.427912	-134.281745
9.650000	-0.428466	-134.417137	-38.575607	-32.979129	-38.575607	-32.979129	-0.433553	-134.888824
9.700000	-0.433948	-135.022253	-38.486783	-34.405215	-38.486783	-34.405215	-0.439225	-135.495896
9.750000	-0.439506	-135.627368	-38.399067	-35.830724	-38.399067	-35.830724	-0.444988	-136.102951
9.800000	-0.445085	-136.232502	-38.312293	-37.256106	-38.312293	-37.256106	-0.450774	-136.710019
9.850000	-0.450749	-136.837728	-38.226696	-38.680849	-38.226696	-38.680849	-0.456659	-137.317155
9.900000	-0.456425	-137.442973	-38.141976	-40.105527	-38.141976	-40.105527	-0.462558	-137.924307
9.950000	-0.462193	-138.048423	-38.058524	-41.529487	-38.058524	-41.529487	-0.468568	-138.531634
10.000000	-0.467965	-138.653873	-37.975865	-42.953448	-37.975865	-42.953448	-0.474581	-139.138960
