! freq	dB(S11)	phase(S11)	dB(S12)	phase(S12)	
!     	dB(S21)	phase(S21)	dB(S22)	phase(S22)	
!S-par simulation data
#  GHz  S  DB  R 50
0.000000	-83.622213	0.000000	-0.000572	0.000000	-0.000572	0.000000	-83.622213	0.000000
0.050000	-39.628188	-92.100033	-0.005529	-2.887764	-0.005529	-2.887764	-39.632224	-92.105394
0.100000	-33.680918	-95.261541	-0.012655	-5.735635	-0.012655	-5.735635	-33.678937	-95.117306
0.150000	-30.210341	-98.392868	-0.019263	-8.570809	-0.019263	-8.570809	-30.210274	-98.144731
0.200000	-27.754672	-101.465223	-0.026143	-11.401599	-0.026143	-11.401599	-27.755335	-101.133419
0.250000	-25.860753	-104.482499	-0.033673	-14.228458	-0.033673	-14.228458	-25.861206	-104.069266
0.300000	-24.324937	-107.459785	-0.041914	-17.051471	-0.041914	-17.051471	-24.325042	-106.963797
0.350000	-23.037649	-110.408304	-0.050826	-19.870830	-0.050826	-19.870830	-23.037524	-109.828578
0.400000	-21.934167	-113.334580	-0.060388	-22.686533	-0.060388	-22.686533	-21.933961	-112.670540
0.450000	-20.972900	-116.243508	-0.070568	-25.498537	-0.070568	-25.498537	-20.972725	-115.494767
0.500000	-20.125423	-119.138615	-0.081325	-28.306773	-0.081325	-28.306773	-20.125348	-118.304783
0.550000	-19.370925	-122.022718	-0.092590	-31.111268	-0.092590	-31.111268	-19.370979	-121.103321
0.600000	-18.694280	-124.897546	-0.104299	-33.911985	-0.104299	-33.911985	-18.694468	-123.891992
0.650000	-18.084708	-127.764076	-0.116395	-36.708751	-0.116395	-36.708751	-18.085027	-126.671618
0.700000	-17.532475	-130.623550	-0.128792	-39.501724	-0.128792	-39.501724	-17.532912	-129.443360
0.750000	-17.031475	-133.476306	-0.141423	-42.290729	-0.141423	-42.290729	-17.032022	-132.207410
0.800000	-16.575426	-136.323110	-0.154204	-45.075949	-0.154204	-45.075949	-16.576075	-134.964470
0.850000	-16.160281	-139.164244	-0.167058	-47.857360	-0.167058	-47.857360	-16.161028	-137.714708
0.900000	-15.781653	-142.000303	-0.179904	-50.635217	-0.179904	-50.635217	-15.782495	-140.458679
0.950000	-15.436619	-144.831618	-0.192664	-53.409648	-0.192664	-53.409648	-15.437558	-143.196624
1.000000	-15.122530	-147.658598	-0.205262	-56.180873	-0.205262	-56.180873	-15.123571	-145.928876
1.050000	-14.837154	-150.481673	-0.217621	-58.949160	-0.217621	-58.949160	-14.838302	-148.655785
1.100000	-14.578599	-153.301300	-0.229669	-61.714820	-0.229669	-61.714820	-14.579859	-151.377720
1.150000	-14.345258	-156.117971	-0.241333	-64.478212	-0.241333	-64.478212	-14.346636	-154.095078
1.200000	-14.135769	-158.932213	-0.252546	-67.239739	-0.252546	-67.239739	-14.137271	-156.808279
1.250000	-13.948979	-161.744592	-0.263242	-69.999849	-0.263242	-69.999849	-13.950611	-159.517774
1.300000	-13.784314	-164.555700	-0.273344	-72.759026	-0.273344	-72.759026	-13.786079	-162.223979
1.350000	-13.640573	-167.366224	-0.282807	-75.517841	-0.282807	-75.517841	-13.642474	-164.927476
1.400000	-13.517098	-170.176845	-0.291578	-78.276872	-0.291578	-78.276872	-13.519137	-167.628790
1.450000	-13.413364	-172.988283	-0.299606	-81.036741	-0.299606	-81.036741	-13.415544	-170.328463
1.500000	-13.328976	-175.801289	-0.306847	-83.798104	-0.306847	-83.798104	-13.331296	-173.027055
1.550000	-13.263655	-178.616647	-0.313263	-86.561659	-0.313263	-86.561659	-13.266117	-175.725135
1.600000	-13.217241	178.564830	-0.318820	-89.328133	-0.318820	-89.328133	-13.219846	-178.423283
1.650000	-13.189688	175.742299	-0.323491	-92.098289	-0.323491	-92.098289	-13.192438	178.877921
1.700000	-13.181067	172.914895	-0.327255	-94.872919	-0.327255	-94.872919	-13.183962	176.177901
1.750000	-13.191566	170.081725	-0.330098	-97.652841	-0.330098	-97.652841	-13.194608	173.476091
1.800000	-13.221500	167.241876	-0.332011	-100.438899	-0.332011	-100.438899	-13.224692	170.771945
1.850000	-13.271312	164.394417	-0.332995	-103.231959	-0.332995	-103.231959	-13.274659	168.064945
1.900000	-13.341816	161.538293	-0.333047	-106.033001	-0.333047	-106.033001	-13.345323	165.354572
1.950000	-13.433774	158.672501	-0.332184	-108.842956	-0.332184	-108.842956	-13.437447	162.640391
2.000000	-13.547895	155.796153	-0.330441	-111.662652	-0.330441	-111.662652	-13.551741	159.922089
2.050000	-13.685307	152.908249	-0.327849	-114.493012	-0.327849	-114.493012	-13.689335	157.199416
2.100000	-13.847369	150.007780	-0.324451	-117.334965	-0.324451	-117.334965	-13.851589	154.472239
2.150000	-14.035710	147.093719	-0.320297	-120.189442	-0.320297	-120.189442	-14.040131	151.740583
2.200000	-14.252278	144.165029	-0.315446	-123.057370	-0.315446	-123.057370	-14.256908	149.004673
2.250000	-14.499402	141.220655	-0.309968	-125.939676	-0.309968	-125.939676	-14.504252	146.264994
2.300000	-14.779879	138.259522	-0.303939	-128.837274	-0.303939	-128.837274	-14.784954	143.522371
2.350000	-15.097081	135.280530	-0.297450	-131.751065	-0.297450	-131.751065	-15.102383	140.778078
2.400000	-15.455098	132.282544	-0.290596	-134.681936	-0.290596	-134.681936	-15.460623	138.033989
2.450000	-15.858943	129.264376	-0.283485	-137.630751	-0.283485	-137.630751	-15.864673	135.292795
2.500000	-16.314824	126.224766	-0.276235	-140.598346	-0.276235	-140.598346	-16.320722	132.558323
2.550000	-16.831288	123.161806	-0.268974	-143.585976	-0.268974	-143.585976	-16.837285	129.836450
2.600000	-17.417638	120.074394	-0.261842	-146.594002	-0.261842	-146.594002	-17.423608	127.135043
2.650000	-18.086853	116.960669	-0.254986	-149.623156	-0.254986	-149.623156	-18.092582	124.465816
2.700000	-18.856254	113.818287	-0.248562	-152.674124	-0.248562	-152.674124	-18.861366	121.846339
2.750000	-19.749658	110.644078	-0.242734	-155.747543	-0.242734	-155.747543	-19.753478	119.303881
2.800000	-20.801077	107.433379	-0.237676	-158.843995	-0.237676	-158.843995	-20.802349	116.882767
2.850000	-22.061498	104.178644	-0.233571	-161.964002	-0.233571	-161.964002	-22.057736	114.659617
2.900000	-23.612456	100.866192	-0.230609	-165.108023	-0.230609	-165.108023	-23.598281	112.778475
2.950000	-25.596677	97.467435	-0.228987	-168.276445	-0.228987	-168.276445	-25.558787	111.544226
3.000000	-28.300462	93.909174	-0.228910	-171.469581	-0.228910	-171.469581	-28.198127	111.728051
3.050000	-32.449173	89.925663	-0.230590	-174.687666	-0.230590	-174.687666	-32.098849	115.950462
3.100000	-41.190409	82.285887	-0.234243	-177.930849	-0.234243	-177.930849	-38.600153	138.856105
3.150000	-42.913609	-83.716409	-0.240118	178.800537	-0.240118	178.800537	-38.966400	-138.519046
3.200000	-32.657696	-96.369961	-0.248446	175.506527	-0.248446	175.506527	-31.980655	-112.781424
3.250000	-27.950932	-100.551854	-0.259434	172.187531	-0.259434	172.187531	-27.667709	-108.159981
3.300000	-24.839826	-104.289405	-0.273310	168.843782	-0.273310	168.843782	-24.675912	-107.972011
3.350000	-22.499092	-107.902805	-0.290305	165.475620	-0.290305	165.475620	-22.387910	-109.333669
3.400000	-20.615269	-111.474348	-0.310648	162.083483	-0.310648	162.083483	-20.532532	-111.418065
3.450000	-19.035277	-115.034561	-0.334567	158.667919	-0.334567	158.667919	-18.969888	-113.902516
3.500000	-17.672818	-118.597091	-0.362285	155.229577	-0.362285	155.229577	-17.618926	-116.635349
3.550000	-16.474440	-122.168683	-0.394020	151.769211	-0.394020	151.769211	-16.428635	-119.535729
3.600000	-15.404739	-125.752791	-0.429986	148.287677	-0.429986	148.287677	-15.364882	-122.556429
3.650000	-14.439178	-129.350950	-0.470338	144.786137	-0.470338	144.786137	-14.403855	-125.667067
3.700000	-13.559576	-132.964239	-0.515391	141.265117	-0.515391	141.265117	-13.527800	-128.849800
3.750000	-12.752810	-136.592436	-0.565261	137.726084	-0.565261	137.726084	-12.723878	-132.089478
3.800000	-12.008581	-140.235280	-0.620170	134.170095	-0.620170	134.170095	-11.981970	-135.376434
3.850000	-11.318936	-143.891886	-0.680227	130.598646	-0.680227	130.598646	-11.294252	-138.702401
3.900000	-10.677439	-147.561318	-0.745578	127.013105	-0.745578	127.013105	-10.654378	-142.061308
3.950000	-10.078861	-151.242475	-0.816351	123.414898	-0.816351	123.414898	-10.057183	-145.448175
4.000000	-9.518887	-154.934139	-0.892659	119.805497	-0.892659	119.805497	-9.498403	-148.858797
4.050000	-8.993909	-158.634997	-0.974598	116.186412	-0.974598	116.186412	-8.974467	-152.289540
4.100000	-8.500902	-162.343724	-1.062287	112.559127	-1.062287	112.559127	-8.482377	-155.737308
4.150000	-8.037249	-166.058835	-1.155760	108.925259	-1.155760	108.925259	-8.019542	-159.199094
4.200000	-7.600683	-169.778857	-1.255047	105.286388	-1.255047	105.286388	-7.583710	-162.672239
4.250000	-7.189224	-173.502330	-1.360176	101.644062	-1.360176	101.644062	-7.172918	-166.154346
4.300000	-6.801132	-177.227796	-1.471156	97.999812	-1.471156	97.999812	-6.785436	-169.643197
4.350000	-6.434856	179.046190	-1.587980	94.355144	-1.587980	94.355144	-6.419723	-173.136733
4.400000	-6.089040	175.321056	-1.710647	90.711537	-1.710647	90.711537	-6.074431	-176.633043
4.450000	-5.762435	171.598207	-1.839115	87.070437	-1.839115	87.070437	-5.748319	179.869684
4.500000	-5.453957	167.879039	-1.973357	83.433273	-1.973357	83.433273	-5.440307	176.373145
4.550000	-5.162423	164.164758	-2.113224	79.801270	-2.113224	79.801270	-5.149216	172.878861
4.600000	-4.886923	160.456618	-2.258667	76.175696	-2.258667	76.175696	-4.874141	169.388255
4.650000	-4.626570	156.755783	-2.409595	72.557722	-2.409595	72.557722	-4.614196	165.902633
4.700000	-4.380539	153.063354	-2.565906	68.948444	-2.565906	68.948444	-4.368561	162.423196
4.750000	-4.148064	149.380359	-2.727488	65.348880	-2.727488	65.348880	-4.136471	158.951038
4.800000	-3.928428	145.707760	-2.894217	61.759970	-2.894217	61.759970	-3.917210	155.487147
4.850000	-3.720959	142.046444	-3.065964	58.182576	-3.065964	58.182576	-3.710109	152.032414
4.900000	-3.525027	138.397230	-3.242588	54.617474	-3.242588	54.617474	-3.514538	148.587630
4.950000	-3.340039	134.760860	-3.423941	51.065362	-3.423941	51.065362	-3.329906	145.153492
5.000000	-3.165437	131.138006	-3.609865	47.526857	-3.609865	47.526857	-3.155654	141.730601
5.050000	-3.000835	127.529587	-3.800194	44.002809	-3.800194	44.002809	-2.991398	138.319738
5.100000	-2.845589	123.935833	-3.994734	40.493368	-3.994734	40.493368	-2.836494	134.921075
5.150000	-2.699232	120.357192	-4.193300	36.998897	-4.193300	36.998897	-2.690476	131.534947
5.200000	-2.561323	116.794045	-4.395692	33.519675	-4.395692	33.519675	-2.552902	128.161601
5.250000	-2.431445	113.246694	-4.601698	30.055894	-4.601698	30.055894	-2.423355	124.801203
5.300000	-2.309207	109.715369	-4.811086	26.607653	-4.811086	26.607653	-2.301444	121.453833
5.350000	-2.194242	106.200222	-5.023610	23.174958	-5.023610	23.174958	-2.186801	118.119489
5.400000	-2.086207	102.701322	-5.238997	19.757710	-5.238997	19.757710	-2.079079	114.798082
5.450000	-1.984778	99.218652	-5.456949	16.355696	-5.456949	16.355696	-1.977956	111.489431
5.500000	-1.889658	95.752100	-5.677133	12.968574	-5.677133	12.968574	-1.883130	108.193262
5.550000	-1.800569	92.301451	-5.899178	9.595859	-5.899178	9.595859	-1.794321	104.909198
5.600000	-1.717258	88.866371	-6.122666	6.236892	-6.122666	6.236892	-1.711271	101.636746
5.650000	-1.639546	85.446555	-6.347063	2.890944	-6.347063	2.890944	-1.633796	98.375401
5.700000	-1.567222	82.041360	-6.571800	-0.443130	-6.571800	-0.443130	-1.561681	95.124371
5.750000	-1.500058	78.649813	-6.796296	-3.766885	-6.796296	-3.766885	-1.494688	91.882595
5.800000	-1.437903	75.270893	-7.019812	-7.082100	-7.019812	-7.082100	-1.432663	88.648930
5.850000	-1.380642	71.903323	-7.241484	-10.391015	-7.241484	-10.391015	-1.375480	85.421994
5.900000	-1.328197	68.545510	-7.460288	-13.696441	-7.460288	-13.696441	-1.323055	82.200109
5.950000	-1.280535	65.195480	-7.675011	-17.001926	-7.675011	-17.001926	-1.275346	78.981235
6.000000	-1.237681	61.850779	-7.884197	-20.311960	-7.884197	-20.311960	-1.232371	75.762867
6.050000	-1.199728	58.508348	-8.086093	-23.632268	-8.086093	-23.632268	-1.194218	72.541918
6.100000	-1.166863	55.164353	-8.278571	-26.970199	-8.278571	-26.970199	-1.161070	69.314540
6.150000	-1.139398	51.813961	-8.459028	-30.335275	-8.459028	-30.335275	-1.133237	66.075894
6.200000	-1.117815	48.451022	-8.624255	-33.739969	-8.624255	-33.739969	-1.111199	62.819828
6.250000	-1.102839	45.067632	-8.770273	-37.200822	-8.770273	-37.200822	-1.095685	59.538431
6.300000	-1.095754	41.652534	-8.891399	-40.742492	-8.891399	-40.742492	-1.087981	56.220316
6.350000	-1.098088	38.192333	-8.981709	-44.394984	-8.981709	-44.394984	-1.089619	52.852142
6.400000	-1.112391	34.668488	-9.033037	-48.202041	-9.033037	-48.202041	-1.103151	49.415272
6.450000	-1.142657	31.055801	-9.034886	-52.226424	-9.034886	-52.226424	-1.132571	45.884350
6.500000	-1.195358	27.319646	-8.973713	-56.560641	-8.973713	-56.560641	-1.184349	42.224493
6.550000	-1.281434	23.412387	-8.832099	-61.345378	-8.832099	-61.345378	-1.269414	38.387641
6.600000	-1.417846	19.279636	-8.592295	-66.771719	-8.592295	-66.771719	-1.404717	34.318903
6.650000	-1.645176	14.826813	-8.220462	-73.253623	-8.220462	-73.253623	-1.630835	29.921883
6.700000	-2.033878	10.018512	-7.697845	-81.366875	-7.697845	-81.366875	-2.018281	25.158759
6.750000	-2.743361	5.075541	-7.024953	-92.202998	-7.024953	-92.202998	-2.726840	20.244093
6.800000	-4.077863	1.695189	-6.319150	-107.453631	-6.319150	-107.453631	-4.062860	16.862307
6.850000	-6.100859	7.276897	-6.006988	-128.856051	-6.006988	-128.856051	-6.100086	22.420666
6.900000	-6.082289	26.525999	-6.874376	-154.877718	-6.874376	-154.877718	-6.104160	41.826792
6.950000	-3.758460	32.294033	-9.150313	-178.832843	-9.150313	-178.832843	-3.772223	47.760117
7.000000	-2.245568	27.671130	-12.109409	163.312536	-12.109409	163.312536	-2.250088	43.200511
7.050000	-1.495805	21.714445	-15.125427	150.508675	-15.125427	150.508675	-1.494799	37.279378
7.100000	-1.113431	16.328593	-17.950448	140.770392	-17.950448	140.770392	-1.108897	31.920503
7.150000	-0.902243	11.622316	-20.519727	132.635674	-20.519727	132.635674	-0.895205	27.236835
7.200000	-0.776397	7.437847	-22.816944	125.193465	-22.816944	125.193465	-0.767416	23.071674
7.250000	-0.697252	3.636469	-24.808608	117.905941	-24.808608	117.905941	-0.686662	19.286612
7.300000	-0.645510	0.118771	-26.448087	110.497072	-26.448087	110.497072	-0.633520	15.782348
7.350000	-0.610804	-3.184163	-27.690096	102.942928	-27.690096	102.942928	-0.597552	12.490022
7.400000	-0.587138	-6.322112	-28.519065	95.456611	-28.519065	95.456611	-0.572714	9.359931
7.450000	-0.570772	-9.334534	-28.971392	88.325515	-28.971392	88.325515	-0.555234	6.352831
7.500000	-0.559412	-12.250120	-29.113108	81.758186	-29.113108	81.758186	-0.542800	3.440276
7.550000	-0.552409	-15.071831	-28.967587	76.004721	-28.967587	76.004721	-0.534753	0.619036
7.600000	-0.548415	-17.821902	-28.637264	71.007378	-28.637264	71.007378	-0.529733	-2.132789
7.650000	-0.546820	-20.510552	-28.183472	66.675629	-28.183472	66.675629	-0.527124	-4.825287
7.700000	-0.547195	-23.145809	-27.653117	62.887565	-27.653117	62.887565	-0.526493	-7.466359
7.750000	-0.549234	-25.734101	-27.079752	59.522887	-27.079752	59.522887	-0.527530	-10.062296
7.800000	-0.552713	-28.280661	-26.486343	56.478100	-26.486343	56.478100	-0.530009	-12.618199
7.850000	-0.557469	-30.789823	-25.888112	53.670556	-25.888112	53.670556	-0.533766	-15.138266
7.900000	-0.563381	-33.265239	-25.294852	51.037055	-25.294852	51.037055	-0.538678	-17.626016
7.950000	-0.570362	-35.710035	-24.712631	48.530484	-24.712631	48.530484	-0.544658	-20.084440
8.000000	-0.578346	-38.126930	-24.145003	46.116224	-24.145003	46.116224	-0.551641	-22.516124
8.050000	-0.587289	-40.518326	-23.593837	43.769015	-23.593837	43.769015	-0.559581	-24.923339
8.100000	-0.597160	-42.886382	-23.059883	41.470459	-23.059883	41.470459	-0.568450	-27.308110
8.150000	-0.607944	-45.233061	-22.543155	39.207126	-22.543155	39.207126	-0.578229	-29.672273
8.200000	-0.619632	-47.560179	-22.043192	36.969154	-22.043192	36.969154	-0.588915	-32.017515
8.250000	-0.632231	-49.869439	-21.559231	34.749227	-21.559231	34.749227	-0.600510	-34.345410
8.300000	-0.645751	-52.162457	-21.090327	32.541839	-21.090327	32.541839	-0.613030	-36.657449
8.350000	-0.660216	-54.440789	-20.635429	30.342762	-20.635429	30.342762	-0.626496	-38.955064
8.400000	-0.675656	-56.705949	-20.193435	28.148657	-20.193435	28.148657	-0.640940	-41.239648
8.450000	-0.692110	-58.959430	-19.763224	25.956794	-19.763224	25.956794	-0.656402	-43.512569
8.500000	-0.709629	-61.202719	-19.343675	23.764844	-19.343675	23.764844	-0.672933	-45.775196
8.550000	-0.728273	-63.437310	-18.933683	21.570724	-18.933683	21.570724	-0.690594	-48.028905
8.600000	-0.748113	-65.664724	-18.532162	19.372475	-18.532162	19.372475	-0.709457	-50.275099
8.650000	-0.769235	-67.886521	-18.138049	17.168163	-18.138049	17.168163	-0.729609	-52.515223
8.700000	-0.791741	-70.104317	-17.750296	14.955799	-17.750296	14.955799	-0.751151	-54.750779
8.750000	-0.815749	-72.319801	-17.367874	12.733263	-17.367874	12.733263	-0.774205	-56.983344
8.800000	-0.841478	-74.534823	-16.989186	10.497556	-16.989186	10.497556	-0.798987	-59.214621
8.850000	-0.869036	-76.751401	-16.613704	8.246453	-16.613704	8.246453	-0.825610	-61.446549
8.900000	-0.898632	-78.971600	-16.240372	5.976877	-16.240372	5.976877	-0.854279	-63.681094
8.950000	-0.930513	-81.197672	-15.868102	3.685227	-15.868102	3.685227	-0.885246	-65.920409
9.000000	-0.964986	-83.432093	-15.495755	1.367208	-15.495755	1.367208	-0.918817	-68.166879
9.050000	-1.002428	-85.677622	-15.122118	-0.982382	-15.122118	-0.982382	-0.955370	-70.423183
9.100000	-1.043311	-87.937369	-14.745867	-3.369961	-14.745867	-3.369961	-0.995382	-72.692361
9.150000	-1.088240	-90.214886	-14.365528	-5.803599	-14.365528	-5.803599	-1.039459	-74.977914
9.200000	-1.138002	-92.514281	-13.979420	-8.293661	-13.979420	-8.293661	-1.088395	-77.283926
9.250000	-1.193647	-94.840375	-13.585577	-10.853787	-13.585577	-10.853787	-1.143247	-79.615229
9.300000	-1.256611	-97.198876	-13.181645	-13.502425	-13.181645	-13.502425	-1.205467	-81.977599
9.350000	-1.328930	-99.596594	-12.764741	-16.265298	-12.764741	-16.265298	-1.277112	-84.377995
9.400000	-1.411557	-102.034211	-12.336939	-19.153136	-12.336939	-19.153136	-1.359150	-86.817441
9.450000	-1.512459	-104.535062	-11.882896	-22.266284	-11.882896	-22.266284	-1.459651	-89.319530
9.500000	-1.637217	-107.102083	-11.402071	-25.670140	-11.402071	-25.670140	-1.584300	-91.888132
9.550000	-1.797998	-109.740606	-10.887544	-29.507394	-10.887544	-29.507394	-1.745501	-94.529917
9.600000	-2.015854	-112.435341	-10.333357	-34.018379	-10.333357	-34.018379	-1.964800	-97.231696
9.650000	-2.331352	-115.095433	-9.738927	-39.660909	-9.738927	-39.660909	-2.283929	-99.905662
9.700000	-2.821298	-117.321887	-9.138200	-47.343117	-9.138200	-47.343117	-2.782763	-102.154045
9.750000	-3.574872	-117.487953	-8.724085	-58.814959	-8.724085	-58.814959	-3.558395	-102.321478
9.800000	-4.144112	-111.618073	-9.280117	-75.670419	-9.280117	-75.670419	-4.162875	-96.243820
9.850000	-3.139001	-105.564445	-12.364333	-89.733450	-12.364333	-89.733450	-3.142033	-89.807743
9.900000	-2.006998	-109.240520	-16.371173	-76.155196	-16.371173	-76.155196	-1.975160	-93.390506
9.950000	-1.607505	-115.053338	-15.962669	-52.080835	-15.962669	-52.080835	-1.557932	-99.197558
10.000000	-1.542052	-120.071518	-14.090097	-44.305586	-14.090097	-44.305586	-1.483455	-104.202508
