! freq	dB(S11)	phase(S11)	dB(S12)	phase(S12)	
!     	dB(S21)	phase(S21)	dB(S22)	phase(S22)	
!S-par simulation data
#  GHz  S  DB  R 50
0.000000	-0.000000	-0.000000	-296.344155	180.000000	-296.344155	180.000000	-0.000000	-0.000000
0.050000	-0.002759	-3.854114	-78.720404	87.345590	-78.720404	87.345590	-0.000761	-1.055127
0.100000	-0.008823	-7.684245	-72.704840	85.022941	-72.704840	85.022941	-0.002375	-2.103922
0.150000	-0.015213	-11.490558	-69.198271	82.635297	-69.198271	82.635297	-0.004025	-3.147312
0.200000	-0.020920	-15.280480	-66.722628	80.236605	-66.722628	80.236605	-0.005495	-4.187898
0.250000	-0.026095	-19.059902	-64.812425	77.839844	-64.812425	77.839844	-0.006850	-5.227277
0.300000	-0.030928	-22.829241	-63.262416	75.450235	-63.262416	75.450235	-0.008142	-6.265858
0.350000	-0.035590	-26.588043	-61.962511	73.070994	-61.962511	73.070994	-0.009414	-7.303792
0.400000	-0.040178	-30.335086	-60.847133	70.704559	-60.847133	70.704559	-0.010685	-8.341089
0.450000	-0.044729	-34.067801	-59.875249	68.354233	-59.875249	68.354233	-0.011964	-9.377668
0.500000	-0.049257	-37.786200	-59.016006	66.020133	-59.016006	66.020133	-0.013253	-10.413564
0.550000	-0.053756	-41.489138	-58.248635	63.703607	-58.248635	63.703607	-0.014548	-11.448746
0.600000	-0.058213	-45.175552	-57.557747	61.405908	-57.557747	61.405908	-0.015848	-12.483182
0.650000	-0.062617	-48.844475	-56.931610	59.128222	-56.931610	59.128222	-0.017152	-13.516836
0.700000	-0.066956	-52.495035	-56.361053	56.871679	-56.361053	56.871679	-0.018456	-14.549667
0.750000	-0.071215	-56.125238	-55.839587	54.638782	-55.839587	54.638782	-0.019761	-15.581573
0.800000	-0.075386	-59.734439	-55.361094	52.430564	-55.361094	52.430564	-0.021064	-16.612505
0.850000	-0.079471	-63.323776	-54.919534	50.245992	-54.919534	50.245992	-0.022365	-17.642489
0.900000	-0.083467	-66.892599	-54.510981	48.086186	-54.510981	48.086186	-0.023665	-18.671463
0.950000	-0.087360	-70.438046	-54.133321	45.955114	-54.133321	45.955114	-0.024961	-19.699241
1.000000	-0.091159	-73.961754	-53.782449	43.851303	-53.782449	43.851303	-0.026255	-20.725857
1.050000	-0.094868	-77.464701	-53.455232	41.774062	-53.455232	41.774062	-0.027547	-21.751317
1.100000	-0.098487	-80.946034	-53.149840	39.725073	-53.149840	39.725073	-0.028836	-22.775521
1.150000	-0.102011	-84.404275	-52.864938	37.707048	-52.864938	37.707048	-0.030123	-23.798318
1.200000	-0.105447	-87.840327	-52.598344	35.719627	-52.598344	35.719627	-0.031408	-24.819688
1.250000	-0.108804	-91.255435	-52.348019	33.761932	-52.348019	33.761932	-0.032690	-25.839640
1.300000	-0.112084	-94.650015	-52.112493	31.834234	-52.112493	31.834234	-0.033971	-26.858128
1.350000	-0.115294	-98.024579	-51.890420	29.936703	-51.890420	29.936703	-0.035250	-27.875107
1.400000	-0.118438	-101.379724	-51.680559	28.069405	-51.680559	28.069405	-0.036527	-28.890536
1.450000	-0.121522	-104.716025	-51.481795	26.232474	-51.481795	26.232474	-0.037803	-29.904365
1.500000	-0.124546	-108.032474	-51.293573	24.428831	-51.293573	24.428831	-0.039077	-30.916384
1.550000	-0.127523	-111.331990	-51.114205	22.654807	-51.114205	22.654807	-0.040350	-31.926734
1.600000	-0.130460	-114.615513	-50.942742	20.909918	-50.942742	20.909918	-0.041623	-32.935384
1.650000	-0.133361	-117.884052	-50.778285	19.193532	-50.778285	19.193532	-0.042894	-33.942303
1.700000	-0.136237	-121.139445	-50.619828	17.503274	-50.619828	17.503274	-0.044165	-34.947569
1.750000	-0.139088	-124.380220	-50.467069	15.843703	-50.467069	15.843703	-0.045435	-35.950785
1.800000	-0.141925	-127.610222	-50.318705	14.208157	-50.318705	14.208157	-0.046705	-36.952293
1.850000	-0.144756	-130.829847	-50.174138	12.597254	-50.174138	12.597254	-0.047975	-37.951930
1.900000	-0.147587	-134.039978	-50.032641	11.010826	-50.032641	11.010826	-0.049246	-38.949545
1.950000	-0.150426	-137.242890	-49.893437	9.444991	-49.893437	9.444991	-0.050517	-39.945280
2.000000	-0.153280	-140.440037	-49.755883	7.897781	-49.755883	7.897781	-0.051790	-40.939116
2.050000	-0.156156	-143.632928	-49.619370	6.367021	-49.619370	6.367021	-0.053065	-41.931033
2.100000	-0.159062	-146.823122	-49.483320	4.850341	-49.483320	4.850341	-0.054342	-42.921016
2.150000	-0.162005	-150.012233	-49.347189	3.345167	-49.347189	3.345167	-0.055622	-43.909046
2.200000	-0.164996	-153.202084	-49.210245	1.849115	-49.210245	1.849115	-0.056906	-44.894974
2.250000	-0.168043	-156.394635	-49.071992	0.358613	-49.071992	0.358613	-0.058195	-45.878819
2.300000	-0.171151	-159.591624	-48.932133	-1.129918	-48.932133	-1.129918	-0.059488	-46.860666
2.350000	-0.174330	-162.794868	-48.790265	-2.619788	-48.790265	-2.619788	-0.060784	-47.840508
2.400000	-0.177586	-166.006215	-48.646022	-4.114394	-48.646022	-4.114394	-0.062083	-48.818348
2.450000	-0.180930	-169.227467	-48.499072	-5.617111	-48.499072	-5.617111	-0.063380	-49.794207
2.500000	-0.184373	-172.459942	-48.349154	-7.131104	-48.349154	-7.131104	-0.064673	-50.768136
2.550000	-0.188017	-175.710755	-48.195451	-8.661795	-48.195451	-8.661795	-0.065961	-51.739996
2.600000	-0.191604	-178.981863	-48.039225	-10.211020	-48.039225	-10.211020	-0.067255	-52.710241
2.650000	-0.195384	177.733750	-47.879259	-11.789011	-47.879259	-11.789011	-0.068571	-53.678595
2.700000	-0.199309	174.427267	-47.715732	-13.397047	-47.715732	-13.397047	-0.069914	-54.645135
2.750000	-0.203384	171.096318	-47.548250	-15.039284	-47.548250	-15.039284	-0.071281	-55.609661
2.800000	-0.207622	167.738029	-47.376719	-16.720061	-47.376719	-16.720061	-0.072659	-56.572039
2.850000	-0.212022	164.352030	-47.201760	-18.440338	-47.201760	-18.440338	-0.074041	-57.532384
2.900000	-0.216620	160.931465	-47.022474	-20.210263	-47.022474	-20.210263	-0.075422	-58.490383
2.950000	-0.221397	157.479377	-46.840245	-22.025599	-46.840245	-22.025599	-0.076803	-59.446403
3.000000	-0.226404	153.985868	-46.653779	-23.900500	-46.653779	-23.900500	-0.078186	-60.400021
3.050000	-0.231619	150.454718	-46.464526	-25.829250	-46.464526	-25.829250	-0.079575	-61.351616
3.100000	-0.237083	146.878048	-46.271816	-27.822568	-46.271816	-27.822568	-0.080972	-62.300942
3.150000	-0.242798	143.255334	-46.076293	-29.880495	-46.076293	-29.880495	-0.082380	-63.248129
3.200000	-0.248780	139.583370	-45.878185	-32.006614	-45.878185	-32.006614	-0.083800	-64.193183
3.250000	-0.255061	135.855842	-45.677342	-34.208532	-45.677342	-34.208532	-0.085236	-65.135981
3.300000	-0.261624	132.075782	-45.474835	-36.480940	-45.474835	-36.480940	-0.086685	-66.076779
3.350000	-0.268542	128.229476	-45.269788	-38.840643	-45.269788	-38.840643	-0.088153	-67.015205
3.400000	-0.275769	124.325289	-45.063771	-41.275179	-45.063771	-41.275179	-0.089635	-67.951677
3.450000	-0.283385	120.348228	-44.856003	-43.802085	-44.856003	-43.802085	-0.091137	-68.885824
3.500000	-0.291360	116.303936	-44.647639	-46.412499	-44.647639	-46.412499	-0.092656	-69.817938
3.550000	-0.299740	112.183129	-44.438566	-49.115998	-44.438566	-49.115998	-0.094194	-70.747856
3.600000	-0.308537	107.983581	-44.229246	-51.913343	-44.229246	-51.913343	-0.095750	-71.675622
3.650000	-0.317749	103.705603	-44.020271	-54.802256	-44.020271	-54.802256	-0.097325	-72.601344
3.700000	-0.327422	99.339369	-43.811643	-57.792160	-43.811643	-57.792160	-0.098919	-73.524863
3.750000	-0.337571	94.881723	-43.603807	-60.884465	-43.603807	-60.884465	-0.100533	-74.446202
3.800000	-0.348189	90.332765	-43.397305	-64.077050	-43.397305	-64.077050	-0.102167	-75.365449
3.850000	-0.359288	85.689233	-43.192509	-67.371597	-43.192509	-67.371597	-0.103821	-76.282606
3.900000	-0.370900	80.942704	-42.989677	-70.775153	-42.989677	-70.775153	-0.105495	-77.197565
3.950000	-0.383000	76.095981	-42.789374	-74.282930	-42.789374	-74.282930	-0.107189	-78.110451
4.000000	-0.395586	71.146826	-42.591996	-77.895642	-42.591996	-77.895642	-0.108904	-79.021273
4.050000	-0.408668	66.088888	-42.397916	-81.618208	-42.397916	-81.618208	-0.110640	-79.929951
4.100000	-0.422216	60.923686	-42.207604	-85.447729	-42.207604	-85.447729	-0.112397	-80.836553
4.150000	-0.436199	55.652162	-42.021482	-89.382179	-42.021482	-89.382179	-0.114175	-81.741122
4.200000	-0.450594	50.271579	-41.839989	-93.423398	-41.839989	-93.423398	-0.115975	-82.643615
4.250000	-0.465358	44.782182	-41.663579	-97.570566	-41.663579	-97.570566	-0.117797	-83.544036
4.300000	-0.480426	39.189134	-41.492622	-101.818441	-41.492622	-101.818441	-0.119642	-84.442463
4.350000	-0.495738	33.494205	-41.327533	-106.165459	-41.327533	-106.165459	-0.121510	-85.338892
4.400000	-0.511221	27.697459	-41.168843	-110.612187	-41.168843	-110.612187	-0.123402	-86.233262
4.450000	-0.526784	21.808685	-41.016767	-115.150123	-41.016767	-115.150123	-0.125318	-87.125686
4.500000	-0.542336	15.833810	-40.871627	-119.774959	-40.871627	-119.774959	-0.127258	-88.016183
4.550000	-0.557765	9.776228	-40.733985	-124.485649	-40.733985	-124.485649	-0.129225	-88.904675
4.600000	-0.572968	3.647959	-40.603906	-129.272762	-40.603906	-129.272762	-0.131219	-89.791265
4.650000	-0.587840	-2.541178	-40.481556	-134.129455	-40.481556	-134.129455	-0.133240	-90.675988
4.700000	-0.602255	-8.782401	-40.367317	-139.050821	-40.367317	-139.050821	-0.135290	-91.558803
4.750000	-0.616107	-15.063460	-40.261255	-144.028415	-40.261255	-144.028415	-0.137371	-92.439752
4.800000	-0.629311	-21.371477	-40.163259	-149.052896	-40.163259	-149.052896	-0.139483	-93.318902
4.850000	-0.641765	-27.694375	-40.073438	-154.116575	-40.073438	-154.116575	-0.141628	-94.196248
4.900000	-0.653368	-34.018982	-39.991898	-159.211104	-39.991898	-159.211104	-0.143808	-95.071772
4.950000	-0.664093	-40.332302	-39.918214	-164.326192	-39.918214	-164.326192	-0.146024	-95.945574
5.000000	-0.673896	-46.622051	-39.852199	-169.453000	-39.852199	-169.453000	-0.148277	-96.817679
5.050000	-0.682670	-52.897260	-39.790482	-174.566321	-39.790482	-174.566321	-0.150518	-97.688085
5.100000	-0.690404	-59.131095	-39.734520	-179.671364	-39.734520	-179.671364	-0.152785	-98.556840
5.150000	-0.697100	-65.313538	-39.683868	175.240551	-39.683868	175.240551	-0.155079	-99.423975
5.200000	-0.702776	-71.435469	-39.638052	170.177738	-39.638052	170.177738	-0.157402	-100.289519
5.250000	-0.707465	-77.488761	-39.596580	165.148055	-39.596580	165.148055	-0.159754	-101.153505
5.300000	-0.711208	-83.466341	-39.558955	160.158839	-39.558955	160.158839	-0.162136	-102.015964
5.350000	-0.714057	-89.362217	-39.524685	155.216852	-39.524685	155.216852	-0.164547	-102.876928
5.400000	-0.716070	-95.171475	-39.493297	150.328244	-39.493297	150.328244	-0.166990	-103.736429
5.450000	-0.717304	-100.889353	-39.464360	145.499153	-39.464360	145.499153	-0.169465	-104.594488
5.500000	-0.717827	-106.513398	-39.437441	140.734261	-39.437441	140.734261	-0.171973	-105.451144
5.550000	-0.717710	-112.042170	-39.412153	136.037508	-39.412153	136.037508	-0.174514	-106.306439
5.600000	-0.717001	-117.471376	-39.388197	131.415055	-39.388197	131.415055	-0.177090	-107.160364
5.650000	-0.715798	-122.807303	-39.365218	126.864908	-39.365218	126.864908	-0.179700	-108.013040
5.700000	-0.714148	-128.048507	-39.343000	122.390921	-39.343000	122.390921	-0.182345	-108.864477
5.750000	-0.712081	-133.190461	-39.321381	117.999620	-39.321381	117.999620	-0.185027	-109.714638
5.800000	-0.709692	-138.245577	-39.300157	113.683237	-39.300157	113.683237	-0.187744	-110.563698
5.850000	-0.706971	-143.199726	-39.279264	109.457026	-39.279264	109.457026	-0.190502	-111.411492
5.900000	-0.704015	-148.072697	-39.258581	105.305836	-39.258581	105.305836	-0.193294	-112.258275
5.950000	-0.700817	-152.851699	-39.238090	101.244435	-39.238090	101.244435	-0.196129	-113.103893
6.000000	-0.697440	-157.551068	-39.217756	97.261693	-39.217756	97.261693	-0.199001	-113.948528
6.050000	-0.693896	-162.167264	-39.197595	93.363870	-39.197595	93.363870	-0.201914	-114.792139
6.100000	-0.690213	-166.704805	-39.177633	89.549008	-39.177633	89.549008	-0.204868	-115.634783
6.150000	-0.686416	-171.169653	-39.157902	85.813401	-39.157902	85.813401	-0.207862	-116.476535
6.200000	-0.682512	-175.557744	-39.138480	82.164270	-39.138480	82.164270	-0.210899	-117.317348
6.250000	-0.678529	-179.882950	-39.119383	78.588345	-39.119383	78.588345	-0.213976	-118.157395
6.300000	-0.674463	175.866052	-39.100754	75.101780	-39.100754	75.101780	-0.217099	-118.996541
6.350000	-0.670338	171.672497	-39.082575	71.686787	-39.082575	71.686787	-0.220262	-119.834997
6.400000	-0.666152	167.543204	-39.064986	68.354557	-39.064986	68.354557	-0.223472	-120.672687
6.450000	-0.661918	163.469716	-39.047997	65.096647	-39.047997	65.096647	-0.226723	-121.509724
6.500000	-0.657638	159.451619	-39.031691	61.915062	-39.031691	61.915062	-0.230019	-122.346122
6.550000	-0.653315	155.487450	-39.016127	58.810318	-39.016127	58.810318	-0.233361	-123.181915
6.600000	-0.648957	151.570870	-39.001292	55.775745	-39.001292	55.775745	-0.236746	-124.017189
6.650000	-0.644560	147.706231	-38.987314	52.820412	-38.987314	52.820412	-0.240179	-124.851919
6.700000	-0.640130	143.888339	-38.974167	49.939123	-38.974167	49.939123	-0.243659	-125.686186
6.750000	-0.635672	140.111573	-38.961786	47.125199	-38.961786	47.125199	-0.247182	-126.520069
6.800000	-0.631185	136.376732	-38.950202	44.382104	-38.950202	44.382104	-0.250751	-127.353588
6.850000	-0.626671	132.682047	-38.939385	41.709138	-38.939385	41.709138	-0.254367	-128.186790
6.900000	-0.622137	129.021051	-38.929205	39.096671	-38.929205	39.096671	-0.258023	-129.019751
6.950000	-0.617578	125.402410	-38.919782	36.562882	-38.919782	36.562882	-0.261733	-129.852454
7.000000	-0.613000	121.819251	-38.910935	34.097395	-38.910935	34.097395	-0.265490	-130.684986
7.050000	-0.608408	118.270250	-38.902559	31.699691	-38.902559	31.699691	-0.269294	-131.517398
7.100000	-0.603804	114.754178	-38.894534	29.369287	-38.894534	29.369287	-0.273146	-132.349738
7.150000	-0.599193	111.269902	-38.886717	27.105724	-38.886717	27.105724	-0.277045	-133.182059
7.200000	-0.594580	107.816376	-38.878946	24.908561	-38.878946	24.908561	-0.280993	-134.014412
7.250000	-0.589969	104.392639	-38.871038	22.777368	-38.871038	22.777368	-0.284988	-134.846849
7.300000	-0.585368	100.999014	-38.862760	20.714533	-38.862760	20.714533	-0.289034	-135.679433
7.350000	-0.580782	97.631944	-38.853942	18.713243	-38.853942	18.713243	-0.293126	-136.512199
7.400000	-0.576217	94.292237	-38.844316	16.776583	-38.844316	16.776583	-0.297267	-137.345210
7.450000	-0.571682	90.979206	-38.833615	14.904046	-38.833615	14.904046	-0.301456	-138.178521
7.500000	-0.567184	87.692221	-38.821551	13.095072	-38.821551	13.095072	-0.305695	-139.012187
7.550000	-0.562734	84.431783	-38.807728	11.351740	-38.807728	11.351740	-0.309984	-139.846287
7.600000	-0.558339	81.196231	-38.791877	9.670570	-38.791877	9.670570	-0.314324	-140.680862
7.650000	-0.554009	77.985074	-38.773651	8.050748	-38.773651	8.050748	-0.318712	-141.515970
7.700000	-0.549753	74.797854	-38.752685	6.491347	-38.752685	6.491347	-0.323151	-142.351671
7.750000	-0.545583	71.634142	-38.728601	4.991315	-38.728601	4.991315	-0.327639	-143.188025
7.800000	-0.541508	68.493530	-38.701008	3.549462	-38.701008	3.549462	-0.332178	-144.025091
7.850000	-0.537540	65.375627	-38.669503	2.164451	-38.669503	2.164451	-0.336766	-144.862932
7.900000	-0.533690	62.280056	-38.633677	0.834783	-38.633677	0.834783	-0.341405	-145.701610
7.950000	-0.529971	59.206442	-38.593113	-0.441201	-38.593113	-0.441201	-0.346094	-146.541188
8.000000	-0.526393	56.154414	-38.547392	-1.665332	-38.547392	-1.665332	-0.350834	-147.381730
8.050000	-0.522971	53.123594	-38.496095	-2.839605	-38.496095	-2.839605	-0.355624	-148.223301
8.100000	-0.519717	50.113594	-38.438807	-3.966183	-38.438807	-3.966183	-0.360465	-149.065968
8.150000	-0.516644	47.124007	-38.375116	-5.047386	-38.375116	-5.047386	-0.365358	-149.909797
8.200000	-0.513767	44.154402	-38.304619	-6.085679	-38.304619	-6.085679	-0.370300	-150.754856
8.250000	-0.511100	41.204319	-38.226920	-7.083657	-38.226920	-7.083657	-0.375295	-151.601215
8.300000	-0.508658	38.273256	-38.141635	-8.044028	-38.141635	-8.044028	-0.380340	-152.448945
8.350000	-0.506454	35.360323	-38.048576	-8.970185	-38.048576	-8.970185	-0.385435	-153.298086
8.400000	-0.504518	32.465883	-37.946864	-9.863263	-37.946864	-9.863263	-0.390583	-154.148794
8.450000	-0.502860	29.588551	-37.836491	-10.727471	-37.836491	-10.727471	-0.395782	-155.001088
8.500000	-0.501501	26.727575	-37.717103	-11.565677	-37.717103	-11.565677	-0.401033	-155.855041
8.550000	-0.500463	23.882107	-37.588349	-12.380731	-37.588349	-12.380731	-0.406334	-156.710732
8.600000	-0.499774	21.051186	-37.449864	-13.175430	-37.449864	-13.175430	-0.411687	-157.568237
8.650000	-0.499462	18.233717	-37.301266	-13.952503	-37.301266	-13.952503	-0.417091	-158.427638
8.700000	-0.499564	15.428441	-37.142139	-14.714588	-37.142139	-14.714588	-0.422546	-159.289017
8.750000	-0.500120	12.633909	-36.972019	-15.464225	-36.972019	-15.464225	-0.428053	-160.152457
8.800000	-0.501220	9.848924	-36.789261	-16.203330	-36.789261	-16.203330	-0.433614	-161.018202
8.850000	-0.502897	7.070730	-36.594198	-16.935088	-36.594198	-16.935088	-0.439227	-161.886199
8.900000	-0.505230	4.296931	-36.386054	-17.661810	-36.386054	-17.661810	-0.444891	-162.756542
8.950000	-0.508324	1.524672	-36.163885	-18.385836	-36.163885	-18.385836	-0.450608	-163.629330
9.000000	-0.512310	-1.249474	-35.926536	-19.109648	-35.926536	-19.109648	-0.456377	-164.504669
9.050000	-0.517365	-4.029670	-35.672578	-19.836028	-35.672578	-19.836028	-0.462200	-165.382668
9.100000	-0.523723	-6.821019	-35.400237	-20.568313	-35.400237	-20.568313	-0.468077	-166.263448
9.150000	-0.531703	-9.629857	-35.107293	-21.310756	-35.107293	-21.310756	-0.474009	-167.147137
9.200000	-0.541747	-12.464151	-34.790962	-22.069092	-34.790962	-22.069092	-0.479999	-168.033877
9.250000	-0.554483	-15.334059	-34.447729	-22.851377	-34.447729	-22.851377	-0.486048	-168.923826
9.300000	-0.570816	-18.252735	-34.073139	-23.669294	-34.073139	-23.669294	-0.492161	-169.817163
9.350000	-0.592090	-21.237490	-33.661516	-24.540193	-33.661516	-24.540193	-0.498344	-170.714096
9.400000	-0.620700	-24.315718	-33.202801	-25.494539	-33.202801	-25.494539	-0.504612	-171.615016
9.450000	-0.659895	-27.518448	-32.688763	-26.573426	-32.688763	-26.573426	-0.510982	-172.520139
9.500000	-0.715466	-30.893129	-32.106080	-27.846988	-32.106080	-27.846988	-0.517487	-173.429872
9.550000	-0.797078	-34.503747	-31.439472	-29.424861	-31.439472	-29.424861	-0.524185	-174.344683
9.600000	-0.922503	-38.442435	-30.669233	-31.491247	-30.669233	-31.491247	-0.531188	-175.265209
9.650000	-1.125206	-42.829999	-29.775179	-34.351264	-29.775179	-34.351264	-0.538701	-176.192135
9.700000	-1.479197	-47.818094	-28.734803	-38.581425	-28.734803	-38.581425	-0.547160	-177.126126
9.750000	-2.142764	-53.372973	-27.567282	-45.142128	-27.567282	-45.142128	-0.557377	-178.065762
9.800000	-3.431554	-58.340072	-26.414290	-55.389893	-26.414290	-55.389893	-0.570434	-179.002727
9.850000	-5.657123	-56.657230	-25.690293	-70.419241	-25.690293	-70.419241	-0.585998	-179.914641
9.900000	-6.891796	-38.663480	-26.019861	-88.052874	-26.019861	-88.052874	-0.598493	179.211908
9.950000	-5.112344	-26.065241	-27.468482	-102.536173	-27.468482	-102.536173	-0.603581	178.336495
10.000000	-3.499727	-26.273309	-29.474618	-109.557397	-29.474618	-109.557397	-0.603697	177.423930
