! freq	dB(S11)	phase(S11)	dB(S12)	phase(S12)	
!     	dB(S21)	phase(S21)	dB(S22)	phase(S22)	
!S-par simulation data
#  GHz  S  DB  R 50
0.000000	-83.543767	0.000000	-0.000578	0.000000	-0.000578	0.000000	-83.543768	0.000000
0.050000	-40.903125	-92.299686	-0.005623	-2.848082	-0.005623	-2.848082	-40.884309	-90.901621
0.100000	-34.975713	-96.293936	-0.012013	-5.656057	-0.012013	-5.656057	-34.957279	-93.615255
0.150000	-31.500645	-100.114974	-0.017711	-8.454243	-0.017711	-8.454243	-31.479877	-96.120739
0.200000	-29.039123	-103.808687	-0.023655	-11.248482	-0.023655	-11.248482	-29.016597	-98.491611
0.250000	-27.136783	-107.428417	-0.030101	-14.039150	-0.030101	-14.039150	-27.113094	-100.786558
0.300000	-25.590246	-111.000909	-0.037074	-16.826347	-0.037074	-16.826347	-25.565883	-103.032007
0.350000	-24.290165	-114.543814	-0.044546	-19.610512	-0.044546	-19.610512	-24.265519	-105.244459
0.400000	-23.171168	-118.067719	-0.052498	-22.392072	-0.052498	-22.392072	-23.146531	-107.433387
0.450000	-22.191994	-121.578633	-0.060952	-25.171197	-0.060952	-25.171197	-22.167586	-109.603352
0.500000	-21.323305	-125.081628	-0.069879	-27.948217	-0.069879	-27.948217	-21.299271	-111.758696
0.550000	-20.544614	-128.579399	-0.079266	-30.723258	-0.079266	-30.723258	-20.521045	-113.901256
0.600000	-19.841131	-132.073723	-0.089107	-33.496332	-0.089107	-33.496332	-19.818096	-116.031726
0.650000	-19.201681	-135.565964	-0.099384	-36.267416	-0.099384	-36.267416	-19.179228	-118.150329
0.700000	-18.617149	-139.057171	-0.110056	-39.036534	-0.110056	-39.036534	-18.595319	-120.257401
0.750000	-18.080530	-142.548158	-0.121081	-41.803643	-0.121081	-41.803643	-18.059362	-122.352863
0.800000	-17.586098	-146.039639	-0.132416	-44.568697	-0.132416	-44.568697	-17.565636	-124.436654
0.850000	-17.129407	-149.532325	-0.144016	-47.331596	-0.144016	-47.331596	-17.109702	-126.508450
0.900000	-16.706092	-153.026821	-0.155827	-50.092372	-0.155827	-50.092372	-16.687190	-128.568685
0.950000	-16.313081	-156.523814	-0.167811	-52.850943	-0.167811	-52.850943	-16.295032	-130.617121
1.000000	-15.947572	-160.023976	-0.179927	-55.607287	-0.179927	-55.607287	-15.930424	-132.653767
1.050000	-15.607150	-163.527980	-0.192140	-58.361415	-0.192140	-58.361415	-15.590946	-134.678655
1.100000	-15.289710	-167.036488	-0.204416	-61.113378	-0.204416	-61.113378	-15.274492	-136.691828
1.150000	-14.993406	-170.550142	-0.216725	-63.863265	-0.216725	-63.863265	-14.979208	-138.693348
1.200000	-14.716600	-174.069553	-0.229040	-66.611212	-0.229040	-66.611212	-14.703456	-140.683283
1.250000	-14.457834	-177.595297	-0.241334	-69.357388	-0.241334	-69.357388	-14.445773	-142.661721
1.300000	-14.215998	178.871937	-0.253581	-72.101972	-0.253581	-72.101972	-14.205052	-144.628522
1.350000	-13.989696	175.331808	-0.265756	-74.845238	-0.265756	-74.845238	-13.979894	-146.584072
1.400000	-13.777857	171.783892	-0.277837	-77.587443	-0.277837	-77.587443	-13.769228	-148.528540
1.450000	-13.579503	168.227816	-0.289803	-80.328864	-0.289803	-80.328864	-13.572076	-150.462136
1.500000	-13.393738	164.663264	-0.301632	-83.069788	-0.301632	-83.069788	-13.387544	-152.385117
1.550000	-13.219739	161.089980	-0.313307	-85.810514	-0.313307	-85.810514	-13.214808	-154.297797
1.600000	-13.056747	157.507769	-0.324810	-88.551347	-0.324810	-88.551347	-13.053110	-156.200547
1.650000	-12.904058	153.916496	-0.336128	-91.292595	-0.336128	-91.292595	-12.901745	-158.093804
1.700000	-12.761016	150.316098	-0.347249	-94.034569	-0.347249	-94.034569	-12.760058	-159.978075
1.750000	-12.627012	146.706580	-0.358162	-96.777579	-0.358162	-96.777579	-12.627439	-161.853944
1.800000	-12.501472	143.088026	-0.368860	-99.521934	-0.368860	-99.521934	-12.503315	-163.722070
1.850000	-12.383860	139.460596	-0.379338	-102.267940	-0.379338	-102.267940	-12.387148	-165.583199
1.900000	-12.273733	135.824450	-0.389591	-105.015923	-0.389591	-105.015923	-12.278496	-167.438104
1.950000	-12.170602	132.179941	-0.399618	-107.766189	-0.399618	-107.766189	-12.176872	-169.287740
2.000000	-12.073953	128.527605	-0.409423	-110.519007	-0.409423	-110.519007	-12.081762	-171.133197
2.050000	-11.983359	124.867983	-0.419009	-113.274658	-0.419009	-113.274658	-11.992741	-172.975590
2.100000	-11.898417	121.201725	-0.428382	-116.033417	-0.428382	-116.033417	-11.909408	-174.816137
2.150000	-11.818742	117.529589	-0.437548	-118.795553	-0.437548	-118.795553	-11.831384	-176.656154
2.200000	-11.743970	113.852445	-0.446514	-121.561323	-0.446514	-121.561323	-11.758308	-178.497063
2.250000	-11.673757	110.171283	-0.455290	-124.330978	-0.455290	-124.330978	-11.689842	179.659611
2.300000	-11.607775	106.487208	-0.463884	-127.104761	-0.463884	-127.104761	-11.625664	177.812237
2.350000	-11.545713	102.801448	-0.472307	-129.882908	-0.472307	-129.882908	-11.565474	175.959076
2.400000	-11.487279	99.115351	-0.480570	-132.665646	-0.480570	-132.665646	-11.508985	174.098282
2.450000	-11.432195	95.430385	-0.488684	-135.453199	-0.488684	-135.453199	-11.455929	172.227903
2.500000	-11.380200	91.748136	-0.496659	-138.245781	-0.496659	-138.245781	-11.406057	170.345880
2.550000	-11.331100	88.070449	-0.504503	-141.043725	-0.504503	-141.043725	-11.359186	168.449694
2.600000	-11.284604	84.399090	-0.512230	-143.847131	-0.512230	-143.847131	-11.315036	166.537321
2.650000	-11.240499	80.735992	-0.519850	-146.656207	-0.519850	-146.656207	-11.273402	164.606381
2.700000	-11.198584	77.083195	-0.527374	-149.471160	-0.527374	-149.471160	-11.234097	162.654397
2.750000	-11.158673	73.442830	-0.534808	-152.292200	-0.534808	-152.292200	-11.196943	160.678790
2.800000	-11.120592	69.817123	-0.542163	-155.119540	-0.542163	-155.119540	-11.161779	158.676889
2.850000	-11.084179	66.208378	-0.549446	-157.953399	-0.549446	-157.953399	-11.128454	156.645933
2.900000	-11.049284	62.618973	-0.556664	-160.794004	-0.556664	-160.794004	-11.096828	154.583070
2.950000	-11.015767	59.051351	-0.563824	-163.641588	-0.563824	-163.641588	-11.066768	152.485365
3.000000	-10.983493	55.508006	-0.570932	-166.496400	-0.570932	-166.496400	-11.038151	150.349805
3.050000	-10.952337	51.991478	-0.577995	-169.358699	-0.577995	-169.358699	-11.010859	148.173299
3.100000	-10.922176	48.504337	-0.585018	-172.228760	-0.585018	-172.228760	-10.984776	145.952686
3.150000	-10.892897	45.049554	-0.592008	-175.106967	-0.592008	-175.106967	-10.959800	143.684188
3.200000	-10.864374	41.629817	-0.598971	-177.993642	-0.598971	-177.993642	-10.935810	141.364403
3.250000	-10.836474	38.247376	-0.605915	179.110968	-0.605915	179.110968	-10.912676	138.990502
3.300000	-10.809063	34.904809	-0.612849	176.206507	-0.612849	176.206507	-10.890270	136.559097
3.350000	-10.782002	31.605967	-0.619783	173.292308	-0.619783	173.292308	-10.868464	134.064889
3.400000	-10.755127	28.348678	-0.626727	170.368988	-0.626727	170.368988	-10.847068	131.511122
3.450000	-10.728262	25.142629	-0.633699	167.434531	-0.633699	167.434531	-10.825950	128.883929
3.500000	-10.701230	21.983645	-0.640712	164.489894	-0.640712	164.489894	-10.804897	126.189203
3.550000	-10.673781	18.877868	-0.647790	161.533742	-0.647790	161.533742	-10.783679	123.417889
3.600000	-10.645675	15.826386	-0.654955	158.565780	-0.654955	158.565780	-10.762047	120.568060
3.650000	-10.616665	12.829007	-0.662233	155.585930	-0.662233	155.585930	-10.739737	117.639494
3.700000	-10.586309	9.892985	-0.669670	152.592396	-0.669670	152.592396	-10.716323	114.620919
3.750000	-10.554494	7.010769	-0.677278	149.586627	-0.677278	149.586627	-10.691642	111.522654
3.800000	-10.520388	4.196361	-0.685150	146.565039	-0.685150	146.565039	-10.664894	108.322757
3.850000	-10.484034	1.437757	-0.693284	143.530024	-0.693284	143.530024	-10.636049	105.038051
3.900000	-10.444500	-1.255002	-0.701790	140.478579	-0.701790	140.478579	-10.604180	101.651663
3.950000	-10.401574	-3.887798	-0.710698	137.411522	-0.710698	137.411522	-10.569018	98.170953
4.000000	-10.354521	-6.458639	-0.720105	134.327498	-0.720105	134.327498	-10.529789	94.590626
4.050000	-10.302629	-8.967301	-0.730108	131.225430	-0.730108	131.225430	-10.485728	90.907772
4.100000	-10.245667	-11.419964	-0.740754	128.105965	-0.740754	128.105965	-10.436536	87.129761
4.150000	-10.182120	-13.811091	-0.752252	124.965788	-0.752252	124.965788	-10.380622	83.243358
4.200000	-10.112497	-16.153278	-0.764576	121.807530	-0.764576	121.807530	-10.318424	79.266949
4.250000	-10.034614	-18.440370	-0.778045	118.626482	-0.778045	118.626482	-10.247630	75.183576
4.300000	-9.949252	-20.685382	-0.792616	115.425526	-0.792616	115.425526	-10.168964	71.012779
4.350000	-9.854707	-22.888768	-0.808589	112.201382	-0.808589	112.201382	-10.080572	66.747617
4.400000	-9.750981	-25.058969	-0.826053	108.954615	-0.826053	108.954615	-9.982370	62.397963
4.450000	-9.637559	-27.203031	-0.845192	105.684508	-0.845192	105.684508	-9.873733	57.969495
4.500000	-9.513360	-29.327499	-0.866307	102.388970	-0.866307	102.388970	-9.753428	53.464409
4.550000	-9.379494	-31.442376	-0.889379	99.070214	-0.889379	99.070214	-9.622559	48.898085
4.600000	-9.233559	-33.555889	-0.915016	95.723199	-0.915016	95.723199	-9.478468	44.268130
4.650000	-9.078063	-35.676907	-0.943000	92.352353	-0.943000	92.352353	-9.323783	39.593718
4.700000	-8.910768	-37.817320	-0.974039	88.952552	-0.974039	88.952552	-9.156007	34.876255
4.750000	-8.733806	-39.983913	-1.008017	85.526974	-1.008017	85.526974	-8.977395	30.130003
4.800000	-8.546524	-42.188716	-1.045449	82.073103	-1.045449	82.073103	-8.787169	25.362284
4.850000	-8.349762	-44.440306	-1.086564	78.591139	-1.086564	78.591139	-8.586195	20.582693
4.900000	-8.144728	-46.745624	-1.131522	75.081899	-1.131522	75.081899	-8.375750	15.800395
4.950000	-7.930978	-49.118961	-1.181015	71.542444	-1.181015	71.542444	-8.155279	11.024065
5.000000	-7.711359	-51.557485	-1.234717	67.977045	-1.234717	67.977045	-7.927909	6.259942
5.050000	-7.484319	-54.084607	-1.293913	64.379550	-1.293913	64.379550	-7.691813	1.519099
5.100000	-7.253341	-56.689490	-1.357955	60.756033	-1.357955	60.756033	-7.450869	-3.196881
5.150000	-7.017840	-59.391324	-1.427958	57.102102	-1.427958	57.102102	-7.204309	-7.877830
5.200000	-6.779849	-62.186099	-1.503777	53.420590	-1.503777	53.420590	-6.954386	-12.522211
5.250000	-6.540084	-65.081933	-1.585993	49.710492	-1.585993	49.710492	-6.701810	-17.124350
5.300000	-6.299724	-68.079918	-1.674833	45.972585	-1.674833	45.972585	-6.447855	-21.682035
5.350000	-6.059492	-71.188062	-1.770957	42.205729	-1.770957	42.205729	-6.193217	-26.190320
5.400000	-5.820501	-74.406733	-1.874630	38.410654	-1.874630	38.410654	-5.939085	-30.648116
5.450000	-5.583595	-77.739688	-1.986342	34.587069	-1.986342	34.587069	-5.686311	-35.053235
5.500000	-5.349618	-81.188913	-2.106517	30.734999	-2.106517	30.734999	-5.435760	-39.404725
5.550000	-5.119318	-84.756315	-2.235602	26.854341	-2.235602	26.854341	-5.188190	-43.702085
5.600000	-4.893344	-88.444440	-2.374116	22.944705	-2.374116	22.944705	-4.944240	-47.944937
5.650000	-4.672267	-92.256044	-2.522627	19.005514	-2.522627	19.005514	-4.704460	-52.133241
5.700000	-4.456580	-96.194209	-2.681766	15.035973	-2.681766	15.035973	-4.469313	-56.267263
5.750000	-4.246705	-100.262453	-2.852240	11.035044	-2.852240	11.035044	-4.239177	-60.347556
5.800000	-4.042993	-104.464838	-3.034856	7.001418	-3.034856	7.001418	-4.014353	-64.374943
5.850000	-3.845746	-108.806764	-3.230589	2.933323	-3.230589	2.933323	-3.795073	-68.350268
5.900000	-3.655219	-113.294496	-3.440574	-1.171362	-3.440574	-1.171362	-3.581511	-72.274672
5.950000	-3.471578	-117.932993	-3.665991	-5.314517	-3.665991	-5.314517	-3.373776	-76.150286
6.000000	-3.294968	-122.729446	-3.908337	-9.498633	-3.908337	-9.498633	-3.171931	-79.979017
6.050000	-3.125504	-127.691990	-4.169389	-13.726439	-4.169389	-13.726439	-2.976005	-83.763051
6.100000	-2.963282	-132.829738	-4.451266	-18.000825	-4.451266	-18.000825	-2.786008	-87.504863
6.150000	-2.808389	-138.152782	-4.756508	-22.324720	-4.756508	-22.324720	-2.601941	-91.207221
6.200000	-2.660916	-143.672160	-5.088169	-26.700914	-5.088169	-26.700914	-2.423813	-94.873180
6.250000	-2.520968	-149.399771	-5.449939	-31.131788	-5.449939	-31.131788	-2.251659	-98.506065
6.300000	-2.388762	-155.351633	-5.846586	-35.619747	-5.846586	-35.619747	-2.085602	-102.109074
6.350000	-2.264397	-161.537856	-6.283340	-40.164140	-6.283340	-40.164140	-1.925751	-105.686442
6.400000	-2.148092	-167.971697	-6.766892	-44.762886	-6.766892	-44.762886	-1.772333	-109.242014
6.450000	-2.040124	-174.666093	-7.305492	-49.410483	-7.305492	-49.410483	-1.625679	-112.779592
6.500000	-1.940832	178.366938	-7.909392	-54.096251	-7.909392	-54.096251	-1.486240	-116.302764
6.550000	-1.850611	171.117053	-8.591474	-58.801670	-8.591474	-58.801670	-1.354599	-119.814670
6.600000	-1.769905	163.576506	-9.368154	-63.496249	-9.368154	-63.496249	-1.231477	-123.317726
6.650000	-1.699184	155.741209	-10.260745	-68.130775	-10.260745	-68.130775	-1.117722	-126.813297
6.700000	-1.639012	147.609136	-11.297943	-72.623018	-11.297943	-72.623018	-1.014387	-130.301260
6.750000	-1.589755	139.188833	-12.518314	-76.836869	-12.518314	-76.836869	-0.922465	-133.779793
6.800000	-1.551645	130.496077	-13.976632	-80.537018	-13.976632	-80.537018	-0.842916	-137.245055
6.850000	-1.524771	121.553333	-15.753962	-83.279896	-15.753962	-83.279896	-0.776640	-140.691018
6.900000	-1.508967	112.391635	-17.972482	-84.138271	-17.972482	-84.138271	-0.724338	-144.109578
6.950000	-1.503756	103.050469	-20.798745	-80.890959	-20.798745	-80.890959	-0.686406	-147.490858
7.000000	-1.508321	93.576959	-24.231882	-67.674748	-24.231882	-67.674748	-0.662849	-150.823788
7.050000	-1.521515	84.024343	-26.489582	-35.394064	-26.489582	-35.394064	-0.653223	-154.096887
7.100000	-1.541939	74.449994	-24.491516	-2.945128	-24.491516	-2.945128	-0.656677	-157.298794
7.150000	-1.567963	64.913792	-21.302820	10.180886	-21.302820	10.180886	-0.671901	-160.419426
7.200000	-1.597820	55.472921	-18.732646	13.520943	-18.732646	13.520943	-0.697083	-163.452249
7.250000	-1.629863	46.180196	-16.768483	12.857042	-16.768483	12.857042	-0.730328	-166.392787
7.300000	-1.662603	37.082172	-15.242056	10.377812	-15.242056	10.377812	-0.769662	-169.239482
7.350000	-1.694792	28.217670	-14.030751	6.999338	-14.030751	6.999338	-0.813164	-171.993574
7.400000	-1.725462	19.617007	-13.053231	3.159507	-13.053231	3.159507	-0.859068	-174.658722
7.450000	-1.753942	11.301885	-12.254315	-0.909686	-12.254315	-0.909686	-0.905840	-177.240483
7.500000	-1.779834	3.285846	-11.595100	-5.076238	-11.595100	-5.076238	-0.952219	-179.745714
7.550000	-1.802945	-4.421022	-11.047904	-9.261220	-11.047904	-9.261220	-0.997195	177.818754
7.600000	-1.823344	-11.822771	-10.590319	-13.416680	-10.590319	-13.416680	-1.040076	175.444112
7.650000	-1.841167	-18.919899	-10.206571	-17.513031	-10.206571	-17.513031	-1.080354	173.123446
7.700000	-1.856752	-25.729768	-9.882257	-21.535386	-9.882257	-21.535386	-1.117844	170.848084
7.750000	-1.870389	-32.261112	-9.607578	-25.474206	-9.607578	-25.474206	-1.152419	168.611982
7.800000	-1.882423	-38.527877	-9.374137	-29.325598	-9.374137	-29.325598	-1.184101	166.409187
7.850000	-1.893200	-44.545197	-9.175073	-33.089029	-9.175073	-33.089029	-1.213002	164.234453
7.900000	-1.903056	-50.328810	-9.004737	-36.766196	-9.004737	-36.766196	-1.239294	162.083219
7.950000	-1.912302	-55.894604	-8.858439	-40.360239	-8.858439	-40.360239	-1.263188	159.951561
8.000000	-1.921225	-61.258283	-8.732268	-43.875210	-8.732268	-43.875210	-1.284914	157.836128
8.050000	-1.930083	-66.435125	-8.622940	-47.315696	-8.622940	-47.315696	-1.304714	155.734075
8.100000	-1.939105	-71.439825	-8.527687	-50.686568	-8.527687	-50.686568	-1.322826	153.642996
8.150000	-1.948502	-76.284828	-8.444259	-53.992154	-8.444259	-53.992154	-1.339467	151.560933
8.200000	-1.958456	-80.983832	-8.370608	-57.237579	-8.370608	-57.237579	-1.354865	149.486114
8.250000	-1.969121	-85.551026	-8.304926	-60.428408	-8.304926	-60.428408	-1.369243	147.416997
8.300000	-1.980633	-89.998129	-8.245759	-63.569358	-8.245759	-63.569358	-1.382793	145.352350
8.350000	-1.993145	-94.333303	-8.191967	-66.663799	-8.191967	-66.663799	-1.395678	143.291182
8.400000	-2.006655	-98.576759	-8.142092	-69.720199	-8.142092	-69.720199	-1.408110	141.232344
8.450000	-2.021436	-102.723821	-8.095700	-72.736808	-8.095700	-72.736808	-1.420180	139.175338
8.500000	-2.037420	-106.795165	-8.051607	-75.722399	-8.051607	-75.722399	-1.432067	137.119263
8.550000	-2.054787	-110.793386	-8.009243	-78.678379	-8.009243	-78.678379	-1.443890	135.063548
8.600000	-2.073594	-114.727842	-7.967950	-81.608946	-7.967950	-81.608946	-1.455772	133.007619
8.650000	-2.093862	-118.608381	-7.927151	-84.518504	-7.927151	-84.518504	-1.467822	130.950975
8.700000	-2.115815	-122.437191	-7.886351	-87.408520	-7.886351	-87.408520	-1.480171	128.893032
8.750000	-2.139287	-126.227936	-7.845179	-90.284770	-7.845179	-90.284770	-1.492873	126.833571
8.800000	-2.164711	-129.979133	-7.803048	-93.147632	-7.803048	-93.147632	-1.506121	124.771739
8.850000	-2.191811	-133.704052	-7.759847	-96.002483	-7.759847	-96.002483	-1.519909	122.707599
8.900000	-2.221002	-137.404095	-7.714962	-98.851038	-7.714962	-98.851038	-1.534451	120.640244
8.950000	-2.252155	-141.087739	-7.668321	-101.696870	-7.668321	-101.696870	-1.549761	118.569650
9.000000	-2.285434	-144.759868	-7.619594	-104.542675	-7.619594	-104.542675	-1.565966	116.495326
9.050000	-2.320958	-148.425883	-7.568531	-107.391267	-7.568531	-107.391267	-1.583172	114.416879
9.100000	-2.358857	-152.091088	-7.514898	-110.245445	-7.514898	-110.245445	-1.601491	112.333914
9.150000	-2.399274	-155.760720	-7.458472	-113.108014	-7.458472	-113.108014	-1.621042	110.246028
9.200000	-2.442370	-159.439980	-7.399042	-115.981803	-7.399042	-115.981803	-1.641953	108.152809
9.250000	-2.488329	-163.134064	-7.336404	-118.869680	-7.336404	-118.869680	-1.664363	106.053835
9.300000	-2.537278	-166.847583	-7.270464	-121.774079	-7.270464	-121.774079	-1.688378	103.948838
9.350000	-2.589651	-170.587404	-7.200751	-124.699302	-7.200751	-124.699302	-1.714281	101.836919
9.400000	-2.645652	-174.358716	-7.127157	-127.648224	-7.127157	-127.648224	-1.742227	99.717739
9.450000	-2.705598	-178.167286	-7.049476	-130.624262	-7.049476	-130.624262	-1.772435	97.590779
9.500000	-2.769781	177.981755	-6.967590	-133.630445	-6.967590	-133.630445	-1.805104	95.455651
9.550000	-2.838600	174.082539	-6.881303	-136.670403	-6.881303	-136.670403	-1.840502	93.311818
9.600000	-2.912515	170.128959	-6.790416	-139.748005	-6.790416	-139.748005	-1.878930	91.158726
9.650000	-2.992055	166.114630	-6.694727	-142.867399	-6.694727	-142.867399	-1.920733	88.995800
9.700000	-3.077885	162.032199	-6.593975	-146.033505	-6.593975	-146.033505	-1.966340	86.822363
9.750000	-3.170845	157.872994	-6.487828	-149.252286	-6.487828	-149.252286	-2.016296	84.637614
9.800000	-3.271631	153.631227	-6.376237	-152.527899	-6.376237	-152.527899	-2.071044	82.441252
9.850000	-3.381213	149.298867	-6.258996	-155.866246	-6.258996	-155.866246	-2.131209	80.232743
9.900000	-3.500732	144.867340	-6.135908	-159.273852	-6.135908	-159.273852	-2.197523	78.011628
9.950000	-3.631520	140.327466	-6.006788	-162.757968	-6.006788	-162.757968	-2.270851	75.777578
10.000000	-3.775144	135.669390	-5.871479	-166.326687	-5.871479	-166.326687	-2.352214	73.530470
