! freq	dB(S11)	phase(S11)	dB(S12)	phase(S12)	
!     	dB(S21)	phase(S21)	dB(S22)	phase(S22)	
!S-par simulation data
#  GHz  S  DB  R 50
0.000000	-0.000000	0.000000	-347.328436	0.000000	-347.328436	0.000000	-0.000000	0.000000
0.050000	-0.001472	-0.772633	-103.232165	86.976790	-103.232165	86.976790	-0.006026	-2.259596
0.100000	-0.002989	-1.532064	-97.311351	86.297626	-97.311351	86.297626	-0.010060	-4.472158
0.150000	-0.003837	-2.289161	-93.863151	85.188575	-93.863151	85.188575	-0.012007	-6.683790
0.200000	-0.004458	-3.046425	-91.449071	83.966753	-91.449071	83.966753	-0.013532	-8.897044
0.250000	-0.005026	-3.803903	-89.617336	82.712461	-89.617336	82.712461	-0.015061	-11.110732
0.300000	-0.005610	-4.561390	-88.161195	81.461252	-88.161195	81.461252	-0.016721	-13.323930
0.350000	-0.006242	-5.318679	-86.978403	80.237675	-86.978403	80.237675	-0.018570	-15.535861
0.400000	-0.006927	-6.075645	-85.999410	79.056423	-85.999410	79.056423	-0.020598	-17.746144
0.450000	-0.007665	-6.832190	-85.183152	77.931898	-85.183152	77.931898	-0.022798	-19.954447
0.500000	-0.008457	-7.588212	-84.505372	76.883033	-84.505372	76.883033	-0.025161	-22.160394
0.550000	-0.009296	-8.343665	-83.944613	75.925096	-83.944613	75.925096	-0.027666	-24.363836
0.600000	-0.010177	-9.098511	-83.486522	75.076592	-83.486522	75.076592	-0.030291	-26.564630
0.650000	-0.011095	-9.852691	-83.123627	74.365177	-83.123627	74.365177	-0.033020	-28.762551
0.700000	-0.012046	-10.606174	-82.849071	73.821262	-82.849071	73.821262	-0.035835	-30.957478
0.750000	-0.013022	-11.358955	-82.655817	73.476006	-82.655817	73.476006	-0.038717	-33.149405
0.800000	-0.014020	-12.111007	-82.541297	73.376631	-82.541297	73.376631	-0.041650	-35.338225
0.850000	-0.015035	-12.862290	-82.505336	73.592079	-82.505336	73.592079	-0.044621	-37.523780
0.900000	-0.016063	-13.612826	-82.542004	74.182087	-82.542004	74.182087	-0.047616	-39.706177
0.950000	-0.017100	-14.362606	-82.648198	75.236569	-82.648198	75.236569	-0.050623	-41.885395
1.000000	-0.018143	-15.111580	-82.821700	76.906538	-82.821700	76.906538	-0.053633	-44.061251
1.050000	-0.019190	-15.859780	-83.049277	79.313184	-83.049277	79.313184	-0.056638	-46.233905
1.100000	-0.020237	-16.607205	-83.313254	82.622218	-83.313254	82.622218	-0.059631	-48.403382
1.150000	-0.021283	-17.353820	-83.582408	87.059288	-83.582408	87.059288	-0.062605	-50.569585
1.200000	-0.022327	-18.099633	-83.805312	92.765603	-83.805312	92.765603	-0.065558	-52.732591
1.250000	-0.023367	-18.844654	-83.913525	99.747131	-83.913525	99.747131	-0.068486	-54.892501
1.300000	-0.024402	-19.588864	-83.822546	107.826030	-83.822546	107.826030	-0.071387	-57.049297
1.350000	-0.025431	-20.332241	-83.458402	116.492318	-83.458402	116.492318	-0.074258	-59.202974
1.400000	-0.026455	-21.074810	-82.812074	125.017304	-82.812074	125.017304	-0.077100	-61.353703
1.450000	-0.027473	-21.816560	-81.920941	132.759512	-81.920941	132.759512	-0.079914	-63.501534
1.500000	-0.028484	-22.557443	-80.845607	139.252756	-80.845607	139.252756	-0.082697	-65.646392
1.550000	-0.029489	-23.297494	-79.680365	144.457040	-79.680365	144.457040	-0.085453	-67.788507
1.600000	-0.030488	-24.036705	-78.484690	148.460352	-78.484690	148.460352	-0.088183	-69.927959
1.650000	-0.031482	-24.775028	-77.292012	151.390252	-77.292012	151.390252	-0.090887	-72.064723
1.700000	-0.032470	-25.512476	-76.130622	153.465213	-76.130622	153.465213	-0.093568	-74.198967
1.750000	-0.033453	-26.249053	-75.013768	154.860521	-75.013768	154.860521	-0.096229	-76.330832
1.800000	-0.034432	-26.984734	-73.944534	155.701446	-73.944534	155.701446	-0.098871	-78.460393
1.850000	-0.035407	-27.719508	-72.923865	156.097703	-72.923865	156.097703	-0.101496	-80.587768
1.900000	-0.036378	-28.453352	-71.949919	156.132282	-71.949919	156.132282	-0.104107	-82.713061
1.950000	-0.037347	-29.186254	-71.020641	155.874256	-71.020641	155.874256	-0.106706	-84.836408
2.000000	-0.038313	-29.918210	-70.133960	155.379417	-70.133960	155.379417	-0.109296	-86.957974
2.050000	-0.039278	-30.649209	-69.286984	154.688734	-69.286984	154.688734	-0.111879	-89.077905
2.100000	-0.040242	-31.379235	-68.476900	153.834769	-68.476900	153.834769	-0.114458	-91.196358
2.150000	-0.041206	-32.108276	-67.701062	152.843606	-67.701062	152.843606	-0.117034	-93.313495
2.200000	-0.042169	-32.836319	-66.957020	151.736314	-66.957020	151.736314	-0.119611	-95.429486
2.250000	-0.043133	-33.563350	-66.242532	150.530043	-66.242532	150.530043	-0.122191	-97.544510
2.300000	-0.044099	-34.289355	-65.555558	149.238870	-65.555558	149.238870	-0.124775	-99.658750
2.350000	-0.045066	-35.014321	-64.894246	147.874430	-64.894246	147.874430	-0.127367	-101.772400
2.400000	-0.046036	-35.738234	-64.256919	146.446416	-64.256919	146.446416	-0.129967	-103.885658
2.450000	-0.047008	-36.461080	-63.642055	144.962951	-63.642055	144.962951	-0.132578	-105.998731
2.500000	-0.047984	-37.182847	-63.048274	143.430892	-63.048274	143.430892	-0.135202	-108.111831
2.550000	-0.048964	-37.903497	-62.473931	141.855243	-62.473931	141.855243	-0.137840	-110.225189
2.600000	-0.049947	-38.623041	-61.918334	140.241977	-61.918334	140.241977	-0.140496	-112.339030
2.650000	-0.050936	-39.341465	-61.380436	138.595314	-61.380436	138.595314	-0.143169	-114.453587
2.700000	-0.051930	-40.058757	-60.859281	136.918898	-60.859281	136.918898	-0.145861	-116.569097
2.750000	-0.052929	-40.774904	-60.353996	135.215887	-60.353996	135.215887	-0.148575	-118.685806
2.800000	-0.053934	-41.489895	-59.863780	133.489031	-59.863780	133.489031	-0.151311	-120.803961
2.850000	-0.054946	-42.203717	-59.387898	131.740733	-59.387898	131.740733	-0.154071	-122.923818
2.900000	-0.055964	-42.916359	-58.925674	129.973099	-58.925674	129.973099	-0.156856	-125.045635
2.950000	-0.056990	-43.627809	-58.476485	128.187987	-58.476485	128.187987	-0.159666	-127.169676
3.000000	-0.058022	-44.338057	-58.039757	126.387032	-58.039757	126.387032	-0.162503	-129.296208
3.050000	-0.059063	-45.047091	-57.614957	124.571688	-57.614957	124.571688	-0.165368	-131.425503
3.100000	-0.060112	-45.754901	-57.201594	122.743243	-57.201594	122.743243	-0.168262	-133.557834
3.150000	-0.061170	-46.461463	-56.799130	120.902727	-56.799130	120.902727	-0.171185	-135.693519
3.200000	-0.062236	-47.166768	-56.407161	119.051199	-56.407161	119.051199	-0.174138	-137.832847
3.250000	-0.063312	-47.870819	-56.025380	117.189702	-56.025380	117.189702	-0.177122	-139.976064
3.300000	-0.064397	-48.573607	-55.653421	115.319058	-55.653421	115.319058	-0.180136	-142.123454
3.350000	-0.065491	-49.275124	-55.290942	113.440009	-55.290942	113.440009	-0.183181	-144.275300
3.400000	-0.066596	-49.975360	-54.937627	111.553225	-54.937627	111.553225	-0.186257	-146.431888
3.450000	-0.067712	-50.674309	-54.593179	109.659316	-54.593179	109.659316	-0.189365	-148.593502
3.500000	-0.068838	-51.371962	-54.257323	107.758838	-54.257323	107.758838	-0.192503	-150.760427
3.550000	-0.069975	-52.068312	-53.929803	105.852300	-53.929803	105.852300	-0.195673	-152.932946
3.600000	-0.071124	-52.763352	-53.610380	103.940170	-53.610380	103.940170	-0.198873	-155.111340
3.650000	-0.072284	-53.457076	-53.298830	102.022881	-53.298830	102.022881	-0.202103	-157.295888
3.700000	-0.073456	-54.149476	-52.994946	100.100834	-52.994946	100.100834	-0.205364	-159.486865
3.750000	-0.074640	-54.840548	-52.698535	98.174405	-52.698535	98.174405	-0.208653	-161.684544
3.800000	-0.075838	-55.530257	-52.409368	96.243870	-52.409368	96.243870	-0.211971	-163.889348
3.850000	-0.077048	-56.218625	-52.127338	94.309657	-52.127338	94.309657	-0.215316	-166.101393
3.900000	-0.078272	-56.905649	-51.852291	92.372087	-51.852291	92.372087	-0.218688	-168.320936
3.950000	-0.079509	-57.591324	-51.584079	90.431469	-51.584079	90.431469	-0.222085	-170.548224
4.000000	-0.080760	-58.275645	-51.322568	88.488102	-51.322568	88.488102	-0.225506	-172.783498
4.050000	-0.082026	-58.958610	-51.067633	86.542280	-51.067633	86.542280	-0.228949	-175.026989
4.100000	-0.083306	-59.640213	-50.819158	84.594293	-50.819158	84.594293	-0.232413	-177.278921
4.150000	-0.084602	-60.320453	-50.577034	82.644430	-50.577034	82.644430	-0.235896	-179.539504
4.200000	-0.085913	-60.999326	-50.341163	80.692983	-50.341163	80.692983	-0.239396	178.191060
4.250000	-0.087239	-61.676829	-50.111453	78.740245	-50.111453	78.740245	-0.242911	175.912584
4.300000	-0.088582	-62.352961	-49.887820	76.786514	-49.887820	76.786514	-0.246440	173.624892
4.350000	-0.089941	-63.027718	-49.670187	74.832098	-49.670187	74.832098	-0.249980	171.327825
4.400000	-0.091318	-63.701086	-49.458491	72.877310	-49.458491	72.877310	-0.253528	169.021131
4.450000	-0.092712	-64.373061	-49.252674	70.922488	-49.252674	70.922488	-0.257081	166.704677
4.500000	-0.094124	-65.043659	-49.052671	68.967977	-49.052671	68.967977	-0.260639	164.378458
4.550000	-0.095554	-65.712878	-48.858427	67.014129	-48.858427	67.014129	-0.264196	162.042381
4.600000	-0.097002	-66.380717	-48.669891	65.061314	-48.669891	65.061314	-0.267751	159.696373
4.650000	-0.098470	-67.047177	-48.487019	63.109919	-48.487019	63.109919	-0.271301	157.340383
4.700000	-0.099957	-67.712256	-48.309769	61.160349	-48.309769	61.160349	-0.274842	154.974379
4.750000	-0.101464	-68.375957	-48.138104	59.213031	-48.138104	59.213031	-0.278371	152.598354
4.800000	-0.102991	-69.038278	-47.971990	57.268411	-47.971990	57.268411	-0.281886	150.212322
4.850000	-0.104539	-69.699221	-47.811396	55.326959	-47.811396	55.326959	-0.285382	147.816322
4.900000	-0.106108	-70.358786	-47.656293	53.389170	-47.656293	53.389170	-0.288856	145.410420
4.950000	-0.107698	-71.016976	-47.506657	51.455562	-47.506657	51.455562	-0.292305	142.994705
5.000000	-0.109311	-71.673791	-47.362463	49.526681	-47.362463	49.526681	-0.295725	140.569294
5.050000	-0.110946	-72.329203	-47.223760	47.603229	-47.223760	47.603229	-0.299113	138.134129
5.100000	-0.112604	-72.983245	-47.090463	45.685707	-47.090463	45.685707	-0.302464	135.689595
5.150000	-0.114286	-73.635918	-46.962551	43.774749	-46.962551	43.774749	-0.305776	133.235895
5.200000	-0.115991	-74.287225	-46.840004	41.871018	-46.840004	41.871018	-0.309046	130.773261
5.250000	-0.117720	-74.937169	-46.722802	39.975210	-46.722802	39.975210	-0.312269	128.301955
5.300000	-0.119474	-75.585753	-46.610925	38.088052	-46.610925	38.088052	-0.315443	125.822268
5.350000	-0.121252	-76.232979	-46.504351	36.210306	-46.504351	36.210306	-0.318564	123.334522
5.400000	-0.123056	-76.878853	-46.403059	34.342766	-46.403059	34.342766	-0.321630	120.839068
5.450000	-0.124886	-77.523376	-46.307024	32.486263	-46.307024	32.486263	-0.324637	118.336286
5.500000	-0.126741	-78.166554	-46.216222	30.641661	-46.216222	30.641661	-0.327582	115.826586
5.550000	-0.128624	-78.808390	-46.130623	28.809861	-46.130623	28.809861	-0.330464	113.310408
5.600000	-0.130533	-79.448889	-46.050196	26.991800	-46.050196	26.991800	-0.333279	110.788219
5.650000	-0.132470	-80.088042	-45.974955	25.188624	-45.974955	25.188624	-0.336024	108.260462
5.700000	-0.134434	-80.725853	-45.904863	23.401380	-45.904863	23.401380	-0.338699	105.727677
5.750000	-0.136427	-81.362341	-45.839826	21.630960	-45.839826	21.630960	-0.341301	103.190475
5.800000	-0.138448	-81.997514	-45.779795	19.878451	-45.779795	19.878451	-0.343830	100.649431
5.850000	-0.140498	-82.631376	-45.724713	18.144980	-45.724713	18.144980	-0.346284	98.105144
5.900000	-0.142578	-83.263932	-45.674518	16.431709	-45.674518	16.431709	-0.348663	95.558236
5.950000	-0.144687	-83.895191	-45.629141	14.739838	-45.629141	14.739838	-0.350966	93.009348
6.000000	-0.146826	-84.525157	-45.588503	13.070600	-45.588503	13.070600	-0.353194	90.459141
6.050000	-0.148995	-85.153837	-45.552516	11.425265	-45.552516	11.425265	-0.355347	87.908292
6.100000	-0.151195	-85.781239	-45.521084	9.805134	-45.521084	9.805134	-0.357425	85.357496
6.150000	-0.153426	-86.407369	-45.494100	8.211539	-45.494100	8.211539	-0.359430	82.807458
6.200000	-0.155688	-87.032234	-45.471443	6.645841	-45.471443	6.645841	-0.361363	80.258895
6.250000	-0.157982	-87.655843	-45.452981	5.109427	-45.452981	5.109427	-0.363226	77.712536
6.300000	-0.160309	-88.278176	-45.438653	3.604405	-45.438653	3.604405	-0.365020	75.169194
6.350000	-0.162669	-88.899269	-45.428206	2.131563	-45.428206	2.131563	-0.366748	72.629561
6.400000	-0.165061	-89.519129	-45.421462	0.692338	-45.421462	0.692338	-0.368415	70.094377
6.450000	-0.167487	-90.137766	-45.418225	-0.711829	-45.418225	-0.711829	-0.370022	67.564382
6.500000	-0.169946	-90.755187	-45.418282	-2.079501	-45.418282	-2.079501	-0.371575	65.040314
6.550000	-0.172439	-91.371401	-45.421398	-3.409254	-45.421398	-3.409254	-0.373076	62.522908
6.600000	-0.174967	-91.986419	-45.427319	-4.699687	-45.427319	-4.699687	-0.374530	60.012889
6.650000	-0.177529	-92.600248	-45.435770	-5.949433	-45.435770	-5.949433	-0.375943	57.510974
6.700000	-0.180126	-93.212899	-45.446452	-7.157176	-45.446452	-7.157176	-0.377317	55.017870
6.750000	-0.182758	-93.824381	-45.459043	-8.321661	-45.459043	-8.321661	-0.378659	52.534269
6.800000	-0.185427	-94.434703	-45.473197	-9.441718	-45.473197	-9.441718	-0.379975	50.060849
6.850000	-0.188131	-95.043877	-45.488541	-10.516276	-45.488541	-10.516276	-0.381268	47.598271
6.900000	-0.190872	-95.651900	-45.504686	-11.543869	-45.504686	-11.543869	-0.382545	45.147309
6.950000	-0.193650	-96.258782	-45.521194	-12.523671	-45.521194	-12.523671	-0.383813	42.708604
7.000000	-0.196465	-96.864547	-45.537612	-13.455562	-45.537612	-13.455562	-0.385076	40.282630
7.050000	-0.199318	-97.469206	-45.553472	-14.339112	-45.553472	-14.339112	-0.386342	37.869963
7.100000	-0.202208	-98.072769	-45.568285	-15.174111	-45.568285	-15.174111	-0.387615	35.471152
7.150000	-0.205137	-98.675247	-45.581546	-15.960599	-45.581546	-15.960599	-0.388903	33.086722
7.200000	-0.208104	-99.276653	-45.592732	-16.698885	-45.592732	-16.698885	-0.390211	30.717173
7.250000	-0.211110	-99.876996	-45.601311	-17.389576	-45.601311	-17.389576	-0.391546	28.362977
7.300000	-0.214156	-100.476290	-45.606743	-18.033595	-45.606743	-18.033595	-0.392913	26.024576
7.350000	-0.217240	-101.074545	-45.608489	-18.632204	-45.608489	-18.632204	-0.394319	23.702387
7.400000	-0.220365	-101.671775	-45.606015	-19.187010	-45.606015	-19.187010	-0.395769	21.396798
7.450000	-0.223530	-102.267990	-45.598797	-19.699981	-45.598797	-19.699981	-0.397270	19.108167
7.500000	-0.226735	-102.863203	-45.586331	-20.173442	-45.586331	-20.173442	-0.398826	16.836824
7.550000	-0.229982	-103.457405	-45.568004	-20.609342	-45.568004	-20.609342	-0.400446	14.583459
7.600000	-0.233270	-104.050631	-45.543490	-21.011584	-45.543490	-21.011584	-0.402133	12.347967
7.650000	-0.236600	-104.642893	-45.512389	-21.383521	-45.512389	-21.383521	-0.403893	10.130590
7.700000	-0.239972	-105.234205	-45.474351	-21.728791	-45.474351	-21.728791	-0.405731	7.931544
7.750000	-0.243386	-105.824579	-45.429082	-22.051271	-45.429082	-22.051271	-0.407651	5.751016
7.800000	-0.246843	-106.414028	-45.376346	-22.355033	-45.376346	-22.355033	-0.409660	3.589166
7.850000	-0.250342	-107.002567	-45.315973	-22.644290	-45.315973	-22.644290	-0.411760	1.446129
7.900000	-0.253884	-107.590207	-45.247862	-22.923336	-45.247862	-22.923336	-0.413957	-0.677986
7.950000	-0.257470	-108.176963	-45.171977	-23.196489	-45.171977	-23.196489	-0.416254	-2.783095
8.000000	-0.261100	-108.762849	-45.088351	-23.468031	-45.088351	-23.468031	-0.418656	-4.869138
8.050000	-0.264774	-109.347879	-44.997084	-23.742142	-44.997084	-23.742142	-0.421167	-6.936077
8.100000	-0.268492	-109.932066	-44.898337	-24.022855	-44.898337	-24.022855	-0.423790	-8.983898
8.150000	-0.272256	-110.515415	-44.792240	-24.314148	-44.792240	-24.314148	-0.426530	-11.012398
8.200000	-0.276065	-111.097942	-44.679068	-24.619714	-44.679068	-24.619714	-0.429390	-13.021607
8.250000	-0.279919	-111.679671	-44.559233	-24.942714	-44.559233	-24.942714	-0.432371	-15.011779
8.300000	-0.283819	-112.260614	-44.433094	-25.286110	-44.433094	-25.286110	-0.435478	-16.982980
8.350000	-0.287764	-112.840788	-44.301037	-25.652532	-44.301037	-25.652532	-0.438711	-18.935295
8.400000	-0.291756	-113.420208	-44.163473	-26.044273	-44.163473	-26.044273	-0.442075	-20.868821
8.450000	-0.295794	-113.998887	-44.020829	-26.463279	-44.020829	-26.463279	-0.445570	-22.783676
8.500000	-0.299879	-114.576841	-43.873539	-26.911163	-43.873539	-26.911163	-0.449199	-24.679989
8.550000	-0.304013	-115.154056	-43.721761	-27.390576	-43.721761	-27.390576	-0.452971	-26.557113
8.600000	-0.308191	-115.730615	-43.566567	-27.899439	-43.566567	-27.899439	-0.456873	-28.416991
8.650000	-0.312417	-116.306495	-43.408016	-28.440107	-43.408016	-28.440107	-0.460914	-30.258793
8.700000	-0.316691	-116.881711	-43.246520	-29.013009	-43.246520	-29.013009	-0.465096	-32.082699
8.750000	-0.321012	-117.456280	-43.082476	-29.618329	-43.082476	-29.618329	-0.469421	-33.888900
8.800000	-0.325383	-118.030197	-42.916098	-30.257082	-42.916098	-30.257082	-0.473893	-35.677032
8.850000	-0.329803	-118.603499	-42.747924	-30.927968	-42.747924	-30.927968	-0.478510	-37.447883
8.900000	-0.334271	-119.176203	-42.578287	-31.630584	-42.578287	-31.630584	-0.483273	-39.201669
8.950000	-0.338787	-119.748325	-42.407497	-32.364386	-42.407497	-32.364386	-0.488182	-40.938617
9.000000	-0.343353	-120.319882	-42.235840	-33.128718	-42.235840	-33.128718	-0.493238	-42.658956
9.050000	-0.347968	-120.890889	-42.063579	-33.922830	-42.063579	-33.922830	-0.498441	-44.362927
9.100000	-0.352632	-121.461364	-41.890953	-34.745899	-41.890953	-34.745899	-0.503794	-46.050771
9.150000	-0.357345	-122.031324	-41.718178	-35.597044	-41.718178	-35.597044	-0.509295	-47.722738
9.200000	-0.362113	-122.600738	-41.545134	-36.477923	-41.545134	-36.477923	-0.514959	-49.377573
9.250000	-0.366927	-123.169715	-41.372609	-37.382614	-41.372609	-37.382614	-0.520760	-51.018408
9.300000	-0.371790	-123.738228	-41.200460	-38.312537	-41.200460	-38.312537	-0.526711	-52.644140
9.350000	-0.376704	-124.306295	-41.028823	-39.266733	-41.028823	-39.266733	-0.532811	-54.255034
9.400000	-0.381667	-124.873934	-40.857815	-40.244249	-40.857815	-40.244249	-0.539061	-55.851353
9.450000	-0.386681	-125.441162	-40.687538	-41.244150	-40.687538	-41.244150	-0.545462	-57.433366
9.500000	-0.391745	-126.007997	-40.518079	-42.265521	-40.518079	-42.265521	-0.552012	-59.001342
9.550000	-0.396860	-126.574457	-40.349512	-43.307474	-40.349512	-43.307474	-0.558711	-60.555552
9.600000	-0.402025	-127.140561	-40.181897	-44.369154	-40.181897	-44.369154	-0.565561	-62.096267
9.650000	-0.407241	-127.706326	-40.015283	-45.449740	-40.015283	-45.449740	-0.572559	-63.623759
9.700000	-0.412508	-128.271772	-39.849711	-46.548451	-39.849711	-46.548451	-0.579707	-65.138304
9.750000	-0.417825	-128.836916	-39.685209	-47.664546	-39.685209	-47.664546	-0.587003	-66.640172
9.800000	-0.423193	-129.401779	-39.521799	-48.797325	-39.521799	-48.797325	-0.594448	-68.129639
9.850000	-0.428611	-129.966377	-39.359497	-49.946133	-39.359497	-49.946133	-0.602041	-69.606978
9.900000	-0.434081	-130.530732	-39.198308	-51.110356	-39.198308	-51.110356	-0.609782	-71.072461
9.950000	-0.439601	-131.094862	-39.038236	-52.289428	-39.038236	-52.289428	-0.617669	-72.526361
10.000000	-0.445171	-131.658786	-38.879276	-53.482825	-38.879276	-53.482825	-0.625704	-73.968951
