! freq	dB(S11)	phase(S11)	dB(S12)	phase(S12)	
!     	dB(S21)	phase(S21)	dB(S22)	phase(S22)	
!S-par simulation data
#  GHz  S  DB  R 50
0.000000	-84.657111	0.000000	-0.000508	0.000000	-0.000508	0.000000	-84.657111	0.000000
0.050000	-43.233469	-91.581106	-0.004457	-2.522747	-0.004457	-2.522747	-43.232197	-91.498282
0.100000	-37.294268	-94.350212	-0.009999	-5.012093	-0.009999	-5.012093	-37.293689	-94.194288
0.150000	-33.838466	-97.132907	-0.014663	-7.490323	-0.014663	-7.490323	-33.837913	-96.902567
0.200000	-31.395442	-99.887684	-0.019153	-9.965432	-0.019153	-9.965432	-31.394871	-99.580875
0.250000	-29.513546	-102.596192	-0.023828	-12.438047	-0.023828	-12.438047	-29.513036	-102.211829
0.300000	-27.990681	-105.263404	-0.028774	-14.908163	-0.028774	-14.908163	-27.990297	-104.801031
0.350000	-26.718000	-107.897550	-0.033971	-17.375918	-0.033971	-17.375918	-26.717774	-107.356919
0.400000	-25.630972	-110.504465	-0.039389	-19.841446	-0.039389	-19.841446	-25.630916	-109.885375
0.450000	-24.690152	-113.087635	-0.045013	-22.304746	-0.045013	-22.304746	-24.690271	-112.389849
0.500000	-23.865132	-115.653149	-0.050798	-24.766133	-0.050798	-24.766133	-23.865420	-114.876395
0.550000	-23.135442	-118.204350	-0.056715	-27.225730	-0.056715	-27.225730	-23.135893	-117.348297
0.600000	-22.486752	-120.743662	-0.062735	-29.683587	-0.062735	-29.683587	-22.487363	-119.807897
0.650000	-21.909137	-123.273031	-0.068828	-32.139695	-0.068828	-32.139695	-21.909906	-122.257036
0.700000	-21.392082	-125.794957	-0.074949	-34.594234	-0.074949	-34.594234	-21.393009	-124.698167
0.750000	-20.928777	-128.310819	-0.081064	-37.047265	-0.081064	-37.047265	-20.929865	-127.132591
0.800000	-20.515191	-130.821576	-0.087128	-39.498787	-0.087128	-39.498787	-20.516448	-129.561145
0.850000	-20.146478	-133.328405	-0.093098	-41.948933	-0.093098	-41.948933	-20.147912	-131.984926
0.900000	-19.818779	-135.832205	-0.098934	-44.397842	-0.098934	-44.397842	-19.820402	-134.404749
0.950000	-19.529432	-138.333693	-0.104591	-46.845656	-0.104591	-46.845656	-19.531259	-136.821224
1.000000	-19.276167	-140.833523	-0.110031	-49.292557	-0.110031	-49.292557	-19.278212	-139.234896
1.050000	-19.057168	-143.332290	-0.115214	-51.738761	-0.115214	-51.738761	-19.059450	-141.646235
1.100000	-18.871012	-145.830546	-0.120105	-54.184520	-0.120105	-54.184520	-18.873551	-144.055662
1.150000	-18.716619	-148.328824	-0.124672	-56.630119	-0.124672	-56.630119	-18.719438	-146.463558
1.200000	-18.593218	-150.827642	-0.128885	-59.075880	-0.128885	-59.075880	-18.596341	-148.870273
1.250000	-18.500322	-153.327519	-0.132719	-61.522159	-0.132719	-61.522159	-18.503776	-151.276133
1.300000	-18.438373	-155.829027	-0.136146	-63.969375	-0.136146	-63.969375	-18.442190	-153.681438
1.350000	-18.406798	-158.332683	-0.139157	-66.417936	-0.139157	-66.417936	-18.411011	-156.086491
1.400000	-18.405927	-160.839048	-0.141743	-68.868292	-0.141743	-68.868292	-18.410574	-158.491551
1.450000	-18.436378	-163.348707	-0.143897	-71.320917	-0.143897	-71.320917	-18.441501	-160.896853
1.500000	-18.499076	-165.862276	-0.145622	-73.776303	-0.145622	-73.776303	-18.504722	-163.302595
1.550000	-18.595286	-168.380406	-0.146922	-76.234963	-0.146922	-76.234963	-18.601510	-165.708928
1.600000	-18.726662	-170.903794	-0.147810	-78.697421	-0.147810	-78.697421	-18.733525	-168.115941
1.650000	-18.895308	-173.433189	-0.148304	-81.164213	-0.148304	-81.164213	-18.902884	-170.523642
1.700000	-19.103869	-175.969408	-0.148431	-83.635877	-0.148431	-83.635877	-19.112242	-172.931925
1.750000	-19.355642	-178.513352	-0.148221	-86.112954	-0.148221	-86.112954	-19.364915	-175.340535
1.800000	-19.654743	178.933965	-0.147714	-88.595979	-0.147714	-88.595979	-19.665038	-177.749011
1.850000	-20.006324	176.371373	-0.146955	-91.085480	-0.146955	-91.085480	-20.017789	179.843397
1.900000	-20.417365	173.797349	-0.145996	-93.582055	-0.145996	-93.582055	-20.430187	177.437880
1.950000	-20.896248	171.210126	-0.144899	-96.086215	-0.144899	-96.086215	-20.910660	175.036255
2.000000	-21.453287	168.607624	-0.143734	-98.598358	-0.143734	-98.598358	-21.469590	172.641174
2.050000	-22.102718	165.986892	-0.142576	-101.118928	-0.142576	-101.118928	-22.121307	170.256683
2.100000	-22.863825	163.343754	-0.141505	-103.648337	-0.141505	-103.648337	-22.885235	167.889041
2.150000	-23.763572	160.671946	-0.140612	-106.186959	-0.140612	-106.186959	-23.788550	165.548256
2.200000	-24.841210	157.961395	-0.139989	-108.735127	-0.139989	-108.735127	-24.870848	163.251122
2.250000	-26.157007	155.194489	-0.139738	-111.293124	-0.139738	-111.293124	-26.192985	161.027805
2.300000	-27.810433	152.336952	-0.139964	-113.861184	-0.139964	-113.861184	-27.855522	158.937996
2.350000	-29.983634	149.311297	-0.140780	-116.439484	-0.140780	-116.439484	-30.042879	157.118047
2.400000	-33.069201	145.895943	-0.142300	-119.028140	-0.142300	-119.028140	-33.153115	155.961170
2.450000	-38.210674	141.087933	-0.144645	-121.627202	-0.144645	-121.627202	-38.343635	157.265858
2.500000	-53.532326	114.887957	-0.147936	-124.236655	-0.147936	-124.236655	-52.641182	-165.945026
2.550000	-40.869969	-32.705188	-0.152324	-126.856629	-0.152324	-126.856629	-40.487866	-47.352367
2.600000	-33.858175	-39.262054	-0.157915	-129.486732	-0.157915	-129.486732	-33.705491	-43.691061
2.650000	-29.910123	-43.000299	-0.164835	-132.126716	-0.164835	-132.126716	-29.813916	-44.495380
2.700000	-27.126518	-46.187152	-0.173207	-134.776260	-0.173207	-134.776260	-27.055455	-46.241544
2.750000	-24.963318	-49.173673	-0.183156	-137.434960	-0.183156	-137.434960	-24.906402	-48.348363
2.800000	-23.187852	-52.067716	-0.194799	-140.102334	-0.194799	-140.102334	-23.139976	-50.633811
2.850000	-21.678935	-54.913275	-0.208253	-142.777823	-0.208253	-142.777823	-21.637317	-53.022194
2.900000	-20.365373	-57.731431	-0.223627	-145.460789	-0.223627	-145.460789	-20.328331	-55.476150
2.950000	-19.201767	-60.533341	-0.241022	-148.150520	-0.241022	-148.150520	-19.168208	-57.974895
3.000000	-18.157383	-63.325265	-0.260533	-150.846236	-0.260533	-150.846236	-18.126557	-60.505750
3.050000	-17.210447	-66.110806	-0.282246	-153.547087	-0.282246	-153.547087	-17.181815	-63.060372
3.100000	-16.344962	-68.892011	-0.306234	-156.252164	-0.306234	-156.252164	-16.318126	-65.632900
3.150000	-15.548749	-71.669931	-0.332586	-158.960527	-0.332586	-158.960527	-15.523407	-68.219070
3.200000	-14.812500	-74.445016	-0.361355	-161.671128	-0.361355	-161.671128	-14.788415	-70.815357
3.250000	-14.128881	-77.217300	-0.392553	-164.382876	-0.392553	-164.382876	-14.105866	-73.418828
3.300000	-13.491894	-79.986496	-0.426203	-167.094686	-0.426203	-167.094686	-13.469798	-76.027094
3.350000	-12.896650	-82.752226	-0.462248	-169.805511	-0.462248	-169.805511	-12.875350	-78.638024
3.400000	-12.339003	-85.513612	-0.500825	-172.514129	-0.500825	-172.514129	-12.318397	-81.249818
3.450000	-11.815589	-88.270018	-0.541838	-175.219446	-0.541838	-175.219446	-11.795592	-83.860638
3.500000	-11.323493	-91.020626	-0.585253	-177.920342	-0.585253	-177.920342	-11.304031	-86.468866
3.550000	-10.860204	-93.764575	-0.631019	179.384286	-0.631019	179.384286	-10.841218	-89.072987
3.600000	-10.423544	-96.500981	-0.679072	176.695520	-0.679072	176.695520	-10.404980	-91.671579
3.650000	-10.011603	-99.228959	-0.729336	174.014406	-0.729336	174.014406	-9.993416	-94.263304
3.700000	-9.622692	-101.947635	-0.781719	171.341950	-0.781719	171.341950	-9.604842	-96.846909
3.750000	-9.255306	-104.656162	-0.836117	168.679110	-0.836117	168.679110	-9.237758	-99.421221
3.800000	-8.908179	-107.353560	-0.892435	166.026951	-0.892435	166.026951	-8.890902	-101.984986
3.850000	-8.580013	-110.039213	-0.950522	163.386173	-0.950522	163.386173	-8.562980	-104.537337
3.900000	-8.269941	-112.711909	-1.010282	160.758043	-1.010282	160.758043	-8.253129	-107.076845
3.950000	-7.976391	-115.372139	-1.071475	158.142147	-1.071475	158.142147	-7.959778	-109.603822
4.000000	-7.698770	-118.018638	-1.134007	155.539787	-1.134007	155.539787	-7.682336	-112.116834
4.050000	-7.436331	-120.650636	-1.197732	152.951773	-1.197732	152.951773	-7.420061	-114.614955
4.100000	-7.187767	-123.268822	-1.262439	150.377467	-1.262439	150.377467	-7.171643	-117.098776
4.150000	-6.953238	-125.870848	-1.328016	147.819242	-1.328016	147.819242	-6.937248	-119.565749
4.200000	-6.730876	-128.459068	-1.394246	145.274792	-1.394246	145.274792	-6.715006	-122.018234
4.250000	-6.521340	-131.030340	-1.460964	142.747292	-1.460964	142.747292	-6.505580	-124.452831
4.300000	-6.322844	-133.587242	-1.528009	140.234199	-1.528009	140.234199	-6.307183	-126.872176
4.350000	-6.135600	-136.127952	-1.595174	137.737379	-1.595174	137.737379	-6.120029	-129.274245
4.400000	-5.958681	-138.653421	-1.662307	135.255915	-1.662307	135.255915	-5.943194	-131.659964
4.450000	-5.791591	-141.163774	-1.729234	132.789722	-1.729234	132.789722	-5.776180	-134.029382
4.500000	-5.634227	-143.658330	-1.795733	130.339535	-1.795733	130.339535	-5.618885	-136.381667
4.550000	-5.485412	-146.139092	-1.861750	127.903371	-1.861750	127.903371	-5.470136	-138.718902
4.600000	-5.345812	-148.603848	-1.926912	125.483535	-1.926912	125.483535	-5.330596	-141.038562
4.650000	-5.213849	-151.055773	-1.991302	123.076841	-1.991302	123.076841	-5.198691	-143.344034
4.700000	-5.090202	-153.492910	-2.054507	120.685360	-2.054507	120.685360	-5.075100	-145.633027
4.750000	-4.973730	-155.917598	-2.116582	118.306749	-2.116582	118.306749	-4.958681	-147.908030
4.800000	-4.864559	-158.329408	-2.177241	115.941526	-2.177241	115.941526	-4.849563	-150.168422
4.850000	-4.762279	-160.729200	-2.236368	113.588876	-2.236368	113.588876	-4.747336	-152.415030
4.900000	-4.666402	-163.118088	-2.293897	111.247719	-2.293897	111.247719	-4.651513	-154.648973
4.950000	-4.577188	-165.495735	-2.349480	108.918507	-2.349480	108.918507	-4.562354	-156.869671
5.000000	-4.493586	-167.864454	-2.403329	106.598877	-2.403329	106.598877	-4.478809	-159.079669
5.050000	-4.416280	-170.223376	-2.454906	104.289882	-2.454906	104.289882	-4.401562	-161.277691
5.100000	-4.344639	-172.574148	-2.504271	101.989868	-2.504271	101.989868	-4.329985	-163.465479
5.150000	-4.278482	-174.917640	-2.551299	99.698021	-2.551299	99.698021	-4.263894	-165.643834
5.200000	-4.217645	-177.254754	-2.595872	97.413489	-2.595872	97.413489	-4.203128	-167.813591
5.250000	-4.161983	-179.586426	-2.637873	95.135388	-2.637873	95.135388	-4.147542	-169.975615
5.300000	-4.111367	178.086377	-2.677191	92.862795	-2.677191	92.862795	-4.097007	-172.130803
5.350000	-4.065687	175.762657	-2.713717	90.594758	-2.713717	90.594758	-4.051412	-174.280079
5.400000	-4.024849	173.441385	-2.747346	88.330288	-2.747346	88.330288	-4.010666	-176.424395
5.450000	-3.988778	171.121500	-2.777976	86.068359	-2.777976	86.068359	-3.974692	-178.564734
5.500000	-3.957417	168.801910	-2.805508	83.807913	-2.805508	83.807913	-3.943432	179.297895
5.550000	-3.930726	166.481491	-2.829848	81.547850	-2.829848	81.547850	-3.916848	177.162453
5.600000	-3.908684	164.159087	-2.850902	79.287034	-2.850902	79.287034	-3.894919	175.027874
5.650000	-3.891290	161.833504	-2.868579	77.024287	-2.868579	77.024287	-3.877643	172.893058
5.700000	-3.878563	159.503515	-2.882794	74.758385	-2.882794	74.758385	-3.865037	170.756878
5.750000	-3.870542	157.167850	-2.893461	72.488058	-2.893461	72.488058	-3.857143	168.618170
5.800000	-3.867291	154.825201	-2.900497	70.211987	-2.900497	70.211987	-3.854021	166.475738
5.850000	-3.868895	152.474213	-2.903824	67.928797	-2.903824	67.928797	-3.855756	164.328350
5.900000	-3.875466	150.113485	-2.903364	65.637053	-2.903364	65.637053	-3.862459	162.174733
5.950000	-3.887143	147.741564	-2.899042	63.335259	-2.899042	63.335259	-3.874269	160.013573
6.000000	-3.904095	145.356940	-2.890788	61.021847	-2.890788	61.021847	-3.891352	157.843513
6.050000	-3.926526	142.958042	-2.878533	58.695174	-2.878533	58.695174	-3.913909	155.663150
6.100000	-3.954672	140.543234	-2.862211	56.353514	-2.862211	56.353514	-3.942177	153.471028
6.150000	-3.988813	138.110810	-2.841763	53.995053	-2.841763	53.995053	-3.976432	151.265643
6.200000	-4.029273	135.658985	-2.817131	51.617877	-2.817131	51.617877	-4.016994	149.045432
6.250000	-4.076425	133.185890	-2.788263	49.219965	-2.788263	49.219965	-4.064235	146.808776
6.300000	-4.131018	130.688458	-2.754919	46.798075	-2.754919	46.798075	-4.118897	144.553123
6.350000	-4.193273	128.165544	-2.717250	44.350823	-2.717250	44.350823	-4.181198	142.277439
6.400000	-4.263770	125.614970	-2.675224	41.875783	-2.675224	41.875783	-4.251712	139.979911
6.450000	-4.343173	123.034448	-2.628823	39.370371	-2.628823	39.370371	-4.331096	137.658666
6.500000	-4.431744	120.423414	-2.578293	36.833740	-2.578293	36.833740	-4.419607	135.313240
6.550000	-4.531224	117.776188	-2.523186	34.259740	-2.523186	34.259740	-4.518972	132.939157
6.600000	-4.642252	115.091474	-2.463726	31.646643	-2.463726	31.646643	-4.629821	130.535486
6.650000	-4.766002	112.366482	-2.399958	28.991111	-2.399958	28.991111	-4.753312	128.100193
6.700000	-4.903592	109.599139	-2.332035	26.290502	-2.332035	26.290502	-4.890547	125.631908
6.750000	-5.057861	106.782051	-2.259630	23.536297	-2.259630	23.536297	-5.044334	123.125333
6.800000	-5.228638	103.919057	-2.183553	20.732024	-2.183553	20.732024	-5.214489	120.583940
6.850000	-5.419847	101.001022	-2.103445	17.866879	-2.103445	17.866879	-5.404885	118.001636
6.900000	-5.633117	98.027778	-2.019790	14.939714	-2.019790	14.939714	-5.617111	115.379355
6.950000	-5.871488	94.996047	-1.932867	11.945617	-1.932867	11.945617	-5.854146	112.716214
7.000000	-6.139857	91.899096	-1.842798	8.875241	-1.842798	8.875241	-6.120786	110.009643
7.050000	-6.439927	88.741437	-1.750434	5.731949	-1.750434	5.731949	-6.418660	107.265264
7.100000	-6.781638	85.508939	-1.655747	2.495607	-1.655747	2.495607	-6.757472	104.478796
7.150000	-7.166118	82.213145	-1.559908	-0.823016	-1.559908	-0.823016	-7.138226	101.661984
7.200000	-7.607251	78.841552	-1.463329	-4.246449	-1.463329	-4.246449	-7.574348	98.818226
7.250000	-8.110686	75.405156	-1.367099	-7.767626	-1.367099	-7.767626	-8.071115	95.963718
7.300000	-8.692992	71.903847	-1.272272	-11.401091	-1.272272	-11.401091	-8.644224	93.120224
7.350000	-9.371179	68.349062	-1.180094	-15.150934	-1.180094	-15.150934	-9.309462	90.321903
7.400000	-10.166073	64.761410	-1.091847	-19.016608	-1.091847	-19.016608	-10.085739	87.618016
7.450000	-11.116525	61.172394	-1.009497	-23.014169	-1.009497	-23.014169	-11.007835	85.108205
7.500000	-12.269839	57.646581	-0.934838	-27.143511	-0.934838	-27.143511	-12.115856	82.944287
7.550000	-13.704559	54.311213	-0.870184	-31.410042	-0.870184	-31.410042	-13.472396	81.424171
7.600000	-15.549743	51.430922	-0.817809	-35.813638	-0.817809	-35.813638	-15.168430	81.116226
7.650000	-18.051365	49.669629	-0.780284	-40.354099	-0.780284	-40.354099	-17.339447	83.294160
7.700000	-21.756371	51.228708	-0.760338	-45.028814	-0.760338	-45.028814	-20.126954	91.172701
7.750000	-28.005426	68.703733	-0.760796	-49.832368	-0.760796	-49.832368	-23.124738	112.561220
7.800000	-30.032680	148.732632	-0.784444	-54.756046	-0.784444	-54.756046	-23.465414	149.564074
7.850000	-22.645103	178.593370	-0.833945	-59.787833	-0.833945	-59.787833	-20.378560	175.153203
7.900000	-18.116689	-178.591225	-0.912593	-64.914787	-0.912593	-64.914787	-17.127879	-175.516432
7.950000	-15.064972	179.528354	-1.021534	-70.115349	-1.021534	-70.115349	-14.525698	-173.132557
8.000000	-12.787754	175.984322	-1.163391	-75.370463	-1.163391	-75.370463	-12.449376	-173.926313
8.050000	-10.990333	171.702351	-1.338678	-80.656182	-1.338678	-80.656182	-10.758589	-176.281093
8.100000	-9.523353	167.027373	-1.548409	-85.948903	-1.548409	-85.948903	-9.354883	-179.521551
8.150000	-8.300548	162.139831	-1.792302	-91.224640	-1.792302	-91.224640	-8.172875	176.717797
8.200000	-7.267428	157.143490	-2.069677	-96.460484	-2.069677	-96.460484	-7.167721	172.643237
8.250000	-6.387166	152.105981	-2.379473	-101.634934	-2.379473	-101.634934	-6.307540	168.383132
8.300000	-5.632164	147.075099	-2.719720	-106.730598	-2.719720	-106.730598	-5.567532	164.026257
8.350000	-4.983033	142.085947	-3.088754	-111.730113	-3.088754	-111.730113	-4.929913	159.631691
8.400000	-4.422236	137.161994	-3.484032	-116.624390	-3.484032	-116.624390	-4.378202	155.242689
8.450000	-3.938315	132.323999	-3.903508	-121.400502	-3.903508	-121.400502	-3.901577	150.890582
8.500000	-3.518752	127.580869	-4.344796	-126.057171	-4.344796	-126.057171	-3.487994	146.595025
8.550000	-3.155649	122.943347	-4.805710	-130.587636	-4.805710	-130.587636	-3.129851	142.372290
8.600000	-2.841392	118.416612	-5.284008	-134.990125	-5.284008	-134.990125	-2.819755	138.232532
8.650000	-2.566981	113.993497	-5.778816	-139.275332	-5.778816	-139.275332	-2.548897	134.174138
8.700000	-2.328962	109.680438	-6.287924	-143.437547	-6.287924	-143.437547	-2.313916	130.204816
8.750000	-2.122373	105.474996	-6.809816	-147.480439	-6.809816	-147.480439	-2.109943	126.324494
8.800000	-1.941896	101.368176	-7.344460	-151.414288	-7.344460	-151.414288	-1.931742	122.526783
8.850000	-1.784138	97.355559	-7.891325	-155.243908	-7.891325	-155.243908	-1.775971	118.808560
8.900000	-1.647280	93.438407	-8.448231	-158.967456	-8.448231	-158.967456	-1.640839	115.171194
8.950000	-1.527647	89.605952	-9.016207	-162.596146	-9.016207	-162.596146	-1.522712	111.605570
9.000000	-1.422800	85.851227	-9.595847	-166.136851	-9.595847	-166.136851	-1.419181	108.105592
9.050000	-1.331033	82.169740	-10.187170	-169.593514	-10.187170	-169.593514	-1.328554	104.667129
9.100000	-1.251368	78.560494	-10.788581	-172.965657	-10.788581	-172.965657	-1.249862	101.288798
9.150000	-1.181517	75.012587	-11.403117	-176.264305	-11.403117	-176.264305	-1.180836	97.960904
9.200000	-1.120349	71.521328	-12.031734	-179.493255	-12.031734	-179.493255	-1.120357	94.678945
9.250000	-1.067152	68.084190	-12.674290	177.346630	-12.674290	177.346630	-1.067711	91.440083
9.300000	-1.021050	64.696811	-13.331767	174.252569	-13.331767	174.252569	-1.022028	88.239918
9.350000	-0.980963	61.352571	-14.007481	171.218626	-14.007481	171.218626	-0.982238	85.072397
9.400000	-0.946292	58.047811	-14.703411	168.242758	-14.703411	168.242758	-0.947744	81.933841
9.450000	-0.916825	54.781386	-15.419341	165.327327	-15.419341	165.327327	-0.918329	78.822295
9.500000	-0.891842	51.547930	-16.159642	162.468474	-16.159642	162.468474	-0.893281	75.732826
9.550000	-0.870880	48.343759	-16.928314	159.664707	-16.928314	159.664707	-0.872142	72.661879
9.600000	-0.853662	45.166375	-17.728885	156.916919	-17.728885	156.916919	-0.854638	69.606751
9.650000	-0.840403	42.016364	-18.559743	154.235383	-18.559743	154.235383	-0.840969	66.566221
9.700000	-0.830102	38.885902	-19.435878	151.609372	-19.435878	151.609372	-0.830166	63.534919
9.750000	-0.822913	35.775064	-20.360194	149.048889	-20.360194	149.048889	-0.822375	60.511693
9.800000	-0.818698	32.681831	-21.341180	146.560650	-21.341180	146.560650	-0.817467	57.494365
9.850000	-0.817353	29.604369	-22.389648	144.154617	-22.389648	144.154617	-0.815345	54.480947
9.900000	-0.818804	26.541024	-23.519683	141.845601	-23.519683	141.845601	-0.815943	51.469634
9.950000	-0.823002	23.490312	-24.750110	139.655995	-24.750110	139.655995	-0.819224	48.458799
10.000000	-0.829923	20.450912	-26.106910	137.620664	-26.106910	137.620664	-0.825175	45.446991
