! freq	dB(S11)	phase(S11)	dB(S12)	phase(S12)	
!     	dB(S21)	phase(S21)	dB(S22)	phase(S22)	
!S-par simulation data
#  GHz  S  DB  R 50
0.000000	-87.162274	0.000000	-0.000381	0.000000	-0.000381	0.000000	-87.162274	0.000000
0.050000	-32.849227	-92.740819	-0.004896	-2.944987	-0.004896	-2.944987	-32.851309	-93.185587
0.100000	-26.848393	-95.627894	-0.017051	-5.873165	-0.017051	-5.873165	-26.851218	-96.515706
0.150000	-23.357082	-98.443816	-0.034464	-8.780499	-0.034464	-8.780499	-23.360791	-99.772514
0.200000	-20.897706	-101.210587	-0.055680	-11.670638	-0.055680	-11.670638	-20.902187	-102.979060
0.250000	-19.005486	-103.935483	-0.080141	-14.547667	-0.080141	-14.547667	-19.010509	-106.144270
0.300000	-17.473391	-106.624142	-0.107814	-17.413010	-0.107814	-17.413010	-17.478739	-109.275240
0.350000	-16.190968	-109.281748	-0.138760	-20.266393	-0.138760	-20.266393	-16.196492	-112.378188
0.400000	-15.092102	-111.912611	-0.172958	-23.106887	-0.172958	-23.106887	-15.097722	-115.458011
0.450000	-14.134709	-114.518947	-0.210413	-25.932899	-0.210413	-25.932899	-14.140401	-118.517385
0.500000	-13.289643	-117.102500	-0.250985	-28.743198	-0.250985	-28.743198	-13.295416	-121.558303
0.550000	-12.536340	-119.663803	-0.294536	-31.536444	-0.294536	-31.536444	-12.542224	-124.581587
0.600000	-11.859702	-122.202714	-0.340904	-34.311320	-0.340904	-34.311320	-11.865732	-127.587432
0.650000	-11.247883	-124.719227	-0.389850	-37.067071	-0.389850	-37.067071	-11.254096	-130.576101
0.700000	-10.692038	-127.212562	-0.441179	-39.802602	-0.441179	-39.802602	-10.698468	-133.547258
0.750000	-10.184774	-129.682380	-0.494637	-42.517427	-0.494637	-42.517427	-10.191453	-136.500929
0.800000	-9.720183	-132.128195	-0.549977	-45.211088	-0.549977	-45.211088	-9.727135	-139.437058
0.850000	-9.293586	-134.549217	-0.606970	-47.882981	-0.606970	-47.882981	-9.300833	-142.355421
0.900000	-8.900653	-136.945474	-0.665346	-50.533298	-0.665346	-50.533298	-8.908212	-145.256426
0.950000	-8.538071	-139.316421	-0.724872	-53.161795	-0.724872	-53.161795	-8.545958	-148.140125
1.000000	-8.202950	-141.661704	-0.785306	-55.768449	-0.785306	-55.768449	-8.211178	-151.006772
1.050000	-7.892623	-143.981416	-0.846410	-58.353657	-0.846410	-58.353657	-7.901204	-153.856964
1.100000	-7.604867	-146.275534	-0.907959	-60.917749	-0.907959	-60.917749	-7.613812	-156.691277
1.150000	-7.337729	-148.544122	-0.969735	-63.461158	-0.969735	-63.461158	-7.347051	-159.510391
1.200000	-7.089487	-150.787326	-1.031532	-65.984409	-1.031532	-65.984409	-7.099198	-162.315087
1.250000	-6.858610	-153.005365	-1.093153	-68.488111	-1.093153	-68.488111	-6.868725	-165.106243
1.300000	-6.643894	-155.198119	-1.154397	-70.972651	-1.154397	-70.972651	-6.654431	-167.884630
1.350000	-6.443941	-157.366343	-1.215101	-73.439101	-1.215101	-73.439101	-6.454920	-170.651516
1.400000	-6.257651	-159.510426	-1.275103	-75.888270	-1.275103	-75.888270	-6.269095	-173.408016
1.450000	-6.084030	-161.630801	-1.334252	-78.321017	-1.334252	-78.321017	-6.095967	-176.155311
1.500000	-5.922182	-163.727933	-1.392409	-80.738243	-1.392409	-80.738243	-5.934641	-178.894637
1.550000	-5.771289	-165.802312	-1.449447	-83.140884	-1.449447	-83.140884	-5.784305	178.372713
1.600000	-5.630609	-167.854450	-1.505249	-85.529909	-1.505249	-85.529909	-5.644222	175.645403
1.650000	-5.499464	-169.884873	-1.559711	-87.906310	-1.559711	-87.906310	-5.513718	172.922052
1.700000	-5.377234	-171.894116	-1.612738	-90.271100	-1.612738	-90.271100	-5.392178	170.201240
1.750000	-5.263351	-173.882716	-1.664245	-92.625308	-1.664245	-92.625308	-5.279038	167.481514
1.800000	-5.157293	-175.851211	-1.714160	-94.969974	-1.714160	-94.969974	-5.173783	164.761388
1.850000	-5.058580	-177.800132	-1.762418	-97.306149	-1.762418	-97.306149	-5.075938	162.039347
1.900000	-4.966830	-179.729800	-1.808943	-99.634818	-1.808943	-99.634818	-4.985128	159.313795
1.950000	-4.881628	178.359257	-1.853689	-101.957077	-1.853689	-101.957077	-4.900942	156.583113
2.000000	-4.802531	176.466339	-1.896643	-104.274065	-1.896643	-104.274065	-4.822943	153.845747
2.050000	-4.729190	174.590972	-1.937778	-106.586840	-1.937778	-106.586840	-4.750789	151.100086
2.100000	-4.661279	172.732702	-1.977075	-108.896456	-1.977075	-108.896456	-4.684159	148.344500
2.150000	-4.598496	170.891099	-2.014523	-111.203965	-2.014523	-111.203965	-4.622758	145.577339
2.200000	-4.540557	169.065755	-2.050121	-113.510409	-2.050121	-113.510409	-4.566308	142.796935
2.250000	-4.487196	167.256293	-2.083873	-115.816827	-2.083873	-115.816827	-4.514550	140.001603
2.300000	-4.438164	165.462359	-2.115793	-118.124247	-2.115793	-118.124247	-4.467241	137.189644
2.350000	-4.393225	163.683630	-2.145901	-120.433690	-2.145901	-120.433690	-4.424153	134.359341
2.400000	-4.352154	161.919811	-2.174223	-122.746166	-2.174223	-122.746166	-4.385069	131.508964
2.450000	-4.314739	160.170637	-2.200796	-125.062675	-2.200796	-125.062675	-4.349782	128.636770
2.500000	-4.280774	158.435872	-2.225659	-127.384206	-2.225659	-127.384206	-4.318097	125.741005
2.550000	-4.250128	156.715614	-2.248826	-129.711888	-2.248826	-129.711888	-4.289892	122.819313
2.600000	-4.222537	155.009373	-2.270390	-132.046577	-2.270390	-132.046577	-4.264909	119.870432
2.650000	-4.197816	153.317000	-2.290415	-134.389223	-2.290415	-134.389223	-4.242970	116.892583
2.700000	-4.175781	151.638372	-2.308971	-136.740761	-2.308971	-136.740761	-4.223902	113.883985
2.750000	-4.156250	149.973389	-2.326132	-139.102113	-2.326132	-139.102113	-4.207531	110.842857
2.800000	-4.139045	148.321972	-2.341983	-141.474183	-2.341983	-141.474183	-4.193686	107.767423
2.850000	-4.123983	146.684061	-2.356612	-143.857862	-2.356612	-143.857862	-4.182196	104.655916
2.900000	-4.110882	145.059608	-2.370118	-146.254018	-2.370118	-146.254018	-4.172887	101.506585
2.950000	-4.099556	143.448576	-2.382604	-148.663504	-2.382604	-148.663504	-4.165582	98.317699
3.000000	-4.089816	141.850932	-2.394180	-151.087151	-2.394180	-151.087151	-4.160101	95.087556
3.050000	-4.081467	140.266642	-2.404964	-153.525770	-2.404964	-153.525770	-4.156258	91.814490
3.100000	-4.074308	138.695662	-2.415082	-155.980148	-2.415082	-155.980148	-4.153862	88.496881
3.150000	-4.068141	137.138075	-2.424660	-158.451234	-2.424660	-158.451234	-4.152725	85.132651
3.200000	-4.062742	135.593791	-2.433845	-160.939788	-2.433845	-160.939788	-4.152633	81.720257
3.250000	-4.057878	134.062541	-2.442787	-163.446337	-2.442787	-163.446337	-4.153355	78.258795
3.300000	-4.053316	132.544154	-2.451642	-165.971556	-2.451642	-165.971556	-4.154665	74.746958
3.350000	-4.048816	131.038400	-2.460572	-168.516087	-2.460572	-168.516087	-4.156327	71.183552
3.400000	-4.044126	129.544977	-2.469745	-171.080538	-2.469745	-171.080538	-4.158094	67.567512
3.450000	-4.038989	128.063499	-2.479338	-173.665479	-2.479338	-173.665479	-4.159710	63.897923
3.500000	-4.033138	126.593481	-2.489534	-176.271443	-2.489534	-176.271443	-4.160907	60.174035
3.550000	-4.026300	125.134328	-2.500524	-178.898918	-2.500524	-178.898918	-4.161409	56.395284
3.600000	-4.018194	123.685315	-2.512506	178.451649	-2.512506	178.451649	-4.160932	52.561314
3.650000	-4.008539	122.245583	-2.525686	175.779858	-2.525686	175.779858	-4.159184	48.671992
3.700000	-3.997047	120.814118	-2.540274	173.085360	-2.540274	173.085360	-4.155867	44.727430
3.750000	-3.983433	119.389742	-2.556490	170.367855	-2.556490	170.367855	-4.150681	40.728001
3.800000	-3.967355	117.971197	-2.574603	167.626586	-2.574603	167.626586	-4.143270	36.673202
3.850000	-3.948585	116.556786	-2.594811	164.861867	-2.594811	164.861867	-4.133377	32.565191
3.900000	-3.926855	115.144781	-2.617351	162.073567	-2.617351	162.073567	-4.120709	28.405238
3.950000	-3.901915	113.733274	-2.642468	159.261613	-2.642468	159.261613	-4.104985	24.194923
4.000000	-3.873529	112.320172	-2.670411	156.425993	-2.670411	156.425993	-4.085936	19.936140
4.050000	-3.841487	110.903209	-2.701434	153.566754	-2.701434	153.566754	-4.063312	15.631091
4.100000	-3.805599	109.479960	-2.735798	150.684004	-2.735798	150.684004	-4.036888	11.282279
4.150000	-3.765711	108.047852	-2.773767	147.777911	-2.773767	147.777911	-4.006463	6.892498
4.200000	-3.721697	106.604189	-2.815611	144.848702	-2.815611	144.848702	-3.971869	2.464805
4.250000	-3.673468	105.146176	-2.861605	141.896664	-2.861605	141.896664	-3.932973	-1.997497
4.300000	-3.620975	103.670948	-2.912026	138.922140	-2.912026	138.922140	-3.889679	-6.490898
4.350000	-3.564208	102.175597	-2.967160	135.925525	-2.967160	135.925525	-3.841934	-11.011713
4.400000	-3.503148	100.656930	-3.027346	132.907041	-3.027346	132.907041	-3.789672	-15.556335
4.450000	-3.437869	99.111964	-3.092887	129.867202	-3.092887	129.867202	-3.732928	-20.120721
4.500000	-3.368537	97.538135	-3.164030	126.806789	-3.164030	126.806789	-3.671832	-24.700663
4.550000	-3.295307	95.932725	-3.241082	123.726385	-3.241082	123.726385	-3.606506	-29.292217
4.600000	-3.218371	94.293145	-3.324353	120.626610	-3.324353	120.626610	-3.537111	-33.891492
4.650000	-3.137955	92.616965	-3.414165	117.508111	-3.414165	117.508111	-3.463852	-38.494698
4.700000	-3.054315	90.901932	-3.510850	114.371563	-3.510850	114.371563	-3.386964	-43.098183
4.750000	-2.967731	89.145997	-3.614747	111.217656	-3.614747	111.217656	-3.306716	-47.698476
4.800000	-2.878509	87.347321	-3.726215	108.047095	-3.726215	108.047095	-3.223404	-52.292316
4.850000	-2.786968	85.504293	-3.845626	104.860592	-3.845626	104.860592	-3.137346	-56.876685
4.900000	-2.693442	83.615530	-3.973372	101.658862	-3.973372	101.658862	-3.048878	-61.448826
4.950000	-2.598275	81.679876	-4.109870	98.442616	-4.109870	98.442616	-2.958346	-66.006266
5.000000	-2.501811	79.696401	-4.255562	95.212560	-4.255562	95.212560	-2.866108	-70.546826
5.050000	-2.404361	77.663322	-4.411082	91.969118	-4.411082	91.969118	-2.772479	-75.068183
5.100000	-2.306320	75.581183	-4.576795	88.713272	-4.576795	88.713272	-2.677878	-79.569151
5.150000	-2.208024	73.449675	-4.753263	85.445686	-4.753263	85.445686	-2.582659	-84.048481
5.200000	-2.109802	71.268661	-4.941101	82.167011	-4.941101	82.167011	-2.487169	-88.505219
5.250000	-2.011972	69.038157	-5.140986	78.877884	-5.140986	78.877884	-2.391746	-92.938700
5.300000	-1.914837	66.758314	-5.353673	75.578933	-5.353673	75.578933	-2.296716	-97.348535
5.350000	-1.818692	64.429397	-5.580003	72.270784	-5.580003	72.270784	-2.202392	-101.734600
5.400000	-1.723813	62.051769	-5.820921	68.954070	-5.820921	68.954070	-2.109071	-106.097021
5.450000	-1.630465	59.625872	-6.077495	65.629442	-6.077495	65.629442	-2.017038	-110.436160
5.500000	-1.538900	57.152207	-6.350937	62.297592	-6.350937	62.297592	-1.926562	-114.752597
5.550000	-1.449357	54.631321	-6.642634	58.959274	-6.642634	58.959274	-1.837899	-119.047118
5.600000	-1.362061	52.063790	-6.954177	55.615339	-6.954177	55.615339	-1.751292	-123.320694
5.650000	-1.277252	49.449713	-7.287520	52.266737	-7.287520	52.266737	-1.666991	-127.574272
5.700000	-1.195144	46.789709	-7.644819	48.914706	-7.644819	48.914706	-1.585225	-131.809203
5.750000	-1.115920	44.084869	-8.028486	45.560781	-8.028486	45.560781	-1.506188	-136.027159
5.800000	-1.039776	41.335771	-8.441492	42.206840	-8.441492	42.206840	-1.430086	-140.229721
5.850000	-0.966902	38.542970	-8.887380	38.855307	-8.887380	38.855307	-1.357116	-144.418587
5.900000	-0.897489	35.706998	-9.370413	35.509363	-9.370413	35.509363	-1.287476	-148.595553
5.950000	-0.831726	32.828354	-9.895774	32.173254	-9.895774	32.173254	-1.221360	-152.762504
6.000000	-0.769806	29.907508	-10.469854	28.852744	-10.469854	28.852744	-1.158965	-156.921403
6.050000	-0.711927	26.944898	-11.100640	25.555798	-11.100640	25.555798	-1.100490	-161.074274
6.100000	-0.658294	23.940932	-11.798294	22.293654	-11.798294	22.293654	-1.046141	-165.223196
6.150000	-0.609119	20.895988	-12.576006	19.082548	-12.576006	19.082548	-0.996131	-169.370287
6.200000	-0.564627	17.810422	-13.451314	15.946642	-13.451314	15.946642	-0.950684	-173.517693
6.250000	-0.525054	14.684571	-14.448233	12.923206	-14.448233	12.923206	-0.910034	-177.667581
6.300000	-0.490770	11.517899	-15.601410	10.078512	-15.601410	10.078512	-0.874545	178.177730
6.350000	-0.461941	8.311604	-16.961028	7.518378	-16.961028	7.518378	-0.844385	174.016130
6.400000	-0.438856	5.066016	-18.606719	5.447775	-18.606719	5.447775	-0.819840	169.845482
6.450000	-0.421824	1.781484	-20.673386	4.304828	-20.673386	4.304828	-0.801214	165.663680
6.500000	-0.411178	-1.541609	-23.412054	5.211045	-23.412054	5.211045	-0.788836	161.468671
6.550000	-0.407271	-4.902837	-27.324597	11.996678	-27.324597	11.996678	-0.783057	157.258466
6.600000	-0.410486	-8.301708	-32.641673	42.464751	-32.641673	42.464751	-0.784255	153.031156
6.650000	-0.421228	-11.737651	-31.841622	104.295569	-31.841622	104.295569	-0.792832	148.784928
6.700000	-0.439738	-15.209178	-26.404549	129.028036	-26.404549	129.028036	-0.809031	144.518600
6.750000	-0.466949	-18.717530	-22.546889	133.963794	-22.546889	133.963794	-0.833772	140.229354
6.800000	-0.503083	-22.260539	-19.778176	134.193318	-19.778176	134.193318	-0.867282	135.916481
6.850000	-0.548660	-25.837102	-17.635412	132.613602	-17.635412	132.613602	-0.910078	131.578739
6.900000	-0.604226	-29.445930	-15.890808	130.152091	-15.890808	130.152091	-0.962708	127.215076
6.950000	-0.670356	-33.085521	-14.420704	127.189654	-14.420704	127.189654	-1.025747	122.824640
7.000000	-0.747652	-36.754139	-13.151449	123.910495	-13.151449	123.910495	-1.099799	118.406803
7.050000	-0.836741	-40.449786	-12.035942	120.414571	-12.035942	120.414571	-1.185496	113.961168
7.100000	-0.938332	-44.170293	-11.042355	116.760477	-11.042355	116.760477	-1.283553	109.487452
7.150000	-1.053161	-47.913129	-10.148299	112.985698	-10.148299	112.985698	-1.394714	104.985632
7.200000	-1.181811	-51.675136	-9.337462	109.116694	-9.337462	109.116694	-1.519574	100.456353
7.250000	-1.325013	-55.453079	-8.597579	105.171196	-8.597579	105.171196	-1.658879	95.900200
7.300000	-1.483406	-59.243268	-7.919204	101.163017	-7.919204	101.163017	-1.813287	91.318230
7.350000	-1.657720	-63.041789	-7.294934	97.102599	-7.294934	97.102599	-1.983550	86.711556
7.400000	-1.848993	-66.844351	-6.719054	92.997728	-6.719054	92.997728	-2.170738	82.081002
7.450000	-2.057809	-70.646031	-6.186742	88.856623	-6.186742	88.856623	-2.375471	77.428455
7.500000	-2.284827	-74.441737	-5.693996	84.686111	-5.693996	84.686111	-2.598451	72.755774
7.550000	-2.530836	-78.226026	-5.237527	80.492086	-5.237527	80.492086	-2.840521	68.064716
7.600000	-2.796813	-81.992711	-4.814725	76.279851	-4.814725	76.279851	-3.102730	63.356880
7.650000	-3.083582	-85.735164	-4.423255	72.054805	-4.423255	72.054805	-3.385991	58.634130
7.700000	-3.391787	-89.446940	-4.060836	67.822147	-4.060836	67.822147	-3.691043	53.898454
7.750000	-3.722316	-93.120851	-3.725617	63.586564	-3.725617	63.586564	-4.018899	49.151406
7.800000	-4.076163	-96.748825	-3.416033	59.352579	-3.416033	59.352579	-4.370716	44.394228
7.850000	-4.454438	-100.321243	-3.130831	55.124742	-3.130831	55.124742	-4.747821	39.627735
7.900000	-4.857968	-103.830134	-2.868290	50.907059	-2.868290	50.907059	-5.151267	34.852597
7.950000	-5.287927	-107.265579	-2.627117	46.703336	-2.627117	46.703336	-5.582534	30.068616
8.000000	-5.745610	-110.616610	-2.406106	42.517136	-2.406106	42.517136	-6.043310	25.274811
8.050000	-6.232518	-113.867575	-2.204525	38.352492	-2.204525	38.352492	-6.535659	20.468756
8.100000	-6.750115	-117.006659	-2.020882	34.211918	-2.020882	34.211918	-7.061652	15.647357
8.150000	-7.300239	-120.017538	-1.854126	30.098116	-1.854126	30.098116	-7.623973	10.805637
8.200000	-7.884985	-122.880872	-1.703270	26.013523	-1.703270	26.013523	-8.225839	5.936531
8.250000	-8.506565	-125.569040	-1.567636	21.961030	-1.567636	21.961030	-8.871056	1.029131
8.300000	-9.167605	-128.054436	-1.446134	17.942149	-1.446134	17.942149	-9.564284	-3.930315
8.350000	-9.871131	-130.302713	-1.337784	13.958162	-1.337784	13.958162	-10.311356	-8.960390
8.400000	-10.620406	-132.268654	-1.241758	10.010359	-1.241758	10.010359	-11.119525	-14.087091
8.450000	-11.418488	-133.888435	-1.157411	6.100326	-1.157411	6.100326	-11.997712	-19.349243
8.500000	-12.268254	-135.081287	-1.083986	2.228976	-1.083986	2.228976	-12.957312	-24.802187
8.550000	-13.172398	-135.751910	-1.020592	-1.603758	-1.020592	-1.603758	-14.013431	-30.521409
8.600000	-14.131270	-135.767754	-0.966551	-5.397525	-0.966551	-5.397525	-15.185455	-36.623665
8.650000	-15.140370	-134.949138	-0.921271	-9.151903	-0.921271	-9.151903	-16.498357	-43.296272
8.700000	-16.184418	-133.046473	-0.884266	-12.866195	-0.884266	-12.866195	-17.982746	-50.870301
8.750000	-17.235545	-129.815652	-0.854761	-16.541521	-0.854761	-16.541521	-19.676465	-59.869071
8.800000	-18.238534	-124.998024	-0.832216	-20.178168	-0.832216	-20.178168	-21.608075	-71.255762
8.850000	-19.104030	-118.454299	-0.816129	-23.776534	-0.816129	-23.776534	-23.737313	-86.746528
8.900000	-19.703525	-110.333492	-0.806188	-27.336009	-0.806188	-27.336009	-25.707318	-109.120929
8.950000	-19.942300	-101.388695	-0.801768	-30.858265	-0.801768	-30.858265	-26.604816	-138.334693
9.000000	-19.787749	-92.679402	-0.802540	-34.343284	-0.802540	-34.343284	-25.764930	-166.885337
9.050000	-19.309692	-85.144462	-0.808108	-37.791752	-0.808108	-37.791752	-23.967263	171.821759
9.100000	-18.643760	-79.091344	-0.817720	-41.207597	-0.817720	-41.207597	-22.101582	156.620648
9.150000	-17.870374	-74.736749	-0.831542	-44.587471	-0.831542	-44.587471	-20.415229	145.753511
9.200000	-17.073667	-71.805302	-0.849092	-47.933509	-0.849092	-47.933509	-18.961467	137.280162
9.250000	-16.297195	-70.009293	-0.870032	-51.246906	-0.870032	-51.246906	-17.711254	130.243022
9.300000	-15.561403	-69.111054	-0.894132	-54.528051	-0.894132	-54.528051	-16.627714	124.142823
9.350000	-14.874907	-68.903694	-0.921131	-57.777731	-0.921131	-57.777731	-15.679483	118.676731
9.400000	-14.239279	-69.220725	-0.950744	-60.997316	-0.950744	-60.997316	-14.841378	113.655498
9.450000	-13.652620	-69.947008	-0.982751	-64.187635	-0.982751	-64.187635	-14.094147	108.966465
9.500000	-13.111754	-70.997003	-1.016960	-67.349334	-1.016960	-67.349334	-13.422980	104.535202
9.550000	-12.613555	-72.312927	-1.053251	-70.482000	-1.053251	-70.482000	-12.816928	100.316019
9.600000	-12.153109	-73.821919	-1.091268	-73.589206	-1.091268	-73.589206	-12.264987	96.253493
9.650000	-11.727627	-75.499891	-1.130953	-76.670026	-1.130953	-76.670026	-11.760751	92.331964
9.700000	-11.334235	-77.318496	-1.172172	-79.724632	-1.172172	-79.724632	-11.298475	88.532770
9.750000	-10.969305	-79.246853	-1.214703	-82.755292	-1.214703	-82.755292	-10.872300	84.833717
9.800000	-10.630274	-81.268066	-1.258417	-85.762717	-1.258417	-85.762717	-10.478118	81.223704
9.850000	-10.315573	-83.372611	-1.303239	-88.746241	-1.303239	-88.746241	-10.113194	77.698300
9.900000	-10.022788	-85.545677	-1.349011	-91.707398	-1.349011	-91.707398	-9.774140	74.246872
9.950000	-9.749812	-87.776543	-1.395605	-94.647547	-1.395605	-94.647547	-9.458117	70.861485
10.000000	-9.495090	-90.058346	-1.442923	-97.567356	-1.442923	-97.567356	-9.162995	67.537525
