! freq	dB(S11)	phase(S11)	dB(S12)	phase(S12)	
!     	dB(S21)	phase(S21)	dB(S22)	phase(S22)	
!S-par simulation data
#  GHz  S  DB  R 50
0.000000	-0.000000	0.000000	-349.636416	0.000000	-349.636416	0.000000	-0.000000	0.000000
0.050000	-0.000102	-0.868313	-113.617232	82.741540	-113.617232	82.741540	-0.000103	-0.762667
0.100000	-0.000406	-1.736389	-108.327788	82.150720	-108.327788	82.150720	-0.000406	-1.525075
0.150000	-0.000901	-2.604004	-105.182898	82.630646	-105.182898	82.630646	-0.000896	-2.286987
0.200000	-0.001568	-3.470972	-102.928038	82.923822	-102.928038	82.923822	-0.001549	-3.048215
0.250000	-0.002398	-4.337075	-101.201212	82.983802	-101.201212	82.983802	-0.002351	-3.808553
0.300000	-0.003353	-5.202262	-99.827315	82.919975	-99.827315	82.919975	-0.003260	-4.567979
0.350000	-0.004417	-6.066407	-98.715496	82.795979	-98.715496	82.795979	-0.004258	-5.326402
0.400000	-0.005569	-6.929451	-97.808937	82.669092	-97.808937	82.669092	-0.005320	-6.083802
0.450000	-0.006785	-7.791361	-97.071004	82.586073	-97.071004	82.586073	-0.006425	-6.840189
0.500000	-0.008049	-8.652129	-96.477234	82.589574	-96.477234	82.589574	-0.007557	-7.595589
0.550000	-0.009342	-9.511763	-96.011008	82.723063	-96.011008	82.723063	-0.008701	-8.350044
0.600000	-0.010652	-10.370283	-95.661017	83.035019	-95.661017	83.035019	-0.009848	-9.103598
0.650000	-0.011968	-11.227716	-95.419649	83.583181	-95.419649	83.583181	-0.010989	-9.856295
0.700000	-0.013281	-12.084092	-95.281806	84.439500	-95.281806	84.439500	-0.012121	-10.608177
0.750000	-0.014584	-12.939440	-95.243831	85.696372	-95.243831	85.696372	-0.013239	-11.359280
0.800000	-0.015874	-13.793788	-95.302184	87.474629	-95.302184	87.474629	-0.014343	-12.109632
0.850000	-0.017148	-14.647160	-95.451426	89.933236	-95.451426	89.933236	-0.015432	-12.859257
0.900000	-0.018403	-15.499574	-95.680782	93.278995	-95.680782	93.278995	-0.016505	-13.608172
0.950000	-0.019639	-16.351046	-95.968260	97.770040	-95.968260	97.770040	-0.017565	-14.356387
1.000000	-0.020857	-17.201584	-96.271437	103.696837	-96.271437	103.696837	-0.018611	-15.103908
1.050000	-0.022056	-18.051193	-96.516150	111.308971	-96.516150	111.308971	-0.019644	-15.850737
1.100000	-0.023238	-18.899874	-96.591416	120.652116	-96.591416	120.652116	-0.020667	-16.596871
1.150000	-0.024404	-19.747623	-96.369565	131.339865	-96.369565	131.339865	-0.021680	-17.342305
1.200000	-0.025554	-20.594433	-95.763936	142.454447	-95.763936	142.454447	-0.022684	-18.087030
1.250000	-0.026691	-21.440295	-94.786976	152.847881	-94.786976	152.847881	-0.023680	-18.831038
1.300000	-0.027816	-22.285153	-93.526654	161.613299	-93.526654	161.613299	-0.024670	-19.574283
1.350000	-0.028930	-23.129035	-92.131039	168.581340	-92.131039	168.581340	-0.025653	-20.316785
1.400000	-0.030034	-23.971923	-90.697473	173.911319	-90.697473	173.911319	-0.026632	-21.058528
1.450000	-0.031131	-24.813799	-89.284361	177.889225	-89.284361	177.889225	-0.027607	-21.799500
1.500000	-0.032220	-25.654646	-87.921319	-179.199512	-87.921319	-179.199512	-0.028578	-22.539685
1.550000	-0.033304	-26.494443	-86.620654	-177.115567	-86.620654	-177.115567	-0.029546	-23.279067
1.600000	-0.034382	-27.333169	-85.385356	-175.672133	-85.385356	-175.672133	-0.030512	-24.017630
1.650000	-0.035457	-28.170805	-84.213796	-174.727565	-84.213796	-174.727565	-0.031476	-24.755360
1.700000	-0.036528	-29.006932	-83.074619	-174.274759	-83.074619	-174.274759	-0.032438	-25.491937
1.750000	-0.037598	-29.842472	-82.031045	-173.997372	-82.031045	-173.997372	-0.033399	-26.228065
1.800000	-0.038666	-30.676595	-81.021941	-174.002805	-81.021941	-174.002805	-0.034359	-26.963113
1.850000	-0.039733	-31.509708	-80.068395	-174.210253	-80.068395	-174.210253	-0.035319	-27.697388
1.900000	-0.040799	-32.341562	-79.154163	-174.578513	-79.154163	-174.578513	-0.036279	-28.430704
1.950000	-0.041866	-33.172156	-78.277276	-175.107587	-78.277276	-175.107587	-0.037239	-29.163059
2.000000	-0.042934	-34.001665	-77.441974	-175.729469	-77.441974	-175.729469	-0.038200	-29.894587
2.050000	-0.044002	-34.829652	-76.630394	-176.481283	-76.630394	-176.481283	-0.039161	-30.624956
2.100000	-0.045072	-35.656969	-75.868232	-177.275067	-75.868232	-177.275067	-0.040123	-31.354815
2.150000	-0.046144	-36.482549	-75.119937	-178.172638	-75.119937	-178.172638	-0.041087	-32.083350
2.200000	-0.047219	-37.306812	-74.397842	-179.133107	-74.397842	-179.133107	-0.042053	-32.810883
2.250000	-0.048297	-38.129741	-73.700119	179.851700	-73.700119	179.851700	-0.043020	-33.537400
2.300000	-0.049378	-38.951318	-73.025125	178.788632	-73.025125	178.788632	-0.043990	-34.262887
2.350000	-0.050462	-39.771526	-72.371384	177.683467	-72.371384	177.683467	-0.044963	-34.987330
2.400000	-0.051551	-40.590346	-71.737559	176.541113	-71.737559	176.541113	-0.045938	-35.710715
2.450000	-0.052643	-41.407763	-71.122443	175.365764	-71.122443	175.365764	-0.046917	-36.433030
2.500000	-0.053740	-42.223761	-70.524938	174.161029	-70.524938	174.161029	-0.047899	-37.154261
2.550000	-0.054843	-43.038260	-69.943082	172.929011	-69.943082	172.929011	-0.048886	-37.874347
2.600000	-0.055951	-43.851307	-69.377023	171.673648	-69.377023	171.673648	-0.049876	-38.593323
2.650000	-0.057064	-44.662889	-68.825914	170.397268	-68.825914	170.397268	-0.050871	-39.311176
2.700000	-0.058183	-45.472990	-68.288977	169.101918	-68.288977	169.101918	-0.051871	-40.027895
2.750000	-0.059309	-46.281598	-67.765498	167.789403	-67.765498	167.789403	-0.052876	-40.743467
2.800000	-0.060441	-47.088699	-67.254817	166.461325	-67.254817	166.461325	-0.053887	-41.457880
2.850000	-0.061581	-47.894281	-66.756324	165.119107	-66.756324	165.119107	-0.054903	-42.171125
2.900000	-0.062727	-48.698332	-66.269457	163.764021	-66.269457	163.764021	-0.055926	-42.883189
2.950000	-0.063881	-49.500841	-65.793690	162.397205	-65.793690	162.397205	-0.056956	-43.594062
3.000000	-0.065044	-50.301797	-65.328537	161.019683	-65.328537	161.019683	-0.057992	-44.303734
3.050000	-0.066215	-51.101189	-64.873545	159.632378	-64.873545	159.632378	-0.059035	-45.012194
3.100000	-0.067394	-51.899008	-64.428288	158.236124	-64.428288	158.236124	-0.060087	-45.719432
3.150000	-0.068583	-52.695244	-63.992373	156.831678	-63.992373	156.831678	-0.061146	-46.425439
3.200000	-0.069781	-53.489889	-63.565426	155.419729	-63.565426	155.419729	-0.062213	-47.130206
3.250000	-0.070990	-54.282934	-63.147101	154.000904	-63.147101	154.000904	-0.063290	-47.833723
3.300000	-0.072208	-55.074371	-62.737069	152.575777	-62.737069	152.575777	-0.064375	-48.535981
3.350000	-0.073439	-55.863911	-62.333182	151.144011	-62.333182	151.144011	-0.065471	-49.236750
3.400000	-0.074682	-56.651758	-61.936714	149.706736	-61.936714	149.706736	-0.066578	-49.936188
3.450000	-0.075931	-57.438754	-61.552474	148.267095	-61.552474	148.267095	-0.067690	-50.634954
3.500000	-0.077198	-58.223195	-61.169916	146.820359	-61.169916	146.820359	-0.068819	-51.331703
3.550000	-0.078470	-59.007065	-60.800361	145.372316	-60.800361	145.372316	-0.069951	-52.027998
3.600000	-0.079764	-59.788078	-60.430841	143.917738	-60.430841	143.917738	-0.071103	-52.722026
3.650000	-0.081060	-60.568804	-60.074947	142.462624	-60.074947	142.462624	-0.072257	-53.415825
3.700000	-0.082382	-61.346371	-59.717679	141.001595	-59.717679	141.001595	-0.073434	-54.107104
3.750000	-0.083704	-62.123939	-59.374528	139.540566	-59.374528	139.540566	-0.074611	-54.798383
3.800000	-0.085056	-62.898050	-59.028800	138.074289	-59.028800	138.074289	-0.075814	-55.486887
3.850000	-0.086408	-63.672160	-58.696307	136.608011	-58.696307	136.608011	-0.077018	-56.175391
3.900000	-0.087790	-64.443094	-58.362728	135.137885	-58.362728	135.137885	-0.078247	-56.861331
3.950000	-0.089174	-65.213739	-58.040320	133.667409	-58.040320	133.667409	-0.079479	-57.547038
4.000000	-0.090586	-65.981494	-57.718127	132.194209	-57.718127	132.194209	-0.080736	-58.230397
4.050000	-0.092004	-66.748672	-57.405275	130.720464	-57.405275	130.720464	-0.081997	-58.913286
4.100000	-0.093448	-67.513250	-57.093776	129.244890	-57.093776	129.244890	-0.083282	-59.594049
4.150000	-0.094902	-68.276961	-56.789997	127.768705	-56.789997	127.768705	-0.084576	-60.274104
4.200000	-0.096380	-69.038367	-56.488562	126.291394	-56.488562	126.291394	-0.085891	-60.952259
4.250000	-0.097871	-69.798620	-56.193409	124.813520	-56.193409	124.813520	-0.087217	-61.629465
4.300000	-0.099385	-70.556862	-55.901463	123.335061	-55.901463	123.335061	-0.088563	-62.305002
4.350000	-0.100915	-71.313668	-55.614524	121.856184	-55.614524	121.856184	-0.089924	-62.979348
4.400000	-0.102466	-72.068759	-55.331541	120.377126	-55.331541	120.377126	-0.091303	-63.652258
4.450000	-0.104037	-72.822135	-55.052432	118.897887	-55.052432	118.897887	-0.092701	-64.323734
4.500000	-0.105627	-73.574092	-54.777929	117.418749	-54.777929	117.418749	-0.094114	-64.994013
4.550000	-0.107241	-74.324061	-54.506294	115.939753	-54.506294	115.939753	-0.095550	-65.662614
4.600000	-0.108871	-75.072904	-54.239827	114.461033	-54.239827	114.461033	-0.096998	-66.330255
4.650000	-0.110530	-75.819493	-53.975336	112.982865	-53.975336	112.982865	-0.098473	-66.995978
4.700000	-0.112201	-76.565247	-53.716495	111.505047	-53.716495	111.505047	-0.099959	-67.660981
4.750000	-0.113907	-77.308491	-53.458836	110.028283	-53.458836	110.028283	-0.101476	-68.323825
4.800000	-0.115622	-78.051184	-53.207241	108.551850	-53.207241	108.551850	-0.103000	-68.986189
4.850000	-0.117376	-78.791122	-52.956125	107.077071	-52.956125	107.077071	-0.104559	-69.646156
4.900000	-0.119136	-79.530789	-52.711425	105.602509	-52.711425	105.602509	-0.106123	-70.305884
4.950000	-0.120940	-80.267468	-52.466579	104.130319	-52.466579	104.130319	-0.107727	-70.962979
5.000000	-0.122746	-81.004148	-52.228446	102.658130	-52.228446	102.658130	-0.109332	-71.620074
5.050000	-0.124603	-81.737622	-51.989614	101.189169	-51.989614	101.189169	-0.110983	-72.274304
5.100000	-0.126460	-82.471096	-51.757172	99.720208	-51.757172	99.720208	-0.112634	-72.928535
5.150000	-0.128366	-83.201689	-51.524679	98.254848	-51.524679	98.254848	-0.114329	-73.580148
5.200000	-0.130277	-83.932020	-51.297707	96.789815	-51.297707	96.789815	-0.116029	-74.231523
5.250000	-0.132234	-84.659791	-51.071260	95.328708	-51.071260	95.328708	-0.117769	-74.880529
5.300000	-0.134201	-85.387051	-50.849543	93.868386	-50.849543	93.868386	-0.119519	-75.529062
5.350000	-0.136210	-86.112070	-50.628866	92.412274	-50.628866	92.412274	-0.121307	-76.175473
5.400000	-0.138234	-86.836342	-50.412200	90.957565	-50.412200	90.957565	-0.123108	-76.821178
5.450000	-0.140297	-87.558686	-50.197029	89.507307	-50.197029	89.507307	-0.124945	-77.465008
5.500000	-0.142380	-88.280066	-49.985216	88.059276	-49.985216	88.059276	-0.126799	-78.107902
5.550000	-0.144498	-88.999826	-49.775300	86.615891	-49.775300	86.615891	-0.128686	-78.749167
5.600000	-0.146642	-89.718429	-49.568144	85.175826	-49.568144	85.175826	-0.130596	-79.389269
5.650000	-0.148817	-90.435711	-49.363241	83.740544	-49.363241	83.740544	-0.132535	-80.027986
5.700000	-0.151023	-91.151673	-49.160546	82.310044	-49.160546	82.310044	-0.134502	-80.665317
5.750000	-0.153256	-91.866602	-48.960416	80.884377	-48.960416	80.884377	-0.136494	-81.301505
5.800000	-0.155527	-92.580086	-48.761978	79.465476	-48.761978	79.465476	-0.138520	-81.936090
5.850000	-0.157821	-93.292814	-48.566382	78.051325	-48.566382	78.051325	-0.140567	-82.569769
5.900000	-0.160159	-94.004027	-48.371982	76.646675	-48.371982	76.646675	-0.142655	-83.201635
5.950000	-0.162515	-94.714738	-48.180671	75.246476	-48.180671	75.246476	-0.144758	-83.832827
6.000000	-0.164923	-95.423942	-47.990059	73.859629	-47.990059	73.859629	-0.146909	-84.462000
6.050000	-0.167344	-96.132869	-47.802764	72.476565	-47.802764	72.476565	-0.149071	-85.090730
6.100000	-0.169826	-96.840409	-47.615631	71.112418	-47.615631	71.112418	-0.151287	-85.717241
6.150000	-0.172316	-97.547850	-47.432047	69.750744	-47.432047	69.750744	-0.153509	-86.343533
6.200000	-0.174880	-98.254200	-47.247980	68.416270	-47.247980	68.416270	-0.155793	-86.967414
6.250000	-0.177444	-98.960551	-47.067734	67.081796	-47.067734	67.081796	-0.158077	-87.591295
6.300000	-0.180101	-99.666392	-46.886125	65.787299	-46.886125	65.787299	-0.160432	-88.212580
6.350000	-0.182758	-100.372233	-46.708237	64.492801	-46.708237	64.492801	-0.162787	-88.833864
6.400000	-0.185519	-101.078554	-46.528585	63.249516	-46.528585	63.249516	-0.165211	-89.452802
6.450000	-0.188291	-101.784917	-46.352099	62.010887	-46.352099	62.010887	-0.167640	-90.071526
6.500000	-0.191195	-102.493105	-46.172875	60.840329	-46.172875	60.840329	-0.170136	-90.688146
6.550000	-0.194125	-103.201658	-45.996050	59.683385	-45.996050	59.683385	-0.172645	-91.304345
6.600000	-0.197251	-103.914041	-45.814337	58.621182	-45.814337	58.621182	-0.175219	-91.918677
6.650000	-0.200443	-104.627701	-45.633602	57.590561	-45.633602	57.590561	-0.177814	-92.532387
6.700000	-0.203872	-105.346272	-45.447341	56.659039	-45.447341	56.659039	-0.180460	-93.144818
6.750000	-0.207648	-106.071759	-45.252211	55.856387	-45.252211	55.856387	-0.183162	-93.755914
6.800000	-0.211923	-106.806315	-45.044285	55.207155	-45.044285	55.207155	-0.185920	-94.365858
6.850000	-0.217004	-107.553876	-44.815444	54.760894	-44.815444	54.760894	-0.188742	-94.974636
6.900000	-0.223382	-108.319833	-44.553713	54.579846	-44.553713	54.579846	-0.191638	-95.582236
6.950000	-0.232849	-109.120315	-44.216094	54.828884	-44.216094	54.828884	-0.194649	-96.188385
7.000000	-0.248863	-109.973627	-43.736211	55.582851	-43.736211	55.582851	-0.197810	-96.792940
7.050000	-0.279898	-110.905863	-42.986072	56.734990	-42.986072	56.734990	-0.201182	-97.395268
7.100000	-0.356509	-111.928799	-41.643058	56.999385	-41.643058	56.999385	-0.204821	-97.992745
7.150000	-0.550195	-112.527653	-39.563291	49.692035	-39.563291	49.692035	-0.207812	-98.579012
7.200000	-0.634589	-111.323490	-39.023738	29.544694	-39.023738	29.544694	-0.207373	-99.170964
7.250000	-0.452910	-111.258936	-40.655246	18.849236	-40.655246	18.849236	-0.208679	-99.784765
7.300000	-0.356206	-112.090354	-41.818136	17.612192	-41.818136	17.612192	-0.211836	-100.392261
7.350000	-0.315385	-112.962511	-42.382764	18.191989	-42.382764	18.191989	-0.215215	-100.994229
7.400000	-0.297067	-113.783377	-42.625831	18.678234	-42.625831	18.678234	-0.218580	-101.593200
7.450000	-0.288415	-114.561504	-42.710206	18.781711	-42.710206	18.781711	-0.221924	-102.190255
7.500000	-0.284116	-115.313119	-42.718763	18.580066	-42.718763	18.580066	-0.225264	-102.785994
7.550000	-0.283008	-116.040263	-42.670770	18.062652	-42.670770	18.062652	-0.228615	-103.380190
7.600000	-0.283024	-116.756789	-42.603223	17.399606	-42.603223	17.399606	-0.231984	-103.973452
7.650000	-0.283986	-117.463994	-42.519699	16.608129	-42.519699	16.608129	-0.235374	-104.565803
7.700000	-0.285755	-118.162228	-42.423094	15.691510	-42.423094	15.691510	-0.238794	-105.157046
7.750000	-0.288064	-118.853703	-42.318489	14.681669	-42.318489	14.681669	-0.242253	-105.747154
7.800000	-0.290675	-119.541169	-42.210160	13.617571	-42.210160	13.617571	-0.245743	-106.336450
7.850000	-0.293547	-120.225058	-42.098961	12.505685	-42.098961	12.505685	-0.249264	-106.924946
7.900000	-0.296716	-120.904616	-41.984487	11.338131	-41.984487	11.338131	-0.252836	-107.512236
7.950000	-0.300046	-121.581752	-41.869054	10.141000	-41.869054	10.141000	-0.256444	-108.098698
8.000000	-0.303510	-122.256857	-41.753135	8.919619	-41.753135	8.919619	-0.260088	-108.684409
8.050000	-0.307114	-122.929830	-41.636710	7.673641	-41.636710	7.673641	-0.263774	-109.269247
8.100000	-0.310861	-123.600623	-41.519804	6.404034	-41.519804	6.404034	-0.267511	-109.853035
8.150000	-0.314697	-124.270109	-41.403254	5.120952	-41.403254	5.120952	-0.271286	-110.436116
8.200000	-0.318616	-124.938363	-41.287129	3.825475	-41.287129	3.825475	-0.275098	-111.018498
8.250000	-0.322646	-125.605044	-41.171108	2.515011	-41.171108	2.515011	-0.278964	-111.599884
8.300000	-0.326757	-126.270622	-41.055597	1.194689	-41.055597	1.194689	-0.282874	-112.180481
8.350000	-0.330944	-126.935234	-40.940697	-0.133927	-40.940697	-0.133927	-0.286829	-112.760334
8.400000	-0.335217	-127.598762	-40.826273	-1.471551	-40.826273	-1.471551	-0.290836	-113.339306
8.450000	-0.339527	-128.261884	-40.712928	-2.812317	-40.712928	-2.812317	-0.294867	-113.917897
8.500000	-0.343945	-128.923785	-40.599832	-4.162508	-40.599832	-4.162508	-0.298970	-114.495343
8.550000	-0.348387	-129.585464	-40.487948	-5.514288	-40.487948	-5.514288	-0.303090	-115.072546
8.600000	-0.352942	-130.246038	-40.376297	-6.874012	-40.376297	-6.874012	-0.307290	-115.648533
8.650000	-0.357510	-130.906523	-40.265954	-8.234345	-40.265954	-8.234345	-0.311500	-116.224404
8.700000	-0.362196	-131.566026	-40.155817	-9.601385	-40.155817	-9.601385	-0.315799	-116.799001
8.750000	-0.366884	-132.225529	-40.047060	-10.968426	-40.047060	-10.968426	-0.320100	-117.373597
8.800000	-0.371698	-132.884186	-39.938476	-12.341142	-39.938476	-12.341142	-0.324498	-117.946873
8.850000	-0.376513	-133.542842	-39.831233	-13.713858	-39.831233	-13.713858	-0.328899	-118.520149
8.900000	-0.381441	-134.200911	-39.724311	-15.090652	-39.724311	-15.090652	-0.333390	-119.092279
8.950000	-0.386382	-134.858926	-39.618601	-16.467817	-39.618601	-16.467817	-0.337891	-119.664304
9.000000	-0.391423	-135.516563	-39.513334	-17.847922	-39.513334	-17.847922	-0.342475	-120.235349
9.050000	-0.396487	-136.174126	-39.409164	-19.228616	-39.409164	-19.228616	-0.347078	-120.806196
9.100000	-0.401640	-136.831483	-39.305537	-20.611437	-39.305537	-20.611437	-0.351757	-121.376215
9.150000	-0.406826	-137.488772	-39.202904	-21.994968	-39.202904	-21.994968	-0.356463	-121.945958
9.200000	-0.412091	-138.145993	-39.100900	-23.380049	-39.100900	-23.380049	-0.361236	-122.515014
9.250000	-0.417398	-138.803181	-38.999798	-24.765904	-38.999798	-24.765904	-0.366045	-123.083727
9.300000	-0.422775	-139.460407	-38.899397	-26.152897	-38.899397	-26.152897	-0.370913	-123.651883
9.350000	-0.428202	-140.117660	-38.799817	-27.540702	-38.799817	-27.540702	-0.375826	-124.219642
9.400000	-0.433690	-140.775029	-38.700999	-28.929349	-38.700999	-28.929349	-0.380791	-124.786961
9.450000	-0.439238	-141.432513	-38.602931	-30.318838	-38.602931	-30.318838	-0.385807	-125.353843
9.500000	-0.444836	-142.090161	-38.505677	-31.708956	-38.505677	-31.708956	-0.390868	-125.920392
9.550000	-0.450504	-142.748038	-38.409111	-33.099953	-38.409111	-33.099953	-0.395990	-126.486474
9.600000	-0.456214	-143.406100	-38.313401	-34.491418	-38.313401	-34.491418	-0.401147	-127.052318
9.650000	-0.462002	-144.064532	-38.218327	-35.883819	-38.218327	-35.883819	-0.406374	-127.617683
9.700000	-0.467823	-144.723143	-38.124144	-37.276559	-38.124144	-37.276559	-0.411628	-128.182888
9.750000	-0.473732	-145.382291	-38.030557	-38.670318	-38.030557	-38.670318	-0.416959	-128.747617
9.800000	-0.479663	-146.041586	-37.937884	-40.064304	-37.937884	-40.064304	-0.422311	-129.312253
9.850000	-0.485692	-146.701612	-37.845779	-41.459424	-37.845779	-41.459424	-0.427748	-129.876427
9.900000	-0.491735	-147.361726	-37.754604	-42.854661	-37.754604	-42.854661	-0.433196	-130.440563
9.950000	-0.497885	-148.022795	-37.663980	-44.251186	-37.663980	-44.251186	-0.438738	-131.004269
10.000000	-0.504038	-148.683863	-37.574292	-45.647711	-37.574292	-45.647711	-0.444283	-131.567975
