! freq	dB(S11)	phase(S11)	dB(S12)	phase(S12)	
!     	dB(S21)	phase(S21)	dB(S22)	phase(S22)	
!S-par simulation data
#  GHz  S  DB  R 50
0.000000	-109.442898	180.000000	-0.000002	0.000000	-0.000032	0.000000	-109.442898	180.000000
0.050000	-39.933293	-93.379709	-0.002960	-2.818653	-0.002960	-2.818653	-39.932440	-93.028567
0.100000	-33.953791	-96.682647	-0.008800	-5.614164	-0.008800	-5.614164	-33.953333	-95.979254
0.150000	-30.488466	-99.876668	-0.014767	-8.394969	-0.014767	-8.394969	-30.488535	-98.819303
0.200000	-28.055428	-102.966472	-0.020679	-11.170543	-0.020679	-11.170543	-28.056078	-101.553165
0.250000	-26.184799	-105.986325	-0.026891	-13.944410	-0.026891	-13.944410	-26.186006	-104.215290
0.300000	-24.669745	-108.961068	-0.033614	-16.716987	-0.033614	-16.716987	-24.671476	-106.830578
0.350000	-23.401502	-111.909022	-0.040966	-19.487884	-0.040966	-19.487884	-23.403729	-109.417278
0.400000	-22.315680	-114.843307	-0.048976	-22.256448	-0.048976	-22.256448	-22.318387	-111.988358
0.450000	-21.369635	-117.771720	-0.057579	-25.022255	-0.057579	-25.022255	-21.372811	-114.551554
0.500000	-20.535307	-120.698016	-0.066730	-27.784845	-0.066730	-27.784845	-20.538950	-117.110426
0.550000	-19.794086	-123.624448	-0.076396	-30.543569	-0.076396	-30.543569	-19.798208	-119.666818
0.600000	-19.129928	-126.552224	-0.086471	-33.298339	-0.086471	-33.298339	-19.134542	-122.221826
0.650000	-18.532376	-129.482088	-0.096896	-36.048779	-0.096896	-36.048779	-18.537497	-124.775791
0.700000	-17.992433	-132.414496	-0.107585	-38.794788	-0.107585	-38.794788	-17.998080	-127.328870
0.750000	-17.503128	-135.349791	-0.118456	-41.536296	-0.118456	-41.536296	-17.509321	-129.881020
0.800000	-17.058771	-138.288132	-0.129429	-44.273303	-0.129429	-44.273303	-17.065540	-132.431974
0.850000	-16.654727	-141.229311	-0.140420	-47.005858	-0.140420	-47.005858	-16.662124	-134.981050
0.900000	-16.287119	-144.172414	-0.151350	-49.734077	-0.151350	-49.734077	-16.295238	-137.526918
0.950000	-15.952468	-147.115619	-0.162140	-52.458196	-0.162140	-52.458196	-15.961451	-140.067609
1.000000	-15.648145	-150.056495	-0.172716	-55.178464	-0.172716	-55.178464	-15.658158	-142.600734
1.050000	-15.372151	-152.992783	-0.183006	-57.895174	-0.183006	-57.895174	-15.383333	-145.124150
1.100000	-15.123005	-155.923403	-0.192942	-60.608669	-0.192942	-60.608669	-15.135409	-147.636634
1.150000	-14.899818	-158.848887	-0.202454	-63.319295	-0.202454	-63.319295	-14.913404	-150.138012
1.200000	-14.701730	-161.771167	-0.211476	-66.027465	-0.211476	-66.027465	-14.716396	-152.629142
1.250000	-14.525465	-164.692653	-0.220018	-68.733845	-0.220018	-68.733845	-14.541112	-155.112311
1.300000	-14.374212	-167.615712	-0.227909	-71.438568	-0.227909	-71.438568	-14.390758	-157.587097
1.350000	-14.242937	-170.541762	-0.235233	-74.142417	-0.235233	-74.142417	-14.260350	-160.056029
1.400000	-14.133885	-173.472819	-0.241854	-76.845803	-0.241854	-76.845803	-14.152169	-162.518831
1.450000	-14.044551	-176.409558	-0.247803	-79.549297	-0.247803	-79.549297	-14.063741	-164.976492
1.500000	-13.975193	-179.353243	-0.253028	-82.253477	-0.253028	-82.253477	-13.995344	-167.429064
1.550000	-13.925809	177.695015	-0.257493	-84.958944	-0.257493	-84.958944	-13.946992	-169.876574
1.600000	-13.894687	174.734902	-0.261241	-87.666164	-0.261241	-87.666164	-13.916978	-172.319431
1.650000	-13.884285	171.764120	-0.264161	-90.376038	-0.264161	-90.376038	-13.907777	-174.756919
1.700000	-13.891269	168.783401	-0.266384	-93.088690	-0.266384	-93.088690	-13.916047	-177.189794
1.750000	-13.919448	165.789325	-0.267766	-95.805387	-0.267766	-95.805387	-13.945619	-179.616859
1.800000	-13.965690	162.782817	-0.268448	-98.526061	-0.268448	-98.526061	-13.993354	177.961231
1.850000	-14.032569	159.760886	-0.268362	-101.251836	-0.268362	-101.251836	-14.061840	175.545521
1.900000	-14.119411	156.722925	-0.267573	-103.983011	-0.267573	-103.983011	-14.150410	173.136166
1.950000	-14.226501	153.667593	-0.266119	-106.720070	-0.266119	-106.720070	-14.259357	170.733709
2.000000	-14.355887	150.591851	-0.263990	-109.464003	-0.263990	-109.464003	-14.390747	168.339498
2.050000	-14.507379	147.494730	-0.261263	-112.215020	-0.261263	-112.215020	-14.544401	165.954207
2.100000	-14.682673	144.373259	-0.257966	-114.973895	-0.257966	-114.973895	-14.722035	163.579533
2.150000	-14.882903	141.224976	-0.254160	-117.741107	-0.254160	-117.741107	-14.924807	161.217213
2.200000	-15.109012	138.047721	-0.249913	-120.516920	-0.249913	-120.516920	-15.153680	158.869089
2.250000	-15.363051	134.837745	-0.245283	-123.301917	-0.245283	-123.301917	-15.410740	156.538101
2.300000	-15.647681	131.590038	-0.240332	-126.096788	-0.240332	-126.096788	-15.698688	154.228353
2.350000	-15.964422	128.301481	-0.235146	-128.901511	-0.235146	-128.901511	-16.019087	151.943345
2.400000	-16.316150	124.966642	-0.229800	-131.716418	-0.229800	-131.716418	-16.374868	149.688407
2.450000	-16.707614	121.575451	-0.224370	-134.542410	-0.224370	-134.542410	-16.770853	147.472836
2.500000	-17.141748	118.121978	-0.218948	-137.379168	-0.218948	-137.379168	-17.210057	145.303900
2.550000	-17.623557	114.595519	-0.213617	-140.226880	-0.213617	-140.226880	-17.697589	143.193143
2.600000	-18.160217	110.977970	-0.208472	-143.086150	-0.208472	-143.086150	-18.240758	141.159507
2.650000	-18.758970	107.251069	-0.203601	-145.956853	-0.203601	-145.956853	-18.846967	139.223719
2.700000	-19.429105	103.390423	-0.199090	-148.838841	-0.199090	-148.838841	-19.525711	137.413500
2.750000	-20.183714	99.354726	-0.195036	-151.732380	-0.195036	-151.732380	-20.290333	135.774782
2.800000	-21.039505	95.083828	-0.191540	-154.637561	-0.191540	-154.637561	-21.157839	134.375313
2.850000	-22.017447	90.501611	-0.188668	-157.553886	-0.188668	-157.553886	-22.149541	133.302529
2.900000	-23.147647	85.475436	-0.186508	-160.481275	-0.186508	-160.481275	-23.295831	132.707456
2.950000	-24.472867	79.742997	-0.185180	-163.420020	-0.185180	-163.420020	-24.639142	132.888499
3.000000	-26.051207	72.922140	-0.184720	-166.369303	-0.184720	-166.369303	-26.235744	134.284145
3.050000	-27.965560	64.231415	-0.185198	-169.328834	-0.185198	-169.328834	-28.160425	137.783199
3.100000	-30.298734	51.722935	-0.186730	-172.298741	-0.186730	-172.298741	-30.460264	145.546174
3.150000	-32.967175	31.503743	-0.189340	-175.278266	-0.189340	-175.278266	-32.930390	161.474128
3.200000	-34.930736	-1.605962	-0.193069	-178.266899	-0.193069	-178.266899	-34.369943	-171.122625
3.250000	-34.013409	-39.492937	-0.197998	178.735541	-0.197998	178.735541	-33.155086	-142.402286
3.300000	-31.301114	-65.074351	-0.204162	175.729577	-0.204162	175.729577	-30.591304	-125.115202
3.350000	-28.665863	-80.387141	-0.211574	172.715821	-0.211574	172.715821	-28.130372	-116.602641
3.400000	-26.463423	-90.615439	-0.220252	169.694809	-0.220252	169.694809	-26.047416	-112.620903
3.450000	-24.636786	-98.291333	-0.230210	166.667034	-0.230210	166.667034	-24.300220	-111.017634
3.500000	-23.097271	-104.581094	-0.241449	163.633026	-0.241449	163.633026	-22.815543	-110.750877
3.550000	-21.776063	-110.050482	-0.253961	160.593308	-0.253961	160.593308	-21.533912	-111.295710
3.600000	-20.624257	-114.999724	-0.267728	157.548397	-0.267728	157.548397	-20.411821	-112.365798
3.650000	-19.607100	-119.600891	-0.282721	154.498789	-0.282721	154.498789	-19.417736	-113.793533
3.700000	-18.699409	-123.958978	-0.298905	151.444962	-0.298905	151.444962	-18.528469	-115.474866
3.750000	-17.882494	-128.141382	-0.316233	148.387364	-0.316233	148.387364	-17.726628	-117.342009
3.800000	-17.142348	-132.191084	-0.334673	145.326343	-0.334673	145.326343	-16.999073	-119.351282
3.850000	-16.467836	-136.142396	-0.354137	142.262354	-0.354137	142.262354	-16.335275	-121.467154
3.900000	-15.850258	-140.017166	-0.374555	139.195723	-0.374555	139.195723	-15.726969	-123.666821
3.950000	-15.282633	-143.831412	-0.395849	136.126728	-0.395849	136.126728	-15.167489	-125.933410
4.000000	-14.759272	-147.597115	-0.417937	133.055593	-0.417937	133.055593	-14.651386	-128.254219
4.050000	-14.275479	-151.323395	-0.440728	129.982486	-0.440728	129.982486	-14.174147	-130.619553
4.100000	-13.827332	-155.017303	-0.464130	126.907514	-0.464130	126.907514	-13.731993	-133.021937
4.150000	-13.411523	-158.684361	-0.488043	123.830723	-0.488043	123.830723	-13.321731	-135.455575
4.200000	-13.025232	-162.328950	-0.512366	120.752093	-0.512366	120.752093	-12.940636	-137.915966
4.250000	-12.666041	-165.954579	-0.536993	117.671541	-0.536993	117.671541	-12.586366	-140.399632
4.300000	-12.331859	-169.564082	-0.561819	114.588912	-0.561819	114.588912	-12.256895	-142.903918
4.350000	-12.020867	-173.159766	-0.586735	111.503985	-0.586735	111.503985	-11.950460	-145.426849
4.400000	-11.731598	-176.743401	-0.611629	108.416436	-0.611629	108.416436	-11.665645	-147.967192
4.450000	-11.462655	179.683433	-0.636388	105.325891	-0.636388	105.325891	-11.401098	-150.524013
4.500000	-11.212687	176.119371	-0.660903	102.231940	-0.660903	102.231940	-11.155505	-153.096659
4.550000	-10.980609	172.563418	-0.685067	99.134076	-0.685067	99.134076	-10.927820	-155.685045
4.600000	-10.765465	169.014788	-0.708771	96.031722	-0.708771	96.031722	-10.717119	-158.289434
4.650000	-10.566408	165.472887	-0.731911	92.924226	-0.731911	92.924226	-10.522591	-160.910416
4.700000	-10.382695	161.937295	-0.754383	89.810869	-0.754383	89.810869	-10.343525	-163.548888
4.750000	-10.213672	158.407765	-0.776084	86.690854	-0.776084	86.690854	-10.179302	-166.206057
4.800000	-10.058769	154.884215	-0.796918	83.563315	-0.796918	83.563315	-10.029385	-168.883427
4.850000	-9.917495	151.366737	-0.816787	80.427307	-0.816787	80.427307	-9.893318	-171.582809
4.900000	-9.789427	147.855602	-0.835600	77.281811	-0.835600	77.281811	-9.770718	-174.306330
4.950000	-9.674216	144.351273	-0.853268	74.125727	-0.853268	74.125727	-9.661273	-177.056445
5.000000	-9.571575	140.854421	-0.869704	70.957872	-0.869704	70.957872	-9.564742	-179.835958
5.050000	-9.481531	137.366158	-0.884799	67.776663	-0.884799	67.776663	-9.481211	177.351157
5.100000	-9.403682	133.887504	-0.898501	64.580989	-0.898501	64.580989	-9.410322	174.501916
5.150000	-9.337932	130.419936	-0.910741	61.369390	-0.910741	61.369390	-9.352040	171.612242
5.200000	-9.284248	126.965269	-0.921451	58.140300	-0.921451	58.140300	-9.306400	168.677550
5.250000	-9.242659	123.525709	-0.930570	54.892046	-0.930570	54.892046	-9.273510	165.692686
5.300000	-9.213255	120.103912	-0.938045	51.622835	-0.938045	51.622835	-9.253554	162.651848
5.350000	-9.196190	116.703062	-0.943830	48.330748	-0.943830	48.330748	-9.246794	159.548497
5.400000	-9.191683	113.326962	-0.947885	45.013728	-0.947885	45.013728	-9.253575	156.375242
5.450000	-9.200014	109.980143	-0.950184	41.669568	-0.950184	41.669568	-9.274330	153.123707
5.500000	-9.221528	106.668002	-0.950709	38.295900	-0.950709	38.295900	-9.309585	149.784364
5.550000	-9.256626	103.396966	-0.949459	34.890179	-0.949459	34.890179	-9.359960	146.346334
5.600000	-9.305767	100.174693	-0.946445	31.449670	-0.946445	31.449670	-9.426178	142.797134
5.650000	-9.369609	97.011070	-0.941683	27.970983	-0.941683	27.970983	-9.509242	139.120826
5.700000	-9.448689	93.917453	-0.935231	24.450837	-0.935231	24.450837	-9.610097	135.300074
5.750000	-9.543377	90.906433	-0.927192	20.886218	-0.927192	20.886218	-9.729580	131.316594
5.800000	-9.654153	87.993843	-0.917686	17.273445	-0.917686	17.273445	-9.868770	127.147349
5.850000	-9.781387	85.198641	-0.906869	13.608563	-0.906869	13.608563	-10.028776	122.765179
5.900000	-9.925245	82.543498	-0.894947	9.887332	-0.894947	9.887332	-10.210669	118.137906
5.950000	-10.085549	80.055436	-0.882181	6.105216	-0.882181	6.105216	-10.415373	113.227248
6.000000	-10.261570	77.766451	-0.868901	2.257376	-0.868901	2.257376	-10.643485	107.987549
6.050000	-10.451744	75.714011	-0.855513	-1.661320	-0.855513	-1.661320	-10.894993	102.364350
6.100000	-10.653266	73.941188	-0.842517	-5.656290	-0.842517	-5.656290	-11.168839	96.292974
6.150000	-10.861633	72.491808	-0.830500	-9.732239	-0.830500	-9.732239	-11.462236	89.704278
6.200000	-11.069710	71.427175	-0.820243	-13.897429	-0.820243	-13.897429	-11.769883	82.494462
6.250000	-11.267216	70.791451	-0.812608	-18.156528	-0.812608	-18.156528	-12.082146	74.575946
6.300000	-11.439489	70.630274	-0.808694	-22.516741	-0.808694	-22.516741	-12.383414	65.841192
6.350000	-11.568234	70.956714	-0.809712	-26.982982	-0.809712	-26.982982	-12.651074	56.215063
6.400000	-11.631522	71.750405	-0.817104	-31.560879	-0.817104	-31.560879	-12.854367	45.656571
6.450000	-11.606166	72.936961	-0.832534	-36.255517	-0.832534	-36.255517	-12.956198	34.202774
6.500000	-11.471660	74.379334	-0.857900	-41.071145	-0.857900	-41.071145	-12.918958	22.002404
6.550000	-11.215020	75.884898	-0.895336	-46.010829	-0.895336	-46.010829	-12.714330	9.323561
6.600000	-10.833617	77.228657	-0.947339	-51.077074	-0.947339	-51.077074	-12.331796	-3.483402
6.650000	-10.339380	78.196978	-1.016435	-56.268613	-1.016435	-56.268613	-11.787309	-16.064868
6.700000	-9.754421	78.627963	-1.105233	-61.581571	-1.105233	-61.581571	-11.115883	-28.155593
6.750000	-9.104478	78.416946	-1.216704	-67.010870	-1.216704	-67.010870	-10.358689	-39.599602
6.800000	-8.416984	77.528449	-1.353681	-72.547188	-1.353681	-72.547188	-9.557114	-50.351701
6.850000	-7.716627	75.980125	-1.518846	-78.177676	-1.518846	-78.177676	-8.745586	-60.440206
6.900000	-7.023326	73.820661	-1.714811	-83.886603	-1.714811	-83.886603	-7.949477	-69.925775
6.950000	-6.352436	71.116668	-1.944005	-89.654991	-1.944005	-89.654991	-7.186509	-78.877525
7.000000	-5.715513	67.959803	-2.207367	-95.459833	-2.207367	-95.459833	-6.468731	-87.376535
7.050000	-5.119508	64.422369	-2.506387	-101.278331	-2.506387	-101.278331	-5.802384	-95.473295
7.100000	-4.568918	60.579414	-2.841665	-107.085800	-2.841665	-107.085800	-5.190871	-103.211674
7.150000	-4.066041	56.501506	-3.213077	-112.857186	-3.213077	-112.857186	-4.635270	-110.625120
7.200000	-3.611021	52.254573	-3.619584	-118.569394	-3.619584	-118.569394	-4.134523	-117.742485
7.250000	-3.202733	47.893904	-4.059849	-124.201314	-4.059849	-124.201314	-3.686424	-124.582942
7.300000	-2.839075	43.466984	-4.532107	-129.734623	-4.532107	-129.734623	-3.287936	-131.161564
7.350000	-2.517274	39.013690	-5.034294	-135.154234	-5.034294	-135.154234	-2.935492	-137.491047
7.400000	-2.234143	34.566726	-5.564176	-140.448492	-5.564176	-140.448492	-2.625239	-143.582991
7.450000	-1.986286	30.152232	-6.119476	-145.609136	-6.119476	-145.609136	-2.353228	-149.448755
7.500000	-1.770259	25.790499	-6.697992	-150.631076	-6.697992	-150.631076	-2.115561	-155.099975
7.550000	-1.583090	21.498179	-7.297264	-155.509484	-7.297264	-155.509484	-1.908910	-160.545374
7.600000	-1.421106	17.285029	-7.915772	-160.247101	-7.915772	-160.247101	-1.729274	-165.801653
7.650000	-1.281328	13.158246	-8.552053	-164.846036	-8.552053	-164.846036	-1.573430	-170.882163
7.700000	-1.161035	9.122199	-9.204988	-169.309815	-9.204988	-169.309815	-1.438464	-175.800725
7.750000	-1.057775	5.179024	-9.873833	-173.642952	-9.873833	-173.642952	-1.321779	179.428457
7.800000	-0.969362	1.329127	-10.558247	-177.850538	-10.558247	-177.850538	-1.221083	174.790869
7.850000	-0.893862	-2.428387	-11.258323	178.062130	-11.258323	178.062130	-1.134384	170.271705
7.900000	-0.829580	-6.095374	-11.974624	174.089918	-11.974624	174.089918	-1.059966	165.855846
7.950000	-0.775036	-9.674370	-12.708242	170.228234	-12.708242	170.228234	-0.996378	161.527760
8.000000	-0.728947	-13.168376	-13.460870	166.473460	-13.460870	166.473460	-0.942416	157.271332
8.050000	-0.690200	-16.580689	-14.234916	162.823503	-14.234916	162.823503	-0.897117	153.069606
8.100000	-0.657841	-19.914777	-15.033665	159.278554	-15.033665	159.278554	-0.859753	148.904404
8.150000	-0.631101	-23.173409	-15.861003	155.843498	-15.861003	155.843498	-0.829915	144.755735
8.200000	-0.609259	-26.360253	-16.722792	152.527720	-16.722792	152.527720	-0.807396	140.600324
8.250000	-0.591669	-29.479623	-17.627381	149.347808	-17.627381	149.347808	-0.792239	136.411790
8.300000	-0.577836	-32.534947	-18.585319	146.335352	-18.585319	146.335352	-0.784979	132.158854
8.350000	-0.567263	-35.531225	-19.612248	143.536491	-19.612248	143.536491	-0.786401	127.807293
8.400000	-0.559813	-38.468043	-20.725186	141.062041	-20.725186	141.062041	-0.798981	123.300842
8.450000	-0.555128	-41.350479	-21.953106	139.077596	-21.953106	139.077596	-0.825572	118.578775
8.500000	-0.553044	-44.181464	-23.333509	137.906633	-23.333509	137.906633	-0.871305	113.554808
8.550000	-0.553495	-46.963706	-24.912851	138.187827	-24.912851	138.187827	-0.944679	108.108721
8.600000	-0.556536	-49.699533	-26.723215	141.240124	-26.723215	141.240124	-1.060156	102.067538
8.650000	-0.562386	-52.390539	-28.650037	149.694008	-28.650037	149.694008	-1.243317	95.174063
8.700000	-0.571460	-55.036926	-29.968279	166.766432	-29.968279	166.766432	-1.540926	87.040286
8.750000	-0.584446	-57.634772	-29.174260	-171.996643	-29.174260	-171.996643	-2.048388	77.019123
8.800000	-0.601942	-60.173205	-26.499541	-160.330692	-26.499541	-160.330692	-2.965773	64.059789
8.850000	-0.623105	-62.630493	-23.558728	-161.087440	-23.558728	-161.087440	-4.730642	46.406611
8.900000	-0.642576	-64.980238	-21.179914	-171.118170	-21.179914	-171.118170	-8.409903	19.831974
8.950000	-0.649761	-67.242423	-19.785979	173.133002	-19.785979	173.133002	-15.899546	-42.246061
9.000000	-0.641366	-69.508658	-19.498094	155.868339	-19.498094	155.868339	-12.041435	-146.968466
9.050000	-0.628023	-71.836845	-20.044848	140.438732	-20.044848	140.438732	-6.936987	178.720966
9.100000	-0.619139	-74.202945	-21.027007	127.848223	-21.027007	127.848223	-4.534496	159.889386
9.150000	-0.616415	-76.569114	-22.179121	117.626315	-22.179121	117.626315	-3.261144	146.838363
9.200000	-0.618503	-78.915754	-23.377448	109.038029	-23.377448	109.038029	-2.521057	137.016053
9.250000	-0.623823	-81.237008	-24.577734	101.454986	-24.577734	101.454986	-2.054497	129.178861
9.300000	-0.631369	-83.531870	-25.762865	94.454689	-25.762865	94.454689	-1.744438	122.680817
9.350000	-0.640451	-85.802168	-26.933588	87.714929	-26.933588	87.714929	-1.526816	117.091541
9.400000	-0.650703	-88.049170	-28.085503	81.000124	-28.085503	81.000124	-1.369321	112.171317
9.450000	-0.661849	-90.275476	-29.222610	74.118248	-29.222610	74.118248	-1.250613	107.730639
9.500000	-0.673780	-92.481753	-30.329366	66.880780	-30.329366	66.880780	-1.160078	103.674345
9.550000	-0.686355	-94.670889	-31.405073	59.163341	-31.405073	59.163341	-1.088321	99.896498
9.600000	-0.699523	-96.844199	-32.430061	50.857214	-32.430061	50.857214	-1.030639	96.343044
9.650000	-0.713263	-99.002407	-33.369323	41.871573	-33.369323	41.871573	-0.983962	92.977602
9.700000	-0.727557	-101.146286	-34.179400	32.202084	-34.179400	32.202084	-0.945883	89.768953
9.750000	-0.742343	-103.277515	-34.833686	22.020991	-34.833686	22.020991	-0.914193	86.683328
9.800000	-0.757621	-105.394943	-35.266707	11.574450	-35.266707	11.574450	-0.888351	83.716478
9.850000	-0.773185	-107.502288	-35.527069	1.247836	-35.527069	1.247836	-0.866167	80.826952
9.900000	-0.788934	-109.598820	-35.597925	-8.683032	-35.597925	-8.683032	-0.847535	78.014816
9.950000	-0.804663	-111.685384	-35.505650	-17.955820	-35.505650	-17.955820	-0.831917	75.270350
10.000000	-0.820116	-113.763309	-35.287198	-26.400375	-35.287198	-26.400375	-0.818890	72.585465
