! freq	dB(S11)	phase(S11)	dB(S12)	phase(S12)	
!     	dB(S21)	phase(S21)	dB(S22)	phase(S22)	
!S-par simulation data
#  GHz  S  DB  R 50
0.000000	-0.000000	0.000000	-361.639205	0.000000	-361.639205	0.000000	-0.000000	0.000000
0.050000	-0.000201	-1.952201	-83.940385	178.288645	-83.940385	178.288645	-0.000084	-0.764071
0.100000	-0.000798	-3.903775	-83.610745	163.528854	-83.610745	163.528854	-0.000331	-1.527968
0.150000	-0.001781	-5.854092	-83.218176	152.436338	-83.218176	152.436338	-0.000737	-2.291518
0.200000	-0.003118	-7.802608	-82.751952	142.901244	-82.751952	142.901244	-0.001287	-3.054581
0.250000	-0.004784	-9.748777	-82.244540	134.541860	-82.244540	134.541860	-0.001969	-3.817023
0.300000	-0.006744	-11.692111	-81.727323	127.169328	-81.727323	127.169328	-0.002767	-4.578738
0.350000	-0.008961	-13.632173	-81.223928	120.642427	-81.223928	120.642427	-0.003665	-5.339641
0.400000	-0.011396	-15.568580	-80.750497	114.840386	-80.750497	114.840386	-0.004646	-6.099673
0.450000	-0.014009	-17.501001	-80.317353	109.660482	-80.317353	109.660482	-0.005692	-6.858797
0.500000	-0.016763	-19.429154	-79.930735	105.018083	-79.930735	105.018083	-0.006788	-7.616994
0.550000	-0.019621	-21.352795	-79.594198	100.845744	-79.594198	100.845744	-0.007920	-8.374259
0.600000	-0.022552	-23.271723	-79.309624	97.091540	-79.309624	97.091540	-0.009077	-9.130600
0.650000	-0.025528	-25.185706	-79.078440	93.721051	-79.078440	93.721051	-0.010247	-9.886023
0.700000	-0.028523	-27.094590	-78.901093	90.707572	-78.901093	90.707572	-0.011422	-10.640550
0.750000	-0.031515	-28.998297	-78.777157	88.032311	-78.777157	88.032311	-0.012596	-11.394212
0.800000	-0.034490	-30.896707	-78.706623	85.690648	-78.706623	85.690648	-0.013763	-12.147034
0.850000	-0.037433	-32.789710	-78.689470	83.687865	-78.689470	83.687865	-0.014920	-12.899036
0.900000	-0.040334	-34.677204	-78.725640	82.039537	-78.725640	82.039537	-0.016063	-13.650238
0.950000	-0.043186	-36.559088	-78.814929	80.772472	-78.814929	80.772472	-0.017193	-14.400657
1.000000	-0.045983	-38.435266	-78.956739	79.926226	-78.956739	79.926226	-0.018306	-15.150307
1.050000	-0.048723	-40.305642	-79.149653	79.555104	-79.149653	79.555104	-0.019404	-15.899196
1.100000	-0.051403	-42.170122	-79.390725	79.730439	-79.390725	79.730439	-0.020487	-16.647332
1.150000	-0.054024	-44.028613	-79.674336	80.542466	-79.674336	80.542466	-0.021555	-17.394718
1.200000	-0.056585	-45.881023	-79.990461	82.100340	-79.990461	82.100340	-0.022608	-18.141355
1.250000	-0.059090	-47.727261	-80.322193	84.527210	-80.322193	84.527210	-0.023648	-18.887239
1.300000	-0.061538	-49.567102	-80.641290	87.968652	-80.641290	87.968652	-0.024676	-19.632350
1.350000	-0.063933	-51.400594	-80.907331	92.488416	-80.907331	92.488416	-0.025692	-20.376698
1.400000	-0.066278	-53.227655	-81.067595	98.072931	-81.067595	98.072931	-0.026699	-21.120273
1.450000	-0.068576	-55.048208	-81.064264	104.547430	-81.064264	104.547430	-0.027696	-21.863064
1.500000	-0.070831	-56.862180	-80.850280	111.547612	-80.850280	111.547612	-0.028686	-22.605061
1.550000	-0.073045	-58.669501	-80.407613	118.577658	-80.407613	118.577658	-0.029669	-23.346250
1.600000	-0.075222	-60.470110	-79.755211	125.147051	-79.755211	125.147051	-0.030646	-24.086619
1.650000	-0.077364	-62.263949	-78.939946	130.903517	-78.939946	130.903517	-0.031618	-24.826151
1.700000	-0.079476	-64.050967	-78.018192	135.684154	-78.018192	135.684154	-0.032586	-25.564833
1.750000	-0.081558	-65.831120	-77.040514	139.483625	-77.040514	139.483625	-0.033551	-26.302648
1.800000	-0.083616	-67.604372	-76.044923	142.389508	-76.044923	142.389508	-0.034514	-27.039582
1.850000	-0.085650	-69.370691	-75.056727	144.526393	-75.056727	144.526393	-0.035474	-27.775617
1.900000	-0.087664	-71.129980	-74.090442	146.016206	-74.090442	146.016206	-0.036434	-28.510728
1.950000	-0.089660	-72.882221	-73.154788	146.976937	-73.154788	146.976937	-0.037393	-29.244898
2.000000	-0.091640	-74.627484	-72.254430	147.511166	-72.254430	147.511166	-0.038352	-29.978120
2.050000	-0.093607	-76.365769	-71.390425	147.697059	-71.390425	147.697059	-0.039312	-30.710379
2.100000	-0.095563	-78.097081	-70.562278	147.597611	-70.562278	147.597611	-0.040273	-31.441658
2.150000	-0.097509	-79.821438	-69.768645	147.263289	-69.768645	147.263289	-0.041236	-32.171942
2.200000	-0.099448	-81.538859	-69.007753	146.734495	-69.007753	146.734495	-0.042200	-32.901213
2.250000	-0.101382	-83.249377	-68.277656	146.043636	-68.277656	146.043636	-0.043167	-33.629459
2.300000	-0.103311	-84.953027	-67.576382	145.216807	-67.576382	145.216807	-0.044137	-34.356661
2.350000	-0.105237	-86.649854	-66.902020	144.275118	-66.902020	144.275118	-0.045109	-35.082807
2.400000	-0.107163	-88.339910	-66.252757	143.235734	-66.252757	143.235734	-0.046085	-35.807880
2.450000	-0.109089	-90.023254	-65.626903	142.112681	-65.626903	142.112681	-0.047065	-36.531867
2.500000	-0.111017	-91.699950	-65.022897	140.917481	-65.022897	140.917481	-0.048049	-37.254753
2.550000	-0.112947	-93.369930	-64.438896	139.658466	-64.438896	139.658466	-0.049037	-37.976500
2.600000	-0.114882	-95.033419	-63.874048	138.344987	-63.874048	138.344987	-0.050031	-38.697118
2.650000	-0.116823	-96.690502	-63.327147	136.983527	-63.327147	136.983527	-0.051029	-39.416595
2.700000	-0.118770	-98.341272	-62.797089	135.579504	-62.797089	135.579504	-0.052032	-40.134916
2.750000	-0.120725	-99.985495	-62.282076	134.135540	-62.282076	134.135540	-0.053041	-40.852006
2.800000	-0.122689	-101.623884	-61.782676	132.659127	-61.782676	132.659127	-0.054056	-41.567967
2.850000	-0.124662	-103.256279	-61.297375	131.151732	-61.297375	131.151732	-0.055077	-42.282736
2.900000	-0.126647	-104.882798	-60.825403	129.616032	-60.825403	129.616032	-0.056105	-42.996302
2.950000	-0.128643	-106.503565	-60.366060	128.054270	-60.366060	128.054270	-0.057139	-43.708653
3.000000	-0.130651	-108.118710	-59.918701	126.468318	-59.918701	126.468318	-0.058181	-44.419780
3.050000	-0.132674	-109.728369	-59.482735	124.859728	-59.482735	124.859728	-0.059229	-45.129670
3.100000	-0.134710	-111.332685	-59.057617	123.229773	-59.057617	123.229773	-0.060286	-45.838315
3.150000	-0.136763	-112.931805	-58.642849	121.579477	-58.642849	121.579477	-0.061350	-46.545705
3.200000	-0.138832	-114.525884	-58.237967	119.909644	-58.237967	119.909644	-0.062422	-47.251829
3.250000	-0.140918	-116.115083	-57.842546	118.220871	-57.842546	118.220871	-0.063503	-47.956680
3.300000	-0.143022	-117.699570	-57.456189	116.513568	-57.456189	116.513568	-0.064593	-48.660248
3.350000	-0.145145	-119.279645	-57.078755	114.788493	-57.078755	114.788493	-0.065692	-49.362562
3.400000	-0.147289	-120.855177	-56.709347	113.044402	-56.709347	113.044402	-0.066801	-50.063523
3.450000	-0.149454	-122.426611	-56.348100	111.282226	-56.348100	111.282226	-0.067919	-50.763198
3.500000	-0.151642	-123.994137	-55.994701	109.501667	-55.994701	109.501667	-0.069047	-51.461580
3.550000	-0.153852	-125.557956	-55.648858	107.702246	-55.648858	107.702246	-0.070186	-52.158662
3.600000	-0.156090	-127.117913	-55.309645	105.881035	-55.309645	105.881035	-0.071337	-52.854293
3.650000	-0.158353	-128.674616	-54.977482	104.039045	-54.977482	104.039045	-0.072498	-53.548603
3.700000	-0.160645	-130.228324	-54.652158	102.175184	-54.652158	102.175184	-0.073671	-54.241596
3.750000	-0.162965	-131.779288	-54.333437	100.287944	-54.333437	100.287944	-0.074856	-54.933264
3.800000	-0.165317	-133.327776	-54.021091	98.375469	-54.021091	98.375469	-0.076053	-55.623605
3.850000	-0.167703	-134.874078	-53.714903	96.435488	-53.714903	96.435488	-0.077262	-56.312614
3.900000	-0.170126	-136.418444	-53.414468	94.463770	-53.414468	94.463770	-0.078484	-57.000230
3.950000	-0.172593	-137.961229	-53.119468	92.455289	-53.119468	92.455289	-0.079721	-57.686407
4.000000	-0.175105	-139.502962	-52.830025	90.407903	-52.830025	90.407903	-0.080971	-58.371242
4.050000	-0.177668	-141.044092	-52.545916	88.316162	-52.545916	88.316162	-0.082235	-59.054733
4.100000	-0.180289	-142.585131	-52.266904	86.173294	-52.266904	86.173294	-0.083514	-59.736879
4.150000	-0.182977	-144.126676	-51.992734	83.970806	-51.992734	83.970806	-0.084807	-60.417679
4.200000	-0.185745	-145.669434	-51.723118	81.697942	-51.723118	81.697942	-0.086115	-61.097134
4.250000	-0.188621	-147.214550	-51.457330	79.331505	-51.457330	79.331505	-0.087440	-61.775123
4.300000	-0.191627	-148.763118	-51.195183	76.856107	-51.195183	76.856107	-0.088781	-62.451740
4.350000	-0.194797	-150.316528	-50.936189	74.248052	-50.936189	74.248052	-0.090138	-63.127026
4.400000	-0.198188	-151.876676	-50.679537	71.472260	-50.679537	71.472260	-0.091513	-63.800989
4.450000	-0.201883	-153.446134	-50.424065	68.479936	-50.424065	68.479936	-0.092905	-64.473644
4.500000	-0.206017	-155.028499	-50.168007	65.201366	-50.168007	65.201366	-0.094316	-65.145014
4.550000	-0.210830	-156.629467	-49.908269	61.524019	-49.908269	61.524019	-0.095747	-65.815109
4.600000	-0.216821	-158.259393	-49.638514	57.241112	-49.638514	57.241112	-0.097201	-66.483927
4.650000	-0.224777	-159.931232	-49.349540	52.096801	-49.349540	52.096801	-0.098682	-67.151651
4.700000	-0.236453	-161.669844	-49.021252	45.597517	-49.021252	45.597517	-0.100198	-67.818449
4.750000	-0.256680	-163.530289	-48.601134	36.656099	-48.601134	36.656099	-0.101778	-68.484642
4.800000	-0.299322	-165.623057	-47.958070	23.104939	-47.958070	23.104939	-0.103501	-69.151034
4.850000	-0.421929	-168.214059	-46.679132	-0.665031	-46.679132	-0.665031	-0.105721	-69.819490
4.900000	-0.983729	-171.150556	-43.583893	-52.186362	-43.583893	-52.186362	-0.110658	-70.489585
4.950000	-1.339879	-163.935706	-42.310708	-156.055310	-42.310708	-156.055310	-0.115373	-71.098637
5.000000	-0.518719	-165.600916	-45.422305	140.186649	-45.422305	140.186649	-0.112048	-71.749453
5.050000	-0.345148	-168.349284	-46.626307	112.492912	-46.626307	112.492912	-0.112330	-72.411214
5.100000	-0.293603	-170.525262	-46.994997	97.441960	-46.994997	97.441960	-0.113519	-73.069062
5.150000	-0.273450	-172.429141	-47.072759	87.823251	-47.072759	87.823251	-0.114984	-73.724008
5.200000	-0.264363	-174.200097	-47.035613	80.882109	-47.035613	80.882109	-0.116567	-74.376800
5.250000	-0.260349	-175.895495	-46.944057	75.495363	-46.944057	75.495363	-0.118220	-75.027745
5.300000	-0.258927	-177.545568	-46.825240	71.067861	-46.825240	71.067861	-0.119921	-75.677022
5.350000	-0.258969	-179.166929	-46.692087	67.271563	-46.692087	67.271563	-0.121662	-76.324730
5.400000	-0.259906	179.230550	-46.551334	63.911877	-46.551334	63.911877	-0.123437	-76.970932
5.450000	-0.261464	177.641480	-46.406341	60.890009	-46.406341	60.890009	-0.125246	-77.615529
5.500000	-0.263368	176.059730	-46.260272	58.074468	-46.260272	58.074468	-0.127083	-78.258817
5.550000	-0.265556	174.483532	-46.113962	55.438290	-46.113962	55.438290	-0.128949	-78.900691
5.600000	-0.267952	172.910765	-45.968312	52.942222	-45.968312	52.942222	-0.130844	-79.541167
5.650000	-0.270505	171.339837	-45.823919	50.557759	-45.823919	50.557759	-0.132769	-80.180258
5.700000	-0.273180	169.769514	-45.681187	48.263715	-45.681187	48.263715	-0.134721	-80.817978
5.750000	-0.275952	168.198817	-45.540398	46.044025	-45.540398	46.044025	-0.136703	-81.454335
5.800000	-0.278802	166.626944	-45.401750	43.886295	-45.401750	43.886295	-0.138714	-82.089341
5.850000	-0.281715	165.053225	-45.265383	41.780811	-45.265383	41.780811	-0.140755	-82.723003
5.900000	-0.284682	163.477088	-45.131401	39.719861	-45.131401	39.719861	-0.142825	-83.355330
5.950000	-0.287693	161.898037	-44.999879	37.697248	-44.999879	37.697248	-0.144925	-83.986332
6.000000	-0.290741	160.315629	-44.870873	35.707941	-44.870873	35.707941	-0.147055	-84.616015
6.050000	-0.293821	158.729470	-44.744425	33.747816	-44.744425	33.747816	-0.149216	-85.244389
6.100000	-0.296929	157.139198	-44.620568	31.813470	-44.620568	31.813470	-0.151408	-85.871461
6.150000	-0.300059	155.544479	-44.499326	29.902072	-44.499326	29.902072	-0.153631	-86.497240
6.200000	-0.303209	153.945005	-44.380721	28.011258	-44.380721	28.011258	-0.155885	-87.121734
6.250000	-0.306376	152.340483	-44.264769	26.139042	-44.264769	26.139042	-0.158172	-87.744951
6.300000	-0.309557	150.730392	-44.151542	24.284422	-44.151542	24.284422	-0.160493	-88.366846
6.350000	-0.312749	149.114690	-44.041004	22.445215	-44.041004	22.445215	-0.162846	-88.987482
6.400000	-0.315950	147.493126	-43.933171	20.620257	-43.933171	20.620257	-0.165232	-89.606869
6.450000	-0.319158	145.865455	-43.828054	18.808574	-43.828054	18.808574	-0.167652	-90.225015
6.500000	-0.322371	144.231444	-43.725666	17.009345	-43.725666	17.009345	-0.170105	-90.841930
6.550000	-0.325588	142.590863	-43.626022	15.221894	-43.626022	15.221894	-0.172593	-91.457623
6.600000	-0.328806	140.943488	-43.529134	13.445665	-43.529134	13.445665	-0.175115	-92.072103
6.650000	-0.332025	139.289101	-43.435019	11.680215	-43.435019	11.680215	-0.177672	-92.685381
6.700000	-0.335244	137.628348	-43.343474	9.924017	-43.343474	9.924017	-0.180261	-93.297603
6.750000	-0.338461	135.958990	-43.255023	8.179638	-43.255023	8.179638	-0.182890	-93.908452
6.800000	-0.341675	134.282540	-43.169252	6.444541	-43.169252	6.444541	-0.185553	-94.518214
6.850000	-0.344885	132.597898	-43.086405	4.719799	-43.086405	4.719799	-0.188254	-95.126763
6.900000	-0.348092	130.905323	-43.006382	3.004829	-43.006382	3.004829	-0.190991	-95.734176
6.950000	-0.351293	129.204613	-42.929201	1.299698	-42.929201	1.299698	-0.193765	-96.340465
7.000000	-0.354490	127.495084	-42.855008	-0.394871	-42.855008	-0.394871	-0.196577	-96.945575
7.050000	-0.357681	125.777533	-42.783559	-2.079852	-42.783559	-2.079852	-0.199425	-97.549648
7.100000	-0.360867	124.050234	-42.715279	-3.753126	-42.715279	-3.753126	-0.202315	-98.152500
7.150000	-0.364050	122.314716	-42.649726	-5.416410	-42.649726	-5.416410	-0.205239	-98.754357
7.200000	-0.367227	120.569189	-42.587346	-7.067303	-42.587346	-7.067303	-0.208206	-99.355041
7.250000	-0.370402	118.814717	-42.527816	-8.706849	-42.527816	-8.706849	-0.211210	-99.954709
7.300000	-0.373576	117.050361	-42.471354	-10.333474	-42.471354	-10.333474	-0.214255	-100.553292
7.350000	-0.376750	115.276106	-42.417925	-11.946704	-42.417925	-11.946704	-0.217340	-101.150822
7.400000	-0.379926	113.492129	-42.367439	-13.546236	-42.367439	-13.546236	-0.220464	-101.747352
7.450000	-0.383107	111.697235	-42.320174	-15.129683	-42.320174	-15.129683	-0.223631	-102.342796
7.500000	-0.386297	109.892814	-42.275709	-16.698397	-42.275709	-16.698397	-0.226836	-102.937322
7.550000	-0.389500	108.076379	-42.234655	-18.247470	-42.234655	-18.247470	-0.230087	-103.530732
7.600000	-0.392719	106.249988	-42.196405	-19.779276	-42.196405	-19.779276	-0.233377	-104.123249
7.650000	-0.395963	104.411685	-42.161402	-21.289087	-42.161402	-21.289087	-0.236711	-104.714737
7.700000	-0.399235	102.562297	-42.129354	-22.777021	-42.129354	-22.777021	-0.240088	-105.305302
7.750000	-0.402546	100.701093	-42.100352	-24.239884	-42.100352	-24.239884	-0.243508	-105.894923
7.800000	-0.405905	98.827532	-42.074414	-25.674475	-42.074414	-25.674475	-0.246974	-106.483595
7.850000	-0.409321	96.942225	-42.051261	-27.079918	-42.051261	-27.079918	-0.250481	-107.071405
7.900000	-0.412817	95.043080	-42.031190	-28.447928	-42.031190	-28.447928	-0.254038	-107.658246
7.950000	-0.416396	93.131931	-42.013602	-29.780398	-42.013602	-29.780398	-0.257638	-108.244290
8.000000	-0.420100	91.205667	-41.998817	-31.063523	-41.998817	-31.063523	-0.261288	-108.829383
8.050000	-0.423935	89.266131	-41.986154	-32.298695	-41.986154	-32.298695	-0.264984	-109.413694
8.100000	-0.427954	87.310931	-41.975479	-33.470939	-41.975479	-33.470939	-0.268732	-109.997144
8.150000	-0.432193	85.340106	-41.966147	-34.573213	-41.966147	-34.573213	-0.272530	-110.579799
8.200000	-0.436714	83.352597	-41.957347	-35.591703	-41.957347	-35.591703	-0.276381	-111.161682
8.250000	-0.441621	81.346011	-41.947840	-36.502754	-41.947840	-36.502754	-0.280290	-111.742771
8.300000	-0.446986	79.320823	-41.935990	-37.296286	-41.935990	-37.296286	-0.284255	-112.323178
8.350000	-0.453070	77.271583	-41.918325	-37.919951	-41.918325	-37.919951	-0.288290	-112.902829
8.400000	-0.460109	75.196791	-41.890333	-38.341730	-41.890333	-38.341730	-0.292397	-113.481824
8.450000	-0.468578	73.091102	-41.843752	-38.496445	-41.843752	-38.496445	-0.296589	-114.060193
8.500000	-0.479292	70.947027	-41.764150	-38.296123	-41.764150	-38.296123	-0.300887	-114.637985
8.550000	-0.493627	68.754264	-41.627309	-37.632733	-41.627309	-37.632733	-0.305319	-115.215265
8.600000	-0.514959	66.490379	-41.376933	-36.321092	-41.376933	-36.321092	-0.309958	-115.792054
8.650000	-0.550551	64.123684	-40.905657	-34.242238	-40.905657	-34.242238	-0.314929	-116.368295
8.700000	-0.620313	61.605839	-39.984142	-31.646841	-39.984142	-31.646841	-0.320523	-116.943307
8.750000	-0.789625	58.968619	-38.164999	-30.898017	-38.164999	-30.898017	-0.327406	-117.512701
8.800000	-1.199458	57.629200	-35.389688	-42.272402	-35.389688	-42.272402	-0.335107	-118.053266
8.850000	-1.137824	59.754933	-35.234360	-70.725014	-35.234360	-70.725014	-0.333418	-118.581703
8.900000	-0.731721	57.843707	-37.778399	-83.554442	-37.778399	-83.554442	-0.332712	-119.172398
8.950000	-0.591850	54.972764	-39.593310	-84.745978	-39.593310	-84.745978	-0.336330	-119.759954
9.000000	-0.545356	52.298906	-40.640056	-83.539573	-40.640056	-83.539573	-0.340862	-120.339239
9.050000	-0.527925	49.772790	-41.293205	-82.265330	-41.293205	-82.265330	-0.345577	-120.914342
9.100000	-0.522305	47.328021	-41.735596	-81.317459	-41.735596	-81.317459	-0.350348	-121.487042
9.150000	-0.522451	44.926019	-42.058016	-80.713249	-42.058016	-80.713249	-0.355149	-122.058132
9.200000	-0.525624	42.542177	-42.314915	-80.367531	-42.314915	-80.367531	-0.359978	-122.628100
9.250000	-0.530690	40.162893	-42.533020	-80.205448	-42.533020	-80.205448	-0.364837	-123.197197
9.300000	-0.537147	37.779264	-42.726463	-80.172011	-42.726463	-80.172011	-0.369731	-123.765547
9.350000	-0.544725	35.384811	-42.904557	-80.220134	-42.904557	-80.220134	-0.374661	-124.333251
9.400000	-0.553274	32.975218	-43.073368	-80.312550	-43.073368	-80.312550	-0.379631	-124.900400
9.450000	-0.562779	30.546595	-43.236192	-80.422729	-43.236192	-80.422729	-0.384641	-125.467041
9.500000	-0.573319	28.094803	-43.395054	-80.528228	-43.395054	-80.528228	-0.389695	-126.033204
9.550000	-0.584947	25.617976	-43.551653	-80.611529	-43.551653	-80.611529	-0.394792	-126.598950
9.600000	-0.597818	23.113595	-43.706775	-80.658632	-43.706775	-80.658632	-0.399933	-127.164317
9.650000	-0.612230	20.577829	-43.860654	-80.654739	-43.860654	-80.654739	-0.405119	-127.729322
9.700000	-0.628393	18.010337	-44.013615	-80.591607	-44.013615	-80.591607	-0.410349	-128.294021
9.750000	-0.646569	15.410523	-44.165631	-80.461091	-44.165631	-80.461091	-0.415623	-128.858458
9.800000	-0.667020	12.777495	-44.316374	-80.253035	-44.316374	-80.253035	-0.420938	-129.422680
9.850000	-0.689653	10.112644	-44.465589	-79.961639	-44.465589	-79.961639	-0.426289	-129.986764
9.900000	-0.713987	7.417215	-44.613035	-79.583654	-44.613035	-79.583654	-0.431662	-130.550812
9.950000	-0.739333	4.688181	-44.758187	-79.111546	-44.758187	-79.111546	-0.437023	-131.114967
10.000000	-0.764924	1.920049	-44.900682	-78.541891	-44.900682	-78.541891	-0.442275	-131.679311
