! freq	dB(S11)	phase(S11)	dB(S12)	phase(S12)	
!     	dB(S21)	phase(S21)	dB(S22)	phase(S22)	
!S-par simulation data
#  GHz  S  DB  R 50
0.000000	-0.000000	0.000000	-344.258334	0.000000	-344.258334	0.000000	-0.000000	0.000000
0.050000	-0.007006	-1.467117	-101.896983	87.445257	-101.896983	87.445257	-0.007039	-1.464837
0.100000	-0.007443	-2.925435	-96.010277	86.384668	-96.010277	86.384668	-0.007425	-2.924472
0.150000	-0.008047	-4.385010	-92.582551	85.260590	-92.582551	85.260590	-0.008027	-4.384571
0.200000	-0.008846	-5.844214	-90.182225	84.069637	-90.182225	84.069637	-0.008832	-5.844092
0.250000	-0.009843	-7.302490	-88.363218	82.857604	-88.363218	82.857604	-0.009838	-7.302586
0.300000	-0.011031	-8.759428	-86.927501	81.656879	-86.927501	81.656879	-0.011037	-8.759682
0.350000	-0.012368	-10.214957	-85.758135	80.486376	-85.758135	80.486376	-0.012386	-10.215331
0.400000	-0.013843	-11.668826	-84.794878	79.363664	-84.794878	79.363664	-0.013873	-11.669292
0.450000	-0.015437	-13.120881	-83.997051	78.305057	-83.997051	78.305057	-0.015477	-13.121417
0.500000	-0.017137	-14.570804	-83.344696	77.337105	-83.344696	77.337105	-0.017187	-14.571391
0.550000	-0.018916	-16.018611	-82.813955	76.476593	-82.813955	76.476593	-0.018974	-16.019238
0.600000	-0.020755	-17.464268	-82.389927	75.745361	-82.389927	75.745361	-0.020819	-17.464928
0.650000	-0.022640	-18.907705	-82.063513	75.172332	-82.063513	75.172332	-0.022709	-18.908396
0.700000	-0.024558	-20.348864	-81.828410	74.793161	-81.828410	74.793161	-0.024629	-20.349586
0.750000	-0.026497	-21.787695	-81.680333	74.652427	-81.680333	74.652427	-0.026569	-21.788452
0.800000	-0.028448	-23.224093	-81.618402	74.815662	-81.618402	74.815662	-0.028521	-23.224890
0.850000	-0.030404	-24.657848	-81.645685	75.391844	-81.645685	75.391844	-0.030475	-24.658695
0.900000	-0.032358	-26.089142	-81.751752	76.452266	-81.751752	76.452266	-0.032426	-26.090047
0.950000	-0.034305	-27.517935	-81.931955	78.124682	-81.931955	78.124682	-0.034370	-27.518910
1.000000	-0.036241	-28.944190	-82.177430	80.570700	-82.177430	80.570700	-0.036303	-28.945245
1.050000	-0.038165	-30.367866	-82.471224	83.987168	-82.471224	83.987168	-0.038223	-30.369013
1.100000	-0.040074	-31.788925	-82.782509	88.594847	-82.782509	88.594847	-0.040128	-31.790175
1.150000	-0.041967	-33.207126	-83.050461	94.708539	-83.050461	94.708539	-0.042017	-33.208492
1.200000	-0.043843	-34.622504	-83.184995	102.354209	-83.184995	102.354209	-0.043889	-34.623998
1.250000	-0.045704	-36.035130	-83.090818	111.219841	-83.090818	111.219841	-0.045745	-36.036764
1.300000	-0.047548	-37.444961	-82.690912	120.693634	-82.690912	120.693634	-0.047586	-37.446746
1.350000	-0.049378	-38.851955	-81.968818	129.941322	-81.968818	129.941322	-0.049412	-38.853902
1.400000	-0.051193	-40.256068	-80.978041	138.213183	-80.978041	138.213183	-0.051224	-40.258187
1.450000	-0.052994	-41.657239	-79.809130	145.075075	-79.809130	145.075075	-0.053023	-41.659542
1.500000	-0.054781	-43.055113	-78.531710	150.308550	-78.531710	150.308550	-0.054808	-43.057611
1.550000	-0.056556	-44.449972	-77.243371	154.243645	-77.243371	154.243645	-0.056582	-44.452675
1.600000	-0.058320	-45.841776	-75.981578	157.100560	-75.981578	157.100560	-0.058345	-45.844694
1.650000	-0.060075	-47.230488	-74.765670	159.089940	-74.765670	159.089940	-0.060100	-47.233631
1.700000	-0.061821	-48.615884	-73.598517	160.358436	-73.598517	160.358436	-0.061845	-48.619263
1.750000	-0.063559	-49.998154	-72.490107	161.099853	-72.490107	161.099853	-0.063583	-50.001779
1.800000	-0.065290	-51.377174	-71.436274	161.406616	-71.436274	161.406616	-0.065315	-51.381055
1.850000	-0.067016	-52.752911	-70.434390	161.366384	-70.434390	161.366384	-0.067041	-52.757058
1.900000	-0.068736	-54.125335	-69.481123	161.046618	-69.481123	161.046618	-0.068763	-54.129759
1.950000	-0.070453	-55.494420	-68.572958	160.499522	-68.572958	160.499522	-0.070481	-55.499130
2.000000	-0.072166	-56.860141	-67.706466	159.765821	-67.706466	159.765821	-0.072197	-56.865149
2.050000	-0.073878	-58.222475	-66.878425	158.877575	-66.878425	158.877575	-0.073910	-58.227792
2.100000	-0.075588	-59.581405	-66.085874	157.860268	-66.085874	157.860268	-0.075622	-59.587042
2.150000	-0.077298	-60.936913	-65.326120	156.734353	-65.326120	156.734353	-0.077335	-60.942881
2.200000	-0.079008	-62.288986	-64.596730	155.516397	-64.596730	155.516397	-0.079047	-62.295297
2.250000	-0.080720	-63.637613	-63.895511	154.219938	-63.895511	154.219938	-0.080762	-63.644280
2.300000	-0.082434	-64.982787	-63.220489	152.856134	-63.220489	152.856134	-0.082478	-64.989821
2.350000	-0.084150	-66.324501	-62.569884	151.434254	-62.569884	151.434254	-0.084198	-66.331915
2.400000	-0.085871	-67.662755	-61.942090	149.962056	-61.942090	149.962056	-0.085921	-67.670561
2.450000	-0.087595	-68.997548	-61.335656	148.446077	-61.335656	148.446077	-0.087649	-69.005761
2.500000	-0.089326	-70.328884	-60.749265	146.891861	-60.749265	146.891861	-0.089382	-70.337516
2.550000	-0.091062	-71.656620	-60.180935	145.302874	-60.180935	145.302874	-0.091122	-71.665686
2.600000	-0.092806	-72.980915	-59.630470	143.684757	-59.630470	143.684757	-0.092869	-72.990429
2.650000	-0.094557	-74.301782	-59.096864	142.040947	-59.096864	142.040947	-0.094624	-74.311758
2.700000	-0.096317	-75.619235	-58.579198	140.374431	-58.579198	140.374431	-0.096388	-75.629689
2.750000	-0.098087	-76.933293	-58.076629	138.687814	-58.076629	138.687814	-0.098160	-76.944239
2.800000	-0.099866	-78.243975	-57.588380	136.983377	-57.588380	136.983377	-0.099943	-78.255429
2.850000	-0.101657	-79.551306	-57.113740	135.263125	-57.113740	135.263125	-0.101737	-79.563283
2.900000	-0.103459	-80.855310	-56.652048	133.528829	-56.652048	133.528829	-0.103543	-80.867827
2.950000	-0.105273	-82.156016	-56.202694	131.782051	-56.202694	131.782051	-0.105361	-82.169088
3.000000	-0.107101	-83.453454	-55.765114	130.024183	-55.765114	130.024183	-0.107192	-83.467099
3.050000	-0.108942	-84.747658	-55.338782	128.256460	-55.338782	128.256460	-0.109038	-84.761893
3.100000	-0.110799	-86.038664	-54.923209	126.479986	-54.923209	126.479986	-0.110898	-86.053506
3.150000	-0.112671	-87.326511	-54.517939	124.695747	-54.517939	124.695747	-0.112774	-87.341976
3.200000	-0.114559	-88.611237	-54.122546	122.904626	-54.122546	122.904626	-0.114666	-88.627345
3.250000	-0.116464	-89.892888	-53.736632	121.107418	-53.736632	121.107418	-0.116576	-89.909655
3.300000	-0.118388	-91.171507	-53.359823	119.304837	-53.359823	119.304837	-0.118503	-91.188953
3.350000	-0.120329	-92.447143	-52.991769	117.497526	-52.991769	117.497526	-0.120449	-92.465286
3.400000	-0.122291	-93.719846	-52.632141	115.686064	-52.632141	115.686064	-0.122414	-93.738704
3.450000	-0.124272	-94.989666	-52.280628	113.870977	-52.280628	113.870977	-0.124400	-95.009260
3.500000	-0.126274	-96.256660	-51.936939	112.052737	-51.936939	112.052737	-0.126406	-96.277009
3.550000	-0.128297	-97.520882	-51.600799	110.231774	-51.600799	110.231774	-0.128434	-97.542006
3.600000	-0.130343	-98.782391	-51.271948	108.408476	-51.271948	108.408476	-0.130485	-98.804310
3.650000	-0.132412	-100.041248	-50.950139	106.583196	-50.950139	106.583196	-0.132558	-100.063982
3.700000	-0.134504	-101.297515	-50.635141	104.756252	-50.635141	104.756252	-0.134655	-101.321085
3.750000	-0.136621	-102.551257	-50.326733	102.927936	-50.326733	102.927936	-0.136777	-102.575684
3.800000	-0.138764	-103.802436	-50.024529	101.098473	-50.024529	101.098473	-0.138925	-103.827742
3.850000	-0.140933	-105.051230	-49.728529	99.268159	-49.728529	99.268159	-0.141099	-105.077438
3.900000	-0.143128	-106.297710	-49.438544	97.437208	-49.438544	97.437208	-0.143299	-106.324841
3.950000	-0.145350	-107.541948	-49.154393	95.605817	-49.154393	95.605817	-0.145527	-107.570024
4.000000	-0.147600	-108.784017	-48.875905	93.774162	-48.875905	93.774162	-0.147782	-108.813062
4.050000	-0.149878	-110.023994	-48.602919	91.942404	-48.602919	91.942404	-0.150066	-110.054030
4.100000	-0.152185	-111.261956	-48.335280	90.110691	-48.335280	90.110691	-0.152379	-111.293007
4.150000	-0.154522	-112.497983	-48.072839	88.279157	-48.072839	88.279157	-0.154721	-112.530071
4.200000	-0.156889	-113.732154	-47.815458	86.447922	-47.815458	86.447922	-0.157094	-113.765305
4.250000	-0.159287	-114.964552	-47.563002	84.617097	-47.563002	84.617097	-0.159498	-114.998790
4.300000	-0.161716	-116.195262	-47.315343	82.786783	-47.315343	82.786783	-0.161933	-116.230612
4.350000	-0.164177	-117.424369	-47.072361	80.957072	-47.072361	80.957072	-0.164400	-117.460856
4.400000	-0.166670	-118.651960	-46.833938	79.128048	-46.833938	79.128048	-0.166900	-118.689609
4.450000	-0.169196	-119.878124	-46.599965	77.299786	-46.599965	77.299786	-0.169432	-119.916962
4.500000	-0.171755	-121.102951	-46.370334	75.472355	-46.370334	75.472355	-0.171998	-121.143003
4.550000	-0.174349	-122.326533	-46.144946	73.645820	-46.144946	73.645820	-0.174598	-122.367827
4.600000	-0.176976	-123.548962	-45.923702	71.820237	-45.923702	71.820237	-0.177233	-123.591525
4.650000	-0.179639	-124.770334	-45.706511	69.995661	-45.706511	69.995661	-0.179902	-124.814194
4.700000	-0.182336	-125.990744	-45.493284	68.172139	-45.493284	68.172139	-0.182607	-126.035929
4.750000	-0.185070	-127.210291	-45.283937	66.349716	-45.283937	66.349716	-0.185348	-127.256829
4.800000	-0.187839	-128.429071	-45.078388	64.528432	-45.078388	64.528432	-0.188124	-128.476992
4.850000	-0.190644	-129.647186	-44.876559	62.708326	-44.876559	62.708326	-0.190937	-129.696520
4.900000	-0.193487	-130.864738	-44.678378	60.889432	-44.678378	60.889432	-0.193788	-130.915513
4.950000	-0.196366	-132.081828	-44.483772	59.071782	-44.483772	59.071782	-0.196675	-132.134076
5.000000	-0.199283	-133.298561	-44.292673	57.255408	-44.292673	57.255408	-0.199600	-133.352314
5.050000	-0.202240	-134.515036	-44.104990	55.440393	-44.104990	55.440393	-0.202564	-134.570326
5.100000	-0.205234	-135.731376	-43.920695	53.626710	-43.920695	53.626710	-0.205567	-135.788235
5.150000	-0.208267	-136.947688	-43.739727	51.814384	-43.739727	51.814384	-0.208608	-137.006150
5.200000	-0.211338	-138.164082	-43.562027	50.003436	-43.562027	50.003436	-0.211688	-138.224179
5.250000	-0.214448	-139.380668	-43.387542	48.193891	-43.387542	48.193891	-0.214806	-139.442435
5.300000	-0.217597	-140.597558	-43.216218	46.385769	-43.216218	46.385769	-0.217964	-140.661030
5.350000	-0.220785	-141.814864	-43.048005	44.579091	-43.048005	44.579091	-0.221161	-141.880076
5.400000	-0.224013	-143.032701	-42.882853	42.773877	-42.882853	42.773877	-0.224398	-143.099688
5.450000	-0.227280	-144.251183	-42.720717	40.970147	-42.720717	40.970147	-0.227674	-144.319983
5.500000	-0.230587	-145.470428	-42.561552	39.167921	-42.561552	39.167921	-0.230990	-145.541076
5.550000	-0.233933	-146.690551	-42.405315	37.367216	-42.405315	37.367216	-0.234346	-146.763087
5.600000	-0.237320	-147.911672	-42.251966	35.568053	-42.251966	35.568053	-0.237741	-147.986133
5.650000	-0.240746	-149.133910	-42.101465	33.770451	-42.101465	33.770451	-0.241177	-149.210336
5.700000	-0.244211	-150.357385	-41.953777	31.974428	-41.953777	31.974428	-0.244653	-150.435817
5.750000	-0.247717	-151.582220	-41.808864	30.180004	-41.808864	30.180004	-0.248168	-151.662697
5.800000	-0.251262	-152.808536	-41.666693	28.387199	-41.666693	28.387199	-0.251723	-152.891101
5.850000	-0.254848	-154.036458	-41.527232	26.596032	-41.527232	26.596032	-0.255319	-154.121152
5.900000	-0.258473	-155.266110	-41.390451	24.806525	-41.390451	24.806525	-0.258954	-155.352976
5.950000	-0.262137	-156.497618	-41.256319	23.018697	-41.256319	23.018697	-0.262629	-156.586700
6.000000	-0.265841	-157.731108	-41.124808	21.232573	-41.124808	21.232573	-0.266343	-157.822451
6.050000	-0.269584	-158.966707	-40.995894	19.448173	-40.995894	19.448173	-0.270097	-159.060356
6.100000	-0.273366	-160.204544	-40.869550	17.665523	-40.869550	17.665523	-0.273890	-160.300546
6.150000	-0.277187	-161.444749	-40.745753	15.884646	-40.745753	15.884646	-0.277721	-161.543150
6.200000	-0.281047	-162.687451	-40.624480	14.105570	-40.624480	14.105570	-0.281592	-162.788299
6.250000	-0.284945	-163.932780	-40.505712	12.328320	-40.505712	12.328320	-0.285501	-164.036125
6.300000	-0.288882	-165.180996	-40.389469	10.553010	-40.389469	10.553010	-0.289449	-165.286888
6.350000	-0.292858	-166.432116	-40.275697	8.779590	-40.275697	8.779590	-0.293436	-166.540607
6.400000	-0.296870	-167.686274	-40.164378	7.008093	-40.164378	7.008093	-0.297459	-167.797414
6.450000	-0.300919	-168.943603	-40.055497	5.238554	-40.055497	5.238554	-0.301519	-169.057445
6.500000	-0.305004	-170.204237	-39.949039	3.471012	-39.949039	3.471012	-0.305616	-170.320836
6.550000	-0.309126	-171.468313	-39.844991	1.705505	-39.844991	1.705505	-0.309749	-171.587721
6.600000	-0.313282	-172.735964	-39.743340	-0.057922	-39.743340	-0.057922	-0.313917	-172.858238
6.650000	-0.317474	-174.007329	-39.644078	-1.819225	-39.644078	-1.819225	-0.318120	-174.132523
6.700000	-0.321699	-175.282543	-39.547192	-3.578354	-39.547192	-3.578354	-0.322357	-175.410715
6.750000	-0.325958	-176.561742	-39.452677	-5.335255	-39.452677	-5.335255	-0.326628	-176.692951
6.800000	-0.330250	-177.845065	-39.360524	-7.089871	-39.360524	-7.089871	-0.330931	-177.979368
6.850000	-0.334574	-179.132649	-39.270727	-8.842142	-39.270727	-8.842142	-0.335267	-179.270107
6.900000	-0.338929	179.575368	-39.183282	-10.592000	-39.183282	-10.592000	-0.339634	179.434695
6.950000	-0.343315	178.278850	-39.098186	-12.339374	-39.098186	-12.339374	-0.344031	178.134900
7.000000	-0.347730	176.977657	-39.015436	-14.084188	-39.015436	-14.084188	-0.348458	176.830367
7.050000	-0.352174	175.671652	-38.935031	-15.826359	-38.935031	-15.826359	-0.352914	175.520959
7.100000	-0.356646	174.360698	-38.856970	-17.565797	-38.856970	-17.565797	-0.357398	174.206537
7.150000	-0.361145	173.044656	-38.781256	-19.302407	-38.781256	-19.302407	-0.361909	172.886962
7.200000	-0.365670	171.723390	-38.707889	-21.036085	-38.707889	-21.036085	-0.366445	171.562097
7.250000	-0.370220	170.396763	-38.636874	-22.766720	-38.636874	-22.766720	-0.371007	170.231803
7.300000	-0.374793	169.064639	-38.568214	-24.494192	-38.568214	-24.494192	-0.375592	168.895944
7.350000	-0.379389	167.726882	-38.501915	-26.218373	-38.501915	-26.218373	-0.380199	167.554383
7.400000	-0.384007	166.383357	-38.437982	-27.939126	-38.437982	-27.939126	-0.384828	166.206985
7.450000	-0.388644	165.033931	-38.376424	-29.656301	-38.376424	-29.656301	-0.389476	164.853614
7.500000	-0.393300	163.678470	-38.317248	-31.369740	-38.317248	-31.369740	-0.394144	163.494137
7.550000	-0.397975	162.316568	-38.260552	-33.079094	-38.260552	-33.079094	-0.398829	162.128144
7.600000	-0.402665	160.948357	-38.206260	-34.784343	-38.206260	-34.784343	-0.403530	160.755770
7.650000	-0.407370	159.573709	-38.154382	-36.485290	-38.154382	-36.485290	-0.408246	159.376884
7.700000	-0.412088	158.192496	-38.104930	-38.181725	-38.104930	-38.181725	-0.412974	157.991359
7.750000	-0.416817	156.804593	-38.057914	-39.873424	-38.057914	-39.873424	-0.417714	156.599069
7.800000	-0.421557	155.409877	-38.013346	-41.560148	-38.013346	-41.560148	-0.422463	155.199891
7.850000	-0.426304	154.008226	-37.971239	-43.241644	-37.971239	-43.241644	-0.427220	153.793701
7.900000	-0.431059	152.599521	-37.931605	-44.917641	-37.931605	-44.917641	-0.431984	152.380382
7.950000	-0.435818	151.183647	-37.894457	-46.587853	-37.894457	-46.587853	-0.436753	150.959815
8.000000	-0.440581	149.760489	-37.859807	-48.251974	-37.859807	-48.251974	-0.441525	149.531888
8.050000	-0.445345	148.329937	-37.827669	-49.909683	-37.827669	-49.909683	-0.446297	148.096490
8.100000	-0.450109	146.891884	-37.798054	-51.560637	-37.798054	-51.560637	-0.451069	146.653513
8.150000	-0.454871	145.446227	-37.770974	-53.204474	-37.770974	-53.204474	-0.455839	145.202854
8.200000	-0.459629	143.992864	-37.746442	-54.840814	-37.746442	-54.840814	-0.460604	143.744411
8.250000	-0.464381	142.531699	-37.724467	-56.469253	-37.724467	-56.469253	-0.465363	142.278089
8.300000	-0.469125	141.062642	-37.705061	-58.089367	-37.705061	-58.089367	-0.470113	140.803796
8.350000	-0.473859	139.585603	-37.688232	-59.700709	-37.688232	-59.700709	-0.474853	139.321445
8.400000	-0.478581	138.100501	-37.673989	-61.302807	-37.673989	-61.302807	-0.479581	137.830953
8.450000	-0.483290	136.607257	-37.662337	-62.895170	-37.662337	-62.895170	-0.484294	136.332243
8.500000	-0.487982	135.105799	-37.653282	-64.477277	-37.653282	-64.477277	-0.488991	134.825243
8.550000	-0.492657	133.596060	-37.646826	-66.048587	-37.646826	-66.048587	-0.493670	133.309886
8.600000	-0.497312	132.077979	-37.642972	-67.608529	-37.642972	-67.608529	-0.498328	131.786113
8.650000	-0.501945	130.551501	-37.641717	-69.156508	-37.641717	-69.156508	-0.502963	130.253869
8.700000	-0.506554	129.016577	-37.643057	-70.691902	-37.643057	-70.691902	-0.507574	128.713107
8.750000	-0.511137	127.473167	-37.646986	-72.214061	-37.646986	-72.214061	-0.512158	127.163787
8.800000	-0.515691	125.920863	-37.653604	-73.721669	-37.653604	-73.721669	-0.516712	125.605501
8.850000	-0.520214	124.360008	-37.662785	-75.214593	-37.662785	-75.214593	-0.521235	124.038596
8.900000	-0.524705	122.790585	-37.674511	-76.692091	-37.674511	-76.692091	-0.525726	122.463056
8.950000	-0.529163	121.212583	-37.688758	-78.153397	-37.688758	-78.153397	-0.530181	120.878872
9.000000	-0.533584	119.626001	-37.705499	-79.597711	-37.705499	-79.597711	-0.534600	119.286045
9.050000	-0.537967	118.030845	-37.724702	-81.024206	-37.724702	-81.024206	-0.538980	117.684583
9.100000	-0.542311	116.427131	-37.746328	-82.432022	-37.746328	-82.432022	-0.543320	116.074507
9.150000	-0.546613	114.814884	-37.770334	-83.820271	-37.770334	-83.820271	-0.547618	114.455842
9.200000	-0.550873	113.194141	-37.796667	-85.188033	-37.796667	-85.188033	-0.551872	112.828627
9.250000	-0.555088	111.564944	-37.825271	-86.534357	-37.825271	-86.534357	-0.556080	111.192909
9.300000	-0.559257	109.927350	-37.856080	-87.858264	-37.856080	-87.858264	-0.560242	109.548747
9.350000	-0.563378	108.281424	-37.889018	-89.158742	-37.889018	-89.158742	-0.564355	107.896209
9.400000	-0.567450	106.627242	-37.924002	-90.434753	-37.924002	-90.434753	-0.568419	106.235375
9.450000	-0.571473	104.964890	-37.960939	-91.685228	-37.960939	-91.685228	-0.572432	104.566336
9.500000	-0.575444	103.294468	-37.999725	-92.909071	-37.999725	-92.909071	-0.576393	102.889193
9.550000	-0.579364	101.616085	-38.040243	-94.105160	-38.040243	-94.105160	-0.580301	101.204061
9.600000	-0.583235	99.930530	-38.082259	-95.274985	-38.082259	-95.274985	-0.584161	99.511734
9.650000	-0.587048	98.236505	-38.125870	-96.411875	-38.125870	-96.411875	-0.587961	97.810915
9.700000	-0.590806	96.534920	-38.170783	-97.517486	-38.170783	-97.517486	-0.591706	96.102521
9.750000	-0.594510	94.825932	-38.216825	-98.590619	-38.216825	-98.590619	-0.595396	94.386713
9.800000	-0.598160	93.109710	-38.263806	-99.630060	-38.263806	-99.630060	-0.599031	92.663666
9.850000	-0.601754	91.386437	-38.311516	-100.634595	-38.311516	-100.634595	-0.602611	90.933566
9.900000	-0.605295	89.656304	-38.359729	-101.603009	-38.359729	-101.603009	-0.606135	89.196611
9.950000	-0.608781	87.919518	-38.408193	-102.534098	-38.408193	-102.534098	-0.609605	87.453014
10.000000	-0.612213	86.176297	-38.456636	-103.426679	-38.456636	-103.426679	-0.613021	85.702996
