! freq	dB(S11)	phase(S11)	dB(S12)	phase(S12)	
!     	dB(S21)	phase(S21)	dB(S22)	phase(S22)	
!S-par simulation data
#  GHz  S  DB  R 50
0.000000	-0.000000	-0.000000	-345.619962	180.000000	-345.619962	180.000000	-0.000000	-0.000000
0.050000	-0.000469	-0.773095	-102.732915	88.505708	-102.732915	88.505708	-0.001346	-2.362879
0.100000	-0.001618	-1.542944	-96.744506	86.999543	-96.744506	86.999543	-0.004903	-4.719485
0.150000	-0.002989	-2.308984	-93.279590	85.495306	-93.279590	85.495306	-0.009622	-7.066834
0.200000	-0.004313	-3.072421	-90.860909	84.007371	-90.860909	84.007371	-0.014567	-9.405422
0.250000	-0.005505	-3.834425	-89.028102	82.546648	-89.028102	82.546648	-0.019189	-11.736670
0.300000	-0.006573	-4.595784	-87.576287	81.122646	-87.576287	81.122646	-0.023268	-14.062191
0.350000	-0.007554	-5.356886	-86.393763	79.743052	-86.393763	79.743052	-0.026819	-16.383242
0.400000	-0.008476	-6.117853	-85.416219	78.417844	-85.416219	78.417844	-0.029920	-18.700299
0.450000	-0.009362	-6.878689	-84.605626	77.161676	-84.605626	77.161676	-0.032657	-21.013305
0.500000	-0.010230	-7.639356	-83.930616	75.984619	-83.930616	75.984619	-0.035143	-23.322325
0.550000	-0.011089	-8.399792	-83.372019	74.901933	-83.372019	74.901933	-0.037456	-25.627094
0.600000	-0.011947	-9.159912	-82.919740	73.938137	-82.919740	73.938137	-0.039653	-27.927038
0.650000	-0.012810	-9.919661	-82.561357	73.112680	-82.561357	73.112680	-0.041790	-30.221924
0.700000	-0.013679	-10.678982	-82.289106	72.451757	-82.289106	72.451757	-0.043903	-32.511408
0.750000	-0.014559	-11.437808	-82.100292	71.996438	-82.100292	71.996438	-0.046022	-34.794901
0.800000	-0.015448	-12.196087	-81.991067	71.791965	-81.991067	71.791965	-0.048168	-37.071999
0.850000	-0.016348	-12.953784	-81.957668	71.892291	-81.957668	71.892291	-0.050357	-39.342378
0.900000	-0.017259	-13.710861	-81.997269	72.368081	-81.997269	72.368081	-0.052598	-41.605673
0.950000	-0.018179	-14.467283	-82.106828	73.311583	-82.106828	73.311583	-0.054897	-43.861494
1.000000	-0.019109	-15.223018	-82.280926	74.838013	-82.280926	74.838013	-0.057257	-46.109492
1.050000	-0.020046	-15.978038	-82.509896	77.090041	-82.509896	77.090041	-0.059677	-48.349343
1.100000	-0.020991	-16.732318	-82.776480	80.236525	-82.776480	80.236525	-0.062153	-50.580747
1.150000	-0.021943	-17.485836	-83.051141	84.458886	-83.051141	84.458886	-0.064681	-52.803432
1.200000	-0.022899	-18.238570	-83.286800	89.912071	-83.286800	89.912071	-0.067253	-55.017150
1.250000	-0.023860	-18.990500	-83.416366	96.646328	-83.416366	96.646328	-0.069861	-57.221686
1.300000	-0.024824	-19.741590	-83.354182	104.510139	-83.354182	104.510139	-0.072496	-59.416645
1.350000	-0.025790	-20.491840	-83.034535	112.998376	-83.034535	112.998376	-0.075146	-61.602072
1.400000	-0.026758	-21.241234	-82.433169	121.426291	-82.433169	121.426291	-0.077803	-63.777840
1.450000	-0.027727	-21.989756	-81.582372	129.136734	-81.582372	129.136734	-0.080457	-65.943853
1.500000	-0.028696	-22.737392	-80.552485	135.710387	-80.552485	135.710387	-0.083098	-68.100040
1.550000	-0.029665	-23.484127	-79.420439	141.011921	-79.420439	141.011921	-0.085719	-70.246358
1.600000	-0.030633	-24.229947	-78.248608	145.107233	-78.248608	145.107233	-0.088312	-72.382787
1.650000	-0.031600	-24.974838	-77.079146	148.156397	-77.079146	148.156397	-0.090872	-74.509330
1.700000	-0.032566	-25.718786	-75.937069	150.340003	-75.937069	150.340003	-0.093392	-76.626008
1.750000	-0.033531	-26.461779	-74.835526	151.823444	-74.835526	151.823444	-0.095871	-78.732863
1.800000	-0.034495	-27.203804	-73.780285	152.745182	-73.780285	152.745182	-0.098305	-80.829952
1.850000	-0.035457	-27.944847	-72.772830	153.216369	-72.772830	153.216369	-0.100693	-82.917347
1.900000	-0.036419	-28.684885	-71.811683	153.321437	-71.811683	153.321437	-0.103035	-84.995030
1.950000	-0.037379	-29.423906	-70.894994	153.130799	-70.894994	153.130799	-0.105330	-87.063101
2.000000	-0.038339	-30.161907	-70.020778	152.701365	-70.020778	152.701365	-0.107583	-89.121774
2.050000	-0.039299	-30.898878	-69.186204	152.074959	-69.186204	152.074959	-0.109793	-91.171167
2.100000	-0.040259	-31.634804	-68.388487	151.284822	-68.388487	151.284822	-0.111965	-93.211408
2.150000	-0.041220	-32.369676	-67.624985	150.357573	-67.624985	150.357573	-0.114101	-95.242633
2.200000	-0.042182	-33.103482	-66.893237	149.314698	-66.893237	149.314698	-0.116206	-97.264986
2.250000	-0.043146	-33.836211	-66.190986	148.173678	-66.190986	148.173678	-0.118281	-99.278621
2.300000	-0.044112	-34.567851	-65.516170	146.948849	-65.516170	146.948849	-0.120331	-101.283695
2.350000	-0.045081	-35.298392	-64.866911	145.652052	-64.866911	145.652052	-0.122361	-103.280377
2.400000	-0.046053	-36.027824	-64.241509	144.293141	-64.241509	144.293141	-0.124373	-105.268841
2.450000	-0.047029	-36.756137	-63.638415	142.880372	-63.638415	142.880372	-0.126371	-107.249267
2.500000	-0.048009	-37.483322	-63.056226	141.420703	-63.056226	141.420703	-0.128359	-109.221842
2.550000	-0.048995	-38.209343	-62.493301	139.919260	-62.493301	139.919260	-0.130340	-111.186600
2.600000	-0.049985	-38.934216	-61.948892	138.382042	-61.948892	138.382042	-0.132318	-113.143913
2.650000	-0.050982	-39.657932	-61.421932	136.813322	-61.421932	136.813322	-0.134295	-115.093988
2.700000	-0.051985	-40.380482	-60.911446	135.216780	-60.911446	135.216780	-0.136275	-117.037038
2.750000	-0.052995	-41.101857	-60.416541	133.595606	-60.416541	133.595606	-0.138261	-118.973283
2.800000	-0.054011	-41.822049	-59.936398	131.952571	-59.936398	131.952571	-0.140254	-120.902948
2.850000	-0.055035	-42.541049	-59.470266	130.290093	-59.470266	130.290093	-0.142257	-122.826263
2.900000	-0.056066	-43.258848	-59.017451	128.610290	-59.017451	128.610290	-0.144273	-124.743465
2.950000	-0.057106	-43.975319	-58.576374	126.913653	-58.576374	126.913653	-0.146304	-126.654241
3.000000	-0.058153	-44.690676	-58.148289	125.204577	-58.148289	125.204577	-0.148350	-128.559910
3.050000	-0.059208	-45.404807	-57.731754	123.483137	-57.731754	123.483137	-0.150415	-130.460208
3.100000	-0.060271	-46.117701	-57.326262	121.750615	-57.326262	121.750615	-0.152498	-132.355389
3.150000	-0.061341	-46.829515	-56.932300	120.009307	-56.932300	120.009307	-0.154600	-134.246312
3.200000	-0.062422	-47.539899	-56.547372	118.257701	-56.547372	118.257701	-0.156726	-136.131957
3.250000	-0.063511	-48.249020	-56.172181	116.498100	-56.172181	116.498100	-0.158876	-138.013278
3.300000	-0.064609	-48.956871	-55.806343	114.731308	-55.806343	114.731308	-0.161050	-139.890544
3.350000	-0.065716	-49.663442	-55.449502	112.958043	-55.449502	112.958043	-0.163249	-141.764027
3.400000	-0.066833	-50.368724	-55.101323	111.178952	-55.101323	111.178952	-0.165474	-143.634002
3.450000	-0.067959	-51.072709	-54.761492	109.394615	-54.761492	109.394615	-0.167726	-145.500747
3.500000	-0.069095	-51.775390	-54.429716	107.605553	-54.429716	107.605553	-0.170005	-147.364541
3.550000	-0.070242	-52.476758	-54.105719	105.812236	-54.105719	105.812236	-0.172312	-149.225665
3.600000	-0.071399	-53.176806	-53.789243	104.015087	-53.789243	104.015087	-0.174648	-151.084405
3.650000	-0.072567	-53.875526	-53.480044	102.214487	-53.480044	102.214487	-0.177013	-152.941044
3.700000	-0.073746	-54.572911	-53.177891	100.410778	-53.177891	100.410778	-0.179407	-154.795870
3.750000	-0.074937	-55.268954	-52.882570	98.604271	-52.882570	98.604271	-0.181831	-156.649170
3.800000	-0.076140	-55.963619	-52.593811	96.795194	-52.593811	96.795194	-0.184286	-158.501213
3.850000	-0.077355	-56.656930	-52.311496	94.983856	-52.311496	94.983856	-0.186771	-160.352322
3.900000	-0.078583	-57.348881	-52.035442	93.170478	-52.035442	93.170478	-0.189286	-162.202788
3.950000	-0.079824	-58.039467	-51.765476	91.355259	-51.765476	91.355259	-0.191832	-164.052902
4.000000	-0.081079	-58.728682	-51.501433	89.538373	-51.501433	89.538373	-0.194409	-165.902955
4.050000	-0.082348	-59.416521	-51.243158	87.719973	-51.243158	87.719973	-0.197017	-167.753239
4.100000	-0.083632	-60.102982	-50.990502	85.900191	-50.990502	85.900191	-0.199657	-169.604046
4.150000	-0.084930	-60.788059	-50.743326	84.079139	-50.743326	84.079139	-0.202327	-171.455667
4.200000	-0.086244	-61.471750	-50.501495	82.256907	-50.501495	82.256907	-0.205029	-173.308395
4.250000	-0.087573	-62.154050	-50.264881	80.433564	-50.264881	80.433564	-0.207763	-175.162522
4.300000	-0.088919	-62.834959	-50.033361	78.609159	-50.033361	78.609159	-0.210528	-177.018339
4.350000	-0.090281	-63.514472	-49.806818	76.783716	-49.806818	76.783716	-0.213326	-178.876139
4.400000	-0.091660	-64.192572	-49.585131	74.957220	-49.585131	74.957220	-0.216156	179.263757
4.450000	-0.093057	-64.869259	-49.368193	73.129639	-49.368193	73.129639	-0.219019	177.401046
4.500000	-0.094472	-65.544545	-49.155909	71.300918	-49.155909	71.300918	-0.221915	175.535459
4.550000	-0.095906	-66.218430	-48.948174	69.470949	-48.948174	69.470949	-0.224845	173.666700
4.600000	-0.097358	-66.890912	-48.744886	67.639581	-48.744886	67.639581	-0.227810	171.794471
4.650000	-0.098829	-67.561993	-48.545941	65.806605	-48.545941	65.806605	-0.230810	169.918471
4.700000	-0.100320	-68.231670	-48.351239	63.971742	-48.351239	63.971742	-0.233848	168.038394
4.750000	-0.101831	-68.899946	-48.160673	62.134628	-48.160673	62.134628	-0.236925	166.153928
4.800000	-0.103362	-69.566820	-47.974138	60.294789	-47.974138	60.294789	-0.240043	164.264751
4.850000	-0.104914	-70.232293	-47.791519	58.451613	-47.791519	58.451613	-0.243206	162.370529
4.900000	-0.106487	-70.896367	-47.612696	56.604307	-47.612696	56.604307	-0.246418	160.470912
4.950000	-0.108081	-71.559043	-47.437537	54.751838	-47.437537	54.751838	-0.249684	158.565526
5.000000	-0.109697	-72.220324	-47.265893	52.892857	-47.265893	52.892857	-0.253013	156.653961
5.050000	-0.111337	-72.880126	-47.097591	51.024898	-47.097591	51.024898	-0.256421	154.735328
5.100000	-0.112999	-73.538560	-46.932421	49.146095	-46.932421	49.146095	-0.259917	152.809597
5.150000	-0.114683	-74.195627	-46.770141	47.253194	-46.770141	47.253194	-0.263523	150.876169
5.200000	-0.116389	-74.851332	-46.610450	45.341715	-46.610450	45.341715	-0.267268	148.934307
5.250000	-0.118119	-75.505678	-46.452970	43.405362	-46.452970	43.405362	-0.271199	146.983077
5.300000	-0.119871	-76.158669	-46.297217	41.435046	-46.297217	41.435046	-0.275383	145.021244
5.350000	-0.121646	-76.810262	-46.142466	39.414839	-46.142466	39.414839	-0.279948	143.046572
5.400000	-0.123444	-77.460445	-45.987715	37.319436	-45.987715	37.319436	-0.285115	141.055995
5.450000	-0.125263	-78.109298	-45.831850	35.113182	-45.831850	35.113182	-0.291230	139.045961
5.500000	-0.127101	-78.756827	-45.673329	32.726457	-45.673329	32.726457	-0.299033	137.009270
5.550000	-0.128956	-79.403010	-45.510635	30.001060	-45.510635	30.001060	-0.310428	134.930741
5.600000	-0.130816	-80.047992	-45.347830	26.624984	-45.347830	26.624984	-0.329969	132.786193
5.650000	-0.132671	-80.692019	-45.222675	21.755290	-45.222675	21.755290	-0.372764	130.529293
5.700000	-0.134550	-81.336117	-45.522573	12.546064	-45.522573	12.546064	-0.510439	128.213722
5.750000	-0.137236	-81.979837	-49.221857	10.131661	-49.221857	10.131661	-0.731554	128.144843
5.800000	-0.139560	-82.614664	-47.691585	32.974503	-47.691585	32.974503	-0.438423	127.045387
5.850000	-0.141446	-83.251260	-46.336443	30.593598	-46.336443	30.593598	-0.347502	124.555658
5.900000	-0.143430	-83.887581	-45.797916	27.480558	-45.797916	27.480558	-0.324859	122.246689
5.950000	-0.145489	-84.522789	-45.500148	24.841677	-45.500148	24.841677	-0.318715	120.051794
6.000000	-0.147597	-85.156803	-45.291999	22.505563	-45.291999	22.505563	-0.317549	117.907418
6.050000	-0.149749	-85.789550	-45.130946	20.368094	-45.130946	20.368094	-0.318536	115.789252
6.100000	-0.151938	-86.421019	-44.997191	18.360699	-44.997191	18.360699	-0.320524	113.683797
6.150000	-0.154163	-87.051211	-44.881269	16.443818	-44.881269	16.443818	-0.323028	111.583843
6.200000	-0.156423	-87.680132	-44.778116	14.593653	-44.778116	14.593653	-0.325822	109.485243
6.250000	-0.158717	-88.307787	-44.684783	12.795278	-44.684783	12.795278	-0.328788	107.385472
6.300000	-0.161045	-88.934157	-44.599565	11.039772	-44.599565	11.039772	-0.331864	105.282848
6.350000	-0.163407	-89.559277	-44.521100	9.319730	-44.521100	9.319730	-0.335008	103.176381
6.400000	-0.165803	-90.183155	-44.448575	7.630883	-44.448575	7.630883	-0.338200	101.065401
6.450000	-0.168233	-90.805800	-44.381406	5.970317	-44.381406	5.970317	-0.341425	98.949469
6.500000	-0.170698	-91.427221	-44.319158	4.336058	-44.319158	4.336058	-0.344675	96.828305
6.550000	-0.173197	-92.047426	-44.261492	2.726801	-44.261492	2.726801	-0.347943	94.701748
6.600000	-0.175730	-92.666426	-44.208142	1.141734	-44.208142	1.141734	-0.351226	92.569724
6.650000	-0.178299	-93.284230	-44.158883	-0.419588	-44.158883	-0.419588	-0.354523	90.432228
6.700000	-0.180903	-93.900847	-44.113524	-1.957330	-44.113524	-1.957330	-0.357832	88.289309
6.750000	-0.183542	-94.516287	-44.071895	-3.471438	-44.071895	-3.471438	-0.361152	86.141062
6.800000	-0.186218	-95.130561	-44.033840	-4.961683	-44.033840	-4.961683	-0.364485	83.987619
6.850000	-0.188930	-95.743679	-43.999213	-6.427701	-43.999213	-6.427701	-0.367830	81.829144
6.900000	-0.191679	-96.355638	-43.967902	-7.868736	-43.967902	-7.868736	-0.371190	79.665780
6.950000	-0.194465	-96.966451	-43.939760	-9.284199	-43.939760	-9.284199	-0.374565	77.497753
7.000000	-0.197289	-97.576140	-43.914608	-10.673710	-43.914608	-10.673710	-0.377957	75.325359
7.050000	-0.200150	-98.184715	-43.892297	-12.036562	-43.892297	-12.036562	-0.381368	73.148858
7.100000	-0.203049	-98.792190	-43.872670	-13.372006	-43.872670	-13.372006	-0.384801	70.968532
7.150000	-0.205987	-99.398574	-43.855563	-14.679255	-43.855563	-14.679255	-0.388257	68.784679
7.200000	-0.208963	-100.003879	-43.840803	-15.957501	-43.840803	-15.957501	-0.391740	66.597611
7.250000	-0.211978	-100.608118	-43.828206	-17.205923	-43.828206	-17.205923	-0.395253	64.407656
7.300000	-0.215032	-101.211301	-43.817575	-18.423700	-43.817575	-18.423700	-0.398797	62.215152
7.350000	-0.218126	-101.813441	-43.808702	-19.610018	-43.808702	-19.610018	-0.402378	60.020452
7.400000	-0.221259	-102.414550	-43.801363	-20.764086	-43.801363	-20.764086	-0.405998	57.823916
7.450000	-0.224433	-103.014641	-43.795322	-21.885143	-43.795322	-21.885143	-0.409660	55.625917
7.500000	-0.227647	-103.613726	-43.790326	-22.972477	-43.790326	-22.972477	-0.413369	53.426832
7.550000	-0.230903	-104.211797	-43.786118	-24.024670	-43.786118	-24.024670	-0.417130	51.227043
7.600000	-0.234201	-104.808888	-43.782391	-25.041879	-43.782391	-25.041879	-0.420946	49.026964
7.650000	-0.237539	-105.405012	-43.778846	-26.023615	-43.778846	-26.023615	-0.424822	46.826993
7.700000	-0.240920	-106.000182	-43.775167	-26.969493	-43.775167	-26.969493	-0.428761	44.627530
7.750000	-0.244343	-106.594413	-43.771026	-27.879250	-43.771026	-27.879250	-0.432768	42.428977
7.800000	-0.247808	-107.187717	-43.766079	-28.752756	-43.766079	-28.752756	-0.436848	40.231740
7.850000	-0.251315	-107.780108	-43.759973	-29.590033	-43.759973	-29.590033	-0.441006	38.036220
7.900000	-0.254866	-108.371600	-43.752342	-30.391271	-43.752342	-30.391271	-0.445247	35.842823
7.950000	-0.258460	-108.962207	-43.742813	-31.156841	-43.742813	-31.156841	-0.449575	33.651949
8.000000	-0.262098	-109.551944	-43.731005	-31.887312	-43.731005	-31.887312	-0.453997	31.463996
8.050000	-0.265779	-110.140824	-43.716538	-32.583459	-43.716538	-32.583459	-0.458516	29.279358
8.100000	-0.269505	-110.728862	-43.699027	-33.246276	-43.699027	-33.246276	-0.463139	27.098425
8.150000	-0.273276	-111.316065	-43.678054	-33.876654	-43.678054	-33.876654	-0.467871	24.921627
8.200000	-0.277091	-111.902446	-43.653235	-34.476101	-43.653235	-34.476101	-0.472719	22.749354
8.250000	-0.280952	-112.488032	-43.624249	-35.046670	-43.624249	-35.046670	-0.477687	20.581929
8.300000	-0.284858	-113.072835	-43.590755	-35.590292	-43.590755	-35.590292	-0.482779	18.419709
8.350000	-0.288810	-113.656873	-43.552433	-36.109121	-43.552433	-36.109121	-0.488002	16.263043
8.400000	-0.292807	-114.240160	-43.508988	-36.605521	-43.508988	-36.605521	-0.493361	14.112271
8.450000	-0.296851	-114.822713	-43.460154	-37.082053	-43.460154	-37.082053	-0.498862	11.967720
8.500000	-0.300941	-115.404547	-43.405699	-37.541449	-43.405699	-37.541449	-0.504510	9.829704
8.550000	-0.305077	-115.985677	-43.345429	-37.986594	-43.345429	-37.986594	-0.510310	7.698527
8.600000	-0.309261	-116.566122	-43.279186	-38.420494	-43.279186	-38.420494	-0.516267	5.574479
8.650000	-0.313491	-117.145896	-43.206859	-38.846245	-43.206859	-38.846245	-0.522388	3.457835
8.700000	-0.317769	-117.725016	-43.128376	-39.267003	-43.128376	-39.267003	-0.528678	1.348859
8.750000	-0.322095	-118.303500	-43.043712	-39.685945	-43.043712	-39.685945	-0.535141	-0.752203
8.800000	-0.326469	-118.881350	-42.952730	-40.106342	-42.952730	-40.106342	-0.541788	-2.844933
8.850000	-0.330891	-119.458599	-42.855646	-40.531349	-42.855646	-40.531349	-0.548619	-4.929289
8.900000	-0.335362	-120.035263	-42.752565	-40.964003	-42.752565	-40.964003	-0.555641	-7.005068
8.950000	-0.339881	-120.611360	-42.643634	-41.407226	-42.643634	-41.407226	-0.562857	-9.072085
9.000000	-0.344449	-121.186907	-42.529035	-41.863802	-42.529035	-41.863802	-0.570274	-11.130169
9.050000	-0.349066	-121.761923	-42.408983	-42.336353	-42.408983	-42.336353	-0.577896	-13.179165
9.100000	-0.353732	-122.336425	-42.283723	-42.827318	-42.283723	-42.827318	-0.585728	-15.218937
9.150000	-0.358447	-122.910432	-42.153524	-43.338939	-42.153524	-43.338939	-0.593775	-17.249360
9.200000	-0.363212	-123.483962	-42.018677	-43.873252	-42.018677	-43.873252	-0.602042	-19.270328
9.250000	-0.368026	-124.057035	-41.879489	-44.432077	-41.879489	-44.432077	-0.610534	-21.281750
9.300000	-0.372891	-124.629668	-41.736282	-45.017017	-41.736282	-45.017017	-0.619256	-23.283552
9.350000	-0.377805	-125.201881	-41.589383	-45.629459	-41.589383	-45.629459	-0.628212	-25.275672
9.400000	-0.382771	-125.773689	-41.439066	-46.270902	-41.439066	-46.270902	-0.637410	-27.257961
9.450000	-0.387787	-126.345113	-41.285672	-46.942344	-41.285672	-46.942344	-0.646854	-29.230390
9.500000	-0.392855	-126.916176	-41.129601	-47.644237	-41.129601	-47.644237	-0.656546	-31.193049
9.550000	-0.397973	-127.486899	-40.971183	-48.377162	-40.971183	-48.377162	-0.666492	-33.145942
9.600000	-0.403141	-128.057301	-40.810740	-49.141531	-40.810740	-49.141531	-0.676695	-35.089084
9.650000	-0.408361	-128.627404	-40.648588	-49.937600	-40.648588	-49.937600	-0.687161	-37.022504
9.700000	-0.413633	-129.197227	-40.485031	-50.765482	-40.485031	-50.765482	-0.697892	-38.946247
9.750000	-0.418955	-129.766792	-40.320364	-51.625164	-40.320364	-51.625164	-0.708895	-40.860369
9.800000	-0.424330	-130.336120	-40.154866	-52.516516	-40.154866	-52.516516	-0.720174	-42.764940
9.850000	-0.429755	-130.905233	-39.988808	-53.439308	-39.988808	-53.439308	-0.731732	-44.660044
9.900000	-0.435233	-131.474152	-39.822445	-54.393224	-39.822445	-54.393224	-0.743574	-46.545776
9.950000	-0.440763	-132.042898	-39.656020	-55.377867	-39.656020	-55.377867	-0.755705	-48.422244
10.000000	-0.446344	-132.611495	-39.489763	-56.392778	-39.489763	-56.392778	-0.768129	-50.289566
