! freq	dB(S11)	phase(S11)	dB(S12)	phase(S12)	
!     	dB(S21)	phase(S21)	dB(S22)	phase(S22)	
!S-par simulation data
#  GHz  S  DB  R 50
0.000000	-83.542544	0.000000	-0.000578	0.000000	-0.000578	0.000000	-83.542544	0.000000
0.050000	-48.906102	-91.250624	-0.004665	-2.436049	-0.004665	-2.436049	-48.906180	-91.256793
0.100000	-42.892424	-94.107871	-0.010823	-4.833382	-0.010823	-4.833382	-42.892550	-94.120202
0.150000	-39.380405	-96.612134	-0.015194	-7.213966	-0.015194	-7.213966	-39.380608	-96.630592
0.200000	-36.895209	-99.031060	-0.018302	-9.591723	-0.018302	-9.591723	-36.895516	-99.055598
0.250000	-34.974557	-101.420234	-0.020886	-11.969992	-0.020886	-11.969992	-34.974991	-101.450797
0.300000	-33.412474	-103.798855	-0.023335	-14.349069	-0.023335	-14.349069	-33.413053	-103.835384
0.350000	-32.099748	-106.175675	-0.025835	-16.728678	-0.025835	-16.728678	-32.100488	-106.218108
0.400000	-30.970357	-108.555445	-0.028469	-19.108467	-0.028469	-19.108467	-30.971266	-108.603733
0.450000	-29.982161	-110.940847	-0.031269	-21.488179	-0.031269	-21.488179	-29.983240	-110.994950
0.500000	-29.107035	-113.333970	-0.034257	-23.867603	-0.034257	-23.867603	-29.108283	-113.393868
0.550000	-28.324121	-115.735661	-0.037425	-26.246606	-0.037425	-26.246606	-28.325531	-115.801360
0.600000	-27.618220	-118.146385	-0.040763	-28.625099	-0.040763	-28.625099	-27.619778	-118.217921
0.650000	-26.978339	-120.566627	-0.044260	-31.003008	-0.044260	-31.003008	-26.980030	-120.644070
0.700000	-26.395654	-122.996292	-0.047901	-33.380304	-0.047901	-33.380304	-26.397457	-123.079753
0.750000	-25.862782	-125.434775	-0.051664	-35.757004	-0.051664	-35.757004	-25.864676	-125.524400
0.800000	-25.374273	-127.881637	-0.055532	-38.133120	-0.055532	-38.133120	-25.376234	-127.977617
0.850000	-24.926010	-130.336387	-0.059487	-40.508679	-0.059487	-40.508679	-24.928013	-130.438961
0.900000	-24.513513	-132.797805	-0.063509	-42.883764	-0.063509	-42.883764	-24.515532	-132.907244
0.950000	-24.133563	-135.264952	-0.067580	-45.258449	-0.067580	-45.258449	-24.135578	-135.381564
1.000000	-23.784194	-137.737017	-0.071683	-47.632808	-0.071683	-47.632808	-23.786180	-137.861166
1.050000	-23.462319	-140.212658	-0.075803	-50.006961	-0.075803	-50.006961	-23.464257	-140.344726
1.100000	-23.165802	-142.690786	-0.079923	-52.381019	-0.079923	-52.381019	-23.167676	-142.831183
1.150000	-22.893336	-145.170359	-0.084030	-54.755105	-0.084030	-54.755105	-22.895130	-145.319538
1.200000	-22.643054	-147.650265	-0.088113	-57.129354	-0.088113	-57.129354	-22.644759	-147.808695
1.250000	-22.413184	-150.129512	-0.092162	-59.503898	-0.092162	-59.503898	-22.414792	-150.297672
1.300000	-22.202654	-152.607163	-0.096166	-61.878886	-0.096166	-61.878886	-22.204161	-152.785559
1.350000	-22.010457	-155.082320	-0.100118	-64.254478	-0.100118	-64.254478	-22.011862	-155.271480
1.400000	-21.834945	-157.554353	-0.104014	-66.630800	-0.104014	-66.630800	-21.836251	-157.754796
1.450000	-21.675104	-160.022664	-0.107849	-69.008002	-0.107849	-69.008002	-21.676314	-160.234917
1.500000	-21.530547	-162.486538	-0.111618	-71.386289	-0.111618	-71.386289	-21.531669	-162.711164
1.550000	-21.399664	-164.945842	-0.115323	-73.765756	-0.115323	-73.765756	-21.400707	-165.183379
1.600000	-21.281577	-167.400349	-0.118963	-76.146546	-0.118963	-76.146546	-21.282550	-167.651339
1.650000	-21.175895	-169.849729	-0.122538	-78.528873	-0.122538	-78.528873	-21.176812	-170.114740
1.700000	-21.081502	-172.294124	-0.126050	-80.912845	-0.126050	-80.912845	-21.082374	-172.573713
1.750000	-20.997456	-174.733737	-0.129505	-83.298574	-0.129505	-83.298574	-20.998294	-175.028455
1.800000	-20.923138	-177.168729	-0.132906	-85.686222	-0.132906	-85.686222	-20.923956	-177.479137
1.850000	-20.857808	-179.599433	-0.136259	-88.075922	-0.136259	-88.075922	-20.858618	-179.926095
1.900000	-20.800821	177.973761	-0.139567	-90.467830	-0.139567	-90.467830	-20.801633	177.630274
1.950000	-20.751448	175.550327	-0.142839	-92.862077	-0.142839	-92.862077	-20.752273	175.189439
2.000000	-20.708908	173.129638	-0.146081	-95.258760	-0.146081	-95.258760	-20.709753	172.750780
2.050000	-20.672513	170.711051	-0.149301	-97.657997	-0.149301	-97.657997	-20.673386	170.313652
2.100000	-20.641581	168.293873	-0.152507	-100.059900	-0.152507	-100.059900	-20.642489	167.877364
2.150000	-20.615435	165.877375	-0.155707	-102.464581	-0.155707	-102.464581	-20.616379	165.441188
2.200000	-20.593397	163.460801	-0.158909	-104.872146	-0.158909	-104.872146	-20.594379	163.004374
2.250000	-20.574785	161.043383	-0.162120	-107.282698	-0.162120	-107.282698	-20.575804	160.566162
2.300000	-20.558915	158.624350	-0.165349	-109.696339	-0.165349	-109.696339	-20.559968	158.125793
2.350000	-20.545096	156.202941	-0.168605	-112.113167	-0.168605	-112.113167	-20.546178	155.682522
2.400000	-20.532628	153.778416	-0.171894	-114.533280	-0.171894	-114.533280	-20.533731	153.235632
2.450000	-20.520801	151.350069	-0.175226	-116.956774	-0.175226	-116.956774	-20.521916	150.784447
2.500000	-20.508896	148.917239	-0.178609	-119.383745	-0.178609	-119.383745	-20.510010	148.328339
2.550000	-20.496144	146.479196	-0.182050	-121.814369	-0.182050	-121.814369	-20.497245	145.866617
2.600000	-20.481804	144.035504	-0.185557	-124.248667	-0.185557	-124.248667	-20.482877	143.398904
2.650000	-20.465120	141.585702	-0.189138	-126.686737	-0.189138	-126.686737	-20.466149	140.924807
2.700000	-20.445329	139.129418	-0.192800	-129.128679	-0.192800	-129.128679	-20.446295	138.444024
2.750000	-20.421658	136.666371	-0.196549	-131.574595	-0.196549	-131.574595	-20.422544	135.956356
2.800000	-20.393330	134.196377	-0.200395	-134.024592	-0.200395	-134.024592	-20.394116	133.461716
2.850000	-20.359567	131.719354	-0.204344	-136.478778	-0.204344	-136.478778	-20.360236	130.960124
2.900000	-20.319594	129.235323	-0.208404	-138.937266	-0.208404	-138.937266	-20.320127	128.451717
2.950000	-20.272644	126.744407	-0.212583	-141.400175	-0.212583	-141.400175	-20.273024	125.936743
3.000000	-20.217965	124.246827	-0.216889	-143.867628	-0.216889	-143.867628	-20.218178	123.415555
3.050000	-20.154826	121.742896	-0.221332	-146.339753	-0.221332	-146.339753	-20.154858	120.888607
3.100000	-20.082523	119.233009	-0.225921	-148.816684	-0.225921	-148.816684	-20.082364	118.356438
3.150000	-20.000267	116.717574	-0.230668	-151.298617	-0.230668	-151.298617	-19.999908	115.819619
3.200000	-19.907406	114.197127	-0.235584	-153.785704	-0.235584	-153.785704	-19.906845	113.278839
3.250000	-19.803487	111.672281	-0.240679	-156.278044	-0.240679	-156.278044	-19.802722	110.734850
3.300000	-19.688000	109.143601	-0.245968	-158.775797	-0.245968	-158.775797	-19.687037	108.188359
3.350000	-19.560507	106.611643	-0.251464	-161.279130	-0.251464	-161.279130	-19.559353	105.640059
3.400000	-19.420643	104.076932	-0.257185	-163.788213	-0.257185	-163.788213	-19.419310	103.090599
3.450000	-19.268128	101.539940	-0.263147	-166.303226	-0.263147	-166.303226	-19.266631	100.540560
3.500000	-19.102765	99.001065	-0.269371	-168.824351	-0.269371	-168.824351	-19.101123	97.990436
3.550000	-18.924453	96.460613	-0.275879	-171.351777	-0.275879	-171.351777	-18.922688	95.440608
3.600000	-18.733180	93.918783	-0.282695	-173.885697	-0.282695	-173.885697	-18.731315	92.891333
3.650000	-18.529032	91.375657	-0.289845	-176.426307	-0.289845	-176.426307	-18.527093	90.342725
3.700000	-18.312187	88.831192	-0.297359	-178.973806	-0.297359	-178.973806	-18.310199	87.794752
3.750000	-18.082915	86.285216	-0.305269	178.471606	-0.305269	178.471606	-18.080904	85.247235
3.800000	-17.841269	83.737397	-0.313618	175.909603	-0.313618	175.909603	-17.839260	82.699840
3.850000	-17.587992	81.187344	-0.322437	173.340103	-0.322437	173.340103	-17.586008	80.152088
3.900000	-17.323605	78.634536	-0.331770	170.762908	-0.331770	170.762908	-17.321667	77.603386
3.950000	-17.048700	76.078362	-0.341660	168.177824	-0.341660	168.177824	-17.046827	75.053034
4.000000	-16.763931	73.518145	-0.352158	165.584665	-0.352158	165.584665	-16.762138	72.500251
4.050000	-16.470003	70.953156	-0.363316	162.983252	-0.363316	162.983252	-16.468302	69.944192
4.100000	-16.167517	68.382589	-0.375198	160.373346	-0.375198	160.373346	-16.165917	67.383935
4.150000	-15.857361	65.805701	-0.387861	157.754835	-0.387861	157.754835	-15.855869	64.818599
4.200000	-15.540059	63.221615	-0.401386	155.127434	-0.401386	155.127434	-15.538678	62.247185
4.250000	-15.217219	60.629957	-0.415804	152.491404	-0.415804	152.491404	-15.215949	59.669139
4.300000	-14.889370	58.029975	-0.431200	149.846505	-0.431200	149.846505	-14.888209	57.083598
4.350000	-14.556979	55.420892	-0.447673	147.192463	-0.447673	147.192463	-14.555923	54.489669
4.400000	-14.221025	52.802277	-0.465299	144.529301	-0.465299	144.529301	-14.220069	51.886784
4.450000	-13.882335	50.173725	-0.484165	141.856999	-0.484165	141.856999	-13.881472	49.274422
4.500000	-13.541796	47.535000	-0.504352	139.175622	-0.504352	139.175622	-13.541019	46.652230
4.550000	-13.200182	44.885923	-0.525955	136.485222	-0.525955	136.485222	-13.199484	44.019927
4.600000	-12.858240	42.226427	-0.549067	133.785892	-0.549067	133.785892	-12.857614	41.377355
4.650000	-12.516684	39.556560	-0.573788	131.077768	-0.573788	131.077768	-12.516123	38.724477
4.700000	-12.176164	36.876458	-0.600222	128.361009	-0.600222	128.361009	-12.175660	36.061354
4.750000	-11.837271	34.186343	-0.628484	125.635806	-0.628484	125.635806	-11.836820	33.388142
4.800000	-11.500713	31.486678	-0.658663	122.902518	-0.658663	122.902518	-11.500309	30.705248
4.850000	-11.167059	28.777943	-0.690865	120.161487	-0.690865	120.161487	-11.166697	28.013104
4.900000	-10.836837	26.060712	-0.725193	117.413114	-0.725193	117.413114	-10.836515	25.312243
4.950000	-10.510538	23.335643	-0.761752	114.657857	-0.761752	114.657857	-10.510252	22.603292
5.000000	-10.188613	20.603473	-0.800644	111.896239	-0.800644	111.896239	-10.188362	19.886959
5.050000	-9.871408	17.864951	-0.841994	109.128786	-0.841994	109.128786	-9.871192	17.163970
5.100000	-9.559384	15.121027	-0.885875	106.356218	-0.885875	106.356218	-9.559200	14.435261
5.150000	-9.252879	12.372626	-0.932379	103.579244	-0.932379	103.579244	-9.252728	11.701746
5.200000	-8.952199	9.620720	-0.981593	100.798636	-0.981593	100.798636	-8.952080	8.964388
5.250000	-8.657614	6.866318	-1.033597	98.015226	-1.033597	98.015226	-8.657528	6.224193
5.300000	-8.369362	4.110461	-1.088467	95.229904	-1.088467	95.229904	-8.369309	3.482199
5.350000	-8.087633	1.354221	-1.146288	92.443614	-1.146288	92.443614	-8.087613	0.739474
5.400000	-7.812630	-1.401304	-1.207102	89.657373	-1.207102	89.657373	-7.812643	-2.002878
5.450000	-7.544509	-4.155018	-1.270950	86.872225	-1.270950	86.872225	-7.544555	-4.743760
5.500000	-7.283394	-6.905824	-1.337866	84.089254	-1.337866	84.089254	-7.283472	-7.482070
5.550000	-7.029382	-9.652626	-1.407875	81.309578	-1.407875	81.309578	-7.029492	-10.216706
5.600000	-6.782549	-12.394332	-1.480989	78.534343	-1.480989	78.534343	-6.782689	-12.946571
5.650000	-6.542951	-15.129823	-1.557220	75.764754	-1.557220	75.764754	-6.543120	-15.670543
5.700000	-6.310627	-17.858019	-1.636554	73.002011	-1.636554	73.002011	-6.310824	-18.387534
5.750000	-6.085587	-20.577908	-1.718949	70.247270	-1.718949	70.247270	-6.085810	-21.096526
5.800000	-5.867822	-23.288472	-1.804364	67.501714	-1.804364	67.501714	-5.868069	-23.796494
5.850000	-5.657310	-25.988719	-1.892746	64.766516	-1.892746	64.766516	-5.657578	-26.486439
5.900000	-5.454010	-28.677690	-1.984027	62.042828	-1.984027	62.042828	-5.454297	-29.165396
5.950000	-5.257875	-31.354424	-2.078131	59.331813	-2.078131	59.331813	-5.258178	-31.832398
6.000000	-5.068855	-34.017950	-2.174971	56.634649	-2.174971	56.634649	-5.069172	-34.486469
6.050000	-4.886849	-36.667520	-2.274426	53.952281	-2.274426	53.952281	-4.887177	-37.126852
6.100000	-4.711763	-39.302331	-2.376380	51.285703	-2.376380	51.285703	-4.712099	-39.752738
6.150000	-4.543493	-41.921626	-2.480704	48.635855	-2.480704	48.635855	-4.543835	-42.363363
6.200000	-4.381925	-44.524693	-2.587260	46.003616	-2.587260	46.003616	-4.382270	-44.958009
6.250000	-4.226939	-47.110870	-2.695904	43.389796	-2.695904	43.389796	-4.227284	-47.536006
6.300000	-4.078445	-49.679349	-2.806482	40.795350	-2.806482	40.795350	-4.078789	-50.096543
6.350000	-3.936267	-52.229755	-2.918827	38.220743	-2.918827	38.220743	-3.936608	-52.639235
6.400000	-3.800326	-54.761273	-3.032769	35.666902	-3.032769	35.666902	-3.800662	-55.163264
6.450000	-3.670366	-57.273960	-3.148135	33.133775	-3.148135	33.133775	-3.670694	-57.668673
6.500000	-3.546277	-59.767216	-3.264750	30.622011	-3.264750	30.622011	-3.546596	-60.154859
6.550000	-3.427900	-62.240701	-3.382436	28.131957	-3.382436	28.131957	-3.428209	-62.621474
6.600000	-3.315076	-64.694126	-3.501014	25.663881	-3.501014	25.663881	-3.315375	-65.068223
6.650000	-3.207644	-67.127260	-3.620305	23.217973	-3.620305	23.217973	-3.207931	-67.494867
6.700000	-3.105438	-69.539922	-3.740128	20.794346	-3.740128	20.794346	-3.105713	-69.901218
6.750000	-3.008295	-71.931986	-3.860306	18.393040	-3.860306	18.393040	-3.008557	-72.287144
6.800000	-2.916050	-74.303381	-3.980661	16.014025	-3.980661	16.014025	-2.916298	-74.652566
6.850000	-2.828536	-76.654083	-4.101021	13.657201	-4.101021	13.657201	-2.828771	-76.997454
6.900000	-2.745630	-78.983898	-4.221194	11.322644	-4.221194	11.322644	-2.745851	-79.321608
6.950000	-2.667167	-81.292907	-4.341007	9.010118	-4.341007	9.010118	-2.667373	-81.625104
7.000000	-2.592942	-83.581465	-4.460320	6.719102	-4.460320	6.719102	-2.593135	-83.908286
7.050000	-2.522798	-85.849746	-4.578977	4.449259	-4.578977	4.449259	-2.522976	-86.171324
7.100000	-2.456576	-88.097969	-4.696825	2.200205	-4.696825	2.200205	-2.456741	-88.414431
7.150000	-2.394123	-90.326397	-4.813720	-0.028486	-4.813720	-0.028486	-2.394273	-90.637862
7.200000	-2.335286	-92.535332	-4.929521	-2.237282	-4.929521	-2.237282	-2.335423	-92.841914
7.250000	-2.279920	-94.725117	-5.044093	-4.426687	-5.044093	-4.426687	-2.280042	-95.026926
7.300000	-2.227879	-96.896132	-5.157308	-6.597233	-5.157308	-6.597233	-2.227986	-97.193271
7.350000	-2.179023	-99.048793	-5.269042	-8.749485	-5.269042	-8.749485	-2.179115	-99.341360
7.400000	-2.133216	-101.183550	-5.379178	-10.884028	-5.379178	-10.884028	-2.133293	-101.471639
7.450000	-2.090326	-103.300885	-5.487605	-13.001471	-5.487605	-13.001471	-2.090388	-103.584584
7.500000	-2.050227	-105.401314	-5.594214	-15.102440	-5.594214	-15.102440	-2.050272	-105.680705
7.550000	-2.012845	-107.485034	-5.698836	-17.187248	-5.698836	-17.187248	-2.012874	-107.760199
7.600000	-1.978008	-109.552988	-5.801441	-19.256907	-5.801441	-19.256907	-1.978019	-109.824001
7.650000	-1.945600	-111.605774	-5.901939	-21.312084	-5.901939	-21.312084	-1.945594	-111.872705
7.700000	-1.915513	-113.644015	-6.000243	-23.353451	-6.000243	-23.353451	-1.915488	-113.906930
7.750000	-1.887643	-115.668360	-6.096270	-25.381687	-6.096270	-25.381687	-1.887598	-115.927321
7.800000	-1.861890	-117.679477	-6.189941	-27.397476	-6.189941	-27.397476	-1.861824	-117.934543
7.850000	-1.838160	-119.678060	-6.281181	-29.401508	-6.281181	-29.401508	-1.838071	-119.929284
7.900000	-1.816361	-121.664819	-6.369917	-31.394472	-6.369917	-31.394472	-1.816249	-121.912253
7.950000	-1.796410	-123.640487	-6.456080	-33.377061	-6.456080	-33.377061	-1.796273	-123.884177
8.000000	-1.778226	-125.605814	-6.539602	-35.349971	-6.539602	-35.349971	-1.778063	-125.845803
8.050000	-1.761733	-127.561569	-6.620419	-37.313896	-6.620419	-37.313896	-1.761542	-127.797898
8.100000	-1.746860	-129.508539	-6.698466	-39.269535	-6.698466	-39.269535	-1.746640	-129.741243
8.150000	-1.733557	-131.447450	-6.773644	-41.217512	-6.773644	-41.217512	-1.733307	-131.676562
8.200000	-1.721761	-133.379152	-6.845892	-43.158553	-6.845892	-43.158553	-1.721480	-133.604701
8.250000	-1.711400	-135.304569	-6.915188	-45.093445	-6.915188	-45.093445	-1.711085	-135.526579
8.300000	-1.702422	-137.224556	-6.981471	-47.022897	-6.981471	-47.022897	-1.702072	-137.443048
8.350000	-1.694818	-139.139879	-7.044579	-48.947509	-7.044579	-48.947509	-1.694432	-139.354870
8.400000	-1.688414	-141.051779	-7.104819	-50.868396	-7.104819	-50.868396	-1.687990	-141.263282
8.450000	-1.683370	-142.960685	-7.161571	-52.785741	-7.161571	-52.785741	-1.682907	-143.168707
8.500000	-1.679487	-144.867842	-7.215262	-54.700689	-7.215262	-54.700689	-1.678983	-145.072388
8.550000	-1.676831	-146.774072	-7.265549	-56.613820	-7.265549	-56.613820	-1.676285	-146.975140
8.600000	-1.675357	-148.680337	-7.312438	-58.525928	-7.312438	-58.525928	-1.674768	-148.877920
8.650000	-1.675003	-150.587579	-7.356008	-60.437817	-7.356008	-60.437817	-1.674370	-150.781668
8.700000	-1.675869	-152.496939	-7.395832	-62.350314	-7.395832	-62.350314	-1.675189	-152.687514
8.750000	-1.677771	-154.409007	-7.432419	-64.264073	-7.432419	-64.264073	-1.677044	-154.596048
8.800000	-1.680949	-156.325586	-7.464896	-66.180365	-7.464896	-66.180365	-1.680175	-156.509060
8.850000	-1.685167	-158.246781	-7.493997	-68.099527	-7.493997	-68.099527	-1.684343	-158.426655
8.900000	-1.690612	-160.174487	-7.519049	-70.023012	-7.519049	-70.023012	-1.689738	-160.350715
8.950000	-1.697188	-162.109140	-7.540350	-71.951341	-7.540350	-71.951341	-1.696262	-162.281673
9.000000	-1.704961	-164.052120	-7.557666	-73.885716	-7.557666	-73.885716	-1.703983	-164.220899
9.050000	-1.713984	-166.004706	-7.570831	-75.827307	-7.570831	-75.827307	-1.712952	-166.169661
9.100000	-1.724197	-167.967240	-7.580076	-77.776608	-7.580076	-77.776608	-1.723109	-168.128298
9.150000	-1.735811	-169.942377	-7.584740	-79.735971	-7.584740	-79.735971	-1.734667	-170.099444
9.200000	-1.748648	-171.929142	-7.585472	-81.704884	-7.585472	-81.704884	-1.747447	-172.082130
9.250000	-1.763026	-173.931314	-7.581325	-83.686818	-7.581325	-83.686818	-1.761766	-174.080103
9.300000	-1.778764	-175.947572	-7.572974	-85.681000	-7.572974	-85.681000	-1.777443	-176.092050
9.350000	-1.796103	-177.980927	-7.559783	-87.690485	-7.559783	-87.690485	-1.794718	-178.120956
9.400000	-1.815033	179.968386	-7.541916	-89.715941	-7.541916	-89.715941	-1.813582	179.832952
9.450000	-1.835638	177.899151	-7.519262	-91.759027	-7.519262	-91.759027	-1.834119	177.768469
9.500000	-1.858115	175.809000	-7.491419	-93.822626	-7.491419	-93.822626	-1.856524	175.683254
9.550000	-1.882358	173.699110	-7.458867	-95.906234	-7.458867	-95.906234	-1.880691	173.578477
9.600000	-1.908812	171.564391	-7.420572	-98.015907	-7.420572	-98.015907	-1.907063	171.449101
9.650000	-1.937214	169.408053	-7.377462	-100.149119	-7.377462	-100.149119	-1.935379	169.298311
9.700000	-1.968064	167.224605	-7.328450	-102.313000	-7.328450	-102.313000	-1.966135	167.120676
9.750000	-2.001203	165.016258	-7.274202	-104.506188	-7.274202	-104.506188	-1.999174	164.918392
9.800000	-2.036963	162.779713	-7.214151	-106.733998	-7.214151	-106.733998	-2.034824	162.688201
9.850000	-2.075459	160.514293	-7.148316	-108.998827	-7.148316	-108.998827	-2.073200	160.429439
9.900000	-2.116756	158.219938	-7.076849	-111.302507	-7.076849	-111.302507	-2.114365	158.142058
9.950000	-2.161307	155.892516	-6.999047	-113.652768	-6.999047	-113.652768	-2.158769	155.821980
10.000000	-2.208840	153.535805	-6.915882	-116.046382	-6.915882	-116.046382	-2.206141	153.472949
