! freq	dB(S11)	phase(S11)	dB(S12)	phase(S12)	
!     	dB(S21)	phase(S21)	dB(S22)	phase(S22)	
!S-par simulation data
#  GHz  S  DB  R 50
0.000000	-0.000000	0.000000	-374.954267	0.000000	-374.954267	0.000000	-0.000000	0.000000
0.050000	-0.000096	-0.765934	-116.971103	89.037322	-116.971103	89.037322	-0.000096	-0.765969
0.100000	-0.000381	-1.531639	-111.012715	88.098374	-111.012715	88.098374	-0.000381	-1.531710
0.150000	-0.000847	-2.296887	-107.597147	87.206996	-107.597147	87.206996	-0.000847	-2.296992
0.200000	-0.001466	-3.061540	-105.238847	86.377820	-105.238847	86.377820	-0.001467	-3.061679
0.250000	-0.002223	-3.825441	-103.479184	85.628855	-103.479184	85.628855	-0.002224	-3.825612
0.300000	-0.003106	-4.588393	-102.122831	84.985720	-102.122831	84.985720	-0.003108	-4.588596
0.350000	-0.004073	-5.350481	-101.041874	84.447109	-101.041874	84.447109	-0.004076	-5.350714
0.400000	-0.005117	-6.111531	-100.188249	84.047913	-100.188249	84.047913	-0.005120	-6.111796
0.450000	-0.006211	-6.871625	-99.512100	83.799583	-99.512100	83.799583	-0.006214	-6.871919
0.500000	-0.007340	-7.630730	-98.992505	83.738426	-98.992505	83.738426	-0.007343	-7.631054
0.550000	-0.008489	-8.388880	-98.612135	83.904237	-98.612135	83.904237	-0.008492	-8.389234
0.600000	-0.009647	-9.146107	-98.360691	84.352644	-98.360691	84.352644	-0.009650	-9.146491
0.650000	-0.010805	-9.902448	-98.232125	85.159910	-98.232125	85.159910	-0.010808	-9.902863
0.700000	-0.011957	-10.657941	-98.223112	86.431501	-98.223112	86.431501	-0.011959	-10.658386
0.750000	-0.013098	-11.412620	-98.331326	88.314347	-98.331326	88.314347	-0.013100	-11.413095
0.800000	-0.014225	-12.166513	-98.552700	91.013551	-98.552700	91.013551	-0.014227	-12.167020
0.850000	-0.015334	-12.919521	-98.879820	95.122976	-98.879820	95.122976	-0.015336	-12.920059
0.900000	-0.016427	-13.671758	-99.282918	100.781914	-99.282918	100.781914	-0.016429	-13.672328
0.950000	-0.017512	-14.423620	-99.655355	107.561042	-99.655355	107.561042	-0.017513	-14.424222
1.000000	-0.018572	-15.174359	-99.888585	117.700741	-99.888585	117.700741	-0.018573	-15.174993
1.050000	-0.019628	-15.924851	-99.975849	128.296461	-99.975849	128.296461	-0.019629	-15.925517
1.100000	-0.020661	-16.674111	-99.332604	141.172290	-99.332604	141.172290	-0.020662	-16.674808
1.150000	-0.021691	-17.423245	-98.638946	153.785183	-98.638946	153.785183	-0.021692	-17.423975
1.200000	-0.022701	-18.171011	-97.083334	163.505763	-97.083334	163.505763	-0.022701	-18.171772
1.250000	-0.023710	-18.918776	-95.764462	173.226344	-95.764462	173.226344	-0.023711	-18.919569
1.300000	-0.024705	-19.665400	-94.141201	179.431073	-94.141201	179.431073	-0.024706	-19.666224
1.350000	-0.025693	-20.411278	-92.553479	-176.083219	-92.553479	-176.083219	-0.025694	-20.412134
1.400000	-0.026675	-21.156400	-91.038315	-172.892985	-91.038315	-172.892985	-0.026676	-21.157287
1.450000	-0.027651	-21.900750	-89.607526	-170.666879	-89.607526	-170.666879	-0.027652	-21.901668
1.500000	-0.028623	-22.644315	-88.261095	-169.161216	-88.261095	-169.161216	-0.028624	-22.645264
1.550000	-0.029591	-23.387079	-86.994046	-168.200223	-86.994046	-168.200223	-0.029592	-23.388059
1.600000	-0.030555	-24.129028	-85.799719	-167.657119	-85.799719	-167.657119	-0.030556	-24.130037
1.650000	-0.031517	-24.870144	-84.671250	-167.439625	-84.671250	-167.439625	-0.031519	-24.871184
1.700000	-0.032477	-25.610110	-83.577261	-167.545769	-83.577261	-167.545769	-0.032479	-25.611180
1.750000	-0.033436	-26.349629	-82.572837	-167.767699	-82.572837	-167.767699	-0.033438	-26.350727
1.800000	-0.034395	-27.088068	-81.601619	-168.179469	-81.601619	-168.179469	-0.034396	-27.089196
1.850000	-0.035352	-27.825736	-80.682603	-168.726841	-80.682603	-168.726841	-0.035354	-27.826893
1.900000	-0.036310	-28.562444	-79.800249	-169.384580	-79.800249	-169.384580	-0.036312	-28.563629
1.950000	-0.037268	-29.298192	-78.952767	-170.152686	-78.952767	-170.152686	-0.037270	-29.299406
2.000000	-0.038228	-30.033111	-78.143965	-170.985850	-78.143965	-170.985850	-0.038230	-30.034354
2.050000	-0.039188	-30.766870	-77.357134	-171.910094	-77.357134	-171.910094	-0.039190	-30.768141
2.100000	-0.040149	-31.499945	-76.610172	-172.872438	-76.610172	-172.872438	-0.040151	-31.501244
2.150000	-0.041113	-32.231649	-75.875423	-173.910980	-75.875423	-173.910980	-0.041115	-32.232975
2.200000	-0.042078	-32.962823	-75.181198	-174.971037	-75.181198	-174.971037	-0.042080	-32.964177
2.250000	-0.043047	-33.692408	-74.491709	-176.095637	-74.491709	-176.095637	-0.043049	-33.693789
2.300000	-0.044016	-34.421628	-73.843023	-177.231291	-73.843023	-177.231291	-0.044019	-34.423036
2.350000	-0.044991	-35.149030	-73.193284	-178.422211	-73.193284	-178.422211	-0.044993	-35.150465
2.400000	-0.045967	-35.876245	-72.584356	-179.617474	-72.584356	-179.617474	-0.045969	-35.877707
2.450000	-0.046949	-36.601405	-71.969859	179.139497	-71.969859	179.139497	-0.046951	-36.602893
2.500000	-0.047931	-37.326565	-71.395978	177.896467	-71.395978	177.896467	-0.047934	-37.328079
2.550000	-0.048922	-38.049425	-70.812985	176.611828	-70.812985	176.611828	-0.048924	-38.050965
2.600000	-0.049913	-38.772285	-70.266673	175.327188	-70.266673	175.327188	-0.049915	-38.773851
2.650000	-0.050913	-39.492986	-69.715633	174.011677	-69.715633	174.011677	-0.050916	-39.494579
2.700000	-0.051914	-40.213492	-69.194309	172.693359	-69.194309	172.693359	-0.051917	-40.215110
2.750000	-0.052925	-40.931992	-68.671894	171.352068	-68.671894	171.352068	-0.052927	-40.933635
2.800000	-0.053937	-41.650090	-68.173350	170.006181	-68.173350	170.006181	-0.053940	-41.651759
2.850000	-0.054959	-42.366347	-67.676741	168.643211	-67.676741	168.643211	-0.054961	-42.368040
2.900000	-0.055984	-43.081989	-67.199073	167.274545	-67.199073	167.274545	-0.055987	-43.083707
2.950000	-0.057019	-43.795962	-66.725864	165.893235	-66.725864	165.893235	-0.057021	-43.797705
3.000000	-0.058058	-44.509101	-66.267418	164.505602	-66.267418	164.505602	-0.058061	-44.510869
3.050000	-0.059107	-45.220754	-65.815537	163.108699	-65.815537	163.108699	-0.059109	-45.222546
3.100000	-0.060162	-45.931345	-65.374860	161.705175	-65.374860	161.705175	-0.060164	-45.933162
3.150000	-0.061225	-46.640642	-64.942509	160.294962	-64.942509	160.294962	-0.061227	-46.642483
3.200000	-0.062297	-47.348645	-64.518322	158.878059	-64.518322	158.878059	-0.062299	-47.350509
3.250000	-0.063377	-48.055552	-64.103928	157.456446	-64.103928	157.456446	-0.063379	-48.057440
3.300000	-0.064467	-48.760927	-63.695097	156.028241	-63.695097	156.028241	-0.064470	-48.762838
3.350000	-0.065565	-49.465414	-63.297277	154.596846	-63.297277	154.596846	-0.065567	-49.467349
3.400000	-0.066676	-50.168126	-62.902790	153.159071	-62.902790	153.159071	-0.066678	-50.170083
3.450000	-0.067792	-50.870163	-62.520320	151.719269	-62.520320	151.719269	-0.067794	-50.872143
3.500000	-0.068924	-51.570177	-62.139267	150.273384	-62.139267	150.273384	-0.068926	-51.572181
3.550000	-0.070061	-52.269738	-61.771061	148.826354	-61.771061	148.826354	-0.070063	-52.271763
3.600000	-0.071216	-52.967026	-61.402625	147.373600	-61.402625	147.373600	-0.071219	-52.969074
3.650000	-0.072374	-53.664084	-61.047709	145.920361	-61.047709	145.920361	-0.072376	-53.666154
3.700000	-0.073555	-54.358618	-60.691149	144.461798	-60.691149	144.461798	-0.073557	-54.360710
3.750000	-0.074735	-55.053152	-60.348651	143.003235	-60.348651	143.003235	-0.074738	-55.055266
3.800000	-0.075942	-55.744907	-60.003296	141.539780	-60.003296	141.539780	-0.075945	-55.747043
3.850000	-0.077150	-56.436663	-59.671148	140.076325	-59.671148	140.076325	-0.077152	-56.438819
3.900000	-0.078383	-57.125851	-59.337665	138.609114	-59.337665	138.609114	-0.078385	-57.128029
3.950000	-0.079618	-57.814806	-59.015326	137.141561	-59.015326	137.141561	-0.079620	-57.817005
4.000000	-0.080878	-58.501412	-58.692985	135.671172	-58.692985	135.671172	-0.080880	-58.503631
4.050000	-0.082143	-59.187548	-58.379956	134.200217	-58.379956	134.200217	-0.082145	-59.189788
4.100000	-0.083432	-59.871558	-58.068095	132.727166	-58.068095	132.727166	-0.083434	-59.873818
4.150000	-0.084728	-60.554859	-57.763917	131.253418	-57.763917	131.253418	-0.084731	-60.557139
4.200000	-0.086047	-61.236261	-57.461933	129.778167	-57.461933	129.778167	-0.086049	-61.238561
4.250000	-0.087376	-61.916714	-57.166184	128.302164	-57.166184	128.302164	-0.087379	-61.919034
4.300000	-0.088726	-62.595500	-56.873525	126.825126	-56.873525	126.825126	-0.088729	-62.597839
4.350000	-0.090091	-63.273095	-56.585813	125.347348	-56.585813	125.347348	-0.090093	-63.275453
4.400000	-0.091473	-63.949257	-56.301974	123.868896	-56.301974	123.868896	-0.091476	-63.951634
4.450000	-0.092874	-64.623986	-56.021935	122.389770	-56.021935	122.389770	-0.092877	-64.626383
4.500000	-0.094291	-65.297519	-55.746452	120.910242	-55.746452	120.910242	-0.094294	-65.299934
4.550000	-0.095730	-65.969378	-55.473750	119.430150	-55.473750	119.430150	-0.095733	-65.971812
4.600000	-0.097182	-66.640280	-55.206195	117.949850	-55.206195	117.949850	-0.097185	-66.642732
4.650000	-0.098661	-67.309267	-54.940514	116.469136	-54.940514	116.469136	-0.098664	-67.311737
4.700000	-0.100150	-67.977536	-54.680493	114.988345	-54.680493	114.988345	-0.100153	-67.980024
4.750000	-0.101671	-68.643651	-54.421541	113.507320	-54.421541	113.507320	-0.101674	-68.646157
4.800000	-0.103198	-69.309289	-54.168687	112.026291	-54.168687	112.026291	-0.103201	-69.311812
4.850000	-0.104762	-69.972536	-53.916190	110.545238	-53.916190	110.545238	-0.104765	-69.975077
4.900000	-0.106329	-70.635546	-53.670166	109.064204	-53.670166	109.064204	-0.106333	-70.638104
4.950000	-0.107938	-71.295932	-53.423865	107.583379	-53.423865	107.583379	-0.107941	-71.298507
5.000000	-0.109547	-71.956318	-53.184357	106.102554	-53.184357	106.102554	-0.109550	-71.958910
5.050000	-0.111202	-72.613852	-52.944012	104.622191	-52.944012	104.622191	-0.111205	-72.616461
5.100000	-0.112857	-73.271386	-52.710140	103.141829	-52.710140	103.141829	-0.112861	-73.274011
5.150000	-0.114557	-73.926315	-52.476112	101.662088	-52.476112	101.662088	-0.114560	-73.928956
5.200000	-0.116261	-74.581008	-52.247668	100.182403	-52.247668	100.182403	-0.116264	-74.583665
5.250000	-0.118006	-75.233344	-52.019677	98.703448	-52.019677	98.703448	-0.118009	-75.236018
5.300000	-0.119760	-75.885210	-51.796466	97.224639	-51.796466	97.224639	-0.119763	-75.887899
5.350000	-0.121552	-76.534967	-51.574254	95.746623	-51.574254	95.746623	-0.121556	-76.537672
5.400000	-0.123358	-77.184022	-51.356092	94.268871	-51.356092	94.268871	-0.123361	-77.186742
5.450000	-0.125199	-77.831215	-51.139414	92.791937	-51.139414	92.791937	-0.125202	-77.833951
5.500000	-0.127058	-78.477478	-50.926127	91.315412	-50.926127	91.315412	-0.127062	-78.480228
5.550000	-0.128949	-79.122124	-50.714756	89.839693	-50.714756	89.839693	-0.128953	-79.124890
5.600000	-0.130864	-79.765617	-50.506178	88.364550	-50.506178	88.364550	-0.130867	-79.768397
5.650000	-0.132806	-80.407735	-50.299901	86.890170	-50.299901	86.890170	-0.132810	-80.410531
5.700000	-0.134777	-81.048481	-50.095877	85.416555	-50.095877	85.416555	-0.134781	-81.051291
5.750000	-0.136773	-81.688093	-49.894493	83.943633	-49.894493	83.943633	-0.136777	-81.690917
5.800000	-0.138803	-82.326117	-49.694875	82.471681	-49.694875	82.471681	-0.138806	-82.328955
5.850000	-0.140853	-82.963244	-49.498195	81.000325	-49.498195	81.000325	-0.140856	-82.966096
5.900000	-0.142943	-83.598576	-49.302843	79.530163	-49.302843	79.530163	-0.142947	-83.601442
5.950000	-0.145049	-84.233242	-49.110690	78.060477	-49.110690	78.060477	-0.145052	-84.236122
6.000000	-0.147201	-84.865912	-48.919470	76.592222	-48.919470	76.592222	-0.147204	-84.868806
6.050000	-0.149364	-85.498143	-48.731677	75.124304	-48.731677	75.124304	-0.149367	-85.501051
6.100000	-0.151579	-86.128184	-48.544464	73.658068	-48.544464	73.658068	-0.151583	-86.131104
6.150000	-0.153801	-86.758008	-48.360872	72.192008	-48.360872	72.192008	-0.153805	-86.760941
6.200000	-0.156082	-87.385453	-48.177544	70.727894	-48.177544	70.727894	-0.156086	-87.388400
6.250000	-0.158364	-88.012898	-47.998006	69.263780	-47.998006	69.263780	-0.158367	-88.015858
6.300000	-0.160712	-88.637786	-47.818449	67.801886	-47.818449	67.801886	-0.160715	-88.640758
6.350000	-0.163060	-89.262673	-47.642528	66.339992	-47.642528	66.339992	-0.163064	-89.265658
6.400000	-0.165471	-89.885252	-47.466927	64.880217	-47.466927	64.880217	-0.165475	-89.888249
6.450000	-0.167889	-90.507620	-47.294523	63.420635	-47.294523	63.420635	-0.167893	-90.510630
6.500000	-0.170364	-91.127923	-47.122742	61.963051	-47.122742	61.963051	-0.170368	-91.130945
6.550000	-0.172852	-91.747814	-46.953757	60.505867	-46.953757	60.505867	-0.172856	-91.750847
6.600000	-0.175393	-92.365877	-46.785669	59.050541	-46.785669	59.050541	-0.175397	-92.368923
6.650000	-0.177953	-92.983332	-46.620010	57.595836	-46.620010	57.595836	-0.177957	-92.986390
6.700000	-0.180562	-93.599194	-46.455492	56.142833	-46.455492	56.142833	-0.180566	-93.602262
6.750000	-0.183195	-94.214258	-46.293071	54.690683	-46.293071	54.690683	-0.183199	-94.217338
6.800000	-0.185872	-94.827955	-46.132008	53.240064	-46.132008	53.240064	-0.185876	-94.831046
6.850000	-0.188581	-95.440676	-45.972740	51.790540	-45.972740	51.790540	-0.188585	-95.443778
6.900000	-0.191328	-96.052249	-45.815024	50.342362	-45.815024	50.342362	-0.191332	-96.055362
6.950000	-0.194114	-96.662674	-45.658827	48.895531	-45.658827	48.895531	-0.194118	-96.665798
7.000000	-0.196932	-97.272164	-45.504353	47.449849	-45.504353	47.449849	-0.196936	-97.275298
7.050000	-0.199796	-97.880345	-45.351151	46.005774	-45.351151	46.005774	-0.199800	-97.883488
7.100000	-0.202687	-98.487794	-45.199820	44.562637	-45.199820	44.562637	-0.202691	-98.490948
7.150000	-0.205631	-99.093782	-45.049539	43.121376	-45.049539	43.121376	-0.205635	-99.096946
7.200000	-0.208596	-99.699235	-44.901258	41.680833	-44.901258	41.680833	-0.208600	-99.702408
7.250000	-0.211622	-100.303084	-44.753826	40.242441	-44.753826	40.242441	-0.211626	-100.306267
7.300000	-0.214662	-100.906586	-44.608505	38.804536	-44.608505	38.804536	-0.214666	-100.909778
7.350000	-0.217771	-101.508352	-44.463855	37.369064	-44.463855	37.369064	-0.217775	-101.511553
7.400000	-0.220888	-102.109950	-44.321410	35.933838	-44.321410	35.933838	-0.220892	-102.113159
7.450000	-0.224081	-102.709691	-44.179477	34.501331	-44.179477	34.501331	-0.224085	-102.712908
7.500000	-0.227276	-103.309432	-44.039826	33.068824	-44.039826	33.068824	-0.227280	-103.312657
7.550000	-0.230556	-103.907206	-43.900547	31.639325	-43.900547	31.639325	-0.230560	-103.910439
7.600000	-0.233836	-104.504981	-43.763467	30.209827	-43.763467	30.209827	-0.233840	-104.508221
7.650000	-0.237196	-105.101009	-43.626931	28.783121	-43.626931	28.783121	-0.237201	-105.104256
7.700000	-0.240565	-105.696879	-43.492365	27.356669	-43.492365	27.356669	-0.240569	-105.700133
7.750000	-0.244007	-106.291213	-43.358497	25.932785	-43.358497	25.932785	-0.244011	-106.294473
7.800000	-0.247464	-106.885240	-43.226393	24.509415	-43.226393	24.509415	-0.247468	-106.888506
7.850000	-0.250989	-107.477934	-43.095121	23.088380	-43.095121	23.088380	-0.250993	-107.481205
7.900000	-0.254537	-108.070183	-42.965427	21.668123	-42.965427	21.668123	-0.254541	-108.073460
7.950000	-0.258145	-108.661291	-42.836685	20.249960	-42.836685	20.249960	-0.258150	-108.664572
8.000000	-0.261785	-109.251828	-42.709352	18.832844	-42.709352	18.832844	-0.261789	-109.255114
8.050000	-0.265479	-109.841406	-42.583075	17.417574	-42.583075	17.417574	-0.265483	-109.844696
8.100000	-0.269212	-110.430299	-42.458057	16.003623	-42.458057	16.003623	-0.269216	-110.433592
8.150000	-0.272992	-111.018405	-42.334185	14.591264	-42.334185	14.591264	-0.272997	-111.021701
8.200000	-0.276820	-111.605724	-42.211436	13.180497	-42.211436	13.180497	-0.276824	-111.609022
8.250000	-0.280687	-112.192416	-42.089911	11.771065	-42.089911	11.771065	-0.280692	-112.195717
8.300000	-0.284611	-112.778232	-41.969389	10.363500	-41.969389	10.363500	-0.284615	-112.781533
8.350000	-0.288567	-113.363571	-41.850155	8.957007	-41.850155	8.957007	-0.288571	-113.366873
8.400000	-0.292587	-113.947956	-41.731820	7.552658	-41.731820	7.552658	-0.292592	-113.951259
8.450000	-0.296633	-114.532003	-41.614824	6.149115	-41.614824	6.149115	-0.296637	-114.535305
8.500000	-0.300751	-115.115033	-41.498638	4.747991	-41.498638	4.747991	-0.300756	-115.118334
8.550000	-0.304888	-115.697850	-41.383831	3.347407	-41.383831	3.347407	-0.304892	-115.701149
8.600000	-0.309106	-116.279602	-41.269757	1.949515	-41.269757	1.949515	-0.309110	-116.282898
8.650000	-0.313333	-116.861253	-41.157090	0.551894	-41.157090	0.551894	-0.313338	-116.864547
8.700000	-0.317652	-117.441805	-41.045094	-0.842761	-41.045094	-0.842761	-0.317656	-117.445094
8.750000	-0.321972	-118.022356	-40.934524	-2.237416	-40.934524	-2.237416	-0.321976	-118.025641
8.800000	-0.326392	-118.601787	-40.824573	-3.628833	-40.824573	-3.628833	-0.326396	-118.605066
8.850000	-0.330813	-119.181219	-40.715996	-5.020250	-40.715996	-5.020250	-0.330818	-119.184491
8.900000	-0.335327	-119.759699	-40.608119	-6.408701	-40.608119	-6.408701	-0.335332	-119.762964
8.950000	-0.339852	-120.338093	-40.501508	-7.796882	-40.501508	-7.796882	-0.339856	-120.341349
9.000000	-0.344461	-120.915692	-40.395664	-9.182370	-40.395664	-9.182370	-0.344465	-120.918939
9.050000	-0.349089	-121.493132	-40.290991	-10.567319	-40.290991	-10.567319	-0.349093	-121.496369
9.100000	-0.353794	-122.069922	-40.187143	-11.949849	-40.187143	-11.949849	-0.353798	-122.073147
9.150000	-0.358526	-122.646495	-40.084383	-13.331573	-40.084383	-13.331573	-0.358530	-122.649707
9.200000	-0.363328	-123.222548	-39.982495	-14.711152	-39.982495	-14.711152	-0.363331	-123.225746
9.250000	-0.368165	-123.798341	-39.881625	-16.089658	-39.881625	-16.089658	-0.368169	-123.801524
9.300000	-0.373064	-124.373732	-39.781663	-17.466293	-39.781663	-17.466293	-0.373067	-124.376899
9.350000	-0.378008	-124.948836	-39.682661	-18.841591	-39.682661	-18.841591	-0.378011	-124.951986
9.400000	-0.383005	-125.523642	-39.584592	-20.215292	-39.584592	-20.215292	-0.383007	-125.526772
9.450000	-0.388055	-126.098149	-39.487439	-21.587394	-39.487439	-21.587394	-0.388057	-126.101259
9.500000	-0.393150	-126.672447	-39.391236	-22.958169	-39.391236	-22.958169	-0.393152	-126.675535
9.550000	-0.398307	-127.246451	-39.295913	-24.327086	-39.295913	-24.327086	-0.398309	-127.249517
9.600000	-0.403502	-127.820320	-39.201546	-25.694947	-39.201546	-25.694947	-0.403503	-127.823362
9.650000	-0.408767	-128.393919	-39.108038	-27.060692	-39.108038	-27.060692	-0.408767	-128.396934
9.700000	-0.414061	-128.967441	-39.015483	-28.425648	-39.015483	-28.425648	-0.414061	-128.970429
9.750000	-0.419434	-129.540734	-38.923775	-29.788235	-38.923775	-29.788235	-0.419434	-129.543691
9.800000	-0.424828	-130.113992	-38.833006	-31.150297	-38.833006	-31.150297	-0.424827	-130.116918
9.850000	-0.430310	-130.687079	-38.743086	-32.509736	-38.743086	-32.509736	-0.430308	-130.689971
9.900000	-0.435804	-131.260157	-38.654083	-33.868914	-38.654083	-33.868914	-0.435802	-131.263015
9.950000	-0.441395	-131.833143	-38.565939	-35.225219	-38.565939	-35.225219	-0.441392	-131.835963
10.000000	-0.446989	-132.406129	-38.478681	-36.581523	-38.478681	-36.581523	-0.446985	-132.408911
