! freq	dB(S11)	phase(S11)	dB(S12)	phase(S12)	
!     	dB(S21)	phase(S21)	dB(S22)	phase(S22)	
!S-par simulation data
#  GHz  S  DB  R 50
0.000000	-89.506189	0.000000	-0.000291	0.000000	-0.000291	0.000000	-89.506189	0.000000
0.050000	-31.227578	-93.137489	-0.005819	-3.019394	-0.005819	-3.019394	-31.226657	-93.111783
0.100000	-25.234508	-96.345723	-0.020930	-6.029405	-0.020930	-6.029405	-25.233918	-96.293134
0.150000	-21.754025	-99.476003	-0.043278	-9.021280	-0.043278	-9.021280	-21.753776	-99.395157
0.200000	-19.307177	-102.542154	-0.071438	-11.991078	-0.071438	-11.991078	-19.307160	-102.432195
0.250000	-17.428415	-105.555023	-0.104670	-14.938981	-0.104670	-14.938981	-17.428498	-105.415677
0.300000	-15.910736	-108.523908	-0.142759	-17.865098	-0.142759	-17.865098	-15.910820	-108.355143
0.350000	-14.643930	-111.455986	-0.185597	-20.768816	-0.185597	-20.768816	-14.643952	-111.257710
0.400000	-13.562031	-114.356110	-0.232995	-23.649175	-0.232995	-23.649175	-13.561958	-114.128001
0.450000	-12.623170	-117.226056	-0.284822	-26.504195	-0.284822	-26.504195	-12.622985	-116.967494
0.500000	-11.798556	-120.066486	-0.340829	-29.331998	-0.340829	-29.331998	-11.798250	-119.776549
0.550000	-11.066451	-122.878673	-0.400549	-32.132273	-0.400549	-32.132273	-11.066022	-122.556225
0.600000	-10.412967	-125.660295	-0.463840	-34.901748	-0.463840	-34.901748	-10.412413	-125.303881
0.650000	-9.825513	-128.411794	-0.530214	-37.640267	-0.530214	-37.640267	-9.824835	-128.019791
0.700000	-9.294673	-131.132906	-0.599267	-40.347222	-0.599267	-40.347222	-9.293871	-130.703518
0.750000	-8.813672	-133.822203	-0.670661	-43.020920	-0.670661	-43.020920	-8.812746	-133.353393
0.800000	-8.376374	-136.479447	-0.743976	-45.660983	-0.743976	-45.660983	-8.375326	-135.969002
0.850000	-7.977093	-139.105682	-0.818783	-48.268431	-0.818783	-48.268431	-7.975923	-138.551306
0.900000	-7.612367	-141.699669	-0.894727	-50.841897	-0.894727	-50.841897	-7.611076	-141.098797
0.950000	-7.278390	-144.262052	-0.971416	-53.382001	-0.971416	-53.382001	-7.276975	-143.611972
1.000000	-6.972171	-146.793095	-1.048481	-55.888962	-1.048481	-55.888962	-6.970631	-146.090900
1.050000	-6.691236	-149.293006	-1.125551	-58.362924	-1.125551	-58.362924	-6.689568	-148.535554
1.100000	-6.432569	-151.763995	-1.202341	-60.806151	-1.202341	-60.806151	-6.430771	-150.948108
1.150000	-6.194559	-154.206108	-1.278521	-63.218595	-1.278521	-63.218595	-6.192624	-153.328325
1.200000	-5.975427	-156.620334	-1.353798	-65.601196	-1.353798	-65.601196	-5.973349	-155.676982
1.250000	-5.773598	-159.007767	-1.427897	-67.954989	-1.427897	-67.954989	-5.771369	-157.994950
1.300000	-5.587914	-161.369055	-1.500514	-70.280512	-1.500514	-70.280512	-5.585525	-160.282551
1.350000	-5.416869	-163.706041	-1.571452	-72.579575	-1.571452	-72.579575	-5.414308	-162.541461
1.400000	-5.259354	-166.020041	-1.640496	-74.853413	-1.640496	-74.853413	-5.256610	-164.772740
1.450000	-5.114378	-168.312425	-1.707444	-77.103302	-1.707444	-77.103302	-5.111437	-166.977480
1.500000	-4.981053	-170.584604	-1.772114	-79.330552	-1.772114	-79.330552	-4.977900	-169.156799
1.550000	-4.858583	-172.838023	-1.834340	-81.536492	-1.834340	-81.536492	-4.855201	-171.311836
1.600000	-4.746253	-175.074153	-1.893969	-83.722474	-1.893969	-83.722474	-4.742623	-173.443733
1.650000	-4.643420	-177.294487	-1.950865	-85.889855	-1.950865	-85.889855	-4.639522	-175.553638
1.700000	-4.549508	-179.500536	-2.004903	-88.040002	-2.004903	-88.040002	-4.545321	-177.642694
1.750000	-4.464001	178.306175	-2.055975	-90.174279	-2.055975	-90.174279	-4.459499	-179.712034
1.800000	-4.386434	176.124113	-2.103980	-92.294052	-2.103980	-92.294052	-4.381592	178.237222
1.850000	-4.316393	173.951734	-2.148831	-94.400680	-2.148831	-94.400680	-4.311183	176.203972
1.900000	-4.253577	171.787556	-2.190415	-96.495402	-2.190415	-96.495402	-4.247968	174.187302
1.950000	-4.197651	169.629970	-2.228664	-98.579608	-2.228664	-98.579608	-4.191610	172.186119
2.000000	-4.148253	167.477321	-2.263559	-100.654760	-2.263559	-100.654760	-4.141744	170.199217
2.050000	-4.105128	165.328035	-2.295053	-102.722181	-2.295053	-102.722181	-4.098113	168.225595
2.100000	-4.068054	163.180531	-2.323106	-104.783183	-2.323106	-104.783183	-4.060491	166.264286
2.150000	-4.036840	161.033217	-2.347686	-106.839069	-2.347686	-106.839069	-4.028684	164.314354
2.200000	-4.011322	158.884490	-2.368771	-108.891128	-2.368771	-108.891128	-4.002524	162.374898
2.250000	-3.991363	156.732730	-2.386344	-110.940642	-2.386344	-110.940642	-3.981872	160.445054
2.300000	-3.976855	154.576304	-2.400394	-112.988882	-2.400394	-112.988882	-3.966613	158.523998
2.350000	-3.967712	152.413556	-2.410920	-115.037109	-2.410920	-115.037109	-3.956657	156.610946
2.400000	-3.963871	150.242808	-2.417925	-117.086576	-2.417925	-117.086576	-3.951936	154.705157
2.450000	-3.965295	148.062355	-2.421420	-119.138528	-2.421420	-119.138528	-3.952407	152.805937
2.500000	-3.971967	145.870461	-2.421420	-121.194204	-2.421420	-121.194204	-3.958047	150.912641
2.550000	-3.984008	143.665025	-2.417875	-123.254971	-2.417875	-123.254971	-3.968968	149.024778
2.600000	-4.001334	141.444480	-2.410889	-125.321975	-2.410889	-125.321975	-3.985078	147.141689
2.650000	-4.023996	139.206964	-2.400500	-127.396437	-2.400500	-127.396437	-4.006420	145.262903
2.700000	-4.052068	136.950565	-2.386748	-129.479571	-2.386748	-129.479571	-4.033058	143.388018
2.750000	-4.085645	134.673312	-2.369684	-131.572590	-2.369684	-131.572590	-4.065076	141.516703
2.800000	-4.124846	132.373167	-2.349365	-133.676700	-2.349365	-133.676700	-4.102581	139.648712
2.850000	-4.169813	130.048022	-2.325852	-135.793106	-2.325852	-135.793106	-4.145700	137.783886
2.900000	-4.220712	127.695684	-2.299218	-137.923005	-2.299218	-137.923005	-4.194583	135.922166
2.950000	-4.277733	125.313871	-2.269540	-140.067592	-2.269540	-140.067592	-4.249403	134.063603
3.000000	-4.341092	122.900199	-2.236906	-142.228054	-2.236906	-142.228054	-4.310354	132.208375
3.050000	-4.411031	120.452171	-2.201410	-144.405572	-2.201410	-144.405572	-4.377657	130.356796
3.100000	-4.487820	117.967162	-2.163156	-146.601318	-2.163156	-146.601318	-4.451555	128.509339
3.150000	-4.571830	115.441940	-2.122229	-148.816677	-2.122229	-148.816677	-4.532385	126.666714
3.200000	-4.663396	112.873472	-2.078753	-151.052836	-2.078753	-151.052836	-4.620449	124.829810
3.250000	-4.762809	110.259069	-2.032895	-153.310716	-2.032895	-153.310716	-4.716000	122.999670
3.300000	-4.870465	107.595406	-1.984799	-155.591427	-1.984799	-155.591427	-4.819388	121.177652
3.350000	-4.986790	104.878924	-1.934619	-157.896056	-1.934619	-157.896056	-4.930989	119.365412
3.400000	-5.112249	102.105800	-1.882524	-160.225661	-1.882524	-160.225661	-5.051205	117.564947
3.450000	-5.247342	99.271908	-1.828693	-162.581265	-1.828693	-162.581265	-5.180466	115.778642
3.500000	-5.392607	96.372778	-1.773317	-164.963850	-1.773317	-164.963850	-5.319230	114.009327
3.550000	-5.548620	93.403541	-1.716600	-167.374350	-1.716600	-167.374350	-5.467978	112.260341
3.600000	-5.715996	90.358867	-1.658760	-169.813644	-1.658760	-169.813644	-5.627214	110.535604
3.650000	-5.895387	87.232895	-1.600026	-172.282547	-1.600026	-172.282547	-5.797460	108.839705
3.700000	-6.087482	84.019140	-1.540641	-174.781800	-1.540641	-174.781800	-5.979252	107.177998
3.750000	-6.293002	80.710395	-1.480862	-177.312062	-1.480862	-177.312062	-6.173131	105.556709
3.800000	-6.512890	77.296152	-1.420950	-179.874595	-1.420950	-179.874595	-6.379806	103.984301
3.850000	-6.747714	73.769334	-1.361206	177.530824	-1.361206	177.530824	-6.599612	102.468365
3.900000	-6.998236	70.119610	-1.301922	174.903860	-1.301922	174.903860	-6.833015	101.018685
3.950000	-7.265205	66.335241	-1.243400	172.244305	-1.243400	172.244305	-7.080412	99.646548
4.000000	-7.549319	62.402832	-1.185954	169.552095	-1.185954	169.552095	-7.342092	98.364925
4.050000	-7.851197	58.307045	-1.129901	166.827314	-1.129901	166.827314	-7.618189	97.188672
4.100000	-8.171311	54.030272	-1.075569	164.070209	-1.075569	164.070209	-7.908614	96.134711
4.150000	-8.509918	49.552284	-1.023284	161.281200	-1.023284	161.281200	-8.212974	95.222190
4.200000	-8.866945	44.849872	-0.973377	158.460886	-0.973377	158.460886	-8.530462	94.472572
4.250000	-9.241849	39.896517	-0.926177	155.610055	-0.926177	155.610055	-8.859725	93.909594
4.300000	-9.633414	34.662173	-0.882008	152.729685	-0.882008	152.729685	-9.198691	93.559025
4.350000	-10.039497	29.113282	-0.841186	149.820952	-0.841186	149.820952	-9.544376	93.448096
4.400000	-10.456536	23.208976	-0.804059	146.884948	-0.804059	146.884948	-9.892477	93.607646
4.450000	-10.879215	16.909498	-0.770929	143.923295	-0.770929	143.923295	-10.237296	94.064730
4.500000	-11.300332	10.181038	-0.742030	140.938046	-0.742030	140.938046	-10.571863	94.838310
4.550000	-11.710049	2.991167	-0.717613	137.931135	-0.717613	137.931135	-10.887479	95.942323
4.600000	-12.095739	-4.680863	-0.697905	134.904658	-0.697905	134.904658	-11.173980	97.378258
4.650000	-12.442124	-12.835559	-0.683102	131.860856	-0.683102	131.860856	-11.420196	99.130354
4.700000	-12.732096	-21.443631	-0.673374	128.802094	-0.673374	128.802094	-11.614796	101.161566
4.750000	-12.948403	-30.438022	-0.668854	125.730841	-0.668854	125.730841	-11.747488	103.411778
4.800000	-13.076134	-39.711317	-0.669643	122.649643	-0.669643	122.649643	-11.810410	105.799692
4.850000	-13.105487	-49.122055	-0.675805	119.561096	-0.675805	119.561096	-11.799381	108.229069
4.900000	-13.033892	-58.510671	-0.687366	116.467819	-0.687366	116.467819	-11.714626	110.598539
4.950000	-12.866613	-67.721320	-0.704318	113.372429	-0.704318	113.372429	-11.560740	112.812755
5.000000	-12.615555	-76.622592	-0.726614	110.277505	-0.726614	110.277505	-11.345902	114.792059
5.050000	-12.295426	-85.110663	-0.754281	107.185689	-0.754281	107.185689	-11.079548	116.471284
5.100000	-11.925668	-93.141816	-0.787087	104.099399	-0.787087	104.099399	-10.774509	117.822332
5.150000	-11.522812	-100.700516	-0.824882	101.020949	-0.824882	101.020949	-10.441863	118.832773
5.200000	-11.101113	-107.796947	-0.867487	97.952518	-0.867487	97.952518	-10.091577	119.506620
5.250000	-10.672043	-114.457655	-0.914699	94.896138	-0.914699	94.896138	-9.732108	119.859508
5.300000	-10.244349	-120.717855	-0.966292	91.853674	-0.966292	91.853674	-9.370298	119.914319
5.350000	-9.824391	-126.615931	-1.022019	88.826812	-1.022019	88.826812	-9.011467	119.697686
5.400000	-9.416582	-132.189937	-1.081620	85.817059	-1.081620	85.817059	-8.659600	119.237458
5.450000	-9.023823	-137.475618	-1.144821	82.825731	-1.144821	82.825731	-8.317564	118.561011
5.500000	-8.647882	-142.505467	-1.211339	79.853954	-1.211339	79.853954	-7.987336	117.694222
5.550000	-8.289691	-147.308430	-1.280887	76.902666	-1.280887	76.902666	-7.670189	116.660925
5.600000	-7.949589	-151.909979	-1.353174	73.972623	-1.353174	73.972623	-7.366860	115.482674
5.650000	-7.627568	-156.330652	-1.427925	71.064643	-1.427925	71.064643	-7.077737	114.177558
5.700000	-7.323285	-160.590423	-1.504842	68.179139	-1.504842	68.179139	-6.802882	112.763136
5.750000	-7.036109	-164.707983	-1.583623	65.316111	-1.583623	65.316111	-6.542054	111.255651
5.800000	-6.765356	-168.697959	-1.663992	62.475643	-1.663992	62.475643	-6.294909	109.668145
5.850000	-6.510271	-172.573160	-1.745683	59.657685	-1.745683	59.657685	-6.061000	108.012020
5.900000	-6.270069	-176.344854	-1.828441	56.862059	-1.828441	56.862059	-5.839815	106.297225
5.950000	-6.043956	179.977004	-1.912019	54.088473	-1.912019	54.088473	-5.630801	104.532430
6.000000	-5.831146	176.383573	-1.996185	51.336530	-1.996185	51.336530	-5.433384	102.725184
6.050000	-5.630874	172.866958	-2.080717	48.605745	-2.080717	48.605745	-5.246983	100.882058
6.100000	-5.442400	169.420069	-2.165408	45.895549	-2.165408	45.895549	-5.071024	99.008772
6.150000	-5.265017	166.036504	-2.250062	43.205306	-2.250062	43.205306	-4.904943	97.110302
6.200000	-5.098053	162.710450	-2.334498	40.534316	-2.334498	40.534316	-4.748191	95.190981
6.250000	-4.940869	159.436600	-2.418548	37.881829	-2.418548	37.881829	-4.600243	93.254581
6.300000	-4.793002	156.211008	-2.502023	35.247417	-2.502023	35.247417	-4.460717	91.304152
6.350000	-4.653737	153.028069	-2.584807	32.629847	-2.584807	32.629847	-4.329000	89.342903
6.400000	-4.522543	149.883638	-2.666770	30.028259	-2.666770	30.028259	-4.204634	87.373309
6.450000	-4.398923	146.773854	-2.747796	27.441771	-2.747796	27.441771	-4.087189	85.397529
6.500000	-4.282411	143.695105	-2.827776	24.869485	-2.827776	24.869485	-3.976257	83.417451
6.550000	-4.172571	140.643997	-2.906616	22.310489	-2.906616	22.310489	-3.871454	81.434727
6.600000	-4.068996	137.617330	-2.984230	19.763864	-2.984230	19.763864	-3.772419	79.450801
6.650000	-3.971307	134.612074	-3.060544	17.228689	-3.060544	17.228689	-3.678812	77.466944
6.700000	-3.879148	131.625353	-3.135493	14.704039	-3.135493	14.704039	-3.590314	75.484269
6.750000	-3.792188	128.654428	-3.209018	12.188991	-3.209018	12.188991	-3.506625	73.503758
6.800000	-3.710118	125.696680	-3.281074	9.682626	-3.281074	9.682626	-3.427465	71.526277
6.850000	-3.632649	122.749598	-3.351621	7.184031	-3.351621	7.184031	-3.352570	69.552592
6.900000	-3.559552	119.810837	-3.420604	4.692362	-3.420604	4.692362	-3.281727	67.583439
6.950000	-3.490568	116.877997	-3.487998	2.206693	-3.487998	2.206693	-3.214699	65.619443
7.000000	-3.425424	113.948750	-3.553812	-0.273941	-3.553812	-0.273941	-3.151231	63.661094
7.050000	-3.363901	111.020932	-3.618034	-2.750418	-3.618034	-2.750418	-3.091118	61.708877
7.100000	-3.305796	108.092442	-3.680661	-5.223605	-3.680661	-5.223605	-3.034169	59.763229
7.150000	-3.250918	105.161238	-3.741696	-7.694360	-3.741696	-7.694360	-2.980202	57.824549
7.200000	-3.199089	102.225332	-3.801147	-10.163529	-3.801147	-10.163529	-2.929048	55.893202
7.250000	-3.150142	99.282785	-3.859030	-12.631945	-3.859030	-12.631945	-2.880546	53.969521
7.300000	-3.103922	96.331705	-3.915365	-15.100431	-3.915365	-15.100431	-2.834543	52.053817
7.350000	-3.060283	93.370240	-3.970176	-17.569799	-3.970176	-17.569799	-2.790897	50.146378
7.400000	-3.019088	90.396575	-4.023495	-20.040849	-4.023495	-20.040849	-2.749472	48.247475
7.450000	-2.980209	87.408933	-4.075359	-22.514367	-4.075359	-22.514367	-2.710138	46.357362
7.500000	-2.943526	84.405570	-4.125808	-24.991132	-4.125808	-24.991132	-2.672772	44.476278
7.550000	-2.908966	81.384355	-4.174855	-27.472011	-4.174855	-27.472011	-2.637292	42.604658
7.600000	-2.876380	78.343947	-4.222588	-29.957686	-4.222588	-29.957686	-2.603547	40.742523
7.650000	-2.845667	75.282696	-4.269066	-32.448898	-4.269066	-32.448898	-2.571430	38.890079
7.700000	-2.816735	72.198978	-4.314350	-34.946374	-4.314350	-34.946374	-2.540836	37.047523
7.750000	-2.789494	69.091198	-4.358508	-37.450829	-4.358508	-37.450829	-2.511666	35.215044
7.800000	-2.763860	65.957789	-4.401612	-39.962964	-4.401612	-39.962964	-2.483824	33.392820
7.850000	-2.739755	62.797213	-4.443740	-42.483467	-4.443740	-42.483467	-2.457216	31.581023
7.900000	-2.717103	59.607962	-4.484976	-45.013012	-4.484976	-45.013012	-2.431750	29.779812
7.950000	-2.695832	56.388560	-4.525408	-47.552257	-4.525408	-47.552257	-2.407336	27.989338
8.000000	-2.675874	53.137560	-4.565131	-50.101843	-4.565131	-50.101843	-2.383886	26.209738
8.050000	-2.657162	49.853555	-4.604244	-52.662395	-4.604244	-52.662395	-2.361315	24.441139
8.100000	-2.639634	46.535173	-4.642854	-55.234517	-4.642854	-55.234517	-2.339536	22.683652
8.150000	-2.623240	43.180679	-4.681066	-57.818932	-4.681066	-57.818932	-2.318471	20.937497
8.200000	-2.607918	39.788744	-4.719003	-60.416221	-4.719003	-60.416221	-2.298034	19.202756
8.250000	-2.593600	36.358521	-4.756795	-63.026788	-4.756795	-63.026788	-2.278134	17.479363
8.300000	-2.580228	32.888826	-4.794571	-65.651143	-4.794571	-65.651143	-2.258689	15.767356
8.350000	-2.567748	29.378532	-4.832467	-68.289766	-4.832467	-68.289766	-2.239617	14.066748
8.400000	-2.556102	25.826576	-4.870624	-70.943107	-4.870624	-70.943107	-2.220837	12.377526
8.450000	-2.545238	22.231961	-4.909190	-73.611582	-4.909190	-73.611582	-2.202267	10.699649
8.500000	-2.535099	18.593762	-4.948319	-76.295569	-4.948319	-76.295569	-2.183827	9.033045
8.550000	-2.525630	14.911136	-4.988170	-78.995409	-4.988170	-78.995409	-2.165440	7.377611
8.600000	-2.516775	11.183321	-5.028908	-81.711398	-5.028908	-81.711398	-2.147026	5.733207
8.650000	-2.508478	7.409650	-5.070702	-84.443789	-5.070702	-84.443789	-2.128511	4.099660
8.700000	-2.500680	3.589552	-5.113729	-87.192784	-5.113729	-87.192784	-2.109820	2.476756
8.750000	-2.493322	-0.277441	-5.158168	-89.958537	-5.158168	-89.958537	-2.090883	0.864245
8.800000	-2.486350	-4.192717	-5.204237	-92.741514	-5.204237	-92.741514	-2.071622	-0.737954
8.850000	-2.479692	-8.155491	-5.252099	-95.541388	-5.252099	-95.541388	-2.051980	-2.330399
8.900000	-2.473284	-12.165871	-5.301944	-98.358139	-5.301944	-98.358139	-2.031899	-3.913462
8.950000	-2.467062	-16.223841	-5.353968	-101.191685	-5.353968	-101.191685	-2.011323	-5.487552
9.000000	-2.460956	-20.329251	-5.408367	-104.041882	-5.408367	-104.041882	-1.990206	-7.053114
9.050000	-2.454898	-24.481816	-5.465336	-106.908524	-5.465336	-106.908524	-1.968504	-8.610626
9.100000	-2.448818	-28.681114	-5.525076	-109.791341	-5.525076	-109.791341	-1.946185	-10.160593
9.150000	-2.442643	-32.926581	-5.587782	-112.689999	-5.587782	-112.689999	-1.923221	-11.703546
9.200000	-2.436308	-37.216491	-5.653586	-115.603760	-5.653586	-115.603760	-1.899610	-13.240169
9.250000	-2.429725	-41.552539	-5.722843	-118.533026	-5.722843	-118.533026	-1.875301	-14.770685
9.300000	-2.422827	-45.932200	-5.795651	-121.476762	-5.795651	-121.476762	-1.850317	-16.295881
9.350000	-2.415541	-50.354349	-5.872198	-124.434402	-5.872198	-124.434402	-1.824666	-17.816329
9.400000	-2.407795	-54.817733	-5.952668	-127.405335	-5.952668	-127.405335	-1.798365	-19.332589
9.450000	-2.399518	-59.320970	-6.037236	-130.388907	-6.037236	-130.388907	-1.771440	-20.845210
9.500000	-2.390644	-63.862567	-6.126075	-133.384433	-6.126075	-133.384433	-1.743925	-22.354717
9.550000	-2.381107	-68.440921	-6.219350	-136.391203	-6.219350	-136.391203	-1.715860	-23.861609
9.600000	-2.370844	-73.054494	-6.317236	-139.408538	-6.317236	-139.408538	-1.687293	-25.366340
9.650000	-2.359793	-77.701624	-6.419902	-142.435743	-6.419902	-142.435743	-1.658276	-26.869332
9.700000	-2.347914	-82.380114	-6.527458	-145.471996	-6.527458	-145.471996	-1.628875	-28.370982
9.750000	-2.335163	-87.088049	-6.640039	-148.516599	-6.640039	-148.516599	-1.599156	-29.871618
9.800000	-2.321507	-91.823473	-6.757778	-151.568890	-6.757778	-151.568890	-1.569185	-31.371514
9.850000	-2.306921	-96.584400	-6.880798	-154.628257	-6.880798	-154.628257	-1.539033	-32.870895
9.900000	-2.291389	-101.368832	-7.009221	-157.694156	-7.009221	-157.694156	-1.508770	-34.369928
9.950000	-2.274905	-106.174776	-7.143164	-160.766125	-7.143164	-160.766125	-1.478465	-35.868733
10.000000	-2.257477	-111.000252	-7.282744	-163.843799	-7.282744	-163.843799	-1.448187	-37.367374
