! freq	dB(S11)	phase(S11)	dB(S12)	phase(S12)	
!     	dB(S21)	phase(S21)	dB(S22)	phase(S22)	
!S-par simulation data
#  GHz  S  DB  R 50
0.000000	-0.000000	0.000000	-305.113396	180.000000	-305.113396	180.000000	-0.000000	0.000000
0.050000	-0.000682	-1.061076	-102.239789	88.745720	-102.239789	88.745720	-0.000906	-1.572555
0.100000	-0.002286	-2.116995	-96.246948	87.495677	-96.246948	87.495677	-0.003230	-3.140185
0.150000	-0.004115	-3.167180	-92.771643	86.254332	-92.771643	86.254332	-0.006216	-4.701146
0.200000	-0.005799	-4.213516	-90.341649	85.027628	-90.341649	85.027628	-0.009235	-6.256217
0.250000	-0.007304	-5.258085	-88.487650	83.818823	-88.487650	83.818823	-0.012024	-7.807642
0.300000	-0.008667	-6.301725	-87.007172	82.634516	-87.007172	82.634516	-0.014501	-9.356402
0.350000	-0.009944	-7.344904	-85.790972	81.481431	-85.790972	81.481431	-0.016690	-10.903211
0.400000	-0.011182	-8.387797	-84.774883	80.367869	-84.774883	80.367869	-0.018648	-12.448350
0.450000	-0.012411	-9.430401	-83.922663	79.308324	-83.922663	79.308324	-0.020427	-13.991700
0.500000	-0.013648	-10.472691	-83.200347	78.309128	-83.200347	78.309128	-0.022101	-15.533312
0.550000	-0.014898	-11.514582	-82.588317	77.382439	-82.588317	77.382439	-0.023707	-17.073013
0.600000	-0.016162	-12.555972	-82.072400	76.542312	-82.072400	76.542312	-0.025277	-18.610604
0.650000	-0.017436	-13.596749	-81.642136	75.805076	-81.642136	75.805076	-0.026832	-20.145880
0.700000	-0.018718	-14.636793	-81.289679	75.189814	-81.289679	75.189814	-0.028388	-21.678633
0.750000	-0.020004	-15.675925	-81.012756	74.729558	-81.012756	74.729558	-0.029958	-23.208480
0.800000	-0.021290	-16.714013	-80.806284	74.454942	-80.806284	74.454942	-0.031550	-24.735212
0.850000	-0.022575	-17.750959	-80.664861	74.398992	-80.664861	74.398992	-0.033168	-26.258692
0.900000	-0.023859	-18.786749	-80.580900	74.584503	-80.580900	74.584503	-0.034814	-27.778979
0.950000	-0.025141	-19.821224	-80.554637	75.074072	-80.554637	75.074072	-0.036490	-29.295705
1.000000	-0.026421	-20.854299	-80.582246	75.928478	-80.582246	75.928478	-0.038196	-30.808695
1.050000	-0.027702	-21.885905	-80.658598	77.220573	-80.658598	77.220573	-0.039930	-32.317783
1.100000	-0.028984	-22.915981	-80.776192	79.036016	-80.776192	79.036016	-0.041691	-33.822811
1.150000	-0.030268	-23.944474	-80.923680	81.471869	-80.923680	81.471869	-0.043476	-35.323629
1.200000	-0.031554	-24.971340	-81.083958	84.630695	-81.083958	84.630695	-0.045283	-36.820093
1.250000	-0.032843	-25.996541	-81.232068	88.606538	-81.232068	88.606538	-0.047108	-38.312070
1.300000	-0.034135	-27.019968	-81.329585	93.495253	-81.329585	93.495253	-0.048947	-39.799227
1.350000	-0.035430	-28.041664	-81.333472	99.229257	-81.333472	99.229257	-0.050798	-41.281641
1.400000	-0.036728	-29.061600	-81.198137	105.650532	-81.198137	105.650532	-0.052655	-42.759203
1.450000	-0.038028	-30.079751	-80.887561	112.463847	-80.887561	112.463847	-0.054516	-44.231810
1.500000	-0.039329	-31.096093	-80.387460	119.283500	-80.387460	119.283500	-0.056378	-45.699368
1.550000	-0.040632	-32.110603	-79.710449	125.726990	-79.710449	125.726990	-0.058236	-47.161790
1.600000	-0.041935	-33.123257	-78.890485	131.504239	-78.890485	131.504239	-0.060089	-48.618995
1.650000	-0.043237	-34.134035	-77.970827	136.457684	-77.970827	136.457684	-0.061933	-50.070910
1.700000	-0.044540	-35.142913	-76.992927	140.550230	-76.992927	140.550230	-0.063766	-51.517468
1.750000	-0.045841	-36.149871	-75.990283	143.826626	-75.990283	143.826626	-0.065586	-52.958607
1.800000	-0.047142	-37.154887	-74.986998	146.373708	-74.986998	146.373708	-0.067391	-54.394274
1.850000	-0.048441	-38.157942	-73.998934	148.291681	-73.998934	148.291681	-0.069180	-55.824419
1.900000	-0.049738	-39.159013	-73.035724	149.677675	-73.035724	149.677675	-0.070952	-57.248998
1.950000	-0.051034	-40.158080	-72.102666	150.618279	-72.102666	150.618279	-0.072706	-58.667972
2.000000	-0.052329	-41.155124	-71.202214	151.187313	-71.202214	151.187313	-0.074442	-60.081307
2.050000	-0.053622	-42.150124	-70.335026	151.446235	-70.335026	151.446235	-0.076160	-61.488973
2.100000	-0.054914	-43.143061	-69.500674	151.445597	-69.500674	151.445597	-0.077859	-62.890943
2.150000	-0.056206	-44.133915	-68.698103	151.226778	-68.698103	151.226778	-0.079541	-64.287196
2.200000	-0.057496	-45.122667	-67.925924	150.823630	-67.925924	150.823630	-0.081207	-65.677713
2.250000	-0.058787	-46.109299	-67.182593	150.263911	-67.182593	150.263911	-0.082857	-67.062479
2.300000	-0.060079	-47.093792	-66.466527	149.570467	-66.466527	149.570467	-0.084492	-68.441482
2.350000	-0.061371	-48.076128	-65.776165	148.762193	-65.776165	148.762193	-0.086115	-69.814715
2.400000	-0.062664	-49.056291	-65.110011	147.854798	-65.110011	147.854798	-0.087726	-71.182170
2.450000	-0.063960	-50.034262	-64.466648	146.861421	-64.466648	146.861421	-0.089328	-72.543845
2.500000	-0.065258	-51.010027	-63.844751	145.793108	-63.844751	145.793108	-0.090921	-73.899741
2.550000	-0.066560	-51.983471	-63.242163	144.656724	-63.242163	144.656724	-0.092507	-75.249608
2.600000	-0.067865	-52.954676	-62.658790	143.463304	-62.658790	143.463304	-0.094089	-76.593705
2.650000	-0.069176	-53.923627	-62.093558	142.219514	-62.093558	142.219514	-0.095669	-77.932040
2.700000	-0.070491	-54.890310	-61.545477	140.931095	-61.545477	140.931095	-0.097248	-79.264625
2.750000	-0.071812	-55.854713	-61.013631	139.603022	-61.013631	139.603022	-0.098827	-80.591473
2.800000	-0.073140	-56.816823	-60.497178	138.239617	-60.497178	138.239617	-0.100409	-81.912601
2.850000	-0.074475	-57.776629	-59.995338	136.844660	-59.995338	136.844660	-0.101996	-83.228028
2.900000	-0.075818	-58.734119	-59.507390	135.421467	-59.507390	135.421467	-0.103588	-84.537777
2.950000	-0.077170	-59.689284	-59.032665	133.972959	-59.032665	133.972959	-0.105187	-85.841871
3.000000	-0.078531	-60.642114	-58.570545	132.501720	-58.570545	132.501720	-0.106795	-87.140340
3.050000	-0.079901	-61.592602	-58.120452	131.010045	-58.120452	131.010045	-0.108413	-88.433211
3.100000	-0.081282	-62.540739	-57.681850	129.499979	-57.681850	129.499979	-0.110043	-89.720519
3.150000	-0.082674	-63.486518	-57.254241	127.973348	-57.254241	127.973348	-0.111685	-91.002298
3.200000	-0.084078	-64.429934	-56.837157	126.431790	-56.837157	126.431790	-0.113341	-92.278586
3.250000	-0.085494	-65.370982	-56.430162	124.876780	-56.430162	124.876780	-0.115011	-93.549423
3.300000	-0.086923	-66.309658	-56.032847	123.309646	-56.032847	123.309646	-0.116698	-94.814852
3.350000	-0.088366	-67.245958	-55.644827	121.731589	-55.644827	121.731589	-0.118400	-96.074918
3.400000	-0.089822	-68.179881	-55.265743	120.143697	-55.265743	120.143697	-0.120121	-97.329670
3.450000	-0.091294	-69.111424	-54.895255	118.546958	-54.895255	118.546958	-0.121859	-98.579156
3.500000	-0.092780	-70.040587	-54.533042	116.942270	-54.533042	116.942270	-0.123616	-99.823430
3.550000	-0.094282	-70.967370	-54.178801	115.330453	-54.178801	115.330453	-0.125393	-101.062546
3.600000	-0.095801	-71.891776	-53.832249	113.712255	-53.832249	113.712255	-0.127191	-102.296560
3.650000	-0.097336	-72.813804	-53.493113	112.088359	-53.493113	112.088359	-0.129008	-103.525532
3.700000	-0.098888	-73.733460	-53.161137	110.459389	-53.161137	110.459389	-0.130848	-104.749522
3.750000	-0.100459	-74.650746	-52.836078	108.825919	-52.836078	108.825919	-0.132709	-105.968593
3.800000	-0.102049	-75.565565	-52.517489	107.188324	-52.517489	107.188324	-0.134593	-107.182603
3.850000	-0.103657	-76.478025	-52.205388	105.547276	-52.205388	105.547276	-0.136499	-108.391831
3.900000	-0.105285	-77.388134	-51.899563	103.903213	-51.899563	103.903213	-0.138429	-109.596347
3.950000	-0.106933	-78.295898	-51.599812	102.256535	-51.599812	102.256535	-0.140382	-110.796220
4.000000	-0.108601	-79.201326	-51.305944	100.607613	-51.305944	100.607613	-0.142359	-111.991523
4.050000	-0.110290	-80.104427	-51.017776	98.956787	-51.017776	98.956787	-0.144359	-113.182328
4.100000	-0.112001	-81.005211	-50.735131	97.304369	-50.735131	97.304369	-0.146384	-114.368712
4.150000	-0.113733	-81.903689	-50.457844	95.650647	-50.457844	95.650647	-0.148434	-115.550749
4.200000	-0.115487	-82.799871	-50.185753	93.995885	-50.185753	93.995885	-0.150508	-116.728517
4.250000	-0.117265	-83.693772	-49.918704	92.340326	-49.918704	92.340326	-0.152608	-117.902096
4.300000	-0.119065	-84.585403	-49.656552	90.684193	-49.656552	90.684193	-0.154733	-119.071564
4.350000	-0.120889	-85.474779	-49.399155	89.027692	-49.399155	89.027692	-0.156883	-120.237004
4.400000	-0.122738	-86.361914	-49.146377	87.371012	-49.146377	87.371012	-0.159059	-121.398498
4.450000	-0.124610	-87.246824	-48.898089	85.714326	-48.898089	85.714326	-0.161262	-122.556128
4.500000	-0.126508	-88.129525	-48.654165	84.057794	-48.654165	84.057794	-0.163490	-123.709979
4.550000	-0.128432	-89.010034	-48.414488	82.401563	-48.414488	82.401563	-0.165745	-124.860135
4.600000	-0.130381	-89.888368	-48.178940	80.745766	-48.178940	80.745766	-0.168026	-126.006684
4.650000	-0.132357	-90.764546	-47.947412	79.090529	-47.947412	79.090529	-0.170335	-127.149711
4.700000	-0.134359	-91.638587	-47.719797	77.435964	-47.719797	77.435964	-0.172670	-128.289303
4.750000	-0.136389	-92.510510	-47.495993	75.782177	-47.495993	75.782177	-0.175033	-129.425550
4.800000	-0.138446	-93.380335	-47.275901	74.129264	-47.275901	74.129264	-0.177422	-130.558540
4.850000	-0.140532	-94.248084	-47.059426	72.477314	-47.059426	72.477314	-0.179840	-131.688362
4.900000	-0.142646	-95.113778	-46.846478	70.826408	-46.846478	70.826408	-0.182285	-132.815106
4.950000	-0.144790	-95.977439	-46.636967	69.176624	-46.636967	69.176624	-0.184758	-133.938863
5.000000	-0.146963	-96.839091	-46.430811	67.528030	-46.430811	67.528030	-0.187259	-135.059725
5.050000	-0.149167	-97.698671	-46.227863	65.880749	-46.227863	65.880749	-0.189789	-136.177664
5.100000	-0.151401	-98.556290	-46.028115	64.234790	-46.028115	64.234790	-0.192348	-137.292900
5.150000	-0.153667	-99.411975	-45.831491	62.590209	-45.831491	62.590209	-0.194935	-138.405525
5.200000	-0.155963	-100.265748	-45.637918	60.947059	-45.637918	60.947059	-0.197551	-139.515631
5.250000	-0.158292	-101.117638	-45.447325	59.305388	-45.447325	59.305388	-0.200196	-140.623313
5.300000	-0.160652	-101.967669	-45.259645	57.665244	-45.259645	57.665244	-0.202869	-141.728664
5.350000	-0.163045	-102.815869	-45.074812	56.026672	-45.074812	56.026672	-0.205572	-142.831778
5.400000	-0.165471	-103.662265	-44.892763	54.389714	-44.892763	54.389714	-0.208303	-143.932749
5.450000	-0.167931	-104.506886	-44.713438	52.754410	-44.713438	52.754410	-0.211064	-145.031673
5.500000	-0.170425	-105.349758	-44.536777	51.120800	-44.536777	51.120800	-0.213854	-146.128644
5.550000	-0.172952	-106.190912	-44.362724	49.488922	-44.362724	49.488922	-0.216673	-147.223758
5.600000	-0.175515	-107.030377	-44.191225	47.858813	-44.191225	47.858813	-0.219522	-148.317111
5.650000	-0.178113	-107.868182	-44.022228	46.230509	-44.022228	46.230509	-0.222401	-149.408799
5.700000	-0.180746	-108.704357	-43.855681	44.604047	-43.855681	44.604047	-0.225309	-150.498917
5.750000	-0.183416	-109.538935	-43.691535	42.979462	-43.691535	42.979462	-0.228246	-151.587563
5.800000	-0.186121	-110.371945	-43.529744	41.356788	-43.529744	41.356788	-0.231214	-152.674835
5.850000	-0.188864	-111.203420	-43.370261	39.736062	-43.370261	39.736062	-0.234211	-153.760828
5.900000	-0.191644	-112.033391	-43.213041	38.117317	-43.213041	38.117317	-0.237238	-154.845640
5.950000	-0.194461	-112.861892	-43.058042	36.500590	-43.058042	36.500590	-0.240294	-155.929371
6.000000	-0.197317	-113.688954	-42.905222	34.885916	-42.905222	34.885916	-0.243381	-157.012118
6.050000	-0.200211	-114.514612	-42.754541	33.273332	-42.754541	33.273332	-0.246497	-158.093980
6.100000	-0.203143	-115.338899	-42.605958	31.662873	-42.605958	31.662873	-0.249643	-159.175056
6.150000	-0.206115	-116.161850	-42.459435	30.054578	-42.459435	30.054578	-0.252819	-160.255446
6.200000	-0.209127	-116.983498	-42.314935	28.448484	-42.314935	28.448484	-0.256024	-161.335250
6.250000	-0.212179	-117.803879	-42.172420	26.844632	-42.172420	26.844632	-0.259260	-162.414569
6.300000	-0.215272	-118.622977	-42.031840	25.243162	-42.031840	25.243162	-0.262526	-163.493492
6.350000	-0.218407	-119.440881	-41.893176	23.644018	-41.893176	23.644018	-0.265823	-164.572143
6.400000	-0.221582	-120.257629	-41.756392	22.047244	-41.756392	22.047244	-0.269149	-165.650625
6.450000	-0.224799	-121.073257	-41.621453	20.452884	-41.621453	20.452884	-0.272504	-166.729041
6.500000	-0.228058	-121.887801	-41.488325	18.860985	-41.488325	18.860985	-0.275890	-167.807495
6.550000	-0.231359	-122.701299	-41.356971	17.271594	-41.356971	17.271594	-0.279306	-168.886093
6.600000	-0.234702	-123.513788	-41.227358	15.684762	-41.227358	15.684762	-0.282751	-169.964942
6.650000	-0.238089	-124.325307	-41.099449	14.100541	-41.099449	14.100541	-0.286227	-171.044150
6.700000	-0.241516	-125.135944	-40.973220	12.518829	-40.973220	12.518829	-0.289730	-172.123792
6.750000	-0.244987	-125.945673	-40.848619	10.939871	-40.848619	10.939871	-0.293265	-173.204008
6.800000	-0.248503	-126.754511	-40.725608	9.363802	-40.725608	9.363802	-0.296831	-174.284938
6.850000	-0.252066	-127.562498	-40.604146	7.790711	-40.604146	7.790711	-0.300428	-175.366711
6.900000	-0.255672	-128.369723	-40.484206	6.220494	-40.484206	6.220494	-0.304057	-176.449398
6.950000	-0.259322	-129.176225	-40.365744	4.653220	-40.365744	4.653220	-0.307716	-177.533112
7.000000	-0.263017	-129.982041	-40.248719	3.088962	-40.248719	3.088962	-0.311406	-178.617971
7.050000	-0.266756	-130.787211	-40.133086	1.527798	-40.133086	1.527798	-0.315129	-179.704093
7.100000	-0.270539	-131.591774	-40.018798	-0.030190	-40.018798	-0.030190	-0.318884	179.208397
7.150000	-0.274373	-132.395714	-39.905783	-1.584562	-39.905783	-1.584562	-0.322675	178.119202
7.200000	-0.278252	-133.199127	-39.794004	-3.135516	-39.794004	-3.135516	-0.326502	177.028316
7.250000	-0.282176	-134.002061	-39.683404	-4.682987	-39.683404	-4.682987	-0.330365	175.935619
7.300000	-0.286146	-134.804555	-39.573922	-6.226866	-39.573922	-6.226866	-0.334265	174.840968
7.350000	-0.290162	-135.606650	-39.465489	-7.767035	-39.465489	-7.767035	-0.338205	173.744214
7.400000	-0.294224	-136.408387	-39.358032	-9.303366	-39.358032	-9.303366	-0.342186	172.645198
7.450000	-0.298334	-137.209797	-39.251452	-10.835570	-39.251452	-10.835570	-0.346213	171.543656
7.500000	-0.302493	-138.010916	-39.145627	-12.363299	-39.145627	-12.363299	-0.350292	170.439272
7.550000	-0.306699	-138.811809	-39.040488	-13.886710	-39.040488	-13.886710	-0.354424	169.332050
7.600000	-0.310952	-139.612519	-38.935921	-15.405627	-38.935921	-15.405627	-0.358614	168.221778
7.650000	-0.315251	-140.413087	-38.831795	-16.919861	-38.831795	-16.919861	-0.362867	167.108230
7.700000	-0.319596	-141.213556	-38.727962	-18.429207	-38.727962	-18.429207	-0.367191	165.991156
7.750000	-0.323989	-142.013969	-38.624254	-19.933447	-38.624254	-19.933447	-0.371597	164.870283
7.800000	-0.328431	-142.814370	-38.520342	-21.431867	-38.520342	-21.431867	-0.376103	163.744921
7.850000	-0.332922	-143.614809	-38.416039	-22.924485	-38.416039	-22.924485	-0.380721	162.614903
7.900000	-0.337458	-144.415329	-38.311107	-24.411205	-38.311107	-24.411205	-0.385467	161.479953
7.950000	-0.342041	-145.215971	-38.205219	-25.891765	-38.205219	-25.891765	-0.390365	160.339606
8.000000	-0.346669	-146.016781	-38.097984	-27.365908	-38.097984	-27.365908	-0.395443	159.193324
8.050000	-0.351343	-146.817800	-37.988933	-28.833405	-37.988933	-28.833405	-0.400741	158.040478
8.100000	-0.356064	-147.619088	-37.877222	-30.293664	-37.877222	-30.293664	-0.406328	156.879827
8.150000	-0.360830	-148.420679	-37.762294	-31.746939	-37.762294	-31.746939	-0.412258	155.710775
8.200000	-0.365639	-149.222612	-37.643240	-33.193428	-37.643240	-33.193428	-0.418625	154.532217
8.250000	-0.370491	-150.024953	-37.518482	-34.633228	-37.518482	-34.633228	-0.425586	153.342075
8.300000	-0.375382	-150.827695	-37.387436	-36.068058	-37.387436	-36.068058	-0.433241	152.139932
8.350000	-0.380314	-151.630961	-37.246284	-37.499354	-37.246284	-37.499354	-0.442009	150.920882
8.400000	-0.385277	-152.434694	-37.094761	-38.931238	-37.094761	-38.931238	-0.452039	149.685074
8.450000	-0.390272	-153.239027	-36.926384	-40.371597	-36.926384	-40.371597	-0.464198	148.424833
8.500000	-0.395287	-154.043919	-36.738980	-41.831260	-36.738980	-41.831260	-0.479061	147.138079
8.550000	-0.400312	-154.849456	-36.523438	-43.335879	-36.523438	-43.335879	-0.498350	145.815120
8.600000	-0.405330	-155.655671	-36.270736	-44.927154	-36.270736	-44.927154	-0.524406	144.447163
8.650000	-0.410314	-156.462592	-35.970545	-46.676102	-35.970545	-46.676102	-0.560874	143.025653
8.700000	-0.415212	-157.270429	-35.599408	-48.756662	-35.599408	-48.756662	-0.616638	141.534902
8.750000	-0.419946	-158.079516	-35.139007	-51.486873	-35.139007	-51.486873	-0.706577	139.982886
8.800000	-0.424399	-158.890917	-34.583261	-55.553944	-34.583261	-55.553944	-0.860614	138.460200
8.850000	-0.428528	-159.707383	-34.025230	-62.164408	-34.025230	-62.164408	-1.117046	137.379578
8.900000	-0.432935	-160.533494	-33.851859	-72.325773	-33.851859	-72.325773	-1.422498	137.792010
8.950000	-0.439315	-161.365740	-34.682104	-83.062643	-34.682104	-83.062643	-1.449514	139.714247
9.000000	-0.447274	-162.188512	-36.209409	-87.747008	-36.209409	-87.747008	-1.163948	140.353327
9.050000	-0.454726	-163.002506	-37.421105	-86.330989	-37.421105	-86.330989	-0.904050	139.363293
9.100000	-0.461380	-163.815611	-38.027986	-83.148556	-38.027986	-83.148556	-0.748489	137.843591
9.150000	-0.467607	-164.630667	-38.242098	-80.520682	-38.242098	-80.520682	-0.660226	136.262410
9.200000	-0.473652	-165.448119	-38.266164	-78.888227	-38.266164	-78.888227	-0.609022	134.730153
9.250000	-0.479633	-166.267766	-38.212426	-78.052438	-38.212426	-78.052438	-0.577508	133.255588
9.300000	-0.485604	-167.089502	-38.127675	-77.805081	-38.127675	-77.805081	-0.557683	131.830307
9.350000	-0.491590	-167.913228	-38.033596	-77.970985	-38.033596	-77.970985	-0.544967	130.442895
9.400000	-0.497605	-168.738926	-37.939593	-78.431860	-37.939593	-78.431860	-0.536824	129.084129
9.450000	-0.503657	-169.566627	-37.849733	-79.105866	-37.849733	-79.105866	-0.531722	127.746736
9.500000	-0.509748	-170.396237	-37.765176	-79.927574	-37.765176	-79.927574	-0.528596	126.424237
9.550000	-0.515878	-171.227793	-37.686236	-80.860985	-37.686236	-80.860985	-0.526883	125.112773
9.600000	-0.522050	-172.061326	-37.612761	-81.879438	-37.612761	-81.879438	-0.526194	123.809292
9.650000	-0.528264	-172.896875	-37.544421	-82.963626	-37.544421	-82.963626	-0.526261	122.511451
9.700000	-0.534518	-173.734482	-37.480834	-84.099313	-37.480834	-84.099313	-0.526894	121.217429
9.750000	-0.540813	-174.574195	-37.421619	-85.275813	-37.421619	-85.275813	-0.527959	119.925791
9.800000	-0.547149	-175.416063	-37.366425	-86.484976	-37.366425	-86.484976	-0.529354	118.635396
9.850000	-0.553524	-176.260139	-37.314934	-87.720491	-37.314934	-87.720491	-0.531004	117.345324
9.900000	-0.559938	-177.106476	-37.266866	-88.977405	-37.266866	-88.977405	-0.532854	116.054828
9.950000	-0.566391	-177.955130	-37.221976	-90.251782	-37.221976	-90.251782	-0.534860	114.763299
10.000000	-0.572880	-178.806157	-37.180049	-91.540452	-37.180049	-91.540452	-0.536987	113.470230
