! freq	dB(S11)	phase(S11)	dB(S12)	phase(S12)	
!     	dB(S21)	phase(S21)	dB(S22)	phase(S22)	
!S-par simulation data
#  GHz  S  DB  R 50
0.000000	-0.000000	0.000000	-367.275854	0.000000	-367.275854	0.000000	-0.000000	0.000000
0.050000	-0.000102	-0.813902	-115.655881	89.138698	-115.655881	89.138698	-0.000104	-0.813806
0.100000	-0.000404	-1.627560	-109.689040	88.291048	-109.689040	88.291048	-0.000412	-1.627359
0.150000	-0.000895	-2.440747	-106.256729	87.470674	-106.256729	87.470674	-0.000910	-2.440425
0.200000	-0.001553	-3.253277	-103.882482	86.690879	-103.882482	86.690879	-0.001579	-3.252813
0.250000	-0.002368	-4.064937	-102.110768	85.969801	-102.110768	85.969801	-0.002404	-4.064309
0.300000	-0.003299	-4.875691	-100.727454	85.317987	-100.727454	85.317987	-0.003346	-4.874877
0.350000	-0.004331	-5.685429	-99.628254	84.755203	-99.628254	84.755203	-0.004386	-5.684410
0.400000	-0.005438	-6.494107	-98.749660	84.302192	-98.749660	84.302192	-0.005501	-6.492871
0.450000	-0.006601	-7.301715	-98.052001	83.984156	-98.052001	83.984156	-0.006668	-7.300252
0.500000	-0.007801	-8.108260	-97.509636	83.832660	-97.509636	83.832660	-0.007870	-8.106566
0.550000	-0.009022	-8.913767	-97.105857	83.888255	-97.105857	83.888255	-0.009090	-8.911844
0.600000	-0.010253	-9.718270	-96.829998	84.204161	-96.829998	84.204161	-0.010318	-9.716122
0.650000	-0.011483	-10.521805	-96.675599	84.851513	-96.675599	84.851513	-0.011544	-10.519440
0.700000	-0.012706	-11.324411	-96.638997	85.926909	-96.638997	85.926909	-0.012762	-11.321836
0.750000	-0.013918	-12.126121	-96.717821	87.563204	-96.717821	87.563204	-0.013967	-12.123347
0.800000	-0.015114	-12.926967	-96.908726	89.944340	-96.908726	89.944340	-0.015156	-12.924003
0.850000	-0.016294	-13.726973	-97.203260	93.323498	-97.203260	93.323498	-0.016329	-13.723828
0.900000	-0.017457	-14.526159	-97.580004	98.037835	-97.580004	98.037835	-0.017485	-14.522842
0.950000	-0.018602	-15.324539	-97.990561	104.495992	-97.990561	104.495992	-0.018624	-15.321057
1.000000	-0.019731	-16.122123	-98.339545	113.080806	-98.339545	113.080806	-0.019746	-16.118482
1.050000	-0.020844	-16.918914	-98.471919	123.888113	-98.471919	123.888113	-0.020854	-16.915120
1.100000	-0.021942	-17.714912	-98.205836	136.333994	-98.205836	136.333994	-0.021947	-17.710969
1.150000	-0.023028	-18.510114	-97.436604	149.019487	-97.436604	149.019487	-0.023028	-18.506025
1.200000	-0.024101	-19.304513	-96.224723	160.359743	-96.224723	160.359743	-0.024098	-19.300279
1.250000	-0.025164	-20.098100	-94.744118	169.478318	-94.744118	169.478318	-0.025158	-20.093722
1.300000	-0.026217	-20.890826	-93.150321	176.262320	-93.150321	176.262320	-0.026209	-20.886306
1.350000	-0.027262	-21.682713	-91.567415	-178.790131	-91.567415	-178.790131	-0.027252	-21.678050
1.400000	-0.028300	-22.473747	-90.045055	-175.250040	-90.045055	-175.250040	-0.028289	-22.468941
1.450000	-0.029332	-23.263912	-88.602064	-172.764100	-88.602064	-172.764100	-0.029320	-23.258961
1.500000	-0.030359	-24.053190	-87.241965	-171.066595	-87.241965	-171.066595	-0.030347	-24.048093
1.550000	-0.031382	-24.841565	-85.961465	-169.964053	-85.961465	-169.964053	-0.031369	-24.836321
1.600000	-0.032401	-25.629019	-84.754638	-169.316520	-84.754638	-169.316520	-0.032389	-25.623626
1.650000	-0.033418	-26.415533	-83.614891	-169.022176	-83.614891	-169.022176	-0.033406	-26.409990
1.700000	-0.034433	-27.200749	-82.510540	-169.077083	-82.510540	-169.077083	-0.034421	-27.195054
1.750000	-0.035446	-27.985459	-81.497482	-169.256748	-81.497482	-169.256748	-0.035435	-27.979610
1.800000	-0.036459	-28.768950	-80.518591	-169.639653	-80.518591	-169.639653	-0.036448	-28.762947
1.850000	-0.037471	-29.551570	-79.592934	-170.167729	-79.592934	-170.167729	-0.037461	-29.545411
1.900000	-0.038483	-30.333107	-78.704833	-170.813093	-78.704833	-170.813093	-0.038474	-30.326790
1.950000	-0.039496	-31.113560	-77.852355	-171.575744	-77.852355	-171.575744	-0.039487	-31.107084
2.000000	-0.040510	-31.893077	-77.039302	-172.407075	-77.039302	-172.407075	-0.040501	-31.886443
2.050000	-0.041524	-32.671286	-76.248800	-173.334557	-76.248800	-173.334557	-0.041516	-32.664491
2.100000	-0.042540	-33.448722	-75.498752	-174.302018	-75.498752	-174.302018	-0.042533	-33.441765
2.150000	-0.043559	-34.224612	-74.761399	-175.349438	-74.761399	-175.349438	-0.043552	-34.217494
2.200000	-0.044579	-34.999906	-74.065002	-176.419307	-74.065002	-176.419307	-0.044572	-34.992625
2.250000	-0.045603	-35.773407	-73.373775	-177.556528	-73.373775	-177.556528	-0.045596	-35.765964
2.300000	-0.046628	-36.546498	-72.723645	-178.705223	-72.723645	-178.705223	-0.046621	-36.538892
2.350000	-0.047658	-37.317542	-72.072880	-179.911288	-72.072880	-179.911288	-0.047651	-37.309773
2.400000	-0.048690	-38.088375	-71.463094	178.878163	-71.463094	178.878163	-0.048682	-38.080444
2.450000	-0.049728	-38.856896	-70.848163	177.618281	-70.848163	177.618281	-0.049720	-38.848802
2.500000	-0.050767	-39.625417	-70.273902	176.358399	-70.273902	176.358399	-0.050758	-39.617161
2.550000	-0.051815	-40.391354	-69.690974	175.055756	-69.690974	175.055756	-0.051805	-40.382935
2.600000	-0.052863	-41.157290	-69.144718	173.753113	-69.144718	173.753113	-0.052853	-41.148710
2.650000	-0.053921	-41.920805	-68.594129	172.418903	-68.594129	172.418903	-0.053910	-41.912063
2.700000	-0.054979	-42.684099	-68.073237	171.081824	-68.073237	171.081824	-0.054968	-42.675196
2.750000	-0.056048	-43.445144	-67.551594	169.721373	-67.551594	169.721373	-0.056036	-43.436082
2.800000	-0.057119	-44.205741	-67.053810	168.356248	-67.053810	168.356248	-0.057106	-44.196519
2.850000	-0.058201	-44.964275	-66.558245	166.973836	-66.558245	166.973836	-0.058186	-44.954894
2.900000	-0.059285	-45.722121	-66.081626	165.585661	-66.081626	165.585661	-0.059270	-45.712582
2.950000	-0.060380	-46.478103	-65.609693	164.184763	-65.609693	164.184763	-0.060364	-46.468405
3.000000	-0.061480	-47.233152	-65.152551	162.777503	-65.152551	162.777503	-0.061463	-47.223297
3.050000	-0.062590	-47.986543	-64.702145	161.360970	-64.702145	161.360970	-0.062572	-47.976531
3.100000	-0.063707	-48.738749	-64.263002	159.937815	-64.263002	159.937815	-0.063688	-48.728581
3.150000	-0.064833	-49.489514	-63.832298	158.508012	-63.832298	158.508012	-0.064813	-49.479190
3.200000	-0.065969	-50.238836	-63.409852	157.071562	-63.409852	157.071562	-0.065947	-50.228358
3.250000	-0.067112	-50.986941	-62.997257	155.630465	-62.997257	155.630465	-0.067090	-50.976308
3.300000	-0.068268	-51.733342	-62.590353	154.182863	-62.590353	154.182863	-0.068244	-51.722555
3.350000	-0.069430	-52.478757	-62.194465	152.732138	-62.194465	152.732138	-0.069406	-52.467816
3.400000	-0.070608	-53.222201	-61.802075	151.275168	-61.802075	151.275168	-0.070582	-53.211108
3.450000	-0.071791	-53.964899	-61.421656	149.816231	-61.421656	149.816231	-0.071764	-53.953653
3.500000	-0.072991	-54.705356	-61.042857	148.351392	-61.042857	148.351392	-0.072964	-54.693958
3.550000	-0.074196	-55.445310	-60.676806	146.885453	-60.676806	146.885453	-0.074168	-55.433760
3.600000	-0.075422	-56.182753	-60.310768	145.414016	-60.310768	145.414016	-0.075393	-56.171052
3.650000	-0.076650	-56.919942	-59.958103	143.942119	-59.958103	143.942119	-0.076620	-56.908090
3.700000	-0.077903	-57.654345	-59.604074	142.465169	-59.604074	142.465169	-0.077872	-57.642343
3.750000	-0.079156	-58.388749	-59.263912	140.988219	-59.263912	140.988219	-0.079125	-58.376596
3.800000	-0.080437	-59.120093	-58.921211	139.506689	-58.921211	139.506689	-0.080405	-59.107790
3.850000	-0.081719	-59.851438	-58.591520	138.025159	-58.591520	138.025159	-0.081686	-59.838985
3.900000	-0.083028	-60.579963	-58.260764	136.540172	-58.260764	136.540172	-0.082995	-60.567360
3.950000	-0.084340	-61.308231	-57.940993	135.054871	-57.940993	135.054871	-0.084306	-61.295479
4.000000	-0.085679	-62.033925	-57.621445	133.567014	-57.621445	133.567014	-0.085645	-62.021023
4.050000	-0.087023	-62.759103	-57.311090	132.078646	-57.311090	132.078646	-0.086988	-62.746053
4.100000	-0.088393	-63.481958	-57.002082	130.588441	-57.002082	130.588441	-0.088358	-63.468758
4.150000	-0.089771	-64.204037	-56.700679	129.097623	-56.700679	129.097623	-0.089736	-64.190688
4.200000	-0.091173	-64.924045	-56.401602	127.605535	-56.401602	127.605535	-0.091137	-64.910548
4.250000	-0.092587	-65.643018	-56.108721	126.112811	-56.108721	126.112811	-0.092551	-65.629372
4.300000	-0.094023	-66.360177	-55.819020	124.619256	-55.819020	124.619256	-0.093987	-66.346382
4.350000	-0.095475	-67.076041	-55.534265	123.125108	-55.534265	123.125108	-0.095438	-67.062097
4.400000	-0.096946	-67.790349	-55.253431	121.630462	-55.253431	121.630462	-0.096909	-67.776257
4.450000	-0.098438	-68.503104	-54.976434	120.135317	-54.976434	120.135317	-0.098400	-68.488863
4.500000	-0.099946	-69.214564	-54.703999	118.639917	-54.703999	118.639917	-0.099908	-69.200174
4.550000	-0.101478	-69.924212	-54.434419	117.144158	-54.434419	117.144158	-0.101440	-69.909674
4.600000	-0.103025	-70.632828	-54.169951	115.648310	-54.169951	115.648310	-0.102987	-70.618141
4.650000	-0.104601	-71.339377	-53.907470	114.152282	-53.907470	114.152282	-0.104562	-71.324542
4.700000	-0.106188	-72.045155	-53.650573	112.656263	-53.650573	112.656263	-0.106149	-72.030171
4.750000	-0.107808	-72.748615	-53.394892	111.160273	-53.394892	111.160273	-0.107769	-72.733482
4.800000	-0.109436	-73.451563	-53.145198	109.664337	-53.145198	109.664337	-0.109397	-73.436282
4.850000	-0.111103	-74.151948	-52.896042	108.168667	-52.896042	108.168667	-0.111064	-74.136518
4.900000	-0.112775	-74.852078	-52.653210	106.673044	-52.653210	106.673044	-0.112735	-74.836499
4.950000	-0.114490	-75.549403	-52.410316	105.177946	-52.410316	105.177946	-0.114450	-75.533676
5.000000	-0.116206	-76.246729	-52.174031	103.682848	-52.174031	103.682848	-0.116165	-76.230852
5.050000	-0.117971	-76.941014	-51.937156	102.188554	-51.937156	102.188554	-0.117930	-76.924989
5.100000	-0.119738	-77.635300	-51.706571	100.694260	-51.706571	100.694260	-0.119696	-77.619126
5.150000	-0.121551	-78.326820	-51.476038	99.200897	-51.476038	99.200897	-0.121509	-78.310497
5.200000	-0.123369	-79.018088	-51.250942	97.707619	-51.250942	97.707619	-0.123327	-79.001617
5.250000	-0.125232	-79.706863	-51.026470	96.215348	-51.026470	96.215348	-0.125189	-79.690243
5.300000	-0.127104	-80.395140	-50.806666	94.723278	-50.806666	94.723278	-0.127061	-80.378371
5.350000	-0.129017	-81.081193	-50.587993	93.232248	-50.587993	93.232248	-0.128974	-81.064276
5.400000	-0.130945	-81.766506	-50.373294	91.741565	-50.373294	91.741565	-0.130901	-81.749441
5.450000	-0.132911	-82.449865	-50.160176	90.251916	-50.160176	90.251916	-0.132866	-82.432650
5.500000	-0.134896	-83.132246	-49.950406	88.762784	-49.950406	88.762784	-0.134850	-83.114882
5.550000	-0.136915	-83.812936	-49.742613	87.274645	-49.742613	87.274645	-0.136869	-83.795424
5.600000	-0.138960	-84.492419	-49.537604	85.787215	-49.537604	85.787215	-0.138913	-84.474758
5.650000	-0.141034	-85.170471	-49.334922	84.300706	-49.334922	84.300706	-0.140987	-85.152662
5.700000	-0.143140	-85.847092	-49.134515	82.815119	-49.134515	82.815119	-0.143092	-85.829135
5.750000	-0.145271	-86.522538	-48.936742	81.330353	-48.936742	81.330353	-0.145222	-86.504433
5.800000	-0.147439	-87.196338	-48.740788	79.846738	-48.740788	79.846738	-0.147390	-87.178084
5.850000	-0.149629	-87.869211	-48.547733	78.363820	-48.547733	78.363820	-0.149578	-87.850809
5.900000	-0.151861	-88.540231	-48.356089	76.882297	-48.356089	76.882297	-0.151810	-88.521681
5.950000	-0.154111	-89.210568	-48.167575	75.401326	-48.167575	75.401326	-0.154058	-89.191869
6.000000	-0.156409	-89.878853	-47.980105	73.922009	-47.980105	73.922009	-0.156356	-89.860007
6.050000	-0.158720	-90.546691	-47.795962	72.443076	-47.795962	72.443076	-0.158666	-90.527696
6.100000	-0.161087	-91.212288	-47.612537	70.966068	-47.612537	70.966068	-0.161032	-91.193145
6.150000	-0.163460	-91.877666	-47.432607	69.489260	-47.432607	69.489260	-0.163404	-91.858375
6.200000	-0.165896	-92.540626	-47.253104	68.014658	-47.253104	68.014658	-0.165839	-92.521187
6.250000	-0.168333	-93.203585	-47.077237	66.540056	-47.077237	66.540056	-0.168275	-93.183998
6.300000	-0.170841	-93.863959	-46.901540	65.067951	-46.901540	65.067951	-0.170782	-93.844224
6.350000	-0.173350	-94.524333	-46.729326	63.595846	-46.729326	63.595846	-0.173289	-94.504450
6.400000	-0.175925	-95.182386	-46.557589	62.126106	-46.557589	62.126106	-0.175863	-95.162355
6.450000	-0.178507	-95.840229	-46.388925	60.656581	-46.388925	60.656581	-0.178444	-95.820049
6.500000	-0.181150	-96.496009	-46.221011	59.189271	-46.221011	59.189271	-0.181086	-96.475680
6.550000	-0.183807	-97.151377	-46.055797	57.722405	-46.055797	57.722405	-0.183742	-97.130900
6.600000	-0.186521	-97.804932	-45.891576	56.257586	-45.891576	56.257586	-0.186454	-97.784307
6.650000	-0.189254	-98.457884	-45.729718	54.793450	-45.729718	54.793450	-0.189186	-98.437110
6.700000	-0.192039	-99.109267	-45.569067	53.331178	-45.569067	53.331178	-0.191970	-99.088343
6.750000	-0.194850	-99.759864	-45.410473	51.869838	-45.410473	51.869838	-0.194780	-99.738792
6.800000	-0.197708	-100.409126	-45.253276	50.410166	-45.253276	50.410166	-0.197637	-100.387903
6.850000	-0.200600	-101.057432	-45.097859	48.951684	-45.097859	48.951684	-0.200527	-101.036060
6.900000	-0.203532	-101.704626	-44.944005	47.494659	-44.944005	47.494659	-0.203458	-101.683103
6.950000	-0.206505	-102.350707	-44.791681	46.039091	-44.791681	46.039091	-0.206430	-102.329034
7.000000	-0.209512	-102.995889	-44.641066	44.584759	-44.641066	44.584759	-0.209436	-102.974065
7.050000	-0.212569	-103.639812	-44.491755	43.132156	-44.491755	43.132156	-0.212491	-103.617836
7.100000	-0.215653	-104.283040	-44.344277	41.680556	-44.344277	41.680556	-0.215574	-104.260912
7.150000	-0.218794	-104.924875	-44.197903	40.230963	-44.197903	40.230963	-0.218714	-104.902594
7.200000	-0.221957	-105.566206	-44.053468	38.782133	-44.053468	38.782133	-0.221876	-105.543772
7.250000	-0.225184	-106.206025	-43.909957	37.335592	-43.909957	37.335592	-0.225102	-106.183436
7.300000	-0.228427	-106.845520	-43.768474	35.889565	-43.768474	35.889565	-0.228343	-106.822777
7.350000	-0.231742	-107.483396	-43.627757	34.446111	-43.627757	34.446111	-0.231657	-107.460497
7.400000	-0.235066	-108.121117	-43.489139	33.002916	-43.489139	33.002916	-0.234979	-108.098062
7.450000	-0.238470	-108.757127	-43.351148	31.562581	-43.351148	31.562581	-0.238383	-108.733913
7.500000	-0.241876	-109.393137	-43.215314	30.122245	-43.215314	30.122245	-0.241787	-109.369764
7.550000	-0.245372	-110.027358	-43.079984	28.685054	-43.079984	28.685054	-0.245282	-110.003825
7.600000	-0.248869	-110.661578	-42.946730	27.247863	-42.946730	27.247863	-0.248777	-110.637885
7.650000	-0.252449	-111.294233	-42.814125	25.813575	-42.814125	25.813575	-0.252357	-111.270375
7.700000	-0.256039	-111.926744	-42.683392	24.379550	-42.683392	24.379550	-0.255945	-111.902723
7.750000	-0.259706	-112.557900	-42.553438	22.948178	-42.553438	22.948178	-0.259611	-112.533713
7.800000	-0.263389	-113.188784	-42.425170	21.517337	-42.425170	21.517337	-0.263293	-113.164430
7.850000	-0.267143	-113.818511	-42.297795	20.088893	-42.297795	20.088893	-0.267046	-113.793987
7.900000	-0.270922	-114.447851	-42.171939	18.661247	-42.171939	18.661247	-0.270824	-114.423157
7.950000	-0.274765	-115.076220	-42.047074	17.235737	-42.047074	17.235737	-0.274665	-115.051352
8.000000	-0.278641	-115.704102	-41.923580	15.811295	-41.923580	15.811295	-0.278540	-115.679060
8.050000	-0.282574	-116.331185	-41.801160	14.388723	-41.801160	14.388723	-0.282471	-116.305965
8.100000	-0.286548	-116.957697	-41.679978	12.967487	-41.679978	12.967487	-0.286444	-116.932298
8.150000	-0.290572	-117.583568	-41.559942	11.547854	-41.559942	11.547854	-0.290467	-117.557987
8.200000	-0.294646	-118.208799	-41.441026	10.129824	-41.441026	10.129824	-0.294539	-118.183033
8.250000	-0.298762	-118.833534	-41.323315	8.713126	-41.323315	8.713126	-0.298653	-118.807581
8.300000	-0.302936	-119.457576	-41.206622	7.298296	-41.206622	7.298296	-0.302826	-119.431432
8.350000	-0.307145	-120.081252	-41.091180	5.884528	-41.091180	5.884528	-0.307034	-120.054915
8.400000	-0.311422	-120.704197	-40.976668	4.472888	-40.976668	4.472888	-0.311309	-120.677664
8.450000	-0.315725	-121.326893	-40.863442	3.062042	-40.863442	3.062042	-0.315611	-121.300160
8.500000	-0.320105	-121.948838	-40.751070	1.653578	-40.751070	1.653578	-0.319989	-121.921901
8.550000	-0.324504	-122.570632	-40.640010	0.245640	-40.640010	0.245640	-0.324386	-122.543490
8.600000	-0.328989	-123.191674	-40.529743	-1.159664	-40.529743	-1.159664	-0.328868	-123.164320
8.650000	-0.333484	-123.812650	-40.420802	-2.564707	-40.420802	-2.564707	-0.333361	-123.785083
8.700000	-0.338074	-124.432888	-40.312603	-3.966873	-40.312603	-3.966873	-0.337949	-124.405101
8.750000	-0.342666	-125.053127	-40.205735	-5.369039	-40.205735	-5.369039	-0.342539	-125.025119
8.800000	-0.347363	-125.672665	-40.099572	-6.768091	-40.099572	-6.768091	-0.347233	-125.644426
8.850000	-0.352062	-126.292202	-39.994691	-8.167143	-39.994691	-8.167143	-0.351929	-126.263733
8.900000	-0.356858	-126.911191	-39.890578	-9.563365	-39.890578	-9.563365	-0.356722	-126.882483
8.950000	-0.361665	-127.530131	-39.787654	-10.959329	-39.787654	-10.959329	-0.361526	-127.501182
9.000000	-0.366561	-128.148660	-39.685551	-12.352745	-39.685551	-12.352745	-0.366419	-128.119463
9.050000	-0.371477	-128.767108	-39.584558	-13.745652	-39.584558	-13.745652	-0.371331	-128.737659
9.100000	-0.376473	-129.385268	-39.484429	-15.136290	-39.484429	-15.136290	-0.376323	-129.355558
9.150000	-0.381498	-130.003333	-39.385342	-16.526171	-39.385342	-16.526171	-0.381345	-129.973359
9.200000	-0.386596	-130.621215	-39.287151	-17.914057	-39.287151	-17.914057	-0.386438	-130.590969
9.250000	-0.391732	-131.239006	-39.189947	-19.300946	-39.189947	-19.300946	-0.391569	-131.208484
9.300000	-0.396932	-131.856704	-39.093663	-20.686110	-39.093663	-20.686110	-0.396764	-131.825897
9.350000	-0.402179	-132.474335	-38.998322	-22.070041	-38.998322	-22.070041	-0.402006	-132.443237
9.400000	-0.407482	-133.091943	-38.903914	-23.452513	-38.903914	-23.452513	-0.407303	-133.060548
9.450000	-0.412841	-133.709529	-38.810418	-24.833523	-38.810418	-24.833523	-0.412655	-133.677828
9.500000	-0.418247	-134.327145	-38.717859	-26.213332	-38.717859	-26.213332	-0.418054	-134.295132
9.550000	-0.423718	-134.944804	-38.626192	-27.591457	-38.626192	-27.591457	-0.423518	-134.912468
9.600000	-0.429228	-135.562526	-38.535455	-28.968633	-38.535455	-28.968633	-0.429021	-135.529863
9.650000	-0.434812	-136.180378	-38.445602	-30.343909	-38.445602	-30.343909	-0.434596	-136.147375
9.700000	-0.440426	-136.798308	-38.356665	-31.718482	-38.356665	-31.718482	-0.440202	-136.764961
9.750000	-0.446123	-137.416474	-38.268616	-33.090944	-38.268616	-33.090944	-0.445889	-137.382770
9.800000	-0.451841	-138.034715	-38.181457	-34.462943	-38.181457	-34.462943	-0.451598	-138.000649
9.850000	-0.457652	-138.653322	-38.095200	-35.832625	-38.095200	-35.832625	-0.457398	-138.618879
9.900000	-0.463476	-139.271977	-38.009800	-37.202077	-38.009800	-37.202077	-0.463210	-139.237155
9.950000	-0.469400	-139.891154	-37.925328	-38.569009	-37.925328	-38.569009	-0.469122	-139.855933
10.000000	-0.475329	-140.510330	-37.841670	-39.935941	-37.841670	-39.935941	-0.475038	-140.474711
