! freq	dB(S11)	phase(S11)	dB(S12)	phase(S12)	
!     	dB(S21)	phase(S21)	dB(S22)	phase(S22)	
!S-par simulation data
#  GHz  S  DB  R 50
0.000000	0.000000	0.000000	-284.556579	180.000000	-284.556579	180.000000	0.000000	0.000000
0.050000	-0.001512	-2.510158	-72.499247	87.164336	-72.499247	87.164336	-0.001515	-2.510499
0.100000	-0.005311	-5.010420	-66.508320	84.852494	-66.508320	84.852494	-0.005315	-5.011046
0.150000	-0.010055	-7.497754	-63.006081	82.456915	-63.006081	82.456915	-0.010056	-7.498620
0.200000	-0.014747	-9.974018	-60.530193	80.028105	-60.530193	80.028105	-0.014740	-9.975117
0.250000	-0.019050	-12.443373	-58.617819	77.587485	-58.617819	77.587485	-0.019033	-12.444714
0.300000	-0.022886	-14.907311	-57.064163	75.142747	-57.064163	75.142747	-0.022862	-14.908909
0.350000	-0.026317	-17.366706	-55.759390	72.699295	-55.759390	72.699295	-0.026289	-17.368576
0.400000	-0.029431	-19.821593	-54.638063	70.261025	-54.638063	70.261025	-0.029401	-19.823748
0.450000	-0.032300	-22.271129	-53.659085	67.831866	-53.659085	67.831866	-0.032272	-22.273576
0.500000	-0.035020	-24.715199	-52.792008	65.413444	-52.792008	65.413444	-0.034995	-24.717945
0.550000	-0.037640	-27.153170	-52.016180	63.007654	-52.016180	63.007654	-0.037620	-27.156216
0.600000	-0.040197	-29.584398	-51.316319	60.616151	-51.316319	60.616151	-0.040183	-29.587746
0.650000	-0.042718	-32.008262	-50.680787	58.240415	-50.680787	58.240415	-0.042710	-32.011911
0.700000	-0.045222	-34.424170	-50.100503	55.881793	-50.100503	55.881793	-0.045221	-34.428116
0.750000	-0.047724	-36.831007	-49.568975	53.542724	-49.568975	53.542724	-0.047728	-36.835247
0.800000	-0.050232	-39.228231	-49.080193	51.224416	-49.080193	51.224416	-0.050243	-39.232761
0.850000	-0.052753	-41.615542	-48.628972	48.927554	-48.628972	48.927554	-0.052769	-41.620358
0.900000	-0.055287	-43.993225	-48.210437	46.651560	-48.210437	46.651560	-0.055308	-43.998321
0.950000	-0.057835	-46.360288	-47.821844	44.398636	-47.821844	44.398636	-0.057861	-46.365659
1.000000	-0.060396	-48.716343	-47.460244	42.169692	-47.460244	42.169692	-0.060426	-48.721984
1.050000	-0.062968	-51.061036	-47.123085	39.965576	-47.123085	39.965576	-0.063001	-51.066942
1.100000	-0.065547	-53.394046	-46.808130	37.787071	-46.808130	37.787071	-0.065583	-53.400214
1.150000	-0.068130	-55.715090	-46.513404	35.634897	-46.513404	35.634897	-0.068168	-55.721514
1.200000	-0.070714	-58.023914	-46.237147	33.509708	-46.237147	33.509708	-0.070753	-58.030591
1.250000	-0.073292	-60.320298	-45.977777	31.412090	-45.977777	31.412090	-0.073333	-60.327224
1.300000	-0.075862	-62.603495	-45.734195	29.343805	-45.734195	29.343805	-0.075903	-62.610668
1.350000	-0.078419	-64.873894	-45.504716	27.304086	-45.504716	27.304086	-0.078460	-64.881310
1.400000	-0.080959	-67.131370	-45.288139	25.293295	-45.288139	25.293295	-0.080999	-67.139028
1.450000	-0.083478	-69.375827	-45.083352	23.311713	-45.083352	23.311713	-0.083517	-69.383724
1.500000	-0.085974	-71.607197	-44.889320	21.359537	-44.889320	21.359537	-0.086011	-71.615333
1.550000	-0.088442	-73.825439	-44.705074	19.436881	-44.705074	19.436881	-0.088478	-73.833813
1.600000	-0.090882	-76.030539	-44.529702	17.543767	-44.529702	17.543767	-0.090915	-76.039149
1.650000	-0.093289	-78.222506	-44.362343	15.680121	-44.362343	15.680121	-0.093320	-78.231353
1.700000	-0.095664	-80.401374	-44.202178	13.845773	-44.202178	13.845773	-0.095692	-80.410457
1.750000	-0.098003	-82.567200	-44.048422	12.040445	-44.048422	12.040445	-0.098029	-82.576519
1.800000	-0.100307	-84.720063	-43.900328	10.263752	-43.900328	10.263752	-0.100331	-84.729618
1.850000	-0.102575	-86.860062	-43.757175	8.515193	-43.757175	8.515193	-0.102596	-86.869854
1.900000	-0.104806	-88.987318	-43.618268	6.794152	-43.618268	6.794152	-0.104826	-88.997346
1.950000	-0.107002	-91.101968	-43.482937	5.099883	-43.482937	5.099883	-0.107019	-91.112232
2.000000	-0.109162	-93.204169	-43.350530	3.431517	-43.350530	3.431517	-0.109178	-93.214670
2.050000	-0.111289	-95.294096	-43.220417	1.788051	-43.220417	1.788051	-0.111303	-95.304833
2.100000	-0.113382	-97.371937	-43.091987	0.168345	-43.091987	0.168345	-0.113395	-97.382911
2.150000	-0.115444	-99.437898	-42.964643	-1.428878	-42.964643	-1.428878	-0.115457	-99.449109
2.200000	-0.117477	-101.492199	-42.837806	-3.005036	-42.837806	-3.005036	-0.117490	-101.503646
2.250000	-0.119483	-103.535073	-42.710914	-4.561691	-42.710914	-4.561691	-0.119496	-103.546755
2.300000	-0.121465	-105.566767	-42.583419	-6.100545	-42.583419	-6.100545	-0.121477	-105.578684
2.350000	-0.123424	-107.587539	-42.454788	-7.623443	-42.454788	-7.623443	-0.123438	-107.599690
2.400000	-0.125364	-109.597660	-42.324504	-9.132369	-42.324504	-9.132369	-0.125379	-109.610044
2.450000	-0.127288	-111.597411	-42.192064	-10.629442	-42.192064	-10.629442	-0.127305	-111.610027
2.500000	-0.129199	-113.587085	-42.056979	-12.116916	-42.056979	-12.116916	-0.129218	-113.599933
2.550000	-0.131099	-115.566574	-41.918518	-13.596974	-41.918518	-13.596974	-0.131121	-115.579652
2.600000	-0.132993	-117.536631	-41.776423	-15.072550	-41.776423	-15.072550	-0.133018	-117.549938
2.650000	-0.134884	-119.497579	-41.630241	-16.546270	-41.630241	-16.546270	-0.134911	-119.511114
2.700000	-0.136774	-121.449751	-41.479533	-18.020864	-41.479533	-18.020864	-0.136805	-121.463513
2.750000	-0.138669	-123.393488	-41.323865	-19.499157	-41.323865	-19.499157	-0.138703	-123.407477
2.800000	-0.140569	-125.329143	-41.162809	-20.984058	-41.162809	-20.984058	-0.140608	-125.343358
2.850000	-0.142480	-127.257076	-40.995942	-22.478553	-40.995942	-22.478553	-0.142522	-127.271518
2.900000	-0.144405	-129.177658	-40.822835	-23.985700	-40.822835	-23.985700	-0.144450	-129.192326
2.950000	-0.146346	-131.091270	-40.643059	-25.508616	-40.643059	-25.508616	-0.146395	-131.106165
3.000000	-0.148306	-132.998303	-40.456169	-27.050477	-40.456169	-27.050477	-0.148360	-133.013426
3.050000	-0.150291	-134.899161	-40.261706	-28.614510	-40.261706	-28.614510	-0.150347	-134.914512
3.100000	-0.152301	-136.794257	-40.059182	-30.203995	-40.059182	-30.203995	-0.152362	-136.809840
3.150000	-0.154342	-138.684023	-39.848079	-31.822266	-39.848079	-31.822266	-0.154405	-138.699840
3.200000	-0.156415	-140.568901	-39.627831	-33.472712	-39.627831	-33.472712	-0.156482	-140.584956
3.250000	-0.158526	-142.449355	-39.397817	-35.158793	-39.397817	-35.158793	-0.158596	-142.465653
3.300000	-0.160677	-144.325866	-39.157343	-36.884048	-39.157343	-36.884048	-0.160749	-144.342411
3.350000	-0.162876	-146.198764	-38.904211	-38.655399	-38.904211	-38.655399	-0.162950	-146.215563
3.400000	-0.165115	-148.069164	-38.642629	-40.464864	-38.642629	-40.464864	-0.165191	-148.086223
3.450000	-0.167423	-149.936663	-38.361370	-42.339914	-38.361370	-42.339914	-0.167501	-149.953993
3.500000	-0.169781	-151.802930	-38.069823	-44.259802	-38.069823	-44.259802	-0.169861	-151.820538
3.550000	-0.172190	-153.668100	-37.768389	-46.226114	-37.768389	-46.226114	-0.172271	-153.685996
3.600000	-0.174706	-155.532805	-37.436743	-48.284492	-37.436743	-48.284492	-0.174788	-155.551006
3.650000	-0.177293	-157.398197	-37.090585	-50.400278	-37.090585	-50.400278	-0.177376	-157.416715
3.700000	-0.179956	-159.264496	-36.730774	-52.574859	-36.730774	-52.574859	-0.180040	-159.283343
3.750000	-0.182764	-161.133810	-36.334603	-54.854858	-36.334603	-54.854858	-0.182849	-161.153009
3.800000	-0.185710	-163.007009	-35.910355	-57.221764	-35.910355	-57.221764	-0.185796	-163.026583
3.850000	-0.188788	-164.884207	-35.464826	-59.666541	-35.464826	-59.666541	-0.188874	-164.904173
3.900000	-0.192092	-166.768845	-34.974917	-62.233268	-34.974917	-62.233268	-0.192181	-166.789234
3.950000	-0.195625	-168.661261	-34.451054	-64.903425	-34.451054	-64.903425	-0.195715	-168.682102
4.000000	-0.199567	-170.567521	-33.860045	-67.734686	-33.860045	-67.734686	-0.199660	-170.588860
4.050000	-0.203960	-172.488488	-33.213369	-70.713085	-33.213369	-70.713085	-0.204057	-172.510371
4.100000	-0.209070	-174.431265	-32.484873	-73.884186	-32.484873	-73.884186	-0.209172	-174.453756
4.150000	-0.215252	-176.403760	-31.655331	-77.288683	-31.655331	-77.288683	-0.215362	-176.426942
4.200000	-0.222939	-178.413599	-30.718820	-80.957670	-30.718820	-80.957670	-0.223061	-178.437575
4.250000	-0.233515	179.514302	-29.605527	-85.027564	-29.605527	-85.027564	-0.233655	179.489366
4.300000	-0.249234	177.349666	-28.269041	-89.644989	-28.269041	-89.644989	-0.249405	177.323526
4.350000	-0.275288	175.034506	-26.624727	-95.104581	-26.624727	-95.104581	-0.275514	175.006766
4.400000	-0.326761	172.439193	-24.495320	-102.105399	-24.495320	-102.105399	-0.327104	172.409111
4.450000	-0.456820	169.275461	-21.571982	-112.482238	-21.571982	-112.482238	-0.457468	169.241493
4.500000	-0.940151	165.139844	-17.319798	-132.880521	-17.319798	-132.880521	-0.941988	165.098882
4.550000	-2.433505	169.855485	-13.429125	172.356579	-13.429125	172.356579	-2.439776	169.830807
4.600000	-0.972963	175.140199	-17.712806	116.399083	-17.712806	116.399083	-0.974981	175.135572
4.650000	-0.476279	170.990921	-22.512106	94.975097	-22.512106	94.975097	-0.476995	170.979293
4.700000	-0.348063	167.788234	-25.958685	83.468462	-25.958685	83.468462	-0.348454	167.772590
4.750000	-0.300670	165.147275	-28.606359	74.972153	-28.606359	74.972153	-0.300940	165.129172
4.800000	-0.279770	162.782295	-30.740565	67.629534	-30.740565	67.629534	-0.279987	162.762479
4.850000	-0.269476	160.559303	-32.550251	60.719910	-32.550251	60.719910	-0.269665	160.538159
4.900000	-0.264488	158.420015	-34.107112	53.935862	-34.107112	53.935862	-0.264663	158.397771
4.950000	-0.262380	156.331090	-35.463322	47.110225	-35.463322	47.110225	-0.262548	156.307891
5.000000	-0.261818	154.270300	-36.690929	40.172768	-36.690929	40.172768	-0.261984	154.246231
5.050000	-0.262436	152.230334	-37.751893	33.057143	-37.751893	33.057143	-0.262602	152.205462
5.100000	-0.263754	150.201012	-38.686965	25.764942	-38.686965	25.764942	-0.263922	150.175380
5.150000	-0.265566	148.177061	-39.502963	18.311702	-39.502963	18.311702	-0.265736	148.150697
5.200000	-0.267740	146.154644	-40.204733	10.732179	-40.204733	10.732179	-0.267914	146.127568
5.250000	-0.270188	144.130875	-40.796674	3.075504	-40.796674	3.075504	-0.270367	144.103099
5.300000	-0.272852	142.103509	-41.283828	-4.600503	-41.283828	-4.600503	-0.273035	142.075041
5.350000	-0.275690	140.070750	-41.672512	-12.235560	-41.672512	-12.235560	-0.275878	140.041594
5.400000	-0.278672	138.031122	-41.970482	-19.772889	-41.970482	-19.772889	-0.278865	138.001277
5.450000	-0.281778	135.983380	-42.186713	-27.163994	-42.186713	-27.163994	-0.281975	135.952846
5.500000	-0.284991	133.926458	-42.330922	-34.371685	-42.330922	-34.371685	-0.285193	133.895227
5.550000	-0.288301	131.859415	-42.413011	-41.371168	-42.413011	-41.371168	-0.288506	131.827483
5.600000	-0.291697	129.781418	-42.442536	-48.149514	-42.442536	-48.149514	-0.291906	129.748774
5.650000	-0.295175	127.691710	-42.428311	-54.704016	-42.428311	-54.704016	-0.295387	127.658344
5.700000	-0.298729	125.589599	-42.378161	-61.040012	-42.378161	-61.040012	-0.298944	125.555499
5.750000	-0.302355	123.474442	-42.298809	-67.168622	-42.298809	-67.168622	-0.302572	123.439594
5.800000	-0.306051	121.345642	-42.195883	-73.104706	-42.195883	-73.104706	-0.306270	121.310031
5.850000	-0.309815	119.202635	-42.073981	-78.865182	-42.073981	-78.865182	-0.310035	119.166245
5.900000	-0.313646	117.044887	-41.936788	-84.467741	-41.936788	-84.467741	-0.313866	117.007699
5.950000	-0.317543	114.871890	-41.787195	-89.929935	-41.787195	-89.929935	-0.317763	114.833887
6.000000	-0.321505	112.683160	-41.627429	-95.268551	-41.627429	-95.268551	-0.321725	112.644321
6.050000	-0.325532	110.478232	-41.459168	-100.499236	-41.459168	-100.499236	-0.325752	110.438536
6.100000	-0.329626	108.256659	-41.283640	-105.636275	-41.283640	-105.636275	-0.329846	108.216086
6.150000	-0.333786	106.018012	-41.101714	-110.692503	-41.101714	-110.692503	-0.334005	105.976538
6.200000	-0.338014	103.761877	-40.913972	-115.679281	-40.913972	-115.679281	-0.338233	103.719481
6.250000	-0.342310	101.487856	-40.720774	-120.606539	-40.720774	-120.606539	-0.342529	101.444513
6.300000	-0.346680	99.194751	-40.521873	-125.480954	-40.521873	-125.480954	-0.346899	99.150438
6.350000	-0.351123	96.882972	-40.317724	-130.312210	-40.317724	-130.312210	-0.351342	96.837665
6.400000	-0.355640	94.552163	-40.108273	-135.106222	-40.108273	-135.106222	-0.355860	94.505840
6.450000	-0.360234	92.201982	-39.893402	-139.867822	-39.893402	-139.867822	-0.360457	92.154619
6.500000	-0.364908	89.832100	-39.672952	-144.600855	-39.672952	-144.600855	-0.365134	89.783674
6.550000	-0.369666	87.442199	-39.446742	-149.308272	-39.446742	-149.308272	-0.369896	87.392690
6.600000	-0.374512	85.031977	-39.214587	-153.992223	-39.214587	-153.992223	-0.374747	84.981364
6.650000	-0.379449	82.601143	-38.976308	-158.654149	-38.976308	-158.654149	-0.379691	82.549407
6.700000	-0.384484	80.149418	-38.731747	-163.294874	-38.731747	-163.294874	-0.384733	80.096541
6.750000	-0.389620	77.676536	-38.480773	-167.914684	-38.480773	-167.914684	-0.389879	77.622502
6.800000	-0.394865	75.182243	-38.223287	-172.513423	-38.223287	-172.513423	-0.395135	75.127038
6.850000	-0.400225	72.666300	-37.959232	-177.090563	-37.959232	-177.090563	-0.400508	72.609911
6.900000	-0.405708	70.128475	-37.688591	178.354706	-37.688591	178.354706	-0.406005	70.070892
6.950000	-0.411322	67.568550	-37.411388	173.823414	-37.411388	173.823414	-0.411634	67.509767
7.000000	-0.417076	64.986320	-37.127692	169.316729	-37.127692	169.316729	-0.417406	64.926331
7.050000	-0.422982	62.381586	-36.837612	164.835906	-36.837612	164.835906	-0.423330	62.320390
7.100000	-0.429049	59.754162	-36.541296	160.382217	-36.541296	160.382217	-0.429417	59.691758
7.150000	-0.435290	57.103869	-36.238927	155.956912	-36.238927	155.956912	-0.435680	57.040262
7.200000	-0.441719	54.430537	-35.930716	151.561164	-35.930716	151.561164	-0.442130	54.365733
7.250000	-0.448349	51.734001	-35.616903	147.196039	-35.616903	147.196039	-0.448783	51.668009
7.300000	-0.455197	49.014101	-35.297744	142.862464	-35.297744	142.862464	-0.455653	48.946935
7.350000	-0.462279	46.270681	-34.973513	138.561203	-34.973513	138.561203	-0.462758	46.202355
7.400000	-0.469614	43.503586	-34.644493	134.292838	-34.644493	134.292838	-0.470115	43.434118
7.450000	-0.477220	40.712656	-34.310968	130.057760	-34.310968	130.057760	-0.477742	40.642068
7.500000	-0.485120	37.897733	-33.973223	125.856160	-33.973223	125.856160	-0.485662	37.826048
7.550000	-0.493349	35.057588	-33.630783	121.689471	-33.630783	121.689471	-0.493908	34.984833
7.600000	-0.501919	32.193083	-33.284664	117.555998	-33.284664	117.555998	-0.502494	32.119288
7.650000	-0.510855	29.304022	-32.935119	113.455303	-32.935119	113.455303	-0.511442	29.229218
7.700000	-0.520185	26.390189	-32.582382	109.386755	-32.582382	109.386755	-0.520781	26.314408
7.750000	-0.529936	23.451343	-32.226667	105.349538	-32.226667	105.349538	-0.530537	23.374621
7.800000	-0.540140	20.487213	-31.868161	101.342657	-31.868161	101.342657	-0.540741	20.409585
7.850000	-0.550826	17.497490	-31.507028	97.364943	-31.507028	97.364943	-0.551423	17.418995
7.900000	-0.562030	14.481824	-31.143403	93.415059	-31.143403	93.415059	-0.562617	14.402500
7.950000	-0.573785	11.439811	-30.777391	89.491506	-30.777391	89.491506	-0.574356	11.359699
8.000000	-0.586129	8.370990	-30.409067	85.592626	-30.409067	85.592626	-0.586677	8.290132
8.050000	-0.599100	5.274831	-30.038476	81.716599	-30.038476	81.716599	-0.599618	5.193268
8.100000	-0.612738	2.150723	-29.665632	77.861449	-29.665632	77.861449	-0.613220	2.068501
8.150000	-0.627086	-1.002033	-29.290517	74.025040	-29.290517	74.025040	-0.627525	-1.084867
8.200000	-0.642190	-4.184239	-28.913080	70.205068	-28.913080	70.205068	-0.642578	-4.267637
8.250000	-0.658095	-7.396813	-28.533241	66.399059	-28.533241	66.399059	-0.658425	-7.480724
8.300000	-0.674852	-10.640804	-28.150885	62.604357	-28.150885	62.604357	-0.675117	-10.725174
8.350000	-0.692513	-13.917410	-27.765867	58.818115	-27.765867	58.818115	-0.692706	-14.002178
8.400000	-0.711134	-17.227993	-27.378012	55.037277	-27.378012	55.037277	-0.711248	-17.313096
8.450000	-0.730774	-20.574103	-26.987111	51.258566	-26.987111	51.258566	-0.730803	-20.659469
8.500000	-0.751498	-23.957499	-26.592927	47.478465	-26.592927	47.478465	-0.751436	-24.043048
8.550000	-0.773374	-27.380173	-26.195188	43.693188	-26.195188	43.693188	-0.773216	-27.465813
8.600000	-0.796476	-30.844379	-25.793594	39.898665	-25.793594	39.898665	-0.796216	-30.930005
8.650000	-0.820885	-34.352663	-25.387814	36.090507	-25.387814	36.090507	-0.820520	-34.438156
8.700000	-0.846690	-37.907901	-24.977483	32.263976	-24.977483	32.263976	-0.846216	-37.993120
8.750000	-0.873988	-41.513331	-24.562208	28.413954	-24.562208	28.413954	-0.873404	-41.598115
8.800000	-0.902943	-45.174534	-24.140675	24.533703	-24.140675	24.533703	-0.902245	-45.258685
8.850000	-0.933631	-48.894020	-23.713225	20.617964	-23.713225	20.617964	-0.932818	-48.977314
8.900000	-0.966191	-52.676481	-23.279348	16.660163	-23.279348	16.660163	-0.965263	-52.758655
8.950000	-1.000784	-56.527200	-22.838494	12.653164	-22.838494	12.653164	-0.999740	-56.607949
9.000000	-1.037592	-60.452131	-22.390066	8.589204	-22.390066	8.589204	-1.036430	-60.531097
9.050000	-1.076828	-64.457982	-21.933415	4.459832	-21.933415	4.459832	-1.075546	-64.534749
9.100000	-1.118740	-68.552321	-21.467826	0.255838	-21.467826	0.255838	-1.117335	-68.626406
9.150000	-1.163621	-72.743696	-20.992505	-4.032838	-20.992505	-4.032838	-1.162088	-72.814538
9.200000	-1.211802	-77.041110	-20.506777	-8.416602	-20.506777	-8.416602	-1.210133	-77.108067
9.250000	-1.263747	-81.456951	-20.009124	-12.908856	-20.009124	-12.908856	-1.261930	-81.519273
9.300000	-1.320083	-86.007106	-19.497265	-17.526311	-19.497265	-17.526311	-1.318099	-86.063911
9.350000	-1.381248	-90.699001	-18.971893	-22.277625	-18.971893	-22.277625	-1.379075	-90.749329
9.400000	-1.447972	-95.546797	-18.431732	-27.177735	-18.431732	-27.177735	-1.445578	-95.589571
9.450000	-1.521731	-100.581591	-17.870717	-32.258460	-17.870717	-32.258460	-1.519071	-100.615501
9.500000	-1.603633	-105.816443	-17.288375	-37.535486	-17.288375	-37.535486	-1.600653	-105.840082
9.550000	-1.695937	-111.284762	-16.678247	-43.047228	-16.678247	-43.047228	-1.692567	-111.296493
9.600000	-1.801120	-117.009783	-16.036784	-48.827373	-16.036784	-48.827373	-1.797277	-117.007837
9.650000	-1.923986	-123.040006	-15.352581	-54.947618	-15.352581	-54.947618	-1.919570	-123.022324
9.700000	-2.070889	-129.414124	-14.616796	-61.490615	-14.616796	-61.490615	-2.065788	-129.378434
9.750000	-2.253951	-136.197763	-13.811419	-68.615618	-13.811419	-68.615618	-2.248040	-136.141363
9.800000	-2.495129	-143.463748	-12.914595	-76.589561	-12.914595	-76.589561	-2.488264	-143.383232
9.850000	-2.838278	-151.276022	-11.902092	-85.897135	-11.902092	-85.897135	-2.830223	-151.166562
9.900000	-3.377857	-159.569493	-10.763170	-97.458976	-10.763170	-97.458976	-3.367916	-159.423507
9.950000	-4.312857	-167.483705	-9.572678	-113.011347	-9.572678	-113.011347	-4.298219	-167.293474
10.000000	-5.775138	-170.622709	-8.736114	-134.985010	-8.736114	-134.985010	-5.749541	-170.431545
