! freq	dB(S11)	phase(S11)	dB(S12)	phase(S12)	
!     	dB(S21)	phase(S21)	dB(S22)	phase(S22)	
!S-par simulation data
#  GHz  S  DB  R 50
0.000000	-88.901793	0.000000	-0.000312	0.000000	-0.000312	0.000000	-88.901793	0.000000
0.050000	-33.463907	-92.740979	-0.006036	-2.676580	-0.006036	-2.676580	-33.463291	-92.759517
0.100000	-27.463724	-95.602421	-0.016018	-5.369651	-0.016018	-5.369651	-27.462956	-95.639711
0.150000	-23.972537	-98.390023	-0.029827	-8.051777	-0.029827	-8.051777	-23.971565	-98.446340
0.200000	-21.512085	-101.124591	-0.047716	-10.718530	-0.047716	-10.718530	-21.510896	-101.200063
0.250000	-19.617323	-103.816630	-0.069259	-13.369429	-0.069259	-13.369429	-19.615928	-103.911141
0.300000	-18.081290	-106.474785	-0.094087	-16.004585	-0.094087	-16.004585	-18.079709	-106.587968
0.350000	-16.793736	-109.106232	-0.121914	-18.624470	-0.121914	-18.624470	-16.791989	-109.237497
0.400000	-15.688802	-111.716227	-0.152514	-21.229718	-0.152514	-21.229718	-15.686904	-111.864808
0.450000	-14.724559	-114.307500	-0.185796	-23.820305	-0.185796	-23.820305	-14.722519	-114.472461
0.500000	-13.872028	-116.881879	-0.221635	-26.396309	-0.221635	-26.396309	-13.869855	-117.062149
0.550000	-13.110749	-119.439966	-0.259950	-28.957333	-0.259950	-28.957333	-13.108444	-119.634341
0.600000	-12.425685	-121.981715	-0.300662	-31.502692	-0.300662	-31.502692	-12.423250	-122.188843
0.650000	-11.805077	-124.507106	-0.343631	-34.031930	-0.343631	-34.031930	-11.802511	-124.725524
0.700000	-11.240110	-127.015533	-0.388752	-36.544117	-0.388752	-36.544117	-11.237410	-127.243622
0.750000	-10.723452	-129.506718	-0.435858	-39.038707	-0.435858	-39.038707	-10.720614	-129.742735
0.800000	-10.249238	-131.980290	-0.484783	-41.515097	-0.484783	-41.515097	-10.246257	-132.222354
0.850000	-9.812815	-134.435680	-0.535362	-43.972497	-0.535362	-43.972497	-9.809686	-134.681737
0.900000	-9.409912	-136.872941	-0.587384	-46.410785	-0.587384	-46.410785	-9.406628	-137.120826
0.950000	-9.037241	-139.291733	-0.640665	-48.829436	-0.640665	-48.829436	-9.033796	-139.539103
1.000000	-8.691946	-141.691883	-0.695007	-51.228110	-0.695007	-51.228110	-8.688332	-141.936221
1.050000	-8.371401	-144.073566	-0.750203	-53.606850	-0.750203	-53.606850	-8.367611	-144.312206
1.100000	-8.073416	-146.436899	-0.806056	-55.965645	-0.806056	-55.965645	-8.069439	-146.667004
1.150000	-7.796068	-148.782089	-0.862370	-58.304583	-0.862370	-58.304583	-7.791897	-149.000642
1.200000	-7.537665	-151.109424	-0.918955	-60.623847	-0.918955	-60.623847	-7.533290	-151.313223
1.250000	-7.296705	-153.419267	-0.975629	-62.923704	-0.975629	-62.923704	-7.292115	-153.604918
1.300000	-7.071950	-155.711875	-1.032208	-65.204298	-1.032208	-65.204298	-7.067136	-155.875742
1.350000	-6.862093	-157.987941	-1.088527	-67.466255	-1.088527	-67.466255	-6.857042	-158.126215
1.400000	-6.666057	-160.248025	-1.144425	-69.710054	-1.144425	-69.710054	-6.660757	-160.356680
1.450000	-6.482870	-162.492741	-1.199752	-71.936228	-1.199752	-71.936228	-6.477309	-162.567525
1.500000	-6.311656	-164.722749	-1.254366	-74.145353	-1.254366	-74.145353	-6.305819	-164.759172
1.550000	-6.151617	-166.938750	-1.308132	-76.338050	-1.308132	-76.338050	-6.145492	-166.932079
1.600000	-6.002311	-169.141012	-1.360873	-78.514398	-1.360873	-78.514398	-5.995880	-169.086054
1.650000	-5.862544	-171.331223	-1.412570	-80.676175	-1.412570	-80.676175	-5.855793	-171.222876
1.700000	-5.731966	-173.509752	-1.463072	-82.823569	-1.463072	-82.823569	-5.724878	-173.342471
1.750000	-5.610028	-175.677426	-1.512281	-84.957305	-1.512281	-84.957305	-5.602584	-175.445373
1.800000	-5.496226	-177.835092	-1.560108	-87.078120	-1.560108	-87.078120	-5.488408	-177.532122
1.850000	-5.390099	-179.983618	-1.606470	-89.186761	-1.606470	-89.186761	-5.381886	-179.603266
1.900000	-5.291289	177.876192	-1.651273	-91.283868	-1.651273	-91.283868	-5.282659	178.340807
1.950000	-5.199400	175.743409	-1.694450	-93.370227	-1.694450	-93.370227	-5.190330	176.299531
2.000000	-5.114010	173.617035	-1.735958	-95.446723	-1.735958	-95.446723	-5.104477	174.272202
2.050000	-5.034795	171.496148	-1.775746	-97.514116	-1.775746	-97.514116	-5.024771	172.258288
2.100000	-4.961453	169.379819	-1.813768	-99.573166	-1.813768	-99.573166	-4.950912	170.257264
2.150000	-4.893710	167.267110	-1.849982	-101.624625	-1.849982	-101.624625	-4.882622	168.268618
2.200000	-4.831311	165.157078	-1.884354	-103.669242	-1.884354	-103.669242	-4.819646	166.291854
2.250000	-4.774025	163.048773	-1.916856	-105.707758	-1.916856	-105.707758	-4.761749	164.326488
2.300000	-4.721636	160.941237	-1.947462	-107.740907	-1.947462	-107.740907	-4.708715	162.372056
2.350000	-4.673950	158.833511	-1.976155	-109.769413	-1.976155	-109.769413	-4.660345	160.428112
2.400000	-4.630786	156.724625	-2.002920	-111.793992	-2.002920	-111.793992	-4.616458	158.494228
2.450000	-4.591979	154.613610	-2.027747	-113.815349	-2.027747	-113.815349	-4.576886	156.570003
2.500000	-4.557377	152.499485	-2.050632	-115.834179	-2.050632	-115.834179	-4.541475	154.655053
2.550000	-4.526927	150.381158	-2.071528	-117.851142	-2.071528	-117.851142	-4.510166	152.749209
2.600000	-4.500414	148.257703	-2.090484	-119.866965	-2.090484	-119.866965	-4.482743	150.851938
2.650000	-4.477724	146.128125	-2.107505	-121.882309	-2.107505	-121.882309	-4.459089	148.962939
2.700000	-4.458753	143.991419	-2.122602	-123.897824	-2.122602	-123.897824	-4.439095	147.081936
2.750000	-4.443406	141.846574	-2.135788	-125.914148	-2.135788	-125.914148	-4.422664	145.208684
2.800000	-4.431598	139.692569	-2.147079	-127.931907	-2.147079	-127.931907	-4.409706	143.342966
2.850000	-4.423251	137.528374	-2.156496	-129.951715	-2.156496	-129.951715	-4.400138	141.484600
2.900000	-4.418295	135.352949	-2.164062	-131.974176	-2.164062	-131.974176	-4.393888	139.633434
2.950000	-4.416668	133.165242	-2.169803	-133.999881	-2.169803	-133.999881	-4.390886	137.789352
3.000000	-4.418315	130.964190	-2.173748	-136.029408	-2.173748	-136.029408	-4.391073	135.952272
3.050000	-4.423185	128.748714	-2.175928	-138.063326	-2.175928	-138.063326	-4.394391	134.122150
3.100000	-4.431235	126.517725	-2.176379	-140.102190	-2.176379	-140.102190	-4.400792	132.298978
3.150000	-4.442458	124.269921	-2.175120	-142.146609	-2.175120	-142.146609	-4.410261	130.482867
3.200000	-4.456818	122.004142	-2.172191	-144.197133	-2.172191	-144.197133	-4.422755	128.673895
3.250000	-4.474251	119.719426	-2.167656	-146.254219	-2.167656	-146.254219	-4.438203	126.872106
3.300000	-4.494731	117.414611	-2.161558	-148.318374	-2.161558	-148.318374	-4.456570	125.077663
3.350000	-4.518232	115.088519	-2.153946	-150.390091	-2.153946	-150.390091	-4.477823	123.290778
3.400000	-4.544733	112.739947	-2.144871	-152.469851	-2.144871	-152.469851	-4.501930	121.511708
3.450000	-4.574216	110.367672	-2.134387	-154.558120	-2.134387	-154.558120	-4.528862	119.740758
3.500000	-4.606660	107.970449	-2.122548	-156.655351	-2.122548	-156.655351	-4.558590	117.978288
3.550000	-4.642050	105.547007	-2.109414	-158.761986	-2.109414	-158.761986	-4.591084	116.224706
3.600000	-4.680367	103.096051	-2.095045	-160.878447	-2.095045	-160.878447	-4.626313	114.480475
3.650000	-4.721592	100.616261	-2.079505	-163.005147	-2.079505	-163.005147	-4.664248	112.746115
3.700000	-4.765707	98.106292	-2.062861	-165.142478	-2.062861	-165.142478	-4.704852	111.022199
3.750000	-4.812690	95.564772	-2.045180	-167.290820	-2.045180	-167.290820	-4.748089	109.309360
3.800000	-4.862569	92.989552	-2.026513	-169.450789	-2.026513	-169.450789	-4.793967	107.608561
3.850000	-4.915258	90.379892	-2.006958	-171.622488	-2.006958	-171.622488	-4.842387	105.920316
3.900000	-4.970723	87.734339	-1.986591	-173.806242	-1.986591	-173.806242	-4.893294	104.245437
3.950000	-5.028923	85.051417	-1.965491	-176.002353	-1.965491	-176.002353	-4.946628	102.584793
4.000000	-5.089810	82.329627	-1.943738	-178.211108	-1.943738	-178.211108	-5.002319	100.939314
4.050000	-5.153326	79.567447	-1.921417	179.567233	-1.921417	179.567233	-5.060289	99.309982
4.100000	-5.219405	76.763339	-1.898612	177.332430	-1.898612	177.332430	-5.120447	97.697835
4.150000	-5.287967	73.915751	-1.875412	175.084264	-1.875412	175.084264	-5.182690	96.103960
4.200000	-5.358920	71.023119	-1.851907	172.822547	-1.851907	172.822547	-5.246899	94.529489
4.250000	-5.432159	68.083878	-1.828189	170.547110	-1.828189	170.547110	-5.312943	92.975594
4.300000	-5.507559	65.096463	-1.804352	168.257816	-1.804352	168.257816	-5.380670	91.443480
4.350000	-5.584979	62.059323	-1.780491	165.954556	-1.780491	165.954556	-5.449911	89.934373
4.400000	-5.664268	58.970355	-1.756705	163.637093	-1.756705	163.637093	-5.520482	88.449791
4.450000	-5.745232	55.828013	-1.733096	161.305379	-1.733096	161.305379	-5.592162	86.991018
4.500000	-5.827649	52.631412	-1.709764	158.959551	-1.709764	158.959551	-5.664706	85.559014
4.550000	-5.911285	49.379175	-1.686811	156.599627	-1.686811	156.599627	-5.737851	84.154969
4.600000	-5.995876	46.070013	-1.664337	154.225658	-1.664337	154.225658	-5.811311	82.780020
4.650000	-6.081129	42.702741	-1.642445	151.837734	-1.642445	151.837734	-5.884770	81.435231
4.700000	-6.166722	39.276310	-1.621238	149.435979	-1.621238	149.435979	-5.957887	80.121565
4.750000	-6.252301	35.789827	-1.600817	147.020555	-1.600817	147.020555	-6.030293	78.839858
4.800000	-6.337480	32.242589	-1.581284	144.591662	-1.581284	144.591662	-6.101593	77.590794
4.850000	-6.421842	28.634116	-1.562740	142.149539	-1.562740	142.149539	-6.171366	76.374871
4.900000	-6.504938	24.964180	-1.545285	139.694466	-1.545285	139.694466	-6.239168	75.192372
4.950000	-6.586291	21.232845	-1.529014	137.226759	-1.529014	137.226759	-6.304534	74.043333
5.000000	-6.665395	17.440504	-1.514025	134.746776	-1.514025	134.746776	-6.366983	72.927513
5.050000	-6.741658	13.586950	-1.500434	132.254727	-1.500434	132.254727	-6.425948	71.844882
5.100000	-6.814581	9.674353	-1.488308	129.751248	-1.488308	129.751248	-6.480985	70.794000
5.150000	-6.883604	5.704320	-1.477735	127.236812	-1.477735	127.236812	-6.531593	69.773617
5.200000	-6.948162	1.678914	-1.468794	124.711927	-1.468794	124.711927	-6.577278	68.782112
5.250000	-7.007693	-2.399323	-1.461563	122.177132	-1.461563	122.177132	-6.617562	67.817489
5.300000	-7.061644	-6.527360	-1.456114	119.632998	-1.456114	119.632998	-6.651990	66.877376
5.350000	-7.109429	-10.702018	-1.452527	117.080057	-1.452527	117.080057	-6.680084	65.959188
5.400000	-7.150579	-14.918976	-1.450855	114.518984	-1.450855	114.518984	-6.701497	65.059675
5.450000	-7.184656	-19.173629	-1.451145	111.950445	-1.451145	111.950445	-6.715915	64.175377
5.500000	-7.211258	-23.461080	-1.453447	109.375096	-1.453447	109.375096	-6.723068	63.302624
5.550000	-7.230044	-27.776059	-1.457802	106.793605	-1.457802	106.793605	-6.722750	62.437532
5.600000	-7.240745	-32.112983	-1.464247	104.206649	-1.464247	104.206649	-6.714823	61.576059
5.650000	-7.243099	-36.466122	-1.472829	101.614877	-1.472829	101.614877	-6.699161	60.714040
5.700000	-7.236995	-40.829344	-1.483573	99.018993	-1.483573	99.018993	-6.675775	59.847219
5.750000	-7.222480	-45.196467	-1.496483	96.419727	-1.496483	96.419727	-6.644817	58.971502
5.800000	-7.199619	-49.561473	-1.511571	93.817769	-1.511571	93.817769	-6.606449	58.082920
5.850000	-7.168559	-53.918455	-1.528846	91.213808	-1.528846	91.213808	-6.560899	57.177694
5.900000	-7.129530	-58.261706	-1.548313	88.608537	-1.548313	88.608537	-6.508461	56.252292
5.950000	-7.083081	-62.586583	-1.569901	86.002640	-1.569901	86.002640	-6.449697	55.304340
6.000000	-7.029031	-66.886406	-1.593754	83.396789	-1.593754	83.396789	-6.384528	54.329148
6.050000	-6.968107	-71.157204	-1.619779	80.791692	-1.619779	80.791692	-6.313654	53.325084
6.100000	-6.900778	-75.394722	-1.647958	78.188022	-1.647958	78.188022	-6.237540	52.290010
6.150000	-6.827550	-79.595170	-1.678269	75.586447	-1.678269	75.586447	-6.156675	51.222187
6.200000	-6.748956	-83.755240	-1.710684	72.987621	-1.710684	72.987621	-6.071559	50.120270
6.250000	-6.665542	-87.872110	-1.745169	70.392184	-1.745169	70.392184	-5.982698	48.983298
6.300000	-6.577808	-91.942919	-1.781707	67.800810	-1.781707	67.800810	-5.890552	47.810289
6.350000	-6.486366	-95.966269	-1.820231	65.214063	-1.820231	65.214063	-5.795665	46.601388
6.400000	-6.391753	-99.940730	-1.860695	62.632522	-1.860695	62.632522	-5.698516	45.356677
6.450000	-6.294491	-103.865278	-1.903046	60.056742	-1.903046	60.056742	-5.599564	44.076523
6.500000	-6.195078	-107.739266	-1.947228	57.487251	-1.947228	57.487251	-5.499245	42.761551
6.550000	-6.093988	-111.562382	-1.993181	54.924546	-1.993181	54.924546	-5.397970	41.412606
6.600000	-5.991648	-115.334206	-2.040854	52.369162	-2.040854	52.369162	-5.296109	40.030467
6.650000	-5.888488	-119.055281	-2.090171	49.821504	-2.090171	49.821504	-5.194032	38.616529
6.700000	-5.784870	-122.725305	-2.141085	47.282122	-2.141085	47.282122	-5.092053	37.171664
6.750000	-5.681199	-126.347128	-2.193473	44.751026	-2.193473	44.751026	-4.990506	35.698578
6.800000	-5.577751	-129.920382	-2.247294	42.228763	-2.247294	42.228763	-4.889631	34.198039
6.850000	-5.474808	-133.446060	-2.302478	39.715647	-2.302478	39.715647	-4.789668	32.671607
6.900000	-5.372619	-136.924776	-2.358960	37.212070	-2.358960	37.212070	-4.690833	31.120637
6.950000	-5.271413	-140.357770	-2.416665	34.718296	-2.416665	34.718296	-4.593320	29.546798
7.000000	-5.171389	-143.746813	-2.475509	32.234447	-2.475509	32.234447	-4.497293	27.951972
7.050000	-5.072714	-147.093222	-2.535419	29.760722	-2.535419	29.760722	-4.402892	26.337762
7.100000	-4.975531	-150.398345	-2.596324	27.297292	-2.596324	27.297292	-4.310237	24.705750
7.150000	-4.879960	-153.663552	-2.658150	24.844301	-2.658150	24.844301	-4.219431	23.057485
7.200000	-4.786101	-156.890221	-2.720828	22.401873	-2.720828	22.401873	-4.130556	21.394477
7.250000	-4.694037	-160.079729	-2.784288	19.970105	-2.784288	19.970105	-4.043681	19.718190
7.300000	-4.603833	-163.233445	-2.848461	17.549074	-2.848461	17.549074	-3.958861	18.030038
7.350000	-4.515539	-166.352719	-2.913281	15.138837	-2.913281	15.138837	-3.876136	16.331382
7.400000	-4.429190	-169.438882	-2.978681	12.739429	-2.978681	12.739429	-3.795535	14.623526
7.450000	-4.344811	-172.493241	-3.044598	10.350871	-3.044598	10.350871	-3.717079	12.907718
7.500000	-4.262415	-175.517068	-3.110969	7.973165	-3.110969	7.973165	-3.640775	11.185145
7.550000	-4.182034	-178.510999	-3.177731	5.606532	-3.177731	5.606532	-3.566661	9.456838
7.600000	-4.103636	178.523098	-3.244826	3.250708	-3.244826	3.250708	-3.494698	7.724012
7.650000	-4.027210	175.584054	-3.312197	0.905652	-3.312197	0.905652	-3.424874	5.987673
7.700000	-3.952738	172.670739	-3.379789	-1.428689	-3.379789	-1.428689	-3.357171	4.248773
7.750000	-3.880194	169.782060	-3.447551	-3.752381	-3.447551	-3.752381	-3.291568	2.508205
7.800000	-3.809552	166.916964	-3.515430	-6.065496	-3.515430	-6.065496	-3.228038	0.766810
7.850000	-3.740778	164.074439	-3.583379	-8.368117	-3.583379	-8.368117	-3.166552	-0.974625
7.900000	-3.673839	161.253511	-3.651349	-10.660337	-3.651349	-10.660337	-3.107078	-2.715364
7.950000	-3.608695	158.453245	-3.719296	-12.942252	-3.719296	-12.942252	-3.049581	-4.454723
8.000000	-3.545308	155.672745	-3.787177	-15.213966	-3.787177	-15.213966	-2.994025	-6.192062
8.050000	-3.483636	152.911155	-3.854949	-17.475591	-3.854949	-17.475591	-2.940372	-7.926789
8.100000	-3.423636	150.167656	-3.922573	-19.727241	-3.922573	-19.727241	-2.888583	-9.658356
8.150000	-3.365278	147.441647	-3.990003	-21.968928	-3.990003	-21.968928	-2.838635	-11.386211
8.200000	-3.308518	144.732359	-4.057202	-24.200781	-4.057202	-24.200781	-2.790485	-13.109874
8.250000	-3.253298	142.038898	-4.124141	-26.423033	-4.124141	-26.423033	-2.744078	-14.828960
8.300000	-3.199575	139.360594	-4.190789	-28.635812	-4.190789	-28.635812	-2.699372	-16.543080
8.350000	-3.147294	136.696676	-4.257122	-30.839338	-4.257122	-30.839338	-2.656313	-18.251935
8.400000	-3.096421	134.046651	-4.323104	-33.033678	-4.323104	-33.033678	-2.614869	-19.955175
8.450000	-3.046921	131.410050	-4.388701	-35.218897	-4.388701	-35.218897	-2.575012	-21.652462
8.500000	-2.998771	128.786539	-4.453868	-37.394980	-4.453868	-37.394980	-2.536725	-23.343426
8.550000	-2.951891	126.175141	-4.518614	-39.562393	-4.518614	-39.562393	-2.499919	-25.028069
8.600000	-2.906274	123.575769	-4.582883	-41.720992	-4.582883	-41.720992	-2.464596	-26.705977
8.650000	-2.861872	120.987831	-4.646662	-43.871011	-4.646662	-43.871011	-2.430706	-28.377042
8.700000	-2.818619	118.410591	-4.709958	-46.012835	-4.709958	-46.012835	-2.398174	-30.041319
8.750000	-2.776481	115.843686	-4.772750	-48.146588	-4.772750	-48.146588	-2.366967	-31.698691
8.800000	-2.735507	113.287670	-4.834927	-50.271671	-4.834927	-50.271671	-2.337159	-33.348394
8.850000	-2.695580	110.741260	-4.896562	-52.388964	-4.896562	-52.388964	-2.308605	-34.990999
8.900000	-2.656671	108.204164	-4.957636	-54.498595	-4.957636	-54.498595	-2.281275	-36.626448
8.950000	-2.618776	105.676370	-5.018103	-56.600463	-5.018103	-56.600463	-2.255170	-38.254482
9.000000	-2.581891	103.157874	-5.077914	-58.694469	-5.077914	-58.694469	-2.230296	-39.874835
9.050000	-2.545939	100.647869	-5.137116	-60.781215	-5.137116	-60.781215	-2.206553	-41.487959
9.100000	-2.510896	98.146135	-5.195697	-62.860822	-5.195697	-62.860822	-2.183914	-43.093861
9.150000	-2.476784	95.652938	-5.253581	-64.932999	-5.253581	-64.932999	-2.162416	-44.692133
9.200000	-2.443558	93.167837	-5.310784	-66.998081	-5.310784	-66.998081	-2.142000	-46.283015
9.250000	-2.411173	90.690385	-5.367328	-69.056421	-5.367328	-69.056421	-2.122611	-47.866799
9.300000	-2.379611	88.220415	-5.423202	-71.108138	-5.423202	-71.108138	-2.104225	-49.443548
9.350000	-2.348915	85.758408	-5.478302	-73.152779	-5.478302	-73.152779	-2.086905	-51.012719
9.400000	-2.319007	83.303548	-5.532710	-75.191050	-5.532710	-75.191050	-2.070545	-52.575022
9.450000	-2.289860	80.855577	-5.586434	-77.223166	-5.586434	-77.223166	-2.055112	-54.130666
9.500000	-2.261503	78.414777	-5.639398	-79.248860	-5.639398	-79.248860	-2.040644	-55.679340
9.550000	-2.233902	75.980795	-5.691625	-81.268431	-5.691625	-81.268431	-2.027099	-57.221363
9.600000	-2.207049	73.553494	-5.743101	-83.281980	-5.743101	-83.281980	-2.014463	-58.756850
9.650000	-2.180932	71.132731	-5.793817	-85.289608	-5.793817	-85.289608	-2.002723	-60.285928
9.700000	-2.155535	68.718257	-5.843777	-87.291500	-5.843777	-87.291500	-1.991858	-61.808828
9.750000	-2.130862	66.310016	-5.892952	-89.287651	-5.892952	-89.287651	-1.981873	-63.325585
9.800000	-2.106875	63.907522	-5.941382	-91.278432	-5.941382	-91.278432	-1.972720	-64.836649
9.850000	-2.083579	61.510687	-5.989038	-93.263833	-5.989038	-93.263833	-1.964407	-66.342068
9.900000	-2.060940	59.119028	-6.035959	-95.244182	-6.035959	-95.244182	-1.956894	-67.842262
9.950000	-2.039007	56.732737	-6.082042	-97.219111	-6.082042	-97.219111	-1.950250	-69.336938
10.000000	-2.017678	54.350720	-6.127444	-99.189520	-6.127444	-99.189520	-1.944343	-70.827100
