! freq	dB(S11)	phase(S11)	dB(S12)	phase(S12)	
!     	dB(S21)	phase(S21)	dB(S22)	phase(S22)	
!S-par simulation data
#  GHz  S  DB  R 50
0.000000	-0.000000	0.000000	-342.700814	0.000000	-342.700814	0.000000	-0.000000	0.000000
0.050000	-0.000087	-0.998144	-84.783218	175.348807	-84.783218	175.348807	-0.000086	-0.998068
0.100000	-0.000345	-1.996128	-81.980923	143.206106	-81.980923	143.206106	-0.000344	-1.995977
0.150000	-0.000770	-2.993796	-79.681976	126.128694	-79.681976	126.128694	-0.000768	-2.993575
0.200000	-0.001352	-3.991009	-77.755920	115.363740	-77.755920	115.363740	-0.001349	-3.990723
0.250000	-0.002092	-4.987592	-76.140706	107.980515	-76.140706	107.980515	-0.002087	-4.987250
0.300000	-0.002963	-5.983479	-74.773635	102.311417	-74.773635	102.311417	-0.002957	-5.983088
0.350000	-0.003960	-6.978538	-73.598826	97.809929	-73.598826	97.809929	-0.003952	-6.978108
0.400000	-0.005069	-7.972675	-72.576034	94.089885	-72.576034	94.089885	-0.005060	-7.972215
0.450000	-0.006277	-8.965809	-71.675165	90.925313	-71.675165	90.925313	-0.006266	-8.965329
0.500000	-0.007569	-9.957876	-70.873468	88.175718	-70.873468	88.175718	-0.007556	-9.957385
0.550000	-0.008931	-10.948821	-70.153442	85.749080	-70.153442	85.749080	-0.008917	-10.948329
0.600000	-0.010350	-11.938605	-69.501373	83.582305	-69.501373	83.582305	-0.010336	-11.938120
0.650000	-0.011815	-12.927196	-68.906337	81.630317	-68.906337	81.630317	-0.011800	-12.926726
0.700000	-0.013314	-13.914573	-68.359499	79.859696	-68.359499	79.859696	-0.013299	-13.914124
0.750000	-0.014837	-14.900719	-67.853620	78.244829	-67.853620	78.244829	-0.014822	-14.900297
0.800000	-0.016375	-15.885625	-67.382703	76.765497	-67.382703	76.765497	-0.016361	-15.885234
0.850000	-0.017921	-16.869284	-66.941731	75.405327	-66.941731	75.405327	-0.017907	-16.868928
0.900000	-0.019468	-17.851692	-66.526470	74.150772	-66.526470	74.150772	-0.019455	-17.851374
0.950000	-0.021011	-18.832846	-66.133324	72.990412	-66.133324	72.990412	-0.020998	-18.832567
1.000000	-0.022545	-19.812744	-65.759208	71.914480	-65.759208	71.914480	-0.022534	-19.812506
1.050000	-0.024068	-20.791385	-65.401467	70.914518	-65.401467	70.914518	-0.024057	-20.791187
1.100000	-0.025575	-21.768764	-65.057794	69.983124	-65.057794	69.983124	-0.025565	-21.768607
1.150000	-0.027066	-22.744878	-64.726173	69.113762	-64.726173	69.113762	-0.027057	-22.744762
1.200000	-0.028539	-23.719722	-64.404832	68.300622	-64.404832	68.300622	-0.028531	-23.719645
1.250000	-0.029993	-24.693289	-64.092200	67.538495	-64.092200	67.538495	-0.029986	-24.693249
1.300000	-0.031427	-25.665515	-63.786677	66.824495	-63.786677	66.824495	-0.031422	-25.665510
1.350000	-0.032843	-26.636444	-63.487131	66.152186	-63.487131	66.152186	-0.032838	-26.636474
1.400000	-0.034239	-27.606067	-63.192424	65.517698	-63.192424	65.517698	-0.034235	-27.606128
1.450000	-0.035618	-28.574371	-62.901515	64.917451	-62.901515	64.917451	-0.035615	-28.574462
1.500000	-0.036979	-29.541342	-62.613447	64.348100	-62.613447	64.348100	-0.036977	-29.541460
1.550000	-0.038324	-30.506967	-62.327332	63.806497	-62.327332	63.806497	-0.038322	-30.507110
1.600000	-0.039653	-31.471230	-62.042342	63.289645	-62.042342	63.289645	-0.039652	-31.471396
1.650000	-0.040969	-32.434116	-61.757699	62.794661	-61.757699	62.794661	-0.040968	-32.434303
1.700000	-0.042271	-33.395609	-61.472667	62.318751	-61.472667	62.318751	-0.042271	-33.395815
1.750000	-0.043562	-34.355693	-61.186546	61.859174	-61.186546	61.859174	-0.043562	-34.355916
1.800000	-0.044842	-35.314352	-60.898670	61.413222	-60.898670	61.413222	-0.044843	-35.314590
1.850000	-0.046113	-36.271571	-60.608398	60.978198	-60.608398	60.978198	-0.046114	-36.271822
1.900000	-0.047375	-37.227333	-60.315115	60.551398	-60.315115	60.551398	-0.047376	-37.227597
1.950000	-0.048631	-38.181625	-60.018227	60.130097	-60.018227	60.130097	-0.048632	-38.181899
2.000000	-0.049881	-39.134432	-59.717159	59.711538	-59.717159	59.711538	-0.049882	-39.134715
2.050000	-0.051126	-40.085740	-59.411353	59.292924	-59.411353	59.292924	-0.051127	-40.086031
2.100000	-0.052368	-41.035538	-59.100268	58.871414	-59.100268	58.871414	-0.052369	-41.035836
2.150000	-0.053608	-41.983815	-58.783373	58.444120	-58.783373	58.444120	-0.053609	-41.984118
2.200000	-0.054846	-42.930562	-58.460153	58.008110	-58.460153	58.008110	-0.054847	-42.930870
2.250000	-0.056084	-43.875769	-58.130099	57.560406	-58.130099	57.560406	-0.056085	-43.876081
2.300000	-0.057323	-44.819432	-57.792710	57.097997	-57.792710	57.097997	-0.057324	-44.819748
2.350000	-0.058563	-45.761547	-57.447488	56.617840	-57.447488	56.617840	-0.058564	-45.761865
2.400000	-0.059807	-46.702112	-57.093937	56.116873	-57.093937	56.116873	-0.059808	-46.702432
2.450000	-0.061054	-47.641128	-56.731556	55.592019	-56.731556	55.592019	-0.061055	-47.641450
2.500000	-0.062306	-48.578599	-56.359836	55.040204	-56.359836	55.040204	-0.062307	-48.578923
2.550000	-0.063564	-49.514467	-55.977041	54.456911	-55.977041	54.456911	-0.063565	-49.514793
2.600000	-0.064829	-50.448812	-55.583689	53.840267	-55.583689	53.840267	-0.064829	-50.449138
2.650000	-0.066101	-51.381648	-55.179188	53.187258	-55.179188	53.187258	-0.066101	-51.381976
2.700000	-0.067382	-52.313000	-54.762901	52.494904	-54.762901	52.494904	-0.067383	-52.313328
2.750000	-0.068673	-53.242893	-54.334136	51.760267	-54.334136	51.760267	-0.068673	-53.243223
2.800000	-0.069975	-54.171365	-53.892133	50.980452	-53.892133	50.980452	-0.069975	-54.171695
2.850000	-0.071289	-55.098457	-53.436047	50.152604	-53.436047	50.152604	-0.071289	-55.098789
2.900000	-0.072617	-56.024223	-52.964930	49.273907	-52.964930	49.273907	-0.072616	-56.024557
2.950000	-0.073959	-56.948730	-52.477706	48.341570	-52.477706	48.341570	-0.073959	-56.949065
3.000000	-0.075318	-57.872055	-51.973147	47.352813	-51.973147	47.352813	-0.075317	-57.872393
3.050000	-0.076695	-58.794298	-51.449839	46.304847	-51.449839	46.304847	-0.076694	-58.794638
3.100000	-0.078092	-59.715576	-50.906144	45.194840	-50.906144	45.194840	-0.078092	-59.715919
3.150000	-0.079513	-60.636037	-50.340150	44.019876	-50.340150	44.019876	-0.079512	-60.636384
3.200000	-0.080960	-61.555862	-49.749614	42.776899	-49.749614	42.776899	-0.080960	-61.556213
3.250000	-0.082438	-62.475277	-49.131881	41.462636	-49.131881	41.462636	-0.082438	-62.475633
3.300000	-0.083953	-63.394566	-48.483790	40.073487	-48.483790	40.073487	-0.083952	-63.394927
3.350000	-0.085509	-64.314071	-47.803506	38.607031	-47.803506	38.607031	-0.085508	-64.314440
3.400000	-0.087120	-65.234295	-47.081259	37.053988	-47.081259	37.053988	-0.087119	-65.234672
3.450000	-0.088798	-66.155833	-46.314738	35.411691	-46.314738	35.411691	-0.088797	-66.156220
3.500000	-0.090560	-67.079492	-45.497014	33.672988	-45.497014	33.672988	-0.090560	-67.079890
3.550000	-0.092427	-68.006063	-44.630355	31.836562	-44.630355	31.836562	-0.092426	-68.006474
3.600000	-0.094458	-68.937649	-43.680307	29.872790	-43.680307	29.872790	-0.094458	-68.938077
3.650000	-0.096714	-69.876179	-42.644133	27.773029	-42.644133	27.773029	-0.096714	-69.876628
3.700000	-0.099304	-70.824902	-41.502198	25.511404	-41.502198	25.511404	-0.099305	-70.825377
3.750000	-0.102427	-71.788842	-40.227435	23.048038	-40.227435	23.048038	-0.102428	-71.789349
3.800000	-0.106486	-72.777078	-38.768748	20.308501	-38.768748	20.308501	-0.106488	-72.777630
3.850000	-0.112265	-73.804063	-37.072372	17.178414	-37.072372	17.178414	-0.112269	-73.804677
3.900000	-0.121632	-74.898213	-35.039342	13.423949	-35.039342	13.423949	-0.121638	-74.898918
3.950000	-0.140080	-76.123915	-32.473854	8.491454	-32.473854	8.491454	-0.140094	-76.124769
4.000000	-0.188065	-77.641794	-29.011576	0.847842	-29.011576	0.847842	-0.188097	-77.642927
4.050000	-0.391593	-79.873208	-23.793280	-15.916460	-23.793280	-15.916460	-0.391710	-79.874969
4.100000	-1.312799	-77.270979	-17.984595	-78.047814	-17.984595	-78.047814	-1.313354	-77.270992
4.150000	-0.403128	-74.824558	-23.671876	-138.521862	-23.671876	-138.521862	-0.403233	-74.823350
4.200000	-0.204182	-76.981719	-28.552206	-155.045007	-28.552206	-155.045007	-0.204212	-76.981107
4.250000	-0.157417	-78.468583	-31.704586	-162.896119	-31.704586	-162.896119	-0.157430	-78.468236
4.300000	-0.140805	-79.672562	-33.970648	-168.223124	-33.970648	-168.223124	-0.140811	-79.672359
4.350000	-0.133767	-80.745740	-35.709282	-172.514505	-35.709282	-172.514505	-0.133771	-80.745625
4.400000	-0.130635	-81.749650	-37.108267	-176.305284	-37.108267	-176.305284	-0.130636	-81.749596
4.450000	-0.129432	-82.711605	-38.262088	-179.821319	-38.262088	-179.821319	-0.129433	-82.711594
4.500000	-0.129269	-83.646814	-39.239678	176.818503	-39.239678	176.818503	-0.129269	-83.646836
4.550000	-0.129743	-84.563129	-40.076515	173.554402	-40.076515	173.554402	-0.129742	-84.563177
4.600000	-0.130644	-85.464963	-40.791236	170.352733	-40.791236	170.352733	-0.130643	-85.465031
4.650000	-0.131798	-86.357300	-41.427355	167.185904	-41.427355	167.185904	-0.131796	-86.357385
4.700000	-0.133170	-87.240594	-41.975506	164.047621	-41.975506	164.047621	-0.133168	-87.240694
4.750000	-0.134708	-88.116363	-42.446368	160.930448	-42.446368	160.930448	-0.134707	-88.116475
4.800000	-0.136330	-88.988174	-42.884104	157.824233	-42.884104	157.824233	-0.136328	-88.988297
4.850000	-0.138067	-89.854166	-43.256832	154.734744	-43.256832	154.734744	-0.138065	-89.854297
4.900000	-0.139889	-90.715663	-43.581315	151.661128	-43.581315	151.661128	-0.139887	-90.715802
4.950000	-0.141772	-91.573959	-43.872992	148.601096	-43.872992	148.601096	-0.141769	-91.574105
5.000000	-0.143709	-92.429243	-44.132347	145.555281	-44.132347	145.555281	-0.143706	-92.429394
5.050000	-0.145725	-93.280218	-44.342719	142.536908	-44.342719	142.536908	-0.145722	-93.280375
5.100000	-0.147783	-94.128848	-44.529364	139.538197	-44.529364	139.538197	-0.147780	-94.129010
5.150000	-0.149883	-94.975214	-44.692452	136.560210	-44.692452	136.560210	-0.149881	-94.975380
5.200000	-0.152034	-95.818880	-44.827064	133.610965	-44.827064	133.610965	-0.152031	-95.819049
5.250000	-0.154236	-96.659896	-44.935003	130.696262	-44.935003	130.696262	-0.154233	-96.660068
5.300000	-0.156474	-97.499076	-45.025302	127.808667	-45.025302	127.808667	-0.156471	-97.499251
5.350000	-0.158748	-98.336472	-45.098503	124.949036	-45.098503	124.949036	-0.158745	-98.336649
5.400000	-0.161076	-99.171284	-45.147919	122.135523	-45.147919	122.135523	-0.161073	-99.171463
5.450000	-0.163442	-100.004388	-45.182642	119.356375	-45.182642	119.356375	-0.163438	-100.004569
5.500000	-0.165841	-100.835971	-45.204540	116.609294	-45.204540	116.609294	-0.165838	-100.836153
5.550000	-0.168281	-101.665814	-45.212288	113.900914	-45.212288	113.900914	-0.168278	-101.665997
5.600000	-0.170771	-102.493640	-45.204704	111.241413	-45.204704	111.241413	-0.170767	-102.493824
5.650000	-0.173294	-103.320142	-45.187611	108.615929	-45.187611	108.615929	-0.173290	-103.320327
5.700000	-0.175851	-104.145347	-45.161481	106.024587	-45.161481	106.024587	-0.175848	-104.145532
5.750000	-0.178458	-104.968750	-45.123531	103.483136	-45.123531	103.483136	-0.178454	-104.968936
5.800000	-0.181105	-105.790769	-45.077185	100.982141	-45.077185	100.982141	-0.181101	-105.790955
5.850000	-0.183787	-106.611651	-45.024306	98.515229	-45.024306	98.515229	-0.183783	-106.611838
5.900000	-0.186506	-107.431326	-44.964780	96.085359	-44.964780	96.085359	-0.186502	-107.431512
5.950000	-0.189279	-108.249385	-44.896889	93.707291	-44.896889	93.707291	-0.189275	-108.249571
6.000000	-0.192087	-109.066454	-44.824424	91.362242	-44.824424	91.362242	-0.192083	-109.066640
6.050000	-0.194931	-109.882554	-44.747693	89.049994	-44.747693	89.049994	-0.194927	-109.882740
6.100000	-0.197824	-110.697392	-44.665562	86.781862	-44.665562	86.781862	-0.197819	-110.697577
6.150000	-0.200762	-111.511127	-44.579157	84.554083	-44.579157	84.554083	-0.200758	-111.511312
6.200000	-0.203737	-112.324033	-44.489935	82.357606	-44.489935	82.357606	-0.203733	-112.324217
6.250000	-0.206749	-113.136130	-44.398133	80.192198	-44.398133	80.192198	-0.206744	-113.136314
6.300000	-0.209821	-113.947002	-44.302225	78.076664	-44.302225	78.076664	-0.209816	-113.947186
6.350000	-0.212931	-114.757185	-44.204623	75.991093	-44.204623	75.991093	-0.212927	-114.757368
6.400000	-0.216080	-115.566700	-44.105503	73.935339	-44.105503	73.935339	-0.216075	-115.566883
6.450000	-0.219277	-116.375415	-44.004459	71.917207	-44.004459	71.917207	-0.219272	-116.375598
6.500000	-0.222527	-117.183357	-43.901717	69.939027	-43.901717	69.939027	-0.222522	-117.183540
6.550000	-0.225816	-117.990779	-43.798283	67.990087	-43.798283	67.990087	-0.225811	-117.990961
6.600000	-0.229146	-118.797703	-43.694283	66.070376	-43.694283	66.070376	-0.229141	-118.797886
6.650000	-0.232538	-119.603952	-43.589110	64.196035	-43.589110	64.196035	-0.232533	-119.604135
6.700000	-0.235980	-120.409756	-43.483593	62.358290	-43.483593	62.358290	-0.235975	-120.409938
6.750000	-0.239449	-121.215336	-43.378551	60.538843	-43.378551	60.538843	-0.239444	-121.215520
6.800000	-0.242998	-122.020388	-43.272782	58.777952	-43.272782	58.777952	-0.242992	-122.020572
6.850000	-0.246571	-122.825328	-43.167823	57.034326	-43.167823	57.034326	-0.246565	-122.825513
6.900000	-0.250215	-123.629970	-43.062825	55.344117	-43.062825	55.344117	-0.250210	-123.630157
6.950000	-0.253903	-124.434542	-42.958558	53.686687	-42.958558	53.686687	-0.253898	-124.434730
7.000000	-0.257642	-125.239032	-42.854918	52.067995	-42.854918	52.067995	-0.257636	-125.239222
7.050000	-0.261452	-126.043585	-42.751982	50.506491	-42.751982	50.506491	-0.261446	-126.043778
7.100000	-0.265289	-126.848163	-42.650056	48.966983	-42.650056	48.966983	-0.265283	-126.848358
7.150000	-0.269228	-127.653101	-42.548944	47.516507	-42.548944	47.516507	-0.269222	-127.653299
7.200000	-0.273198	-128.458214	-42.448946	46.093861	-42.448946	46.093861	-0.273192	-128.458416
7.250000	-0.277252	-129.263843	-42.349956	44.750944	-42.349956	44.750944	-0.277245	-129.264049
7.300000	-0.281370	-130.070025	-42.251962	43.474617	-42.251962	43.474617	-0.281364	-130.070237
7.350000	-0.285549	-130.876732	-42.154947	42.261283	-42.154947	42.261283	-0.285543	-130.876949
7.400000	-0.289840	-131.684661	-42.058370	41.175451	-42.058370	41.175451	-0.289833	-131.684886
7.450000	-0.294170	-132.493034	-41.962572	40.135038	-41.962572	40.135038	-0.294164	-132.493266
7.500000	-0.298666	-133.303546	-41.865449	39.301356	-41.865449	39.301356	-0.298660	-133.303789
7.550000	-0.303232	-134.115025	-41.767405	38.558080	-41.767405	38.558080	-0.303226	-134.115279
7.600000	-0.307954	-134.928701	-41.665971	38.020274	-41.665971	38.020274	-0.307948	-134.928968
7.650000	-0.312857	-135.744980	-41.556626	37.723537	-41.556626	37.723537	-0.312852	-135.745264
7.700000	-0.317900	-136.563228	-41.441864	37.609071	-41.441864	37.609071	-0.317895	-136.563531
7.750000	-0.323231	-137.385443	-41.308567	37.859574	-41.308567	37.859574	-0.323227	-137.385770
7.800000	-0.328984	-138.213062	-41.141414	38.599077	-41.141414	38.599077	-0.328981	-138.213419
7.850000	-0.335313	-139.047295	-40.919209	39.912076	-40.919209	39.912076	-0.335312	-139.047691
7.900000	-0.342405	-139.889312	-40.618491	41.854885	-40.618491	41.854885	-0.342407	-139.889756
7.950000	-0.350976	-140.744055	-40.155991	44.680265	-40.155991	44.680265	-0.350982	-140.744565
8.000000	-0.362092	-141.616102	-39.428570	48.369515	-39.428570	48.369515	-0.362106	-141.616703
8.050000	-0.378456	-142.513423	-38.239178	52.551463	-38.239178	52.551463	-0.378485	-142.514151
8.100000	-0.406519	-143.440464	-36.336402	55.706187	-36.336402	55.706187	-0.406578	-143.441366
8.150000	-0.463128	-144.352521	-33.505504	53.706680	-33.505504	53.706680	-0.463256	-144.353589
8.200000	-0.563696	-144.879440	-30.301830	38.068317	-30.301830	38.068317	-0.563958	-144.880181
8.250000	-0.566030	-144.729100	-29.475098	8.993031	-29.475098	8.993031	-0.566307	-144.728540
8.300000	-0.472858	-145.281709	-31.225589	-10.366481	-31.225589	-10.366481	-0.473008	-145.280681
8.350000	-0.426414	-146.215947	-33.008205	-18.111427	-33.008205	-18.111427	-0.426490	-146.215019
8.400000	-0.409049	-147.159009	-34.272891	-21.101042	-34.272891	-21.101042	-0.409090	-147.158224
8.450000	-0.403297	-148.070440	-35.133484	-22.392566	-35.133484	-22.392566	-0.403320	-148.069764
8.500000	-0.402612	-148.957161	-35.721755	-23.100138	-35.721755	-23.100138	-0.402625	-148.956561
8.550000	-0.404405	-149.827672	-36.128914	-23.649531	-36.128914	-23.649531	-0.404411	-149.827125
8.600000	-0.407493	-150.688242	-36.418926	-24.200446	-36.418926	-24.200446	-0.407495	-150.687731
8.650000	-0.411386	-151.542201	-36.623513	-24.810953	-36.623513	-24.810953	-0.411385	-151.541714
8.700000	-0.415795	-152.392004	-36.766887	-25.499994	-36.766887	-25.499994	-0.415792	-152.391531
8.750000	-0.420557	-153.239313	-36.865284	-26.269007	-36.865284	-26.269007	-0.420552	-153.238846
8.800000	-0.425583	-154.085272	-36.929010	-27.114768	-36.929010	-27.114768	-0.425576	-154.084806
8.850000	-0.430803	-154.930793	-36.967254	-28.026828	-36.967254	-28.026828	-0.430795	-154.930321
8.900000	-0.436181	-155.776496	-36.985541	-28.997266	-36.985541	-28.997266	-0.436172	-155.776013
8.950000	-0.441691	-156.622867	-36.987969	-30.018733	-36.987969	-30.018733	-0.441681	-156.622370
9.000000	-0.447317	-157.470298	-36.977632	-31.084697	-36.977632	-31.084697	-0.447306	-157.469782
9.050000	-0.453047	-158.319113	-36.956897	-32.189476	-36.956897	-32.189476	-0.453035	-158.318574
9.100000	-0.458872	-159.169588	-36.927599	-33.328191	-36.927599	-33.328191	-0.458859	-159.169022
9.150000	-0.464786	-160.021962	-36.891181	-34.496677	-36.891181	-34.496677	-0.464772	-160.021365
9.200000	-0.470786	-160.876450	-36.848788	-35.691396	-36.848788	-35.691396	-0.470771	-160.875818
9.250000	-0.476867	-161.733243	-36.801340	-36.909346	-36.801340	-36.909346	-0.476851	-161.732572
9.300000	-0.483027	-162.592522	-36.749580	-38.147985	-36.749580	-38.147985	-0.483010	-162.591808
9.350000	-0.489266	-163.454455	-36.694117	-39.405166	-36.694117	-39.405166	-0.489248	-163.453693
9.400000	-0.495582	-164.319200	-36.635451	-40.679072	-36.635451	-40.679072	-0.495563	-164.318385
9.450000	-0.501975	-165.186911	-36.573997	-41.968178	-36.573997	-41.968178	-0.501955	-165.186039
9.500000	-0.508444	-166.057736	-36.510101	-43.271200	-36.510101	-43.271200	-0.508423	-166.056803
9.550000	-0.514990	-166.931821	-36.444055	-44.587067	-36.444055	-44.587067	-0.514968	-166.930821
9.600000	-0.521613	-167.809309	-36.376106	-45.914890	-36.376106	-45.914890	-0.521590	-167.808236
9.650000	-0.528313	-168.690342	-36.306463	-47.253939	-36.306463	-47.253939	-0.528288	-168.689191
9.700000	-0.535091	-169.575061	-36.235307	-48.603620	-36.235307	-48.603620	-0.535065	-169.573826
9.750000	-0.541948	-170.463607	-36.162793	-49.963462	-36.162793	-49.963462	-0.541920	-170.462281
9.800000	-0.548885	-171.356121	-36.089056	-51.333099	-36.089056	-51.333099	-0.548855	-171.354698
9.850000	-0.555902	-172.252745	-36.014216	-52.712260	-36.014216	-52.712260	-0.555871	-172.251218
9.900000	-0.563002	-173.153622	-35.938376	-54.100755	-35.938376	-54.100755	-0.562969	-173.151984
9.950000	-0.570184	-174.058898	-35.861632	-55.498473	-35.861632	-55.498473	-0.570149	-174.057140
10.000000	-0.577452	-174.968717	-35.784066	-56.905366	-35.784066	-56.905366	-0.577415	-174.966832
