! freq	dB(S11)	phase(S11)	dB(S12)	phase(S12)	
!     	dB(S21)	phase(S21)	dB(S22)	phase(S22)	
!S-par simulation data
#  GHz  S  DB  R 50
0.000000	-87.877802	0.000000	-0.000351	0.000000	-0.000351	0.000000	-87.877802	0.000000
0.050000	-33.133067	-92.427047	-0.014928	-2.857060	-0.014928	-2.857060	-33.124173	-92.039422
0.100000	-27.177992	-95.261180	-0.025798	-5.655293	-0.025798	-5.655293	-27.170154	-94.503799
0.150000	-23.722761	-98.256723	-0.040477	-8.453595	-0.040477	-8.453595	-23.713880	-97.131145
0.200000	-21.284291	-101.318359	-0.059720	-11.243861	-0.059720	-11.243861	-21.273483	-99.818222
0.250000	-19.403170	-104.386920	-0.083185	-14.022757	-0.083185	-14.022757	-19.390372	-102.507083
0.300000	-17.877156	-107.439551	-0.110479	-16.788614	-0.110479	-16.788614	-17.862536	-105.176780
0.350000	-16.598547	-110.469109	-0.141218	-19.540535	-0.141218	-19.540535	-16.582304	-107.821110
0.400000	-15.503277	-113.473543	-0.175132	-22.277512	-0.175132	-22.277512	-15.485583	-110.438192
0.450000	-14.549807	-116.452688	-0.211975	-24.998550	-0.211975	-24.998550	-14.530808	-113.027639
0.500000	-13.709027	-119.407625	-0.251452	-27.703117	-0.251452	-27.703117	-13.688848	-115.590215
0.550000	-12.960638	-122.338628	-0.293373	-30.390108	-0.293373	-30.390108	-12.939380	-118.125720
0.600000	-12.289965	-125.245498	-0.337574	-33.058021	-0.337574	-33.058021	-12.267709	-120.633351
0.650000	-11.684817	-128.129319	-0.383772	-35.706482	-0.383772	-35.706482	-11.661632	-123.113794
0.700000	-11.136036	-130.990543	-0.431739	-38.334792	-0.431739	-38.334792	-11.111973	-125.567028
0.750000	-10.636474	-133.829385	-0.481253	-40.942168	-0.481253	-40.942168	-10.611575	-127.992755
0.800000	-10.180184	-136.646288	-0.532073	-43.528147	-0.532073	-43.528147	-10.154475	-130.390942
0.850000	-9.762424	-139.441500	-0.583962	-46.092178	-0.583962	-46.092178	-9.735924	-132.761299
0.900000	-9.378888	-142.215807	-0.636669	-48.634354	-0.636669	-48.634354	-9.351608	-135.104208
0.950000	-9.026226	-144.969630	-0.689957	-51.154474	-0.689957	-51.154474	-8.998166	-137.419557
1.000000	-8.701558	-147.703503	-0.743586	-53.652500	-0.743586	-53.652500	-8.672714	-139.707326
1.050000	-8.402217	-150.418300	-0.797321	-56.128819	-0.797321	-56.128819	-8.372578	-141.967930
1.100000	-8.125996	-153.114806	-0.850938	-58.583755	-0.850938	-58.583755	-8.095546	-144.201616
1.150000	-7.871100	-155.793703	-0.904209	-61.017521	-0.904209	-61.017521	-7.839819	-146.408403
1.200000	-7.635492	-158.456378	-0.956948	-63.431199	-0.956948	-63.431199	-7.603356	-148.589360
1.250000	-7.417884	-161.103558	-1.008945	-65.825066	-1.008945	-65.825066	-7.384866	-150.744454
1.300000	-7.217190	-163.736034	-1.059978	-68.199418	-1.059978	-68.199418	-7.183256	-152.873586
1.350000	-7.031964	-166.355294	-1.109893	-70.555456	-1.109893	-70.555456	-6.997077	-154.977799
1.400000	-6.861149	-168.962554	-1.158519	-72.894010	-1.158519	-72.894010	-6.825270	-157.057604
1.450000	-6.703799	-171.559086	-1.205702	-75.215965	-1.205702	-75.215965	-6.666884	-159.113532
1.500000	-6.559066	-174.146222	-1.251294	-77.522253	-1.251294	-77.522253	-6.521067	-161.146135
1.550000	-6.426188	-176.725346	-1.295160	-79.813845	-1.295160	-79.813845	-6.387052	-163.155971
1.600000	-6.304478	-179.297895	-1.337176	-82.091748	-1.337176	-82.091748	-6.264149	-165.143608
1.650000	-6.193323	178.134646	-1.377227	-84.356996	-1.377227	-84.356996	-6.151737	-167.109610
1.700000	-6.092166	175.570746	-1.415210	-86.610650	-1.415210	-86.610650	-6.049257	-169.054533
1.750000	-6.000511	173.008826	-1.451032	-88.853789	-1.451032	-88.853789	-5.956205	-170.978926
1.800000	-5.917910	170.447261	-1.484610	-91.087510	-1.484610	-91.087510	-5.872128	-172.883315
1.850000	-5.843964	167.884383	-1.515870	-93.312921	-1.515870	-93.312921	-5.796619	-174.768206
1.900000	-5.778397	165.318424	-1.544720	-95.531076	-1.544720	-95.531076	-5.729395	-176.633875
1.950000	-5.720886	162.747562	-1.571106	-97.743141	-1.571106	-97.743141	-5.670123	-178.480779
2.000000	-5.671066	160.170018	-1.595008	-99.950325	-1.595008	-99.950325	-5.618432	179.690472
2.050000	-5.628691	157.583929	-1.616391	-102.153765	-1.616391	-102.153765	-5.574065	177.879521
2.100000	-5.593546	154.987380	-1.635226	-104.354595	-1.635226	-104.354595	-5.536798	176.086060
2.150000	-5.565445	152.378403	-1.651496	-106.553953	-1.651496	-106.553953	-5.506434	174.309837
2.200000	-5.544230	149.754967	-1.665187	-108.752974	-1.665187	-108.752974	-5.482801	172.550662
2.250000	-5.529768	147.114981	-1.676299	-110.952789	-1.676299	-110.952789	-5.465755	170.808415
2.300000	-5.521951	144.456284	-1.684835	-113.154526	-1.684835	-113.154526	-5.455173	169.083047
2.350000	-5.520694	141.776643	-1.690811	-115.359309	-1.690811	-115.359309	-5.450953	167.374595
2.400000	-5.525933	139.073743	-1.694246	-117.568255	-1.694246	-117.568255	-5.453014	165.683186
2.450000	-5.537625	136.345185	-1.695170	-119.782474	-1.695170	-119.782474	-5.461293	164.009044
2.500000	-5.555745	133.588476	-1.693621	-122.003067	-1.693621	-122.003067	-5.475745	162.352502
2.550000	-5.580425	130.800290	-1.689593	-124.231313	-1.689593	-124.231313	-5.496473	160.714417
2.600000	-5.611536	127.978522	-1.683193	-126.468153	-1.683193	-126.468153	-5.523328	159.094998
2.650000	-5.649104	125.120336	-1.674485	-128.714657	-1.674485	-128.714657	-5.556309	157.494976
2.700000	-5.693170	122.222763	-1.663537	-130.971875	-1.663537	-130.971875	-5.595423	155.915241
2.750000	-5.743785	119.282689	-1.650431	-133.240844	-1.650431	-133.240844	-5.640690	154.356849
2.800000	-5.801011	116.296845	-1.635254	-135.522582	-1.635254	-135.522582	-5.692135	152.821044
2.850000	-5.864921	113.261787	-1.618102	-137.818086	-1.618102	-137.818086	-5.749788	151.309267
2.900000	-5.935590	110.173889	-1.599081	-140.128327	-1.599081	-140.128327	-5.813680	149.823180
2.950000	-6.013098	107.029320	-1.578306	-142.454253	-1.578306	-142.454253	-5.883844	148.364682
3.000000	-6.097525	103.824031	-1.555901	-144.796777	-1.555901	-144.796777	-5.960303	146.935927
3.050000	-6.188945	100.553739	-1.531997	-147.156780	-1.531997	-147.156780	-6.043073	145.539342
3.100000	-6.287425	97.213905	-1.506739	-149.535105	-1.506739	-149.535105	-6.132155	144.177650
3.150000	-6.393074	93.798850	-1.480265	-151.932768	-1.480265	-151.932768	-6.227583	142.854338
3.200000	-6.505915	90.303291	-1.452743	-154.350541	-1.452743	-154.350541	-6.329301	141.572898
3.250000	-6.625874	86.722606	-1.424357	-156.788912	-1.424357	-156.788912	-6.437160	140.336655
3.300000	-6.752900	83.051047	-1.395287	-159.248513	-1.395287	-159.248513	-6.551022	139.149701
3.350000	-6.886889	79.282538	-1.365723	-161.729911	-1.365723	-161.729911	-6.670690	138.016485
3.400000	-7.027667	75.410676	-1.335863	-164.233601	-1.335863	-164.233601	-6.795894	136.941812
3.450000	-7.174972	71.428741	-1.305912	-166.760000	-1.305912	-166.760000	-6.926276	135.930818
3.500000	-7.328439	67.329718	-1.276085	-169.309439	-1.276085	-169.309439	-7.061376	134.988939
3.550000	-7.487575	63.106348	-1.246600	-171.882156	-1.246600	-171.882156	-7.200607	134.121855
3.600000	-7.651737	58.751197	-1.217684	-174.478291	-1.217684	-174.478291	-7.343246	133.335402
3.650000	-7.820099	54.256765	-1.189569	-177.097878	-1.189569	-177.097878	-7.488404	132.635460
3.700000	-7.991632	49.615639	-1.162489	-179.740840	-1.162489	-179.740840	-7.635013	132.027795
3.750000	-8.165068	44.820703	-1.136682	177.593017	-1.136682	177.593017	-7.781806	131.517857
3.800000	-8.338768	39.861789	-1.112423	174.903521	-1.112423	174.903521	-7.927183	131.112852
3.850000	-8.510933	34.736694	-1.089926	172.191626	-1.089926	172.191626	-8.069481	130.814588
3.900000	-8.679433	29.441265	-1.069425	169.457912	-1.069425	169.457912	-8.206771	130.625730
3.950000	-8.841837	23.973252	-1.051151	166.703089	-1.051151	166.703089	-8.336922	130.547287
4.000000	-8.995439	18.332883	-1.035330	163.927995	-1.035330	163.927995	-8.457635	130.578193
4.050000	-9.137300	12.523465	-1.022179	161.133599	-1.022179	161.133599	-8.566494	130.714911
4.100000	-9.264327	6.551952	-1.011902	158.320995	-1.011902	158.320995	-8.661039	130.951093
4.150000	-9.373377	0.429440	-1.004695	155.491397	-1.004695	155.491397	-8.738858	131.277335
4.200000	-9.461407	-5.828539	-1.000737	152.646132	-1.000737	152.646132	-8.797699	131.681101
4.250000	-9.525628	-12.201970	-1.000190	149.786633	-1.000190	149.786633	-8.835585	132.146841
4.300000	-9.563685	-18.666655	-1.003199	146.914427	-1.003199	146.914427	-8.850931	132.656343
4.350000	-9.573820	-25.194875	-1.009891	144.031124	-1.009891	144.031124	-8.842647	133.189313
4.400000	-9.554689	-31.756417	-1.020412	141.138318	-1.020412	141.138318	-8.809948	133.723925
4.450000	-9.506094	-38.318790	-1.034845	138.237803	-1.034845	138.237803	-8.752940	134.237471
4.500000	-9.429021	-44.850535	-1.053209	135.331456	-1.053209	135.331456	-8.672612	134.708626
4.550000	-9.324924	-51.322301	-1.075537	132.421071	-1.075537	132.421071	-8.570250	135.117649
4.600000	-9.195926	-57.707667	-1.101841	129.508447	-1.101841	129.508447	-8.447610	135.447105
4.650000	-9.044671	-63.984004	-1.132110	126.595373	-1.132110	126.595373	-8.306810	135.682396
4.700000	-8.874146	-70.132977	-1.166308	123.683610	-1.166308	123.683610	-8.150218	135.812061
4.750000	-8.687511	-76.140686	-1.204382	120.774879	-1.204382	120.774879	-7.980323	135.827847
4.800000	-8.488258	-82.000919	-1.246177	117.870703	-1.246177	117.870703	-7.799901	135.727234
4.850000	-8.278702	-87.700256	-1.291772	114.972969	-1.291772	114.972969	-7.610766	135.501904
4.900000	-8.062170	-93.240486	-1.340953	112.083064	-1.340953	112.083064	-7.415602	135.155246
4.950000	-7.841253	-98.622018	-1.393591	109.202414	-1.393591	109.202414	-7.216520	134.689421
5.000000	-7.618240	-103.847431	-1.449540	106.332351	-1.449540	106.332351	-7.015410	134.108192
5.050000	-7.395064	-108.919336	-1.508671	103.474243	-1.508671	103.474243	-6.813893	133.415391
5.100000	-7.173477	-113.844823	-1.570783	100.629092	-1.570783	100.629092	-6.613462	132.618105
5.150000	-6.954830	-118.627837	-1.635734	97.798144	-1.635734	97.798144	-6.415295	131.721187
5.200000	-6.740307	-123.278771	-1.703275	94.981909	-1.703275	94.981909	-6.220442	130.733935
5.250000	-6.530756	-127.802867	-1.773244	92.181315	-1.773244	92.181315	-6.029675	129.661973
5.300000	-6.326854	-132.206925	-1.845446	89.397029	-1.845446	89.397029	-5.843626	128.511928
5.350000	-6.129104	-136.497636	-1.919687	86.629606	-1.919687	86.629606	-5.662780	127.290229
5.400000	-5.937860	-140.681497	-1.995771	83.879495	-1.995771	83.879495	-5.487494	126.003030
5.450000	-5.753352	-144.764748	-2.073504	81.147042	-2.073504	81.147042	-5.318016	124.656156
5.500000	-5.575706	-148.753343	-2.152693	78.432493	-2.152693	78.432493	-5.154501	123.255068
5.550000	-5.404965	-152.652930	-2.233149	75.736001	-2.233149	75.736001	-4.997028	121.804848
5.600000	-5.241103	-156.468847	-2.314687	73.057630	-2.314687	73.057630	-4.845613	120.310197
5.650000	-5.084083	-160.205322	-2.397127	70.397555	-2.397127	70.397555	-4.700257	118.775046
5.700000	-4.933783	-163.867239	-2.480290	67.755677	-2.480290	67.755677	-4.560885	117.203471
5.750000	-4.790003	-167.459880	-2.564008	65.131626	-2.564008	65.131626	-4.427345	115.599491
5.800000	-4.652557	-170.987402	-2.648122	62.525168	-2.648122	62.525168	-4.299497	113.966359
5.850000	-4.521246	-174.453712	-2.732482	59.936012	-2.732482	59.936012	-4.177183	112.307024
5.900000	-4.395853	-177.862478	-2.816945	57.363815	-2.816945	57.363815	-4.060230	110.624146
5.950000	-4.276159	178.782856	-2.901375	54.808187	-2.901375	54.808187	-3.948456	108.920122
6.000000	-4.161936	175.479049	-2.985647	52.268703	-2.985647	52.268703	-3.841673	107.197107
6.050000	-4.052958	172.223057	-3.069642	49.744899	-3.069642	49.744899	-3.739689	105.457031
6.100000	-3.948997	169.012014	-3.153251	47.236287	-3.153251	47.236287	-3.642312	103.701625
6.150000	-3.849832	165.843223	-3.236372	44.742352	-3.236372	44.742352	-3.549351	101.932433
6.200000	-3.755243	162.714142	-3.318913	42.262564	-3.318913	42.262564	-3.460616	100.150830
6.250000	-3.665017	159.622377	-3.400788	39.796374	-3.400788	39.796374	-3.375922	98.358042
6.300000	-3.579015	156.566386	-3.481886	37.343497	-3.481886	37.343497	-3.295155	96.554959
6.350000	-3.496963	153.543235	-3.562169	34.903073	-3.562169	34.903073	-3.218068	94.742780
6.400000	-3.418668	150.550927	-3.641575	32.474534	-3.641575	32.474534	-3.144493	92.922351
6.450000	-3.343946	147.587575	-3.720050	30.057313	-3.720050	30.057313	-3.074268	91.094417
6.500000	-3.272618	144.651399	-3.797545	27.650846	-3.797545	27.650846	-3.007234	89.259637
6.550000	-3.204515	141.740721	-3.874017	25.254574	-3.874017	25.254574	-2.943244	87.418589
6.600000	-3.139476	138.853957	-3.949431	22.867945	-3.949431	22.867945	-2.882153	85.571777
6.650000	-3.077345	135.989612	-4.023756	20.490417	-4.023756	20.490417	-2.823825	83.719645
6.700000	-3.017977	133.146280	-4.096968	18.121459	-4.096968	18.121459	-2.768130	81.862576
6.750000	-2.961231	130.322633	-4.169045	15.760551	-4.169045	15.760551	-2.714945	80.000905
6.800000	-2.906976	127.517421	-4.239972	13.407190	-4.239972	13.407190	-2.664151	78.134919
6.850000	-2.855085	124.729469	-4.309739	11.060885	-4.309739	11.060885	-2.615638	76.264866
6.900000	-2.805460	121.957836	-4.378318	8.721229	-4.378318	8.721229	-2.569321	74.390915
6.950000	-2.757986	119.201449	-4.445708	6.387751	-4.445708	6.387751	-2.525096	72.513249
7.000000	-2.712535	116.459163	-4.511926	4.059940	-4.511926	4.059940	-2.482850	70.632057
7.050000	-2.669007	113.730069	-4.576976	1.737376	-4.576976	1.737376	-2.442494	68.747460
7.100000	-2.627308	111.013318	-4.640863	-0.580342	-4.640863	-0.580342	-2.403945	66.859554
7.150000	-2.587347	108.308114	-4.703596	-2.893599	-4.703596	-2.893599	-2.367123	64.968417
7.200000	-2.549042	105.613718	-4.765183	-5.202758	-4.765183	-5.202758	-2.331954	63.074106
7.250000	-2.512312	102.929441	-4.825639	-7.508165	-4.825639	-7.508165	-2.298370	61.176661
7.300000	-2.477085	100.254642	-4.884975	-9.810147	-4.884975	-9.810147	-2.266305	59.276107
7.350000	-2.443289	97.588729	-4.943208	-12.109013	-4.943208	-12.109013	-2.235697	57.372455
7.400000	-2.410861	94.931157	-5.000353	-14.405052	-5.000353	-14.405052	-2.206490	55.465702
7.450000	-2.379737	92.281420	-5.056427	-16.698536	-5.056427	-16.698536	-2.178630	53.555833
7.500000	-2.349862	89.639059	-5.111448	-18.989719	-5.111448	-18.989719	-2.152066	51.642821
7.550000	-2.321205	87.003793	-5.165404	-21.278797	-5.165404	-21.278797	-2.126778	49.726559
7.600000	-2.293691	84.375081	-5.218344	-23.566040	-5.218344	-23.566040	-2.102696	47.807067
7.650000	-2.267274	81.752579	-5.270286	-25.851650	-5.270286	-25.851650	-2.079779	45.884285
7.700000	-2.241913	79.135977	-5.321247	-28.135815	-5.321247	-28.135815	-2.057992	43.958145
7.750000	-2.217567	76.524999	-5.371245	-30.418705	-5.371245	-30.418705	-2.037301	42.028568
7.800000	-2.194200	73.919400	-5.420296	-32.700479	-5.420296	-32.700479	-2.017673	40.095464
7.850000	-2.171780	71.318964	-5.468416	-34.981283	-5.468416	-34.981283	-1.999082	38.158736
7.900000	-2.150276	68.723505	-5.515618	-37.261250	-5.515618	-37.261250	-1.981501	36.218275
7.950000	-2.129660	66.132863	-5.561917	-39.540500	-5.561917	-39.540500	-1.964908	34.273960
8.000000	-2.109908	63.546904	-5.607325	-41.819145	-5.607325	-41.819145	-1.949281	32.325661
8.050000	-2.090997	60.965516	-5.651851	-44.097288	-5.651851	-44.097288	-1.934603	30.373236
8.100000	-2.072908	58.388611	-5.695504	-46.375023	-5.695504	-46.375023	-1.920858	28.416531
8.150000	-2.055631	55.816168	-5.738281	-48.652435	-5.738281	-48.652435	-1.908042	26.455329
8.200000	-2.039151	53.248139	-5.780186	-50.929607	-5.780186	-50.929607	-1.896144	24.489443
8.250000	-2.023447	50.684445	-5.821234	-53.206621	-5.821234	-53.206621	-1.885145	22.518725
8.300000	-2.008508	48.125074	-5.861426	-55.483552	-5.861426	-55.483552	-1.875039	20.542967
8.350000	-1.994348	45.570152	-5.900731	-57.760474	-5.900731	-57.760474	-1.865847	18.561782
8.400000	-1.980884	43.019249	-5.939251	-60.037451	-5.939251	-60.037451	-1.857477	16.575497
8.450000	-1.968226	40.473070	-5.976820	-62.314576	-5.976820	-62.314576	-1.850067	14.582967
8.500000	-1.956272	37.931060	-6.013568	-64.591903	-6.013568	-64.591903	-1.843499	12.584705
8.550000	-1.945078	35.393607	-6.049406	-66.869532	-6.049406	-66.869532	-1.837848	10.579934
8.600000	-1.934630	32.860679	-6.084340	-69.147544	-6.084340	-69.147544	-1.833103	8.568457
8.650000	-1.924902	30.332161	-6.118396	-71.426017	-6.118396	-71.426017	-1.829240	6.550194
8.700000	-1.915970	27.808565	-6.151453	-73.705105	-6.151453	-73.705105	-1.826358	4.524076
8.750000	-1.907724	25.289237	-6.183658	-75.984822	-6.183658	-75.984822	-1.824328	2.490889
8.800000	-1.900331	22.775259	-6.214755	-78.265458	-6.214755	-78.265458	-1.823371	0.448494
8.850000	-1.893638	20.265685	-6.244955	-80.546970	-6.244955	-80.546970	-1.823300	-1.601784
8.900000	-1.887773	17.761344	-6.274056	-82.829671	-6.274056	-82.829671	-1.824291	-3.661798
8.950000	-1.882673	15.261831	-6.302141	-85.113618	-6.302141	-85.113618	-1.826273	-5.731163
9.000000	-1.878381	12.767410	-6.329132	-87.399054	-6.329132	-87.399054	-1.829314	-7.810813
9.050000	-1.874925	10.278250	-6.354973	-89.686224	-6.354973	-89.686224	-1.833468	-9.901545
9.100000	-1.872257	7.794015	-6.379723	-91.975217	-6.379723	-91.975217	-1.838685	-12.003124
9.150000	-1.870506	5.315474	-6.403177	-94.266573	-6.403177	-94.266573	-1.845157	-14.117831
9.200000	-1.869540	2.841761	-6.425518	-96.560169	-6.425518	-96.560169	-1.852725	-16.244208
9.250000	-1.869547	0.373956	-6.446453	-98.856828	-6.446453	-98.856828	-1.861671	-18.385598
9.300000	-1.870390	-2.088836	-6.466173	-101.156383	-6.466173	-101.156383	-1.871827	-20.540395
9.350000	-1.872195	-4.545954	-6.484476	-103.459583	-6.484476	-103.459583	-1.883402	-22.711190
9.400000	-1.874929	-6.997693	-6.501403	-105.766616	-6.501403	-105.766616	-1.896378	-24.898002
9.450000	-1.878615	-9.444037	-6.516909	-108.077918	-6.516909	-108.077918	-1.910820	-27.101819
9.500000	-1.883330	-11.884665	-6.530864	-110.394226	-6.530864	-110.394226	-1.926888	-29.324735
9.550000	-1.888983	-14.320218	-6.543402	-112.715455	-6.543402	-112.715455	-1.944477	-31.565670
9.600000	-1.895777	-16.749765	-6.554207	-115.043140	-6.554207	-115.043140	-1.963957	-33.829343
9.650000	-1.903535	-19.174386	-6.563544	-117.376692	-6.563544	-117.376692	-1.985089	-36.112940
9.700000	-1.912469	-21.593181	-6.571086	-119.717922	-6.571086	-119.717922	-2.008286	-38.421757
9.750000	-1.922458	-24.006929	-6.577020	-122.066514	-6.577020	-122.066514	-2.033398	-40.754021
9.800000	-1.933618	-26.415286	-6.581174	-124.423820	-6.581174	-124.423820	-2.060694	-43.113240
9.850000	-1.945953	-28.818430	-6.583546	-126.790447	-6.583546	-126.790447	-2.090257	-45.500544
9.900000	-1.959449	-31.216650	-6.584172	-129.166841	-6.584172	-129.166841	-2.122134	-47.916564
9.950000	-1.974251	-33.609563	-6.582845	-131.554912	-6.582845	-131.554912	-2.156695	-50.366153
10.000000	-1.990199	-35.998045	-6.579827	-133.953802	-6.579827	-133.953802	-2.193709	-52.846216
