! freq	dB(S11)	phase(S11)	dB(S12)	phase(S12)	
!     	dB(S21)	phase(S21)	dB(S22)	phase(S22)	
!S-par simulation data
#  GHz  S  DB  R 50
0.000000	-86.928657	0.000000	-0.000391	0.000000	-0.000391	0.000000	-86.928657	0.000000
0.050000	-31.077014	-93.240653	-0.010875	-3.293825	-0.010875	-3.293825	-31.075046	-93.498698
0.100000	-25.091638	-96.566512	-0.024284	-6.558252	-0.024284	-6.558252	-25.094609	-97.079474
0.150000	-21.620492	-99.785381	-0.044846	-9.802566	-0.044846	-9.802566	-21.627294	-100.551669
0.200000	-19.182492	-102.931232	-0.071828	-13.022313	-0.071828	-13.022313	-19.190739	-103.951772
0.250000	-17.312381	-106.027551	-0.104712	-16.217785	-0.104712	-16.217785	-17.320228	-107.303282
0.300000	-15.803262	-109.089613	-0.143182	-19.389723	-0.143182	-19.389723	-15.809845	-110.620052
0.350000	-14.545443	-112.124045	-0.186980	-22.537661	-0.186980	-22.537661	-14.550727	-113.908002
0.400000	-13.472274	-115.132746	-0.235558	-25.661328	-0.235558	-25.661328	-13.476716	-117.169855
0.450000	-12.543023	-118.112078	-0.288713	-28.757534	-0.288713	-28.757534	-12.547248	-120.403684
0.500000	-11.727541	-121.060571	-0.345797	-31.825599	-0.345797	-31.825599	-11.732031	-123.609354
0.550000	-11.006482	-123.974358	-0.406511	-34.862272	-0.406511	-34.862272	-11.011505	-126.783693
0.600000	-10.363964	-126.852657	-0.470305	-37.866628	-0.470305	-37.866628	-10.369561	-129.925604
0.650000	-9.788516	-129.694220	-0.536737	-40.837067	-0.536737	-40.837067	-9.794595	-133.033236
0.700000	-9.270873	-132.498611	-0.605334	-43.772701	-0.605334	-43.772701	-9.277286	-136.105486
0.750000	-8.803608	-135.265605	-0.675625	-46.672931	-0.675625	-46.672931	-8.810217	-139.141678
0.800000	-8.380632	-137.995201	-0.747148	-49.537500	-0.747148	-49.537500	-8.387336	-142.141636
0.850000	-7.996977	-140.687409	-0.819446	-52.366286	-0.819446	-52.366286	-8.003722	-145.105467
0.900000	-7.648459	-143.342437	-0.892068	-55.159459	-0.892068	-55.159459	-7.655232	-148.033661
0.950000	-7.331262	-145.961200	-0.964590	-57.917949	-0.964590	-57.917949	-7.338078	-150.927497
1.000000	-7.042289	-148.544422	-1.036607	-60.642556	-1.036607	-60.642556	-7.049174	-153.788111
1.050000	-6.778867	-151.092981	-1.107737	-63.334272	-1.107737	-63.334272	-6.785854	-156.616787
1.100000	-6.538676	-153.607897	-1.177619	-65.994250	-1.177619	-65.994250	-6.545795	-159.414927
1.150000	-6.319901	-156.089862	-1.245878	-68.623369	-1.245878	-68.623369	-6.327179	-162.183636
1.200000	-6.120880	-158.539878	-1.312167	-71.222820	-1.312167	-71.222820	-6.128336	-164.924294
1.250000	-5.938492	-160.962714	-1.376512	-73.797265	-1.376512	-73.797265	-5.946139	-167.641498
1.300000	-5.774187	-163.353636	-1.438042	-76.342681	-1.438042	-76.342681	-5.782039	-170.331725
1.350000	-5.624026	-165.720065	-1.497146	-78.866116	-1.497146	-78.866116	-5.632090	-173.001733
1.400000	-5.488847	-168.059439	-1.553107	-81.365637	-1.553107	-81.365637	-5.497128	-175.649996
1.450000	-5.366575	-170.375718	-1.606046	-83.845108	-1.606046	-83.845108	-5.375081	-178.280275
1.500000	-5.256827	-172.669584	-1.655644	-86.305542	-1.655644	-86.305542	-5.265563	179.106230
1.550000	-5.159078	-174.942227	-1.701663	-88.748411	-1.701663	-88.748411	-5.168054	176.507896
1.600000	-5.071906	-177.196783	-1.744251	-91.176787	-1.744251	-91.176787	-5.081130	173.921728
1.650000	-4.996100	-179.432416	-1.782745	-93.590600	-1.782745	-93.590600	-5.005586	171.347327
1.700000	-4.929507	178.346367	-1.817726	-95.993880	-1.817726	-95.993880	-4.939268	168.780994
1.750000	-4.873533	176.140848	-1.848306	-98.386464	-1.848306	-98.386464	-4.883588	166.222207
1.800000	-4.826242	173.947059	-1.875116	-100.771792	-1.875116	-100.771792	-4.836610	163.667874
1.850000	-4.788398	171.764824	-1.897600	-103.150907	-1.897600	-103.150907	-4.799105	161.116422
1.900000	-4.759271	169.591983	-1.915943	-105.525984	-1.915943	-105.525984	-4.770342	158.565676
1.950000	-4.738700	167.427011	-1.930099	-107.898890	-1.930099	-107.898890	-4.750163	156.013559
2.000000	-4.727070	165.268812	-1.939784	-110.271443	-1.939784	-110.271443	-4.738961	153.457811
2.050000	-4.723338	163.115261	-1.945475	-112.645429	-1.945475	-112.645429	-4.735690	150.896853
2.100000	-4.728979	160.965618	-1.946410	-115.023222	-1.946410	-115.023222	-4.741837	148.327294
2.150000	-4.742395	158.817896	-1.943425	-117.405900	-1.943425	-117.405900	-4.755799	145.748616
2.200000	-4.765181	156.670978	-1.935781	-119.796467	-1.935781	-119.796467	-4.779185	143.156634
2.250000	-4.796324	154.523506	-1.924087	-122.195756	-1.924087	-122.195756	-4.810977	140.550836
2.300000	-4.836715	152.374125	-1.908047	-124.606465	-1.908047	-124.606465	-4.852080	137.927676
2.350000	-4.886458	150.221669	-1.887795	-127.030309	-1.887795	-127.030309	-4.902601	135.285090
2.400000	-4.945531	148.065149	-1.863555	-129.468688	-1.863555	-129.468688	-4.962523	132.621411
2.450000	-5.015253	145.903047	-1.835005	-131.925139	-1.835005	-131.925139	-5.033183	129.931828
2.500000	-5.094588	143.735319	-1.802868	-134.398820	-1.802868	-134.398820	-5.113543	127.217736
2.550000	-5.186245	141.559711	-1.766401	-136.896049	-1.766401	-136.896049	-5.206342	124.470254
2.600000	-5.288662	139.377091	-1.726570	-139.414226	-1.726570	-139.414226	-5.310016	121.693066
2.650000	-5.404247	137.185761	-1.682923	-141.959039	-1.682923	-141.959039	-5.427007	118.877967
2.700000	-5.532760	134.986257	-1.635986	-144.530012	-1.635986	-144.530012	-5.557088	116.025392
2.750000	-5.675617	132.778262	-1.585804	-147.130240	-1.585804	-147.130240	-5.701706	113.130487
2.800000	-5.834168	130.561964	-1.532520	-149.762323	-1.532520	-149.762323	-5.862252	110.188886
2.850000	-6.008639	128.338700	-1.476612	-152.425758	-1.476612	-152.425758	-6.038980	107.200554
2.900000	-6.202347	126.108862	-1.417934	-155.127158	-1.417934	-155.127158	-6.235291	104.154439
2.950000	-6.414381	123.875222	-1.357252	-157.862179	-1.357252	-157.862179	-6.450297	101.055854
3.000000	-6.649593	121.640030	-1.294402	-160.640060	-1.294402	-160.640060	-6.688995	97.888258
3.050000	-6.907318	119.407015	-1.230118	-163.455721	-1.230118	-163.455721	-6.950772	94.657542
3.100000	-7.191978	117.181750	-1.164555	-166.315653	-1.164555	-166.315653	-7.240239	91.349497
3.150000	-7.505378	114.970348	-1.098210	-169.218941	-1.098210	-169.218941	-7.559361	87.961659
3.200000	-7.850763	112.781688	-1.031520	-172.167014	-1.031520	-172.167014	-7.911635	84.485953
3.250000	-8.233152	110.629324	-0.964926	-175.163801	-0.964926	-175.163801	-8.302485	80.907176
3.300000	-8.654446	108.523475	-0.898941	-178.204868	-0.898941	-178.204868	-8.734209	77.225852
3.350000	-9.123084	106.492587	-0.834145	178.702020	-0.834145	178.702020	-9.216181	73.410295
3.400000	-9.643257	104.558085	-0.771073	175.560711	-0.771073	175.560711	-9.753444	69.451769
3.450000	-10.222912	102.757910	-0.710325	172.370128	-0.710325	172.370128	-10.355306	65.322362
3.500000	-10.871070	101.143335	-0.652515	169.130428	-0.652515	169.130428	-11.032840	60.986776
3.550000	-11.598539	99.786365	-0.598271	165.842155	-0.598271	165.842155	-11.800111	56.394891
3.600000	-12.418257	98.790152	-0.548235	162.506276	-0.548235	162.506276	-12.675324	51.472843
3.650000	-13.345465	98.306436	-0.503050	159.124206	-0.503050	159.124206	-13.682498	46.107139
3.700000	-14.397145	98.564765	-0.463351	155.697828	-0.463351	155.697828	-14.853887	40.114890
3.750000	-15.589249	99.921476	-0.429763	152.229509	-0.429763	152.229509	-16.233175	33.184704
3.800000	-16.925085	102.994504	-0.403039	148.721326	-0.403039	148.721326	-17.877155	24.694177
3.850000	-18.368878	108.653511	-0.383608	145.177551	-0.383608	145.177551	-19.845852	13.497828
3.900000	-19.775485	118.066591	-0.371981	141.601996	-0.371981	141.601996	-22.127476	-2.800672
3.950000	-20.790259	131.909186	-0.368609	137.998881	-0.368609	137.998881	-24.283228	-28.170262
4.000000	-20.936419	148.484341	-0.373876	134.372796	-0.373876	134.372796	-24.883975	-62.402374
4.050000	-20.103828	163.681702	-0.388088	130.728632	-0.388088	130.728632	-23.255639	-93.356773
4.100000	-18.698090	174.700260	-0.411470	127.071509	-0.411470	127.071509	-20.843696	-114.136403
4.150000	-17.150858	-178.441764	-0.444158	123.406700	-0.444158	123.406700	-18.603267	-127.833187
4.200000	-15.675906	-174.619969	-0.486194	119.739542	-0.486194	119.739542	-16.701504	-137.767176
4.250000	-14.339831	-172.817913	-0.537531	116.075350	-0.537531	116.075350	-15.099273	-145.661627
4.300000	-13.149223	-172.347504	-0.598031	112.419331	-0.598031	112.419331	-13.735663	-152.363777
4.350000	-12.091589	-172.771428	-0.667472	108.776501	-0.667472	108.776501	-12.560530	-158.314997
4.400000	-11.150480	-173.815228	-0.745631	105.151856	-0.745631	105.151856	-11.536474	-163.757781
4.450000	-10.310294	-175.292232	-0.832113	101.549957	-0.832113	101.549957	-10.635675	-168.841138
4.500000	-9.557191	-177.075374	-0.926391	97.974618	-0.926391	97.974618	-9.836925	-173.659185
4.550000	-8.879586	-179.080466	-1.027972	94.429428	-1.027972	94.429428	-9.124090	-178.270044
4.600000	-8.267820	178.752868	-1.136324	90.917522	-1.136324	90.917522	-8.484555	177.286882
4.650000	-7.713817	176.468904	-1.250887	87.441578	-1.250887	87.441578	-7.908261	172.984047
4.700000	-7.210779	174.100725	-1.371081	84.003808	-1.371081	84.003808	-7.387045	168.801630
4.750000	-6.752938	171.673433	-1.496314	80.605973	-1.496314	80.605973	-6.914172	164.724964
4.800000	-6.335360	169.206300	-1.625995	77.249399	-1.625995	77.249399	-6.484011	160.742882
4.850000	-5.953790	166.714247	-1.759541	73.935005	-1.759541	73.935005	-6.091791	156.846637
4.900000	-5.604534	164.208889	-1.896378	70.663327	-1.896378	70.663327	-5.733433	153.029177
4.950000	-5.284361	161.699290	-2.035955	67.434562	-2.035955	67.434562	-5.405412	149.284649
5.000000	-4.990432	159.192513	-2.177741	64.248593	-2.177741	64.248593	-5.104663	145.608064
5.050000	-4.720537	156.694319	-2.321205	61.105942	-2.321205	61.105942	-4.828805	141.996356
5.100000	-4.472117	154.208790	-2.465876	58.005040	-2.465876	58.005040	-4.575129	138.444182
5.150000	-4.243191	151.739071	-2.611310	54.945049	-2.611310	54.945049	-4.341545	134.948022
5.200000	-4.031993	149.287503	-2.757093	51.924968	-2.757093	51.924968	-4.126195	131.504624
5.250000	-3.836940	146.855776	-2.902844	48.943657	-2.902844	48.943657	-3.927426	128.110953
5.300000	-3.656616	144.445047	-3.048207	45.999871	-3.048207	45.999871	-3.743759	124.764149
5.350000	-3.489744	142.056043	-3.192857	43.092276	-3.192857	43.092276	-3.573871	121.461506
5.400000	-3.335177	139.689142	-3.336497	40.219478	-3.336497	40.219478	-3.416575	118.200446
5.450000	-3.192681	137.346604	-3.478479	37.383179	-3.478479	37.383179	-3.271619	114.982140
5.500000	-3.059748	135.024179	-3.619243	34.575811	-3.619243	34.575811	-3.136437	111.797130
5.550000	-2.936299	132.723489	-3.758249	31.798820	-3.758249	31.798820	-3.010942	108.646610
5.600000	-2.821572	130.444079	-3.895293	29.050720	-3.895293	29.050720	-2.894354	105.528430
5.650000	-2.714070	128.182768	-4.030760	26.326656	-4.030760	26.326656	-2.785146	102.436846
5.700000	-2.614896	125.944449	-4.163301	23.632387	-4.163301	23.632387	-2.684440	99.377792
5.750000	-2.522547	123.725471	-4.293366	20.962591	-4.293366	20.962591	-2.590706	96.345096
5.800000	-2.436511	121.525070	-4.420815	18.315848	-4.420815	18.315848	-2.503425	93.336940
5.850000	-2.356729	119.343914	-4.545121	15.692509	-4.545121	15.692509	-2.422540	90.353391
5.900000	-2.281889	117.178014	-4.667013	13.087400	-4.667013	13.087400	-2.346717	87.388799
5.950000	-2.212098	115.028273	-4.785933	10.501285	-4.785933	10.501285	-2.276070	84.443752
6.000000	-2.147006	112.893861	-4.901779	7.932857	-4.901779	7.932857	-2.210246	81.516689
6.050000	-2.086297	110.773950	-5.014451	5.380836	-5.014451	5.380836	-2.148931	78.606101
6.100000	-2.029684	108.667720	-5.123857	2.843969	-5.123857	2.843969	-2.091838	75.710524
6.150000	-1.976905	106.574358	-5.229904	0.321026	-5.229904	0.321026	-2.038709	72.828532
6.200000	-1.927727	104.493067	-5.332504	-2.189201	-5.332504	-2.189201	-1.989312	69.958733
6.250000	-1.881935	102.423063	-5.431568	-4.687904	-5.431568	-4.687904	-1.943439	67.099760
6.300000	-1.839463	100.363997	-5.526798	-7.175868	-5.526798	-7.175868	-1.901035	64.250611
6.350000	-1.800003	98.314629	-5.618308	-9.654765	-5.618308	-9.654765	-1.861794	61.409475
6.400000	-1.763405	96.274226	-5.705999	-12.125765	-5.705999	-12.125765	-1.825574	58.575009
6.450000	-1.729534	94.242067	-5.789771	-14.590041	-5.789771	-14.590041	-1.792250	55.745859
6.500000	-1.698273	92.217449	-5.869513	-17.048782	-5.869513	-17.048782	-1.761717	52.920650
6.550000	-1.669519	90.199681	-5.945112	-19.503195	-5.945112	-19.503195	-1.733885	50.097968
6.600000	-1.643185	88.188085	-6.016440	-21.954515	-6.016440	-21.954515	-1.708682	47.276355
6.650000	-1.619199	86.181992	-6.083364	-24.404020	-6.083364	-24.404020	-1.686052	44.454287
6.700000	-1.597503	84.180742	-6.145734	-26.853035	-6.145734	-26.853035	-1.665957	41.630161
6.750000	-1.578054	82.183682	-6.203389	-29.302951	-6.203389	-29.302951	-1.648376	38.802276
6.800000	-1.560823	80.190161	-6.256151	-31.755237	-6.256151	-31.755237	-1.633306	35.968808
6.850000	-1.545797	78.199531	-6.303826	-34.211456	-6.303826	-34.211456	-1.620764	33.127789
6.900000	-1.532981	76.211140	-6.346198	-36.673289	-6.346198	-36.673289	-1.610786	30.277076
6.950000	-1.522394	74.224333	-6.383030	-39.142550	-6.383030	-39.142550	-1.603432	27.414319
7.000000	-1.514076	72.238445	-6.414060	-41.621223	-6.414060	-41.621223	-1.598786	24.536918
7.050000	-1.508087	70.252803	-6.438997	-44.111484	-6.438997	-44.111484	-1.596963	21.641981
7.100000	-1.504512	68.266716	-6.457520	-46.615741	-6.457520	-46.615741	-1.598106	18.726267
7.150000	-1.503460	66.279478	-6.469272	-49.136681	-6.469272	-49.136681	-1.602399	15.786119
7.200000	-1.505071	64.290362	-6.473857	-51.677317	-6.473857	-51.677317	-1.610069	12.817388
7.250000	-1.509522	62.298619	-6.470836	-54.241056	-6.470836	-54.241056	-1.621394	9.815330
7.300000	-1.516879	60.303673	-6.460108	-56.830327	-6.460108	-56.830327	-1.636520	6.776568
7.350000	-1.527735	58.304320	-6.440284	-59.452628	-6.440284	-59.452628	-1.656291	3.690404
7.400000	-1.542246	56.299950	-6.411206	-62.111553	-6.411206	-62.111553	-1.681000	0.551677
7.450000	-1.560815	54.289753	-6.372204	-64.813055	-6.372204	-64.813055	-1.711279	-2.648256
7.500000	-1.583933	52.272933	-6.322529	-67.564087	-6.322529	-67.564087	-1.747908	-5.919597
7.550000	-1.612329	50.248573	-6.261071	-70.374302	-6.261071	-70.374302	-1.792033	-9.276628
7.600000	-1.646658	48.216194	-6.187141	-73.252425	-6.187141	-73.252425	-1.844744	-12.732542
7.650000	-1.687853	46.175392	-6.099721	-76.210146	-6.099721	-76.210146	-1.907583	-16.305173
7.700000	-1.737070	44.126132	-5.997699	-79.261514	-5.997699	-79.261514	-1.982510	-20.016302
7.750000	-1.795760	42.069010	-5.879874	-82.423530	-5.879874	-82.423530	-2.072046	-23.892792
7.800000	-1.865748	40.005654	-5.744974	-85.716918	-5.744974	-85.716918	-2.179465	-27.968132
7.850000	-1.949343	37.939383	-5.591692	-89.167123	-5.591692	-89.167123	-2.309078	-32.284576
7.900000	-2.049477	35.876277	-5.418754	-92.805588	-5.418754	-92.805588	-2.466637	-36.896146
7.950000	-2.169882	33.826922	-5.225046	-96.671414	-5.225046	-96.671414	-2.659936	-41.872963
8.000000	-2.315284	31.809299	-5.009826	-100.813450	-5.009826	-100.813450	-2.899698	-47.307627
8.050000	-2.491313	29.852546	-4.773306	-105.289360	-4.773306	-105.289360	-3.200336	-53.318483
8.100000	-2.705867	28.009279	-4.516208	-110.184735	-4.516208	-110.184735	-3.584693	-60.094515
8.150000	-2.966814	26.364153	-4.242493	-115.593509	-4.242493	-115.593509	-4.083586	-67.882556
8.200000	-3.281360	25.057943	-3.959984	-121.633778	-3.959984	-121.633778	-4.742604	-77.061620
8.250000	-3.650634	24.310440	-3.683039	-128.438095	-3.683039	-128.438095	-5.626156	-88.222655
8.300000	-4.059106	24.433899	-3.435157	-136.142267	-3.435157	-136.142267	-6.819139	-102.357514
8.350000	-4.452938	25.827904	-3.254300	-144.887585	-3.254300	-144.887585	-8.402894	-121.453989
8.400000	-4.715306	28.698831	-3.193683	-154.721293	-3.193683	-154.721293	-10.242781	-149.128773
8.450000	-4.689594	32.595236	-3.317318	-165.540596	-3.317318	-165.540596	-11.332062	171.385214
8.500000	-4.294083	36.203543	-3.686806	-177.034484	-3.686806	-177.034484	-10.236710	128.822640
8.550000	-3.627152	38.135832	-4.339916	171.302497	-4.339916	171.302497	-7.942099	96.145070
8.600000	-2.890292	37.950735	-5.274354	160.043546	-5.274354	160.043546	-5.863344	72.722186
8.650000	-2.235671	36.126990	-6.448842	149.639812	-6.448842	149.639812	-4.315869	54.872148
8.700000	-1.719082	33.358329	-7.807763	140.329793	-7.807763	140.329793	-3.224816	40.593914
8.750000	-1.336461	30.181191	-9.299857	132.158286	-9.299857	132.158286	-2.466686	28.838888
8.800000	-1.062404	26.913248	-10.887490	125.057575	-10.887490	125.057575	-1.940362	18.978358
8.850000	-0.868295	23.711913	-12.553547	118.896944	-12.553547	118.896944	-1.571099	10.556605
8.900000	-0.732037	20.642720	-14.291802	113.564949	-14.291802	113.564949	-1.310228	3.266193
8.950000	-0.635343	17.717018	-16.124426	108.937664	-16.124426	108.937664	-1.121811	-3.166543
9.000000	-0.567647	14.934852	-18.068832	104.981455	-18.068832	104.981455	-0.985873	-8.893942
9.050000	-0.520197	12.281175	-20.173550	101.688521	-20.173550	101.688521	-0.886577	-14.064966
9.100000	-0.487107	9.738807	-22.517696	99.135952	-22.517696	99.135952	-0.813428	-18.791447
9.150000	-0.464824	7.296903	-25.209970	97.653525	-25.209970	97.653525	-0.760171	-23.139537
9.200000	-0.450045	4.937004	-28.501574	97.958565	-28.501574	97.958565	-0.720952	-27.191476
9.250000	-0.441087	2.650737	-32.851418	102.775728	-32.851418	102.775728	-0.692813	-30.985606
9.300000	-0.436378	0.426293	-39.073640	125.227473	-39.073640	125.227473	-0.672938	-34.568572
9.350000	-0.434903	-1.744832	-41.137410	-165.371237	-41.137410	-165.371237	-0.659490	-37.972867
9.400000	-0.436056	-3.866866	-35.573133	-134.201519	-35.573133	-134.201519	-0.651397	-41.215442
9.450000	-0.439088	-5.949761	-31.885131	-126.506022	-31.885131	-126.506022	-0.647223	-44.330910
9.500000	-0.443598	-7.998867	-29.433532	-124.499784	-29.433532	-124.499784	-0.646200	-47.337968
9.550000	-0.449416	-10.015360	-27.672965	-124.593665	-27.672965	-124.593665	-0.648029	-50.241679
9.600000	-0.456222	-12.005342	-26.322061	-125.524074	-26.322061	-125.524074	-0.652053	-53.062388
9.650000	-0.463994	-13.967630	-25.258576	-126.929913	-25.258576	-126.929913	-0.658268	-55.797585
9.700000	-0.472419	-15.910449	-24.377797	-128.541638	-24.377797	-128.541638	-0.665973	-58.473484
9.750000	-0.481479	-17.833877	-23.638325	-130.297156	-23.638325	-130.297156	-0.675135	-61.091007
9.800000	-0.491108	-19.739908	-23.006280	-132.141486	-23.006280	-132.141486	-0.685576	-63.656754
9.850000	-0.501260	-21.630274	-22.458202	-134.041083	-22.458202	-134.041083	-0.697125	-66.176100
9.900000	-0.511911	-23.506431	-21.977282	-135.972666	-21.977282	-135.972666	-0.709594	-68.652619
9.950000	-0.523111	-25.369236	-21.550864	-137.916481	-21.550864	-137.916481	-0.722841	-71.085750
10.000000	-0.534458	-27.151851	-21.168365	-139.854718	-21.168365	-139.854718	-0.738073	-73.464056
