! freq	dB(S11)	phase(S11)	dB(S12)	phase(S12)	
!     	dB(S21)	phase(S21)	dB(S22)	phase(S22)	
!S-par simulation data
#  GHz  S  DB  R 50
0.000000	-0.000000	0.000000	-314.682464	0.000000	-314.682464	0.000000	-0.000000	0.000000
0.050000	-0.000079	-0.845225	-112.028611	89.426975	-112.028611	89.426975	-0.000104	-1.031510
0.100000	-0.000316	-1.690300	-106.018643	88.566977	-106.018643	88.566977	-0.000412	-2.062794
0.150000	-0.000704	-2.535083	-102.553971	87.664048	-102.553971	87.664048	-0.000916	-3.093638
0.200000	-0.001235	-3.379446	-100.149086	86.794967	-100.149086	86.794967	-0.001604	-4.123852
0.250000	-0.001906	-4.223232	-98.342766	85.978925	-98.342766	85.978925	-0.002470	-5.153203
0.300000	-0.002693	-5.066387	-96.920557	85.220392	-96.920557	85.220392	-0.003480	-6.181615
0.350000	-0.003589	-5.908798	-95.776454	84.532413	-95.776454	84.532413	-0.004624	-7.208927
0.400000	-0.004580	-6.750390	-94.846160	83.929254	-94.846160	83.929254	-0.005881	-8.235035
0.450000	-0.005651	-7.591104	-94.089172	83.429012	-94.089172	83.429012	-0.007233	-9.259858
0.500000	-0.006790	-8.430895	-93.478849	83.054462	-93.478849	83.054462	-0.008659	-10.283339
0.550000	-0.007983	-9.269730	-92.997248	82.834334	-92.997248	82.834334	-0.010144	-11.305437
0.600000	-0.009218	-10.107590	-92.632211	82.805165	-92.632211	82.805165	-0.011672	-12.326127
0.650000	-0.010485	-10.944461	-92.375579	83.013926	-92.375579	83.013926	-0.013228	-13.345398
0.700000	-0.011772	-11.780341	-92.221956	83.521702	-92.221956	83.521702	-0.014801	-14.363245
0.750000	-0.013073	-12.615229	-92.167677	84.408797	-92.167677	84.408797	-0.016380	-15.379669
0.800000	-0.014379	-13.449129	-92.209654	85.781641	-92.209654	85.781641	-0.017958	-16.394676
0.850000	-0.015685	-14.282048	-92.343712	87.781663	-92.343712	87.781663	-0.019529	-17.408271
0.900000	-0.016985	-15.113993	-92.561794	90.595209	-92.561794	90.595209	-0.021086	-18.420460
0.950000	-0.018278	-15.944971	-92.847144	94.460466	-92.847144	94.460466	-0.022627	-19.431247
1.000000	-0.019558	-16.774988	-93.166382	99.659702	-93.166382	99.659702	-0.024150	-20.440635
1.050000	-0.020825	-17.604049	-93.458516	106.471111	-93.458516	106.471111	-0.025652	-21.448621
1.100000	-0.022076	-18.432156	-93.625801	115.042022	-93.625801	115.042022	-0.027133	-22.455203
1.150000	-0.023312	-19.259310	-93.541787	125.172161	-93.541787	125.172161	-0.028592	-23.460372
1.200000	-0.024531	-20.085511	-93.095983	136.128387	-93.095983	136.128387	-0.030031	-24.464120
1.250000	-0.025734	-20.910754	-92.260493	146.780889	-92.260493	146.780889	-0.031448	-25.466431
1.300000	-0.026920	-21.734993	-91.095199	156.048169	-91.095199	156.048169	-0.032846	-26.467228
1.350000	-0.028091	-22.558262	-89.749078	163.544469	-89.749078	163.544469	-0.034224	-27.466552
1.400000	-0.029248	-23.380552	-88.333412	169.324287	-88.333412	169.324287	-0.035586	-28.464385
1.450000	-0.030391	-24.201851	-86.920231	173.645089	-86.920231	173.645089	-0.036932	-29.460704
1.500000	-0.031521	-25.022148	-85.548393	176.800129	-85.548393	176.800129	-0.038263	-30.455485
1.550000	-0.032639	-25.841430	-84.235534	179.047568	-84.235534	179.047568	-0.039581	-31.448702
1.600000	-0.033747	-26.659681	-82.987444	-179.406913	-82.987444	-179.406913	-0.040887	-32.440331
1.650000	-0.034845	-27.476886	-81.803855	-178.406147	-81.803855	-178.406147	-0.042183	-33.430344
1.700000	-0.035935	-28.293029	-80.681662	-177.831794	-80.681662	-177.831794	-0.043470	-34.418714
1.750000	-0.037017	-29.108093	-79.616621	-177.594842	-79.616621	-177.594842	-0.044748	-35.405414
1.800000	-0.038093	-29.922062	-78.604201	-177.627952	-78.604201	-177.627952	-0.046020	-36.390416
1.850000	-0.039164	-30.734916	-77.640001	-177.879705	-77.640001	-177.879705	-0.047286	-37.373693
1.900000	-0.040230	-31.546638	-76.719923	-178.310415	-76.719923	-178.310415	-0.048548	-38.355217
1.950000	-0.041292	-32.357209	-75.840244	-178.889104	-75.840244	-178.889104	-0.049806	-39.334961
2.000000	-0.042352	-33.166612	-74.997616	-179.591323	-74.997616	-179.591323	-0.051061	-40.312898
2.050000	-0.043409	-33.974828	-74.189047	179.602434	-74.189047	179.602434	-0.052314	-41.289003
2.100000	-0.044466	-34.781839	-73.411871	178.707891	-73.411871	178.707891	-0.053567	-42.263249
2.150000	-0.045522	-35.587626	-72.663707	177.737843	-72.663707	177.737843	-0.054819	-43.235612
2.200000	-0.046579	-36.392171	-71.942432	176.702796	-71.942432	176.702796	-0.056072	-44.206067
2.250000	-0.047636	-37.195456	-71.246146	175.611451	-71.246146	175.611451	-0.057327	-45.174591
2.300000	-0.048696	-37.997465	-70.573143	174.471072	-70.573143	174.471072	-0.058584	-46.141160
2.350000	-0.049757	-38.798178	-69.921891	173.287765	-69.921891	173.287765	-0.059843	-47.105754
2.400000	-0.050822	-39.597581	-69.291007	172.066698	-69.291007	172.066698	-0.061106	-48.068351
2.450000	-0.051890	-40.395655	-68.679240	170.812277	-68.679240	170.812277	-0.062373	-49.028931
2.500000	-0.052961	-41.192384	-68.085455	169.528275	-68.085455	169.528275	-0.063644	-49.987475
2.550000	-0.054038	-41.987694	-67.507696	168.216935	-67.507696	168.216935	-0.064921	-50.943874
2.600000	-0.055119	-42.781626	-66.946042	166.882305	-66.946042	166.882305	-0.066203	-51.898200
2.650000	-0.056206	-43.574166	-66.399621	165.526799	-66.399621	165.526799	-0.067492	-52.850436
2.700000	-0.057299	-44.365300	-65.867633	164.152528	-65.867633	164.152528	-0.068788	-53.800569
2.750000	-0.058398	-45.155012	-65.349341	162.761351	-65.349341	162.761351	-0.070091	-54.748583
2.800000	-0.059504	-45.943291	-64.844068	161.354911	-64.844068	161.354911	-0.071402	-55.694465
2.850000	-0.060617	-46.730123	-64.351189	159.934663	-64.351189	159.934663	-0.072721	-56.638203
2.900000	-0.061737	-47.515494	-63.870124	158.501902	-63.870124	158.501902	-0.074049	-57.579787
2.950000	-0.062866	-48.299394	-63.400336	157.057784	-63.400336	157.057784	-0.075386	-58.519205
3.000000	-0.064003	-49.081810	-62.941327	155.603344	-62.941327	155.603344	-0.076733	-59.456449
3.050000	-0.065148	-49.862732	-62.492632	154.139511	-62.492632	154.139511	-0.078091	-60.391511
3.100000	-0.066303	-50.642148	-62.053817	152.667124	-62.053817	152.667124	-0.079459	-61.324383
3.150000	-0.067467	-51.420049	-61.624478	151.186937	-61.624478	151.186937	-0.080838	-62.255060
3.200000	-0.068640	-52.196425	-61.204235	149.699638	-61.204235	149.699638	-0.082229	-63.183536
3.250000	-0.069824	-52.971267	-60.792734	148.205846	-60.792734	148.205846	-0.083632	-64.109807
3.300000	-0.071019	-53.744566	-60.389641	146.706128	-60.389641	146.706128	-0.085048	-65.033871
3.350000	-0.072224	-54.516314	-59.994643	145.201000	-59.994643	145.201000	-0.086477	-65.955723
3.400000	-0.073441	-55.286504	-59.607444	143.690935	-59.607444	143.690935	-0.087920	-66.875364
3.450000	-0.074669	-56.055129	-59.227765	142.176363	-59.227765	142.176363	-0.089377	-67.792794
3.500000	-0.075910	-56.822182	-58.855345	140.657683	-58.855345	140.657683	-0.090849	-68.708012
3.550000	-0.077162	-57.587656	-58.489934	139.135258	-58.489934	139.135258	-0.092335	-69.621020
3.600000	-0.078428	-58.351547	-58.131298	137.609425	-58.131298	137.609425	-0.093838	-70.531821
3.650000	-0.079707	-59.113848	-57.779214	136.080494	-57.779214	136.080494	-0.095356	-71.440418
3.700000	-0.080999	-59.874557	-57.433470	134.548754	-57.433470	134.548754	-0.096891	-72.346816
3.750000	-0.082305	-60.633667	-57.093866	133.014468	-57.093866	133.014468	-0.098443	-73.251019
3.800000	-0.083626	-61.391107	-56.759915	131.477796	-56.759915	131.477796	-0.100014	-74.152940
3.850000	-0.084962	-62.146941	-56.431755	129.939074	-56.431755	129.939074	-0.101602	-75.052680
3.900000	-0.086312	-62.901168	-56.109210	128.398514	-56.109210	128.398514	-0.103210	-75.950247
3.950000	-0.087678	-63.653785	-55.792116	126.856314	-55.792116	126.856314	-0.104836	-76.845651
4.000000	-0.089061	-64.404790	-55.480313	125.312657	-55.480313	125.312657	-0.106483	-77.738902
4.050000	-0.090459	-65.154183	-55.173651	123.767716	-55.173651	123.767716	-0.108149	-78.630009
4.100000	-0.091874	-65.901962	-54.871986	122.221653	-54.871986	122.221653	-0.109836	-79.518984
4.150000	-0.093306	-66.648126	-54.575178	120.674617	-54.575178	120.674617	-0.111545	-80.405839
4.200000	-0.094756	-67.392677	-54.283097	119.126753	-54.283097	119.126753	-0.113275	-81.290589
4.250000	-0.096223	-68.135613	-53.995615	117.578192	-53.995615	117.578192	-0.115028	-82.173245
4.300000	-0.097709	-68.876937	-53.712611	116.029062	-53.712611	116.029062	-0.116803	-83.053824
4.350000	-0.099214	-69.616649	-53.433970	114.479480	-53.433970	114.479480	-0.118602	-83.932341
4.400000	-0.100738	-70.354752	-53.159578	112.929558	-53.159578	112.929558	-0.120424	-84.808811
4.450000	-0.102281	-71.091246	-52.889330	111.379401	-52.889330	111.379401	-0.122271	-85.683253
4.500000	-0.103844	-71.826136	-52.623122	109.829110	-52.623122	109.829110	-0.124143	-86.555684
4.550000	-0.105428	-72.559423	-52.360855	108.278779	-52.360855	108.278779	-0.126040	-87.426123
4.600000	-0.107033	-73.291111	-52.102434	106.728496	-52.102434	106.728496	-0.127962	-88.294589
4.650000	-0.108659	-74.021205	-51.847767	105.178347	-51.847767	105.178347	-0.129912	-89.161103
4.700000	-0.110306	-74.749707	-51.596765	103.628412	-51.596765	103.628412	-0.131888	-90.025686
4.750000	-0.111976	-75.476623	-51.349343	102.078766	-51.349343	102.078766	-0.133891	-90.888360
4.800000	-0.113669	-76.201958	-51.105420	100.529484	-51.105420	100.529484	-0.135923	-91.749146
4.850000	-0.115384	-76.925716	-50.864915	98.980632	-50.864915	98.980632	-0.137983	-92.608069
4.900000	-0.117123	-77.647905	-50.627753	97.432277	-50.627753	97.432277	-0.140072	-93.465153
4.950000	-0.118886	-78.368528	-50.393858	95.884481	-50.393858	95.884481	-0.142190	-94.320423
5.000000	-0.120673	-79.087594	-50.163160	94.337304	-50.163160	94.337304	-0.144338	-95.173903
5.050000	-0.122485	-79.805042	-49.935468	92.790833	-49.935468	92.790833	-0.146518	-96.025547
5.100000	-0.124324	-80.520947	-49.710843	91.245095	-49.710843	91.245095	-0.148728	-96.875457
5.150000	-0.126187	-81.235316	-49.489223	89.700142	-49.489223	89.700142	-0.150970	-97.723663
5.200000	-0.128077	-81.948157	-49.270543	88.156023	-49.270543	88.156023	-0.153244	-98.570194
5.250000	-0.129993	-82.659479	-49.054742	86.612783	-49.054742	86.612783	-0.155551	-99.415078
5.300000	-0.131937	-83.369290	-48.841761	85.070468	-48.841761	85.070468	-0.157890	-100.258348
5.350000	-0.133907	-84.077600	-48.631543	83.529119	-48.631543	83.529119	-0.160263	-101.100032
5.400000	-0.135906	-84.784417	-48.424032	81.988779	-48.424032	81.988779	-0.162669	-101.940165
5.450000	-0.137942	-85.489241	-48.218422	80.449868	-48.218422	80.449868	-0.165122	-102.778265
5.500000	-0.139994	-86.193295	-48.016458	78.911516	-48.016458	78.911516	-0.167593	-103.615584
5.550000	-0.142081	-86.895574	-47.816594	77.374546	-47.816594	77.374546	-0.170107	-104.451154
5.600000	-0.144193	-87.596586	-47.619488	75.838563	-47.619488	75.838563	-0.172653	-105.285475
5.650000	-0.146337	-88.296100	-47.424756	74.303837	-47.424756	74.303837	-0.175236	-106.118374
5.700000	-0.148512	-88.994117	-47.232339	72.770369	-47.232339	72.770369	-0.177857	-106.949853
5.750000	-0.150714	-89.690908	-47.042531	71.238005	-47.042531	71.238005	-0.180511	-107.780217
5.800000	-0.152953	-90.385983	-46.854643	69.707188	-46.854643	69.707188	-0.183210	-108.609021
5.850000	-0.155215	-91.080095	-46.669563	68.177299	-46.669563	68.177299	-0.185936	-109.436990
5.900000	-0.157521	-91.772281	-46.486052	66.649264	-46.486052	66.649264	-0.188716	-110.263292
5.950000	-0.159844	-92.463759	-46.305516	65.121955	-46.305516	65.121955	-0.191516	-111.089013
6.000000	-0.162217	-93.153115	-46.126237	63.596827	-46.126237	63.596827	-0.194378	-111.912996
6.050000	-0.164603	-93.842008	-45.950071	62.072204	-45.950071	62.072204	-0.197254	-112.736625
6.100000	-0.167046	-94.528593	-45.774887	60.550107	-45.774887	60.550107	-0.200201	-113.558481
6.150000	-0.169495	-95.214953	-45.602926	59.028274	-45.602926	59.028274	-0.203155	-114.380178
6.200000	-0.172010	-95.898832	-45.431706	57.509339	-45.431706	57.509339	-0.206187	-115.200111
6.250000	-0.174524	-96.582711	-45.263796	55.990404	-45.263796	55.990404	-0.209221	-116.020044
6.300000	-0.177111	-97.263951	-45.096414	54.474770	-45.096414	54.474770	-0.212342	-116.838268
6.350000	-0.179698	-97.945192	-44.932197	52.959137	-44.932197	52.959137	-0.215465	-117.656491
6.400000	-0.182353	-98.624079	-44.768746	51.446677	-44.768746	51.446677	-0.218670	-118.473355
6.450000	-0.185014	-99.302752	-44.608110	49.934506	-44.608110	49.934506	-0.221884	-119.290095
6.500000	-0.187738	-99.979349	-44.448448	48.425381	-44.448448	48.425381	-0.225175	-120.105798
6.550000	-0.190474	-100.655530	-44.291285	46.916864	-44.291285	46.916864	-0.228482	-120.921295
6.600000	-0.193268	-101.329903	-44.135278	45.411274	-44.135278	45.411274	-0.231861	-121.736049
6.650000	-0.196082	-102.003673	-43.981486	43.906658	-43.981486	43.906658	-0.235264	-122.550556
6.700000	-0.198938	-102.676145	-43.829229	42.404367	-43.829229	42.404367	-0.238722	-123.364648
6.750000	-0.201831	-103.347550	-43.678669	40.904073	-43.678669	40.904073	-0.242226	-124.178434
6.800000	-0.204761	-104.017864	-43.529740	39.405948	-43.529740	39.405948	-0.245779	-124.991967
6.850000	-0.207738	-104.686875	-43.382214	37.910706	-43.382214	37.910706	-0.249393	-125.805307
6.900000	-0.210748	-105.355013	-43.236413	36.417603	-43.236413	36.417603	-0.253050	-126.618587
6.950000	-0.213790	-106.022290	-43.092298	34.926717	-43.092298	34.926717	-0.256750	-127.431837
7.000000	-0.216880	-106.688352	-42.949516	33.439354	-42.949516	33.439354	-0.260514	-128.245153
7.050000	-0.220008	-107.353466	-42.808240	31.955248	-42.808240	31.955248	-0.264332	-129.058637
7.100000	-0.223170	-108.017801	-42.668557	30.474147	-42.668557	30.474147	-0.268196	-129.872318
7.150000	-0.226367	-108.681306	-42.530370	28.996550	-42.530370	28.996550	-0.272111	-130.686265
7.200000	-0.229615	-109.343707	-42.393344	27.524906	-42.393344	27.524906	-0.276100	-131.500757
7.250000	-0.232896	-110.005445	-42.257791	26.057946	-42.257791	26.057946	-0.280139	-132.315706
7.300000	-0.236210	-110.666546	-42.123665	24.596122	-42.123665	24.596122	-0.284228	-133.131157
7.350000	-0.239569	-111.326852	-41.990655	23.142643	-41.990655	23.142643	-0.288389	-133.947414
7.400000	-0.242971	-111.986542	-41.858697	21.699589	-41.858697	21.699589	-0.292619	-134.764590
7.450000	-0.246407	-112.645841	-41.727862	20.266828	-41.727862	20.266828	-0.296906	-135.582576
7.500000	-0.249879	-113.304804	-41.598068	18.845565	-41.598068	18.845565	-0.301252	-136.401423
7.550000	-0.253415	-113.963597	-41.468132	17.452220	-41.468132	17.452220	-0.305698	-137.221913
7.600000	-0.257005	-114.622689	-41.338024	16.085921	-41.338024	16.085921	-0.310211	-138.043547
7.650000	-0.260664	-115.282369	-41.206974	14.753683	-41.206974	14.753683	-0.314793	-138.866369
7.700000	-0.264446	-115.943432	-41.072516	13.480417	-41.072516	13.480417	-0.319466	-139.690799
7.750000	-0.268585	-116.608311	-40.925132	12.324328	-40.925132	12.324328	-0.324230	-140.517034
7.800000	-0.273134	-117.276642	-40.764277	11.260713	-40.764277	11.260713	-0.329036	-141.344282
7.850000	-0.279662	-117.955448	-40.537006	10.425699	-40.537006	10.425699	-0.333854	-142.173468
7.900000	-0.292251	-118.638252	-40.133692	9.438937	-40.133692	9.438937	-0.338552	-143.004815
7.950000	-0.312963	-119.232005	-39.593649	5.500855	-39.593649	5.500855	-0.343087	-143.840054
8.000000	-0.312755	-119.758280	-39.745524	0.649904	-39.745524	0.649904	-0.347705	-144.680576
8.050000	-0.306967	-120.383079	-39.942937	-1.006933	-39.942937	-1.006933	-0.352631	-145.525616
8.100000	-0.306475	-121.037191	-39.952972	-2.082931	-39.952972	-2.082931	-0.357891	-146.375088
8.150000	-0.307596	-121.691762	-39.917513	-3.220097	-39.917513	-3.220097	-0.363304	-147.227644
8.200000	-0.310065	-122.345594	-39.846152	-4.437774	-39.846152	-4.437774	-0.368868	-148.083671
8.250000	-0.313367	-122.996910	-39.756326	-5.754283	-39.756326	-5.754283	-0.374622	-148.945550
8.300000	-0.316991	-123.646664	-39.661102	-7.120192	-39.661102	-7.120192	-0.380537	-149.813097
8.350000	-0.320816	-124.295360	-39.563243	-8.518057	-39.563243	-8.518057	-0.386588	-150.685348
8.400000	-0.324846	-124.942785	-39.463209	-9.951567	-39.463209	-9.951567	-0.392858	-151.565450
8.450000	-0.329005	-125.589329	-39.362581	-11.408975	-39.362581	-11.408975	-0.399350	-152.453327
8.500000	-0.333271	-126.235127	-39.261904	-12.886896	-39.261904	-12.886896	-0.406098	-153.349966
8.550000	-0.337629	-126.880287	-39.161524	-14.383469	-39.161524	-14.383469	-0.413141	-154.256510
8.600000	-0.342067	-127.524892	-39.061678	-15.897947	-39.061678	-15.897947	-0.420533	-155.174301
8.650000	-0.346581	-128.169013	-38.962538	-17.430470	-38.962538	-17.430470	-0.428339	-156.104928
8.700000	-0.351163	-128.812707	-38.864240	-18.981958	-38.864240	-18.981958	-0.436640	-157.050286
8.750000	-0.355812	-129.456027	-38.766911	-20.554085	-38.766911	-20.554085	-0.445545	-158.012663
8.800000	-0.360529	-130.098998	-38.670689	-22.151166	-38.670689	-22.151166	-0.455254	-158.996449
8.850000	-0.365309	-130.741686	-38.575733	-23.775369	-38.575733	-23.775369	-0.465922	-160.004023
8.900000	-0.370149	-131.384130	-38.482239	-25.431502	-38.482239	-25.431502	-0.477810	-161.039862
8.950000	-0.375049	-132.026365	-38.390469	-27.125920	-38.390469	-27.125920	-0.491283	-162.109644
9.000000	-0.380008	-132.668421	-38.300801	-28.867036	-38.300801	-28.867036	-0.506850	-163.220679
9.050000	-0.385027	-133.310331	-38.213794	-30.666089	-38.213794	-30.666089	-0.525246	-164.382521
9.100000	-0.390099	-133.952129	-38.129930	-32.529605	-38.129930	-32.529605	-0.547056	-165.600408
9.150000	-0.395237	-134.593820	-38.051197	-34.495437	-38.051197	-34.495437	-0.574845	-166.906183
9.200000	-0.400433	-135.235437	-37.979488	-36.585017	-37.979488	-36.585017	-0.610786	-168.316662
9.250000	-0.405688	-135.876994	-37.918517	-38.840855	-37.918517	-38.840855	-0.659145	-169.865494
9.300000	-0.411000	-136.518499	-37.874541	-41.321565	-37.874541	-41.321565	-0.726875	-171.597714
9.350000	-0.416369	-137.159946	-37.860815	-44.131187	-37.860815	-44.131187	-0.828234	-173.590813
9.400000	-0.421789	-137.801313	-37.902834	-47.412227	-37.902834	-47.412227	-0.989561	-175.941695
9.450000	-0.427248	-138.442557	-38.057273	-51.374530	-38.057273	-51.374530	-1.267100	-178.767472
9.500000	-0.432723	-139.083629	-38.460613	-56.224006	-38.460613	-56.224006	-1.788821	177.931933
9.550000	-0.438160	-139.724554	-39.443707	-61.470145	-39.443707	-61.470145	-2.831824	175.107260
9.600000	-0.443482	-140.365702	-41.564052	-61.930677	-41.564052	-61.930677	-4.651172	178.282356
9.650000	-0.448653	-141.008205	-43.222271	-43.734514	-43.222271	-43.734514	-5.358814	-165.050933
9.700000	-0.453863	-141.653285	-41.350260	-28.965661	-41.350260	-28.965661	-3.676350	-155.657233
9.750000	-0.459398	-142.300202	-39.580386	-28.875745	-39.580386	-28.875745	-2.353094	-156.530343
9.800000	-0.465266	-142.947198	-38.600587	-32.097029	-38.600587	-32.097029	-1.665474	-159.437601
9.850000	-0.471313	-143.593667	-38.033207	-35.443997	-38.033207	-35.443997	-1.302289	-162.223248
9.900000	-0.477438	-144.239825	-37.668546	-38.431153	-37.668546	-38.431153	-1.096755	-164.609318
9.950000	-0.483607	-144.885994	-37.409020	-41.072427	-37.409020	-41.072427	-0.971537	-166.655956
10.000000	-0.489813	-145.532399	-37.209609	-43.442084	-37.209609	-43.442084	-0.891300	-168.447296
