! freq	dB(S11)	phase(S11)	dB(S12)	phase(S12)	
!     	dB(S21)	phase(S21)	dB(S22)	phase(S22)	
!S-par simulation data
#  GHz  S  DB  R 50
0.000000	-80.968398	0.000000	-0.000777	0.000000	-0.000777	0.000000	-80.968398	0.000000
0.050000	-59.976246	-85.602552	-0.005186	-2.795263	-0.005186	-2.795263	-59.973013	-85.597051
0.100000	-53.826750	-89.542225	-0.012264	-5.548307	-0.012264	-5.548307	-53.824628	-89.521866
0.150000	-50.137140	-92.468365	-0.017373	-8.279861	-0.017373	-8.279861	-50.135821	-92.428657
0.200000	-47.507053	-95.502661	-0.020922	-11.006891	-0.020922	-11.006891	-47.505996	-95.442217
0.250000	-45.490297	-98.699776	-0.023618	-13.734015	-0.023618	-13.734015	-45.489117	-98.619215
0.300000	-43.885254	-101.988307	-0.025936	-16.462183	-0.025936	-16.462183	-43.883770	-101.888840
0.350000	-42.571824	-105.299837	-0.028154	-19.191150	-0.028154	-19.191150	-42.570022	-105.182269
0.400000	-41.479991	-108.604842	-0.030377	-21.920685	-0.030377	-21.920685	-41.477912	-108.469579
0.450000	-40.562422	-111.887421	-0.032665	-24.650529	-0.032665	-24.650529	-40.560134	-111.734428
0.500000	-39.792084	-115.139265	-0.035058	-27.380474	-0.035058	-27.380474	-39.789669	-114.968069
0.550000	-39.141859	-118.362414	-0.037558	-30.110357	-0.037558	-30.110357	-39.139396	-118.172231
0.600000	-38.593672	-121.560227	-0.040164	-32.840087	-0.040164	-32.840087	-38.591233	-121.350017
0.650000	-38.135387	-124.736288	-0.042869	-35.569609	-0.042869	-35.569609	-38.133039	-124.504756
0.700000	-37.758082	-127.894553	-0.045663	-38.298899	-0.045663	-38.298899	-37.755890	-127.640145
0.750000	-37.455242	-131.039123	-0.048537	-41.027957	-0.048537	-41.027957	-37.453270	-130.760001
0.800000	-37.223753	-134.174058	-0.051480	-43.756800	-0.051480	-43.756800	-37.222068	-133.868002
0.850000	-37.064777	-137.303907	-0.054484	-46.485461	-0.054484	-46.485461	-37.063458	-136.968097
0.900000	-36.970906	-140.434105	-0.057529	-49.214016	-0.057529	-49.214016	-36.970032	-140.065454
0.950000	-36.941633	-143.569741	-0.060608	-51.942532	-0.060608	-51.942532	-36.941297	-143.164585
1.000000	-36.977631	-146.716600	-0.063709	-54.671087	-0.063709	-54.671087	-36.977943	-146.270562
1.050000	-37.080796	-149.881501	-0.066825	-57.399766	-0.066825	-57.399766	-37.081895	-149.389295
1.100000	-37.254391	-153.072739	-0.069948	-60.128660	-0.069948	-60.128660	-37.256455	-152.527918
1.150000	-37.508610	-156.304487	-0.073073	-62.857896	-0.073073	-62.857896	-37.511891	-155.698341
1.200000	-37.848625	-159.591808	-0.076195	-65.587575	-0.076195	-65.587575	-37.853467	-158.913440
1.250000	-38.281099	-162.953008	-0.079311	-68.317784	-0.079311	-68.317784	-38.287974	-162.188827
1.300000	-38.819298	-166.416163	-0.082420	-71.048620	-0.082420	-71.048620	-38.828903	-165.548259
1.350000	-39.481597	-170.022295	-0.085521	-73.780182	-0.085521	-73.780182	-39.494996	-169.026456
1.400000	-40.293953	-173.833982	-0.088617	-76.512562	-0.088617	-76.512562	-40.312847	-172.676451
1.450000	-41.294747	-177.954678	-0.091709	-79.245857	-0.091709	-79.245857	-41.322048	-176.586159
1.500000	-42.552592	177.356245	-0.094801	-81.980267	-0.094801	-81.980267	-42.594137	179.023057
1.550000	-44.148573	171.737983	-0.097899	-84.715765	-0.097899	-84.715765	-44.216227	173.838025
1.600000	-46.234795	164.302421	-0.101006	-87.452424	-0.101006	-87.452424	-46.357480	167.073202
1.650000	-49.064875	152.685993	-0.104130	-90.190310	-0.104130	-90.190310	-49.329864	156.533573
1.700000	-52.958737	130.992461	-0.107274	-92.929400	-0.107274	-92.929400	-53.681847	136.069629
1.750000	-55.072474	81.086756	-0.110451	-95.670023	-0.110451	-95.670023	-56.428243	80.786993
1.800000	-51.813850	34.833651	-0.113663	-98.411946	-0.113663	-98.411946	-52.458050	29.968110
1.850000	-47.678411	14.349006	-0.116920	-101.155369	-0.116920	-101.155369	-47.930639	10.531563
1.900000	-44.524160	3.837846	-0.120228	-103.900235	-0.120228	-103.900235	-44.650943	0.993604
1.950000	-42.077716	-3.163320	-0.123593	-106.646563	-0.123593	-106.646563	-42.152940	-5.396694
2.000000	-40.088925	-8.481792	-0.127024	-109.394452	-0.127024	-109.394452	-40.138790	-10.323309
2.050000	-38.423637	-13.026243	-0.130520	-112.143733	-0.130520	-112.143733	-38.458988	-14.586566
2.100000	-36.986350	-17.028107	-0.134099	-114.894666	-0.134099	-114.894666	-37.012811	-18.388007
2.150000	-35.729236	-20.748932	-0.137750	-117.646954	-0.137750	-117.646954	-35.749745	-21.951268
2.200000	-34.610217	-24.241817	-0.141490	-120.400843	-0.141490	-120.400843	-34.626604	-25.321792
2.250000	-33.605894	-27.593979	-0.145312	-123.156117	-0.145312	-123.156117	-33.619275	-28.573503
2.300000	-32.696087	-30.834403	-0.149223	-125.912867	-0.149223	-125.912867	-32.707216	-31.730955
2.350000	-31.866747	-33.991722	-0.153222	-128.671042	-0.153222	-128.671042	-31.876143	-34.818333
2.400000	-31.107083	-37.087373	-0.157305	-131.430563	-0.157305	-131.430563	-31.115110	-37.853724
2.450000	-30.408387	-40.129316	-0.161480	-134.191536	-0.161480	-134.191536	-30.415318	-40.843838
2.500000	-29.763630	-43.134373	-0.165730	-136.953727	-0.165730	-136.953727	-29.769660	-43.802851
2.550000	-29.168054	-46.102393	-0.170068	-139.717390	-0.170068	-139.717390	-29.173341	-46.730623
2.600000	-28.616073	-49.045740	-0.174474	-142.482223	-0.174474	-142.482223	-28.620732	-49.637573
2.650000	-28.104998	-51.964863	-0.178952	-145.248403	-0.178952	-145.248403	-28.109124	-52.524062
2.700000	-27.630872	-54.865372	-0.183489	-148.015789	-0.183489	-148.015789	-27.634539	-55.394813
2.750000	-27.191464	-57.749392	-0.188081	-150.784414	-0.188081	-150.784414	-27.194732	-58.251604
2.800000	-26.784752	-60.618929	-0.192718	-153.554290	-0.192718	-153.554290	-26.787670	-61.096110
2.850000	-26.407908	-63.476874	-0.197389	-156.325320	-0.197389	-156.325320	-26.410516	-63.930759
2.900000	-26.061134	-66.323244	-0.202088	-159.097667	-0.202088	-159.097667	-26.063466	-66.755539
2.950000	-25.740581	-69.161080	-0.206800	-161.871127	-0.206800	-161.871127	-25.742665	-69.573014
3.000000	-25.448029	-71.989758	-0.211517	-164.645950	-0.211517	-164.645950	-25.449889	-72.382613
3.050000	-25.179720	-74.811575	-0.216226	-167.421942	-0.216226	-167.421942	-25.181376	-75.186278
3.100000	-24.936760	-77.626466	-0.220915	-170.199279	-0.220915	-170.199279	-24.938229	-77.983912
3.150000	-24.717425	-80.435451	-0.225573	-172.977919	-0.225573	-172.977919	-24.718721	-80.776361
3.200000	-24.521155	-83.239080	-0.230190	-175.757906	-0.230190	-175.757906	-24.522291	-83.564064
3.250000	-24.348554	-86.037529	-0.234751	-178.539372	-0.234751	-178.539372	-24.349540	-86.347123
3.300000	-24.197043	-88.831750	-0.239251	178.677794	-0.239251	178.677794	-24.197885	-89.126344
3.350000	-24.069201	-91.621453	-0.243671	175.893308	-0.243671	175.893308	-24.069908	-91.901403
3.400000	-23.963080	-94.407331	-0.248006	173.107234	-0.248006	173.107234	-23.963657	-94.672874
3.450000	-23.878962	-97.189564	-0.252246	170.319464	-0.252246	170.319464	-23.879412	-97.440861
3.500000	-23.816863	-99.968368	-0.256382	167.529914	-0.256382	167.529914	-23.817188	-100.205501
3.550000	-23.776888	-102.743929	-0.260407	164.738492	-0.260407	164.738492	-23.777088	-102.966897
3.600000	-23.759238	-105.516396	-0.264314	161.945100	-0.264314	161.945100	-23.759313	-105.725117
3.650000	-23.764209	-108.285889	-0.268098	159.149639	-0.268098	159.149639	-23.764157	-108.480196
3.700000	-23.792204	-111.052499	-0.271754	156.352004	-0.271754	156.352004	-23.792019	-111.232133
3.750000	-23.843733	-113.816280	-0.275279	153.552086	-0.275279	153.552086	-23.843410	-113.980888
3.800000	-23.919952	-116.577195	-0.278669	150.749721	-0.278669	150.749721	-23.919482	-116.726303
3.850000	-24.021119	-119.335286	-0.281925	147.944848	-0.281925	147.944848	-24.020491	-119.468313
3.900000	-24.148150	-122.090489	-0.285048	145.137356	-0.285048	145.137356	-24.147350	-122.206721
3.950000	-24.302129	-124.842691	-0.288042	142.327133	-0.288042	142.327133	-24.301142	-124.941262
4.000000	-24.484339	-127.591715	-0.290909	139.514070	-0.290909	139.514070	-24.483144	-127.671585
4.050000	-24.696287	-130.337309	-0.293655	136.698061	-0.293655	136.698061	-24.694859	-130.397236
4.100000	-24.939748	-133.079132	-0.296285	133.879003	-0.296285	133.879003	-24.938058	-133.117628
4.150000	-25.216816	-135.816726	-0.298808	131.056795	-0.298808	131.056795	-25.214827	-135.832013
4.200000	-25.529966	-138.549487	-0.301231	128.231345	-0.301231	128.231345	-25.527634	-138.539434
4.250000	-25.882144	-141.276627	-0.303564	125.402564	-0.303564	125.402564	-25.879413	-141.238666
4.300000	-26.276872	-143.997115	-0.305818	122.570371	-0.305818	122.570371	-26.273675	-143.928131
4.350000	-26.718401	-146.709597	-0.308005	119.734692	-0.308005	119.734692	-26.714654	-146.605783
4.400000	-27.212205	-149.412151	-0.310135	116.895421	-0.310135	116.895421	-27.207800	-149.268746
4.450000	-27.764672	-152.102279	-0.312221	114.052499	-0.312221	114.052499	-27.759468	-151.913295
4.500000	-28.383497	-154.776768	-0.314279	111.205917	-0.314279	111.205917	-28.377311	-154.534659
4.550000	-29.078844	-157.431009	-0.316319	108.355633	-0.316319	108.355633	-29.071428	-157.126016
4.600000	-29.863913	-160.058437	-0.318356	105.501618	-0.318356	105.501618	-29.854923	-159.677658
4.650000	-30.756277	-162.649399	-0.320403	102.643850	-0.320403	102.643850	-30.745219	-162.175331
4.700000	-31.780049	-165.189120	-0.322472	99.782316	-0.322472	99.782316	-31.766184	-164.597232
4.750000	-32.969601	-167.653808	-0.324574	96.917010	-0.324574	96.917010	-32.951757	-166.908292
4.800000	-34.376352	-170.002548	-0.326722	94.047935	-0.326722	94.047935	-34.352541	-169.048309
4.850000	-36.082335	-172.158531	-0.328926	91.175101	-0.328926	91.175101	-36.048837	-170.904604
4.900000	-38.230609	-173.958738	-0.331194	88.298524	-0.331194	88.298524	-38.179447	-172.239367
4.950000	-41.105955	-174.987323	-0.333535	85.418223	-0.333535	85.418223	-41.015931	-172.452788
5.000000	-45.414226	-173.806487	-0.335955	82.534222	-0.335955	82.534222	-45.203154	-169.527156
5.050000	-53.764497	-158.402346	-0.338460	79.646469	-0.338460	79.646469	-52.642063	-149.028018
5.100000	-54.235705	-44.631256	-0.341054	76.755071	-0.341054	76.755071	-53.183966	-54.604383
5.150000	-45.828620	-23.094642	-0.343736	73.860053	-0.343736	73.860053	-45.711954	-28.732361
5.200000	-41.503403	-21.447931	-0.346507	70.961437	-0.346507	70.961437	-41.479802	-25.043613
5.250000	-38.671494	-22.367168	-0.349365	68.059242	-0.349365	68.059242	-38.670156	-25.072450
5.300000	-36.591706	-24.111421	-0.352305	65.153477	-0.352305	65.153477	-36.598198	-26.325163
5.350000	-34.969146	-26.221975	-0.355323	62.244144	-0.355323	62.244144	-34.979014	-28.126943
5.400000	-33.657512	-28.524133	-0.358410	59.331232	-0.358410	59.331232	-33.669060	-30.219240
5.450000	-32.573991	-30.936140	-0.361559	56.414719	-0.361559	56.414719	-32.586498	-32.481156
5.500000	-31.667495	-33.413978	-0.364759	53.494565	-0.364759	53.494565	-31.680642	-34.848025
5.550000	-30.904607	-35.931198	-0.368000	50.570715	-0.368000	50.570715	-30.918267	-37.281535
5.600000	-30.262599	-38.470282	-0.371269	47.643094	-0.371269	47.643094	-30.276747	-39.756919
5.650000	-29.726374	-41.018447	-0.374555	44.711561	-0.374555	44.711561	-29.741047	-42.256906
5.700000	-29.284907	-43.565131	-0.377844	41.775992	-0.377844	41.775992	-29.300184	-44.767844
5.750000	-28.929863	-46.101152	-0.381124	38.836283	-0.381124	38.836283	-28.945860	-47.278451
5.800000	-28.656261	-48.617570	-0.384383	35.892264	-0.384383	35.892264	-28.673129	-49.778549
5.850000	-28.461291	-51.104822	-0.387611	32.943737	-0.387611	32.943737	-28.479224	-52.257858
5.900000	-28.344063	-53.551949	-0.390800	29.990478	-0.390800	29.990478	-28.363310	-54.705138
5.950000	-28.305526	-55.945677	-0.393943	27.032233	-0.393943	27.032233	-28.326405	-57.107222
6.000000	-28.348526	-58.269192	-0.397037	24.068724	-0.397037	24.068724	-28.371457	-59.447815
6.050000	-28.478040	-60.500377	-0.400080	21.099643	-0.400080	21.099643	-28.503584	-61.705781
6.100000	-28.701591	-62.609122	-0.403077	18.124659	-0.403077	18.124659	-28.730517	-63.852576
6.150000	-29.029931	-64.553021	-0.406037	15.143413	-0.406037	15.143413	-29.063331	-65.848150
6.200000	-29.478112	-66.270171	-0.408972	12.155526	-0.408972	12.155526	-29.517587	-67.634074
6.250000	-30.067147	-67.666531	-0.411902	9.160596	-0.411902	9.160596	-30.115152	-69.121417
6.300000	-30.829315	-68.576495	-0.414853	6.158032	-0.414853	6.158032	-30.889893	-70.152989
6.350000	-31.804040	-68.743256	-0.417860	3.147553	-0.417860	3.147553	-31.884119	-70.482685
6.400000	-33.050062	-67.683776	-0.420964	0.128717	-0.420964	0.128717	-33.162580	-69.641887
6.450000	-34.643826	-64.435314	-0.424213	-2.898927	-0.424213	-2.898927	-34.815198	-66.675268
6.500000	-36.643417	-56.923940	-0.427665	-5.935827	-0.427665	-5.935827	-36.931234	-59.435075
6.550000	-38.834956	-40.898659	-0.431387	-8.982427	-0.431387	-8.982427	-39.343656	-43.126335
6.600000	-39.992143	-13.011173	-0.435443	-12.038841	-0.435443	-12.038841	-40.693313	-13.163529
6.650000	-38.300648	16.066899	-0.439944	-15.106161	-0.439944	-15.106161	-38.781292	17.979600
6.700000	-35.318729	32.867756	-0.444974	-18.184415	-0.444974	-18.184415	-35.562351	34.850581
6.750000	-32.501907	40.730809	-0.450639	-21.273952	-0.450639	-21.273952	-32.631573	42.312581
6.800000	-30.094401	44.114006	-0.457055	-24.375081	-0.457055	-24.375081	-30.170631	45.342958
6.850000	-28.038604	45.193066	-0.464346	-27.488057	-0.464346	-27.488057	-28.087282	46.160553
6.900000	-26.254039	44.972282	-0.472653	-30.613142	-0.472653	-30.613142	-26.287149	45.747877
6.950000	-24.679096	43.960502	-0.482121	-33.750464	-0.482121	-33.750464	-24.702728	44.592219
7.000000	-23.269746	42.434682	-0.492896	-36.900001	-0.492896	-36.900001	-23.287258	42.955664
7.050000	-21.993825	40.553632	-0.505135	-40.061711	-0.505135	-40.061711	-22.007203	40.987450
7.100000	-20.827829	38.416289	-0.519001	-43.235453	-0.519001	-43.235453	-20.838308	38.780136
7.150000	-19.754201	36.087348	-0.534662	-46.420985	-0.534662	-46.420985	-19.762584	36.394066
7.200000	-18.759444	33.610575	-0.552293	-49.617982	-0.552293	-49.617982	-18.766273	33.869988
7.250000	-17.833013	31.016793	-0.572079	-52.826024	-0.572079	-52.826024	-17.838667	31.236567
7.300000	-16.967000	28.329692	-0.594175	-56.044420	-0.594175	-56.044420	-16.971747	28.515835
7.350000	-16.154765	25.566201	-0.618747	-59.272446	-0.618747	-59.272446	-16.158800	25.723543
7.400000	-15.390899	22.739418	-0.645955	-62.509252	-0.645955	-62.509252	-15.394371	22.871888
7.450000	-14.670946	19.859742	-0.675955	-65.753860	-0.675955	-65.753860	-14.673964	19.970576
7.500000	-13.991184	16.935642	-0.708887	-69.005168	-0.708887	-69.005168	-13.993834	17.027532
7.550000	-13.348364	13.973848	-0.744917	-72.261999	-0.744917	-72.261999	-13.350712	14.049073
7.600000	-12.739981	10.980847	-0.784127	-75.522939	-0.784127	-75.522939	-12.742080	11.041312
7.650000	-12.163728	7.961878	-0.826616	-78.786544	-0.826616	-78.786544	-12.165619	8.009208
7.700000	-11.617599	4.921599	-0.872461	-82.051276	-0.872461	-82.051276	-11.619318	4.957190
7.750000	-11.099837	1.864221	-0.921718	-85.315518	-0.921718	-85.315518	-11.101410	1.889280
7.800000	-10.608881	-1.206400	-0.974421	-88.577585	-0.974421	-88.577585	-10.610332	-1.190827
7.850000	-10.143340	-4.286750	-1.030601	-91.835700	-1.030601	-91.835700	-10.144688	-4.279740
7.900000	-9.701976	-7.373412	-1.090225	-95.088095	-1.090225	-95.088095	-9.703237	-7.374160
7.950000	-9.283635	-10.463257	-1.153237	-98.333005	-1.153237	-98.333005	-9.284822	-10.471056
8.000000	-8.887253	-13.553378	-1.219567	-101.568664	-1.219567	-101.568664	-8.888379	-13.567601
8.050000	-8.511843	-16.641050	-1.289116	-104.793332	-1.289116	-104.793332	-8.512919	-16.661140
8.100000	-8.156482	-19.723728	-1.361759	-108.005315	-1.361759	-108.005315	-8.157515	-19.749186
8.150000	-7.820346	-22.798967	-1.437363	-111.202856	-1.437363	-111.202856	-7.821345	-22.829344
8.200000	-7.502626	-25.864528	-1.515748	-114.384372	-1.515748	-114.384372	-7.503597	-25.899419
8.250000	-7.202486	-28.918475	-1.596695	-117.548534	-1.596695	-117.548534	-7.203434	-28.957520
8.300000	-6.919170	-31.959001	-1.679985	-120.694014	-1.679985	-120.694014	-6.920101	-32.001873
8.350000	-6.651953	-34.984490	-1.765380	-123.819608	-1.765380	-123.819608	-6.652872	-35.030893
8.400000	-6.400140	-37.993518	-1.852623	-126.924247	-1.852623	-126.924247	-6.401049	-38.043184
8.450000	-6.163060	-40.984858	-1.941446	-130.007007	-1.941446	-130.007007	-6.163964	-41.037543
8.500000	-5.940071	-43.957477	-2.031565	-133.067116	-2.031565	-133.067116	-5.940971	-44.012960
8.550000	-5.730552	-46.910538	-2.122686	-136.103954	-2.122686	-136.103954	-5.731451	-46.968615
8.600000	-5.533912	-49.843393	-2.214509	-139.117059	-2.214509	-139.117059	-5.534811	-49.903882
8.650000	-5.349579	-52.755582	-2.306726	-142.106129	-2.306726	-142.106129	-5.350480	-52.818316
8.700000	-5.177010	-55.646829	-2.399027	-145.071016	-2.399027	-145.071016	-5.177914	-55.711656
8.750000	-5.015684	-58.517031	-2.491098	-148.011730	-2.491098	-148.011730	-5.016592	-58.583815
8.800000	-4.865277	-61.365804	-2.582585	-150.927917	-2.582585	-150.927917	-4.866189	-61.434419
8.850000	-4.725145	-64.193840	-2.673204	-153.820422	-2.673204	-153.820422	-4.726062	-64.264178
8.900000	-4.594844	-67.001526	-2.762646	-156.689709	-2.762646	-156.689709	-4.595765	-67.073489
8.950000	-4.473957	-69.789388	-2.850605	-159.536379	-2.850605	-159.536379	-4.474882	-69.862890
9.000000	-4.362092	-72.558082	-2.936781	-162.361169	-2.936781	-162.361169	-4.363022	-72.633048
9.050000	-4.258887	-75.308385	-3.020880	-165.164943	-3.020880	-165.164943	-4.259821	-75.384751
9.100000	-4.164004	-78.041184	-3.102613	-167.948690	-3.102613	-167.948690	-4.164942	-78.118898
9.150000	-4.077132	-80.757470	-3.181700	-170.713517	-3.181700	-170.713517	-4.078075	-80.836488
9.200000	-3.997989	-83.458324	-3.257867	-173.460652	-3.257867	-173.460652	-3.998937	-83.538612
9.250000	-3.926318	-86.144910	-3.330847	-176.191431	-3.330847	-176.191431	-3.927272	-86.226445
9.300000	-3.861889	-88.818468	-3.400382	-178.907305	-3.400382	-178.907305	-3.862849	-88.901234
9.350000	-3.804498	-91.480302	-3.466222	178.390165	-3.466222	178.390165	-3.805467	-91.564295
9.400000	-3.754038	-94.131679	-3.528077	175.699417	-3.528077	175.699417	-3.755017	-94.216904
9.450000	-3.710356	-96.774065	-3.585706	173.018605	-3.585706	173.018605	-3.711348	-96.860534
9.500000	-3.673256	-99.409032	-3.638934	170.345701	-3.638934	170.345701	-3.674266	-99.496767
9.550000	-3.642641	-102.038079	-3.687546	167.678687	-3.687546	167.678687	-3.643671	-102.127110
9.600000	-3.618436	-104.662732	-3.731334	165.015426	-3.731334	165.015426	-3.619493	-104.753099
9.650000	-3.600595	-107.284543	-3.770103	162.353654	-3.770103	162.353654	-3.601684	-107.376293
9.700000	-3.589094	-109.905082	-3.803665	159.690973	-3.803665	159.690973	-3.590224	-109.998270
9.750000	-3.583936	-112.525932	-3.831844	157.024845	-3.831844	157.024845	-3.585115	-112.620622
9.800000	-3.585148	-115.148683	-3.854475	154.352578	-3.854475	154.352578	-3.586388	-115.244945
9.850000	-3.592783	-117.774928	-3.871407	151.671319	-3.871407	151.671319	-3.594095	-117.872839
9.900000	-3.606917	-120.406255	-3.882501	148.978038	-3.882501	148.978038	-3.608315	-120.505901
9.950000	-3.627650	-123.044247	-3.887637	146.269516	-3.887637	146.269516	-3.629151	-123.145719
10.000000	-3.655109	-125.690472	-3.886710	143.542330	-3.886710	143.542330	-3.656730	-125.793867
