! freq	dB(S11)	phase(S11)	dB(S12)	phase(S12)	
!     	dB(S21)	phase(S21)	dB(S22)	phase(S22)	
!S-par simulation data
#  GHz  S  DB  R 50
0.000000	-0.000000	0.000000	-347.338249	0.000000	-347.338249	0.000000	0.000000	0.000000
0.050000	-0.000100	-0.768218	-117.563238	84.207862	-117.563238	84.207862	-0.000100	-0.768233
0.100000	-0.000395	-1.536192	-112.158687	83.294548	-112.158687	83.294548	-0.000396	-1.536221
0.150000	-0.000877	-2.303677	-109.009869	83.504564	-109.009869	83.504564	-0.000879	-2.303717
0.200000	-0.001515	-3.070529	-106.781420	83.686239	-106.781420	83.686239	-0.001518	-3.070579
0.250000	-0.002293	-3.836587	-105.093692	83.740059	-105.093692	83.740059	-0.002297	-3.836644
0.300000	-0.003196	-4.601652	-103.785338	83.718062	-103.785338	83.718062	-0.003202	-4.601713
0.350000	-0.004182	-5.365818	-102.744382	83.695497	-102.744382	83.695497	-0.004189	-5.365882
0.400000	-0.005240	-6.128918	-101.931700	83.731571	-101.931700	83.731571	-0.005248	-6.128983
0.450000	-0.006345	-6.891041	-101.301978	83.880663	-101.301978	83.880663	-0.006353	-6.891106
0.500000	-0.007480	-7.652165	-100.838585	84.209557	-100.838585	84.209557	-0.007488	-7.652229
0.550000	-0.008631	-8.412329	-100.527308	84.793408	-100.527308	84.793408	-0.008640	-8.412393
0.600000	-0.009788	-9.171574	-100.360759	85.729523	-100.360759	85.729523	-0.009796	-9.171637
0.650000	-0.010942	-9.929939	-100.335475	87.149194	-100.335475	87.149194	-0.010950	-9.930003
0.700000	-0.012087	-10.687464	-100.449805	89.235794	-100.449805	89.235794	-0.012095	-10.687530
0.750000	-0.013220	-11.444185	-100.700383	92.250442	-100.700383	92.250442	-0.013227	-11.444253
0.800000	-0.014339	-12.200132	-101.074950	96.563914	-101.074950	96.563914	-0.014345	-12.200203
0.850000	-0.015439	-12.955203	-101.516197	103.163031	-101.516197	103.163031	-0.015445	-12.955278
0.900000	-0.016523	-13.709510	-101.950428	112.264699	-101.950428	112.264699	-0.016528	-13.709590
0.950000	-0.017599	-14.463445	-102.212514	122.605265	-102.212514	122.605265	-0.017604	-14.463530
1.000000	-0.018653	-15.216263	-101.905599	136.662524	-101.905599	136.662524	-0.018656	-15.216355
1.050000	-0.019701	-15.968834	-101.373085	150.385995	-101.373085	150.385995	-0.019705	-15.968933
1.100000	-0.020729	-16.720171	-99.836409	162.440521	-99.836409	162.440521	-0.020731	-16.720277
1.150000	-0.021754	-17.471383	-98.451343	174.033293	-98.451343	174.033293	-0.021756	-17.471496
1.200000	-0.022760	-18.221217	-96.526911	-179.453233	-96.526911	-179.453233	-0.022762	-18.221338
1.250000	-0.023767	-18.971050	-94.952478	-172.939758	-94.952478	-172.939758	-0.023768	-18.971179
1.300000	-0.024761	-19.719730	-93.280259	-169.299803	-93.280259	-169.299803	-0.024762	-19.719867
1.350000	-0.025748	-20.467656	-91.712379	-166.813495	-91.712379	-166.813495	-0.025749	-20.467802
1.400000	-0.026730	-21.214815	-90.247373	-165.164021	-90.247373	-165.164021	-0.026731	-21.214969
1.450000	-0.027707	-21.961192	-88.877517	-164.131119	-88.877517	-164.131119	-0.027707	-21.961354
1.500000	-0.028680	-22.706771	-87.593421	-163.560945	-87.593421	-163.560945	-0.028680	-22.706941
1.550000	-0.029649	-23.451537	-86.385883	-163.344599	-86.385883	-163.344599	-0.029650	-23.451716
1.600000	-0.030616	-24.195475	-85.246555	-163.403669	-85.246555	-163.403669	-0.030617	-24.195662
1.650000	-0.031581	-24.938567	-84.168107	-163.680679	-84.168107	-163.680679	-0.031581	-24.938763
1.700000	-0.032544	-25.680491	-83.121157	-164.178598	-83.121157	-164.178598	-0.032544	-25.680695
1.750000	-0.033506	-26.421960	-82.156449	-164.756001	-82.156449	-164.756001	-0.033506	-26.422172
1.800000	-0.034467	-27.162333	-81.221886	-165.466774	-81.221886	-165.466774	-0.034468	-27.162552
1.850000	-0.035428	-27.901922	-80.335430	-166.272810	-80.335430	-166.272810	-0.035429	-27.902150
1.900000	-0.036389	-28.640537	-79.482578	-167.158344	-79.482578	-167.158344	-0.036390	-28.640773
1.950000	-0.037351	-29.378178	-78.661871	-168.123377	-78.661871	-168.123377	-0.037351	-29.378421
2.000000	-0.038313	-30.114977	-77.877057	-169.136257	-77.877057	-169.136257	-0.038313	-30.115228
2.050000	-0.039276	-30.850600	-77.112416	-170.216123	-77.112416	-170.216123	-0.039276	-30.850858
2.100000	-0.040240	-31.585527	-76.385181	-171.324494	-76.385181	-171.324494	-0.040241	-31.585793
2.150000	-0.041206	-32.319064	-75.668991	-172.489877	-75.668991	-172.489877	-0.041207	-32.319338
2.200000	-0.042174	-33.052065	-74.991166	-173.671585	-74.991166	-173.671585	-0.042175	-33.052346
2.250000	-0.043145	-33.783452	-74.317339	-174.902270	-74.317339	-174.902270	-0.043146	-33.783741
2.300000	-0.044117	-34.514472	-73.682429	-176.141439	-73.682429	-176.141439	-0.044118	-34.514768
2.350000	-0.045093	-35.243647	-73.046021	-177.423029	-73.046021	-177.423029	-0.045094	-35.243951
2.400000	-0.046071	-35.972634	-72.448774	-178.707984	-72.448774	-178.707984	-0.046072	-35.972945
2.450000	-0.047055	-36.699537	-71.845712	179.970056	-71.845712	179.970056	-0.047055	-36.699856
2.500000	-0.048038	-37.426441	-71.281817	178.648097	-71.281817	178.648097	-0.048039	-37.426767
2.550000	-0.049031	-38.151014	-70.708703	177.293666	-70.708703	177.293666	-0.049032	-38.151348
2.600000	-0.050023	-38.875588	-70.171075	175.939236	-70.171075	175.939236	-0.050024	-38.875929
2.650000	-0.051024	-39.597974	-69.628541	174.560581	-69.628541	174.560581	-0.051025	-39.598323
2.700000	-0.052026	-40.320162	-69.114811	173.179723	-69.114811	173.179723	-0.052027	-40.320519
2.750000	-0.053038	-41.040319	-68.599767	171.780767	-68.599767	171.780767	-0.053039	-41.040683
2.800000	-0.054051	-41.760068	-68.107897	170.378190	-68.107897	170.378190	-0.054052	-41.760440
2.850000	-0.055074	-42.477952	-67.617714	168.962121	-67.617714	168.962121	-0.055075	-42.478331
2.900000	-0.056100	-43.195213	-67.145938	167.541554	-67.145938	167.541554	-0.056101	-43.195601
2.950000	-0.057135	-43.910784	-66.678359	166.110988	-66.678359	166.110988	-0.057136	-43.911179
3.000000	-0.058175	-44.625510	-66.225130	164.675423	-66.225130	164.675423	-0.058176	-44.625912
3.050000	-0.059224	-45.338729	-65.778204	163.232529	-65.778204	163.232529	-0.059225	-45.339140
3.100000	-0.060280	-46.050874	-65.342164	161.784400	-65.342164	161.784400	-0.060281	-46.051293
3.150000	-0.061344	-46.761707	-64.914188	160.330991	-64.914188	160.330991	-0.061345	-46.762133
3.200000	-0.062417	-47.471228	-64.494133	158.872301	-64.494133	158.872301	-0.062418	-47.471663
3.250000	-0.063498	-48.179640	-64.083614	157.409903	-64.083614	157.409903	-0.063499	-48.180082
3.300000	-0.064589	-48.886499	-63.678470	155.942314	-63.678470	155.942314	-0.064590	-48.886949
3.350000	-0.065688	-49.592457	-63.284092	154.472225	-63.284092	154.472225	-0.065688	-49.592916
3.400000	-0.066799	-50.296617	-62.892898	152.997133	-62.892898	152.997133	-0.066800	-50.297083
3.450000	-0.067917	-51.000092	-62.513491	151.520460	-62.513491	151.520460	-0.067917	-51.000567
3.500000	-0.069050	-51.701518	-62.135383	150.039043	-62.135383	150.039043	-0.069051	-51.702001
3.550000	-0.070188	-52.402483	-61.769905	148.556740	-61.769905	148.556740	-0.070189	-52.402975
3.600000	-0.071345	-53.101145	-61.404100	147.070004	-61.404100	147.070004	-0.071346	-53.101644
3.650000	-0.072504	-53.799574	-61.051616	145.582896	-61.051616	145.582896	-0.072505	-53.800081
3.700000	-0.073686	-54.495443	-60.697406	144.091701	-60.697406	144.091701	-0.073687	-54.495958
3.750000	-0.074869	-55.191311	-60.357076	142.600506	-60.357076	142.600506	-0.074869	-55.191836
3.800000	-0.076078	-55.884362	-60.013814	141.105595	-60.013814	141.105595	-0.076078	-55.884895
3.850000	-0.077287	-56.577413	-59.683603	139.610684	-59.683603	139.610684	-0.077287	-56.577954
3.900000	-0.078521	-57.267861	-59.351974	138.112959	-59.351974	138.112959	-0.078522	-57.268409
3.950000	-0.079759	-57.958071	-59.031360	136.614977	-59.031360	136.614977	-0.079760	-57.958628
4.000000	-0.081021	-58.645898	-58.710658	135.114905	-58.710658	135.114905	-0.081022	-58.646464
4.050000	-0.082288	-59.333249	-58.399158	133.614415	-58.399158	133.614415	-0.082289	-59.333823
4.100000	-0.083579	-60.018442	-58.088740	132.112413	-58.088740	132.112413	-0.083580	-60.019024
4.150000	-0.084878	-60.702916	-57.785912	130.609908	-57.785912	130.609908	-0.084879	-60.703506
4.200000	-0.086199	-61.385463	-57.485191	129.106347	-57.485191	129.106347	-0.086200	-61.386061
4.250000	-0.087532	-62.067046	-57.190623	127.602259	-57.190623	127.602259	-0.087533	-62.067652
4.300000	-0.088884	-62.746937	-56.899064	126.097472	-56.899064	126.097472	-0.088885	-62.747551
4.350000	-0.090252	-63.425618	-56.612377	124.592186	-56.612377	124.592186	-0.090253	-63.426241
4.400000	-0.091637	-64.102845	-56.329487	123.086470	-56.329487	123.086470	-0.091638	-64.103476
4.450000	-0.093041	-64.778617	-56.050326	121.580324	-56.050326	121.580324	-0.093042	-64.779256
4.500000	-0.094461	-65.453174	-55.775652	120.073948	-55.775652	120.073948	-0.094462	-65.453822
4.550000	-0.095903	-66.126031	-55.503690	118.567247	-55.503690	118.567247	-0.095904	-66.126686
4.600000	-0.097359	-66.797915	-55.236814	117.060450	-55.236814	117.060450	-0.097360	-66.798579
4.650000	-0.098841	-67.467854	-54.971743	115.553464	-54.971743	115.553464	-0.098842	-67.468526
4.700000	-0.100334	-68.137064	-54.712281	114.046467	-54.712281	114.046467	-0.100335	-68.137743
4.750000	-0.101858	-68.804085	-54.453815	112.539439	-54.453815	112.539439	-0.101859	-68.804772
4.800000	-0.103389	-69.470620	-54.201408	111.032440	-54.201408	111.032440	-0.103390	-69.471316
4.850000	-0.104957	-70.134727	-53.949279	109.525588	-53.949279	109.525588	-0.104958	-70.135430
4.900000	-0.106528	-70.798591	-53.703597	108.018767	-53.703597	108.018767	-0.106529	-70.799302
4.950000	-0.108140	-71.459788	-53.457553	106.512289	-53.457553	106.512289	-0.108141	-71.460506
5.000000	-0.109753	-72.120985	-53.218288	105.005811	-53.218288	105.005811	-0.109754	-72.121711
5.050000	-0.111412	-72.779280	-52.978094	103.499886	-52.978094	103.499886	-0.111413	-72.780014
5.100000	-0.113071	-73.437575	-52.744364	101.993961	-52.744364	101.993961	-0.113072	-73.438317
5.150000	-0.114775	-74.093221	-52.510392	100.488694	-52.510392	100.488694	-0.114776	-74.093970
5.200000	-0.116483	-74.748625	-52.281994	98.983486	-52.281994	98.983486	-0.116484	-74.749382
5.250000	-0.118232	-75.401632	-52.053971	97.478999	-52.053971	97.478999	-0.118233	-75.402395
5.300000	-0.119990	-76.054158	-51.830714	95.974657	-51.830714	95.974657	-0.119991	-76.054929
5.350000	-0.121787	-76.704538	-51.608385	94.471066	-51.608385	94.471066	-0.121788	-76.705316
5.400000	-0.123596	-77.354203	-51.390089	92.967727	-51.390089	92.967727	-0.123598	-77.354988
5.450000	-0.125442	-78.001971	-51.173215	91.465140	-51.173215	91.465140	-0.125443	-78.002763
5.500000	-0.127305	-78.648791	-50.959707	89.962930	-50.959707	89.962930	-0.127307	-78.649590
5.550000	-0.129201	-79.293964	-50.748064	88.461446	-50.748064	88.461446	-0.129202	-79.294770
5.600000	-0.131119	-79.937959	-50.539184	86.960481	-50.539184	86.960481	-0.131121	-79.938772
5.650000	-0.133066	-80.580555	-50.332562	85.460193	-50.332562	85.460193	-0.133068	-80.581374
5.700000	-0.135042	-81.221749	-50.128156	83.960582	-50.128156	83.960582	-0.135043	-81.222575
5.750000	-0.137042	-81.861786	-49.926359	82.461578	-49.926359	82.461578	-0.137044	-81.862619
5.800000	-0.139076	-82.500203	-49.726281	80.963422	-49.726281	80.963422	-0.139078	-82.501042
5.850000	-0.141131	-83.137704	-49.529121	79.465783	-49.529121	79.465783	-0.141132	-83.138550
5.900000	-0.143225	-83.773372	-49.333234	77.969176	-49.333234	77.969176	-0.143227	-83.774223
5.950000	-0.145336	-84.408359	-49.140537	76.472979	-49.140537	76.472979	-0.145337	-84.409217
6.000000	-0.147492	-85.041306	-48.948708	74.978010	-48.948708	74.978010	-0.147494	-85.042170
6.050000	-0.149660	-85.673804	-48.760310	73.483327	-48.760310	73.483327	-0.149661	-85.674674
6.100000	-0.151880	-86.304061	-48.572414	71.990078	-48.572414	71.990078	-0.151882	-86.304937
6.150000	-0.154107	-86.934097	-48.388157	70.496979	-48.388157	70.496979	-0.154108	-86.934978
6.200000	-0.156392	-87.561697	-48.204075	69.005529	-48.204075	69.005529	-0.156394	-87.562584
6.250000	-0.158679	-88.189297	-48.023812	67.514078	-48.023812	67.514078	-0.158680	-88.190190
6.300000	-0.161032	-88.814276	-47.843429	66.024498	-47.843429	66.024498	-0.161033	-88.815174
6.350000	-0.163385	-89.439255	-47.666715	64.534918	-47.666715	64.534918	-0.163387	-89.440158
6.400000	-0.165801	-90.061865	-47.490227	63.047115	-47.490227	63.047115	-0.165803	-90.062773
6.450000	-0.168223	-90.684259	-47.316960	61.559474	-47.316960	61.559474	-0.168225	-90.685173
6.500000	-0.170704	-91.304532	-47.144232	60.073503	-47.144232	60.073503	-0.170706	-91.305451
6.550000	-0.173197	-91.924381	-46.974314	58.587865	-46.974314	58.587865	-0.173198	-91.925304
6.600000	-0.175743	-92.542351	-46.805218	57.103773	-46.805218	57.103773	-0.175745	-92.543279
6.650000	-0.178308	-93.159695	-46.638554	55.620197	-46.638554	55.620197	-0.178310	-93.160627
6.700000	-0.180922	-93.775397	-46.472967	54.138033	-46.472967	54.138033	-0.180924	-93.776334
6.750000	-0.183561	-94.390278	-46.309467	52.656574	-46.309467	52.656574	-0.183562	-94.391220
6.800000	-0.186244	-95.003748	-46.147273	51.176379	-46.147273	51.176379	-0.186245	-95.004694
6.850000	-0.188958	-95.616211	-45.986851	49.697086	-45.986851	49.697086	-0.188959	-95.617161
6.900000	-0.191711	-96.227488	-45.827939	48.218900	-45.827939	48.218900	-0.191712	-96.228442
6.950000	-0.194502	-96.837578	-45.670509	46.741819	-45.670509	46.741819	-0.194503	-96.838536
7.000000	-0.197326	-97.446699	-45.514773	45.265676	-45.514773	45.265676	-0.197327	-97.447661
7.050000	-0.200196	-98.054465	-45.360256	43.790846	-45.360256	43.790846	-0.200197	-98.055430
7.100000	-0.203093	-98.661471	-45.207595	42.316778	-45.207595	42.316778	-0.203094	-98.662440
7.150000	-0.206043	-99.266960	-45.055911	40.844233	-45.055911	40.844233	-0.206044	-99.267933
7.200000	-0.209014	-99.871893	-44.906228	39.372267	-44.906228	39.372267	-0.209015	-99.872869
7.250000	-0.212046	-100.475157	-44.757302	37.902034	-44.757302	37.902034	-0.212047	-100.476135
7.300000	-0.215093	-101.078058	-44.610504	36.432191	-44.610504	36.432191	-0.215094	-101.079040
7.350000	-0.218208	-101.679149	-44.464264	34.964294	-44.464264	34.964294	-0.218209	-101.680133
7.400000	-0.221331	-102.280063	-44.320262	33.496591	-44.320262	33.496591	-0.221332	-102.281050
7.450000	-0.224531	-102.879034	-44.176635	32.031042	-44.176635	32.031042	-0.224532	-102.880023
7.500000	-0.227733	-103.478004	-44.035345	30.565492	-44.035345	30.565492	-0.227733	-103.478997
7.550000	-0.231019	-104.074911	-43.894263	29.102298	-43.894263	29.102298	-0.231020	-104.075905
7.600000	-0.234307	-104.671817	-43.755437	27.639104	-43.755437	27.639104	-0.234308	-104.672814
7.650000	-0.237674	-105.266883	-43.617000	26.178068	-43.617000	26.178068	-0.237675	-105.267881
7.700000	-0.241050	-105.861781	-43.480574	24.717229	-43.480574	24.717229	-0.241051	-105.862782
7.750000	-0.244499	-106.455055	-43.344701	23.258343	-43.344701	23.258343	-0.244500	-106.456057
7.800000	-0.247964	-107.048003	-43.210615	21.799847	-43.210615	21.799847	-0.247965	-107.049007
7.850000	-0.251497	-107.639534	-43.077230	20.343096	-43.077230	20.343096	-0.251497	-107.640539
7.900000	-0.255052	-108.230591	-42.945424	18.886927	-42.945424	18.886927	-0.255053	-108.231598
7.950000	-0.258669	-108.820429	-42.814454	17.432289	-42.814454	17.432289	-0.258670	-108.821437
8.000000	-0.262317	-109.409657	-42.684871	15.978417	-42.684871	15.978417	-0.262317	-109.410667
8.050000	-0.266019	-109.997854	-42.556245	14.525862	-42.556245	14.525862	-0.266020	-109.998864
8.100000	-0.269760	-110.585315	-42.428829	13.074249	-42.428829	13.074249	-0.269761	-110.586326
8.150000	-0.273549	-111.171923	-42.302479	11.623740	-42.302479	11.623740	-0.273550	-111.172934
8.200000	-0.277385	-111.757679	-42.177177	10.174336	-42.177177	10.174336	-0.277386	-111.758691
8.250000	-0.281262	-112.342752	-42.053039	8.725828	-42.053039	8.725828	-0.281262	-112.343765
8.300000	-0.285194	-112.926869	-41.929798	7.278574	-41.929798	7.278574	-0.285194	-112.927882
8.350000	-0.289159	-113.510462	-41.807810	5.832012	-41.807810	5.832012	-0.289160	-113.511474
8.400000	-0.293188	-114.093005	-41.686582	4.386835	-41.686582	4.386835	-0.293189	-114.094018
8.450000	-0.297243	-114.675172	-41.566685	2.942156	-41.566685	2.942156	-0.297244	-114.676185
8.500000	-0.301371	-115.256211	-41.447421	1.498973	-41.447421	1.498973	-0.301372	-115.257223
8.550000	-0.305517	-115.837009	-41.329557	0.056106	-41.329557	0.056106	-0.305518	-115.838021
8.600000	-0.309744	-116.416610	-41.212213	-1.385179	-41.212213	-1.385179	-0.309745	-116.417622
8.650000	-0.313982	-116.996098	-41.096330	-2.826315	-41.096330	-2.826315	-0.313982	-116.997109
8.700000	-0.318309	-117.574333	-40.980861	-4.265810	-40.980861	-4.265810	-0.318310	-117.575342
8.750000	-0.322639	-118.152567	-40.866907	-5.705306	-40.866907	-5.705306	-0.322641	-118.153576
8.800000	-0.327069	-118.729507	-40.753273	-7.143133	-40.753273	-7.143133	-0.327070	-118.730515
8.850000	-0.331500	-119.306447	-40.641107	-8.580959	-40.641107	-8.580959	-0.331502	-119.307454
8.900000	-0.336024	-119.882267	-40.529363	-10.017379	-40.529363	-10.017379	-0.336026	-119.883272
8.950000	-0.340558	-120.457985	-40.418949	-11.453671	-40.418949	-11.453671	-0.340560	-120.458989
9.000000	-0.345177	-121.032746	-40.309050	-12.888805	-40.309050	-12.888805	-0.345179	-121.033749
9.050000	-0.349815	-121.607317	-40.200353	-14.323708	-40.200353	-14.323708	-0.349817	-121.608317
9.100000	-0.354530	-122.181083	-40.092258	-15.757689	-40.092258	-15.757689	-0.354532	-122.182082
9.150000	-0.359272	-122.754581	-39.985248	-17.191362	-39.985248	-17.191362	-0.359274	-122.755578
9.200000	-0.364083	-123.327416	-39.878917	-18.624329	-39.878917	-18.624329	-0.364086	-123.328411
9.250000	-0.368930	-123.899920	-39.773566	-20.056943	-39.773566	-20.056943	-0.368933	-123.900913
9.300000	-0.373838	-124.471889	-39.668964	-21.489046	-39.668964	-21.489046	-0.373842	-124.472880
9.350000	-0.378791	-125.043476	-39.565246	-22.920784	-39.565246	-22.920784	-0.378795	-125.044465
9.400000	-0.383797	-125.614646	-39.462342	-24.352181	-39.462342	-24.352181	-0.383801	-125.615631
9.450000	-0.388856	-126.185397	-39.360236	-25.783237	-39.360236	-25.783237	-0.388861	-126.186380
9.500000	-0.393960	-126.755834	-39.258999	-27.214095	-39.258999	-27.214095	-0.393965	-126.756814
9.550000	-0.399126	-127.325830	-39.158488	-28.644675	-39.158488	-28.644675	-0.399131	-127.326808
9.600000	-0.404328	-127.895603	-39.058892	-30.075167	-39.058892	-30.075167	-0.404334	-127.896578
9.650000	-0.409601	-128.464928	-38.959962	-31.505486	-38.959962	-31.505486	-0.409608	-128.465900
9.700000	-0.414903	-129.034107	-38.861986	-32.935794	-38.861986	-32.935794	-0.414910	-129.035076
9.750000	-0.420283	-129.602845	-38.764626	-34.366074	-38.764626	-34.366074	-0.420291	-129.603811
9.800000	-0.425684	-130.171500	-38.668250	-35.796387	-38.668250	-35.796387	-0.425692	-130.172463
9.850000	-0.431172	-130.739738	-38.572455	-37.226861	-38.572455	-37.226861	-0.431181	-130.740697
9.900000	-0.436672	-131.307941	-38.477663	-38.657371	-38.477663	-38.657371	-0.436681	-131.308897
9.950000	-0.442268	-131.875766	-38.383433	-40.088276	-38.383433	-40.088276	-0.442278	-131.876719
10.000000	-0.447867	-132.443591	-38.290214	-41.519181	-38.290214	-41.519181	-0.447878	-132.444541
