! freq	dB(S11)	phase(S11)	dB(S12)	phase(S12)	
!     	dB(S21)	phase(S21)	dB(S22)	phase(S22)	
!S-par simulation data
#  GHz  S  DB  R 50
0.000000	-0.000000	0.000000	-309.166742	0.000000	-309.166742	0.000000	-0.000000	0.000000
0.050000	-0.041662	-3.388889	-60.998533	86.429560	-60.998533	86.429560	-0.041829	-3.430990
0.100000	-0.042190	-6.804521	-55.003973	82.892951	-55.003973	82.892951	-0.042410	-6.825341
0.150000	-0.042829	-10.208899	-51.520725	79.408054	-51.520725	79.408054	-0.043054	-10.222397
0.200000	-0.043686	-13.604443	-49.069608	75.976510	-49.069608	75.976510	-0.043904	-13.614189
0.250000	-0.044765	-16.989824	-47.185755	72.590630	-47.185755	72.590630	-0.044973	-16.997250
0.300000	-0.046062	-20.363114	-45.662081	69.241166	-45.662081	69.241166	-0.046256	-20.368943
0.350000	-0.047567	-23.722137	-44.388618	65.921182	-44.388618	65.921182	-0.047746	-23.726792
0.400000	-0.049268	-27.064916	-43.299714	62.626210	-43.299714	62.626210	-0.049429	-27.068665
0.450000	-0.051154	-30.389144	-42.353630	59.354694	-42.353630	59.354694	-0.051296	-30.392178
0.500000	-0.053202	-33.693812	-41.520653	56.105321	-41.520653	56.105321	-0.053324	-33.696263
0.550000	-0.055400	-36.976902	-40.780682	52.879063	-40.780682	52.879063	-0.055502	-36.978876
0.600000	-0.057734	-40.236257	-40.119014	49.677637	-40.119014	49.677637	-0.057817	-40.237838
0.650000	-0.060188	-43.470512	-39.523866	46.502350	-39.523866	46.502350	-0.060250	-43.471770
0.700000	-0.062743	-46.678256	-38.986155	43.354825	-38.986155	43.354825	-0.062786	-46.679248
0.750000	-0.065382	-49.858369	-38.498500	40.236526	-38.498500	40.236526	-0.065407	-49.859144
0.800000	-0.068089	-53.009730	-38.054979	37.149007	-38.054979	37.149007	-0.068097	-53.010329
0.850000	-0.070849	-56.130604	-37.651115	34.094550	-37.651115	34.094550	-0.070842	-56.131063
0.900000	-0.073645	-59.221441	-37.281981	31.073083	-37.281981	31.073083	-0.073624	-59.221789
0.950000	-0.076463	-62.280953	-36.944407	28.086435	-36.944407	28.086435	-0.076430	-62.281215
1.000000	-0.079290	-65.308543	-36.635358	25.135686	-36.635358	25.135686	-0.079247	-65.308740
1.050000	-0.082113	-68.303736	-36.352189	22.221777	-36.352189	22.221777	-0.082062	-68.303885
1.100000	-0.084921	-71.266173	-36.092576	19.345507	-36.092576	19.345507	-0.084864	-71.266289
1.150000	-0.087704	-74.195610	-35.854455	16.507537	-35.854455	16.507537	-0.087643	-74.195702
1.200000	-0.090452	-77.091908	-35.635986	13.708386	-35.635986	13.708386	-0.090389	-77.091983
1.250000	-0.093157	-79.955027	-35.435510	10.948440	-35.435510	10.948440	-0.093095	-79.955090
1.300000	-0.095812	-82.784305	-35.251778	8.228816	-35.251778	8.228816	-0.095751	-82.784360
1.350000	-0.098412	-85.580614	-35.083146	5.548779	-35.083146	5.548779	-0.098354	-85.580659
1.400000	-0.100951	-88.344181	-34.928366	2.908330	-34.928366	2.908330	-0.100898	-88.344216
1.450000	-0.103427	-91.075311	-34.786294	0.307353	-34.786294	0.307353	-0.103380	-91.075331
1.500000	-0.105837	-93.774374	-34.655876	-2.254377	-34.655876	-2.254377	-0.105797	-93.774375
1.550000	-0.108179	-96.441803	-34.536138	-4.777187	-34.536138	-4.777187	-0.108147	-96.441778
1.600000	-0.110452	-99.078087	-34.426177	-7.261503	-34.426177	-7.261503	-0.110429	-99.078029
1.650000	-0.112657	-101.683763	-34.325153	-9.707839	-34.325153	-9.707839	-0.112643	-101.683666
1.700000	-0.114794	-104.259416	-34.232285	-12.116796	-34.232285	-12.116796	-0.114789	-104.259270
1.750000	-0.116865	-106.805669	-34.146844	-14.489054	-34.146844	-14.489054	-0.116869	-106.805466
1.800000	-0.118870	-109.323180	-34.068147	-16.825365	-34.068147	-16.825365	-0.118884	-109.322911
1.850000	-0.120814	-111.812637	-33.995557	-19.126551	-33.995557	-19.126551	-0.120836	-111.812294
1.900000	-0.122698	-114.274466	-33.928523	-21.393133	-33.928523	-21.393133	-0.122728	-114.274040
1.950000	-0.124525	-116.709430	-33.866470	-23.626088	-33.866470	-23.626088	-0.124563	-116.708912
2.000000	-0.126299	-119.118584	-33.808817	-25.826786	-33.808817	-25.826786	-0.126345	-119.117966
2.050000	-0.128026	-121.502699	-33.755071	-27.996274	-33.755071	-27.996274	-0.128078	-121.501973
2.100000	-0.129707	-123.862561	-33.704770	-30.135645	-33.704770	-30.135645	-0.129766	-123.861720
2.150000	-0.131349	-126.198965	-33.657475	-32.246029	-33.657475	-32.246029	-0.131412	-126.198000
2.200000	-0.132954	-128.512711	-33.612777	-34.328595	-33.612777	-34.328595	-0.133021	-128.511617
2.250000	-0.134528	-130.804606	-33.570290	-36.384547	-33.570290	-36.384547	-0.134598	-130.803377
2.300000	-0.136075	-133.075462	-33.529652	-38.415118	-33.529652	-38.415118	-0.136147	-133.074091
2.350000	-0.137599	-135.326088	-33.490521	-40.421567	-33.490521	-40.421567	-0.137672	-135.324571
2.400000	-0.139105	-137.557298	-33.452577	-42.405182	-33.452577	-42.405182	-0.139178	-137.555630
2.450000	-0.140597	-139.769901	-33.415519	-44.367269	-33.415519	-44.367269	-0.140669	-139.768077
2.500000	-0.142079	-141.964704	-33.379065	-46.309155	-33.379065	-46.309155	-0.142149	-141.962721
2.550000	-0.143556	-144.142162	-33.342949	-48.231808	-33.342949	-48.231808	-0.143623	-144.140016
2.600000	-0.145032	-146.303461	-33.306913	-50.137026	-33.306913	-50.137026	-0.145095	-146.301148
2.650000	-0.146511	-148.449395	-33.270728	-52.026183	-33.270728	-52.026183	-0.146570	-148.446912
2.700000	-0.147997	-150.580754	-33.234180	-53.900661	-33.234180	-53.900661	-0.148051	-150.578098
2.750000	-0.149493	-152.698319	-33.197067	-55.761851	-33.197067	-55.761851	-0.149541	-152.695487
2.800000	-0.151004	-154.802866	-33.159206	-57.611150	-33.159206	-57.611150	-0.151046	-154.799856
2.850000	-0.152533	-156.895165	-33.120423	-59.449957	-33.120423	-59.449957	-0.152567	-156.891973
2.900000	-0.154082	-158.975976	-33.080561	-61.279674	-33.080561	-61.279674	-0.154110	-158.972601
2.950000	-0.155656	-161.046055	-33.039474	-63.101701	-33.039474	-63.101701	-0.155676	-161.042492
3.000000	-0.157257	-163.106149	-32.997030	-64.917438	-32.997030	-64.917438	-0.157269	-163.102396
3.050000	-0.158888	-165.156996	-32.953107	-66.728276	-32.953107	-66.728276	-0.158892	-165.153049
3.100000	-0.160553	-167.199330	-32.907597	-68.535601	-32.907597	-68.535601	-0.160548	-167.195186
3.150000	-0.162253	-169.233798	-32.860378	-70.340783	-32.860378	-70.340783	-0.162239	-169.229453
3.200000	-0.163991	-171.261142	-32.811361	-72.145232	-32.811361	-72.145232	-0.163969	-171.256592
3.250000	-0.165770	-173.282157	-32.760489	-73.950322	-32.760489	-73.950322	-0.165740	-173.277396
3.300000	-0.167591	-175.297544	-32.707698	-75.757387	-32.707698	-75.757387	-0.167553	-175.292568
3.350000	-0.169457	-177.308000	-32.652929	-77.567745	-32.652929	-77.567745	-0.169411	-177.302804
3.400000	-0.171369	-179.314214	-32.596136	-79.382693	-32.596136	-79.382693	-0.171315	-179.308791
3.450000	-0.173330	178.683134	-32.537280	-81.203505	-32.537280	-81.203505	-0.173268	178.688789
3.500000	-0.175340	176.683366	-32.476331	-83.031434	-32.476331	-83.031434	-0.175271	176.689261
3.550000	-0.177402	174.685814	-32.413266	-84.867707	-32.413266	-84.867707	-0.177326	174.691957
3.600000	-0.179516	172.689814	-32.348071	-86.713523	-32.348071	-86.713523	-0.179434	172.696212
3.650000	-0.181685	170.694710	-32.280738	-88.570053	-32.280738	-88.570053	-0.181597	170.701371
3.700000	-0.183909	168.699849	-32.211267	-90.438439	-32.211267	-90.438439	-0.183816	168.706783
3.750000	-0.186190	166.704586	-32.139663	-92.319792	-32.139663	-92.319792	-0.186091	166.711803
3.800000	-0.188530	164.708244	-32.065878	-94.215519	-32.065878	-94.215519	-0.188426	164.715754
3.850000	-0.190928	162.710196	-31.989989	-96.126379	-31.989989	-96.126379	-0.190821	162.718010
3.900000	-0.193386	160.709814	-31.912018	-98.053382	-31.912018	-98.053382	-0.193275	160.717943
3.950000	-0.195904	158.706474	-31.831994	-99.997498	-31.831994	-99.997498	-0.195789	158.714930
4.000000	-0.198483	156.699557	-31.749947	-101.959664	-31.749947	-101.959664	-0.198366	156.708352
4.050000	-0.201124	154.688450	-31.665914	-103.940778	-31.665914	-103.940778	-0.201004	154.697598
4.100000	-0.203827	152.672546	-31.579935	-105.941704	-31.579935	-105.941704	-0.203706	152.682059
4.150000	-0.206593	150.651240	-31.492052	-107.963265	-31.492052	-107.963265	-0.206470	150.661132
4.200000	-0.209422	148.623936	-31.402312	-110.006248	-31.402312	-110.006248	-0.209299	148.634222
4.250000	-0.212315	146.590042	-31.310762	-112.071403	-31.310762	-112.071403	-0.212192	146.600736
4.300000	-0.215273	144.548971	-31.217455	-114.159440	-31.217455	-114.159440	-0.215149	144.560088
4.350000	-0.218295	142.500143	-31.122442	-116.271032	-31.122442	-116.271032	-0.218171	142.511698
4.400000	-0.221383	140.442886	-31.025750	-118.407083	-31.025750	-118.407083	-0.221260	140.454896
4.450000	-0.224536	138.376613	-30.927436	-120.568209	-30.927436	-120.568209	-0.224414	138.389093
4.500000	-0.227756	136.300853	-30.827587	-122.754704	-30.827587	-122.754704	-0.227634	136.313821
4.550000	-0.231041	134.215053	-30.726261	-124.967087	-30.726261	-124.967087	-0.230921	134.228524
4.600000	-0.234392	132.118667	-30.623521	-127.205838	-30.623521	-127.205838	-0.234273	132.132658
4.650000	-0.237809	130.011156	-30.519425	-129.471403	-30.519425	-129.471403	-0.237692	130.025685
4.700000	-0.241292	127.891992	-30.414036	-131.764189	-30.414036	-131.764189	-0.241177	127.907074
4.750000	-0.244843	125.760653	-30.307416	-134.084567	-30.307416	-134.084567	-0.244729	125.776306
4.800000	-0.248459	123.616631	-30.199628	-136.432872	-30.199628	-136.432872	-0.248347	123.632871
4.850000	-0.252143	121.459424	-30.090735	-138.809402	-30.090735	-138.809402	-0.252032	121.476270
4.900000	-0.255893	119.288547	-29.980800	-141.214419	-29.980800	-141.214419	-0.255784	119.306015
4.950000	-0.259710	117.103524	-29.869889	-143.648149	-29.869889	-143.648149	-0.259603	117.121630
5.000000	-0.263595	114.903893	-29.758064	-146.110783	-29.758064	-146.110783	-0.263489	114.922654
5.050000	-0.267548	112.688870	-29.645343	-148.603109	-29.645343	-148.603109	-0.267443	112.708303
5.100000	-0.271569	110.458341	-29.531841	-151.124615	-29.531841	-151.124615	-0.271465	110.478462
5.150000	-0.275657	108.211894	-29.417624	-153.675380	-29.417624	-153.675380	-0.275554	108.232719
5.200000	-0.279812	105.949133	-29.302760	-156.255447	-29.302760	-156.255447	-0.279710	105.970677
5.250000	-0.284036	103.669683	-29.187315	-158.864823	-29.187315	-158.864823	-0.283934	103.691961
5.300000	-0.288327	101.373188	-29.071357	-161.503478	-29.071357	-161.503478	-0.288225	101.396215
5.350000	-0.292686	99.059316	-28.954955	-164.171344	-28.954955	-164.171344	-0.292584	99.083106
5.400000	-0.297113	96.727760	-28.838180	-166.868314	-28.838180	-166.868314	-0.297010	96.752326
5.450000	-0.301609	94.378235	-28.721101	-169.594244	-28.721101	-169.594244	-0.301505	94.403590
5.500000	-0.306173	92.010485	-28.603792	-172.348951	-28.603792	-172.348951	-0.306068	92.036641
5.550000	-0.310805	89.624283	-28.486325	-175.132210	-28.486325	-175.132210	-0.310699	89.651252
5.600000	-0.315507	87.219431	-28.368775	-177.943758	-28.368775	-177.943758	-0.315398	87.247223
5.650000	-0.320278	84.795559	-28.251202	179.216413	-28.251202	179.216413	-0.320167	84.824184
5.700000	-0.325119	82.352531	-28.133686	176.348663	-28.133686	176.348663	-0.325006	82.381998
5.750000	-0.330029	79.890458	-28.016324	173.453692	-28.016324	173.453692	-0.329913	79.920776
5.800000	-0.335010	77.409284	-27.899197	170.531941	-27.899197	170.531941	-0.334890	77.440459
5.850000	-0.340060	74.908990	-27.782388	167.583895	-27.782388	167.583895	-0.339937	74.941029
5.900000	-0.345180	72.389601	-27.665980	164.610085	-27.665980	164.610085	-0.345054	72.422509
5.950000	-0.350371	69.851180	-27.550061	161.611091	-27.550061	161.611091	-0.350241	69.884960
6.000000	-0.355633	67.293835	-27.434717	158.587540	-27.434717	158.587540	-0.355498	67.328492
6.050000	-0.360966	64.717720	-27.320037	155.540108	-27.320037	155.540108	-0.360826	64.753254
6.100000	-0.366370	62.123032	-27.206111	152.469521	-27.206111	152.469521	-0.366226	62.159444
6.150000	-0.371845	59.510017	-27.093030	149.376554	-27.093030	149.376554	-0.371697	59.547308
6.200000	-0.377393	56.878968	-26.980885	146.262035	-26.980885	146.262035	-0.377239	56.917136
6.250000	-0.383012	54.230228	-26.869768	143.126839	-26.869768	143.126839	-0.382854	54.269271
6.300000	-0.388706	51.563821	-26.759769	139.971486	-26.759769	139.971486	-0.388543	51.603734
6.350000	-0.394472	48.880576	-26.650988	136.797408	-26.650988	136.797408	-0.394304	48.921355
6.400000	-0.400311	46.180986	-26.543518	133.605633	-26.543518	133.605633	-0.400138	46.222626
6.450000	-0.406223	43.465594	-26.437448	130.397239	-26.437448	130.397239	-0.406046	43.508087
6.500000	-0.412208	40.734991	-26.332869	127.173352	-26.332869	127.173352	-0.412027	40.778329
6.550000	-0.418267	37.989815	-26.229866	123.935140	-26.229866	123.935140	-0.418082	38.033990
6.600000	-0.424400	35.230753	-26.128525	120.683815	-26.128525	120.683815	-0.424210	35.275754
6.650000	-0.430606	32.458536	-26.028927	117.420631	-26.028927	117.420631	-0.430413	32.504352
6.700000	-0.436886	29.673938	-25.931151	114.146876	-25.931151	114.146876	-0.436690	29.720557
6.750000	-0.443240	26.877776	-25.835269	110.863874	-25.835269	110.863874	-0.443040	26.925185
6.800000	-0.449668	24.070906	-25.741352	107.572979	-25.741352	107.572979	-0.449465	24.119093
6.850000	-0.456169	21.254221	-25.649464	104.275570	-25.649464	104.275570	-0.455965	21.303170
6.900000	-0.462745	18.428561	-25.559677	100.973009	-25.559677	100.973009	-0.462539	18.478258
6.950000	-0.469395	15.594918	-25.472047	97.666762	-25.472047	97.666762	-0.469187	15.645348
7.000000	-0.476119	12.754375	-25.386606	94.358313	-25.386606	94.358313	-0.475910	12.805521
7.050000	-0.482915	9.907942	-25.303395	91.049097	-25.303395	91.049097	-0.482705	9.959788
7.100000	-0.489784	7.056649	-25.222445	87.740549	-25.222445	87.740549	-0.489574	7.109178
7.150000	-0.496725	4.201540	-25.143780	84.434095	-25.143780	84.434095	-0.496516	4.254735
7.200000	-0.503738	1.343673	-25.067418	81.131154	-25.067418	81.131154	-0.503529	1.397517
7.250000	-0.510822	-1.515889	-24.993368	77.833122	-24.993368	77.833122	-0.510614	-1.461413
7.300000	-0.517977	-4.376079	-24.921631	74.541376	-24.921631	74.541376	-0.517770	-4.320989
7.350000	-0.525202	-7.235831	-24.852203	71.257261	-24.852203	71.257261	-0.524997	-7.180145
7.400000	-0.532496	-10.094086	-24.785071	67.982090	-24.785071	67.982090	-0.532292	-10.037821
7.450000	-0.539858	-12.949794	-24.720213	64.717134	-24.720213	64.717134	-0.539657	-12.892967
7.500000	-0.547288	-15.801918	-24.657602	61.463620	-24.657602	61.463620	-0.547089	-15.744548
7.550000	-0.554786	-18.649319	-24.597244	58.223028	-24.597244	58.223028	-0.554590	-18.591423
7.600000	-0.562349	-21.491080	-24.539059	54.996230	-24.539059	54.996230	-0.562156	-21.432674
7.650000	-0.569977	-24.326232	-24.483000	51.784290	-24.483000	51.784290	-0.569787	-24.267334
7.700000	-0.577669	-27.153837	-24.429015	48.588212	-24.429015	48.588212	-0.577481	-27.094463
7.750000	-0.585423	-29.972990	-24.377048	45.408937	-24.377048	45.408937	-0.585238	-29.913157
7.800000	-0.593238	-32.782821	-24.327038	42.247340	-24.327038	42.247340	-0.593056	-32.722544
7.850000	-0.601114	-35.582497	-24.278920	39.104231	-24.278920	39.104231	-0.600934	-35.521793
7.900000	-0.609048	-38.371227	-24.232625	35.980351	-24.232625	35.980351	-0.608870	-38.310112
7.950000	-0.617039	-41.148262	-24.188085	32.876372	-24.188085	32.876372	-0.616864	-41.086751
8.000000	-0.625087	-43.912899	-24.145225	29.792900	-24.145225	29.792900	-0.624914	-43.851008
8.050000	-0.633190	-46.664479	-24.103971	26.730469	-24.103971	26.730469	-0.633018	-46.602224
8.100000	-0.641345	-49.402391	-24.064250	23.689549	-24.064250	23.689549	-0.641175	-49.339786
8.150000	-0.649554	-52.125911	-24.025997	20.670784	-24.025997	20.670784	-0.649384	-52.062973
8.200000	-0.657813	-54.834509	-23.989136	17.674519	-23.989136	17.674519	-0.657643	-54.771252
8.250000	-0.666121	-57.527876	-23.953578	14.700786	-23.953578	14.700786	-0.665951	-57.464316
8.300000	-0.674476	-60.205597	-23.919248	11.749792	-23.919248	11.749792	-0.674305	-60.141751
8.350000	-0.682876	-62.867782	-23.886046	8.821020	-23.886046	8.821020	-0.682705	-62.803664
8.400000	-0.691321	-65.513113	-23.853962	5.915979	-23.853962	5.915979	-0.691148	-65.448741
8.450000	-0.699810	-68.141841	-23.822894	3.033960	-23.822894	3.033960	-0.699635	-68.077233
8.500000	-0.708339	-70.753743	-23.792775	0.174950	-23.792775	0.174950	-0.708161	-70.688916
8.550000	-0.716907	-73.348641	-23.763541	-2.661110	-23.763541	-2.661110	-0.716727	-73.283612
8.600000	-0.725513	-75.926398	-23.735132	-5.474326	-23.735132	-5.474326	-0.725330	-75.861187
8.650000	-0.734156	-78.486923	-23.707489	-8.264847	-23.707489	-8.264847	-0.733968	-78.421549
8.700000	-0.742832	-81.030164	-23.680558	-11.032859	-23.680558	-11.032859	-0.742641	-80.964648
8.750000	-0.751541	-83.556109	-23.654289	-13.778586	-23.654289	-13.778586	-0.751345	-83.490473
8.800000	-0.760282	-86.063620	-23.628666	-16.500816	-23.628666	-16.500816	-0.760082	-85.997889
8.850000	-0.769049	-88.555506	-23.603567	-19.203312	-23.603567	-19.203312	-0.768845	-88.489700
8.900000	-0.777845	-91.029211	-23.579024	-21.883050	-23.579024	-21.883050	-0.777636	-90.963358
8.950000	-0.786665	-93.486511	-23.554959	-24.542426	-23.554959	-24.542426	-0.786451	-93.420637
9.000000	-0.795508	-95.926913	-23.531355	-27.180995	-23.531355	-27.180995	-0.795290	-95.861047
9.050000	-0.804372	-98.350284	-23.508191	-29.798745	-23.508191	-29.798745	-0.804150	-98.284456
9.100000	-0.813254	-100.758113	-23.485415	-32.397628	-23.485415	-32.397628	-0.813029	-100.692354
9.150000	-0.822154	-103.148443	-23.463049	-34.975399	-23.463049	-34.975399	-0.821926	-103.082788
9.200000	-0.831068	-105.524325	-23.441022	-37.535840	-23.441022	-37.535840	-0.830837	-105.458808
9.250000	-0.839994	-107.883006	-23.419378	-40.075753	-23.419378	-40.075753	-0.839762	-107.817667
9.300000	-0.848930	-110.227488	-23.398056	-42.598798	-23.398056	-42.598798	-0.848697	-110.162363
9.350000	-0.857873	-112.556334	-23.377082	-45.103337	-23.377082	-45.103337	-0.857641	-112.491468
9.400000	-0.866822	-114.870745	-23.356438	-47.590844	-23.356438	-47.590844	-0.866592	-114.806182
9.450000	-0.875772	-117.171076	-23.336125	-50.061775	-23.336125	-50.061775	-0.875546	-117.106861
9.500000	-0.884723	-119.456879	-23.316161	-52.515630	-23.316161	-52.515630	-0.884502	-119.393064
9.550000	-0.893671	-121.730122	-23.296522	-54.954730	-23.296522	-54.954730	-0.893457	-121.666755
9.600000	-0.902611	-123.988885	-23.277269	-57.376814	-23.277269	-57.376814	-0.902408	-123.926026
9.650000	-0.911545	-126.236077	-23.258357	-59.785282	-23.258357	-59.785282	-0.911354	-126.173778
9.700000	-0.920465	-128.469927	-23.239859	-62.178007	-23.239859	-62.178007	-0.920289	-128.408252
9.750000	-0.929371	-130.692495	-23.221748	-64.557373	-23.221748	-64.557373	-0.929213	-130.631505
9.800000	-0.938259	-132.903296	-23.204075	-66.922727	-23.204075	-66.922727	-0.938122	-132.843058
9.850000	-0.947125	-135.102972	-23.186858	-69.274751	-23.186858	-69.274751	-0.947012	-135.043557
9.900000	-0.955967	-137.292372	-23.170107	-71.614353	-23.170107	-71.614353	-0.955883	-137.233848
9.950000	-0.964778	-139.470923	-23.153897	-73.940707	-23.153897	-73.940707	-0.964727	-139.413371
10.000000	-0.973561	-141.640592	-23.138184	-76.256084	-23.138184	-76.256084	-0.973547	-141.584085
