! freq	dB(S11)	phase(S11)	dB(S12)	phase(S12)	
!     	dB(S21)	phase(S21)	dB(S22)	phase(S22)	
!S-par simulation data
#  GHz  S  DB  R 50
0.000000	-0.000000	0.000000	-332.733691	0.000000	-332.733691	0.000000	-0.000000	0.000000
0.050000	-0.000097	-1.030757	-78.888786	-141.042943	-78.888786	-141.042943	-0.000129	-1.276947
0.100000	-0.000384	-2.061312	-76.814924	-165.906748	-76.814924	-165.906748	-0.000513	-2.553608
0.150000	-0.000856	-3.091475	-76.290401	179.535295	-76.290401	179.535295	-0.001143	-3.829709
0.200000	-0.001502	-4.121070	-76.096779	168.831467	-76.096779	168.831467	-0.002001	-5.105006
0.250000	-0.002318	-5.149886	-76.020384	160.057750	-76.020384	160.057750	-0.003082	-6.379204
0.300000	-0.003275	-6.177846	-75.993282	152.282788	-75.993282	152.282788	-0.004344	-7.652202
0.350000	-0.004365	-7.204793	-76.000820	145.244089	-76.000820	145.244089	-0.005773	-8.923790
0.400000	-0.005571	-8.230621	-76.036363	138.766453	-76.036363	138.766453	-0.007346	-10.193832
0.450000	-0.006875	-9.255244	-76.098587	132.756368	-76.098587	132.756368	-0.009036	-11.462221
0.500000	-0.008261	-10.278592	-76.188513	127.161178	-76.188513	127.161178	-0.010821	-12.728875
0.550000	-0.009713	-11.300613	-76.308330	121.950588	-76.308330	121.950588	-0.012680	-13.993741
0.600000	-0.011217	-12.321272	-76.460897	117.107874	-76.460897	117.107874	-0.014592	-15.256780
0.650000	-0.012758	-13.340543	-76.649536	112.625771	-76.649536	112.625771	-0.016539	-16.517974
0.700000	-0.014325	-14.358412	-76.877983	108.504861	-76.877983	108.504861	-0.018506	-17.777314
0.750000	-0.015907	-15.374869	-77.150405	104.753524	-77.150405	104.753524	-0.020481	-19.034800
0.800000	-0.017495	-16.389912	-77.471467	101.389067	-77.471467	101.389067	-0.022453	-20.290437
0.850000	-0.019082	-17.403541	-77.846404	98.440029	-77.846404	98.440029	-0.024414	-21.544232
0.900000	-0.020663	-18.415758	-78.281077	95.949925	-78.281077	95.949925	-0.026356	-22.796193
0.950000	-0.022232	-19.426565	-78.781933	93.982954	-78.781933	93.982954	-0.028276	-24.046328
1.000000	-0.023785	-20.435964	-79.355751	92.632565	-79.355751	92.632565	-0.030171	-25.294641
1.050000	-0.025321	-21.443953	-80.008857	92.034111	-80.008857	92.034111	-0.032037	-26.541134
1.100000	-0.026837	-22.450532	-80.745223	92.382921	-80.745223	92.382921	-0.033874	-27.785807
1.150000	-0.028332	-23.455696	-81.562121	93.957815	-81.562121	93.957815	-0.035682	-29.028655
1.200000	-0.029806	-24.459439	-82.440897	97.143978	-82.440897	97.143978	-0.037461	-30.269669
1.250000	-0.031259	-25.461751	-83.329055	102.429034	-83.329055	102.429034	-0.039212	-31.508840
1.300000	-0.032690	-26.462558	-84.096479	110.405500	-84.096479	110.405500	-0.040935	-32.746072
1.350000	-0.034102	-27.461909	-84.547694	120.959995	-84.547694	120.959995	-0.042633	-33.981428
1.400000	-0.035494	-28.459787	-84.476101	133.034087	-84.476101	133.034087	-0.044308	-35.214891
1.450000	-0.036869	-29.456176	-83.823726	144.741505	-83.823726	144.741505	-0.045961	-36.446438
1.500000	-0.038227	-30.451055	-82.733169	154.539540	-82.733169	154.539540	-0.047595	-37.676049
1.550000	-0.039569	-31.444404	-81.418313	161.909717	-81.418313	161.909717	-0.049211	-38.903701
1.600000	-0.040898	-32.436201	-80.042484	167.073271	-80.042484	167.073271	-0.050812	-40.129370
1.650000	-0.042213	-33.426423	-78.695067	170.503244	-78.695067	170.503244	-0.052399	-41.353032
1.700000	-0.043518	-34.415048	-77.414566	172.652332	-77.414566	172.652332	-0.053974	-42.574662
1.750000	-0.044812	-35.402049	-76.212693	173.872893	-76.212693	173.872893	-0.055540	-43.794238
1.800000	-0.046098	-36.387404	-75.088947	174.419618	-75.088947	174.419618	-0.057096	-45.011734
1.850000	-0.047376	-37.371086	-74.037936	174.472516	-74.037936	174.472516	-0.058647	-46.227128
1.900000	-0.048648	-38.353071	-73.052754	174.158806	-73.052754	174.158806	-0.060192	-47.440398
1.950000	-0.049914	-39.333335	-72.126444	173.569251	-72.126444	173.569251	-0.061733	-48.651523
2.000000	-0.051177	-40.311851	-71.252576	172.769473	-71.252576	172.769473	-0.063272	-49.860481
2.050000	-0.052437	-41.288595	-70.425431	171.807594	-70.425431	171.807594	-0.064811	-51.067254
2.100000	-0.053695	-42.263544	-69.640006	170.719393	-69.640006	170.719393	-0.066349	-52.271824
2.150000	-0.054952	-43.236673	-68.891960	169.531820	-68.891960	169.531820	-0.067889	-53.474175
2.200000	-0.056209	-44.207958	-68.177533	168.265411	-68.177533	168.265411	-0.069431	-54.674292
2.250000	-0.057466	-45.177378	-67.493469	166.935982	-67.493469	166.935982	-0.070977	-55.872161
2.300000	-0.058726	-46.144909	-66.836937	165.555823	-66.836937	165.555823	-0.072528	-57.067771
2.350000	-0.059988	-47.110530	-66.205474	164.134563	-66.205474	164.134563	-0.074084	-58.261113
2.400000	-0.061253	-48.074221	-65.596923	162.679797	-65.596923	162.679797	-0.075647	-59.452177
2.450000	-0.062522	-49.035961	-65.009392	161.197554	-65.009392	161.197554	-0.077217	-60.640959
2.500000	-0.063796	-49.995732	-64.441214	159.692637	-64.441214	159.692637	-0.078795	-61.827453
2.550000	-0.065075	-50.953427	-63.890164	158.168217	-63.890164	158.168217	-0.080382	-63.011557
2.600000	-0.066360	-51.909115	-63.355753	156.628274	-63.355753	156.628274	-0.081979	-64.193370
2.650000	-0.067652	-52.862780	-62.836807	155.075223	-62.836807	155.075223	-0.083586	-65.372893
2.700000	-0.068951	-53.814405	-62.332278	153.511015	-62.332278	153.511015	-0.085204	-66.550131
2.750000	-0.070257	-54.763977	-61.841228	151.937221	-61.841228	151.937221	-0.086834	-67.725089
2.800000	-0.071572	-55.711482	-61.362812	150.355110	-61.362812	150.355110	-0.088476	-68.897773
2.850000	-0.072896	-56.656907	-60.896273	148.765701	-60.896273	148.765701	-0.090132	-70.068193
2.900000	-0.074229	-57.600240	-60.440925	147.169813	-60.440925	147.169813	-0.091800	-71.236361
2.950000	-0.075571	-58.541470	-59.996147	145.568099	-59.996147	145.568099	-0.093483	-72.402288
3.000000	-0.076924	-59.480588	-59.561376	143.961078	-59.561376	143.961078	-0.095180	-73.565991
3.050000	-0.078288	-60.417585	-59.136102	142.349160	-59.136102	142.349160	-0.096893	-74.727486
3.100000	-0.079663	-61.352453	-58.719860	140.732668	-58.719860	140.732668	-0.098622	-75.886792
3.150000	-0.081050	-62.285186	-58.312224	139.111850	-58.312224	139.111850	-0.100367	-77.043931
3.200000	-0.082448	-63.215777	-57.912808	137.486899	-57.912808	137.486899	-0.102129	-78.198923
3.250000	-0.083860	-64.144222	-57.521258	135.857962	-57.521258	135.857962	-0.103909	-79.351795
3.300000	-0.085284	-65.070516	-57.137249	134.225148	-57.137249	134.225148	-0.105707	-80.502573
3.350000	-0.086723	-65.994658	-56.760483	132.588539	-56.760483	132.588539	-0.107523	-81.651285
3.400000	-0.088175	-66.916644	-56.390688	130.948199	-56.390688	130.948199	-0.109359	-82.797961
3.450000	-0.089642	-67.836474	-56.027613	129.304173	-56.027613	129.304173	-0.111215	-83.942632
3.500000	-0.091123	-68.754149	-55.671027	127.656498	-55.671027	127.656498	-0.113091	-85.085334
3.550000	-0.092620	-69.669668	-55.320716	126.005206	-55.320716	126.005206	-0.114988	-86.226102
3.600000	-0.094133	-70.583034	-54.976485	124.350326	-54.976485	124.350326	-0.116907	-87.364972
3.650000	-0.095663	-71.494249	-54.638152	122.691887	-54.638152	122.691887	-0.118848	-88.501984
3.700000	-0.097209	-72.403318	-54.305551	121.029922	-54.305551	121.029922	-0.120811	-89.637179
3.750000	-0.098773	-73.310245	-53.978524	119.364469	-53.978524	119.364469	-0.122798	-90.770600
3.800000	-0.100355	-74.214943	-53.656650	117.695428	-53.656650	117.695428	-0.124810	-91.902218
3.850000	-0.101955	-75.117512	-53.340096	116.023003	-53.340096	116.023003	-0.126846	-93.032156
3.900000	-0.103574	-76.017959	-53.028737	114.347260	-53.028737	114.347260	-0.128908	-94.160463
3.950000	-0.105213	-76.916293	-52.722455	112.668275	-52.722455	112.668275	-0.130996	-95.287188
4.000000	-0.106871	-77.812522	-52.421140	110.986132	-52.421140	110.986132	-0.133109	-96.412382
4.050000	-0.108550	-78.706658	-52.124689	109.300930	-52.124689	109.300930	-0.135250	-97.536098
4.100000	-0.110249	-79.598710	-51.833006	107.612777	-51.833006	107.612777	-0.137419	-98.658392
4.150000	-0.111970	-80.488690	-51.545999	105.921794	-51.545999	105.921794	-0.139616	-99.779319
4.200000	-0.113713	-81.376612	-51.263581	104.228112	-51.263581	104.228112	-0.141841	-100.898937
4.250000	-0.115477	-82.262488	-50.985669	102.531874	-50.985669	102.531874	-0.144097	-102.017306
4.300000	-0.117265	-83.146333	-50.712184	100.833232	-50.712184	100.833232	-0.146382	-103.134486
4.350000	-0.119076	-84.028161	-50.443050	99.132350	-50.443050	99.132350	-0.148698	-104.250540
4.400000	-0.120910	-84.907988	-50.178195	97.429399	-50.178195	97.429399	-0.151046	-105.365533
4.450000	-0.122769	-85.785831	-49.917546	95.724560	-49.917546	95.724560	-0.153425	-106.479529
4.500000	-0.124653	-86.661707	-49.661036	94.018020	-49.661036	94.018020	-0.155838	-107.592597
4.550000	-0.126562	-87.535633	-49.408596	92.309973	-49.408596	92.309973	-0.158283	-108.704804
4.600000	-0.128498	-88.407629	-49.160161	90.600620	-49.160161	90.600620	-0.160763	-109.816222
4.650000	-0.130459	-89.277713	-48.915667	88.890162	-48.915667	88.890162	-0.163277	-110.926922
4.700000	-0.132447	-90.145907	-48.675048	87.178808	-48.675048	87.178808	-0.165826	-112.036977
4.750000	-0.134463	-91.012230	-48.438241	85.466766	-48.438241	85.466766	-0.168412	-113.146462
4.800000	-0.136507	-91.876703	-48.205183	83.754244	-48.205183	83.754244	-0.171033	-114.255454
4.850000	-0.138579	-92.739350	-47.975811	82.041451	-47.975811	82.041451	-0.173692	-115.364030
4.900000	-0.140680	-93.600192	-47.750063	80.328593	-47.750063	80.328593	-0.176389	-116.472270
4.950000	-0.142810	-94.459253	-47.527875	78.615872	-47.527875	78.615872	-0.179123	-117.580254
5.000000	-0.144970	-95.316557	-47.309185	76.903489	-47.309185	76.903489	-0.181897	-118.688065
5.050000	-0.147163	-96.172055	-47.093848	75.191667	-47.093848	75.191667	-0.184712	-119.795786
5.100000	-0.149386	-97.025847	-46.881892	73.480575	-46.881892	73.480575	-0.187566	-120.903512
5.150000	-0.151640	-97.877961	-46.673252	71.770391	-46.673252	71.770391	-0.190462	-122.011328
5.200000	-0.153927	-98.728422	-46.467865	70.061282	-46.467865	70.061282	-0.193398	-123.119324
5.250000	-0.156246	-99.577257	-46.265666	68.353403	-46.265666	68.353403	-0.196377	-124.227589
5.300000	-0.158598	-100.424495	-46.066592	66.646901	-46.066592	66.646901	-0.199398	-125.336215
5.350000	-0.160984	-101.270163	-45.870579	64.941908	-45.870579	64.941908	-0.202461	-126.445295
5.400000	-0.163403	-102.114290	-45.677562	63.238544	-45.677562	63.238544	-0.205568	-127.554923
5.450000	-0.165857	-102.956905	-45.487479	61.536916	-45.487479	61.536916	-0.208718	-128.665196
5.500000	-0.168346	-103.798038	-45.300265	59.837116	-45.300265	59.837116	-0.211913	-129.776211
5.550000	-0.170870	-104.637719	-45.115860	58.139223	-45.115860	58.139223	-0.215153	-130.888067
5.600000	-0.173430	-105.475980	-44.934200	56.443299	-44.934200	56.443299	-0.218437	-132.000865
5.650000	-0.176026	-106.312851	-44.755224	54.749391	-44.755224	54.749391	-0.221768	-133.114708
5.700000	-0.178659	-107.148364	-44.578873	53.057533	-44.578873	53.057533	-0.225144	-134.229698
5.750000	-0.181329	-107.982552	-44.405088	51.367739	-44.405088	51.367739	-0.228567	-135.345942
5.800000	-0.184037	-108.815448	-44.233809	49.680013	-44.233809	49.680013	-0.232036	-136.463546
5.850000	-0.186783	-109.647085	-44.064982	47.994340	-44.064982	47.994340	-0.235553	-137.582620
5.900000	-0.189567	-110.477496	-43.898551	46.310692	-43.898551	46.310692	-0.239116	-138.703272
5.950000	-0.192390	-111.306716	-43.734462	44.629026	-43.734462	44.629026	-0.242728	-139.825615
6.000000	-0.195253	-112.134781	-43.572665	42.949283	-43.572665	42.949283	-0.246388	-140.949762
6.050000	-0.198155	-112.961724	-43.413109	41.271394	-43.413109	41.271394	-0.250095	-142.075828
6.100000	-0.201097	-113.787583	-43.255748	39.595276	-43.255748	39.595276	-0.253851	-143.203930
6.150000	-0.204080	-114.612392	-43.100535	37.920832	-43.100535	37.920832	-0.257656	-144.334187
6.200000	-0.207104	-115.436190	-42.947429	36.247957	-42.947429	36.247957	-0.261510	-145.466718
6.250000	-0.210169	-116.259012	-42.796389	34.576533	-42.796389	34.576533	-0.265412	-146.601645
6.300000	-0.213278	-117.080859	-42.647353	32.906486	-42.647353	32.906486	-0.269366	-147.739207
6.350000	-0.216429	-117.901809	-42.500313	31.237617	-42.500313	31.237617	-0.273369	-148.879425
6.400000	-0.219623	-118.721903	-42.355235	29.569785	-42.355235	29.569785	-0.277421	-150.022427
6.450000	-0.222859	-119.541179	-42.212091	27.902842	-42.212091	27.902842	-0.281522	-151.168341
6.500000	-0.226139	-120.359677	-42.070853	26.236636	-42.070853	26.236636	-0.285672	-152.317298
6.550000	-0.229463	-121.177436	-41.931498	24.571013	-41.931498	24.571013	-0.289872	-153.469430
6.600000	-0.232830	-121.994498	-41.794003	22.905817	-41.794003	22.905817	-0.294120	-154.624872
6.650000	-0.236242	-122.810904	-41.658350	21.240891	-41.658350	21.240891	-0.298418	-155.783759
6.700000	-0.239699	-123.626695	-41.524525	19.576080	-41.524525	19.576080	-0.302765	-156.946229
6.750000	-0.243201	-124.441913	-41.392513	17.911231	-41.392513	17.911231	-0.307160	-158.112422
6.800000	-0.246748	-125.256601	-41.262305	16.246196	-41.262305	16.246196	-0.311603	-159.282479
6.850000	-0.250342	-126.070802	-41.133893	14.580830	-41.133893	14.580830	-0.316095	-160.456544
6.900000	-0.253981	-126.884559	-41.007272	12.914998	-41.007272	12.914998	-0.320635	-161.634762
6.950000	-0.257667	-127.697917	-40.882439	11.248570	-40.882439	11.248570	-0.325223	-162.817278
7.000000	-0.261400	-128.510920	-40.759394	9.581428	-40.759394	9.581428	-0.329858	-164.004243
7.050000	-0.265180	-129.323614	-40.638138	7.913461	-40.638138	7.913461	-0.334540	-165.195806
7.100000	-0.269008	-130.136043	-40.518675	6.244574	-40.518675	6.244574	-0.339268	-166.392120
7.150000	-0.272883	-130.948255	-40.401010	4.574680	-40.401010	4.574680	-0.344043	-167.593339
7.200000	-0.276807	-131.760296	-40.285148	2.903708	-40.285148	2.903708	-0.348864	-168.799619
7.250000	-0.280779	-132.572214	-40.171099	1.231601	-40.171099	1.231601	-0.353730	-170.011117
7.300000	-0.284800	-133.384056	-40.058870	-0.441684	-40.058870	-0.441684	-0.358640	-171.227995
7.350000	-0.288870	-134.195872	-39.948470	-2.116173	-39.948470	-2.116173	-0.363595	-172.450411
7.400000	-0.292990	-135.007709	-39.839909	-3.791878	-39.839909	-3.791878	-0.368594	-173.678531
7.450000	-0.297160	-135.819619	-39.733197	-5.468797	-39.733197	-5.468797	-0.373635	-174.912518
7.500000	-0.301379	-136.631652	-39.628343	-7.146909	-39.628343	-7.146909	-0.378719	-176.152539
7.550000	-0.305652	-137.443868	-39.525385	-8.826228	-39.525385	-8.826228	-0.383847	-177.399041
7.600000	-0.309975	-138.256314	-39.424307	-10.506653	-39.424307	-10.506653	-0.389015	-178.651930
7.650000	-0.314349	-139.069042	-39.325114	-12.188120	-39.325114	-12.188120	-0.394224	-179.911379
7.700000	-0.318775	-139.882106	-39.227811	-13.870553	-39.227811	-13.870553	-0.399473	178.822439
7.750000	-0.323252	-140.695559	-39.132401	-15.553867	-39.132401	-15.553867	-0.404761	177.549350
7.800000	-0.327782	-141.509457	-39.038885	-17.237967	-39.038885	-17.237967	-0.410087	176.269177
7.850000	-0.332364	-142.323854	-38.947260	-18.922753	-38.947260	-18.922753	-0.415451	174.981742
7.900000	-0.336999	-143.138806	-38.857524	-20.608119	-38.857524	-20.608119	-0.420852	173.686867
7.950000	-0.341687	-143.954370	-38.769668	-22.293959	-38.769668	-22.293959	-0.426290	172.384372
8.000000	-0.346428	-144.770603	-38.683683	-23.980166	-38.683683	-23.980166	-0.431763	171.074074
8.050000	-0.351223	-145.587565	-38.599555	-25.666640	-38.599555	-25.666640	-0.437271	169.755791
8.100000	-0.356072	-146.405314	-38.517268	-27.353286	-38.517268	-27.353286	-0.442813	168.429341
8.150000	-0.360976	-147.223910	-38.436803	-29.040020	-38.436803	-29.040020	-0.448389	167.094538
8.200000	-0.365934	-148.043413	-38.358137	-30.726773	-38.358137	-30.726773	-0.453999	165.751197
8.250000	-0.370947	-148.863887	-38.281245	-32.413494	-38.281245	-32.413494	-0.459641	164.399133
8.300000	-0.376016	-149.685392	-38.206099	-34.100153	-38.206099	-34.100153	-0.465315	163.038158
8.350000	-0.381140	-150.507993	-38.132669	-35.786744	-38.132669	-35.786744	-0.471021	161.668086
8.400000	-0.386321	-151.331754	-38.060922	-37.473292	-38.060922	-37.473292	-0.476759	160.288729
8.450000	-0.391558	-152.156741	-37.990823	-39.159850	-37.990823	-39.159850	-0.482528	158.899900
8.500000	-0.396851	-152.983019	-37.922338	-40.846511	-37.922338	-40.846511	-0.488328	157.501411
8.550000	-0.402202	-153.810656	-37.855430	-42.533404	-37.855430	-42.533404	-0.494159	156.093075
8.600000	-0.407611	-154.639721	-37.790063	-44.220698	-37.790063	-44.220698	-0.500021	154.674704
8.650000	-0.413077	-155.470282	-37.726201	-45.908608	-37.726201	-45.908608	-0.505915	153.246111
8.700000	-0.418602	-156.302410	-37.663812	-47.597392	-37.663812	-47.597392	-0.511839	151.807111
8.750000	-0.424185	-157.136177	-37.602863	-49.287357	-37.602863	-49.287357	-0.517796	150.357517
8.800000	-0.429830	-157.971734	-37.543369	-50.978944	-37.543369	-50.978944	-0.523787	148.896668
8.850000	-0.435534	-158.809081	-37.485264	-52.672509	-37.485264	-52.672509	-0.529811	147.424842
8.900000	-0.441299	-159.648296	-37.428529	-54.368510	-37.428529	-54.368510	-0.535869	145.941856
8.950000	-0.447124	-160.489454	-37.373155	-56.067450	-37.373155	-56.067450	-0.541964	144.447530
9.000000	-0.453009	-161.332632	-37.319137	-57.769877	-37.319137	-57.769877	-0.548095	142.941685
9.050000	-0.458956	-162.177910	-37.266482	-59.476378	-37.266482	-59.476378	-0.554265	141.424146
9.100000	-0.464964	-163.025366	-37.215204	-61.187578	-37.215204	-61.187578	-0.560475	139.894737
9.150000	-0.471035	-163.875083	-37.165332	-62.904134	-37.165332	-62.904134	-0.566729	138.353287
9.200000	-0.477168	-164.727143	-37.116904	-64.626729	-37.116904	-64.626729	-0.573027	136.799625
9.250000	-0.483365	-165.581629	-37.069972	-66.356064	-37.069972	-66.356064	-0.579373	135.233585
9.300000	-0.489625	-166.438628	-37.024603	-68.092848	-37.024603	-68.092848	-0.585771	133.655003
9.350000	-0.495949	-167.298225	-36.980879	-69.837792	-36.980879	-69.837792	-0.592222	132.063718
9.400000	-0.502338	-168.160510	-36.938898	-71.591597	-36.938898	-71.591597	-0.598731	130.459572
9.450000	-0.508793	-169.025570	-36.898774	-73.354939	-36.898774	-73.354939	-0.605301	128.842409
9.500000	-0.515313	-169.893498	-36.860638	-75.128461	-36.860638	-75.128461	-0.611937	127.212080
9.550000	-0.521900	-170.764386	-36.824639	-76.912755	-36.824639	-76.912755	-0.618643	125.568435
9.600000	-0.528554	-171.638328	-36.790941	-78.708350	-36.790941	-78.708350	-0.625424	123.911331
9.650000	-0.535275	-172.515420	-36.759728	-80.515692	-36.759728	-80.515692	-0.632285	122.240628
9.700000	-0.542065	-173.395759	-36.731196	-82.335135	-36.731196	-82.335135	-0.639230	120.556187
9.750000	-0.548924	-174.279444	-36.705561	-84.166919	-36.705561	-84.166919	-0.646266	118.857876
9.800000	-0.555853	-175.166575	-36.683049	-86.011153	-36.683049	-86.011153	-0.653397	117.145564
9.850000	-0.562852	-176.057255	-36.663901	-87.867806	-36.663901	-87.867806	-0.660629	115.419124
9.900000	-0.569923	-176.951588	-36.648364	-89.736684	-36.648364	-89.736684	-0.667968	113.678432
9.950000	-0.577066	-177.849679	-36.636698	-91.617423	-36.636698	-91.617423	-0.675418	111.923369
10.000000	-0.584281	-178.751636	-36.629164	-93.509470	-36.629164	-93.509470	-0.682985	110.153815
