! freq	dB(S11)	phase(S11)	dB(S12)	phase(S12)	
!     	dB(S21)	phase(S21)	dB(S22)	phase(S22)	
!S-par simulation data
#  GHz  S  DB  R 50
0.000000	-0.000000	0.000000	-330.870382	0.000000	-330.870382	0.000000	-0.000000	0.000000
0.050000	-0.002369	-3.888890	-73.511625	86.798580	-73.511625	86.798580	-0.001483	-2.488173
0.100000	-0.008335	-7.759884	-67.515252	83.632913	-67.515252	83.632913	-0.005256	-4.966874
0.150000	-0.015775	-11.605442	-64.029157	80.495908	-64.029157	80.495908	-0.010033	-7.432485
0.200000	-0.023137	-15.428170	-61.575419	77.375779	-61.575419	77.375779	-0.014821	-9.887143
0.250000	-0.029790	-19.230242	-59.693359	74.270870	-59.693359	74.270870	-0.019188	-12.333048
0.300000	-0.035623	-23.012811	-58.177648	71.183228	-58.177648	71.183228	-0.023039	-14.771851
0.350000	-0.040769	-26.776022	-56.917299	68.115307	-56.917299	68.115307	-0.026450	-17.204349
0.400000	-0.045367	-30.518095	-55.846930	65.070464	-55.846930	65.070464	-0.029515	-19.630312
0.450000	-0.049531	-34.235652	-54.925626	62.053240	-54.925626	62.053240	-0.032319	-22.048801
0.500000	-0.053387	-37.927440	-54.122582	59.065443	-54.122582	59.065443	-0.034950	-24.459393
0.550000	-0.057009	-41.591134	-53.417032	56.109964	-53.417032	56.109964	-0.037463	-26.861270
0.600000	-0.060446	-45.223002	-52.795020	53.191349	-52.795020	53.191349	-0.039899	-29.253118
0.650000	-0.063747	-48.822035	-52.243568	50.311082	-52.243568	50.311082	-0.042291	-31.634444
0.700000	-0.066941	-52.386762	-51.753141	47.471282	-51.753141	47.471282	-0.044658	-34.004590
0.750000	-0.070045	-55.914445	-51.317254	44.675722	-51.317254	44.675722	-0.047016	-36.362447
0.800000	-0.073072	-59.403713	-50.929763	41.926738	-50.929763	41.926738	-0.049374	-38.707326
0.850000	-0.076034	-62.854796	-50.584671	39.224842	-50.584671	39.224842	-0.051735	-41.039064
0.900000	-0.078930	-66.265077	-50.278926	36.574244	-50.278926	36.574244	-0.054102	-43.356496
0.950000	-0.081765	-69.634219	-50.008633	33.976538	-50.008633	33.976538	-0.056475	-45.659215
1.000000	-0.084536	-72.961359	-49.770866	31.434183	-49.770866	31.434183	-0.058853	-47.946607
1.050000	-0.087243	-76.246388	-49.562770	28.948860	-49.562770	28.948860	-0.061232	-50.218311
1.100000	-0.089884	-79.489026	-49.382023	26.522667	-49.382023	26.522667	-0.063610	-52.473891
1.150000	-0.092455	-82.688686	-49.226798	24.158404	-49.226798	24.158404	-0.065982	-54.712770
1.200000	-0.094956	-85.846542	-49.094681	21.856480	-49.094681	21.856480	-0.068344	-56.935050
1.250000	-0.097383	-88.962047	-48.984371	19.620064	-48.984371	19.620064	-0.070692	-59.140150
1.300000	-0.099732	-92.034561	-48.894750	17.452892	-48.894750	17.452892	-0.073021	-61.327406
1.350000	-0.102003	-95.065388	-48.823986	15.355814	-48.823986	15.355814	-0.075329	-63.496959
1.400000	-0.104195	-98.055007	-48.770781	13.331169	-48.770781	13.331169	-0.077610	-65.648610
1.450000	-0.106308	-101.003984	-48.733912	11.381364	-48.733912	11.381364	-0.079861	-67.782193
1.500000	-0.108341	-103.912960	-48.712214	9.508875	-48.712214	9.508875	-0.082081	-69.897579
1.550000	-0.110294	-106.782645	-48.704562	7.716238	-48.704562	7.716238	-0.084264	-71.994670
1.600000	-0.112170	-109.613805	-48.709855	6.006044	-48.709855	6.006044	-0.086410	-74.073397
1.650000	-0.113969	-112.407255	-48.727006	4.380914	-48.727006	4.380914	-0.088517	-76.133721
1.700000	-0.115694	-115.163854	-48.754922	2.843479	-48.754922	2.843479	-0.090582	-78.175633
1.750000	-0.117347	-117.884492	-48.792498	1.396341	-48.792498	1.396341	-0.092604	-80.199146
1.800000	-0.118932	-120.570090	-48.838602	0.042025	-48.838602	0.042025	-0.094584	-82.204301
1.850000	-0.120451	-123.221589	-48.892066	-1.217072	-48.892066	-1.217072	-0.096519	-84.191160
1.900000	-0.121909	-125.839597	-48.951722	-2.377681	-48.951722	-2.377681	-0.098410	-86.159611
1.950000	-0.123308	-128.425117	-49.016254	-3.437846	-49.016254	-3.437846	-0.100257	-88.109764
2.000000	-0.124655	-130.979483	-49.084271	-4.397145	-49.084271	-4.397145	-0.102061	-90.041941
2.050000	-0.125953	-133.503674	-49.154382	-5.254605	-49.154382	-5.254605	-0.103822	-91.956285
2.100000	-0.127206	-135.998668	-49.225137	-6.009888	-49.225137	-6.009888	-0.105543	-93.852954
2.150000	-0.128420	-138.465437	-49.295031	-6.663420	-49.295031	-6.663420	-0.107223	-95.732122
2.200000	-0.129599	-140.904946	-49.362515	-7.216529	-49.362515	-7.216529	-0.108864	-97.593976
2.250000	-0.130747	-143.318153	-49.426013	-7.671572	-49.426013	-7.671572	-0.110470	-99.438715
2.300000	-0.131869	-145.706003	-49.483939	-8.032053	-49.483939	-8.032053	-0.112040	-101.266550
2.350000	-0.132970	-148.069429	-49.534729	-8.302717	-49.534729	-8.302717	-0.113577	-103.077702
2.400000	-0.134053	-150.409348	-49.576867	-8.489613	-49.576867	-8.489613	-0.115084	-104.872401
2.450000	-0.135123	-152.726663	-49.608926	-8.600105	-49.608926	-8.600105	-0.116562	-106.650887
2.500000	-0.136184	-155.022260	-49.629604	-8.642835	-49.629604	-8.642835	-0.118014	-108.413404
2.550000	-0.137239	-157.296573	-49.637467	-8.626620	-49.637467	-8.626620	-0.119441	-110.159872
2.600000	-0.138293	-159.550924	-49.631838	-8.563841	-49.631838	-8.563841	-0.120848	-111.890894
2.650000	-0.139349	-161.786141	-49.612021	-8.466176	-49.612021	-8.466176	-0.122235	-113.606736
2.700000	-0.140409	-164.003038	-49.577573	-8.345802	-49.577573	-8.345802	-0.123607	-115.307664
2.750000	-0.141478	-166.202404	-49.528319	-8.215089	-49.528319	-8.215089	-0.124964	-116.993951
2.800000	-0.142557	-168.385012	-49.464347	-8.086287	-49.464347	-8.086287	-0.126310	-118.665871
2.850000	-0.143649	-170.551614	-49.386004	-7.971209	-49.386004	-7.971209	-0.127648	-120.323700
2.900000	-0.144757	-172.702944	-49.293870	-7.880953	-49.293870	-7.880953	-0.128978	-121.967718
2.950000	-0.145883	-174.839714	-49.188733	-7.825662	-49.188733	-7.825662	-0.130305	-123.598204
3.000000	-0.147028	-176.962619	-49.071551	-7.814339	-49.071551	-7.814339	-0.131629	-125.215440
3.050000	-0.148194	-179.072334	-48.943415	-7.854726	-48.943415	-7.854726	-0.132955	-126.819706
3.100000	-0.149382	178.830486	-48.805506	-7.953242	-48.805506	-7.953242	-0.134282	-128.411285
3.150000	-0.150595	176.745327	-48.658953	-8.115714	-48.658953	-8.115714	-0.135615	-129.990325
3.200000	-0.151833	174.671549	-48.505045	-8.346040	-48.505045	-8.346040	-0.136955	-131.557117
3.250000	-0.153097	172.608425	-48.345144	-8.646071	-48.345144	-8.646071	-0.138304	-133.112076
3.300000	-0.154387	170.555375	-48.180453	-9.017271	-48.180453	-9.017271	-0.139663	-134.655480
3.350000	-0.155704	168.511837	-48.012121	-9.460160	-48.012121	-9.460160	-0.141036	-136.187607
3.400000	-0.157049	166.477265	-47.841225	-9.974450	-47.841225	-9.974450	-0.142423	-137.708731
3.450000	-0.158422	164.451134	-47.668760	-10.559176	-47.668760	-10.559176	-0.143826	-139.219127
3.500000	-0.159822	162.432931	-47.495639	-11.212828	-47.495639	-11.212828	-0.145247	-140.719067
3.550000	-0.161251	160.422165	-47.322688	-11.933463	-47.322688	-11.933463	-0.146688	-142.208820
3.600000	-0.162707	158.418358	-47.150647	-12.718819	-47.150647	-12.718819	-0.148149	-143.688654
3.650000	-0.164192	156.421051	-46.980175	-13.566399	-46.980175	-13.566399	-0.149633	-145.158834
3.700000	-0.165703	154.429799	-46.811852	-14.473555	-46.811852	-14.473555	-0.151140	-146.619622
3.750000	-0.167242	152.444175	-46.646189	-15.437552	-46.646189	-15.437552	-0.152672	-148.071279
3.800000	-0.168808	150.463870	-46.483640	-16.456735	-46.483640	-16.456735	-0.154230	-149.513874
3.850000	-0.170400	148.488366	-46.324597	-17.527114	-46.324597	-17.527114	-0.155816	-150.947863
3.900000	-0.172018	146.517284	-46.169389	-18.645986	-46.169389	-18.645986	-0.157429	-152.373496
3.950000	-0.173661	144.550258	-46.018294	-19.810721	-46.018294	-19.810721	-0.159072	-153.791022
4.000000	-0.175329	142.586937	-45.871549	-21.018783	-45.871549	-21.018783	-0.160744	-155.200689
4.050000	-0.177021	140.626988	-45.729357	-22.267740	-45.729357	-22.267740	-0.162446	-156.602740
4.100000	-0.178736	138.670090	-45.591886	-23.555280	-45.591886	-23.555280	-0.164180	-157.997416
4.150000	-0.180473	136.715936	-45.459279	-24.879207	-45.459279	-24.879207	-0.165944	-159.384955
4.200000	-0.182232	134.764236	-45.331656	-26.237452	-45.331656	-26.237452	-0.167741	-160.765593
4.250000	-0.184013	132.814712	-45.209114	-27.628066	-45.209114	-27.628066	-0.169570	-162.139563
4.300000	-0.185814	130.867102	-45.091739	-29.049224	-45.091739	-29.049224	-0.171431	-163.507095
4.350000	-0.187635	128.921156	-44.979599	-30.499219	-44.979599	-30.499219	-0.173324	-164.868415
4.400000	-0.189475	126.976654	-44.872799	-31.976737	-44.872799	-31.976737	-0.175249	-166.223686
4.450000	-0.191334	125.033366	-44.771394	-33.480251	-44.771394	-33.480251	-0.177206	-167.573136
4.500000	-0.193211	123.091072	-44.675385	-35.008093	-44.675385	-35.008093	-0.179195	-168.917049
4.550000	-0.195105	121.149579	-44.584810	-36.558993	-44.584810	-36.558993	-0.181213	-170.255640
4.600000	-0.197016	119.208708	-44.499705	-38.131775	-44.499705	-38.131775	-0.183261	-171.589120
4.650000	-0.198943	117.268294	-44.420105	-39.725350	-44.420105	-39.725350	-0.185336	-172.917697
4.700000	-0.200886	115.328184	-44.346042	-41.338710	-44.346042	-41.338710	-0.187438	-174.241576
4.750000	-0.202844	113.388240	-44.277550	-42.970928	-44.277550	-42.970928	-0.189565	-175.560958
4.800000	-0.204817	111.448337	-44.214666	-44.621146	-44.214666	-44.621146	-0.191714	-176.876038
4.850000	-0.206805	109.508362	-44.157428	-46.288575	-44.157428	-46.288575	-0.193884	-178.187008
4.900000	-0.208807	107.568215	-44.105878	-47.972488	-44.105878	-47.972488	-0.196073	-179.494054
4.950000	-0.210823	105.627810	-44.060060	-49.672214	-44.060060	-49.672214	-0.198278	179.202641
5.000000	-0.212853	103.687073	-44.020027	-51.387138	-44.020027	-51.387138	-0.200497	177.902901
5.050000	-0.214898	101.745933	-43.985959	-53.117001	-43.985959	-53.117001	-0.202728	176.606623
5.100000	-0.216956	99.804350	-43.957797	-54.860953	-43.957797	-54.860953	-0.204969	175.313564
5.150000	-0.219028	97.862288	-43.935608	-56.618520	-43.935608	-56.618520	-0.207217	174.023562
5.200000	-0.221114	95.919723	-43.919468	-58.389266	-43.919468	-58.389266	-0.209472	172.736459
5.250000	-0.223215	93.976646	-43.909458	-60.172792	-43.909458	-60.172792	-0.211731	171.452102
5.300000	-0.225331	92.033055	-43.905667	-61.968732	-43.905667	-61.968732	-0.213995	170.170340
5.350000	-0.227461	90.088964	-43.908195	-63.776752	-43.908195	-63.776752	-0.216262	168.891025
5.400000	-0.229607	88.144395	-43.917146	-65.596549	-43.917146	-65.596549	-0.218533	167.614012
5.450000	-0.231770	86.199384	-43.932638	-67.427846	-43.932638	-67.427846	-0.220806	166.339157
5.500000	-0.233949	84.253976	-43.954797	-69.270397	-43.954797	-69.270397	-0.223084	165.066316
5.550000	-0.236145	82.308228	-43.983757	-71.123980	-43.983757	-71.123980	-0.225366	163.795348
5.600000	-0.238360	80.362206	-44.019667	-72.988400	-44.019667	-72.988400	-0.227652	162.526113
5.650000	-0.240595	78.415988	-44.062761	-74.863604	-44.062761	-74.863604	-0.229945	161.258486
5.700000	-0.242850	76.469662	-44.113214	-76.749446	-44.113214	-76.749446	-0.232244	159.992322
5.750000	-0.245126	74.523329	-44.171134	-78.645701	-44.171134	-78.645701	-0.234550	158.727466
5.800000	-0.247426	72.577095	-44.236721	-80.552287	-44.236721	-80.552287	-0.236864	157.463781
5.850000	-0.249749	70.631074	-44.310188	-82.469159	-44.310188	-82.469159	-0.239186	156.201130
5.900000	-0.252098	68.685392	-44.391764	-84.396303	-44.391764	-84.396303	-0.241517	154.939380
5.950000	-0.254473	66.740180	-44.481700	-86.333749	-44.481700	-86.333749	-0.243857	153.678398
6.000000	-0.256877	64.795577	-44.580260	-88.281570	-44.580260	-88.281570	-0.246206	152.418054
6.050000	-0.259312	62.851730	-44.687736	-90.239890	-44.687736	-90.239890	-0.248564	151.158219
6.100000	-0.261778	60.908794	-44.804438	-92.208891	-44.804438	-92.208891	-0.250931	149.898767
6.150000	-0.264278	58.966928	-44.930706	-94.188823	-44.930706	-94.188823	-0.253306	148.639575
6.200000	-0.266814	57.026299	-45.066905	-96.180011	-45.066905	-96.180011	-0.255689	147.380522
6.250000	-0.269387	55.087079	-45.213434	-98.182871	-45.213434	-98.182871	-0.258080	146.121490
6.300000	-0.272001	53.149484	-45.370905	-100.198202	-45.370905	-100.198202	-0.260478	144.862359
6.350000	-0.274657	51.213666	-45.539616	-102.226401	-45.539616	-102.226401	-0.262883	143.603017
6.400000	-0.277357	49.279809	-45.720085	-104.268264	-45.720085	-104.268264	-0.265292	142.343355
6.450000	-0.280104	47.348105	-45.912881	-106.324756	-45.912881	-106.324756	-0.267707	141.083265
6.500000	-0.282899	45.418746	-46.118631	-108.397045	-46.118631	-108.397045	-0.270126	139.822646
6.550000	-0.285746	43.491928	-46.338025	-110.486537	-46.338025	-110.486537	-0.272547	138.561396
6.600000	-0.288647	41.567848	-46.571830	-112.594923	-46.571830	-112.594923	-0.274971	137.299418
6.650000	-0.291604	39.646705	-46.820898	-114.724235	-46.820898	-114.724235	-0.277397	136.036618
6.700000	-0.294620	37.728701	-47.086182	-116.876915	-47.086182	-116.876915	-0.279824	134.772904
6.750000	-0.297697	35.814037	-47.368746	-119.055906	-47.368746	-119.055906	-0.282250	133.508189
6.800000	-0.300839	33.902913	-47.669792	-121.264753	-47.669792	-121.264753	-0.284675	132.242387
6.850000	-0.304047	31.995531	-47.990674	-123.507750	-47.990674	-123.507750	-0.287099	130.975415
6.900000	-0.307326	30.092137	-48.333027	-125.790609	-48.333027	-125.790609	-0.289519	129.707180
6.950000	-0.310678	28.192935	-48.698604	-128.119967	-48.698604	-128.119967	-0.291937	128.437604
7.000000	-0.314106	26.298081	-49.089319	-130.503342	-49.089319	-130.503342	-0.294351	127.166627
7.050000	-0.317612	24.407769	-49.507483	-132.950579	-49.507483	-132.950579	-0.296759	125.894180
7.100000	-0.321199	22.522192	-49.955768	-135.473977	-49.955768	-135.473977	-0.299163	124.620195
7.150000	-0.324870	20.641539	-50.437276	-138.089048	-50.437276	-138.089048	-0.301560	123.344611
7.200000	-0.328627	18.765995	-50.955626	-140.815563	-50.955626	-140.815563	-0.303951	122.067365
7.250000	-0.332474	16.895743	-51.515050	-143.679032	-51.515050	-143.679032	-0.306335	120.788402
7.300000	-0.336414	15.030960	-52.120505	-146.712806	-52.120505	-146.712806	-0.308711	119.507667
7.350000	-0.340449	13.171819	-52.777791	-149.961150	-52.777791	-149.961150	-0.311079	118.225109
7.400000	-0.344582	11.318489	-53.493645	-153.483768	-53.493645	-153.483768	-0.313438	116.940683
7.450000	-0.348817	9.471132	-54.275751	-157.362594	-54.275751	-157.362594	-0.315789	115.654342
7.500000	-0.353155	7.629905	-55.132522	-161.712094	-55.132522	-161.712094	-0.318130	114.366048
7.550000	-0.357603	5.795100	-56.071810	-166.714085	-56.071810	-166.714085	-0.320462	113.075718
7.600000	-0.362160	3.966728	-57.099212	-172.599440	-57.099212	-172.599440	-0.322784	111.783362
7.650000	-0.366830	2.144928	-58.212057	-179.716601	-58.212057	-179.716601	-0.325096	110.488949
7.700000	-0.371616	0.329831	-59.386631	171.446663	-59.386631	171.446663	-0.327398	109.192452
7.750000	-0.376520	-1.478437	-60.552476	160.282693	-60.552476	160.282693	-0.329690	107.893848
7.800000	-0.381545	-3.279758	-61.554798	146.280254	-61.554798	146.280254	-0.331972	106.593118
7.850000	-0.386693	-5.074023	-62.146110	129.622367	-62.146110	129.622367	-0.334244	105.290246
7.900000	-0.391968	-6.861126	-62.102184	111.816570	-62.102184	111.816570	-0.336507	103.985218
7.950000	-0.397373	-8.640974	-61.422088	95.162372	-61.422088	95.162372	-0.338760	102.678027
8.000000	-0.402910	-10.413476	-60.329789	81.187839	-60.329789	81.187839	-0.341003	101.368666
8.050000	-0.408581	-12.178552	-59.073614	70.079493	-59.073614	70.079493	-0.343238	100.057135
8.100000	-0.414389	-13.936129	-57.808593	61.319637	-57.808593	61.319637	-0.345464	98.743435
8.150000	-0.420358	-15.685065	-56.595278	54.468666	-56.595278	54.468666	-0.347680	97.427268
8.200000	-0.426451	-17.427366	-55.479412	48.651639	-55.479412	48.651639	-0.349891	96.109230
8.250000	-0.432690	-19.161996	-54.449614	43.743329	-54.449614	43.743329	-0.352094	94.789054
8.300000	-0.439077	-20.888913	-53.500624	39.499858	-53.500624	39.499858	-0.354290	93.466756
8.350000	-0.445605	-22.608535	-52.625402	35.732021	-52.625402	35.732021	-0.356481	92.142478
8.400000	-0.452291	-24.320198	-51.813981	32.356563	-51.813981	32.356563	-0.358667	90.816071
8.450000	-0.459144	-26.023430	-51.058366	29.294251	-51.058366	29.294251	-0.360849	89.487449
8.500000	-0.466149	-27.719275	-50.353469	26.448210	-50.353469	26.448210	-0.363028	88.156920
8.550000	-0.473318	-29.407127	-49.692506	23.790010	-49.692506	23.790010	-0.365204	86.824367
8.600000	-0.480651	-31.087143	-49.070595	21.282265	-49.070595	21.282265	-0.367380	85.489866
8.650000	-0.488145	-32.759637	-48.483657	18.893565	-48.483657	18.893565	-0.369556	84.153536
8.700000	-0.495819	-34.423876	-47.927301	16.614206	-47.927301	16.614206	-0.371732	82.815244
8.750000	-0.503649	-36.081088	-47.399273	14.413517	-47.399273	14.413517	-0.373912	81.475322
8.800000	-0.511673	-37.729665	-46.895562	12.295014	-46.895562	12.295014	-0.376095	80.133452
8.850000	-0.519859	-39.371286	-46.414928	10.233185	-46.414928	10.233185	-0.378284	78.790059
8.900000	-0.528236	-41.004817	-45.954450	8.228507	-45.954450	8.228507	-0.380479	77.444949
8.950000	-0.536788	-42.631048	-45.512766	6.268719	-45.512766	6.268719	-0.382683	76.098342
9.000000	-0.545527	-44.249751	-45.088056	4.349342	-45.088056	4.349342	-0.384897	74.750250
9.050000	-0.554458	-45.860850	-44.678805	2.465797	-44.678805	2.465797	-0.387122	73.400718
9.100000	-0.563570	-47.464993	-44.284067	0.611018	-44.284067	0.611018	-0.389360	72.049929
9.150000	-0.572890	-49.061274	-43.902138	-1.215194	-43.902138	-1.215194	-0.391614	70.697790
9.200000	-0.582390	-50.651039	-43.532724	-3.020636	-43.532724	-3.020636	-0.393884	69.344595
9.250000	-0.592108	-52.233005	-43.174131	-4.804354	-43.174131	-4.804354	-0.396174	67.990217
9.300000	-0.602014	-53.808500	-42.826242	-6.572405	-42.826242	-6.572405	-0.398483	66.634928
9.350000	-0.612135	-55.376825	-42.487864	-8.325462	-42.487864	-8.325462	-0.400816	65.278712
9.400000	-0.622461	-56.938489	-42.158563	-10.066620	-42.158563	-10.066620	-0.403174	63.921715
9.450000	-0.632995	-58.493610	-41.837738	-11.798001	-41.837738	-11.798001	-0.405558	62.564038
9.500000	-0.643754	-60.041930	-41.524639	-13.521075	-41.524639	-13.521075	-0.407971	61.205746
9.550000	-0.654715	-61.584325	-41.219198	-15.238484	-41.219198	-15.238484	-0.410414	59.847007
9.600000	-0.665920	-63.119834	-40.920356	-16.951103	-40.920356	-16.951103	-0.412893	58.487858
9.650000	-0.677330	-64.649793	-40.628398	-18.661295	-40.628398	-18.661295	-0.415405	57.128472
9.700000	-0.688986	-66.173297	-40.342366	-20.370296	-40.342366	-20.370296	-0.417957	55.768929
9.750000	-0.700862	-67.691294	-40.062400	-22.079687	-40.062400	-22.079687	-0.420547	54.409359
9.800000	-0.712980	-69.203495	-39.787956	-23.790990	-39.787956	-23.790990	-0.423180	53.049883
9.850000	-0.725339	-70.710166	-39.518846	-25.505558	-39.518846	-25.505558	-0.425858	51.690618
9.900000	-0.737933	-72.211681	-39.254962	-27.224589	-39.254962	-27.224589	-0.428581	50.331676
9.950000	-0.750790	-73.707702	-38.995822	-28.949919	-38.995822	-28.949919	-0.431356	48.973223
10.000000	-0.763876	-75.199183	-38.741698	-30.681785	-38.741698	-30.681785	-0.434178	47.615302
