! freq	dB(S11)	phase(S11)	dB(S12)	phase(S12)	
!     	dB(S21)	phase(S21)	dB(S22)	phase(S22)	
!S-par simulation data
#  GHz  S  DB  R 50
0.000000	-84.118368	0.000000	-0.000541	0.000000	-0.000541	0.000000	-84.118368	0.000000
0.050000	-38.651399	-93.345301	-0.005408	-2.809401	-0.005408	-2.809401	-38.624450	-91.007184
0.100000	-32.686280	-97.545442	-0.012602	-5.581017	-0.012602	-5.581017	-32.659766	-92.945348
0.150000	-29.199077	-101.681234	-0.019587	-8.341327	-0.019587	-8.341327	-29.169426	-94.815669
0.200000	-26.725621	-105.743416	-0.027204	-11.098005	-0.027204	-11.098005	-26.693147	-96.613206
0.250000	-24.808048	-109.751830	-0.035804	-13.851855	-0.035804	-13.851855	-24.773580	-98.359848
0.300000	-23.242319	-113.723220	-0.045485	-16.602924	-0.045485	-16.602924	-23.206556	-100.072045
0.350000	-21.919410	-117.670197	-0.056224	-19.351532	-0.056224	-19.351532	-21.882850	-101.762120
0.400000	-20.774397	-121.599876	-0.068018	-22.097987	-0.068018	-22.097987	-20.737386	-103.437311
0.450000	-19.765445	-125.516634	-0.080869	-24.842556	-0.080869	-24.842556	-19.728239	-105.102257
0.500000	-18.864125	-129.422817	-0.094831	-27.585365	-0.094831	-27.585365	-18.826935	-106.759689
0.550000	-18.049903	-133.320737	-0.109836	-30.326635	-0.109836	-30.326635	-18.012896	-108.411917
0.600000	-17.307939	-137.210851	-0.125964	-33.066285	-0.125964	-33.066285	-17.271273	-110.059788
0.650000	-16.626732	-141.094070	-0.143181	-35.804344	-0.143181	-35.804344	-16.590542	-111.704246
0.700000	-15.997389	-144.970830	-0.161476	-38.540758	-0.161476	-38.540758	-15.961788	-113.345839
0.750000	-15.412949	-148.841146	-0.180880	-41.275370	-0.180880	-41.275370	-15.378040	-114.984868
0.800000	-14.867724	-152.705131	-0.201385	-44.008055	-0.201385	-44.008055	-14.833594	-116.621649
0.850000	-14.356974	-156.563022	-0.222948	-46.738744	-0.222948	-46.738744	-14.323685	-118.256505
0.900000	-13.876940	-160.414497	-0.245603	-49.467202	-0.245603	-49.467202	-13.844545	-119.889585
0.950000	-13.424354	-164.259512	-0.269332	-52.193293	-0.269332	-52.193293	-13.392889	-121.521137
1.000000	-12.996482	-168.097857	-0.294135	-54.916841	-0.294135	-54.916841	-12.965970	-123.151379
1.050000	-12.590957	-171.929372	-0.319997	-57.637708	-0.319997	-57.637708	-12.561408	-124.780552
1.100000	-12.205753	-175.753803	-0.346916	-60.355739	-0.346916	-60.355739	-12.177167	-126.408898
1.150000	-11.839138	-179.570779	-0.374898	-63.070752	-0.374898	-63.070752	-11.811503	-128.036665
1.200000	-11.489511	176.619812	-0.403914	-65.782689	-0.403914	-65.782689	-11.462809	-129.664125
1.250000	-11.155560	172.818442	-0.433979	-68.491366	-0.433979	-68.491366	-11.129765	-131.291546
1.300000	-10.836137	169.025681	-0.465110	-71.196576	-0.465110	-71.196576	-10.811220	-132.919224
1.350000	-10.530134	165.241765	-0.497286	-73.898265	-0.497286	-73.898265	-10.506060	-134.547458
1.400000	-10.236608	161.467127	-0.530506	-76.596310	-0.530506	-76.596310	-10.213339	-136.176549
1.450000	-9.954712	157.702223	-0.564767	-79.290591	-0.564767	-79.290591	-9.932209	-137.806807
1.500000	-9.683690	153.947532	-0.600067	-81.980987	-0.600067	-81.980987	-9.661913	-139.438542
1.550000	-9.422859	150.203552	-0.636405	-84.667375	-0.636405	-84.667375	-9.401768	-141.072067
1.600000	-9.171604	146.470799	-0.673775	-87.349628	-0.673775	-87.349628	-9.151161	-142.707694
1.650000	-8.929368	142.749806	-0.712174	-90.027616	-0.712174	-90.027616	-8.909537	-144.345728
1.700000	-8.695646	139.041118	-0.751597	-92.701201	-0.751597	-92.701201	-8.676394	-145.986470
1.750000	-8.469980	135.345296	-0.792038	-95.370238	-0.792038	-95.370238	-8.451277	-147.630215
1.800000	-8.251955	131.662907	-0.833489	-98.034577	-0.833489	-98.034577	-8.233774	-149.277243
1.850000	-8.041190	127.994529	-0.875942	-100.694057	-0.875942	-100.694057	-8.023510	-150.927826
1.900000	-7.837362	124.340910	-0.919394	-103.348454	-0.919394	-103.348454	-7.820164	-152.582263
1.950000	-7.640152	120.702657	-0.963834	-105.997586	-0.963834	-105.997586	-7.623425	-154.240804
2.000000	-7.449252	117.080199	-1.009239	-108.641324	-1.009239	-108.641324	-7.432987	-155.903632
2.050000	-7.264397	113.474126	-1.055595	-111.279477	-1.055595	-111.279477	-7.248589	-157.570952
2.100000	-7.085343	109.885020	-1.102883	-113.911845	-1.102883	-113.911845	-7.069992	-159.242955
2.150000	-6.911867	106.313462	-1.151086	-116.538225	-1.151086	-116.538225	-6.896975	-160.919810
2.200000	-6.743763	102.760023	-1.200181	-119.158409	-1.200181	-119.158409	-6.729337	-162.601669
2.250000	-6.580843	99.225265	-1.250146	-121.772182	-1.250146	-121.772182	-6.566888	-164.288668
2.300000	-6.422930	95.709740	-1.300953	-124.379330	-1.300953	-124.379330	-6.409455	-165.980919
2.350000	-6.269863	92.213982	-1.352575	-126.979634	-1.352575	-126.979634	-6.256875	-167.678522
2.400000	-6.121491	88.738513	-1.404980	-129.572878	-1.404980	-129.572878	-6.108994	-169.381554
2.450000	-5.977674	85.283833	-1.458135	-132.158844	-1.458135	-132.158844	-5.965671	-171.090073
2.500000	-5.838282	81.850426	-1.512004	-134.737318	-1.512004	-134.737318	-5.826770	-172.804122
2.550000	-5.703239	78.439234	-1.566555	-137.307918	-1.566555	-137.307918	-5.692209	-174.523840
2.600000	-5.572385	75.050229	-1.621737	-139.870603	-1.621737	-139.870603	-5.561821	-176.249106
2.650000	-5.445611	71.683821	-1.677506	-142.425174	-1.677506	-142.425174	-5.435489	-177.979897
2.700000	-5.322816	68.340391	-1.733816	-144.971444	-1.733816	-144.971444	-5.313102	-179.716168
2.750000	-5.203902	65.020293	-1.790618	-147.509234	-1.790618	-147.509234	-5.194557	178.542146
2.800000	-5.088778	61.723852	-1.847860	-150.038373	-1.847860	-150.038373	-5.079753	176.795129
2.850000	-4.977355	58.451361	-1.905490	-152.558708	-1.905490	-152.558708	-4.968597	175.042878
2.900000	-4.869550	55.203081	-1.963450	-155.070096	-1.963450	-155.070096	-4.861003	173.285500
2.950000	-4.765282	51.979242	-2.021684	-157.572409	-2.021684	-157.572409	-4.756888	171.523104
3.000000	-4.664473	48.780038	-2.080132	-160.065535	-2.080132	-160.065535	-4.656176	169.755796
3.050000	-4.567048	45.605632	-2.138733	-162.549379	-2.138733	-162.549379	-4.558796	167.983666
3.100000	-4.472934	42.456149	-2.197423	-165.023862	-2.197423	-165.023862	-4.464680	166.206794
3.150000	-4.382379	39.335226	-2.256077	-167.487587	-2.256077	-167.487587	-4.374078	164.424579
3.200000	-4.294701	36.236107	-2.314738	-169.943081	-2.314738	-169.943081	-4.286322	162.638325
3.250000	-4.210129	33.162078	-2.373292	-172.389093	-2.373292	-172.389093	-4.201641	160.847442
3.300000	-4.128596	30.113123	-2.431670	-174.825622	-2.431670	-174.825622	-4.119972	159.051936
3.350000	-4.050039	27.089194	-2.489807	-177.252685	-2.489807	-177.252685	-4.041253	157.251800
3.400000	-3.974397	24.090204	-2.547632	-179.670320	-2.547632	-179.670320	-3.965424	155.447020
3.450000	-3.901609	21.116037	-2.605077	177.921416	-2.605077	177.921416	-3.892421	153.637576
3.500000	-3.831616	18.166540	-2.662075	175.522444	-2.662075	175.522444	-3.822186	151.823441
3.550000	-3.764360	15.241525	-2.718556	173.132666	-2.718556	173.132666	-3.754656	150.004587
3.600000	-3.699787	12.340774	-2.774451	170.751965	-2.774451	170.751965	-3.689772	148.180981
3.650000	-3.637840	9.464035	-2.829693	168.380202	-2.829693	168.380202	-3.627475	146.352588
3.700000	-3.578467	6.611024	-2.884214	166.017221	-2.884214	166.017221	-3.567709	144.519369
3.750000	-3.521616	3.781427	-2.937947	163.662844	-2.937947	163.662844	-3.510417	142.681280
3.800000	-3.467329	0.975882	-2.990772	161.317233	-2.990772	161.317233	-3.455633	140.838057
3.850000	-3.415464	-1.807007	-3.042673	158.979796	-3.042673	158.979796	-3.403214	138.989858
3.900000	-3.365974	-4.567649	-3.093585	156.650299	-3.093585	156.650299	-3.353108	137.136623
3.950000	-3.318816	-7.306481	-3.143446	154.328489	-3.143446	154.328489	-3.305267	135.278284
4.000000	-3.273944	-10.023967	-3.192193	152.014096	-3.192193	152.014096	-3.259643	133.414769
4.050000	-3.231318	-12.720599	-3.239766	149.706833	-3.239766	149.706833	-3.216190	131.545995
4.100000	-3.190898	-15.396895	-3.286105	147.406396	-3.286105	147.406396	-3.174865	129.671874
4.150000	-3.152646	-18.053400	-3.331152	145.112464	-3.331152	145.112464	-3.135626	127.792309
4.200000	-3.116527	-20.690683	-3.374851	142.824701	-3.374851	142.824701	-3.098434	125.907194
4.250000	-3.082508	-23.309338	-3.417147	140.542754	-3.417147	140.542754	-3.063250	124.016415
4.300000	-3.050556	-25.909986	-3.457986	138.266253	-3.457986	138.266253	-3.030038	122.119849
4.350000	-3.020643	-28.493271	-3.497316	135.994813	-3.497316	135.994813	-2.998767	120.217361
4.400000	-2.992741	-31.059859	-3.535086	133.728034	-3.535086	133.728034	-2.969403	118.308811
4.450000	-2.966827	-33.610444	-3.571248	131.465497	-3.571248	131.465497	-2.941919	116.394043
4.500000	-2.942876	-36.145742	-3.605755	129.206768	-3.605755	129.206768	-2.916286	114.472893
4.550000	-2.920869	-38.666492	-3.638560	126.951398	-3.638560	126.951398	-2.892480	112.545184
4.600000	-2.900789	-41.173460	-3.669622	124.698919	-3.669622	124.698919	-2.870479	110.610728
4.650000	-2.882620	-43.667435	-3.698896	122.448844	-3.698896	122.448844	-2.850263	108.669320
4.700000	-2.866350	-46.149231	-3.726345	120.200669	-3.726345	120.200669	-2.831815	106.720744
4.750000	-2.851968	-48.619686	-3.751929	117.953871	-3.751929	117.953871	-2.815118	104.764764
4.800000	-2.839467	-51.079668	-3.775613	115.707906	-3.775613	115.707906	-2.800161	102.801129
4.850000	-2.828843	-53.530067	-3.797363	113.462207	-3.797363	113.462207	-2.786934	100.829564
4.900000	-2.820092	-55.971805	-3.817147	111.216184	-3.817147	111.216184	-2.775430	98.849774
4.950000	-2.813215	-58.405829	-3.834936	108.969223	-3.834936	108.969223	-2.765645	96.861439
5.000000	-2.808215	-60.833119	-3.850704	106.720681	-3.850704	106.720681	-2.757576	94.864206
5.050000	-2.805232	-63.254373	-3.864279	104.469658	-3.864279	104.469658	-2.751349	92.856991
5.100000	-2.804112	-65.671147	-3.875818	102.215633	-3.875818	102.215633	-2.746818	90.840166
5.150000	-2.804865	-68.084478	-3.885307	99.957888	-3.885307	99.957888	-2.743992	88.813275
5.200000	-2.807504	-70.495435	-3.892733	97.695670	-3.892733	97.695670	-2.742881	86.775812
5.250000	-2.812042	-72.905125	-3.898086	95.428178	-3.898086	95.428178	-2.743499	84.727210
5.300000	-2.818497	-75.314692	-3.901364	93.154568	-3.901364	93.154568	-2.745861	82.666835
5.350000	-2.826982	-77.725434	-3.902467	90.873543	-3.902467	90.873543	-2.750076	80.593316
5.400000	-2.837553	-80.138811	-3.901366	88.583839	-3.901366	88.583839	-2.756201	78.505453
5.450000	-2.850100	-82.556021	-3.898218	86.284886	-3.898218	86.284886	-2.764146	76.403128
5.500000	-2.864642	-84.978396	-3.893051	83.975541	-3.893051	83.975541	-2.773939	74.285223
5.550000	-2.881194	-87.407321	-3.885900	81.654564	-3.885900	81.654564	-2.785614	72.150435
5.600000	-2.899772	-89.844235	-3.876816	79.320598	-3.876816	79.320598	-2.799207	69.997239
5.650000	-2.920384	-92.290637	-3.865864	76.972146	-3.865864	76.972146	-2.814758	67.823834
5.700000	-2.943225	-94.749337	-3.852966	74.605780	-3.852966	74.605780	-2.832508	65.625623
5.750000	-2.968120	-97.221279	-3.838390	72.220674	-3.838390	72.220674	-2.852349	63.401421
5.800000	-2.995004	-99.707985	-3.822324	69.814944	-3.822324	69.814944	-2.874298	61.148330
5.850000	-3.023820	-102.211269	-3.804960	67.386087	-3.804960	67.386087	-2.898411	58.862272
5.900000	-3.054479	-104.733041	-3.786551	64.931195	-3.786551	64.931195	-2.924751	56.538174
5.950000	-3.086845	-107.275323	-3.767425	62.446848	-3.767425	62.446848	-2.953389	54.169654
6.000000	-3.120748	-109.841046	-3.748017	59.927777	-3.748017	59.927777	-2.984484	51.746621
6.050000	-3.155895	-112.434269	-3.729017	57.366089	-3.729017	57.366089	-3.018291	49.253196
6.100000	-3.191699	-115.055665	-3.711292	54.758243	-3.711292	54.758243	-3.054777	46.679014
6.150000	-3.227475	-117.708280	-3.696018	52.096031	-3.696018	52.096031	-3.094183	44.003803
6.200000	-3.262224	-120.395793	-3.684879	49.368871	-3.684879	49.368871	-3.136902	41.199603
6.250000	-3.294641	-123.121256	-3.679995	46.566381	-3.679995	46.566381	-3.183430	38.234920
6.300000	-3.322128	-125.895989	-3.686069	43.660306	-3.686069	43.660306	-3.235434	35.030894
6.350000	-3.340938	-128.731019	-3.709878	40.623593	-3.709878	40.623593	-3.295482	31.492461
6.400000	-3.345643	-131.645087	-3.762222	37.422089	-3.762222	37.422089	-3.368631	27.478998
6.450000	-3.326765	-134.681179	-3.864765	34.002644	-3.864765	34.002644	-3.467104	22.725927
6.500000	-3.270157	-137.927786	-4.058314	30.316803	-4.058314	30.316803	-3.619062	16.793675
6.550000	-3.152142	-141.624361	-4.442125	26.389516	-4.442125	26.389516	-3.908741	8.730677
6.600000	-2.957162	-146.373109	-5.241429	22.921525	-5.241429	22.921525	-4.601429	-3.304472
6.650000	-2.792400	-153.580966	-6.800205	24.828165	-6.800205	24.828165	-6.752040	-22.813777
6.700000	-3.251266	-163.408658	-7.007244	42.371921	-7.007244	42.371921	-15.567466	-47.474450
6.750000	-4.483291	-168.750999	-4.410020	45.916527	-4.410020	45.916527	-15.190391	79.800108
6.800000	-5.288502	-169.186851	-3.116058	38.492941	-3.116058	38.492941	-8.915432	64.476786
6.850000	-5.619945	-169.887603	-2.634629	31.691342	-2.634629	31.691342	-7.111513	53.094235
6.900000	-5.794678	-171.756792	-2.417242	26.210114	-2.417242	26.210114	-6.392779	45.392086
6.950000	-5.937107	-174.470173	-2.291319	21.563581	-2.291319	21.563581	-6.076772	39.782914
7.000000	-6.083592	-177.745799	-2.200595	17.402684	-2.200595	17.402684	-5.946033	35.408056
7.050000	-6.243986	178.564324	-2.125116	13.533252	-2.125116	13.533252	-5.916348	31.834184
7.100000	-6.420811	174.528530	-2.056915	9.842915	-2.056915	9.842915	-5.948878	28.829625
7.150000	-6.612919	170.203834	-1.992448	6.253581	-1.992448	6.253581	-6.019729	26.224201
7.200000	-6.819512	165.598909	-1.930580	2.726362	-1.930580	2.726362	-6.118396	23.947730
7.250000	-7.039606	160.691414	-1.871072	-0.766188	-1.871072	-0.766188	-6.238285	21.971470
7.300000	-7.270510	155.492996	-1.813910	-4.247018	-1.813910	-4.247018	-6.372165	20.244724
7.350000	-7.509775	149.994608	-1.759402	-7.729101	-1.759402	-7.729101	-6.515629	18.748854
7.400000	-7.754301	144.175517	-1.708051	-11.222049	-1.708051	-11.222049	-6.664764	17.478705
7.450000	-7.999333	138.000510	-1.660635	-14.734181	-1.660635	-14.734181	-6.815102	16.440295
7.500000	-8.239989	131.479881	-1.617517	-18.268907	-1.617517	-18.268907	-6.962356	15.613705
7.550000	-8.470275	124.604849	-1.579278	-21.829047	-1.579278	-21.829047	-7.102218	14.994647
7.600000	-8.681619	117.355964	-1.546813	-25.417653	-1.546813	-25.417653	-7.229141	14.585900
7.650000	-8.865032	109.746277	-1.520788	-29.035166	-1.520788	-29.035166	-7.337680	14.373263
7.700000	-9.013074	101.816389	-1.501542	-32.679894	-1.501542	-32.679894	-7.423662	14.330420
7.750000	-9.117507	93.606002	-1.489625	-36.350612	-1.489625	-36.350612	-7.482554	14.433933
7.800000	-9.167478	85.162551	-1.486085	-40.046689	-1.486085	-40.046689	-7.508194	14.658240
7.850000	-9.159829	76.575159	-1.491075	-43.764139	-1.491075	-43.764139	-7.498799	14.958041
7.900000	-9.091710	67.930164	-1.505108	-47.499711	-1.505108	-47.499711	-7.452309	15.290347
7.950000	-8.963580	59.319912	-1.528647	-51.249515	-1.528647	-51.249515	-7.368134	15.608712
8.000000	-8.780194	50.831457	-1.561941	-55.008966	-1.561941	-55.008966	-7.247892	15.867758
8.050000	-8.548971	42.537275	-1.605135	-58.773226	-1.605135	-58.773226	-7.094678	16.027452
8.100000	-8.277460	34.503024	-1.658652	-62.537091	-1.658652	-62.537091	-6.911634	16.049024
8.150000	-7.977936	26.747012	-1.721836	-66.295730	-1.721836	-66.295730	-6.705620	15.917949
8.200000	-7.659136	19.288689	-1.794598	-70.044371	-1.794598	-70.044371	-6.481558	15.619010
8.250000	-7.327565	12.156333	-1.877368	-73.777189	-1.877368	-73.777189	-6.243131	15.132031
8.300000	-6.991630	5.336018	-1.969531	-77.489646	-1.969531	-77.489646	-5.996138	14.461995
8.350000	-6.657308	-1.181624	-2.070739	-81.177011	-2.070739	-81.177011	-5.745018	13.613076
8.400000	-6.329377	-7.410795	-2.180546	-84.834823	-2.180546	-84.834823	-5.493676	12.594079
8.450000	-6.011473	-13.372054	-2.298341	-88.459520	-2.298341	-88.459520	-5.245429	11.419175
8.500000	-5.706130	-19.083857	-2.423529	-92.047760	-2.423529	-92.047760	-5.002856	10.102530
8.550000	-5.415065	-24.564539	-2.555470	-95.596701	-2.555470	-95.596701	-4.767953	8.659080
8.600000	-5.139337	-29.831750	-2.693490	-99.104015	-2.693490	-99.104015	-4.542197	7.103809
8.650000	-4.879626	-34.899591	-2.836917	-102.567242	-2.836917	-102.567242	-4.326715	5.450075
8.700000	-4.636199	-39.782441	-2.985025	-105.984629	-2.985025	-105.984629	-4.122261	3.711274
8.750000	-4.407801	-44.513689	-3.136962	-109.360684	-3.136962	-109.360684	-3.928410	1.907955
8.800000	-4.196162	-49.073148	-3.292180	-112.685392	-3.292180	-112.685392	-3.746786	0.038196
8.850000	-3.998650	-53.504917	-3.449924	-115.968615	-3.449924	-115.968615	-3.575755	-1.875774
8.900000	-3.815990	-57.802341	-3.609462	-119.205033	-3.609462	-119.205033	-3.416113	-3.831087
8.950000	-3.647129	-61.981330	-3.770153	-122.397342	-3.770153	-122.397342	-3.267254	-5.817977
9.000000	-3.491365	-66.052154	-3.931352	-125.546922	-3.931352	-125.546922	-3.128797	-7.829344
9.050000	-3.348015	-70.024164	-4.092440	-128.655362	-4.092440	-128.655362	-3.000329	-9.859151
9.100000	-3.216645	-73.904102	-4.252709	-131.723574	-4.252709	-131.723574	-2.881612	-11.902435
9.150000	-3.096428	-77.702266	-4.411632	-134.754465	-4.411632	-134.754465	-2.772057	-13.954390
9.200000	-2.986662	-81.427476	-4.568692	-137.750761	-4.568692	-137.750761	-2.671154	-16.011193
9.250000	-2.886769	-85.087493	-4.723361	-140.715072	-4.723361	-140.715072	-2.578472	-18.069715
9.300000	-2.796216	-88.689851	-4.875131	-143.650213	-4.875131	-143.650213	-2.493599	-20.127336
9.350000	-2.714513	-92.241909	-5.023509	-146.559201	-5.023509	-146.559201	-2.416150	-22.181878
9.400000	-2.641351	-95.750288	-5.167900	-149.444914	-5.167900	-149.444914	-2.345869	-24.231428
9.450000	-2.576332	-99.222508	-5.307821	-152.310947	-5.307821	-152.310947	-2.282415	-26.274447
9.500000	-2.518991	-102.666470	-5.442922	-155.161342	-5.442922	-155.161342	-2.225380	-28.309829
9.550000	-2.469052	-106.089398	-5.572748	-157.999982	-5.572748	-157.999982	-2.174496	-30.336595
9.600000	-2.426296	-109.498635	-5.696844	-160.830999	-5.696844	-160.830999	-2.129525	-32.353940
9.650000	-2.390562	-112.901714	-5.814753	-163.658811	-5.814753	-163.658811	-2.090262	-34.361189
9.700000	-2.361814	-116.306521	-5.925939	-166.488216	-5.925939	-166.488216	-2.056578	-36.357666
9.750000	-2.340145	-119.721732	-6.029771	-169.324657	-6.029771	-169.324657	-2.028411	-38.342642
9.800000	-2.325432	-123.155955	-6.125976	-172.173666	-6.125976	-172.173666	-2.005504	-40.315908
9.850000	-2.317816	-126.618454	-6.214051	-175.041326	-6.214051	-175.041326	-1.987761	-42.276976
9.900000	-2.317528	-130.119233	-6.293476	-177.934315	-6.293476	-177.934315	-1.975112	-44.225331
9.950000	-2.324914	-133.669209	-6.363712	179.139987	-6.363712	179.139987	-1.967504	-46.160405
10.000000	-2.340448	-137.280431	-6.424196	176.173377	-6.424196	176.173377	-1.964899	-48.081556
