! freq	dB(S11)	phase(S11)	dB(S12)	phase(S12)	
!     	dB(S21)	phase(S21)	dB(S22)	phase(S22)	
!S-par simulation data
#  GHz  S  DB  R 50
0.000000	-83.736770	0.000000	-0.000565	0.000000	-0.000565	0.000000	-83.736770	0.000000
0.050000	-39.275264	-92.968070	-0.005978	-2.891336	-0.005978	-2.891336	-39.261426	-91.400192
0.100000	-33.317870	-96.846223	-0.012724	-5.742357	-0.012724	-5.742357	-33.303992	-93.744013
0.150000	-29.840937	-100.703594	-0.019213	-8.584848	-0.019213	-8.584848	-29.824970	-96.058535
0.200000	-27.379310	-104.505149	-0.026420	-11.423069	-0.026420	-11.423069	-27.361563	-98.311018
0.250000	-25.475305	-108.257978	-0.034476	-14.257201	-0.034476	-14.257201	-25.456448	-100.511139
0.300000	-23.925901	-111.973163	-0.043370	-17.087274	-0.043370	-17.087274	-23.906506	-102.668874
0.350000	-22.622152	-115.662725	-0.053035	-19.913761	-0.053035	-19.913761	-22.602651	-104.794469
0.400000	-21.498963	-119.335235	-0.063430	-22.737091	-0.063430	-22.737091	-21.479651	-106.894819
0.450000	-20.514971	-122.996390	-0.074567	-25.557413	-0.074567	-25.557413	-20.496050	-108.973486
0.500000	-19.641046	-126.651083	-0.086397	-28.375010	-0.086397	-28.375010	-19.622629	-111.034321
0.550000	-18.857302	-130.302298	-0.098936	-31.189794	-0.098936	-31.189794	-18.839456	-113.078272
0.600000	-18.148407	-133.952588	-0.112147	-34.001805	-0.112147	-34.001805	-18.131162	-115.106747
0.650000	-17.502994	-137.603834	-0.126008	-36.810950	-0.126008	-36.810950	-17.486359	-117.120073
0.700000	-16.912104	-141.257584	-0.140490	-39.617156	-0.140490	-39.617156	-16.896075	-119.118408
0.750000	-16.368621	-144.915141	-0.155555	-42.420347	-0.155555	-42.420347	-16.353188	-121.101660
0.800000	-15.866773	-148.577651	-0.171165	-45.220467	-0.171165	-45.220467	-15.851922	-123.069587
0.850000	-15.401852	-152.246178	-0.187280	-48.017467	-0.187280	-48.017467	-15.387572	-125.021783
0.900000	-14.969931	-155.921732	-0.203857	-50.811328	-0.203857	-50.811328	-14.956208	-126.957775
0.950000	-14.567555	-159.605159	-0.220847	-53.602109	-0.220847	-53.602109	-14.554377	-128.877300
1.000000	-14.191852	-163.297329	-0.238205	-56.389872	-0.238205	-56.389872	-14.179208	-130.779937
1.050000	-13.840345	-166.999086	-0.255887	-59.174712	-0.255887	-59.174712	-13.828220	-132.665270
1.100000	-13.510872	-170.711253	-0.273851	-61.956757	-0.273851	-61.956757	-13.499253	-134.532903
1.150000	-13.201534	-174.434642	-0.292053	-64.736164	-0.292053	-64.736164	-13.190404	-136.382464
1.200000	-12.910649	-178.170047	-0.310456	-67.513121	-0.310456	-67.513121	-12.899989	-138.213617
1.250000	-12.636717	178.081754	-0.329023	-70.287842	-0.329023	-70.287842	-12.626503	-140.026067
1.300000	-12.378493	174.319792	-0.347719	-73.060540	-0.347719	-73.060540	-12.368695	-141.819285
1.350000	-12.134644	170.543514	-0.366514	-75.831509	-0.366514	-75.831509	-12.125227	-143.593343
1.400000	-11.904311	166.751599	-0.385381	-78.600988	-0.385381	-78.600988	-11.895230	-145.347351
1.450000	-11.685911	162.944727	-0.404296	-81.369375	-0.404296	-81.369375	-11.677118	-147.082910
1.500000	-11.478862	159.121427	-0.423239	-84.136919	-0.423239	-84.136919	-11.470298	-148.798972
1.550000	-11.282410	155.280778	-0.442196	-86.903927	-0.442196	-86.903927	-11.274008	-150.495209
1.600000	-11.095330	151.423571	-0.461159	-89.670753	-0.461159	-89.670753	-11.087019	-152.173227
1.650000	-10.917580	147.546914	-0.480113	-92.437729	-0.480113	-92.437729	-10.909270	-153.830629
1.700000	-10.747610	143.653550	-0.499066	-95.205134	-0.499066	-95.205134	-10.739221	-155.470970
1.750000	-10.585644	139.739544	-0.518009	-97.973430	-0.518009	-97.973430	-10.577066	-157.091008
1.800000	-10.430323	135.807908	-0.536956	-100.742782	-0.536956	-100.742782	-10.421459	-158.694349
1.850000	-10.281524	131.856264	-0.555912	-103.513656	-0.555912	-103.513656	-10.272259	-160.279443
1.900000	-10.138490	127.885648	-0.574891	-106.286270	-0.574891	-106.286270	-10.128711	-161.847888
1.950000	-10.000708	123.896089	-0.593911	-109.060921	-0.593911	-109.060921	-9.990297	-163.400366
2.000000	-9.867850	119.886614	-0.612991	-111.838022	-0.612991	-111.838022	-9.856682	-164.936734
2.050000	-9.739167	115.859666	-0.632152	-114.617549	-0.632152	-114.617549	-9.727129	-166.459576
2.100000	-9.614597	111.812380	-0.651428	-117.400233	-0.651428	-117.400233	-9.601553	-167.967409
2.150000	-9.493356	107.748772	-0.670834	-120.185733	-0.670834	-120.185733	-9.479200	-169.463807
2.200000	-9.375335	103.666389	-0.690419	-122.974812	-0.690419	-122.974812	-9.359940	-170.947788
2.250000	-9.259989	99.568273	-0.710196	-125.767199	-0.710196	-125.767199	-9.243250	-172.422027
2.300000	-9.147062	95.454030	-0.730212	-128.563329	-0.730212	-128.563329	-9.128870	-173.887023
2.350000	-9.036221	91.324935	-0.750498	-131.363269	-0.750498	-131.363269	-9.016478	-175.344266
2.400000	-8.927157	87.182627	-0.771080	-134.166983	-0.771080	-134.166983	-8.905777	-176.795401
2.450000	-8.819631	83.027059	-0.792020	-136.974942	-0.792020	-136.974942	-8.796523	-178.241333
2.500000	-8.713393	78.861333	-0.813306	-139.786586	-0.813306	-139.786586	-8.688495	-179.684146
2.550000	-8.608193	74.684676	-0.835046	-142.602822	-0.835046	-142.602822	-8.581428	178.875160
2.600000	-8.503899	70.500539	-0.857197	-145.422793	-0.857197	-145.422793	-8.475220	177.434761
2.650000	-8.400277	66.309285	-0.879853	-148.247126	-0.879853	-148.247126	-8.369631	175.993080
2.700000	-8.297241	62.113112	-0.903003	-151.075395	-0.903003	-151.075395	-8.264593	174.548745
2.750000	-8.194649	57.913502	-0.926697	-153.907705	-0.926697	-153.907705	-8.159963	173.100091
2.800000	-8.092392	53.712092	-0.950969	-156.744062	-0.950969	-156.744062	-8.055639	171.645500
2.850000	-7.990467	49.510634	-0.975807	-159.584077	-0.975807	-159.584077	-7.951628	170.184004
2.900000	-7.888703	45.310960	-1.001303	-162.428159	-1.001303	-162.428159	-7.847750	168.713050
2.950000	-7.787239	41.114310	-1.027383	-165.275547	-1.027383	-165.275547	-7.744160	167.232889
3.000000	-7.685883	36.923162	-1.054170	-168.126799	-1.054170	-168.126799	-7.640649	165.740077
3.050000	-7.584817	32.738144	-1.081579	-170.981172	-1.081579	-170.981172	-7.537410	164.235424
3.100000	-7.483961	28.561623	-1.109684	-173.838905	-1.109684	-173.838905	-7.434353	162.716215
3.150000	-7.383414	24.394551	-1.138460	-176.699661	-1.138460	-176.699661	-7.331574	161.182178
3.200000	-7.283236	20.238296	-1.167906	-179.563288	-1.167906	-179.563288	-7.229128	159.632300
3.250000	-7.183454	16.094814	-1.198055	177.570204	-1.198055	177.570204	-7.127029	158.064690
3.300000	-7.084227	11.963771	-1.228836	174.701276	-1.228836	174.701276	-7.025440	156.480544
3.350000	-6.985545	7.848670	-1.260335	171.829635	-1.260335	171.829635	-6.924323	154.875943
3.400000	-6.887598	3.747574	-1.292435	168.955882	-1.292435	168.955882	-6.823882	153.253884
3.450000	-6.790423	-0.335969	-1.325211	166.079751	-1.325211	166.079751	-6.724122	151.610438
3.500000	-6.694158	-4.403515	-1.358574	163.201645	-1.358574	163.201645	-6.625191	149.947852
3.550000	-6.598898	-8.453208	-1.392539	160.321502	-1.392539	160.321502	-6.527161	148.264198
3.600000	-6.504745	-12.484988	-1.427070	157.439441	-1.427070	157.439441	-6.430131	146.559610
3.650000	-6.411797	-16.499286	-1.462123	154.555592	-1.462123	154.555592	-6.334196	144.834714
3.700000	-6.320178	-20.494221	-1.497703	151.669815	-1.497703	151.669815	-6.239454	143.087377
3.750000	-6.229923	-24.472614	-1.533724	148.782403	-1.533724	148.782403	-6.145962	141.320841
3.800000	-6.141233	-28.430761	-1.570213	145.892957	-1.570213	145.892957	-6.053874	139.530672
3.850000	-6.054064	-32.372757	-1.607076	143.001825	-1.607076	143.001825	-5.963181	137.721461
3.900000	-5.968606	-36.296286	-1.644310	140.108642	-1.644310	140.108642	-5.874036	135.890157
3.950000	-5.884850	-40.203538	-1.681855	137.213500	-1.681855	137.213500	-5.786445	134.038996
4.000000	-5.802894	-44.094526	-1.719679	134.316182	-1.719679	134.316182	-5.700495	132.167473
4.050000	-5.722817	-47.969720	-1.757741	131.416479	-1.757741	131.416479	-5.616255	130.275532
4.100000	-5.644578	-51.831157	-1.795998	128.514380	-1.795998	128.514380	-5.533700	128.365068
4.150000	-5.568383	-55.677957	-1.834410	125.609287	-1.834410	125.609287	-5.452998	126.433872
4.200000	-5.494041	-59.513477	-1.872944	122.701436	-1.872944	122.701436	-5.374000	124.485672
4.250000	-5.421836	-63.336671	-1.911548	119.789897	-1.911548	119.789897	-5.296938	122.517364
4.300000	-5.351543	-67.150712	-1.950203	116.874929	-1.950203	116.874929	-5.221628	120.532570
4.350000	-5.283336	-70.955928	-1.988859	113.955709	-1.988859	113.955709	-5.148212	118.529748
4.400000	-5.217130	-74.754270	-2.027496	111.032064	-2.027496	111.032064	-5.076616	116.510392
4.450000	-5.152916	-78.547320	-2.066085	108.103545	-2.066085	108.103545	-5.006831	114.475013
4.500000	-5.090767	-82.336495	-2.104587	105.169356	-2.104587	105.169356	-4.938909	112.423204
4.550000	-5.030481	-86.123846	-2.143013	102.229643	-2.143013	102.229643	-4.872678	110.357267
4.600000	-4.972296	-89.911071	-2.181297	99.282742	-2.181297	99.282742	-4.808325	108.275125
4.650000	-4.915877	-93.699941	-2.219482	96.329366	-2.219482	96.329366	-4.745566	106.180087
4.700000	-4.861439	-97.492911	-2.257512	93.367589	-2.257512	93.367589	-4.684567	104.070219
4.750000	-4.808729	-101.291400	-2.295425	90.397830	-2.295425	90.397830	-4.625109	101.947832
4.800000	-4.757797	-105.098021	-2.333205	87.418716	-2.333205	87.418716	-4.567220	99.812384
4.850000	-4.708547	-108.914758	-2.370870	84.429700	-2.370870	84.429700	-4.510809	97.664563
4.900000	-4.660849	-112.743370	-2.408449	81.430420	-2.408449	81.430420	-4.455760	95.505257
4.950000	-4.614744	-116.587422	-2.445947	78.419016	-2.445947	78.419016	-4.402085	93.333738
5.000000	-4.569953	-120.446721	-2.483432	75.396517	-2.483432	75.396517	-4.349555	91.152114
5.050000	-4.526612	-124.327489	-2.520912	72.359363	-2.520912	72.359363	-4.298254	88.958400
5.100000	-4.484387	-128.227823	-2.558471	69.309530	-2.558471	69.309530	-4.247913	86.755165
5.150000	-4.443309	-132.153525	-2.596161	66.243928	-2.596161	66.243928	-4.198533	84.541057
5.200000	-4.403168	-136.104547	-2.634058	63.163124	-2.634058	63.163124	-4.149944	82.317264
5.250000	-4.363857	-140.084271	-2.672250	60.065581	-2.672250	60.065581	-4.102047	80.083560
5.300000	-4.325242	-144.095587	-2.710839	56.950040	-2.710839	56.950040	-4.054728	77.839859
5.350000	-4.287137	-148.138275	-2.749912	53.816972	-2.749912	53.816972	-4.007839	75.586957
5.400000	-4.249414	-152.219212	-2.789649	50.662861	-2.789649	50.662861	-3.961264	73.323510
5.450000	-4.211883	-156.334197	-2.830094	47.490243	-2.830094	47.490243	-3.914870	71.051126
5.500000	-4.174348	-160.492742	-2.871529	44.294155	-2.871529	44.294155	-3.868488	68.767701
5.550000	-4.136658	-164.689763	-2.913982	41.077455	-2.913982	41.077455	-3.822022	66.474730
5.600000	-4.098571	-168.931908	-2.957744	37.836650	-2.957744	37.836650	-3.775282	64.170642
5.650000	-4.059919	-173.218225	-3.002947	34.572251	-3.002947	34.572251	-3.728159	61.855603
5.700000	-4.020499	-177.550095	-3.049801	31.283452	-3.049801	31.283452	-3.680511	59.529047
5.750000	-3.980036	178.068606	-3.098625	27.968033	-3.098625	27.968033	-3.632148	57.189589
5.800000	-3.938472	173.642535	-3.149456	24.628299	-3.149456	24.628299	-3.583053	54.837919
5.850000	-3.895329	169.162635	-3.202905	21.258990	-3.202905	21.258990	-3.532894	52.470709
5.900000	-3.850733	164.638090	-3.258825	17.864786	-3.258825	17.864786	-3.481795	50.089713
5.950000	-3.804146	160.060456	-3.317936	14.440427	-3.317936	14.440427	-3.429400	47.690990
6.000000	-3.755670	155.436807	-3.380181	10.989345	-3.380181	10.989345	-3.375817	45.275500
6.050000	-3.704952	150.764298	-3.446111	7.509119	-3.446111	7.509119	-3.320836	42.840367
6.100000	-3.651885	146.045146	-3.515999	4.000191	-3.515999	4.000191	-3.264427	40.384386
6.150000	-3.596445	141.282849	-3.590052	0.463699	-3.590052	0.463699	-3.206615	37.906698
6.200000	-3.538250	136.475434	-3.669001	-3.102915	-3.669001	-3.102915	-3.147203	35.403207
6.250000	-3.477690	131.631846	-3.752569	-6.694959	-3.752569	-6.694959	-3.086484	32.875948
6.300000	-3.414070	126.747212	-3.842070	-10.317779	-3.842070	-10.317779	-3.024095	30.317071
6.350000	-3.348058	121.832626	-3.936900	-13.964883	-3.936900	-13.964883	-2.960496	27.730666
6.400000	-3.279206	116.887217	-4.038186	-17.639451	-4.038186	-17.639451	-2.895503	25.109841
6.450000	-3.207902	111.918007	-4.145808	-21.337940	-4.145808	-21.337940	-2.829411	22.455698
6.500000	-3.134155	106.928862	-4.260337	-25.060002	-4.260337	-25.060002	-2.762319	19.764781
6.550000	-3.058077	101.924523	-4.382245	-28.804595	-4.382245	-28.804595	-2.694391	17.034302
6.600000	-2.980093	96.911201	-4.511433	-32.568438	-4.511433	-32.568438	-2.625940	14.265347
6.650000	-2.900101	91.893605	-4.649023	-36.352277	-4.649023	-36.352277	-2.557087	11.450360
6.700000	-2.818765	86.877739	-4.794410	-40.151323	-4.794410	-40.151323	-2.488226	8.594263
6.750000	-2.736155	81.869387	-4.948493	-43.965153	-4.948493	-43.965153	-2.419584	5.690881
6.800000	-2.652676	76.874270	-5.111364	-47.790990	-5.111364	-47.790990	-2.351487	2.739975
6.850000	-2.568678	71.898098	-5.283264	-51.626425	-5.283264	-51.626425	-2.284257	-0.259832
6.900000	-2.484520	66.946806	-5.464460	-55.469007	-5.464460	-55.469007	-2.218231	-3.310324
6.950000	-2.400581	62.026008	-5.655122	-59.316085	-5.655122	-59.316085	-2.153750	-6.412615
7.000000	-2.317236	57.140637	-5.855330	-63.164986	-5.855330	-63.164986	-2.091128	-9.567102
7.050000	-2.234839	52.295624	-6.065194	-67.013107	-6.065194	-67.013107	-2.030680	-12.774615
7.100000	-2.153728	47.495587	-6.284792	-70.857870	-6.284792	-70.857870	-1.972703	-16.035897
7.150000	-2.074220	42.744801	-6.514171	-74.696751	-6.514171	-74.696751	-1.917480	-19.351629
7.200000	-1.996608	38.047169	-6.753346	-78.527301	-6.753346	-78.527301	-1.865269	-22.722466
7.250000	-1.921156	33.406204	-7.002305	-82.347178	-7.002305	-82.347178	-1.816309	-26.149071
7.300000	-1.848097	28.825014	-7.261009	-86.154164	-7.261009	-86.154164	-1.770809	-29.632151
7.350000	-1.777631	24.306297	-7.529394	-89.946190	-7.529394	-89.946190	-1.728958	-33.172494
7.400000	-1.709929	19.852340	-7.807373	-93.721347	-7.807373	-93.721347	-1.690914	-36.771007
7.450000	-1.645124	15.465022	-8.094841	-97.477905	-8.094841	-97.477905	-1.656812	-40.428752
7.500000	-1.583324	11.145826	-8.391672	-101.214322	-8.391672	-101.214322	-1.626761	-44.146975
7.550000	-1.524798	6.900839	-8.697575	-104.927636	-8.697575	-104.927636	-1.601146	-47.931693
7.600000	-1.469146	2.719393	-9.012693	-108.620369	-9.012693	-108.620369	-1.579356	-51.774318
7.650000	-1.416818	-1.387322	-9.336486	-112.288064	-9.336486	-112.288064	-1.562082	-55.686832
7.700000	-1.367537	-5.426058	-9.669068	-115.932327	-9.669068	-115.932327	-1.548941	-59.665098
7.750000	-1.321390	-9.394362	-10.010072	-119.551755	-10.010072	-119.551755	-1.540109	-63.714413
7.800000	-1.278392	-13.291431	-10.359152	-123.145650	-10.359152	-123.145650	-1.535666	-67.839146
7.850000	-1.238270	-17.123397	-10.716511	-126.715978	-10.716511	-126.715978	-1.535266	-72.036761
7.900000	-1.201335	-20.882085	-11.080878	-130.259750	-11.080878	-130.259750	-1.539456	-76.321672
7.950000	-1.167031	-24.580400	-11.453265	-133.781843	-11.453265	-133.781843	-1.547467	-80.683543
8.000000	-1.135795	-28.207109	-11.831496	-137.278879	-11.831496	-137.278879	-1.560053	-85.143741
8.050000	-1.107078	-31.775026	-12.216747	-140.756296	-12.216747	-140.756296	-1.576443	-89.691299
8.100000	-1.081005	-35.280663	-12.607561	-144.214499	-12.607561	-144.214499	-1.596906	-94.339081
8.150000	-1.057504	-38.725389	-13.002998	-147.656378	-13.002998	-147.656378	-1.621402	-99.093926
8.200000	-1.036437	-42.112443	-13.402322	-151.086339	-13.402322	-151.086339	-1.649768	-103.960094
8.250000	-1.017715	-45.443986	-13.804351	-154.509732	-13.804351	-154.509732	-1.681910	-108.944211
8.300000	-1.001254	-48.722292	-14.207634	-157.933619	-14.207634	-157.933619	-1.717727	-114.053393
8.350000	-0.987018	-51.948816	-14.609978	-161.367692	-14.609978	-161.367692	-1.757175	-119.298008
8.400000	-0.974854	-55.128080	-15.010022	-164.823567	-15.010022	-164.823567	-1.800012	-124.680793
8.450000	-0.964810	-58.260418	-15.403985	-168.318799	-15.403985	-168.318799	-1.846294	-130.217900
8.500000	-0.956756	-61.350596	-15.789692	-171.872283	-15.789692	-171.872283	-1.895803	-135.912462
8.550000	-0.950674	-64.401419	-16.163409	-175.509336	-16.163409	-175.509336	-1.948498	-141.774720
8.600000	-0.946682	-67.414020	-16.518721	-179.270266	-16.518721	-179.270266	-2.004559	-147.826585
8.650000	-0.944722	-70.393664	-16.851733	176.808265	-16.851733	176.808265	-2.063968	-154.072347
8.700000	-0.944877	-73.343923	-17.156187	172.676257	-17.156187	172.676257	-2.127010	-160.526454
8.750000	-0.947393	-76.267737	-17.422599	168.259596	-17.422599	168.259596	-2.194394	-167.216004
8.800000	-0.952491	-79.170026	-17.642409	163.484657	-17.642409	163.484657	-2.267059	-174.159948
8.850000	-0.960501	-82.055931	-17.805888	158.270470	-17.805888	158.270470	-2.346493	178.619102
8.900000	-0.972048	-84.930502	-17.899166	152.508519	-17.899166	152.508519	-2.435333	171.080961
8.950000	-0.988060	-87.799688	-17.905773	146.076755	-17.905773	146.076755	-2.537803	163.173604
9.000000	-1.009851	-90.670148	-17.807881	138.854828	-17.807881	138.854828	-2.660402	154.833550
9.050000	-1.039447	-93.548556	-17.584815	130.714863	-17.584815	130.714863	-2.813640	145.970062
9.100000	-1.079708	-96.440222	-17.217665	121.545926	-17.217665	121.545926	-3.013658	136.467412
9.150000	-1.135210	-99.346853	-16.686473	111.214047	-16.686473	111.214047	-3.288223	126.144946
9.200000	-1.213053	-102.259341	-15.976577	99.564622	-15.976577	99.564622	-3.686534	114.730887
9.250000	-1.322022	-105.143532	-15.098968	86.470343	-15.098968	86.470343	-4.288528	101.889795
9.300000	-1.473882	-107.909949	-14.083630	71.699962	-14.083630	71.699962	-5.251771	87.059055
9.350000	-1.674597	-110.375425	-13.014673	55.068457	-13.014673	55.068457	-6.870025	69.454573
9.400000	-1.907633	-112.254320	-12.032744	36.542546	-12.032744	36.542546	-9.766576	47.494426
9.450000	-2.110246	-113.334641	-11.319290	16.593232	-11.319290	16.593232	-15.530778	14.089865
9.500000	-2.195562	-113.849253	-11.013792	-3.614766	-11.013792	-3.614766	-21.498774	-93.666026
9.550000	-2.136874	-114.462107	-11.126341	-22.628846	-11.126341	-22.628846	-13.084484	-158.459660
9.600000	-1.993018	-115.659096	-11.543735	-39.457543	-11.543735	-39.457543	-8.903678	176.286272
9.650000	-1.834394	-117.457182	-12.123022	-53.875753	-12.123022	-53.875753	-6.649500	158.292266
9.700000	-1.696670	-119.665722	-12.760571	-66.129878	-12.760571	-66.129878	-5.289115	143.802549
9.750000	-1.588494	-122.107284	-13.399505	-76.612168	-13.399505	-76.612168	-4.403832	131.589951
9.800000	-1.506884	-124.669045	-14.016903	-85.715653	-14.016903	-85.715653	-3.789835	120.979045
9.850000	-1.446587	-127.292583	-14.607511	-93.741419	-14.607511	-93.741419	-3.342098	111.559122
9.900000	-1.402752	-129.949450	-15.174811	-100.918136	-15.174811	-100.918136	-3.001467	103.052557
9.950000	-1.371582	-132.627268	-15.726244	-107.413908	-15.726244	-107.413908	-2.732935	95.266730
10.000000	-1.350252	-135.321712	-16.270967	-113.349527	-16.270967	-113.349527	-2.514884	88.064916
