! freq	dB(S11)	phase(S11)	dB(S12)	phase(S12)	
!     	dB(S21)	phase(S21)	dB(S22)	phase(S22)	
!S-par simulation data
#  GHz  S  DB  R 50
0.000000	-0.000000	0.000000	-332.990533	0.000000	-332.990533	0.000000	-0.000000	0.000000
0.050000	-0.011912	-1.970555	-102.115550	85.276605	-102.115550	85.276605	-0.000469	-0.796021
0.100000	-0.015822	-4.011109	-96.348499	85.127711	-96.348499	85.127711	-0.001709	-1.594989
0.150000	-0.017267	-6.042799	-92.935206	84.426140	-92.935206	84.426140	-0.003317	-2.398419
0.200000	-0.018348	-8.069390	-90.527406	83.470801	-90.527406	83.470801	-0.004906	-3.205458
0.250000	-0.019434	-10.092544	-88.690047	82.401861	-88.690047	82.401861	-0.006266	-4.014705
0.300000	-0.020632	-12.112894	-87.224842	81.288656	-87.224842	81.288656	-0.007357	-4.824575
0.350000	-0.021963	-14.130825	-86.020630	80.170460	-86.020630	80.170460	-0.008260	-5.633999
0.400000	-0.023452	-16.145949	-85.021405	79.072204	-85.021405	79.072204	-0.009040	-6.442363
0.450000	-0.025072	-18.158604	-84.175639	78.007335	-84.175639	78.007335	-0.009779	-7.249676
0.500000	-0.026841	-20.168074	-83.467513	77.000857	-83.467513	77.000857	-0.010517	-8.055707
0.550000	-0.028725	-22.174691	-82.866709	76.058441	-82.866709	76.058441	-0.011278	-8.860701
0.600000	-0.030728	-24.177902	-82.366639	75.205791	-82.366639	75.205791	-0.012076	-9.664589
0.650000	-0.032830	-26.177720	-81.953261	74.456395	-81.953261	74.456395	-0.012914	-10.467478
0.700000	-0.035021	-28.173969	-81.619111	73.832074	-81.619111	73.832074	-0.013790	-11.269404
0.750000	-0.037292	-30.166270	-81.362140	73.367019	-81.362140	73.367019	-0.014706	-12.070338
0.800000	-0.039623	-32.154920	-81.170660	73.072270	-81.170660	73.072270	-0.015652	-12.870404
0.850000	-0.042015	-34.139074	-81.052385	73.022194	-81.052385	73.022194	-0.016629	-13.669452
0.900000	-0.044446	-36.119402	-80.992176	73.216465	-80.992176	73.216465	-0.017627	-14.467665
0.950000	-0.046914	-38.095043	-80.997802	73.764677	-80.997802	73.764677	-0.018647	-15.264887
1.000000	-0.049406	-40.066479	-81.057627	74.689506	-81.057627	74.689506	-0.019682	-16.061241
1.050000	-0.051915	-42.033268	-81.170496	76.110940	-81.170496	76.110940	-0.020728	-16.856656
1.100000	-0.054434	-43.995412	-81.327133	78.121958	-81.327133	78.121958	-0.021784	-17.651145
1.150000	-0.056956	-45.953013	-81.512857	80.814628	-81.512857	80.814628	-0.022846	-18.444742
1.200000	-0.059476	-47.905547	-81.707655	84.387730	-81.707655	84.387730	-0.023911	-19.237352
1.250000	-0.061990	-49.853696	-81.882632	88.811249	-81.882632	88.811249	-0.024979	-20.029113
1.300000	-0.064491	-51.796379	-81.981864	94.338793	-81.981864	94.338793	-0.026047	-20.819819
1.350000	-0.066980	-53.734593	-81.970635	100.701983	-81.970635	100.701983	-0.027114	-21.609664
1.400000	-0.069451	-55.667543	-81.774594	107.787802	-81.774594	107.787802	-0.028179	-22.398494
1.450000	-0.071903	-57.595682	-81.377014	115.146998	-81.377014	115.146998	-0.029241	-23.186392
1.500000	-0.074335	-59.518799	-80.765052	122.304922	-80.765052	122.304922	-0.030300	-23.973311
1.550000	-0.076744	-61.436788	-79.963817	128.829117	-79.963817	128.829117	-0.031355	-24.759223
1.600000	-0.079134	-63.350033	-79.039291	134.509066	-79.039291	134.509066	-0.032406	-25.544194
1.650000	-0.081499	-65.257859	-78.017060	139.123140	-78.017060	139.123140	-0.033454	-26.328076
1.700000	-0.083844	-67.161057	-76.969392	142.853667	-76.969392	142.853667	-0.034498	-27.111016
1.750000	-0.086167	-69.059133	-75.911193	145.700427	-75.911193	145.700427	-0.035537	-27.892897
1.800000	-0.088469	-70.952256	-74.868022	147.814024	-74.868022	147.814024	-0.036574	-28.673736
1.850000	-0.090752	-72.840459	-73.852281	149.314421	-73.852281	149.314421	-0.037607	-29.453520
1.900000	-0.093016	-74.723728	-72.869834	150.303302	-72.869834	150.303302	-0.038638	-30.232223
1.950000	-0.095264	-76.602110	-71.923888	150.872464	-71.923888	150.872464	-0.039666	-31.009832
2.000000	-0.097496	-78.475714	-71.015868	151.099683	-71.015868	151.099683	-0.040692	-31.786344
2.050000	-0.099714	-80.344597	-70.145044	151.043580	-70.145044	151.043580	-0.041716	-32.561744
2.100000	-0.101920	-82.208829	-69.309980	150.751529	-69.309980	150.751529	-0.042740	-33.336019
2.150000	-0.104116	-84.068481	-68.508894	150.261845	-68.508894	150.261845	-0.043763	-34.109154
2.200000	-0.106304	-85.923634	-67.739871	149.605612	-67.739871	149.605612	-0.044786	-34.881135
2.250000	-0.108485	-87.774375	-67.000983	148.808170	-67.000983	148.808170	-0.045810	-35.651947
2.300000	-0.110661	-89.620798	-66.290364	147.890293	-66.290364	147.890293	-0.046834	-36.421575
2.350000	-0.112835	-91.463003	-65.606244	146.869113	-65.606244	146.869113	-0.047860	-37.190006
2.400000	-0.115008	-93.301095	-64.946969	145.758845	-64.946969	145.758845	-0.048888	-37.957224
2.450000	-0.117181	-95.135187	-64.311001	144.571360	-64.311001	144.571360	-0.049919	-38.723216
2.500000	-0.119357	-96.965398	-63.696925	143.316624	-63.696925	143.316624	-0.050952	-39.487968
2.550000	-0.121538	-98.791775	-63.103003	142.001948	-63.103003	142.001948	-0.051990	-40.251439
2.600000	-0.123725	-100.614532	-62.528528	140.635870	-62.528528	140.635870	-0.053031	-41.013641
2.650000	-0.125921	-102.433807	-61.972389	139.224439	-61.972389	139.224439	-0.054076	-41.774561
2.700000	-0.128126	-104.249743	-61.433566	137.772851	-61.433566	137.772851	-0.055127	-42.534187
2.750000	-0.130342	-106.062488	-60.911123	136.285591	-60.911123	136.285591	-0.056183	-43.292504
2.800000	-0.132571	-107.872197	-60.404196	134.766548	-60.404196	134.766548	-0.057245	-44.049502
2.850000	-0.134815	-109.679028	-59.911991	133.219103	-59.911991	133.219103	-0.058313	-44.805167
2.900000	-0.137075	-111.483147	-59.433774	131.646215	-59.433774	131.646215	-0.059388	-45.559488
2.950000	-0.139353	-113.284722	-58.968869	130.050474	-58.968869	130.050474	-0.060470	-46.312453
3.000000	-0.141649	-115.083930	-58.516648	128.434163	-58.516648	128.434163	-0.061560	-47.064051
3.050000	-0.143965	-116.880948	-58.076531	126.799295	-58.076531	126.799295	-0.062658	-47.814271
3.100000	-0.146302	-118.675962	-57.647979	125.147652	-57.647979	125.147652	-0.063764	-48.563102
3.150000	-0.148665	-120.468931	-57.229225	123.478879	-57.229225	123.478879	-0.064881	-49.310335
3.200000	-0.151049	-122.260519	-56.822318	121.798309	-56.822318	121.798309	-0.066005	-50.056342
3.250000	-0.153457	-124.050687	-56.425580	120.105218	-56.425580	120.105218	-0.067140	-50.800931
3.300000	-0.155891	-125.839634	-56.038605	118.400727	-56.038605	118.400727	-0.068284	-51.544094
3.350000	-0.158352	-127.627568	-55.661013	116.685844	-55.661013	116.685844	-0.069438	-52.285820
3.400000	-0.160840	-129.414696	-55.292449	114.961472	-55.292449	114.961472	-0.070604	-53.026103
3.450000	-0.163357	-131.201231	-54.932581	113.228426	-54.932581	113.228426	-0.071781	-53.764934
3.500000	-0.165902	-132.987390	-54.581097	111.487438	-54.581097	111.487438	-0.072969	-54.502306
3.550000	-0.168477	-134.773390	-54.237706	109.739171	-54.237706	109.739171	-0.074169	-55.238212
3.600000	-0.171083	-136.559454	-53.902132	107.984225	-53.902132	107.984225	-0.075382	-55.972646
3.650000	-0.173719	-138.345808	-53.574117	106.223144	-53.574117	106.223144	-0.076607	-56.705601
3.700000	-0.176387	-140.132678	-53.253420	104.456421	-53.253420	104.456421	-0.077846	-57.437071
3.750000	-0.179087	-141.920296	-52.939812	102.684504	-52.939812	102.684504	-0.079098	-58.167052
3.800000	-0.181821	-143.708947	-52.632907	100.907611	-52.632907	100.907611	-0.080365	-58.895472
3.850000	-0.184587	-145.498833	-52.332696	99.126337	-52.332696	99.126337	-0.081645	-59.622393
3.900000	-0.187386	-147.290193	-52.038988	97.341019	-52.038988	97.341019	-0.082941	-60.347809
3.950000	-0.190219	-149.083263	-51.751600	95.551965	-51.751600	95.551965	-0.084251	-61.071718
4.000000	-0.193082	-150.878170	-51.470523	93.759636	-51.470523	93.759636	-0.085576	-61.794199
4.050000	-0.195981	-152.675346	-51.195289	91.963957	-51.195289	91.963957	-0.086918	-62.515100
4.100000	-0.198913	-154.474951	-50.925887	90.165324	-50.925887	90.165324	-0.088275	-63.234484
4.150000	-0.201878	-156.277229	-50.662172	88.363959	-50.662172	88.363959	-0.089650	-63.952351
4.200000	-0.204877	-158.082424	-50.404010	86.560071	-50.404010	86.560071	-0.091041	-64.668697
4.250000	-0.207908	-159.890780	-50.151272	84.753853	-50.151272	84.753853	-0.092449	-65.383521
4.300000	-0.210973	-161.702542	-49.903837	82.945483	-49.903837	82.945483	-0.093876	-66.096823
4.350000	-0.214070	-163.517955	-49.661592	81.135133	-49.661592	81.135133	-0.095320	-66.808602
4.400000	-0.217199	-165.337308	-49.424414	79.322942	-49.424414	79.322942	-0.096783	-67.518841
4.450000	-0.220360	-167.160852	-49.192208	77.509067	-49.192208	77.509067	-0.098265	-68.227540
4.500000	-0.223553	-168.988787	-48.964895	75.693670	-48.964895	75.693670	-0.099766	-68.934716
4.550000	-0.226776	-170.821356	-48.742384	73.876888	-48.742384	73.876888	-0.101287	-69.640370
4.600000	-0.230029	-172.658797	-48.524591	72.058853	-48.524591	72.058853	-0.102828	-70.344505
4.650000	-0.233311	-174.501349	-48.311434	70.239692	-48.311434	70.239692	-0.104390	-71.047120
4.700000	-0.236622	-176.349247	-48.102840	68.419529	-48.102840	68.419529	-0.105972	-71.748218
4.750000	-0.239961	-178.202725	-47.898738	66.598485	-47.898738	66.598485	-0.107576	-72.447802
4.800000	-0.243326	179.937988	-47.699060	64.776681	-47.699060	64.776681	-0.109201	-73.145874
4.850000	-0.246716	178.072664	-47.503745	62.954234	-47.503745	62.954234	-0.110848	-73.842437
4.900000	-0.250132	176.201080	-47.312734	61.131262	-47.312734	61.131262	-0.112518	-74.537494
4.950000	-0.253571	174.323016	-47.125973	59.307885	-47.125973	59.307885	-0.114211	-75.231050
5.000000	-0.257032	172.438257	-46.943411	57.484219	-46.943411	57.484219	-0.115927	-75.923108
5.050000	-0.260514	170.546439	-46.765012	55.660386	-46.765012	55.660386	-0.117667	-76.613641
5.100000	-0.264017	168.647503	-46.590725	53.836512	-46.590725	53.836512	-0.119432	-77.302685
5.150000	-0.267537	166.741249	-46.420510	52.012723	-46.420510	52.012723	-0.121221	-77.990246
5.200000	-0.271074	164.827487	-46.254327	50.189144	-46.254327	50.189144	-0.123034	-78.676329
5.250000	-0.274626	162.906030	-46.092141	48.365906	-46.092141	48.365906	-0.124874	-79.360939
5.300000	-0.278192	160.976699	-45.933920	46.543141	-45.933920	46.543141	-0.126738	-80.044084
5.350000	-0.281770	159.039326	-45.779633	44.720985	-45.779633	44.720985	-0.128630	-80.725769
5.400000	-0.285358	157.093746	-45.629251	42.899579	-45.629251	42.899579	-0.130547	-81.406000
5.450000	-0.288954	155.139808	-45.482749	41.079066	-45.482749	41.079066	-0.132492	-82.084785
5.500000	-0.292557	153.177366	-45.340104	39.259594	-45.340104	39.259594	-0.134464	-82.762131
5.550000	-0.296165	151.206287	-45.201293	37.441314	-45.201293	37.441314	-0.136463	-83.438046
5.600000	-0.299775	149.226447	-45.066296	35.624381	-45.066296	35.624381	-0.138491	-84.112537
5.650000	-0.303386	147.237635	-44.935117	33.808970	-44.935117	33.808970	-0.140548	-84.785598
5.700000	-0.306995	145.239747	-44.807740	31.995249	-44.807740	31.995249	-0.142635	-85.457237
5.750000	-0.310601	143.232792	-44.684133	30.183364	-44.684133	30.183364	-0.144750	-86.127478
5.800000	-0.314202	141.216694	-44.564280	28.373479	-44.564280	28.373479	-0.146896	-86.796331
5.850000	-0.317795	139.191391	-44.448168	26.565758	-44.448168	26.565758	-0.149071	-87.463806
5.900000	-0.321379	137.156835	-44.335785	24.760365	-44.335785	24.760365	-0.151278	-88.129911
5.950000	-0.324951	135.112991	-44.227119	22.957460	-44.227119	22.957460	-0.153515	-88.794657
6.000000	-0.328509	133.059841	-44.122159	21.157197	-44.122159	21.157197	-0.155784	-89.458055
6.050000	-0.332051	130.997379	-44.020894	19.359721	-44.020894	19.359721	-0.158085	-90.120116
6.100000	-0.335575	128.925620	-43.923313	17.565167	-43.923313	17.565167	-0.160418	-90.780850
6.150000	-0.339080	126.844589	-43.829406	15.773652	-43.829406	15.773652	-0.162783	-91.440269
6.200000	-0.342562	124.754333	-43.739161	13.985272	-43.739161	13.985272	-0.165181	-92.098385
6.250000	-0.346022	122.654914	-43.652566	12.200093	-43.652566	12.200093	-0.167613	-92.755212
6.300000	-0.349455	120.546213	-43.569669	10.418214	-43.569669	10.418214	-0.170079	-93.410733
6.350000	-0.352862	118.428529	-43.490398	8.639540	-43.490398	8.639540	-0.172580	-94.064991
6.400000	-0.356240	116.301977	-43.414736	6.863983	-43.414736	6.863983	-0.175115	-94.717999
6.450000	-0.359588	114.166689	-43.342664	5.091375	-43.342664	5.091375	-0.177684	-95.369773
6.500000	-0.362905	112.022816	-43.274163	3.321440	-43.274163	3.321440	-0.180289	-96.020327
6.550000	-0.366191	109.870526	-43.209209	1.553769	-43.209209	1.553769	-0.182930	-96.669678
6.600000	-0.369443	107.710002	-43.147776	-0.212219	-43.147776	-0.212219	-0.185606	-97.317843
6.650000	-0.372664	105.541445	-43.089837	-1.977326	-43.089837	-1.977326	-0.188319	-97.964840
6.700000	-0.375851	103.365071	-43.035358	-3.742644	-43.035358	-3.742644	-0.191068	-98.610689
6.750000	-0.379006	101.181109	-42.984304	-5.509641	-42.984304	-5.509641	-0.193854	-99.255412
6.800000	-0.382130	98.989801	-42.936638	-7.280280	-42.936638	-7.280280	-0.196678	-99.899032
6.850000	-0.385224	96.791397	-42.892319	-9.057188	-42.892319	-9.057188	-0.199539	-100.541575
6.900000	-0.388292	94.586084	-42.851343	-10.844041	-42.851343	-10.844041	-0.202439	-101.183061
6.950000	-0.391337	92.374127	-42.813674	-12.645807	-42.813674	-12.645807	-0.205379	-101.823527
7.000000	-0.394367	90.155850	-42.779258	-14.468996	-42.779258	-14.468996	-0.208358	-102.463027
7.050000	-0.397389	87.931483	-42.748102	-16.322762	-42.748102	-16.322762	-0.211377	-103.101612
7.100000	-0.400419	85.701224	-42.720271	-18.219983	-42.720271	-18.219983	-0.214439	-103.739350
7.150000	-0.403476	83.465204	-42.695940	-20.179184	-42.695940	-20.179184	-0.217545	-104.376329
7.200000	-0.406594	81.223455	-42.675510	-22.227750	-42.675510	-22.227750	-0.220699	-105.012669
7.250000	-0.409826	78.975830	-42.659840	-24.407565	-42.659840	-24.407565	-0.223909	-105.648546
7.300000	-0.413268	76.721885	-42.650777	-26.785506	-42.650777	-26.785506	-0.227187	-106.284223
7.350000	-0.417099	74.460655	-42.652461	-29.474289	-42.652461	-29.474289	-0.230563	-106.920123
7.400000	-0.421693	72.190257	-42.674876	-32.677394	-42.674876	-32.677394	-0.234099	-107.556965
7.450000	-0.427919	69.907238	-42.745010	-36.795491	-42.745010	-36.795491	-0.237961	-108.196037
7.500000	-0.438092	67.606400	-42.949005	-42.704080	-42.949005	-42.704080	-0.242629	-108.839638
7.550000	-0.459799	65.292383	-43.672661	-52.616717	-43.672661	-52.616717	-0.249893	-109.490008
7.600000	-0.507975	63.114620	-47.190912	-68.098601	-47.190912	-68.098601	-0.264677	-110.119369
7.650000	-0.512813	61.341103	-51.794390	-6.410272	-51.794390	-6.410272	-0.273533	-110.634428
7.700000	-0.468241	59.180156	-45.607175	-4.969731	-45.607175	-4.969731	-0.266823	-111.218138
7.750000	-0.450650	56.867028	-44.106647	-13.478693	-44.106647	-13.478693	-0.265044	-111.849170
7.800000	-0.445284	54.567641	-43.577156	-18.943585	-43.577156	-18.943585	-0.266329	-112.481673
7.850000	-0.444139	52.288396	-43.332299	-22.707824	-43.332299	-22.707824	-0.268824	-113.110904
7.900000	-0.444625	50.022843	-43.194908	-25.594664	-43.194908	-25.594664	-0.271848	-113.737471
7.950000	-0.446018	47.769135	-43.117508	-27.870470	-43.117508	-27.870470	-0.275207	-114.361658
8.000000	-0.447818	45.523614	-43.067164	-29.812106	-43.067164	-29.812106	-0.278741	-114.984249
8.050000	-0.449889	43.286130	-43.034506	-31.494339	-43.034506	-31.494339	-0.282411	-115.605383
8.100000	-0.452142	41.056352	-43.012669	-32.983781	-43.012669	-32.983781	-0.286186	-116.225255
8.150000	-0.454522	38.833923	-42.997274	-34.329230	-42.997274	-34.329230	-0.290045	-116.844054
8.200000	-0.457003	36.618865	-42.985788	-35.558830	-42.985788	-35.558830	-0.293975	-117.461890
8.250000	-0.459576	34.411625	-42.976522	-36.688500	-42.976522	-36.688500	-0.297973	-118.078815
8.300000	-0.462234	32.212481	-42.968116	-37.732823	-42.968116	-37.732823	-0.302033	-118.694896
8.350000	-0.464972	30.021665	-42.959518	-38.703366	-42.959518	-38.703366	-0.306152	-119.310196
8.400000	-0.467790	27.839513	-42.949898	-39.608370	-42.949898	-39.608370	-0.310326	-119.924760
8.450000	-0.470692	25.666427	-42.938542	-40.454114	-42.938542	-40.454114	-0.314556	-120.538625
8.500000	-0.473680	23.502782	-42.924832	-41.246161	-42.924832	-41.246161	-0.318839	-121.151824
8.550000	-0.476757	21.348952	-42.908216	-41.989373	-42.908216	-41.989373	-0.323175	-121.764391
8.600000	-0.479929	19.205307	-42.888203	-42.688144	-42.888203	-42.688144	-0.327563	-122.376355
8.650000	-0.483199	17.072208	-42.864351	-43.346563	-42.864351	-43.346563	-0.332003	-122.987745
8.700000	-0.486572	14.950005	-42.836265	-43.968515	-42.836265	-43.968515	-0.336495	-123.598588
8.750000	-0.490054	12.839035	-42.803593	-44.557763	-42.803593	-44.557763	-0.341038	-124.208911
8.800000	-0.493651	10.739879	-42.765912	-45.117451	-42.765912	-45.117451	-0.345634	-124.818729
8.850000	-0.497367	8.652601	-42.723063	-45.651926	-42.723063	-45.651926	-0.350281	-125.428080
8.900000	-0.501206	6.577491	-42.674828	-46.164795	-42.674828	-46.164795	-0.354979	-126.036989
8.950000	-0.505174	4.514823	-42.621038	-46.659627	-42.621038	-46.659627	-0.359728	-126.645480
9.000000	-0.509275	2.464855	-42.561565	-47.139955	-42.561565	-47.139955	-0.364529	-127.253579
9.050000	-0.513515	0.427824	-42.496329	-47.609258	-42.496329	-47.609258	-0.369381	-127.861310
9.100000	-0.517897	-1.596047	-42.425293	-48.070941	-42.425293	-48.070941	-0.374285	-128.468698
9.150000	-0.522426	-3.606555	-42.348464	-48.528322	-42.348464	-48.528322	-0.379240	-129.075768
9.200000	-0.527108	-5.603514	-42.265890	-48.984604	-42.265890	-48.984604	-0.384247	-129.682545
9.250000	-0.531946	-7.586756	-42.177658	-49.442859	-42.177658	-49.442859	-0.389306	-130.289053
9.300000	-0.536944	-9.556132	-42.083891	-49.906004	-42.083891	-49.906004	-0.394416	-130.895319
9.350000	-0.542107	-11.511508	-41.984746	-50.376787	-41.984746	-50.376787	-0.399578	-131.501366
9.400000	-0.547440	-13.452613	-41.880341	-50.857910	-41.880341	-50.857910	-0.404793	-132.107220
9.450000	-0.552947	-15.379347	-41.770890	-51.351811	-41.770890	-51.351811	-0.410060	-132.712906
9.500000	-0.558630	-17.291782	-41.656698	-51.860525	-41.656698	-51.860525	-0.415380	-133.318452
9.550000	-0.564493	-19.189852	-41.538016	-52.385987	-41.538016	-52.385987	-0.420752	-133.923885
9.600000	-0.570554	-21.072251	-41.414609	-52.931683	-41.414609	-52.931683	-0.426180	-134.529226
9.650000	-0.576784	-22.941614	-41.287826	-53.495485	-41.287826	-53.495485	-0.431656	-135.134513
9.700000	-0.583202	-24.796510	-41.157368	-54.080540	-41.157368	-54.080540	-0.437185	-135.739767
9.750000	-0.589813	-26.636932	-41.023519	-54.687970	-41.023519	-54.687970	-0.442767	-136.345012
9.800000	-0.596619	-28.462888	-40.886560	-55.318707	-40.886560	-55.318707	-0.448402	-136.950277
9.850000	-0.603623	-30.274398	-40.746771	-55.973507	-40.746771	-55.973507	-0.454089	-137.555590
9.900000	-0.610826	-32.071494	-40.604425	-56.652959	-40.604425	-56.652959	-0.459830	-138.160978
9.950000	-0.618233	-33.854223	-40.459790	-57.357504	-40.459790	-57.357504	-0.465624	-138.766470
10.000000	-0.625845	-35.622640	-40.313122	-58.087443	-40.313122	-58.087443	-0.471471	-139.372093
