! freq	dB(S11)	phase(S11)	dB(S12)	phase(S12)	
!     	dB(S21)	phase(S21)	dB(S22)	phase(S22)	
!S-par simulation data
#  GHz  S  DB  R 50
0.000000	-83.377517	0.000000	-0.000589	0.000000	-0.000589	0.000000	-83.377517	0.000000
0.050000	-53.657713	-90.621599	-0.001975	-2.441601	-0.001975	-2.441601	-53.557078	-89.874906
0.100000	-47.663431	-94.097838	-0.005510	-4.874704	-0.005510	-4.874704	-47.577131	-92.597055
0.150000	-44.183861	-96.957978	-0.010024	-7.296373	-0.010024	-7.296373	-44.119027	-94.769852
0.200000	-41.742528	-99.720402	-0.014617	-9.709597	-0.014617	-9.709597	-41.698556	-96.919072
0.250000	-39.878307	-102.525714	-0.018891	-12.117428	-0.018891	-12.117428	-39.846927	-99.172227
0.300000	-38.378479	-105.461663	-0.022735	-14.522635	-0.022735	-14.522635	-38.346051	-101.553637
0.350000	-37.116251	-108.527198	-0.026245	-16.927212	-0.026245	-16.927212	-37.074919	-104.001382
0.400000	-36.018245	-111.680582	-0.029478	-19.331995	-0.029478	-19.331995	-35.968259	-106.456935
0.450000	-35.040464	-114.845252	-0.032509	-21.737450	-0.032509	-21.737450	-34.987765	-108.871746
0.500000	-34.159498	-117.958858	-0.035389	-24.143856	-0.035389	-24.143856	-34.110638	-111.218177
0.550000	-33.362572	-121.008550	-0.038177	-26.551196	-0.038177	-26.551196	-33.320838	-113.500048
0.600000	-32.639512	-124.005831	-0.040908	-28.959425	-0.040908	-28.959425	-32.605802	-115.727004
0.650000	-31.981400	-126.966834	-0.043608	-31.368499	-0.043608	-31.368499	-31.955457	-117.908156
0.700000	-31.380346	-129.906573	-0.046294	-33.778374	-0.046294	-33.778374	-31.361499	-120.051351
0.750000	-30.829478	-132.836894	-0.048979	-36.189016	-0.048979	-36.189016	-30.817025	-122.162581
0.800000	-30.323197	-135.766712	-0.051674	-38.600422	-0.051674	-38.600422	-30.316557	-124.245484
0.850000	-29.857248	-138.703386	-0.054390	-41.012638	-0.054390	-41.012638	-29.856025	-126.301433
0.900000	-29.426214	-141.651144	-0.057128	-43.425607	-0.057128	-43.425607	-29.430149	-128.334418
0.950000	-29.026438	-144.613263	-0.059894	-45.839354	-0.059894	-45.839354	-29.035402	-130.345222
1.000000	-28.654780	-147.592321	-0.062689	-48.253919	-0.062689	-48.253919	-28.668747	-132.334097
1.050000	-28.308512	-150.590423	-0.065514	-50.669351	-0.065514	-50.669351	-28.327545	-134.300908
1.100000	-27.985249	-153.609348	-0.068371	-53.085711	-0.068371	-53.085711	-28.009480	-136.245235
1.150000	-27.683547	-156.652401	-0.071261	-55.503146	-0.071261	-55.503146	-27.713213	-138.164691
1.200000	-27.401140	-159.720450	-0.074183	-57.921716	-0.074183	-57.921716	-27.436516	-140.059086
1.250000	-27.135898	-162.813751	-0.077136	-60.341466	-0.077136	-60.341466	-27.177281	-141.928519
1.300000	-26.886251	-165.933432	-0.080118	-62.762488	-0.080118	-62.762488	-26.933977	-143.772038
1.350000	-26.650749	-169.080526	-0.083131	-65.184882	-0.083131	-65.184882	-26.705187	-145.588663
1.400000	-26.428035	-172.255973	-0.086172	-67.608753	-0.086172	-67.608753	-26.489586	-147.377419
1.450000	-26.216866	-175.460798	-0.089243	-70.034221	-0.089243	-70.034221	-26.285963	-149.137176
1.500000	-26.016506	-178.698926	-0.092347	-72.461591	-0.092347	-72.461591	-26.093689	-150.863845
1.550000	-25.825123	178.032318	-0.095480	-74.890804	-0.095480	-74.890804	-25.910862	-152.559853
1.600000	-25.641588	174.732514	-0.098644	-77.321980	-0.098644	-77.321980	-25.736360	-154.224541
1.650000	-25.464806	171.401411	-0.101840	-79.755243	-0.101840	-79.755243	-25.569091	-155.857405
1.700000	-25.293645	168.040216	-0.105069	-82.190627	-0.105069	-82.190627	-25.407884	-157.459432
1.750000	-25.127245	164.645474	-0.108338	-84.628526	-0.108338	-84.628526	-25.251964	-159.026797
1.800000	-24.964413	161.219460	-0.111646	-87.068945	-0.111646	-87.068945	-25.100060	-160.561567
1.850000	-24.804109	157.762884	-0.114997	-89.512022	-0.114997	-89.512022	-24.951099	-162.064229
1.900000	-24.645290	154.276460	-0.118397	-91.957927	-0.118397	-91.957927	-24.804002	-163.535287
1.950000	-24.486932	150.761590	-0.121850	-94.406804	-0.121850	-94.406804	-24.657684	-164.976008
2.000000	-24.328088	147.220311	-0.125361	-96.858760	-0.125361	-96.858760	-24.511124	-166.388377
2.050000	-24.167831	143.654690	-0.128935	-99.313938	-0.128935	-99.313938	-24.363316	-167.774472
2.100000	-24.005274	140.067150	-0.132579	-101.772476	-0.132579	-101.772476	-24.213290	-169.136810
2.150000	-23.839580	136.460460	-0.136299	-104.234516	-0.136299	-104.234516	-24.060116	-170.478351
2.200000	-23.669968	132.837725	-0.140103	-106.700198	-0.140103	-106.700198	-23.902913	-171.802488
2.250000	-23.495719	129.202353	-0.143999	-109.169663	-0.143999	-109.169663	-23.740861	-173.113025
2.300000	-23.316184	125.558021	-0.147996	-111.643051	-0.147996	-111.643051	-23.573212	-174.414141
2.350000	-23.130792	121.908634	-0.152101	-114.120505	-0.152101	-114.120505	-23.399294	-175.710340
2.400000	-22.939052	118.258264	-0.156325	-116.602164	-0.156325	-116.602164	-23.218520	-177.006392
2.450000	-22.740563	114.611096	-0.160677	-119.088172	-0.160677	-119.088172	-23.030400	-178.307263
2.500000	-22.535007	110.971354	-0.165167	-121.578670	-0.165167	-121.578670	-22.834539	-179.618030
2.550000	-22.321882	107.343587	-0.169810	-124.073907	-0.169810	-124.073907	-22.630352	179.055755
2.600000	-22.101310	103.731731	-0.174615	-126.573928	-0.174615	-126.573928	-22.417912	177.709262
2.650000	-21.873246	100.139711	-0.179593	-129.078879	-0.179593	-129.078879	-22.197128	176.337604
2.700000	-21.637727	96.571218	-0.184756	-131.588908	-0.184756	-131.588908	-21.968003	174.936122
2.750000	-21.394865	93.029660	-0.190117	-134.104163	-0.190117	-134.104163	-21.730629	173.500464
2.800000	-21.144841	89.518105	-0.195691	-136.624794	-0.195691	-136.624794	-21.485176	172.026645
2.850000	-20.887898	86.039254	-0.201491	-139.150956	-0.201491	-139.150956	-21.231887	170.511096
2.900000	-20.624329	82.595405	-0.207533	-141.682804	-0.207533	-141.682804	-20.971062	168.950700
2.950000	-20.354471	79.188438	-0.213831	-144.220496	-0.213831	-144.220496	-20.703056	167.342817
3.000000	-20.078697	75.819811	-0.220403	-146.764194	-0.220403	-146.764194	-20.428262	165.685296
3.050000	-19.797404	72.490557	-0.227266	-149.314062	-0.227266	-149.314062	-20.147102	163.976468
3.100000	-19.511011	69.201299	-0.234439	-151.870269	-0.234439	-151.870269	-19.860022	162.215140
3.150000	-19.219790	65.952696	-0.241945	-154.433058	-0.241945	-154.433058	-19.567315	160.399984
3.200000	-18.924181	62.744585	-0.249805	-157.002611	-0.249805	-157.002611	-19.269447	158.530686
3.250000	-18.624770	59.576011	-0.258038	-159.579036	-0.258038	-159.579036	-18.967049	156.607922
3.300000	-18.321988	56.446143	-0.266667	-162.162516	-0.266667	-162.162516	-18.660578	154.632135
3.350000	-18.016252	53.353871	-0.275718	-164.753235	-0.275718	-164.753235	-18.350482	152.604082
3.400000	-17.707970	50.297833	-0.285217	-167.351383	-0.285217	-167.351383	-18.037197	150.524786
3.450000	-17.397535	47.276452	-0.295193	-169.957151	-0.295193	-169.957151	-17.721145	148.395506
3.500000	-17.085325	44.287965	-0.305676	-172.570735	-0.305676	-172.570735	-17.402730	146.217692
3.550000	-16.771701	41.330453	-0.316699	-175.192330	-0.316699	-175.192330	-17.082342	143.992951
3.600000	-16.457007	38.401870	-0.328295	-177.822136	-0.328295	-177.822136	-16.760351	141.723021
3.650000	-16.141572	35.500072	-0.340502	179.539650	-0.340502	179.539650	-16.437114	139.409731
3.700000	-15.825707	32.622835	-0.353359	176.892827	-0.353359	176.892827	-16.112970	137.054982
3.750000	-15.509708	29.767882	-0.366907	174.237197	-0.366907	174.237197	-15.788243	134.660722
3.800000	-15.193617	26.933283	-0.381207	171.572361	-0.381207	171.572361	-15.462979	132.228151
3.850000	-14.877955	24.116222	-0.396292	168.898314	-0.396292	168.898314	-15.137752	129.760110
3.900000	-14.563147	21.314158	-0.412196	166.215022	-0.412196	166.215022	-14.813036	127.259086
3.950000	-14.249146	18.525187	-0.428995	163.522041	-0.428995	163.522041	-14.488783	124.726123
4.000000	-13.936301	15.746853	-0.446735	160.819289	-0.446735	160.819289	-14.165387	122.163507
4.050000	-13.624834	12.976903	-0.465474	158.106592	-0.465474	158.106592	-13.843102	119.573120
4.100000	-13.314885	10.213162	-0.485282	155.383698	-0.485282	155.383698	-13.522088	116.956605
4.150000	-13.006715	7.453416	-0.506219	152.650502	-0.506219	152.650502	-13.202645	114.315915
4.200000	-12.700547	4.695554	-0.528349	149.906883	-0.528349	149.906883	-12.885029	111.652857
4.250000	-12.396574	1.937550	-0.551741	147.152704	-0.551741	147.152704	-12.569464	108.969115
4.300000	-12.094980	-0.822553	-0.576468	144.387843	-0.576468	144.387843	-12.256161	106.266318
4.350000	-11.795945	-3.586641	-0.602605	141.612190	-0.602605	141.612190	-11.945330	103.546041
4.400000	-11.499603	-6.356565	-0.630239	138.825591	-0.630239	138.825591	-11.637125	100.809731
4.450000	-11.206129	-9.134087	-0.659450	136.027966	-0.659450	136.027966	-11.331747	98.058884
4.500000	-10.915726	-11.920828	-0.690315	133.219312	-0.690315	133.219312	-11.029426	95.295009
4.550000	-10.628554	-14.718363	-0.722917	130.399586	-0.722917	130.399586	-10.730341	92.519480
4.600000	-10.344764	-17.528188	-0.757344	127.568761	-0.757344	127.568761	-10.434663	89.733627
4.650000	-10.064506	-20.351725	-0.793685	124.726829	-0.793685	124.726829	-10.142555	86.938737
4.700000	-9.787907	-23.190361	-0.832035	121.873770	-0.832035	121.873770	-9.854157	84.136039
4.750000	-9.515083	-26.045475	-0.872498	119.009551	-0.872498	119.009551	-9.569590	81.326721
4.800000	-9.246207	-28.918142	-0.915152	116.134311	-0.915152	116.134311	-9.289042	78.512016
4.850000	-8.981403	-31.809493	-0.960092	113.248110	-0.960092	113.248110	-9.012641	75.693060
4.900000	-8.720753	-34.720826	-1.007436	110.350909	-1.007436	110.350909	-8.740464	72.870932
4.950000	-8.464458	-37.652585	-1.057221	107.443094	-1.057221	107.443094	-8.472731	70.046757
5.000000	-8.212560	-40.606051	-1.109579	104.524593	-1.109579	104.524593	-8.209471	67.221521
5.050000	-7.965104	-43.582643	-1.164661	101.595291	-1.164661	101.595291	-7.950712	64.396249
5.100000	-7.722240	-46.582750	-1.222514	98.655545	-1.222514	98.655545	-7.696613	61.571933
5.150000	-7.484045	-49.607198	-1.283237	95.705483	-1.283237	95.705483	-7.447244	58.749507
5.200000	-7.250586	-52.656782	-1.346931	92.745235	-1.346931	92.745235	-7.202662	55.929875
5.250000	-7.021920	-55.732273	-1.413695	89.774929	-1.413695	89.774929	-6.962917	53.113902
5.300000	-6.798095	-58.834429	-1.483633	86.794690	-1.483633	86.794690	-6.728047	50.302418
5.350000	-6.579161	-61.963155	-1.556766	83.804921	-1.556766	83.804921	-6.498110	47.496035
5.400000	-6.365108	-65.121021	-1.633377	80.805090	-1.633377	80.805090	-6.273048	44.695881
5.450000	-6.155978	-68.307813	-1.713481	77.795627	-1.713481	77.795627	-6.052916	41.902478
5.500000	-5.951776	-71.524304	-1.797191	74.776596	-1.797191	74.776596	-5.837710	39.116489
5.550000	-5.752497	-74.771292	-1.884624	71.748031	-1.884624	71.748031	-5.627418	36.338531
5.600000	-5.558124	-78.049605	-1.975903	68.709939	-1.975903	68.709939	-5.422015	33.569169
5.650000	-5.368638	-81.360385	-2.071185	65.662209	-2.071185	65.662209	-5.221474	30.808990
5.700000	-5.184003	-84.704578	-2.170610	62.604766	-2.170610	62.604766	-5.025758	28.058458
5.750000	-5.004167	-88.082905	-2.274305	59.537566	-2.274305	59.537566	-4.834816	25.317887
5.800000	-4.829070	-91.496419	-2.382436	56.460437	-2.382436	56.460437	-4.648589	22.587599
5.850000	-4.658642	-94.946253	-2.495182	53.373148	-2.495182	53.373148	-4.467011	19.867844
5.900000	-4.492806	-98.433631	-2.612745	50.275406	-2.612745	50.275406	-4.290009	17.158792
5.950000	-4.331471	-101.959880	-2.735349	47.166848	-2.735349	47.166848	-4.117500	14.460529
6.000000	-4.174539	-105.526450	-2.863246	44.047034	-2.863246	44.047034	-3.949397	11.773045
6.050000	-4.021902	-109.134932	-2.996726	40.915439	-2.996726	40.915439	-3.785601	9.096220
6.100000	-3.873442	-112.787088	-3.136118	37.771442	-3.136118	37.771442	-3.626011	6.429808
6.150000	-3.729030	-116.484888	-3.281810	34.614312	-3.281810	34.614312	-3.470511	3.773413
6.200000	-3.588527	-120.230570	-3.434254	31.443190	-3.434254	31.443190	-3.318982	1.126454
6.250000	-3.451780	-124.026721	-3.593993	28.257068	-3.593993	28.257068	-3.171289	-1.511882
6.300000	-3.318655	-127.877662	-3.761808	25.054366	-3.761808	25.054366	-3.027311	-4.142596
6.350000	-3.188936	-131.786121	-3.938439	21.833966	-3.938439	21.833966	-2.886853	-6.767472
6.400000	-3.062401	-135.755896	-4.124858	18.594474	-4.124858	18.594474	-2.749705	-9.388778
6.450000	-2.938870	-139.795237	-4.322683	15.333256	-4.322683	15.333256	-2.615670	-12.009650
6.500000	-2.818102	-143.912847	-4.533903	12.047982	-4.533903	12.047982	-2.484461	-14.635016
6.550000	-2.699903	-148.123052	-4.761612	8.735739	-4.761612	8.735739	-2.355743	-17.272643
6.600000	-2.584254	-152.450854	-5.011042	5.393627	-5.011042	5.393627	-2.229129	-19.936177
6.650000	-2.471812	-156.940127	-5.291468	2.022736	-5.291468	2.022736	-2.104299	-22.650967
6.700000	-2.365885	-161.678811	-5.621600	-1.357042	-5.621600	-1.357042	-1.981765	-25.469070
6.750000	-2.282620	-166.882112	-6.047697	-4.620986	-6.047697	-4.620986	-1.867459	-28.521265
6.800000	-2.311820	-173.047436	-6.680923	-6.954016	-6.680923	-6.954016	-1.804830	-32.138988
6.850000	-2.994948	-179.201714	-7.248940	-3.423021	-7.248940	-3.423021	-2.100719	-36.073227
6.900000	-3.240828	-175.725572	-6.117571	-4.906775	-6.117571	-4.906775	-2.305576	-34.627858
6.950000	-2.558705	-178.746679	-6.160236	-12.416757	-6.160236	-12.416757	-1.922174	-35.848157
7.000000	-2.236344	176.285894	-6.523215	-17.561795	-6.523215	-17.561795	-1.693336	-38.368189
7.050000	-2.049220	171.287075	-6.913987	-21.778942	-6.913987	-21.778942	-1.540215	-40.986521
7.100000	-1.913865	166.345611	-7.313081	-25.635841	-7.313081	-25.635841	-1.419620	-43.582942
7.150000	-1.803633	161.430845	-7.724925	-29.324280	-7.724925	-29.324280	-1.316471	-46.152354
7.200000	-1.707808	156.517537	-8.155284	-32.922621	-8.155284	-32.922621	-1.224407	-48.701531
7.250000	-1.621649	151.591206	-8.609225	-36.464156	-8.609225	-36.464156	-1.140572	-51.236309
7.300000	-1.542723	146.644105	-9.091475	-39.963476	-9.091475	-39.963476	-1.063504	-53.760923
7.350000	-1.469688	141.672721	-9.606786	-43.425337	-9.606786	-43.425337	-0.992415	-56.278320
7.400000	-1.401767	136.676299	-10.160241	-46.848313	-10.160241	-46.848313	-0.926872	-58.790519
7.450000	-1.338496	131.655971	-10.757548	-50.226212	-10.757548	-50.226212	-0.866640	-61.298873
7.500000	-1.279596	126.614236	-11.405353	-53.548320	-11.405353	-53.548320	-0.811596	-63.804235
7.550000	-1.224968	121.554371	-12.111715	-56.797121	-12.111715	-56.797121	-0.761773	-66.307035
7.600000	-1.174450	116.481127	-12.886302	-59.950741	-12.886302	-59.950741	-0.717066	-68.807490
7.650000	-1.127929	111.399527	-13.741392	-62.979492	-13.741392	-62.979492	-0.677392	-71.305571
7.700000	-1.085481	106.314767	-14.693068	-65.833622	-14.693068	-65.833622	-0.642886	-73.800972
7.750000	-1.047055	101.232718	-15.762513	-68.445341	-15.762513	-68.445341	-0.613489	-76.293343
7.800000	-1.012644	96.159388	-16.978817	-70.706948	-16.978817	-70.706948	-0.589184	-78.782224
7.850000	-0.982272	91.101093	-18.383009	-72.433877	-18.383009	-72.433877	-0.569977	-81.267077
7.900000	-0.955905	86.064013	-20.035044	-73.303767	-20.035044	-73.303767	-0.555789	-83.747410
7.950000	-0.933512	81.054225	-22.024288	-72.685043	-22.024288	-72.685043	-0.546533	-86.222770
8.000000	-0.915060	76.077695	-24.477781	-69.185284	-24.477781	-69.185284	-0.542116	-88.692765
8.050000	-0.900508	71.140171	-27.498012	-59.373918	-27.498012	-59.373918	-0.542428	-91.157109
8.100000	-0.889804	66.247102	-30.516075	-35.587839	-30.516075	-35.587839	-0.547345	-93.615649
8.150000	-0.882915	61.404030	-30.614509	1.491722	-30.614509	1.491722	-0.556764	-96.068343
8.200000	-0.879769	56.615760	-27.742308	25.671153	-27.742308	25.671153	-0.570534	-98.515377
8.250000	-0.880258	51.886123	-24.831534	35.855939	-24.831534	35.855939	-0.588468	-100.957169
8.300000	-0.884301	47.218884	-22.481152	39.643487	-22.481152	39.643487	-0.610413	-103.394287
8.350000	-0.891715	42.615336	-20.594558	40.572298	-20.594558	40.572298	-0.636114	-105.827582
8.400000	-0.902630	38.082418	-19.043883	39.964383	-19.043883	39.964383	-0.665655	-108.257798
8.450000	-0.916852	33.620287	-17.739337	38.541031	-17.739337	38.541031	-0.698777	-110.686224
8.500000	-0.934306	29.230759	-16.619732	36.622604	-16.619732	36.622604	-0.735359	-113.114206
8.550000	-0.954928	24.915192	-15.643148	34.387660	-15.643148	34.387660	-0.775293	-115.543276
8.600000	-0.978661	20.674508	-14.779929	31.942708	-14.779929	31.942708	-0.818487	-117.975141
8.650000	-1.005460	16.509226	-14.008423	29.354728	-14.008423	29.354728	-0.864869	-120.411681
8.700000	-1.035296	12.419492	-13.312375	26.667588	-13.312375	26.667588	-0.914386	-122.854939
8.750000	-1.068154	8.405115	-12.679280	23.910916	-12.679280	23.910916	-0.967009	-125.307122
8.800000	-1.104076	4.466675	-12.099448	21.104671	-12.099448	21.104671	-1.022768	-127.770791
8.850000	-1.143043	0.602312	-11.564844	18.263944	-11.564844	18.263944	-1.081639	-130.248344
8.900000	-1.185094	-3.188962	-11.069082	15.398659	-11.069082	15.398659	-1.143665	-132.742458
8.950000	-1.230289	-6.908321	-10.606904	12.515767	-10.606904	12.515767	-1.208911	-135.255967
9.000000	-1.278712	-10.557086	-10.173931	9.620047	-10.173931	9.620047	-1.277472	-137.791866
9.050000	-1.330602	-14.133739	-9.766670	6.714312	-9.766670	6.714312	-1.349598	-140.354552
9.100000	-1.385711	-17.647990	-9.381462	3.801439	-9.381462	3.801439	-1.425088	-142.943952
9.150000	-1.444698	-21.090693	-9.016282	0.881190	-9.016282	0.881190	-1.504603	-145.568413
9.200000	-1.507165	-24.474744	-8.668298	-2.045031	-8.668298	-2.045031	-1.587811	-148.225658
9.250000	-1.573981	-27.789332	-8.336021	-4.978926	-8.336021	-4.978926	-1.675606	-150.927016
9.300000	-1.644753	-31.046754	-8.017416	-7.920064	-8.017416	-7.920064	-1.767672	-153.669365
9.350000	-1.720170	-34.241218	-7.711195	-10.870619	-7.711195	-10.870619	-1.864763	-156.462348
9.400000	-1.800285	-37.377337	-7.416050	-13.831529	-7.416050	-13.831529	-1.967019	-159.307603
9.450000	-1.885403	-40.456048	-7.130906	-16.804507	-7.130906	-16.804507	-2.074850	-162.209916
9.500000	-1.976113	-43.474691	-6.854855	-19.792215	-6.854855	-19.792215	-2.188980	-165.177884
9.550000	-2.072230	-46.440319	-6.587133	-22.794873	-6.587133	-22.794873	-2.309347	-168.209157
9.600000	-2.174684	-49.346373	-6.327067	-25.816419	-6.327067	-25.816419	-2.437091	-171.317246
9.650000	-2.283746	-52.194154	-6.074122	-28.858600	-6.074122	-28.858600	-2.572697	-174.506410
9.700000	-2.399758	-54.983673	-5.827877	-31.923242	-5.827877	-31.923242	-2.716755	-177.781826
9.750000	-2.523142	-57.713593	-5.587999	-35.012388	-5.587999	-35.012388	-2.869984	178.849914
9.800000	-2.654321	-60.381993	-5.354239	-38.127989	-5.354239	-38.127989	-3.033159	175.381871
9.850000	-2.793713	-62.986306	-5.126428	-41.271876	-5.126428	-41.271876	-3.207106	171.806741
9.900000	-2.941712	-65.523252	-4.904460	-44.445718	-4.904460	-44.445718	-3.392692	168.116837
9.950000	-3.098679	-67.988780	-4.688290	-47.651004	-4.688290	-47.651004	-3.590825	164.304070
10.000000	-3.264921	-70.378016	-4.477922	-50.889011	-4.477922	-50.889011	-3.802429	160.359921
