! freq	dB(S11)	phase(S11)	dB(S12)	phase(S12)	
!     	dB(S21)	phase(S21)	dB(S22)	phase(S22)	
!S-par simulation data
#  GHz  S  DB  R 50
0.000000	-0.000000	-0.000000	-381.386867	180.000000	-381.386867	180.000000	-0.000000	-0.000000
0.050000	-0.000109	-0.856889	-114.936887	88.746433	-114.936887	88.746433	-0.000109	-0.855477
0.100000	-0.000432	-1.713511	-109.002794	87.584278	-109.002794	87.584278	-0.000433	-1.710684
0.150000	-0.000956	-2.569619	-105.613622	86.564146	-105.613622	86.564146	-0.000958	-2.565375
0.200000	-0.001659	-3.425009	-103.283749	85.692279	-103.283749	85.692279	-0.001662	-3.419345
0.250000	-0.002526	-4.279454	-101.553347	84.964276	-101.553347	84.964276	-0.002530	-4.272367
0.300000	-0.003518	-5.132913	-100.205142	84.353691	-100.205142	84.353691	-0.003522	-5.124400
0.350000	-0.004613	-5.985269	-99.135848	83.861652	-99.135848	83.861652	-0.004618	-5.975329
0.400000	-0.005788	-6.836478	-98.283092	83.494338	-98.283092	83.494338	-0.005792	-6.825111
0.450000	-0.007019	-7.686527	-97.608632	83.269206	-97.608632	83.269206	-0.007022	-7.673735
0.500000	-0.008288	-8.535428	-97.088268	83.215284	-97.088268	83.215284	-0.008289	-8.521212
0.550000	-0.009578	-9.383205	-96.706628	83.374615	-96.706628	83.374615	-0.009576	-9.367571
0.600000	-0.010876	-10.229894	-96.454258	83.805418	-96.454258	83.805418	-0.010871	-10.212846
0.650000	-0.012173	-11.075534	-96.325769	84.587545	-96.325769	84.587545	-0.012165	-11.057077
0.700000	-0.013462	-11.920161	-96.318364	85.831012	-96.318364	85.831012	-0.013450	-11.900302
0.750000	-0.014738	-12.763811	-96.430125	87.688651	-96.430125	87.688651	-0.014722	-12.742556
0.800000	-0.015998	-13.606513	-96.657223	90.373639	-96.657223	90.373639	-0.015978	-13.583868
0.850000	-0.017240	-14.448291	-96.988580	94.180140	-96.988580	94.180140	-0.017217	-14.424261
0.900000	-0.018464	-15.289161	-97.395579	99.495949	-97.395579	99.495949	-0.018438	-15.263754
0.950000	-0.019670	-16.129137	-97.814128	106.770480	-97.814128	106.770480	-0.019641	-16.102357
1.000000	-0.020860	-16.968224	-98.121961	116.358472	-98.121961	116.358472	-0.020826	-16.940077
1.050000	-0.022033	-17.806422	-98.135098	128.163227	-98.135098	128.163227	-0.021996	-17.776914
1.100000	-0.023191	-18.643730	-97.672689	141.227602	-97.672689	141.227602	-0.023151	-18.612866
1.150000	-0.024335	-19.480140	-96.685509	153.856995	-96.685509	153.856995	-0.024293	-19.447924
1.200000	-0.025467	-20.315642	-95.302380	164.572590	-95.302380	164.572590	-0.025423	-20.282080
1.250000	-0.026588	-21.150223	-93.720685	172.851505	-93.720685	172.851505	-0.026542	-21.115320
1.300000	-0.027700	-21.983828	-92.081935	178.843716	-92.081935	178.843716	-0.027651	-21.947588
1.350000	-0.028802	-22.816479	-90.486367	-176.867721	-90.486367	-176.867721	-0.028752	-22.778908
1.400000	-0.029898	-23.648159	-88.967957	-173.854530	-88.967957	-173.854530	-0.029846	-23.609262
1.450000	-0.030988	-24.478849	-87.536607	-171.786872	-87.536607	-171.786872	-0.030934	-24.438630
1.500000	-0.032072	-25.308529	-86.191179	-170.424203	-86.191179	-170.424203	-0.032017	-25.266994
1.550000	-0.033151	-26.137179	-84.926061	-169.593838	-84.926061	-169.593838	-0.033095	-26.094334
1.600000	-0.034227	-26.964780	-83.734230	-169.171560	-83.734230	-169.171560	-0.034169	-26.920628
1.650000	-0.035300	-27.791309	-82.608615	-169.067097	-82.608615	-169.067097	-0.035241	-27.745857
1.700000	-0.036370	-28.616357	-81.518050	-169.278365	-81.518050	-169.278365	-0.036310	-28.569613
1.750000	-0.037440	-29.440829	-80.516732	-169.602572	-80.516732	-169.602572	-0.037377	-29.392795
1.800000	-0.038507	-30.263912	-79.548988	-170.111826	-79.548988	-170.111826	-0.038444	-30.214595
1.850000	-0.039574	-31.086002	-78.633392	-170.753254	-78.633392	-170.753254	-0.039509	-31.035408
1.900000	-0.040641	-31.906858	-77.754630	-171.502128	-77.754630	-171.502128	-0.040575	-31.854992
1.950000	-0.041708	-32.726479	-76.910808	-172.358447	-76.910808	-172.358447	-0.041640	-32.673349
2.000000	-0.042775	-33.545035	-76.105683	-173.277988	-76.105683	-173.277988	-0.042706	-33.490647
2.050000	-0.043844	-34.362101	-75.322726	-174.286041	-75.322726	-174.286041	-0.043773	-34.306462
2.100000	-0.044913	-35.178511	-74.585871	-175.323105	-74.585871	-175.323105	-0.044841	-35.121625
2.150000	-0.045984	-35.993219	-73.861991	-176.432056	-73.861991	-176.432056	-0.045911	-35.935095
2.200000	-0.047057	-36.806640	-73.162618	-177.585006	-73.162618	-177.585006	-0.046982	-36.747285
2.250000	-0.048133	-37.618754	-72.486085	-178.776482	-72.486085	-178.776482	-0.048056	-37.558176
2.300000	-0.049211	-38.429546	-71.830896	179.998144	-71.830896	179.998144	-0.049133	-38.367752
2.350000	-0.050293	-39.238999	-71.195706	178.742804	-71.195706	178.742804	-0.050213	-39.175995
2.400000	-0.051378	-40.047095	-70.579297	177.460867	-70.579297	177.460867	-0.051296	-39.982890
2.450000	-0.052466	-40.853819	-69.980567	176.155230	-69.980567	176.155230	-0.052383	-40.788420
2.500000	-0.053559	-41.659154	-69.398513	174.828404	-69.398513	174.828404	-0.053474	-41.592570
2.550000	-0.054657	-42.463025	-68.831304	173.481837	-68.831304	173.481837	-0.054570	-42.395263
2.600000	-0.055759	-43.265476	-68.279111	172.118327	-68.279111	172.118327	-0.055670	-43.196544
2.650000	-0.056867	-44.066494	-67.741155	170.739523	-67.741155	170.739523	-0.056776	-43.996399
2.700000	-0.057980	-44.866064	-67.216721	169.346884	-67.216721	169.346884	-0.057887	-44.794815
2.750000	-0.059100	-45.664173	-66.705149	167.941705	-66.705149	167.941705	-0.059004	-45.591778
2.800000	-0.060225	-46.460809	-66.205828	166.525137	-66.205828	166.525137	-0.060128	-46.387275
2.850000	-0.061358	-47.255958	-65.718196	165.098210	-65.718196	165.098210	-0.061258	-47.181294
2.900000	-0.062497	-48.049608	-65.241727	163.661845	-65.241727	163.661845	-0.062396	-47.973822
2.950000	-0.063645	-48.841748	-64.775934	162.216873	-64.775934	162.216873	-0.063540	-48.764849
3.000000	-0.064800	-49.632367	-64.320363	160.764040	-64.320363	160.764040	-0.064693	-49.554362
3.050000	-0.065963	-50.421453	-63.874590	159.304023	-63.874590	159.304023	-0.065854	-50.342352
3.100000	-0.067135	-51.208997	-63.438220	157.837435	-63.438220	157.837435	-0.067024	-51.128807
3.150000	-0.068316	-51.994990	-63.010879	156.364834	-63.010879	156.364834	-0.068203	-51.913718
3.200000	-0.069506	-52.779420	-62.592221	154.886726	-62.592221	154.886726	-0.069391	-52.697076
3.250000	-0.070707	-53.562280	-62.181917	153.403576	-62.181917	153.403576	-0.070589	-53.478872
3.300000	-0.071918	-54.343561	-61.779659	151.915809	-61.779659	151.915809	-0.071797	-54.259097
3.350000	-0.073141	-55.122977	-61.383396	150.423181	-61.383396	150.423181	-0.073018	-55.037467
3.400000	-0.074376	-55.900729	-60.994347	148.926526	-60.994347	148.926526	-0.074251	-55.814181
3.450000	-0.075618	-56.677643	-60.617120	147.428144	-60.617120	147.428144	-0.075490	-56.590062
3.500000	-0.076878	-57.452043	-60.241626	145.924583	-60.241626	145.924583	-0.076747	-57.363440
3.550000	-0.078142	-58.225879	-59.878695	144.420070	-59.878695	144.420070	-0.078009	-58.136259
3.600000	-0.079429	-58.996899	-59.515931	142.910800	-59.515931	142.910800	-0.079293	-58.906275
3.650000	-0.080718	-59.767636	-59.166321	141.401140	-59.166321	141.401140	-0.080579	-59.676009
3.700000	-0.082033	-60.535255	-58.815540	139.887182	-58.815540	139.887182	-0.081892	-60.442641
3.750000	-0.083349	-61.302874	-58.478377	138.373224	-58.478377	138.373224	-0.083204	-61.209274
3.800000	-0.084694	-62.067074	-58.138901	136.855455	-58.138901	136.855455	-0.084547	-61.972503
3.850000	-0.086040	-62.831274	-57.812196	135.337686	-57.812196	135.337686	-0.085890	-62.735733
3.900000	-0.087415	-63.592327	-57.484606	133.817118	-57.484606	133.817118	-0.087262	-63.495831
3.950000	-0.088793	-64.353094	-57.167809	132.296296	-57.167809	132.296296	-0.088637	-64.255644
4.000000	-0.090199	-65.110993	-56.851375	130.773477	-56.851375	130.773477	-0.090040	-65.012602
4.050000	-0.091611	-65.868318	-56.543984	129.250259	-56.543984	129.250259	-0.091449	-65.768989
4.100000	-0.093050	-66.623057	-56.238040	127.725676	-56.238040	127.725676	-0.092884	-66.522802
4.150000	-0.094498	-67.376934	-55.939591	126.200638	-55.939591	126.200638	-0.094329	-67.275757
4.200000	-0.095972	-68.128512	-55.643533	124.674723	-55.643533	124.674723	-0.095799	-68.026423
4.250000	-0.097458	-68.878939	-55.353598	123.148370	-55.353598	123.148370	-0.097282	-68.775944
4.300000	-0.098967	-69.627356	-55.066873	121.621509	-55.066873	121.621509	-0.098787	-69.523463
4.350000	-0.100492	-70.374337	-54.785055	120.094285	-54.785055	120.094285	-0.100309	-70.269552
4.400000	-0.102039	-71.119597	-54.507156	118.566824	-54.507156	118.566824	-0.101852	-71.013928
4.450000	-0.103606	-71.863137	-54.233089	117.039125	-54.233089	117.039125	-0.103415	-71.756592
4.500000	-0.105191	-72.605248	-53.963551	115.511375	-53.963551	115.511375	-0.104997	-72.497832
4.550000	-0.106802	-73.345357	-53.696892	113.983552	-53.696892	113.983552	-0.106604	-73.237079
4.600000	-0.108428	-74.084328	-53.435286	112.455792	-53.435286	112.455792	-0.108226	-73.975192
4.650000	-0.110084	-74.821021	-53.175718	110.928159	-53.175718	110.928159	-0.109878	-74.711037
4.700000	-0.111752	-75.556865	-52.921648	109.400643	-52.921648	109.400643	-0.111542	-75.446036
4.750000	-0.113456	-76.290159	-52.668872	107.873481	-52.668872	107.873481	-0.113240	-76.178496
4.800000	-0.115167	-77.022891	-52.421973	106.346439	-52.421973	106.346439	-0.114948	-76.910396
4.850000	-0.116920	-77.752808	-52.175712	104.820001	-52.175712	104.820001	-0.116695	-77.639491
4.900000	-0.118677	-78.482446	-51.935643	103.293643	-51.935643	103.293643	-0.118448	-78.368309
4.950000	-0.120480	-79.209011	-51.695636	101.768158	-51.695636	101.768158	-0.120246	-79.094065
5.000000	-0.122284	-79.935576	-51.462084	100.242673	-51.462084	100.242673	-0.122045	-79.819822
5.050000	-0.124140	-80.658818	-51.228087	98.718350	-51.228087	98.718350	-0.123896	-80.542266
5.100000	-0.125996	-81.382059	-51.000229	97.194027	-51.000229	97.194027	-0.125747	-81.264711
5.150000	-0.127902	-82.102283	-50.772540	95.670941	-50.772540	95.670941	-0.127648	-81.984149
5.200000	-0.129814	-82.822232	-50.550166	94.147968	-50.550166	94.147968	-0.129553	-82.703313
5.250000	-0.131771	-83.539468	-50.328506	92.626264	-50.328506	92.626264	-0.131506	-83.419773
5.300000	-0.133739	-84.256161	-50.111418	91.104814	-50.111418	91.104814	-0.133467	-84.135692
5.350000	-0.135750	-84.970440	-49.895525	89.584624	-49.895525	89.584624	-0.135472	-84.849205
5.400000	-0.137776	-85.683915	-49.683535	88.064855	-49.683535	88.064855	-0.137492	-85.561917
5.450000	-0.139842	-86.395272	-49.473166	86.546303	-49.473166	86.546303	-0.139551	-86.272517
5.500000	-0.141928	-87.105571	-49.266098	85.028360	-49.266098	85.028360	-0.141631	-86.982062
5.550000	-0.144050	-87.814042	-49.061024	83.511560	-49.061024	83.511560	-0.143746	-87.689785
5.600000	-0.146198	-88.521209	-48.858708	81.995576	-48.858708	81.995576	-0.145887	-88.396207
5.650000	-0.148377	-89.226834	-48.658715	80.480635	-48.658715	80.480635	-0.148060	-89.101092
5.700000	-0.150589	-89.930917	-48.460993	78.966734	-48.460993	78.966734	-0.150265	-89.804439
5.750000	-0.152828	-90.633736	-48.265880	77.453749	-48.265880	77.453749	-0.152496	-90.506526
5.800000	-0.155105	-91.334785	-48.072600	75.942046	-48.072600	75.942046	-0.154766	-91.206847
5.850000	-0.157405	-92.034842	-47.882178	74.431110	-47.882178	74.431110	-0.157058	-91.906179
5.900000	-0.159749	-92.732912	-47.693197	72.921710	-47.693197	72.921710	-0.159394	-92.603528
5.950000	-0.162111	-93.430251	-47.507285	71.412909	-47.507285	71.412909	-0.161748	-93.300148
6.000000	-0.164525	-94.125398	-47.322467	69.905908	-47.322467	69.905908	-0.164153	-93.994581
6.050000	-0.166951	-94.820068	-47.140899	68.399321	-47.140899	68.399321	-0.166570	-94.688537
6.100000	-0.169435	-95.512350	-46.960112	66.894810	-46.960112	66.894810	-0.169046	-95.380112
6.150000	-0.171926	-96.204400	-46.782728	65.390514	-46.782728	65.390514	-0.171528	-96.071453
6.200000	-0.174483	-96.893880	-46.605848	63.888575	-46.605848	63.888575	-0.174076	-96.760230
6.250000	-0.177041	-97.583360	-46.432498	62.386637	-46.432498	62.386637	-0.176624	-97.449007
6.300000	-0.179672	-98.270102	-46.259407	60.887349	-46.259407	60.887349	-0.179245	-98.135050
6.350000	-0.182305	-98.956844	-46.089698	59.388060	-46.089698	59.388060	-0.181868	-98.821093
6.400000	-0.185006	-99.641137	-45.920533	57.891265	-45.920533	57.891265	-0.184558	-99.504690
6.450000	-0.187714	-100.325208	-45.754359	56.394696	-45.754359	56.394696	-0.187256	-100.188064
6.500000	-0.190486	-101.007110	-45.588983	54.900447	-45.588983	54.900447	-0.190018	-100.869273
6.550000	-0.193273	-101.688578	-45.426241	53.406663	-45.426241	53.406663	-0.192793	-101.550048
6.600000	-0.196118	-102.368149	-45.264523	51.915009	-45.264523	51.915009	-0.195626	-102.228926
6.650000	-0.198983	-103.047086	-45.105117	50.424066	-45.105117	50.424066	-0.198480	-102.907172
6.700000	-0.201903	-103.724386	-44.946934	48.935051	-44.946934	48.935051	-0.201388	-103.583780
6.750000	-0.204849	-104.400867	-44.790770	47.447002	-44.790770	47.447002	-0.204322	-104.259570
6.800000	-0.207844	-105.075959	-44.636004	45.960666	-44.636004	45.960666	-0.207305	-104.933971
6.850000	-0.210874	-105.750059	-44.482993	44.475556	-44.482993	44.475556	-0.210321	-105.607379
6.900000	-0.213946	-106.423008	-44.331531	42.991935	-44.331531	42.991935	-0.213380	-106.279636
6.950000	-0.217060	-107.094806	-44.181586	41.509803	-44.181586	41.509803	-0.216480	-106.950742
7.000000	-0.220210	-107.765678	-44.033323	40.028926	-44.033323	40.028926	-0.219617	-107.620920
7.050000	-0.223410	-108.435254	-43.886362	38.549806	-43.886362	38.549806	-0.222802	-108.289801
7.100000	-0.226640	-109.104118	-43.741196	37.071700	-43.741196	37.071700	-0.226018	-108.957968
7.150000	-0.229927	-109.771554	-43.597138	35.595619	-43.597138	35.595619	-0.229290	-109.624707
7.200000	-0.233238	-110.438478	-43.454972	34.120303	-43.454972	34.120303	-0.232586	-110.290931
7.250000	-0.236615	-111.103861	-43.313741	32.647282	-43.313741	32.647282	-0.235947	-110.955611
7.300000	-0.240008	-111.768915	-43.174483	31.174772	-43.174483	31.174772	-0.239324	-111.619962
7.350000	-0.243476	-112.432330	-43.036007	29.704824	-43.036007	29.704824	-0.242775	-112.282669
7.400000	-0.246952	-113.095589	-42.899568	28.235133	-42.899568	28.235133	-0.246235	-112.945219
7.450000	-0.250512	-113.757125	-42.763774	26.768264	-42.763774	26.768264	-0.249778	-113.606041
7.500000	-0.254074	-114.418661	-42.630071	25.301396	-42.630071	25.301396	-0.253322	-114.266863
7.550000	-0.257727	-115.078410	-42.496893	23.837608	-42.496893	23.837608	-0.256957	-114.925888
7.600000	-0.261382	-115.738158	-42.365726	22.373820	-42.365726	22.373820	-0.260594	-115.584914
7.650000	-0.265123	-116.396353	-42.235217	20.912848	-42.235217	20.912848	-0.264316	-116.242378
7.700000	-0.268874	-117.054407	-42.106524	19.452133	-42.106524	19.452133	-0.268047	-116.899700
7.750000	-0.272704	-117.711127	-41.978607	17.993967	-41.978607	17.993967	-0.271856	-117.555680
7.800000	-0.276551	-118.367580	-41.852330	16.536310	-41.852330	16.536310	-0.275683	-118.211391
7.850000	-0.280470	-119.022905	-41.726931	15.080930	-41.726931	15.080930	-0.279581	-118.865966
7.900000	-0.284415	-119.677855	-41.603011	13.626310	-41.603011	13.626310	-0.283505	-119.520162
7.950000	-0.288425	-120.331869	-41.480061	12.173694	-41.480061	12.173694	-0.287493	-120.173413
8.000000	-0.292469	-120.985414	-41.358445	10.722082	-41.358445	10.722082	-0.291515	-120.826192
8.050000	-0.296572	-121.638198	-41.237875	9.272202	-41.237875	9.272202	-0.295594	-121.478201
8.100000	-0.300716	-122.290439	-41.118511	7.823559	-41.118511	7.823559	-0.299715	-122.129661
8.150000	-0.304912	-122.942079	-41.000259	6.376380	-41.000259	6.376380	-0.303886	-122.780512
8.200000	-0.309158	-123.593118	-40.883097	4.930664	-40.883097	4.930664	-0.308107	-123.430755
8.250000	-0.313448	-124.243701	-40.767103	3.486146	-40.767103	3.486146	-0.312371	-124.080533
8.300000	-0.317797	-124.893643	-40.652096	2.043305	-40.652096	2.043305	-0.316694	-124.729661
8.350000	-0.322181	-125.543256	-40.538302	0.601402	-40.538302	0.601402	-0.321052	-125.378453
8.400000	-0.326634	-126.192208	-40.425406	-0.838624	-40.425406	-0.838624	-0.325477	-126.026572
8.450000	-0.331115	-126.840940	-40.313758	-2.277962	-40.313758	-2.277962	-0.329930	-126.674465
8.500000	-0.335673	-127.489010	-40.202931	-3.715239	-40.202931	-3.715239	-0.334459	-127.321682
8.550000	-0.340250	-128.136952	-40.093377	-5.152069	-40.093377	-5.152069	-0.339007	-127.968766
8.600000	-0.344914	-128.784251	-39.984580	-6.586670	-39.984580	-6.586670	-0.343640	-128.615189
8.650000	-0.349589	-129.431495	-39.877072	-8.021054	-39.877072	-8.021054	-0.348284	-129.261556
8.700000	-0.354360	-130.078136	-39.770268	-9.453059	-39.770268	-9.453059	-0.353023	-129.907296
8.750000	-0.359133	-130.724776	-39.664761	-10.885064	-39.664761	-10.885064	-0.357764	-130.553037
8.800000	-0.364012	-131.370872	-39.559916	-12.314560	-39.559916	-12.314560	-0.362608	-131.198207
8.850000	-0.368893	-132.016968	-39.456321	-13.744056	-39.456321	-13.744056	-0.367455	-131.843378
8.900000	-0.373871	-132.662673	-39.353450	-15.171337	-39.353450	-15.171337	-0.372398	-132.488131
8.950000	-0.378861	-133.308342	-39.251738	-16.598416	-39.251738	-16.598416	-0.377352	-133.132847
9.000000	-0.383939	-133.953754	-39.150802	-18.023564	-39.150802	-18.023564	-0.382393	-133.777281
9.050000	-0.389038	-134.599114	-39.050946	-19.448325	-39.050946	-19.448325	-0.387454	-134.421658
9.100000	-0.394217	-135.244333	-38.951910	-20.871424	-38.951910	-20.871424	-0.392594	-135.065871
9.150000	-0.399426	-135.889506	-38.853886	-22.293970	-38.853886	-22.293970	-0.397763	-135.710030
9.200000	-0.404707	-136.534636	-38.756717	-23.715110	-38.756717	-23.715110	-0.403002	-136.354123
9.250000	-0.410025	-137.179745	-38.660504	-25.135548	-38.660504	-25.135548	-0.408279	-136.998183
9.300000	-0.415408	-137.824889	-38.565172	-26.554821	-38.565172	-26.554821	-0.413618	-137.642259
9.350000	-0.420837	-138.470058	-38.470753	-27.973261	-38.470753	-27.973261	-0.419003	-138.286345
9.400000	-0.426321	-139.115322	-38.377232	-29.390760	-38.377232	-29.390760	-0.424442	-138.930506
9.450000	-0.431861	-139.760681	-38.284591	-30.807317	-38.284591	-30.807317	-0.429935	-139.574743
9.500000	-0.437448	-140.406173	-38.192856	-32.223137	-38.192856	-32.223137	-0.435474	-140.219096
9.550000	-0.443098	-141.051851	-38.101982	-33.637925	-38.101982	-33.637925	-0.441076	-140.863612
9.600000	-0.448787	-141.697679	-38.012013	-35.052163	-38.012013	-35.052163	-0.446714	-141.508264
9.650000	-0.454549	-142.343809	-37.922897	-36.465300	-37.922897	-36.465300	-0.452424	-142.153189
9.700000	-0.460340	-142.990086	-37.834676	-37.878052	-37.834676	-37.878052	-0.458163	-142.798249
9.750000	-0.466212	-143.636802	-37.747312	-39.289652	-37.747312	-39.289652	-0.463980	-143.443716
9.800000	-0.472106	-144.283640	-37.660824	-40.701015	-37.660824	-40.701015	-0.469819	-144.089296
9.850000	-0.478088	-144.931082	-37.575211	-42.111192	-37.575211	-42.111192	-0.475744	-144.735439
9.900000	-0.484084	-145.578595	-37.490442	-43.521260	-37.490442	-43.521260	-0.481681	-145.381651
9.950000	-0.490177	-146.226902	-37.406582	-44.930126	-37.406582	-44.930126	-0.487713	-146.028609
10.000000	-0.496274	-146.875209	-37.323523	-46.338992	-37.323523	-46.338992	-0.493750	-146.675567
