! freq	dB(S11)	phase(S11)	dB(S12)	phase(S12)	
!     	dB(S21)	phase(S21)	dB(S22)	phase(S22)	
!S-par simulation data
#  GHz  S  DB  R 50
0.000000	-0.000000	0.000000	-322.296516	0.000000	-322.296516	0.000000	-0.000000	0.000000
0.050000	-0.017538	-1.783096	-90.657162	104.075361	-90.657162	104.075361	-0.017498	-1.783348
0.100000	-0.019451	-3.504578	-84.943638	94.444097	-84.943638	94.444097	-0.019439	-3.504669
0.150000	-0.020142	-5.237087	-81.514596	89.917208	-81.514596	89.917208	-0.020136	-5.237057
0.200000	-0.020738	-6.972244	-79.087594	86.719422	-79.087594	86.719422	-0.020735	-6.972119
0.250000	-0.021394	-8.707766	-77.225274	84.092889	-77.225274	84.092889	-0.021392	-8.707560
0.300000	-0.022147	-10.442614	-75.727793	81.768516	-75.727793	81.768516	-0.022146	-10.442337
0.350000	-0.023009	-12.176181	-74.487255	79.633673	-74.487255	79.633673	-0.023008	-12.175835
0.400000	-0.023982	-13.908023	-73.438792	77.634392	-73.438792	77.634392	-0.023981	-13.907614
0.450000	-0.025062	-15.637779	-72.540354	75.742721	-72.540354	75.742721	-0.025061	-15.637308
0.500000	-0.026247	-17.365130	-71.763125	73.943701	-71.763125	73.943701	-0.026246	-17.364601
0.550000	-0.027532	-19.089784	-71.086498	72.229497	-71.086498	72.229497	-0.027531	-19.089199
0.600000	-0.028910	-20.811470	-70.495243	70.596517	-70.495243	70.596517	-0.028909	-20.810832
0.650000	-0.030376	-22.529894	-69.978206	69.044801	-69.978206	69.044801	-0.030375	-22.529204
0.700000	-0.031925	-24.244804	-69.526400	67.575557	-69.526400	67.575557	-0.031924	-24.244065
0.750000	-0.033548	-25.956005	-69.132327	66.190668	-69.132327	66.190668	-0.033547	-25.955218
0.800000	-0.035239	-27.663276	-68.790314	64.894236	-68.790314	64.894236	-0.035237	-27.662445
0.850000	-0.036990	-29.366408	-68.495755	63.691663	-68.495755	63.691663	-0.036989	-29.365535
0.900000	-0.038797	-31.065203	-68.244855	62.589686	-68.244855	62.589686	-0.038796	-31.064289
0.950000	-0.040651	-32.759470	-68.034440	61.596474	-68.034440	61.596474	-0.040650	-32.758519
1.000000	-0.042547	-34.449031	-67.861801	60.721773	-67.861801	60.721773	-0.042546	-34.448045
1.050000	-0.044478	-36.133717	-67.724562	59.977074	-67.724562	59.977074	-0.044477	-36.132698
1.100000	-0.046439	-37.813367	-67.620555	59.375816	-67.620555	59.375816	-0.046438	-37.812319
1.150000	-0.048423	-39.487831	-67.547704	58.933588	-67.547704	58.933588	-0.048422	-39.486755
1.200000	-0.050426	-41.156968	-67.503890	58.668329	-67.503890	58.668329	-0.050425	-41.155868
1.250000	-0.052442	-42.820645	-67.486814	58.600473	-67.486814	58.600473	-0.052442	-42.819523
1.300000	-0.054467	-44.478614	-67.494277	58.758388	-67.494277	58.758388	-0.054467	-44.477473
1.350000	-0.056496	-46.130879	-67.522446	59.163362	-67.522446	59.163362	-0.056497	-46.129723
1.400000	-0.058526	-47.777335	-67.567277	59.842883	-67.567277	59.842883	-0.058527	-47.776166
1.450000	-0.060553	-49.417884	-67.623666	60.825378	-67.623666	60.825378	-0.060554	-49.416705
1.500000	-0.062574	-51.052435	-67.685180	62.138520	-67.685180	62.138520	-0.062575	-51.051249
1.550000	-0.064586	-52.680906	-67.743806	63.806558	-67.743806	63.806558	-0.064587	-52.679717
1.600000	-0.066587	-54.303223	-67.789796	65.846501	-67.789796	65.846501	-0.066589	-54.302033
1.650000	-0.068574	-55.919317	-67.811727	68.263186	-67.811727	68.263186	-0.068577	-55.918129
1.700000	-0.070545	-57.528509	-67.792153	71.076588	-67.792153	71.076588	-0.070548	-57.527327
1.750000	-0.072502	-59.131909	-67.725297	74.181780	-67.725297	74.181780	-0.072505	-59.130737
1.800000	-0.074441	-60.728926	-67.595975	77.547830	-67.595975	77.547830	-0.074445	-60.727766
1.850000	-0.076362	-62.319518	-67.394499	81.087100	-67.394499	81.087100	-0.076367	-62.318375
1.900000	-0.078265	-63.903653	-67.115186	84.693744	-67.115186	84.693744	-0.078270	-63.902528
1.950000	-0.080150	-65.481302	-66.757313	88.254439	-66.757313	88.254439	-0.080155	-65.480200
2.000000	-0.082016	-67.052443	-66.325192	91.661056	-66.325192	91.661056	-0.082022	-67.051367
2.050000	-0.083864	-68.617060	-65.827327	94.821998	-65.827327	94.821998	-0.083871	-68.616013
2.100000	-0.085695	-70.175143	-65.274972	97.669492	-65.274972	97.669492	-0.085702	-70.174129
2.150000	-0.087508	-71.726686	-64.680513	100.161808	-64.680513	100.161808	-0.087517	-71.725709
2.200000	-0.089306	-73.271690	-64.056093	102.281146	-64.056093	102.281146	-0.089315	-73.270753
2.250000	-0.091089	-74.810161	-63.412671	104.028908	-63.412671	104.028908	-0.091099	-74.809267
2.300000	-0.092858	-76.342109	-62.759539	105.420120	-62.759539	105.420120	-0.092869	-76.341263
2.350000	-0.094615	-77.867549	-62.104196	106.478285	-62.104196	106.478285	-0.094626	-77.866754
2.400000	-0.096360	-79.386503	-61.452455	107.231267	-61.452455	107.231267	-0.096372	-79.385762
2.450000	-0.098096	-80.898994	-60.808661	107.708338	-60.808661	107.708338	-0.098109	-80.898311
2.500000	-0.099824	-82.405052	-60.175949	107.938255	-60.175949	107.938255	-0.099837	-82.404431
2.550000	-0.101544	-83.904436	-59.555262	107.939731	-59.555262	107.939731	-0.101559	-83.903881
2.600000	-0.103260	-85.397463	-58.949525	107.748055	-58.949525	107.748055	-0.103275	-85.396977
2.650000	-0.104973	-86.884177	-58.359557	107.385325	-58.359557	107.385325	-0.104989	-86.883764
2.700000	-0.106684	-88.364625	-57.785768	106.871233	-57.785768	106.871233	-0.106700	-88.364289
2.750000	-0.108395	-89.838857	-57.228273	106.223210	-57.228273	106.223210	-0.108413	-89.838602
2.800000	-0.110108	-91.306929	-56.686970	105.456625	-56.686970	105.456625	-0.110126	-91.306758
2.850000	-0.111824	-92.768900	-56.161610	104.584996	-56.161610	104.584996	-0.111844	-92.768817
2.900000	-0.113546	-94.224831	-55.651839	103.620200	-55.651839	103.620200	-0.113566	-94.224840
2.950000	-0.115274	-95.674789	-55.157234	102.572675	-55.157234	102.572675	-0.115296	-95.674894
3.000000	-0.117011	-97.118843	-54.677330	101.451597	-54.677330	101.451597	-0.117033	-97.119047
3.050000	-0.118758	-98.557065	-54.211636	100.265047	-54.211636	100.265047	-0.118781	-98.557372
3.100000	-0.120516	-99.989531	-53.759652	99.020145	-53.759652	99.020145	-0.120540	-99.989946
3.150000	-0.122288	-101.416321	-53.320876	97.723181	-53.320876	97.723181	-0.122312	-101.416847
3.200000	-0.124073	-102.837516	-52.894812	96.379719	-52.894812	96.379719	-0.124099	-102.838157
3.250000	-0.125875	-104.253201	-52.480975	94.994687	-52.480975	94.994687	-0.125902	-104.253961
3.300000	-0.127694	-105.663464	-52.078892	93.572463	-52.078892	93.572463	-0.127722	-105.664348
3.350000	-0.129531	-107.068397	-51.688107	92.116938	-51.688107	92.116938	-0.129560	-107.069407
3.400000	-0.131389	-108.468091	-51.308181	90.631578	-51.308181	90.631578	-0.131419	-108.469232
3.450000	-0.133267	-109.862644	-50.938692	89.119476	-50.938692	89.119476	-0.133298	-109.863919
3.500000	-0.135168	-111.252153	-50.579236	87.583394	-50.579236	87.583394	-0.135200	-111.253567
3.550000	-0.137092	-112.636719	-50.229426	86.025801	-50.229426	86.025801	-0.137125	-112.638276
3.600000	-0.139040	-114.016446	-49.888894	84.448908	-49.888894	84.448908	-0.139075	-114.018149
3.650000	-0.141014	-115.391439	-49.557287	82.854694	-49.557287	82.854694	-0.141049	-115.393293
3.700000	-0.143014	-116.761806	-49.234270	81.244936	-49.234270	81.244936	-0.143051	-116.763815
3.750000	-0.145041	-118.127657	-48.919523	79.621223	-48.919523	79.621223	-0.145079	-118.129824
3.800000	-0.147097	-119.488917	-48.612616	77.984499	-48.612616	77.984499	-0.147137	-119.491248
3.850000	-0.149182	-120.845897	-48.313406	76.336630	-48.313406	76.336630	-0.149223	-120.848395
3.900000	-0.151297	-122.198714	-48.021615	74.678745	-48.021615	74.678745	-0.151339	-122.201382
3.950000	-0.153442	-123.547484	-47.736978	73.011857	-47.736978	73.011857	-0.153486	-123.550328
4.000000	-0.155618	-124.892328	-47.459244	71.336870	-47.459244	71.336870	-0.155663	-124.895352
4.050000	-0.157825	-126.233366	-47.188172	69.654595	-47.188172	69.654595	-0.157872	-126.236574
4.100000	-0.160065	-127.570723	-46.923537	67.965752	-46.923537	67.965752	-0.160113	-127.574119
4.150000	-0.162337	-128.904523	-46.665121	66.270985	-46.665121	66.270985	-0.162386	-128.908112
4.200000	-0.164642	-130.234892	-46.412720	64.570865	-46.412720	64.570865	-0.164692	-130.238677
4.250000	-0.166980	-131.561957	-46.166138	62.865894	-46.166138	62.865894	-0.167032	-131.565943
4.300000	-0.169352	-132.885848	-45.925192	61.156519	-45.925192	61.156519	-0.169406	-132.890040
4.350000	-0.171758	-134.206695	-45.689705	59.443129	-45.689705	59.443129	-0.171814	-134.211097
4.400000	-0.174199	-135.524630	-45.459511	57.726064	-45.459511	57.726064	-0.174256	-135.529247
4.450000	-0.176674	-136.839787	-45.234454	56.005619	-45.234454	56.005619	-0.176733	-136.844623
4.500000	-0.179184	-138.152300	-45.014382	54.282047	-45.014382	54.282047	-0.179245	-138.157359
4.550000	-0.181730	-139.462304	-44.799155	52.555564	-44.799155	52.555564	-0.181792	-139.467591
4.600000	-0.184311	-140.769936	-44.588639	50.826348	-44.588639	50.826348	-0.184375	-140.775456
4.650000	-0.186928	-142.075335	-44.382708	49.094550	-44.382708	49.094550	-0.186994	-142.081093
4.700000	-0.189580	-143.378639	-44.181242	47.360289	-44.181242	47.360289	-0.189648	-143.384640
4.750000	-0.192268	-144.679989	-43.984129	45.623658	-43.984129	45.623658	-0.192338	-144.686237
4.800000	-0.194993	-145.979527	-43.791263	43.884726	-43.791263	43.884726	-0.195064	-145.986026
4.850000	-0.197753	-147.277393	-43.602543	42.143540	-43.602543	42.143540	-0.197827	-147.284150
4.900000	-0.200550	-148.573732	-43.417876	40.400128	-43.417876	40.400128	-0.200626	-148.580751
4.950000	-0.203384	-149.868688	-43.237173	38.654498	-43.237173	38.654498	-0.203461	-149.875975
5.000000	-0.206253	-151.162406	-43.060352	36.906642	-43.060352	36.906642	-0.206333	-151.169966
5.050000	-0.209161	-152.454992	-42.887352	35.156436	-42.887352	35.156436	-0.209243	-152.462830
5.100000	-0.212106	-153.746648	-42.718090	33.403939	-42.718090	33.403939	-0.212189	-153.754769
5.150000	-0.215087	-155.037520	-42.552499	31.649097	-42.552499	31.649097	-0.215173	-155.045930
5.200000	-0.218105	-156.327758	-42.390517	29.891848	-42.390517	29.891848	-0.218193	-156.336463
5.250000	-0.221160	-157.617513	-42.232085	28.132116	-42.232085	28.132116	-0.221250	-157.626518
5.300000	-0.224252	-158.906934	-42.077148	26.369818	-42.077148	26.369818	-0.224344	-158.916246
5.350000	-0.227381	-160.196173	-41.925657	24.604860	-41.925657	24.604860	-0.227476	-160.205797
5.400000	-0.230547	-161.485384	-41.777565	22.837138	-41.777565	22.837138	-0.230644	-161.495325
5.450000	-0.233751	-162.774718	-41.632829	21.066541	-41.632829	21.066541	-0.233850	-162.784984
5.500000	-0.236992	-164.064330	-41.491412	19.292950	-41.491412	19.292950	-0.237094	-164.074926
5.550000	-0.240271	-165.354376	-41.353277	17.516237	-41.353277	17.516237	-0.240375	-165.365309
5.600000	-0.243588	-166.645010	-41.218391	15.736267	-41.218391	15.736267	-0.243694	-166.656286
5.650000	-0.246942	-167.936390	-41.086726	13.952894	-41.086726	13.952894	-0.247051	-167.948015
5.700000	-0.250335	-169.228673	-40.958255	12.165967	-40.958255	12.165967	-0.250447	-169.240654
5.750000	-0.253767	-170.522016	-40.832954	10.375324	-40.832954	10.375324	-0.253881	-170.534361
5.800000	-0.257237	-171.816580	-40.710802	8.580793	-40.710802	8.580793	-0.257354	-171.829295
5.850000	-0.260747	-173.112523	-40.591780	6.782193	-40.591780	6.782193	-0.260867	-173.125616
5.900000	-0.264296	-174.410008	-40.475872	4.979331	-40.475872	4.979331	-0.264419	-174.423485
5.950000	-0.267885	-175.709195	-40.363063	3.172001	-40.363063	3.172001	-0.268011	-175.723064
6.000000	-0.271515	-177.010247	-40.253341	1.359984	-40.253341	1.359984	-0.271643	-177.024516
6.050000	-0.275186	-178.313328	-40.146695	-0.456953	-40.146695	-0.456953	-0.275316	-178.328004
6.100000	-0.278898	-179.618602	-40.043117	-2.279063	-40.043117	-2.279063	-0.279031	-179.633694
6.150000	-0.282652	179.073765	-39.942599	-4.106615	-39.942599	-4.106615	-0.282788	179.058250
6.200000	-0.286449	177.763607	-39.845135	-5.939900	-39.845135	-5.939900	-0.286588	177.747660
6.250000	-0.290289	176.450757	-39.750721	-7.779235	-39.750721	-7.779235	-0.290432	176.434369
6.300000	-0.294175	175.134913	-39.659447	-9.625256	-39.659447	-9.625256	-0.294321	175.118075
6.350000	-0.298107	173.816022	-39.571223	-11.478077	-39.571223	-11.478077	-0.298256	173.798725
6.400000	-0.302085	172.493913	-39.486048	-13.338107	-39.486048	-13.338107	-0.302238	172.476148
6.450000	-0.306111	171.168414	-39.403923	-15.205795	-39.403923	-15.205795	-0.306267	171.150170
6.500000	-0.310185	169.839350	-39.324849	-17.081632	-39.324849	-17.081632	-0.310344	169.820619
6.550000	-0.314308	168.506546	-39.248826	-18.966156	-39.248826	-18.966156	-0.314471	168.487318
6.600000	-0.318483	167.169826	-39.175857	-20.859958	-39.175857	-20.859958	-0.318649	167.150090
6.650000	-0.322710	165.829011	-39.105945	-22.763688	-39.105945	-22.763688	-0.322881	165.808755
6.700000	-0.326992	164.483920	-39.039093	-24.678064	-39.039093	-24.678064	-0.327166	164.463135
6.750000	-0.331329	163.134371	-38.975305	-26.603874	-38.975305	-26.603874	-0.331508	163.113044
6.800000	-0.335725	161.780180	-38.914585	-28.541992	-38.914585	-28.541992	-0.335907	161.758300
6.850000	-0.340180	160.421159	-38.856937	-30.493378	-38.856937	-30.493378	-0.340367	160.398715
6.900000	-0.344698	159.057121	-38.802365	-32.459098	-38.802365	-32.459098	-0.344889	159.034099
6.950000	-0.349280	157.687872	-38.750872	-34.440329	-38.750872	-34.440329	-0.349476	157.664259
7.000000	-0.353930	156.313219	-38.702463	-36.438375	-38.702463	-36.438375	-0.354131	156.289002
7.050000	-0.358651	154.932963	-38.657138	-38.454678	-38.657138	-38.454678	-0.358856	154.908128
7.100000	-0.363444	153.546902	-38.614898	-40.490839	-38.614898	-40.490839	-0.363655	153.521435
7.150000	-0.368315	152.154832	-38.575744	-42.548631	-38.575744	-42.548631	-0.368532	152.128717
7.200000	-0.373266	150.756542	-38.539669	-44.630025	-38.539669	-44.630025	-0.373489	150.729765
7.250000	-0.378303	149.351819	-38.506667	-46.737205	-38.506667	-46.737205	-0.378531	149.324362
7.300000	-0.383428	147.940443	-38.476726	-48.872601	-38.476726	-48.872601	-0.383664	147.912289
7.350000	-0.388648	146.522187	-38.449826	-51.038913	-38.449826	-51.038913	-0.388891	146.493320
7.400000	-0.393968	145.096822	-38.425939	-53.239145	-38.425939	-53.239145	-0.394217	145.067221
7.450000	-0.399393	143.664106	-38.405029	-55.476641	-38.405029	-55.476641	-0.399650	143.633753
7.500000	-0.404930	142.223794	-38.387041	-57.755124	-38.387041	-57.755124	-0.405196	142.192669
7.550000	-0.410592	140.775276	-38.372026	-60.080930	-38.372026	-60.080930	-0.410867	140.743355
7.600000	-0.416382	139.318613	-38.359759	-62.456978	-38.359759	-62.456978	-0.416667	139.285874
7.650000	-0.422309	137.853529	-38.350112	-64.888516	-38.350112	-64.888516	-0.422604	137.819946
7.700000	-0.428382	136.379730	-38.342917	-67.381402	-38.342917	-67.381402	-0.428688	136.345279
7.750000	-0.434613	134.896911	-38.337956	-69.942178	-38.337956	-69.942178	-0.434931	134.861565
7.800000	-0.441014	133.404750	-38.334945	-72.578142	-38.334945	-72.578142	-0.441344	133.368478
7.850000	-0.447597	131.902907	-38.333522	-75.297430	-38.333522	-75.297430	-0.447942	131.865678
7.900000	-0.454379	130.391020	-38.333219	-78.109104	-38.333219	-78.109104	-0.454740	130.352801
7.950000	-0.461377	128.868704	-38.333442	-81.023228	-38.333442	-81.023228	-0.461754	128.829460
8.000000	-0.468609	127.335550	-38.333430	-84.050946	-38.333430	-84.050946	-0.469005	127.295242
8.050000	-0.476098	125.791117	-38.332221	-87.204542	-38.332221	-87.204542	-0.476514	125.749702
8.100000	-0.483867	124.234930	-38.328597	-90.497471	-38.328597	-90.497471	-0.484306	124.192362
8.150000	-0.491945	122.666474	-38.321024	-93.944333	-38.321024	-93.944333	-0.492409	122.622704
8.200000	-0.500364	121.085194	-38.307582	-97.560790	-38.307582	-97.560790	-0.500855	121.040167
8.250000	-0.509159	119.490479	-38.285879	-101.363354	-38.285879	-101.363354	-0.509682	119.444137
8.300000	-0.518374	117.881664	-38.252964	-105.369030	-38.252964	-105.369030	-0.518930	117.833941
8.350000	-0.528025	116.258936	-38.206428	-109.580818	-38.206428	-109.580818	-0.528620	116.209763
8.400000	-0.538207	114.620264	-38.140728	-114.033288	-38.140728	-114.033288	-0.538845	114.569561
8.450000	-0.549026	112.963675	-38.048511	-118.757019	-38.048511	-118.757019	-0.549713	112.911345
8.500000	-0.560477	111.290457	-37.927479	-123.728115	-37.927479	-123.728115	-0.561219	111.236404
8.550000	-0.572704	109.598094	-37.767991	-128.971879	-37.767991	-128.971879	-0.573508	109.542203
8.600000	-0.585798	107.885694	-37.563332	-134.480941	-37.563332	-134.480941	-0.586675	107.827836
8.650000	-0.599852	106.152639	-37.307605	-140.233991	-37.307605	-140.233991	-0.600811	106.092675
8.700000	-0.615121	104.395155	-36.986487	-146.231974	-36.986487	-146.231974	-0.616175	104.332909
8.750000	-0.631596	102.615152	-36.604600	-152.409981	-36.604600	-152.409981	-0.632759	102.550454
8.800000	-0.649715	100.806513	-36.141961	-158.755335	-36.141961	-158.755335	-0.651006	100.739132
8.850000	-0.669664	98.968500	-35.599384	-165.204233	-35.599384	-165.204233	-0.671107	98.898184
8.900000	-0.691783	97.098346	-34.974120	-171.703532	-34.974120	-171.703532	-0.693403	97.024800
8.950000	-0.716491	95.192858	-34.265511	-178.202227	-34.265511	-178.202227	-0.718322	95.115738
9.000000	-0.744314	93.248348	-33.474783	175.343585	-33.474783	175.343585	-0.746399	93.167249
9.050000	-0.775921	91.260551	-32.604601	168.966559	-32.604601	168.966559	-0.778313	91.174993
9.100000	-0.812137	89.224802	-31.659380	162.684776	-31.659380	162.684776	-0.814901	89.134217
9.150000	-0.854136	87.134706	-30.640388	156.502581	-30.640388	156.502581	-0.857361	87.038403
9.200000	-0.903367	84.983843	-29.551488	150.406256	-29.551488	150.406256	-0.907166	84.880992
9.250000	-0.961749	82.764953	-28.395701	144.366057	-28.395701	144.366057	-0.966274	82.654550
9.300000	-1.031841	80.470160	-27.175260	138.336513	-27.175260	138.336513	-1.037295	80.350991
9.350000	-1.117135	78.091201	-25.890979	132.255853	-25.890979	132.255853	-1.123798	77.961798
9.400000	-1.222511	75.620273	-24.541885	126.043212	-24.541885	126.043212	-1.230774	75.478864
9.450000	-1.354626	73.053208	-23.127998	119.596302	-23.127998	119.596302	-1.365047	72.897714
9.500000	-1.522747	70.393825	-21.649671	112.786414	-21.649671	112.786414	-1.536143	70.221924
9.550000	-1.739491	67.664046	-20.110340	105.454347	-20.110340	105.454347	-1.757064	67.473469
9.600000	-2.021969	64.922831	-18.516494	97.400370	-18.516494	97.400370	-2.045532	64.712186
9.650000	-2.390633	62.303058	-16.885791	88.391770	-16.885791	88.391770	-2.422901	62.073995
9.700000	-2.863883	60.068139	-15.252104	78.182704	-15.252104	78.182704	-2.908749	59.830365
9.750000	-3.440226	58.670357	-13.671913	66.574509	-13.671913	66.574509	-3.502551	58.451730
9.800000	-4.059909	58.692664	-12.225257	53.535811	-12.225257	53.535811	-4.143424	58.553027
9.850000	-4.569018	60.411652	-10.999118	39.347074	-10.999118	39.347074	-4.670891	60.440838
9.900000	-4.785478	63.046343	-10.049262	24.635747	-10.049262	24.635747	-4.892328	63.312548
9.950000	-4.692296	64.916101	-9.363710	10.167483	-9.363710	10.167483	-4.787989	65.409918
10.000000	-4.481750	64.919940	-8.864079	-3.502627	-8.864079	-3.502627	-4.557933	65.590473
