! freq	dB(S11)	phase(S11)	dB(S12)	phase(S12)	
!     	dB(S21)	phase(S21)	dB(S22)	phase(S22)	
!S-par simulation data
#  GHz  S  DB  R 50
0.000000	-157.607697	-180.000000	-0.000000	-0.000000	-0.000000	0.000000	-157.607697	-180.000000
0.050000	-37.260364	-91.647612	-0.006850	-2.962175	-0.006850	-2.962175	-37.272437	-93.255278
0.100000	-31.316278	-94.075889	-0.013974	-5.883300	-0.013974	-5.883300	-31.330246	-97.237471
0.150000	-27.841429	-96.433744	-0.022044	-8.797117	-0.022044	-8.797117	-27.858799	-101.180163
0.200000	-25.384391	-98.701757	-0.031485	-11.703722	-0.031485	-11.703722	-25.404975	-105.035789
0.250000	-23.488563	-100.907712	-0.042208	-14.603429	-0.042208	-14.603429	-23.511713	-108.827042
0.300000	-21.949617	-103.072360	-0.054147	-17.497111	-0.054147	-17.497111	-21.974070	-112.579406
0.350000	-20.657842	-105.208932	-0.067246	-20.385558	-0.067246	-20.385558	-20.682412	-116.313561
0.400000	-19.548359	-107.323437	-0.081512	-23.268910	-0.081512	-23.268910	-19.572448	-120.040712
0.450000	-18.580002	-109.418071	-0.096980	-26.146824	-0.096980	-26.146824	-18.603603	-123.765467
0.500000	-17.723303	-111.494901	-0.113555	-29.019311	-0.113555	-29.019311	-17.746677	-127.489087
0.550000	-16.957849	-113.553911	-0.131176	-31.886076	-0.131176	-31.886076	-16.981247	-131.212026
0.600000	-16.269240	-115.593619	-0.149809	-34.746536	-0.149809	-34.746536	-16.292829	-134.935109
0.650000	-15.645375	-117.613779	-0.169324	-37.600668	-0.169324	-37.600668	-15.669223	-138.659530
0.700000	-15.077107	-119.613588	-0.189612	-40.448381	-0.189612	-40.448381	-15.101228	-142.386581
0.750000	-14.557713	-121.591329	-0.210587	-43.289400	-0.210587	-43.289400	-14.582094	-146.117766
0.800000	-14.081312	-123.545993	-0.232138	-46.123748	-0.232138	-46.123748	-14.105935	-149.854519
0.850000	-13.642528	-125.477590	-0.254146	-48.951775	-0.254146	-48.951775	-13.667378	-153.597947
0.900000	-13.238159	-127.383792	-0.276536	-51.773230	-0.276536	-51.773230	-13.263234	-157.349902
0.950000	-12.864404	-129.264461	-0.299206	-54.588476	-0.299206	-54.588476	-12.889718	-161.111613
1.000000	-12.518406	-131.118733	-0.322070	-57.397699	-0.322070	-57.397699	-12.543989	-164.884593
1.050000	-12.197564	-132.946095	-0.345049	-60.201173	-0.345049	-60.201173	-12.223465	-168.670258
1.100000	-11.899504	-134.746355	-0.368065	-62.999252	-0.368065	-62.999252	-11.925789	-172.469903
1.150000	-11.622697	-136.517960	-0.391045	-65.792061	-0.391045	-65.792061	-11.649453	-176.285635
1.200000	-11.365223	-138.260840	-0.413920	-68.580046	-0.413920	-68.580046	-11.392552	179.881167
1.250000	-11.125309	-139.975174	-0.436632	-71.363699	-0.436632	-71.363699	-11.153319	176.029303
1.300000	-10.901767	-141.660000	-0.459121	-74.143375	-0.459121	-74.143375	-10.930574	172.156796
1.350000	-10.693496	-143.314406	-0.481330	-76.919507	-0.481330	-76.919507	-10.723218	168.261586
1.400000	-10.498982	-144.939166	-0.503231	-79.692738	-0.503231	-79.692738	-10.529720	164.342911
1.450000	-10.317215	-146.533844	-0.524788	-82.463589	-0.524788	-82.463589	-10.349054	160.399164
1.500000	-10.147640	-148.096478	-0.545955	-85.232543	-0.545955	-85.232543	-10.180653	156.427381
1.550000	-9.988889	-149.628343	-0.566737	-88.000292	-0.566737	-88.000292	-10.023124	152.427506
1.600000	-9.840117	-151.129057	-0.587125	-90.767411	-0.587125	-90.767411	-9.875613	148.398148
1.650000	-9.700794	-152.596860	-0.607101	-93.534503	-0.607101	-93.534503	-9.737598	144.336566
1.700000	-9.569921	-154.032326	-0.626684	-96.302189	-0.626684	-96.302189	-9.608094	140.242274
1.750000	-9.446628	-155.435879	-0.645898	-99.071037	-0.645898	-99.071037	-9.486255	136.114684
1.800000	-9.330252	-156.807128	-0.664759	-101.841637	-0.664759	-101.841637	-9.371453	131.952304
1.850000	-9.220067	-158.146358	-0.683301	-104.614547	-0.683301	-104.614547	-9.262993	127.754280
1.900000	-9.115413	-159.453717	-0.701558	-107.390340	-0.701558	-107.390340	-9.160242	123.519538
1.950000	-9.015606	-160.729908	-0.719577	-110.169531	-0.719577	-110.169531	-9.062532	119.247603
2.000000	-8.919963	-161.976135	-0.737415	-112.952553	-0.737415	-112.952553	-8.969186	114.938648
2.050000	-8.827877	-163.193427	-0.755129	-115.739826	-0.755129	-115.739826	-8.879591	110.592701
2.100000	-8.738766	-164.382981	-0.772781	-118.531725	-0.772781	-118.531725	-8.793158	106.210061
2.150000	-8.652074	-165.546166	-0.790439	-121.328576	-0.790439	-121.328576	-8.709315	101.791314
2.200000	-8.567274	-166.684528	-0.808174	-124.130651	-0.808174	-124.130651	-8.627516	97.337350
2.250000	-8.483865	-167.799794	-0.826059	-126.938166	-0.826059	-126.938166	-8.547238	92.849377
2.300000	-8.401375	-168.893876	-0.844169	-129.751278	-0.844169	-129.751278	-8.467984	88.328919
2.350000	-8.319363	-169.968868	-0.862582	-132.570087	-0.862582	-132.570087	-8.389290	83.777829
2.400000	-8.237424	-171.027043	-0.881376	-135.394629	-0.881376	-135.394629	-8.310724	79.198280
2.450000	-8.155189	-172.070843	-0.900626	-138.224881	-0.900626	-138.224881	-8.231891	74.592756
2.500000	-8.072328	-173.102863	-0.920409	-141.060757	-0.920409	-141.060757	-8.152437	69.964040
2.550000	-7.988513	-174.125702	-0.940811	-143.902224	-0.940811	-143.902224	-8.072008	65.314827
2.600000	-7.903536	-175.142463	-0.961890	-146.748953	-0.961890	-146.748953	-7.990372	60.648944
2.650000	-7.817208	-176.156069	-0.983712	-149.600677	-0.983712	-149.600677	-7.907319	55.969921
2.700000	-7.729387	-177.169491	-1.006337	-152.457077	-1.006337	-152.457077	-7.822688	51.281459
2.750000	-7.639984	-178.185711	-1.029816	-155.317785	-1.029816	-155.317785	-7.736372	46.587383
2.800000	-7.548956	-179.207688	-1.054198	-158.182387	-1.054198	-158.182387	-7.648316	41.891601
2.850000	-7.456310	179.761681	-1.079519	-161.050427	-1.079519	-161.050427	-7.558515	37.198051
2.900000	-7.362101	178.719595	-1.105811	-163.921415	-1.105811	-163.921415	-7.467016	32.510652
2.950000	-7.266426	177.663379	-1.133093	-166.794833	-1.133093	-166.794833	-7.373913	27.833259
3.000000	-7.169423	176.590521	-1.161377	-169.670140	-1.161377	-169.670140	-7.279342	23.169612
3.050000	-7.071269	175.498694	-1.190663	-172.546777	-1.190663	-172.546777	-7.183480	18.523297
3.100000	-6.972171	174.385779	-1.220941	-175.424178	-1.220941	-175.424178	-7.086539	13.897703
3.150000	-6.872346	173.249618	-1.252200	-178.301773	-1.252200	-178.301773	-6.988744	9.296283
3.200000	-6.772061	172.088509	-1.284407	178.821018	-1.284407	178.821018	-6.890369	4.722025
3.250000	-6.671612	170.901312	-1.317508	175.944742	-1.317508	175.944742	-6.791723	0.177266
3.300000	-6.571287	169.686884	-1.351451	173.069924	-1.351451	173.069924	-6.693106	-4.335699
3.350000	-6.471383	168.444605	-1.386166	170.197033	-1.386166	170.197033	-6.594832	-8.815233
3.400000	-6.372188	167.173626	-1.421582	167.326534	-1.421582	167.326534	-6.497202	-13.259468
3.450000	-6.273997	165.873279	-1.457621	164.458864	-1.457621	164.458864	-6.400526	-17.666777
3.500000	-6.177112	164.542825	-1.494192	161.594454	-1.494192	161.594454	-6.305126	-22.035472
3.550000	-6.081813	163.182996	-1.531180	158.733532	-1.531180	158.733532	-6.211299	-26.365831
3.600000	-5.988370	161.793944	-1.568478	155.876340	-1.568478	155.876340	-6.119330	-30.657493
3.650000	-5.897035	160.375976	-1.605969	153.023055	-1.605969	153.023055	-6.029491	-34.910394
3.700000	-5.808051	158.929540	-1.643528	150.173780	-1.643528	150.173780	-5.942041	-39.124757
3.750000	-5.721643	157.455199	-1.681029	147.328548	-1.681029	147.328548	-5.857224	-43.301087
3.800000	-5.638097	155.952708	-1.718321	144.487443	-1.718321	144.487443	-5.775348	-47.438904
3.850000	-5.557548	154.423789	-1.755274	141.650189	-1.755274	141.650189	-5.696562	-51.540573
3.900000	-5.480173	152.869273	-1.791749	138.816563	-1.791749	138.816563	-5.621064	-55.607395
3.950000	-5.406135	151.290048	-1.827601	135.986253	-1.827601	135.986253	-5.549036	-59.640910
4.000000	-5.335585	149.687048	-1.862686	133.158859	-1.862686	133.158859	-5.480648	-63.642892
4.050000	-5.268659	148.061243	-1.896859	130.333887	-1.896859	130.333887	-5.416056	-67.615344
4.100000	-5.205571	146.413095	-1.929942	127.510776	-1.929942	127.510776	-5.355503	-71.559845
4.150000	-5.146384	144.744043	-1.961804	124.688778	-1.961804	124.688778	-5.299072	-75.479422
4.200000	-5.091175	143.055319	-1.992314	121.867080	-1.992314	121.867080	-5.246862	-79.377002
4.250000	-5.040041	141.347985	-2.021331	119.044787	-2.021331	119.044787	-5.198997	-83.255502
4.300000	-4.993072	139.623124	-2.048720	116.220895	-2.048720	116.220895	-5.155595	-87.118072
4.350000	-4.950354	137.881840	-2.074346	113.394296	-2.074346	113.394296	-5.116772	-90.968103
4.400000	-4.912042	136.125024	-2.098046	110.563678	-2.098046	110.563678	-5.082727	-94.809156
4.450000	-4.878223	134.353902	-2.119692	107.727634	-2.119692	107.727634	-5.053584	-98.645351
4.500000	-4.848902	132.569958	-2.139200	104.884768	-2.139200	104.884768	-5.029384	-102.481070
4.550000	-4.824160	130.774472	-2.156462	102.033486	-2.156462	102.033486	-5.010253	-106.320865
4.600000	-4.804074	128.968798	-2.171377	99.172065	-2.171377	99.172065	-4.996322	-110.169634
4.650000	-4.788728	127.154388	-2.183851	96.298639	-2.183851	96.298639	-4.987730	-114.032656
4.700000	-4.778245	125.332761	-2.193780	93.411058	-2.193780	93.411058	-4.984675	-117.915862
4.750000	-4.772799	123.505608	-2.201047	90.506777	-2.201047	90.506777	-4.987419	-121.826152
4.800000	-4.772351	121.675012	-2.205659	87.583810	-2.205659	87.583810	-4.995991	-125.769759
4.850000	-4.776988	119.843083	-2.207575	84.639619	-2.207575	84.639619	-5.010573	-129.754049
4.900000	-4.786793	118.012186	-2.206770	81.671466	-2.206770	81.671466	-5.031360	-133.787078
4.950000	-4.801848	116.184983	-2.203237	78.676402	-2.203237	78.676402	-5.058557	-137.877678
5.000000	-4.822221	114.364489	-2.196993	75.651240	-2.196993	75.651240	-5.092379	-142.035569
5.050000	-4.848154	112.554614	-2.187989	72.591261	-2.187989	72.591261	-5.133282	-146.274565
5.100000	-4.879494	110.759075	-2.176395	69.493765	-2.176395	69.493765	-5.181262	-150.604320
5.150000	-4.916235	108.982397	-2.162319	66.354694	-2.162319	66.354694	-5.236531	-155.038176
5.200000	-4.958323	107.229754	-2.145915	63.169653	-2.145915	63.169653	-5.299285	-159.591016
5.250000	-5.005630	105.507057	-2.127385	59.933871	-2.127385	59.933871	-5.369681	-164.279476
5.300000	-5.057934	103.821041	-2.106987	56.642168	-2.106987	56.642168	-5.447819	-169.122190
5.350000	-5.114974	102.180711	-2.085021	53.287173	-2.085021	53.287173	-5.533878	-174.145185
5.400000	-5.176111	100.594307	-2.061948	49.863558	-2.061948	49.863558	-5.627587	-179.369982
5.450000	-5.240516	99.071136	-2.038304	46.365157	-2.038304	46.365157	-5.728533	175.178358
5.500000	-5.307086	97.621833	-2.014735	42.784691	-2.014735	42.784691	-5.836072	169.470120
5.550000	-5.374316	96.257812	-1.992031	39.114261	-1.992031	39.114261	-5.949156	163.472273
5.600000	-5.440197	94.990939	-1.971160	35.345317	-1.971160	35.345317	-6.066188	157.148431
5.650000	-5.501960	93.835006	-1.953380	31.466602	-1.953380	31.466602	-6.184785	150.452064
5.700000	-5.556026	92.801084	-1.940214	27.467694	-1.940214	27.467694	-6.301461	143.339119
5.750000	-5.598158	91.895142	-1.933395	23.339835	-1.933395	23.339835	-6.411630	135.772902
5.800000	-5.623112	91.120398	-1.935087	19.071818	-1.935087	19.071818	-6.509251	127.711885
5.850000	-5.624751	90.472871	-1.947915	14.651987	-1.947915	14.651987	-6.586664	119.119709
5.900000	-5.596225	89.938389	-1.975059	10.068464	-1.975059	10.068464	-6.634599	109.970227
5.950000	-5.530078	89.489858	-2.020497	5.308279	-2.020497	5.308279	-6.642173	100.250090
6.000000	-5.418680	89.083044	-2.089285	0.357573	-2.089285	0.357573	-6.597332	89.966426
6.050000	-5.257199	88.655483	-2.186666	-4.789963	-2.186666	-4.789963	-6.490646	79.173590
6.100000	-5.042217	88.131176	-2.319392	-10.142148	-2.319392	-10.142148	-6.314389	67.943931
6.150000	-4.772874	87.420489	-2.496029	-15.705428	-2.496029	-15.705428	-6.064419	56.373937
6.200000	-4.453917	86.436898	-2.725416	-21.475028	-2.725416	-21.475028	-5.744733	44.585276
6.250000	-4.093089	85.099291	-3.018510	-27.442072	-3.018510	-27.442072	-5.364330	32.695454
6.300000	-3.700830	83.334103	-3.389330	-33.590860	-3.389330	-33.590860	-4.936535	20.813582
6.350000	-3.291602	81.105089	-3.851810	-39.886999	-3.851810	-39.886999	-4.480489	9.029515
6.400000	-2.879914	78.395078	-4.423444	-46.284157	-4.423444	-46.284157	-4.015299	-2.589507
6.450000	-2.480105	75.205184	-5.126443	-52.715800	-5.126443	-52.715800	-3.559417	-13.991587
6.500000	-2.105384	71.572370	-5.985510	-59.087158	-5.985510	-59.087158	-3.129604	-25.145887
6.550000	-1.766452	67.544973	-7.033713	-65.266399	-7.033713	-65.266399	-2.739065	-36.030465
6.600000	-1.471963	63.177487	-8.317683	-71.048570	-8.317683	-71.048570	-2.398186	-46.626541
6.650000	-1.227229	58.536933	-9.903598	-76.104529	-9.903598	-76.104529	-2.113364	-56.927645
6.700000	-1.035359	53.686181	-11.895946	-79.805788	-11.895946	-79.805788	-1.888359	-66.930706
6.750000	-0.897260	48.683848	-14.462218	-80.753306	-14.462218	-80.753306	-1.724454	-76.640272
6.800000	-0.812480	43.580624	-17.818817	-75.159411	-17.818817	-75.159411	-1.621477	-86.067375
6.850000	-0.779682	38.418818	-21.503537	-52.480555	-21.503537	-52.480555	-1.578384	-95.230478
6.900000	-0.797461	33.232503	-21.372501	-11.800797	-21.372501	-11.800797	-1.594228	-104.154067
6.950000	-0.864249	28.049016	-17.772975	9.310967	-17.772975	9.310967	-1.668066	-112.870985
7.000000	-0.978736	22.890134	-14.607013	14.515338	-14.607013	14.515338	-1.799470	-121.420784
7.050000	-1.140649	17.774740	-12.198528	13.729994	-12.198528	13.729994	-1.989526	-129.846932
7.100000	-1.350648	12.721635	-10.322726	10.419154	-10.322726	10.419154	-2.240845	-138.197751
7.150000	-1.610408	7.752553	-8.812892	5.844910	-8.812892	5.844910	-2.557879	-146.526533
7.200000	-1.922746	2.896010	-7.565751	0.542452	-7.565751	0.542452	-2.947427	-154.892652
7.250000	-2.291498	-1.807873	-6.516650	-5.232283	-6.516650	-5.232283	-3.419080	-163.364585
7.300000	-2.720555	-6.305424	-5.623259	-11.342094	-5.623259	-11.342094	-3.984707	-172.020803
7.350000	-3.214233	-10.520445	-4.857879	-17.712589	-4.857879	-17.712589	-4.660397	179.041368
7.400000	-3.775910	-14.347962	-4.202053	-24.297547	-4.202053	-24.297547	-5.466820	169.693449
7.450000	-4.406218	-17.646549	-3.643510	-31.063910	-3.643510	-31.063910	-6.430175	159.752578
7.500000	-5.099946	-20.232282	-3.174177	-37.983341	-3.174177	-37.983341	-7.582798	148.937587
7.550000	-5.840500	-21.867135	-2.789491	-45.028313	-2.789491	-45.028313	-8.961521	136.760399
7.600000	-6.593215	-22.315299	-2.485215	-52.165633	-2.485215	-52.165633	-10.594225	122.398864
7.650000	-7.298211	-21.383993	-2.258589	-59.359867	-2.258589	-59.359867	-12.452524	104.381224
7.700000	-7.869611	-19.060065	-2.107029	-66.572001	-2.107029	-66.572001	-14.289003	80.512971
7.750000	-8.213452	-15.660999	-2.027633	-73.760778	-2.027633	-73.760778	-15.366138	49.904401
7.800000	-8.267590	-11.866223	-2.016869	-80.884718	-2.016869	-80.884718	-14.909549	17.895867
7.850000	-8.035967	-8.507950	-2.070923	-87.903233	-2.070923	-87.903233	-13.343599	-8.054316
7.900000	-7.590677	-6.209223	-2.184318	-94.781246	-2.184318	-94.781246	-11.564244	-27.196813
7.950000	-7.024926	-5.209322	-2.351262	-101.489821	-2.351262	-101.489821	-9.959120	-41.764232
8.000000	-6.417315	-5.451320	-2.565828	-108.006506	-2.565828	-108.006506	-8.600819	-53.503377
8.050000	-5.819997	-6.734383	-2.822025	-114.315831	-2.822025	-114.315831	-7.469413	-63.428299
8.100000	-5.261710	-8.827152	-3.114034	-120.408920	-3.114034	-120.408920	-6.527831	-72.110715
8.150000	-4.755418	-11.524308	-3.436451	-126.281506	-3.436451	-126.281506	-5.741631	-79.882331
8.200000	-4.304561	-14.656163	-3.784178	-131.935378	-3.784178	-131.935378	-5.081869	-86.953937
8.250000	-3.907703	-18.095344	-4.152711	-137.374416	-4.152711	-137.374416	-4.525741	-93.460141
8.300000	-3.559978	-21.740890	-4.538079	-142.611384	-4.538079	-142.611384	-4.053509	-99.508246
8.350000	-3.256638	-25.526157	-4.937059	-147.654393	-4.937059	-147.654393	-3.650965	-105.163798
8.400000	-2.992564	-29.400670	-5.346884	-152.514299	-5.346884	-152.514299	-3.306307	-110.480925
8.450000	-2.762912	-33.327899	-5.765247	-157.202404	-5.765247	-157.202404	-3.009996	-115.502779
8.500000	-2.563276	-37.281559	-6.190252	-161.730037	-6.190252	-161.730037	-2.754276	-120.264710
8.550000	-2.389743	-41.242868	-6.620357	-166.108266	-6.620357	-166.108266	-2.532801	-124.796291
8.600000	-2.238888	-45.198529	-7.054320	-170.347697	-7.054320	-170.347697	-2.340353	-129.122667
8.650000	-2.107734	-49.139256	-7.491154	-174.458356	-7.491154	-174.458356	-2.172614	-133.265481
8.700000	-1.993711	-53.058699	-7.930085	-178.449624	-7.930085	-178.449624	-2.026000	-137.243541
8.750000	-1.894605	-56.952655	-8.370515	177.669788	-8.370515	177.669788	-1.897519	-141.073315
8.800000	-1.808739	-60.817854	-8.811524	173.893893	-8.811524	173.893893	-1.784923	-144.766696
8.850000	-1.734189	-64.653453	-9.253243	170.212924	-9.253243	170.212924	-1.685773	-148.339643
8.900000	-1.669552	-68.458885	-9.695451	166.620127	-9.695451	166.620127	-1.598296	-151.803480
8.950000	-1.613622	-72.234204	-10.138005	163.109315	-10.138005	163.109315	-1.520990	-155.168311
9.000000	-1.565353	-75.979929	-10.580829	159.674821	-10.580829	159.674821	-1.452572	-158.443177
9.050000	-1.523845	-79.696937	-11.023902	156.311454	-11.023902	156.311454	-1.391944	-161.636195
9.100000	-1.488317	-83.386379	-11.467247	153.014456	-11.467247	153.014456	-1.338162	-164.754671
9.150000	-1.458092	-87.049635	-11.910929	149.779459	-11.910929	149.779459	-1.290409	-167.805203
9.200000	-1.432581	-90.688291	-12.355061	146.602402	-12.355061	146.602402	-1.247974	-170.793825
9.250000	-1.411301	-94.303941	-12.799616	143.479931	-12.799616	143.479931	-1.210266	-173.725636
9.300000	-1.393773	-97.898712	-13.244957	140.408104	-13.244957	140.408104	-1.176708	-176.606161
9.350000	-1.379623	-101.474656	-13.691254	137.383779	-13.691254	137.383779	-1.146840	-179.439910
9.400000	-1.368599	-105.033650	-14.138135	134.405094	-14.138135	134.405094	-1.120333	177.769986
9.450000	-1.360412	-108.578325	-14.585807	131.469117	-14.585807	131.469117	-1.096815	175.019507
9.500000	-1.354763	-112.111803	-15.035050	128.572142	-15.035050	128.572142	-1.075903	172.304162
9.550000	-1.351472	-115.637076	-15.486102	125.711732	-15.486102	125.711732	-1.057328	169.620821
9.600000	-1.350398	-119.157480	-15.939218	122.885555	-15.939218	122.885555	-1.040852	166.966604
9.650000	-1.351448	-122.676774	-16.394666	120.091369	-16.394666	120.091369	-1.026262	164.338856
9.700000	-1.354572	-126.199233	-16.852735	117.326995	-16.852735	117.326995	-1.013368	161.735120
9.750000	-1.359563	-129.728476	-17.315805	114.587812	-17.315805	114.587812	-1.001867	159.151211
9.800000	-1.366968	-133.272995	-17.779205	111.877813	-17.779205	111.877813	-0.991932	156.589715
9.850000	-1.376595	-136.838048	-18.246608	109.190701	-18.246608	109.190701	-0.983202	154.045410
9.900000	-1.388649	-140.431193	-18.718369	106.524495	-18.718369	106.524495	-0.975562	151.516598
9.950000	-1.403573	-144.063648	-19.193941	103.877866	-19.193941	103.877866	-0.968947	149.002216
10.000000	-1.424274	-147.725293	-19.614571	101.252196	-19.614571	101.252196	-0.963726	146.531444
