! freq	dB(S11)	phase(S11)	dB(S12)	phase(S12)	
!     	dB(S21)	phase(S21)	dB(S22)	phase(S22)	
!S-par simulation data
#  GHz  S  DB  R 50
0.000000	-81.980402	0.000000	-0.000692	0.000000	-0.000692	0.000000	-81.980402	0.000000
0.050000	-41.172935	-91.467347	-0.005810	-3.062167	-0.005810	-3.062167	-41.176188	-91.532235
0.100000	-35.266691	-95.066211	-0.013041	-6.081612	-0.013041	-6.081612	-35.267455	-95.111048
0.150000	-31.793359	-98.490821	-0.019271	-9.087914	-0.019271	-9.087914	-31.794310	-98.541102
0.200000	-29.325003	-101.772291	-0.025428	-12.091015	-0.025428	-12.091015	-29.326059	-101.836807
0.250000	-27.411770	-104.968400	-0.031995	-15.092178	-0.031995	-15.092178	-27.412868	-105.049793
0.300000	-25.851372	-108.111938	-0.039086	-18.091580	-0.039086	-18.091580	-25.852525	-108.210850
0.350000	-24.535473	-111.220481	-0.046718	-21.089477	-0.046718	-21.089477	-24.536703	-111.336806
0.400000	-23.399024	-114.305542	-0.054866	-24.086287	-0.054866	-24.086287	-23.400341	-114.438923
0.450000	-22.400344	-117.373288	-0.063535	-27.082386	-0.063535	-27.082386	-22.401742	-117.523328
0.500000	-21.510594	-120.428614	-0.072701	-30.078147	-0.072701	-30.078147	-21.512056	-120.594986
0.550000	-20.709579	-123.474070	-0.082379	-33.073852	-0.082379	-33.073852	-20.711086	-123.656520
0.600000	-19.981997	-126.512005	-0.092549	-36.069731	-0.092549	-36.069731	-19.983528	-126.710368
0.650000	-19.316508	-129.543765	-0.103218	-39.065976	-0.103218	-39.065976	-19.318047	-129.757939
0.700000	-18.704049	-132.570625	-0.114370	-42.062734	-0.114370	-42.062734	-18.705582	-132.800556
0.750000	-18.137546	-135.593495	-0.125999	-45.060148	-0.125999	-45.060148	-18.139064	-135.839165
0.800000	-17.611207	-138.613194	-0.138093	-48.058347	-0.138093	-48.058347	-17.612704	-138.874606
0.850000	-17.120260	-141.630447	-0.150637	-51.057456	-0.150637	-51.057456	-17.121733	-141.907610
0.900000	-16.660750	-144.645887	-0.163620	-54.057617	-0.163620	-54.057617	-16.662198	-144.938813
0.950000	-16.229343	-147.660106	-0.177029	-57.058985	-0.177029	-57.058985	-16.230769	-147.968799
1.000000	-15.823208	-150.673658	-0.190852	-60.061736	-0.190852	-60.061736	-15.824614	-150.998113
1.050000	-15.439841	-153.687073	-0.205074	-63.066050	-0.205074	-63.066050	-15.441230	-154.027270
1.100000	-15.077101	-156.700847	-0.219685	-66.072135	-0.219685	-66.072135	-15.078476	-157.056748
1.150000	-14.733108	-159.715453	-0.234675	-69.080222	-0.234675	-69.080222	-14.734473	-160.087003
1.200000	-14.406204	-162.731344	-0.250035	-72.090565	-0.250035	-72.090565	-14.407561	-163.118471
1.250000	-14.094907	-165.748961	-0.265760	-75.103441	-0.265760	-75.103441	-14.096259	-166.151572
1.300000	-13.797929	-168.768758	-0.281849	-78.119181	-0.281849	-78.119181	-13.799276	-169.186741
1.350000	-13.514027	-171.791134	-0.298296	-81.138079	-0.298296	-81.138079	-13.515370	-172.224359
1.400000	-13.242114	-174.816499	-0.315102	-84.160475	-0.315102	-84.160475	-13.243451	-175.264817
1.450000	-12.981193	-177.845260	-0.332270	-87.186728	-0.332270	-87.186728	-12.982524	-178.308505
1.500000	-12.730351	179.122177	-0.349805	-90.217215	-0.349805	-90.217215	-12.731672	178.644189
1.550000	-12.488741	176.085404	-0.367715	-93.252332	-0.367715	-93.252332	-12.490050	175.592876
1.600000	-12.255644	173.043813	-0.386025	-96.292694	-0.386025	-96.292694	-12.256936	172.536975
1.650000	-12.030197	169.997322	-0.404724	-99.338359	-0.404724	-99.338359	-12.031469	169.476408
1.700000	-11.811758	166.945485	-0.423832	-102.389779	-0.423832	-102.389779	-11.813006	166.410749
1.750000	-11.599748	163.887524	-0.443391	-105.447760	-0.443391	-105.447760	-11.600967	163.339257
1.800000	-11.393519	160.823169	-0.463412	-108.512559	-0.463412	-108.512559	-11.394705	160.261674
1.850000	-11.192501	157.751946	-0.483925	-111.584645	-0.483925	-111.584645	-11.193650	157.177550
1.900000	-10.996159	154.673369	-0.504959	-114.664494	-0.504959	-114.664494	-10.997266	154.086422
1.950000	-10.803985	151.586936	-0.526551	-117.752588	-0.526551	-117.752588	-10.805048	150.987813
2.000000	-10.615501	148.492131	-0.548740	-120.849418	-0.548740	-120.849418	-10.616516	147.881231
2.050000	-10.430255	145.388424	-0.571570	-123.955479	-0.571570	-123.955479	-10.431218	144.766173
2.100000	-10.247812	142.275224	-0.595092	-127.071321	-0.595092	-127.071321	-10.248722	141.642077
2.150000	-10.067758	139.151920	-0.619363	-130.197508	-0.619363	-130.197508	-10.068612	138.508361
2.200000	-9.889726	136.018043	-0.644435	-133.334454	-0.644435	-133.334454	-9.890522	135.364575
2.250000	-9.713360	132.873024	-0.670370	-136.482669	-0.670370	-136.482669	-9.714097	132.210180
2.300000	-9.538331	129.716294	-0.697236	-139.642665	-0.697236	-139.642665	-9.539006	129.044628
2.350000	-9.364329	126.547280	-0.725107	-142.814957	-0.725107	-142.814957	-9.364942	125.867370
2.400000	-9.191071	123.365410	-0.754060	-146.000058	-0.754060	-146.000058	-9.191620	122.677857
2.450000	-9.018294	120.170119	-0.784180	-149.198480	-0.784180	-149.198480	-9.018778	119.475541
2.500000	-8.845760	116.960843	-0.815558	-152.410736	-0.815558	-152.410736	-8.846178	116.259880
2.550000	-8.673201	113.736812	-0.848310	-155.637551	-0.848310	-155.637551	-8.673551	113.030125
2.600000	-8.500471	110.497686	-0.882522	-158.879230	-0.882522	-158.879230	-8.500752	109.785941
2.650000	-8.327402	107.242936	-0.918306	-162.136273	-0.918306	-162.136273	-8.327614	106.526808
2.700000	-8.153849	103.972049	-0.955779	-165.409173	-0.955779	-165.409173	-8.153990	103.252219
2.750000	-7.979691	100.684526	-0.995067	-168.698417	-0.995067	-168.698417	-7.979761	99.961679
2.800000	-7.804830	97.379889	-1.036303	-172.004479	-1.036303	-172.004479	-7.804828	96.654711
2.850000	-7.629192	94.057678	-1.079628	-175.327824	-1.079628	-175.327824	-7.629117	93.330850
2.900000	-7.452726	90.717456	-1.125194	-178.668899	-1.125194	-178.668899	-7.452578	89.989654
2.950000	-7.275362	87.358628	-1.173180	177.971684	-1.173180	177.971684	-7.275140	86.630522
3.000000	-7.097116	83.980885	-1.223749	174.593593	-1.223749	174.593593	-7.096820	83.253129
3.050000	-6.918030	80.583954	-1.277068	171.196528	-1.277068	171.196528	-6.917661	79.857185
3.100000	-6.738147	77.167503	-1.333326	167.780129	-1.333326	167.780129	-6.737705	76.442335
3.150000	-6.557531	73.731230	-1.392720	164.344065	-1.392720	164.344065	-6.557018	73.008255
3.200000	-6.376270	70.274862	-1.455461	160.888040	-1.455461	160.888040	-6.375686	69.554648
3.250000	-6.194470	66.798166	-1.521768	157.411796	-1.521768	157.411796	-6.193817	66.081252
3.300000	-6.012260	63.300942	-1.591872	153.915118	-1.591872	153.915118	-6.011539	62.587836
3.350000	-5.829654	59.782330	-1.666138	150.397138	-1.666138	150.397138	-5.828868	59.073522
3.400000	-5.647051	56.243391	-1.744623	146.858912	-1.744623	146.858912	-5.646202	55.539311
3.450000	-5.464539	52.683584	-1.827670	143.299911	-1.827670	143.299911	-5.463630	51.984635
3.500000	-5.282320	49.102891	-1.915555	139.720138	-1.915555	139.720138	-5.281354	48.409438
3.550000	-5.100608	45.501347	-2.008568	136.119662	-2.008568	136.119662	-5.099588	44.813716
3.600000	-4.919632	41.879043	-2.107008	132.498624	-2.107008	132.498624	-4.918562	41.197519
3.650000	-4.739632	38.236130	-2.211186	128.857236	-2.211186	128.857236	-4.738515	37.560956
3.700000	-4.560857	34.572819	-2.321424	125.195789	-2.321424	125.195789	-4.559697	33.904197
3.750000	-4.383565	30.889388	-2.438059	121.514653	-2.438059	121.514653	-4.382367	30.227478
3.800000	-4.207988	27.185761	-2.561549	117.813879	-2.561549	117.813879	-4.206755	26.530679
3.850000	-4.034442	23.462791	-2.692144	114.094440	-2.692144	114.094440	-4.033178	22.814610
3.900000	-3.863196	19.720966	-2.830212	110.356967	-2.830212	110.356967	-3.861906	19.079715
3.950000	-3.694521	15.960840	-2.976134	106.602178	-2.976134	106.602178	-3.693208	15.326505
4.000000	-3.528683	12.183036	-3.130302	102.830877	-3.130302	102.830877	-3.527352	11.555563
4.050000	-3.365943	8.388243	-3.293121	99.043949	-3.293121	99.043949	-3.364598	7.767535
4.100000	-3.206556	4.577209	-3.465010	95.242362	-3.465010	95.242362	-3.205202	3.963130
4.150000	-3.050768	0.750742	-3.646402	91.427163	-3.646402	91.427163	-3.049409	0.143117
4.200000	-2.898811	-3.090300	-3.837750	87.599470	-3.837750	87.599470	-2.897452	-3.691684
4.250000	-2.750907	-6.945014	-4.039523	83.760471	-4.039523	83.760471	-2.749552	-7.540410
4.300000	-2.607262	-10.812462	-4.252213	79.911418	-4.252213	79.911418	-2.605915	-11.402157
4.350000	-2.468065	-14.691679	-4.476339	76.053622	-4.476339	76.053622	-2.466731	-15.275996
4.400000	-2.333518	-18.581790	-4.712510	72.188380	-4.712510	72.188380	-2.332201	-19.161088
4.450000	-2.203783	-22.481772	-4.961307	68.317154	-4.961307	68.317154	-2.202490	-23.056447
4.500000	-2.078967	-26.390528	-5.223289	64.441484	-5.223289	64.441484	-2.077701	-26.961001
4.550000	-1.959182	-30.307095	-5.499130	60.562872	-5.499130	60.562872	-1.957948	-30.873818
4.600000	-1.844520	-34.230538	-5.789562	56.682861	-5.789562	56.682861	-1.843323	-34.793992
4.650000	-1.735052	-38.159964	-6.095392	52.803041	-6.095392	52.803041	-1.733898	-38.720658
4.700000	-1.630833	-42.094531	-6.417510	48.925054	-6.417510	48.925054	-1.629726	-42.653000
4.750000	-1.531894	-46.033458	-6.756909	45.050605	-6.756909	45.050605	-1.530840	-46.590264
4.800000	-1.438251	-49.976032	-7.114705	41.181483	-7.114705	41.181483	-1.437255	-50.531761
4.850000	-1.349902	-53.921620	-7.492161	37.319584	-7.492161	37.319584	-1.348969	-54.476881
4.900000	-1.266829	-57.869670	-7.890718	33.466950	-7.890718	33.466950	-1.265964	-58.425097
4.950000	-1.188998	-61.819720	-8.312031	29.625820	-8.312031	29.625820	-1.188207	-62.375968
5.000000	-1.116365	-65.771398	-8.758019	25.798698	-8.758019	25.798698	-1.115652	-66.329143
5.050000	-1.048970	-69.724452	-9.230963	21.988895	-9.230963	21.988895	-1.048342	-70.284406
5.100000	-0.986646	-73.678667	-9.733426	18.199509	-9.733426	18.199509	-0.986107	-74.241547
5.150000	-0.929313	-77.633955	-10.268523	14.434628	-10.268523	14.434628	-0.928869	-78.200498
5.200000	-0.876887	-81.590317	-10.839984	10.699295	-10.839984	10.699295	-0.876542	-82.161276
5.250000	-0.829276	-85.547836	-11.452319	6.999871	-11.452319	6.999871	-0.829035	-86.123982
5.300000	-0.786382	-89.506671	-12.111045	3.344573	-12.111045	3.344573	-0.786250	-90.088791
5.350000	-0.748105	-93.467054	-12.822994	-0.255725	-12.822994	-0.255725	-0.748088	-94.055949
5.400000	-0.714342	-97.429275	-13.596758	-3.786269	-13.596758	-3.786269	-0.714443	-98.025761
5.450000	-0.684987	-101.393678	-14.443331	-7.226497	-14.443331	-7.226497	-0.685210	-101.998582
5.500000	-0.659931	-105.360649	-15.377067	-10.546862	-15.377067	-10.546862	-0.660282	-105.974811
5.550000	-0.639068	-109.330606	-16.417164	-13.703386	-16.417164	-13.703386	-0.639549	-109.954874
5.600000	-0.622285	-113.303990	-17.590049	-16.627818	-17.590049	-16.627818	-0.622900	-113.939219
5.650000	-0.609515	-117.281297	-18.933201	-19.202805	-18.933201	-19.202805	-0.610267	-117.928357
5.700000	-0.600640	-121.262990	-20.502231	-21.221416	-20.502231	-21.221416	-0.601534	-121.922755
5.750000	-0.595506	-125.249461	-22.383828	-22.293363	-22.383828	-22.293363	-0.596542	-125.922796
5.800000	-0.593995	-129.241122	-24.718374	-21.553839	-24.718374	-21.553839	-0.595175	-129.928888
5.850000	-0.595989	-133.238347	-27.728054	-16.755744	-27.728054	-16.755744	-0.597315	-133.941399
5.900000	-0.601368	-137.241464	-31.546685	-1.002418	-31.546685	-1.002418	-0.602840	-137.960650
5.950000	-0.610005	-141.250747	-34.076837	37.831085	-34.076837	37.831085	-0.611623	-141.986900
6.000000	-0.621772	-145.266404	-31.472500	75.733979	-31.472500	75.733979	-0.623535	-146.020340
6.050000	-0.636533	-149.288570	-27.781344	90.660673	-27.781344	90.660673	-0.638439	-150.061084
6.100000	-0.654148	-153.317298	-24.911552	95.147688	-24.911552	95.147688	-0.656194	-154.109157
6.150000	-0.674468	-157.352551	-22.706054	95.740217	-22.706054	95.740217	-0.676650	-158.164493
6.200000	-0.697337	-161.394199	-20.946305	94.575787	-20.946305	94.575787	-0.699650	-162.226922
6.250000	-0.722593	-165.442010	-19.495188	92.484846	-19.495188	92.484846	-0.725030	-166.296172
6.300000	-0.750103	-169.495765	-18.268532	89.841504	-18.268532	89.841504	-0.752658	-170.371985
6.350000	-0.779636	-173.554878	-17.211383	86.855995	-17.211383	86.855995	-0.782299	-174.453707
6.400000	-0.810999	-177.618786	-16.286911	83.638398	-16.286911	83.638398	-0.813760	-178.540713
6.450000	-0.843991	178.313184	-15.469247	80.256662	-15.469247	80.256662	-0.846839	177.367738
6.500000	-0.878403	174.241817	-14.739586	76.755057	-14.739586	76.755057	-0.881325	173.272505
6.550000	-0.914015	170.168006	-14.083858	73.163772	-14.083858	73.163772	-0.916998	169.174561
6.600000	-0.950601	166.092755	-13.491278	69.504228	-13.491278	69.504228	-0.953631	165.074997
6.650000	-0.987927	162.017168	-12.953406	65.792165	-12.953406	65.792165	-0.990988	160.975009
6.700000	-1.025754	157.942449	-12.463516	62.039528	-12.463516	62.039528	-1.028829	156.875901
6.750000	-1.063838	153.869897	-12.016166	58.255650	-12.016166	58.255650	-1.066911	152.779072
6.800000	-1.101932	149.800896	-11.606887	54.448019	-11.606887	54.448019	-1.104987	148.686013
6.850000	-1.139791	145.736909	-11.231962	50.622802	-11.231962	50.622802	-1.142809	144.598299
6.900000	-1.177159	141.679557	-10.888442	46.785102	-10.888442	46.785102	-1.180122	140.517669
6.950000	-1.213785	137.630491	-10.573661	42.939509	-10.573661	42.939509	-1.216677	136.445891
7.000000	-1.249442	133.591285	-10.285159	39.090026	-10.285159	39.090026	-1.252246	132.384649
7.050000	-1.283903	129.563624	-10.020958	35.240095	-10.020958	35.240095	-1.286603	128.335742
7.100000	-1.316953	125.549222	-9.779328	31.392821	-9.779328	31.392821	-1.319533	124.300994
7.150000	-1.348389	121.549807	-9.558743	27.551035	-9.558743	27.551035	-1.350836	120.282239
7.200000	-1.378026	117.567116	-9.357846	23.717341	-9.357846	23.717341	-1.380327	116.281314
7.250000	-1.405697	113.602877	-9.175421	19.894151	-9.175421	19.894151	-1.407838	112.300044
7.300000	-1.431252	109.658806	-9.010372	16.083714	-9.010372	16.083714	-1.433225	108.340229
7.350000	-1.454565	105.736592	-8.861701	12.288131	-8.861701	12.288131	-1.456360	104.403636
7.400000	-1.475533	101.837892	-8.728497	8.509381	-8.728497	8.509381	-1.477143	100.491989
7.450000	-1.494076	97.964320	-8.609920	4.749320	-8.609920	4.749320	-1.495497	96.606958
7.500000	-1.510139	94.117442	-8.505192	1.009701	-8.505192	1.009701	-1.511366	92.750154
7.550000	-1.523646	90.299310	-8.413799	-2.707392	-8.413799	-2.707392	-1.524677	88.923690
7.600000	-1.534638	86.510885	-8.334838	-6.400778	-8.334838	-6.400778	-1.535473	85.128522
7.650000	-1.543108	82.753863	-8.267775	-10.068737	-8.267775	-10.068737	-1.543750	81.366369
7.700000	-1.549173	79.028587	-8.211686	-13.710689	-8.211686	-13.710689	-1.549624	77.637523
7.750000	-1.552825	75.337178	-8.166294	-17.324617	-8.166294	-17.324617	-1.553092	73.944137
7.800000	-1.554121	71.681257	-8.131160	-20.908926	-8.131160	-20.908926	-1.554211	70.287828
7.850000	-1.553238	68.060693	-8.105425	-24.463500	-8.105425	-24.463500	-1.553158	66.668381
7.900000	-1.550270	64.476687	-8.088662	-27.987132	-8.088662	-27.987132	-1.550030	63.086966
7.950000	-1.545254	60.931894	-8.080772	-31.477372	-8.080772	-31.477372	-1.544866	59.546256
8.000000	-1.538426	57.425220	-8.080853	-34.934967	-8.080853	-34.934967	-1.537901	56.045030
8.050000	-1.529921	53.957390	-8.088477	-38.359127	-8.088477	-38.359127	-1.529270	52.583957
8.100000	-1.519813	50.530956	-8.103550	-41.747475	-8.103550	-41.747475	-1.519049	49.165584
8.150000	-1.508309	47.145049	-8.125386	-45.100584	-8.125386	-45.100584	-1.507443	45.788929
8.200000	-1.495568	43.799709	-8.153522	-48.418248	-8.153522	-48.418248	-1.494612	42.453951
8.250000	-1.481705	40.496575	-8.187750	-51.698848	-8.187750	-51.698848	-1.480669	39.162250
8.300000	-1.466871	37.235824	-8.227658	-54.942032	-8.227658	-54.942032	-1.465766	35.913922
8.350000	-1.451204	34.018339	-8.272939	-58.146805	-8.272939	-58.146805	-1.450040	32.709788
8.400000	-1.434912	30.839763	-8.322759	-61.316850	-8.322759	-61.316850	-1.433696	29.545331
8.450000	-1.418027	27.706818	-8.377477	-64.445918	-8.377477	-64.445918	-1.416767	26.427326
8.500000	-1.400747	24.613692	-8.436212	-67.539001	-8.436212	-67.539001	-1.399450	23.349790
8.550000	-1.383161	21.563402	-8.498943	-70.593104	-8.498943	-70.593104	-1.381831	20.315725
8.600000	-1.365386	18.554806	-8.565313	-73.608986	-8.565313	-73.608986	-1.364030	17.323915
8.650000	-1.347537	15.585855	-8.634943	-76.588218	-8.634943	-76.588218	-1.346158	14.372234
8.700000	-1.329709	12.659888	-8.707857	-79.527332	-8.707857	-79.527332	-1.328312	11.464014
8.750000	-1.311993	9.769983	-8.783493	-82.432393	-8.783493	-82.432393	-1.310579	8.592229
8.800000	-1.294515	6.923488	-8.862187	-85.295803	-8.862187	-85.295803	-1.293085	5.764281
8.850000	-1.277328	4.111048	-8.943454	-88.125782	-8.943454	-88.125782	-1.275881	2.970724
8.900000	-1.260590	1.336327	-9.027692	-90.917395	-9.027692	-90.917395	-1.259118	0.215289
8.950000	-1.244410	-1.405817	-9.115047	-93.673732	-9.115047	-93.673732	-1.242899	-2.507151
9.000000	-1.229073	-4.116310	-9.206423	-96.391409	-9.206423	-96.391409	-1.227489	-5.197384
9.050000	-1.215083	-6.800624	-9.303364	-99.066905	-9.303364	-99.066905	-1.213354	-7.860676
9.100000	-1.203486	-9.466495	-9.408510	-101.689287	-9.408510	-101.689287	-1.201454	-10.504472
9.150000	-1.196784	-12.121949	-9.526408	-104.222893	-9.526408	-104.222893	-1.194086	-13.136487
9.200000	-1.203152	-14.762955	-9.662430	-106.519088	-9.662430	-106.519088	-1.198774	-15.753739
9.250000	-1.232405	-17.303509	-9.783910	-108.312847	-9.783910	-108.312847	-1.224748	-18.279765
9.300000	-1.264099	-19.497856	-9.760252	-109.906463	-9.760252	-109.906463	-1.254714	-20.486114
9.350000	-1.244883	-21.578875	-9.695032	-112.498427	-9.695032	-112.498427	-1.238325	-22.569511
9.400000	-1.208031	-23.839202	-9.720830	-115.368974	-9.720830	-115.368974	-1.203871	-24.812252
9.450000	-1.179658	-26.176390	-9.786596	-118.067278	-9.786596	-118.067278	-1.176689	-27.128252
9.500000	-1.159197	-28.512860	-9.861772	-120.621769	-9.861772	-120.621769	-1.156867	-29.443994
9.550000	-1.144172	-30.823414	-9.937730	-123.073968	-9.937730	-123.073968	-1.142210	-31.734638
9.600000	-1.132463	-33.103663	-10.011966	-125.458742	-10.011966	-125.458742	-1.130739	-33.995563
9.650000	-1.123143	-35.352543	-10.083722	-127.790930	-10.083722	-127.790930	-1.121578	-36.225528
9.700000	-1.115746	-37.568487	-10.152495	-130.077376	-10.152495	-130.077376	-1.114287	-38.422830
9.750000	-1.109877	-39.752838	-10.218220	-132.325076	-10.218220	-132.325076	-1.108486	-40.588680
9.800000	-1.105288	-41.907313	-10.280953	-134.538727	-10.280953	-134.538727	-1.103940	-42.724694
9.850000	-1.101855	-44.032467	-10.340660	-136.720316	-10.340660	-136.720316	-1.100531	-44.831351
9.900000	-1.099581	-46.126309	-10.397051	-138.867918	-10.397051	-138.867918	-1.098270	-46.906574
9.950000	-1.098291	-48.192462	-10.450554	-140.983899	-10.450554	-140.983899	-1.096987	-48.953938
10.000000	-1.097997	-50.229857	-10.501031	-143.062174	-10.501031	-143.062174	-1.096707	-50.972315
