! freq	dB(S11)	phase(S11)	dB(S12)	phase(S12)	
!     	dB(S21)	phase(S21)	dB(S22)	phase(S22)	
!S-par simulation data
#  GHz  S  DB  R 50
0.000000	-82.402365	0.000000	-0.000660	0.000000	-0.000660	0.000000	-82.402356	0.000000
0.050000	-38.542016	-91.886949	-0.008119	-3.155273	-0.008119	-3.155273	-38.542372	-91.885550
0.100000	-32.564741	-95.710586	-0.014906	-6.263186	-0.014906	-6.263186	-32.565340	-95.705623
0.150000	-29.065318	-99.129509	-0.021840	-9.367966	-0.021840	-9.367966	-29.066055	-99.121701
0.200000	-26.590222	-102.423868	-0.030057	-12.469195	-0.030057	-12.469195	-26.591091	-102.413099
0.250000	-24.679250	-105.660098	-0.039534	-15.565760	-0.039534	-15.565760	-24.680253	-105.646189
0.300000	-23.127103	-108.859481	-0.050140	-18.657510	-0.050140	-18.657510	-23.128238	-108.842258
0.350000	-21.823318	-112.033462	-0.061706	-21.745029	-0.061706	-21.745029	-21.824579	-112.012788
0.400000	-20.702301	-115.187711	-0.074156	-24.828782	-0.074156	-24.828782	-20.703680	-115.163484
0.450000	-19.721719	-118.326137	-0.087445	-27.909164	-0.087445	-27.909164	-19.723208	-118.298289
0.500000	-18.852505	-121.451759	-0.101535	-30.986487	-0.101535	-30.986487	-18.854098	-121.420249
0.550000	-18.073925	-124.566801	-0.116394	-34.060942	-0.116394	-34.060942	-18.075614	-124.531609
0.600000	-17.370716	-127.672908	-0.131997	-37.132629	-0.131997	-37.132629	-17.372497	-127.634031
0.650000	-16.731286	-130.771359	-0.148313	-40.201605	-0.148313	-40.201605	-16.733156	-130.728803
0.700000	-16.146618	-133.863161	-0.165309	-43.267914	-0.165309	-43.267914	-16.148573	-133.816943
0.750000	-15.609548	-136.949125	-0.182944	-46.331603	-0.182944	-46.331603	-15.611585	-136.899266
0.800000	-15.114281	-140.029920	-0.201176	-49.392743	-0.201176	-49.392743	-15.116401	-139.976449
0.850000	-14.656160	-143.106079	-0.219959	-52.451408	-0.219959	-52.451408	-14.658360	-143.049030
0.900000	-14.231071	-146.178169	-0.239238	-55.507767	-0.239238	-55.507767	-14.233353	-146.117580
0.950000	-13.835739	-149.246629	-0.258962	-58.561977	-0.258962	-58.561977	-13.838101	-149.182543
1.000000	-13.467357	-152.311890	-0.279080	-61.614245	-0.279080	-61.614245	-13.469800	-152.244354
1.050000	-13.123376	-155.374414	-0.299534	-64.664844	-0.299534	-64.664844	-13.125899	-155.303483
1.100000	-12.801648	-158.434638	-0.320272	-67.714071	-0.320272	-67.714071	-12.804252	-158.360371
1.150000	-12.500286	-161.493005	-0.341243	-70.762263	-0.341243	-70.762263	-12.502971	-161.415468
1.200000	-12.217619	-164.549973	-0.362398	-73.809795	-0.362398	-73.809795	-12.220383	-164.469239
1.250000	-11.952152	-167.606017	-0.383690	-76.857077	-0.383690	-76.857077	-11.954997	-167.522166
1.300000	-11.702628	-170.661632	-0.405075	-79.904565	-0.405075	-79.904565	-11.705553	-170.574753
1.350000	-11.467736	-173.717345	-0.426512	-82.952739	-0.426512	-82.952739	-11.470740	-173.627535
1.400000	-11.246365	-176.773693	-0.447967	-86.002110	-0.447967	-86.002110	-11.249450	-176.681058
1.450000	-11.037498	-179.831235	-0.469407	-89.053214	-0.469407	-89.053214	-11.040661	-179.735892
1.500000	-10.840368	177.109383	-0.490803	-92.106692	-0.490803	-92.106692	-10.843609	177.207306
1.550000	-10.653772	174.047655	-0.512137	-95.163010	-0.512137	-95.163010	-10.657092	174.148021
1.600000	-10.477044	170.982920	-0.533390	-98.222820	-0.533390	-98.222820	-10.480440	171.085580
1.650000	-10.309415	167.914537	-0.554553	-101.286746	-0.554553	-101.286746	-10.312888	168.019331
1.700000	-10.150051	164.841965	-0.575622	-104.355300	-0.575622	-104.355300	-10.153600	164.948722
1.750000	-9.998546	161.764249	-0.596589	-107.429433	-0.596589	-107.429433	-10.002170	161.872776
1.800000	-9.854068	158.680845	-0.617467	-110.509646	-0.617467	-110.509646	-9.857766	158.790941
1.850000	-9.715989	155.591049	-0.638267	-113.596606	-0.638267	-113.596606	-9.719760	155.702498
1.900000	-9.583707	152.494144	-0.659010	-116.690990	-0.659010	-116.690990	-9.587551	152.606715
1.950000	-9.456641	149.389401	-0.679723	-119.793480	-0.679723	-119.793480	-9.460555	149.502849
2.000000	-9.334227	146.276083	-0.700439	-122.904767	-0.700439	-122.904767	-9.338212	146.390149
2.050000	-9.215920	143.153444	-0.721201	-126.025545	-0.721201	-126.025545	-9.219973	143.267854
2.100000	-9.101196	140.020682	-0.742059	-129.156577	-0.742059	-129.156577	-9.105315	140.135142
2.150000	-8.989534	136.876971	-0.763071	-132.298652	-0.763071	-132.298652	-8.993718	136.991172
2.200000	-8.880408	133.721647	-0.784300	-135.452407	-0.784300	-135.452407	-8.884656	133.835270
2.250000	-8.773324	130.553948	-0.805817	-138.618599	-0.805817	-138.618599	-8.777633	130.666656
2.300000	-8.667796	127.373110	-0.827697	-141.797995	-0.827697	-141.797995	-8.672164	127.484555
2.350000	-8.563353	124.178371	-0.850019	-144.991373	-0.850019	-144.991373	-8.567777	124.288190
2.400000	-8.459532	120.968970	-0.872866	-148.199510	-0.872866	-148.199510	-8.464009	121.076788
2.450000	-8.355884	117.744151	-0.896327	-151.423176	-0.896327	-151.423176	-8.360412	117.849584
2.500000	-8.251972	114.503162	-0.920492	-154.663126	-0.920492	-154.663126	-8.256547	114.605815
2.550000	-8.147331	111.244940	-0.945477	-157.920413	-0.945477	-157.920413	-8.151949	111.344404
2.600000	-8.041579	107.969042	-0.971377	-161.195455	-0.971377	-161.195455	-8.046237	108.064909
2.650000	-7.934329	104.674745	-0.998305	-164.488940	-0.998305	-164.488940	-7.939022	104.766602
2.700000	-7.825210	101.361339	-1.026387	-167.801536	-1.026387	-167.801536	-7.829934	101.448774
2.750000	-7.713874	98.028128	-1.055756	-171.133896	-1.055756	-171.133896	-7.718624	98.110730
2.800000	-7.599998	94.674437	-1.086558	-174.486652	-1.086558	-174.486652	-7.604768	94.751798
2.850000	-7.483282	91.299609	-1.118947	-177.860422	-1.118947	-177.860422	-7.488069	91.371330
2.900000	-7.363461	87.903012	-1.153090	178.744197	-1.153090	178.744197	-7.368257	87.968704
2.950000	-7.240295	84.484043	-1.189163	175.326627	-1.189163	175.326627	-7.245095	84.543328
3.000000	-7.113584	81.042129	-1.227356	171.886317	-1.227356	171.886317	-7.118382	81.094647
3.050000	-6.983163	77.576731	-1.267870	168.422744	-1.267870	168.422744	-6.987952	77.622144
3.100000	-6.848905	74.087355	-1.310918	164.935421	-1.310918	164.935421	-6.853679	74.125343
3.150000	-6.710659	70.573279	-1.356755	161.423634	-1.356755	161.423634	-6.715412	70.603549
3.200000	-6.568379	67.034094	-1.405629	157.886975	-1.405629	157.886975	-6.573104	67.056381
3.250000	-6.422139	63.469732	-1.457764	154.325371	-1.457764	154.325371	-6.426830	63.483805
3.300000	-6.271995	59.879928	-1.513427	150.738554	-1.513427	150.738554	-6.276644	59.885589
3.350000	-6.118047	56.264489	-1.572899	147.126329	-1.572899	147.126329	-6.122648	56.261577
3.400000	-5.960444	52.623311	-1.636474	143.488593	-1.636474	143.488593	-5.964993	52.611701
3.450000	-5.799385	48.956382	-1.704458	139.825339	-1.704458	139.825339	-5.803874	48.935987
3.500000	-5.635113	45.263797	-1.777173	136.136668	-1.777173	136.136668	-5.639536	45.234567
3.550000	-5.467916	41.545764	-1.854951	132.422808	-1.854951	132.422808	-5.472267	41.507691
3.600000	-5.298125	37.802620	-1.938138	128.684118	-1.938138	128.684118	-5.302401	37.755732
3.650000	-5.126113	34.034837	-2.027089	124.921106	-2.027089	124.921106	-5.130307	33.979202
3.700000	-4.952287	30.243036	-2.122168	121.134438	-2.122168	121.134438	-4.956396	30.178759
3.750000	-4.777089	26.427998	-2.223746	117.324951	-2.223746	117.324951	-4.781108	26.355218
3.800000	-4.600902	22.590210	-2.332326	113.493215	-2.332326	113.493215	-4.604827	22.509107
3.850000	-4.424327	18.731315	-2.448171	109.640946	-2.448171	109.640946	-4.428155	18.642097
3.900000	-4.247877	14.852629	-2.571658	105.769558	-2.571658	105.769558	-4.251606	14.755533
3.950000	-4.072075	10.955656	-2.703161	101.880665	-2.703161	101.880665	-4.075702	10.850947
4.000000	-3.897450	7.042082	-2.843050	97.976081	-2.843050	97.976081	-3.900973	6.930049
4.050000	-3.724528	3.113779	-2.991683	94.057815	-2.991683	94.057815	-3.727945	2.994734
4.100000	-3.553829	-0.827204	-3.149408	90.128070	-3.149408	90.128070	-3.557139	-0.952931
4.150000	-3.385855	-4.778653	-3.316556	86.189229	-3.316556	86.189229	-3.389057	-4.910713
4.200000	-3.221092	-8.738196	-3.493440	82.243842	-3.493440	82.243842	-3.224186	-8.876231
4.250000	-3.059996	-12.703331	-3.680352	78.294611	-3.680352	78.294611	-3.062982	-12.846966
4.300000	-2.902994	-16.671435	-3.877560	74.344367	-3.877560	74.344367	-2.905871	-16.820291
4.350000	-2.750474	-20.639798	-4.085308	70.396046	-4.085308	70.396046	-2.753244	-20.793486
4.400000	-2.602817	-24.605586	-4.303871	66.452753	-4.303871	66.452753	-2.605480	-24.763711
4.450000	-2.460343	-28.565894	-4.533427	62.517660	-4.533427	62.517660	-2.462899	-28.728058
4.500000	-2.323285	-32.517940	-4.774078	58.593800	-4.774078	58.593800	-2.325736	-32.683748
4.550000	-2.191852	-36.458946	-5.025963	54.684250	-5.025963	54.684250	-2.194200	-36.628005
4.600000	-2.066207	-40.386198	-5.289201	50.792046	-5.289201	50.792046	-2.068453	-40.558117
4.650000	-1.946465	-44.297074	-5.563893	46.920156	-5.563893	46.920156	-1.948611	-44.471466
4.700000	-1.832694	-48.189074	-5.850125	43.071457	-5.850125	43.071457	-1.834741	-48.365558
4.750000	-1.724919	-52.059847	-6.147977	39.248708	-6.147977	39.248708	-1.726871	-52.238047
4.800000	-1.623124	-55.907213	-6.457526	35.454541	-6.457526	35.454541	-1.624982	-56.086758
4.850000	-1.527256	-59.729178	-6.778854	31.691441	-6.778854	31.691441	-1.529022	-59.909707
4.900000	-1.437225	-63.523958	-7.112057	27.961739	-7.112057	27.961739	-1.438901	-63.705114
4.950000	-1.352912	-67.289980	-7.457249	24.267611	-7.457249	24.267611	-1.354501	-67.471418
5.000000	-1.274172	-71.025899	-7.814576	20.611077	-7.814576	20.611077	-1.275677	-71.207278
5.050000	-1.200939	-74.729894	-8.184142	16.994915	-8.184142	16.994915	-1.202361	-74.910876
5.100000	-1.132918	-78.401743	-8.566228	13.420043	-8.566228	13.420043	-1.134260	-78.582005
5.150000	-1.069910	-82.040792	-8.961137	9.888092	-8.961137	9.888092	-1.071174	-82.220018
5.200000	-1.011700	-85.646602	-9.369244	6.400611	-9.369244	6.400611	-1.012889	-85.824486
5.250000	-0.958071	-89.218944	-9.791021	2.959105	-9.791021	2.959105	-0.959187	-89.395187
5.300000	-0.908799	-92.757784	-10.227044	-0.434920	-10.227044	-0.434920	-0.909844	-92.932094
5.350000	-0.863660	-96.263275	-10.678019	-3.779905	-10.678019	-3.779905	-0.864637	-96.435367
5.400000	-0.822433	-99.735740	-11.144802	-7.074173	-11.144802	-7.074173	-0.823342	-99.905337
5.450000	-0.784896	-103.175663	-11.628425	-10.315847	-11.628425	-10.315847	-0.785742	-103.342493
5.500000	-0.750838	-106.583669	-12.130130	-13.502749	-12.130130	-13.502749	-0.751622	-106.747467
5.550000	-0.720051	-109.960517	-12.651410	-16.632275	-12.651410	-16.632275	-0.720774	-110.121024
5.600000	-0.692336	-113.307082	-13.194052	-19.701233	-13.194052	-19.701233	-0.693001	-113.464044
5.650000	-0.667532	-116.624037	-13.760068	-22.704869	-13.760068	-22.704869	-0.668141	-116.777204
5.700000	-0.645453	-119.912496	-14.352024	-25.637885	-14.352024	-25.637885	-0.646007	-120.061620
5.750000	-0.625899	-123.173936	-14.973173	-28.494305	-14.973173	-28.494305	-0.626401	-123.318777
5.800000	-0.608712	-126.409585	-15.627306	-31.265397	-15.627306	-31.265397	-0.609162	-126.549909
5.850000	-0.593742	-129.620735	-16.319062	-33.939578	-16.319062	-33.939578	-0.594143	-129.756307
5.900000	-0.580852	-132.808728	-17.054158	-36.501271	-17.054158	-36.501271	-0.581206	-132.939319
5.950000	-0.569917	-135.974953	-17.839711	-38.929186	-17.839711	-38.929186	-0.570224	-136.100336
6.000000	-0.560821	-139.120838	-18.684691	-41.193663	-18.684691	-41.193663	-0.561083	-139.240788
6.050000	-0.553459	-142.247848	-19.600544	-43.252436	-19.600544	-43.252436	-0.553678	-142.362141
6.100000	-0.547737	-145.357476	-20.602105	-45.043630	-20.602105	-45.043630	-0.547914	-145.465890
6.150000	-0.543571	-148.451247	-21.708892	-46.473666	-21.708892	-46.473666	-0.543709	-148.553559
6.200000	-0.540890	-151.530708	-22.946955	-47.395391	-22.946955	-47.395391	-0.540989	-151.626698
6.250000	-0.539631	-154.597435	-24.351352	-47.566388	-24.351352	-47.566388	-0.539693	-154.686881
6.300000	-0.539772	-157.652826	-25.966796	-46.521515	-25.966796	-46.521515	-0.539797	-157.735499
6.350000	-0.541241	-160.698788	-27.847413	-43.451412	-27.847413	-43.451412	-0.541231	-160.774466
6.400000	-0.544009	-163.736983	-30.020472	-36.721697	-30.020472	-36.721697	-0.543966	-163.805438
6.450000	-0.548058	-166.769105	-32.315311	-23.287895	-32.315311	-23.287895	-0.547983	-166.830111
6.500000	-0.553383	-169.796889	-33.859685	-0.402651	-33.859685	-0.402651	-0.553277	-169.850213
6.550000	-0.559990	-172.822113	-33.350326	25.799714	-33.350326	25.799714	-0.559853	-172.867521
6.600000	-0.567899	-175.846611	-31.301545	44.333721	-31.301545	44.333721	-0.567733	-175.883863
6.650000	-0.577144	-178.872278	-29.023288	54.266251	-29.023288	54.266251	-0.576949	-178.901129
6.700000	-0.587770	178.098943	-26.990147	59.082208	-26.990147	59.082208	-0.587547	178.078743
6.750000	-0.599847	175.064995	-25.242985	61.115932	-25.242985	61.115932	-0.599597	175.053703
6.800000	-0.613485	172.023597	-23.733391	61.551582	-23.733391	61.551582	-0.613207	172.021485
6.850000	-0.628802	168.972368	-22.410008	61.011948	-22.410008	61.011948	-0.628497	168.979716
6.900000	-0.645886	165.909204	-21.232641	59.852653	-21.232641	59.852653	-0.645554	165.926297
6.950000	-0.664921	162.831436	-20.169698	58.255851	-20.169698	58.255851	-0.664560	162.858576
7.000000	-0.686191	159.735585	-19.196805	56.330116	-19.196805	56.330116	-0.685800	159.773101
7.050000	-0.709847	156.619435	-18.297437	54.165381	-18.297437	54.165381	-0.709425	156.667660
7.100000	-0.736177	153.479812	-17.457736	51.808588	-17.457736	51.808588	-0.735721	153.539100
7.150000	-0.765701	150.311646	-16.665298	49.284073	-16.665298	49.284073	-0.765207	150.382398
7.200000	-0.798730	147.112104	-15.912575	46.620864	-15.912575	46.620864	-0.798195	147.194734
7.250000	-0.835763	143.877053	-15.192515	43.832978	-15.192515	43.832978	-0.835180	143.972008
7.300000	-0.877606	140.600096	-14.497982	40.924241	-14.497982	40.924241	-0.876969	140.707886
7.350000	-0.925030	137.275930	-13.824198	37.899771	-13.824198	37.899771	-0.924328	137.397113
7.400000	-0.978886	133.899365	-13.167503	34.762083	-13.167503	34.762083	-0.978107	134.034550
7.450000	-1.040507	130.462250	-12.523416	31.505807	-12.523416	31.505807	-1.039637	130.612136
7.500000	-1.111651	126.954717	-11.887716	28.121792	-11.887716	28.121792	-1.110668	127.120122
7.550000	-1.193894	123.370160	-11.258884	24.605550	-11.258884	24.605550	-1.192773	123.551992
7.600000	-1.289621	119.698250	-10.634259	20.944722	-10.634259	20.944722	-1.288329	119.897565
7.650000	-1.402853	115.921373	-10.009133	17.114080	-10.009133	17.114080	-1.401343	116.139492
7.700000	-1.536822	112.031612	-9.383974	13.102373	-9.383974	13.102373	-1.535036	112.270041
7.750000	-1.696664	108.014807	-8.757303	8.885838	-8.757303	8.885838	-1.694523	108.275363
7.800000	-1.890246	103.850951	-8.126603	4.427439	-8.126603	4.427439	-1.887641	104.135951
7.850000	-2.126497	99.526921	-7.492478	-0.304842	-7.492478	-0.304842	-2.123273	99.839231
7.900000	-2.418765	95.027368	-6.855121	-5.357668	-6.855121	-5.357668	-2.414702	95.370710
7.950000	-2.783878	90.348255	-6.217454	-10.776501	-6.217454	-10.776501	-2.778648	90.727445
8.000000	-3.246005	85.498232	-5.583635	-16.618000	-5.583635	-16.618000	-3.239102	85.919734
8.050000	-3.839642	80.518554	-4.960609	-22.946248	-4.960609	-22.946248	-3.830251	80.991343
8.100000	-4.610781	75.518298	-4.359579	-29.814374	-4.359579	-29.814374	-4.597520	76.054880
8.150000	-5.628446	70.741990	-3.795743	-37.280232	-3.795743	-37.280232	-5.608770	71.360629
8.200000	-6.987536	66.728138	-3.289776	-45.371184	-3.289776	-45.371184	-6.956361	67.455073
8.250000	-8.812611	64.669026	-2.866400	-54.072028	-2.866400	-54.072028	-8.758726	65.536882
8.300000	-11.206949	67.343520	-2.552264	-63.309576	-2.552264	-63.309576	-11.103805	68.353513
8.350000	-13.823904	80.758082	-2.371941	-72.939764	-2.371941	-72.939764	-13.623719	81.629286
8.400000	-14.575932	107.351287	-2.342069	-82.751800	-2.342069	-82.751800	-14.330500	107.294300
8.450000	-12.431592	127.677376	-2.465273	-92.500843	-2.465273	-92.500843	-12.280226	127.071690
8.500000	-9.819525	134.330007	-2.731121	-101.955604	-2.731121	-101.955604	-9.738912	133.766798
8.550000	-7.734743	133.936453	-3.118580	-110.935150	-3.118580	-110.935150	-7.687948	133.506758
8.600000	-6.177731	130.605124	-3.601199	-119.326517	-3.601199	-119.326517	-6.147871	130.288739
8.650000	-5.017209	126.105373	-4.151778	-127.090685	-4.151778	-127.090685	-4.996763	125.876000
8.700000	-4.142478	121.203700	-4.747086	-134.240990	-4.747086	-134.240990	-4.127760	121.041561
8.750000	-3.475364	116.248661	-5.368686	-140.815032	-5.368686	-140.815032	-3.464383	116.139638
8.800000	-2.959614	111.401118	-6.002802	-146.870670	-6.002802	-146.870670	-2.951211	111.335163
8.850000	-2.554921	106.726228	-6.640325	-152.473171	-6.640325	-152.473171	-2.548384	106.696066
8.900000	-2.234351	102.248814	-7.274071	-157.674345	-7.274071	-157.674345	-2.229211	102.248903
8.950000	-1.976472	97.964899	-7.900938	-162.534374	-7.900938	-162.534374	-1.972414	97.991057
9.000000	-1.767088	93.865697	-8.518083	-167.096533	-8.518083	-167.096533	-1.763889	93.914601
9.050000	-1.595280	89.936544	-9.124269	-171.401138	-9.124269	-171.401138	-1.592779	90.005524
9.100000	-1.452717	86.160265	-9.719600	-175.484439	-9.719600	-175.484439	-1.450795	86.247154
9.150000	-1.333087	82.519920	-10.304980	-179.377663	-10.304980	-179.377663	-1.331654	82.622933
9.200000	-1.232292	79.005135	-10.879588	176.899821	-10.879588	176.899821	-1.231276	79.122723
9.250000	-1.146774	75.603888	-11.443836	173.328021	-11.443836	173.328021	-1.146119	75.734716
9.300000	-1.073365	72.301924	-11.999973	169.885388	-11.999973	169.885388	-1.073028	72.444867
9.350000	-1.010058	69.090918	-12.548393	166.559068	-12.548393	166.559068	-1.010002	69.244974
9.400000	-0.955434	65.965795	-13.088355	163.340825	-13.088355	163.340825	-0.955630	66.130040
9.450000	-0.907741	62.915416	-13.622713	160.215293	-13.622713	160.215293	-0.908164	63.089059
9.500000	-0.866367	59.939712	-14.148969	157.181134	-14.148969	157.181134	-0.866995	60.121975
9.550000	-0.829639	57.023246	-14.673564	154.218619	-14.673564	154.218619	-0.830455	57.213519
9.600000	-0.797203	54.165841	-15.194957	151.326828	-15.194957	151.326828	-0.798192	54.363520
9.650000	-0.768478	51.363610	-15.713903	148.500475	-15.713903	148.500475	-0.769629	51.568138
9.700000	-0.743171	48.616436	-16.229016	145.738828	-16.229016	145.738828	-0.744470	48.827260
9.750000	-0.720773	45.920009	-16.741708	143.036341	-16.741708	143.036341	-0.722210	46.136623
9.800000	-0.700810	43.269275	-17.254264	140.386785	-17.254264	140.386785	-0.702377	43.491230
9.850000	-0.683008	40.661993	-17.767387	137.787330	-17.767387	137.787330	-0.684697	40.888864
9.900000	-0.667133	38.096176	-18.281786	135.235536	-18.281786	135.235536	-0.668938	38.327562
9.950000	-0.652988	35.570060	-18.798176	132.729311	-18.798176	132.729311	-0.654901	35.805581
10.000000	-0.640400	33.082070	-19.317287	130.266871	-19.317287	130.266871	-0.642417	33.321366
