! freq	dB(S11)	phase(S11)	dB(S12)	phase(S12)	
!     	dB(S21)	phase(S21)	dB(S22)	phase(S22)	
!S-par simulation data
#  GHz  S  DB  R 50
0.000000	-0.000000	0.000000	-360.225714	180.000000	-360.225714	180.000000	-0.000000	0.000000
0.050000	-0.001776	-2.598379	-104.734512	88.457408	-104.734512	88.457408	-0.000499	-0.769528
0.100000	-0.005852	-5.181737	-98.762632	86.764144	-98.762632	86.764144	-0.001660	-1.535162
0.150000	-0.010326	-7.748613	-95.321027	85.126184	-95.321027	85.126184	-0.002954	-2.296650
0.200000	-0.014387	-10.303992	-92.932636	83.526464	-92.932636	83.526464	-0.004137	-3.055602
0.250000	-0.017953	-12.851118	-91.138652	81.971823	-91.138652	81.971823	-0.005178	-3.813279
0.300000	-0.021180	-15.391245	-89.735322	80.473894	-89.735322	80.473894	-0.006120	-4.570412
0.350000	-0.024231	-17.924525	-88.610963	79.044061	-88.610963	79.044061	-0.007013	-5.327322
0.400000	-0.027204	-20.450216	-87.702409	77.698415	-87.702409	77.698415	-0.007890	-6.084115
0.450000	-0.030157	-22.966942	-86.974020	76.461470	-86.974020	76.461470	-0.008773	-6.840804
0.500000	-0.033119	-25.474092	-86.394420	75.351823	-86.394420	75.351823	-0.009671	-7.597374
0.550000	-0.036096	-27.970654	-85.946042	74.397943	-85.946042	74.397943	-0.010588	-8.353787
0.600000	-0.039088	-30.455053	-85.622060	73.646643	-85.622060	73.646643	-0.011522	-9.109981
0.650000	-0.042084	-32.926722	-85.411168	73.140110	-85.411168	73.140110	-0.012471	-9.865904
0.700000	-0.045071	-35.384901	-85.307644	72.937248	-85.307644	72.937248	-0.013428	-10.621493
0.750000	-0.048038	-37.828291	-85.312049	73.133112	-85.312049	73.133112	-0.014390	-11.376665
0.800000	-0.050970	-40.256100	-85.422218	73.843772	-85.422218	73.843772	-0.015352	-12.131348
0.850000	-0.053856	-42.667762	-85.634075	75.219703	-85.634075	75.219703	-0.016312	-12.885474
0.900000	-0.056687	-45.062630	-85.940684	77.468528	-85.940684	77.468528	-0.017267	-13.638981
0.950000	-0.059455	-47.440005	-86.326191	80.869801	-86.326191	80.869801	-0.018218	-14.391810
1.000000	-0.062153	-49.799306	-86.754719	85.765217	-86.754719	85.765217	-0.019166	-15.143910
1.050000	-0.064776	-52.140008	-87.155762	92.505005	-87.155762	92.505005	-0.020110	-15.895242
1.100000	-0.067322	-54.461639	-87.410654	101.275851	-87.410654	101.275851	-0.021053	-16.645775
1.150000	-0.069788	-56.763780	-87.364247	111.792868	-87.364247	111.792868	-0.021995	-17.395484
1.200000	-0.072176	-59.046064	-86.890928	123.075212	-86.890928	123.075212	-0.022937	-18.144350
1.250000	-0.074484	-61.308171	-85.982292	133.736960	-85.982292	133.736960	-0.023880	-18.892357
1.300000	-0.076714	-63.549381	-84.745761	142.668264	-84.745761	142.668264	-0.024826	-19.639477
1.350000	-0.078870	-65.769909	-83.347448	149.571043	-83.347448	149.571043	-0.025773	-20.385719
1.400000	-0.080954	-67.969576	-81.906143	154.623753	-81.906143	154.623753	-0.026722	-21.131073
1.450000	-0.082969	-70.148243	-80.491012	158.176085	-80.491012	158.176085	-0.027673	-21.875534
1.500000	-0.084921	-72.305811	-79.135191	160.572054	-79.135191	160.572054	-0.028627	-22.619094
1.550000	-0.086811	-74.442220	-77.851111	162.091961	-77.851111	162.091961	-0.029582	-23.361747
1.600000	-0.088645	-76.557441	-76.640673	162.948342	-76.640673	162.948342	-0.030539	-24.103484
1.650000	-0.090427	-78.651483	-75.500918	163.298271	-75.500918	163.298271	-0.031497	-24.844299
1.700000	-0.092159	-80.724383	-74.426921	163.257312	-74.426921	163.257312	-0.032457	-25.584183
1.750000	-0.093848	-82.776208	-73.413208	162.910971	-73.413208	162.910971	-0.033418	-26.323129
1.800000	-0.095495	-84.807053	-72.454412	162.323168	-72.454412	162.323168	-0.034379	-27.061127
1.850000	-0.097105	-86.817039	-71.545548	161.542269	-71.545548	161.542269	-0.035342	-27.798169
1.900000	-0.098681	-88.806086	-70.681675	160.603980	-70.681675	160.603980	-0.036305	-28.534234
1.950000	-0.100227	-90.774367	-69.858900	159.537822	-69.858900	159.537822	-0.037269	-29.269312
2.000000	-0.101746	-92.722294	-69.074108	158.367743	-69.074108	158.367743	-0.038234	-30.003403
2.050000	-0.103241	-94.650074	-68.324115	157.111459	-68.324115	157.111459	-0.039200	-30.736497
2.100000	-0.104714	-96.557930	-67.606104	155.783216	-67.606104	155.783216	-0.040167	-31.468583
2.150000	-0.106169	-98.446099	-66.917578	154.394576	-66.917578	154.394576	-0.041135	-32.199651
2.200000	-0.107609	-100.314835	-66.256320	152.955002	-66.256320	152.955002	-0.042104	-32.929688
2.250000	-0.109034	-102.164403	-65.620352	151.472303	-65.620352	151.472303	-0.043075	-33.658684
2.300000	-0.110447	-103.995078	-65.007905	149.952969	-65.007905	149.952969	-0.044048	-34.386627
2.350000	-0.111851	-105.807146	-64.417393	148.402430	-64.417393	148.402430	-0.045023	-35.113506
2.400000	-0.113246	-107.600904	-63.847385	146.825258	-63.847385	146.825258	-0.046000	-35.839310
2.450000	-0.114636	-109.376653	-63.296593	145.225322	-63.296593	145.225322	-0.046980	-36.564027
2.500000	-0.116020	-111.134704	-62.763845	143.605916	-62.763845	143.605916	-0.047963	-37.287645
2.550000	-0.117402	-112.874813	-62.247633	141.969386	-62.247633	141.969386	-0.048950	-38.010117
2.600000	-0.118781	-114.597881	-61.747494	140.318767	-61.747494	140.318767	-0.049940	-38.731466
2.650000	-0.120160	-116.304232	-61.262534	138.656115	-61.262534	138.656115	-0.050935	-39.451683
2.700000	-0.121539	-117.994194	-60.791935	136.983214	-60.791935	136.983214	-0.051934	-40.170754
2.750000	-0.122920	-119.668096	-60.334946	135.301614	-60.334946	135.301614	-0.052938	-40.888671
2.800000	-0.124303	-121.326270	-59.890875	133.612668	-59.890875	133.612668	-0.053947	-41.605420
2.850000	-0.125690	-122.969049	-59.459085	131.917561	-59.459085	131.917561	-0.054961	-42.320992
2.900000	-0.127081	-124.596765	-59.038984	130.217330	-59.038984	130.217330	-0.055982	-43.035376
2.950000	-0.128477	-126.209751	-58.630027	128.512891	-58.630027	128.512891	-0.057009	-43.748562
3.000000	-0.129879	-127.808340	-58.231705	126.805049	-58.231705	126.805049	-0.058043	-44.460540
3.050000	-0.131287	-129.392863	-57.843546	125.094515	-57.843546	125.094515	-0.059084	-45.171299
3.100000	-0.132703	-130.963651	-57.465110	123.381919	-57.465110	123.381919	-0.060133	-45.880830
3.150000	-0.134127	-132.521031	-57.095986	121.667820	-57.095986	121.667820	-0.061189	-46.589122
3.200000	-0.135559	-134.065329	-56.735791	119.952714	-56.735791	119.952714	-0.062254	-47.296168
3.250000	-0.137001	-135.596870	-56.384163	118.237043	-56.384163	118.237043	-0.063328	-48.001958
3.300000	-0.138452	-137.115975	-56.040766	116.521201	-56.040766	116.521201	-0.064411	-48.706483
3.350000	-0.139913	-138.622961	-55.705284	114.805539	-55.705284	114.805539	-0.065503	-49.409735
3.400000	-0.141386	-140.118144	-55.377417	113.090370	-55.377417	113.090370	-0.066605	-50.111705
3.450000	-0.142869	-141.601836	-55.056885	111.375975	-55.056885	111.375975	-0.067717	-50.812386
3.500000	-0.144364	-143.074345	-54.743424	109.662604	-54.743424	109.662604	-0.068840	-51.511769
3.550000	-0.145872	-144.535976	-54.436784	107.950483	-54.436784	107.950483	-0.069974	-52.209848
3.600000	-0.147392	-145.987029	-54.136728	106.239813	-54.136728	106.239813	-0.071120	-52.906616
3.650000	-0.148925	-147.427803	-53.843033	104.530774	-53.843033	104.530774	-0.072277	-53.602065
3.700000	-0.150472	-148.858591	-53.555487	102.823529	-53.555487	102.823529	-0.073447	-54.296190
3.750000	-0.152033	-150.279681	-53.273890	101.118222	-53.273890	101.118222	-0.074629	-54.988984
3.800000	-0.153608	-151.690963	-52.997921	99.415079	-52.997921	99.415079	-0.075824	-55.680382
3.850000	-0.155199	-153.093140	-52.727544	97.714130	-52.727544	97.714130	-0.077033	-56.370438
3.900000	-0.156804	-154.486488	-52.462586	96.015479	-52.462586	96.015479	-0.078255	-57.059146
3.950000	-0.158425	-155.871279	-52.202882	94.319217	-52.202882	94.319217	-0.079492	-57.746501
4.000000	-0.160061	-157.247782	-51.948275	92.625427	-51.948275	92.625427	-0.080743	-58.432499
4.050000	-0.161713	-158.616260	-51.698616	90.934181	-51.698616	90.934181	-0.082009	-59.117135
4.100000	-0.163382	-159.976974	-51.453761	89.245546	-51.453761	89.245546	-0.083289	-59.800406
4.150000	-0.165067	-161.330179	-51.213575	87.559578	-51.213575	87.559578	-0.084586	-60.482308
4.200000	-0.166769	-162.676127	-50.977927	85.876329	-50.977927	85.876329	-0.085898	-61.162837
4.250000	-0.168488	-164.015065	-50.746694	84.195844	-50.746694	84.195844	-0.087227	-61.841991
4.300000	-0.170224	-165.347238	-50.519755	82.518162	-50.519755	82.518162	-0.088572	-62.519767
4.350000	-0.171977	-166.672884	-50.296999	80.843318	-50.296999	80.843318	-0.089935	-63.196162
4.400000	-0.173748	-167.992239	-50.078314	79.171340	-50.078314	79.171340	-0.091314	-63.871175
4.450000	-0.175536	-169.305535	-49.863598	77.502255	-49.863598	77.502255	-0.092712	-64.544804
4.500000	-0.177343	-170.612999	-49.652751	75.836083	-49.652751	75.836083	-0.094128	-65.217047
4.550000	-0.179167	-171.914855	-49.445675	74.172841	-49.445675	74.172841	-0.095562	-65.887904
4.600000	-0.181009	-173.211324	-49.242281	72.512546	-49.242281	72.512546	-0.097015	-66.557373
4.650000	-0.182870	-174.502622	-49.042479	70.855207	-49.042479	70.855207	-0.098487	-67.225453
4.700000	-0.184748	-175.788961	-48.846184	69.200833	-48.846184	69.200833	-0.099979	-67.892146
4.750000	-0.186644	-177.070551	-48.653317	67.549431	-48.653317	67.549431	-0.101491	-68.557450
4.800000	-0.188559	-178.347597	-48.463798	65.901005	-48.463798	65.901005	-0.103024	-69.221366
4.850000	-0.190491	-179.620302	-48.277553	64.255556	-48.277553	64.255556	-0.104577	-69.883895
4.900000	-0.192442	179.111138	-48.094510	62.613085	-48.094510	62.613085	-0.106151	-70.545037
4.950000	-0.194410	177.846525	-47.914601	60.973590	-47.914601	60.973590	-0.107747	-71.204795
5.000000	-0.196395	176.585668	-47.737758	59.337069	-47.737758	59.337069	-0.109365	-71.863169
5.050000	-0.198399	175.328526	-47.563897	57.703647	-47.563897	57.703647	-0.111006	-72.520101
5.100000	-0.200421	174.074750	-47.392984	56.073189	-47.392984	56.073189	-0.112670	-73.175653
5.150000	-0.202459	172.824158	-47.224958	54.445690	-47.224958	54.445690	-0.114357	-73.829829
5.200000	-0.204515	171.576571	-47.059764	52.821144	-47.059764	52.821144	-0.116067	-74.482630
5.250000	-0.206587	170.331815	-46.897348	51.199544	-46.897348	51.199544	-0.117801	-75.134060
5.300000	-0.208675	169.089716	-46.737656	49.580884	-46.737656	49.580884	-0.119560	-75.784121
5.350000	-0.210779	167.850106	-46.580638	47.965157	-46.580638	47.965157	-0.121343	-76.432818
5.400000	-0.212899	166.612816	-46.426248	46.352357	-46.426248	46.352357	-0.123151	-77.080153
5.450000	-0.215034	165.377684	-46.274438	44.742478	-46.274438	44.742478	-0.124985	-77.726132
5.500000	-0.217184	164.144549	-46.125165	43.135515	-46.125165	43.135515	-0.126844	-78.370757
5.550000	-0.219348	162.913252	-45.978386	41.531463	-45.978386	41.531463	-0.128730	-79.014034
5.600000	-0.221526	161.683637	-45.834060	39.930320	-45.834060	39.930320	-0.130642	-79.655968
5.650000	-0.223718	160.455552	-45.692149	38.332081	-45.692149	38.332081	-0.132581	-80.296563
5.700000	-0.225922	159.228847	-45.552615	36.736748	-45.552615	36.736748	-0.134547	-80.935824
5.750000	-0.228139	158.003374	-45.415422	35.144319	-45.415422	35.144319	-0.136542	-81.573758
5.800000	-0.230368	156.778988	-45.280537	33.554799	-45.280537	33.554799	-0.138564	-82.210369
5.850000	-0.232608	155.555546	-45.147926	31.968189	-45.147926	31.968189	-0.140615	-82.845664
5.900000	-0.234858	154.332909	-45.017559	30.384498	-45.017559	30.384498	-0.142695	-83.479648
5.950000	-0.237119	153.110939	-44.889405	28.803733	-44.889405	28.803733	-0.144804	-84.112329
6.000000	-0.239389	151.889501	-44.763436	27.225905	-44.763436	27.225905	-0.146943	-84.743713
6.050000	-0.241667	150.668462	-44.639625	25.651028	-44.639625	25.651028	-0.149113	-85.373807
6.100000	-0.243954	149.447692	-44.517945	24.079118	-44.517945	24.079118	-0.151312	-86.002617
6.150000	-0.246247	148.227063	-44.398371	22.510193	-44.398371	22.510193	-0.153543	-86.630151
6.200000	-0.248547	147.006450	-44.280880	20.944276	-44.280880	20.944276	-0.155805	-87.256417
6.250000	-0.250853	145.785730	-44.165449	19.381393	-44.165449	19.381393	-0.158099	-87.881422
6.300000	-0.253164	144.564765	-44.052080	17.821706	-44.052080	17.821706	-0.160426	-88.505120
6.350000	-0.255479	143.343444	-43.940731	16.265116	-43.940731	16.265116	-0.162785	-89.127574
6.400000	-0.257797	142.121649	-43.831383	14.711660	-43.831383	14.711660	-0.165178	-89.748792
6.450000	-0.260117	140.899268	-43.724016	13.161377	-43.724016	13.161377	-0.167604	-90.368784
6.500000	-0.262439	139.676189	-43.618612	11.614311	-43.618612	11.614311	-0.170063	-90.987557
6.550000	-0.264762	138.452302	-43.515153	10.070509	-43.515153	10.070509	-0.172557	-91.605120
6.600000	-0.267084	137.227503	-43.413623	8.530024	-43.413623	8.530024	-0.175085	-92.221484
6.650000	-0.269406	136.001685	-43.314005	6.992912	-43.314005	6.992912	-0.177648	-92.836656
6.700000	-0.271726	134.774747	-43.216285	5.459231	-43.216285	5.459231	-0.180246	-93.450647
6.750000	-0.274043	133.546590	-43.120447	3.929047	-43.120447	3.929047	-0.182880	-94.063465
6.800000	-0.276357	132.317116	-43.026476	2.402427	-43.026476	2.402427	-0.185550	-94.675123
6.850000	-0.278666	131.086229	-42.934360	0.879445	-42.934360	0.879445	-0.188256	-95.285628
6.900000	-0.280970	129.853837	-42.844085	-0.639822	-42.844085	-0.639822	-0.190999	-95.894991
6.950000	-0.283267	128.619850	-42.755637	-2.155293	-42.755637	-2.155293	-0.193779	-96.503224
7.000000	-0.285558	127.384180	-42.669005	-3.666883	-42.669005	-3.666883	-0.196596	-97.110336
7.050000	-0.287841	126.146740	-42.584175	-5.174501	-42.584175	-5.174501	-0.199452	-97.716338
7.100000	-0.290116	124.907449	-42.501135	-6.678053	-42.501135	-6.678053	-0.202346	-98.321241
7.150000	-0.292381	123.666224	-42.419874	-8.177440	-42.419874	-8.177440	-0.205278	-98.925056
7.200000	-0.294636	122.422988	-42.340380	-9.672561	-42.340380	-9.672561	-0.208249	-99.527795
7.250000	-0.296880	121.177665	-42.262640	-11.163308	-42.262640	-11.163308	-0.211259	-100.129469
7.300000	-0.299112	119.930181	-42.186645	-12.649571	-42.186645	-12.649571	-0.214310	-100.730089
7.350000	-0.301332	118.680467	-42.112381	-14.131235	-42.112381	-14.131235	-0.217400	-101.329668
7.400000	-0.303539	117.428453	-42.039838	-15.608181	-42.039838	-15.608181	-0.220530	-101.928217
7.450000	-0.305732	116.174074	-41.969003	-17.080289	-41.969003	-17.080289	-0.223702	-102.525748
7.500000	-0.307911	114.917267	-41.899866	-18.547432	-41.899866	-18.547432	-0.226914	-103.122274
7.550000	-0.310075	113.657862	-41.832465	-20.009254	-41.832465	-20.009254	-0.230169	-103.717765
7.600000	-0.312223	112.395906	-41.766739	-21.465839	-41.766739	-21.465839	-0.233466	-104.312276
7.650000	-0.314355	111.131345	-41.702675	-22.917052	-41.702675	-22.917052	-0.236806	-104.905821
7.700000	-0.316471	109.864129	-41.640262	-24.362753	-41.640262	-24.362753	-0.240187	-105.498413
7.750000	-0.318570	108.594208	-41.579486	-25.802804	-41.579486	-25.802804	-0.243611	-106.090064
7.800000	-0.320652	107.321536	-41.520334	-27.237060	-41.520334	-27.237060	-0.247079	-106.680788
7.850000	-0.322717	106.046071	-41.462794	-28.665377	-41.462794	-28.665377	-0.250589	-107.270598
7.900000	-0.324764	104.767773	-41.406853	-30.087609	-41.406853	-30.087609	-0.254143	-107.859508
7.950000	-0.326794	103.486606	-41.352495	-31.503605	-41.352495	-31.503605	-0.257741	-108.447531
8.000000	-0.328806	102.202535	-41.299707	-32.913217	-41.299707	-32.913217	-0.261383	-109.034682
8.050000	-0.330801	100.915531	-41.248475	-34.316294	-41.248475	-34.316294	-0.265070	-109.620974
8.100000	-0.332778	99.625566	-41.198784	-35.712682	-41.198784	-35.712682	-0.268802	-110.206421
8.150000	-0.334738	98.332615	-41.150619	-37.102231	-41.150619	-37.102231	-0.272578	-110.791039
8.200000	-0.336681	97.036659	-41.103964	-38.484786	-41.103964	-38.484786	-0.276400	-111.374841
8.250000	-0.338607	95.737679	-41.058803	-39.860194	-41.058803	-39.860194	-0.280267	-111.957842
8.300000	-0.340516	94.435662	-41.015121	-41.228302	-41.015121	-41.228302	-0.284180	-112.540056
8.350000	-0.342410	93.130597	-40.972900	-42.588958	-40.972900	-42.588958	-0.288139	-113.121499
8.400000	-0.344289	91.822476	-40.932123	-43.942009	-40.932123	-43.942009	-0.292144	-113.702187
8.450000	-0.346153	90.511297	-40.892774	-45.287304	-40.892774	-45.287304	-0.296195	-114.282133
8.500000	-0.348004	89.197058	-40.854835	-46.624692	-40.854835	-46.624692	-0.300294	-114.861354
8.550000	-0.349841	87.879763	-40.818288	-47.954026	-40.818288	-47.954026	-0.304439	-115.439864
8.600000	-0.351667	86.559420	-40.783114	-49.275158	-40.783114	-49.275158	-0.308631	-116.017681
8.650000	-0.353483	85.236039	-40.749295	-50.587941	-40.749295	-50.587941	-0.312871	-116.594820
8.700000	-0.355289	83.909634	-40.716812	-51.892234	-40.716812	-51.892234	-0.317157	-117.171296
8.750000	-0.357087	82.580224	-40.685646	-53.187895	-40.685646	-53.187895	-0.321492	-117.747126
8.800000	-0.358878	81.247703	-40.655830	-54.474398	-40.655830	-54.474398	-0.325876	-118.322300
8.850000	-0.360665	79.912226	-40.627290	-55.751982	-40.627290	-55.751982	-0.330309	-118.896863
8.900000	-0.362448	78.573825	-40.600008	-57.020515	-40.600008	-57.020515	-0.334789	-119.470830
8.950000	-0.364231	77.232533	-40.573963	-58.279868	-40.573963	-58.279868	-0.339318	-120.044220
9.000000	-0.366013	75.888389	-40.549135	-59.529913	-40.549135	-59.529913	-0.343894	-120.617049
9.050000	-0.367799	74.541434	-40.525504	-60.770530	-40.525504	-60.770530	-0.348520	-121.189335
9.100000	-0.369590	73.191713	-40.503050	-62.001597	-40.503050	-62.001597	-0.353194	-121.761094
9.150000	-0.371387	71.839278	-40.481752	-63.223000	-40.481752	-63.223000	-0.357916	-122.332345
9.200000	-0.373195	70.484180	-40.461589	-64.434627	-40.461589	-64.434627	-0.362687	-122.903106
9.250000	-0.375015	69.126478	-40.442542	-65.636371	-40.442542	-65.636371	-0.367507	-123.473393
9.300000	-0.376849	67.766233	-40.424590	-66.828127	-40.424590	-66.828127	-0.372376	-124.043226
9.350000	-0.378702	66.403511	-40.407712	-68.009796	-40.407712	-68.009796	-0.377294	-124.612623
9.400000	-0.380575	65.038380	-40.391889	-69.181284	-40.391889	-69.181284	-0.382260	-125.181602
9.450000	-0.382471	63.670914	-40.377099	-70.342499	-40.377099	-70.342499	-0.387276	-125.750182
9.500000	-0.384395	62.301191	-40.363324	-71.493354	-40.363324	-71.493354	-0.392340	-126.318381
9.550000	-0.386348	60.929290	-40.350544	-72.633769	-40.350544	-72.633769	-0.397453	-126.886220
9.600000	-0.388335	59.555297	-40.338738	-73.763665	-40.338738	-73.763665	-0.402615	-127.453717
9.650000	-0.390359	58.179300	-40.327887	-74.882969	-40.327887	-74.882969	-0.407826	-128.020892
9.700000	-0.392422	56.801391	-40.317973	-75.991614	-40.317973	-75.991614	-0.413085	-128.587764
9.750000	-0.394530	55.421667	-40.308975	-77.089535	-40.308975	-77.089535	-0.418393	-129.154353
9.800000	-0.396686	54.040226	-40.300877	-78.176674	-40.300877	-78.176674	-0.423750	-129.720680
9.850000	-0.398894	52.657172	-40.293659	-79.252976	-40.293659	-79.252976	-0.429155	-130.286765
9.900000	-0.401156	51.272611	-40.287303	-80.318391	-40.287303	-80.318391	-0.434608	-130.852628
9.950000	-0.403479	49.886654	-40.281792	-81.372876	-40.281792	-81.372876	-0.440110	-131.418290
10.000000	-0.405865	48.499413	-40.277109	-82.416388	-40.277109	-82.416388	-0.445659	-131.983773
