! freq	dB(S11)	phase(S11)	dB(S12)	phase(S12)	
!     	dB(S21)	phase(S21)	dB(S22)	phase(S22)	
!S-par simulation data
#  GHz  S  DB  R 50
0.000000	-82.144489	0.000000	-0.000679	0.000000	-0.000679	0.000000	-82.144489	0.000000
0.050000	-50.936615	-85.540704	-0.003401	-2.686826	-0.003401	-2.686826	-50.824660	-83.237628
0.100000	-45.411582	-93.162947	-0.008905	-5.350268	-0.008905	-5.350268	-45.292192	-87.520610
0.150000	-42.030632	-99.035700	-0.014129	-7.995591	-0.014129	-7.995591	-41.914955	-90.359112
0.200000	-39.604373	-104.198108	-0.018549	-10.633937	-0.018549	-10.633937	-39.491136	-92.541926
0.250000	-37.721376	-109.009372	-0.022381	-13.270121	-0.022381	-13.270121	-37.610854	-94.381769
0.300000	-36.188875	-113.637657	-0.025920	-15.905933	-0.025920	-15.905933	-36.082051	-96.028102
0.350000	-34.903543	-118.158996	-0.029339	-18.541825	-0.029339	-18.541825	-34.801926	-97.542097
0.400000	-33.800963	-122.623089	-0.032733	-21.177752	-0.032733	-21.177752	-33.705931	-98.964309
0.450000	-32.840984	-127.055062	-0.036135	-23.813576	-0.036135	-23.813576	-32.753967	-100.308194
0.500000	-31.994396	-131.474631	-0.039547	-26.449201	-0.039547	-26.449201	-31.916536	-101.586734
0.550000	-31.240791	-135.894142	-0.042964	-29.084595	-0.042964	-29.084595	-31.173077	-102.804659
0.600000	-30.565563	-140.323814	-0.046371	-31.719773	-0.046371	-31.719773	-30.508931	-103.962569
0.650000	-29.958146	-144.773848	-0.049754	-34.354817	-0.049754	-34.354817	-29.913555	-105.057768
0.700000	-29.408100	-149.250526	-0.053102	-36.989867	-0.053102	-36.989867	-29.376259	-106.093386
0.750000	-28.908129	-153.760214	-0.056409	-39.625072	-0.056409	-39.625072	-28.889707	-107.067703
0.800000	-28.453144	-158.311229	-0.059669	-42.260627	-0.059669	-42.260627	-28.448883	-107.974982
0.850000	-28.037661	-162.909073	-0.062883	-44.896726	-0.062883	-44.896726	-28.048231	-108.813443
0.900000	-27.657070	-167.558720	-0.066057	-47.533550	-0.066057	-47.533550	-27.683099	-109.580726
0.950000	-27.307635	-172.265812	-0.069201	-50.171282	-0.069201	-50.171282	-27.349746	-110.272890
1.000000	-26.985924	-177.035429	-0.072326	-52.810089	-0.072326	-52.810089	-27.044724	-110.886242
1.050000	-26.688810	178.127668	-0.075445	-55.450117	-0.075445	-55.450117	-26.764882	-111.417045
1.100000	-26.413393	173.219088	-0.078573	-58.091496	-0.078573	-58.091496	-26.507286	-111.861621
1.150000	-26.156940	168.234885	-0.081724	-60.734335	-0.081724	-60.734335	-26.269151	-112.216488
1.200000	-25.916836	163.171652	-0.084913	-63.378723	-0.084913	-63.378723	-26.047790	-112.478501
1.250000	-25.690551	158.026647	-0.088154	-66.024738	-0.088154	-66.024738	-25.840574	-112.645017
1.300000	-25.475695	152.796073	-0.091460	-68.672481	-0.091460	-68.672481	-25.645005	-112.711944
1.350000	-25.269668	147.480775	-0.094839	-71.321972	-0.094839	-71.321972	-25.458291	-112.680381
1.400000	-25.070077	142.080928	-0.098300	-73.973263	-0.098300	-73.973263	-25.277840	-112.550491
1.450000	-24.874575	136.597973	-0.101850	-76.626407	-0.101850	-76.626407	-25.101070	-112.323799
1.500000	-24.680877	131.034744	-0.105495	-79.281455	-0.105495	-79.281455	-24.925427	-112.003401
1.550000	-24.486781	125.395584	-0.109239	-81.938469	-0.109239	-81.938469	-24.748414	-111.594144
1.600000	-24.290203	119.686397	-0.113087	-84.597511	-0.113087	-84.597511	-24.567631	-111.102759
1.650000	-24.089208	113.914664	-0.117043	-87.258652	-0.117043	-87.258652	-24.380825	-110.537917
1.700000	-23.882057	108.089376	-0.121112	-89.921970	-0.121112	-89.921970	-24.185945	-109.910197
1.750000	-23.667243	102.220894	-0.125299	-92.587546	-0.125299	-92.587546	-23.981198	-109.231950
1.800000	-23.443532	96.320737	-0.129610	-95.255465	-0.129610	-95.255465	-23.765110	-108.517047
1.850000	-23.209990	90.401294	-0.134054	-97.925814	-0.134054	-97.925814	-23.536564	-107.780527
1.900000	-22.965859	84.475548	-0.138640	-100.598700	-0.138640	-100.598700	-23.294669	-107.038252
1.950000	-22.710845	78.556894	-0.143380	-103.274207	-0.143380	-103.274207	-23.039097	-106.306609
2.000000	-22.445148	72.658172	-0.148285	-105.952390	-0.148285	-105.952390	-22.770122	-105.601285
2.050000	-22.169131	66.791549	-0.153368	-108.633318	-0.153368	-108.633318	-22.488235	-104.937100
2.100000	-21.883432	60.968239	-0.158643	-111.317050	-0.158643	-111.317050	-22.194269	-104.327617
2.150000	-21.588917	55.198246	-0.164127	-114.003631	-0.164127	-114.003631	-21.889338	-103.784797
2.200000	-21.286590	49.490366	-0.169835	-116.693105	-0.169835	-116.693105	-21.574720	-103.318997
2.250000	-20.977555	43.852159	-0.175787	-119.385505	-0.175787	-119.385505	-21.251807	-102.938933
2.300000	-20.663234	38.288637	-0.181995	-122.080816	-0.181995	-122.080816	-20.922350	-102.650101
2.350000	-20.344942	32.803819	-0.188477	-124.779027	-0.188477	-124.779027	-20.587955	-102.456721
2.400000	-20.023991	27.400316	-0.195247	-127.480115	-0.195247	-127.480115	-20.250210	-102.361257
2.450000	-19.701663	22.079457	-0.202319	-130.184045	-0.202319	-130.184045	-19.910642	-102.364602
2.500000	-19.379178	16.841433	-0.209707	-132.890768	-0.209707	-132.890768	-19.570687	-102.466296
2.550000	-19.057573	11.686338	-0.217425	-135.600251	-0.217425	-135.600251	-19.231550	-102.665763
2.600000	-18.738033	6.611652	-0.225480	-138.312395	-0.225480	-138.312395	-18.894583	-102.959392
2.650000	-18.421386	1.616339	-0.233883	-141.027162	-0.233883	-141.027162	-18.560715	-103.345363
2.700000	-18.108714	-3.304513	-0.242632	-143.744395	-0.242632	-143.744395	-18.231150	-103.817420
2.750000	-17.800822	-8.155092	-0.251724	-146.463971	-0.251724	-146.463971	-17.906766	-104.370264
2.800000	-17.498060	-12.935348	-0.261177	-149.185911	-0.261177	-149.185911	-17.587920	-105.003513
2.850000	-17.201103	-17.649982	-0.270983	-151.910087	-0.270983	-151.910087	-17.275328	-105.711399
2.900000	-16.910460	-22.303133	-0.281137	-154.636392	-0.281137	-154.636392	-16.969517	-106.488892
2.950000	-16.626535	-26.898752	-0.291632	-157.364728	-0.291632	-157.364728	-16.670897	-107.331259
3.000000	-16.349648	-31.440606	-0.302459	-160.095010	-0.302459	-160.095010	-16.379778	-108.234050
3.050000	-16.080052	-35.932417	-0.313607	-162.827156	-0.313607	-162.827156	-16.096403	-109.192942
3.100000	-15.817940	-40.377833	-0.325062	-165.561093	-0.325062	-165.561093	-15.820945	-110.203760
3.150000	-15.563458	-44.780195	-0.336812	-168.296768	-0.336812	-168.296768	-15.553526	-111.262742
3.200000	-15.316706	-49.143005	-0.348839	-171.034126	-0.348839	-171.034126	-15.294226	-112.366011
3.250000	-15.077736	-53.469819	-0.361124	-173.773117	-0.361124	-173.773117	-15.043071	-113.509689
3.300000	-14.846559	-57.763838	-0.373645	-176.513712	-0.373645	-176.513712	-14.800051	-114.690356
3.350000	-14.623157	-62.028134	-0.386384	-179.255896	-0.386384	-179.255896	-14.565122	-115.904787
3.400000	-14.407481	-66.265657	-0.399316	178.000332	-0.399316	178.000332	-14.338213	-117.149951
3.450000	-14.199462	-70.479171	-0.412421	175.254952	-0.412421	175.254952	-14.119236	-118.423077
3.500000	-13.999024	-74.671297	-0.425674	172.507926	-0.425674	172.507926	-13.908092	-119.721611
3.550000	-13.806095	-78.844457	-0.439054	169.759183	-0.439054	169.759183	-13.704691	-121.043294
3.600000	-13.620386	-83.001927	-0.452531	167.008746	-0.452531	167.008746	-13.508742	-122.384810
3.650000	-13.441826	-87.145546	-0.466086	164.256492	-0.466086	164.256492	-13.320156	-123.744642
3.700000	-13.270248	-91.277544	-0.479696	161.502330	-0.479696	161.502330	-13.138758	-125.120826
3.750000	-13.105473	-95.400036	-0.493338	158.746154	-0.493338	158.746154	-12.964363	-126.511555
3.800000	-12.947389	-99.514908	-0.506989	155.987793	-0.506989	155.987793	-12.796855	-127.915422
3.850000	-12.795716	-103.624254	-0.520630	153.227154	-0.520630	153.227154	-12.635957	-129.330618
3.900000	-12.650239	-107.729848	-0.534240	150.464090	-0.534240	150.464090	-12.481462	-130.755798
3.950000	-12.510737	-111.833348	-0.547802	147.698438	-0.547802	147.698438	-12.333154	-132.189761
4.000000	-12.376979	-115.936298	-0.561300	144.930029	-0.561300	144.930029	-12.190815	-133.631445
4.050000	-12.248729	-120.040122	-0.574719	142.158679	-0.574719	142.158679	-12.054222	-135.079930
4.100000	-12.125741	-124.146118	-0.588045	139.384199	-0.588045	139.384199	-11.923149	-136.534436
4.150000	-12.007766	-128.255455	-0.601268	136.606391	-0.601268	136.606391	-11.797368	-137.994321
4.200000	-11.894550	-132.369169	-0.614379	133.825048	-0.614379	133.825048	-11.676649	-139.459082
4.250000	-11.785831	-136.488152	-0.627370	131.039963	-0.627370	131.039963	-11.560760	-140.928356
4.300000	-11.681348	-140.613149	-0.640235	128.250922	-0.640235	128.250922	-11.449468	-142.401922
4.350000	-11.580835	-144.744746	-0.652973	125.457708	-0.652973	125.457708	-11.342543	-143.879703
4.400000	-11.484050	-148.883448	-0.665579	122.660054	-0.665579	122.660054	-11.239784	-145.361814
4.450000	-11.390719	-153.029511	-0.678055	119.857737	-0.678055	119.857737	-11.140957	-146.848482
4.500000	-11.300546	-157.182918	-0.690404	117.050588	-0.690404	117.050588	-11.045805	-148.340037
4.550000	-11.213266	-161.343543	-0.702631	114.238395	-0.702631	114.238395	-10.954106	-149.837004
4.600000	-11.128619	-165.511069	-0.714741	111.420948	-0.714741	111.420948	-10.865644	-151.340066
4.650000	-11.046349	-169.684977	-0.726741	108.598042	-0.726741	108.598042	-10.780208	-152.850059
4.700000	-10.966207	-173.864546	-0.738640	105.769479	-0.738640	105.769479	-10.697595	-154.367981
4.750000	-10.887957	-178.048849	-0.750447	102.935064	-0.750447	102.935064	-10.617612	-155.894985
4.800000	-10.811370	177.763251	-0.762171	100.094612	-0.762171	100.094612	-10.540075	-157.432387
4.850000	-10.736232	173.573098	-0.773824	97.247941	-0.773824	97.247941	-10.464813	-158.981661
4.900000	-10.662346	169.382244	-0.785416	94.394879	-0.785416	94.394879	-10.391667	-160.544441
4.950000	-10.589531	165.192442	-0.796958	91.535258	-0.796958	91.535258	-10.320492	-162.122519
5.000000	-10.517624	161.005643	-0.808461	88.668917	-0.808461	88.668917	-10.251161	-163.717842
5.050000	-10.446487	156.824153	-0.819933	85.795547	-0.819933	85.795547	-10.183586	-165.332982
5.100000	-10.375995	152.650238	-0.831385	82.915144	-0.831385	82.915144	-10.117648	-166.969826
5.150000	-10.306058	148.486395	-0.842825	80.027557	-0.842825	80.027557	-10.053273	-168.630778
5.200000	-10.236607	144.335275	-0.854259	77.132640	-0.854259	77.132640	-9.990409	-170.318382
5.250000	-10.167602	140.199665	-0.865692	74.230244	-0.865692	74.230244	-9.929023	-172.035318
5.300000	-10.099026	136.082476	-0.877126	71.320215	-0.877126	71.320215	-9.869105	-173.784396
5.350000	-10.030890	131.986724	-0.888564	68.402393	-0.888564	68.402393	-9.810663	-175.568553
5.400000	-9.963231	127.915518	-0.900002	65.476611	-0.900002	65.476611	-9.753729	-177.390850
5.450000	-9.896107	123.872036	-0.911437	62.542685	-0.911437	62.542685	-9.698351	-179.254465
5.500000	-9.829604	119.859522	-0.922863	59.600418	-0.922863	59.600418	-9.644600	178.837304
5.550000	-9.763823	115.881260	-0.934271	56.649588	-0.934271	56.649588	-9.592563	176.881041
5.600000	-9.698889	111.940571	-0.945651	53.689952	-0.945651	53.689952	-9.542345	174.873213
5.650000	-9.634948	108.041281	-0.956988	50.721131	-0.956988	50.721131	-9.494084	172.809516
5.700000	-9.572156	104.186863	-0.968265	47.742803	-0.968265	47.742803	-9.447917	170.686033
5.750000	-9.510670	100.380241	-0.979469	44.754716	-0.979469	44.754716	-9.403967	168.499429
5.800000	-9.450655	96.624792	-0.990579	41.756470	-0.990579	41.756470	-9.362382	166.245623
5.850000	-9.392277	92.923899	-1.001577	38.747619	-1.001577	38.747619	-9.323315	163.920371
5.900000	-9.335699	89.280955	-1.012446	35.727656	-1.012446	35.727656	-9.286914	161.519252
5.950000	-9.281072	85.699366	-1.023167	32.696019	-1.023167	32.696019	-9.253326	159.037650
6.000000	-9.228534	82.182561	-1.033724	29.652077	-1.033724	29.652077	-9.222685	156.470731
6.050000	-9.178199	78.733994	-1.044104	26.595130	-1.044104	26.595130	-9.195111	153.813428
6.100000	-9.130157	75.357157	-1.054299	23.524403	-1.054299	23.524403	-9.170704	151.060415
6.150000	-9.084459	72.055583	-1.064304	20.439043	-1.064304	20.439043	-9.149531	148.206083
6.200000	-9.041114	68.832857	-1.074124	17.338115	-1.074124	17.338115	-9.131625	145.244528
6.250000	-9.000082	65.692612	-1.083770	14.220601	-1.083770	14.220601	-9.116974	142.169525
6.300000	-8.961296	62.640491	-1.093262	11.084983	-1.093262	11.084983	-9.105572	138.971757
6.350000	-8.924531	59.678424	-1.102640	7.930424	-1.102640	7.930424	-9.097206	135.646779
6.400000	-8.889520	56.810148	-1.111955	4.755642	-1.111955	4.755642	-9.091648	132.187366
6.450000	-8.855898	54.039376	-1.121276	1.559271	-1.121276	1.559271	-9.088571	128.585996
6.500000	-8.823194	51.369743	-1.130688	-1.660136	-1.130688	-1.660136	-9.087533	124.834902
6.550000	-8.790811	48.804731	-1.140304	-4.904095	-1.140304	-4.904095	-9.087958	120.926148
6.600000	-8.758019	46.347562	-1.150259	-8.174191	-1.150259	-8.174191	-9.089116	116.851739
6.650000	-8.723941	44.001068	-1.160716	-11.472057	-1.160716	-11.472057	-9.090103	112.603784
6.700000	-8.687562	41.767064	-1.171866	-14.799244	-1.171866	-14.799244	-9.089838	108.175451
6.750000	-8.647687	39.647367	-1.183939	-18.157521	-1.183939	-18.157521	-9.087023	103.559248
6.800000	-8.602885	37.643930	-1.197217	-21.549021	-1.197217	-21.549021	-9.080065	98.746543
6.850000	-8.551586	35.756248	-1.212022	-24.975567	-1.212022	-24.975567	-9.067150	93.731837
6.900000	-8.492386	33.978493	-1.228653	-28.437703	-1.228653	-28.437703	-9.046531	88.518234
6.950000	-8.423513	32.307640	-1.247514	-31.937292	-1.247514	-31.937292	-9.016040	83.102959
7.000000	-8.342736	30.740778	-1.269146	-35.477151	-1.269146	-35.477151	-8.972932	77.480980
7.050000	-8.249141	29.263038	-1.293858	-39.055996	-1.293858	-39.055996	-8.915744	71.670189
7.100000	-8.140445	27.867344	-1.322324	-42.676649	-1.322324	-42.676649	-8.841520	65.670863
7.150000	-8.015222	26.539064	-1.355126	-46.339630	-1.355126	-46.339630	-8.748147	59.497550
7.200000	-7.872609	25.261067	-1.392823	-50.044626	-1.392823	-50.044626	-8.634128	53.170247
7.250000	-7.711622	24.015793	-1.436134	-53.792044	-1.436134	-53.792044	-8.497840	46.708481
7.300000	-7.532048	22.783520	-1.485738	-57.581170	-1.485738	-57.581170	-8.338570	40.137489
7.350000	-7.334250	21.544304	-1.542314	-61.410708	-1.542314	-61.410708	-8.156352	33.484599
7.400000	-7.118636	20.277785	-1.606718	-65.279657	-1.606718	-65.279657	-7.951344	26.777379
7.450000	-6.886899	18.965580	-1.679563	-69.185095	-1.679563	-69.185095	-7.725332	20.045448
7.500000	-6.640622	17.590217	-1.761652	-73.124474	-1.761652	-73.124474	-7.480056	13.316496
7.550000	-6.382022	16.137008	-1.853690	-77.094185	-1.853690	-77.094185	-7.218104	6.616984
7.600000	-6.113763	14.595193	-1.956251	-81.089781	-1.956251	-81.089781	-6.942664	-0.029881
7.650000	-5.838262	12.954745	-2.070110	-85.106785	-2.070110	-85.106785	-6.656657	-6.602051
7.700000	-5.558564	11.212371	-2.195624	-89.139387	-2.195624	-89.139387	-6.363796	-13.083174
7.750000	-5.277316	9.365695	-2.333292	-93.181754	-2.333292	-93.181754	-6.067305	-19.458242
7.800000	-4.997137	7.415667	-2.483473	-97.227451	-2.483473	-97.227451	-5.770364	-25.715247
7.850000	-4.720517	5.367279	-2.646268	-101.269795	-2.646268	-101.269795	-5.475994	-31.846666
7.900000	-4.449573	3.225112	-2.821910	-105.301745	-2.821910	-105.301745	-5.186720	-37.843805
7.950000	-4.186228	0.998182	-3.010227	-109.316463	-3.010227	-109.316463	-4.904854	-43.703711
8.000000	-3.932037	-1.304829	-3.211073	-113.307067	-3.211073	-113.307067	-4.632233	-49.422881
8.050000	-3.688290	-3.674558	-3.424196	-117.266634	-3.424196	-117.266634	-4.370368	-54.998472
8.100000	-3.455887	-6.100057	-3.649091	-121.189283	-3.649091	-121.189283	-4.120333	-60.431578
8.150000	-3.235696	-8.572397	-3.885380	-125.067763	-3.885380	-125.067763	-3.883099	-65.717987
8.200000	-3.027841	-11.079805	-4.132245	-128.898689	-4.132245	-128.898689	-3.658875	-70.864741
8.250000	-2.832483	-13.613296	-4.389067	-132.677440	-4.389067	-132.677440	-3.447855	-75.872970
8.300000	-2.650029	-16.164862	-4.655165	-136.397089	-4.655165	-136.397089	-3.250463	-80.737834
8.350000	-2.479944	-18.725536	-4.929679	-140.056604	-4.929679	-140.056604	-3.066156	-85.467764
8.400000	-2.321841	-21.288193	-5.211843	-143.653808	-5.211843	-143.653808	-2.894525	-90.066636
8.450000	-2.175603	-23.846285	-5.500761	-147.184471	-5.500761	-147.184471	-2.735429	-94.533404
8.500000	-2.040649	-26.394061	-5.795601	-150.647685	-5.795601	-150.647685	-2.588250	-98.872951
8.550000	-1.916219	-28.927048	-6.095671	-154.044202	-6.095671	-154.044202	-2.452181	-103.092109
8.600000	-1.801877	-31.440996	-6.400115	-157.372546	-6.400115	-157.372546	-2.326748	-107.192866
8.650000	-1.697208	-33.931979	-6.707981	-160.631193	-6.707981	-160.631193	-2.211499	-111.176771
8.700000	-1.601281	-36.398273	-7.018851	-163.823442	-7.018851	-163.823442	-2.105450	-115.052768
8.750000	-1.513513	-38.837911	-7.332084	-166.950137	-7.332084	-166.950137	-2.007979	-118.825059
8.800000	-1.433713	-41.247723	-7.646475	-170.008720	-7.646475	-170.008720	-1.918863	-122.492304
8.850000	-1.360921	-43.628299	-7.961986	-173.004381	-7.961986	-173.004381	-1.837095	-126.064728
8.900000	-1.294621	-45.979038	-8.278094	-175.938681	-8.278094	-175.938681	-1.762121	-129.546510
8.950000	-1.234538	-48.298421	-8.593820	-178.810922	-8.593820	-178.810922	-1.693638	-132.938352
9.000000	-1.180052	-50.587220	-8.908961	178.375497	-8.908961	178.375497	-1.630989	-136.246674
9.050000	-1.130646	-52.846230	-9.223293	175.617678	-9.223293	175.617678	-1.573620	-139.476860
9.100000	-1.086023	-55.075238	-9.536115	172.914950	-9.536115	172.914950	-1.521209	-142.630999
9.150000	-1.045832	-57.274703	-9.846926	170.265675	-9.846926	170.265675	-1.473374	-145.712406
9.200000	-1.009592	-59.446439	-10.155814	167.666069	-10.155814	167.666069	-1.429601	-148.727128
9.250000	-0.977019	-61.591194	-10.462361	165.114515	-10.462361	165.114515	-1.389579	-151.678125
9.300000	-0.947958	-63.708976	-10.765683	162.610916	-10.765683	162.610916	-1.353122	-154.566300
9.350000	-0.921982	-65.802276	-11.066154	160.150961	-11.066154	160.150961	-1.319774	-157.397957
9.400000	-0.898861	-67.872300	-11.363489	157.732778	-11.363489	157.732778	-1.289276	-160.176090
9.450000	-0.878543	-69.919002	-11.656538	155.356969	-11.656538	155.356969	-1.261537	-162.900506
9.500000	-0.860706	-71.944867	-11.945653	153.019684	-11.945653	153.019684	-1.236204	-165.576578
9.550000	-0.845023	-73.952648	-12.231522	150.716574	-12.231522	150.716574	-1.212928	-168.210145
9.600000	-0.831727	-75.940585	-12.511407	148.452104	-12.511407	148.452104	-1.191875	-170.796085
9.650000	-0.820283	-77.913543	-12.787614	146.217937	-12.787614	146.217937	-1.172504	-173.344992
9.700000	-0.810921	-79.870321	-13.057320	144.018106	-13.057320	144.018106	-1.154961	-175.852265
9.750000	-0.803294	-81.814433	-13.321926	141.846823	-13.321926	141.846823	-1.138886	-178.325179
9.800000	-0.797464	-83.746497	-13.579791	139.704856	-13.579791	139.704856	-1.124260	179.236947
9.850000	-0.793339	-85.668368	-13.830494	137.590209	-13.830494	137.590209	-1.110940	176.831513
9.900000	-0.790811	-87.582070	-14.073788	135.500482	-14.073788	135.500482	-1.098768	174.455469
9.950000	-0.790016	-89.488598	-14.307131	133.436805	-14.307131	133.436805	-1.087752	172.109907
10.000000	-0.790693	-91.390572	-14.531687	131.394334	-14.531687	131.394334	-1.077644	169.788905
