! freq	dB(S11)	phase(S11)	dB(S12)	phase(S12)	
!     	dB(S21)	phase(S21)	dB(S22)	phase(S22)	
!S-par simulation data
#  GHz  S  DB  R 50
0.000000	-0.000000	0.000000	-345.850380	180.000000	-345.850380	180.000000	-0.000000	-0.000000
0.050000	-0.000246	-0.825181	-108.217296	86.004242	-108.217296	86.004242	-0.000108	-0.959675
0.100000	-0.000946	-1.649301	-102.577197	83.839354	-102.577197	83.839354	-0.000427	-1.919108
0.150000	-0.002003	-2.471576	-99.383916	82.953335	-99.383916	82.953335	-0.000948	-2.878069
0.200000	-0.003292	-3.291633	-97.135275	82.529311	-97.135275	82.529311	-0.001655	-3.836362
0.250000	-0.004706	-4.109289	-95.402527	82.216286	-95.402527	82.216286	-0.002538	-4.793752
0.300000	-0.006147	-4.924953	-94.001120	81.900452	-94.001120	81.900452	-0.003560	-5.750175
0.350000	-0.007561	-5.738820	-92.839945	81.567804	-92.839945	81.567804	-0.004708	-6.705482
0.400000	-0.008918	-6.551199	-91.863305	81.227269	-91.863305	81.227269	-0.005957	-7.659592
0.450000	-0.010204	-7.362360	-91.035082	80.896434	-91.035082	80.896434	-0.007287	-8.612450
0.500000	-0.011418	-8.172521	-90.330513	80.595054	-90.330513	80.595054	-0.008677	-9.564026
0.550000	-0.012566	-8.981841	-89.731970	80.343537	-89.731970	80.343537	-0.010109	-10.514310
0.600000	-0.013657	-9.790432	-89.226564	80.163076	-89.226564	80.163076	-0.011568	-11.463305
0.650000	-0.014699	-10.598364	-88.804689	80.076335	-88.804689	80.076335	-0.013041	-12.411025
0.700000	-0.015704	-11.405676	-88.459072	80.108366	-88.459072	80.108366	-0.014517	-13.357490
0.750000	-0.016680	-12.212386	-88.184105	80.287669	-88.184105	80.287669	-0.015989	-14.302723
0.800000	-0.017634	-13.018496	-87.975343	80.647414	-87.975343	80.647414	-0.017449	-15.246746
0.850000	-0.018573	-13.823998	-87.829059	81.226842	-87.829059	81.226842	-0.018893	-16.189580
0.900000	-0.019501	-14.628876	-87.741807	82.072859	-87.741807	82.072859	-0.020318	-17.131242
0.950000	-0.020423	-15.433108	-87.709902	83.241773	-87.709902	83.241773	-0.021723	-18.071746
1.000000	-0.021343	-16.236671	-87.728754	84.800966	-87.728754	84.800966	-0.023106	-19.011102
1.050000	-0.022262	-17.039539	-87.791939	86.830052	-87.791939	86.830052	-0.024468	-19.949315
1.100000	-0.023183	-17.841686	-87.889930	89.420512	-87.889930	89.420512	-0.025808	-20.886385
1.150000	-0.024108	-18.643086	-88.008406	92.672011	-88.008406	92.672011	-0.027129	-21.822310
1.200000	-0.025037	-19.443711	-88.126250	96.682405	-88.126250	96.682405	-0.028430	-22.757083
1.250000	-0.025972	-20.243535	-88.213728	101.527508	-88.213728	101.527508	-0.029713	-23.690693
1.300000	-0.026913	-21.042497	-88.226936	107.260283	-88.226936	107.260283	-0.030979	-24.623075
1.350000	-0.027859	-21.840606	-88.122209	113.747389	-88.122209	113.747389	-0.032231	-25.554266
1.400000	-0.028812	-22.637839	-87.858500	120.756717	-87.858500	120.756717	-0.033470	-26.484245
1.450000	-0.029772	-23.434171	-87.411119	127.940093	-87.411119	127.940093	-0.034697	-27.412995
1.500000	-0.030737	-24.229582	-86.780628	134.908602	-86.780628	134.908602	-0.035914	-28.340494
1.550000	-0.031708	-25.024049	-85.992054	141.328453	-85.992054	141.328453	-0.037122	-29.266719
1.600000	-0.032685	-25.817552	-85.085172	146.984566	-85.085172	146.984566	-0.038323	-30.191649
1.650000	-0.033667	-26.610070	-84.102527	151.789786	-84.102527	151.789786	-0.039517	-31.115260
1.700000	-0.034655	-27.401583	-83.081064	155.755641	-83.081064	155.755641	-0.040706	-32.037528
1.750000	-0.035648	-28.192074	-82.048791	158.952013	-82.048791	158.952013	-0.041892	-32.958429
1.800000	-0.036645	-28.981522	-81.024958	161.473638	-81.024958	161.473638	-0.043074	-33.877939
1.850000	-0.037648	-29.769912	-80.021767	163.418750	-80.021767	163.418750	-0.044254	-34.796034
1.900000	-0.038654	-30.557224	-79.046319	164.878090	-79.046319	164.878090	-0.045433	-35.712690
1.950000	-0.039665	-31.343443	-78.102273	165.930626	-78.102273	165.930626	-0.046611	-36.627884
2.000000	-0.040679	-32.128552	-77.191064	166.642897	-77.191064	166.642897	-0.047790	-37.541592
2.050000	-0.041698	-32.912534	-76.312746	167.070023	-76.312746	167.070023	-0.048969	-38.453792
2.100000	-0.042720	-33.695376	-75.466553	167.257300	-75.466553	167.257300	-0.050150	-39.364462
2.150000	-0.043747	-34.477060	-74.651255	167.241862	-74.651255	167.241862	-0.051333	-40.273580
2.200000	-0.044777	-35.257574	-73.865388	167.054176	-73.865388	167.054176	-0.052519	-41.181125
2.250000	-0.045810	-36.036901	-73.107395	166.719314	-73.107395	166.719314	-0.053708	-42.087076
2.300000	-0.046848	-36.815029	-72.375712	166.257998	-72.375712	166.257998	-0.054901	-42.991415
2.350000	-0.047889	-37.591944	-71.668817	165.687439	-71.668817	165.687439	-0.056097	-43.894121
2.400000	-0.048935	-38.367631	-70.985258	165.022009	-70.985258	165.022009	-0.057299	-44.795177
2.450000	-0.049985	-39.142079	-70.323667	164.273776	-70.323667	164.273776	-0.058505	-45.694566
2.500000	-0.051039	-39.915274	-69.682767	163.452930	-69.682767	163.452930	-0.059717	-46.592269
2.550000	-0.052097	-40.687148	-69.060293	162.565685	-69.060293	162.565685	-0.060935	-47.488198
2.600000	-0.053160	-41.457745	-68.456347	161.622426	-68.456347	161.622426	-0.062159	-48.382410
2.650000	-0.054229	-42.227052	-67.869893	160.629364	-67.869893	160.629364	-0.063390	-49.274890
2.700000	-0.055302	-42.995058	-67.299975	159.591869	-67.299975	159.591869	-0.064628	-50.165625
2.750000	-0.056381	-43.761751	-66.745709	158.514596	-66.745709	158.514596	-0.065873	-51.054603
2.800000	-0.057466	-44.527122	-66.206279	157.401606	-66.206279	157.401606	-0.067126	-51.941812
2.850000	-0.058557	-45.291160	-65.680930	156.256451	-65.680930	156.256451	-0.068387	-52.827240
2.900000	-0.059654	-46.053854	-65.168963	155.082254	-65.168963	155.082254	-0.069657	-53.710877
2.950000	-0.060758	-46.815195	-64.669731	153.881766	-64.669731	153.881766	-0.070936	-54.592715
3.000000	-0.061869	-47.575173	-64.182630	152.657427	-64.182630	152.657427	-0.072224	-55.472743
3.050000	-0.062988	-48.333780	-63.707102	151.411401	-63.707102	151.411401	-0.073522	-56.350955
3.100000	-0.064114	-49.091006	-63.242626	150.145618	-63.242626	150.145618	-0.074830	-57.227343
3.150000	-0.065249	-49.846844	-62.788715	148.861802	-62.788715	148.861802	-0.076148	-58.101901
3.200000	-0.066392	-50.601285	-62.344918	147.561501	-62.344918	147.561501	-0.077478	-58.974624
3.250000	-0.067544	-51.354321	-61.910809	146.246105	-61.910809	146.246105	-0.078819	-59.845507
3.300000	-0.068706	-52.105946	-61.485991	144.916870	-61.485991	144.916870	-0.080171	-60.714547
3.350000	-0.069877	-52.856151	-61.070093	143.574928	-61.070093	143.574928	-0.081536	-61.581740
3.400000	-0.071059	-53.604932	-60.662763	142.221308	-60.662763	142.221308	-0.082914	-62.447084
3.450000	-0.072252	-54.352281	-60.263673	140.856942	-60.263673	140.856942	-0.084305	-63.310578
3.500000	-0.073455	-55.098192	-59.872514	139.482681	-59.872514	139.482681	-0.085709	-64.172222
3.550000	-0.074670	-55.842660	-59.488993	138.099299	-59.488993	138.099299	-0.087128	-65.032016
3.600000	-0.075897	-56.585680	-59.112835	136.707505	-59.112835	136.707505	-0.088561	-65.889960
3.650000	-0.077137	-57.327248	-58.743780	135.307948	-58.743780	135.307948	-0.090009	-66.746057
3.700000	-0.078389	-58.067358	-58.381579	133.901222	-58.381579	133.901222	-0.091472	-67.600310
3.750000	-0.079655	-58.806007	-58.026001	132.487875	-58.026001	132.487875	-0.092951	-68.452722
3.800000	-0.080934	-59.543128	-57.676492	131.068165	-57.676492	131.068165	-0.094448	-69.303218
3.850000	-0.082228	-60.278781	-57.333198	129.642838	-57.333198	129.642838	-0.095962	-70.151883
3.900000	-0.083537	-61.012963	-56.995917	128.212318	-56.995917	128.212318	-0.097493	-70.998723
3.950000	-0.084861	-61.745672	-56.664456	126.776996	-56.664456	126.776996	-0.099042	-71.843747
4.000000	-0.086200	-62.476907	-56.338633	125.337232	-56.338633	125.337232	-0.100610	-72.686961
4.050000	-0.087555	-63.206666	-56.018274	123.893363	-56.018274	123.893363	-0.102197	-73.528374
4.100000	-0.088926	-63.934947	-55.703212	122.445698	-55.703212	122.445698	-0.103803	-74.367996
4.150000	-0.090314	-64.661751	-55.393289	120.994524	-55.393289	120.994524	-0.105430	-75.205838
4.200000	-0.091720	-65.387077	-55.088353	119.540108	-55.088353	119.540108	-0.107077	-76.041911
4.250000	-0.093143	-66.110925	-54.788259	118.082698	-54.788259	118.082698	-0.108745	-76.876227
4.300000	-0.094584	-66.833296	-54.492868	116.622522	-54.492868	116.622522	-0.110435	-77.708801
4.350000	-0.096043	-67.554191	-54.202047	115.159791	-54.202047	115.159791	-0.112147	-78.539645
4.400000	-0.097522	-68.273612	-53.915667	113.694704	-53.915667	113.694704	-0.113883	-79.368777
4.450000	-0.099020	-68.991561	-53.633606	112.227441	-53.633606	112.227441	-0.115641	-80.196211
4.500000	-0.100537	-69.708040	-53.355746	110.758169	-53.355746	110.758169	-0.117424	-81.021965
4.550000	-0.102075	-70.423051	-53.081973	109.287044	-53.081973	109.287044	-0.119231	-81.846059
4.600000	-0.103633	-71.136599	-52.812178	107.814206	-52.812178	107.814206	-0.121063	-82.668512
4.650000	-0.105213	-71.848688	-52.546255	106.339785	-52.546255	106.339785	-0.122920	-83.489344
4.700000	-0.106813	-72.559320	-52.284104	104.863899	-52.284104	104.863899	-0.124804	-84.308578
4.750000	-0.108436	-73.268502	-52.025625	103.386653	-52.025625	103.386653	-0.126715	-85.126237
4.800000	-0.110081	-73.976237	-51.770723	101.908143	-51.770723	101.908143	-0.128653	-85.942347
4.850000	-0.111748	-74.682533	-51.519308	100.428453	-51.519308	100.428453	-0.130620	-86.756933
4.900000	-0.113439	-75.387394	-51.271289	98.947654	-51.271289	98.947654	-0.132614	-87.570023
4.950000	-0.115153	-76.090828	-51.026581	97.465809	-51.026581	97.465809	-0.134638	-88.381647
5.000000	-0.116890	-76.792841	-50.785099	95.982967	-50.785099	95.982967	-0.136692	-89.191837
5.050000	-0.118666	-77.492647	-50.544847	94.498638	-50.544847	94.498638	-0.138794	-89.999854
5.100000	-0.120442	-78.192454	-50.311061	93.014309	-50.311061	93.014309	-0.140897	-90.807872
5.150000	-0.122266	-78.889591	-50.077248	91.528209	-50.077248	91.528209	-0.143060	-91.613360
5.200000	-0.124095	-79.586486	-49.849019	90.041949	-49.849019	90.041949	-0.145229	-92.418617
5.250000	-0.125968	-80.280989	-49.621304	88.554031	-49.621304	88.554031	-0.147457	-93.221727
5.300000	-0.127851	-80.975013	-49.398367	87.065783	-49.398367	87.065783	-0.149696	-94.024407
5.350000	-0.129775	-81.666919	-49.176425	85.575885	-49.176425	85.575885	-0.151990	-94.825313
5.400000	-0.131714	-82.358119	-48.958523	84.085436	-48.958523	84.085436	-0.154304	-95.625627
5.450000	-0.133691	-83.047469	-48.742043	82.593250	-48.742043	82.593250	-0.156668	-96.424528
5.500000	-0.135687	-83.735895	-48.528920	81.100196	-48.528920	81.100196	-0.159059	-97.222723
5.550000	-0.137718	-84.422736	-48.317602	79.605235	-48.317602	79.605235	-0.161498	-98.019850
5.600000	-0.139773	-85.108444	-48.109003	78.108914	-48.109003	78.108914	-0.163971	-98.816216
5.650000	-0.141859	-85.792825	-47.902553	76.610458	-47.902553	76.610458	-0.166489	-99.611844
5.700000	-0.143976	-86.475878	-47.698217	75.109867	-47.698217	75.109867	-0.169051	-100.406733
5.750000	-0.146118	-87.157852	-47.496345	73.606879	-47.496345	73.606879	-0.171653	-101.201186
5.800000	-0.148298	-87.838317	-47.296002	72.100535	-47.296002	72.100535	-0.174311	-101.995031
5.850000	-0.150499	-88.517945	-47.098415	70.591546	-47.098415	70.591546	-0.177004	-102.788709
5.900000	-0.152743	-89.195897	-46.901779	69.077269	-46.901779	69.077269	-0.179769	-103.582056
5.950000	-0.155003	-89.873240	-46.708177	67.560202	-46.708177	67.560202	-0.182563	-104.375458
6.000000	-0.157314	-90.548761	-46.514931	66.034762	-46.514931	66.034762	-0.185449	-105.169022
6.050000	-0.159636	-91.223891	-46.325003	64.506649	-46.325003	64.506649	-0.188358	-105.962784
6.100000	-0.162014	-91.897069	-46.134791	62.965171	-46.134791	62.965171	-0.191386	-106.757536
6.150000	-0.164399	-92.570060	-45.948197	61.421725	-45.948197	61.421725	-0.194430	-107.552501
6.200000	-0.166848	-93.240996	-45.760602	59.856626	-45.760602	59.856626	-0.197636	-108.349817
6.250000	-0.169298	-93.911931	-45.576972	58.291527	-45.576972	58.291527	-0.200843	-109.147133
6.300000	-0.171801	-94.581252	-45.392977	56.701574	-45.392977	56.701574	-0.204219	-109.947587
6.350000	-0.174340	-95.249579	-45.209996	55.090424	-45.209996	55.090424	-0.207732	-110.750909
6.400000	-0.176914	-95.916942	-45.027877	53.452700	-45.027877	53.452700	-0.211411	-111.557940
6.450000	-0.179526	-96.583370	-44.846450	51.781221	-44.846450	51.781221	-0.215300	-112.369776
6.500000	-0.182174	-97.248898	-44.665531	50.066182	-44.665531	50.066182	-0.219462	-113.187875
6.550000	-0.184862	-97.913560	-44.484925	48.293861	-44.484925	48.293861	-0.223994	-114.014235
6.600000	-0.187589	-98.577397	-44.304451	46.444462	-44.304451	46.444462	-0.229047	-114.851670
6.650000	-0.190357	-99.240451	-44.123994	44.488390	-44.123994	44.488390	-0.234872	-115.704289
6.700000	-0.193165	-99.902839	-43.943982	42.399581	-43.943982	42.399581	-0.241737	-116.575556
6.750000	-0.196024	-100.564482	-43.764339	40.074300	-43.764339	40.074300	-0.250662	-117.479377
6.800000	-0.198939	-101.225519	-43.587703	37.396498	-43.587703	37.396498	-0.263136	-118.430155
6.850000	-0.201922	-101.886043	-43.421501	34.119692	-43.421501	34.119692	-0.282766	-119.456837
6.900000	-0.205005	-102.546176	-43.289709	29.754655	-43.289709	29.754655	-0.318381	-120.609767
6.950000	-0.208286	-103.205975	-43.300777	22.941962	-43.300777	22.941962	-0.401166	-121.990448
7.000000	-0.212046	-103.864423	-44.069613	10.184770	-44.069613	10.184770	-0.648389	-123.524789
7.050000	-0.215965	-104.512433	-50.598829	-0.396494	-50.598829	-0.396494	-1.182548	-121.838968
7.100000	-0.217469	-105.164363	-47.651102	61.512715	-47.651102	61.512715	-0.748611	-118.939910
7.150000	-0.219993	-105.824889	-44.506987	53.133060	-44.506987	53.133060	-0.450966	-120.326423
7.200000	-0.223049	-106.483959	-43.512356	46.771569	-43.512356	46.771569	-0.359034	-121.742016
7.250000	-0.226256	-107.141955	-42.998726	42.503484	-42.998726	42.503484	-0.324850	-122.929439
7.300000	-0.229535	-107.799429	-42.645803	39.272323	-42.645803	39.272323	-0.310215	-123.985225
7.350000	-0.232872	-108.456670	-42.365088	36.634280	-42.365088	36.634280	-0.304294	-124.962944
7.400000	-0.236264	-109.113904	-42.120446	34.357140	-42.120446	34.357140	-0.302822	-125.893896
7.450000	-0.239702	-109.771294	-41.892446	32.268488	-41.892446	32.268488	-0.303456	-126.801909
7.500000	-0.243190	-110.428981	-41.674859	30.324690	-41.674859	30.324690	-0.305686	-127.693880
7.550000	-0.246729	-111.087117	-41.462425	28.479791	-41.462425	28.479791	-0.309068	-128.576954
7.600000	-0.250321	-111.745856	-41.251535	26.701724	-41.251535	26.701724	-0.313370	-129.456417
7.650000	-0.253968	-112.405380	-41.039340	24.966740	-41.039340	24.966740	-0.318504	-130.336554
7.700000	-0.257682	-113.066094	-40.821332	23.254374	-40.821332	23.254374	-0.324613	-131.222775
7.750000	-0.261458	-113.728090	-40.596294	21.539841	-40.596294	21.539841	-0.331667	-132.118600
7.800000	-0.265298	-114.391628	-40.361665	19.804201	-40.361665	19.804201	-0.339858	-133.028092
7.850000	-0.269196	-115.056667	-40.118144	18.036197	-40.118144	18.036197	-0.349202	-133.952256
7.900000	-0.273182	-115.724280	-39.854702	16.187889	-39.854702	16.187889	-0.360718	-134.904490
7.950000	-0.277248	-116.394523	-39.570756	14.229943	-39.570756	14.229943	-0.374842	-135.888753
8.000000	-0.281404	-117.067888	-39.261106	12.111697	-39.261106	12.111697	-0.392644	-136.914708
8.050000	-0.285667	-117.745271	-38.915506	9.737881	-38.915506	9.737881	-0.416357	-138.000141
8.100000	-0.290049	-118.427258	-38.527432	7.000441	-38.527432	7.000441	-0.448873	-139.161291
8.150000	-0.294582	-119.115086	-38.083160	3.689818	-38.083160	3.689818	-0.496328	-140.428259
8.200000	-0.299316	-119.810153	-37.570261	-0.518376	-37.570261	-0.518376	-0.569730	-141.836009
8.250000	-0.304363	-120.514492	-36.979364	-6.196526	-36.979364	-6.196526	-0.691433	-143.419929
8.300000	-0.309992	-121.230908	-36.325832	-14.366597	-36.325832	-14.366597	-0.907756	-145.157405
8.350000	-0.316945	-121.962755	-35.727764	-26.926185	-35.727764	-26.926185	-1.312523	-146.681643
8.400000	-0.326832	-122.707754	-35.654345	-46.495171	-35.654345	-46.495171	-1.978905	-146.281120
8.450000	-0.339883	-123.445395	-37.203189	-73.208511	-37.203189	-73.208511	-2.435373	-141.395253
8.500000	-0.350871	-124.173862	-41.325099	-100.825060	-41.325099	-100.825060	-2.012793	-136.700617
8.550000	-0.359191	-124.933371	-48.236007	-129.095840	-48.236007	-129.095840	-1.421884	-136.179746
8.600000	-0.368498	-125.738145	-56.732530	156.846178	-56.732530	156.846178	-1.053700	-137.387399
8.650000	-0.380796	-126.592043	-50.795615	89.824164	-50.795615	89.824164	-0.849164	-138.875900
8.700000	-0.397582	-127.504767	-46.365971	75.093485	-46.365971	75.093485	-0.731492	-140.293028
8.750000	-0.421313	-128.495674	-43.473784	69.681825	-43.473784	69.681825	-0.661011	-141.590554
8.800000	-0.456989	-129.598360	-41.095625	67.237051	-41.095625	67.237051	-0.618100	-142.780840
8.850000	-0.514301	-130.859916	-38.805351	65.681016	-38.805351	65.681016	-0.592183	-143.887214
8.900000	-0.614905	-132.348280	-36.367541	63.619608	-36.367541	63.619608	-0.578326	-144.925253
8.950000	-0.813295	-134.118913	-33.614415	59.260837	-33.614415	59.260837	-0.574554	-145.897870
9.000000	-1.241219	-135.864901	-30.531557	49.604609	-30.531557	49.604609	-0.579453	-146.782687
9.050000	-2.056379	-135.069124	-27.634430	29.946621	-27.634430	29.946621	-0.582670	-147.516940
9.100000	-2.377172	-128.028292	-26.578739	1.225139	-26.578739	1.225139	-0.554184	-148.200223
9.150000	-1.640330	-124.431166	-27.768434	-22.069316	-27.768434	-22.069316	-0.517477	-149.105567
9.200000	-1.098728	-125.248764	-29.500145	-34.938659	-29.500145	-34.938659	-0.502982	-150.077045
9.250000	-0.833249	-126.781031	-30.971688	-41.674105	-30.971688	-41.674105	-0.500139	-151.009039
9.300000	-0.697968	-128.199666	-32.106105	-45.435025	-32.106105	-45.435025	-0.501425	-151.903493
9.350000	-0.623353	-129.435489	-32.966401	-47.720508	-32.966401	-47.720508	-0.504341	-152.772492
9.400000	-0.579464	-130.526362	-33.620653	-49.249791	-33.620653	-49.249791	-0.508046	-153.624232
9.450000	-0.552221	-131.514540	-34.125792	-50.391997	-34.125792	-50.391997	-0.512217	-154.464028
9.500000	-0.535383	-132.424789	-34.511804	-51.324861	-34.511804	-51.324861	-0.516736	-155.294560
9.550000	-0.524642	-133.282020	-34.814768	-52.164360	-34.814768	-52.164360	-0.521514	-156.118556
9.600000	-0.518064	-134.098902	-35.052251	-52.963382	-35.052251	-52.963382	-0.526514	-156.937414
9.650000	-0.514480	-134.883900	-35.236479	-53.754011	-35.236479	-53.754011	-0.531715	-157.752105
9.700000	-0.513065	-135.643858	-35.378103	-54.556381	-35.378103	-54.556381	-0.537101	-158.563488
9.750000	-0.513164	-136.385221	-35.487790	-55.379499	-35.487790	-55.379499	-0.542648	-159.372441
9.800000	-0.514581	-137.109617	-35.567913	-56.232293	-35.567913	-56.232293	-0.548365	-160.179273
9.850000	-0.516783	-137.823565	-35.629900	-57.109533	-35.629900	-57.109533	-0.554205	-160.984909
9.900000	-0.519725	-138.527470	-35.674276	-58.014361	-35.674276	-58.014361	-0.560175	-161.789513
9.950000	-0.523277	-139.223033	-35.703991	-58.946240	-35.703991	-58.946240	-0.566270	-162.593418
10.000000	-0.527338	-139.911628	-35.721449	-59.904067	-35.721449	-59.904067	-0.572482	-163.396919
