! freq	dB(S11)	phase(S11)	dB(S12)	phase(S12)	
!     	dB(S21)	phase(S21)	dB(S22)	phase(S22)	
!S-par simulation data
#  GHz  S  DB  R 50
0.000000	-84.349534	0.000000	-0.000526	0.000000	-0.000526	0.000000	-84.349534	0.000000
0.050000	-57.794988	70.269001	-0.002494	-2.117054	-0.002494	-2.117054	-57.607434	68.122652
0.100000	-51.625183	78.590876	-0.006931	-4.230194	-0.006931	-4.230194	-51.539864	74.976817
0.150000	-48.064355	80.763502	-0.011767	-6.335526	-0.011767	-6.335526	-48.005839	75.482980
0.200000	-45.537325	81.289196	-0.015986	-8.433237	-0.015986	-8.433237	-45.495736	74.315807
0.250000	-43.569841	81.194268	-0.019517	-10.526607	-0.019517	-10.526607	-43.542439	72.529088
0.300000	-41.951225	80.733834	-0.022428	-12.617464	-0.022428	-12.617464	-41.937171	70.389799
0.350000	-40.569944	80.045929	-0.024885	-14.707205	-0.024885	-14.707205	-40.568736	68.045334
0.400000	-39.359419	79.199749	-0.027035	-16.796605	-0.027035	-16.796605	-39.370630	65.573293
0.450000	-38.275061	78.227797	-0.028985	-18.886084	-0.028985	-18.886084	-38.298447	63.017185
0.500000	-37.290490	77.167191	-0.030838	-20.975812	-0.030838	-20.975812	-37.325499	60.416406
0.550000	-36.385454	76.032533	-0.032648	-23.065851	-0.032648	-23.065851	-36.431569	57.790207
0.600000	-35.545202	74.833863	-0.034454	-25.156219	-0.034454	-25.156219	-35.601938	55.152407
0.650000	-34.758706	73.578275	-0.036282	-27.246912	-0.036282	-27.246912	-34.825607	52.513089
0.700000	-34.017543	72.270917	-0.038152	-29.337921	-0.038152	-29.337921	-34.094176	49.879670
0.750000	-33.313907	70.912870	-0.040082	-31.429251	-0.040082	-31.429251	-33.399916	47.258575
0.800000	-32.642897	69.507727	-0.042084	-33.520886	-0.042084	-33.520886	-32.737905	44.654171
0.850000	-32.000985	68.059161	-0.044165	-35.612809	-0.044165	-35.612809	-32.104581	42.069062
0.900000	-31.386219	66.571984	-0.046323	-37.704994	-0.046323	-37.704994	-31.497937	39.503628
0.950000	-30.794729	65.045438	-0.048569	-39.797455	-0.048569	-39.797455	-30.914145	36.960312
1.000000	-30.224291	63.481084	-0.050906	-41.890189	-0.050906	-41.890189	-30.350972	34.439928
1.050000	-29.673060	61.880381	-0.053336	-43.983200	-0.053336	-43.983200	-29.806562	31.942871
1.100000	-29.139493	60.244728	-0.055863	-46.076489	-0.055863	-46.076489	-29.279364	29.469212
1.150000	-28.622293	58.575488	-0.058488	-48.170062	-0.058488	-48.170062	-28.768072	27.018766
1.200000	-28.120360	56.874009	-0.061213	-50.263925	-0.061213	-50.263925	-28.271582	24.591149
1.250000	-27.632758	55.141627	-0.064041	-52.358085	-0.064041	-52.358085	-27.788953	22.185824
1.300000	-27.158281	53.378768	-0.066977	-54.452559	-0.066977	-54.452559	-27.318980	19.802809
1.350000	-26.696687	51.587757	-0.070020	-56.547344	-0.070020	-56.547344	-26.861419	17.440635
1.400000	-26.247375	49.769917	-0.073171	-58.642448	-0.073171	-58.642448	-26.415675	15.098496
1.450000	-25.809818	47.926559	-0.076432	-60.737877	-0.076432	-60.737877	-25.981232	12.775550
1.500000	-25.383556	46.058982	-0.079806	-62.833637	-0.079806	-62.833637	-25.557639	10.470933
1.550000	-24.968181	44.168467	-0.083295	-64.929732	-0.083295	-64.929732	-25.144504	8.183776
1.600000	-24.563333	42.256272	-0.086900	-67.026165	-0.086900	-67.026165	-24.741482	5.913211
1.650000	-24.168690	40.323634	-0.090625	-69.122937	-0.090625	-69.122937	-24.348271	3.658386
1.700000	-23.783964	38.371759	-0.094472	-71.220047	-0.094472	-71.220047	-23.964601	1.418467
1.750000	-23.408896	36.401822	-0.098443	-73.317494	-0.098443	-73.317494	-23.590236	-0.807353
1.800000	-23.043250	34.414966	-0.102540	-75.415272	-0.102540	-75.415272	-23.224962	-3.019850
1.850000	-22.686813	32.412297	-0.106766	-77.513374	-0.106766	-77.513374	-22.868589	-5.219768
1.900000	-22.339339	30.394735	-0.111124	-79.611793	-0.111124	-79.611793	-22.520893	-7.407692
1.950000	-22.000668	28.363344	-0.115616	-81.710516	-0.115616	-81.710516	-22.181738	-9.584313
2.000000	-21.670693	26.319273	-0.120243	-83.809525	-0.120243	-83.809525	-21.851044	-11.750392
2.050000	-21.349260	24.263468	-0.125006	-85.908801	-0.125006	-85.908801	-21.528682	-13.906519
2.100000	-21.036231	22.196837	-0.129907	-88.008324	-0.129907	-88.008324	-21.214537	-16.053251
2.150000	-20.731476	20.120246	-0.134947	-90.108070	-0.134947	-90.108070	-20.908502	-18.191104
2.200000	-20.434873	18.034522	-0.140126	-92.208013	-0.140126	-92.208013	-20.610479	-20.320563
2.250000	-20.146312	15.940451	-0.145444	-94.308125	-0.145444	-94.308125	-20.320379	-22.442077
2.300000	-19.865689	13.838780	-0.150901	-96.408374	-0.150901	-96.408374	-20.038117	-24.556062
2.350000	-19.592907	11.730219	-0.156497	-98.508728	-0.156497	-98.508728	-19.763618	-26.662905
2.400000	-19.327877	9.615438	-0.162229	-100.609152	-0.162229	-100.609152	-19.496810	-28.762964
2.450000	-19.070518	7.495073	-0.168096	-102.709609	-0.168096	-102.709609	-19.237628	-30.856570
2.500000	-18.820751	5.369721	-0.174094	-104.810061	-0.174094	-104.810061	-18.986010	-32.944029
2.550000	-18.578528	3.239865	-0.180224	-106.910469	-0.180224	-106.910469	-18.741920	-35.025501
2.600000	-18.343778	1.106141	-0.186477	-109.010792	-0.186477	-109.010792	-18.505305	-37.101381
2.650000	-18.116443	-1.030955	-0.192849	-111.110992	-0.192849	-111.110992	-18.276115	-39.171910
2.700000	-17.896468	-3.170955	-0.199334	-113.211028	-0.199334	-113.211028	-18.054309	-41.237310
2.750000	-17.683806	-5.313426	-0.205926	-115.310862	-0.205926	-115.310862	-17.839848	-43.297791
2.800000	-17.478413	-7.457960	-0.212616	-117.410457	-0.212616	-117.410457	-17.632695	-45.353545
2.850000	-17.280251	-9.604178	-0.219395	-119.509776	-0.219395	-119.509776	-17.432822	-47.404754
2.900000	-17.089290	-11.751727	-0.226256	-121.608788	-0.226256	-121.608788	-17.240203	-49.451586
2.950000	-16.905502	-13.900280	-0.233188	-123.707460	-0.233188	-123.707460	-17.054815	-51.494202
3.000000	-16.728867	-16.049534	-0.240179	-125.805766	-0.240179	-125.805766	-16.876643	-53.532753
3.050000	-16.559371	-18.199209	-0.247218	-127.903681	-0.247218	-127.903681	-16.705675	-55.567383
3.100000	-16.397004	-20.349050	-0.254292	-130.001187	-0.254292	-130.001187	-16.541904	-57.598229
3.150000	-16.241814	-22.498816	-0.261388	-132.098264	-0.261388	-132.098264	-16.385379	-59.625384
3.200000	-16.093811	-24.648286	-0.268491	-134.194903	-0.268491	-134.194903	-16.236113	-61.648981
3.250000	-15.952961	-26.797268	-0.275587	-136.291106	-0.275587	-136.291106	-16.094071	-63.669183
3.300000	-15.819281	-28.945587	-0.282659	-138.386876	-0.282659	-138.386876	-15.959269	-65.686110
3.350000	-15.692954	-31.093057	-0.289690	-140.482212	-0.289690	-140.482212	-15.831892	-67.699791
3.400000	-15.573443	-33.239641	-0.296669	-142.577173	-0.296669	-142.577173	-15.711396	-69.710652
3.450000	-15.461669	-35.385051	-0.303570	-144.671725	-0.303570	-144.671725	-15.598709	-71.718346
3.500000	-15.356893	-37.529333	-0.310385	-146.765950	-0.310385	-146.765950	-15.493083	-73.723375
3.550000	-15.259642	-39.672298	-0.317089	-148.859866	-0.317089	-148.859866	-15.395049	-75.725638
3.600000	-15.169861	-41.813893	-0.323668	-150.953528	-0.323668	-150.953528	-15.304547	-77.725295
3.650000	-15.087375	-43.954107	-0.330107	-153.047005	-0.330107	-153.047005	-15.221399	-79.722555
3.700000	-15.012929	-46.092746	-0.336375	-155.140352	-0.336375	-155.140352	-15.146351	-81.717290
3.750000	-14.945534	-48.230002	-0.342480	-157.233659	-0.342480	-157.233659	-15.078407	-83.709966
3.800000	-14.886853	-50.365516	-0.348364	-159.327018	-0.348364	-159.327018	-15.019236	-85.700219
3.850000	-14.835430	-52.499600	-0.354054	-161.420511	-0.354054	-161.420511	-14.967372	-87.688603
3.900000	-14.792597	-54.632000	-0.359498	-163.514274	-0.359498	-163.514274	-14.924150	-89.674905
3.950000	-14.757745	-56.762864	-0.364703	-165.608398	-0.364703	-165.608398	-14.888955	-91.659405
4.000000	-14.731365	-58.892135	-0.369643	-167.703026	-0.369643	-167.703026	-14.862281	-93.642124
4.050000	-14.713817	-61.019791	-0.374300	-169.798309	-0.374300	-169.798309	-14.844484	-95.623110
4.100000	-14.704643	-63.145966	-0.378680	-171.894337	-0.378680	-171.894337	-14.835102	-97.602568
4.150000	-14.705297	-65.270464	-0.382730	-173.991389	-0.382730	-173.991389	-14.835595	-99.580351
4.200000	-14.714442	-67.393568	-0.386493	-176.089451	-0.386493	-176.089451	-14.844615	-101.556778
4.250000	-14.734208	-69.514997	-0.389896	-178.188934	-0.389896	-178.188934	-14.864302	-103.531607
4.300000	-14.763229	-71.635024	-0.392987	179.710212	-0.392987	179.710212	-14.893280	-105.505111
4.350000	-14.803024	-73.753476	-0.395719	177.607614	-0.395719	177.607614	-14.933073	-107.477127
4.400000	-14.853395	-75.870433	-0.398106	175.503172	-0.398106	175.503172	-14.983480	-109.447717
4.450000	-14.914777	-77.985871	-0.400144	173.396679	-0.400144	173.396679	-15.044937	-111.416829
4.500000	-14.988301	-80.099660	-0.401809	171.287790	-0.401809	171.287790	-15.118575	-113.384285
4.550000	-15.073191	-82.211923	-0.403143	169.176566	-0.403143	169.176566	-15.203617	-115.350149
4.600000	-15.171382	-84.322375	-0.404105	167.062486	-0.404105	167.062486	-15.302001	-117.314045
4.650000	-15.283236	-86.430925	-0.404709	164.945379	-0.404709	164.945379	-15.414087	-119.275766
4.700000	-15.409335	-88.537415	-0.404967	162.825045	-0.404967	162.825045	-15.540459	-121.235022
4.750000	-15.550528	-90.641604	-0.404886	160.701244	-0.404886	160.701244	-15.681965	-123.191405
4.800000	-15.707766	-92.743180	-0.404478	158.573731	-0.404478	158.573731	-15.839559	-125.144396
4.850000	-15.882127	-94.841738	-0.403756	156.442258	-0.403756	156.442258	-16.014318	-127.093345
4.900000	-16.074830	-96.936764	-0.402736	154.306579	-0.402736	154.306579	-16.207463	-129.037440
4.950000	-16.287264	-99.027603	-0.401435	152.166445	-0.401435	152.166445	-16.420383	-130.975667
5.000000	-16.521019	-101.113429	-0.399877	150.021612	-0.399877	150.021612	-16.654667	-132.906764
5.050000	-16.778228	-103.193064	-0.398081	147.871740	-0.398081	147.871740	-16.912451	-134.828966
5.100000	-17.060730	-105.265255	-0.396080	145.716675	-0.396080	145.716675	-17.195570	-136.740403
5.150000	-17.370994	-107.328299	-0.393903	143.556183	-0.393903	143.556183	-17.506491	-138.638567
5.200000	-17.711921	-109.380021	-0.391585	141.390034	-0.391585	141.390034	-17.848112	-140.520278
5.250000	-18.086949	-111.417623	-0.389162	139.218009	-0.389162	139.218009	-18.223863	-142.381480
5.300000	-18.500192	-113.437480	-0.386673	137.039896	-0.386673	137.039896	-18.637844	-144.216942
5.350000	-18.956627	-115.434836	-0.384162	134.855496	-0.384162	134.855496	-19.095011	-146.019834
5.400000	-19.462350	-117.403363	-0.381672	132.664622	-0.381672	132.664622	-19.601426	-147.781110
5.450000	-20.024945	-119.334506	-0.379254	130.467102	-0.379254	130.467102	-20.164614	-149.488573
5.500000	-20.653998	-121.216452	-0.376958	128.262777	-0.376958	128.262777	-20.794066	-151.125430
5.550000	-21.361877	-123.032489	-0.374840	126.051510	-0.374840	126.051510	-21.501983	-152.667984
5.600000	-22.164908	-124.758260	-0.372955	123.833183	-0.372955	123.833183	-22.304400	-154.081781
5.650000	-23.085640	-126.354924	-0.371367	121.607617	-0.371367	121.607617	-23.223315	-155.312019
5.700000	-24.155331	-127.760891	-0.370141	119.374739	-0.370141	119.374739	-24.288911	-156.272165
5.750000	-25.419318	-128.874972	-0.369338	117.134578	-0.369338	117.134578	-25.544317	-156.820929
5.800000	-26.948201	-129.508158	-0.369025	114.887113	-0.369025	114.887113	-27.055037	-156.696954
5.850000	-28.858706	-129.271030	-0.369269	112.632354	-0.369269	112.632354	-28.924505	-155.371772
5.900000	-31.360613	-127.220550	-0.370140	110.370339	-0.370140	110.370339	-31.320999	-151.616579
5.950000	-34.857388	-120.428225	-0.371710	108.101138	-0.371710	108.101138	-34.483222	-142.010491
6.000000	-39.769466	-96.486302	-0.374050	105.824853	-0.374050	105.824853	-38.153872	-116.540169
6.050000	-41.079814	-37.185159	-0.377232	103.541623	-0.377232	103.541623	-38.596749	-70.840033
6.100000	-35.875606	-2.364019	-0.381328	101.251621	-0.381328	101.251621	-34.852628	-40.704130
6.150000	-31.745599	7.112138	-0.386411	98.955054	-0.386411	98.955054	-31.307867	-29.367279
6.200000	-28.787174	9.996728	-0.392552	96.652168	-0.392552	96.652168	-28.571185	-25.001174
6.250000	-26.513681	10.561287	-0.399821	94.343246	-0.399821	94.343246	-26.403089	-23.436108
6.300000	-24.670483	10.050834	-0.408314	92.028490	-0.408314	92.028490	-24.618597	-23.242087
6.350000	-23.121360	8.976680	-0.418071	89.708392	-0.418071	89.708392	-23.106032	-23.787273
6.400000	-21.784999	7.561141	-0.429157	87.383346	-0.429157	87.383346	-21.794231	-24.787298
6.450000	-20.609828	5.923412	-0.441631	85.053782	-0.441631	85.053782	-20.636514	-26.086509
6.500000	-19.561206	4.133003	-0.455550	82.720165	-0.455550	82.720165	-19.600838	-27.592908
6.550000	-18.614783	2.233204	-0.470966	80.382991	-0.470966	80.382991	-18.664347	-29.248690
6.600000	-17.752816	0.252444	-0.487926	78.042788	-0.487926	78.042788	-17.810207	-31.015680
6.650000	-16.961983	-1.789766	-0.506472	75.700110	-0.506472	75.700110	-17.025681	-32.867594
6.700000	-16.232037	-3.879520	-0.526642	73.355540	-0.526642	73.355540	-16.300907	-34.785680
6.750000	-15.554925	-6.006574	-0.548465	71.009680	-0.548465	71.009680	-15.628103	-36.756141
6.800000	-14.924203	-8.163160	-0.571966	68.663154	-0.571966	68.663154	-15.001016	-38.768542
6.850000	-14.334639	-10.343229	-0.597164	66.316600	-0.597164	66.316600	-14.414551	-40.814791
6.900000	-13.781922	-12.542115	-0.624086	63.970684	-0.624086	63.970684	-13.864503	-42.888714
6.950000	-13.262482	-14.755777	-0.652736	61.626088	-0.652736	61.626088	-13.347379	-44.984980
7.000000	-12.773289	-16.980780	-0.683092	59.283469	-0.683092	59.283469	-12.860210	-47.099066
7.050000	-12.311753	-19.214385	-0.715143	56.943489	-0.715143	56.943489	-12.400457	-49.227424
7.100000	-11.875584	-21.454130	-0.748832	54.606710	-0.748832	54.606710	-11.965867	-51.366815
7.150000	-11.462957	-23.698205	-0.784201	52.273929	-0.784201	52.273929	-11.554646	-53.515086
7.200000	-11.072158	-25.944675	-0.821191	49.945733	-0.821191	49.945733	-11.165105	-55.669749
7.250000	-10.701731	-28.191910	-0.859766	47.622773	-0.859766	47.622773	-10.795810	-57.828796
7.300000	-10.350336	-30.438452	-0.899867	45.305603	-0.899867	45.305603	-10.445439	-59.990403
7.350000	-10.016801	-32.683005	-0.941440	42.994785	-0.941440	42.994785	-10.112836	-62.152988
7.400000	-9.700078	-34.924394	-0.984421	40.690846	-0.984421	40.690846	-9.796966	-64.315133
7.450000	-9.399222	-37.161559	-1.028745	38.394278	-1.028745	38.394278	-9.496895	-66.475564
7.500000	-9.113378	-39.393535	-1.074336	36.105530	-1.074336	36.105530	-9.211781	-68.633138
7.550000	-8.841859	-41.619340	-1.121129	33.825140	-1.121129	33.825140	-8.940946	-70.786751
7.600000	-8.583873	-43.838271	-1.169022	31.553328	-1.169022	31.553328	-8.683607	-72.935535
7.650000	-8.338775	-46.049623	-1.217927	29.290379	-1.217927	29.290379	-8.439128	-75.078679
7.700000	-8.105973	-48.252759	-1.267749	27.036512	-1.267749	27.036512	-8.206928	-77.215470
7.750000	-7.884927	-50.447115	-1.318390	24.791874	-1.318390	24.791874	-7.986475	-79.345283
7.800000	-7.675146	-52.632187	-1.369749	22.556532	-1.369749	22.556532	-7.777289	-81.467589
7.850000	-7.476182	-54.807531	-1.421723	20.330458	-1.421723	20.330458	-7.578935	-83.581944
7.900000	-7.287633	-56.972753	-1.474204	18.113520	-1.474204	18.113520	-7.391023	-85.687990
7.950000	-7.109139	-59.127507	-1.527083	15.905461	-1.527083	15.905461	-7.213212	-87.785460
8.000000	-6.940390	-61.271480	-1.580249	13.705881	-1.580249	13.705881	-7.045210	-89.874173
8.050000	-6.781121	-63.404386	-1.633591	11.514198	-1.633591	11.514198	-6.886781	-91.954033
8.100000	-6.631125	-65.525940	-1.686998	9.329614	-1.686998	9.329614	-6.737752	-94.025037
8.150000	-6.490337	-67.635705	-1.740352	7.151100	-1.740352	7.151100	-6.598104	-96.087172
8.200000	-6.358702	-69.733297	-1.793543	4.977145	-1.793543	4.977145	-6.467851	-98.140610
8.250000	-6.236194	-71.818328	-1.846475	2.805702	-1.846475	2.805702	-6.347051	-100.185680
8.300000	-6.122994	-73.890038	-1.899061	0.634090	-1.899061	0.634090	-6.236015	-102.222649
8.350000	-6.019465	-75.947233	-1.951240	-1.541373	-1.951240	-1.541373	-6.135291	-104.251737
8.400000	-5.926267	-77.987881	-2.003001	-3.725872	-2.003001	-3.725872	-6.045825	-106.272921
8.450000	-5.844461	-80.008501	-2.054432	-5.926900	-2.054432	-5.926900	-5.969129	-108.285561
8.500000	-5.775744	-82.002806	-2.105826	-8.155631	-2.105826	-8.155631	-5.907640	-110.287470
8.550000	-5.722283	-83.960551	-2.157861	-10.427345	-2.157861	-10.427345	-5.864651	-112.273533
8.600000	-5.689515	-85.855138	-2.212313	-12.773202	-2.212313	-12.773202	-5.848228	-114.227295
8.650000	-5.684154	-87.635187	-2.273437	-15.238932	-2.273437	-15.238932	-5.869766	-116.108269
8.700000	-5.716787	-89.177903	-2.352194	-17.903380	-2.352194	-17.903380	-5.950111	-117.802473
8.750000	-5.797980	-90.142122	-2.482043	-20.898822	-2.482043	-20.898822	-6.125444	-118.934265
8.800000	-5.875286	-89.649159	-2.767604	-24.246274	-2.767604	-24.246274	-6.394820	-118.270110
8.850000	-5.528314	-87.167664	-3.419224	-26.287290	-3.419224	-26.287290	-6.263359	-113.832524
8.900000	-4.563932	-88.896955	-3.831283	-23.208967	-3.831283	-23.208967	-5.077780	-113.172898
8.950000	-4.178318	-94.368400	-3.464721	-22.020942	-3.464721	-22.020942	-4.431662	-118.622414
9.000000	-4.157128	-98.518176	-3.181425	-23.681216	-3.181425	-23.681216	-4.300875	-123.202157
9.050000	-4.188402	-101.586013	-3.049053	-25.902899	-3.049053	-25.902899	-4.286138	-126.576359
9.100000	-4.212588	-104.135214	-2.992374	-28.144064	-2.992374	-28.144064	-4.288291	-129.303876
9.150000	-4.224859	-106.434494	-2.971623	-30.323257	-2.971623	-30.323257	-4.288225	-131.696338
9.200000	-4.228221	-108.599640	-2.969345	-32.441589	-2.969345	-32.441589	-4.283652	-133.898503
9.250000	-4.225777	-110.685957	-2.977198	-34.510808	-2.977198	-34.510808	-4.275445	-135.983113
9.300000	-4.219796	-112.721874	-2.990862	-36.540845	-2.990862	-36.540845	-4.264856	-137.988689
9.350000	-4.212086	-114.726875	-3.007542	-38.542290	-3.007542	-38.542290	-4.253119	-139.942990
9.400000	-4.203646	-116.708752	-3.025961	-40.519038	-3.025961	-40.519038	-4.241002	-141.856346
9.450000	-4.195343	-118.675005	-3.045055	-42.476371	-3.045055	-42.476371	-4.229193	-143.739357
9.500000	-4.187771	-120.630570	-3.064148	-44.418145	-3.064148	-44.418145	-4.218180	-145.598862
9.550000	-4.181239	-122.579343	-3.082845	-46.348161	-3.082845	-46.348161	-4.208203	-147.440818
9.600000	-4.176285	-124.522931	-3.100711	-48.266755	-3.100711	-48.266755	-4.199738	-149.265612
9.650000	-4.172848	-126.464161	-3.117681	-50.177687	-3.117681	-50.177687	-4.192696	-151.078579
9.700000	-4.171410	-128.404432	-3.133392	-52.081229	-3.133392	-52.081229	-4.187500	-152.879550
9.750000	-4.171854	-130.345263	-3.147881	-53.979637	-3.147881	-53.979637	-4.184019	-154.671503
9.800000	-4.174446	-132.288039	-3.160946	-55.873774	-3.160946	-55.873774	-4.182473	-156.455009
9.850000	-4.179235	-134.233896	-3.172540	-57.764839	-3.172540	-57.764839	-4.182886	-158.231280
9.900000	-4.186211	-136.183782	-3.182667	-59.653963	-3.182667	-59.653963	-4.185225	-160.001476
9.950000	-4.195659	-138.139190	-3.191137	-61.541975	-3.191137	-61.541975	-4.189719	-161.765809
10.000000	-4.207272	-140.100202	-3.198168	-63.429860	-3.198168	-63.429860	-4.196080	-163.525749
