! freq	dB(S11)	phase(S11)	dB(S12)	phase(S12)	
!     	dB(S21)	phase(S21)	dB(S22)	phase(S22)	
!S-par simulation data
#  GHz  S  DB  R 50
0.000000	-88.064784	0.000000	-0.000343	0.000000	-0.000343	0.000000	-88.064784	0.000000
0.050000	-28.759691	-93.728208	-0.009752	-3.605824	-0.009752	-3.605824	-28.759690	-93.728440
0.100000	-22.782590	-97.483408	-0.033685	-7.170513	-0.033685	-7.170513	-22.782589	-97.483872
0.150000	-19.323620	-101.125835	-0.067842	-10.696860	-0.067842	-10.696860	-19.323619	-101.126531
0.200000	-16.901252	-104.679439	-0.111427	-14.191805	-0.111427	-14.191805	-16.901251	-104.680369
0.250000	-15.050215	-108.164350	-0.164390	-17.654309	-0.164390	-17.654309	-15.050213	-108.165516
0.300000	-13.563777	-111.593528	-0.226450	-21.079756	-0.226450	-21.079756	-13.563775	-111.594932
0.350000	-12.331971	-114.972861	-0.297042	-24.463013	-0.297042	-24.463013	-12.331969	-114.974507
0.400000	-11.289183	-118.303668	-0.375425	-27.799416	-0.375425	-27.799416	-11.289181	-118.305557
0.450000	-10.393134	-121.584668	-0.460785	-31.084754	-0.460785	-31.084754	-10.393131	-121.586804
0.500000	-9.613575	-124.815418	-0.552088	-34.317457	-0.552088	-34.317457	-9.613572	-124.817804
0.550000	-8.930556	-127.992241	-0.648572	-37.493500	-0.648572	-37.493500	-8.930553	-127.994879
0.600000	-8.327116	-131.115186	-0.749203	-40.613280	-0.749203	-40.613280	-8.327113	-131.118080
0.650000	-7.791736	-134.181641	-0.853154	-43.674737	-0.853154	-43.674737	-7.791733	-134.184794
0.700000	-7.314190	-137.191652	-0.959530	-46.678765	-0.959530	-46.678765	-7.314187	-137.195067
0.750000	-6.886921	-140.144223	-1.067521	-49.625285	-1.067521	-49.625285	-6.886918	-140.147905
0.800000	-6.503483	-143.039513	-1.176350	-52.515341	-1.176350	-52.515341	-6.503481	-143.043466
0.850000	-6.158517	-145.878385	-1.285297	-55.350468	-1.285297	-55.350468	-6.158515	-145.882615
0.900000	-5.847673	-148.661991	-1.393693	-58.132195	-1.393693	-58.132195	-5.847671	-148.666506
0.950000	-5.567884	-151.390397	-1.500814	-60.860718	-1.500814	-60.860718	-5.567883	-151.395204
1.000000	-5.314666	-154.069331	-1.606273	-63.541478	-1.606273	-63.541478	-5.314665	-154.074438
1.050000	-5.085859	-156.699763	-1.709481	-66.175237	-1.709481	-66.175237	-5.085859	-156.705178
1.100000	-4.879052	-159.284414	-1.809972	-68.764426	-1.809972	-68.764426	-4.879053	-159.290146
1.150000	-4.692135	-161.826069	-1.907322	-71.311572	-1.907322	-71.311572	-4.692136	-161.832126
1.200000	-4.523260	-164.327526	-2.001153	-73.819272	-2.001153	-73.819272	-4.523261	-164.333916
1.250000	-4.370806	-166.791570	-2.091123	-76.290166	-2.091123	-76.290166	-4.370807	-166.798303
1.300000	-4.233609	-169.220276	-2.176815	-78.726240	-2.176815	-78.726240	-4.233610	-169.227363
1.350000	-4.110136	-171.617196	-2.258064	-81.130971	-2.258064	-81.130971	-4.110138	-171.624647
1.400000	-3.999303	-173.985037	-2.334633	-83.507035	-2.334633	-83.507035	-3.999305	-173.992865
1.450000	-3.900159	-176.326478	-2.406312	-85.857095	-2.406312	-85.857095	-3.900162	-176.334695
1.500000	-3.811874	-178.644163	-2.472916	-88.183802	-2.472916	-88.183802	-3.811877	-178.652783
1.550000	-3.733723	179.059297	-2.534283	-90.489785	-2.534283	-90.489785	-3.733727	179.050259
1.600000	-3.665079	176.781325	-2.590275	-92.777651	-2.590275	-92.777651	-3.665084	176.771853
1.650000	-3.605398	174.519377	-2.640771	-95.049987	-2.640771	-95.049987	-3.605404	174.509454
1.700000	-3.554214	172.270942	-2.685670	-97.309356	-2.685670	-97.309356	-3.554221	172.260550
1.750000	-3.511132	170.033543	-2.724890	-99.558298	-2.724890	-99.558298	-3.511139	170.022662
1.800000	-3.475819	167.804731	-2.758363	-101.799334	-2.758363	-101.799334	-3.475828	167.793340
1.850000	-3.448006	165.582082	-2.786037	-104.034964	-2.786037	-104.034964	-3.448016	165.570158
1.900000	-3.427553	163.363213	-2.807811	-106.267668	-2.807811	-106.267668	-3.427565	163.350730
1.950000	-3.414295	161.145665	-2.823662	-108.500000	-2.823662	-108.500000	-3.414309	161.132596
2.000000	-3.408045	158.927037	-2.833646	-110.734449	-2.833646	-110.734449	-3.408060	158.913353
2.050000	-3.408739	156.704981	-2.837767	-112.973461	-2.837767	-112.973461	-3.408757	156.690651
2.100000	-3.416364	154.477159	-2.836042	-115.219479	-2.836042	-115.219479	-3.416385	154.462149
2.150000	-3.430953	152.241241	-2.828502	-117.474942	-2.828502	-117.474942	-3.430976	152.225514
2.200000	-3.452584	149.994897	-2.815191	-119.742287	-2.815191	-119.742287	-3.452610	149.978413
2.250000	-3.481381	147.735802	-2.796166	-122.023956	-2.796166	-122.023956	-3.481411	147.718517
2.300000	-3.517519	145.461626	-2.771499	-124.322394	-2.771499	-124.322394	-3.517553	145.443494
2.350000	-3.561220	143.170041	-2.741277	-126.640051	-2.741277	-126.640051	-3.561258	143.151009
2.400000	-3.612757	140.858713	-2.705601	-128.979388	-2.705601	-128.979388	-3.612799	140.838725
2.450000	-3.672456	138.525310	-2.664591	-131.342871	-2.664591	-131.342871	-3.672504	138.504303
2.500000	-3.740702	136.167497	-2.618381	-133.732975	-2.618381	-133.732975	-3.740755	136.145405
2.550000	-3.818127	133.782313	-2.567014	-136.152869	-2.567014	-136.152869	-3.818187	133.759058
2.600000	-3.905067	131.367968	-2.510785	-138.604457	-2.510785	-138.604457	-3.905134	131.343468
2.650000	-4.002102	128.922164	-2.449890	-141.090217	-2.449890	-141.090217	-4.002177	128.896327
2.700000	-4.109885	126.442629	-2.384552	-143.612618	-2.384552	-143.612618	-4.109969	126.415353
2.750000	-4.229152	123.927133	-2.315016	-146.174107	-2.315016	-146.174107	-4.229246	123.898306
2.800000	-4.360726	121.373503	-2.241557	-148.777101	-2.241557	-148.777101	-4.360831	121.342998
2.850000	-4.505525	118.779641	-2.164474	-151.423971	-2.164474	-151.423971	-4.505643	118.747318
2.900000	-4.664574	116.143549	-2.084100	-154.117024	-2.084100	-154.117024	-4.664706	116.109251
2.950000	-4.839012	113.463355	-2.000794	-156.858486	-2.000794	-156.858486	-4.839160	113.426903
3.000000	-5.030105	110.737345	-1.914951	-159.650475	-1.914951	-159.650475	-5.030271	110.698538
3.050000	-5.239257	107.963999	-1.826996	-162.494974	-1.826996	-162.494974	-5.239444	107.922609
3.100000	-5.468028	105.142033	-1.737386	-165.393804	-1.737386	-165.393804	-5.468239	105.097799
3.150000	-5.718319	102.269900	-1.646593	-168.349215	-1.646593	-168.349215	-5.718557	102.222522
3.200000	-5.992073	99.346927	-1.555154	-171.362638	-1.555154	-171.362638	-5.992342	99.296056
3.250000	-6.291267	96.373418	-1.463641	-174.434568	-1.463641	-174.434568	-6.291573	96.318655
3.300000	-6.618281	93.349606	-1.372627	-177.565803	-1.372627	-177.565803	-6.618630	93.290487
3.350000	-6.975941	90.275799	-1.282711	179.242628	-1.282711	179.242628	-6.976342	90.211773
3.400000	-7.366758	87.154711	-1.194478	175.992271	-1.194478	175.992271	-7.367218	87.085147
3.450000	-7.793987	83.988562	-1.108485	172.683769	-1.108485	172.683769	-7.794519	83.912721
3.500000	-8.262848	80.776852	-1.025514	169.313158	-1.025514	169.313158	-8.263468	80.693768
3.550000	-8.776438	77.526695	-0.946037	165.885811	-0.946037	165.885811	-8.777165	77.435267
3.600000	-9.339615	74.243283	-0.870547	162.403915	-0.870547	162.403915	-9.340474	74.142191
3.650000	-9.958600	70.932107	-0.799609	158.868429	-0.799609	158.868429	-9.959624	70.819703
3.700000	-10.640967	67.600660	-0.733974	155.279246	-0.733974	155.279246	-10.642202	67.474741
3.750000	-11.393968	64.260799	-0.673723	151.642985	-0.673723	151.642985	-11.395474	64.118740
3.800000	-12.227998	60.924807	-0.619161	147.962596	-0.619161	147.962596	-12.229861	60.763258
3.850000	-13.156145	57.610546	-0.570812	144.239393	-0.570812	144.239393	-13.158489	57.424881
3.900000	-14.194275	54.343442	-0.528815	140.477429	-0.528815	140.477429	-14.197286	54.127336
3.950000	-15.364199	51.154529	-0.492959	136.681797	-0.492959	136.681797	-15.368161	50.899554
4.000000	-16.696333	48.089759	-0.463191	132.855700	-0.463191	132.855700	-16.701707	47.784051
4.050000	-18.230436	45.245931	-0.439816	129.000249	-0.439816	129.000249	-18.238039	44.869978
4.100000	-20.031381	42.759151	-0.422171	125.120217	-0.422171	125.120217	-20.042738	42.282965
4.150000	-22.206562	40.866124	-0.409737	121.218506	-0.409737	121.218506	-22.224831	40.241559
4.200000	-24.931749	40.218861	-0.402423	117.295327	-0.402423	117.295327	-24.964865	39.349579
4.250000	-28.560237	42.600471	-0.399605	113.351945	-0.399605	113.351945	-28.633843	41.278223
4.300000	-33.723457	56.239051	-0.400695	109.388122	-0.400695	109.388122	-33.964777	54.123275
4.350000	-38.788279	106.793996	-0.404799	105.404447	-0.404799	105.404447	-39.521599	106.958080
4.400000	-34.460511	157.259541	-0.411482	101.397336	-0.411482	101.397336	-34.696737	159.859511
4.450000	-30.276678	169.075774	-0.420012	97.363190	-0.420012	97.363190	-30.354675	170.942694
4.500000	-27.672161	171.414689	-0.429669	93.298644	-0.429669	93.298644	-27.708129	172.861833
4.550000	-25.990794	170.775278	-0.439893	89.198133	-0.439893	89.198133	-26.010317	172.009311
4.600000	-24.946115	168.865691	-0.450151	85.050740	-0.450151	85.050740	-24.957312	169.997375
4.650000	-24.354983	166.411553	-0.460046	80.852175	-0.460046	80.852175	-24.360706	167.503342
4.700000	-24.198948	163.671153	-0.469290	76.586617	-0.469290	76.586617	-24.200156	164.778883
4.750000	-24.465355	160.881889	-0.477881	72.245112	-0.477881	72.245112	-24.461579	162.061831
4.800000	-25.248217	158.308300	-0.486046	67.810736	-0.486046	67.810736	-25.236980	159.642086
4.850000	-26.733673	156.454946	-0.494385	63.269867	-0.494385	63.269867	-26.707482	158.085577
4.900000	-29.417335	156.902929	-0.503945	58.602854	-0.503945	58.602854	-29.347490	159.169999
4.950000	-34.706374	167.847118	-0.516299	53.791914	-0.516299	53.791914	-34.397060	171.693805
5.000000	-38.994830	-109.784275	-0.533709	48.816601	-0.533709	48.816601	-38.015557	-112.338208
5.050000	-29.654175	-70.225934	-0.559281	43.655648	-0.559281	43.655648	-29.499004	-72.673430
5.100000	-23.994729	-66.890256	-0.596888	38.291803	-0.596888	38.291803	-23.943521	-68.283370
5.150000	-20.081865	-69.049418	-0.651899	32.703496	-0.651899	32.703496	-20.057061	-69.984345
5.200000	-17.057180	-73.002839	-0.730086	26.882737	-0.730086	26.882737	-17.042729	-73.688862
5.250000	-14.570932	-77.901130	-0.839152	20.819428	-0.839152	20.819428	-14.561544	-78.434866
5.300000	-12.463418	-83.404358	-0.986989	14.519929	-0.986989	14.519929	-12.456869	-83.836046
5.350000	-10.644096	-89.355834	-1.182996	7.997833	-1.182996	7.997833	-10.639294	-89.715343
5.400000	-9.062677	-95.643995	-1.435676	1.286729	-1.435676	1.286729	-9.059025	-95.950029
5.450000	-7.686347	-102.178078	-1.752854	-5.565688	-1.752854	-5.565688	-7.683491	-102.443143
5.500000	-6.492410	-108.872434	-2.141616	-12.498724	-2.141616	-12.498724	-6.490130	-109.105370
5.550000	-5.463779	-115.637050	-2.605811	-19.439097	-2.605811	-19.439097	-5.461928	-115.844219
5.600000	-4.584772	-122.384886	-3.146328	-26.310601	-3.146328	-26.310601	-4.583247	-122.570992
5.650000	-3.841288	-129.033950	-3.762111	-33.037279	-3.762111	-33.037279	-3.840018	-129.202628
5.700000	-3.218376	-135.513459	-4.448762	-39.552676	-4.448762	-39.552676	-3.217307	-135.667525
5.750000	-2.700845	-141.768696	-5.200295	-45.804539	-5.200295	-45.804539	-2.699936	-141.910372
5.800000	-2.274085	-147.760966	-6.009977	-51.755108	-6.009977	-51.755108	-2.273306	-147.892043
5.850000	-1.924504	-153.466355	-6.870857	-57.380110	-6.870857	-57.380110	-1.923829	-153.588299
5.900000	-1.639608	-158.874761	-7.776396	-62.667970	-7.776396	-62.667970	-1.639018	-158.988786
5.950000	-1.407838	-163.990430	-8.721800	-67.620761	-8.721800	-67.620761	-1.407318	-164.097540
6.000000	-1.219624	-168.823331	-9.703462	-72.244743	-9.703462	-72.244743	-1.219161	-168.924372
6.050000	-1.066896	-173.388552	-10.719312	-76.549780	-10.719312	-76.549780	-1.066480	-173.484242
6.100000	-0.942955	-177.704126	-11.768896	-80.546780	-11.768896	-80.546780	-0.942578	-177.795079
6.150000	-0.842306	178.210610	-12.853429	-84.245491	-12.853429	-84.245491	-0.841963	178.123865
6.200000	-0.760483	174.336160	-13.975889	-87.652492	-13.975889	-87.652492	-0.760167	174.253165
6.250000	-0.693873	170.653626	-15.141182	-90.769166	-15.141182	-90.769166	-0.693580	170.573984
6.300000	-0.639705	167.147432	-16.354725	-93.584720	-16.354725	-93.584720	-0.639433	167.070790
6.350000	-0.595453	163.798309	-17.627886	-96.085460	-17.627886	-96.085460	-0.595198	163.724361
6.400000	-0.559255	160.591166	-18.973886	-98.236867	-18.973886	-98.236867	-0.559015	160.519643
6.450000	-0.529617	157.512304	-20.410524	-99.978720	-20.410524	-99.978720	-0.529390	157.442968
6.500000	-0.505337	154.549355	-21.961937	-101.208858	-21.961937	-101.208858	-0.505121	154.481993
6.550000	-0.485445	151.691195	-23.661236	-101.752292	-23.661236	-101.752292	-0.485239	151.625617
6.600000	-0.469159	148.927837	-25.554120	-101.298619	-25.554120	-101.298619	-0.468962	148.863873
6.650000	-0.455847	146.250328	-27.702251	-99.266226	-27.702251	-99.266226	-0.455658	146.187825
6.700000	-0.445059	143.652922	-30.161949	-94.315056	-30.161949	-94.315056	-0.444878	143.591737
6.750000	-0.436245	141.123875	-32.953826	-84.142080	-32.953826	-84.142080	-0.436070	141.063888
6.800000	-0.429133	138.658973	-35.622908	-64.348531	-35.622908	-64.348531	-0.428964	138.600070
6.850000	-0.423446	136.252414	-36.574876	-34.702223	-36.574876	-34.702223	-0.423283	136.194491
6.900000	-0.418967	133.899497	-35.068475	-9.471728	-35.068475	-9.471728	-0.418809	133.842459
6.950000	-0.415503	131.595367	-32.859235	4.489954	-32.859235	4.489954	-0.415350	131.539127
7.000000	-0.412890	129.335218	-30.886066	11.559988	-30.886066	11.559988	-0.412741	129.279696
7.050000	-0.411002	127.115219	-29.258146	15.091901	-29.258146	15.091901	-0.410857	127.060344
7.100000	-0.409780	124.934759	-27.921620	16.648742	-27.921620	16.648742	-0.409640	124.880458
7.150000	-0.409036	122.784361	-26.800532	17.239464	-26.800532	17.239464	-0.408900	122.730578
7.200000	-0.408759	120.664670	-25.848028	17.141387	-25.848028	17.141387	-0.408627	120.611347
7.250000	-0.408888	118.573038	-25.026503	16.598830	-25.026503	16.598830	-0.408760	118.520123
7.300000	-0.409375	116.507042	-24.308409	15.756059	-24.308409	15.756059	-0.409251	116.454484
7.350000	-0.410178	114.464456	-23.673312	14.702980	-23.673312	14.702980	-0.410058	114.412209
7.400000	-0.411264	112.443234	-23.105786	13.498133	-23.105786	13.498133	-0.411148	112.391253
7.450000	-0.412606	110.441487	-22.593971	12.181016	-22.593971	12.181016	-0.412494	110.389732
7.500000	-0.414181	108.457469	-22.128593	10.779069	-22.128593	10.779069	-0.414073	108.405902
7.550000	-0.415980	106.490192	-21.702877	9.309638	-21.702877	9.309638	-0.415876	106.438776
7.600000	-0.417980	104.537397	-21.310110	7.789996	-21.310110	7.789996	-0.417879	104.486097
7.650000	-0.420168	102.597696	-20.945488	6.230246	-20.945488	6.230246	-0.420072	102.546481
7.700000	-0.422539	100.669793	-20.605046	4.637984	-20.605046	4.637984	-0.422447	100.618631
7.750000	-0.425087	98.752473	-20.285479	3.018982	-20.285479	3.018982	-0.424999	98.701335
7.800000	-0.427808	96.844592	-19.984007	1.377657	-19.984007	1.377657	-0.427724	96.793452
7.850000	-0.430703	94.945076	-19.698273	-0.282589	-19.698273	-0.282589	-0.430623	94.893906
7.900000	-0.433771	93.052907	-19.426266	-1.959126	-19.426266	-1.959126	-0.433695	93.001682
7.950000	-0.437015	91.167118	-19.166256	-3.649918	-19.166256	-3.649918	-0.436944	91.115814
8.000000	-0.440440	89.286793	-18.916749	-5.353383	-18.916749	-5.353383	-0.440374	89.235386
8.050000	-0.444052	87.411055	-18.676447	-7.068296	-18.676447	-7.068296	-0.443991	87.359522
8.100000	-0.447859	85.539063	-18.444217	-8.793714	-18.444217	-8.793714	-0.447803	85.487382
8.150000	-0.451869	83.670008	-18.219068	-10.528907	-18.219068	-10.528907	-0.451818	83.618158
8.200000	-0.456094	81.803109	-18.000130	-12.273322	-18.000130	-12.273322	-0.456048	81.751069
8.250000	-0.460545	79.937609	-17.786635	-14.026540	-17.786635	-14.026540	-0.460506	79.885358
8.300000	-0.465239	78.072767	-17.577907	-15.788244	-17.577907	-15.788244	-0.465205	78.020286
8.350000	-0.470174	76.207915	-17.373419	-17.557739	-17.373419	-17.557739	-0.470146	76.155186
8.400000	-0.475390	74.342325	-17.172573	-19.335525	-17.172573	-19.335525	-0.475369	74.289328
8.450000	-0.480926	72.475108	-16.974781	-21.121926	-16.974781	-21.121926	-0.480912	72.421823
8.500000	-0.486765	70.605801	-16.779839	-22.915783	-16.779839	-22.915783	-0.486758	70.552212
8.550000	-0.492956	68.733510	-16.587252	-24.717640	-16.587252	-24.717640	-0.492957	68.679597
8.600000	-0.499522	66.857585	-16.396749	-26.527299	-16.396749	-26.527299	-0.499530	66.803331
8.650000	-0.506477	64.977469	-16.208144	-28.344418	-16.208144	-28.344418	-0.506494	64.922857
8.700000	-0.513897	63.091967	-16.020976	-30.169696	-16.020976	-30.169696	-0.513923	63.036980
8.750000	-0.521749	61.201190	-15.835444	-32.001903	-15.835444	-32.001903	-0.521784	61.145814
8.800000	-0.530180	59.303017	-15.650819	-33.842591	-15.650819	-33.842591	-0.530225	59.247234
8.850000	-0.539126	57.398108	-15.467554	-35.690079	-15.467554	-35.690079	-0.539181	57.341905
8.900000	-0.548727	55.484435	-15.285119	-37.545423	-15.285119	-37.545423	-0.548793	55.427797
8.950000	-0.558981	53.561952	-15.103723	-39.407794	-15.103723	-39.407794	-0.559059	53.504868
9.000000	-0.569978	51.629372	-14.923212	-41.277322	-14.923212	-41.277322	-0.570068	51.571829
9.050000	-0.581806	49.685508	-14.743523	-43.153965	-14.743523	-43.153965	-0.581908	49.627497
9.100000	-0.594479	47.730225	-14.564883	-45.036986	-14.564883	-45.036986	-0.594594	47.671738
9.150000	-0.608213	45.760681	-14.386964	-46.927030	-14.386964	-46.927030	-0.608341	45.701712
9.200000	-0.622934	43.778084	-14.210293	-48.822710	-14.210293	-48.822710	-0.623075	43.718630
9.250000	-0.638973	41.778214	-14.034470	-50.724860	-14.034470	-50.724860	-0.639128	41.718276
9.300000	-0.656248	39.762492	-13.860030	-52.632111	-13.860030	-52.632111	-0.656415	39.702074
9.350000	-0.675062	37.727350	-13.686850	-54.544668	-13.686850	-54.544668	-0.675242	37.666461
9.400000	-0.695494	35.672251	-13.515208	-56.461783	-13.515208	-56.461783	-0.695685	35.610906
9.450000	-0.717733	33.595394	-13.345282	-58.382944	-13.345282	-58.382944	-0.717933	33.533616
9.500000	-0.742104	31.493445	-13.177186	-60.307803	-13.177186	-60.307803	-0.742311	31.431265
9.550000	-0.768608	29.367172	-13.011281	-62.235375	-13.011281	-62.235375	-0.768818	29.304628
9.600000	-0.797948	27.209327	-12.847648	-64.165415	-12.847648	-64.165415	-0.798155	27.146477
9.650000	-0.829945	25.023002	-12.686664	-66.096817	-12.686664	-66.096817	-0.830144	24.959908
9.700000	-0.865503	22.799523	-12.528557	-68.028978	-12.528557	-68.028978	-0.865684	22.736276
9.750000	-0.904615	20.540421	-12.373594	-69.960998	-12.373594	-69.960998	-0.904768	20.477121
9.800000	-0.948097	18.239009	-12.222109	-71.891925	-12.222109	-71.891925	-0.948204	18.175789
9.850000	-0.996476	15.892031	-12.074383	-73.820819	-12.074383	-73.820819	-0.996518	15.829051
9.900000	-1.050276	13.496800	-11.930670	-75.746757	-11.930670	-75.746757	-1.050227	13.434246
9.950000	-1.110911	11.043089	-11.791461	-77.668299	-11.791461	-77.668299	-1.110734	10.981213
10.000000	-1.178357	8.534299	-11.656703	-79.585066	-11.656703	-79.585066	-1.178012	8.473356
