! freq	dB(S11)	phase(S11)	dB(S12)	phase(S12)	
!     	dB(S21)	phase(S21)	dB(S22)	phase(S22)	
!S-par simulation data
#  GHz  S  DB  R 50
0.000000	-0.000000	0.000000	-331.162750	0.000000	-331.162750	0.000000	-0.000000	0.000000
0.050000	-0.001483	-2.430320	-77.109747	87.550357	-77.109747	87.550357	-0.001481	-2.430479
0.100000	-0.005183	-4.850135	-71.105198	85.112786	-71.105198	85.112786	-0.005181	-4.850494
0.150000	-0.009713	-7.256495	-67.608645	82.693996	-67.608645	82.693996	-0.009717	-7.257081
0.200000	-0.014161	-9.652052	-65.142498	80.294645	-65.142498	80.294645	-0.014174	-9.652867
0.250000	-0.018184	-12.039590	-63.244363	77.913895	-63.244363	77.913895	-0.018206	-12.040621
0.300000	-0.021754	-14.420920	-61.708163	75.550317	-61.708163	75.550317	-0.021783	-14.422155
0.350000	-0.024968	-16.796823	-60.423121	73.202525	-60.423121	73.202525	-0.025003	-16.798251
0.400000	-0.027918	-19.167060	-59.323833	70.870679	-59.323833	70.870679	-0.027954	-19.168673
0.450000	-0.030672	-21.530722	-58.369033	68.556297	-58.369033	68.556297	-0.030708	-21.532512
0.500000	-0.033301	-23.887339	-57.528703	66.259719	-57.528703	66.259719	-0.033335	-23.889301
0.550000	-0.035845	-26.236097	-56.782271	63.982379	-56.782271	63.982379	-0.035876	-26.238228
0.600000	-0.038332	-28.575736	-56.115518	61.726950	-56.115518	61.726950	-0.038359	-28.578033
0.650000	-0.040785	-30.905750	-55.516059	59.494490	-55.516059	59.494490	-0.040808	-30.908211
0.700000	-0.043218	-33.225494	-54.974652	57.286571	-54.974652	57.286571	-0.043237	-33.228119
0.750000	-0.045642	-35.533918	-54.484732	55.105907	-54.484732	55.105907	-0.045656	-35.536706
0.800000	-0.048060	-37.830358	-54.040388	52.954446	-54.040388	52.954446	-0.048070	-37.833309
0.850000	-0.050475	-40.114330	-53.636563	50.833845	-53.636563	50.833845	-0.050482	-40.117445
0.900000	-0.052889	-42.385291	-53.269196	48.746031	-53.269196	48.746031	-0.052893	-42.388570
0.950000	-0.055300	-44.642655	-52.934968	46.693165	-52.934968	46.693165	-0.055301	-44.646099
1.000000	-0.057705	-46.885930	-52.630973	44.677313	-52.630973	44.677313	-0.057705	-46.889540
1.050000	-0.060103	-49.114665	-52.354690	42.700557	-52.354690	42.700557	-0.060101	-49.118441
1.100000	-0.062489	-51.328448	-52.103911	40.764999	-52.103911	40.764999	-0.062486	-51.332391
1.150000	-0.064860	-53.526909	-51.876681	38.872760	-51.876681	38.872760	-0.064856	-53.531019
1.200000	-0.067212	-55.709715	-51.671252	37.025974	-51.671252	37.025974	-0.067208	-55.713991
1.250000	-0.069541	-57.876569	-51.486043	35.226793	-51.486043	35.226793	-0.069539	-57.881011
1.300000	-0.071844	-60.026853	-51.319926	33.478510	-51.319926	33.478510	-0.071843	-60.031462
1.350000	-0.074118	-62.160692	-51.171222	31.782262	-51.171222	31.782262	-0.074118	-62.165465
1.400000	-0.076360	-64.277894	-51.038687	30.140218	-51.038687	30.140218	-0.076362	-64.282831
1.450000	-0.078567	-66.378302	-50.921149	28.554542	-50.921149	28.554542	-0.078571	-66.383402
1.500000	-0.080738	-68.461787	-50.817489	27.027380	-50.817489	27.027380	-0.080744	-68.467048
1.550000	-0.082870	-70.528251	-50.726636	25.560847	-50.726636	25.560847	-0.082878	-70.533672
1.600000	-0.084962	-72.577623	-50.647546	24.157014	-50.647546	24.157014	-0.084973	-72.583202
1.650000	-0.087013	-74.609859	-50.579196	22.817883	-50.579196	22.817883	-0.087027	-74.615594
1.700000	-0.089023	-76.624940	-50.520577	21.545367	-50.520577	21.545367	-0.089040	-76.630830
1.750000	-0.090992	-78.622870	-50.470682	20.341261	-50.470682	20.341261	-0.091011	-78.628913
1.800000	-0.092919	-80.603678	-50.428501	19.207211	-50.428501	19.207211	-0.092941	-80.609873
1.850000	-0.094805	-82.567412	-50.393016	18.144670	-50.393016	18.144670	-0.094830	-82.573757
1.900000	-0.096650	-84.513958	-50.363244	17.155666	-50.363244	17.155666	-0.096678	-84.520451
1.950000	-0.098456	-86.443407	-50.338102	16.241166	-50.338102	16.241166	-0.098486	-86.450048
2.000000	-0.100223	-88.356051	-50.316465	15.400968	-50.316465	15.400968	-0.100256	-88.362837
2.050000	-0.101955	-90.252013	-50.297249	14.635271	-50.297249	14.635271	-0.101990	-90.258943
2.100000	-0.103652	-92.131431	-50.279355	13.943830	-50.279355	13.943830	-0.103688	-92.138505
2.150000	-0.105316	-93.994457	-50.261674	13.325892	-50.261674	13.325892	-0.105354	-94.001674
2.200000	-0.106949	-95.841258	-50.243094	12.780146	-50.243094	12.780146	-0.106989	-95.848617
2.250000	-0.108553	-97.672011	-50.222504	12.304672	-50.222504	12.304672	-0.108594	-97.679512
2.300000	-0.110131	-99.486906	-50.198809	11.896900	-50.198809	11.896900	-0.110173	-99.494547
2.350000	-0.111685	-101.286141	-50.170943	11.553579	-50.170943	11.553579	-0.111728	-101.293923
2.400000	-0.113217	-103.069924	-50.137877	11.270761	-50.137877	11.270761	-0.113260	-103.077848
2.450000	-0.114729	-104.838474	-50.098643	11.043805	-50.098643	11.043805	-0.114773	-104.846538
2.500000	-0.116225	-106.592014	-50.052346	10.867399	-50.052346	10.867399	-0.116268	-106.600220
2.550000	-0.117705	-108.330302	-49.997888	10.736874	-49.997888	10.736874	-0.117748	-108.338650
2.600000	-0.119173	-110.054067	-49.934808	10.644000	-49.934808	10.644000	-0.119216	-110.062557
2.650000	-0.120631	-111.763553	-49.862536	10.581783	-49.862536	10.581783	-0.120673	-111.772186
2.700000	-0.122081	-113.459009	-49.780630	10.542894	-49.780630	10.542894	-0.122123	-113.467786
2.750000	-0.123526	-115.140688	-49.688786	10.519797	-49.688786	10.519797	-0.123567	-115.149610
2.800000	-0.124968	-116.808847	-49.586844	10.504883	-49.586844	10.504883	-0.125008	-116.817915
2.850000	-0.126409	-118.463746	-49.474784	10.490615	-49.474784	10.490615	-0.126447	-118.472962
2.900000	-0.127851	-120.105647	-49.352721	10.469661	-49.352721	10.469661	-0.127888	-120.115012
2.950000	-0.129296	-121.734816	-49.220899	10.435017	-49.220899	10.435017	-0.129331	-121.744331
3.000000	-0.130746	-123.351519	-49.079677	10.380122	-49.079677	10.380122	-0.130780	-123.361186
3.050000	-0.132202	-124.956024	-48.929516	10.298947	-48.929516	10.298947	-0.132235	-124.965844
3.100000	-0.133668	-126.548600	-48.770962	10.186069	-48.770962	10.186069	-0.133698	-126.558576
3.150000	-0.135143	-128.129517	-48.604626	10.036711	-48.604626	10.036711	-0.135172	-128.139650
3.200000	-0.136630	-129.699044	-48.431173	9.846772	-48.431173	9.846772	-0.136658	-129.709337
3.250000	-0.138131	-131.257453	-48.251297	9.612830	-48.251297	9.612830	-0.138157	-131.267906
3.300000	-0.139646	-132.805013	-48.065713	9.332128	-48.065713	9.332128	-0.139670	-132.815629
3.350000	-0.141177	-134.341993	-47.875137	9.002541	-47.875137	9.002541	-0.141200	-134.352774
3.400000	-0.142726	-135.868662	-47.680277	8.622537	-47.680277	8.622537	-0.142747	-135.879610
3.450000	-0.144293	-137.385288	-47.481821	8.191128	-47.481821	8.191128	-0.144313	-137.396405
3.500000	-0.145880	-138.892138	-47.280432	7.707812	-47.280432	7.707812	-0.145898	-138.903427
3.550000	-0.147487	-140.389477	-47.076736	7.172516	-47.076736	7.172516	-0.147504	-140.400939
3.600000	-0.149115	-141.877570	-46.871323	6.585537	-46.871323	6.585537	-0.149131	-141.889208
3.650000	-0.150766	-143.356678	-46.664742	5.947488	-46.664742	5.947488	-0.150781	-143.368494
3.700000	-0.152440	-144.827062	-46.457497	5.259240	-46.457497	5.259240	-0.152454	-144.839059
3.750000	-0.154138	-146.288982	-46.250052	4.521878	-46.250052	4.521878	-0.154151	-146.301162
3.800000	-0.155861	-147.742350	-46.042640	3.734635	-46.042640	3.734635	-0.155874	-147.754716
3.850000	-0.157609	-149.187789	-45.835860	2.901037	-45.835860	2.901037	-0.157621	-149.200343
3.900000	-0.159383	-150.625551	-45.630049	2.022559	-45.630049	2.022559	-0.159395	-150.638296
3.950000	-0.161182	-152.055887	-45.425507	1.100732	-45.425507	1.100732	-0.161194	-152.068826
4.000000	-0.163009	-153.479045	-45.222497	0.137116	-45.222497	0.137116	-0.163020	-153.492180
4.050000	-0.164861	-154.895272	-45.021252	-0.866716	-45.021252	-0.866716	-0.164873	-154.908606
4.100000	-0.166741	-156.304811	-44.821973	-1.909200	-44.821973	-1.909200	-0.166753	-156.318347
4.150000	-0.168648	-157.707903	-44.624835	-2.988794	-44.624835	-2.988794	-0.168661	-157.721644
4.200000	-0.170583	-159.104788	-44.429989	-4.103985	-44.429989	-4.103985	-0.170596	-159.118737
4.250000	-0.172545	-160.495702	-44.237562	-5.253305	-44.237562	-5.253305	-0.172559	-160.509862
4.300000	-0.174534	-161.880879	-44.047661	-6.435333	-44.047661	-6.435333	-0.174549	-161.895254
4.350000	-0.176552	-163.260552	-43.860375	-7.648698	-43.860375	-7.648698	-0.176568	-163.275144
4.400000	-0.178597	-164.634949	-43.675777	-8.892090	-43.675777	-8.892090	-0.178614	-164.649763
4.450000	-0.180670	-166.004298	-43.493926	-10.164254	-43.493926	-10.164254	-0.180688	-166.019336
4.500000	-0.182771	-167.368823	-43.314866	-11.463998	-43.314866	-11.463998	-0.182790	-167.384089
4.550000	-0.184900	-168.728746	-43.138631	-12.790188	-43.138631	-12.790188	-0.184920	-168.744244
4.600000	-0.187056	-170.084288	-42.965245	-14.141751	-42.965245	-14.141751	-0.187078	-170.100021
4.650000	-0.189240	-171.435664	-42.794723	-15.517676	-42.794723	-15.517676	-0.189264	-171.451637
4.700000	-0.191451	-172.783090	-42.627071	-16.917007	-42.627071	-16.917007	-0.191477	-172.799307
4.750000	-0.193690	-174.126779	-42.462288	-18.338848	-42.462288	-18.338848	-0.193717	-174.143244
4.800000	-0.195956	-175.466941	-42.300369	-19.782357	-42.300369	-19.782357	-0.195985	-175.483658
4.850000	-0.198249	-176.803784	-42.141301	-21.246746	-42.141301	-21.246746	-0.198280	-176.820757
4.900000	-0.200569	-178.137512	-41.985068	-22.731282	-41.985068	-22.731282	-0.200602	-178.154746
4.950000	-0.202915	-179.468329	-41.831650	-24.235278	-41.831650	-24.235278	-0.202950	-179.485830
5.000000	-0.205288	179.203563	-41.681021	-25.758098	-41.681021	-25.758098	-0.205325	179.185792
5.050000	-0.207689	177.878067	-41.533166	-27.299919	-41.533166	-27.299919	-0.207728	177.860019
5.100000	-0.210115	176.554868	-41.388049	-28.859383	-41.388049	-28.859383	-0.210156	176.536539
5.150000	-0.212568	175.233773	-41.245635	-30.435993	-41.245635	-30.435993	-0.212611	175.215157
5.200000	-0.215046	173.914590	-41.105890	-32.029294	-41.105890	-32.029294	-0.215091	173.895682
5.250000	-0.217550	172.597130	-40.968776	-33.638869	-40.968776	-33.638869	-0.217597	172.577923
5.300000	-0.220079	171.281205	-40.834253	-35.264339	-40.834253	-35.264339	-0.220128	171.261694
5.350000	-0.222634	169.966630	-40.702281	-36.905361	-40.702281	-36.905361	-0.222684	169.946809
5.400000	-0.225213	168.653223	-40.572818	-38.561628	-40.572818	-38.561628	-0.225265	168.633085
5.450000	-0.227817	167.340801	-40.445820	-40.232864	-40.445820	-40.232864	-0.227871	167.320341
5.500000	-0.230446	166.029188	-40.321244	-41.918829	-40.321244	-41.918829	-0.230501	166.008398
5.550000	-0.233100	164.718205	-40.199042	-43.619311	-40.199042	-43.619311	-0.233156	164.697078
5.600000	-0.235778	163.407678	-40.079169	-45.334130	-40.079169	-45.334130	-0.235836	163.386208
5.650000	-0.238480	162.097435	-39.961577	-47.063135	-39.961577	-47.063135	-0.238539	162.075614
5.700000	-0.241207	160.787304	-39.846216	-48.806203	-39.846216	-48.806203	-0.241267	160.765126
5.750000	-0.243957	159.477118	-39.733036	-50.563239	-39.733036	-50.563239	-0.244019	159.454574
5.800000	-0.246732	158.166709	-39.621986	-52.334175	-39.621986	-52.334175	-0.246795	158.143792
5.850000	-0.249531	156.855913	-39.513014	-54.118968	-39.513014	-54.118968	-0.249595	156.832614
5.900000	-0.252354	155.544567	-39.406065	-55.917602	-39.406065	-55.917602	-0.252418	155.520879
5.950000	-0.255201	154.232511	-39.301086	-57.730084	-39.301086	-57.730084	-0.255266	154.208426
6.000000	-0.258073	152.919586	-39.198018	-59.556448	-39.198018	-59.556448	-0.258138	152.895094
6.050000	-0.260968	151.605634	-39.096804	-61.396750	-39.096804	-61.396750	-0.261034	151.580728
6.100000	-0.263888	150.290502	-38.997384	-63.251068	-38.997384	-63.251068	-0.263954	150.265173
6.150000	-0.266832	148.974037	-38.899697	-65.119505	-38.899697	-65.119505	-0.266899	148.948275
6.200000	-0.269801	147.656087	-38.803679	-67.002187	-38.803679	-67.002187	-0.269868	147.629883
6.250000	-0.272795	146.336503	-38.709264	-68.899259	-38.709264	-68.899259	-0.272862	146.309849
6.300000	-0.275815	145.015055	-38.616406	-70.811531	-38.616406	-70.811531	-0.275882	144.987940
6.350000	-0.278861	143.691668	-38.525010	-72.738571	-38.525010	-72.738571	-0.278928	143.664083
6.400000	-0.281932	142.366200	-38.435001	-74.680589	-38.435001	-74.680589	-0.281999	142.338135
6.450000	-0.285029	141.038510	-38.346303	-76.637819	-38.346303	-76.637819	-0.285096	141.009955
6.500000	-0.288153	139.708460	-38.258837	-78.610510	-38.258837	-78.610510	-0.288219	139.679404
6.550000	-0.291304	138.375911	-38.172520	-80.598934	-38.172520	-80.598934	-0.291370	138.346344
6.600000	-0.294482	137.040730	-38.087265	-82.603378	-38.087265	-82.603378	-0.294548	137.010642
6.650000	-0.297689	135.702783	-38.002982	-84.624146	-38.002982	-84.624146	-0.297754	135.672164
6.700000	-0.300924	134.361940	-37.919577	-86.661559	-37.919577	-86.661559	-0.300989	134.330779
6.750000	-0.304188	133.018072	-37.836950	-88.715953	-37.836950	-88.715953	-0.304253	132.986358
6.800000	-0.307483	131.671052	-37.754999	-90.787679	-37.754999	-90.787679	-0.307548	131.638774
6.850000	-0.310809	130.320755	-37.673615	-92.877098	-37.673615	-92.877098	-0.310873	130.287902
6.900000	-0.314166	128.967058	-37.592685	-94.984585	-37.592685	-94.984585	-0.314231	128.933620
6.950000	-0.317556	127.609841	-37.512090	-97.110523	-37.512090	-97.110523	-0.317621	127.575805
7.000000	-0.320980	126.248985	-37.431703	-99.255303	-37.431703	-99.255303	-0.321045	126.214341
7.050000	-0.324439	124.884373	-37.351396	-101.419323	-37.351396	-101.419323	-0.324504	124.849110
7.100000	-0.327934	123.515891	-37.271029	-103.602983	-37.271029	-103.602983	-0.327999	123.479997
7.150000	-0.331466	122.143427	-37.190459	-105.806685	-37.190459	-105.806685	-0.331532	122.106889
7.200000	-0.335036	120.766870	-37.109535	-108.030828	-37.109535	-108.030828	-0.335103	120.729678
7.250000	-0.338647	119.386112	-37.028097	-110.275807	-37.028097	-110.275807	-0.338714	119.348253
7.300000	-0.342299	118.001046	-36.945979	-112.542009	-36.945979	-112.542009	-0.342368	117.962509
7.350000	-0.345995	116.611569	-36.863007	-114.829808	-36.863007	-114.829808	-0.346065	116.572342
7.400000	-0.349735	115.217579	-36.779000	-117.139564	-36.779000	-117.139564	-0.349807	115.177649
7.450000	-0.353523	113.818975	-36.693766	-119.471615	-36.693766	-119.471615	-0.353596	113.778330
7.500000	-0.357359	112.415659	-36.607107	-121.826276	-36.607107	-121.826276	-0.357434	112.374288
7.550000	-0.361249	111.007323	-36.518696	-124.204837	-36.518696	-124.204837	-0.361326	110.965211
7.600000	-0.365192	109.594077	-36.428412	-126.606561	-36.428412	-126.606561	-0.365272	109.551213
7.650000	-0.369192	108.175829	-36.336032	-129.031649	-36.336032	-129.031649	-0.369275	108.132200
7.700000	-0.373250	106.752491	-36.241321	-131.480259	-36.241321	-131.480259	-0.373336	106.708083
7.750000	-0.377370	105.323973	-36.144038	-133.952492	-36.144038	-133.952492	-0.377460	105.278774
7.800000	-0.381555	103.890190	-36.043932	-136.448395	-36.043932	-136.448395	-0.381648	103.844187
7.850000	-0.385808	102.451058	-35.940749	-138.967947	-35.940749	-138.967947	-0.385906	102.404237
7.900000	-0.390133	101.006494	-35.834226	-141.511059	-35.834226	-141.511059	-0.390234	100.958842
7.950000	-0.394533	99.556417	-35.724094	-144.077565	-35.724094	-144.077565	-0.394639	99.507920
8.000000	-0.399012	98.100747	-35.610080	-146.667218	-35.610080	-146.667218	-0.399124	98.051391
8.050000	-0.403576	96.639408	-35.491908	-149.279687	-35.491908	-149.279687	-0.403693	96.589179
8.100000	-0.408229	95.172322	-35.369297	-151.914548	-35.369297	-151.914548	-0.408350	95.121205
8.150000	-0.412975	93.699414	-35.241966	-154.571287	-35.241966	-154.571287	-0.413102	93.647394
8.200000	-0.417820	92.220611	-35.109635	-157.249291	-35.109635	-157.249291	-0.417954	92.167673
8.250000	-0.422771	90.735839	-34.972022	-159.947853	-34.972022	-159.947853	-0.422911	90.681967
8.300000	-0.427834	89.245025	-34.828852	-162.666165	-34.828852	-162.666165	-0.427980	89.190204
8.350000	-0.433008	87.748459	-34.680368	-165.402305	-34.680368	-165.402305	-0.433161	87.692674
8.400000	-0.438310	86.245566	-34.525615	-168.156820	-34.525615	-168.156820	-0.438470	86.188799
8.450000	-0.443758	84.735905	-34.363733	-170.929448	-34.363733	-170.929448	-0.443925	84.678137
8.500000	-0.449342	83.220254	-34.195752	-173.716812	-34.195752	-173.716812	-0.449516	83.161470
8.550000	-0.455082	81.698052	-34.020658	-176.518822	-34.020658	-176.518822	-0.455264	81.638233
8.600000	-0.460987	80.169354	-33.838435	-179.333890	-33.838435	-179.333890	-0.461176	80.108481
8.650000	-0.467061	78.634341	-33.649287	177.839829	-33.649287	177.839829	-0.467258	78.572396
8.700000	-0.473334	77.092306	-33.451907	175.002718	-33.451907	175.002718	-0.473538	77.029268
8.750000	-0.479789	75.544206	-33.247981	172.157659	-33.247981	172.157659	-0.480002	75.480057
8.800000	-0.486485	73.988538	-33.034649	169.304474	-33.034649	169.304474	-0.486706	73.923257
8.850000	-0.493393	72.426669	-32.814537	166.446067	-32.814537	166.446067	-0.493623	72.360237
8.900000	-0.500565	70.857466	-32.585401	163.583073	-32.585401	163.583073	-0.500804	70.789860
8.950000	-0.507998	69.281520	-32.348509	160.717269	-32.348509	160.717269	-0.508245	69.212721
9.000000	-0.515721	67.698485	-32.103176	157.849918	-32.103176	157.849918	-0.515978	67.628471
9.050000	-0.523764	66.108143	-31.849037	154.982293	-31.849037	154.982293	-0.524030	66.036894
9.100000	-0.532127	64.510967	-31.587241	152.115555	-31.587241	152.115555	-0.532403	64.438464
9.150000	-0.540884	62.905893	-31.315507	149.251006	-31.315507	149.251006	-0.541171	62.832115
9.200000	-0.550000	61.294113	-31.036749	146.389175	-31.036749	146.389175	-0.550298	61.219043
9.250000	-0.559587	59.674104	-30.747509	143.531545	-30.747509	143.531545	-0.559897	59.597723
9.300000	-0.569606	58.047084	-30.450929	140.678071	-30.450929	140.678071	-0.569927	57.969378
9.350000	-0.580150	56.412084	-30.144785	137.829769	-30.144785	137.829769	-0.580484	56.333040
9.400000	-0.591233	54.769462	-29.830210	134.986634	-29.830210	134.986634	-0.591580	54.689070
9.450000	-0.602901	53.119130	-29.507156	132.148749	-29.507156	132.148749	-0.603262	53.037384
9.500000	-0.615242	51.460545	-29.174420	129.316281	-29.174420	129.316281	-0.615618	51.377443
9.550000	-0.628235	49.794548	-28.834451	126.488288	-28.834451	126.488288	-0.628626	49.710092
9.600000	-0.642068	48.119658	-28.483347	123.664907	-28.483347	123.664907	-0.642474	48.033859
9.650000	-0.656659	46.437368	-28.125486	120.844515	-28.125486	120.844515	-0.657081	46.350241
9.700000	-0.672229	44.746191	-27.756664	118.026389	-27.756664	118.026389	-0.672665	44.657764
9.750000	-0.688735	43.047185	-27.380149	115.208840	-27.380149	115.208840	-0.689185	42.957491
9.800000	-0.706342	41.339670	-26.993850	112.390033	-26.993850	112.390033	-0.706804	41.248758
9.850000	-0.725124	39.623785	-26.598214	109.567836	-26.598214	109.567836	-0.725596	39.531716
9.900000	-0.745120	37.899973	-26.194551	106.740029	-26.194551	106.740029	-0.745598	37.806817
9.950000	-0.766551	36.167537	-25.780312	103.903102	-25.780312	103.903102	-0.767028	36.073389
10.000000	-0.789492	34.426863	-25.356389	101.053833	-25.356389	101.053833	-0.789960	34.331832
