! freq	dB(S11)	phase(S11)	dB(S12)	phase(S12)	
!     	dB(S21)	phase(S21)	dB(S22)	phase(S22)	
!S-par simulation data
#  GHz  S  DB  R 50
0.000000	-0.000000	0.000000	-386.023199	0.000000	-386.023199	0.000000	-0.000000	0.000000
0.050000	-0.000106	-0.868195	-115.887271	85.637951	-115.887271	85.637951	-0.000100	-0.767855
0.100000	-0.000421	-1.736139	-110.334572	84.038369	-110.334572	84.038369	-0.000396	-1.535464
0.150000	-0.000931	-2.603599	-107.166250	83.684173	-107.166250	83.684173	-0.000875	-2.302600
0.200000	-0.001619	-3.470378	-104.943956	83.571025	-104.943956	83.571025	-0.001516	-3.069082
0.250000	-0.002471	-4.336255	-103.265658	83.454435	-103.265658	83.454435	-0.002305	-3.834705
0.300000	-0.003449	-5.201182	-101.947192	83.318737	-101.947192	83.318737	-0.003204	-4.599441
0.350000	-0.004535	-6.065037	-100.899384	83.195206	-100.899384	83.195206	-0.004194	-5.363195
0.400000	-0.005705	-6.927767	-100.067179	83.126937	-100.067179	83.126937	-0.005251	-6.125938
0.450000	-0.006938	-7.789349	-99.416107	83.161460	-99.416107	83.161460	-0.006356	-6.887669
0.500000	-0.008213	-8.649782	-98.924152	83.352202	-98.924152	83.352202	-0.007491	-7.648410
0.550000	-0.009514	-9.509083	-98.577467	83.762968	-98.577467	83.762968	-0.008642	-8.408193
0.600000	-0.010829	-10.367281	-98.367860	84.474473	-98.367860	84.474473	-0.009798	-9.167058
0.650000	-0.012146	-11.224408	-98.291055	85.593547	-98.291055	85.593547	-0.010951	-9.925048
0.700000	-0.013457	-12.080500	-98.345022	87.266383	-98.345022	87.266383	-0.012095	-10.682201
0.750000	-0.014757	-12.935589	-98.527574	89.697417	-98.527574	89.697417	-0.013226	-11.438554
0.800000	-0.016042	-13.789705	-98.831833	93.174252	-98.831833	93.174252	-0.014343	-12.194137
0.850000	-0.017310	-14.642873	-99.237038	98.092270	-99.237038	98.092270	-0.015444	-12.948974
0.900000	-0.018559	-15.495113	-99.690848	104.949734	-99.690848	104.949734	-0.016529	-13.703083
0.950000	-0.019790	-16.346438	-100.081930	114.232137	-100.081930	114.232137	-0.017599	-14.456476
1.000000	-0.021001	-17.196859	-100.220622	126.064289	-100.220622	126.064289	-0.018655	-15.209163
1.050000	-0.022196	-18.046379	-99.884900	139.680746	-99.884900	139.680746	-0.019697	-15.961144
1.100000	-0.023374	-18.894998	-98.966580	153.300766	-98.966580	153.300766	-0.020726	-16.712421
1.150000	-0.024536	-19.742710	-97.574178	165.074725	-97.574178	165.074725	-0.021745	-17.462988
1.200000	-0.025685	-20.589510	-95.931935	174.192112	-95.931935	174.192112	-0.022754	-18.212839
1.250000	-0.026821	-21.435386	-94.225672	-179.173068	-94.225672	-179.173068	-0.023755	-18.961964
1.300000	-0.027946	-22.280284	-92.548443	-174.548741	-92.548443	-174.548741	-0.024747	-19.710321
1.350000	-0.029061	-23.124229	-90.957009	-171.325476	-90.957009	-171.325476	-0.025733	-20.457927
1.400000	-0.030168	-23.967204	-89.462012	-169.124992	-89.462012	-169.124992	-0.026714	-21.204770
1.450000	-0.031268	-24.809192	-88.061343	-167.676820	-88.061343	-167.676820	-0.027690	-21.950835
1.500000	-0.032361	-25.650174	-86.748039	-166.790140	-86.748039	-166.790140	-0.028662	-22.696106
1.550000	-0.033450	-26.490130	-85.513818	-166.329733	-85.513818	-166.329733	-0.029631	-23.440569
1.600000	-0.034534	-27.329041	-84.350554	-166.198584	-84.350554	-166.198584	-0.030597	-24.184208
1.650000	-0.035615	-28.166886	-83.250825	-166.325987	-83.250825	-166.325987	-0.031561	-24.927005
1.700000	-0.036692	-29.003258	-82.184384	-166.713013	-82.184384	-166.713013	-0.032523	-25.668640
1.750000	-0.037768	-29.839055	-81.203342	-167.193204	-81.203342	-167.193204	-0.033484	-26.409822
1.800000	-0.038844	-30.673471	-80.254054	-167.828028	-80.254054	-167.828028	-0.034445	-27.149914
1.850000	-0.039918	-31.506899	-79.354705	-168.573306	-79.354705	-168.573306	-0.035406	-27.889227
1.900000	-0.040992	-32.339098	-78.490429	-169.409674	-78.490429	-169.409674	-0.036366	-28.627570
1.950000	-0.042066	-33.170069	-77.659563	-170.337134	-77.659563	-170.337134	-0.037327	-29.364944
2.000000	-0.043142	-33.999981	-76.865848	-171.318865	-76.865848	-171.318865	-0.038288	-30.101482
2.050000	-0.044218	-34.828409	-76.093215	-172.376576	-76.093215	-172.376576	-0.039251	-30.836848
2.100000	-0.045296	-35.656184	-75.365305	-173.459426	-75.365305	-173.459426	-0.040214	-31.571699
2.150000	-0.046376	-36.482265	-74.649576	-174.604648	-74.649576	-174.604648	-0.041180	-32.305212
2.200000	-0.047458	-37.307065	-73.957463	-175.788297	-73.957463	-175.788297	-0.042147	-33.037711
2.250000	-0.048544	-38.130565	-73.287394	-177.005735	-73.287394	-177.005735	-0.043117	-33.769183
2.300000	-0.049632	-38.952748	-72.637954	-178.253029	-72.637954	-178.253029	-0.044089	-34.499612
2.350000	-0.050724	-39.773598	-72.007869	-179.526816	-72.007869	-179.526816	-0.045064	-35.228986
2.400000	-0.051820	-40.593099	-71.395985	179.175795	-71.395985	179.175795	-0.046043	-35.957290
2.450000	-0.052920	-41.411234	-70.801255	177.857300	-70.801255	177.857300	-0.047024	-36.684510
2.500000	-0.054024	-42.227988	-70.222723	176.519872	-70.222723	176.519872	-0.048010	-37.410634
2.550000	-0.055134	-43.043285	-69.658602	175.164745	-69.658602	175.164745	-0.048999	-38.135599
2.600000	-0.056249	-43.857170	-69.109097	173.794377	-69.109097	173.794377	-0.049993	-38.859441
2.650000	-0.057370	-44.669631	-68.573466	172.410212	-68.573466	172.410212	-0.050992	-39.582146
2.700000	-0.058496	-45.480652	-68.051023	171.013530	-68.051023	171.013530	-0.051996	-40.303704
2.750000	-0.059629	-46.290222	-67.541134	169.605469	-67.541134	169.605469	-0.053005	-41.024102
2.800000	-0.060769	-47.098328	-67.043215	168.187046	-67.043215	168.187046	-0.054019	-41.743328
2.850000	-0.061915	-47.904957	-66.556723	166.759172	-66.556723	166.759172	-0.055040	-42.461371
2.900000	-0.063069	-48.710100	-66.081153	165.322665	-66.081153	165.322665	-0.056067	-43.178220
2.950000	-0.064231	-49.513744	-65.616036	163.878262	-65.616036	163.878262	-0.057100	-43.893864
3.000000	-0.065401	-50.315878	-65.160932	162.426631	-65.160932	162.426631	-0.058141	-44.608294
3.050000	-0.066580	-51.116494	-64.715434	160.968375	-64.715434	160.968375	-0.059189	-45.321497
3.100000	-0.067767	-51.915582	-64.279157	159.504045	-64.279157	159.504045	-0.060245	-46.033466
3.150000	-0.068964	-52.713132	-63.851742	158.034140	-63.851742	158.034140	-0.061308	-46.744190
3.200000	-0.070171	-53.509136	-63.432851	156.559118	-63.432851	156.559118	-0.062380	-47.453660
3.250000	-0.071387	-54.303586	-63.022166	155.079396	-63.022166	155.079396	-0.063461	-48.161867
3.300000	-0.072615	-55.096474	-62.619389	153.595357	-62.619389	153.595357	-0.064551	-48.868802
3.350000	-0.073855	-55.887518	-62.222441	152.106760	-62.222441	152.106760	-0.065652	-49.574232
3.400000	-0.075107	-56.676919	-61.832581	150.614375	-61.832581	150.614375	-0.066764	-50.278317
3.450000	-0.076365	-57.465492	-61.454511	149.120357	-61.454511	149.120357	-0.067881	-50.981724
3.500000	-0.077643	-58.251582	-61.077960	147.621442	-61.077960	147.621442	-0.069014	-51.683093
3.550000	-0.078924	-59.037118	-60.713991	146.121620	-60.713991	146.121620	-0.070151	-52.384004
3.600000	-0.080229	-59.819877	-60.349949	144.617264	-60.349949	144.617264	-0.071308	-53.082625
3.650000	-0.081536	-60.602357	-59.999128	143.112534	-59.999128	143.112534	-0.072467	-53.781016
3.700000	-0.082869	-61.381767	-59.646867	141.603671	-59.646867	141.603671	-0.073648	-54.476863
3.750000	-0.084203	-62.161177	-59.308338	140.094808	-59.308338	140.094808	-0.074830	-55.172709
3.800000	-0.085567	-62.937224	-58.967198	138.582241	-58.967198	138.582241	-0.076039	-55.865756
3.850000	-0.086931	-63.713272	-58.638952	137.069674	-58.638952	137.069674	-0.077247	-56.558803
3.900000	-0.088325	-64.486229	-58.309564	135.554348	-58.309564	135.554348	-0.078482	-57.249263
3.950000	-0.089723	-65.258906	-57.991066	134.038771	-57.991066	134.038771	-0.079719	-57.939487
4.000000	-0.091148	-66.028769	-57.672712	132.521189	-57.672712	132.521189	-0.080981	-58.627344
4.050000	-0.092580	-66.798069	-57.363470	131.003207	-57.363470	131.003207	-0.082248	-59.314727
4.100000	-0.094039	-67.564837	-57.055497	129.483816	-57.055497	129.483816	-0.083538	-59.999967
4.150000	-0.095508	-68.330761	-56.755057	127.963957	-56.755057	127.963957	-0.084837	-60.684492
4.200000	-0.097002	-69.094436	-56.456869	126.443155	-56.456869	126.443155	-0.086157	-61.367103
4.250000	-0.098508	-69.856988	-56.164812	124.921883	-56.164812	124.921883	-0.087489	-62.048758
4.300000	-0.100039	-70.617576	-55.875866	123.400024	-55.875866	123.400024	-0.088841	-62.728731
4.350000	-0.101586	-71.376762	-55.591804	121.877747	-55.591804	121.877747	-0.090208	-63.407503
4.400000	-0.103155	-72.134272	-55.311599	120.355149	-55.311599	120.355149	-0.091593	-64.084830
4.450000	-0.104744	-72.890106	-55.035173	118.832231	-55.035173	118.832231	-0.092997	-64.760713
4.500000	-0.106352	-73.644549	-54.763251	117.309178	-54.763251	117.309178	-0.094416	-65.435389
4.550000	-0.107986	-74.397045	-54.494124	115.785939	-54.494124	115.785939	-0.095858	-66.108377
4.600000	-0.109636	-75.148436	-54.230061	114.262689	-54.230061	114.262689	-0.097313	-66.780399
4.650000	-0.111316	-75.897616	-53.967921	112.739416	-53.967921	112.739416	-0.098795	-67.450490
4.700000	-0.113008	-76.645972	-53.711328	111.216199	-53.711328	111.216199	-0.100287	-68.119857
4.750000	-0.114736	-77.391858	-53.455883	109.693150	-53.455883	109.693150	-0.101810	-68.787051
4.800000	-0.116473	-78.137200	-53.206398	108.170176	-53.206398	108.170176	-0.103341	-69.453763
4.850000	-0.118251	-78.879820	-52.957374	106.647581	-52.957374	106.647581	-0.104908	-70.118064
4.900000	-0.120034	-79.622171	-52.714661	105.125040	-52.714661	105.125040	-0.106479	-70.782124
4.950000	-0.121864	-80.361557	-52.471803	103.603106	-52.471803	103.603106	-0.108090	-71.443537
5.000000	-0.123694	-81.100943	-52.235552	102.081172	-52.235552	102.081172	-0.109702	-72.104950
5.050000	-0.125578	-81.837130	-51.998619	100.560088	-51.998619	100.560088	-0.111361	-72.763484
5.100000	-0.127462	-82.573316	-51.767979	99.039003	-51.767979	99.039003	-0.113020	-73.422018
5.150000	-0.129396	-83.306606	-51.537306	97.518854	-51.537306	97.518854	-0.114723	-74.077923
5.200000	-0.131336	-84.039632	-51.312070	95.998789	-51.312070	95.998789	-0.116430	-74.733589
5.250000	-0.133323	-84.770059	-51.087381	94.479705	-51.087381	94.479705	-0.118179	-75.386876
5.300000	-0.135321	-85.499967	-50.867354	92.960816	-50.867354	92.960816	-0.119936	-76.039687
5.350000	-0.137362	-86.227569	-50.648390	91.442915	-50.648390	91.442915	-0.121733	-76.690369
5.400000	-0.139419	-86.954404	-50.433389	89.925344	-50.433389	89.925344	-0.123542	-77.340341
5.450000	-0.141516	-87.679223	-50.219910	88.408738	-50.219910	88.408738	-0.125387	-77.988433
5.500000	-0.143633	-88.403033	-50.009760	86.892615	-50.009760	86.892615	-0.127250	-78.635584
5.550000	-0.145787	-89.125111	-49.801539	85.377407	-49.801539	85.377407	-0.129145	-79.281102
5.600000	-0.147968	-89.845950	-49.596076	83.862852	-49.596076	83.862852	-0.131063	-79.925454
5.650000	-0.150181	-90.565331	-49.392902	82.349137	-49.392902	82.349137	-0.133010	-80.568417
5.700000	-0.152426	-91.283254	-49.191969	80.836262	-49.191969	80.836262	-0.134985	-81.209992
5.750000	-0.154699	-91.999987	-48.993642	79.324129	-48.993642	79.324129	-0.136985	-81.850420
5.800000	-0.157011	-92.715053	-48.797091	77.813035	-48.797091	77.813035	-0.139019	-82.489243
5.850000	-0.159345	-93.429188	-48.603424	76.302567	-48.603424	76.302567	-0.141073	-83.127158
5.900000	-0.161725	-94.141458	-48.411115	74.793351	-48.411115	74.793351	-0.143167	-83.763257
5.950000	-0.164123	-94.853047	-48.221932	73.284626	-48.221932	73.284626	-0.145277	-84.398682
6.000000	-0.166573	-95.562587	-48.033729	71.777375	-48.033729	71.777375	-0.147434	-85.032086
6.050000	-0.169035	-96.271684	-47.848863	70.270467	-47.848863	70.270467	-0.149601	-85.665046
6.100000	-0.171557	-96.978562	-47.664641	68.765265	-47.664641	68.765265	-0.151822	-86.295787
6.150000	-0.174085	-97.685224	-47.483934	67.260240	-47.483934	67.260240	-0.154048	-86.926308
6.200000	-0.176680	-98.389511	-47.303569	65.757164	-47.303569	65.757164	-0.156334	-87.554419
6.250000	-0.179275	-99.093798	-47.126874	64.254088	-47.126874	64.254088	-0.158620	-88.182530
6.300000	-0.181945	-99.795566	-46.950251	62.753209	-46.950251	62.753209	-0.160973	-88.808047
6.350000	-0.184616	-100.497335	-46.777148	61.252330	-46.777148	61.252330	-0.163327	-89.433565
6.400000	-0.187357	-101.196866	-46.604432	59.753525	-46.604432	59.753525	-0.165743	-90.056738
6.450000	-0.190104	-101.896194	-46.434818	58.254909	-46.434818	58.254909	-0.168165	-90.679699
6.500000	-0.192916	-102.593553	-46.265874	56.758231	-46.265874	56.758231	-0.170646	-91.300562
6.550000	-0.195742	-103.290518	-46.099648	55.261939	-46.099648	55.261939	-0.173139	-91.921005
6.600000	-0.198627	-103.985774	-45.934347	53.767433	-45.934347	53.767433	-0.175686	-92.539592
6.650000	-0.201533	-104.680459	-45.771415	52.273523	-45.771415	52.273523	-0.178252	-93.157560
6.700000	-0.204493	-105.373681	-45.609634	50.781233	-45.609634	50.781233	-0.180866	-93.773905
6.750000	-0.207480	-106.066171	-45.449903	49.289754	-45.449903	49.289754	-0.183506	-94.389440
6.800000	-0.210516	-106.757432	-45.291524	47.799720	-45.291524	47.799720	-0.186189	-95.003582
6.850000	-0.213586	-107.447813	-45.134906	46.310718	-45.134906	46.310718	-0.188904	-95.616729
6.900000	-0.216699	-108.137186	-44.979818	44.822975	-44.979818	44.822975	-0.191657	-96.228705
6.950000	-0.219854	-108.825550	-44.826228	43.336490	-44.826228	43.336490	-0.194450	-96.839510
7.000000	-0.223045	-109.513112	-44.674325	41.851069	-44.674325	41.851069	-0.197275	-97.449359
7.050000	-0.226286	-110.199550	-44.523681	40.367137	-44.523681	40.367137	-0.200146	-98.057871
7.100000	-0.229557	-110.885377	-44.374862	38.884065	-44.374862	38.884065	-0.203044	-98.665635
7.150000	-0.232886	-111.569985	-44.227085	37.402713	-44.227085	37.402713	-0.205995	-99.271903
7.200000	-0.236238	-112.254159	-44.081252	35.922012	-44.081252	35.922012	-0.208967	-99.877622
7.250000	-0.239655	-112.937033	-43.936266	34.443262	-43.936266	34.443262	-0.212001	-100.481698
7.300000	-0.243089	-113.619634	-43.793326	32.964949	-43.793326	32.964949	-0.215049	-101.085417
7.350000	-0.246597	-114.300875	-43.651057	31.488818	-43.651057	31.488818	-0.218165	-101.687353
7.400000	-0.250114	-114.981988	-43.510922	30.012906	-43.510922	30.012906	-0.221290	-102.289115
7.450000	-0.253714	-115.661698	-43.371299	28.539401	-43.371299	28.539401	-0.224492	-102.888966
7.500000	-0.257315	-116.341408	-43.233885	27.065895	-43.233885	27.065895	-0.227695	-103.488817
7.550000	-0.261008	-117.019692	-43.096839	25.595017	-43.096839	25.595017	-0.230984	-104.086638
7.600000	-0.264702	-117.697976	-42.961921	24.124139	-42.961921	24.124139	-0.234273	-104.684460
7.650000	-0.268482	-118.375052	-42.827528	22.655662	-42.827528	22.655662	-0.237643	-105.280474
7.700000	-0.272271	-119.052017	-42.695044	21.187403	-42.695044	21.187403	-0.241021	-105.876325
7.750000	-0.276138	-119.727976	-42.563225	19.721314	-42.563225	19.721314	-0.244472	-106.470580
7.800000	-0.280022	-120.403733	-42.433114	18.255659	-42.433114	18.255659	-0.247939	-107.064518
7.850000	-0.283979	-121.078667	-42.303793	16.791938	-42.303793	16.791938	-0.251474	-107.657065
7.900000	-0.287960	-121.753328	-42.175997	15.328862	-42.175997	15.328862	-0.255032	-108.249150
7.950000	-0.292006	-122.427335	-42.049101	13.867483	-42.049101	13.867483	-0.258652	-108.840041
8.000000	-0.296085	-123.101014	-41.923563	12.406953	-41.923563	12.406953	-0.262302	-109.430335
8.050000	-0.300221	-123.774189	-41.799024	10.947882	-41.799024	10.947882	-0.266007	-110.019621
8.100000	-0.304400	-124.447005	-41.675689	9.489854	-41.675689	9.489854	-0.269751	-110.608187
8.150000	-0.308628	-125.119448	-41.553440	8.033050	-41.553440	8.033050	-0.273543	-111.195922
8.200000	-0.312906	-125.791519	-41.432257	6.577470	-41.432257	6.577470	-0.277382	-111.782825
8.250000	-0.317227	-126.463331	-41.312236	5.122884	-41.312236	5.122884	-0.281261	-112.369063
8.300000	-0.321606	-127.134781	-41.193153	3.669690	-41.193153	3.669690	-0.285197	-112.954369
8.350000	-0.326020	-127.806065	-41.075299	2.217266	-41.075299	2.217266	-0.289165	-113.539166
8.400000	-0.330501	-128.477017	-40.958269	0.766383	-40.958269	0.766383	-0.293198	-114.122943
8.450000	-0.335009	-129.147878	-40.842525	-0.683943	-40.842525	-0.683943	-0.297256	-114.706354
8.500000	-0.339592	-129.818462	-40.727504	-2.132600	-40.727504	-2.132600	-0.301387	-115.288670
8.550000	-0.344195	-130.489006	-40.613815	-3.580901	-40.613815	-3.580901	-0.305536	-115.870754
8.600000	-0.348882	-131.159350	-40.500758	-5.027426	-40.500758	-5.027426	-0.309767	-116.451679
8.650000	-0.353580	-131.829687	-40.389073	-6.473782	-40.389073	-6.473782	-0.314008	-117.032494
8.700000	-0.358371	-132.499926	-40.277940	-7.918281	-40.277940	-7.918281	-0.318339	-117.612101
8.750000	-0.363165	-133.170165	-40.168211	-9.362781	-40.168211	-9.362781	-0.322673	-118.191707
8.800000	-0.368061	-133.840434	-40.058963	-10.805372	-40.058963	-10.805372	-0.327106	-118.770067
8.850000	-0.372960	-134.510703	-39.951073	-12.247963	-39.951073	-12.247963	-0.331541	-119.348427
8.900000	-0.377953	-135.181126	-39.843747	-13.688921	-39.843747	-13.688921	-0.336069	-119.925714
8.950000	-0.382957	-135.851564	-39.737663	-15.129731	-39.737663	-15.129731	-0.340607	-120.502903
9.000000	-0.388047	-136.522260	-39.632216	-16.569171	-39.632216	-16.569171	-0.345230	-121.079178
9.050000	-0.393157	-137.193007	-39.527907	-18.008338	-39.527907	-18.008338	-0.349871	-121.655272
9.100000	-0.398345	-137.864096	-39.424300	-19.446382	-39.424300	-19.446382	-0.354590	-122.230601
9.150000	-0.403560	-138.535298	-39.321739	-20.884053	-39.321739	-20.884053	-0.359335	-122.805677
9.200000	-0.408846	-139.206901	-39.219937	-22.320831	-39.219937	-22.320831	-0.364150	-123.380126
9.250000	-0.414167	-139.878705	-39.119099	-23.757163	-39.119099	-23.757163	-0.369001	-123.954262
9.300000	-0.419551	-140.550947	-39.019070	-25.192810	-39.019070	-25.192810	-0.373913	-124.527897
9.350000	-0.424979	-141.223503	-38.919934	-26.627969	-38.919934	-26.627969	-0.378869	-125.101174
9.400000	-0.430460	-141.896512	-38.821647	-28.062628	-38.821647	-28.062628	-0.383879	-125.674063
9.450000	-0.435994	-142.569974	-38.724195	-29.496788	-38.724195	-29.496788	-0.388941	-126.246564
9.500000	-0.441573	-143.243879	-38.627626	-30.930607	-38.627626	-30.930607	-0.394049	-126.818775
9.550000	-0.447213	-143.918403	-38.531845	-32.363949	-38.531845	-32.363949	-0.399218	-127.390583
9.600000	-0.452889	-144.593336	-38.436970	-33.797081	-38.436970	-33.797081	-0.404424	-127.962188
9.650000	-0.458635	-145.269083	-38.342849	-35.229793	-38.342849	-35.229793	-0.409700	-128.533387
9.700000	-0.464409	-145.945178	-38.249649	-36.662395	-38.249649	-36.662395	-0.415004	-129.104457
9.750000	-0.470260	-146.622313	-38.157182	-38.094669	-38.157182	-38.094669	-0.420387	-129.675136
9.800000	-0.476130	-147.299706	-38.065641	-39.526902	-38.065641	-39.526902	-0.425791	-130.245743
9.850000	-0.482085	-147.978395	-37.974826	-40.958934	-37.974826	-40.958934	-0.431281	-130.815989
9.900000	-0.488052	-148.657227	-37.884932	-42.390961	-37.884932	-42.390961	-0.436784	-131.386207
9.950000	-0.494111	-149.337641	-37.795770	-43.822949	-37.795770	-43.822949	-0.442382	-131.956112
10.000000	-0.500174	-150.018054	-37.707515	-45.254936	-37.707515	-45.254936	-0.447984	-132.526017
