! freq	dB(S11)	phase(S11)	dB(S12)	phase(S12)	
!     	dB(S21)	phase(S21)	dB(S22)	phase(S22)	
!S-par simulation data
#  GHz  S  DB  R 50
0.000000	0.000000	-0.000000	-281.334024	180.000000	-281.334024	180.000000	-0.000000	-0.000000
0.050000	-0.007284	-2.288610	-77.615968	87.808494	-77.615968	87.808494	-0.003780	-2.072139
0.100000	-0.010885	-4.526669	-71.609679	85.653951	-71.609679	85.653951	-0.007938	-4.109893
0.150000	-0.012549	-6.766512	-68.106239	83.525355	-68.106239	83.525355	-0.010336	-6.140524
0.200000	-0.013939	-9.007423	-65.628183	81.407248	-65.628183	81.407248	-0.012074	-8.171506
0.250000	-0.015403	-11.247423	-63.714653	79.294989	-63.714653	79.294989	-0.013639	-10.203317
0.300000	-0.017029	-13.485311	-62.159478	77.187655	-62.159478	77.187655	-0.015228	-12.235534
0.350000	-0.018860	-15.719838	-60.854375	75.086599	-60.854375	75.086599	-0.016935	-14.267734
0.400000	-0.020876	-17.950477	-59.732786	72.992703	-59.732786	72.992703	-0.018778	-16.299620
0.450000	-0.023065	-20.176626	-58.752472	70.907286	-58.752472	70.907286	-0.020763	-18.331002
0.500000	-0.025415	-22.397498	-57.885218	68.832161	-57.885218	68.832161	-0.022891	-20.361717
0.550000	-0.027901	-24.612756	-57.109912	66.768353	-57.109912	66.768353	-0.025147	-22.391702
0.600000	-0.030501	-26.822031	-56.411146	64.716990	-56.411146	64.716990	-0.027517	-24.420920
0.650000	-0.033196	-29.024729	-55.777733	62.679737	-55.777733	62.679737	-0.029989	-26.449331
0.700000	-0.035966	-31.220462	-55.200623	60.657903	-55.200623	60.657903	-0.032550	-28.476945
0.750000	-0.038791	-33.409088	-54.672239	58.652291	-54.672239	58.652291	-0.035184	-30.503815
0.800000	-0.041653	-35.590209	-54.186942	56.664327	-54.186942	56.664327	-0.037877	-32.529979
0.850000	-0.044538	-37.763271	-53.740395	54.695913	-53.740395	54.695913	-0.040620	-34.555482
0.900000	-0.047432	-39.928364	-53.328015	52.747434	-53.328015	52.747434	-0.043400	-36.580432
0.950000	-0.050321	-42.085254	-52.946463	50.820087	-52.946463	50.820087	-0.046206	-38.604918
1.000000	-0.053195	-44.233268	-52.593543	48.916329	-52.593543	48.916329	-0.049030	-40.629022
1.050000	-0.056046	-46.372614	-52.266175	47.036330	-52.266175	47.036330	-0.051866	-42.652876
1.100000	-0.058867	-48.503153	-51.962170	45.181194	-51.962170	45.181194	-0.054705	-44.676595
1.150000	-0.061650	-50.624389	-51.680071	43.353131	-51.680071	43.353131	-0.057543	-46.700308
1.200000	-0.064392	-52.736306	-51.418020	41.553038	-51.418020	41.553038	-0.060376	-48.724151
1.250000	-0.067090	-54.838967	-51.174285	39.781568	-51.174285	39.781568	-0.063200	-50.748261
1.300000	-0.069740	-56.932066	-50.947738	38.040551	-50.947738	38.040551	-0.066013	-52.772789
1.350000	-0.072341	-59.015322	-50.737328	36.331855	-50.737328	36.331855	-0.068812	-54.797903
1.400000	-0.074893	-61.089007	-50.541536	34.655534	-50.541536	34.655534	-0.071597	-56.823738
1.450000	-0.077397	-63.153016	-50.359363	33.012889	-50.359363	33.012889	-0.074369	-58.850454
1.500000	-0.079850	-65.206781	-50.190300	31.406977	-50.190300	31.406977	-0.077125	-60.878279
1.550000	-0.082256	-67.250786	-50.032924	29.837087	-50.032924	29.837087	-0.079867	-62.907329
1.600000	-0.084616	-69.284998	-49.886383	28.304341	-49.886383	28.304341	-0.082597	-64.937778
1.650000	-0.086930	-71.308956	-49.750183	26.811570	-49.750183	26.811570	-0.085316	-66.969883
1.700000	-0.089202	-73.322915	-49.623297	25.358856	-49.623297	25.358856	-0.088024	-69.003801
1.750000	-0.091434	-75.327039	-49.504834	23.946527	-49.504834	23.946527	-0.090724	-71.039696
1.800000	-0.093629	-77.321201	-49.394131	22.576085	-49.394131	22.576085	-0.093418	-73.077799
1.850000	-0.095787	-79.305430	-49.290433	21.248351	-49.290433	21.248351	-0.096108	-75.118323
1.900000	-0.097913	-81.279661	-49.193041	19.964505	-49.193041	19.964505	-0.098796	-77.161518
1.950000	-0.100008	-83.243949	-49.101188	18.725117	-49.101188	18.725117	-0.101485	-79.207617
2.000000	-0.102075	-85.198470	-49.014076	17.530093	-49.014076	17.530093	-0.104177	-81.256826
2.050000	-0.104118	-87.143301	-48.930962	16.379615	-48.930962	16.379615	-0.106875	-83.309386
2.100000	-0.106138	-89.078534	-48.851105	15.273648	-48.851105	15.273648	-0.109581	-85.365545
2.150000	-0.108138	-91.004269	-48.773760	14.211907	-48.773760	14.211907	-0.112298	-87.425560
2.200000	-0.110121	-92.920619	-48.698186	13.193833	-48.698186	13.193833	-0.115028	-89.489694
2.250000	-0.112089	-94.827706	-48.623645	12.218564	-48.623645	12.218564	-0.117774	-91.558220
2.300000	-0.114045	-96.725665	-48.549405	11.284916	-48.549405	11.284916	-0.120538	-93.631417
2.350000	-0.115991	-98.614639	-48.474745	10.391353	-48.474745	10.391353	-0.123322	-95.709574
2.400000	-0.117929	-100.494780	-48.398958	9.535977	-48.398958	9.535977	-0.126130	-97.792987
2.450000	-0.119861	-102.366252	-48.321359	8.716509	-48.321359	8.716509	-0.128963	-99.881960
2.500000	-0.121791	-104.229226	-48.241292	7.930288	-48.241292	7.930288	-0.131824	-101.976806
2.550000	-0.123718	-106.083705	-48.158035	7.174846	-48.158035	7.174846	-0.134716	-104.077987
2.600000	-0.125647	-107.930064	-48.071079	6.446012	-48.071079	6.446012	-0.137639	-106.185706
2.650000	-0.127579	-109.768501	-47.979898	5.739991	-47.979898	5.739991	-0.140598	-108.300300
2.700000	-0.129515	-111.599219	-47.884021	5.052662	-47.884021	5.052662	-0.143592	-110.422113
2.750000	-0.131457	-113.422431	-47.783046	4.379622	-47.783046	4.379622	-0.146626	-112.551498
2.800000	-0.133407	-115.238358	-47.676636	3.716230	-47.676636	3.716230	-0.149699	-114.688816
2.850000	-0.135367	-117.047224	-47.564532	3.057662	-47.564532	3.057662	-0.152815	-116.834435
2.900000	-0.137339	-118.849264	-47.446554	2.398971	-47.446554	2.398971	-0.155975	-118.988727
2.950000	-0.139323	-120.644715	-47.322602	1.735156	-47.322602	1.735156	-0.159180	-121.152076
3.000000	-0.141322	-122.433823	-47.192654	1.061219	-47.192654	1.061219	-0.162433	-123.324868
3.050000	-0.143336	-124.216839	-47.056769	0.372241	-47.056769	0.372241	-0.165734	-125.507496
3.100000	-0.145367	-125.994019	-46.915083	-0.336563	-46.915083	-0.336563	-0.169085	-127.700361
3.150000	-0.147417	-127.765567	-46.767714	-1.070096	-46.767714	-1.070096	-0.172487	-129.903987
3.200000	-0.149487	-129.531757	-46.614938	-1.832837	-46.614938	-1.832837	-0.175943	-132.118796
3.250000	-0.151577	-131.292923	-46.457175	-2.628549	-46.457175	-2.628549	-0.179452	-134.345085
3.300000	-0.153689	-133.049341	-46.294807	-3.460931	-46.294807	-3.460931	-0.183016	-136.583271
3.350000	-0.155825	-134.801289	-46.128259	-4.333333	-46.128259	-4.333333	-0.186634	-138.833773
3.400000	-0.157984	-136.549054	-45.957988	-5.248736	-45.957988	-5.248736	-0.190308	-141.097010
3.450000	-0.160169	-138.292924	-45.784477	-6.209752	-45.784477	-6.209752	-0.194038	-143.373403
3.500000	-0.162379	-140.033191	-45.608225	-7.218619	-45.608225	-7.218619	-0.197825	-145.663374
3.550000	-0.164617	-141.770150	-45.429743	-8.277218	-45.429743	-8.277218	-0.201667	-147.967341
3.600000	-0.166882	-143.504103	-45.249544	-9.387084	-45.249544	-9.387084	-0.205567	-150.285723
3.650000	-0.169176	-145.235351	-45.068137	-10.549426	-45.068137	-10.549426	-0.209522	-152.618933
3.700000	-0.171500	-146.964202	-44.886027	-11.765155	-44.886027	-11.765155	-0.213533	-154.967379
3.750000	-0.173853	-148.690964	-44.703706	-13.034904	-44.703706	-13.034904	-0.217600	-157.331466
3.800000	-0.176238	-150.415919	-44.521582	-14.360248	-44.521582	-14.360248	-0.221722	-159.711946
3.850000	-0.178655	-152.139429	-44.340205	-15.740165	-44.340205	-15.740165	-0.225897	-162.108864
3.900000	-0.181104	-153.861811	-44.160014	-17.174620	-44.160014	-17.174620	-0.230124	-164.522594
3.950000	-0.183586	-155.583388	-43.981429	-18.663415	-43.981429	-18.663415	-0.234401	-166.953498
4.000000	-0.186101	-157.304483	-43.804847	-20.206217	-43.804847	-20.206217	-0.238727	-169.401922
4.050000	-0.188651	-159.025424	-43.630646	-21.802577	-43.630646	-21.802577	-0.243099	-171.868196
4.100000	-0.191235	-160.746539	-43.459182	-23.451956	-43.459182	-23.451956	-0.247515	-174.352632
4.150000	-0.193854	-162.468162	-43.290789	-25.153743	-43.290789	-25.153743	-0.251973	-176.855518
4.200000	-0.196508	-164.190625	-43.125783	-26.907274	-43.125783	-26.907274	-0.256469	-179.377123
4.250000	-0.199198	-165.914266	-42.964461	-28.711844	-42.964461	-28.711844	-0.261000	178.082313
4.300000	-0.201924	-167.639423	-42.807101	-30.566728	-42.807101	-30.566728	-0.265564	175.522577
4.350000	-0.204687	-169.366439	-42.653965	-32.471184	-42.653965	-32.471184	-0.270155	172.943486
4.400000	-0.207488	-171.095684	-42.505323	-34.424995	-42.505323	-34.424995	-0.274771	170.344677
4.450000	-0.210326	-172.827517	-42.361422	-36.427402	-42.361422	-36.427402	-0.279406	167.726035
4.500000	-0.213201	-174.562260	-42.222459	-38.477157	-42.222459	-38.477157	-0.284056	165.087698
4.550000	-0.216114	-176.300265	-42.088641	-40.573564	-42.088641	-40.573564	-0.288716	162.429635
4.600000	-0.219065	-178.041882	-41.960162	-42.715956	-41.960162	-42.715956	-0.293380	159.751860
4.650000	-0.222054	-179.787467	-41.837209	-44.903697	-41.837209	-44.903697	-0.298043	157.054430
4.700000	-0.225081	178.462626	-41.719956	-47.136187	-41.719956	-47.136187	-0.302699	154.337454
4.750000	-0.228146	176.708038	-41.608573	-49.412864	-41.608573	-49.412864	-0.307343	151.601090
4.800000	-0.231250	174.948412	-41.503218	-51.733209	-41.503218	-51.733209	-0.311967	148.845553
4.850000	-0.234392	173.183385	-41.404047	-54.096746	-41.404047	-54.096746	-0.316566	146.071111
4.900000	-0.237572	171.412596	-41.311205	-56.503045	-41.311205	-56.503045	-0.321133	143.278090
4.950000	-0.240791	169.635681	-41.224833	-58.951726	-41.224833	-58.951726	-0.325661	140.466878
5.000000	-0.244048	167.852275	-41.145067	-61.442458	-41.145067	-61.442458	-0.330144	137.637922
5.050000	-0.247345	166.061855	-41.072173	-63.975865	-41.072173	-63.975865	-0.334573	134.791370
5.100000	-0.250679	164.264195	-41.006148	-66.550812	-41.006148	-66.550812	-0.338942	131.928188
5.150000	-0.254052	162.458926	-40.947108	-69.167138	-40.947108	-69.167138	-0.343246	129.049018
5.200000	-0.257462	160.645681	-40.895165	-71.824738	-40.895165	-71.824738	-0.347477	126.154567
5.250000	-0.260910	158.824091	-40.850425	-74.523573	-40.850425	-74.523573	-0.351629	123.245606
5.300000	-0.264395	156.993787	-40.812984	-77.263667	-40.812984	-77.263667	-0.355696	120.322970
5.350000	-0.267918	155.154399	-40.782934	-80.045119	-40.782934	-80.045119	-0.359671	117.387555
5.400000	-0.271478	153.305559	-40.760357	-82.868096	-40.760357	-82.868096	-0.363549	114.440320
5.450000	-0.275074	151.446899	-40.745328	-85.732850	-40.745328	-85.732850	-0.367326	111.482282
5.500000	-0.278707	149.578052	-40.737911	-88.639714	-40.737911	-88.639714	-0.370995	108.514515
5.550000	-0.282376	147.698652	-40.738157	-91.589112	-40.738157	-91.589112	-0.374553	105.538146
5.600000	-0.286081	145.808335	-40.746106	-94.581565	-40.746106	-94.581565	-0.377997	102.554351
5.650000	-0.289821	143.906610	-40.761869	-97.618180	-40.761869	-97.618180	-0.381321	99.564302
5.700000	-0.293597	141.993106	-40.785451	-100.699722	-40.785451	-100.699722	-0.384523	96.569308
5.750000	-0.297408	140.067589	-40.816758	-103.826577	-40.816758	-103.826577	-0.387602	93.570742
5.800000	-0.301253	138.129705	-40.855756	-106.999732	-40.855756	-106.999732	-0.390559	90.569939
5.850000	-0.305132	136.179104	-40.902390	-110.220307	-40.902390	-110.220307	-0.393391	87.568264
5.900000	-0.309045	134.215440	-40.956575	-113.489561	-40.956575	-113.489561	-0.396101	84.567098
5.950000	-0.312991	132.238374	-41.018197	-116.808900	-41.018197	-116.808900	-0.398688	81.567841
6.000000	-0.316971	130.247569	-41.087109	-120.179880	-41.087109	-120.179880	-0.401156	78.571898
6.050000	-0.320983	128.242698	-41.163122	-123.604210	-41.163122	-123.604210	-0.403506	75.580679
6.100000	-0.325027	126.223439	-41.246006	-127.083751	-41.246006	-127.083751	-0.405742	72.595588
6.150000	-0.329104	124.189479	-41.335481	-130.620515	-41.335481	-130.620515	-0.407869	69.618023
6.200000	-0.333213	122.140511	-41.431210	-134.216657	-41.431210	-134.216657	-0.409892	66.649361
6.250000	-0.337354	120.076239	-41.532799	-137.874462	-41.532799	-137.874462	-0.411816	63.690962
6.300000	-0.341527	117.996033	-41.639855	-141.597771	-41.639855	-141.597771	-0.413645	60.744438
6.350000	-0.345733	115.899951	-41.751731	-145.387724	-41.751731	-145.387724	-0.415389	57.810862
6.400000	-0.349970	113.787731	-41.867796	-149.246833	-41.867796	-149.246833	-0.417055	54.891492
6.450000	-0.354239	111.659123	-41.987329	-153.177598	-41.987329	-153.177598	-0.418650	51.987541
6.500000	-0.358541	109.513892	-42.109512	-157.182432	-42.109512	-157.182432	-0.420184	49.100178
6.550000	-0.362875	107.351819	-42.233421	-161.263584	-42.233421	-161.263584	-0.421665	46.230517
6.600000	-0.367243	105.172700	-42.358023	-165.423035	-42.358023	-165.423035	-0.423102	43.379622
6.650000	-0.371644	102.976347	-42.482171	-169.662383	-42.482171	-169.662383	-0.424503	40.548498
6.700000	-0.376080	100.762593	-42.604604	-173.982704	-42.604604	-173.982704	-0.425879	37.738088
6.750000	-0.380551	98.531288	-42.723953	-178.384405	-42.723953	-178.384405	-0.427239	34.949276
6.800000	-0.385059	96.282303	-42.838747	177.132947	-42.838747	177.132947	-0.428593	32.182884
6.850000	-0.389604	94.015532	-42.947425	172.570786	-42.947425	172.570786	-0.429949	29.439668
6.900000	-0.394188	91.730694	-43.048248	167.930930	-43.048248	167.930930	-0.431319	26.720584
6.950000	-0.398814	89.427729	-43.139501	163.217503	-43.139501	163.217503	-0.432711	24.026281
7.000000	-0.403482	87.106797	-43.219616	158.436839	-43.219616	158.436839	-0.434135	21.357055
7.050000	-0.408194	84.767890	-43.286968	153.595977	-43.286968	153.595977	-0.435600	18.713401
7.100000	-0.412953	82.411029	-43.340020	148.703515	-43.340020	148.703515	-0.437114	16.095749
7.150000	-0.417762	80.036260	-43.377377	143.769551	-43.377377	143.769551	-0.438688	13.504468
7.200000	-0.422622	77.643662	-43.397829	138.805554	-43.397829	138.805554	-0.440328	10.939867
7.250000	-0.427537	75.233340	-43.400402	133.824143	-43.400402	133.824143	-0.442044	8.402198
7.300000	-0.432510	72.805432	-43.384397	128.838797	-43.384397	128.838797	-0.443843	5.891654
7.350000	-0.437545	70.360108	-43.349413	123.863500	-43.349413	123.863500	-0.445733	3.408376
7.400000	-0.442645	67.897569	-43.295362	118.912354	-43.295362	118.912354	-0.447722	0.952451
7.450000	-0.447815	65.418049	-43.222472	113.999175	-43.222472	113.999175	-0.449815	-1.476082
7.500000	-0.453058	62.921814	-43.131261	109.137106	-43.131261	109.137106	-0.452021	-3.877231
7.550000	-0.458381	60.408816	-43.022126	104.339908	-43.022126	104.339908	-0.454348	-6.250457
7.600000	-0.463788	57.879755	-42.896505	99.617213	-42.896505	99.617213	-0.456800	-8.596454
7.650000	-0.469284	55.334999	-42.755601	94.978262	-42.755601	94.978262	-0.459382	-10.915358
7.700000	-0.474873	52.774952	-42.600741	90.430689	-42.600741	90.430689	-0.462101	-13.207344
7.750000	-0.480562	50.200048	-42.433329	85.980492	-42.433329	85.980492	-0.464961	-15.472619
7.800000	-0.486356	47.610756	-42.254802	81.632081	-42.254802	81.632081	-0.467968	-17.711423
7.850000	-0.492261	45.007573	-42.066589	77.388363	-42.066589	77.388363	-0.471126	-19.924024
7.900000	-0.498285	42.391031	-41.870077	73.250888	-41.870077	73.250888	-0.474440	-22.110719
7.950000	-0.504432	39.761688	-41.666587	69.219998	-41.666587	69.219998	-0.477915	-24.271828
8.000000	-0.510710	37.120132	-41.457356	65.295006	-41.457356	65.295006	-0.481555	-26.407693
8.050000	-0.517125	34.466977	-41.243523	61.474363	-41.243523	61.474363	-0.485363	-28.518679
8.100000	-0.523684	31.802864	-41.026121	57.755823	-41.026121	57.755823	-0.489344	-30.605167
8.150000	-0.530396	29.128349	-40.805999	54.137638	-40.805999	54.137638	-0.493504	-32.667299
8.200000	-0.537268	26.444143	-40.584003	50.616488	-40.584003	50.616488	-0.497846	-34.705504
8.250000	-0.544304	23.751061	-40.360941	47.187784	-40.360941	47.187784	-0.502371	-36.720470
8.300000	-0.551513	21.049827	-40.137439	43.847832	-40.137439	43.847832	-0.507085	-38.712637
8.350000	-0.558899	18.341174	-39.914034	40.592834	-39.914034	40.592834	-0.511989	-40.682454
8.400000	-0.566472	15.625852	-39.691184	37.418952	-39.691184	37.418952	-0.517088	-42.630379
8.450000	-0.574236	12.904616	-39.469276	34.322363	-39.469276	34.322363	-0.522384	-44.556878
8.500000	-0.582198	10.178231	-39.248631	31.299296	-39.248631	31.299296	-0.527882	-46.462423
8.550000	-0.590364	7.447464	-39.029515	28.346062	-39.029515	28.346062	-0.533585	-48.347490
8.600000	-0.598740	4.713082	-38.812141	25.459081	-38.812141	25.459081	-0.539496	-50.212561
8.650000	-0.607331	1.975850	-38.596681	22.634890	-38.596681	22.634890	-0.545619	-52.058121
8.700000	-0.616144	-0.763469	-38.383267	19.870160	-38.383267	19.870160	-0.551957	-53.884657
8.750000	-0.625182	-3.504124	-38.171999	17.161697	-38.171999	17.161697	-0.558515	-55.692659
8.800000	-0.634455	-6.245367	-37.962891	14.507536	-37.962891	14.507536	-0.565301	-57.482237
8.850000	-0.643962	-8.986441	-37.756053	11.903544	-37.756053	11.903544	-0.572313	-59.254285
8.900000	-0.653707	-11.726633	-37.551512	9.346949	-37.551512	9.346949	-0.579557	-61.009294
8.950000	-0.663692	-14.465251	-37.349277	6.835112	-37.349277	6.835112	-0.587036	-62.747755
9.000000	-0.673921	-17.201621	-37.149342	4.365518	-37.149342	4.365518	-0.594755	-64.470159
9.050000	-0.684396	-19.935096	-36.951691	1.935774	-36.951691	1.935774	-0.602718	-66.176995
9.100000	-0.695117	-22.665052	-36.756295	-0.456400	-36.756295	-0.456400	-0.610930	-67.868750
9.150000	-0.706087	-25.390893	-36.563122	-2.813172	-36.563122	-2.813172	-0.619397	-69.545912
9.200000	-0.717304	-28.112054	-36.372129	-5.136612	-36.372129	-5.136612	-0.628122	-71.208964
9.250000	-0.728770	-30.827998	-36.183272	-7.428692	-36.183272	-7.428692	-0.637112	-72.858388
9.300000	-0.740483	-33.538225	-35.996501	-9.691293	-35.996501	-9.691293	-0.646372	-74.494666
9.350000	-0.752441	-36.242264	-35.811764	-11.926214	-35.811764	-11.926214	-0.655909	-76.118274
9.400000	-0.764646	-38.939605	-35.628989	-14.134912	-35.628989	-14.134912	-0.665731	-77.729564
9.450000	-0.777095	-41.629840	-35.448122	-16.319088	-35.448122	-16.319088	-0.675844	-79.329023
9.500000	-0.789781	-44.312680	-35.269128	-18.480599	-35.269128	-18.480599	-0.686254	-80.917257
9.550000	-0.802701	-46.987805	-35.091956	-20.620959	-35.091956	-20.620959	-0.696967	-82.494734
9.600000	-0.815851	-49.654930	-34.916551	-22.741623	-34.916551	-22.741623	-0.707991	-84.061923
9.650000	-0.829225	-52.313810	-34.742863	-24.843992	-34.742863	-24.843992	-0.719333	-85.619288
9.700000	-0.842818	-54.964237	-34.570843	-26.929418	-34.570843	-26.929418	-0.731002	-87.167292
9.750000	-0.856622	-57.606039	-34.400443	-28.999208	-34.400443	-28.999208	-0.743007	-88.706399
9.800000	-0.870632	-60.239083	-34.231621	-31.054624	-34.231621	-31.054624	-0.755356	-90.237068
9.850000	-0.884840	-62.863272	-34.064333	-33.096893	-34.064333	-33.096893	-0.768059	-91.759758
9.900000	-0.899237	-65.478548	-33.898544	-35.127200	-33.898544	-35.127200	-0.781126	-93.274927
9.950000	-0.913815	-68.084884	-33.734217	-37.146700	-33.734217	-37.146700	-0.794567	-94.783032
10.000000	-0.928564	-70.682293	-33.571322	-39.156515	-33.571322	-39.156515	-0.808394	-96.284528
