! freq	dB(S11)	phase(S11)	dB(S12)	phase(S12)	
!     	dB(S21)	phase(S21)	dB(S22)	phase(S22)	
!S-par simulation data
#  GHz  S  DB  R 50
0.000000	-0.000000	0.000000	-365.699413	0.000000	-365.699413	0.000000	-0.000000	0.000000
0.050000	-0.000106	-0.761374	-114.004972	138.911467	-114.004972	138.911467	-0.000105	-0.761364
0.100000	-0.000417	-1.522471	-110.889422	120.798620	-110.889422	120.798620	-0.000415	-1.522456
0.150000	-0.000924	-2.283023	-108.286886	111.133187	-108.286886	111.133187	-0.000920	-2.283006
0.200000	-0.001591	-3.042877	-106.255076	105.212673	-106.255076	105.212673	-0.001584	-3.042863
0.250000	-0.002396	-3.801867	-104.652940	101.284941	-104.652940	101.284941	-0.002388	-3.801862
0.300000	-0.003323	-4.559797	-103.383606	98.578773	-103.383606	98.578773	-0.003312	-4.559807
0.350000	-0.004326	-5.316789	-102.360732	96.529666	-102.360732	96.529666	-0.004313	-5.316817
0.400000	-0.005392	-6.072688	-101.551871	95.055031	-101.551871	95.055031	-0.005378	-6.072736
0.450000	-0.006496	-6.827606	-100.916613	94.007958	-100.916613	94.007958	-0.006481	-6.827676
0.500000	-0.007621	-7.581537	-100.439424	93.374803	-100.439424	93.374803	-0.007607	-7.581628
0.550000	-0.008756	-8.334536	-100.106416	93.161195	-100.106416	93.161195	-0.008743	-8.334647
0.600000	-0.009891	-9.086651	-99.909593	93.414851	-99.909593	93.414851	-0.009879	-9.086780
0.650000	-0.011019	-9.837930	-99.844222	94.224853	-99.844222	94.224853	-0.011008	-9.838075
0.700000	-0.012136	-10.588414	-99.906887	95.731475	-99.906887	95.731475	-0.012126	-10.588572
0.750000	-0.013240	-11.338138	-100.092421	98.142526	-100.092421	98.142526	-0.013232	-11.338307
0.800000	-0.014330	-12.087130	-100.388144	101.753664	-100.388144	101.753664	-0.014323	-12.087308
0.850000	-0.015403	-12.835290	-100.748208	107.372745	-100.748208	107.372745	-0.015397	-12.835475
0.900000	-0.016461	-13.582722	-101.113013	115.145349	-101.113013	115.145349	-0.016457	-13.582913
0.950000	-0.017514	-14.329796	-101.348505	124.057721	-101.348505	124.057721	-0.017510	-14.329992
1.000000	-0.018547	-15.075795	-101.157045	136.389397	-101.157045	136.389397	-0.018544	-15.075994
1.050000	-0.019576	-15.821553	-100.768005	148.618250	-100.768005	148.618250	-0.019575	-15.821756
1.100000	-0.020588	-16.566111	-99.489514	160.332993	-99.489514	160.332993	-0.020588	-16.566316
1.150000	-0.021599	-17.310546	-98.295768	171.652112	-98.295768	171.652112	-0.021599	-17.310753
1.200000	-0.022596	-18.053628	-96.507180	178.619369	-96.507180	178.619369	-0.022596	-18.053838
1.250000	-0.023592	-18.796711	-95.024748	-174.413375	-95.024748	-174.413375	-0.023592	-18.796923
1.300000	-0.024579	-19.538657	-93.401047	-170.351359	-93.401047	-170.351359	-0.024579	-19.538871
1.350000	-0.025560	-20.279858	-91.860096	-167.526055	-91.860096	-167.526055	-0.025561	-20.280076
1.400000	-0.026538	-21.020301	-90.409583	-165.613268	-90.409583	-165.613268	-0.026538	-21.020522
1.450000	-0.027511	-21.759970	-89.047114	-164.378842	-89.047114	-164.378842	-0.027512	-21.760195
1.500000	-0.028482	-22.498852	-87.766362	-163.655476	-87.766362	-163.655476	-0.028482	-22.499081
1.550000	-0.029449	-23.236930	-86.559898	-163.323121	-86.559898	-163.323121	-0.029449	-23.237163
1.600000	-0.030414	-23.974189	-85.420405	-163.294656	-85.420405	-163.294656	-0.030414	-23.974427
1.650000	-0.031377	-24.710614	-84.341156	-163.505950	-84.341156	-163.505950	-0.031377	-24.710857
1.700000	-0.032338	-25.445887	-83.293030	-163.958983	-83.293030	-163.958983	-0.032338	-25.446135
1.750000	-0.033299	-26.180711	-82.327221	-164.498852	-82.327221	-164.498852	-0.033298	-26.180965
1.800000	-0.034258	-26.914455	-81.391597	-165.183166	-81.391597	-165.183166	-0.034257	-26.914715
1.850000	-0.035217	-27.647428	-80.504173	-165.970655	-80.504173	-165.970655	-0.035216	-27.647694
1.900000	-0.036176	-28.379443	-79.650524	-166.843219	-79.650524	-166.843219	-0.036175	-28.379715
1.950000	-0.037134	-29.110499	-78.829162	-167.800860	-78.829162	-167.800860	-0.037133	-29.110778
2.000000	-0.038093	-29.840730	-78.043866	-168.809053	-78.043866	-168.809053	-0.038092	-29.841015
2.050000	-0.039053	-30.569805	-77.278906	-169.888020	-77.278906	-169.888020	-0.039051	-30.570096
2.100000	-0.040013	-31.298198	-76.551479	-170.996708	-76.551479	-170.996708	-0.040011	-31.298496
2.150000	-0.040975	-32.025227	-75.835270	-172.164837	-75.835270	-172.164837	-0.040973	-32.025532
2.200000	-0.041937	-32.751730	-75.157496	-173.349758	-75.157496	-173.349758	-0.041935	-32.752042
2.250000	-0.042903	-33.476653	-74.483896	-174.585058	-74.483896	-174.585058	-0.042901	-33.476971
2.300000	-0.043869	-34.201215	-73.849227	-175.828967	-73.849227	-175.828967	-0.043867	-34.201540
2.350000	-0.044840	-34.923970	-73.213234	-177.115922	-73.213234	-177.115922	-0.044838	-34.924302
2.400000	-0.045811	-35.646541	-72.616368	-178.406245	-72.616368	-178.406245	-0.045809	-35.646879
2.450000	-0.046787	-36.367071	-72.013855	-179.733613	-72.013855	-179.733613	-0.046786	-36.367416
2.500000	-0.047764	-37.087602	-71.450438	178.939018	-71.450438	178.939018	-0.047763	-37.087953
2.550000	-0.048749	-37.805851	-70.877957	177.579572	-70.877957	177.579572	-0.048747	-37.806209
2.600000	-0.049734	-38.524100	-70.340886	176.220125	-70.340886	176.220125	-0.049732	-38.524464
2.650000	-0.050727	-39.240209	-69.799010	174.837052	-69.799010	174.837052	-0.050726	-39.240579
2.700000	-0.051722	-39.956122	-69.285877	173.451830	-69.285877	173.451830	-0.051720	-39.956499
2.750000	-0.052725	-40.670046	-68.771487	172.049170	-68.771487	172.049170	-0.052723	-40.670429
2.800000	-0.053730	-41.383572	-68.280222	170.643022	-68.280222	170.643022	-0.053729	-41.383961
2.850000	-0.054745	-42.095271	-67.790663	169.224019	-67.790663	169.224019	-0.054743	-42.095665
2.900000	-0.055762	-42.806360	-67.319472	167.800732	-67.319472	167.800732	-0.055761	-42.806759
2.950000	-0.056789	-43.515792	-66.852470	166.368016	-66.852470	166.368016	-0.056788	-43.516198
3.000000	-0.057820	-44.224396	-66.399784	164.930586	-66.399784	164.930586	-0.057819	-44.224807
3.050000	-0.058861	-44.931525	-65.953371	163.486305	-65.953371	163.486305	-0.058860	-44.931942
3.100000	-0.059908	-45.637600	-65.517812	162.037132	-65.517812	162.037132	-0.059907	-45.638022
3.150000	-0.060964	-46.342389	-65.090275	160.583058	-65.090275	160.583058	-0.060963	-46.342816
3.200000	-0.062028	-47.045892	-64.670623	159.124084	-64.670623	159.124084	-0.062027	-47.046324
3.250000	-0.063100	-47.748306	-64.260463	157.661687	-64.260463	157.661687	-0.063099	-47.748744
3.300000	-0.064183	-48.449198	-63.855633	156.194499	-63.855633	156.194499	-0.064182	-48.449640
3.350000	-0.065272	-49.149206	-63.461526	154.725008	-63.461526	154.725008	-0.065272	-49.149654
3.400000	-0.066375	-49.847449	-63.070549	153.250914	-63.070549	153.250914	-0.066375	-49.847901
3.450000	-0.067484	-50.545021	-62.691323	151.775365	-62.691323	151.775365	-0.067483	-50.545478
3.500000	-0.068609	-51.240580	-62.313329	150.295451	-62.313329	150.295451	-0.068608	-51.241042
3.550000	-0.069738	-51.935687	-61.947940	148.814720	-61.947940	148.814720	-0.069737	-51.936154
3.600000	-0.070886	-52.628532	-61.582144	147.329900	-61.582144	147.329900	-0.070886	-52.629004
3.650000	-0.072037	-53.321149	-61.229659	145.844735	-61.229659	145.844735	-0.072036	-53.321625
3.700000	-0.073210	-54.011250	-60.875352	144.355777	-60.875352	144.355777	-0.073209	-54.011732
3.750000	-0.074383	-54.701352	-60.534932	142.866819	-60.534932	142.866819	-0.074383	-54.701838
3.800000	-0.075583	-55.388685	-60.191470	141.374379	-60.191470	141.374379	-0.075583	-55.389175
3.850000	-0.076783	-56.076017	-59.861073	139.881940	-59.861073	139.881940	-0.076783	-56.076512
3.900000	-0.078009	-56.760790	-59.529155	138.386824	-59.529155	138.386824	-0.078009	-56.761289
3.950000	-0.079237	-57.445330	-59.208262	136.891465	-59.208262	136.891465	-0.079237	-57.445834
4.000000	-0.080490	-58.127526	-58.887189	135.394080	-58.887189	135.394080	-0.080490	-58.128035
4.050000	-0.081748	-58.809253	-58.575322	133.896289	-58.575322	133.896289	-0.081748	-58.809766
4.100000	-0.083030	-59.488858	-58.264459	132.396994	-58.264459	132.396994	-0.083029	-59.489376
4.150000	-0.084319	-60.167756	-57.961182	130.897197	-57.961182	130.897197	-0.084319	-60.168278
4.200000	-0.085630	-60.844757	-57.659950	129.396312	-57.659950	129.396312	-0.085630	-60.845283
4.250000	-0.086953	-61.520810	-57.364859	127.894883	-57.364859	127.894883	-0.086952	-61.521340
4.300000	-0.088295	-62.195196	-57.072731	126.392698	-57.072731	126.392698	-0.088295	-62.195731
4.350000	-0.089652	-62.868393	-56.785455	124.889972	-56.785455	124.889972	-0.089652	-62.868932
4.400000	-0.091027	-63.540157	-56.501946	123.386748	-56.501946	123.386748	-0.091027	-63.540701
4.450000	-0.092421	-64.210488	-56.222141	121.883025	-56.222141	121.883025	-0.092420	-64.211036
4.500000	-0.093830	-64.879622	-55.946808	120.379000	-55.946808	120.379000	-0.093829	-64.880175
4.550000	-0.095261	-65.547082	-55.674155	118.874552	-55.674155	118.874552	-0.095260	-65.547639
4.600000	-0.096705	-66.213583	-55.406589	117.369946	-55.406589	117.369946	-0.096704	-66.214145
4.650000	-0.098175	-66.878168	-55.140790	115.865023	-55.140790	115.865023	-0.098174	-66.878734
4.700000	-0.099656	-67.542034	-54.880614	114.360040	-54.880614	114.360040	-0.099655	-67.542604
4.750000	-0.101168	-68.203743	-54.621393	112.854874	-54.621393	112.854874	-0.101167	-68.204317
4.800000	-0.102687	-68.864973	-54.368258	111.349704	-54.368258	111.349704	-0.102686	-68.865551
4.850000	-0.104241	-69.523808	-54.115359	109.844511	-54.115359	109.844511	-0.104240	-69.524390
4.900000	-0.105800	-70.182403	-53.868941	108.339332	-53.868941	108.339332	-0.105799	-70.182990
4.950000	-0.107399	-70.838369	-53.622120	106.834316	-53.622120	106.834316	-0.107397	-70.838959
5.000000	-0.108998	-71.494334	-53.382119	105.329299	-53.382119	105.329299	-0.108997	-71.494929
5.050000	-0.110643	-72.147437	-53.141151	103.824652	-53.141151	103.824652	-0.110642	-72.148036
5.100000	-0.112288	-72.800540	-52.906687	102.320005	-52.906687	102.320005	-0.112287	-72.801143
5.150000	-0.113977	-73.451027	-52.671957	100.815865	-52.671957	100.815865	-0.113976	-73.451634
5.200000	-0.115670	-74.101277	-52.442836	99.311771	-52.442836	99.311771	-0.115669	-74.101888
5.250000	-0.117404	-74.749159	-52.214078	97.808285	-52.214078	97.808285	-0.117403	-74.749774
5.300000	-0.119147	-75.396568	-51.990114	96.304921	-51.990114	96.304921	-0.119146	-75.397187
5.350000	-0.120928	-76.041856	-51.767078	94.802231	-51.767078	94.802231	-0.120926	-76.042479
5.400000	-0.122721	-76.686438	-51.548098	93.299766	-51.548098	93.299766	-0.122720	-76.687064
5.450000	-0.124550	-77.329146	-51.330549	91.798008	-51.330549	91.798008	-0.124549	-77.329776
5.500000	-0.126397	-77.970917	-51.116387	90.296605	-51.116387	90.296605	-0.126396	-77.971552
5.550000	-0.128276	-78.611060	-50.904104	88.795911	-50.904104	88.795911	-0.128275	-78.611699
5.600000	-0.130177	-79.250040	-50.694603	87.295726	-50.694603	87.295726	-0.130176	-79.250682
5.650000	-0.132107	-79.887635	-50.487379	85.796224	-50.487379	85.796224	-0.132106	-79.888281
5.700000	-0.134065	-80.523845	-50.282388	84.297407	-50.282388	84.297407	-0.134063	-80.524494
5.750000	-0.136047	-81.158910	-50.080026	82.799219	-50.080026	82.799219	-0.136045	-81.159563
5.800000	-0.138063	-81.792373	-49.879402	81.301913	-49.879402	81.301913	-0.138061	-81.793029
5.850000	-0.140099	-82.424928	-49.681718	79.805157	-49.681718	79.805157	-0.140097	-82.425588
5.900000	-0.142174	-83.055669	-49.485323	78.309500	-49.485323	78.309500	-0.142173	-83.056333
5.950000	-0.144266	-83.685737	-49.292140	76.814288	-49.292140	76.814288	-0.144264	-83.686403
6.000000	-0.146403	-84.313783	-49.099842	75.320409	-49.099842	75.320409	-0.146402	-84.314454
6.050000	-0.148551	-84.941386	-48.910994	73.826847	-48.910994	73.826847	-0.148550	-84.942059
6.100000	-0.150752	-85.566768	-48.722666	72.334867	-48.722666	72.334867	-0.150750	-85.567444
6.150000	-0.152958	-86.191930	-48.537994	70.843055	-48.537994	70.843055	-0.152957	-86.192610
6.200000	-0.155223	-86.814678	-48.353513	69.353087	-48.353513	69.353087	-0.155222	-86.815361
6.250000	-0.157490	-87.437426	-48.172868	67.863119	-48.172868	67.863119	-0.157488	-87.438113
6.300000	-0.159822	-88.057574	-47.992114	66.375266	-47.992114	66.375266	-0.159820	-88.058263
6.350000	-0.162155	-88.677722	-47.815044	64.887413	-47.815044	64.887413	-0.162153	-88.678414
6.400000	-0.164550	-89.295518	-47.638210	63.401584	-47.638210	63.401584	-0.164548	-89.296213
6.450000	-0.166951	-89.913100	-47.464610	61.915938	-47.464610	61.915938	-0.166950	-89.913798
6.500000	-0.169410	-90.528575	-47.291554	60.432199	-47.291554	60.432199	-0.169409	-90.529276
6.550000	-0.171882	-91.143629	-47.121318	58.948842	-47.121318	58.948842	-0.171880	-91.144333
6.600000	-0.174407	-91.756815	-46.951906	57.467253	-46.951906	57.467253	-0.174405	-91.757521
6.650000	-0.176950	-92.369378	-46.784934	55.986253	-46.784934	55.986253	-0.176949	-92.370088
6.700000	-0.179542	-92.980308	-46.619036	54.506862	-46.619036	54.506862	-0.179541	-92.981020
6.750000	-0.182159	-93.590421	-46.455229	53.028276	-46.455229	53.028276	-0.182158	-93.591137
6.800000	-0.184820	-94.199130	-46.292723	51.551122	-46.292723	51.551122	-0.184818	-94.199848
6.850000	-0.187512	-94.806835	-46.131986	50.074991	-46.131986	50.074991	-0.187510	-94.807556
6.900000	-0.190243	-95.413358	-45.972753	48.600102	-45.972753	48.600102	-0.190241	-95.414081
6.950000	-0.193012	-96.018698	-45.814994	47.126454	-45.814994	47.126454	-0.193010	-96.019424
7.000000	-0.195814	-96.623072	-45.658920	45.653845	-45.658920	45.653845	-0.195811	-96.623801
7.050000	-0.198661	-97.226093	-45.504049	44.182691	-45.504049	44.182691	-0.198659	-97.226824
7.100000	-0.201536	-97.828356	-45.351026	42.712367	-45.351026	42.712367	-0.201533	-97.829089
7.150000	-0.204463	-98.429103	-45.198955	41.243703	-45.198955	41.243703	-0.204461	-98.429839
7.200000	-0.207412	-99.029294	-45.048880	39.775656	-45.048880	39.775656	-0.207409	-99.030033
7.250000	-0.210421	-99.627816	-44.899524	38.309461	-44.899524	38.309461	-0.210418	-99.628557
7.300000	-0.213445	-100.225975	-44.752297	36.843671	-44.752297	36.843671	-0.213442	-100.226719
7.350000	-0.216537	-100.822321	-44.605575	35.379905	-44.605575	35.379905	-0.216534	-100.823067
7.400000	-0.219638	-101.418489	-44.461100	33.916337	-44.461100	33.916337	-0.219635	-101.419239
7.450000	-0.222815	-102.012710	-44.316934	32.454945	-44.316934	32.454945	-0.222812	-102.013462
7.500000	-0.225993	-102.606931	-44.175121	30.993553	-44.175121	30.993553	-0.225990	-102.607686
7.550000	-0.229257	-103.199079	-44.033433	29.534460	-44.033433	29.534460	-0.229253	-103.199836
7.600000	-0.232521	-103.791226	-43.894020	28.075367	-43.894020	28.075367	-0.232518	-103.791987
7.650000	-0.235865	-104.381523	-43.754914	26.618295	-43.754914	26.618295	-0.235862	-104.382286
7.700000	-0.239218	-104.971652	-43.617831	25.161408	-43.617831	25.161408	-0.239214	-104.972418
7.750000	-0.242644	-105.560143	-43.481223	23.706266	-43.481223	23.706266	-0.242639	-105.560912
7.800000	-0.246085	-106.148307	-43.346405	22.251473	-43.346405	22.251473	-0.246081	-106.149079
7.850000	-0.249594	-106.735040	-43.212217	20.798153	-43.212217	20.798153	-0.249589	-106.735815
7.900000	-0.253126	-107.321296	-43.079600	19.345324	-43.079600	19.345324	-0.253121	-107.322075
7.950000	-0.256718	-107.906319	-42.947756	17.893707	-42.947756	17.893707	-0.256713	-107.907100
8.000000	-0.260342	-108.490724	-42.817282	16.442695	-42.817282	16.442695	-0.260337	-108.491509
8.050000	-0.264019	-109.074085	-42.687713	14.992646	-42.687713	14.992646	-0.264014	-109.074873
8.100000	-0.267736	-109.656699	-42.559326	13.543284	-42.559326	13.543284	-0.267731	-109.657490
8.150000	-0.271500	-110.238447	-42.431965	12.094656	-42.431965	12.094656	-0.271494	-110.239242
8.200000	-0.275311	-110.819330	-42.305613	10.646762	-42.305613	10.646762	-0.275305	-110.820129
8.250000	-0.279162	-111.399516	-42.180399	9.199395	-42.180399	9.199395	-0.279155	-111.400319
8.300000	-0.283068	-111.978729	-42.056034	7.752767	-42.056034	7.752767	-0.283061	-111.979536
8.350000	-0.287007	-112.557406	-41.932910	6.306489	-41.932910	6.306489	-0.287000	-112.558217
8.400000	-0.291009	-113.135012	-41.810489	4.860912	-41.810489	4.860912	-0.291003	-113.135827
8.450000	-0.295037	-113.712232	-41.689401	3.415539	-41.689401	3.415539	-0.295030	-113.713052
8.500000	-0.299137	-114.288295	-41.568887	1.970780	-41.568887	1.970780	-0.299130	-114.289119
8.550000	-0.303255	-114.864112	-41.449787	0.526116	-41.449787	0.526116	-0.303248	-114.864941
8.600000	-0.307453	-115.438697	-41.331144	-0.918070	-41.331144	-0.918070	-0.307446	-115.439531
8.650000	-0.311661	-116.013165	-41.213989	-2.362230	-41.213989	-2.362230	-0.311654	-116.014004
8.700000	-0.315959	-116.586340	-41.097189	-3.806102	-41.097189	-3.806102	-0.315951	-116.587184
8.750000	-0.320258	-117.159514	-40.981939	-5.249974	-40.981939	-5.249974	-0.320251	-117.160364
8.800000	-0.324655	-117.731346	-40.866959	-6.693800	-40.866959	-6.693800	-0.324648	-117.732202
8.850000	-0.329055	-118.303178	-40.753481	-8.137627	-40.753481	-8.137627	-0.329047	-118.304039
8.900000	-0.333545	-118.873843	-40.640402	-9.581668	-40.640402	-9.581668	-0.333537	-118.874710
8.950000	-0.338045	-119.444401	-40.528680	-11.025729	-40.528680	-11.025729	-0.338037	-119.445275
9.000000	-0.342628	-120.013958	-40.417475	-12.470224	-40.417475	-12.470224	-0.342620	-120.014838
9.050000	-0.347229	-120.583314	-40.307497	-13.914806	-40.307497	-13.914806	-0.347222	-120.584201
9.100000	-0.351906	-121.151822	-40.198147	-15.359997	-40.198147	-15.359997	-0.351898	-121.152717
9.150000	-0.356609	-121.720048	-40.089910	-16.805391	-40.089910	-16.805391	-0.356602	-121.720950
9.200000	-0.361379	-122.287569	-39.982399	-18.251524	-39.982399	-18.251524	-0.361372	-122.288478
9.250000	-0.366184	-122.854738	-39.875903	-19.698026	-39.875903	-19.698026	-0.366178	-122.855655
9.300000	-0.371049	-123.421334	-39.770222	-21.145347	-39.770222	-21.145347	-0.371043	-123.422259
9.350000	-0.375956	-123.987521	-39.665475	-22.593253	-39.665475	-22.593253	-0.375951	-123.988455
9.400000	-0.380915	-124.553255	-39.561619	-24.042007	-39.561619	-24.042007	-0.380910	-124.554197
9.450000	-0.385925	-125.118536	-39.458636	-25.491609	-39.458636	-25.491609	-0.385921	-125.119488
9.500000	-0.390978	-125.683473	-39.356605	-26.942038	-39.356605	-26.942038	-0.390974	-125.684434
9.550000	-0.396091	-126.247927	-39.255406	-28.393623	-39.255406	-28.393623	-0.396088	-126.248897
9.600000	-0.401239	-126.812131	-39.155207	-29.845963	-39.155207	-29.845963	-0.401236	-126.813112
9.650000	-0.406454	-127.375837	-39.055821	-31.299811	-39.055821	-31.299811	-0.406452	-127.376828
9.700000	-0.411696	-127.939376	-38.957464	-32.754290	-38.957464	-32.754290	-0.411695	-127.940378
9.750000	-0.417013	-128.502415	-38.859925	-34.210665	-38.859925	-34.210665	-0.417014	-128.503428
9.800000	-0.422350	-129.065356	-38.763427	-35.667503	-38.763427	-35.667503	-0.422351	-129.066380
9.850000	-0.427769	-129.627811	-38.667778	-37.126654	-38.667778	-37.126654	-0.427772	-129.628847
9.900000	-0.433199	-130.190224	-38.573161	-38.586055	-38.573161	-38.586055	-0.433204	-130.191271
9.950000	-0.438720	-130.752179	-38.479450	-40.048211	-38.479450	-40.048211	-0.438726	-130.753238
10.000000	-0.444244	-131.314133	-38.386740	-41.510366	-38.386740	-41.510366	-0.444251	-131.315206
