! freq	dB(S11)	phase(S11)	dB(S12)	phase(S12)	
!     	dB(S21)	phase(S21)	dB(S22)	phase(S22)	
!S-par simulation data
#  GHz  S  DB  R 50
0.000000	-0.000000	0.000000	-364.507569	0.000000	-364.507569	0.000000	-0.000000	0.000000
0.050000	-0.000180	-1.773238	-87.374083	-147.195588	-87.374083	-147.195588	-0.000072	-0.760232
0.100000	-0.000714	-3.546014	-85.410178	-173.832955	-85.410178	-173.832955	-0.000288	-1.520326
0.150000	-0.001594	-5.317868	-84.699816	170.284180	-84.699816	170.284180	-0.000642	-2.280149
0.200000	-0.002793	-7.088405	-84.180113	158.436274	-84.180113	158.436274	-0.001126	-3.039582
0.250000	-0.004288	-8.857229	-83.701222	148.803995	-83.701222	148.803995	-0.001732	-3.798514
0.300000	-0.006049	-10.623997	-83.237718	140.641889	-83.237718	140.641889	-0.002449	-4.556847
0.350000	-0.008046	-12.388404	-82.792155	133.579923	-82.792155	133.579923	-0.003264	-5.314498
0.400000	-0.010242	-14.150193	-82.372438	127.394495	-82.372438	127.394495	-0.004165	-6.071401
0.450000	-0.012604	-15.909151	-81.986108	121.932548	-81.986108	121.932548	-0.005140	-6.827504
0.500000	-0.015099	-17.665104	-81.639090	117.082396	-81.639090	117.082396	-0.006174	-7.582770
0.550000	-0.017694	-19.417912	-81.335727	112.760618	-81.335727	112.760618	-0.007257	-8.337175
0.600000	-0.020362	-21.167470	-81.079154	108.905149	-81.079154	108.905149	-0.008376	-9.090705
0.650000	-0.023077	-22.913658	-80.872199	105.475404	-80.872199	105.475404	-0.009523	-9.843347
0.700000	-0.025816	-24.656411	-80.716796	102.440689	-80.716796	102.440689	-0.010688	-10.595102
0.750000	-0.028561	-26.395719	-80.613979	99.780307	-80.613979	99.780307	-0.011862	-11.345989
0.800000	-0.031296	-28.131544	-80.565136	97.490579	-80.565136	97.490579	-0.013040	-12.096019
0.850000	-0.034009	-29.863855	-80.571595	95.580471	-80.571595	95.580471	-0.014217	-12.845204
0.900000	-0.036690	-31.592625	-80.634582	94.072594	-80.634582	94.072594	-0.015387	-13.593559
0.950000	-0.039332	-33.317828	-80.755042	93.005066	-80.755042	93.005066	-0.016548	-14.341096
1.000000	-0.041931	-35.039439	-80.933255	92.434303	-80.933255	92.434303	-0.017697	-15.087828
1.050000	-0.044482	-36.757430	-81.168121	92.438640	-81.168121	92.438640	-0.018833	-15.833765
1.100000	-0.046985	-38.471774	-81.455915	93.122334	-81.455915	93.122334	-0.019955	-16.578917
1.150000	-0.049440	-40.182440	-81.788189	94.618436	-81.788189	94.618436	-0.021061	-17.323290
1.200000	-0.051845	-41.889398	-82.148490	97.086893	-82.148490	97.086893	-0.022152	-18.066889
1.250000	-0.054203	-43.592614	-82.507720	100.700154	-82.507720	100.700154	-0.023227	-18.809716
1.300000	-0.056515	-45.291971	-82.816255	105.632256	-82.816255	105.632256	-0.024288	-19.551755
1.350000	-0.058783	-46.987517	-83.006639	111.883220	-83.006639	111.883220	-0.025335	-20.293021
1.400000	-0.061011	-48.679217	-83.000252	119.251633	-83.000252	119.251633	-0.026368	-21.033509
1.450000	-0.063201	-50.367037	-82.732253	127.250332	-82.732253	127.250332	-0.027389	-21.773216
1.500000	-0.065356	-52.050944	-82.181779	135.198721	-82.181779	135.198721	-0.028399	-22.512133
1.550000	-0.067479	-53.730906	-81.383014	142.452785	-81.383014	142.452785	-0.029398	-23.250252
1.600000	-0.069573	-55.406894	-80.406277	148.605360	-80.406277	148.605360	-0.030388	-23.987563
1.650000	-0.071640	-57.078882	-79.327409	153.527439	-79.327409	153.527439	-0.031370	-24.724057
1.700000	-0.073683	-58.746448	-78.193331	157.184876	-78.193331	157.184876	-0.032345	-25.459638
1.750000	-0.075707	-60.410318	-77.075380	159.946417	-77.075380	159.946417	-0.033313	-26.194449
1.800000	-0.077714	-62.070123	-75.982005	161.880865	-75.982005	161.880865	-0.034277	-26.928403
1.850000	-0.079705	-63.725850	-74.926157	163.147571	-74.926157	163.147571	-0.035236	-27.661488
1.900000	-0.081683	-65.377490	-73.913611	163.880614	-73.913611	163.880614	-0.036192	-28.393688
1.950000	-0.083652	-67.025037	-72.945953	164.187945	-72.945953	164.187945	-0.037146	-29.124990
2.000000	-0.085612	-68.668489	-72.022456	164.154746	-72.022456	164.154746	-0.038098	-29.855378
2.050000	-0.087565	-70.307849	-71.141197	163.847745	-71.141197	163.847745	-0.039050	-30.584838
2.100000	-0.089515	-71.943126	-70.299713	163.319205	-70.299713	163.319205	-0.040001	-31.313353
2.150000	-0.091463	-73.574332	-69.495359	162.610209	-69.495359	162.610209	-0.040953	-32.040910
2.200000	-0.093410	-75.201484	-68.725508	161.753243	-68.725508	161.753243	-0.041906	-32.767491
2.250000	-0.095358	-76.824604	-67.987653	160.774170	-67.987653	160.774170	-0.042862	-33.493082
2.300000	-0.097309	-78.443720	-67.279457	159.693731	-67.279457	159.693731	-0.043819	-34.217668
2.350000	-0.099264	-80.058863	-66.598764	158.528681	-66.598764	158.528681	-0.044780	-34.941234
2.400000	-0.101225	-81.670069	-65.943607	157.292649	-65.943607	157.292649	-0.045744	-35.663764
2.450000	-0.103193	-83.277381	-65.312194	155.996801	-65.312194	155.996801	-0.046713	-36.385243
2.500000	-0.105170	-84.880845	-64.702895	154.650337	-64.702895	154.650337	-0.047686	-37.105658
2.550000	-0.107156	-86.480349	-64.113392	153.259316	-64.113392	153.259316	-0.048664	-37.824945
2.600000	-0.109154	-88.076117	-63.543289	151.832146	-63.543289	151.832146	-0.049648	-38.543138
2.650000	-0.111163	-89.668211	-62.991347	150.374041	-62.991347	150.374041	-0.050637	-39.260221
2.700000	-0.113185	-91.256697	-62.456443	148.889402	-62.456443	148.889402	-0.051633	-39.976183
2.750000	-0.115221	-92.841644	-61.937550	147.381955	-61.937550	147.381955	-0.052634	-40.691008
2.800000	-0.117272	-94.423128	-61.433735	145.854871	-61.433735	145.854871	-0.053643	-41.404685
2.850000	-0.119338	-96.001228	-60.944140	144.310853	-60.944140	144.310853	-0.054659	-42.117201
2.900000	-0.121422	-97.576028	-60.467983	142.752214	-60.467983	142.752214	-0.055683	-42.828543
2.950000	-0.123522	-99.147616	-60.004544	141.180939	-60.004544	141.180939	-0.056714	-43.538699
3.000000	-0.125641	-100.716084	-59.553161	139.598732	-59.553161	139.598732	-0.057753	-44.247658
3.050000	-0.127779	-102.281528	-59.113225	138.007064	-59.113225	138.007064	-0.058800	-44.955408
3.100000	-0.129937	-103.844048	-58.684174	136.407202	-58.684174	136.407202	-0.059856	-45.661938
3.150000	-0.132115	-105.403748	-58.265487	134.800244	-58.265487	134.800244	-0.060921	-46.367239
3.200000	-0.134315	-106.960737	-57.856683	133.187137	-57.856683	133.187137	-0.061994	-47.071298
3.250000	-0.136537	-108.515125	-57.457317	131.568703	-57.457317	131.568703	-0.063077	-47.774107
3.300000	-0.138781	-110.067029	-57.066973	129.945653	-57.066973	129.945653	-0.064170	-48.475657
3.350000	-0.141048	-111.616566	-56.685267	128.318606	-56.685267	128.318606	-0.065272	-49.175937
3.400000	-0.143340	-113.163859	-56.311841	126.688096	-56.311841	126.688096	-0.066385	-49.874940
3.450000	-0.145656	-114.709035	-55.946360	125.054588	-55.946360	125.054588	-0.067507	-50.572656
3.500000	-0.147997	-116.252220	-55.588513	123.418484	-55.588513	123.418484	-0.068640	-51.269078
3.550000	-0.150364	-117.793549	-55.238011	121.780135	-55.238011	121.780135	-0.069784	-51.964198
3.600000	-0.152757	-119.333154	-54.894580	120.139842	-54.894580	120.139842	-0.070939	-52.658009
3.650000	-0.155178	-120.871176	-54.557967	118.497868	-54.557967	118.497868	-0.072106	-53.350504
3.700000	-0.157625	-122.407754	-54.227934	116.854441	-54.227934	116.854441	-0.073283	-54.041676
3.750000	-0.160101	-123.943033	-53.904259	115.209758	-53.904259	115.209758	-0.074473	-54.731519
3.800000	-0.162607	-125.477115	-53.586495	113.563948	-53.586495	113.563948	-0.075675	-55.419969
3.850000	-0.165142	-127.010208	-53.274705	111.917211	-53.274705	111.917211	-0.076890	-56.107079
3.900000	-0.167707	-128.542462	-52.968704	110.269674	-52.968704	110.269674	-0.078117	-56.792842
3.950000	-0.170303	-130.074033	-52.668318	108.621447	-52.668318	108.621447	-0.079357	-57.477256
4.000000	-0.172929	-131.605078	-52.373383	106.972625	-52.373383	106.972625	-0.080610	-58.160314
4.050000	-0.175586	-133.135754	-52.083747	105.323294	-52.083747	105.323294	-0.081877	-58.842014
4.100000	-0.178275	-134.666224	-51.799266	103.673528	-51.799266	103.673528	-0.083158	-59.522351
4.150000	-0.180996	-136.196651	-51.519804	102.023395	-51.519804	102.023395	-0.084452	-60.201322
4.200000	-0.183750	-137.727200	-51.245235	100.372955	-51.245235	100.372955	-0.085762	-60.878925
4.250000	-0.186538	-139.258039	-50.975437	98.722264	-50.975437	98.722264	-0.087086	-61.555156
4.300000	-0.189358	-140.789336	-50.710299	97.071376	-50.710299	97.071376	-0.088425	-62.230013
4.350000	-0.192213	-142.321263	-50.449714	95.420339	-50.449714	95.420339	-0.089779	-62.903495
4.400000	-0.195103	-143.853992	-50.193582	93.769204	-50.193582	93.769204	-0.091150	-63.575600
4.450000	-0.198027	-145.387696	-49.941809	92.118018	-49.941809	92.118018	-0.092536	-64.246326
4.500000	-0.200986	-146.922552	-49.694305	90.466830	-49.694305	90.466830	-0.093939	-64.915672
4.550000	-0.203980	-148.458736	-49.450987	88.815690	-49.450987	88.815690	-0.095359	-65.583638
4.600000	-0.207011	-149.996427	-49.211776	87.164650	-49.211776	87.164650	-0.096797	-66.250224
4.650000	-0.210077	-151.535803	-48.976597	85.513765	-48.976597	85.513765	-0.098252	-66.915429
4.700000	-0.213180	-153.077046	-48.745379	83.863092	-48.745379	83.863092	-0.099725	-67.579253
4.750000	-0.216320	-154.620336	-48.518056	82.212694	-48.518056	82.212694	-0.101217	-68.241697
4.800000	-0.219496	-156.165856	-48.294563	80.562635	-48.294563	80.562635	-0.102727	-68.902763
4.850000	-0.222710	-157.713789	-48.074842	78.912986	-48.074842	78.912986	-0.104257	-69.562450
4.900000	-0.225960	-159.264319	-47.858835	77.263822	-47.858835	77.263822	-0.105807	-70.220761
4.950000	-0.229248	-160.817629	-47.646488	75.615224	-47.646488	75.615224	-0.107378	-70.877697
5.000000	-0.232573	-162.373905	-47.437750	73.967277	-47.437750	73.967277	-0.108969	-71.533260
5.050000	-0.235938	-163.933478	-47.232517	72.320111	-47.232517	72.320111	-0.110582	-72.187393
5.100000	-0.239340	-165.496403	-47.030808	70.673795	-47.030808	70.673795	-0.112217	-72.840159
5.150000	-0.242779	-167.062866	-46.832578	69.028434	-46.832578	69.028434	-0.113874	-73.491559
5.200000	-0.246256	-168.633052	-46.637783	67.384138	-46.637783	67.384138	-0.115555	-74.141598
5.250000	-0.249770	-170.207146	-46.446381	65.741027	-46.446381	65.741027	-0.117258	-74.790277
5.300000	-0.253321	-171.785332	-46.258332	64.099221	-46.258332	64.099221	-0.118985	-75.437602
5.350000	-0.256910	-173.367794	-46.073597	62.458852	-46.073597	62.458852	-0.120737	-76.083576
5.400000	-0.260535	-174.954716	-45.892138	60.820056	-45.892138	60.820056	-0.122513	-76.728203
5.450000	-0.264196	-176.546280	-45.713919	59.182974	-45.713919	59.182974	-0.124315	-77.371487
5.500000	-0.267894	-178.142667	-45.538903	57.547756	-45.538903	57.547756	-0.126143	-78.013433
5.550000	-0.271627	-179.744057	-45.367056	55.914555	-45.367056	55.914555	-0.127998	-78.654045
5.600000	-0.275396	178.649371	-45.198341	54.283531	-45.198341	54.283531	-0.129880	-79.293329
5.650000	-0.279200	177.037441	-45.032726	52.654850	-45.032726	52.654850	-0.131789	-79.931290
5.700000	-0.283037	175.419976	-44.870175	51.028682	-44.870175	51.028682	-0.133728	-80.567933
5.750000	-0.286908	173.796805	-44.710656	49.405204	-44.710656	49.405204	-0.135695	-81.203264
5.800000	-0.290813	172.167755	-44.554133	47.784597	-44.554133	47.784597	-0.137691	-81.837289
5.850000	-0.294749	170.532659	-44.400573	46.167045	-44.400573	46.167045	-0.139718	-82.470014
5.900000	-0.298717	168.891351	-44.249943	44.552738	-44.249943	44.552738	-0.141777	-83.101445
5.950000	-0.302715	167.243669	-44.102207	42.941869	-44.102207	42.941869	-0.143866	-83.731589
6.000000	-0.306743	165.589452	-43.957331	41.334634	-43.957331	41.334634	-0.145988	-84.360452
6.050000	-0.310799	163.928845	-43.815257	39.731054	-43.815257	39.731054	-0.148142	-84.988096
6.100000	-0.314883	162.261026	-43.676000	38.131728	-43.676000	38.131728	-0.150331	-85.614404
6.150000	-0.318994	160.586214	-43.539498	36.536647	-43.539498	36.536647	-0.152555	-86.239453
6.200000	-0.323130	158.904263	-43.405713	34.946018	-43.405713	34.946018	-0.154815	-86.863249
6.250000	-0.327290	157.215037	-43.274608	33.360049	-43.274608	33.360049	-0.157111	-87.485801
6.300000	-0.331474	155.518236	-43.146162	31.779061	-43.146162	31.779061	-0.159444	-88.107088
6.350000	-0.335678	153.813891	-43.020319	30.203161	-43.020319	30.203161	-0.161816	-88.727146
6.400000	-0.339903	152.101878	-42.897041	28.632559	-42.897041	28.632559	-0.164227	-89.345982
6.450000	-0.344146	150.382082	-42.776286	27.067464	-42.776286	27.067464	-0.166679	-89.963604
6.500000	-0.348406	148.653959	-42.658058	25.508406	-42.658058	25.508406	-0.169174	-90.579955
6.550000	-0.352681	146.918179	-42.542233	23.955032	-42.542233	23.955032	-0.171711	-91.195159
6.600000	-0.356970	145.174302	-42.428802	22.407794	-42.428802	22.407794	-0.174292	-91.809171
6.650000	-0.361271	143.422242	-42.317721	20.866898	-42.317721	20.866898	-0.176919	-92.421998
6.700000	-0.365582	141.661917	-42.208944	19.332547	-42.208944	19.332547	-0.179595	-93.033645
6.750000	-0.369902	139.893254	-42.102424	17.804941	-42.102424	17.804941	-0.182322	-93.644116
6.800000	-0.374229	138.116189	-41.998113	16.284279	-41.998113	16.284279	-0.185103	-94.253414
6.850000	-0.378561	136.330667	-41.895962	14.770756	-41.895962	14.770756	-0.187942	-94.861535
6.900000	-0.382896	134.536642	-41.795922	13.264565	-41.795922	13.264565	-0.190844	-95.468474
6.950000	-0.387233	132.734078	-41.697941	11.765894	-41.697941	11.765894	-0.193815	-96.074211
7.000000	-0.391569	130.922948	-41.601969	10.274931	-41.601969	10.274931	-0.196863	-96.678714
7.050000	-0.395904	129.103238	-41.507952	8.791857	-41.507952	8.791857	-0.199999	-97.281917
7.100000	-0.400235	127.274942	-41.415836	7.316851	-41.415836	7.316851	-0.203237	-97.883703
7.150000	-0.404560	125.438067	-41.325568	5.850090	-41.325568	5.850090	-0.206592	-98.483854
7.200000	-0.408879	123.592630	-41.237091	4.391745	-41.237091	4.391745	-0.210076	-99.081963
7.250000	-0.413189	121.738662	-41.150350	2.941984	-41.150350	2.941984	-0.213674	-99.677286
7.300000	-0.417489	119.876571	-41.065252	1.500583	-41.065252	1.500583	-0.217291	-100.268880
7.350000	-0.421777	118.005584	-40.981818	0.068576	-40.981818	0.068576	-0.220518	-100.854993
7.400000	-0.426053	116.126231	-40.899944	-1.354356	-40.899944	-1.354356	-0.222580	-101.438021
7.450000	-0.430314	114.238593	-40.819570	-2.768058	-40.819570	-2.768058	-0.223343	-102.027039
7.500000	-0.434561	112.342763	-40.740636	-4.172375	-40.740636	-4.172375	-0.224374	-102.626611
7.550000	-0.438790	110.438677	-40.663093	-5.566947	-40.663093	-5.566947	-0.226651	-103.229221
7.600000	-0.443003	108.526636	-40.586863	-6.951826	-40.586863	-6.951826	-0.229745	-103.829347
7.650000	-0.447199	106.606776	-40.511883	-8.326865	-40.511883	-8.326865	-0.233209	-104.426271
7.700000	-0.451377	104.679248	-40.438088	-9.691915	-40.438088	-9.691915	-0.236828	-105.020537
7.750000	-0.455537	102.744217	-40.365413	-11.046830	-40.365413	-11.046830	-0.240516	-105.612715
7.800000	-0.459678	100.801863	-40.293792	-12.391461	-40.293792	-12.391461	-0.244245	-106.203208
7.850000	-0.463802	98.852379	-40.223158	-13.725658	-40.223158	-13.725658	-0.248003	-106.792274
7.900000	-0.467909	96.895974	-40.153444	-15.049271	-40.153444	-15.049271	-0.251791	-107.380084
7.950000	-0.472000	94.932871	-40.084581	-16.362144	-40.084581	-16.362144	-0.255609	-107.966753
8.000000	-0.476075	92.963306	-40.016499	-17.664119	-40.016499	-17.664119	-0.259460	-108.552360
8.050000	-0.480137	90.987530	-39.949129	-18.955032	-39.949129	-18.955032	-0.263344	-109.136964
8.100000	-0.484186	89.005809	-39.882399	-20.234715	-39.882399	-20.234715	-0.267265	-109.720609
8.150000	-0.488226	87.018363	-39.816237	-21.502864	-39.816237	-21.502864	-0.271224	-110.303323
8.200000	-0.492257	85.025496	-39.750567	-22.759287	-39.750567	-22.759287	-0.275222	-110.885136
8.250000	-0.496284	83.027575	-39.685316	-24.003911	-39.685316	-24.003911	-0.279259	-111.466082
8.300000	-0.500309	81.024921	-39.620408	-25.236527	-39.620408	-25.236527	-0.283337	-112.046185
8.350000	-0.504336	79.017864	-39.555767	-26.456914	-39.555767	-26.456914	-0.287455	-112.625465
8.400000	-0.508368	77.006751	-39.491316	-27.664832	-39.491316	-27.664832	-0.291614	-113.203942
8.450000	-0.512411	74.991935	-39.426977	-28.860026	-39.426977	-28.860026	-0.295814	-113.781633
8.500000	-0.516468	72.973784	-39.362673	-30.042221	-39.362673	-30.042221	-0.300054	-114.358556
8.550000	-0.520545	70.952676	-39.298322	-31.211117	-39.298322	-31.211117	-0.304335	-114.934728
8.600000	-0.524647	68.928997	-39.233845	-32.366391	-39.233845	-32.366391	-0.308657	-115.510166
8.650000	-0.528781	66.903143	-39.169160	-33.507692	-39.169160	-33.507692	-0.313018	-116.084885
8.700000	-0.532951	64.875520	-39.104185	-34.634636	-39.104185	-34.634636	-0.317418	-116.658902
8.750000	-0.537166	62.846539	-39.038837	-35.746807	-39.038837	-35.746807	-0.321856	-117.232233
8.800000	-0.541433	60.816611	-38.973011	-36.843403	-38.973011	-36.843403	-0.326333	-117.804879
8.850000	-0.545758	58.786192	-38.906640	-37.924246	-38.906640	-37.924246	-0.330847	-118.376872
8.900000	-0.550151	56.755712	-38.839642	-38.988786	-38.839642	-38.988786	-0.335396	-118.948226
8.950000	-0.554618	54.725608	-38.771933	-40.036421	-38.771933	-40.036421	-0.339980	-119.518959
9.000000	-0.559169	52.696321	-38.703430	-41.066492	-38.703430	-41.066492	-0.344597	-120.089085
9.050000	-0.563811	50.668293	-38.634049	-42.078277	-38.634049	-42.078277	-0.349246	-120.658621
9.100000	-0.568556	48.641970	-38.563712	-43.070987	-38.563712	-43.070987	-0.353925	-121.227584
9.150000	-0.573411	46.617796	-38.492340	-44.043753	-38.492340	-44.043753	-0.358634	-121.795988
9.200000	-0.578387	44.596220	-38.419856	-44.995629	-38.419856	-44.995629	-0.363369	-122.363850
9.250000	-0.583493	42.577685	-38.346189	-45.925575	-38.346189	-45.925575	-0.368130	-122.931188
9.300000	-0.588741	40.562637	-38.271272	-46.832455	-38.271272	-46.832455	-0.372914	-123.498016
9.350000	-0.594140	38.551518	-38.195046	-47.715030	-38.195046	-47.715030	-0.377719	-124.064352
9.400000	-0.599703	36.544818	-38.117433	-48.571648	-38.117433	-48.571648	-0.382544	-124.630206
9.450000	-0.605441	34.542988	-38.038390	-49.400778	-38.038390	-49.400778	-0.387385	-125.195597
9.500000	-0.611364	32.546410	-37.957909	-50.201080	-37.957909	-50.201080	-0.392240	-125.760546
9.550000	-0.617483	30.555507	-37.875974	-50.970799	-37.875974	-50.970799	-0.397107	-126.325070
9.600000	-0.623808	28.570698	-37.792589	-51.708031	-37.792589	-51.708031	-0.401981	-126.889185
9.650000	-0.630352	26.592394	-37.707778	-52.410718	-37.707778	-52.410718	-0.406862	-127.452909
9.700000	-0.637125	24.620998	-37.621590	-53.076645	-37.621590	-53.076645	-0.411744	-128.016259
9.750000	-0.644139	22.656906	-37.534108	-53.703434	-37.534108	-53.703434	-0.416625	-128.579250
9.800000	-0.651405	20.700502	-37.445446	-54.288549	-37.445446	-54.288549	-0.421501	-129.141902
9.850000	-0.658934	18.752165	-37.355764	-54.829296	-37.355764	-54.829296	-0.426368	-129.704229
9.900000	-0.666738	16.812261	-37.265269	-55.322835	-37.265269	-55.322835	-0.431223	-130.266249
9.950000	-0.674828	14.881147	-37.174224	-55.766198	-37.174224	-55.766198	-0.436062	-130.827980
10.000000	-0.683215	12.959168	-37.082958	-56.156316	-37.082958	-56.156316	-0.440879	-131.389437
