! freq	dB(S11)	phase(S11)	dB(S12)	phase(S12)	
!     	dB(S21)	phase(S21)	dB(S22)	phase(S22)	
!S-par simulation data
#  GHz  S  DB  R 50
0.000000	-86.888027	0.000000	-0.000393	0.000000	-0.000393	0.000000	-86.888027	0.000000
0.050000	-35.661109	-92.704087	-0.003567	-2.622123	-0.003567	-2.622123	-35.658037	-92.414621
0.100000	-29.653425	-95.636231	-0.011953	-5.233393	-0.011953	-5.233393	-29.650612	-95.055270
0.150000	-26.152087	-98.498216	-0.023522	-7.830533	-0.023522	-7.830533	-26.149315	-97.624101
0.200000	-23.680625	-101.324971	-0.036945	-10.415584	-0.036945	-10.415584	-23.677544	-100.157762
0.250000	-21.775202	-104.123259	-0.051738	-12.991665	-0.051738	-12.991665	-21.771571	-102.664462
0.300000	-20.229073	-106.896111	-0.067911	-15.560479	-0.067911	-15.560479	-20.224824	-105.147716
0.350000	-18.931768	-109.646406	-0.085594	-18.122601	-0.085594	-18.122601	-18.926979	-107.610145
0.400000	-17.817091	-112.377168	-0.104883	-20.677986	-0.104883	-20.677986	-17.811913	-110.054193
0.450000	-16.842720	-115.090543	-0.125866	-23.226042	-0.125866	-23.226042	-16.837326	-112.481457
0.500000	-15.979682	-117.788441	-0.148567	-25.766077	-0.148567	-25.766077	-15.974229	-114.893409
0.550000	-15.206697	-120.472911	-0.172890	-28.297811	-0.172890	-28.297811	-15.201303	-117.291833
0.600000	-14.509365	-123.144080	-0.198884	-30.820027	-0.198884	-30.820027	-14.504124	-119.676704
0.650000	-13.875638	-125.803037	-0.226418	-33.332432	-0.226418	-33.332432	-13.870608	-122.049069
0.700000	-13.296407	-128.450244	-0.255392	-35.834588	-0.255392	-35.834588	-13.291620	-124.409399
0.750000	-12.764905	-131.085496	-0.285747	-38.325676	-0.285747	-38.325676	-12.760378	-126.757523
0.800000	-12.275316	-133.708857	-0.317366	-40.805287	-0.317366	-40.805287	-12.271046	-129.093564
0.850000	-11.822479	-136.320714	-0.350098	-43.273493	-0.350098	-43.273493	-11.818458	-131.417979
0.900000	-11.402923	-138.920498	-0.383865	-45.729520	-0.383865	-45.729520	-11.399132	-133.730257
0.950000	-11.013183	-141.508249	-0.418533	-48.173284	-0.418533	-48.173284	-11.009602	-136.030505
1.000000	-10.650488	-144.083803	-0.453979	-50.604551	-0.453979	-50.604551	-10.647095	-138.318619
1.050000	-10.312322	-146.647179	-0.490075	-53.023319	-0.490075	-53.023319	-10.309092	-140.594677
1.100000	-9.996579	-149.198326	-0.526699	-55.429547	-0.526699	-55.429547	-9.993489	-142.858682
1.150000	-9.701420	-151.737225	-0.563729	-57.823248	-0.563729	-57.823248	-9.698447	-145.110670
1.200000	-9.425228	-154.263894	-0.601048	-60.204490	-0.601048	-60.204490	-9.422352	-147.350714
1.250000	-9.166572	-156.778386	-0.638538	-62.573387	-0.638538	-62.573387	-9.163773	-149.578921
1.300000	-8.924323	-159.280596	-0.676085	-64.929909	-0.676085	-64.929909	-8.921584	-151.795253
1.350000	-8.697189	-161.770850	-0.713578	-67.274465	-0.713578	-67.274465	-8.694497	-154.000089
1.400000	-8.484149	-164.249310	-0.750912	-69.607303	-0.750912	-69.607303	-8.481491	-156.193658
1.450000	-8.284281	-166.716170	-0.787986	-71.928707	-0.787986	-71.928707	-8.281647	-158.376220
1.500000	-8.096749	-169.171651	-0.824704	-74.238996	-0.824704	-74.238996	-8.094133	-160.548075
1.550000	-7.920796	-171.616003	-0.860975	-76.538516	-0.860975	-76.538516	-7.918195	-162.709552
1.600000	-7.755732	-174.049498	-0.896710	-78.827643	-0.896710	-78.827643	-7.753145	-164.861014
1.650000	-7.600927	-176.472432	-0.931829	-81.106774	-0.931829	-81.106774	-7.598357	-167.002851
1.700000	-7.455805	-178.885117	-0.966253	-83.376329	-0.966253	-83.376329	-7.453256	-169.135482
1.750000	-7.319837	178.712118	-0.999910	-85.636747	-0.999910	-85.636747	-7.317317	-171.259350
1.800000	-7.192538	176.318931	-1.032734	-87.888481	-1.032734	-87.888481	-7.190057	-173.374923
1.850000	-7.073461	173.934970	-1.064660	-90.131999	-1.064660	-90.131999	-7.071033	-175.482687
1.900000	-6.962261	171.559965	-1.095620	-92.367701	-1.095620	-92.367701	-6.959903	-177.583078
1.950000	-6.858553	169.193537	-1.125558	-94.596092	-1.125558	-94.596092	-6.856284	-179.676638
2.000000	-6.761919	166.835221	-1.154439	-96.817752	-1.154439	-96.817752	-6.759761	178.236009
2.050000	-6.672035	164.484644	-1.182218	-99.033181	-1.182218	-99.033181	-6.670014	176.154305
2.100000	-6.588603	162.141437	-1.208856	-101.242884	-1.208856	-101.242884	-6.586746	174.077680
2.150000	-6.511347	159.805232	-1.234318	-103.447367	-1.234318	-103.447367	-6.509684	172.005549
2.200000	-6.440011	157.475667	-1.258574	-105.647138	-1.258574	-105.647138	-6.438576	169.937317
2.250000	-6.374359	155.152385	-1.281596	-107.842702	-1.281596	-107.842702	-6.373187	167.872378
2.300000	-6.314173	152.835040	-1.303361	-110.034564	-1.303361	-110.034564	-6.313301	165.810117
2.350000	-6.259251	150.523294	-1.323851	-112.223227	-1.323851	-112.223227	-6.258720	163.749909
2.400000	-6.209405	148.216821	-1.343048	-114.409188	-1.343048	-114.409188	-6.209259	161.691122
2.450000	-6.164463	145.915311	-1.360942	-116.592939	-1.360942	-116.592939	-6.164746	159.633113
2.500000	-6.124266	143.618464	-1.377523	-118.774970	-1.377523	-118.774970	-6.125027	157.575234
2.550000	-6.088760	141.326088	-1.392755	-120.955746	-1.392755	-120.955746	-6.090051	155.516801
2.600000	-6.057713	139.037821	-1.406666	-123.135778	-1.406666	-123.135778	-6.059586	153.457148
2.650000	-6.031001	136.753419	-1.419256	-125.315534	-1.419256	-125.315534	-6.033510	151.395602
2.700000	-6.008508	134.472659	-1.430529	-127.495473	-1.430529	-127.495473	-6.011711	149.331484
2.750000	-5.990132	132.195341	-1.440488	-129.676046	-1.440488	-129.676046	-5.994089	147.264108
2.800000	-5.975776	129.921289	-1.449144	-131.857694	-1.449144	-131.857694	-5.980549	145.192778
2.850000	-5.965355	127.650349	-1.456506	-134.040851	-1.456506	-134.040851	-5.971007	143.116793
2.900000	-5.958789	125.382395	-1.462588	-136.225941	-1.462588	-136.225941	-5.965388	141.035441
2.950000	-5.956007	123.117329	-1.467404	-138.413379	-1.467404	-138.413379	-5.963622	138.948002
3.000000	-5.956946	120.855082	-1.470972	-140.603568	-1.470972	-140.603568	-5.965648	136.853745
3.050000	-5.961548	118.595613	-1.473311	-142.796904	-1.473311	-142.796904	-5.971411	134.751930
3.100000	-5.969762	116.338916	-1.474442	-144.993771	-1.474442	-144.993771	-5.980864	132.641806
3.150000	-5.981581	114.085049	-1.474375	-147.194590	-1.474375	-147.194590	-5.994003	130.522501
3.200000	-5.996965	111.834075	-1.473137	-149.399738	-1.473137	-149.399738	-6.010790	128.393213
3.250000	-6.015842	109.586065	-1.470765	-151.609526	-1.470765	-151.609526	-6.031157	126.253247
3.300000	-6.038184	107.341160	-1.467289	-153.824295	-1.467289	-153.824295	-6.055078	124.101797
3.350000	-6.063967	105.099537	-1.462738	-156.044377	-1.462738	-156.044377	-6.082534	121.938040
3.400000	-6.093171	102.861421	-1.457142	-158.270095	-1.457142	-158.270095	-6.113510	119.761133
3.450000	-6.125782	100.627077	-1.450533	-160.501759	-1.450533	-160.501759	-6.147996	117.570217
3.500000	-6.161790	98.396818	-1.442945	-162.739669	-1.442945	-162.739669	-6.185986	115.364408
3.550000	-6.201186	96.171005	-1.434413	-164.984116	-1.434413	-164.984116	-6.227479	113.142801
3.600000	-6.243968	93.950049	-1.424972	-167.235377	-1.424972	-167.235377	-6.272476	110.904468
3.650000	-6.290135	91.734417	-1.414659	-169.493722	-1.414659	-169.493722	-6.320985	108.648449
3.700000	-6.339688	89.524627	-1.403512	-171.759409	-1.403512	-171.759409	-6.373016	106.373761
3.750000	-6.392633	87.321260	-1.391571	-174.032684	-1.391571	-174.032684	-6.428581	104.079384
3.800000	-6.449042	85.125123	-1.378858	-176.313959	-1.378858	-176.313959	-6.487765	101.763792
3.850000	-6.508855	82.936785	-1.365432	-178.603296	-1.365432	-178.603296	-6.550517	99.426320
3.900000	-6.572083	80.757023	-1.351336	179.099091	-1.351336	179.099091	-6.616860	97.065835
3.950000	-6.638736	78.586681	-1.336610	176.792998	-1.336610	176.792998	-6.686817	94.681163
4.000000	-6.708826	76.426678	-1.321299	174.478231	-1.321299	174.478231	-6.760414	92.271081
4.050000	-6.782362	74.278011	-1.305447	172.154606	-1.305447	172.154606	-6.837679	89.834315
4.100000	-6.859355	72.141756	-1.289097	169.821951	-1.289097	169.821951	-6.918638	87.369536
4.150000	-6.939813	70.019077	-1.272296	167.480103	-1.272296	167.480103	-7.003323	84.875357
4.200000	-7.023742	67.911223	-1.255088	165.128911	-1.255088	165.128911	-7.091761	82.350326
4.250000	-7.111145	65.819538	-1.237520	162.768231	-1.237520	162.768231	-7.183982	79.792920
4.300000	-7.202022	63.745463	-1.219640	160.397934	-1.219640	160.397934	-7.280012	77.201547
4.350000	-7.296365	61.690537	-1.201494	158.017899	-1.201494	158.017899	-7.379876	74.574529
4.400000	-7.394186	59.656654	-1.183129	155.627906	-1.183129	155.627906	-7.483625	71.909680
4.450000	-7.495461	57.645634	-1.164593	153.227853	-1.164593	153.227853	-7.591273	69.205080
4.500000	-7.600132	55.659126	-1.145940	150.817759	-1.145940	150.817759	-7.702803	66.459177
4.550000	-7.708156	53.699126	-1.127218	148.397544	-1.127218	148.397544	-7.818220	63.669908
4.600000	-7.819475	51.767747	-1.108476	145.967141	-1.108476	145.967141	-7.937520	60.835099
4.650000	-7.934018	49.867225	-1.089765	143.526494	-1.089765	143.526494	-8.060687	57.952453
4.700000	-8.051692	47.999920	-1.071135	141.075554	-1.071135	141.075554	-8.187694	55.019552
4.750000	-8.172384	46.168315	-1.052637	138.614287	-1.052637	138.614287	-8.318496	52.033845
4.800000	-8.295955	44.375016	-1.034320	136.142668	-1.034320	136.142668	-8.453032	48.992644
4.850000	-8.422239	42.622747	-1.016237	133.660681	-1.016237	133.660681	-8.591218	45.893118
4.900000	-8.551036	40.914342	-0.998439	131.168323	-0.998439	131.168323	-8.732943	42.732295
4.950000	-8.682108	39.252739	-0.980977	128.665602	-0.980977	128.665602	-8.878068	39.507051
5.000000	-8.815179	37.640964	-0.963902	126.152536	-0.963902	126.152536	-9.026416	36.214123
5.050000	-8.949903	36.083335	-0.947276	123.628932	-0.947276	123.628932	-9.177772	32.848475
5.100000	-9.085900	34.581912	-0.931144	121.095057	-0.931144	121.095057	-9.331853	29.408032
5.150000	-9.222731	33.139846	-0.915556	118.550964	-0.915556	118.550964	-9.488338	25.889132
5.200000	-9.359895	31.760256	-0.900566	115.996717	-0.900566	115.996717	-9.646846	22.288021
5.250000	-9.496821	30.446178	-0.886225	113.432394	-0.886225	113.432394	-9.806924	18.600884
5.300000	-9.632863	29.200507	-0.872584	110.858083	-0.872584	110.858083	-9.968043	14.823887
5.350000	-9.767301	28.025925	-0.859694	108.273884	-0.859694	108.273884	-10.129587	10.953231
5.400000	-9.899334	26.924815	-0.847608	105.679910	-0.847608	105.679910	-10.290845	6.985222
5.450000	-10.028077	25.899169	-0.836376	103.076284	-0.836376	103.076284	-10.451004	2.916356
5.500000	-10.152568	24.950484	-0.826048	100.463144	-0.826048	100.463144	-10.609141	-1.256575
5.550000	-10.271770	24.079643	-0.816676	97.840639	-0.816676	97.840639	-10.764221	-5.536365
5.600000	-10.384576	23.286804	-0.808310	95.208930	-0.808310	95.208930	-10.915091	-9.925241
5.650000	-10.489715	22.572093	-0.801009	92.568095	-0.801009	92.568095	-11.060384	-14.425922
5.700000	-10.585953	21.933754	-0.794826	89.918328	-0.794826	89.918328	-11.198686	-19.038999
5.750000	-10.672167	21.368140	-0.789796	87.259926	-0.789796	87.259926	-11.328610	-23.762704
5.800000	-10.747148	20.871288	-0.785968	84.593103	-0.785968	84.593103	-11.448613	-28.595186
5.850000	-10.809726	20.438038	-0.783388	81.918082	-0.783388	81.918082	-11.557104	-33.533138
5.900000	-10.858805	20.062030	-0.782101	79.235101	-0.782101	79.235101	-11.652483	-38.571649
5.950000	-10.893396	19.735742	-0.782152	76.544409	-0.782152	76.544409	-11.733188	-43.704113
6.000000	-10.912653	19.450595	-0.783585	73.846269	-0.783585	73.846269	-11.797739	-48.922187
6.050000	-10.915907	19.197097	-0.786443	71.140953	-0.786443	71.140953	-11.844795	-54.215838
6.100000	-10.902687	18.965049	-0.790765	68.428748	-0.790765	68.428748	-11.873209	-59.573466
6.150000	-10.872746	18.743781	-0.796593	65.709949	-0.796593	65.709949	-11.882074	-64.982130
6.200000	-10.826069	18.522428	-0.803965	62.984864	-0.803965	62.984864	-11.870773	-70.427847
6.250000	-10.762877	18.290207	-0.812917	60.253813	-0.812917	60.253813	-11.839000	-75.895971
6.300000	-10.683261	18.036010	-0.823521	57.517009	-0.823521	57.517009	-11.786340	-81.371435
6.350000	-10.588257	17.750322	-0.835775	54.774922	-0.835775	54.774922	-11.713616	-86.839089
6.400000	-10.478713	17.424251	-0.849712	52.027900	-0.849712	52.027900	-11.621520	-92.284938
6.450000	-10.355630	17.049926	-0.865361	49.276301	-0.865361	49.276301	-11.511025	-97.696013
6.500000	-10.220126	16.620608	-0.882749	46.520491	-0.882749	46.520491	-11.383342	-103.060672
6.550000	-10.073403	16.130749	-0.901903	43.760843	-0.901903	43.760843	-11.239867	-108.368808
6.600000	-9.916708	15.576000	-0.922847	40.997737	-0.922847	40.997737	-11.082127	-113.611970
6.650000	-9.751305	14.953178	-0.945602	38.231560	-0.945602	38.231560	-10.911730	-118.783399
6.700000	-9.578447	14.260196	-0.970188	35.462703	-0.970188	35.462703	-10.730310	-123.877981
6.750000	-9.399353	13.495967	-0.996621	32.691563	-0.996621	32.691563	-10.539487	-128.892148
6.800000	-9.215187	12.660298	-1.024917	29.918541	-1.024917	29.918541	-10.340831	-133.823734
6.850000	-9.027049	11.753764	-1.055089	27.144040	-1.055089	27.144040	-10.135834	-138.671797
6.900000	-8.835893	10.776857	-1.087167	24.368458	-1.087167	24.368458	-9.925795	-143.435549
6.950000	-8.642687	9.731414	-1.121157	21.592218	-1.121157	21.592218	-9.712032	-148.116012
7.000000	-8.448361	8.620403	-1.157047	18.815738	-1.157047	18.815738	-9.495817	-152.715783
7.050000	-8.253686	7.446352	-1.194839	16.039427	-1.194839	16.039427	-9.278193	-157.237062
7.100000	-8.059348	6.212018	-1.234535	13.263691	-1.234535	13.263691	-9.060088	-161.682421
7.150000	-7.865957	4.920312	-1.276134	10.488936	-1.276134	10.488936	-8.842319	-166.054683
7.200000	-7.674050	3.574239	-1.319631	7.715563	-1.319631	7.715563	-8.625596	-170.356823
7.250000	-7.484092	2.176838	-1.365021	4.943972	-1.365021	4.943972	-8.410536	-174.591886
7.300000	-7.296489	0.731144	-1.412297	2.174558	-1.412297	2.174558	-8.197664	-178.762918
7.350000	-7.111587	-0.759848	-1.461447	-0.592290	-1.461447	-0.592290	-7.987425	177.127081
7.400000	-6.929680	-2.293213	-1.512461	-3.356186	-1.512461	-3.356186	-7.780196	173.075200
7.450000	-6.751017	-3.866116	-1.565323	-6.116752	-1.565323	-6.116752	-7.576286	169.078640
7.500000	-6.575802	-5.475828	-1.620019	-8.873616	-1.620019	-8.873616	-7.375950	165.134741
7.550000	-6.404213	-7.120422	-1.676559	-11.626317	-1.676559	-11.626317	-7.179384	161.242024
7.600000	-6.236387	-8.796618	-1.734892	-14.374580	-1.734892	-14.374580	-6.986772	157.396995
7.650000	-6.072427	-10.502069	-1.794996	-17.118055	-1.794996	-17.118055	-6.798235	153.597466
7.700000	-5.912411	-12.234559	-1.856848	-19.856405	-1.856848	-19.856405	-6.613862	149.841403
7.750000	-5.756395	-13.992006	-1.920421	-22.589300	-1.920421	-22.589300	-6.433714	146.126928
7.800000	-5.604413	-15.772458	-1.985691	-25.316419	-1.985691	-25.316419	-6.257829	142.452311
7.850000	-5.456484	-17.574093	-2.052627	-28.037454	-2.052627	-28.037454	-6.086222	138.815962
7.900000	-5.312612	-19.395218	-2.121201	-30.752104	-2.121201	-30.752104	-5.918893	135.216428
7.950000	-5.172788	-21.234260	-2.191382	-33.460082	-2.191382	-33.460082	-5.755825	131.652382
8.000000	-5.036990	-23.089767	-2.263137	-36.161109	-2.263137	-36.161109	-5.596990	128.122617
8.050000	-4.905190	-24.960402	-2.336432	-38.854921	-2.336432	-38.854921	-5.442349	124.626034
8.100000	-4.777349	-26.844940	-2.411234	-41.541262	-2.411234	-41.541262	-5.291853	121.161640
8.150000	-4.653446	-28.742390	-2.487513	-44.219804	-2.487513	-44.219804	-5.145467	117.728866
8.200000	-4.533431	-30.651704	-2.565232	-46.890311	-2.565232	-46.890311	-5.003131	114.326874
8.250000	-4.417227	-32.571833	-2.644342	-49.552651	-2.644342	-49.552651	-4.864763	110.954599
8.300000	-4.304774	-34.501959	-2.724805	-52.206620	-2.724805	-52.206620	-4.730293	107.611385
8.350000	-4.196076	-36.441606	-2.806594	-54.851777	-2.806594	-54.851777	-4.599704	104.297454
8.400000	-4.090831	-38.389261	-2.889621	-57.488846	-2.889621	-57.488846	-4.472731	101.009422
8.450000	-3.989334	-40.345653	-2.973912	-60.116288	-2.973912	-60.116288	-4.349591	97.751118
8.500000	-3.891201	-42.309234	-3.059371	-62.735168	-3.059371	-62.735168	-4.229953	94.518424
8.550000	-3.796546	-44.280182	-3.145981	-65.344652	-3.145981	-65.344652	-4.113889	91.313039
8.600000	-3.705254	-46.258030	-3.233692	-67.944803	-3.233692	-67.944803	-4.001288	88.134113
8.650000	-3.617165	-48.242263	-3.322453	-70.535882	-3.322453	-70.535882	-3.892000	84.980330
8.700000	-3.532439	-50.233321	-3.412230	-73.116896	-3.412230	-73.116896	-3.786141	81.853920
8.750000	-3.450645	-52.230099	-3.502969	-75.689250	-3.502969	-75.689250	-3.683335	78.750682
8.800000	-3.372215	-54.233871	-3.594621	-78.250864	-3.594621	-78.250864	-3.583933	75.675790
8.850000	-3.296585	-56.243312	-3.687154	-80.803749	-3.687154	-80.803749	-3.487443	72.623689
8.900000	-3.224053	-58.259458	-3.780499	-83.346412	-3.780499	-83.346412	-3.394107	69.598075
8.950000	-3.154331	-60.281814	-3.874631	-85.879793	-3.874631	-85.879793	-3.303668	66.596390
9.000000	-3.087450	-62.310810	-3.969491	-88.403556	-3.969491	-88.403556	-3.216140	63.619446
9.050000	-3.023393	-64.346812	-4.065028	-90.917571	-4.065028	-90.917571	-3.131499	60.667591
9.100000	-2.961931	-66.389562	-4.161226	-93.422647	-4.161226	-93.422647	-3.049536	57.738821
9.150000	-2.903311	-68.440394	-4.257977	-95.917619	-4.257977	-95.917619	-2.970459	54.836317
9.200000	-2.847095	-70.498365	-4.355325	-98.404224	-4.355325	-98.404224	-2.893873	51.955769
9.250000	-2.793661	-72.565491	-4.453115	-100.880852	-4.453115	-100.880852	-2.820105	49.101748
9.300000	-2.742579	-74.640789	-4.551410	-103.349244	-4.551410	-103.349244	-2.748762	46.269986
9.350000	-2.694058	-76.725850	-4.650093	-105.808586	-4.650093	-105.808586	-2.680024	43.463185
9.400000	-2.647930	-78.820713	-4.749163	-108.259606	-4.749163	-108.259606	-2.613731	40.679883
9.450000	-2.604156	-80.926018	-4.848583	-110.702565	-4.848583	-110.702565	-2.549838	37.920010
9.500000	-2.562824	-83.043098	-4.948268	-113.137290	-4.948268	-113.137290	-2.488416	35.184873
9.550000	-2.523654	-85.171332	-5.048286	-115.564991	-5.048286	-115.564991	-2.429199	32.471662
9.600000	-2.486985	-87.313695	-5.148449	-117.984744	-5.148449	-117.984744	-2.372481	29.784417
9.650000	-2.452379	-89.468480	-5.248907	-120.398294	-5.248907	-120.398294	-2.317856	27.118522
9.700000	-2.420178	-91.639038	-5.349471	-122.804902	-5.349471	-122.804902	-2.265618	24.477998
9.750000	-2.390078	-93.824289	-5.450255	-125.205859	-5.450255	-125.205859	-2.215475	21.859614
9.800000	-2.362220	-96.026457	-5.551165	-127.601194	-5.551165	-127.601194	-2.167539	19.265112
9.850000	-2.336550	-98.246259	-5.652212	-129.991518	-5.652212	-129.991518	-2.121741	16.693979
9.900000	-2.312973	-100.484085	-5.753434	-132.377548	-5.753434	-132.377548	-2.077977	14.145254
9.950000	-2.291683	-102.742950	-5.854732	-134.759454	-5.854732	-134.759454	-2.036397	11.621107
10.000000	-2.272348	-105.020870	-5.956276	-137.138373	-5.956276	-137.138373	-1.996684	9.117906
