! freq	dB(S11)	phase(S11)	dB(S12)	phase(S12)	
!     	dB(S21)	phase(S21)	dB(S22)	phase(S22)	
!S-par simulation data
#  GHz  S  DB  R 50
0.000000	-82.504133	0.000000	-0.000651	0.000000	-0.000651	0.000000	-82.504133	0.000000
0.050000	-42.121374	-92.286469	-0.006845	-2.890754	-0.006845	-2.890754	-42.121455	-92.287769
0.100000	-36.110285	-95.400925	-0.015040	-5.725357	-0.015040	-5.725357	-36.110364	-95.403534
0.150000	-32.604419	-98.329919	-0.020787	-8.543043	-0.020787	-8.543043	-32.604494	-98.333842
0.200000	-30.126631	-101.214338	-0.025566	-11.359327	-0.025566	-11.359327	-30.126701	-101.219581
0.250000	-28.215608	-104.079322	-0.030267	-14.176062	-0.030267	-14.176062	-28.215672	-104.085895
0.300000	-26.664593	-106.934321	-0.035274	-16.992747	-0.035274	-16.992747	-26.664651	-106.942236
0.350000	-25.365335	-109.782908	-0.040797	-19.808497	-0.040797	-19.808497	-25.365384	-109.792179
0.400000	-24.250916	-112.627394	-0.046848	-22.622708	-0.046848	-22.622708	-24.250957	-112.638038
0.450000	-23.279045	-115.468692	-0.053427	-25.434895	-0.053427	-25.434895	-23.279078	-115.480725
0.500000	-22.421646	-118.307200	-0.060529	-28.244566	-0.060529	-28.244566	-22.421671	-118.320642
0.550000	-21.657517	-121.143303	-0.068095	-31.051512	-0.068095	-31.051512	-21.657533	-121.158172
0.600000	-20.971245	-123.977173	-0.076072	-33.855566	-0.076072	-33.855566	-20.971255	-123.993491
0.650000	-20.351791	-126.808817	-0.084417	-36.656503	-0.084417	-36.656503	-20.351794	-126.826604
0.700000	-19.790168	-129.638252	-0.093070	-39.454240	-0.093070	-39.454240	-19.790166	-129.657530
0.750000	-19.278766	-132.465529	-0.101965	-42.248843	-0.101965	-42.248843	-19.278761	-132.486318
0.800000	-18.812067	-135.290590	-0.111048	-45.040294	-0.111048	-45.040294	-18.812060	-135.312910
0.850000	-18.385944	-138.113314	-0.120263	-47.828557	-0.120263	-47.828557	-18.385938	-138.137187
0.900000	-17.995739	-140.933760	-0.129550	-50.613876	-0.129550	-50.613876	-17.995734	-140.959205
0.950000	-17.638207	-143.751882	-0.138855	-53.396386	-0.138855	-53.396386	-17.638206	-143.778919
1.000000	-17.311478	-146.567511	-0.148124	-56.176119	-0.148124	-56.176119	-17.311483	-146.596159
1.050000	-17.012394	-149.380730	-0.157310	-58.953410	-0.157310	-58.953410	-17.012407	-149.411008
1.100000	-16.738869	-152.191527	-0.166368	-61.728488	-0.166368	-61.728488	-16.738893	-152.223451
1.150000	-16.489744	-154.999801	-0.175249	-64.501529	-0.175249	-64.501529	-16.489779	-155.033391
1.200000	-16.263240	-157.805595	-0.183916	-67.272839	-0.183916	-67.272839	-16.263289	-157.840869
1.250000	-16.057688	-160.608983	-0.192337	-70.042737	-0.192337	-70.042737	-16.057751	-160.645958
1.300000	-15.872221	-163.409957	-0.200476	-72.811492	-0.200476	-72.811492	-15.872299	-163.448654
1.350000	-15.706912	-166.208412	-0.208279	-75.579379	-0.208279	-75.579379	-15.707007	-166.248852
1.400000	-15.558116	-169.004841	-0.215780	-78.346834	-0.215780	-78.346834	-15.558227	-169.047045
1.450000	-15.426404	-171.799135	-0.222928	-81.114100	-0.222928	-81.114100	-15.426530	-171.843130
1.500000	-15.312525	-174.591231	-0.229667	-83.881549	-0.229667	-83.881549	-15.312665	-174.637046
1.550000	-15.214193	-177.381515	-0.236022	-86.649515	-0.236022	-86.649515	-15.214347	-177.429183
1.600000	-15.130816	179.829831	-0.241984	-89.418320	-0.241984	-89.418320	-15.130981	179.780273
1.650000	-15.061860	177.042601	-0.247545	-92.188288	-0.247545	-92.188288	-15.062033	176.991112
1.700000	-15.006301	174.256522	-0.252719	-94.959665	-0.252719	-94.959665	-15.006481	174.203055
1.750000	-14.965235	171.471453	-0.257458	-97.732967	-0.257458	-97.732967	-14.965417	171.415948
1.800000	-14.937455	168.687021	-0.261788	-100.508429	-0.261788	-100.508429	-14.937636	168.629416
1.850000	-14.922590	165.902901	-0.265713	-103.286369	-0.265713	-103.286369	-14.922765	165.843122
1.900000	-14.920430	163.118734	-0.269238	-106.067128	-0.269238	-106.067128	-14.920596	163.056698
1.950000	-14.930654	160.334127	-0.272374	-108.851013	-0.272374	-108.851013	-14.930805	160.269740
2.000000	-14.952840	157.548675	-0.275138	-111.638281	-0.275138	-111.638281	-14.952971	157.481833
2.050000	-14.986723	154.761947	-0.277546	-114.429206	-0.277546	-114.429206	-14.986830	154.692535
2.100000	-15.032062	151.973494	-0.279615	-117.224049	-0.279615	-117.224049	-15.032141	151.901385
2.150000	-15.088633	149.182847	-0.281365	-120.023060	-0.281365	-120.023060	-15.088679	149.107901
2.200000	-15.156227	146.389521	-0.282816	-122.826470	-0.282816	-122.826470	-15.156236	146.311586
2.250000	-15.234649	143.593016	-0.283991	-125.634498	-0.283991	-125.634498	-15.234619	143.511928
2.300000	-15.323715	140.792826	-0.284914	-128.447348	-0.284914	-128.447348	-15.323642	140.708408
2.350000	-15.423247	137.988437	-0.285610	-131.265205	-0.285610	-131.265205	-15.423131	137.900501
2.400000	-15.533076	135.179333	-0.286104	-134.088242	-0.286104	-134.088242	-15.532916	135.087679
2.450000	-15.653032	132.365002	-0.286422	-136.916611	-0.286422	-136.916611	-15.652829	132.269419
2.500000	-15.782948	129.544939	-0.286591	-139.750450	-0.286591	-139.750450	-15.782704	129.445209
2.550000	-15.922805	126.718509	-0.286636	-142.590006	-0.286636	-142.590006	-15.922524	126.614399
2.600000	-16.072242	123.885363	-0.286585	-145.435264	-0.286585	-145.435264	-16.071929	123.776640
2.650000	-16.231064	121.045059	-0.286466	-148.286313	-0.286466	-148.286313	-16.230726	120.931484
2.700000	-16.399058	118.197183	-0.286303	-151.143228	-0.286303	-151.143228	-16.398703	118.078517
2.750000	-16.575988	115.341360	-0.286121	-154.006068	-0.286121	-154.006068	-16.575625	115.217365
2.800000	-16.761590	112.477261	-0.285944	-156.874880	-0.285944	-156.874880	-16.761230	112.347702
2.850000	-16.955563	109.604606	-0.285795	-159.749699	-0.285795	-159.749699	-16.955219	109.469255
2.900000	-17.157566	106.723175	-0.285695	-162.630547	-0.285695	-162.630547	-17.157250	106.581815
2.950000	-17.367408	103.831924	-0.285672	-165.518031	-0.285672	-165.518031	-17.367135	103.684334
3.000000	-17.584156	100.932428	-0.285731	-168.411035	-0.285731	-168.411035	-17.583938	100.778442
3.050000	-17.807541	98.023896	-0.285894	-171.310083	-0.285894	-171.310083	-17.807392	97.863350
3.100000	-18.036962	95.106388	-0.286175	-174.215166	-0.286175	-174.215166	-18.036894	94.939146
3.150000	-18.271729	92.180039	-0.286588	-177.126270	-0.286588	-177.126270	-18.271752	92.005995
3.200000	-18.511051	89.245062	-0.287144	179.956620	-0.287144	179.956620	-18.511175	89.064143
3.250000	-18.754029	86.301743	-0.287853	177.033523	-0.287853	177.033523	-18.754261	86.113914
3.300000	-18.999644	83.350437	-0.288721	174.104455	-0.288721	174.104455	-18.999986	83.155704
3.350000	-19.246745	80.391558	-0.289755	171.169432	-0.289755	171.169432	-19.247196	80.189972
3.400000	-19.494044	77.425570	-0.290958	168.228466	-0.290958	168.228466	-19.494601	77.217231
3.450000	-19.740111	74.452975	-0.292334	165.281567	-0.292334	165.281567	-19.740764	74.238034
3.500000	-19.983369	71.474291	-0.293884	162.328736	-0.293884	162.328736	-19.984105	71.252956
3.550000	-20.222095	68.490038	-0.295607	159.369969	-0.295607	159.369969	-20.222898	68.262575
3.600000	-20.454430	65.500713	-0.297503	156.405255	-0.297503	156.405255	-20.455280	65.267453
3.650000	-20.678387	62.506772	-0.299568	153.434571	-0.299568	153.434571	-20.679260	62.268111
3.700000	-20.891871	59.508605	-0.301801	150.457889	-0.301801	150.457889	-20.892743	59.265012
3.750000	-21.092711	56.506517	-0.304198	147.475168	-0.304198	147.475168	-21.093558	56.258538
3.800000	-21.277781	53.500556	-0.306761	144.486090	-0.306761	144.486090	-21.278579	53.248849
3.850000	-21.445636	50.490973	-0.309481	141.490855	-0.309481	141.490855	-21.446366	50.236258
3.900000	-21.594115	47.477735	-0.312352	138.489390	-0.312352	138.489390	-21.594763	47.220821
3.950000	-21.721168	44.460706	-0.315373	135.481614	-0.315373	135.481614	-21.721724	44.202493
4.000000	-21.824908	41.439660	-0.318540	132.467433	-0.318540	132.467433	-21.825370	41.181138
4.050000	-21.903672	38.414312	-0.321852	129.446747	-0.321852	129.446747	-21.904045	38.156553
4.100000	-21.956077	35.384340	-0.325308	126.419445	-0.325308	126.419445	-21.956371	35.128494
4.150000	-21.981065	32.349423	-0.328909	123.385413	-0.328909	123.385413	-21.981297	32.096700
4.200000	-21.977941	29.309273	-0.332655	120.344527	-0.332655	120.344527	-21.978132	29.060924
4.250000	-21.946398	26.263660	-0.336551	117.296661	-0.336551	117.296661	-21.946570	26.020956
4.300000	-21.886523	23.212433	-0.340600	114.241685	-0.340600	114.241685	-21.886700	22.976638
4.350000	-21.798797	20.155528	-0.344810	111.179468	-0.344810	111.179468	-21.798998	19.927869
4.400000	-21.684066	17.092971	-0.349187	108.109878	-0.349187	108.109878	-21.684310	16.874608
4.450000	-21.543515	14.024861	-0.353742	105.032785	-0.353742	105.032785	-21.543811	13.816860
4.500000	-21.378617	10.951349	-0.358484	101.948064	-0.358484	101.948064	-21.378971	10.754658
4.550000	-21.191088	7.872612	-0.363426	98.855593	-0.363426	98.855593	-21.191498	7.688037
4.600000	-20.982830	4.788824	-0.368582	95.755256	-0.368582	95.755256	-20.983288	4.617017
4.650000	-20.755878	1.700122	-0.373966	92.646948	-0.373966	92.646948	-20.756368	1.541572
4.700000	-20.512346	-1.393420	-0.379594	89.530571	-0.379594	89.530571	-20.512852	-1.538387
4.750000	-20.254385	-4.491807	-0.385481	86.406038	-0.385481	86.406038	-20.254886	-4.623026
4.800000	-19.984141	-7.595144	-0.391644	83.273274	-0.391644	83.273274	-19.984614	-7.712595
4.850000	-19.703717	-10.703633	-0.398099	80.132216	-0.398099	80.132216	-19.704143	-10.807429
4.900000	-19.415154	-13.817575	-0.404862	76.982815	-0.404862	76.982815	-19.415515	-13.907940
4.950000	-19.120405	-16.937358	-0.411948	73.825033	-0.411948	73.825033	-19.120688	-17.014606
5.000000	-18.821328	-20.063440	-0.419371	70.658847	-0.419371	70.658847	-18.821522	-20.127951
5.050000	-18.519174	-23.196654	-0.427158	67.483881	-0.427158	67.483881	-18.519276	-23.248869
5.100000	-18.216212	-26.337264	-0.435305	64.300499	-0.435305	64.300499	-18.216223	-26.377626
5.150000	-17.913962	-29.485807	-0.443820	61.108715	-0.443820	61.108715	-17.913890	-29.514758
5.200000	-17.613835	-32.642800	-0.452705	57.908548	-0.452705	57.908548	-17.613689	-32.660764
5.250000	-17.317446	-35.808215	-0.461944	54.700476	-0.461944	54.700476	-17.317240	-35.815565
5.300000	-17.025329	-38.983342	-0.471567	51.483711	-0.471567	51.483711	-17.025077	-38.980451
5.350000	-16.738901	-42.168148	-0.481552	48.258644	-0.481552	48.258644	-16.738618	-42.155326
5.400000	-16.459167	-45.362906	-0.491889	45.025302	-0.491889	45.025302	-16.458870	-45.340411
5.450000	-16.187050	-48.567807	-0.502559	41.783703	-0.502559	41.783703	-16.186751	-48.535849
5.500000	-15.923392	-51.782966	-0.513541	38.533853	-0.513541	38.533853	-15.923101	-51.741705
5.550000	-15.668960	-55.008429	-0.524809	35.275744	-0.524809	35.275744	-15.668685	-54.957980
5.600000	-15.424460	-58.244182	-0.536330	32.009346	-0.536330	32.009346	-15.424205	-58.184617
5.650000	-15.190591	-61.490277	-0.548068	28.734510	-0.548068	28.734510	-15.190357	-61.421630
5.700000	-14.967986	-64.746622	-0.559979	25.451146	-0.559979	25.451146	-14.967770	-64.668894
5.750000	-14.757148	-68.013010	-0.572011	22.159216	-0.572011	22.159216	-14.756944	-67.926169
5.800000	-14.558588	-71.289352	-0.584110	18.858549	-0.584110	18.858549	-14.558388	-71.193337
5.850000	-14.372788	-74.575589	-0.596218	15.548927	-0.596218	15.548927	-14.372581	-74.470311
5.900000	-14.200211	-77.871707	-0.608272	12.230073	-0.608272	12.230073	-14.199986	-77.757048
5.950000	-14.041313	-81.177754	-0.620204	8.901655	-0.620204	8.901655	-14.041057	-81.053565
6.000000	-13.896544	-84.493855	-0.631945	5.563269	-0.631945	5.563269	-13.896245	-84.359951
6.050000	-13.766367	-87.820223	-0.643421	2.214444	-0.643421	2.214444	-13.766013	-87.676378
6.100000	-13.651265	-91.157170	-0.654558	-1.145371	-0.654558	-1.145371	-13.650844	-91.003110
6.150000	-13.551750	-94.505112	-0.665277	-4.516807	-0.665277	-4.516807	-13.551253	-94.340507
6.200000	-13.468379	-97.864576	-0.675504	-7.900583	-0.675504	-7.900583	-13.467797	-97.689029
6.250000	-13.401767	-101.236200	-0.685163	-11.297510	-0.685163	-11.297510	-13.401092	-101.049235
6.300000	-13.352991	-104.621033	-0.694162	-14.708824	-0.694162	-14.708824	-13.352217	-104.422068
6.350000	-13.322479	-108.019674	-0.702446	-18.135254	-0.702446	-18.135254	-13.321599	-107.808031
6.400000	-13.311113	-111.433087	-0.709946	-21.577917	-0.709946	-21.577917	-13.310123	-111.207960
6.450000	-13.319907	-114.862326	-0.716602	-25.038038	-0.716602	-25.038038	-13.318801	-114.622765
6.500000	-13.350031	-118.308525	-0.722363	-28.516950	-0.722363	-28.516950	-13.348803	-118.053409
6.550000	-13.402839	-121.772881	-0.727181	-32.016100	-0.727181	-32.016100	-13.401482	-121.500887
6.600000	-13.479910	-125.256635	-0.731025	-35.537044	-0.731025	-35.537044	-13.478413	-124.966206
6.650000	-13.583091	-128.761048	-0.733872	-39.081455	-0.733872	-39.081455	-13.581441	-128.450342
6.700000	-13.714555	-132.287366	-0.735714	-42.651116	-0.735714	-42.651116	-13.712733	-131.954206
6.750000	-13.876874	-135.836783	-0.736560	-46.247925	-0.736560	-46.247925	-13.874856	-135.478577
6.800000	-14.073111	-139.410382	-0.736436	-49.873890	-0.736436	-49.873890	-14.070863	-139.024033
6.850000	-14.306943	-143.009062	-0.735389	-53.531124	-0.735389	-53.531124	-14.304421	-142.590841
6.900000	-14.583227	-146.633722	-0.733480	-57.222234	-0.733480	-57.222234	-14.580370	-146.179033
6.950000	-14.907512	-150.284528	-0.730809	-60.949616	-0.730809	-60.949616	-14.904240	-149.787695
7.000000	-15.286206	-153.960679	-0.727509	-64.715312	-0.727509	-64.715312	-15.282409	-153.414679
7.050000	-15.727842	-157.660649	-0.723734	-68.521807	-0.723734	-68.521807	-15.723372	-157.056573
7.100000	-16.243346	-161.381379	-0.719673	-72.371649	-0.719673	-72.371649	-16.237993	-160.707706
7.150000	-16.847008	-165.117420	-0.715549	-76.267433	-0.715549	-76.267433	-16.840474	-164.358892
7.200000	-17.558014	-168.859448	-0.711625	-80.211786	-0.711625	-80.211786	-17.549851	-167.995278
7.250000	-18.402949	-172.591580	-0.708202	-84.207340	-0.708202	-84.207340	-18.392458	-171.592429
7.300000	-19.420174	-176.286128	-0.705629	-88.256709	-0.705629	-88.256709	-19.406199	-175.108709
7.350000	-20.668001	-179.892429	-0.704295	-92.362458	-0.704295	-92.362458	-20.648462	-178.469089
7.400000	-22.241473	176.689881	-0.704641	-96.527069	-0.704641	-96.527069	-22.212204	178.473378
7.450000	-24.311511	173.685712	-0.707152	-100.752900	-0.707152	-100.752900	-24.262739	176.044445
7.500000	-27.235030	171.707615	-0.712365	-105.042145	-0.712365	-105.042145	-27.137347	175.117626
7.550000	-31.975675	173.413222	-0.720929	-109.397885	-0.720929	-109.397885	-31.683899	179.322529
7.600000	-41.952507	-150.254535	-0.733431	-113.820786	-0.733431	-113.820786	-39.616006	-141.775122
7.650000	-35.295001	-51.344528	-0.750548	-118.312230	-0.750548	-118.312230	-34.672912	-60.251505
7.700000	-28.337609	-43.666172	-0.772995	-122.873226	-0.772995	-122.873226	-28.207585	-48.280651
7.750000	-24.310612	-44.826440	-0.801520	-127.504357	-0.801520	-127.504357	-24.259663	-47.888931
7.800000	-21.461189	-47.911342	-0.836895	-132.205727	-0.836895	-132.205727	-21.435364	-50.215810
7.850000	-19.244454	-51.760571	-0.879977	-136.977476	-0.879977	-136.977476	-19.229455	-53.621067
7.900000	-17.425822	-56.009365	-0.931525	-141.818222	-0.931525	-141.818222	-17.416367	-57.578592
7.950000	-15.882783	-60.509686	-0.992299	-146.726187	-0.992299	-146.726187	-15.876491	-61.873633
8.000000	-14.543457	-65.188627	-1.063055	-151.699190	-1.063055	-151.699190	-14.539106	-66.400564
8.050000	-13.362219	-70.004841	-1.144504	-156.734458	-1.144504	-156.734458	-13.359122	-71.100014
8.100000	-12.308340	-74.932236	-1.237303	-161.828656	-1.237303	-161.828656	-12.306088	-75.935157
8.150000	-11.360138	-79.953138	-1.342091	-166.978206	-1.342091	-166.978206	-11.358471	-80.881606
8.200000	-10.501834	-85.053714	-1.459359	-172.178727	-1.459359	-172.178727	-10.500583	-85.920974
8.250000	-9.721481	-90.222479	-1.589428	-177.425250	-1.589428	-177.425250	-9.720533	-91.038608
8.300000	-9.009759	-95.450040	-1.732559	177.287145	-1.732559	177.287145	-9.009034	-96.222921
8.350000	-8.359191	-100.727875	-1.888839	171.963641	-1.888839	171.963641	-8.358633	-101.463757
8.400000	-7.763921	-106.049171	-2.058447	166.608743	-2.058447	166.608743	-7.763489	-106.753178
8.450000	-7.218777	-111.406344	-2.241091	161.227834	-2.241091	161.227834	-7.218440	-112.082595
8.500000	-6.719443	-116.793090	-2.436483	155.825518	-2.436483	155.825518	-6.719175	-117.444988
8.550000	-6.262172	-122.203695	-2.644194	150.405976	-2.644194	150.405976	-6.261954	-122.834071
8.600000	-5.843664	-127.633059	-2.863656	144.972836	-2.863656	144.972836	-5.843478	-128.244291
8.650000	-5.460968	-133.076735	-3.094168	139.529053	-3.094168	139.529053	-5.460798	-133.670831
8.700000	-5.111423	-138.530975	-3.334892	134.076789	-3.334892	134.076789	-5.111252	-139.109638
8.750000	-4.792610	-143.992766	-3.584858	128.617305	-3.584858	128.617305	-4.792424	-144.557451
8.800000	-4.502583	-149.459929	-3.842944	123.150728	-3.842944	123.150728	-4.502367	-150.011891
8.850000	-4.239077	-154.930972	-4.107862	117.676195	-4.107862	117.676195	-4.238818	-155.471267
8.900000	-4.000282	-160.405367	-4.378201	112.191423	-4.378201	112.191423	-3.999967	-160.934900
8.950000	-3.784591	-165.883491	-4.652370	106.692609	-4.652370	106.692609	-3.784206	-166.403025
9.000000	-3.590612	-171.366684	-4.928564	101.174146	-4.928564	101.174146	-3.590147	-171.876861
9.050000	-3.417196	-176.857339	-5.204721	95.628221	-5.204721	95.628221	-3.416641	-177.358683
9.100000	-3.263481	177.640969	-5.478457	90.044242	-5.478457	90.044242	-3.262827	177.148046
9.150000	-3.128960	172.123300	-5.746985	84.407989	-5.746985	84.407989	-3.128199	171.638503
9.200000	-3.013764	166.582799	-6.006810	78.699417	-6.006810	78.699417	-3.012889	166.105954
9.250000	-2.918432	161.010834	-6.253982	72.892209	-6.253982	72.892209	-2.917435	160.541910
9.300000	-2.844418	155.396509	-6.483785	66.950494	-6.483785	66.950494	-2.843286	154.935641
9.350000	-2.794649	149.726016	-6.690410	60.823385	-6.690410	60.823385	-2.793364	149.273544
9.400000	-2.774248	143.982627	-6.866879	54.437729	-6.866879	54.437729	-2.772774	143.539163
9.450000	-2.791953	138.147799	-7.005050	47.685695	-7.005050	47.685695	-2.790222	137.714320
9.500000	-2.862703	132.206244	-7.096161	40.404156	-7.096161	40.404156	-2.860583	131.784243
9.550000	-3.012374	126.163300	-7.132922	32.340448	-7.132922	32.340448	-3.009600	125.754982
9.600000	-3.286823	120.101222	-7.115673	23.091102	-7.115673	23.091102	-3.282838	119.709694
9.650000	-3.763711	114.366006	-7.071007	12.021219	-7.071007	12.021219	-3.757294	113.994837
9.700000	-4.535758	110.086433	-7.096188	-1.727583	-7.096188	-1.727583	-4.524286	109.735351
9.750000	-5.515518	110.053505	-7.437454	-18.929086	-7.437454	-18.929086	-5.494837	109.699358
9.800000	-5.855625	116.148920	-8.517370	-38.994567	-8.517370	-38.994567	-5.827607	115.727154
9.850000	-4.843138	120.558077	-10.650055	-58.623659	-10.650055	-58.623659	-4.819906	120.065660
9.900000	-3.570038	117.961058	-13.641765	-73.853799	-13.641765	-73.853799	-3.554142	117.451802
9.950000	-2.697038	111.947869	-17.030367	-83.019940	-17.030367	-83.019940	-2.685943	111.443728
10.000000	-2.169351	105.255440	-20.421344	-86.222415	-20.421344	-86.222415	-2.161259	104.760768
