! freq	dB(S11)	phase(S11)	dB(S12)	phase(S12)	
!     	dB(S21)	phase(S21)	dB(S22)	phase(S22)	
!S-par simulation data
#  GHz  S  DB  R 50
0.000000	-89.213460	0.000000	-0.000301	0.000000	-0.000301	0.000000	-89.213460	0.000000
0.050000	-29.568487	-93.379733	-0.011702	-3.324291	-0.011702	-3.324291	-29.570053	-93.532601
0.100000	-23.580851	-96.808834	-0.029675	-6.650573	-0.029675	-6.650573	-23.582150	-97.115590
0.150000	-20.108807	-100.153808	-0.057889	-9.950872	-0.057889	-9.950872	-20.109862	-100.615581
0.200000	-17.673087	-103.424446	-0.095525	-13.221466	-0.095525	-13.221466	-17.674023	-104.041862
0.250000	-15.807756	-106.630840	-0.141523	-16.460457	-0.141523	-16.460457	-15.808707	-107.404059
0.300000	-14.305714	-109.781640	-0.195221	-19.665999	-0.195221	-19.665999	-14.306775	-110.710718
0.350000	-13.056643	-112.883212	-0.256073	-22.836216	-0.256073	-22.836216	-13.057866	-113.968401
0.400000	-11.994338	-115.939677	-0.323501	-25.969566	-0.323501	-25.969566	-11.995742	-117.181554
0.450000	-11.076836	-118.951725	-0.397081	-29.063365	-0.397081	-29.063365	-11.078423	-120.351242
0.500000	-10.274640	-121.919914	-0.476205	-32.116058	-0.476205	-32.116058	-10.276404	-123.478354
0.550000	-9.566930	-124.843471	-0.560324	-35.125737	-0.560324	-35.125737	-9.568862	-126.562426
0.600000	-8.938336	-127.721107	-0.648871	-38.090519	-0.648871	-38.090519	-8.940426	-129.602463
0.650000	-8.376515	-130.552544	-0.741199	-41.009846	-0.741199	-41.009846	-8.378755	-132.598412
0.700000	-7.872358	-133.336445	-0.836732	-43.882319	-0.836732	-43.882319	-7.874743	-135.549204
0.750000	-7.418030	-136.072784	-0.934846	-46.707952	-0.934846	-46.707952	-7.420555	-138.455018
0.800000	-7.007265	-138.761493	-1.034954	-49.486785	-1.034954	-49.486785	-7.009928	-141.316004
0.850000	-6.635130	-141.402126	-1.136489	-52.218534	-1.136489	-52.218534	-6.637931	-144.131973
0.900000	-6.296902	-143.995937	-1.238906	-54.904607	-1.238906	-54.904607	-6.299843	-146.904348
0.950000	-5.989053	-146.543157	-1.341690	-57.545423	-1.341690	-57.545423	-5.992138	-149.633615
1.000000	-5.708471	-149.044453	-1.444344	-60.141845	-1.444344	-60.141845	-5.711705	-152.320694
1.050000	-5.452580	-151.500356	-1.546381	-62.694622	-1.546381	-62.694622	-5.455970	-154.966417
1.100000	-5.218233	-153.914243	-1.647487	-65.207226	-1.647487	-65.207226	-5.221785	-157.574203
1.150000	-5.003768	-156.286274	-1.747228	-67.680052	-1.747228	-67.680052	-5.007493	-160.144574
1.200000	-4.807345	-158.617915	-1.845255	-70.114753	-1.845255	-70.114753	-4.811252	-162.679258
1.250000	-4.627338	-160.910704	-1.941247	-72.513058	-1.941247	-72.513058	-4.631439	-165.180070
1.300000	-4.462546	-163.165463	-2.034836	-74.876042	-2.034836	-74.876042	-4.466853	-167.648237
1.350000	-4.311427	-165.384665	-2.125829	-77.206319	-2.125829	-77.206319	-4.315954	-170.086423
1.400000	-4.172852	-167.569954	-2.213993	-79.505733	-2.213993	-79.505733	-4.177614	-172.496586
1.450000	-4.045813	-169.722978	-2.299120	-81.776134	-2.299120	-81.776134	-4.050827	-174.880702
1.500000	-3.929413	-171.845376	-2.381022	-84.019372	-2.381022	-84.019372	-3.934696	-177.240752
1.550000	-3.822849	-173.938770	-2.459535	-86.237286	-2.459535	-86.237286	-3.828420	-179.578719
1.600000	-3.725404	-176.004756	-2.534514	-88.431698	-2.534514	-88.431698	-3.731283	178.103423
1.650000	-3.636436	-178.044899	-2.605831	-90.604407	-2.605831	-90.604407	-3.642645	175.803711
1.700000	-3.555370	179.939272	-2.673375	-92.757187	-2.673375	-92.757187	-3.561932	173.520196
1.750000	-3.481694	177.946266	-2.737051	-94.891783	-2.737051	-94.891783	-3.488634	171.250949
1.800000	-3.414946	175.974636	-2.796776	-97.009910	-2.796776	-97.009910	-3.422293	168.994057
1.850000	-3.354717	174.022979	-2.852482	-99.113249	-2.852482	-99.113249	-3.362500	166.747627
1.900000	-3.300701	172.090127	-2.904064	-101.203329	-2.904064	-101.203329	-3.308952	164.509857
1.950000	-3.252565	170.174727	-2.951474	-103.281821	-2.951474	-103.281821	-3.261318	162.278828
2.000000	-3.209957	168.275317	-2.994725	-105.350456	-2.994725	-105.350456	-3.219249	160.052605
2.050000	-3.172625	166.390687	-3.033789	-107.410788	-3.033789	-107.410788	-3.182496	157.829364
2.100000	-3.140345	164.519674	-3.068646	-109.464343	-3.068646	-109.464343	-3.150838	155.607288
2.150000	-3.112922	162.661165	-3.099286	-111.512622	-3.099286	-111.512622	-3.124082	153.384570
2.200000	-3.090187	160.814092	-3.125705	-113.557096	-3.125705	-113.557096	-3.102064	151.159410
2.250000	-3.071996	158.977439	-3.147904	-115.599215	-3.147904	-115.599215	-3.084644	148.930008
2.300000	-3.058228	157.150237	-3.165894	-117.640403	-3.165894	-117.640403	-3.071704	146.694563
2.350000	-3.048781	155.331566	-3.179691	-119.682065	-3.179691	-119.682065	-3.063148	144.451270
2.400000	-3.043577	153.520555	-3.189315	-121.725586	-3.189315	-121.725586	-3.058903	142.198315
2.450000	-3.042554	151.716385	-3.194794	-123.772334	-3.194794	-123.772334	-3.058912	139.933872
2.500000	-3.045671	149.918288	-3.196163	-125.823657	-3.196163	-125.823657	-3.063140	137.656095
2.550000	-3.052992	148.125650	-3.193372	-127.881051	-3.193372	-127.881051	-3.071660	135.362747
2.600000	-3.064420	146.337685	-3.186557	-129.945738	-3.186557	-129.945738	-3.084381	133.052225
2.650000	-3.079965	144.553794	-3.175768	-132.019026	-3.175768	-132.019026	-3.101321	130.722606
2.700000	-3.099652	142.773441	-3.161064	-134.102210	-3.161064	-134.102210	-3.122513	128.371933
2.750000	-3.123524	140.996154	-3.142508	-136.196577	-3.142508	-136.196577	-3.148011	125.998209
2.800000	-3.151638	139.221532	-3.120170	-138.303400	-3.120170	-138.303400	-3.177882	123.599393
2.850000	-3.184065	137.449246	-3.094127	-140.423943	-3.094127	-140.423943	-3.212210	121.173392
2.900000	-3.220893	135.679046	-3.064463	-142.559460	-3.064463	-142.559460	-3.251096	118.718060
2.950000	-3.262225	133.910773	-3.031269	-144.711192	-3.031269	-144.711192	-3.294657	116.231187
3.000000	-3.308178	132.144360	-2.994645	-146.880370	-2.994645	-146.880370	-3.343027	113.710497
3.050000	-3.358883	130.379844	-2.954697	-149.068210	-2.954697	-149.068210	-3.396356	111.153641
3.100000	-3.414487	128.617376	-2.911541	-151.275914	-2.911541	-151.275914	-3.454812	108.558188
3.150000	-3.475202	126.857262	-2.865266	-153.504908	-2.865266	-153.504908	-3.518631	105.921144
3.200000	-3.541206	125.099939	-2.816011	-155.756396	-2.816011	-155.756396	-3.588018	103.239802
3.250000	-3.612637	123.345961	-2.763955	-158.031289	-2.763955	-158.031289	-3.663137	100.511884
3.300000	-3.689695	121.596079	-2.709253	-160.330698	-2.709253	-160.330698	-3.744221	97.734550
3.350000	-3.772593	119.851234	-2.652069	-162.655704	-2.652069	-162.655704	-3.831519	94.904837
3.400000	-3.861553	118.112576	-2.592581	-165.007349	-2.592581	-165.007349	-3.925294	92.019646
3.450000	-3.956809	116.381487	-2.530974	-167.386635	-2.530974	-167.386635	-4.025826	89.075731
3.500000	-4.058598	114.659602	-2.467448	-169.794511	-2.467448	-169.794511	-4.133404	86.069686
3.550000	-4.167167	112.948844	-2.402212	-172.231870	-2.402212	-172.231870	-4.248331	82.997931
3.600000	-4.282759	111.251440	-2.335489	-174.699543	-2.335489	-174.699543	-4.370918	79.856691
3.650000	-4.405619	109.569962	-2.267512	-177.198285	-2.267512	-177.198285	-4.501483	76.641986
3.700000	-4.535983	107.907352	-2.198525	-179.728770	-2.198525	-179.728770	-4.640345	73.349602
3.750000	-4.674075	106.266958	-2.128785	177.708422	-2.128785	177.708422	-4.787822	69.975077
3.800000	-4.820218	104.653231	-2.058541	175.112087	-2.058541	175.112087	-4.944356	66.511666
3.850000	-4.974460	103.069983	-1.988098	172.482572	-1.988098	172.482572	-5.110101	62.956090
3.900000	-5.136932	101.522013	-1.917742	169.819640	-1.917742	169.819640	-5.285320	59.302957
3.950000	-5.307712	100.014652	-1.847766	167.123190	-1.847766	167.123190	-5.470237	55.546518
4.000000	-5.486810	98.553784	-1.778468	164.393267	-1.778468	164.393267	-5.665024	51.680636
4.050000	-5.674150	97.145855	-1.710150	161.630065	-1.710150	161.630065	-5.869785	47.698770
4.100000	-5.869552	95.797870	-1.643118	158.833943	-1.643118	158.833943	-6.084531	43.593953
4.150000	-6.072708	94.517367	-1.577675	156.005428	-1.577675	156.005428	-6.309163	39.358782
4.200000	-6.283153	93.312371	-1.514122	153.145219	-1.514122	153.145219	-6.543433	34.985432
4.250000	-6.500239	92.191301	-1.452755	150.254194	-1.452755	150.254194	-6.786921	30.465691
4.300000	-6.723107	91.162841	-1.393862	147.333411	-1.393862	147.333411	-7.038987	25.791022
4.350000	-6.950648	90.235753	-1.337716	144.384103	-1.337716	144.384103	-7.298733	20.952691
4.400000	-7.181430	89.419909	-1.284610	141.407403	-1.284610	141.407403	-7.564916	15.939980
4.450000	-7.413694	88.723620	-1.234795	138.404943	-1.234795	138.404943	-7.835899	10.744133
4.500000	-7.645447	88.152733	-1.188461	135.378760	-1.188461	135.378760	-8.109711	5.359258
4.550000	-7.874333	87.712792	-1.145803	132.330738	-1.145803	132.330738	-8.383920	-0.221193
4.600000	-8.097683	87.407259	-1.106986	129.262884	-1.106986	129.262884	-8.655622	-6.001879
4.650000	-8.312551	87.236874	-1.072149	126.177313	-1.072149	126.177313	-8.921441	-11.984752
4.700000	-8.515778	87.199019	-1.041395	123.076221	-1.041395	123.076221	-9.177561	-18.168132
4.750000	-8.704100	87.287146	-1.014797	119.961868	-1.014797	119.961868	-9.419813	-24.545733
4.800000	-8.874281	87.490369	-0.992391	116.836545	-0.992391	116.836545	-9.643805	-31.105737
4.850000	-9.023280	87.793283	-0.974179	113.702554	-0.974179	113.702554	-9.845131	-37.830083
4.900000	-9.148429	88.176128	-0.960126	110.562174	-0.960126	110.562174	-10.019622	-44.694130
4.950000	-9.247617	88.615322	-0.950164	107.417644	-0.950164	107.417644	-10.163633	-51.666861
5.000000	-9.319439	89.084374	-0.944191	104.271128	-0.944191	104.271128	-10.274336	-58.711752
5.050000	-9.362702	89.554493	-0.942150	101.124741	-0.942150	101.124741	-10.349180	-65.788014
5.100000	-9.378338	89.996645	-0.943789	97.980470	-0.943789	97.980470	-10.388458	-72.851652
5.150000	-9.367490	90.383774	-0.948912	94.840115	-0.948912	94.840115	-10.392963	-79.860972
5.200000	-9.332033	90.691395	-0.957300	91.705320	-0.957300	91.705320	-10.364666	-86.777256
5.250000	-9.274424	90.898552	-0.968710	88.577555	-0.968710	88.577555	-10.306524	-93.566655
5.300000	-9.197532	90.988405	-0.982883	85.458109	-0.982883	85.458109	-10.222218	-100.201452
5.350000	-9.104462	90.948435	-0.999543	82.348080	-0.999543	82.348080	-10.115867	-106.660665
5.400000	-8.998389	90.770323	-1.018403	79.248366	-1.018403	79.248366	-9.991750	-112.930000
5.450000	-8.882420	90.449571	-1.039165	76.159668	-1.039165	76.159668	-9.854078	-119.001333
5.500000	-8.759494	89.984970	-1.061527	73.082486	-1.061527	73.082486	-9.706816	-124.871866
5.550000	-8.632312	89.377988	-1.085182	70.017123	-1.085182	70.017123	-9.553575	-130.543143
5.600000	-8.503295	88.632150	-1.109824	66.963687	-1.109824	66.963687	-9.397544	-136.020047
5.650000	-8.374576	87.751082	-1.135153	63.922224	-1.135153	63.922224	-9.241472	-141.307957
5.700000	-8.248051	86.741004	-1.160856	60.892455	-1.160856	60.892455	-9.087757	-146.416158
5.750000	-8.125294	85.609940	-1.186635	57.873802	-1.186635	57.873802	-8.938346	-151.356652
5.800000	-8.007618	84.364660	-1.212204	54.865650	-1.212204	54.865650	-8.794810	-156.139861
5.850000	-7.896122	83.011874	-1.237285	51.867225	-1.237285	51.867225	-8.658422	-160.776296
5.900000	-7.791725	81.558055	-1.261614	48.877603	-1.261614	48.877603	-8.530204	-165.276304
5.950000	-7.695194	80.009298	-1.284936	45.895718	-1.284936	45.895718	-8.410978	-169.649885
6.000000	-7.607174	78.371238	-1.307009	42.920370	-1.307009	42.920370	-8.301400	-173.906585
6.050000	-7.528215	76.648987	-1.327606	39.950230	-1.327606	39.950230	-8.201999	-178.055423
6.100000	-7.458796	74.847108	-1.346509	36.983848	-1.346509	36.983848	-8.113212	177.895142
6.150000	-7.399348	72.969598	-1.363520	34.019656	-1.363520	34.019656	-8.035409	173.937225
6.200000	-7.350270	71.019885	-1.378450	31.055974	-1.378450	31.055974	-7.968918	170.063511
6.250000	-7.311954	69.000836	-1.391130	28.091015	-1.391130	28.091015	-7.914046	166.267250
6.300000	-7.285046	66.913348	-1.401347	25.122767	-1.401347	25.122767	-7.871361	162.543657
6.350000	-7.269736	64.760659	-1.409010	22.149250	-1.409010	22.149250	-7.840941	158.885419
6.400000	-7.266477	62.543970	-1.413998	19.168351	-1.413998	19.168351	-7.823136	155.287436
6.450000	-7.275779	60.263953	-1.416203	16.177855	-1.416203	16.177855	-7.818342	151.745130
6.500000	-7.298218	57.920756	-1.415537	13.175439	-1.415537	13.175439	-7.827017	148.254454
6.550000	-7.334453	55.513998	-1.411930	10.158672	-1.411930	10.158672	-7.849691	144.811901
6.600000	-7.385247	53.042758	-1.405331	7.125014	-1.405331	7.125014	-7.886983	141.414540
6.650000	-7.451485	50.505550	-1.395709	4.071812	-1.395709	4.071812	-7.939619	138.060055
6.700000	-7.534127	47.900579	-1.383068	0.996399	-1.383068	0.996399	-8.008378	134.746657
6.750000	-7.634414	45.224954	-1.367416	-2.104166	-1.367416	-2.104166	-8.094291	131.473593
6.800000	-7.753985	42.474259	-1.348758	-5.233294	-1.348758	-5.233294	-8.198738	128.241425
6.850000	-7.894580	39.643872	-1.327159	-8.394321	-1.327159	-8.394321	-8.323152	125.051462
6.900000	-8.057552	36.731053	-1.302810	-11.589528	-1.302810	-11.589528	-8.468535	121.904880
6.950000	-8.245369	33.728772	-1.275819	-14.822613	-1.275819	-14.822613	-8.636891	118.806144
7.000000	-8.461601	30.625749	-1.246275	-18.098676	-1.246275	-18.098676	-8.831134	115.763475
7.050000	-8.708401	27.417275	-1.214521	-21.419426	-1.214521	-21.419426	-9.052726	112.783116
7.100000	-8.989547	24.092446	-1.180822	-24.788481	-1.180822	-24.788481	-9.304462	109.876736
7.150000	-9.311201	20.630266	-1.145415	-28.212460	-1.145415	-28.212460	-9.590961	107.065791
7.200000	-9.677756	17.018648	-1.108777	-31.692982	-1.108777	-31.692982	-9.914899	104.369081
7.250000	-10.095880	13.236349	-1.071360	-35.233590	-1.071360	-35.233590	-10.280418	101.815564
7.300000	-10.575481	9.246357	-1.033681	-38.840567	-1.033681	-38.840567	-10.693448	99.453103
7.350000	-11.127075	5.009052	-0.996381	-42.517281	-0.996381	-42.517281	-11.159072	97.338083
7.400000	-11.763480	0.473880	-0.960153	-46.266049	-0.960153	-46.266049	-11.682287	95.541817
7.450000	-12.503356	-4.447081	-0.925816	-50.091993	-0.925816	-50.091993	-12.269003	94.177776
7.500000	-13.371381	-9.893623	-0.894365	-54.000482	-0.894365	-54.000482	-12.923303	93.412104
7.550000	-14.396536	-16.045585	-0.866713	-57.991566	-0.866713	-57.991566	-13.643653	93.428236
7.600000	-15.619926	-23.228404	-0.843959	-62.068035	-0.843959	-62.068035	-14.420397	94.495594
7.650000	-17.094306	-32.150355	-0.827703	-66.236890	-0.827703	-66.236890	-15.219833	97.046947
7.700000	-18.862514	-43.903836	-0.818972	-70.494557	-0.818972	-70.494557	-15.976890	101.377130
7.750000	-20.890159	-60.640464	-0.819128	-74.841114	-0.819128	-74.841114	-16.577888	107.684406
7.800000	-22.700071	-86.077602	-0.830148	-79.279784	-0.830148	-79.279784	-16.849817	115.773847
7.850000	-23.013709	-119.327025	-0.853357	-83.805988	-0.853357	-83.805988	-16.670171	124.555814
7.900000	-21.298205	-149.157812	-0.890620	-88.417665	-0.890620	-88.417665	-16.027993	132.556470
7.950000	-18.884019	-169.741573	-0.943409	-93.108702	-0.943409	-93.108702	-15.058055	138.696886
8.000000	-16.608860	176.137230	-1.013365	-97.872759	-1.013365	-97.872759	-13.923644	142.651702
8.050000	-14.641407	165.563312	-1.102133	-102.701985	-1.102133	-102.701985	-12.749685	144.613445
8.100000	-12.960084	156.925907	-1.210841	-107.585765	-1.210841	-107.585765	-11.610850	144.989300
8.150000	-11.513425	149.445736	-1.340925	-112.513489	-1.340925	-112.513489	-10.540586	144.132021
8.200000	-10.257986	142.686209	-1.493131	-117.472211	-1.493131	-117.472211	-9.553004	142.355857
8.250000	-9.159730	136.412557	-1.668094	-122.448661	-1.668094	-122.448661	-8.650406	139.889132
8.300000	-8.193143	130.490455	-1.866366	-127.428961	-1.866366	-127.428961	-7.830186	136.898965
8.350000	-7.338414	124.832620	-2.087703	-132.399155	-2.087703	-132.399155	-7.087527	133.521955
8.400000	-6.580385	119.391602	-2.332040	-137.345405	-2.332040	-137.345405	-6.416928	129.852533
8.450000	-5.906609	114.134765	-2.598702	-142.254808	-2.598702	-142.254808	-5.812582	125.969156
8.500000	-5.306785	109.042050	-2.886822	-147.115736	-2.886822	-147.115736	-5.268749	121.931894
8.550000	-4.772777	104.103468	-3.195507	-151.916694	-3.195507	-151.916694	-4.780442	117.786382
8.600000	-4.296882	99.309204	-3.523409	-156.649261	-3.523409	-156.649261	-4.342316	113.571537
8.650000	-3.873144	94.656119	-3.869269	-161.304666	-3.869269	-161.304666	-3.950064	109.316472
8.700000	-3.495066	90.135972	-4.231610	-165.879464	-4.231610	-165.879464	-3.598527	105.045346
8.750000	-3.157703	85.745420	-4.609154	-170.369504	-4.609154	-170.369504	-3.283698	100.775761
8.800000	-2.858014	81.488440	-5.000322	-174.766781	-5.000322	-174.766781	-3.003171	96.522990
8.850000	-2.590569	77.354180	-5.403962	-179.074839	-5.403962	-179.074839	-2.752193	92.297010
8.900000	-2.351880	73.339100	-5.818933	176.706700	-5.818933	176.706700	-2.527717	88.105509
8.950000	-2.139586	69.444036	-6.243683	172.580954	-6.243683	172.580954	-2.327697	83.955908
9.000000	-1.950325	65.661873	-6.677374	168.544326	-6.677374	168.544326	-2.149095	79.851248
9.050000	-1.781300	61.986458	-7.119334	164.593358	-7.119334	164.593358	-1.989369	75.793196
9.100000	-1.630655	58.415859	-7.568408	160.727614	-7.568408	160.727614	-1.846841	71.784221
9.150000	-1.496468	54.946245	-8.023696	156.944855	-8.023696	156.944855	-1.719754	67.825198
9.200000	-1.376517	51.569760	-8.485191	153.239254	-8.485191	153.239254	-1.606051	63.914222
9.250000	-1.269351	48.282670	-8.952304	149.608174	-8.952304	149.608174	-1.504397	60.050890
9.300000	-1.173995	45.084045	-9.423767	146.051189	-9.423767	146.051189	-1.413900	56.235999
9.350000	-1.088698	41.965250	-9.900293	142.561285	-9.900293	142.561285	-1.332931	52.465780
9.400000	-1.012408	38.922247	-10.381700	139.135185	-10.381700	139.135185	-1.260515	48.738698
9.450000	-0.944491	35.954175	-10.866873	135.772200	-10.866873	135.772200	-1.196077	45.054890
9.500000	-0.883799	33.054355	-11.356600	132.466661	-11.356600	132.466661	-1.138549	41.410988
9.550000	-0.829658	30.219873	-11.850638	129.216001	-11.850638	129.216001	-1.087310	37.805688
9.600000	-0.781424	27.447528	-12.348925	126.017338	-12.348925	126.017338	-1.041771	34.237445
9.650000	-0.738522	24.734246	-12.851449	122.867828	-12.851449	122.867828	-1.001406	30.704735
9.700000	-0.700376	22.076332	-13.358609	119.764047	-13.358609	119.764047	-0.965688	27.205614
9.750000	-0.666527	19.470873	-13.870621	116.703157	-13.870621	116.703157	-0.934199	23.738579
9.800000	-0.636566	16.915135	-14.387751	113.682396	-14.387751	113.682396	-0.906570	20.302216
9.850000	-0.610131	14.406550	-14.910313	110.699059	-14.910313	110.699059	-0.882475	16.895206
9.900000	-0.586900	11.942713	-15.438671	107.750483	-15.438671	107.750483	-0.861627	13.516324
9.950000	-0.566587	9.521371	-15.973238	104.834027	-15.973238	104.834027	-0.843771	10.164441
10.000000	-0.548940	7.140413	-16.514481	101.947047	-16.514481	101.947047	-0.828685	6.838520
