! freq	dB(S11)	phase(S11)	dB(S12)	phase(S12)	
!     	dB(S21)	phase(S21)	dB(S22)	phase(S22)	
!S-par simulation data
#  GHz  S  DB  R 50
0.000000	-85.515717	0.000000	-0.000460	0.000000	-0.000460	0.000000	-85.515717	0.000000
0.050000	-36.167867	-92.735909	-0.006314	-2.860012	-0.006314	-2.860012	-36.119128	-92.402380
0.100000	-30.136053	-95.873531	-0.014788	-5.678895	-0.014788	-5.678895	-30.141522	-95.228720
0.150000	-26.624397	-99.146485	-0.023968	-8.486238	-0.023968	-8.486238	-26.664272	-98.036506
0.200000	-24.185101	-102.326166	-0.034767	-11.286490	-0.034767	-11.286490	-24.211120	-100.809646
0.250000	-22.312482	-105.285406	-0.047303	-14.079501	-0.047303	-14.079501	-22.320002	-103.543747
0.300000	-20.788571	-108.181453	-0.061583	-16.864711	-0.061583	-16.864711	-20.786606	-106.243255
0.350000	-19.509743	-111.087198	-0.077515	-19.642000	-0.077515	-19.642000	-19.501385	-108.915472
0.400000	-18.413333	-114.025532	-0.095054	-22.410973	-0.095054	-22.410973	-18.399547	-111.565396
0.450000	-17.454550	-116.992308	-0.114121	-25.171278	-0.114121	-25.171278	-17.439152	-114.196679
0.500000	-16.603469	-119.953014	-0.134623	-27.922527	-0.134623	-27.922527	-16.591574	-116.811616
0.550000	-15.843138	-122.884809	-0.156463	-30.664189	-0.156463	-30.664189	-15.836648	-119.411345
0.600000	-15.161125	-125.791174	-0.179498	-33.395926	-0.179498	-33.395926	-15.159184	-121.996702
0.650000	-14.546465	-128.680216	-0.203570	-36.117427	-0.203570	-36.117427	-14.547608	-124.568131
0.700000	-13.990049	-131.556331	-0.228512	-38.828314	-0.228512	-38.828314	-13.993028	-127.125753
0.750000	-13.484409	-134.421248	-0.254142	-41.528247	-0.254142	-41.528247	-13.488318	-129.669625
0.800000	-13.023495	-137.275444	-0.280276	-44.216894	-0.280276	-44.216894	-13.027703	-132.199762
0.850000	-12.602440	-140.118894	-0.306738	-46.893886	-0.306738	-46.893886	-12.606516	-134.716110
0.900000	-12.217223	-142.951472	-0.333358	-49.558907	-0.333358	-49.558907	-12.220873	-137.218635
0.950000	-11.864248	-145.773248	-0.359981	-52.211921	-0.359981	-52.211921	-11.867280	-139.707546
1.000000	-11.540610	-148.584277	-0.386467	-54.852908	-0.386467	-54.852908	-11.542904	-142.182966
1.050000	-11.243831	-151.384718	-0.412687	-57.481994	-0.412687	-57.481994	-11.245315	-144.645074
1.100000	-10.971774	-154.174834	-0.438514	-60.099443	-0.438514	-60.099443	-10.972418	-147.094105
1.150000	-10.722593	-156.954983	-0.463827	-62.705643	-0.463827	-62.705643	-10.722392	-149.530353
1.200000	-10.494675	-159.725615	-0.488507	-65.301081	-0.488507	-65.301081	-10.493648	-151.954166
1.250000	-10.286613	-162.487264	-0.512436	-67.886325	-0.512436	-67.886325	-10.284792	-154.365950
1.300000	-10.097371	-165.240427	-0.535487	-70.461882	-0.535487	-70.461882	-10.094803	-156.765998
1.350000	-9.925654	-167.985914	-0.557564	-73.028588	-0.557564	-73.028588	-9.922394	-159.154988
1.400000	-9.770505	-170.724463	-0.578565	-75.587174	-0.578565	-75.587174	-9.766615	-161.533465
1.450000	-9.631084	-173.456868	-0.598396	-78.138405	-0.598396	-78.138405	-9.626629	-163.902015
1.500000	-9.506649	-176.183968	-0.616970	-80.683077	-0.616970	-80.683077	-9.501698	-166.261255
1.550000	-9.396551	-178.906645	-0.634208	-83.222012	-0.634208	-83.222012	-9.391174	-168.611831
1.600000	-9.300222	178.374186	-0.650039	-85.756053	-0.650039	-85.756053	-9.294487	-170.954414
1.650000	-9.217167	175.657575	-0.664402	-88.286059	-0.664402	-88.286059	-9.211144	-173.289694
1.700000	-9.147352	172.942567	-0.677195	-90.812833	-0.677195	-90.812833	-9.141111	-175.618187
1.750000	-9.089669	170.228100	-0.688469	-93.337428	-0.688469	-93.337428	-9.083272	-177.940993
1.800000	-9.044166	167.513207	-0.698147	-95.860644	-0.698147	-95.860644	-9.037675	179.741358
1.850000	-9.010593	164.796866	-0.706204	-98.383376	-0.706204	-98.383376	-9.004065	177.428146
1.900000	-8.988877	162.078008	-0.712606	-100.906534	-0.712606	-100.906534	-8.982368	175.118688
1.950000	-8.978865	159.355564	-0.717346	-103.431038	-0.717346	-103.431038	-8.972426	172.812251
2.000000	-8.980330	156.628522	-0.720446	-105.957770	-0.720446	-105.957770	-8.974007	170.508104
2.050000	-8.993216	153.895851	-0.721916	-108.487604	-0.721916	-108.487604	-8.987050	168.205572
2.100000	-9.017511	151.156523	-0.721776	-111.021401	-0.721776	-111.021401	-9.011540	165.904006
2.150000	-9.053248	148.409518	-0.720055	-113.560006	-0.720055	-113.560006	-9.047504	163.602785
2.200000	-9.100500	145.653828	-0.716789	-116.104246	-0.716789	-116.104246	-9.095013	161.301324
2.250000	-9.159387	142.888461	-0.712023	-118.654923	-0.712023	-118.654923	-9.154182	158.999075
2.300000	-9.230068	140.112440	-0.705809	-121.212814	-0.705809	-121.212814	-9.225167	156.695538
2.350000	-9.312751	137.324805	-0.698207	-123.778667	-0.698207	-123.778667	-9.308171	154.390263
2.400000	-9.407683	134.524621	-0.689284	-126.353198	-0.689284	-126.353198	-9.403442	152.082860
2.450000	-9.515163	131.710971	-0.679114	-128.937086	-0.679114	-128.937086	-9.511275	149.773001
2.500000	-9.635535	128.882965	-0.667777	-131.530974	-0.667777	-131.530974	-9.632012	147.460435
2.550000	-9.769444	126.039386	-0.655339	-134.135703	-0.655339	-134.135703	-9.766298	145.144922
2.600000	-9.917091	123.179707	-0.641919	-136.751607	-0.641919	-136.751607	-9.914335	142.826447
2.650000	-10.078984	120.303114	-0.627615	-139.379189	-0.627615	-139.379189	-10.076632	140.505034
2.700000	-10.255690	117.408818	-0.612531	-142.018899	-0.612531	-142.018899	-10.253760	138.180819
2.750000	-10.447845	114.496054	-0.596773	-144.671135	-0.596773	-144.671135	-10.446358	135.854064
2.800000	-10.656158	111.564076	-0.580454	-147.336236	-0.580454	-147.336236	-10.655142	133.525170
2.850000	-10.881420	108.612155	-0.563688	-150.014483	-0.563688	-150.014483	-10.880908	131.194697
2.900000	-11.124512	105.639571	-0.546590	-152.706096	-0.546590	-152.706096	-11.124549	128.863381
2.950000	-11.386419	102.645609	-0.529281	-155.411231	-0.529281	-155.411231	-11.387059	126.532160
3.000000	-11.668242	99.629546	-0.511877	-158.129981	-0.511877	-158.129981	-11.669553	124.202209
3.050000	-11.971214	96.590638	-0.494499	-160.862371	-0.494499	-160.862371	-11.973280	121.874970
3.100000	-12.296727	93.528103	-0.477265	-163.608363	-0.477265	-163.608363	-12.299648	119.552207
3.150000	-12.646467	90.440823	-0.460294	-166.367997	-0.460294	-166.367997	-12.650362	117.236157
3.200000	-13.022210	87.327830	-0.443703	-169.141092	-0.443703	-169.141092	-13.027213	114.929514
3.250000	-13.425871	84.188316	-0.427600	-171.927266	-0.427600	-171.927266	-13.432130	112.635376
3.300000	-13.859795	81.021024	-0.412090	-174.726216	-0.412090	-174.726216	-13.867462	110.357572
3.350000	-14.326699	77.824440	-0.397271	-177.537583	-0.397271	-177.537583	-14.335919	108.100733
3.400000	-14.829762	74.596701	-0.383236	179.639047	-0.383236	179.639047	-14.840659	105.870482
3.450000	-15.372741	71.335461	-0.370070	176.804142	-0.370070	176.804142	-15.385398	103.673690
3.500000	-15.960125	68.037714	-0.357851	173.958215	-0.357851	173.958215	-15.974563	101.518863
3.550000	-16.597345	64.699528	-0.346646	171.101822	-0.346646	171.101822	-16.613499	99.416733
3.600000	-17.291063	61.315663	-0.336514	168.235554	-0.336514	168.235554	-17.308753	97.381154
3.650000	-18.049591	57.878993	-0.327503	165.360029	-0.327503	165.360029	-18.068460	95.430493
3.700000	-18.883488	54.379600	-0.319652	162.475890	-0.319652	162.475890	-18.902907	93.589789
3.750000	-19.806472	50.803311	-0.312986	159.583794	-0.312986	159.583794	-19.825333	91.894213
3.800000	-20.836700	47.126369	-0.307548	156.684261	-0.307548	156.684261	-20.852977	90.400881
3.850000	-21.999244	43.317190	-0.303316	153.778128	-0.303316	153.778128	-22.009243	89.186627
3.900000	-23.329932	39.321578	-0.300282	150.866046	-0.300282	150.866046	-23.326542	88.379668
3.950000	-24.882478	35.044931	-0.298427	147.948653	-0.298427	147.948653	-24.851168	88.199029
4.000000	-26.742616	30.306254	-0.297722	145.026559	-0.297722	145.026559	-26.651090	89.049809
4.050000	-29.059179	24.711147	-0.298128	142.100343	-0.298128	142.100343	-28.826427	91.760357
4.100000	-32.121936	17.211089	-0.299595	139.170542	-0.299595	139.170542	-31.506280	98.237424
4.150000	-36.576050	3.889958	-0.302065	136.237651	-0.302065	136.237651	-34.681597	113.184970
4.200000	-43.055524	-37.638380	-0.305471	133.302109	-0.305471	133.302109	-37.109959	143.855401
4.250000	-41.209411	-116.638154	-0.309740	130.364299	-0.309740	130.364299	-36.032802	179.704896
4.300000	-35.376268	-143.234142	-0.314790	127.424540	-0.314790	127.424540	-33.084380	-160.239051
4.350000	-31.726274	-153.729164	-0.320537	124.483085	-0.320537	124.483085	-30.445933	-151.493400
4.400000	-29.206908	-160.494807	-0.326895	121.540101	-0.326895	121.540101	-28.355041	-147.698411
4.450000	-27.320115	-165.903409	-0.333768	118.595698	-0.333768	118.595698	-26.688537	-146.194076
4.500000	-25.833768	-170.683721	-0.341053	115.649920	-0.341053	115.649920	-25.331365	-145.884875
4.550000	-24.624697	-175.128059	-0.348654	112.702717	-0.348654	112.702717	-24.204986	-146.269917
4.600000	-23.620052	-179.380934	-0.356476	109.753966	-0.356476	109.753966	-23.256651	-147.083302
4.650000	-22.773376	176.477271	-0.364423	106.803462	-0.364423	106.803462	-22.450037	-148.171416
4.700000	-22.053334	172.397372	-0.372403	103.850927	-0.372403	103.850927	-21.759380	-149.439001
4.750000	-21.437884	168.346650	-0.380327	100.896007	-0.380327	100.896007	-21.165902	-150.823234
4.800000	-20.910999	164.301561	-0.388113	97.938276	-0.388113	97.938276	-20.655585	-152.280277
4.850000	-20.460733	160.243829	-0.395682	94.977238	-0.395682	94.977238	-20.217763	-153.777829
4.900000	-20.078006	156.158183	-0.402962	92.012329	-0.402962	92.012329	-19.844185	-155.290748
4.950000	-19.755816	152.030950	-0.409892	89.042923	-0.409892	89.042923	-19.528385	-156.798333
5.000000	-19.488709	147.849123	-0.416416	86.068336	-0.416416	86.068336	-19.265243	-158.282545
5.050000	-19.273345	143.597878	-0.422478	83.087678	-0.422478	83.087678	-19.051558	-159.725513
5.100000	-19.105383	139.264707	-0.428053	80.100271	-0.428053	80.100271	-18.883095	-161.111598
5.150000	-18.982172	134.834800	-0.433120	77.105277	-0.433120	77.105277	-18.757162	-162.424334
5.200000	-18.901611	130.291735	-0.437667	74.101821	-0.437667	74.101821	-18.671518	-163.646294
5.250000	-18.862016	125.616971	-0.441696	71.088997	-0.441696	71.088997	-18.624246	-164.758493
5.300000	-18.862001	120.789281	-0.445224	68.065875	-0.445224	68.065875	-18.613611	-165.739804
5.350000	-18.900347	115.784127	-0.448279	65.031506	-0.448279	65.031506	-18.637929	-166.566377
5.400000	-18.975851	110.572948	-0.450905	61.984930	-0.450905	61.984930	-18.695396	-167.211067
5.450000	-19.087149	105.122392	-0.453160	58.925187	-0.453160	58.925187	-18.783890	-167.642915
5.500000	-19.232464	99.393524	-0.455119	55.851321	-0.455119	55.851321	-18.900714	-167.826758
5.550000	-19.409279	93.341127	-0.456871	52.762394	-0.456871	52.762394	-19.042261	-167.723131
5.600000	-19.613879	86.913320	-0.458520	49.657489	-0.458520	49.657489	-19.203605	-167.288717
5.650000	-19.840833	80.046461	-0.460190	46.535534	-0.460190	46.535534	-19.377985	-166.473137
5.700000	-20.081629	72.675567	-0.462020	43.395667	-0.462020	43.395667	-19.555829	-165.229767
5.750000	-20.324239	64.742590	-0.464164	40.237294	-0.464164	40.237294	-19.724739	-163.523980
5.800000	-20.552381	56.193614	-0.466790	37.059709	-0.466790	37.059709	-19.869166	-161.331748
5.850000	-20.744856	46.997316	-0.470081	33.862282	-0.470081	33.862282	-19.970568	-158.654774
5.900000	-20.876114	37.163457	-0.474231	30.644474	-0.474231	30.644474	-20.008601	-155.532462
5.950000	-20.918583	26.762181	-0.479451	27.405851	-0.479451	27.405851	-19.963473	-152.050931
6.000000	-20.847092	15.935594	-0.485961	24.146088	-0.485961	24.146088	-19.819242	-148.343685
6.050000	-20.644535	4.891136	-0.493992	20.864987	-0.493992	20.864987	-19.567162	-144.579844
6.100000	-20.306573	-6.128019	-0.503784	17.562485	-0.503784	17.562485	-19.207755	-140.940800
6.150000	-19.844378	-16.892601	-0.515558	14.238892	-0.515558	14.238892	-18.751850	-137.587587
6.200000	-19.275032	-27.205181	-0.529625	10.893868	-0.529625	10.893868	-18.212813	-134.659698
6.250000	-18.627575	-36.957743	-0.546207	7.528159	-0.546207	7.528159	-17.612392	-132.230571
6.300000	-17.927976	-46.099944	-0.565588	4.142120	-0.565588	4.142120	-16.969699	-130.338277
6.350000	-17.201066	-54.648012	-0.587991	0.736716	-0.587991	0.736716	-16.303567	-128.972378
6.400000	-16.465460	-62.643836	-0.613658	-2.687139	-0.613658	-2.687139	-15.628557	-128.104229
6.450000	-15.734880	-70.144574	-0.642823	-6.128363	-0.642823	-6.128363	-14.955896	-127.692144
6.500000	-15.018880	-77.211425	-0.675708	-9.585703	-0.675708	-9.585703	-14.293821	-127.689186
6.550000	-14.323767	-83.903096	-0.712517	-13.057751	-0.712517	-13.057751	-13.648121	-128.048172
6.600000	-13.653280	-90.270367	-0.753470	-16.543034	-0.753470	-16.543034	-13.022519	-128.726756
6.650000	-13.009871	-96.361679	-0.798713	-20.039752	-0.798713	-20.039752	-12.419682	-129.682105
6.700000	-12.394727	-102.218146	-0.848352	-23.545993	-0.848352	-23.545993	-11.841159	-130.876140
6.750000	-11.807930	-107.869971	-0.902553	-27.059921	-0.902553	-27.059921	-11.287461	-132.279863
6.800000	-11.249328	-113.345801	-0.961381	-30.579442	-0.961381	-30.579442	-10.758847	-133.864246
6.850000	-10.718386	-118.669368	-1.024863	-34.102421	-1.024863	-34.102421	-10.255165	-135.604059
6.900000	-10.214267	-123.858230	-1.093053	-37.626712	-1.093053	-37.626712	-9.775938	-137.479464
6.950000	-9.736081	-128.928060	-1.165936	-41.150086	-1.165936	-41.150086	-9.320590	-139.471882
7.000000	-9.282848	-133.892601	-1.243424	-44.670342	-1.243424	-44.670342	-8.888412	-141.564350
7.050000	-8.853548	-138.761719	-1.325448	-48.185249	-1.325448	-48.185249	-8.478627	-143.743492
7.100000	-8.447175	-143.543841	-1.411880	-51.692594	-1.411880	-51.692594	-8.090439	-145.997229
7.150000	-8.062669	-148.247099	-1.502486	-55.190433	-1.502486	-55.190433	-7.722965	-148.314006
7.200000	-7.699036	-152.877134	-1.597028	-58.676992	-1.597028	-58.676992	-7.375367	-150.684656
7.250000	-7.355340	-157.438418	-1.695231	-62.150942	-1.695231	-62.150942	-7.046846	-153.101178
7.300000	-7.030548	-161.936047	-1.796784	-65.611924	-1.796784	-65.611924	-6.736480	-155.555667
7.350000	-6.723738	-166.373436	-1.901515	-69.059840	-1.901515	-69.059840	-6.443449	-158.041830
7.400000	-6.434095	-170.752932	-2.009384	-72.494142	-2.009384	-72.494142	-6.167030	-160.554342
7.450000	-6.160707	-175.077606	-2.120334	-75.913628	-2.120334	-75.913628	-5.906383	-163.088040
7.500000	-5.902548	-179.351123	-2.234183	-79.316880	-2.234183	-79.316880	-5.660538	-165.638258
7.550000	-5.659185	176.427052	-2.350716	-82.701244	-2.350716	-82.701244	-5.429136	-168.202054
7.600000	-5.429590	172.253271	-2.469539	-86.066121	-2.469539	-86.066121	-5.211188	-170.775758
7.650000	-5.213022	168.125817	-2.590288	-89.410860	-2.590288	-89.410860	-5.005992	-173.356734
7.700000	-5.008769	164.043087	-2.712612	-92.735199	-2.712612	-92.735199	-4.812878	-175.942771
7.750000	-4.816159	160.003560	-2.836172	-96.039142	-2.836172	-96.039142	-4.631202	-178.532044
7.800000	-4.634547	156.005776	-2.960645	-99.322884	-2.960645	-99.322884	-4.460348	178.876919
7.850000	-4.463497	152.049332	-3.085683	-102.586270	-3.085683	-102.586270	-4.299911	176.285275
7.900000	-4.302305	148.132098	-3.210994	-105.830146	-3.210994	-105.830146	-4.149200	173.693906
7.950000	-4.150365	144.252373	-3.336298	-109.055289	-3.336298	-109.055289	-4.007626	171.103382
8.000000	-4.007162	140.408818	-3.461315	-112.262416	-3.461315	-112.262416	-3.874688	168.514021
8.050000	-3.872210	136.600103	-3.585769	-115.452346	-3.585769	-115.452346	-3.749911	165.925920
8.100000	-3.745053	132.824907	-3.709395	-118.625996	-3.709395	-118.625996	-3.632851	163.338970
8.150000	-3.625357	129.082443	-3.831880	-121.784131	-3.831880	-121.784131	-3.523183	160.752881
8.200000	-3.512713	125.371330	-3.952961	-124.927903	-3.952961	-124.927903	-3.420505	158.167151
8.250000	-3.406652	121.689696	-4.072444	-128.058758	-4.072444	-128.058758	-3.324349	155.581120
8.300000	-3.306829	118.036220	-4.190088	-131.177958	-4.190088	-131.177958	-3.234371	152.993991
8.350000	-3.212925	114.409578	-4.305661	-134.286838	-4.305661	-134.286838	-3.150255	150.404831
8.400000	-3.124642	110.808441	-4.418934	-137.386806	-4.418934	-137.386806	-3.071704	147.812570
8.450000	-3.041748	107.231669	-4.529646	-140.479285	-4.529646	-140.479285	-2.998484	145.215963
8.500000	-2.964062	103.678253	-4.637500	-143.565784	-4.637500	-143.565784	-2.930416	142.613535
8.550000	-2.891244	100.146212	-4.742380	-146.648110	-4.742380	-146.648110	-2.867153	140.003949
8.600000	-2.823091	96.634171	-4.844069	-149.727952	-4.844069	-149.727952	-2.808487	137.385632
8.650000	-2.759421	93.140738	-4.942353	-152.807070	-4.942353	-152.807070	-2.754232	134.756893
8.700000	-2.700073	89.664499	-5.037013	-155.887299	-5.037013	-155.887299	-2.704224	132.115914
8.750000	-2.644907	86.204014	-5.127832	-158.970555	-5.127832	-158.970555	-2.658315	129.460751
8.800000	-2.593933	82.758257	-5.214414	-162.059081	-5.214414	-162.059081	-2.616507	126.788692
8.850000	-2.546920	79.325180	-5.296703	-165.154869	-5.296703	-165.154869	-2.578566	124.098001
8.900000	-2.503793	75.903235	-5.374468	-168.260122	-5.374468	-168.260122	-2.544406	121.386294
8.950000	-2.464497	72.490828	-5.447478	-171.377159	-5.447478	-171.377159	-2.513967	118.651024
9.000000	-2.428998	69.086311	-5.515491	-174.508420	-5.515491	-174.508420	-2.487207	115.889468
9.050000	-2.397282	65.687978	-5.578258	-177.656487	-5.578258	-177.656487	-2.464108	113.098708
9.100000	-2.369460	62.294126	-5.635367	179.175328	-5.635367	179.175328	-2.444771	110.274696
9.150000	-2.345505	58.902758	-5.686645	175.984326	-5.686645	175.984326	-2.429167	107.414482
9.200000	-2.325449	55.511904	-5.731867	172.767555	-5.731867	172.767555	-2.417326	104.514703
9.250000	-2.309381	52.119543	-5.770744	169.521669	-5.770744	169.521669	-2.409338	101.571432
9.300000	-2.297421	48.723559	-5.802981	166.243075	-5.802981	166.243075	-2.405325	98.580418
9.350000	-2.289718	45.321727	-5.828266	162.927894	-5.828266	162.927894	-2.405446	95.537059
9.400000	-2.286538	41.911530	-5.846151	159.571146	-5.846151	159.571146	-2.409976	92.435274
9.450000	-2.288116	38.490383	-5.856291	156.168032	-5.856291	156.168032	-2.419171	89.269337
9.500000	-2.294640	35.055830	-5.858474	152.714246	-5.858474	152.714246	-2.433253	86.034260
9.550000	-2.306424	31.605131	-5.852357	149.204302	-5.852357	149.204302	-2.452573	82.723504
9.600000	-2.323831	28.135399	-5.837593	145.632178	-5.837593	145.632178	-2.477550	79.329906
9.650000	-2.347278	24.643595	-5.813843	141.991240	-5.813843	141.991240	-2.508671	75.845606
9.700000	-2.377308	21.126271	-5.780689	138.273436	-5.780689	138.273436	-2.546571	72.261020
9.750000	-2.414613	17.579427	-5.737640	134.468841	-5.737640	134.468841	-2.592067	68.564328
9.800000	-2.459663	14.000175	-5.684667	130.570353	-5.684667	130.570353	-2.645770	64.747521
9.850000	-2.513180	10.384803	-5.621550	126.567874	-5.621550	126.567874	-2.708582	60.798893
9.900000	-2.575986	6.729428	-5.548150	122.450174	-5.548150	122.450174	-2.781545	56.705493
9.950000	-2.649012	3.030010	-5.464438	118.204761	-5.464438	118.204761	-2.865852	52.452981
10.000000	-2.733314	-0.717645	-5.370535	113.817765	-5.370535	113.817765	-2.962870	48.025465
