! freq	dB(S11)	phase(S11)	dB(S12)	phase(S12)	
!     	dB(S21)	phase(S21)	dB(S22)	phase(S22)	
!S-par simulation data
#  GHz  S  DB  R 50
0.000000	-80.388335	0.000000	-0.000831	0.000000	-0.000831	0.000000	-80.388335	0.000000
0.050000	-36.323192	-92.584925	-0.009914	-3.756001	-0.009914	-3.756001	-36.323303	-92.576322
0.100000	-30.307910	-96.923361	-0.019114	-7.467279	-0.019114	-7.467279	-30.306026	-96.895203
0.150000	-26.816478	-100.922126	-0.029946	-11.163569	-0.029946	-11.163569	-26.811393	-100.864811
0.200000	-24.349908	-104.814347	-0.041980	-14.850108	-0.041980	-14.850108	-24.345121	-104.747930
0.250000	-22.442074	-108.646413	-0.055300	-18.531875	-0.055300	-18.531875	-22.439664	-108.586354
0.300000	-20.886844	-112.438823	-0.070168	-22.211328	-0.070168	-22.211328	-20.887232	-112.388983
0.350000	-19.575212	-116.203800	-0.086847	-25.889412	-0.086847	-25.889412	-19.577890	-116.159949
0.400000	-18.442059	-119.950614	-0.105396	-29.566543	-0.105396	-29.566543	-18.446196	-119.906041
0.450000	-17.445735	-123.684492	-0.125874	-33.242918	-0.125874	-33.242918	-17.450523	-123.633008
0.500000	-16.558115	-127.408645	-0.148382	-36.918721	-0.148382	-36.918721	-16.562877	-127.345683
0.550000	-15.758682	-131.125922	-0.172834	-40.594229	-0.172834	-40.594229	-15.762958	-131.049038
0.600000	-15.032338	-134.838134	-0.199162	-44.269736	-0.199162	-44.269736	-15.035857	-134.746414
0.650000	-14.367799	-138.546498	-0.227360	-47.945572	-0.227360	-47.945572	-14.370431	-138.440057
0.700000	-13.756092	-142.252125	-0.257364	-51.622082	-0.257364	-51.622082	-13.757819	-142.131686
0.750000	-13.189893	-145.955987	-0.289066	-55.299589	-0.289066	-55.299589	-13.190776	-145.822507
0.800000	-12.663459	-149.658856	-0.322436	-58.978456	-0.322436	-58.978456	-12.663600	-149.513343
0.850000	-12.172150	-153.361487	-0.357485	-62.659137	-0.357485	-62.659137	-12.171676	-153.204892
0.900000	-11.711710	-157.064610	-0.394118	-66.341974	-0.394118	-66.341974	-11.710750	-156.897694
0.950000	-11.278747	-160.768902	-0.432323	-70.027416	-0.432323	-70.027416	-11.277422	-160.592268
1.000000	-10.870506	-164.475136	-0.472153	-73.716089	-0.472153	-73.716089	-10.868928	-164.289245
1.050000	-10.484396	-168.184029	-0.513598	-77.408535	-0.513598	-77.408535	-10.482659	-167.989195
1.100000	-10.118158	-171.896262	-0.556657	-81.105290	-0.556657	-81.105290	-10.116334	-171.692688
1.150000	-9.769923	-175.612649	-0.601387	-84.807083	-0.601387	-84.807083	-9.768069	-175.400463
1.200000	-9.437952	-179.333917	-0.647816	-88.514542	-0.647816	-88.514542	-9.436106	-179.113196
1.250000	-9.120736	176.939138	-0.696001	-92.228387	-0.696001	-92.228387	-9.118921	177.168343
1.300000	-8.816931	173.205688	-0.746011	-95.949379	-0.746011	-95.949379	-8.815157	173.443325
1.350000	-8.525303	169.464969	-0.797907	-99.678211	-0.797907	-99.678211	-8.523570	169.710977
1.400000	-8.244794	165.715971	-0.851813	-103.415843	-0.851813	-103.415843	-8.243094	165.970258
1.450000	-7.974367	161.958067	-0.907780	-107.162829	-0.907780	-107.162829	-7.972688	162.220511
1.500000	-7.713121	158.190659	-0.965878	-110.919709	-0.965878	-110.919709	-7.711447	158.461103
1.550000	-7.460274	154.412879	-1.026239	-114.687305	-1.026239	-114.687305	-7.458590	154.691128
1.600000	-7.215121	150.623108	-1.089135	-118.467212	-1.089135	-118.467212	-7.213411	150.908914
1.650000	-6.976953	146.821472	-1.154550	-122.259239	-1.154550	-122.259239	-6.975208	147.114571
1.700000	-6.745192	143.007199	-1.222647	-126.064127	-1.222647	-126.064127	-6.743403	143.307303
1.750000	-6.519299	139.179219	-1.293656	-129.882927	-1.293656	-129.882927	-6.517463	139.486012
1.800000	-6.298791	135.336971	-1.367742	-133.716176	-1.367742	-133.716176	-6.296910	135.650130
1.850000	-6.083238	131.479817	-1.445103	-137.564497	-1.445103	-137.564497	-6.081319	131.799019
1.900000	-5.872252	127.606995	-1.525989	-141.428644	-1.525989	-141.428644	-5.870306	127.931917
1.950000	-5.665498	123.717962	-1.610636	-145.309157	-1.610636	-145.309157	-5.663539	124.048298
2.000000	-5.462698	119.812434	-1.699263	-149.206317	-1.699263	-149.206317	-5.460740	120.147896
2.050000	-5.263611	115.890036	-1.792132	-153.120504	-1.792132	-153.120504	-5.261672	116.230358
2.100000	-5.068039	111.950477	-1.889525	-157.052010	-1.889525	-157.052010	-5.066133	112.295414
2.150000	-4.875827	107.993565	-1.991735	-161.001033	-1.991735	-161.001033	-4.873964	108.342886
2.200000	-4.686857	104.019214	-2.099074	-164.967661	-2.099074	-164.967661	-4.685043	104.372699
2.250000	-4.501049	100.027453	-2.211865	-168.951866	-2.211865	-168.951866	-4.499285	100.384879
2.300000	-4.318361	96.018437	-2.330448	-172.953491	-2.330448	-172.953491	-4.316641	96.379568
2.350000	-4.138784	91.992456	-2.455173	-176.972238	-2.455173	-176.972238	-4.137095	92.357028
2.400000	-3.962340	87.949945	-2.586402	178.992337	-2.586402	178.992337	-3.960666	88.317653
2.450000	-3.789084	83.891492	-2.724508	174.940840	-2.724508	174.940840	-3.787403	84.261979
2.500000	-3.619093	79.817844	-2.869869	170.874040	-2.869869	170.874040	-3.617384	80.190696
2.550000	-3.452480	75.729629	-3.022986	166.792591	-3.022986	166.792591	-3.450722	76.104359
2.600000	-3.289373	71.628274	-3.184138	162.697954	-3.184138	162.697954	-3.287550	72.004352
2.650000	-3.129911	67.515044	-3.353715	158.591435	-3.353715	158.591435	-3.128017	67.891905
2.700000	-2.974250	63.391375	-3.532106	154.474515	-3.532106	154.474515	-2.972285	63.768437
2.750000	-2.822550	59.258866	-3.719698	150.348846	-3.719698	150.348846	-2.820527	59.635558
2.800000	-2.674977	55.119276	-3.916870	146.216246	-3.916870	146.216246	-2.672915	55.495059
2.850000	-2.531697	50.974509	-4.123999	142.078688	-4.123999	142.078688	-2.529624	51.348900
2.900000	-2.392871	46.826600	-4.341451	137.938287	-4.341451	137.938287	-2.390818	47.199184
2.950000	-2.258652	42.677703	-4.569581	133.797287	-4.569581	133.797287	-2.256650	43.048142
3.000000	-2.129183	38.530066	-4.808738	129.658039	-4.808738	129.658039	-2.127260	38.898091
3.050000	-2.004590	34.386011	-5.059259	125.522986	-5.059259	125.522986	-2.002770	34.751418
3.100000	-1.884984	30.247911	-5.321472	121.394638	-5.321472	121.394638	-1.883279	30.610540
3.150000	-1.770494	26.118284	-5.595732	117.275678	-5.595732	117.275678	-1.768912	26.477999
3.200000	-1.661195	21.999608	-5.882335	113.168774	-5.882335	113.168774	-1.659732	22.356285
3.250000	-1.557092	17.894163	-6.181551	109.076396	-6.181551	109.076396	-1.555740	18.247668
3.300000	-1.458206	13.804262	-6.493689	105.001094	-6.493689	105.001094	-1.456949	14.154450
3.350000	-1.364533	9.732147	-6.819069	100.945370	-6.819069	100.945370	-1.363355	10.078845
3.400000	-1.276046	5.679955	-7.158022	96.911661	-7.158022	96.911661	-1.274928	6.022972
3.450000	-1.192698	1.649707	-7.510905	92.902324	-7.510905	92.902324	-1.191622	1.988830
3.500000	-1.114417	-2.356714	-7.878103	88.919626	-7.878103	88.919626	-1.113369	-2.021709
3.550000	-1.041116	-6.337578	-8.260044	84.965731	-8.260044	84.965731	-1.040084	-6.006920
3.600000	-0.972685	-10.291320	-8.657209	81.042703	-8.657209	81.042703	-0.971662	-9.965234
3.650000	-0.909003	-14.216551	-9.070148	77.152501	-9.070148	77.152501	-0.907986	-13.895248
3.700000	-0.849932	-18.112065	-9.499494	73.296991	-9.499494	73.296991	-0.848921	-17.795734
3.750000	-0.795323	-21.976842	-9.945980	69.477957	-9.945980	69.477957	-0.794323	-21.665647
3.800000	-0.745104	-25.809354	-10.410319	65.697990	-10.410319	65.697990	-0.744119	-25.503429
3.850000	-0.699017	-29.609645	-10.893623	61.957987	-10.893623	61.957987	-0.698057	-29.309087
3.900000	-0.656891	-33.377281	-11.397083	58.259644	-11.397083	58.259644	-0.655964	-33.082154
3.950000	-0.618552	-37.112015	-11.922104	54.604718	-11.922104	54.604718	-0.617665	-36.822349
4.000000	-0.583824	-40.813780	-12.470357	50.995094	-12.470357	50.995094	-0.582985	-40.529578
4.050000	-0.552530	-44.482688	-13.043829	47.432871	-13.043829	47.432871	-0.551745	-44.203926
4.100000	-0.524497	-48.119020	-13.644901	43.920478	-13.644901	43.920478	-0.523770	-47.845651
4.150000	-0.499554	-51.723220	-14.276433	40.460831	-14.276433	40.460831	-0.498886	-51.455181
4.200000	-0.477534	-55.295891	-14.941886	37.057544	-14.941886	37.057544	-0.476927	-55.033107
4.250000	-0.458276	-58.837785	-15.645477	33.715221	-15.645477	33.715221	-0.457727	-58.580171
4.300000	-0.441627	-62.349800	-16.392391	30.439884	-16.392391	30.439884	-0.441132	-62.097267
4.350000	-0.427438	-65.832971	-17.189074	27.239585	-17.189074	27.239585	-0.426993	-65.585427
4.400000	-0.415595	-69.288182	-18.043393	24.126442	-18.043393	24.126442	-0.415193	-69.045537
4.450000	-0.405961	-72.716786	-18.965643	21.116635	-18.965643	21.116635	-0.405596	-72.478949
4.500000	-0.398392	-76.120525	-19.969525	18.232100	-19.969525	18.232100	-0.398056	-75.887410
4.550000	-0.392774	-79.500975	-21.072981	15.506997	-21.072981	15.506997	-0.392461	-79.272499
4.600000	-0.389005	-82.859849	-22.300559	12.994401	-22.300559	12.994401	-0.388709	-82.635929
4.650000	-0.386994	-86.199007	-23.686981	10.780948	-23.686981	10.780948	-0.386709	-85.979563
4.700000	-0.386658	-89.520473	-25.283413	9.017330	-25.283413	9.017330	-0.386380	-89.305420
4.750000	-0.387927	-92.826458	-27.169150	7.988674	-27.169150	7.988674	-0.387653	-92.615708
4.800000	-0.390742	-96.119392	-29.474513	8.300370	-29.474513	8.300370	-0.390470	-95.912849
4.850000	-0.395059	-99.401974	-32.424585	11.464314	-32.424585	11.464314	-0.394789	-99.199532
4.900000	-0.400848	-102.677243	-36.362678	22.162020	-36.362678	22.162020	-0.400579	-102.478780
4.950000	-0.408098	-105.948678	-40.679745	55.186438	-40.679745	55.186438	-0.407832	-105.754054
5.000000	-0.416822	-109.220344	-39.430665	106.038772	-39.430665	106.038772	-0.416561	-109.029394
5.050000	-0.427138	-112.497613	-35.233280	126.656849	-35.233280	126.656849	-0.426884	-112.310133
5.100000	-0.439043	-115.786314	-32.122275	133.507257	-32.122275	133.507257	-0.438797	-115.602074
5.150000	-0.452702	-119.093708	-29.872125	135.442375	-29.872125	135.442375	-0.452464	-118.912433
5.200000	-0.468461	-122.430456	-28.200941	135.337285	-28.200941	135.337285	-0.468228	-122.251797
5.250000	-0.486966	-125.813325	-26.960444	134.300682	-26.960444	134.300682	-0.486732	-125.636821
5.300000	-0.509038	-129.260846	-26.069774	132.892958	-26.069774	132.892958	-0.508789	-129.085929
5.350000	-0.536394	-132.803165	-25.519102	131.481475	-25.519102	131.481475	-0.536105	-132.629070
5.400000	-0.573280	-136.501353	-25.400211	130.660729	-25.400211	130.660729	-0.572898	-136.326907
5.450000	-0.629011	-140.453278	-25.921403	132.035575	-25.921403	132.035575	-0.628425	-140.276654
5.500000	-0.723937	-144.808707	-27.429093	140.744369	-27.429093	140.744369	-0.722908	-144.627038
5.550000	-0.932432	-149.935840	-28.511128	179.567584	-28.511128	179.567584	-0.930258	-149.743484
5.600000	-1.547326	-156.166638	-20.513103	-143.588270	-20.513103	-143.588270	-1.541341	-155.953641
5.650000	-3.412988	-157.056412	-11.934699	-162.983319	-11.934699	-162.983319	-3.392472	-156.854239
5.700000	-2.983421	-143.401644	-9.245498	155.341733	-9.245498	155.341733	-2.967368	-143.342437
5.750000	-1.681904	-146.344895	-9.927501	131.810459	-9.927501	131.810459	-1.676105	-146.279702
5.800000	-1.246741	-151.490205	-10.579348	120.139728	-10.579348	120.139728	-1.243937	-151.410615
5.850000	-1.089446	-156.054439	-10.903896	112.849344	-10.903896	112.849344	-1.087771	-155.966933
5.900000	-1.029290	-160.174025	-11.007915	107.365846	-11.007915	107.365846	-1.028149	-160.082385
5.950000	-1.011226	-164.033614	-10.977386	102.740783	-10.977386	102.740783	-1.010377	-163.939921
6.000000	-1.015218	-167.738573	-10.862375	98.575725	-10.862375	98.575725	-1.014544	-167.644058
6.050000	-1.032381	-171.350723	-10.693453	94.672938	-10.693453	94.672938	-1.031820	-171.256151
6.100000	-1.058318	-174.907623	-10.489722	90.925352	-10.489722	90.925352	-1.057833	-174.813484
6.150000	-1.091094	-178.431407	-10.261663	87.276330	-10.261663	87.276330	-1.090664	-178.338038
6.200000	-1.129248	178.060651	-10.018118	83.684351	-10.018118	83.684351	-1.128860	178.153040
6.250000	-1.171920	174.557290	-9.764988	80.123928	-9.764988	80.123928	-1.171568	174.648571
6.300000	-1.218722	171.050841	-9.505846	76.579332	-9.505846	76.579332	-1.218402	171.140946
6.350000	-1.269434	167.535486	-9.243274	73.039360	-9.243274	73.039360	-1.269143	167.624392
6.400000	-1.323946	164.006709	-8.979172	69.495825	-8.979172	69.495825	-1.323683	164.094431
6.450000	-1.382240	160.460830	-8.714925	65.942519	-8.714925	65.942519	-1.382003	160.547412
6.500000	-1.444676	156.892680	-8.451003	62.372868	-8.451003	62.372868	-1.444462	156.978201
6.550000	-1.510930	153.302083	-8.189089	58.784732	-8.189089	58.784732	-1.510736	153.386635
6.600000	-1.581072	149.687353	-7.929833	55.175517	-7.929833	55.175517	-1.580891	149.771039
6.650000	-1.655180	146.047173	-7.673766	51.543208	-7.673766	51.543208	-1.655004	146.130107
6.700000	-1.733339	142.380550	-7.421332	47.886261	-7.421332	47.886261	-1.733158	142.462849
6.750000	-1.815635	138.686780	-7.172909	44.203526	-7.172909	44.203526	-1.815436	138.768559
6.800000	-1.902338	134.963885	-6.928713	40.492684	-6.928713	40.492684	-1.902107	135.045261
6.850000	-1.993539	131.211495	-6.689102	36.753004	-6.689102	36.753004	-1.993260	131.292575
6.900000	-2.089093	127.431384	-6.454489	32.985928	-6.454489	32.985928	-2.088749	127.512254
6.950000	-2.189046	123.623827	-6.225103	29.191485	-6.225103	29.191485	-2.188621	123.704561
7.000000	-2.293431	119.789286	-6.001153	25.369917	-6.001153	25.369917	-2.292908	119.869940
7.050000	-2.402262	115.928389	-5.782826	21.521658	-5.782826	21.521658	-2.401627	116.009002
7.100000	-2.515536	112.041921	-5.570293	17.647321	-5.570293	17.647321	-2.514775	112.122516
7.150000	-2.633516	108.128340	-5.363841	13.745141	-5.363841	13.745141	-2.632618	108.208923
7.200000	-2.755874	104.191084	-5.163557	9.818496	-5.163557	9.818496	-2.754833	104.271645
7.250000	-2.882510	100.231621	-4.969534	5.868786	-4.969534	5.868786	-2.881323	100.312139
7.300000	-3.013342	96.251194	-4.781850	1.897208	-4.781850	1.897208	-3.012009	96.331642
7.350000	-3.148271	92.251106	-4.600564	-2.094952	-4.600564	-2.094952	-3.146799	92.331450
7.400000	-3.287191	88.232697	-4.425707	-6.106342	-4.425707	-6.106342	-3.285589	88.312901
7.450000	-3.430032	84.196752	-4.257403	-10.136172	-4.257403	-10.136172	-3.428317	84.276782
7.500000	-3.576699	80.144143	-4.095794	-14.183548	-4.095794	-14.183548	-3.574892	80.223962
7.550000	-3.726954	76.077520	-3.940567	-18.245689	-3.940567	-18.245689	-3.725079	76.157101
7.600000	-3.880696	71.998145	-3.791628	-22.321283	-3.791628	-22.321283	-3.878779	72.077460
7.650000	-4.037843	67.907200	-3.648847	-26.409114	-3.648847	-26.409114	-4.035915	67.986222
7.700000	-4.198347	63.805766	-3.512063	-30.508110	-3.512063	-30.508110	-4.196440	63.884463
7.750000	-4.362205	59.694792	-3.381083	-34.617386	-3.381083	-34.617386	-4.360353	59.773118
7.800000	-4.529497	55.574367	-3.255983	-38.737099	-3.255983	-38.737099	-4.527737	55.652249
7.850000	-4.700365	51.445607	-3.136275	-42.866407	-3.136275	-42.866407	-4.698732	51.522932
7.900000	-4.875078	47.309073	-3.021533	-47.005191	-3.021533	-47.005191	-4.873605	47.385674
7.950000	-5.054058	43.164785	-2.911409	-51.154134	-2.911409	-51.154134	-5.052778	43.240414
8.000000	-5.237918	39.012436	-2.805518	-55.314551	-2.805518	-55.314551	-5.236864	39.086734
8.050000	-5.427522	34.851348	-2.703436	-59.488556	-2.703436	-59.488556	-5.426725	34.923808
8.100000	-5.624139	30.680222	-2.604735	-63.679673	-2.604735	-63.679673	-5.623632	30.750119
8.150000	-5.829953	26.496363	-2.508991	-67.894825	-2.508991	-67.894825	-5.829776	26.562583
8.200000	-6.047126	22.298679	-2.415448	-72.139104	-2.415448	-72.139104	-6.047325	22.359791
8.250000	-6.279050	18.084815	-2.323529	-76.421915	-2.323529	-76.421915	-6.279688	18.138854
8.300000	-6.530501	13.852538	-2.232655	-80.756305	-2.232655	-80.756305	-6.531672	13.896804
8.350000	-6.808331	9.600705	-2.142295	-85.160533	-2.142295	-85.160533	-6.810184	9.631451
8.400000	-7.122602	5.331501	-2.052074	-89.660504	-2.052074	-89.660504	-7.125387	5.343453
8.450000	-7.491273	1.056486	-1.962014	-94.302772	-1.962014	-94.302772	-7.495456	1.041542
8.500000	-7.940844	-3.184417	-1.873393	-99.149850	-1.873393	-99.149850	-7.947319	-3.238441
8.550000	-8.512146	-7.286753	-1.790137	-104.288835	-1.790137	-104.288835	-8.522699	-7.398189
8.600000	-9.279724	-10.956963	-1.722833	-109.870788	-1.722833	-109.870788	-9.298385	-11.155214
8.650000	-10.373496	-13.287426	-1.700253	-116.144280	-1.700253	-116.144280	-10.410816	-13.617797
8.700000	-11.929733	-11.384705	-1.797437	-123.438622	-1.797437	-123.438622	-12.016256	-11.869316
8.750000	-13.367733	2.169129	-2.201347	-131.929343	-2.201347	-131.929343	-13.562821	1.928114
8.800000	-11.632044	22.836818	-3.298094	-140.175804	-3.298094	-140.175804	-11.818227	23.636411
8.850000	-8.138960	22.477996	-5.135248	-141.779447	-5.135248	-141.779447	-8.227431	23.462754
8.900000	-6.208786	9.887809	-6.092553	-133.568308	-6.092553	-133.568308	-6.254345	10.749453
8.950000	-5.588875	-2.708859	-5.550544	-127.598550	-5.550544	-127.598550	-5.616737	-1.948255
9.000000	-5.530905	-12.763279	-4.751279	-127.358312	-4.751279	-127.358312	-5.549727	-12.068956
9.050000	-5.671742	-20.762684	-4.138046	-129.852314	-4.138046	-129.852314	-5.685072	-20.112853
9.100000	-5.875606	-27.453343	-3.699000	-133.338982	-3.699000	-133.338982	-5.885144	-26.834992
9.150000	-6.097216	-33.281612	-3.380637	-137.194302	-3.380637	-137.194302	-6.103946	-32.686130
9.200000	-6.320759	-38.550058	-3.140124	-141.172827	-3.140124	-141.172827	-6.325277	-37.971693
9.250000	-6.542635	-43.452828	-2.949513	-145.184943	-2.949513	-145.184943	-6.545322	-42.887670
9.300000	-6.763179	-48.107964	-2.792051	-149.198472	-2.792051	-149.198472	-6.764295	-47.553223
9.350000	-6.982688	-52.549984	-2.662027	-153.199376	-2.662027	-153.199376	-6.982492	-52.003025
9.400000	-7.204282	-56.864795	-2.548411	-157.186898	-2.548411	-157.186898	-7.202938	-56.323786
9.450000	-7.429816	-61.073896	-2.448151	-161.160748	-2.448151	-161.160748	-7.427491	-60.536947
9.500000	-7.661577	-65.202036	-2.358049	-165.123323	-2.358049	-165.123323	-7.658424	-64.667197
9.550000	-7.901869	-69.270385	-2.275484	-169.077999	-2.275484	-169.077999	-7.898021	-68.735569
9.600000	-8.152930	-73.292170	-2.198817	-173.027773	-2.198817	-173.027773	-8.148507	-72.754950
9.650000	-8.417033	-77.277222	-2.126836	-176.975505	-2.126836	-176.975505	-8.412128	-76.734704
9.700000	-8.696506	-81.232752	-2.058632	179.076150	-2.058632	179.076150	-8.691181	-80.681433
9.750000	-8.993764	-85.163861	-1.993524	175.124764	-1.993524	175.124764	-8.988029	-84.599495
9.800000	-9.311341	-89.073883	-1.930999	171.168142	-1.930999	171.168142	-9.305135	-88.491333
9.850000	-9.651328	-92.965572	-1.870596	167.204761	-1.870596	167.204761	-9.644501	-92.359022
9.900000	-10.017951	-96.837074	-1.812232	163.231874	-1.812232	163.231874	-10.010199	-96.198690
9.950000	-10.413592	-100.688723	-1.755592	159.248421	-1.755592	159.248421	-10.404438	-100.009693
10.000000	-10.841647	-104.518254	-1.700551	155.253063	-1.700551	155.253063	-10.830383	-103.788180
