! freq	dB(S11)	phase(S11)	dB(S12)	phase(S12)	
!     	dB(S21)	phase(S21)	dB(S22)	phase(S22)	
!S-par simulation data
#  GHz  S  DB  R 50
0.000000	-0.000000	0.000000	-347.077987	0.000000	-347.077987	0.000000	-0.000000	0.000000
0.050000	-0.000573	-0.859523	-111.661736	89.127022	-111.661736	89.127022	-0.000753	-1.176382
0.100000	-0.001878	-1.714526	-105.688531	88.102296	-105.688531	88.102296	-0.002536	-2.347161
0.150000	-0.003310	-2.564811	-102.246682	87.133859	-102.246682	87.133859	-0.004592	-3.511621
0.200000	-0.004589	-3.412170	-99.866409	86.208068	-99.866409	86.208068	-0.006501	-4.671755
0.250000	-0.005720	-4.258274	-98.073732	85.326079	-98.073732	85.326079	-0.008215	-5.829857
0.300000	-0.006748	-5.103747	-96.669098	84.500971	-96.669098	84.500971	-0.009766	-6.986851
0.350000	-0.007725	-5.948913	-95.544310	83.746892	-95.544310	83.746892	-0.011213	-8.143255
0.400000	-0.008692	-6.793883	-94.637065	83.082458	-94.637065	83.082458	-0.012605	-9.299245
0.450000	-0.009675	-7.638663	-93.916833	82.541997	-93.916833	82.541997	-0.013973	-10.454782
0.500000	-0.010686	-8.483254	-93.347470	82.143626	-93.347470	82.143626	-0.015339	-11.609819
0.550000	-0.011728	-9.327623	-92.912009	81.922279	-92.912009	81.922279	-0.016711	-12.764237
0.600000	-0.012798	-10.171728	-92.599397	81.922701	-92.599397	81.922701	-0.018092	-13.917902
0.650000	-0.013889	-11.015515	-92.402754	82.203060	-92.402754	82.203060	-0.019482	-15.070675
0.700000	-0.014994	-11.858918	-92.318149	82.840059	-92.318149	82.840059	-0.020880	-16.222418
0.750000	-0.016103	-12.701822	-92.350103	83.973223	-92.350103	83.973223	-0.022285	-17.372917
0.800000	-0.017208	-13.544127	-92.495387	85.767205	-92.495387	85.767205	-0.023695	-18.522032
0.850000	-0.018304	-14.385743	-92.744801	88.435907	-92.744801	88.435907	-0.025108	-19.669666
0.900000	-0.019390	-15.226634	-93.078472	92.178375	-93.078472	92.178375	-0.026524	-20.815822
0.950000	-0.020464	-16.066679	-93.470524	97.399334	-93.470524	97.399334	-0.027941	-21.960311
1.000000	-0.021529	-16.905807	-93.855272	104.487826	-93.855272	104.487826	-0.029360	-23.103040
1.050000	-0.022585	-17.743962	-94.115634	113.710889	-94.115634	113.710889	-0.030780	-24.243927
1.100000	-0.023636	-18.581103	-94.086430	124.900000	-94.086430	124.900000	-0.032201	-25.382894
1.150000	-0.024685	-19.417196	-93.615777	137.134209	-93.615777	137.134209	-0.033624	-26.519877
1.200000	-0.025732	-20.252222	-92.669900	148.907995	-92.669900	148.907995	-0.035048	-27.654813
1.250000	-0.026781	-21.086163	-91.363337	158.942589	-91.363337	158.942589	-0.036472	-28.787649
1.300000	-0.027832	-21.918959	-89.854175	166.681234	-89.854175	166.681234	-0.037898	-29.918238
1.350000	-0.028885	-22.750647	-88.299621	172.416225	-88.299621	172.416225	-0.039324	-31.046626
1.400000	-0.029941	-23.581221	-86.775775	176.545225	-86.775775	176.545225	-0.040750	-32.172773
1.450000	-0.031000	-24.410670	-85.317601	179.447792	-85.317601	179.447792	-0.042176	-33.296637
1.500000	-0.032061	-25.238987	-83.937280	-178.572447	-83.937280	-178.572447	-0.043601	-34.418182
1.550000	-0.033125	-26.066163	-82.635838	-177.288279	-82.635838	-177.288279	-0.045026	-35.537372
1.600000	-0.034191	-26.892188	-81.409374	-176.533547	-81.409374	-176.533547	-0.046449	-36.654174
1.650000	-0.035258	-27.717053	-80.252148	-176.187085	-80.252148	-176.187085	-0.047871	-37.768555
1.700000	-0.036327	-28.540747	-79.158025	-176.159916	-79.158025	-176.159916	-0.049290	-38.880484
1.750000	-0.037397	-29.363258	-78.121122	-176.385953	-78.121122	-176.385953	-0.050708	-39.989930
1.800000	-0.038468	-30.184575	-77.136057	-176.815455	-77.136057	-176.815455	-0.052124	-41.096865
1.850000	-0.039540	-31.004686	-76.198015	-177.410468	-76.198015	-177.410468	-0.053537	-42.201259
1.900000	-0.040612	-31.823577	-75.302737	-178.141643	-75.302737	-178.141643	-0.054948	-43.303086
1.950000	-0.041684	-32.641236	-74.446471	-178.985991	-74.446471	-178.985991	-0.056357	-44.402318
2.000000	-0.042758	-33.457649	-73.625914	-179.925290	-73.625914	-179.925290	-0.057763	-45.498930
2.050000	-0.043832	-34.272803	-72.838154	179.055067	-72.838154	179.055067	-0.059168	-46.592896
2.100000	-0.044907	-35.086683	-72.080621	177.966915	-72.080621	177.966915	-0.060571	-47.684193
2.150000	-0.045983	-35.899277	-71.351033	176.819929	-71.351033	176.819929	-0.061973	-48.772796
2.200000	-0.047060	-36.710570	-70.647365	175.622097	-70.647365	175.622097	-0.063374	-49.858683
2.250000	-0.048138	-37.520548	-69.967806	174.380064	-69.967806	174.380064	-0.064775	-50.941833
2.300000	-0.049219	-38.329197	-69.310735	173.099403	-69.310735	173.099403	-0.066176	-52.022224
2.350000	-0.050301	-39.136502	-68.674695	171.784823	-68.674695	171.784823	-0.067577	-53.099838
2.400000	-0.051386	-39.942451	-68.058369	170.440327	-68.058369	170.440327	-0.068979	-54.174654
2.450000	-0.052474	-40.747028	-67.460568	169.069339	-67.460568	169.069339	-0.070383	-55.246655
2.500000	-0.053565	-41.550221	-66.880211	167.674809	-66.880211	167.674809	-0.071789	-56.315824
2.550000	-0.054660	-42.351955	-66.315440	166.258480	-66.315440	166.258480	-0.073198	-57.382021
2.600000	-0.055760	-43.152276	-65.766322	164.823555	-65.766322	164.823555	-0.074610	-58.445353
2.650000	-0.056863	-43.951171	-65.232021	163.371941	-65.232021	163.371941	-0.076027	-59.505808
2.700000	-0.057972	-44.748627	-64.711772	161.905317	-64.711772	161.905317	-0.077449	-60.563374
2.750000	-0.059086	-45.544633	-64.204869	160.425166	-64.204869	160.425166	-0.078876	-61.618037
2.800000	-0.060206	-46.339175	-63.710660	158.932803	-63.710660	158.932803	-0.080310	-62.669789
2.850000	-0.061332	-47.132242	-63.228546	157.429396	-63.228546	157.429396	-0.081750	-63.718620
2.900000	-0.062466	-47.923821	-62.757967	155.915991	-62.757967	155.915991	-0.083198	-64.764522
2.950000	-0.063606	-48.713903	-62.298408	154.393524	-62.298408	154.393524	-0.084655	-65.807488
3.000000	-0.064754	-49.502475	-61.849386	152.862836	-61.849386	152.862836	-0.086121	-66.847513
3.050000	-0.065910	-50.289527	-61.410452	151.324686	-61.410452	151.324686	-0.087596	-67.884592
3.100000	-0.067075	-51.075049	-60.981188	149.779758	-60.981188	149.779758	-0.089082	-68.918722
3.150000	-0.068249	-51.859032	-60.561202	148.228674	-60.561202	148.228674	-0.090579	-69.949900
3.200000	-0.069433	-52.641465	-60.150127	146.672000	-60.150127	146.672000	-0.092088	-70.978126
3.250000	-0.070627	-53.422339	-59.747619	145.110248	-59.747619	145.110248	-0.093610	-72.003399
3.300000	-0.071831	-54.201647	-59.353355	143.543888	-59.353355	143.543888	-0.095145	-73.025722
3.350000	-0.073045	-54.979379	-58.967030	141.973351	-58.967030	141.973351	-0.096694	-74.045096
3.400000	-0.074272	-55.755529	-58.588358	140.399029	-58.588358	140.399029	-0.098257	-75.061525
3.450000	-0.075510	-56.530088	-58.217068	138.821285	-58.217068	138.821285	-0.099835	-76.075015
3.500000	-0.076760	-57.303051	-57.852906	137.240453	-57.852906	137.240453	-0.101430	-77.085571
3.550000	-0.078023	-58.074410	-57.495630	135.656840	-57.495630	135.656840	-0.103040	-78.093200
3.600000	-0.079299	-58.844159	-57.145012	134.070729	-57.145012	134.070729	-0.104668	-79.097910
3.650000	-0.080588	-59.612293	-56.800835	132.482385	-56.800835	132.482385	-0.106314	-80.099712
3.700000	-0.081891	-60.378807	-56.462894	130.892050	-56.462894	130.892050	-0.107978	-81.098615
3.750000	-0.083209	-61.143696	-56.130995	129.299953	-56.130995	129.299953	-0.109660	-82.094630
3.800000	-0.084542	-61.906885	-55.804675	127.706246	-55.804675	127.706246	-0.111364	-83.087647
3.850000	-0.085891	-62.668440	-55.484057	126.111200	-55.484057	126.111200	-0.113087	-84.077805
3.900000	-0.087255	-63.428360	-55.168971	124.514999	-55.168971	124.514999	-0.114830	-85.065118
3.950000	-0.088635	-64.186640	-54.859256	122.917811	-54.859256	122.917811	-0.116595	-86.049603
4.000000	-0.090031	-64.943279	-54.554757	121.319797	-54.554757	121.319797	-0.118382	-87.031276
4.050000	-0.091445	-65.698275	-54.255329	119.721108	-54.255329	119.721108	-0.120191	-88.010156
4.100000	-0.092876	-66.451626	-53.960831	118.121883	-53.960831	118.121883	-0.122023	-88.986262
4.150000	-0.094324	-67.203331	-53.671128	116.522256	-53.671128	116.522256	-0.123878	-89.959613
4.200000	-0.095791	-67.953389	-53.386094	114.922352	-53.386094	114.922352	-0.125756	-90.930231
4.250000	-0.097277	-68.701801	-53.105604	113.322289	-53.105604	113.322289	-0.127659	-91.898137
4.300000	-0.098781	-69.448568	-52.829541	111.722178	-52.829541	111.722178	-0.129587	-92.863354
4.350000	-0.100305	-70.193689	-52.557792	110.122126	-52.557792	110.122126	-0.131540	-93.825906
4.400000	-0.101848	-70.937165	-52.290250	108.522232	-52.290250	108.522232	-0.133518	-94.785818
4.450000	-0.103412	-71.679000	-52.026809	106.922591	-52.026809	106.922591	-0.135523	-95.743115
4.500000	-0.104996	-72.419194	-51.767370	105.323294	-51.767370	105.323294	-0.137554	-96.697822
4.550000	-0.106601	-73.157750	-51.511837	103.724426	-51.511837	103.724426	-0.139613	-97.649969
4.600000	-0.108228	-73.894671	-51.260117	102.126069	-51.260117	102.126069	-0.141698	-98.599582
4.650000	-0.109876	-74.629960	-51.012121	100.528300	-51.012121	100.528300	-0.143812	-99.546690
4.700000	-0.111547	-75.363622	-50.767763	98.931193	-50.767763	98.931193	-0.145954	-100.491323
4.750000	-0.113241	-76.095659	-50.526961	97.334820	-50.526961	97.334820	-0.148124	-101.433512
4.800000	-0.114957	-76.826078	-50.289634	95.739246	-50.289634	95.739246	-0.150324	-102.373286
4.850000	-0.116697	-77.554882	-50.055705	94.144537	-50.055705	94.144537	-0.152553	-103.310680
4.900000	-0.118461	-78.282077	-49.825101	92.550753	-49.825101	92.550753	-0.154812	-104.245724
4.950000	-0.120249	-79.007668	-49.597748	90.957953	-49.597748	90.957953	-0.157101	-105.178452
5.000000	-0.122061	-79.731663	-49.373578	89.366193	-49.373578	89.366193	-0.159421	-106.108899
5.050000	-0.123900	-80.453998	-49.152414	87.775577	-49.152414	87.775577	-0.161773	-107.037002
5.100000	-0.125765	-81.174750	-48.934307	86.186109	-48.934307	86.186109	-0.164157	-107.962897
5.150000	-0.127655	-81.893926	-48.719195	84.597838	-48.719195	84.597838	-0.166572	-108.886620
5.200000	-0.129572	-82.611534	-48.507014	83.010810	-48.507014	83.010810	-0.169020	-109.808207
5.250000	-0.131515	-83.327582	-48.297707	81.425069	-48.297707	81.425069	-0.171499	-110.727696
5.300000	-0.133486	-84.042078	-48.091213	79.840656	-48.091213	79.840656	-0.174012	-111.645124
5.350000	-0.135484	-84.755031	-47.887479	78.257611	-47.887479	78.257611	-0.176558	-112.560531
5.400000	-0.137510	-85.466450	-47.686448	76.675972	-47.686448	76.675972	-0.179137	-113.473955
5.450000	-0.139565	-86.176344	-47.488069	75.095774	-47.488069	75.095774	-0.181749	-114.385435
5.500000	-0.141648	-86.884724	-47.292289	73.517051	-47.292289	73.517051	-0.184396	-115.295013
5.550000	-0.143761	-87.591598	-47.099058	71.939836	-47.099058	71.939836	-0.187078	-116.202728
5.600000	-0.145903	-88.296979	-46.908329	70.364157	-46.908329	70.364157	-0.189794	-117.108623
5.650000	-0.148075	-89.000875	-46.720053	68.790043	-46.720053	68.790043	-0.192545	-118.012738
5.700000	-0.150278	-89.703299	-46.534185	67.217521	-46.534185	67.217521	-0.195331	-118.915117
5.750000	-0.152512	-90.404262	-46.350680	65.646615	-46.350680	65.646615	-0.198153	-119.815801
5.800000	-0.154777	-91.103775	-46.169494	64.077348	-46.169494	64.077348	-0.201011	-120.714834
5.850000	-0.157079	-91.801605	-45.990344	62.510034	-45.990344	62.510034	-0.203911	-121.611994
5.900000	-0.159414	-92.497947	-45.813381	60.944473	-45.813381	60.944473	-0.206849	-122.507524
5.950000	-0.161768	-93.193558	-45.639268	59.379803	-45.639268	59.379803	-0.209807	-123.402280
6.000000	-0.164172	-93.886973	-45.466567	57.817808	-45.466567	57.817808	-0.212823	-124.294713
6.050000	-0.166588	-94.579910	-45.296810	56.256416	-45.296810	56.256416	-0.215852	-125.186664
6.100000	-0.169062	-95.270455	-45.128233	54.698044	-45.128233	54.698044	-0.218946	-126.076200
6.150000	-0.171543	-95.960766	-44.962669	53.139978	-44.962669	53.139978	-0.222047	-126.965511
6.200000	-0.174090	-96.648502	-44.798085	51.585274	-44.798085	51.585274	-0.225220	-127.852351
6.250000	-0.176637	-97.336238	-44.636562	50.030569	-44.636562	50.030569	-0.228394	-128.739192
6.300000	-0.179257	-98.021228	-44.475846	48.479560	-44.475846	48.479560	-0.231648	-129.623543
6.350000	-0.181878	-98.706218	-44.318049	46.928552	-44.318049	46.928552	-0.234903	-130.507894
6.400000	-0.184568	-99.388750	-44.161250	45.380943	-44.161250	45.380943	-0.238231	-131.390156
6.450000	-0.187265	-100.071058	-44.007068	43.833643	-44.007068	43.833643	-0.241568	-132.272227
6.500000	-0.190025	-100.751189	-43.854046	42.289432	-43.854046	42.289432	-0.244972	-133.152576
6.550000	-0.192799	-101.430883	-43.703373	40.745840	-43.703373	40.745840	-0.248392	-134.032581
6.600000	-0.195632	-102.108671	-43.553997	39.205016	-43.553997	39.205016	-0.251873	-134.911196
6.650000	-0.198485	-102.785822	-43.406731	37.665116	-43.406731	37.665116	-0.255377	-135.789349
6.700000	-0.201392	-103.461325	-43.260878	36.127658	-43.260878	36.127658	-0.258936	-136.666413
6.750000	-0.204326	-104.136005	-43.116922	34.591421	-43.116922	34.591421	-0.262524	-137.542933
6.800000	-0.207308	-104.809287	-42.974475	33.057296	-42.974475	33.057296	-0.266162	-138.418630
6.850000	-0.210325	-105.481569	-42.833739	31.524680	-42.833739	31.524680	-0.269836	-139.293738
6.900000	-0.213384	-106.152691	-42.694588	29.993848	-42.694588	29.993848	-0.273553	-140.168253
6.950000	-0.216484	-106.822653	-42.556985	28.464799	-42.556985	28.464799	-0.277314	-141.042175
7.000000	-0.219621	-107.491680	-42.421027	26.937209	-42.421027	26.937209	-0.281111	-141.915696
7.050000	-0.222808	-108.159399	-42.286476	25.411662	-42.286476	25.411662	-0.284960	-142.788656
7.100000	-0.226024	-108.826398	-42.153614	23.887256	-42.153614	23.887256	-0.288838	-143.661373
7.150000	-0.229299	-109.491955	-42.022039	22.365133	-42.022039	22.365133	-0.292775	-144.533602
7.200000	-0.232596	-110.156993	-41.892181	20.843844	-41.892181	20.843844	-0.296735	-145.405707
7.250000	-0.235960	-110.820471	-41.763511	19.325059	-41.763511	19.325059	-0.300762	-146.277436
7.300000	-0.239339	-111.483616	-41.636572	17.806815	-41.636572	17.806815	-0.304804	-147.149122
7.350000	-0.242793	-112.145099	-41.510741	16.291274	-41.510741	16.291274	-0.308921	-148.020585
7.400000	-0.246256	-112.806423	-41.386642	14.775994	-41.386642	14.775994	-0.313047	-148.892047
7.450000	-0.249803	-113.465997	-41.263589	13.263594	-41.263589	13.263594	-0.317255	-149.763481
7.500000	-0.253351	-114.125571	-41.142255	11.751194	-41.142255	11.751194	-0.321464	-150.634915
7.550000	-0.256968	-114.783768	-41.022082	10.241082	-41.022082	10.241082	-0.325742	-151.506475
7.600000	-0.260631	-115.441115	-40.903252	8.732397	-40.903252	8.732397	-0.330064	-152.378192
7.650000	-0.264340	-116.097631	-40.785751	7.225112	-40.785751	7.225112	-0.334430	-153.250122
7.700000	-0.268094	-116.753338	-40.669566	5.719201	-40.669566	5.719201	-0.338840	-154.122320
7.750000	-0.271895	-117.408257	-40.554683	4.214637	-40.554683	4.214637	-0.343296	-154.994841
7.800000	-0.275743	-118.062409	-40.441092	2.711393	-40.441092	2.711393	-0.347796	-155.867741
7.850000	-0.279637	-118.715816	-40.328780	1.209442	-40.328780	1.209442	-0.352341	-156.741076
7.900000	-0.283579	-119.368500	-40.217737	-0.291243	-40.217737	-0.291243	-0.356931	-157.614902
7.950000	-0.287569	-120.020482	-40.107952	-1.790688	-40.107952	-1.790688	-0.361566	-158.489276
8.000000	-0.291606	-120.671784	-39.999417	-3.288922	-39.999417	-3.288922	-0.366247	-159.364254
8.050000	-0.295692	-121.322430	-39.892121	-4.785970	-39.892121	-4.785970	-0.370973	-160.239893
8.100000	-0.299826	-121.972441	-39.786057	-6.281858	-39.786057	-6.281858	-0.375744	-161.116249
8.150000	-0.304008	-122.621840	-39.681217	-7.776612	-39.681217	-7.776612	-0.380562	-161.993380
8.200000	-0.308240	-123.270651	-39.577594	-9.270256	-39.577594	-9.270256	-0.385424	-162.871342
8.250000	-0.312521	-123.918896	-39.475181	-10.762817	-39.475181	-10.762817	-0.390333	-163.750194
8.300000	-0.316851	-124.566598	-39.373972	-12.254316	-39.373972	-12.254316	-0.395287	-164.629992
8.350000	-0.321232	-125.213782	-39.273962	-13.744776	-39.273962	-13.744776	-0.400287	-165.510794
8.400000	-0.325662	-125.860471	-39.175145	-15.234220	-39.175145	-15.234220	-0.405333	-166.392659
8.450000	-0.330142	-126.506689	-39.077519	-16.722667	-39.077519	-16.722667	-0.410425	-167.275643
8.500000	-0.334673	-127.152460	-38.981078	-18.210138	-38.981078	-18.210138	-0.415563	-168.159805
8.550000	-0.339254	-127.797809	-38.885820	-19.696650	-38.885820	-19.696650	-0.420747	-169.045202
8.600000	-0.343886	-128.442759	-38.791742	-21.182219	-38.791742	-21.182219	-0.425976	-169.931894
8.650000	-0.348570	-129.087337	-38.698841	-22.666861	-38.698841	-22.666861	-0.431252	-170.819937
8.700000	-0.353304	-129.731566	-38.607117	-24.150589	-38.607117	-24.150589	-0.436573	-171.709391
8.750000	-0.358090	-130.375473	-38.516567	-25.633415	-38.516567	-25.633415	-0.441941	-172.600315
8.800000	-0.362929	-131.019070	-38.427204	-27.115309	-38.427204	-27.115309	-0.447356	-173.492834
8.850000	-0.367820	-131.662398	-38.339016	-28.596319	-38.339016	-28.596319	-0.452816	-174.386945
8.900000	-0.372762	-132.305482	-38.252005	-30.076450	-38.252005	-30.076450	-0.458322	-175.282706
8.950000	-0.377757	-132.948349	-38.166171	-31.555704	-38.166171	-31.555704	-0.463874	-176.180175
9.000000	-0.382804	-133.591024	-38.081515	-33.034084	-38.081515	-33.034084	-0.469471	-177.079411
9.050000	-0.387902	-134.233535	-37.998039	-34.511586	-37.998039	-34.511586	-0.475113	-177.980473
9.100000	-0.393053	-134.875908	-37.915744	-35.988207	-37.915744	-35.988207	-0.480800	-178.883419
9.150000	-0.398256	-135.518170	-37.834633	-37.463940	-37.834633	-37.463940	-0.486532	-179.788308
9.200000	-0.403511	-136.160349	-37.754707	-38.938775	-37.754707	-38.938775	-0.492309	179.304802
9.250000	-0.408819	-136.802471	-37.675971	-40.412700	-37.675971	-40.412700	-0.498130	178.395853
9.300000	-0.414179	-137.444565	-37.598427	-41.885701	-37.598427	-41.885701	-0.503996	177.484785
9.350000	-0.419591	-138.086659	-37.522079	-43.357758	-37.522079	-43.357758	-0.509905	176.571541
9.400000	-0.425055	-138.728780	-37.446931	-44.828851	-37.446931	-44.828851	-0.515858	175.656062
9.450000	-0.430572	-139.370958	-37.372985	-46.298955	-37.372985	-46.298955	-0.521855	174.738290
9.500000	-0.436141	-140.013220	-37.300248	-47.768042	-37.300248	-47.768042	-0.527894	173.818168
9.550000	-0.441762	-140.655596	-37.228722	-49.236083	-37.228722	-49.236083	-0.533976	172.895637
9.600000	-0.447435	-141.298116	-37.158413	-50.703043	-37.158413	-50.703043	-0.540101	171.970640
9.650000	-0.453161	-141.940807	-37.089325	-52.168884	-37.089325	-52.168884	-0.546267	171.043120
9.700000	-0.458938	-142.583701	-37.021463	-53.633566	-37.021463	-53.633566	-0.552475	170.113019
9.750000	-0.464767	-143.226828	-36.954831	-55.097045	-36.954831	-55.097045	-0.558724	169.180280
9.800000	-0.470647	-143.870217	-36.889436	-56.559274	-36.889436	-56.559274	-0.565013	168.244847
9.850000	-0.476579	-144.513899	-36.825281	-58.020200	-36.825281	-58.020200	-0.571342	167.306664
9.900000	-0.482562	-145.157905	-36.762372	-59.479770	-36.762372	-59.479770	-0.577711	166.365674
9.950000	-0.488596	-145.802265	-36.700713	-60.937925	-36.700713	-60.937925	-0.584119	165.421821
10.000000	-0.494681	-146.447013	-36.640310	-62.394605	-36.640310	-62.394605	-0.590564	164.475050
