! freq	dB(S11)	phase(S11)	dB(S12)	phase(S12)	
!     	dB(S21)	phase(S21)	dB(S22)	phase(S22)	
!S-par simulation data
#  GHz  S  DB  R 50
0.000000	-0.000000	0.000000	-396.289397	180.000000	-396.289397	180.000000	-0.000000	-0.000000
0.050000	-0.000116	-1.218134	-89.006100	179.966790	-89.006100	179.966790	-0.000234	-0.959125
0.100000	-0.000464	-2.436027	-88.752461	167.033566	-88.752461	167.033566	-0.000899	-1.917232
0.150000	-0.001033	-3.653447	-88.467454	157.459292	-88.467454	157.459292	-0.001896	-2.873595
0.200000	-0.001811	-4.870189	-88.125622	149.209277	-88.125622	149.209277	-0.003109	-3.827914
0.250000	-0.002794	-6.085998	-87.745576	141.962908	-87.745576	141.962908	-0.004442	-4.780065
0.300000	-0.003946	-7.300784	-87.355804	135.490842	-87.355804	135.490842	-0.005812	-5.730445
0.350000	-0.005256	-8.514365	-86.973878	129.742573	-86.973878	129.742573	-0.007181	-6.679220
0.400000	-0.006703	-9.726617	-86.615398	124.641751	-86.615398	124.641751	-0.008527	-7.626631
0.450000	-0.008267	-10.937441	-86.291988	120.122479	-86.291988	120.122479	-0.009844	-8.572871
0.500000	-0.009927	-12.146762	-86.012160	116.129950	-86.012160	116.129950	-0.011133	-9.518077
0.550000	-0.011664	-13.354525	-85.782188	112.621741	-85.782188	112.621741	-0.012397	-10.462335
0.600000	-0.013460	-14.560692	-85.606845	109.568756	-85.606845	109.568756	-0.013644	-11.405692
0.650000	-0.015298	-15.765243	-85.489960	106.956002	-85.489960	106.956002	-0.014879	-12.348165
0.700000	-0.017164	-16.968165	-85.434795	104.783603	-85.434795	104.783603	-0.016106	-13.289755
0.750000	-0.019046	-18.169457	-85.444246	103.068445	-85.444246	103.068445	-0.017330	-14.230444
0.800000	-0.020934	-19.369124	-85.520834	101.846823	-85.520834	101.846823	-0.018553	-15.170212
0.850000	-0.022818	-20.567173	-85.666432	101.178402	-85.666432	101.178402	-0.019776	-16.109029
0.900000	-0.024691	-21.763614	-85.881555	101.151733	-85.881555	101.151733	-0.021002	-17.046866
0.950000	-0.026549	-22.958457	-86.163914	101.891040	-86.163914	101.891040	-0.022230	-17.983690
1.000000	-0.028387	-24.151711	-86.505745	103.562751	-86.505745	103.562751	-0.023460	-18.919471
1.050000	-0.030203	-25.343384	-86.889193	106.376825	-86.889193	106.376825	-0.024693	-19.854177
1.100000	-0.031994	-26.533481	-87.279173	110.570978	-87.279173	110.570978	-0.025927	-20.787778
1.150000	-0.033760	-27.722006	-87.614607	116.355053	-87.614607	116.355053	-0.027162	-21.720245
1.200000	-0.035499	-28.908958	-87.803731	123.787364	-87.803731	123.787364	-0.028397	-22.651550
1.250000	-0.037214	-30.094335	-87.736963	132.589725	-87.736963	132.589725	-0.029631	-23.581665
1.300000	-0.038902	-31.278064	-87.311999	142.012516	-87.311999	142.012516	-0.030865	-24.510509
1.350000	-0.040567	-32.460205	-86.538476	151.003577	-86.538476	151.003577	-0.032097	-25.438110
1.400000	-0.042209	-33.640748	-85.494382	158.797215	-85.494382	158.797215	-0.033327	-26.364441
1.450000	-0.043830	-34.819683	-84.288299	165.069120	-84.288299	165.069120	-0.034554	-27.289480
1.500000	-0.045432	-35.996996	-83.014043	169.848777	-83.014043	169.848777	-0.035778	-28.213203
1.550000	-0.047016	-37.172673	-81.734683	173.338592	-81.734683	173.338592	-0.036999	-29.135586
1.600000	-0.048584	-38.346700	-80.486149	175.782508	-80.486149	175.782508	-0.038217	-30.056606
1.650000	-0.050138	-39.519059	-79.286090	177.403289	-79.286090	177.403289	-0.039431	-30.976243
1.700000	-0.051679	-40.689736	-78.141391	178.383242	-78.141391	178.383242	-0.040642	-31.894473
1.750000	-0.053209	-41.858714	-77.053108	178.864510	-77.053108	178.864510	-0.041849	-32.811275
1.800000	-0.054730	-43.025976	-76.019363	178.955760	-76.019363	178.955760	-0.043054	-33.726628
1.850000	-0.056244	-44.191506	-75.036944	178.739641	-75.036944	178.739641	-0.044255	-34.640511
1.900000	-0.057751	-45.355288	-74.102163	178.279182	-74.102163	178.279182	-0.045455	-35.552903
1.950000	-0.059254	-46.517307	-73.211291	177.622757	-73.211291	177.622757	-0.046651	-36.463784
2.000000	-0.060753	-47.677549	-72.360771	176.807809	-72.360771	176.807809	-0.047846	-37.373133
2.050000	-0.062251	-48.835999	-71.547311	175.863586	-71.547311	175.863586	-0.049040	-38.280931
2.100000	-0.063748	-49.992644	-70.767913	174.813143	-70.767913	174.813143	-0.050233	-39.187159
2.150000	-0.065246	-51.147474	-70.019871	173.674820	-70.019871	173.674820	-0.051425	-40.091796
2.200000	-0.066745	-52.300477	-69.300750	172.463333	-69.300750	172.463333	-0.052617	-40.994825
2.250000	-0.068247	-53.451644	-68.608366	171.190579	-68.608366	171.190579	-0.053809	-41.896226
2.300000	-0.069753	-54.600967	-67.940758	169.866255	-67.940758	169.866255	-0.055003	-42.795982
2.350000	-0.071264	-55.748440	-67.296165	168.498315	-67.296165	168.498315	-0.056198	-43.694076
2.400000	-0.072781	-56.894056	-66.672999	167.093323	-66.672999	167.093323	-0.057396	-44.590489
2.450000	-0.074305	-58.037813	-66.069832	165.656731	-66.069832	165.656731	-0.058596	-45.485206
2.500000	-0.075837	-59.179708	-65.485369	164.193091	-65.485369	164.193091	-0.059800	-46.378210
2.550000	-0.077377	-60.319660	-64.917593	162.705357	-64.917593	162.705357	-0.061007	-47.269409
2.600000	-0.078927	-61.457751	-64.366378	161.197846	-64.366378	161.197846	-0.062219	-48.158863
2.650000	-0.080487	-62.593984	-63.830744	159.673218	-63.830744	159.673218	-0.063437	-49.046557
2.700000	-0.082058	-63.728363	-63.309797	158.133736	-63.309797	158.133736	-0.064659	-49.932477
2.750000	-0.083641	-64.860894	-62.802720	156.581327	-62.802720	156.581327	-0.065888	-50.816610
2.800000	-0.085236	-65.991587	-62.308766	155.017641	-62.308766	155.017641	-0.067124	-51.698942
2.850000	-0.086845	-67.120450	-61.827247	153.444091	-61.827247	153.444091	-0.068367	-52.579462
2.900000	-0.088467	-68.247495	-61.357533	151.861890	-61.357533	151.861890	-0.069618	-53.458157
2.950000	-0.090103	-69.372734	-60.899041	150.272083	-60.899041	150.272083	-0.070878	-54.335017
3.000000	-0.091755	-70.496185	-60.451234	148.675570	-60.451234	148.675570	-0.072146	-55.210031
3.050000	-0.093422	-71.617862	-60.013614	147.073127	-60.013614	147.073127	-0.073424	-56.083189
3.100000	-0.095106	-72.737784	-59.585722	145.465425	-59.585722	145.465425	-0.074712	-56.954482
3.150000	-0.096807	-73.855972	-59.167130	143.853046	-59.167130	143.853046	-0.076010	-57.823901
3.200000	-0.098525	-74.972448	-58.757440	142.236494	-58.757440	142.236494	-0.077320	-58.691440
3.250000	-0.100262	-76.087235	-58.356284	140.616206	-58.356284	140.616206	-0.078641	-59.557089
3.300000	-0.102017	-77.200360	-57.963317	138.992561	-57.963317	138.992561	-0.079974	-60.420844
3.350000	-0.103792	-78.311850	-57.578219	137.365890	-57.578219	137.365890	-0.081320	-61.282697
3.400000	-0.105588	-79.421733	-57.200688	135.736480	-57.200688	135.736480	-0.082679	-62.142644
3.450000	-0.107403	-80.530042	-56.830445	134.104584	-56.830445	134.104584	-0.084052	-63.000680
3.500000	-0.109241	-81.636808	-56.467226	132.470421	-56.467226	132.470421	-0.085439	-63.856802
3.550000	-0.111100	-82.742066	-56.110786	130.834185	-56.110786	130.834185	-0.086840	-64.711005
3.600000	-0.112982	-83.845852	-55.760893	129.196045	-55.760893	129.196045	-0.088256	-65.563288
3.650000	-0.114887	-84.948205	-55.417330	127.556152	-55.417330	127.556152	-0.089688	-66.413649
3.700000	-0.116816	-86.049165	-55.079893	125.914639	-55.079893	125.914639	-0.091136	-67.262086
3.750000	-0.118770	-87.148771	-54.748390	124.271627	-54.748390	124.271627	-0.092601	-68.108598
3.800000	-0.120750	-88.247014	-54.422360	122.627165	-54.422360	122.627165	-0.094083	-68.953103
3.850000	-0.122756	-89.343998	-54.101934	120.981416	-54.101934	120.981416	-0.095583	-69.795685
3.900000	-0.124788	-90.439769	-53.786949	119.334468	-53.786949	119.334468	-0.097100	-70.636345
3.950000	-0.126847	-91.534375	-53.477251	117.686402	-53.477251	117.686402	-0.098636	-71.475086
4.000000	-0.128935	-92.627868	-53.172695	116.037293	-53.172695	116.037293	-0.100191	-72.311910
4.050000	-0.131051	-93.720300	-52.873143	114.387214	-52.873143	114.387214	-0.101765	-73.146821
4.100000	-0.133196	-94.811724	-52.578466	112.736234	-52.578466	112.736234	-0.103359	-73.979822
4.150000	-0.135371	-95.902197	-52.288539	111.084416	-52.288539	111.084416	-0.104973	-74.810919
4.200000	-0.137576	-96.991775	-52.003246	109.431826	-52.003246	109.431826	-0.106608	-75.640117
4.250000	-0.139813	-98.080518	-51.722473	107.778525	-51.722473	107.778525	-0.108264	-76.467421
4.300000	-0.142082	-99.168486	-51.446114	106.124576	-51.446114	106.124576	-0.109942	-77.292839
4.350000	-0.144383	-100.255742	-51.174068	104.470039	-51.174068	104.470039	-0.111642	-78.116377
4.400000	-0.146718	-101.342350	-50.906238	102.814974	-50.906238	102.814974	-0.113364	-78.938042
4.450000	-0.149087	-102.428377	-50.642531	101.159444	-50.642531	101.159444	-0.115109	-79.757845
4.500000	-0.151490	-103.513889	-50.382857	99.503509	-50.382857	99.503509	-0.116877	-80.575792
4.550000	-0.153929	-104.598956	-50.127133	97.847230	-50.127133	97.847230	-0.118669	-81.391895
4.600000	-0.156404	-105.683649	-49.875275	96.190671	-49.875275	96.190671	-0.120486	-82.206162
4.650000	-0.158916	-106.768041	-49.627206	94.533892	-49.627206	94.533892	-0.122327	-83.018604
4.700000	-0.161466	-107.852206	-49.382850	92.876958	-49.382850	92.876958	-0.124193	-83.829233
4.750000	-0.164054	-108.936222	-49.142133	91.219932	-49.142133	91.219932	-0.126085	-84.638060
4.800000	-0.166680	-110.020165	-48.904986	89.562877	-48.904986	89.562877	-0.128003	-85.445097
4.850000	-0.169347	-111.104116	-48.671339	87.905859	-48.671339	87.905859	-0.129948	-86.250357
4.900000	-0.172054	-112.188155	-48.441128	86.248940	-48.441128	86.248940	-0.131919	-87.053854
4.950000	-0.174802	-113.272367	-48.214289	84.592186	-48.214289	84.592186	-0.133918	-87.855601
5.000000	-0.177591	-114.356837	-47.990758	82.935659	-47.990758	82.935659	-0.135945	-88.655612
5.050000	-0.180425	-115.441670	-47.770376	81.279440	-47.770376	81.279440	-0.138001	-89.453829
5.100000	-0.183303	-116.526944	-47.553194	79.623581	-47.553194	79.623581	-0.140086	-90.250341
5.150000	-0.186224	-117.612750	-47.339152	77.968145	-47.339152	77.968145	-0.142200	-91.045166
5.200000	-0.189190	-118.699180	-47.128197	76.313191	-47.128197	76.313191	-0.144344	-91.838318
5.250000	-0.192202	-119.786329	-46.920271	74.658781	-46.920271	74.658781	-0.146518	-92.629815
5.300000	-0.195259	-120.874294	-46.715323	73.004971	-46.715323	73.004971	-0.148722	-93.419674
5.350000	-0.198363	-121.963171	-46.513299	71.351818	-46.513299	71.351818	-0.150957	-94.207914
5.400000	-0.201514	-123.053062	-46.314149	69.699376	-46.314149	69.699376	-0.153224	-94.994551
5.450000	-0.204714	-124.144068	-46.117821	68.047698	-46.117821	68.047698	-0.155522	-95.779604
5.500000	-0.207962	-125.236292	-45.924268	66.396833	-45.924268	66.396833	-0.157853	-96.563094
5.550000	-0.211259	-126.329842	-45.733440	64.746828	-45.733440	64.746828	-0.160217	-97.345038
5.600000	-0.214607	-127.424824	-45.545291	63.097727	-45.545291	63.097727	-0.162613	-98.125457
5.650000	-0.218005	-128.521349	-45.359773	61.449573	-45.359773	61.449573	-0.165044	-98.904371
5.700000	-0.221454	-129.619529	-45.176843	59.802403	-45.176843	59.802403	-0.167508	-99.681801
5.750000	-0.224955	-130.719476	-44.996455	58.156251	-44.996455	58.156251	-0.170007	-100.457769
5.800000	-0.228508	-131.821308	-44.818566	56.511151	-44.818566	56.511151	-0.172541	-101.232294
5.850000	-0.232115	-132.925143	-44.643132	54.867129	-44.643132	54.867129	-0.175110	-102.005400
5.900000	-0.235774	-134.031100	-44.470113	53.224211	-44.470113	53.224211	-0.177715	-102.777109
5.950000	-0.239489	-135.139302	-44.299466	51.582417	-44.299466	51.582417	-0.180356	-103.547443
6.000000	-0.243257	-136.249874	-44.131153	49.941765	-44.131153	49.941765	-0.183033	-104.316426
6.050000	-0.247081	-137.362943	-43.965133	48.302268	-43.965133	48.302268	-0.185748	-105.084080
6.100000	-0.250961	-138.478638	-43.801368	46.663935	-43.801368	46.663935	-0.188500	-105.850430
6.150000	-0.254897	-139.597090	-43.639821	45.026774	-43.639821	45.026774	-0.191291	-106.615499
6.200000	-0.258890	-140.718433	-43.480455	43.390786	-43.480455	43.390786	-0.194119	-107.379313
6.250000	-0.262941	-141.842804	-43.323234	41.755971	-43.323234	41.755971	-0.196986	-108.141896
6.300000	-0.267051	-142.970486	-43.168097	40.122374	-43.168097	40.122374	-0.199895	-108.903222
6.350000	-0.271220	-144.101488	-43.015039	38.489936	-43.015039	38.489936	-0.202842	-109.663370
6.400000	-0.275447	-145.235954	-42.864030	36.858646	-42.864030	36.858646	-0.205830	-110.422367
6.450000	-0.279734	-146.374031	-42.715038	35.228489	-42.715038	35.228489	-0.208859	-111.180238
6.500000	-0.284080	-147.515868	-42.568031	33.599449	-42.568031	33.599449	-0.211928	-111.937010
6.550000	-0.288486	-148.661618	-42.422979	31.971505	-42.422979	31.971505	-0.215038	-112.692710
6.600000	-0.292953	-149.811433	-42.279856	30.344636	-42.279856	30.344636	-0.218191	-113.447365
6.650000	-0.297480	-150.965472	-42.138632	28.718818	-42.138632	28.718818	-0.221385	-114.201003
6.700000	-0.302069	-152.123895	-41.999283	27.094024	-41.999283	27.094024	-0.224622	-114.953652
6.750000	-0.306719	-153.286864	-41.861782	25.470229	-41.861782	25.470229	-0.227901	-115.705341
6.800000	-0.311431	-154.454545	-41.726107	23.847404	-41.726107	23.847404	-0.231224	-116.456097
6.850000	-0.316205	-155.627106	-41.592234	22.225519	-41.592234	22.225519	-0.234591	-117.205949
6.900000	-0.321042	-156.804719	-41.460142	20.604547	-41.460142	20.604547	-0.238001	-117.954927
6.950000	-0.325941	-157.987558	-41.329812	18.984459	-41.329812	18.984459	-0.241456	-118.703061
7.000000	-0.330904	-159.175801	-41.201223	17.365225	-41.201223	17.365225	-0.244956	-119.450379
7.050000	-0.335930	-160.369628	-41.074359	15.746818	-41.074359	15.746818	-0.248501	-120.196913
7.100000	-0.341020	-161.569222	-40.949204	14.129213	-40.949204	14.129213	-0.252092	-120.942693
7.150000	-0.346173	-162.774771	-40.825742	12.512386	-40.825742	12.512386	-0.255728	-121.687749
7.200000	-0.351391	-163.986464	-40.703959	10.896314	-40.703959	10.896314	-0.259411	-122.432112
7.250000	-0.356673	-165.204495	-40.583843	9.280979	-40.583843	9.280979	-0.263140	-123.175815
7.300000	-0.362020	-166.429059	-40.465384	7.666366	-40.465384	7.666366	-0.266916	-123.918888
7.350000	-0.367432	-167.660356	-40.348570	6.052463	-40.348570	6.052463	-0.270739	-124.661364
7.400000	-0.372908	-168.898589	-40.233394	4.439263	-40.233394	4.439263	-0.274610	-125.403274
7.450000	-0.378450	-170.143964	-40.119848	2.826765	-40.119848	2.826765	-0.278529	-126.144653
7.500000	-0.384058	-171.396691	-40.007926	1.214971	-40.007926	1.214971	-0.282496	-126.885531
7.550000	-0.389734	-172.657321	-39.897634	-0.396076	-39.897634	-0.396076	-0.286514	-127.625925
7.600000	-0.395475	-173.925750	-39.788961	-2.006390	-39.788961	-2.006390	-0.290580	-128.365889
7.650000	-0.401283	-175.202200	-39.681904	-3.615947	-39.681904	-3.615947	-0.294696	-129.105457
7.700000	-0.407157	-176.486893	-39.576463	-5.224714	-39.576463	-5.224714	-0.298862	-129.844663
7.750000	-0.413097	-177.780056	-39.472637	-6.832650	-39.472637	-6.832650	-0.303077	-130.583543
7.800000	-0.419104	-179.081917	-39.370427	-8.439706	-39.370427	-8.439706	-0.307342	-131.322130
7.850000	-0.425177	179.607289	-39.269835	-10.045823	-39.269835	-10.045823	-0.311657	-132.060460
7.900000	-0.431318	178.287327	-39.170865	-11.650932	-39.170865	-11.650932	-0.316023	-132.798568
7.950000	-0.437526	176.957957	-39.073519	-13.254954	-39.073519	-13.254954	-0.320440	-133.536491
8.000000	-0.443801	175.618937	-38.977802	-14.857800	-38.977802	-14.857800	-0.324907	-134.274264
8.050000	-0.450144	174.270022	-38.883721	-16.459367	-38.883721	-16.459367	-0.329427	-135.011923
8.100000	-0.456554	172.910963	-38.791282	-18.059545	-38.791282	-18.059545	-0.333997	-135.749506
8.150000	-0.463033	171.541510	-38.700490	-19.658207	-38.700490	-19.658207	-0.338620	-136.487050
8.200000	-0.469580	170.161408	-38.611355	-21.255218	-38.611355	-21.255218	-0.343294	-137.224592
8.250000	-0.476196	168.770402	-38.523885	-22.850427	-38.523885	-22.850427	-0.348020	-137.962170
8.300000	-0.482880	167.368232	-38.438087	-24.443673	-38.438087	-24.443673	-0.352799	-138.699822
8.350000	-0.489634	165.954638	-38.353971	-26.034781	-38.353971	-26.034781	-0.357630	-139.437586
8.400000	-0.496458	164.529356	-38.271547	-27.623562	-38.271547	-27.623562	-0.362514	-140.175502
8.450000	-0.503351	163.092123	-38.190824	-29.209814	-38.190824	-29.209814	-0.367451	-140.913608
8.500000	-0.510315	161.642671	-38.111812	-30.793322	-38.111812	-30.793322	-0.372441	-141.651945
8.550000	-0.517350	160.180733	-38.034521	-32.373859	-38.034521	-32.373859	-0.377484	-142.390551
8.600000	-0.524457	158.706041	-37.958961	-33.951182	-37.958961	-33.951182	-0.382580	-143.129467
8.650000	-0.531635	157.218325	-37.885143	-35.525038	-37.885143	-35.525038	-0.387729	-143.868734
8.700000	-0.538887	155.717315	-37.813075	-37.095157	-37.813075	-37.095157	-0.392932	-144.608393
8.750000	-0.546211	154.202742	-37.742768	-38.661261	-37.742768	-38.661261	-0.398188	-145.348485
8.800000	-0.553613	152.673723	-37.674286	-40.222854	-37.674286	-40.222854	-0.403500	-146.089075
8.850000	-0.561089	151.130579	-37.607586	-41.779805	-37.607586	-41.779805	-0.408865	-146.830186
8.900000	-0.568641	149.573043	-37.542677	-43.331796	-37.542677	-43.331796	-0.414284	-147.571860
8.950000	-0.576270	148.000852	-37.479568	-44.878498	-37.479568	-44.878498	-0.419757	-148.314142
9.000000	-0.583977	146.413742	-37.418265	-46.419573	-37.418265	-46.419573	-0.425284	-149.057073
9.050000	-0.591763	144.811456	-37.358776	-47.954672	-37.358776	-47.954672	-0.430864	-149.800698
9.100000	-0.599629	143.193738	-37.301108	-49.483437	-37.301108	-49.483437	-0.436497	-150.545061
9.150000	-0.607576	141.560338	-37.245265	-51.005503	-37.245265	-51.005503	-0.442184	-151.290207
9.200000	-0.615606	139.911012	-37.191254	-52.520497	-37.191254	-52.520497	-0.447925	-152.036180
9.250000	-0.623720	138.245520	-37.139079	-54.028040	-37.139079	-54.028040	-0.453719	-152.783027
9.300000	-0.631921	136.563630	-37.088743	-55.527748	-37.088743	-55.527748	-0.459567	-153.530794
9.350000	-0.640209	134.865118	-37.040249	-57.019231	-37.040249	-57.019231	-0.465467	-154.279526
9.400000	-0.648586	133.149770	-36.993600	-58.502098	-36.993600	-58.502098	-0.471421	-155.029271
9.450000	-0.657055	131.417379	-36.948797	-59.975954	-36.948797	-59.975954	-0.477428	-155.780076
9.500000	-0.665618	129.667751	-36.905842	-61.440404	-36.905842	-61.440404	-0.483487	-156.531989
9.550000	-0.674277	127.900704	-36.864733	-62.895053	-36.864733	-62.895053	-0.489599	-157.285058
9.600000	-0.683034	126.116067	-36.825471	-64.339507	-36.825471	-64.339507	-0.495763	-158.039331
9.650000	-0.691891	124.313685	-36.788055	-65.773374	-36.788055	-65.773374	-0.501979	-158.794859
9.700000	-0.700852	122.493418	-36.752482	-67.196267	-36.752482	-67.196267	-0.508247	-159.551690
9.750000	-0.709920	120.655143	-36.718750	-68.607804	-36.718750	-68.607804	-0.514567	-160.309875
9.800000	-0.719092	118.799546	-36.686781	-70.008141	-36.686781	-70.008141	-0.520935	-161.069401
9.850000	-0.728382	116.924761	-36.656741	-71.395723	-36.656741	-71.395723	-0.527357	-161.830461
9.900000	-0.737788	115.031708	-36.628531	-72.770836	-36.628531	-72.770836	-0.533830	-162.593030
9.950000	-0.747312	113.120345	-36.602147	-74.133130	-36.602147	-74.133130	-0.540353	-163.357160
10.000000	-0.756959	111.190654	-36.577585	-75.482267	-36.577585	-75.482267	-0.546925	-164.122904
