! freq	dB(S11)	phase(S11)	dB(S12)	phase(S12)	
!     	dB(S21)	phase(S21)	dB(S22)	phase(S22)	
!S-par simulation data
#  GHz  S  DB  R 50
0.000000	-86.643997	0.000000	-0.000404	0.000000	-0.000404	0.000000	-86.643997	0.000000
0.050000	-32.802382	-93.290148	-0.006494	-3.135436	-0.006494	-3.135436	-32.796156	-92.976879
0.100000	-26.808300	-96.720455	-0.019301	-6.234174	-0.019301	-6.234174	-26.803772	-96.096117
0.150000	-23.323321	-100.064869	-0.035333	-9.313158	-0.035333	-9.313158	-23.319917	-99.132438
0.200000	-20.867523	-103.358720	-0.054929	-12.381704	-0.054929	-12.381704	-20.864210	-102.119766
0.250000	-18.975673	-106.619412	-0.078470	-15.440750	-0.078470	-15.440750	-18.971780	-105.073836
0.300000	-17.440770	-109.856516	-0.106000	-18.489246	-0.106000	-18.489246	-17.436158	-108.003811
0.350000	-16.153392	-113.073735	-0.137497	-21.525736	-0.137497	-21.525736	-16.148215	-110.913873
0.400000	-15.048342	-116.272605	-0.172791	-24.549152	-0.172791	-24.549152	-15.042812	-113.806047
0.450000	-14.083500	-119.453855	-0.211648	-27.558796	-0.211648	-27.558796	-14.077773	-116.681162
0.500000	-13.230868	-122.616962	-0.253991	-30.553356	-0.253991	-30.553356	-13.225024	-119.538545
0.550000	-12.469779	-125.762034	-0.299580	-33.532242	-0.299580	-33.532242	-12.463841	-122.378037
0.600000	-11.785079	-128.888793	-0.348216	-36.494722	-0.348216	-36.494722	-11.779037	-125.199139
0.650000	-11.165170	-131.996901	-0.399695	-39.440134	-0.399695	-39.440134	-11.158997	-128.001373
0.700000	-10.600955	-135.086007	-0.453805	-42.367899	-0.453805	-42.367899	-10.594619	-130.784333
0.750000	-10.085149	-138.155794	-0.510332	-45.277527	-0.510332	-45.277527	-10.078621	-133.547709
0.800000	-9.611818	-141.206008	-0.569057	-48.168625	-0.569057	-48.168625	-9.605071	-136.291300
0.850000	-9.176137	-144.236355	-0.629770	-51.040782	-0.629770	-51.040782	-9.169154	-139.014890
0.900000	-8.773896	-147.246904	-0.692244	-53.893949	-0.692244	-53.893949	-8.766665	-141.718639
0.950000	-8.401608	-150.237695	-0.756267	-56.728059	-0.756267	-56.728059	-8.394125	-144.402682
1.000000	-8.056288	-153.208871	-0.821634	-59.543157	-0.821634	-59.543157	-8.048558	-147.067257
1.050000	-7.735358	-156.160676	-0.888144	-62.339393	-0.888144	-62.339393	-7.727392	-149.712695
1.100000	-7.436574	-159.093447	-0.955605	-65.117024	-0.955605	-65.117024	-7.428392	-152.339416
1.150000	-7.157967	-162.007612	-1.023833	-67.876401	-1.023833	-67.876401	-7.149596	-154.947923
1.200000	-6.897802	-164.903675	-1.092653	-70.617972	-1.092653	-70.617972	-6.889274	-157.538791
1.250000	-6.654538	-167.782212	-1.161898	-73.342266	-1.161898	-73.342266	-6.645892	-160.112663
1.300000	-6.426990	-170.643511	-1.231403	-76.049544	-1.231403	-76.049544	-6.418271	-162.669905
1.350000	-6.213719	-173.488651	-1.301024	-78.740862	-1.301024	-78.740862	-6.204975	-165.211650
1.400000	-6.013621	-176.318373	-1.370626	-81.416962	-1.370626	-81.416962	-6.004902	-167.738706
1.450000	-5.825697	-179.133458	-1.440084	-84.078640	-1.440084	-84.078640	-5.817056	-170.251925
1.500000	-5.649042	178.065281	-1.509281	-86.726736	-1.509281	-86.726736	-5.640533	-172.752197
1.550000	-5.482837	175.277007	-1.578114	-89.362132	-1.578114	-89.362132	-5.474511	-175.240447
1.600000	-5.326332	172.500860	-1.646488	-91.985746	-1.646488	-91.985746	-5.318241	-177.717629
1.650000	-5.178844	169.735970	-1.714319	-94.598522	-1.714319	-94.598522	-5.171035	179.815275
1.700000	-5.039744	166.981452	-1.781533	-97.201431	-1.781533	-97.201431	-5.032262	177.357259
1.750000	-4.908457	164.236417	-1.848066	-99.795464	-1.848066	-99.795464	-4.901343	174.907292
1.800000	-4.784451	161.499973	-1.913865	-102.381626	-1.913865	-102.381626	-4.777742	172.464328
1.850000	-4.667238	158.771227	-1.978884	-104.960941	-1.978884	-104.960941	-4.660962	170.027296
1.900000	-4.557006	156.050118	-2.042905	-107.533769	-2.042905	-107.533769	-4.551193	167.595636
1.950000	-4.452055	153.334023	-2.106258	-110.102604	-2.106258	-110.102604	-4.446717	165.167062
2.000000	-4.352623	150.622949	-2.168759	-112.667732	-2.168759	-112.667732	-4.347773	162.741090
2.050000	-4.258343	147.916023	-2.230400	-115.230205	-2.230400	-115.230205	-4.253986	160.316585
2.100000	-4.168874	145.212378	-2.291184	-117.791076	-2.291184	-117.791076	-4.165009	157.892399
2.150000	-4.083892	142.511157	-2.351123	-120.351403	-2.351123	-120.351403	-4.080514	155.467370
2.200000	-4.003094	139.811511	-2.410237	-122.912243	-2.410237	-122.912243	-4.000191	153.040316
2.250000	-3.926195	137.112596	-2.468553	-125.474658	-2.468553	-125.474658	-3.923749	150.610042
2.300000	-3.852921	134.413579	-2.526110	-128.039708	-2.526110	-128.039708	-3.850912	148.175338
2.350000	-3.783016	131.713631	-2.582953	-130.608457	-2.582953	-130.608457	-3.781417	145.734971
2.400000	-3.716231	129.011930	-2.639136	-133.181968	-2.639136	-133.181968	-3.715016	143.287696
2.450000	-3.652331	126.307658	-2.694722	-135.761310	-2.694722	-135.761310	-3.651470	140.832244
2.500000	-3.591089	123.599998	-2.749783	-138.347552	-2.749783	-138.347552	-3.590551	138.367326
2.550000	-3.532365	120.887913	-2.804369	-140.942168	-2.804369	-140.942168	-3.532116	135.891099
2.600000	-3.475852	118.170735	-2.858608	-143.545938	-2.858608	-143.545938	-3.475862	133.402638
2.650000	-3.421343	115.447640	-2.912602	-146.159952	-2.912602	-146.159952	-3.421584	130.900577
2.700000	-3.368640	112.717799	-2.966459	-148.785307	-2.966459	-148.785307	-3.369084	128.383526
2.750000	-3.317544	109.980372	-3.020299	-151.423114	-3.020299	-151.423114	-3.318170	125.850062
2.800000	-3.267864	107.234507	-3.074253	-154.074494	-3.074253	-154.074494	-3.268654	123.298733
2.850000	-3.219411	104.479332	-3.128464	-156.740588	-3.128464	-156.740588	-3.220352	120.728053
2.900000	-3.171998	101.713955	-3.183084	-159.422554	-3.183084	-159.422554	-3.173085	118.136498
2.950000	-3.125440	98.937459	-3.238283	-162.121570	-3.238283	-162.121570	-3.126674	115.522507
3.000000	-3.079555	96.148894	-3.294239	-164.838842	-3.294239	-164.838842	-3.080944	112.884479
3.050000	-3.034162	93.347278	-3.351151	-167.575604	-3.351151	-167.575604	-3.035723	110.220768
3.100000	-2.989081	90.531585	-3.409230	-170.333120	-3.409230	-170.333120	-2.990841	107.529681
3.150000	-2.944134	87.700744	-3.468708	-173.112693	-3.468708	-173.112693	-2.946126	104.809479
3.200000	-2.899144	84.853630	-3.529835	-175.915665	-3.529835	-175.915665	-2.901412	102.058368
3.250000	-2.853935	81.989058	-3.592886	-178.743422	-3.592886	-178.743422	-2.856531	99.274502
3.300000	-2.808332	79.105776	-3.658158	178.402599	-3.658158	178.402599	-2.811318	96.455973
3.350000	-2.762164	76.202457	-3.725975	175.520907	-3.725975	175.520907	-2.765608	93.600816
3.400000	-2.715261	73.277691	-3.796694	172.609953	-3.796694	172.609953	-2.719241	90.706999
3.450000	-2.667455	70.329974	-3.870705	169.668124	-3.870705	169.668124	-2.672055	87.772423
3.500000	-2.618584	67.357703	-3.948435	166.693735	-3.948435	166.693735	-2.623893	84.794920
3.550000	-2.568489	64.359163	-4.030358	163.685030	-4.030358	163.685030	-2.574602	81.772244
3.600000	-2.517017	61.332515	-4.116994	160.640172	-4.116994	160.640172	-2.524033	78.702076
3.650000	-2.464024	58.275790	-4.208922	157.557243	-4.208922	157.557243	-2.472041	75.582015
3.700000	-2.409373	55.186876	-4.306783	154.434236	-4.306783	154.434236	-2.418492	72.409576
3.750000	-2.352939	52.063505	-4.411290	151.269055	-4.411290	151.269055	-2.363258	69.182190
3.800000	-2.294531	48.901931	-4.523468	148.057973	-4.523468	148.057973	-2.306147	65.895209
3.850000	-2.234126	45.700661	-4.644036	144.800090	-4.644036	144.800090	-2.247126	62.547684
3.900000	-2.171647	42.456872	-4.774007	141.493029	-4.774007	141.493029	-2.186111	59.136774
3.950000	-2.107045	39.167544	-4.914520	138.134336	-4.914520	138.134336	-2.123040	55.659548
4.000000	-2.040294	35.829449	-5.066865	134.721485	-5.066865	134.721485	-2.057874	52.112993
4.050000	-1.971402	32.439142	-5.232506	131.251894	-5.232506	131.251894	-1.990604	48.494016
4.100000	-1.900412	28.992960	-5.413110	127.722955	-5.413110	127.722955	-1.921257	44.799455
4.150000	-1.827412	25.487019	-5.610583	124.132064	-5.610583	124.132064	-1.849899	41.026087
4.200000	-1.752537	21.917217	-5.827110	120.476668	-5.827110	120.476668	-1.776640	37.170649
4.250000	-1.675978	18.279245	-6.065212	116.754330	-6.065212	116.754330	-1.701646	33.229852
4.300000	-1.597987	14.568596	-6.327811	112.962817	-6.327811	112.962817	-1.625143	29.200416
4.350000	-1.518888	10.780595	-6.618306	109.100208	-6.618306	109.100208	-1.547424	25.079102
4.400000	-1.439069	6.909476	-6.940937	105.164260	-6.940937	105.164260	-1.468843	20.861686
4.450000	-1.359035	2.950155	-7.300488	101.154217	-7.300488	101.154217	-1.389872	16.545054
4.500000	-1.279383	-1.101437	-7.702340	97.071162	-7.702340	97.071162	-1.311072	12.127442
4.550000	-1.200791	-5.250235	-8.153231	92.916801	-8.153231	92.916801	-1.233087	7.606335
4.600000	-1.124037	-9.501078	-8.661347	88.694837	-8.661347	88.694837	-1.156657	2.979585
4.650000	-1.049999	-13.858621	-9.236775	84.411825	-9.236775	84.411825	-1.082620	-1.754494
4.700000	-0.979651	-18.327252	-9.892151	80.078466	-9.892151	80.078466	-1.011912	-6.597034
4.750000	-0.914058	-22.911005	-10.643636	75.711673	-10.643636	75.711673	-0.945555	-11.548517
4.800000	-0.854360	-27.613500	-11.512438	71.338012	-11.512438	71.338012	-0.884645	-16.608701
4.850000	-0.801754	-32.437898	-12.527274	66.999854	-12.527274	66.999854	-0.830335	-21.776568
4.900000	-0.757469	-37.386927	-13.728604	62.767159	-13.728604	62.767159	-0.783802	-27.050324
4.950000	-0.722731	-42.462976	-15.176382	58.762179	-15.176382	58.762179	-0.746219	-32.427480
5.000000	-0.698725	-47.668332	-16.965427	55.217069	-16.965427	55.217069	-0.718706	-37.905044
5.050000	-0.686783	-53.008055	-19.258982	52.671277	-19.258982	52.671277	-0.702509	-43.481594
5.100000	-0.687669	-58.483516	-22.367618	52.518728	-22.367618	52.518728	-0.698311	-49.152724
5.150000	-0.702165	-64.100661	-26.931194	59.976122	-26.931194	59.976122	-0.706776	-54.917398
5.200000	-0.730851	-69.869483	-32.554026	100.394656	-32.554026	100.394656	-0.728329	-60.777723
5.250000	-0.774126	-75.806892	-29.294310	158.035522	-29.294310	158.035522	-0.763144	-66.741444
5.300000	-0.832292	-81.941380	-24.412907	171.926649	-24.412907	171.926649	-0.811193	-72.825989
5.350000	-0.905840	-88.320931	-21.341004	173.216333	-21.341004	173.216333	-0.872442	-79.065289
5.400000	-0.996166	-95.027139	-19.384058	171.100723	-19.384058	171.100723	-0.947397	-85.521875
5.450000	-1.107757	-102.208914	-18.248828	167.926043	-18.248828	167.926043	-1.038846	-92.314945
5.500000	-1.253239	-110.124192	-17.929160	165.175313	-17.929160	165.175313	-1.156069	-99.657887
5.550000	-1.471936	-119.275174	-18.738130	166.169557	-18.738130	166.169557	-1.330461	-107.969417
5.600000	-1.894032	-130.633852	-20.794050	-173.644823	-20.794050	-173.644823	-1.670221	-118.053931
5.650000	-3.007739	-145.753324	-16.320805	-127.602697	-16.320805	-127.602697	-2.583261	-131.094304
5.700000	-6.595270	-161.475103	-8.282622	-132.963815	-8.282622	-132.963815	-5.428398	-143.721408
5.750000	-11.992624	-132.612839	-4.330298	-161.465126	-4.330298	-161.465126	-9.324455	-126.185081
5.800000	-8.207110	-110.998024	-3.395969	174.960829	-3.395969	174.960829	-7.388687	-108.445373
5.850000	-6.147495	-116.998390	-3.298107	159.746806	-3.298107	159.746806	-5.792338	-110.924893
5.900000	-5.341864	-124.957755	-3.303188	149.175488	-3.303188	149.175488	-5.100496	-116.516568
5.950000	-5.016609	-132.415214	-3.281508	140.945059	-3.281508	140.945059	-4.809705	-122.150496
6.000000	-4.910803	-139.300848	-3.225495	134.024043	-3.225495	134.024043	-4.711705	-127.434052
6.050000	-4.916431	-145.756865	-3.146343	127.891128	-3.146343	127.891128	-4.714122	-132.364085
6.100000	-4.982317	-151.911255	-3.054964	122.260845	-3.054964	122.260845	-4.771644	-137.000597
6.150000	-5.083904	-157.840888	-2.958466	116.989386	-2.958466	116.989386	-4.862169	-141.386605
6.200000	-5.206309	-163.601298	-2.861683	111.984379	-2.861683	111.984379	-4.972164	-145.559248
6.250000	-5.340180	-169.230801	-2.767672	107.186307	-2.767672	107.186307	-5.093101	-149.547438
6.300000	-5.479202	-174.753259	-2.678461	102.559691	-2.678461	102.559691	-5.219260	-153.369146
6.350000	-5.618781	179.808592	-2.595000	98.069968	-2.595000	98.069968	-5.346470	-157.049046
6.400000	-5.755726	174.441775	-2.517820	93.696748	-2.517820	93.696748	-5.471888	-160.602743
6.450000	-5.887593	169.137259	-2.447130	89.424486	-2.447130	89.424486	-5.593368	-164.043867
6.500000	-6.012473	163.889003	-2.382936	85.240995	-2.382936	85.240995	-5.709262	-167.384632
6.550000	-6.128856	158.693274	-2.325116	81.136472	-2.325116	81.136472	-5.818288	-170.636213
6.600000	-6.235249	153.549448	-2.273615	77.104523	-2.273615	77.104523	-5.919197	-173.807213
6.650000	-6.330903	148.456218	-2.228082	73.136977	-2.228082	73.136977	-6.011364	-176.909116
6.700000	-6.415223	143.413928	-2.188204	69.227611	-2.188204	69.227611	-6.094292	-179.951768
6.750000	-6.487814	138.423778	-2.153675	65.371205	-2.153675	65.371205	-6.167647	177.055784
6.800000	-6.548254	133.488466	-2.124278	61.564008	-2.124278	61.564008	-6.231057	174.105700
6.850000	-6.596405	128.610639	-2.099752	57.802226	-2.099752	57.802226	-6.284376	171.189994
6.900000	-6.630552	123.802178	-2.080467	54.087999	-2.080467	54.087999	-6.326119	168.303856
6.950000	-6.654221	119.049293	-2.064978	50.407330	-2.064978	50.407330	-6.359163	165.433868
7.000000	-6.666053	114.362803	-2.053666	46.763018	-2.053666	46.763018	-6.382298	162.576912
7.050000	-6.666423	109.745495	-2.046333	43.152643	-2.046333	43.152643	-6.395745	159.726861
7.100000	-6.655793	105.199907	-2.042799	39.574020	-2.042799	39.574020	-6.399790	156.878090
7.150000	-6.634700	100.728253	-2.042898	36.025165	-2.042898	36.025165	-6.394773	154.025487
7.200000	-6.603735	96.332374	-2.046481	32.504276	-2.046481	32.504276	-6.381078	151.164461
7.250000	-6.563531	92.013702	-2.053410	29.009712	-2.053410	29.009712	-6.359127	148.290942
7.300000	-6.514749	87.773246	-2.063565	25.539978	-2.063565	25.539978	-6.329364	145.401378
7.350000	-6.458066	83.611593	-2.076836	22.093710	-2.076836	22.093710	-6.292257	142.492726
7.400000	-6.394160	79.528913	-2.093124	18.669665	-2.093124	18.669665	-6.248280	139.562432
7.450000	-6.323705	75.524989	-2.112344	15.266711	-2.112344	15.266711	-6.197914	136.608416
7.500000	-6.247359	71.599239	-2.134419	11.883819	-2.134419	11.883819	-6.141640	133.629046
7.550000	-6.165524	67.754057	-2.159397	8.520845	-2.159397	8.520845	-6.079695	130.621922
7.600000	-6.079092	63.984806	-2.187099	5.176086	-2.187099	5.176086	-6.012812	127.587381
7.650000	-5.988639	60.290004	-2.217474	1.848793	-2.217474	1.848793	-5.941440	124.525017
7.700000	-5.894713	56.667964	-2.250480	-1.461704	-2.250480	-1.461704	-5.866013	121.434749
7.750000	-5.797824	53.116825	-2.286081	-4.755998	-2.286081	-4.755998	-5.786946	118.316794
7.800000	-5.698449	49.634593	-2.324247	-8.034611	-2.324247	-8.034611	-5.704636	115.171633
7.850000	-5.597033	46.219166	-2.364952	-11.297994	-2.364952	-11.297994	-5.619462	111.999984
7.900000	-5.493984	42.868369	-2.408175	-14.546534	-2.408175	-14.546534	-5.531784	108.802777
7.950000	-5.389680	39.579973	-2.453897	-17.780549	-2.453897	-17.780549	-5.441943	105.581122
8.000000	-5.284470	36.351724	-2.502106	-21.000300	-2.502106	-21.000300	-5.350260	102.336292
8.050000	-5.178670	33.181358	-2.552787	-24.205983	-2.552787	-24.205983	-5.257041	99.069694
8.100000	-5.072571	30.066621	-2.605931	-27.397740	-2.605931	-27.397740	-5.162575	95.782852
8.150000	-4.966440	27.005279	-2.661528	-30.575655	-2.661528	-30.575655	-5.067134	92.477385
8.200000	-4.860519	23.995137	-2.719569	-33.739760	-2.719569	-33.739760	-4.970976	89.154991
8.250000	-4.755028	21.034043	-2.780044	-36.890033	-2.780044	-36.890033	-4.874346	85.817431
8.300000	-4.650170	18.119897	-2.842944	-40.026407	-2.842944	-40.026407	-4.777474	82.466513
8.350000	-4.546140	15.248203	-2.908147	-43.149591	-2.908147	-43.149591	-4.680629	79.104611
8.400000	-4.443071	12.420641	-2.975798	-46.258277	-2.975798	-46.258277	-4.583932	75.732669
8.450000	-4.341138	9.637425	-3.045981	-49.351408	-3.045981	-49.351408	-4.487569	72.352369
8.500000	-4.240479	6.891276	-3.118431	-52.430702	-3.118431	-52.430702	-4.391809	68.966540
8.550000	-4.141233	4.183413	-3.193260	-55.494749	-3.193260	-55.494749	-4.296800	65.576658
8.600000	-4.043511	1.511448	-3.270408	-58.543536	-3.270408	-58.543536	-4.202716	62.184647
8.650000	-3.947400	-1.127562	-3.349781	-61.577328	-3.349781	-61.577328	-4.109716	58.792378
8.700000	-3.853057	-3.731930	-3.431491	-64.594252	-3.431491	-64.594252	-4.017970	55.401733
8.750000	-3.760454	-6.307997	-3.515272	-67.596427	-3.515272	-67.596427	-3.927567	52.014072
8.800000	-3.669862	-8.850702	-3.601365	-70.579955	-3.601365	-70.579955	-3.838756	48.632077
8.850000	-3.581150	-11.367572	-3.689444	-73.548001	-3.689444	-73.548001	-3.751525	45.256238
8.900000	-3.494556	-13.855481	-3.779634	-76.497501	-3.779634	-76.497501	-3.666119	41.889326
8.950000	-3.410027	-16.318155	-3.871765	-79.429744	-3.871765	-79.429744	-3.582554	38.532053
9.000000	-3.327673	-18.755663	-3.965806	-82.343623	-3.965806	-82.343623	-3.500972	35.186354
9.050000	-3.247575	-21.168521	-4.061698	-85.238373	-4.061698	-85.238373	-3.421490	31.853940
9.100000	-3.169666	-23.559467	-4.159302	-88.115055	-4.159302	-88.115055	-3.344083	28.535150
9.150000	-3.094209	-25.926289	-4.258613	-90.970667	-4.258613	-90.970667	-3.269029	25.233388
9.200000	-3.020952	-28.273576	-4.359454	-93.808252	-4.359454	-93.808252	-3.196111	21.947083
9.250000	-2.950275	-30.597967	-4.461794	-96.623576	-4.461794	-96.623576	-3.125715	18.680874
9.300000	-2.881895	-32.903684	-4.565488	-99.419836	-4.565488	-99.419836	-3.057576	15.432659
9.350000	-2.816062	-35.189004	-4.670439	-102.194319	-4.670439	-102.194319	-2.991944	12.205804
9.400000	-2.752689	-37.455571	-4.776540	-104.947950	-4.776540	-104.947950	-2.928732	9.000101
9.450000	-2.691799	-39.703850	-4.883675	-107.680463	-4.883675	-107.680463	-2.867956	5.816475
9.500000	-2.633534	-41.933186	-4.991702	-110.390369	-4.991702	-110.390369	-2.809738	2.657112
9.550000	-2.577662	-44.146015	-5.100559	-113.079986	-5.100559	-113.079986	-2.753836	-0.479953
9.600000	-2.524579	-46.339575	-5.210004	-115.745308	-5.210004	-115.745308	-2.700602	-3.589744
9.650000	-2.473862	-48.517479	-5.320057	-118.390459	-5.320057	-118.390459	-2.649606	-6.676454
9.700000	-2.425915	-50.676947	-5.430426	-121.011450	-5.430426	-121.011450	-2.601185	-9.735044
9.750000	-2.380427	-52.820434	-5.541119	-123.611217	-5.541119	-123.611217	-2.555014	-12.768551
9.800000	-2.337581	-54.946752	-5.651909	-126.187969	-5.651909	-126.187969	-2.511208	-15.774484
9.850000	-2.297326	-57.056300	-5.762685	-128.742112	-5.762685	-128.742112	-2.469672	-18.752997
9.900000	-2.259564	-59.149759	-5.873367	-131.274520	-5.873367	-131.274520	-2.430265	-21.704850
9.950000	-2.224516	-61.225522	-5.983658	-133.783052	-5.983658	-133.783052	-2.393108	-24.627126
10.000000	-2.191797	-63.286136	-6.093692	-136.271232	-6.093692	-136.271232	-2.357828	-27.523965
