! freq	dB(S11)	phase(S11)	dB(S12)	phase(S12)	
!     	dB(S21)	phase(S21)	dB(S22)	phase(S22)	
!S-par simulation data
#  GHz  S  DB  R 50
0.000000	-0.000000	0.000000	-342.442499	0.000000	-342.442499	0.000000	-0.000000	0.000000
0.050000	-0.000062	-0.764710	-88.251477	4.080504	-88.251477	4.080504	-0.000071	-0.845675
0.100000	-0.000249	-1.529313	-88.245558	6.177397	-88.245558	6.177397	-0.000282	-1.691222
0.150000	-0.000556	-2.293705	-88.238525	8.714127	-88.238525	8.714127	-0.000630	-2.536517
0.200000	-0.000977	-3.057792	-88.229514	11.361075	-88.229514	11.361075	-0.001107	-3.381448
0.250000	-0.001514	-3.821455	-88.218703	14.055653	-88.218703	14.055653	-0.001714	-4.225874
0.300000	-0.002149	-4.584649	-88.206740	16.774028	-88.206740	16.774028	-0.002431	-5.069742
0.350000	-0.002879	-5.347283	-88.194111	19.511814	-88.194111	19.511814	-0.003253	-5.912943
0.400000	-0.003694	-6.109290	-88.181418	22.268496	-88.181418	22.268496	-0.004170	-6.755402
0.450000	-0.004586	-6.870616	-88.169267	25.047120	-88.169267	25.047120	-0.005171	-7.597052
0.500000	-0.005544	-7.631211	-88.158224	27.853325	-88.158224	27.853325	-0.006245	-8.437839
0.550000	-0.006560	-8.391040	-88.148773	30.694961	-88.148773	30.694961	-0.007381	-9.277719
0.600000	-0.007625	-9.150072	-88.141262	33.581932	-88.141262	33.581932	-0.008568	-10.116659
0.650000	-0.008729	-9.908286	-88.135846	36.526122	-88.135846	36.526122	-0.009797	-10.954633
0.700000	-0.009865	-10.665666	-88.132416	39.541331	-88.132416	39.541331	-0.011058	-11.791625
0.750000	-0.011026	-11.422203	-88.130517	42.643181	-88.130517	42.643181	-0.012343	-12.627624
0.800000	-0.012204	-12.177892	-88.129260	45.848928	-88.129260	45.848928	-0.013645	-13.462622
0.850000	-0.013393	-12.932731	-88.127208	49.177152	-88.127208	49.177152	-0.014956	-14.296618
0.900000	-0.014588	-13.686722	-88.122258	52.647237	-88.122258	52.647237	-0.016272	-15.129613
0.950000	-0.015785	-14.439867	-88.111520	56.278573	-88.111520	56.278573	-0.017587	-15.961608
1.000000	-0.016980	-15.192170	-88.091195	60.089397	-88.091195	60.089397	-0.018897	-16.792606
1.050000	-0.018170	-15.943637	-88.056489	64.095196	-88.056489	64.095196	-0.020200	-17.622612
1.100000	-0.019351	-16.694271	-88.001573	68.306627	-88.001573	68.306627	-0.021492	-18.451627
1.150000	-0.020523	-17.444078	-87.919661	72.727014	-87.919661	72.727014	-0.022772	-19.279654
1.200000	-0.021684	-18.193060	-87.803221	77.349613	-87.803221	77.349613	-0.024038	-20.106695
1.250000	-0.022832	-18.941219	-87.644382	82.155037	-87.644382	82.155037	-0.025289	-20.932749
1.300000	-0.023966	-19.688523	-87.432740	87.113560	-87.432740	87.113560	-0.026524	-21.757773
1.350000	-0.025087	-20.435006	-87.163710	92.166738	-87.163710	92.166738	-0.027743	-22.581806
1.400000	-0.026193	-21.180666	-86.832683	97.251852	-86.832683	97.251852	-0.028947	-23.404844
1.450000	-0.027287	-21.925503	-86.437600	102.298486	-86.437600	102.298486	-0.030136	-24.226881
1.500000	-0.028367	-22.669510	-85.979261	107.234543	-85.979261	107.234543	-0.031310	-25.047910
1.550000	-0.029434	-23.412685	-85.461228	111.992538	-85.461228	111.992538	-0.032470	-25.867922
1.600000	-0.030489	-24.155019	-84.889350	116.514879	-84.889350	116.514879	-0.033617	-26.686908
1.650000	-0.031532	-24.896507	-84.271041	120.757253	-84.271041	120.757253	-0.034752	-27.504856
1.700000	-0.032561	-25.636838	-83.585628	124.575024	-83.585628	124.575024	-0.035871	-28.321384
1.750000	-0.033585	-26.376719	-82.911270	128.224800	-82.911270	128.224800	-0.036984	-29.137361
1.800000	-0.034597	-27.115530	-82.196275	131.475462	-82.196275	131.475462	-0.038087	-29.952021
1.850000	-0.035603	-27.853577	-81.477111	134.441042	-81.477111	134.441042	-0.039181	-30.765741
1.900000	-0.036600	-28.590682	-80.744295	137.087942	-80.744295	137.087942	-0.040268	-31.578300
1.950000	-0.037591	-29.326845	-80.005473	139.416163	-80.005473	139.416163	-0.041347	-32.389699
2.000000	-0.038576	-30.062201	-79.273373	141.511476	-79.273373	141.511476	-0.042422	-33.200103
2.050000	-0.039556	-30.796425	-78.532303	143.280718	-78.532303	143.280718	-0.043490	-34.009113
2.100000	-0.040533	-31.530153	-77.822184	144.927578	-77.822184	144.927578	-0.044557	-34.817511
2.150000	-0.041506	-32.262592	-77.099993	146.265918	-77.099993	146.265918	-0.045619	-35.624321
2.200000	-0.042476	-32.994056	-76.386489	147.399236	-76.386489	147.399236	-0.046679	-36.429931
2.250000	-0.043445	-33.724531	-75.682692	148.343596	-75.682692	148.343596	-0.047738	-37.234325
2.300000	-0.044412	-34.454004	-74.989324	149.113701	-74.989324	149.113701	-0.048797	-38.037485
2.350000	-0.045380	-35.182459	-74.306880	149.722911	-74.306880	149.722911	-0.049856	-38.839396
2.400000	-0.046347	-35.909882	-73.635677	150.183308	-73.635677	150.183308	-0.050916	-39.640042
2.450000	-0.047317	-36.636260	-72.975904	150.505786	-72.975904	150.505786	-0.051978	-40.439406
2.500000	-0.048288	-37.361578	-72.327651	150.700164	-72.327651	150.700164	-0.053042	-41.237472
2.550000	-0.049261	-38.085774	-71.689444	150.770485	-71.689444	150.770485	-0.054110	-42.034168
2.600000	-0.050238	-38.808881	-71.062884	150.730200	-71.062884	150.730200	-0.055182	-42.829535
2.650000	-0.051219	-39.530884	-70.447900	150.586451	-70.447900	150.586451	-0.056258	-43.623557
2.700000	-0.052204	-40.251771	-69.844398	150.345738	-69.844398	150.345738	-0.057340	-44.416221
2.750000	-0.053194	-40.971527	-69.252271	150.013992	-69.252271	150.013992	-0.058427	-45.207512
2.800000	-0.054190	-41.690139	-68.671407	149.596662	-68.671407	149.596662	-0.059521	-45.997416
2.850000	-0.055191	-42.407594	-68.101688	149.098773	-68.101688	149.098773	-0.060621	-46.785920
2.900000	-0.056199	-43.123879	-67.543000	148.524987	-67.543000	148.524987	-0.061729	-47.573012
2.950000	-0.057214	-43.838982	-66.995229	147.879659	-66.995229	147.879659	-0.062845	-48.358678
3.000000	-0.058236	-44.552890	-66.458262	147.166878	-66.458262	147.166878	-0.063969	-49.142908
3.050000	-0.059266	-45.265590	-65.931993	146.390506	-65.931993	146.390506	-0.065103	-49.925689
3.100000	-0.060304	-45.977073	-65.416315	145.554215	-65.416315	145.554215	-0.066245	-50.707011
3.150000	-0.061352	-46.687325	-64.911127	144.661515	-64.911127	144.661515	-0.067398	-51.486862
3.200000	-0.062408	-47.396336	-64.416325	143.715777	-64.416325	143.715777	-0.068560	-52.265235
3.250000	-0.063474	-48.104094	-63.931808	142.720253	-63.931808	142.720253	-0.069734	-53.042118
3.300000	-0.064550	-48.810590	-63.457474	141.678093	-63.457474	141.678093	-0.070919	-53.817503
3.350000	-0.065638	-49.515590	-62.990750	140.585671	-62.990750	140.585671	-0.072117	-54.591118
3.400000	-0.066737	-50.219250	-62.533659	139.450982	-62.533659	139.450982	-0.073328	-55.363153
3.450000	-0.067843	-50.922233	-62.092870	138.297773	-62.092870	138.297773	-0.074546	-56.134392
3.500000	-0.068966	-51.623183	-61.654668	137.089000	-61.654668	137.089000	-0.075783	-56.903243
3.550000	-0.070094	-52.323674	-61.233720	135.869879	-61.233720	135.869879	-0.077025	-57.671558
3.600000	-0.071242	-53.021876	-60.814135	134.599014	-60.814135	134.599014	-0.078291	-58.437199
3.650000	-0.072394	-53.719845	-60.412248	133.323921	-60.412248	133.323921	-0.079560	-59.202571
3.700000	-0.073569	-54.415264	-60.010887	132.002316	-60.010887	132.002316	-0.080855	-59.964982
3.750000	-0.074745	-55.110683	-59.627256	130.680711	-59.627256	130.680711	-0.082151	-60.727393
3.800000	-0.075949	-55.803288	-59.243591	129.319012	-59.243591	129.319012	-0.083479	-61.486560
3.850000	-0.077154	-56.495893	-58.876159	127.957313	-58.876159	127.957313	-0.084807	-62.245728
3.900000	-0.078386	-57.185895	-58.510749	126.567886	-58.510749	126.567886	-0.086165	-63.001914
3.950000	-0.079620	-57.875660	-58.158968	125.175938	-58.158968	125.175938	-0.087526	-63.757829
4.000000	-0.080881	-58.563038	-57.810699	123.766230	-57.810699	123.766230	-0.088916	-64.511032
4.050000	-0.082147	-59.249938	-57.473899	122.352971	-57.473899	122.352971	-0.090312	-65.263692
4.100000	-0.083437	-59.934675	-57.141635	120.929684	-57.141635	120.929684	-0.091735	-66.013913
4.150000	-0.084736	-60.618691	-56.819032	119.503055	-56.819032	119.503055	-0.093168	-66.763322
4.200000	-0.086058	-61.300773	-56.501628	118.072095	-56.501628	118.072095	-0.094626	-67.510569
4.250000	-0.087391	-61.981887	-56.192348	116.638971	-56.192348	116.638971	-0.096097	-68.256735
4.300000	-0.088746	-62.661302	-55.888664	115.205428	-55.888664	115.205428	-0.097592	-69.001019
4.350000	-0.090115	-63.339502	-55.591761	113.771586	-55.591761	113.771586	-0.099103	-69.743959
4.400000	-0.091503	-64.016240	-55.300675	112.339727	-55.300675	112.339727	-0.100635	-70.485297
4.450000	-0.092910	-64.691516	-55.015161	110.909850	-55.015161	110.909850	-0.102187	-71.225033
4.500000	-0.094333	-65.365570	-54.735581	109.483134	-54.735581	109.483134	-0.103758	-71.963446
4.550000	-0.095779	-66.037915	-54.460445	108.060845	-54.460445	108.060845	-0.105354	-72.700006
4.600000	-0.097238	-66.709283	-54.191321	106.641961	-54.191321	106.641961	-0.106966	-73.435521
4.650000	-0.098725	-67.378694	-53.925558	105.229890	-53.925558	105.229890	-0.108607	-74.168943
4.700000	-0.100221	-68.047372	-53.665886	103.820804	-53.665886	103.820804	-0.110260	-74.901592
4.750000	-0.101749	-68.713851	-53.408513	102.420674	-53.408513	102.420674	-0.111948	-75.631919
4.800000	-0.103285	-69.379841	-53.157348	101.022688	-53.157348	101.022688	-0.113644	-76.361740
4.850000	-0.104856	-70.043391	-52.907420	99.635421	-52.907420	99.635421	-0.115380	-77.089026
4.900000	-0.106432	-70.706696	-52.663877	98.249244	-52.663877	98.249244	-0.117121	-77.816063
4.950000	-0.108048	-71.367323	-52.420501	96.875063	-52.420501	96.875063	-0.118908	-78.540368
5.000000	-0.109665	-72.027951	-52.183758	95.500882	-52.183758	95.500882	-0.120695	-79.264673
5.050000	-0.111328	-72.685666	-51.946100	94.139427	-51.946100	94.139427	-0.122534	-79.986069
5.100000	-0.112991	-73.343381	-51.714771	92.777971	-51.714771	92.777971	-0.124374	-80.707465
5.150000	-0.114698	-73.998439	-51.482689	91.427409	-51.482689	91.427409	-0.126262	-81.426269
5.200000	-0.116409	-74.653255	-51.256050	90.077837	-51.256050	90.077837	-0.128156	-82.144838
5.250000	-0.118161	-75.305669	-51.028871	88.737149	-51.028871	88.737149	-0.130096	-82.861131
5.300000	-0.119922	-75.957604	-50.806255	87.398238	-50.806255	87.398238	-0.132045	-83.576969
5.350000	-0.121721	-76.607390	-50.583373	86.066189	-50.583373	86.066189	-0.134038	-84.290841
5.400000	-0.123532	-77.256462	-50.364173	84.736426	-50.364173	84.736426	-0.136046	-85.004057
5.450000	-0.125379	-77.903639	-50.145040	83.411613	-50.145040	83.411613	-0.138093	-85.715611
5.500000	-0.127243	-78.549869	-49.928701	82.089276	-49.928701	82.089276	-0.140161	-86.426335
5.550000	-0.129139	-79.194457	-49.712824	80.770184	-49.712824	80.770184	-0.142265	-87.135690
5.600000	-0.131057	-79.837872	-49.498840	79.453411	-49.498840	79.453411	-0.144396	-87.844069
5.650000	-0.133003	-80.479892	-49.285771	78.138452	-49.285771	78.138452	-0.146559	-88.551364
5.700000	-0.134977	-81.120519	-49.073675	76.825306	-49.073675	76.825306	-0.148755	-89.257574
5.750000	-0.136975	-81.759996	-48.863002	75.512856	-48.863002	75.512856	-0.150980	-89.962967
5.800000	-0.139006	-82.397864	-48.652354	74.201377	-48.652354	74.201377	-0.153245	-90.667217
5.850000	-0.141057	-83.034825	-48.443691	72.889809	-48.443691	72.889809	-0.155533	-91.370896
5.900000	-0.143147	-83.669968	-48.234062	71.578060	-48.234062	71.578060	-0.157870	-92.073435
5.950000	-0.145252	-84.304439	-48.027037	70.265774	-48.027037	70.265774	-0.160226	-92.775624
6.000000	-0.147401	-84.936892	-47.817990	68.951876	-47.817990	68.951876	-0.162639	-93.476759
6.050000	-0.149561	-85.568903	-47.612229	67.637320	-47.612229	67.637320	-0.165066	-94.177723
6.100000	-0.151772	-86.198703	-47.403289	66.319477	-47.403289	66.319477	-0.167562	-94.877834
6.150000	-0.153989	-86.828286	-47.198400	65.001164	-47.198400	65.001164	-0.170065	-95.577900
6.200000	-0.156263	-87.455473	-46.989018	63.677680	-46.989018	63.677680	-0.172651	-96.277470
6.250000	-0.158537	-88.082660	-46.784564	62.354196	-46.784564	62.354196	-0.175238	-96.977040
6.300000	-0.160874	-88.707275	-46.574056	61.023465	-46.574056	61.023465	-0.177925	-97.676696
6.350000	-0.163213	-89.331890	-46.368529	59.692734	-46.368529	59.692734	-0.180613	-98.376351
6.400000	-0.165610	-89.954188	-46.156994	58.353927	-46.156994	58.353927	-0.183409	-99.076853
6.450000	-0.168013	-90.576275	-45.949534	57.014387	-45.949534	57.014387	-0.186215	-99.777431
6.500000	-0.170470	-91.196294	-45.735960	55.666146	-45.735960	55.666146	-0.189141	-100.479738
6.550000	-0.172938	-91.815898	-45.525374	54.316165	-45.525374	54.316165	-0.192092	-101.182390
6.600000	-0.175456	-92.433676	-45.308351	52.956885	-45.308351	52.956885	-0.195183	-101.887831
6.650000	-0.177991	-93.050845	-45.092906	51.594506	-45.092906	51.594506	-0.198321	-102.594202
6.700000	-0.180558	-93.666818	-44.873896	50.224824	-44.873896	50.224824	-0.201582	-103.303390
6.750000	-0.183162	-94.281454	-44.649603	48.846130	-44.649603	48.846130	-0.205003	-104.016407
6.800000	-0.185798	-94.894967	-44.420451	47.458402	-44.420451	47.458402	-0.208599	-104.733743
6.850000	-0.188463	-95.507371	-44.185234	46.060044	-44.185234	46.060044	-0.212415	-105.456522
6.900000	-0.191158	-96.118677	-43.942412	44.648783	-43.942412	44.648783	-0.216514	-106.186184
6.950000	-0.193882	-96.728900	-43.689988	43.221299	-43.689988	43.221299	-0.220989	-106.924609
7.000000	-0.196633	-97.338056	-43.425337	41.772621	-43.425337	41.772621	-0.225975	-107.674295
7.050000	-0.199408	-97.946162	-43.144943	40.295110	-43.144943	40.295110	-0.231678	-108.438633
7.100000	-0.202202	-98.553327	-42.847504	38.782202	-42.847504	38.782202	-0.238282	-109.219972
7.150000	-0.205015	-99.159392	-42.519950	37.205378	-42.519950	37.205378	-0.246545	-110.029218
7.200000	-0.207836	-99.764499	-42.155835	35.535929	-42.155835	35.535929	-0.257263	-110.874254
7.250000	-0.210654	-100.368711	-41.741310	33.715843	-41.741310	33.715843	-0.272070	-111.769965
7.300000	-0.213452	-100.972158	-41.258688	31.647268	-41.258688	31.647268	-0.293843	-112.737110
7.350000	-0.216204	-101.575036	-40.671036	29.098998	-40.671036	29.098998	-0.329731	-113.816919
7.400000	-0.218876	-102.177874	-39.934894	25.613584	-39.934894	25.613584	-0.395276	-115.062607
7.450000	-0.221452	-102.781857	-38.998923	20.114042	-38.998923	20.114042	-0.531186	-116.521902
7.500000	-0.224137	-103.389614	-37.909913	9.911951	-37.909913	9.911951	-0.848426	-117.928695
7.550000	-0.228069	-104.002498	-37.473660	-9.536270	-37.473660	-9.536270	-1.433035	-116.879496
7.600000	-0.234146	-104.605713	-39.803058	-31.150255	-39.803058	-31.150255	-1.407585	-112.102156
7.650000	-0.239348	-105.192714	-43.727123	-32.928540	-43.727123	-32.928540	-0.893977	-111.283894
7.700000	-0.243075	-105.779055	-45.873813	-19.491733	-45.873813	-19.491733	-0.617431	-112.432622
7.750000	-0.246370	-106.368065	-46.113770	-7.180090	-46.113770	-7.180090	-0.489378	-113.687986
7.800000	-0.249630	-106.958454	-45.677141	-0.178436	-45.677141	-0.178436	-0.425078	-114.808023
7.850000	-0.252947	-107.549206	-45.148957	3.371802	-45.148957	3.371802	-0.389302	-115.810073
7.900000	-0.256338	-108.139818	-44.666235	4.997007	-44.666235	4.997007	-0.368340	-116.726448
7.950000	-0.259804	-108.729999	-44.249732	5.517941	-44.249732	5.517941	-0.355922	-117.580385
8.000000	-0.263341	-109.319595	-43.890966	5.409620	-43.890966	5.409620	-0.348514	-118.390449
8.050000	-0.266938	-109.908591	-43.575451	4.939730	-43.575451	4.939730	-0.344071	-119.170947
8.100000	-0.270596	-110.496931	-43.295063	4.220228	-43.295063	4.220228	-0.341736	-119.928112
8.150000	-0.274309	-111.084596	-43.042557	3.329913	-43.042557	3.329913	-0.340892	-120.667226
8.200000	-0.278078	-111.671577	-42.812431	2.319096	-42.812431	2.319096	-0.341136	-121.392105
8.250000	-0.281904	-112.257830	-42.601123	1.217219	-42.601123	1.217219	-0.342235	-122.105005
8.300000	-0.285785	-112.843363	-42.405076	0.049987	-42.405076	0.049987	-0.343978	-122.808355
8.350000	-0.289729	-113.428082	-42.222500	-1.169441	-42.222500	-1.169441	-0.346270	-123.503131
8.400000	-0.293724	-114.012133	-42.050207	-2.423855	-42.050207	-2.423855	-0.348950	-124.191710
8.450000	-0.297747	-114.595838	-41.883853	-3.690304	-41.883853	-3.690304	-0.351780	-124.877792
8.500000	-0.301850	-115.178506	-41.728253	-4.992859	-41.728253	-4.992859	-0.355063	-125.556385
8.550000	-0.305973	-115.760953	-41.576594	-6.300099	-41.576594	-6.300099	-0.358419	-126.233761
8.600000	-0.310185	-116.342288	-41.433457	-7.630760	-41.433457	-7.630760	-0.362137	-126.905052
8.650000	-0.314408	-116.923517	-41.293063	-8.962775	-41.293063	-8.962775	-0.365885	-127.575884
8.700000	-0.318729	-117.503573	-41.159475	-10.309667	-41.159475	-10.309667	-0.369940	-128.241671
8.750000	-0.323052	-118.083628	-41.027911	-11.656559	-41.027911	-11.656559	-0.373996	-128.907458
8.800000	-0.327483	-118.662458	-40.901753	-13.012415	-40.901753	-13.012415	-0.378324	-129.569001
8.850000	-0.331917	-119.241287	-40.777401	-14.368271	-40.777401	-14.368271	-0.382655	-130.230545
8.900000	-0.336450	-119.819044	-40.656868	-15.728278	-40.656868	-15.728278	-0.387197	-130.889042
8.950000	-0.340995	-120.396703	-40.538170	-17.088662	-40.538170	-17.088662	-0.391760	-131.547262
9.000000	-0.345633	-120.973432	-40.422147	-18.450684	-40.422147	-18.450684	-0.396494	-132.203292
9.050000	-0.350291	-121.549976	-40.307864	-19.813033	-40.307864	-19.813033	-0.401263	-132.858883
9.100000	-0.355033	-122.125725	-40.195426	-21.175934	-40.195426	-21.175934	-0.406171	-133.512911
9.150000	-0.359806	-122.701209	-40.084542	-22.539018	-40.084542	-22.539018	-0.411127	-134.166417
9.200000	-0.364655	-123.276023	-39.974909	-23.902444	-39.974909	-23.902444	-0.416198	-134.818822
9.250000	-0.369544	-123.850502	-39.866570	-25.266041	-39.866570	-25.266041	-0.421328	-135.470678
9.300000	-0.374501	-124.424427	-39.759077	-26.630277	-39.759077	-26.630277	-0.426553	-136.121781
9.350000	-0.379509	-124.997956	-39.652553	-27.994969	-39.652553	-27.994969	-0.431847	-136.772345
9.400000	-0.384576	-125.571037	-39.546625	-29.360840	-39.546625	-29.360840	-0.437219	-137.422416
9.450000	-0.389703	-126.143669	-39.441288	-30.727889	-39.441288	-30.727889	-0.442670	-138.071993
9.500000	-0.394882	-126.715950	-39.336428	-32.096691	-39.336428	-32.096691	-0.448185	-138.721267
9.550000	-0.400131	-127.287739	-39.231735	-33.467947	-39.231735	-33.467947	-0.453788	-139.370117
9.600000	-0.405423	-127.859264	-39.127515	-34.841399	-39.127515	-34.841399	-0.459442	-140.018801
9.650000	-0.410797	-128.430261	-39.023002	-36.219246	-39.023002	-36.219246	-0.465193	-140.667154
9.700000	-0.416204	-129.001073	-38.919057	-37.599458	-38.919057	-37.599458	-0.470983	-141.315434
9.750000	-0.421704	-129.571329	-38.814337	-38.986770	-38.814337	-38.986770	-0.476880	-141.963495
9.800000	-0.427228	-130.141470	-38.710361	-40.376217	-38.710361	-40.376217	-0.482803	-142.611538
9.850000	-0.432857	-130.711036	-38.605121	-41.776334	-38.605121	-41.776334	-0.488843	-143.259493
9.900000	-0.438500	-131.280548	-38.500868	-43.177833	-38.500868	-43.177833	-0.494899	-143.907453
9.950000	-0.444259	-131.849471	-38.394875	-44.594536	-38.394875	-44.594536	-0.501081	-144.555472
10.000000	-0.450023	-132.418394	-38.290159	-46.011240	-38.290159	-46.011240	-0.507268	-145.203491
