! freq	dB(S11)	phase(S11)	dB(S12)	phase(S12)	
!     	dB(S21)	phase(S21)	dB(S22)	phase(S22)	
!S-par simulation data
#  GHz  S  DB  R 50
0.000000	-0.000000	0.000000	-339.925472	0.000000	-339.925472	0.000000	-0.000000	0.000000
0.050000	-0.005003	-1.713462	-90.427494	87.689063	-90.427494	87.689063	-0.006484	-2.135343
0.100000	-0.007792	-3.390707	-84.379224	85.919018	-84.379224	85.919018	-0.009976	-4.224052
0.150000	-0.009121	-5.068767	-80.872505	84.186207	-80.872505	84.186207	-0.011602	-6.313698
0.200000	-0.010222	-6.748037	-78.408967	82.435683	-78.408967	82.435683	-0.012936	-8.404382
0.250000	-0.011371	-8.427359	-76.522487	80.676617	-76.522487	80.676617	-0.014322	-10.494383
0.300000	-0.012641	-10.105989	-75.003524	78.919484	-75.003524	78.919484	-0.015853	-12.582604
0.350000	-0.014065	-11.783272	-73.744856	77.173691	-73.744856	77.173691	-0.017570	-14.667926
0.400000	-0.015631	-13.458913	-72.677941	75.445050	-72.677941	75.445050	-0.019460	-16.749869
0.450000	-0.017328	-15.132629	-71.760491	73.738971	-71.760491	73.738971	-0.021510	-18.827895
0.500000	-0.019148	-16.804076	-70.965393	72.062094	-70.965393	72.062094	-0.023710	-20.901311
0.550000	-0.021070	-18.473118	-70.270963	70.418941	-70.270963	70.418941	-0.026036	-22.969816
0.600000	-0.023079	-20.139614	-69.661760	68.814525	-69.661760	68.814525	-0.028469	-25.033087
0.650000	-0.025162	-21.803337	-69.127532	67.256022	-69.127532	67.256022	-0.030990	-27.090601
0.700000	-0.027303	-23.464150	-68.659532	65.750124	-68.659532	65.750124	-0.033582	-29.142018
0.750000	-0.029487	-25.122022	-68.249861	64.302358	-68.249861	64.302358	-0.036226	-31.187210
0.800000	-0.031704	-26.776816	-67.893496	62.921187	-67.893496	62.921187	-0.038906	-33.225828
0.850000	-0.033942	-28.428333	-67.587192	61.618110	-67.587192	61.618110	-0.041608	-35.257381
0.900000	-0.036192	-30.076636	-67.325643	60.399591	-67.325643	60.399591	-0.044319	-37.281944
0.950000	-0.038446	-31.721653	-67.105794	59.276328	-67.105794	59.276328	-0.047028	-39.299306
1.000000	-0.040697	-33.363135	-66.926834	58.266802	-66.926834	58.266802	-0.049724	-41.308868
1.050000	-0.042940	-35.001182	-66.784694	57.380188	-66.784694	57.380188	-0.052401	-43.310803
1.100000	-0.045170	-36.635752	-66.677051	56.631522	-66.677051	56.631522	-0.055051	-45.304981
1.150000	-0.047383	-38.266658	-66.602896	56.044701	-66.602896	56.044701	-0.057669	-47.290951
1.200000	-0.049578	-39.893900	-66.559421	55.638471	-66.559421	55.638471	-0.060250	-49.268683
1.250000	-0.051751	-41.517505	-66.543499	55.431578	-66.543499	55.431578	-0.062792	-51.238220
1.300000	-0.053903	-43.137351	-66.552702	55.453342	-66.552702	55.453342	-0.065292	-53.199274
1.350000	-0.056031	-44.753322	-66.583686	55.736644	-66.583686	55.736644	-0.067749	-55.151574
1.400000	-0.058136	-46.365517	-66.631132	56.300700	-66.631132	56.300700	-0.070162	-57.095345
1.450000	-0.060219	-47.973884	-66.689586	57.174669	-66.689586	57.174669	-0.072532	-59.030471
1.500000	-0.062279	-49.578181	-66.751974	58.403907	-66.751974	58.403907	-0.074857	-60.956419
1.550000	-0.064318	-51.178585	-66.809210	59.992457	-66.809210	59.992457	-0.077140	-62.873601
1.600000	-0.066337	-52.775062	-66.851125	61.952967	-66.851125	61.952967	-0.079382	-64.781959
1.650000	-0.068335	-54.367404	-66.864350	64.300414	-66.864350	64.300414	-0.081584	-66.681052
1.700000	-0.070316	-55.955689	-66.836060	67.002046	-66.836060	67.002046	-0.083747	-68.571078
1.750000	-0.072281	-57.539958	-66.754157	70.005877	-66.754157	70.005877	-0.085875	-70.452159
1.800000	-0.074230	-59.120130	-66.606435	73.243794	-66.606435	73.243794	-0.087969	-72.324147
1.850000	-0.076165	-60.696187	-66.384436	76.619049	-66.384436	76.619049	-0.090031	-74.187037
1.900000	-0.078088	-62.268070	-66.083242	80.018719	-66.083242	80.018719	-0.092063	-76.040733
1.950000	-0.080000	-63.835768	-65.704103	83.324575	-65.704103	83.324575	-0.094068	-77.885251
2.000000	-0.081903	-65.399318	-65.254337	86.433451	-65.254337	86.433451	-0.096047	-79.720715
2.050000	-0.083798	-66.958719	-64.743959	89.263831	-64.743959	89.263831	-0.098004	-81.547159
2.100000	-0.085687	-68.513971	-64.184989	91.760298	-64.184989	91.760298	-0.099940	-83.364629
2.150000	-0.087571	-70.065081	-63.589882	93.893201	-63.589882	93.893201	-0.101858	-85.173178
2.200000	-0.089452	-71.612059	-62.970330	95.654800	-62.970330	95.654800	-0.103760	-86.972870
2.250000	-0.091331	-73.154919	-62.336540	97.053792	-62.336540	97.053792	-0.105648	-88.763778
2.300000	-0.093209	-74.693680	-61.696941	98.109801	-61.696941	98.109801	-0.107525	-90.545983
2.350000	-0.095087	-76.228363	-61.058189	98.848702	-61.058189	98.848702	-0.109391	-92.319575
2.400000	-0.096968	-77.758998	-60.425338	99.299098	-60.425338	99.299098	-0.111250	-94.084654
2.450000	-0.098852	-79.285615	-59.802094	99.489925	-59.802094	99.489925	-0.113103	-95.841326
2.500000	-0.100741	-80.808250	-59.191070	99.448949	-59.191070	99.448949	-0.114952	-97.589706
2.550000	-0.102636	-82.326858	-58.593489	99.198003	-58.593489	99.198003	-0.116799	-99.329743
2.600000	-0.104537	-83.841572	-58.011118	98.765353	-58.011118	98.765353	-0.118646	-101.061747
2.650000	-0.106447	-85.352440	-57.444554	98.171753	-57.444554	98.171753	-0.120494	-102.785857
2.700000	-0.108366	-86.859515	-56.894041	97.435581	-56.894041	97.435581	-0.122345	-104.502217
2.750000	-0.110296	-88.362654	-56.358686	96.566690	-56.358686	96.566690	-0.124201	-106.210572
2.800000	-0.112237	-89.862284	-55.839992	95.591525	-55.839992	95.591525	-0.126063	-107.911824
2.850000	-0.114190	-91.358308	-55.336853	94.516712	-55.336853	94.516712	-0.127933	-109.605804
2.900000	-0.116158	-92.850795	-54.848864	93.353052	-54.848864	93.353052	-0.129812	-111.292684
2.950000	-0.118139	-94.339819	-54.375571	92.109983	-54.375571	92.109983	-0.131701	-112.972639
3.000000	-0.120137	-95.825458	-53.916487	90.795749	-53.916487	90.795749	-0.133602	-114.645851
3.050000	-0.122151	-97.307793	-53.471114	89.417560	-53.471114	89.417560	-0.135515	-116.312508
3.100000	-0.124183	-98.786908	-53.038950	87.981723	-53.038950	87.981723	-0.137443	-117.972801
3.150000	-0.126233	-100.262893	-52.619500	86.493759	-52.619500	86.493759	-0.139386	-119.626929
3.200000	-0.128302	-101.735841	-52.212279	84.958504	-52.212279	84.958504	-0.141346	-121.275092
3.250000	-0.130392	-103.205848	-51.816819	83.380197	-51.816819	83.380197	-0.143323	-122.917498
3.300000	-0.132504	-104.673013	-51.432667	81.762557	-51.432667	81.762557	-0.145319	-124.554357
3.350000	-0.134637	-106.137439	-51.059391	80.108843	-51.059391	80.108843	-0.147334	-126.185885
3.400000	-0.136794	-107.599233	-50.696578	78.421910	-50.696578	78.421910	-0.149370	-127.812301
3.450000	-0.138975	-109.058504	-50.343837	76.704261	-50.343837	76.704261	-0.151427	-129.433828
3.500000	-0.141180	-110.515367	-50.000792	74.958078	-50.000792	74.958078	-0.153506	-131.050693
3.550000	-0.143411	-111.969937	-49.667092	73.185266	-49.667092	73.185266	-0.155608	-132.663127
3.600000	-0.145669	-113.422334	-49.342401	71.387476	-49.342401	71.387476	-0.157735	-134.271365
3.650000	-0.147954	-114.872682	-49.026401	69.566134	-49.026401	69.566134	-0.159886	-135.875644
3.700000	-0.150267	-116.321104	-48.718793	67.722458	-48.718793	67.722458	-0.162062	-137.476206
3.750000	-0.152609	-117.767732	-48.419295	65.857478	-48.419295	65.857478	-0.164265	-139.073296
3.800000	-0.154982	-119.212631	-48.127553	63.971194	-48.127553	63.971194	-0.166495	-140.667034
3.850000	-0.157385	-120.656015	-47.843421	62.065205	-47.843421	62.065205	-0.168754	-142.257823
3.900000	-0.159820	-122.098021	-47.566657	60.140031	-47.566657	60.140031	-0.171040	-143.845918
3.950000	-0.162287	-123.538792	-47.297033	58.196050	-47.297033	58.196050	-0.173356	-145.431579
4.000000	-0.164787	-124.978473	-47.034334	56.233495	-47.034334	56.233495	-0.175701	-147.015066
4.050000	-0.167321	-126.417209	-46.778354	54.252463	-46.778354	54.252463	-0.178076	-148.596646
4.100000	-0.169888	-127.855153	-46.528899	52.252912	-46.528899	52.252912	-0.180482	-150.176587
4.150000	-0.172491	-129.292457	-46.285785	50.234658	-46.285785	50.234658	-0.182919	-151.755162
4.200000	-0.175129	-130.729278	-46.048837	48.197369	-46.048837	48.197369	-0.185388	-153.332647
4.250000	-0.177804	-132.165776	-45.817886	46.140562	-45.817886	46.140562	-0.187889	-154.909321
4.300000	-0.180516	-133.602112	-45.592773	44.063587	-45.592773	44.063587	-0.190423	-156.485467
4.350000	-0.183265	-135.038454	-45.373342	41.965618	-45.373342	41.965618	-0.192990	-158.061375
4.400000	-0.186053	-136.474970	-45.159446	39.845632	-45.159446	39.845632	-0.195591	-159.637335
4.450000	-0.188881	-137.911834	-44.950939	37.702388	-44.950939	37.702388	-0.198226	-161.213645
4.500000	-0.191748	-139.349223	-44.747678	35.534399	-44.747678	35.534399	-0.200897	-162.790607
4.550000	-0.194656	-140.787316	-44.549523	33.339899	-44.549523	33.339899	-0.203603	-164.368529
4.600000	-0.197605	-142.226298	-44.356332	31.116798	-44.356332	31.116798	-0.206346	-165.947724
4.650000	-0.200597	-143.666360	-44.167961	28.862631	-44.167961	28.862631	-0.209125	-167.528512
4.700000	-0.203632	-145.107696	-43.984259	26.574492	-43.984259	26.574492	-0.211942	-169.111222
4.750000	-0.206711	-146.550505	-43.805070	24.248952	-43.805070	24.248952	-0.214798	-170.696192
4.800000	-0.209835	-147.994996	-43.630220	21.881958	-43.630220	21.881958	-0.217694	-172.283767
4.850000	-0.213006	-149.441381	-43.459522	19.468702	-43.459522	19.468702	-0.220631	-173.874307
4.900000	-0.216224	-150.889885	-43.292758	17.003462	-43.292758	17.003462	-0.223610	-175.468185
4.950000	-0.219493	-152.340740	-43.129676	14.479388	-43.129676	14.479388	-0.226633	-177.065789
5.000000	-0.222812	-153.794191	-42.969973	11.888238	-42.969973	11.888238	-0.229703	-178.667528
5.050000	-0.226191	-155.250761	-42.813254	9.212498	-42.813254	9.212498	-0.232826	179.725743
5.100000	-0.229621	-156.710200	-42.659061	6.454663	-42.659061	6.454663	-0.235998	178.114411
5.150000	-0.233117	-158.173319	-42.506690	3.584389	-42.506690	3.584389	-0.239232	176.497153
5.200000	-0.236677	-159.640109	-42.355431	0.593448	-42.355431	0.593448	-0.242528	174.873970
5.250000	-0.240312	-161.111104	-42.204082	-2.547690	-42.204082	-2.547690	-0.245899	173.243984
5.300000	-0.244031	-162.586830	-42.051027	-5.873380	-42.051027	-5.873380	-0.249359	171.606332
5.350000	-0.247843	-164.067420	-41.894531	-9.407845	-41.894531	-9.407845	-0.252918	169.960782
5.400000	-0.251782	-165.554256	-41.730236	-13.238648	-41.730236	-13.238648	-0.256619	168.305075
5.450000	-0.255854	-167.047053	-41.555682	-17.382056	-41.555682	-17.382056	-0.260474	166.639667
5.500000	-0.260138	-168.548256	-41.359743	-22.013782	-41.359743	-22.013782	-0.264588	164.960564
5.550000	-0.264671	-170.057876	-41.135935	-27.182511	-41.135935	-27.182511	-0.269015	163.267735
5.600000	-0.269589	-171.578563	-40.864236	-33.113647	-40.864236	-33.113647	-0.273947	161.556850
5.650000	-0.275129	-173.113734	-40.512682	-40.103973	-40.512682	-40.103973	-0.279719	159.822312
5.700000	-0.281735	-174.668485	-40.030841	-48.590677	-40.030841	-48.590677	-0.286973	158.055748
5.750000	-0.290352	-176.251557	-39.297946	-59.184427	-39.297946	-59.184427	-0.297106	156.242701
5.800000	-0.303397	-177.880065	-38.158309	-72.782152	-38.158309	-72.782152	-0.313733	154.354531
5.850000	-0.328339	-179.587982	-36.256127	-91.222027	-36.256127	-91.222027	-0.348274	152.332648
5.900000	-0.395144	178.585357	-33.004820	-118.675578	-33.004820	-118.675578	-0.447943	150.094843
5.950000	-0.607699	177.328481	-28.449541	-170.286149	-28.449541	-170.286149	-0.791059	148.678234
6.000000	-0.523459	177.810627	-29.273737	114.741184	-29.273737	114.741184	-0.674610	150.252686
6.050000	-0.372740	176.068203	-33.123015	74.809116	-33.123015	74.809116	-0.427514	148.239929
6.100000	-0.334901	174.234772	-35.532263	53.149990	-35.532263	53.149990	-0.361627	146.041537
6.150000	-0.324251	172.511542	-36.946258	38.586047	-36.946258	38.586047	-0.340168	144.008696
6.200000	-0.321774	170.845496	-37.815731	27.741007	-37.815731	27.741007	-0.332300	142.063077
6.250000	-0.322519	169.207697	-38.372165	19.218460	-38.372165	19.218460	-0.329887	140.160272
6.300000	-0.324708	167.582978	-38.750850	12.183008	-38.750850	12.183008	-0.329962	138.276741
6.350000	-0.327709	165.964115	-39.011658	6.254245	-39.011658	6.254245	-0.331462	136.401033
6.400000	-0.331153	164.346271	-39.201858	1.082534	-39.201858	1.082534	-0.333751	134.525525
6.450000	-0.334893	162.726581	-39.343154	-3.497352	-39.343154	-3.497352	-0.336570	132.645530
6.500000	-0.338816	161.103461	-39.454753	-7.665540	-39.454753	-7.665540	-0.339718	130.758607
6.550000	-0.342873	159.475761	-39.545642	-11.506924	-39.545642	-11.506924	-0.343110	128.862848
6.600000	-0.347046	157.841557	-39.620446	-15.048724	-39.620446	-15.048724	-0.346713	126.954812
6.650000	-0.351297	156.200957	-39.686435	-18.384133	-39.686435	-18.384133	-0.350460	125.034816
6.700000	-0.355610	154.553731	-39.746973	-21.555070	-39.746973	-21.555070	-0.354322	123.102460
6.750000	-0.359983	152.897948	-39.803902	-24.562799	-39.803902	-24.562799	-0.358302	121.154143
6.800000	-0.364398	151.234654	-39.859809	-27.457358	-39.859809	-27.457358	-0.362369	119.191781
6.850000	-0.368855	149.562540	-39.916138	-30.243903	-39.916138	-30.243903	-0.366525	117.212871
6.900000	-0.373346	147.881794	-39.974106	-32.942939	-39.974106	-32.942939	-0.370760	115.217687
6.950000	-0.377867	146.192140	-40.034737	-35.566323	-40.034737	-35.566323	-0.375071	113.205616
7.000000	-0.382415	144.492794	-40.099055	-38.119522	-40.099055	-38.119522	-0.379460	111.175062
7.050000	-0.386986	142.784621	-40.167400	-40.617605	-40.167400	-40.617605	-0.383919	109.127559
7.100000	-0.391579	141.065734	-40.241162	-43.057259	-40.241162	-43.057259	-0.388460	107.059331
7.150000	-0.396189	139.337834	-40.320055	-45.453490	-40.320055	-45.453490	-0.393071	104.973535
7.200000	-0.400817	137.599002	-40.405533	-47.802451	-40.405533	-47.802451	-0.397766	102.866256
7.250000	-0.405458	135.850450	-40.497383	-50.113226	-40.497383	-50.113226	-0.402539	100.739708
7.300000	-0.410111	134.091229	-40.596582	-52.385394	-40.596582	-52.385394	-0.407399	98.591817
7.350000	-0.414774	132.321400	-40.703525	-54.621701	-40.703525	-54.621701	-0.412348	96.422513
7.400000	-0.419444	130.541249	-40.818468	-56.824987	-40.818468	-56.824987	-0.417388	94.232162
7.450000	-0.424122	128.749621	-40.942618	-58.993016	-40.942618	-58.993016	-0.422532	92.018173
7.500000	-0.428803	126.948093	-41.075389	-61.131443	-41.075389	-61.131443	-0.427772	89.783577
7.550000	-0.433487	125.134241	-41.218965	-63.233497	-41.218965	-63.233497	-0.433137	87.523043
7.600000	-0.438172	123.310331	-41.372295	-65.305844	-41.372295	-65.305844	-0.438610	85.241087
7.650000	-0.442857	121.474578	-41.537255	-67.342707	-41.537255	-67.342707	-0.444217	82.933613
7.700000	-0.447539	119.628007	-41.713730	-69.346281	-41.713730	-69.346281	-0.449954	80.602541
7.750000	-0.452218	117.770142	-41.902779	-71.313699	-41.902779	-71.313699	-0.455837	78.246514
7.800000	-0.456891	115.900739	-42.105378	-73.242271	-42.105378	-73.242271	-0.461877	75.864653
7.850000	-0.461560	114.020652	-42.321686	-75.132580	-42.321686	-75.132580	-0.468073	73.458540
7.900000	-0.466220	112.128353	-42.553918	-76.975849	-42.553918	-76.975849	-0.474460	71.024307
7.950000	-0.470873	110.225872	-42.801425	-78.776540	-42.801425	-78.776540	-0.481017	68.566275
8.000000	-0.475516	108.311439	-43.066900	-80.522596	-43.066900	-80.522596	-0.487787	66.079888
8.050000	-0.480150	106.385805	-43.351032	-82.211624	-43.351032	-82.211624	-0.494773	63.566471
8.100000	-0.484774	104.449026	-43.655265	-83.837216	-43.655265	-83.837216	-0.501989	61.025709
8.150000	-0.489387	102.501178	-43.981218	-85.391671	-43.981218	-85.391671	-0.509451	58.457304
8.200000	-0.493990	100.542350	-44.330719	-86.865703	-44.330719	-86.865703	-0.517176	55.860974
8.250000	-0.498583	98.572646	-44.705837	-88.248043	-44.705837	-88.248043	-0.525179	53.236455
8.300000	-0.503167	96.592190	-45.108926	-89.524920	-45.108926	-89.524920	-0.533481	50.583504
8.350000	-0.507740	94.600767	-45.543024	-90.674531	-45.543024	-90.674531	-0.542111	47.900921
8.400000	-0.512306	92.599134	-46.010595	-91.682577	-46.010595	-91.682577	-0.551072	45.190129
8.450000	-0.516864	90.587221	-46.515389	-92.519364	-46.515389	-92.519364	-0.560391	42.450289
8.500000	-0.521417	88.565219	-47.061404	-93.150496	-47.061404	-93.150496	-0.570092	39.681241
8.550000	-0.525965	86.533335	-47.653161	-93.531429	-47.653161	-93.531429	-0.580196	36.882846
8.600000	-0.530511	84.491795	-48.295694	-93.603651	-48.295694	-93.603651	-0.590727	34.054987
8.650000	-0.535056	82.440838	-48.994401	-93.289161	-48.994401	-93.289161	-0.601710	31.197571
8.700000	-0.539603	80.380724	-49.754642	-92.482519	-49.754642	-92.482519	-0.613170	28.310526
8.750000	-0.544154	78.311727	-50.580775	-91.039546	-50.580775	-91.039546	-0.625135	25.393805
8.800000	-0.548713	76.233957	-51.473186	-88.737583	-51.473186	-88.737583	-0.637641	22.446734
8.850000	-0.553283	74.147915	-52.424776	-85.313770	-52.424776	-85.313770	-0.650707	19.469957
8.900000	-0.557867	72.053922	-53.411047	-80.406805	-53.411047	-80.406805	-0.664361	16.463492
8.950000	-0.562469	69.952315	-54.374277	-73.600219	-54.374277	-73.600219	-0.678633	13.427375
9.000000	-0.567092	67.843442	-55.203530	-64.566860	-55.203530	-64.566860	-0.693551	10.361665
9.050000	-0.571741	65.727668	-55.732084	-53.403161	-55.732084	-53.403161	-0.709146	7.266435
9.100000	-0.576422	63.605365	-55.795443	-40.993533	-55.795443	-40.993533	-0.725449	4.141772
9.150000	-0.581138	61.476918	-55.343313	-28.859712	-55.343313	-28.859712	-0.742492	0.987778
9.200000	-0.585895	59.342846	-54.490153	-18.294786	-54.490153	-18.294786	-0.760287	-2.194768
9.250000	-0.590700	57.203245	-53.391887	-9.981326	-53.391887	-9.981326	-0.778912	-5.407402
9.300000	-0.595559	55.058723	-52.209782	-3.713071	-52.209782	-3.713071	-0.798373	-8.649014
9.350000	-0.600477	52.909697	-51.029063	0.906022	-51.029063	0.906022	-0.818705	-11.919484
9.400000	-0.605464	50.756592	-49.889803	4.275446	-49.889803	4.275446	-0.839941	-15.218701
9.450000	-0.610525	48.599837	-48.806465	6.717598	-48.806465	6.717598	-0.862115	-18.546561
9.500000	-0.615670	46.439863	-47.780846	8.472326	-47.780846	8.472326	-0.885264	-21.902982
9.550000	-0.620907	44.277104	-46.809082	9.712969	-46.809082	9.712969	-0.909425	-25.287904
9.600000	-0.626247	42.111983	-45.884867	10.562530	-45.884867	10.562530	-0.934640	-28.701439
9.650000	-0.631701	39.944933	-45.001350	11.110391	-45.001350	11.110391	-0.960957	-32.143745
9.700000	-0.637278	37.776405	-44.152559	11.424166	-44.152559	11.424166	-0.988408	-35.614620
9.750000	-0.642992	35.606825	-43.332456	11.550308	-43.332456	11.550308	-1.017041	-39.114203
9.800000	-0.648853	33.436615	-42.535546	11.522599	-42.535546	11.522599	-1.046906	-42.642716
9.850000	-0.654878	31.266188	-41.756860	11.365466	-41.756860	11.365466	-1.078060	-46.200477
9.900000	-0.661082	29.095957	-40.991218	11.095036	-40.991218	11.095036	-1.110584	-49.788296
9.950000	-0.667477	26.926302	-40.236138	10.726278	-40.236138	10.726278	-1.144514	-53.405883
10.000000	-0.674016	24.834075	-39.605968	9.456691	-39.605968	9.456691	-1.178507	-56.911152
