! freq	dB(S11)	phase(S11)	dB(S12)	phase(S12)	
!     	dB(S21)	phase(S21)	dB(S22)	phase(S22)	
!S-par simulation data
#  GHz  S  DB  R 50
0.000000	-0.000000	-0.000000	-392.010717	180.000000	-392.010717	180.000000	-0.000000	-0.000000
0.050000	-0.000087	-0.828277	-103.429385	38.628735	-103.429385	38.628735	-0.000116	-0.925350
0.100000	-0.000346	-1.656372	-102.146794	37.552245	-102.146794	37.552245	-0.000461	-1.850414
0.150000	-0.000769	-2.484112	-101.189205	42.300482	-101.189205	42.300482	-0.001021	-2.774926
0.200000	-0.001345	-3.311345	-100.250051	47.288468	-100.250051	47.288468	-0.001772	-3.698666
0.250000	-0.002068	-4.137891	-99.357779	51.499942	-99.357779	51.499942	-0.002702	-4.621385
0.300000	-0.002909	-4.963695	-98.550818	54.945739	-98.550818	54.945739	-0.003765	-5.543032
0.350000	-0.003858	-5.788636	-97.844040	57.725091	-97.844040	57.725091	-0.004942	-6.463476
0.400000	-0.004898	-6.612646	-97.244523	60.000869	-97.244523	60.000869	-0.006207	-7.382660
0.450000	-0.006011	-7.435673	-96.754182	61.924254	-96.754182	61.924254	-0.007535	-8.300561
0.500000	-0.007183	-8.257686	-96.373134	63.628079	-96.373134	63.628079	-0.008905	-9.217183
0.550000	-0.008397	-9.078672	-96.101515	65.232244	-96.101515	65.232244	-0.010300	-10.132546
0.600000	-0.009640	-9.898628	-95.940417	66.852706	-95.940417	66.852706	-0.011705	-11.046681
0.650000	-0.010902	-10.717560	-95.892285	68.612269	-95.892285	68.612269	-0.013110	-11.959624
0.700000	-0.012174	-11.535484	-95.960912	70.653833	-95.960912	70.653833	-0.014507	-12.871409
0.750000	-0.013446	-12.352415	-96.150837	73.157997	-96.150837	73.157997	-0.015891	-13.782070
0.800000	-0.014713	-13.168374	-96.465523	76.367596	-96.465523	76.367596	-0.017257	-14.691636
0.850000	-0.015970	-13.983379	-96.902809	80.620856	-96.902809	80.620856	-0.018603	-15.600128
0.900000	-0.017214	-14.797449	-97.444376	86.387251	-97.444376	86.387251	-0.019930	-16.507563
0.950000	-0.018443	-15.610599	-98.033724	94.270226	-98.033724	94.270226	-0.021237	-17.413951
1.000000	-0.019654	-16.422843	-98.539825	104.866019	-98.539825	104.866019	-0.022524	-18.319297
1.050000	-0.020847	-17.234190	-98.731089	118.300028	-98.731089	118.300028	-0.023793	-19.223598
1.100000	-0.022022	-18.044647	-98.345060	133.511720	-98.345060	133.511720	-0.025044	-20.126850
1.150000	-0.023179	-18.854218	-97.293770	148.215327	-97.293770	148.215327	-0.026280	-21.029044
1.200000	-0.024319	-19.662903	-95.760947	160.387545	-95.760947	160.387545	-0.027502	-21.930165
1.250000	-0.025443	-20.470700	-94.019909	169.478151	-94.019909	169.478151	-0.028711	-22.830199
1.300000	-0.026551	-21.277564	-92.247805	175.862945	-92.247805	175.862945	-0.029908	-23.729077
1.350000	-0.027645	-22.083526	-90.551048	-179.653686	-90.551048	-179.653686	-0.031096	-24.626827
1.400000	-0.028727	-22.888576	-88.957410	-176.536242	-88.957410	-176.536242	-0.032275	-25.523428
1.450000	-0.029797	-23.692704	-87.469819	-174.401865	-87.469819	-174.401865	-0.033446	-26.418857
1.500000	-0.030857	-24.495895	-86.081630	-172.985492	-86.081630	-172.985492	-0.034611	-27.313090
1.550000	-0.031908	-25.298135	-84.783292	-172.103831	-84.783292	-172.103831	-0.035770	-28.206104
1.600000	-0.032952	-26.099408	-83.565060	-171.628589	-83.565060	-171.628589	-0.036925	-29.097874
1.650000	-0.033989	-26.899699	-82.417980	-171.468378	-82.417980	-171.468378	-0.038076	-29.988377
1.700000	-0.035021	-27.698990	-81.334176	-171.556837	-81.334176	-171.556837	-0.039225	-30.877587
1.750000	-0.036049	-28.497263	-80.306840	-171.844851	-80.306840	-171.844851	-0.040370	-31.765480
1.800000	-0.037073	-29.294499	-79.330122	-172.295403	-79.330122	-172.295403	-0.041515	-32.652033
1.850000	-0.038095	-30.090681	-78.399005	-172.880124	-78.399005	-172.880124	-0.042658	-33.537222
1.900000	-0.039116	-30.885790	-77.509170	-173.576927	-77.509170	-173.576927	-0.043800	-34.421023
1.950000	-0.040136	-31.679806	-76.656888	-174.368372	-76.656888	-174.368372	-0.044942	-35.303414
2.000000	-0.041156	-32.472711	-75.838922	-175.240507	-75.838922	-175.240507	-0.046085	-36.184371
2.050000	-0.042177	-33.264486	-75.052450	-176.182035	-75.052450	-176.182035	-0.047229	-37.063874
2.100000	-0.043199	-34.055112	-74.294997	-177.183710	-74.294997	-177.183710	-0.048373	-37.941900
2.150000	-0.044224	-34.844571	-73.564383	-178.237886	-73.564383	-178.237886	-0.049520	-38.818428
2.200000	-0.045251	-35.632845	-72.858677	-179.338181	-72.858677	-179.338181	-0.050668	-39.693438
2.250000	-0.046281	-36.419916	-72.176163	179.520775	-72.176163	179.520775	-0.051819	-40.566911
2.300000	-0.047315	-37.205765	-71.515305	178.343540	-71.515305	178.343540	-0.052972	-41.438826
2.350000	-0.048353	-37.990376	-70.874729	177.134011	-70.874729	177.134011	-0.054129	-42.309165
2.400000	-0.049395	-38.773732	-70.253193	175.895540	-70.253193	175.895540	-0.055290	-43.177910
2.450000	-0.050442	-39.555816	-69.649576	174.631034	-69.649576	174.631034	-0.056454	-44.045043
2.500000	-0.051495	-40.336612	-69.062861	173.343025	-69.062861	173.343025	-0.057623	-44.910548
2.550000	-0.052553	-41.116046	-68.491191	172.032897	-68.491191	172.032897	-0.058797	-45.774336
2.600000	-0.053617	-41.894160	-67.934746	170.703595	-67.934746	170.703595	-0.059976	-46.636462
2.650000	-0.054688	-42.670939	-67.392740	169.356826	-67.392740	169.356826	-0.061161	-47.496911
2.700000	-0.055765	-43.446369	-66.864452	167.994107	-66.864452	167.994107	-0.062351	-48.355669
2.750000	-0.056849	-44.220435	-66.349218	166.616801	-66.349218	166.616801	-0.063548	-49.212721
2.800000	-0.057940	-44.993124	-65.846426	165.226128	-65.846426	165.226128	-0.064752	-50.068055
2.850000	-0.059038	-45.764424	-65.355506	163.823192	-65.355506	163.823192	-0.065963	-50.921659
2.900000	-0.060145	-46.534323	-64.875935	162.408991	-64.875935	162.408991	-0.067182	-51.773520
2.950000	-0.061259	-47.302808	-64.407221	160.984433	-64.407221	160.984433	-0.068408	-52.623626
3.000000	-0.062381	-48.069867	-63.948910	159.550343	-63.948910	159.550343	-0.069644	-53.471968
3.050000	-0.063513	-48.835491	-63.500575	158.107477	-63.500575	158.107477	-0.070888	-54.318535
3.100000	-0.064653	-49.599669	-63.061819	156.656530	-63.061819	156.656530	-0.072141	-55.163317
3.150000	-0.065802	-50.362390	-62.632269	155.198138	-62.632269	155.198138	-0.073405	-56.006306
3.200000	-0.066960	-51.123646	-62.211574	153.732889	-62.211574	153.732889	-0.074678	-56.847494
3.250000	-0.068128	-51.883427	-61.799405	152.261326	-61.799405	152.261326	-0.075962	-57.686872
3.300000	-0.069306	-52.641726	-61.395452	150.783951	-61.395452	150.783951	-0.077258	-58.524435
3.350000	-0.070494	-53.398534	-60.999422	149.301232	-60.999422	149.301232	-0.078565	-59.360175
3.400000	-0.071693	-54.153843	-60.611039	147.813601	-60.611039	147.813601	-0.079884	-60.194086
3.450000	-0.072903	-54.907648	-60.230042	146.321465	-60.230042	146.321465	-0.081216	-61.026164
3.500000	-0.074124	-55.659940	-59.856182	144.825198	-59.856182	144.825198	-0.082560	-61.856403
3.550000	-0.075356	-56.410715	-59.489224	143.325155	-59.489224	143.325155	-0.083918	-62.684801
3.600000	-0.076600	-57.159967	-59.128946	141.821665	-59.128946	141.821665	-0.085290	-63.511352
3.650000	-0.077857	-57.907690	-58.775135	140.315036	-58.775135	140.315036	-0.086677	-64.336056
3.700000	-0.079125	-58.653880	-58.427589	138.805558	-58.427589	138.805558	-0.088078	-65.158908
3.750000	-0.080407	-59.398533	-58.086115	137.293504	-58.086115	137.293504	-0.089495	-65.979909
3.800000	-0.081703	-60.141578	-57.750224	135.779040	-57.750224	135.779040	-0.090928	-66.798976
3.850000	-0.083012	-60.883078	-57.420069	134.262514	-57.420069	134.262514	-0.092377	-67.616189
3.900000	-0.084335	-61.623031	-57.095479	132.744152	-57.095479	132.744152	-0.093843	-68.431549
3.950000	-0.085672	-62.361434	-56.776294	131.224165	-56.776294	131.224165	-0.095327	-69.245056
4.000000	-0.087025	-63.098286	-56.462359	129.702751	-56.462359	129.702751	-0.096828	-70.056712
4.050000	-0.088392	-63.833584	-56.153524	128.180097	-56.153524	128.180097	-0.098347	-70.866519
4.100000	-0.089775	-64.567328	-55.849647	126.656380	-55.849647	126.656380	-0.099885	-71.674479
4.150000	-0.091174	-65.299517	-55.550591	125.131766	-55.550591	125.131766	-0.101442	-72.480595
4.200000	-0.092590	-66.030151	-55.256226	123.606411	-55.256226	123.606411	-0.103019	-73.284871
4.250000	-0.094022	-66.759229	-54.966425	122.080463	-54.966425	122.080463	-0.104615	-74.087312
4.300000	-0.095472	-67.486753	-54.681066	120.554060	-54.681066	120.554060	-0.106232	-74.887922
4.350000	-0.096939	-68.212723	-54.400034	119.027333	-54.400034	119.027333	-0.107871	-75.686705
4.400000	-0.098425	-68.937141	-54.123216	117.500405	-54.123216	117.500405	-0.109530	-76.483669
4.450000	-0.099929	-69.660007	-53.850504	115.973392	-53.850504	115.973392	-0.111212	-77.278820
4.500000	-0.101452	-70.381325	-53.581793	114.446402	-53.581793	114.446402	-0.112916	-78.072164
4.550000	-0.102995	-71.101097	-53.316984	112.919539	-53.316984	112.919539	-0.114643	-78.863708
4.600000	-0.104561	-71.819058	-53.055281	111.392962	-53.055281	111.392962	-0.116397	-79.653152
4.650000	-0.106149	-72.535412	-52.797161	109.866713	-52.797161	109.866713	-0.118176	-80.440737
4.700000	-0.107748	-73.250966	-52.544521	108.340703	-52.544521	108.340703	-0.119968	-81.227399
4.750000	-0.109380	-73.964119	-52.293284	106.815408	-52.293284	106.815408	-0.121798	-82.011297
4.800000	-0.111020	-74.676742	-52.047877	105.290325	-52.047877	105.290325	-0.123637	-82.794588
4.850000	-0.112699	-75.386713	-51.803222	103.766302	-51.803222	103.766302	-0.125521	-83.574843
4.900000	-0.114382	-76.096422	-51.564691	102.242407	-51.564691	102.242407	-0.127409	-84.354799
4.950000	-0.116110	-76.803234	-51.326337	100.719930	-51.326337	100.719930	-0.129348	-85.131461
5.000000	-0.117837	-77.510047	-51.094349	99.197454	-51.094349	99.197454	-0.131287	-85.908122
5.050000	-0.119615	-78.213726	-50.862031	97.676763	-50.862031	97.676763	-0.133282	-86.681243
5.100000	-0.121394	-78.917405	-50.635765	96.156073	-50.635765	96.156073	-0.135279	-87.454364
5.150000	-0.123221	-79.618238	-50.409748	94.637209	-50.409748	94.637209	-0.137329	-88.224291
5.200000	-0.125052	-80.318812	-50.188976	93.118512	-50.188976	93.118512	-0.139384	-88.993929
5.250000	-0.126929	-81.016826	-49.968968	91.601625	-49.968968	91.601625	-0.141490	-89.760714
5.300000	-0.128815	-81.714328	-49.753476	90.085099	-49.753476	90.085099	-0.143606	-90.526930
5.350000	-0.130744	-82.409551	-49.539204	88.570319	-49.539204	88.570319	-0.145769	-91.290627
5.400000	-0.132688	-83.104014	-49.328791	87.056120	-49.328791	87.056120	-0.147949	-92.053486
5.450000	-0.134670	-83.796478	-49.120003	85.543562	-49.120003	85.543562	-0.150171	-92.814153
5.500000	-0.136673	-84.487942	-48.914479	84.031825	-48.914479	84.031825	-0.152415	-93.573724
5.550000	-0.138711	-85.177679	-48.710939	82.521592	-48.710939	82.521592	-0.154698	-94.331420
5.600000	-0.140774	-85.866184	-48.510129	81.012434	-48.510129	81.012434	-0.157009	-95.087777
5.650000	-0.142869	-86.553232	-48.311617	79.504617	-48.311617	79.504617	-0.159354	-95.842566
5.700000	-0.144996	-87.238822	-48.115353	77.998142	-48.115353	77.998142	-0.161733	-96.595785
5.750000	-0.147150	-87.923218	-47.921666	76.492824	-47.921666	76.492824	-0.164142	-97.347731
5.800000	-0.149341	-88.605940	-47.729793	74.989126	-47.729793	74.989126	-0.166591	-98.097894
5.850000	-0.151555	-89.287724	-47.540739	73.486382	-47.540739	73.486382	-0.169065	-98.847066
5.900000	-0.153814	-89.967630	-47.353112	71.985548	-47.353112	71.985548	-0.171587	-99.594255
5.950000	-0.156090	-90.646845	-47.168513	70.485451	-47.168513	70.485451	-0.174128	-100.340724
6.000000	-0.158417	-91.323986	-46.984996	68.987563	-46.984996	68.987563	-0.176724	-101.085029
6.050000	-0.160756	-92.000677	-46.804685	67.490180	-46.804685	67.490180	-0.179334	-101.828867
6.100000	-0.163154	-92.675112	-46.625151	65.995320	-46.625151	65.995320	-0.182006	-102.570378
6.150000	-0.165558	-93.349326	-46.448974	64.500719	-46.448974	64.500719	-0.184685	-103.311663
6.200000	-0.168028	-94.021114	-46.273304	63.008968	-46.273304	63.008968	-0.187434	-104.050472
6.250000	-0.170498	-94.692901	-46.101116	61.517216	-46.101116	61.517216	-0.190185	-104.789282
6.300000	-0.173042	-95.362104	-45.929199	60.028658	-45.929199	60.028658	-0.193014	-105.525489
6.350000	-0.175586	-96.031307	-45.760619	58.540100	-45.760619	58.540100	-0.195843	-106.261695
6.400000	-0.178199	-96.698202	-45.592597	57.054551	-45.592597	57.054551	-0.198747	-106.995608
6.450000	-0.180819	-97.364887	-45.427528	55.569277	-45.427528	55.569277	-0.201658	-107.729312
6.500000	-0.183502	-98.029532	-45.263276	54.086818	-45.263276	54.086818	-0.204637	-108.461016
6.550000	-0.186199	-98.693769	-45.101627	52.604923	-45.101627	52.604923	-0.207631	-109.192321
6.600000	-0.188955	-99.356225	-44.941024	51.125642	-44.941024	51.125642	-0.210688	-109.921906
6.650000	-0.191730	-100.018087	-44.782713	49.647232	-44.782713	49.647232	-0.213767	-110.650918
6.700000	-0.194558	-100.678417	-44.625648	48.171222	-44.625648	48.171222	-0.216903	-111.378475
6.750000	-0.197413	-101.337981	-44.470594	46.696412	-44.470594	46.696412	-0.220068	-112.105304
6.800000	-0.200316	-101.996251	-44.316963	45.223776	-44.316963	45.223776	-0.223284	-112.830925
6.850000	-0.203253	-102.653598	-44.165092	43.752693	-44.165092	43.752693	-0.226537	-113.555683
6.900000	-0.206230	-103.309878	-44.014796	42.283543	-44.014796	42.283543	-0.229834	-114.279463
6.950000	-0.209250	-103.965091	-43.866039	40.816325	-43.866039	40.816325	-0.233177	-115.002265
7.000000	-0.212304	-104.619453	-43.718985	39.350780	-43.718985	39.350780	-0.236557	-115.724301
7.050000	-0.215407	-105.272621	-43.573276	37.887578	-43.573276	37.887578	-0.239991	-116.445266
7.100000	-0.218539	-105.925139	-43.429376	36.425769	-43.429376	36.425769	-0.243456	-117.165658
7.150000	-0.221728	-106.576356	-43.286651	34.966747	-43.286651	34.966747	-0.246983	-117.884906
7.200000	-0.224939	-107.227108	-43.145822	33.508815	-43.145822	33.508815	-0.250533	-118.603755
7.250000	-0.228214	-107.876469	-43.006023	32.054150	-43.006023	32.054150	-0.254154	-119.321408
7.300000	-0.231504	-108.525538	-42.868184	30.600244	-42.868184	30.600244	-0.257792	-120.038818
7.350000	-0.234867	-109.173145	-42.731253	29.150128	-42.731253	29.150128	-0.261509	-120.755004
7.400000	-0.238239	-109.820614	-42.596330	27.700408	-42.596330	27.700408	-0.265235	-121.471079
7.450000	-0.241691	-110.466572	-42.462210	26.255043	-42.462210	26.255043	-0.269049	-122.185928
7.500000	-0.245145	-111.112530	-42.330130	24.809678	-42.330130	24.809678	-0.272865	-122.900776
7.550000	-0.248687	-111.756950	-42.198768	23.369280	-42.198768	23.369280	-0.276777	-123.614417
7.600000	-0.252232	-112.401370	-42.069363	21.928882	-42.069363	21.928882	-0.280692	-124.328058
7.650000	-0.255859	-113.044486	-41.940803	20.493245	-41.940803	20.493245	-0.284697	-125.040716
7.700000	-0.259495	-113.687484	-41.814024	19.058040	-41.814024	19.058040	-0.288712	-125.753285
7.750000	-0.263209	-114.329397	-41.688197	17.627362	-41.688197	17.627362	-0.292810	-126.465074
7.800000	-0.266939	-114.971093	-41.563994	16.197589	-41.563994	16.197589	-0.296927	-127.176707
7.850000	-0.270739	-115.611907	-41.440829	14.772074	-41.440829	14.772074	-0.301120	-127.887744
7.900000	-0.274565	-116.252428	-41.319153	13.347978	-41.319153	13.347978	-0.305339	-128.598581
7.950000	-0.278454	-116.892253	-41.198586	11.927837	-41.198586	11.927837	-0.309628	-129.308982
8.000000	-0.282376	-117.531731	-41.079387	10.509673	-41.079387	10.509673	-0.313951	-130.019166
8.050000	-0.286356	-118.170680	-40.961350	9.095121	-40.961350	9.095121	-0.318336	-130.729053
8.100000	-0.290377	-118.809252	-40.844579	7.683150	-40.844579	7.683150	-0.322766	-131.438728
8.150000	-0.294449	-119.447444	-40.729008	6.274406	-40.729008	6.274406	-0.327249	-132.148222
8.200000	-0.298571	-120.085255	-40.614612	4.868892	-40.614612	4.868892	-0.331785	-132.857537
8.250000	-0.302737	-120.722812	-40.501444	3.466179	-40.501444	3.466179	-0.336366	-133.566763
8.300000	-0.306963	-121.360013	-40.389372	2.067388	-40.389372	2.067388	-0.341010	-134.275868
8.350000	-0.311225	-121.997064	-40.278542	0.670929	-40.278542	0.670929	-0.345691	-134.984953
8.400000	-0.315557	-122.633812	-40.168741	-0.720868	-40.168741	-0.720868	-0.350444	-135.694000
8.450000	-0.319918	-123.270489	-40.060186	-2.110851	-40.060186	-2.110851	-0.355225	-136.403072
8.500000	-0.324360	-123.906951	-39.952600	-3.495389	-39.952600	-3.495389	-0.360088	-137.112219
8.550000	-0.328821	-124.543393	-39.846257	-4.878672	-39.846257	-4.878672	-0.364971	-137.821408
8.600000	-0.333376	-125.179740	-39.740831	-6.255686	-39.740831	-6.255686	-0.369944	-138.530813
8.650000	-0.337942	-125.816093	-39.636636	-7.632052	-39.636636	-7.632052	-0.374929	-139.240254
8.700000	-0.342612	-126.452506	-39.533311	-9.001284	-39.533311	-9.001284	-0.380014	-139.950079
8.750000	-0.347286	-127.088918	-39.431201	-10.370516	-39.431201	-10.370516	-0.385102	-140.659904
8.800000	-0.352078	-127.725586	-39.329918	-11.731715	-39.329918	-11.731715	-0.390300	-141.370315
8.850000	-0.356872	-128.362254	-39.229802	-13.092914	-39.229802	-13.092914	-0.395500	-142.080726
8.900000	-0.361780	-128.999336	-39.130526	-14.446527	-39.130526	-14.446527	-0.400802	-142.791827
8.950000	-0.366701	-129.636457	-39.032345	-15.799450	-39.032345	-15.799450	-0.406115	-143.502991
9.000000	-0.371730	-130.274127	-38.935008	-17.145285	-38.935008	-17.145285	-0.411521	-144.214925
9.050000	-0.376783	-130.911907	-38.838701	-18.489702	-38.838701	-18.489702	-0.416948	-144.927013
9.100000	-0.381937	-131.550344	-38.743236	-19.827575	-38.743236	-19.827575	-0.422459	-145.639925
9.150000	-0.387128	-132.189000	-38.648739	-21.163268	-38.648739	-21.163268	-0.428000	-146.353112
9.200000	-0.392415	-132.828392	-38.555078	-22.493009	-38.555078	-22.493009	-0.433617	-147.067149
9.250000	-0.397752	-133.468151	-38.462327	-23.819774	-38.462327	-23.819774	-0.439272	-147.781611
9.300000	-0.403177	-134.108692	-38.370402	-25.141221	-38.370402	-25.141221	-0.444994	-148.496923
9.350000	-0.408667	-134.749792	-38.279331	-26.458871	-38.279331	-26.458871	-0.450765	-149.212842
9.400000	-0.414239	-135.391686	-38.189073	-27.771878	-38.189073	-27.771878	-0.456592	-149.929581
9.450000	-0.419892	-136.034374	-38.099614	-29.080243	-38.099614	-29.080243	-0.462477	-150.647141
9.500000	-0.425619	-136.677834	-38.010956	-30.384677	-38.010956	-30.384677	-0.468410	-151.365462
9.550000	-0.431446	-137.322372	-37.923039	-31.683607	-37.923039	-31.683607	-0.474410	-152.084849
9.600000	-0.437336	-137.967617	-37.835912	-32.979348	-37.835912	-32.979348	-0.480449	-152.804908
9.650000	-0.443348	-138.614278	-37.749468	-34.268711	-37.749468	-34.268711	-0.486563	-153.526314
9.700000	-0.449412	-139.261540	-37.663804	-35.555656	-37.663804	-35.555656	-0.492707	-154.248273
9.750000	-0.455623	-139.910607	-37.578762	-36.835344	-37.578762	-36.835344	-0.498935	-154.971892
9.800000	-0.461873	-140.560126	-37.494493	-38.113404	-37.494493	-38.113404	-0.505185	-155.695912
9.850000	-0.468298	-141.211900	-37.410780	-39.383329	-37.410780	-39.383329	-0.511526	-156.421942
9.900000	-0.474746	-141.863926	-37.327839	-40.652435	-37.327839	-40.652435	-0.517880	-157.148190
9.950000	-0.481401	-142.518719	-37.245383	-41.912531	-37.245383	-41.912531	-0.524334	-157.876833
10.000000	-0.488061	-143.173512	-37.163702	-43.172628	-37.163702	-43.172628	-0.530792	-158.605475
