! freq	dB(S11)	phase(S11)	dB(S12)	phase(S12)	
!     	dB(S21)	phase(S21)	dB(S22)	phase(S22)	
!S-par simulation data
#  GHz  S  DB  R 50
0.000000	-82.028184	0.000000	-0.000688	0.000000	-0.000688	0.000000	-82.028184	0.000000
0.050000	-37.223330	-92.617848	-0.006465	-3.258836	-0.006465	-3.258836	-37.222163	-92.498005
0.100000	-31.268100	-96.111944	-0.015765	-6.471798	-0.015765	-6.471798	-31.267400	-95.881171
0.150000	-27.799114	-99.581605	-0.024889	-9.667176	-0.024889	-9.667176	-27.798374	-99.238087
0.200000	-25.351221	-103.000196	-0.034685	-12.855932	-0.034685	-12.855932	-25.350438	-102.542393
0.250000	-23.467554	-106.371200	-0.045680	-16.038985	-0.045680	-16.038985	-23.466788	-105.798432
0.300000	-21.944071	-109.704544	-0.057964	-19.215652	-0.057964	-19.215652	-21.943363	-109.016420
0.350000	-20.672155	-113.007778	-0.071490	-22.385194	-0.071490	-22.385194	-20.671532	-112.203957
0.400000	-19.586026	-116.287399	-0.086116	-25.547386	-0.086116	-25.547386	-19.585500	-115.367527
0.450000	-18.644423	-119.546921	-0.101741	-28.701763	-0.101741	-28.701763	-18.644000	-118.510575
0.500000	-17.817770	-122.789867	-0.118198	-31.848432	-0.118198	-31.848432	-17.817449	-121.636570
0.550000	-17.086494	-126.017688	-0.135378	-34.987003	-0.135378	-34.987003	-17.086273	-124.746867
0.600000	-16.434705	-129.232259	-0.153122	-38.117643	-0.153122	-38.117643	-16.434579	-127.843275
0.650000	-15.851532	-132.434301	-0.171299	-41.240104	-0.171299	-41.240104	-15.851499	-130.926417
0.700000	-15.327643	-135.624833	-0.189761	-44.354513	-0.189761	-44.354513	-15.327699	-133.997237
0.750000	-14.856194	-138.804432	-0.208365	-47.460840	-0.208365	-47.460840	-14.856337	-137.056218
0.800000	-14.431424	-141.973749	-0.226964	-50.559217	-0.226964	-50.559217	-14.431653	-140.103926
0.850000	-14.049134	-145.133217	-0.245409	-53.649679	-0.245409	-53.649679	-14.049450	-143.140680
0.900000	-13.704505	-148.283858	-0.263570	-56.732821	-0.263570	-56.732821	-13.704910	-146.167459
0.950000	-13.394736	-151.426157	-0.281310	-59.808859	-0.281310	-59.808859	-13.395235	-149.184638
1.000000	-13.117107	-154.560824	-0.298500	-62.878245	-0.298500	-62.878245	-13.117704	-152.192831
1.050000	-12.869314	-157.688619	-0.315020	-65.941517	-0.315020	-65.941517	-12.870014	-155.192701
1.100000	-12.649393	-160.810357	-0.330757	-68.999297	-0.330757	-68.999297	-12.650204	-158.184960
1.150000	-12.455669	-163.926903	-0.345605	-72.052292	-0.345605	-72.052292	-12.456597	-161.170365
1.200000	-12.286709	-167.039170	-0.359470	-75.101277	-0.359470	-75.101277	-12.287762	-164.149716
1.250000	-12.141290	-170.148120	-0.372267	-78.147097	-0.372267	-78.147097	-12.142477	-167.123855
1.300000	-12.018810	-173.254727	-0.383894	-81.190626	-0.383894	-81.190626	-12.020138	-170.093579
1.350000	-11.917940	-176.360100	-0.394313	-84.232889	-0.394313	-84.232889	-11.919417	-173.059904
1.400000	-11.837940	-179.465307	-0.403473	-87.274880	-0.403473	-87.274880	-11.839574	-176.023750
1.450000	-11.778201	177.428566	-0.411336	-90.317623	-0.411336	-90.317623	-11.780001	-178.986047
1.500000	-11.738229	174.320415	-0.417874	-93.362163	-0.417874	-93.362163	-11.740202	178.052267
1.550000	-11.717637	171.209129	-0.423074	-96.409560	-0.423074	-96.409560	-11.719790	175.090262
1.600000	-11.716137	168.093596	-0.426934	-99.460875	-0.426934	-99.460875	-11.718477	172.127018
1.650000	-11.733531	164.972707	-0.429466	-102.517168	-0.429466	-102.517168	-11.736066	169.161635
1.700000	-11.769711	161.845367	-0.430693	-105.579483	-0.430693	-105.579483	-11.772448	166.193242
1.750000	-11.824650	158.710497	-0.430651	-108.648843	-0.430651	-108.648843	-11.827596	163.221004
1.800000	-11.898402	155.567045	-0.429388	-111.726242	-0.429388	-111.726242	-11.901564	160.244131
1.850000	-11.991096	152.413987	-0.426963	-114.812637	-0.426963	-114.812637	-11.994482	157.261884
1.900000	-12.103132	149.250209	-0.423436	-117.909058	-0.423436	-117.909058	-12.106748	154.273515
1.950000	-12.234779	146.074736	-0.418890	-121.016393	-0.418890	-121.016393	-12.238634	151.278397
2.000000	-12.386192	142.886783	-0.413427	-124.135330	-0.413427	-124.135330	-12.390295	148.276070
2.050000	-12.557794	139.685502	-0.407146	-127.266603	-0.407146	-127.266603	-12.562154	145.266091
2.100000	-12.750079	136.470095	-0.400152	-130.410873	-0.400152	-130.410873	-12.754706	142.248109
2.150000	-12.963612	133.239817	-0.392557	-133.568726	-0.392557	-133.568726	-12.968519	139.221869
2.200000	-13.199033	129.993976	-0.384477	-136.740668	-0.384477	-136.740668	-13.204234	136.187218
2.250000	-13.457056	126.731934	-0.376032	-139.927124	-0.376032	-139.927124	-13.462567	133.144109
2.300000	-13.738468	123.453099	-0.367344	-143.128433	-0.367344	-143.128433	-13.744308	130.092605
2.350000	-14.044134	120.156928	-0.358534	-146.344851	-0.358534	-146.344851	-14.050325	127.032882
2.400000	-14.374994	116.842911	-0.349721	-149.576548	-0.349721	-149.576548	-14.381564	123.965224
2.450000	-14.732069	113.510570	-0.341024	-152.823612	-0.341024	-152.823612	-14.739049	120.890028
2.500000	-15.116453	110.159443	-0.332553	-156.086053	-0.332553	-156.086053	-15.123883	117.807794
2.550000	-15.529507	106.788640	-0.324425	-159.364137	-0.324425	-159.364137	-15.537432	114.718989
2.600000	-15.972205	103.398093	-0.316733	-162.657393	-0.316733	-162.657393	-15.980684	111.624447
2.650000	-16.445836	99.987284	-0.309563	-165.965628	-0.309563	-165.965628	-16.454939	108.524901
2.700000	-16.951737	96.555634	-0.302994	-169.288600	-0.302994	-169.288600	-16.961551	105.421106
2.750000	-17.491271	93.102471	-0.297091	-172.626029	-0.297091	-172.626029	-17.501904	102.313791
2.800000	-18.065796	89.627001	-0.291907	-175.977612	-0.291907	-175.977612	-18.077385	99.203585
2.850000	-18.676614	86.128275	-0.287482	-179.343033	-0.287482	-179.343033	-18.689333	96.090921
2.900000	-19.324901	82.605159	-0.283842	177.278020	-0.283842	177.278020	-19.338971	92.975885
2.950000	-20.011590	79.056307	-0.281000	173.885840	-0.281000	173.885840	-20.027299	89.858010
3.000000	-20.737216	75.480150	-0.278955	170.480690	-0.278955	170.480690	-20.754939	86.735975
3.050000	-21.501679	71.874912	-0.277694	167.062782	-0.277694	167.062782	-21.521912	83.607171
3.100000	-22.303911	68.238677	-0.277192	163.632266	-0.277192	163.632266	-22.327307	80.467100
3.150000	-23.140817	64.569160	-0.277420	160.189079	-0.277420	160.189079	-23.168251	77.308203
3.200000	-24.007344	60.864735	-0.278334	156.733197	-0.278334	156.733197	-24.039970	74.118807
3.250000	-24.896179	57.125096	-0.279873	153.264628	-0.279873	153.264628	-24.935505	70.882207
3.300000	-25.795377	53.351360	-0.281981	149.783124	-0.281981	149.783124	-25.843324	67.574359
3.350000	-26.680408	49.546574	-0.284627	146.287512	-0.284627	146.287512	-26.739323	64.153881
3.400000	-27.539289	45.722815	-0.287699	142.778828	-0.287699	142.778828	-27.611754	60.593717
3.450000	-28.336543	41.893846	-0.291166	139.255923	-0.291166	139.255923	-28.425046	56.843371
3.500000	-29.033044	38.081376	-0.294983	135.718050	-0.294983	135.718050	-29.139233	52.857567
3.550000	-29.584000	34.312818	-0.299114	132.164332	-0.299114	132.164332	-29.707609	48.603604
3.600000	-29.917635	30.627669	-0.303567	128.591773	-0.303567	128.591773	-30.054553	44.051802
3.650000	-30.016936	27.040564	-0.308307	125.000857	-0.308307	125.000857	-30.159938	39.283270
3.700000	-29.862872	23.553735	-0.313349	121.390399	-0.313349	121.390399	-30.002510	34.394735
3.750000	-29.456892	20.150288	-0.318733	117.758996	-0.318733	117.758996	-29.583771	29.502263
3.800000	-28.821911	16.797886	-0.324527	114.105152	-0.324527	114.105152	-28.929018	24.711922
3.850000	-27.996402	13.457873	-0.330829	110.427287	-0.330829	110.427287	-28.080305	20.094953
3.900000	-27.016351	10.092396	-0.337803	106.722578	-0.337803	106.722578	-27.076853	15.687697
3.950000	-25.923082	6.670756	-0.345673	102.988259	-0.345673	102.988259	-25.962402	11.483469
4.000000	-24.773559	3.181019	-0.354609	99.224548	-0.354609	99.224548	-24.795202	7.433998
4.050000	-23.613955	-0.376005	-0.364723	95.432839	-0.364723	95.432839	-23.621519	3.493239
4.100000	-22.431222	-4.017999	-0.376651	91.604564	-0.376651	91.604564	-22.427875	-0.356776
4.150000	-21.263947	-7.733689	-0.390588	87.742079	-0.390588	87.742079	-21.252370	-4.160933
4.200000	-20.123142	-11.519799	-0.406940	83.844068	-0.406940	83.844068	-20.105453	-7.944089
4.250000	-19.011421	-15.375576	-0.426314	79.907704	-0.426314	79.907704	-18.989263	-11.725835
4.300000	-17.937741	-19.294937	-0.449148	75.933364	-0.449148	75.933364	-17.912350	-15.520847
4.350000	-16.905722	-23.273660	-0.475957	71.921039	-0.475957	71.921039	-16.878018	-19.338826
4.400000	-15.914480	-27.310052	-0.507477	67.869563	-0.507477	67.869563	-15.885154	-23.187431
4.450000	-14.964986	-31.400717	-0.544378	63.779388	-0.544378	63.779388	-14.934550	-27.071120
4.500000	-14.058956	-35.540832	-0.587176	59.652588	-0.587176	59.652588	-14.027782	-30.991118
4.550000	-13.195166	-39.727553	-0.636618	55.490285	-0.636618	55.490285	-13.163532	-34.948446
4.600000	-12.371848	-43.958425	-0.693634	51.293665	-0.693634	51.293665	-12.339962	-38.943483
4.650000	-11.590090	-48.227304	-0.758574	47.067173	-0.758574	47.067173	-11.558101	-42.972533
4.700000	-10.848808	-52.529731	-0.832055	42.814284	-0.832055	42.814284	-10.816825	-47.032631
4.750000	-10.146100	-56.862061	-0.915113	38.538137	-0.915113	38.538137	-10.114206	-51.121183
4.800000	-9.482148	-61.217207	-1.007851	34.244822	-1.007851	34.244822	-9.450403	-55.231962
4.850000	-8.855918	-65.589208	-1.110644	29.939738	-1.110644	29.939738	-8.824363	-59.359531
4.900000	-8.266206	-69.972036	-1.224141	25.628636	-1.224141	25.628636	-8.234874	-63.498231
4.950000	-7.712205	-74.358592	-1.348400	21.318163	-1.348400	21.318163	-7.681122	-67.641197
5.000000	-7.192827	-78.742001	-1.483301	17.014809	-1.483301	17.014809	-7.162010	-71.781672
5.050000	-6.706982	-83.115221	-1.628951	12.725442	-1.628951	12.725442	-6.676446	-75.912690
5.100000	-6.253677	-87.470855	-1.785271	8.457310	-1.785271	8.457310	-6.223435	-80.026879
5.150000	-5.831391	-91.802908	-1.951628	4.216099	-1.951628	4.216099	-5.801454	-84.118189
5.200000	-5.438794	-96.105191	-2.127599	0.007857	-2.127599	0.007857	-5.409171	-88.180385
5.250000	-5.075159	-100.369919	-2.312858	-4.159613	-2.312858	-4.159613	-5.045864	-92.205643
5.300000	-4.738439	-104.593735	-2.506413	-8.283253	-2.506413	-8.283253	-4.709481	-96.190494
5.350000	-4.427178	-108.772196	-2.707526	-12.358742	-2.707526	-12.358742	-4.398569	-100.130411
5.400000	-4.140543	-112.899181	-2.915428	-16.379968	-2.915428	-16.379968	-4.112296	-104.019203
5.450000	-3.876664	-116.972949	-3.129128	-20.345405	-3.129128	-20.345405	-3.848793	-107.855026
5.500000	-3.633922	-120.991846	-3.347707	-24.253568	-3.347707	-24.253568	-3.606441	-111.636142
5.550000	-3.411286	-124.952622	-3.570173	-28.101286	-3.570173	-28.101286	-3.384212	-115.359222
5.600000	-3.207415	-128.854058	-3.795508	-31.887498	-3.795508	-31.887498	-3.180766	-119.022972
5.650000	-3.020594	-132.697583	-4.022853	-35.613859	-4.022853	-35.613859	-2.994388	-122.628751
5.700000	-2.849710	-136.482838	-4.251240	-39.280168	-4.251240	-39.280168	-2.823968	-126.176143
5.750000	-2.693980	-140.208578	-4.479518	-42.885312	-4.479518	-42.885312	-2.668724	-129.663840
5.800000	-2.552063	-143.877090	-4.706840	-46.431821	-4.706840	-46.431821	-2.527317	-133.094087
5.850000	-2.421951	-147.495170	-4.933067	-49.926813	-4.933067	-49.926813	-2.397738	-136.473671
5.900000	-2.304316	-151.056287	-5.156088	-53.363817	-5.156088	-53.363817	-2.280666	-139.795991
5.950000	-2.197315	-154.567879	-5.375829	-56.750620	-5.375829	-56.750620	-2.174258	-143.068499
6.000000	-2.100021	-158.033301	-5.591677	-60.090840	-5.591677	-60.090840	-2.077588	-146.294549
6.050000	-2.011694	-161.455515	-5.802943	-63.387708	-5.802943	-63.387708	-1.989918	-149.477113
6.100000	-1.931662	-164.837697	-6.008968	-66.644683	-6.008968	-66.644683	-1.910580	-152.619387
6.150000	-1.859246	-168.183588	-6.209220	-69.865808	-6.209220	-69.865808	-1.838895	-155.725148
6.200000	-1.794600	-171.493290	-6.401861	-73.051604	-6.401861	-73.051604	-1.775028	-158.794526
6.250000	-1.736089	-174.776217	-6.588243	-76.211680	-6.588243	-76.211680	-1.717337	-161.837024
6.300000	-1.684556	-178.030819	-6.765289	-79.345179	-6.765289	-79.345179	-1.666682	-164.851161
6.350000	-1.638380	178.733536	-6.934914	-82.461529	-6.934914	-82.461529	-1.621434	-167.846406
6.400000	-1.598089	175.515291	-7.094660	-85.563070	-7.094660	-85.563070	-1.582134	-170.824451
6.450000	-1.562904	172.308278	-7.245112	-88.656207	-7.245112	-88.656207	-1.548003	-173.791585
6.500000	-1.532806	169.107819	-7.385178	-91.746273	-7.385178	-91.746273	-1.519031	-176.752670
6.550000	-1.507731	165.908588	-7.513966	-94.839251	-7.513966	-94.839251	-1.495160	-179.713239
6.600000	-1.487210	162.705005	-7.631850	-97.941012	-7.631850	-97.941012	-1.475924	177.320964
6.650000	-1.471848	159.489678	-7.736294	-101.060346	-7.736294	-101.060346	-1.461949	174.342134
6.700000	-1.460937	156.257846	-7.828727	-104.201909	-7.828727	-104.201909	-1.452520	171.345403
6.750000	-1.455108	153.000171	-7.906824	-107.376564	-7.906824	-107.376564	-1.448290	168.320917
6.800000	-1.454387	149.708955	-7.970246	-110.592749	-7.970246	-110.592749	-1.449293	165.260619
6.850000	-1.459070	146.374897	-8.018094	-113.860836	-8.018094	-113.860836	-1.455840	162.154727
6.900000	-1.469574	142.987474	-8.049395	-117.192544	-8.049395	-117.192544	-1.468363	158.992167
6.950000	-1.486461	139.534675	-8.063103	-120.601233	-8.063103	-120.601233	-1.487443	155.760282
7.000000	-1.510476	136.002648	-8.058093	-124.102268	-8.058093	-124.102268	-1.513845	152.444471
7.050000	-1.542593	132.375271	-8.033161	-127.713476	-8.033161	-127.713476	-1.548566	149.027738
7.100000	-1.584076	128.633592	-7.987032	-131.455720	-7.987032	-131.455720	-1.592896	145.490108
7.150000	-1.636699	124.753421	-7.918121	-135.355542	-7.918121	-135.355542	-1.648640	141.806095
7.200000	-1.702621	120.707559	-7.825125	-139.442463	-7.825125	-139.442463	-1.717988	137.947085
7.250000	-1.784602	116.464001	-7.706893	-143.750854	-7.706893	-143.750854	-1.803726	133.879462
7.300000	-1.886372	111.982484	-7.562276	-148.323468	-7.562276	-148.323468	-1.909607	129.561014
7.350000	-2.012884	107.213280	-7.390457	-153.212206	-7.390457	-153.212206	-2.040586	124.939751
7.400000	-2.170762	102.094332	-7.191232	-158.480306	-7.191232	-158.480306	-2.203251	119.951026
7.450000	-2.367615	96.562231	-6.966329	-164.189379	-6.966329	-164.189379	-2.405098	114.529213
7.500000	-2.617971	90.488936	-6.716427	-170.463107	-6.716427	-170.463107	-2.660359	108.541921
7.550000	-2.937257	83.756720	-6.447869	-177.401980	-6.447869	-177.401980	-2.983814	101.869267
7.600000	-3.347714	76.194204	-6.170456	174.860131	-6.170456	174.860131	-3.396348	94.338451
7.650000	-3.879171	67.565634	-5.900495	166.168303	-5.900495	166.168303	-3.924976	85.715948
7.700000	-4.570113	57.531936	-5.663800	156.354053	-5.663800	156.354053	-4.602379	75.674390
7.750000	-5.465988	45.569984	-5.499270	145.251809	-5.499270	145.251809	-5.462202	63.726837
7.800000	-6.607099	30.805332	-5.462754	132.730335	-5.462754	132.730335	-6.521979	49.101518
7.850000	-7.979227	11.670027	-5.632298	118.737029	-5.632298	118.737029	-7.731429	30.525029
7.900000	-9.353096	-14.133488	-6.103999	103.418292	-6.103999	103.418292	-8.850913	6.407163
7.950000	-10.017028	-47.715334	-6.991239	87.215127	-6.991239	87.215127	-9.329461	-23.622987
8.000000	-9.241829	-83.692014	-8.397456	71.050449	-8.397456	71.050449	-8.689810	-55.671466
8.050000	-7.536837	-114.293206	-10.359778	56.387807	-10.359778	56.387807	-7.268165	-84.188688
8.100000	-5.832969	-138.110736	-12.777861	44.930537	-12.777861	44.930537	-5.758688	-107.378388
8.150000	-4.494837	-156.768615	-15.388518	37.907716	-15.388518	37.907716	-4.513746	-125.971401
8.200000	-3.527442	-171.696728	-17.834878	35.295251	-17.834878	35.295251	-3.582925	-140.997158
8.250000	-2.840944	176.112093	-19.841914	35.543885	-19.841914	35.543885	-2.907102	-153.308615
8.300000	-2.349974	165.962112	-21.357635	36.506106	-21.357635	36.506106	-2.416123	-163.554091
8.350000	-1.992545	157.350425	-22.518015	36.710761	-22.518015	36.710761	-2.054869	-172.221791
8.400000	-1.726725	149.907861	-23.494096	35.711425	-23.494096	35.711425	-1.784355	-179.678960
8.450000	-1.524329	143.357026	-24.402567	33.642689	-24.402567	33.642689	-1.577562	173.793586
8.500000	-1.367308	137.505077	-25.301085	30.759505	-25.301085	30.759505	-1.416830	167.998463
8.550000	-1.243186	132.204039	-26.215054	27.285247	-26.215054	27.285247	-1.289750	162.782677
8.600000	-1.143240	127.340179	-27.154191	23.373997	-27.154191	23.373997	-1.187542	158.027709
8.650000	-1.062194	122.844738	-28.116772	19.100099	-28.116772	19.100099	-1.104855	153.661598
8.700000	-0.995409	118.647059	-29.101488	14.512930	-29.101488	14.512930	-1.036942	149.609891
8.750000	-0.939548	114.692338	-30.106469	9.630263	-30.106469	9.630263	-0.980365	145.814598
8.800000	-0.892514	110.946273	-31.124797	4.436151	-31.124797	4.436151	-0.932958	142.239227
8.850000	-0.852646	107.379852	-32.147623	-1.100603	-32.147623	-1.100603	-0.892996	138.852784
8.900000	-0.818367	103.961223	-33.170951	-6.999993	-33.170951	-6.999993	-0.858836	135.621302
8.950000	-0.788700	100.670819	-34.184044	-13.296543	-34.184044	-13.296543	-0.829457	132.523755
9.000000	-0.763117	97.499958	-35.161361	-20.054054	-35.161361	-20.054054	-0.804301	129.550439
9.050000	-0.740657	94.424670	-36.097788	-27.244415	-36.097788	-27.244415	-0.782365	126.675845
9.100000	-0.720847	91.433833	-36.974278	-34.846960	-36.974278	-34.846960	-0.763150	123.887899
9.150000	-0.703302	88.517853	-37.770952	-42.801198	-37.770952	-42.801198	-0.746246	121.176162
9.200000	-0.687801	85.672018	-38.460025	-51.007544	-38.460025	-51.007544	-0.731418	118.535160
9.250000	-0.673944	82.884319	-39.040558	-59.292290	-39.040558	-59.292290	-0.718247	115.952149
9.300000	-0.661571	80.150487	-39.502863	-67.481870	-39.502863	-67.481870	-0.706557	113.422256
9.350000	-0.650500	77.465071	-39.851575	-75.393090	-39.851575	-75.393090	-0.696156	110.939459
9.400000	-0.640581	74.823317	-40.099620	-82.866758	-40.099620	-82.866758	-0.686883	108.498491
9.450000	-0.631689	72.221060	-40.265346	-89.784302	-40.265346	-89.784302	-0.678604	106.094713
9.500000	-0.623719	69.654623	-40.369074	-96.072189	-40.369074	-96.072189	-0.671206	103.724021
9.550000	-0.616584	67.120742	-40.430220	-101.696033	-40.430220	-101.696033	-0.664595	101.382756
9.600000	-0.610207	64.616502	-40.465487	-106.649176	-40.465487	-106.649176	-0.658690	99.067635
9.650000	-0.604525	62.139275	-40.488101	-110.940320	-40.488101	-110.940320	-0.653422	96.775697
9.700000	-0.599484	59.686678	-40.507721	-114.582901	-40.507721	-114.582901	-0.648732	94.504244
9.750000	-0.595033	57.256529	-40.530675	-117.587090	-40.530675	-117.587090	-0.644569	92.250802
9.800000	-0.591132	54.846810	-40.560211	-119.954193	-40.560211	-119.954193	-0.640889	90.013081
9.850000	-0.587740	52.455637	-40.596586	-121.672915	-40.596586	-121.672915	-0.637649	87.788937
9.900000	-0.584822	50.081226	-40.636861	-122.717050	-40.636861	-122.717050	-0.634814	85.576344
9.950000	-0.582342	47.721871	-40.674300	-123.044627	-40.674300	-123.044627	-0.632348	83.373361
10.000000	-0.580268	45.375913	-40.697304	-122.599205	-40.697304	-122.599205	-0.630215	81.178103
