! freq	dB(S11)	phase(S11)	dB(S12)	phase(S12)	
!     	dB(S21)	phase(S21)	dB(S22)	phase(S22)	
!S-par simulation data
#  GHz  S  DB  R 50
0.000000	-84.290435	0.000000	-0.000530	0.000000	-0.000530	0.000000	-84.290435	0.000000
0.050000	-43.841549	-91.604055	-0.004606	-2.570164	-0.004606	-2.570164	-43.805545	-90.875233
0.100000	-37.892763	-93.813558	-0.012125	-5.118798	-0.012125	-5.118798	-37.882125	-92.583543
0.150000	-34.600698	-96.115453	-0.018650	-7.654429	-0.018650	-7.654429	-34.544474	-94.571515
0.200000	-32.324554	-100.090283	-0.023759	-10.185980	-0.023759	-10.185980	-32.213362	-97.427679
0.250000	-30.398427	-104.062262	-0.028121	-12.716612	-0.028121	-12.716612	-30.335636	-100.455208
0.300000	-28.793148	-107.414195	-0.032243	-15.246871	-0.032243	-15.246871	-28.766182	-103.197978
0.350000	-27.452758	-110.465220	-0.036379	-17.776604	-0.036379	-17.776604	-27.438942	-105.684650
0.400000	-26.312996	-113.415432	-0.040690	-20.305499	-0.040690	-20.305499	-26.302718	-108.033322
0.450000	-25.324501	-116.332386	-0.045225	-22.833374	-0.045225	-22.833374	-25.314646	-110.314793
0.500000	-24.456759	-119.237322	-0.050030	-25.359911	-0.050030	-25.359911	-24.446296	-112.554597
0.550000	-23.686627	-122.140833	-0.055105	-27.884939	-0.055105	-27.884939	-23.675402	-114.769064
0.600000	-22.997512	-125.047391	-0.060436	-30.408322	-0.060436	-30.408322	-22.985649	-116.965236
0.650000	-22.376983	-127.959301	-0.066000	-32.929963	-0.066000	-32.929963	-22.364684	-119.146296
0.700000	-21.815633	-130.878055	-0.071770	-35.449788	-0.071770	-35.449788	-21.803109	-121.313451
0.750000	-21.306019	-133.804783	-0.077717	-37.967759	-0.077717	-37.967759	-21.293464	-123.466986
0.800000	-20.842183	-136.740485	-0.083805	-40.483868	-0.083805	-40.483868	-20.829773	-125.606631
0.850000	-20.419372	-139.686202	-0.090000	-42.998132	-0.090000	-42.998132	-20.407259	-127.731717
0.900000	-20.033679	-142.643037	-0.096267	-45.510594	-0.096267	-45.510594	-20.021997	-129.841352
0.950000	-19.681603	-145.612001	-0.102568	-48.021353	-0.102568	-48.021353	-19.670468	-131.934727
1.000000	-19.360344	-148.594291	-0.108869	-50.530513	-0.108869	-50.530513	-19.349857	-134.010787
1.050000	-19.067522	-151.591213	-0.115134	-53.038205	-0.115134	-53.038205	-19.057772	-136.068387
1.100000	-18.801103	-154.604190	-0.121332	-55.544581	-0.121332	-55.544581	-18.792169	-138.106296
1.150000	-18.559329	-157.634767	-0.127431	-58.049816	-0.127431	-58.049816	-18.551282	-140.123194
1.200000	-18.340676	-160.684625	-0.133402	-60.554103	-0.133402	-60.554103	-18.333580	-142.117672
1.250000	-18.143815	-163.755589	-0.139218	-63.057653	-0.139218	-63.057653	-18.137728	-144.088220
1.300000	-17.967813	-166.850002	-0.144853	-65.560691	-0.144853	-65.560691	-17.962790	-146.032822
1.350000	-17.811396	-169.969706	-0.150286	-68.063469	-0.150286	-68.063469	-17.807487	-147.950075
1.400000	-17.673645	-173.117022	-0.155501	-70.566242	-0.155501	-70.566242	-17.670896	-149.838094
1.450000	-17.553740	-176.294460	-0.160482	-73.069276	-0.160482	-73.069276	-17.552197	-151.694840
1.500000	-17.450943	-179.504726	-0.165216	-75.572843	-0.165216	-75.572843	-17.450648	-153.518108
1.550000	-17.364581	177.249259	-0.169694	-78.077222	-0.169694	-78.077222	-17.365577	-155.305502
1.600000	-17.294037	173.964345	-0.173911	-80.582697	-0.173911	-80.582697	-17.296368	-157.054423
1.650000	-17.238738	170.637141	-0.177865	-83.089554	-0.177865	-83.089554	-17.242448	-158.762047
1.700000	-17.198599	167.262356	-0.181548	-85.598142	-0.181548	-85.598142	-17.203734	-160.423734
1.750000	-17.172217	163.839000	-0.184980	-88.108636	-0.184980	-88.108636	-17.178826	-162.038970
1.800000	-17.159499	160.361517	-0.188162	-90.621364	-0.188162	-90.621364	-17.167633	-163.602837
1.850000	-17.159928	156.825385	-0.191104	-93.136601	-0.191104	-93.136601	-17.169645	-165.111404
1.900000	-17.173104	153.225022	-0.193817	-95.654651	-0.193817	-95.654651	-17.184468	-166.559724
1.950000	-17.198444	149.555087	-0.196318	-98.175779	-0.196318	-98.175779	-17.211526	-167.943045
2.000000	-17.235201	145.810776	-0.198630	-100.700205	-0.198630	-100.700205	-17.250082	-169.257075
2.050000	-17.282706	141.986288	-0.200775	-103.228166	-0.200775	-103.228166	-17.299473	-170.496542
2.100000	-17.340209	138.075540	-0.202776	-105.759884	-0.202776	-105.759884	-17.358964	-171.655861
2.150000	-17.406860	134.072206	-0.204661	-108.295568	-0.204661	-108.295568	-17.427717	-172.729172
2.200000	-17.481691	129.969788	-0.206459	-110.835412	-0.206459	-110.835412	-17.504778	-173.710395
2.250000	-17.563591	125.761707	-0.208200	-113.379591	-0.208200	-113.379591	-17.589051	-174.593320
2.300000	-17.651280	121.441432	-0.209916	-115.928265	-0.209916	-115.928265	-17.679273	-175.371731
2.350000	-17.743293	117.002664	-0.211641	-118.481573	-0.211641	-118.481573	-17.773993	-176.039574
2.400000	-17.837952	112.439554	-0.213410	-121.039638	-0.213410	-121.039638	-17.871550	-176.591182
2.450000	-17.933353	107.746995	-0.215258	-123.602559	-0.215258	-123.602559	-17.970054	-177.021548
2.500000	-18.027357	102.920964	-0.217221	-126.170420	-0.217221	-126.170420	-18.067374	-177.326674
2.550000	-18.117465	97.956699	-0.219339	-128.743363	-0.219339	-128.743363	-18.161018	-177.501869
2.600000	-18.201117	92.855910	-0.221647	-131.321348	-0.221647	-131.321348	-18.248422	-177.548572
2.650000	-18.275529	87.620579	-0.224180	-133.904395	-0.224180	-133.904395	-18.326789	-177.468557
2.700000	-18.337798	82.255601	-0.226974	-136.492503	-0.226974	-136.492503	-18.393191	-177.266459
2.750000	-18.384981	76.769186	-0.230065	-139.085654	-0.230065	-139.085654	-18.444650	-176.950192
2.800000	-18.414207	71.173133	-0.233487	-141.683807	-0.233487	-141.683807	-18.478243	-176.531255
2.850000	-18.422613	65.482318	-0.237275	-144.286946	-0.237275	-144.286946	-18.491046	-176.024294
2.900000	-18.407949	59.716597	-0.241459	-146.894968	-0.241459	-146.894968	-18.480734	-175.448900
2.950000	-18.368419	53.898417	-0.246068	-149.507766	-0.246068	-149.507766	-18.445432	-174.827353
3.000000	-18.302765	48.052310	-0.251129	-152.125235	-0.251129	-152.125235	-18.383801	-174.184129
3.050000	-18.210171	42.204445	-0.256672	-154.747288	-0.256672	-154.747288	-18.294953	-173.545487
3.100000	-18.091375	36.380475	-0.262708	-157.373696	-0.262708	-157.373696	-18.179564	-172.937066
3.150000	-17.946519	30.606664	-0.269271	-160.004419	-0.269271	-160.004419	-18.037725	-172.385470
3.200000	-17.777088	24.907314	-0.276378	-162.639298	-0.276378	-162.639298	-17.870893	-171.915223
3.250000	-17.585395	19.302569	-0.284039	-165.278123	-0.284039	-165.278123	-17.681374	-171.546600
3.300000	-17.373842	13.809802	-0.292266	-167.920724	-0.292266	-167.920724	-17.471581	-171.297142
3.350000	-17.145088	8.442795	-0.301067	-170.566929	-0.301067	-170.566929	-17.244198	-171.180732
3.400000	-16.901912	3.211722	-0.310449	-173.216562	-0.310449	-173.216562	-17.002041	-171.207574
3.450000	-16.647093	-1.876655	-0.320414	-175.869448	-0.320414	-175.869448	-16.747932	-171.384375
3.500000	-16.383314	-6.818643	-0.330961	-178.525412	-0.330961	-178.525412	-16.484602	-171.714702
3.550000	-16.113091	-11.613178	-0.342088	178.815715	-0.342088	178.815715	-16.214616	-172.199427
3.600000	-15.838724	-16.261350	-0.353788	176.154098	-0.353788	176.154098	-15.940318	-172.837214
3.650000	-15.562270	-20.765947	-0.366051	173.489893	-0.366051	173.489893	-15.663810	-173.625001
3.700000	-15.285535	-25.131019	-0.378866	170.823246	-0.378866	170.823246	-15.386936	-174.558444
3.750000	-15.010077	-29.361508	-0.392217	168.154295	-0.392217	168.154295	-15.111285	-175.632306
3.800000	-14.737141	-33.460932	-0.406096	165.483126	-0.406096	165.483126	-14.838133	-176.842869
3.850000	-14.467943	-37.437324	-0.420473	162.809884	-0.420473	162.809884	-14.568718	-178.181749
3.900000	-14.203379	-41.296633	-0.435328	160.134657	-0.435328	160.134657	-14.303956	-179.642770
3.950000	-13.944169	-45.044770	-0.450636	157.457517	-0.450636	157.457517	-14.044582	178.780161
4.000000	-13.690879	-48.687497	-0.466372	154.778515	-0.466372	154.778515	-13.791172	177.092943
4.050000	-13.443940	-52.230357	-0.482509	152.097682	-0.482509	152.097682	-13.544166	175.301201
4.100000	-13.203670	-55.677896	-0.499023	149.415012	-0.499023	149.415012	-13.303889	173.409471
4.150000	-12.970292	-59.035669	-0.515882	146.730499	-0.515882	146.730499	-13.070566	171.423300
4.200000	-12.743962	-62.307067	-0.533062	144.044072	-0.533062	144.044072	-12.844354	169.345905
4.250000	-12.524678	-65.499970	-0.550522	141.355752	-0.550522	141.355752	-12.625249	167.185226
4.300000	-12.312461	-68.616358	-0.568240	138.665407	-0.568240	138.665407	-12.413269	164.942911
4.350000	-12.107255	-71.659986	-0.586189	135.972923	-0.586189	135.972923	-12.208358	162.622445
4.400000	-11.908989	-74.633617	-0.604342	133.278137	-0.604342	133.278137	-12.010437	160.226190
4.450000	-11.717531	-77.540574	-0.622674	130.580883	-0.622674	130.580883	-11.819369	157.757067
4.500000	-11.532687	-80.384579	-0.641157	127.880996	-0.641157	127.880996	-11.634951	155.218411
4.550000	-11.354261	-83.168386	-0.659771	125.178266	-0.659771	125.178266	-11.456981	152.612476
4.600000	-11.182034	-85.894557	-0.678495	122.472459	-0.678495	122.472459	-11.285229	149.941271
4.650000	-11.015771	-88.565477	-0.697313	119.763319	-0.697313	119.763319	-11.119451	147.206588
4.700000	-10.855217	-91.183379	-0.716211	117.050568	-0.716211	117.050568	-10.959380	144.410019
4.750000	-10.700106	-93.750363	-0.735178	114.333910	-0.735178	114.333910	-10.804739	141.552987
4.800000	-10.550156	-96.268412	-0.754208	111.613031	-0.754208	111.613031	-10.655236	138.636763
4.850000	-10.405080	-98.739413	-0.773298	108.887599	-0.773298	108.887599	-10.510569	135.662492
4.900000	-10.264578	-101.165173	-0.792449	106.157271	-0.792449	106.157271	-10.370425	132.631218
4.950000	-10.128342	-103.547438	-0.811667	103.421688	-0.811667	103.421688	-10.234485	129.543899
5.000000	-9.996059	-105.887909	-0.830963	100.680482	-0.830963	100.680482	-10.102421	126.401440
5.050000	-9.867442	-108.187422	-0.850354	97.933138	-0.850354	97.933138	-9.973929	123.203542
5.100000	-9.742123	-110.448546	-0.869861	95.179398	-0.869861	95.179398	-9.848631	119.952254
5.150000	-9.619775	-112.672941	-0.889508	92.418876	-0.889508	92.418876	-9.726183	116.648431
5.200000	-9.500066	-114.862283	-0.909329	89.651190	-0.909329	89.651190	-9.606242	113.292955
5.250000	-9.382665	-117.018281	-0.929360	86.875958	-0.929360	86.875958	-9.488464	109.886753
5.300000	-9.267241	-119.142685	-0.949643	84.092805	-0.949643	84.092805	-9.372503	106.430821
5.350000	-9.153464	-121.237302	-0.970228	81.301366	-0.970228	81.301366	-9.258020	102.926233
5.400000	-9.041009	-123.304001	-0.991166	78.501284	-0.991166	78.501284	-9.144677	99.374165
5.450000	-8.929555	-125.344727	-1.012517	75.692220	-1.012517	75.692220	-9.032146	95.775903
5.500000	-8.818790	-127.361506	-1.034344	72.873851	-1.034344	72.873851	-8.920104	92.132862
5.550000	-8.708410	-129.356449	-1.056718	70.045876	-1.056718	70.045876	-8.808244	88.446592
5.600000	-8.598123	-131.331759	-1.079711	67.208015	-1.079711	67.208015	-8.696267	84.718788
5.650000	-8.487632	-133.289568	-1.103411	64.359903	-1.103411	64.359903	-8.583872	80.950886
5.700000	-8.376667	-135.232346	-1.127903	61.501310	-1.127903	61.501310	-8.470788	77.144958
5.750000	-8.265004	-137.162758	-1.153268	58.632154	-1.153268	58.632154	-8.356797	73.303598
5.800000	-8.152422	-139.083359	-1.179595	55.752279	-1.179595	55.752279	-8.241682	69.429117
5.850000	-8.038726	-140.996775	-1.206981	52.861563	-1.206981	52.861563	-8.125256	65.523967
5.900000	-7.923745	-142.905691	-1.235520	49.959923	-1.235520	49.959923	-8.007356	61.590734
5.950000	-7.807336	-144.812834	-1.265314	47.047312	-1.265314	47.047312	-7.887853	57.632120
6.000000	-7.689383	-146.720958	-1.296462	44.123726	-1.296462	44.123726	-7.766647	53.650933
6.050000	-7.569803	-148.632829	-1.329068	41.189200	-1.329068	41.189200	-7.643669	49.650065
6.100000	-7.448540	-150.551197	-1.363235	38.243813	-1.363235	38.243813	-7.518885	45.632474
6.150000	-7.325573	-152.478785	-1.399066	35.287682	-1.399066	35.287682	-7.392293	41.601161
6.200000	-7.200907	-154.418259	-1.436666	32.320970	-1.436666	32.320970	-7.263922	37.559149
6.250000	-7.074580	-156.372213	-1.476137	29.343878	-1.476137	29.343878	-7.133834	33.509458
6.300000	-6.946584	-158.343568	-1.517621	26.356434	-1.517621	26.356434	-7.002042	29.455053
6.350000	-6.817089	-160.334383	-1.561182	23.359148	-1.561182	23.359148	-6.868747	25.399046
6.400000	-6.686214	-162.346896	-1.606915	20.352342	-1.606915	20.352342	-6.734094	21.344313
6.450000	-6.554103	-164.383194	-1.654918	17.336372	-1.654918	17.336372	-6.598251	17.293640
6.500000	-6.420917	-166.445198	-1.705279	14.311628	-1.705279	14.311628	-6.461407	13.249706
6.550000	-6.286834	-168.534655	-1.758089	11.278530	-1.758089	11.278530	-6.323765	9.215066
6.600000	-6.152048	-170.653126	-1.813430	8.237525	-1.813430	8.237525	-6.185542	5.192140
6.650000	-6.016761	-172.801986	-1.871383	5.189086	-1.871383	5.189086	-6.046966	1.183203
6.700000	-5.881184	-174.982414	-1.932024	2.133705	-1.932024	2.133705	-5.908269	-2.809628
6.750000	-5.745532	-177.195399	-1.995424	-0.928107	-1.995424	-0.928107	-5.769688	-6.784394
6.800000	-5.610021	-179.441743	-2.061649	-3.995824	-2.061649	-3.995824	-5.631459	-10.739304
6.850000	-5.474867	178.277942	-2.130761	-7.068910	-2.130761	-7.068910	-5.493816	-14.672731
6.900000	-5.340267	175.962838	-2.202845	-10.146868	-2.202845	-10.146868	-5.356974	-18.582953
6.950000	-5.206433	173.612676	-2.277952	-13.229135	-2.277952	-13.229135	-5.221164	-22.468638
7.000000	-5.073578	171.227729	-2.356103	-16.315111	-2.356103	-16.315111	-5.086609	-26.328917
7.050000	-4.941889	168.808047	-2.437344	-19.404255	-2.437344	-19.404255	-4.953510	-30.162828
7.100000	-4.811542	166.353813	-2.521714	-22.496032	-2.521714	-22.496032	-4.822052	-33.969561
7.150000	-4.682699	163.865334	-2.609248	-25.589919	-2.609248	-25.589919	-4.692409	-37.748455
7.200000	-4.555508	161.343028	-2.699980	-28.685404	-2.699980	-28.685404	-4.564737	-41.498988
7.250000	-4.430107	158.787412	-2.793940	-31.781992	-2.793940	-31.781992	-4.439179	-45.220771
7.300000	-4.306616	156.199090	-2.891155	-34.879208	-2.891155	-34.879208	-4.315863	-48.913543
7.350000	-4.185143	153.578742	-2.991651	-37.976594	-2.991651	-37.976594	-4.194900	-52.577163
7.400000	-4.065781	150.927115	-3.095452	-41.073718	-3.095452	-41.073718	-4.076386	-56.211600
7.450000	-3.948611	148.245009	-3.202582	-44.170169	-3.202582	-44.170169	-3.960405	-59.816931
7.500000	-3.833698	145.533271	-3.313065	-47.265563	-3.313065	-47.265563	-3.847023	-63.393331
7.550000	-3.721118	142.792185	-3.426965	-50.359501	-3.426965	-50.359501	-3.736322	-66.940450
7.600000	-3.610897	140.023312	-3.544264	-53.451676	-3.544264	-53.451676	-3.628320	-70.459274
7.650000	-3.503066	137.227595	-3.664988	-56.541782	-3.664988	-56.541782	-3.523044	-73.950238
7.700000	-3.397646	134.405995	-3.789166	-59.629543	-3.789166	-59.629543	-3.420511	-77.413847
7.750000	-3.294648	131.559484	-3.916831	-62.714706	-3.916831	-62.714706	-3.320726	-80.850672
7.800000	-3.194076	128.689046	-4.048019	-65.797043	-4.048019	-65.797043	-3.223687	-84.261346
7.850000	-3.095924	125.795668	-4.182771	-68.876353	-4.182771	-68.876353	-3.129382	-87.646554
7.900000	-3.000184	122.880343	-4.321132	-71.952454	-4.321132	-71.952454	-3.037790	-91.007031
7.950000	-2.906839	119.944062	-4.463154	-75.025189	-4.463154	-75.025189	-2.948887	-94.343554
8.000000	-2.815869	116.987817	-4.608896	-78.094418	-4.608896	-78.094418	-2.862638	-97.656940
8.050000	-2.727247	114.012594	-4.758423	-81.160018	-4.758423	-81.160018	-2.779007	-100.948042
8.100000	-2.640947	111.019377	-4.911810	-84.221882	-4.911810	-84.221882	-2.697951	-104.217740
8.150000	-2.556955	108.008973	-5.069151	-87.279873	-5.069151	-87.279873	-2.619445	-107.466727
8.200000	-2.475238	104.982386	-5.230536	-90.333902	-5.230536	-90.333902	-2.543438	-110.695963
8.250000	-2.395747	101.940768	-5.396056	-93.383933	-5.396056	-93.383933	-2.469861	-113.906616
8.300000	-2.318448	98.885076	-5.565825	-96.429890	-5.565825	-96.429890	-2.398660	-117.099644
8.350000	-2.243307	95.816263	-5.739968	-99.471697	-5.739968	-99.471697	-2.329781	-120.276013
8.400000	-2.170291	92.735270	-5.918625	-102.509275	-5.918625	-102.509275	-2.263167	-123.436698
8.450000	-2.099366	89.643029	-6.101948	-105.542535	-6.101948	-105.542535	-2.198763	-126.582671
8.500000	-2.030499	86.540464	-6.290105	-108.571379	-6.290105	-108.571379	-2.136514	-129.714907
8.550000	-1.963662	83.428486	-6.483278	-111.595690	-6.483278	-111.595690	-2.076365	-132.834375
8.600000	-1.898823	80.307993	-6.681667	-114.615331	-6.681667	-114.615331	-2.018259	-135.942038
8.650000	-1.835957	77.179870	-6.885491	-117.630140	-6.885491	-117.630140	-1.962145	-139.038846
8.700000	-1.775036	74.044987	-7.094987	-120.639923	-7.094987	-120.639923	-1.907968	-142.125739
8.750000	-1.716039	70.904197	-7.310412	-123.644451	-7.310412	-123.644451	-1.855677	-145.203638
8.800000	-1.658977	67.758241	-7.532063	-126.643325	-7.532063	-126.643325	-1.805256	-148.273292
8.850000	-1.603797	64.608062	-7.760229	-129.636334	-7.760229	-129.636334	-1.756621	-151.335778
8.900000	-1.550482	61.454446	-7.995241	-132.623097	-7.995241	-132.623097	-1.709727	-154.391953
8.950000	-1.499017	58.298157	-8.237457	-135.603169	-8.237457	-135.603169	-1.664527	-157.442646
9.000000	-1.449390	55.139932	-8.487270	-138.576035	-8.487270	-138.576035	-1.620980	-160.488658
9.050000	-1.401590	51.980474	-8.745104	-141.541096	-8.745104	-141.541096	-1.579043	-163.530759
9.100000	-1.355607	48.820455	-9.011421	-144.497659	-9.011421	-144.497659	-1.538677	-166.569686
9.150000	-1.311435	45.660514	-9.286726	-147.444931	-9.286726	-147.444931	-1.499844	-169.606137
9.200000	-1.269040	42.501223	-9.571561	-150.382205	-9.571561	-150.382205	-1.462484	-172.640795
9.250000	-1.228563	39.343278	-9.866567	-153.307356	-9.866567	-153.307356	-1.426681	-175.674203
9.300000	-1.189771	36.186964	-10.172341	-156.220924	-10.172341	-156.220924	-1.392214	-178.707058
9.350000	-1.152851	33.032970	-10.489653	-159.120011	-10.489653	-159.120011	-1.359200	178.260152
9.400000	-1.117709	29.881575	-10.819285	-162.003871	-10.819285	-162.003871	-1.327536	175.226947
9.450000	-1.084350	26.733142	-11.162122	-164.870683	-11.162122	-164.870683	-1.297194	172.192887
9.500000	-1.052874	23.588164	-11.519154	-167.717262	-11.519154	-167.717262	-1.268217	169.157515
9.550000	-1.023090	20.446494	-11.891473	-170.543607	-11.891473	-170.543607	-1.240438	166.120661
9.600000	-0.995307	17.308965	-12.280290	-173.342755	-12.280290	-173.342755	-1.214039	163.081724
9.650000	-0.969196	14.174970	-12.687028	-176.116440	-12.687028	-176.116440	-1.188768	160.040851
9.700000	-0.945073	11.045255	-13.113181	-178.855528	-13.113181	-178.855528	-1.164801	156.997478
9.750000	-0.922711	7.919281	-13.560608	178.440039	-13.560608	178.440039	-1.141961	153.951797
9.800000	-0.902261	4.797277	-14.031286	175.778814	-14.031286	175.778814	-1.120310	150.903546
9.850000	-0.883703	1.679025	-14.527587	173.166619	-14.527587	173.166619	-1.099802	147.852759
9.900000	-0.866981	-1.435833	-15.052307	170.609515	-15.052307	170.609515	-1.080373	144.799572
9.950000	-0.852295	-4.547270	-15.608461	168.123712	-15.608461	168.123712	-1.062099	141.743847
10.000000	-0.839370	-7.656117	-16.200205	165.710098	-16.200205	165.710098	-1.044797	138.686088
