! freq	dB(S11)	phase(S11)	dB(S12)	phase(S12)	
!     	dB(S21)	phase(S21)	dB(S22)	phase(S22)	
!S-par simulation data
#  GHz  S  DB  R 50
0.000000	-0.000000	0.000000	-348.370320	180.000000	-348.370320	180.000000	0.000000	0.000000
0.050000	-0.000152	-1.506629	-78.698479	-152.014969	-78.698479	-152.014969	-0.000097	-0.806000
0.100000	-0.000604	-3.012920	-77.510721	-173.790475	-77.510721	-173.790475	-0.000379	-1.612065
0.150000	-0.001344	-4.518550	-77.248445	173.913152	-77.248445	173.913152	-0.000830	-2.418222
0.200000	-0.002352	-6.023232	-77.156079	164.617949	-77.156079	164.617949	-0.001423	-3.224442
0.250000	-0.003624	-7.526615	-77.123005	156.765008	-77.123005	156.765008	-0.002141	-4.030641
0.300000	-0.005108	-9.028580	-77.117366	149.665613	-77.117366	149.665613	-0.002952	-4.836703
0.350000	-0.006790	-10.528879	-77.134181	143.138696	-77.134181	143.138696	-0.003842	-5.642502
0.400000	-0.008641	-12.027347	-77.172373	137.066219	-77.172373	137.066219	-0.004799	-6.447912
0.450000	-0.010631	-13.523858	-77.233464	131.387997	-77.233464	131.387997	-0.005810	-7.252820
0.500000	-0.012734	-15.018315	-77.320114	126.072078	-77.320114	126.072078	-0.006867	-8.057127
0.550000	-0.014924	-16.510653	-77.435567	121.101801	-77.435567	121.101801	-0.007962	-8.860756
0.600000	-0.017177	-18.000827	-77.583419	116.469973	-77.583419	116.469973	-0.009089	-9.663640
0.650000	-0.019472	-19.488814	-77.767564	112.176434	-77.767564	112.176434	-0.010242	-10.465732
0.700000	-0.021791	-20.974606	-77.992208	108.227487	-77.992208	108.227487	-0.011415	-11.266992
0.750000	-0.024118	-22.458205	-78.261935	104.636541	-78.261935	104.636541	-0.012604	-12.067393
0.800000	-0.026443	-23.939619	-78.581798	101.425792	-78.581798	101.425792	-0.013803	-12.866913
0.850000	-0.028753	-25.418862	-78.957413	98.629047	-78.957413	98.629047	-0.015008	-13.665537
0.900000	-0.031042	-26.895947	-79.395006	96.296052	-79.395006	96.296052	-0.016216	-14.463256
0.950000	-0.033303	-28.370888	-79.901360	94.498990	-79.901360	94.498990	-0.017424	-15.260060
1.000000	-0.035533	-29.843699	-80.483468	93.342144	-80.483468	93.342144	-0.018629	-16.055946
1.050000	-0.037730	-31.314390	-81.147571	92.976122	-81.147571	92.976122	-0.019828	-16.850909
1.100000	-0.039891	-32.782967	-81.896782	93.617912	-81.896782	93.617912	-0.021020	-17.644945
1.150000	-0.042016	-34.249437	-82.725765	95.576049	-82.725765	95.576049	-0.022203	-18.438053
1.200000	-0.044106	-35.713800	-83.609502	99.271436	-83.609502	99.271436	-0.023376	-19.230229
1.250000	-0.046162	-37.176055	-84.482160	105.217353	-84.482160	105.217353	-0.024539	-20.021469
1.300000	-0.048184	-38.636107	-85.189087	113.963332	-85.189087	113.963332	-0.025690	-20.811728
1.350000	-0.050175	-40.094042	-85.517253	125.169651	-85.517253	125.169651	-0.026829	-21.601042
1.400000	-0.052138	-41.549853	-85.278525	137.460994	-85.278525	137.460994	-0.027958	-22.389404
1.450000	-0.054074	-43.003530	-84.472020	148.869198	-84.472020	148.869198	-0.029074	-23.176808
1.500000	-0.055987	-44.455067	-83.280653	158.081866	-83.280653	158.081866	-0.030180	-23.963246
1.550000	-0.057878	-45.904452	-81.916995	164.836464	-81.916995	164.836464	-0.031275	-24.748709
1.600000	-0.059750	-47.351679	-80.525456	169.479190	-80.525456	169.479190	-0.032360	-25.533187
1.650000	-0.061605	-48.796737	-79.179089	172.506194	-79.179089	172.506194	-0.033436	-26.316669
1.700000	-0.063445	-50.239621	-77.906785	174.352583	-77.906785	174.352583	-0.034503	-27.099146
1.750000	-0.065273	-51.680323	-76.715443	175.345949	-76.715443	175.345949	-0.035562	-27.880603
1.800000	-0.067091	-53.118840	-75.602365	175.720020	-75.602365	175.720020	-0.036614	-28.661030
1.850000	-0.068901	-54.555168	-74.561250	175.639331	-74.561250	175.639331	-0.037660	-29.440412
1.900000	-0.070704	-55.989306	-73.584885	175.220173	-73.584885	175.220173	-0.038699	-30.218737
1.950000	-0.072503	-57.421257	-72.666278	174.545685	-72.666278	174.545685	-0.039734	-30.995990
2.000000	-0.074300	-58.851025	-71.799074	173.676138	-71.799074	173.676138	-0.040764	-31.772158
2.050000	-0.076096	-60.278614	-70.977671	172.655865	-70.977671	172.655865	-0.041791	-32.547224
2.100000	-0.077892	-61.704036	-70.197187	171.517925	-70.197187	171.517925	-0.042816	-33.321176
2.150000	-0.079691	-63.127302	-69.453398	170.287285	-69.453398	170.287285	-0.043838	-34.093998
2.200000	-0.081494	-64.548428	-68.742648	168.983019	-68.742648	168.983019	-0.044860	-34.865675
2.250000	-0.083301	-65.967430	-68.061767	167.619845	-68.061767	167.619845	-0.045881	-35.636192
2.300000	-0.085115	-67.384331	-67.408003	166.209222	-67.408003	166.209222	-0.046902	-36.405535
2.350000	-0.086937	-68.799156	-66.778956	164.760141	-66.778956	164.760141	-0.047924	-37.173688
2.400000	-0.088768	-70.211931	-66.172523	163.279703	-66.172523	163.279703	-0.048947	-37.940636
2.450000	-0.090608	-71.622688	-65.586860	161.773542	-65.586860	161.773542	-0.049973	-38.706366
2.500000	-0.092460	-73.031462	-65.020336	160.246154	-65.020336	160.246154	-0.051002	-39.470862
2.550000	-0.094324	-74.438208	-64.470761	158.700503	-64.470761	158.700503	-0.052034	-40.234055
2.600000	-0.096201	-75.843055	-63.937673	157.140311	-63.937673	157.140311	-0.053070	-40.995985
2.650000	-0.098093	-77.246046	-63.419920	155.567830	-63.419920	155.567830	-0.054110	-41.756639
2.700000	-0.099999	-78.647232	-62.916475	153.984875	-62.916475	153.984875	-0.055156	-42.516002
2.750000	-0.101922	-80.046665	-62.426416	152.392905	-62.426416	152.392905	-0.056207	-43.274062
2.800000	-0.103861	-81.444400	-61.948914	150.793093	-61.948914	150.793093	-0.057264	-44.030806
2.850000	-0.105818	-82.840496	-61.483222	149.186375	-61.483222	149.186375	-0.058328	-44.786221
2.900000	-0.107794	-84.235018	-61.028666	147.573497	-61.028666	147.573497	-0.059399	-45.540295
2.950000	-0.109789	-85.628031	-60.584634	145.955051	-60.584634	145.955051	-0.060477	-46.293016
3.000000	-0.111805	-87.019605	-60.150571	144.331499	-60.150571	144.331499	-0.061563	-47.044374
3.050000	-0.113842	-88.409814	-59.725973	142.703202	-59.725973	142.703202	-0.062657	-47.794356
3.100000	-0.115900	-89.798734	-59.310382	141.070434	-59.310382	141.070434	-0.063760	-48.542952
3.150000	-0.117981	-91.186446	-58.903377	139.433404	-58.903377	139.433404	-0.064873	-49.290152
3.200000	-0.120086	-92.573035	-58.504577	137.792266	-58.504577	137.792266	-0.065995	-50.035946
3.250000	-0.122214	-93.958587	-58.113631	136.147127	-58.113631	136.147127	-0.067126	-50.780324
3.300000	-0.124368	-95.343194	-57.730220	134.498065	-57.730220	134.498065	-0.068268	-51.523277
3.350000	-0.126548	-96.726950	-57.354049	132.845128	-57.354049	132.845128	-0.069421	-52.264798
3.400000	-0.128754	-98.109953	-56.984848	131.188347	-56.984848	131.188347	-0.070585	-53.004877
3.450000	-0.130987	-99.492305	-56.622370	129.527738	-56.622370	129.527738	-0.071761	-53.743506
3.500000	-0.133249	-100.874110	-56.266387	127.863307	-56.266387	127.863307	-0.072948	-54.480679
3.550000	-0.135539	-102.255477	-55.916689	126.195058	-55.916689	126.195058	-0.074148	-55.216388
3.600000	-0.137859	-103.636518	-55.573084	124.522990	-55.573084	124.522990	-0.075360	-55.950626
3.650000	-0.140210	-105.017347	-55.235392	122.847104	-55.235392	122.847104	-0.076585	-56.683389
3.700000	-0.142592	-106.398084	-54.903449	121.167407	-54.903449	121.167407	-0.077824	-57.414669
3.750000	-0.145006	-107.778851	-54.577103	119.483910	-54.577103	119.483910	-0.079076	-58.144461
3.800000	-0.147453	-109.159786	-54.255938	117.796467	-54.255938	117.796467	-0.080343	-58.872696
3.850000	-0.149935	-110.541018	-53.940121	116.105273	-53.940121	116.105273	-0.081624	-59.599434
3.900000	-0.152451	-111.922679	-53.629532	114.410366	-53.629532	114.410366	-0.082920	-60.324671
3.950000	-0.155002	-113.304905	-53.324055	112.711796	-53.324055	112.711796	-0.084232	-61.048402
4.000000	-0.157589	-114.687837	-53.023585	111.009623	-53.023585	111.009623	-0.085559	-61.770626
4.050000	-0.160213	-116.071618	-52.728023	109.303922	-52.728023	109.303922	-0.086901	-62.491339
4.100000	-0.162875	-117.456394	-52.437278	107.594775	-52.437278	107.594775	-0.088261	-63.210539
4.150000	-0.165574	-118.842315	-52.151260	105.882281	-52.151260	105.882281	-0.089636	-63.928224
4.200000	-0.168313	-120.229535	-51.869889	104.166548	-51.869889	104.166548	-0.091029	-64.644392
4.250000	-0.171092	-121.618211	-51.593087	102.447697	-51.593087	102.447697	-0.092439	-65.359042
4.300000	-0.173911	-123.008502	-51.320779	100.725859	-51.320779	100.725859	-0.093867	-66.072173
4.350000	-0.176772	-124.400574	-51.052896	99.001176	-51.052896	99.001176	-0.095314	-66.783786
4.400000	-0.179675	-125.794593	-50.789369	97.273802	-50.789369	97.273802	-0.096778	-67.493879
4.450000	-0.182621	-127.190731	-50.530135	95.543897	-50.530135	95.543897	-0.098262	-68.202454
4.500000	-0.185610	-128.589160	-50.275129	93.811633	-50.275129	93.811633	-0.099765	-68.909510
4.550000	-0.188644	-129.990059	-50.024292	92.077187	-50.024292	92.077187	-0.101287	-69.615050
4.600000	-0.191723	-131.393610	-49.777565	90.340743	-49.777565	90.340743	-0.102830	-70.319073
4.650000	-0.194847	-132.799996	-49.534888	88.602492	-49.534888	88.602492	-0.104393	-71.021584
4.700000	-0.198019	-134.209406	-49.296206	86.862628	-49.296206	86.862628	-0.105977	-71.722582
4.750000	-0.201237	-135.622032	-49.061462	85.121348	-49.061462	85.121348	-0.107583	-72.422072
4.800000	-0.204503	-137.038069	-48.830601	83.378851	-48.830601	83.378851	-0.109210	-73.120055
4.850000	-0.207818	-138.457716	-48.603568	81.635338	-48.603568	81.635338	-0.110859	-73.816536
4.900000	-0.211182	-139.881174	-48.380308	79.891009	-48.380308	79.891009	-0.112530	-74.511517
4.950000	-0.214595	-141.308650	-48.160768	78.146061	-48.160768	78.146061	-0.114224	-75.205002
5.000000	-0.218059	-142.740352	-47.944893	76.400689	-47.944893	76.400689	-0.115942	-75.896996
5.050000	-0.221576	-144.176698	-47.732562	74.655083	-47.732562	74.655083	-0.117684	-76.587439
5.100000	-0.225145	-145.617719	-47.523800	72.909446	-47.523800	72.909446	-0.119451	-77.276401
5.150000	-0.228765	-147.063637	-47.318551	71.163955	-47.318551	71.163955	-0.121242	-77.963886
5.200000	-0.232438	-148.514675	-47.116761	69.418783	-47.116761	69.418783	-0.123058	-78.649900
5.250000	-0.236164	-149.971060	-46.918378	67.674089	-46.918378	67.674089	-0.124899	-79.334449
5.300000	-0.239943	-151.433023	-46.723346	65.930026	-46.723346	65.930026	-0.126766	-80.017540
5.350000	-0.243776	-152.900798	-46.531614	64.186736	-46.531614	64.186736	-0.128659	-80.699177
5.400000	-0.247663	-154.374622	-46.343127	62.444350	-46.343127	62.444350	-0.130579	-81.379370
5.450000	-0.251604	-155.854738	-46.157835	60.702987	-46.157835	60.702987	-0.132527	-82.058123
5.500000	-0.255600	-157.341388	-45.975686	58.962754	-45.975686	58.962754	-0.134501	-82.735445
5.550000	-0.259651	-158.834821	-45.796629	57.223745	-45.796629	57.223745	-0.136503	-83.411343
5.600000	-0.263756	-160.335287	-45.620615	55.486041	-45.620615	55.486041	-0.138534	-84.085825
5.650000	-0.267917	-161.843039	-45.447596	53.749712	-45.447596	53.749712	-0.140594	-84.758899
5.700000	-0.272133	-163.358335	-45.277525	52.014813	-45.277525	52.014813	-0.142682	-85.430573
5.750000	-0.276403	-164.881436	-45.110357	50.281387	-45.110357	50.281387	-0.144801	-86.100857
5.800000	-0.280729	-166.412602	-44.946048	48.549463	-44.946048	48.549463	-0.146949	-86.769758
5.850000	-0.285110	-167.952101	-44.784557	46.819060	-44.784557	46.819060	-0.149128	-87.437287
5.900000	-0.289546	-169.500199	-44.625844	45.090184	-44.625844	45.090184	-0.151337	-88.103452
5.950000	-0.294036	-171.057169	-44.469871	43.362830	-44.469871	43.362830	-0.153578	-88.768263
6.000000	-0.298580	-172.623282	-44.316603	41.636983	-44.316603	41.636983	-0.155851	-89.431730
6.050000	-0.303178	-174.198815	-44.166009	39.912617	-44.166009	39.912617	-0.158156	-90.093864
6.100000	-0.307829	-175.784043	-44.018058	38.189701	-44.018058	38.189701	-0.160493	-90.754674
6.150000	-0.312533	-177.379247	-43.872724	36.468194	-43.872724	36.468194	-0.162864	-91.414171
6.200000	-0.317290	-178.984707	-43.729983	34.748050	-43.729983	34.748050	-0.165267	-92.072367
6.250000	-0.322098	179.399295	-43.589815	33.029219	-43.589815	33.029219	-0.167705	-92.729272
6.300000	-0.326958	177.772113	-43.452216	31.311687	-43.452216	31.311687	-0.170178	-93.384856
6.350000	-0.331867	176.133806	-43.317164	29.595355	-43.317164	29.595355	-0.172685	-94.039173
6.400000	-0.336826	174.484092	-43.184647	27.880172	-43.184647	27.880172	-0.175228	-94.692235
6.450000	-0.341832	172.822686	-43.054661	26.166086	-43.054661	26.166086	-0.177806	-95.344054
6.500000	-0.346885	171.149304	-42.927201	24.453051	-42.927201	24.453051	-0.180420	-95.994641
6.550000	-0.351984	169.463663	-42.802269	22.741029	-42.802269	22.741029	-0.183070	-96.644010
6.600000	-0.357126	167.765482	-42.679869	21.029990	-42.679869	21.029990	-0.185757	-97.292174
6.650000	-0.362311	166.054480	-42.560010	19.319915	-42.560010	19.319915	-0.188481	-97.939144
6.700000	-0.367537	164.330379	-42.442702	17.610800	-42.442702	17.610800	-0.191243	-98.584935
6.750000	-0.372802	162.592904	-42.327961	15.902657	-42.327961	15.902657	-0.194042	-99.229559
6.800000	-0.378105	160.841782	-42.215806	14.195516	-42.215806	14.195516	-0.196879	-99.873030
6.850000	-0.383443	159.076745	-42.106259	12.489428	-42.106259	12.489428	-0.199756	-100.515362
6.900000	-0.388816	157.297374	-41.999359	10.784483	-41.999359	10.784483	-0.202671	-101.156556
6.950000	-0.394221	155.503400	-41.895138	9.080786	-41.895138	9.080786	-0.205627	-101.796628
7.000000	-0.399656	153.694725	-41.793612	7.378457	-41.793612	7.378457	-0.208622	-102.435604
7.050000	-0.405118	151.871104	-41.694814	5.677661	-41.694814	5.677661	-0.211657	-103.073498
7.100000	-0.410606	150.032300	-41.598780	3.978594	-41.598780	3.978594	-0.214733	-103.710325
7.150000	-0.416116	148.178083	-41.505545	2.281490	-41.505545	2.281490	-0.217850	-104.346101
7.200000	-0.421646	146.308233	-41.415147	0.586620	-41.415147	0.586620	-0.221008	-104.980840
7.250000	-0.427195	144.422540	-41.327626	-1.105703	-41.327626	-1.105703	-0.224208	-105.614558
7.300000	-0.432758	142.520806	-41.243020	-2.795126	-41.243020	-2.795126	-0.227449	-106.247271
7.350000	-0.438334	140.602843	-41.161368	-4.481251	-41.161368	-4.481251	-0.230733	-106.878993
7.400000	-0.443920	138.668479	-41.082707	-6.163635	-41.082707	-6.163635	-0.234060	-107.509742
7.450000	-0.449514	136.717555	-41.007075	-7.841788	-41.007075	-7.841788	-0.237429	-108.139534
7.500000	-0.455112	134.749928	-40.934506	-9.515174	-40.934506	-9.515174	-0.240841	-108.768384
7.550000	-0.460711	132.765100	-40.865089	-11.183077	-40.865089	-11.183077	-0.244299	-109.396290
7.600000	-0.466310	130.763328	-40.798800	-12.844964	-40.798800	-12.844964	-0.247800	-110.023289
7.650000	-0.471905	128.744522	-40.735663	-14.500150	-40.735663	-14.500150	-0.251345	-110.649398
7.700000	-0.477494	126.708612	-40.675700	-16.147902	-40.675700	-16.147902	-0.254935	-111.274634
7.750000	-0.483074	124.655550	-40.618923	-17.787440	-40.618923	-17.787440	-0.258570	-111.899015
7.800000	-0.488642	122.585311	-40.565343	-19.417938	-40.565343	-19.417938	-0.262250	-112.522559
7.850000	-0.494197	120.497891	-40.514961	-21.038525	-40.514961	-21.038525	-0.265975	-113.145283
7.900000	-0.499736	118.393314	-40.467772	-22.648288	-40.467772	-22.648288	-0.269747	-113.767205
7.950000	-0.505257	116.271628	-40.423762	-24.246272	-40.423762	-24.246272	-0.273564	-114.388344
8.000000	-0.510758	114.132906	-40.382910	-25.831483	-40.382910	-25.831483	-0.277428	-115.008718
8.050000	-0.516238	111.977252	-40.345184	-27.402894	-40.345184	-27.402894	-0.281338	-115.628346
8.100000	-0.521695	109.804798	-40.310543	-28.959443	-40.310543	-28.959443	-0.285296	-116.247247
8.150000	-0.527128	107.615525	-40.278966	-30.499852	-40.278966	-30.499852	-0.289301	-116.865433
8.200000	-0.532535	105.409634	-40.250388	-32.022967	-40.250388	-32.022967	-0.293354	-117.482923
8.250000	-0.537917	103.187531	-40.224703	-33.527818	-40.224703	-33.527818	-0.297454	-118.099745
8.300000	-0.543275	100.949472	-40.201823	-35.013247	-40.201823	-35.013247	-0.301603	-118.715919
8.350000	-0.548607	98.695748	-40.181648	-36.478078	-40.181648	-36.478078	-0.305800	-119.331465
8.400000	-0.553915	96.426682	-40.164066	-37.921125	-40.164066	-37.921125	-0.310046	-119.946403
8.450000	-0.559200	94.142629	-40.148951	-39.341194	-40.148951	-39.341194	-0.314341	-120.560754
8.500000	-0.564464	91.843979	-40.136163	-40.737087	-40.136163	-40.737087	-0.318684	-121.174538
8.550000	-0.569709	89.531153	-40.125548	-42.107604	-40.125548	-42.107604	-0.323077	-121.787777
8.600000	-0.574938	87.204608	-40.116938	-43.451551	-40.116938	-43.451551	-0.327520	-122.400492
8.650000	-0.580155	84.864830	-40.110151	-44.767736	-40.110151	-44.767736	-0.332012	-123.012704
8.700000	-0.585364	82.512340	-40.104988	-46.054977	-40.104988	-46.054977	-0.336554	-123.624436
8.750000	-0.590569	80.147688	-40.101235	-47.312105	-40.101235	-47.312105	-0.341147	-124.235709
8.800000	-0.595776	77.771219	-40.098682	-48.537259	-40.098682	-48.537259	-0.345791	-124.846536
8.850000	-0.600992	75.383810	-40.097051	-49.729955	-40.097051	-49.729955	-0.350487	-125.456951
8.900000	-0.606222	72.986099	-40.096077	-50.889076	-40.096077	-50.889076	-0.355233	-126.066976
8.950000	-0.611476	70.578754	-40.095475	-52.013527	-40.095475	-52.013527	-0.360031	-126.676634
9.000000	-0.616760	68.162465	-40.094942	-53.102240	-40.094942	-53.102240	-0.364880	-127.285949
9.050000	-0.622085	65.737943	-40.094157	-54.154170	-40.094157	-54.154170	-0.369781	-127.894943
9.100000	-0.627459	63.305923	-40.092773	-55.168306	-40.092773	-55.168306	-0.374734	-128.503643
9.150000	-0.632894	60.867154	-40.090426	-56.143669	-40.090426	-56.143669	-0.379739	-129.112070
9.200000	-0.638401	58.422402	-40.086722	-57.079320	-40.086722	-57.079320	-0.384797	-129.720251
9.250000	-0.643992	55.972446	-40.081245	-57.974358	-40.081245	-57.974358	-0.389908	-130.328210
9.300000	-0.649680	53.518076	-40.073549	-58.827931	-40.073549	-58.827931	-0.395072	-130.935972
9.350000	-0.655478	51.060086	-40.063158	-59.639241	-40.063158	-59.639241	-0.400289	-131.543563
9.400000	-0.661402	48.599256	-40.049522	-60.407075	-40.049522	-60.407075	-0.405560	-132.151007
9.450000	-0.667467	46.136414	-40.032075	-61.130746	-40.032075	-61.130746	-0.410886	-132.758331
9.500000	-0.673688	43.672390	-40.010263	-61.810144	-40.010263	-61.810144	-0.416266	-133.365563
9.550000	-0.680082	41.207977	-39.983456	-62.444787	-39.983456	-62.444787	-0.421701	-133.972730
9.600000	-0.686664	38.743960	-39.950972	-63.034310	-39.950972	-63.034310	-0.427190	-134.579860
9.650000	-0.693454	36.281113	-39.912080	-63.578480	-39.912080	-63.578480	-0.432734	-135.186979
9.700000	-0.700469	33.820194	-39.865990	-64.077225	-39.865990	-64.077225	-0.438334	-135.794116
9.750000	-0.707729	31.361943	-39.811846	-64.530664	-39.811846	-64.530664	-0.443989	-136.401298
9.800000	-0.715252	28.907080	-39.748723	-64.939139	-39.748723	-64.939139	-0.449700	-137.008555
9.850000	-0.723060	26.456299	-39.675618	-65.303261	-39.675618	-65.303261	-0.455467	-137.615915
9.900000	-0.731173	24.010269	-39.591442	-65.623961	-39.591442	-65.623961	-0.461292	-138.223408
9.950000	-0.739613	21.569627	-39.495010	-65.902546	-39.495010	-65.902546	-0.467173	-138.831063
10.000000	-0.748402	19.134980	-39.385031	-66.140781	-39.385031	-66.140781	-0.473111	-139.438911
