! freq	dB(S11)	phase(S11)	dB(S12)	phase(S12)	
!     	dB(S21)	phase(S21)	dB(S22)	phase(S22)	
!S-par simulation data
#  GHz  S  DB  R 50
0.000000	-139.545898	180.000000	-0.000001	0.000000	-0.000001	0.000000	-6153.053111	0.000000
0.050000	-34.240597	-93.235627	-0.003654	-2.786409	-0.003654	-2.786409	-34.240443	-92.618030
0.100000	-28.239495	-96.450335	-0.013441	-5.559259	-0.013441	-5.559259	-28.236887	-95.221373
0.150000	-24.747585	-99.630218	-0.027308	-8.315221	-0.027308	-8.315221	-24.742053	-97.798394
0.200000	-22.287074	-102.769832	-0.043926	-11.057345	-0.043926	-11.057345	-22.279079	-100.341451
0.250000	-20.393040	-105.871821	-0.062772	-13.789179	-0.062772	-13.789179	-20.383552	-102.848459
0.300000	-18.858349	-108.941336	-0.083801	-16.512103	-0.083801	-16.512103	-18.848345	-105.320194
0.350000	-17.572505	-111.984168	-0.107084	-19.226056	-0.107084	-19.226056	-17.562689	-107.759610
0.400000	-16.469422	-115.005452	-0.132644	-21.930369	-0.132644	-21.930369	-16.460145	-110.170860
0.450000	-15.507034	-118.008396	-0.160517	-24.623815	-0.160517	-24.623815	-15.498344	-112.557234
0.500000	-14.656558	-120.995237	-0.190666	-27.305188	-0.190666	-27.305188	-14.648293	-114.921799
0.550000	-13.896703	-123.967938	-0.222914	-29.974018	-0.222914	-29.974018	-13.888598	-117.267737
0.600000	-13.213152	-126.926404	-0.257247	-32.628667	-0.257247	-32.628667	-13.204899	-119.595647
0.650000	-12.594007	-129.871182	-0.293485	-35.268572	-0.293485	-35.268572	-12.585323	-121.906874
0.700000	-12.030443	-132.802102	-0.331489	-37.892821	-0.331489	-37.892821	-12.021090	-124.201679
0.750000	-11.515164	-135.719142	-0.371075	-40.500925	-0.371075	-40.500925	-11.504969	-126.480274
0.800000	-11.042341	-138.622138	-0.412066	-43.092406	-0.412066	-43.092406	-11.031197	-128.742509
0.850000	-10.607365	-141.510733	-0.454292	-45.666659	-0.454292	-45.666659	-10.595224	-130.987841
0.900000	-10.205997	-144.385043	-0.497550	-48.223700	-0.497550	-48.223700	-10.192869	-133.216154
0.950000	-9.834991	-147.244862	-0.541665	-50.763191	-0.541665	-50.763191	-9.820928	-135.426856
1.000000	-9.491528	-150.090114	-0.586449	-53.284961	-0.586449	-53.284961	-9.476616	-137.619427
1.050000	-9.173017	-152.921001	-0.631716	-55.789173	-0.631716	-55.789173	-9.157365	-139.793646
1.100000	-8.877299	-155.737687	-0.677287	-58.275932	-0.677287	-58.275932	-8.861033	-141.949207
1.150000	-8.602486	-158.540413	-0.722989	-60.745427	-0.722989	-60.745427	-8.585738	-144.085885
1.200000	-8.346916	-161.329495	-0.768653	-63.197920	-0.768653	-63.197920	-8.329819	-146.203532
1.250000	-8.109117	-164.105321	-0.814116	-65.633740	-0.814116	-65.633740	-8.091800	-148.302086
1.300000	-7.887944	-166.868143	-0.859212	-68.053022	-0.859212	-68.053022	-7.870529	-150.381255
1.350000	-7.682051	-169.618697	-0.903799	-70.456489	-0.903799	-70.456489	-7.664647	-152.441450
1.400000	-7.490390	-172.357556	-0.947737	-72.844642	-0.947737	-72.844642	-7.473093	-154.482844
1.450000	-7.312017	-175.085344	-0.990894	-75.218028	-0.990894	-75.218028	-7.294908	-156.505675
1.500000	-7.146081	-177.802729	-1.033144	-77.577229	-1.033144	-77.577229	-7.129226	-158.510242
1.550000	-6.991811	179.489578	-1.074372	-79.922866	-1.074372	-79.922866	-6.975261	-160.496897
1.600000	-6.848511	176.790832	-1.114468	-82.255585	-1.114468	-82.255585	-6.832300	-162.466036
1.650000	-6.715547	174.100255	-1.153332	-84.576060	-1.153332	-84.576060	-6.699696	-164.418097
1.700000	-6.592342	171.417041	-1.190869	-86.884984	-1.190869	-86.884984	-6.576860	-166.353548
1.750000	-6.478375	168.740361	-1.226994	-89.183069	-1.226994	-89.183069	-6.463254	-168.272887
1.800000	-6.373167	166.069364	-1.261630	-91.471040	-1.261630	-91.471040	-6.358390	-170.176630
1.850000	-6.276284	163.403181	-1.294704	-93.749632	-1.294704	-93.749632	-6.261824	-172.065310
1.900000	-6.187405	160.740961	-1.326134	-96.019504	-1.326134	-96.019504	-6.173223	-173.939320
1.950000	-6.106163	158.081775	-1.355861	-98.281428	-1.355861	-98.281428	-6.092212	-175.799228
2.000000	-6.032156	155.424672	-1.383855	-100.536252	-1.383855	-100.536252	-6.018383	-177.645744
2.050000	-5.965087	152.768735	-1.410071	-102.784727	-1.410071	-102.784727	-5.951434	-179.479417
2.100000	-5.904688	150.113038	-1.434473	-105.027604	-1.434473	-105.027604	-5.891089	178.699208
2.150000	-5.850715	147.456650	-1.457028	-107.265630	-1.457028	-107.265630	-5.837101	176.889596
2.200000	-5.802949	144.798634	-1.477711	-109.499550	-1.477711	-109.499550	-5.789247	175.091222
2.250000	-5.761191	142.138051	-1.496501	-111.730102	-1.496501	-111.730102	-5.747327	173.303575
2.300000	-5.725266	139.473957	-1.513383	-113.958017	-1.513383	-113.958017	-5.711161	171.526163
2.350000	-5.695015	136.805405	-1.528347	-116.184017	-1.528347	-116.184017	-5.680591	169.758508
2.400000	-5.670299	134.131444	-1.541388	-118.408816	-1.541388	-118.408816	-5.655476	168.000156
2.450000	-5.650996	131.451124	-1.552505	-120.633121	-1.552505	-120.633121	-5.635693	166.250674
2.500000	-5.637000	128.763490	-1.561702	-122.857624	-1.561702	-122.857624	-5.621136	164.509655
2.550000	-5.628333	126.067383	-1.568946	-125.083045	-1.568946	-125.083045	-5.611824	162.776882
2.600000	-5.624803	123.362004	-1.574292	-127.310048	-1.574292	-127.310048	-5.607569	161.051821
2.650000	-5.626351	120.646390	-1.577756	-129.539294	-1.577756	-129.539294	-5.608311	159.334148
2.700000	-5.632927	117.919576	-1.579359	-131.771427	-1.579359	-131.771427	-5.614002	157.623573
2.750000	-5.644496	115.180597	-1.579126	-134.007080	-1.579126	-134.007080	-5.624606	155.919839
2.800000	-5.661037	112.428479	-1.577084	-136.246872	-1.577084	-136.246872	-5.640104	154.222722
2.850000	-5.682538	109.662249	-1.573264	-138.491408	-1.573264	-138.491408	-5.660483	152.532039
2.900000	-5.709000	106.880926	-1.567702	-140.741278	-1.567702	-140.741278	-5.685747	150.847644
2.950000	-5.740437	104.083526	-1.560435	-142.997058	-1.560435	-142.997058	-5.715908	149.169434
3.000000	-5.776874	101.269056	-1.551505	-145.259308	-1.551505	-145.259308	-5.750990	147.497349
3.050000	-5.818344	98.436518	-1.540956	-147.528572	-1.540956	-147.528572	-5.791029	145.831379
3.100000	-5.864898	95.584904	-1.528836	-149.805381	-1.528836	-149.805381	-5.836070	144.171560
3.150000	-5.916645	92.712966	-1.515178	-152.090338	-1.515178	-152.090338	-5.886223	142.518056
3.200000	-5.973656	89.819635	-1.500038	-154.383956	-1.500038	-154.383956	-5.941554	140.871021
3.250000	-6.035963	86.904082	-1.483489	-156.686625	-1.483489	-156.686625	-6.002090	139.230605
3.300000	-6.103660	83.965240	-1.465588	-158.998803	-1.465588	-158.998803	-6.067920	137.597090
3.350000	-6.176853	81.002017	-1.446398	-161.320931	-1.446398	-161.320931	-6.139141	135.970829
3.400000	-6.255665	78.013294	-1.425983	-163.653433	-1.425983	-163.653433	-6.215864	134.352254
3.450000	-6.340227	74.997921	-1.404408	-165.996710	-1.404408	-165.996710	-6.298209	132.741882
3.500000	-6.430688	71.954704	-1.381742	-168.351147	-1.381742	-168.351147	-6.386307	131.140322
3.550000	-6.527210	68.882405	-1.358056	-170.717107	-1.358056	-170.717107	-6.480301	129.548280
3.600000	-6.629969	65.779730	-1.333424	-173.094933	-1.333424	-173.094933	-6.580342	127.966576
3.650000	-6.739156	62.645319	-1.307919	-175.484947	-1.307919	-175.484947	-6.686597	126.396147
3.700000	-6.854981	59.477738	-1.281620	-177.887447	-1.281620	-177.887447	-6.799240	124.838064
3.750000	-6.977667	56.275463	-1.254606	179.697288	-1.254606	179.697288	-6.918459	123.293543
3.800000	-7.107572	53.036036	-1.226942	177.268716	-1.226942	177.268716	-7.044562	121.764322
3.850000	-7.244842	49.758457	-1.198729	174.826883	-1.198729	174.826883	-7.177649	120.251676
3.900000	-7.389756	46.440829	-1.170052	172.371585	-1.170052	172.371585	-7.317942	118.757376
3.950000	-7.542612	43.081096	-1.140995	169.902641	-1.140995	169.902641	-7.465672	117.283414
4.000000	-7.703727	39.677010	-1.111646	167.419893	-1.111646	167.419893	-7.621082	115.832033
4.050000	-7.873440	36.226108	-1.082091	164.923212	-1.082091	164.923212	-7.784423	114.405754
4.100000	-8.052112	32.725674	-1.052422	162.412491	-1.052422	162.412491	-7.955956	113.007412
4.150000	-8.240124	29.172698	-1.022726	159.887653	-1.022726	159.887653	-8.135950	111.640191
4.200000	-8.437880	25.563829	-0.993094	157.348646	-0.993094	157.348646	-8.324677	110.307671
4.250000	-8.645805	21.895320	-0.963618	154.795444	-0.963618	154.795444	-8.522412	109.013876
4.300000	-8.864347	18.162965	-0.934389	152.228050	-0.934389	152.228050	-8.729428	107.763331
4.350000	-9.093971	14.362019	-0.905499	149.646494	-0.905499	149.646494	-8.945990	106.561125
4.400000	-9.335217	10.486235	-0.877043	147.050682	-0.877043	147.050682	-9.172391	105.413644
4.450000	-9.588572	6.529269	-0.849117	144.440703	-0.849117	144.440703	-9.408848	104.327580
4.500000	-9.854479	2.484892	-0.821808	141.816827	-0.821808	141.816827	-9.655502	103.309656
4.550000	-10.133433	-1.654948	-0.795208	139.179198	-0.795208	139.179198	-9.912485	102.368096
4.600000	-10.425914	-5.899493	-0.769405	136.527989	-0.769405	136.527989	-10.179858	101.512141
4.650000	-10.732361	-10.259380	-0.744489	133.863400	-0.744489	133.863400	-10.457578	100.752157
4.700000	-11.053152	-14.746863	-0.720548	131.185660	-0.720548	131.185660	-10.745468	100.099739
4.750000	-11.388563	-19.376080	-0.697669	128.495025	-0.697669	128.495025	-11.043170	99.567807
4.800000	-11.738715	-24.163331	-0.675936	125.791779	-0.675936	125.791779	-11.350091	99.170670
4.850000	-12.103503	-29.127380	-0.655435	123.076233	-0.655435	123.076233	-11.665331	98.924046
4.900000	-12.482497	-34.289750	-0.636245	120.348726	-0.636245	120.348726	-11.987602	98.845001
4.950000	-12.874813	-39.674966	-0.618447	117.609622	-0.618447	117.609622	-12.315123	98.951754
5.000000	-13.278933	-45.310687	-0.602119	114.859311	-0.602119	114.859311	-12.645506	99.263307
5.050000	-13.692179	-51.234495	-0.587370	112.097985	-0.587370	112.097985	-12.975258	99.804095
5.100000	-14.111112	-57.474322	-0.574241	109.326330	-0.574241	109.326330	-13.300550	100.587820
5.150000	-14.530664	-64.064715	-0.562801	106.544812	-0.562801	106.544812	-13.616366	101.630141
5.200000	-14.943923	-71.039096	-0.553117	103.753921	-0.553117	103.753921	-13.916654	102.942214
5.250000	-15.341800	-78.426021	-0.545253	100.954169	-0.545253	100.954169	-14.194358	104.528194
5.300000	-15.712859	-86.243745	-0.539267	98.146090	-0.539267	98.146090	-14.441607	106.382436
5.350000	-16.043464	-94.493181	-0.535217	95.330236	-0.535217	95.330236	-14.650077	108.486782
5.400000	-16.318455	-103.150139	-0.533155	92.507184	-0.533155	92.507184	-14.811574	110.808541
5.450000	-16.522504	-112.158743	-0.533129	89.677524	-0.533129	89.677524	-14.918788	113.299902
5.500000	-16.642112	-121.428887	-0.535186	86.841867	-0.535186	86.841867	-14.966114	115.899423
5.550000	-16.667870	-130.840457	-0.539365	84.000840	-0.539365	84.000840	-14.950379	118.535846
5.600000	-16.596318	-140.255254	-0.545704	81.155083	-0.545704	81.155083	-14.871299	121.133838
5.650000	-16.429719	-149.531448	-0.554257	78.305215	-0.554257	78.305215	-14.730883	123.618670
5.700000	-16.177655	-158.543942	-0.565054	75.451928	-0.565054	75.451928	-14.534506	125.924518
5.750000	-15.854783	-167.204280	-0.578092	72.595943	-0.578092	72.595943	-14.290001	128.002614
5.800000	-15.476517	-175.456914	-0.593390	69.737950	-0.593390	69.737950	-14.005529	129.818116
5.850000	-15.058079	176.722066	-0.610960	66.878645	-0.610960	66.878645	-13.689483	131.350957
5.900000	-14.613151	169.331607	-0.630810	64.018730	-0.630810	64.018730	-13.349874	132.593963
5.950000	-14.153204	162.353480	-0.652941	61.158910	-0.652941	61.158910	-12.993937	133.550186
6.000000	-13.687357	155.759271	-0.677352	58.299896	-0.677352	58.299896	-12.627918	134.230094
6.050000	-13.222554	149.515776	-0.704035	55.442397	-0.704035	55.442397	-12.257022	134.649019
6.100000	-12.763892	143.588709	-0.732977	52.587119	-0.732977	52.587119	-11.885460	134.825076
6.150000	-12.314976	137.944993	-0.764159	49.734770	-0.764159	49.734770	-11.516549	134.777583
6.200000	-11.878257	132.554015	-0.797558	46.886047	-0.797558	46.886047	-11.152838	134.525958
6.250000	-11.455316	127.388185	-0.833146	44.041644	-0.833146	44.041644	-10.796240	134.088983
6.300000	-11.047020	122.426930	-0.870929	41.202369	-0.870929	41.202369	-10.448064	133.481111
6.350000	-10.653974	117.644152	-0.910825	38.368798	-0.910825	38.368798	-10.109441	132.722691
6.400000	-10.276297	113.021416	-0.952788	35.541591	-0.952788	35.541591	-9.781011	131.828645
6.450000	-9.913874	108.542758	-0.996770	32.721388	-0.996770	32.721388	-9.463166	130.812509
6.500000	-9.566437	104.194379	-1.042715	29.908815	-1.042715	29.908815	-9.156106	129.686497
6.550000	-9.233612	99.964362	-1.090566	27.104478	-1.090566	27.104478	-8.859887	128.461591
6.600000	-8.914957	95.842413	-1.140259	24.308962	-1.140259	24.308962	-8.574455	127.147642
6.650000	-8.609991	91.819627	-1.191727	21.522830	-1.191727	21.522830	-8.299675	125.753474
6.700000	-8.318212	87.888292	-1.244898	18.746619	-1.244898	18.746619	-8.035353	124.286995
6.750000	-8.039112	84.041713	-1.299697	15.980843	-1.299697	15.980843	-7.781252	122.755288
6.800000	-7.772183	80.274061	-1.356045	13.225986	-1.356045	13.225986	-7.537107	121.164702
6.850000	-7.516929	76.580249	-1.413860	10.482507	-1.413860	10.482507	-7.302631	119.520934
6.900000	-7.272909	72.956531	-1.473067	7.750968	-1.473067	7.750968	-7.077566	117.828635
6.950000	-7.039659	69.398874	-1.533574	5.031779	-1.533574	5.031779	-6.861612	116.092550
7.000000	-6.816681	65.903099	-1.595281	2.325178	-1.595281	2.325178	-6.654426	114.317319
7.050000	-6.603540	62.466167	-1.658095	-0.368499	-1.658095	-0.368499	-6.455703	112.506659
7.100000	-6.399820	59.085372	-1.721921	-3.048950	-1.721921	-3.048950	-6.265141	110.663930
7.150000	-6.205121	55.758291	-1.786665	-5.715903	-1.786665	-5.715903	-6.082444	108.792172
7.200000	-6.019066	52.482746	-1.852229	-8.369118	-1.852229	-8.369118	-5.907324	106.894136
7.250000	-5.841291	49.256768	-1.918515	-11.008384	-1.918515	-11.008384	-5.739499	104.972322
7.300000	-5.671452	46.078566	-1.985426	-13.633526	-1.985426	-13.633526	-5.578699	103.028995
7.350000	-5.509220	42.946500	-2.052862	-16.244396	-2.052862	-16.244396	-5.424659	101.066217
7.400000	-5.354281	39.859063	-2.120724	-18.840876	-2.120724	-18.840876	-5.277126	99.085862
7.450000	-5.206338	36.814861	-2.188913	-21.422880	-2.188913	-21.422880	-5.135854	97.089633
7.500000	-5.065106	33.812592	-2.257330	-23.990348	-2.257330	-23.990348	-5.000609	95.079083
7.550000	-4.930406	30.851898	-2.325865	-26.542933	-2.325865	-26.542933	-4.871243	93.055374
7.600000	-4.801887	27.930722	-2.394427	-29.080949	-2.394427	-29.080949	-4.747457	91.020097
7.650000	-4.679304	25.047978	-2.462919	-31.604419	-2.462919	-31.604419	-4.629042	88.974414
7.700000	-4.562423	22.202630	-2.531245	-34.113392	-2.531245	-34.113392	-4.515797	86.919386
7.750000	-4.451021	19.393684	-2.599309	-36.607940	-2.599309	-36.607940	-4.407532	84.855975
7.800000	-4.344889	16.620181	-2.667018	-39.088159	-2.667018	-39.088159	-4.304062	82.785058
7.850000	-4.243825	13.881192	-2.734277	-41.554167	-2.734277	-41.554167	-4.205215	80.707428
7.900000	-4.147640	11.175815	-2.800996	-44.006100	-2.800996	-44.006100	-4.110823	78.623806
7.950000	-4.056151	8.503165	-2.867083	-46.444118	-2.867083	-46.444118	-4.020729	76.534842
8.000000	-3.969187	5.862378	-2.932447	-48.868399	-2.932447	-48.868399	-3.934781	74.441122
8.050000	-3.886587	3.252602	-2.997002	-51.279138	-2.997002	-51.279138	-3.852836	72.343174
8.100000	-3.808195	0.672997	-3.060659	-53.676549	-3.060659	-53.676549	-3.774760	70.241471
8.150000	-3.733903	-1.876957	-3.123315	-56.060724	-3.123315	-56.060724	-3.700457	68.136400
8.200000	-3.663571	-4.398111	-3.184883	-58.431918	-3.184883	-58.431918	-3.629805	66.028345
8.250000	-3.597032	-6.891603	-3.245294	-60.790540	-3.245294	-60.790540	-3.562657	63.917667
8.300000	-3.534165	-9.358246	-3.304465	-63.136868	-3.304465	-63.136868	-3.498905	61.804648
8.350000	-3.474857	-11.798853	-3.362314	-65.471199	-3.362314	-65.471199	-3.438452	59.689531
8.400000	-3.419000	-14.214232	-3.418758	-67.793845	-3.418758	-67.793845	-3.381205	57.572522
8.450000	-3.366495	-16.605195	-3.473718	-70.105131	-3.473718	-70.105131	-3.327077	55.453792
8.500000	-3.317249	-18.972552	-3.527113	-72.405399	-3.527113	-72.405399	-3.275990	53.333477
8.550000	-3.271178	-21.317117	-3.578862	-74.695007	-3.578862	-74.695007	-3.227873	51.211682
8.600000	-3.228204	-23.639704	-3.628888	-76.974327	-3.628888	-76.974327	-3.182658	49.088483
8.650000	-3.188253	-25.941132	-3.677111	-79.243749	-3.677111	-79.243749	-3.140288	46.963924
8.700000	-3.151262	-28.222223	-3.723452	-81.503679	-3.723452	-81.503679	-3.100710	44.838024
8.750000	-3.117173	-30.483805	-3.767834	-83.754540	-3.767834	-83.754540	-3.063880	42.710773
8.800000	-3.086023	-32.726124	-3.810103	-85.996505	-3.810103	-85.996505	-3.029840	40.582090
8.850000	-3.057678	-34.950662	-3.850253	-88.230335	-3.850253	-88.230335	-2.998476	38.451955
8.900000	-3.032101	-37.158265	-3.888205	-90.456513	-3.888205	-90.456513	-2.969763	36.320280
8.950000	-3.009262	-39.349785	-3.923882	-92.675540	-3.923882	-92.675540	-2.943683	34.186956
9.000000	-2.988994	-41.526880	-3.957344	-94.888283	-3.957344	-94.888283	-2.920086	32.051948
9.050000	-2.971541	-43.688926	-3.988269	-97.094639	-3.988269	-97.094639	-2.899218	29.914928
9.100000	-2.956779	-45.837479	-4.016686	-99.295476	-4.016686	-99.295476	-2.880971	27.775790
9.150000	-2.944707	-47.973428	-4.042517	-101.491395	-4.042517	-101.491395	-2.865356	25.634333
9.200000	-2.935596	-50.096602	-4.065410	-103.682658	-4.065410	-103.682658	-2.852652	23.490061
9.250000	-2.928965	-52.210035	-4.085796	-105.870687	-4.085796	-105.870687	-2.842398	21.343208
9.300000	-2.925071	-54.313618	-4.103358	-108.055790	-4.103358	-108.055790	-2.834857	19.193286
9.350000	-2.923947	-56.408286	-4.118019	-110.238691	-4.118019	-110.238691	-2.830072	17.040002
9.400000	-2.925261	-58.495898	-4.130099	-112.420234	-4.130099	-112.420234	-2.827720	14.883567
9.450000	-2.929835	-60.575396	-4.138694	-114.600942	-4.138694	-114.600942	-2.828634	12.722596
9.500000	-2.937334	-62.648887	-4.144150	-116.781868	-4.144150	-116.781868	-2.832488	10.557246
9.550000	-2.947832	-64.717361	-4.146387	-118.963899	-4.146387	-118.963899	-2.839363	8.387135
9.600000	-2.961412	-66.781825	-4.145327	-121.147973	-4.145327	-121.147973	-2.849349	6.211855
9.650000	-2.978171	-68.843300	-4.140893	-123.335081	-4.140893	-123.335081	-2.862549	4.030976
9.700000	-2.998220	-70.902825	-4.133009	-125.526269	-4.133009	-125.526269	-2.879078	1.844045
9.750000	-3.021681	-72.961452	-4.121597	-127.722642	-4.121597	-127.722642	-2.899062	-0.349417
9.800000	-3.048694	-75.020249	-4.106585	-129.925374	-4.106585	-129.925374	-2.922641	-2.549912
9.850000	-3.079414	-77.080300	-4.087899	-132.135705	-4.087899	-132.135705	-2.949969	-4.757969
9.900000	-3.114013	-79.142701	-4.065469	-134.354951	-4.065469	-134.354951	-2.981214	-6.974139
9.950000	-3.152681	-81.208564	-4.039228	-136.584511	-4.039228	-136.584511	-3.016564	-9.199001
10.000000	-3.195631	-83.279011	-4.009111	-138.825867	-4.009111	-138.825867	-3.056220	-11.433161
