! freq	dB(S11)	phase(S11)	dB(S12)	phase(S12)	
!     	dB(S21)	phase(S21)	dB(S22)	phase(S22)	
!S-par simulation data
#  GHz  S  DB  R 50
0.000000	-0.000000	-0.000000	-348.819967	180.000000	-348.819967	180.000000	-0.000000	-0.000000
0.050000	-0.000104	-0.804498	-115.249022	82.707104	-115.249022	82.707104	-0.000104	-0.804421
0.100000	-0.000413	-1.608740	-110.026424	79.885559	-110.026424	79.885559	-0.000413	-1.608584
0.150000	-0.000913	-2.412488	-107.118873	79.504347	-107.118873	79.504347	-0.000913	-2.412255
0.200000	-0.001583	-3.215551	-105.065189	79.759962	-105.065189	79.759962	-0.001582	-3.215240
0.250000	-0.002407	-4.017715	-103.493992	80.073146	-103.493992	80.073146	-0.002407	-4.017327
0.300000	-0.003347	-4.818948	-102.246756	80.327762	-102.246756	80.327762	-0.003347	-4.818483
0.350000	-0.004383	-5.619146	-101.249238	80.538926	-101.249238	80.538926	-0.004383	-5.618605
0.400000	-0.005492	-6.418277	-100.455048	80.753486	-100.455048	80.753486	-0.005492	-6.417659
0.450000	-0.006651	-7.216337	-99.834886	81.028575	-99.834886	81.028575	-0.006651	-7.215641
0.500000	-0.007843	-8.013344	-99.370003	81.427685	-99.370003	81.427685	-0.007842	-8.012571
0.550000	-0.009052	-8.809329	-99.048791	82.024132	-99.048791	82.024132	-0.009052	-8.808480
0.600000	-0.010267	-9.604332	-98.864754	82.908025	-98.864754	82.908025	-0.010267	-9.603406
0.650000	-0.011480	-10.398394	-98.815034	84.196611	-98.815034	84.196611	-0.011480	-10.397391
0.700000	-0.012683	-11.191555	-98.898851	86.049323	-98.898851	86.049323	-0.012684	-11.190475
0.750000	-0.013875	-11.983849	-99.115014	88.689432	-99.115014	88.689432	-0.013875	-11.982693
0.800000	-0.015051	-12.775308	-99.456900	92.432912	-99.456900	92.432912	-0.015051	-12.774075
0.850000	-0.016211	-13.565955	-99.901868	97.716890	-99.901868	97.716890	-0.016211	-13.564645
0.900000	-0.017355	-14.355807	-100.390450	105.091127	-100.390450	105.091127	-0.017355	-14.354421
0.950000	-0.018482	-15.144878	-100.794431	115.070459	-100.794431	115.070459	-0.018483	-15.143416
1.000000	-0.019594	-15.933174	-100.898491	127.707041	-100.898491	127.707041	-0.019595	-15.931635
1.050000	-0.020692	-16.720696	-100.467413	141.996083	-100.467413	141.996083	-0.020693	-16.719082
1.100000	-0.021777	-17.507445	-99.421303	155.888913	-99.421303	155.888913	-0.021778	-17.505755
1.150000	-0.022851	-18.293413	-97.917944	167.529896	-97.917944	167.529896	-0.022851	-18.291647
1.200000	-0.023913	-19.078593	-96.203796	176.321763	-96.203796	176.321763	-0.023914	-19.076752
1.250000	-0.024967	-19.862974	-94.458818	-177.386423	-94.458818	-177.386423	-0.024967	-19.861058
1.300000	-0.026012	-20.646509	-92.763899	-173.050714	-92.763899	-173.050714	-0.026012	-20.644518
1.350000	-0.027049	-21.429218	-91.165979	-170.054363	-91.165979	-170.054363	-0.027050	-21.427152
1.400000	-0.028081	-22.211085	-89.670296	-168.027960	-89.670296	-168.027960	-0.028082	-22.208945
1.450000	-0.029108	-22.992094	-88.271803	-166.712365	-88.271803	-166.712365	-0.029108	-22.989881
1.500000	-0.030130	-23.772230	-86.961976	-165.926636	-86.961976	-165.926636	-0.030130	-23.769943
1.550000	-0.031148	-24.551474	-85.731712	-165.543254	-85.731712	-165.543254	-0.031149	-24.549114
1.600000	-0.032164	-25.329810	-84.572454	-165.470978	-84.572454	-165.470978	-0.032164	-25.327376
1.650000	-0.033177	-26.107219	-83.476567	-165.643375	-83.476567	-165.643375	-0.033177	-26.104713
1.700000	-0.034187	-26.883348	-82.413864	-166.062056	-82.413864	-166.062056	-0.034187	-26.880769
1.750000	-0.035197	-27.658978	-81.436010	-166.569178	-81.436010	-166.569178	-0.035197	-27.656327
1.800000	-0.036206	-28.433407	-80.489667	-167.223610	-80.489667	-167.223610	-0.036206	-28.430684
1.850000	-0.037214	-29.206978	-79.592937	-167.983264	-79.592937	-167.983264	-0.037214	-29.204184
1.900000	-0.038222	-29.979482	-78.730990	-168.830082	-78.730990	-168.830082	-0.038222	-29.976617
1.950000	-0.039230	-30.750919	-77.902205	-169.764065	-77.902205	-169.764065	-0.039230	-30.747982
2.000000	-0.040239	-31.521435	-77.110300	-170.750210	-77.110300	-170.750210	-0.040239	-31.518428
2.050000	-0.041249	-32.290663	-76.339279	-171.809383	-76.339279	-171.809383	-0.041249	-32.287586
2.100000	-0.042260	-33.059132	-75.606477	-172.899496	-75.606477	-172.899496	-0.042260	-33.055984
2.150000	-0.043273	-33.826080	-74.885241	-174.051487	-74.885241	-174.051487	-0.043273	-33.822863
2.200000	-0.044287	-34.592440	-74.203030	-175.221135	-74.203030	-175.221135	-0.044287	-34.589154
2.250000	-0.045304	-35.357039	-73.525223	-176.443755	-73.525223	-176.443755	-0.045304	-35.353684
2.300000	-0.046323	-36.121235	-72.886858	-177.675526	-72.886858	-177.675526	-0.046323	-36.117812
2.350000	-0.047346	-36.883418	-72.247335	-178.953053	-72.247335	-178.953053	-0.047346	-36.879927
2.400000	-0.048370	-37.645395	-71.647381	179.765801	-71.647381	179.765801	-0.048370	-37.641835
2.450000	-0.049401	-38.405098	-71.041918	178.444833	-71.041918	178.444833	-0.049401	-38.401471
2.500000	-0.050431	-39.164802	-70.475925	177.123866	-70.475925	177.123866	-0.050431	-39.161107
2.550000	-0.051471	-39.921966	-69.901009	175.768024	-69.901009	175.768024	-0.051471	-39.918204
2.600000	-0.052510	-40.679129	-69.361795	174.412181	-69.361795	174.412181	-0.052510	-40.675301
2.650000	-0.053559	-41.433911	-68.817958	173.030365	-68.817958	173.030365	-0.053559	-41.430017
2.700000	-0.054609	-42.188477	-68.303083	171.646188	-68.303083	171.646188	-0.054609	-42.184517
2.750000	-0.055668	-42.940832	-67.787154	170.242637	-67.787154	170.242637	-0.055669	-42.936807
2.800000	-0.056730	-43.692745	-67.294523	168.835211	-67.294523	168.835211	-0.056730	-43.688654
2.850000	-0.057802	-44.442630	-66.803810	167.413365	-66.803810	167.413365	-0.057802	-44.438474
2.900000	-0.058877	-45.191839	-66.331607	165.986713	-66.331607	165.986713	-0.058877	-45.187619
2.950000	-0.059961	-45.939212	-65.863803	164.549396	-65.863803	164.549396	-0.059962	-45.934928
3.000000	-0.061051	-46.685668	-65.410448	163.106745	-65.410448	163.106745	-0.061052	-46.681320
3.050000	-0.062151	-47.430491	-64.963560	161.656293	-64.963560	161.656293	-0.062151	-47.426080
3.100000	-0.063257	-48.174149	-64.527660	160.200269	-64.527660	160.200269	-0.063257	-48.169674
3.150000	-0.064373	-48.916386	-64.099953	158.738637	-64.099953	158.738637	-0.064373	-48.911849
3.200000	-0.065497	-49.657203	-63.680278	157.271397	-63.680278	157.271397	-0.065498	-49.652604
3.250000	-0.066630	-50.396821	-63.270232	155.800233	-63.270232	155.800233	-0.066631	-50.392159
3.300000	-0.067775	-51.134758	-62.865687	154.323574	-62.865687	154.323574	-0.067775	-51.130035
3.350000	-0.068926	-51.871724	-62.471962	152.844277	-62.471962	152.844277	-0.068927	-51.866940
3.400000	-0.070092	-52.606747	-62.081567	151.359705	-62.081567	151.359705	-0.070093	-52.601901
3.450000	-0.071264	-53.341033	-61.702974	149.873473	-61.702974	149.873473	-0.071265	-53.336127
3.500000	-0.072454	-54.073108	-61.325847	148.382264	-61.325847	148.382264	-0.072454	-54.068142
3.550000	-0.073647	-54.804688	-60.961328	146.890129	-60.961328	146.890129	-0.073648	-54.799661
3.600000	-0.074861	-55.533787	-60.596674	145.393370	-60.596674	145.393370	-0.074862	-55.528701
3.650000	-0.076078	-56.262636	-60.245279	143.896226	-60.245279	143.896226	-0.076078	-56.257491
3.700000	-0.077319	-56.988733	-59.892375	142.394852	-59.892375	142.394852	-0.077319	-56.983529
3.750000	-0.078560	-57.714830	-59.553252	140.893479	-59.553252	140.893479	-0.078560	-57.709568
3.800000	-0.079829	-58.437903	-59.211442	139.388299	-59.211442	139.388299	-0.079830	-58.432583
3.850000	-0.081099	-59.160977	-58.882575	137.883119	-58.882575	137.883119	-0.081099	-59.155599
3.900000	-0.082396	-59.881261	-58.552503	136.375094	-58.552503	136.375094	-0.082396	-59.875825
3.950000	-0.083696	-60.601291	-58.233360	134.866810	-58.233360	134.866810	-0.083696	-60.595798
4.000000	-0.085022	-61.318772	-57.914309	133.356452	-57.914309	133.356452	-0.085022	-61.313223
4.050000	-0.086353	-62.035744	-57.604401	131.845680	-57.604401	131.845680	-0.086354	-62.030139
4.100000	-0.087710	-62.750413	-57.295721	130.333444	-57.295721	130.333444	-0.087710	-62.744752
4.150000	-0.089075	-63.464314	-56.994595	128.820722	-56.994595	128.820722	-0.089076	-63.458597
4.200000	-0.090464	-64.176163	-56.695692	127.307017	-56.695692	127.307017	-0.090465	-64.170390
4.250000	-0.091865	-64.886984	-56.402931	125.792820	-56.402931	125.792820	-0.091865	-64.881157
4.300000	-0.093287	-65.596006	-56.113260	124.278009	-56.113260	124.278009	-0.093288	-65.590125
4.350000	-0.094725	-66.303743	-55.828477	122.762760	-55.828477	122.762760	-0.094725	-66.297807
4.400000	-0.096183	-67.009936	-55.547541	121.247171	-55.547541	121.247171	-0.096183	-67.003946
4.450000	-0.097659	-67.714586	-55.270376	119.731243	-55.270376	119.731243	-0.097659	-67.708542
4.500000	-0.099153	-68.417949	-54.997716	118.215171	-54.997716	118.215171	-0.099153	-68.411852
4.550000	-0.100671	-69.119512	-54.727835	116.698899	-54.727835	116.698899	-0.100671	-69.113362
4.600000	-0.102203	-69.820048	-54.463027	115.182611	-54.463027	115.182611	-0.102202	-69.813845
4.650000	-0.103763	-70.518529	-54.200117	113.666293	-54.200117	113.666293	-0.103762	-70.512273
4.700000	-0.105334	-71.216241	-53.942771	112.150030	-53.942771	112.150030	-0.105334	-71.209933
4.750000	-0.106938	-71.911647	-53.686540	110.633934	-53.686540	110.633934	-0.106938	-71.905287
4.800000	-0.108550	-72.606542	-53.436295	109.117915	-53.436295	109.117915	-0.108550	-72.600131
4.850000	-0.110200	-73.298883	-53.186469	107.602283	-53.186469	107.602283	-0.110200	-73.292421
4.900000	-0.111855	-73.990970	-52.942990	106.086708	-52.942990	106.086708	-0.111854	-73.984456
4.950000	-0.113553	-74.680260	-52.699314	104.571758	-52.699314	104.571758	-0.113552	-74.673696
5.000000	-0.115251	-75.369549	-52.462288	103.056808	-52.462288	103.056808	-0.115251	-75.362935
5.050000	-0.116999	-76.055804	-52.224521	101.542738	-52.224521	101.542738	-0.116998	-76.049140
5.100000	-0.118746	-76.742059	-51.993090	100.028668	-51.993090	100.028668	-0.118746	-76.735345
5.150000	-0.120541	-77.425550	-51.761575	98.515569	-51.761575	98.515569	-0.120540	-77.418786
5.200000	-0.122340	-78.108789	-51.535531	97.002559	-51.535531	97.002559	-0.122339	-78.101976
5.250000	-0.124183	-78.789533	-51.309991	95.490568	-51.309991	95.490568	-0.124182	-78.782671
5.300000	-0.126036	-79.469779	-51.089140	93.978781	-51.089140	93.978781	-0.126035	-79.462867
5.350000	-0.127929	-80.147798	-50.869317	92.468024	-50.869317	92.468024	-0.127928	-80.140838
5.400000	-0.129836	-80.825075	-50.653474	90.957611	-50.653474	90.957611	-0.129835	-80.818066
5.450000	-0.131781	-81.500391	-50.439126	89.448206	-50.439126	89.448206	-0.131780	-81.493334
5.500000	-0.133744	-82.174726	-50.228117	87.939304	-50.228117	87.939304	-0.133743	-82.167621
5.550000	-0.135742	-82.847364	-50.019019	86.431359	-50.019019	86.431359	-0.135741	-82.840211
5.600000	-0.137764	-83.518788	-49.812679	84.924097	-49.812679	84.924097	-0.137763	-83.511588
5.650000	-0.139817	-84.188774	-49.608619	83.417713	-49.608619	83.417713	-0.139815	-84.181526
5.700000	-0.141899	-84.857321	-49.406792	81.912207	-49.406792	81.912207	-0.141897	-84.850026
5.750000	-0.144007	-85.524683	-49.207570	80.407480	-49.207570	80.407480	-0.144005	-85.517341
5.800000	-0.146151	-86.190387	-49.010108	78.903841	-49.010108	78.903841	-0.146150	-86.182998
5.850000	-0.148317	-86.855156	-48.815537	77.400858	-48.815537	77.400858	-0.148315	-86.847720
5.900000	-0.150525	-87.518055	-48.622300	75.899188	-48.622300	75.899188	-0.150523	-87.510573
5.950000	-0.152750	-88.180263	-48.432205	74.398033	-48.432205	74.398033	-0.152748	-88.172734
6.000000	-0.155023	-88.840397	-48.243059	72.898427	-48.243059	72.898427	-0.155021	-88.832823
6.050000	-0.157308	-89.500078	-48.057272	71.399180	-48.057272	71.399180	-0.157306	-89.492457
6.100000	-0.159649	-90.157490	-47.872091	69.901729	-47.872091	69.901729	-0.159647	-90.149824
6.150000	-0.161996	-90.814679	-47.690457	68.404463	-47.690457	68.404463	-0.161993	-90.806967
6.200000	-0.164405	-91.469415	-47.509118	66.909250	-47.509118	66.909250	-0.164403	-91.461657
6.250000	-0.166816	-92.124150	-47.331489	65.414037	-47.331489	65.414037	-0.166813	-92.116347
6.300000	-0.169296	-92.776255	-47.153879	63.921143	-47.153879	63.921143	-0.169293	-92.768407
6.350000	-0.171777	-93.428360	-46.979828	62.428249	-46.979828	62.428249	-0.171774	-93.420466
6.400000	-0.174324	-94.078099	-46.806122	60.937550	-46.806122	60.937550	-0.174321	-94.070161
6.450000	-0.176878	-94.727624	-46.635548	59.447051	-46.635548	59.447051	-0.176874	-94.719640
6.500000	-0.179492	-95.375040	-46.465611	57.958606	-46.465611	57.958606	-0.179489	-95.367011
6.550000	-0.182120	-96.022035	-46.298415	56.470573	-46.298415	56.470573	-0.182117	-96.013961
6.600000	-0.184804	-96.667172	-46.132119	54.984440	-46.132119	54.984440	-0.184801	-96.659054
6.650000	-0.187508	-97.311691	-45.968208	53.498941	-45.968208	53.498941	-0.187504	-97.303528
6.700000	-0.190263	-97.954596	-45.805432	52.015174	-45.805432	52.015174	-0.190259	-97.946388
6.750000	-0.193044	-98.596693	-45.644716	50.532273	-45.644716	50.532273	-0.193041	-98.588441
6.800000	-0.195872	-99.237413	-45.485343	49.050923	-45.485343	49.050923	-0.195868	-99.229116
6.850000	-0.198732	-99.877147	-45.327736	47.570681	-45.327736	47.570681	-0.198728	-99.868806
6.900000	-0.201634	-100.515730	-45.171658	46.091797	-45.171658	46.091797	-0.201629	-100.507344
6.950000	-0.204575	-101.153160	-45.017077	44.614272	-45.017077	44.614272	-0.204571	-101.144731
7.000000	-0.207551	-101.789656	-44.864189	43.137900	-44.864189	43.137900	-0.207547	-101.781182
7.050000	-0.210576	-102.424843	-44.712555	41.663144	-44.712555	41.663144	-0.210571	-102.416325
7.100000	-0.213628	-103.059304	-44.562757	40.189327	-44.562757	40.189327	-0.213624	-103.050742
7.150000	-0.216737	-103.692311	-44.413993	38.717390	-44.413993	38.717390	-0.216732	-103.683705
7.200000	-0.219867	-104.324790	-44.267190	37.246169	-44.267190	37.246169	-0.219862	-104.316140
7.250000	-0.223062	-104.955682	-44.121223	35.777097	-44.121223	35.777097	-0.223057	-104.946988
7.300000	-0.226272	-105.586233	-43.977325	34.308510	-43.977325	34.308510	-0.226266	-105.577494
7.350000	-0.229554	-106.215076	-43.834083	32.842344	-43.834083	32.842344	-0.229548	-106.206294
7.400000	-0.232844	-106.843754	-43.693003	31.376424	-43.693003	31.376424	-0.232839	-106.834928
7.450000	-0.236215	-107.470617	-43.552419	29.913202	-43.552419	29.913202	-0.236209	-107.461747
7.500000	-0.239588	-108.097479	-43.414074	28.449980	-43.414074	28.449980	-0.239582	-108.088565
7.550000	-0.243049	-108.722432	-43.276082	26.989734	-43.276082	26.989734	-0.243043	-108.713473
7.600000	-0.246512	-109.347384	-43.140247	25.529488	-43.140247	25.529488	-0.246506	-109.338381
7.650000	-0.250059	-109.970650	-43.004927	24.071996	-43.004927	24.071996	-0.250052	-109.961604
7.700000	-0.253614	-110.593763	-42.871543	22.614753	-42.871543	22.614753	-0.253607	-110.584673
7.750000	-0.257246	-111.215404	-42.738819	21.160032	-42.738819	21.160032	-0.257239	-111.206270
7.800000	-0.260895	-111.836751	-42.607826	19.705815	-42.607826	19.705815	-0.260888	-111.827573
7.850000	-0.264614	-112.456830	-42.477625	18.253880	-42.477625	18.253880	-0.264607	-112.447608
7.900000	-0.268358	-113.076486	-42.348967	16.802705	-42.348967	16.802705	-0.268351	-113.067221
7.950000	-0.272166	-113.695066	-42.221217	15.353565	-42.221217	15.353565	-0.272159	-113.685757
8.000000	-0.276007	-114.313108	-42.094841	13.905442	-42.094841	13.905442	-0.275999	-114.303754
8.050000	-0.279904	-114.930253	-41.969474	12.459101	-41.969474	12.459101	-0.279897	-114.920856
8.100000	-0.283843	-115.546759	-41.845326	11.014034	-41.845326	11.014034	-0.283835	-115.537317
8.150000	-0.287831	-116.162536	-41.722278	9.570494	-41.722278	9.570494	-0.287823	-116.153051
8.200000	-0.291868	-116.777585	-41.600308	8.128479	-41.600308	8.128479	-0.291860	-116.768055
8.250000	-0.295948	-117.392060	-41.479515	6.687733	-41.479515	6.687733	-0.295940	-117.382487
8.300000	-0.300086	-118.005734	-41.359674	5.248762	-41.359674	5.248762	-0.300078	-117.996117
8.350000	-0.304259	-118.618976	-41.241078	3.810799	-41.241078	3.810799	-0.304251	-118.609315
8.400000	-0.308499	-119.231357	-41.123319	2.374853	-41.123319	2.374853	-0.308490	-119.221653
8.450000	-0.312766	-119.843437	-41.006862	0.939657	-41.006862	0.939657	-0.312757	-119.833688
8.500000	-0.317109	-120.454610	-40.891139	-0.493289	-40.891139	-0.493289	-0.317100	-120.444817
8.550000	-0.321470	-121.065596	-40.776767	-1.925741	-40.776767	-1.925741	-0.321461	-121.055759
8.600000	-0.325917	-121.675647	-40.663037	-3.355720	-40.663037	-3.355720	-0.325908	-121.665767
8.650000	-0.330375	-122.285613	-40.550697	-4.785455	-40.550697	-4.785455	-0.330365	-122.275688
8.700000	-0.334927	-122.894630	-40.438919	-6.212509	-40.438919	-6.212509	-0.334917	-122.884662
8.750000	-0.339481	-123.503648	-40.328561	-7.639562	-40.328561	-7.639562	-0.339471	-123.493636
8.800000	-0.344139	-124.111721	-40.218695	-9.063739	-40.218695	-9.063739	-0.344129	-124.101665
8.850000	-0.348799	-124.719794	-40.110201	-10.487917	-40.110201	-10.487917	-0.348789	-124.709695
8.900000	-0.353556	-125.327085	-40.002280	-11.909511	-40.002280	-11.909511	-0.353545	-125.316942
8.950000	-0.358323	-125.934304	-39.895615	-13.330870	-39.895615	-13.330870	-0.358313	-125.924118
9.000000	-0.363179	-126.540890	-39.789594	-14.749936	-39.789594	-14.749936	-0.363168	-126.530660
9.050000	-0.368055	-127.147349	-39.684724	-16.168544	-39.684724	-16.168544	-0.368044	-127.137075
9.100000	-0.373010	-127.753308	-39.580560	-17.585143	-39.580560	-17.585143	-0.372999	-127.742991
9.150000	-0.377995	-128.359100	-39.477453	-19.001074	-39.477453	-19.001074	-0.377983	-128.348740
9.200000	-0.383051	-128.964513	-39.375107	-20.415275	-39.375107	-20.415275	-0.383039	-128.954110
9.250000	-0.388144	-129.569736	-39.273732	-21.828612	-39.273732	-21.828612	-0.388133	-129.559289
9.300000	-0.393302	-130.174683	-39.173167	-23.240488	-39.173167	-23.240488	-0.393290	-130.164194
9.350000	-0.398505	-130.779434	-39.073498	-24.651322	-39.073498	-24.651322	-0.398494	-130.768902
9.400000	-0.403764	-131.383998	-38.974677	-26.060954	-38.974677	-26.060954	-0.403752	-131.373423
9.450000	-0.409078	-131.988377	-38.876689	-27.469384	-38.876689	-27.469384	-0.409066	-131.977759
9.500000	-0.414439	-132.592642	-38.779581	-28.876856	-38.779581	-28.876856	-0.414427	-132.581983
9.550000	-0.419864	-133.196750	-38.683251	-30.282989	-38.683251	-30.282989	-0.419852	-133.186048
9.600000	-0.425327	-133.800802	-38.587825	-31.688393	-38.587825	-31.688393	-0.425315	-133.790059
9.650000	-0.430864	-134.404743	-38.493134	-33.092342	-38.493134	-33.092342	-0.430851	-134.393958
9.700000	-0.436430	-135.008669	-38.399363	-34.495774	-38.399363	-34.495774	-0.436417	-134.997842
9.750000	-0.442077	-135.612548	-38.306292	-35.897658	-38.306292	-35.897658	-0.442065	-135.601680
9.800000	-0.447746	-136.216435	-38.214150	-37.299219	-38.214150	-37.299219	-0.447733	-136.205525
9.850000	-0.453505	-136.820360	-38.122687	-38.699165	-38.122687	-38.699165	-0.453492	-136.809410
9.900000	-0.459276	-137.424299	-38.032152	-40.098959	-38.032152	-40.098959	-0.459264	-137.413308
9.950000	-0.465147	-138.028380	-37.942284	-41.497097	-37.942284	-41.497097	-0.465134	-138.017349
10.000000	-0.471021	-138.632460	-37.853336	-42.895234	-37.853336	-42.895234	-0.471009	-138.621390
