! freq	dB(S11)	phase(S11)	dB(S12)	phase(S12)	
!     	dB(S21)	phase(S21)	dB(S22)	phase(S22)	
!S-par simulation data
#  GHz  S  DB  R 50
0.000000	-0.000000	-0.000000	-356.559311	180.000000	-356.559311	180.000000	-0.000000	0.000000
0.050000	-0.000092	-0.773126	-109.129486	87.287433	-109.129486	87.287433	-0.000114	-0.956392
0.100000	-0.000365	-1.546043	-103.316222	85.178815	-103.316222	85.178815	-0.000454	-1.912511
0.150000	-0.000808	-2.318555	-100.040474	83.776524	-100.040474	83.776524	-0.001006	-2.868105
0.200000	-0.001407	-3.090498	-97.779193	82.867930	-97.779193	82.867930	-0.001750	-3.822957
0.250000	-0.002150	-3.861684	-96.064712	82.250195	-96.064712	82.250195	-0.002676	-4.776820
0.300000	-0.003005	-4.632071	-94.688415	81.762969	-94.688415	81.762969	-0.003740	-5.729635
0.350000	-0.003958	-5.401553	-93.552380	81.352540	-93.552380	81.352540	-0.004925	-6.681258
0.400000	-0.004987	-6.170083	-92.598350	80.991705	-92.598350	80.991705	-0.006205	-7.631619
0.450000	-0.006074	-6.937639	-91.789861	80.675273	-91.789861	80.675273	-0.007558	-8.580681
0.500000	-0.007201	-7.704219	-91.102533	80.409624	-91.102533	80.409624	-0.008961	-9.528430
0.550000	-0.008355	-8.469836	-90.519284	80.207630	-90.519284	80.207630	-0.010396	-10.474875
0.600000	-0.009523	-9.234516	-90.027749	80.086461	-90.027749	80.086461	-0.011849	-11.420033
0.650000	-0.010695	-9.998288	-89.618766	80.066926	-89.618766	80.066926	-0.013307	-12.363933
0.700000	-0.011864	-10.761184	-89.285417	80.173618	-89.285417	80.173618	-0.014761	-13.306603
0.750000	-0.013024	-11.523236	-89.022369	80.435582	-89.022369	80.435582	-0.016204	-14.248073
0.800000	-0.014172	-12.284473	-88.825370	80.887339	-88.825370	80.887339	-0.017632	-15.188371
0.850000	-0.015305	-13.044921	-88.690797	81.570234	-88.690797	81.570234	-0.019041	-16.127517
0.900000	-0.016422	-13.804602	-88.615203	82.534032	-88.615203	82.534032	-0.020429	-17.065529
0.950000	-0.017522	-14.563532	-88.594747	83.838689	-88.594747	83.838689	-0.021797	-18.002419
1.000000	-0.018605	-15.321724	-88.624460	85.556009	-88.624460	85.556009	-0.023144	-18.938193
1.050000	-0.019673	-16.079186	-88.697211	87.770589	-88.697211	87.770589	-0.024470	-19.872852
1.100000	-0.020725	-16.835922	-88.802283	90.578851	-88.802283	90.578851	-0.025777	-20.806393
1.150000	-0.021764	-17.591933	-88.923519	94.083954	-88.923519	94.083954	-0.027066	-21.738808
1.200000	-0.022789	-18.347216	-89.037204	98.383138	-89.037204	98.383138	-0.028339	-22.670087
1.250000	-0.023803	-19.101767	-89.110390	103.543288	-89.110390	103.543288	-0.029596	-23.600213
1.300000	-0.024806	-19.855543	-89.095367	109.593513	-89.095367	109.593513	-0.030840	-24.529120
1.350000	-0.025801	-20.608569	-88.947606	116.360278	-88.947606	116.360278	-0.032071	-25.456836
1.400000	-0.026787	-21.360832	-88.628360	123.566633	-88.628360	123.566633	-0.033292	-26.383342
1.450000	-0.027767	-22.112320	-88.119220	130.832309	-88.119220	130.832309	-0.034504	-27.308614
1.500000	-0.028741	-22.863018	-87.428913	137.764665	-87.428913	137.764665	-0.035708	-28.232630
1.550000	-0.029710	-23.612913	-86.589196	144.054063	-86.589196	144.054063	-0.036905	-29.155365
1.600000	-0.030676	-24.361989	-85.643106	149.522976	-85.643106	149.522976	-0.038096	-30.076794
1.650000	-0.031639	-25.110231	-84.633174	154.119632	-84.633174	154.119632	-0.039283	-30.996892
1.700000	-0.032599	-25.857622	-83.594441	157.880655	-83.594441	157.880655	-0.040466	-31.915634
1.750000	-0.033558	-26.604147	-82.552448	160.889952	-82.552448	160.889952	-0.041646	-32.832996
1.800000	-0.034516	-27.349789	-81.524180	163.248003	-81.524180	163.248003	-0.042824	-33.748952
1.850000	-0.035473	-28.094532	-80.520052	165.053792	-80.520052	165.053792	-0.044000	-34.663477
1.900000	-0.036431	-28.838360	-79.545872	166.396299	-79.545872	166.396299	-0.045175	-35.576548
1.950000	-0.037389	-29.581257	-78.604406	167.351742	-78.604406	167.351742	-0.046351	-36.488140
2.000000	-0.038349	-30.323206	-77.696490	167.983742	-77.696490	167.983742	-0.047526	-37.398229
2.050000	-0.039309	-31.064192	-76.821790	168.344703	-76.821790	168.344703	-0.048703	-38.306794
2.100000	-0.040272	-31.804200	-75.979288	168.477552	-75.979288	168.477552	-0.049880	-39.213810
2.150000	-0.041237	-32.543213	-75.167599	168.417418	-75.167599	168.417418	-0.051060	-40.119257
2.200000	-0.042204	-33.281218	-74.385165	168.193108	-74.385165	168.193108	-0.052242	-41.023113
2.250000	-0.043174	-34.018198	-73.630376	167.828327	-73.630376	167.828327	-0.053427	-41.925358
2.300000	-0.044148	-34.754141	-72.901638	167.342675	-72.901638	167.342675	-0.054615	-42.825971
2.350000	-0.045124	-35.489031	-72.197420	166.752447	-72.197420	166.752447	-0.055806	-43.724934
2.400000	-0.046105	-36.222855	-71.516268	166.071261	-71.516268	166.071261	-0.057002	-44.622227
2.450000	-0.047090	-36.955599	-70.856821	165.310564	-70.856821	165.310564	-0.058202	-45.517833
2.500000	-0.048078	-37.687250	-70.217811	164.480033	-70.217811	164.480033	-0.059407	-46.411734
2.550000	-0.049072	-38.417748	-69.596986	163.585545	-69.596986	163.585545	-0.060617	-47.303839
2.600000	-0.050071	-39.147126	-68.994458	162.637018	-68.994458	162.637018	-0.061833	-48.194205
2.650000	-0.051075	-39.875374	-68.409204	161.640374	-68.409204	161.640374	-0.063055	-49.082818
2.700000	-0.052084	-40.602479	-67.840282	160.600736	-67.840282	160.600736	-0.064283	-49.969663
2.750000	-0.053099	-41.328430	-67.286822	159.522557	-67.286822	159.522557	-0.065518	-50.854727
2.800000	-0.054120	-42.053217	-66.748018	158.409720	-66.748018	158.409720	-0.066761	-51.737996
2.850000	-0.055147	-42.776829	-66.223126	157.265628	-66.223126	157.265628	-0.068011	-52.619459
2.900000	-0.056181	-43.499256	-65.711459	156.093277	-65.711459	156.093277	-0.069269	-53.499103
2.950000	-0.057222	-44.220488	-65.212377	154.895310	-65.212377	154.895310	-0.070536	-54.376918
3.000000	-0.058270	-44.940516	-64.725287	153.674070	-64.725287	153.674070	-0.071812	-55.252894
3.050000	-0.059325	-45.659331	-64.249638	152.431641	-64.249638	152.431641	-0.073097	-56.127021
3.100000	-0.060389	-46.376925	-63.784916	151.169884	-63.784916	151.169884	-0.074392	-56.999291
3.150000	-0.061460	-47.093289	-63.330641	149.890462	-63.330641	149.890462	-0.075698	-57.869695
3.200000	-0.062540	-47.808416	-62.886367	148.594871	-62.886367	148.594871	-0.077014	-58.738225
3.250000	-0.063629	-48.522299	-62.451674	147.284455	-62.451674	147.284455	-0.078341	-59.604876
3.300000	-0.064727	-49.234930	-62.026171	145.960430	-62.026171	145.960430	-0.079680	-60.469642
3.350000	-0.065834	-49.946303	-61.609488	144.623895	-61.609488	144.623895	-0.081031	-61.332515
3.400000	-0.066951	-50.656413	-61.201280	143.275849	-61.201280	143.275849	-0.082395	-62.193493
3.450000	-0.068079	-51.365254	-60.801222	141.917200	-60.801222	141.917200	-0.083772	-63.052571
3.500000	-0.069217	-52.072821	-60.409007	140.548776	-60.409007	140.548776	-0.085162	-63.909746
3.550000	-0.070366	-52.779109	-60.024344	139.171334	-60.024344	139.171334	-0.086566	-64.765014
3.600000	-0.071526	-53.484113	-59.646961	137.785566	-59.646961	137.785566	-0.087985	-65.618375
3.650000	-0.072698	-54.187832	-59.276599	136.392108	-59.276599	136.392108	-0.089419	-66.469826
3.700000	-0.073881	-54.890260	-58.913012	134.991546	-58.913012	134.991546	-0.090868	-67.319366
3.750000	-0.075078	-55.591396	-58.555968	133.584417	-58.555968	133.584417	-0.092333	-68.166997
3.800000	-0.076287	-56.291182	-58.204908	132.170976	-58.204908	132.170976	-0.093816	-69.012634
3.850000	-0.077510	-56.989671	-57.859983	130.751963	-57.859983	130.751963	-0.095315	-69.856363
3.900000	-0.078746	-57.686864	-57.520992	129.327799	-57.520992	129.327799	-0.096832	-70.698185
3.950000	-0.079997	-58.382759	-57.187744	127.898874	-57.187744	127.898874	-0.098366	-71.538104
4.000000	-0.081262	-59.077358	-56.860053	126.465551	-56.860053	126.465551	-0.099919	-72.376121
4.050000	-0.082541	-59.770660	-56.537746	125.028166	-56.537746	125.028166	-0.101491	-73.212242
4.100000	-0.083836	-60.462669	-56.220654	123.587036	-56.220654	123.587036	-0.103083	-74.046469
4.150000	-0.085147	-61.153385	-55.908616	122.142452	-55.908616	122.142452	-0.104694	-74.878809
4.200000	-0.086473	-61.842813	-55.601479	120.694689	-55.601479	120.694689	-0.106326	-75.709266
4.250000	-0.087816	-62.530956	-55.299094	119.244002	-55.299094	119.244002	-0.107979	-76.537848
4.300000	-0.089176	-63.217819	-55.001318	117.790632	-55.001318	117.790632	-0.109653	-77.364560
4.350000	-0.090554	-63.903408	-54.708015	116.334802	-54.708015	116.334802	-0.111348	-78.189410
4.400000	-0.091949	-64.587729	-54.419052	114.876724	-54.419052	114.876724	-0.113067	-79.012407
4.450000	-0.093363	-65.270790	-54.134301	113.416594	-54.134301	113.416594	-0.114808	-79.833557
4.500000	-0.094795	-65.952600	-53.853637	111.954598	-53.853637	111.954598	-0.116572	-80.652872
4.550000	-0.096246	-66.633168	-53.576941	110.490911	-53.576941	110.490911	-0.118360	-81.470359
4.600000	-0.097718	-67.312507	-53.304095	109.025697	-53.304095	109.025697	-0.120172	-82.286030
4.650000	-0.099209	-67.990630	-53.034986	107.559110	-53.034986	107.559110	-0.122010	-83.099896
4.700000	-0.100721	-68.667549	-52.769502	106.091295	-52.769502	106.091295	-0.123872	-83.911966
4.750000	-0.102255	-69.343282	-52.507533	104.622390	-52.507533	104.622390	-0.125760	-84.722254
4.800000	-0.103810	-70.017847	-52.248973	103.152522	-52.248973	103.152522	-0.127674	-85.530772
4.850000	-0.105388	-70.691264	-51.993716	101.681814	-51.993716	101.681814	-0.129615	-86.337532
4.900000	-0.106989	-71.363555	-51.741655	100.210378	-51.741655	100.210378	-0.131583	-87.142548
4.950000	-0.108613	-72.034747	-51.492689	98.738323	-51.492689	98.738323	-0.133578	-87.945833
5.000000	-0.110262	-72.704867	-51.246711	97.265748	-51.246711	97.265748	-0.135602	-88.747403
5.050000	-0.111946	-73.373555	-51.002073	95.792613	-51.002073	95.792613	-0.137665	-89.546613
5.100000	-0.113642	-74.041797	-50.762352	94.319351	-50.762352	94.319351	-0.139742	-90.345055
5.150000	-0.115372	-74.708797	-50.524222	92.845735	-50.524222	92.845735	-0.141856	-91.141356
5.200000	-0.117128	-75.374981	-50.288946	91.371980	-50.288946	91.371980	-0.143997	-91.936147
5.250000	-0.118907	-76.040435	-50.056828	89.898101	-50.056828	89.898101	-0.146164	-92.729588
5.300000	-0.120728	-76.704809	-49.825559	88.424156	-49.825559	88.424156	-0.148373	-93.520808
5.350000	-0.122563	-77.368835	-49.598584	86.950196	-49.598584	86.950196	-0.150596	-94.311290
5.400000	-0.124452	-78.031786	-49.371189	85.476281	-49.371189	85.476281	-0.152871	-95.099173
5.450000	-0.126361	-78.694468	-49.147413	84.002404	-49.147413	84.002404	-0.155164	-95.886195
5.500000	-0.128313	-79.356575	-48.924724	82.528608	-48.924724	82.528608	-0.157495	-96.671383
5.550000	-0.130307	-80.018414	-48.703483	81.054872	-48.703483	81.054872	-0.159860	-97.455035
5.600000	-0.132331	-80.680062	-48.484870	79.581180	-48.484870	79.581180	-0.162248	-98.237588
5.650000	-0.134425	-81.341758	-48.265313	78.107456	-48.265313	78.107456	-0.164686	-99.017962
5.700000	-0.136543	-82.003547	-48.049139	76.633682	-48.049139	76.633682	-0.167141	-99.797664
5.750000	-0.138749	-82.666016	-47.831039	75.159566	-47.831039	75.159566	-0.169647	-100.575135
5.800000	-0.141004	-83.329148	-47.614810	73.685044	-47.614810	73.685044	-0.172177	-101.351691
5.850000	-0.143338	-83.993384	-47.398187	72.209848	-47.398187	72.209848	-0.174745	-102.126719
5.900000	-0.145781	-84.659687	-47.179954	70.733121	-47.179954	70.733121	-0.177353	-102.900230
5.950000	-0.148287	-85.327158	-46.963276	69.255529	-46.963276	69.255529	-0.179982	-103.672883
6.000000	-0.151017	-85.999573	-46.740015	67.773515	-46.740015	67.773515	-0.182668	-104.443454
6.050000	-0.153837	-86.674035	-46.518209	66.289386	-46.518209	66.289386	-0.185371	-105.213429
6.100000	-0.156985	-87.356068	-46.287818	64.797062	-46.287818	64.797062	-0.188126	-105.981540
6.150000	-0.160428	-88.044678	-46.053048	63.296031	-46.053048	63.296031	-0.190909	-106.748719
6.200000	-0.164264	-88.741988	-45.811165	61.783484	-45.811165	61.783484	-0.193726	-107.514666
6.250000	-0.169047	-89.457936	-45.550810	60.240163	-45.550810	60.240163	-0.196586	-108.279158
6.300000	-0.174249	-90.182086	-45.287360	58.683301	-45.287360	58.683301	-0.199465	-109.043009
6.350000	-0.182505	-90.955068	-44.974013	57.022301	-44.974013	57.022301	-0.202396	-109.804919
6.400000	-0.191745	-91.741440	-44.656707	55.327716	-44.656707	55.327716	-0.205336	-110.566480
6.450000	-0.207835	-92.609674	-44.264158	53.399314	-44.264158	53.399314	-0.208307	-111.326506
6.500000	-0.236626	-93.589805	-43.777001	51.049990	-43.777001	51.049990	-0.211283	-112.085450
6.550000	-0.297239	-94.759823	-43.133803	47.700834	-43.133803	47.700834	-0.214227	-112.843433
6.600000	-0.459794	-96.197475	-42.250506	41.411301	-42.250506	41.411301	-0.217058	-113.600989
6.650000	-0.943535	-96.696254	-41.564389	25.859017	-41.564389	25.859017	-0.219801	-114.360982
6.700000	-1.042831	-92.058597	-44.501043	6.680673	-44.501043	6.680673	-0.223776	-115.122325
6.750000	-0.538392	-91.878250	-47.433472	20.835939	-47.433472	20.835939	-0.227795	-115.874132
6.800000	-0.352411	-93.213655	-47.077850	32.557560	-47.077850	32.557560	-0.231247	-116.625175
6.850000	-0.284201	-94.358727	-46.387155	36.339850	-46.387155	36.339850	-0.234619	-117.376410
6.900000	-0.253722	-95.324681	-45.839116	37.265331	-45.839116	37.265331	-0.238016	-118.127334
6.950000	-0.238804	-96.177817	-45.413551	37.047722	-45.413551	37.047722	-0.241458	-118.877701
7.000000	-0.230996	-96.963187	-45.066493	36.327613	-45.066493	36.327613	-0.244948	-119.627435
7.050000	-0.226903	-97.705409	-44.770321	35.353379	-44.770321	35.353379	-0.248485	-120.376528
7.100000	-0.225009	-98.417818	-44.509309	34.232960	-44.509309	34.232960	-0.252069	-121.124983
7.150000	-0.224503	-99.108786	-44.273529	33.022882	-44.273529	33.022882	-0.255700	-121.872812
7.200000	-0.224922	-99.783788	-44.056502	31.754973	-44.056502	31.754973	-0.259379	-122.620036
7.250000	-0.225999	-100.446248	-43.854060	30.447443	-43.854060	30.447443	-0.263106	-123.366662
7.300000	-0.227587	-101.097996	-43.663609	29.110703	-43.663609	29.110703	-0.266887	-124.112655
7.350000	-0.229539	-101.741552	-43.482471	27.754400	-43.482471	27.754400	-0.270721	-124.858078
7.400000	-0.231668	-102.380791	-43.307489	26.389508	-43.307489	26.389508	-0.274592	-125.603143
7.450000	-0.234032	-103.014322	-43.139146	25.013257	-43.139146	25.013257	-0.278510	-126.347735
7.500000	-0.236598	-103.642600	-42.976490	23.628826	-42.976490	23.628826	-0.282487	-127.091819
7.550000	-0.239252	-104.268567	-42.817900	22.240796	-42.817900	22.240796	-0.286491	-127.835681
7.600000	-0.242116	-104.888824	-42.664333	20.846058	-42.664333	20.846058	-0.290576	-128.578942
7.650000	-0.245030	-105.507753	-42.513853	19.450133	-42.513853	19.450133	-0.294685	-129.322063
7.700000	-0.248079	-106.122902	-42.367057	18.051073	-42.367057	18.051073	-0.298860	-130.064780
7.750000	-0.251202	-106.736069	-42.223141	16.650998	-42.223141	16.650998	-0.303078	-130.807298
7.800000	-0.254401	-107.347140	-42.082029	15.249848	-42.082029	15.249848	-0.307342	-131.549605
7.850000	-0.257697	-107.955583	-41.943575	13.848120	-41.943575	13.848120	-0.311671	-132.291690
7.900000	-0.261028	-108.563107	-41.807429	12.446201	-41.807429	12.446201	-0.316025	-133.033697
7.950000	-0.264475	-109.167608	-41.673663	11.044440	-41.673663	11.044440	-0.320465	-133.775523
8.000000	-0.267954	-109.771352	-41.541959	9.642911	-41.541959	9.642911	-0.324931	-134.517330
8.050000	-0.271511	-110.373128	-41.412304	8.241986	-41.412304	8.241986	-0.329462	-135.259089
8.100000	-0.275124	-110.973577	-41.284555	6.841788	-41.284555	6.841788	-0.334043	-136.000874
8.150000	-0.278786	-111.572903	-41.158658	5.442205	-41.158658	5.442205	-0.338665	-136.742682
8.200000	-0.282527	-112.170437	-41.034498	4.044016	-41.034498	4.044016	-0.343361	-137.484626
8.250000	-0.286295	-112.767398	-40.912064	2.646304	-40.912064	2.646304	-0.348082	-138.226624
8.300000	-0.290152	-113.362465	-40.791215	1.250483	-40.791215	1.250483	-0.352888	-138.968894
8.350000	-0.294044	-113.956849	-40.671966	-0.144498	-40.671966	-0.144498	-0.357729	-139.711319
8.400000	-0.298006	-114.549869	-40.554219	-1.537802	-40.554219	-1.537802	-0.362638	-140.454054
8.450000	-0.301996	-115.142377	-40.437996	-2.930355	-40.437996	-2.930355	-0.367577	-141.196960
8.500000	-0.306068	-115.733354	-40.323154	-4.320654	-40.323154	-4.320654	-0.372599	-141.940375
8.550000	-0.310161	-116.324021	-40.209777	-5.710415	-40.209777	-5.710415	-0.377642	-142.683936
8.600000	-0.314344	-116.913134	-40.097691	-7.097490	-40.097691	-7.097490	-0.382779	-143.428217
8.650000	-0.318537	-117.502105	-39.987016	-8.484281	-39.987016	-8.484281	-0.387927	-144.172586
8.700000	-0.322829	-118.089515	-39.877556	-9.867953	-39.877556	-9.867953	-0.393178	-144.917921
8.750000	-0.327124	-118.676924	-39.769459	-11.251625	-39.769459	-11.251625	-0.398433	-145.663257
8.800000	-0.331525	-119.262777	-39.662516	-12.631750	-39.662516	-12.631750	-0.403800	-146.409838
8.850000	-0.335929	-119.848629	-39.556874	-14.011875	-39.556874	-14.011875	-0.409171	-147.156420
8.900000	-0.340431	-120.433179	-39.452365	-15.388638	-39.452365	-15.388638	-0.414646	-147.904325
8.950000	-0.344944	-121.017610	-39.349086	-16.765096	-39.349086	-16.765096	-0.420134	-148.652349
9.000000	-0.349546	-121.600965	-39.246922	-18.138415	-39.246922	-18.138415	-0.425717	-149.401743
9.050000	-0.354168	-122.184104	-39.145926	-19.511106	-39.145926	-19.511106	-0.431322	-150.151410
9.100000	-0.358871	-122.766367	-39.046026	-20.880909	-39.046026	-20.880909	-0.437015	-150.902462
9.150000	-0.363603	-123.348337	-38.947242	-22.249750	-38.947242	-22.249750	-0.442739	-151.653975
9.200000	-0.368408	-123.929608	-38.849534	-23.615978	-38.849534	-23.615978	-0.448541	-152.406858
9.250000	-0.373249	-124.510528	-38.752896	-24.980900	-38.752896	-24.980900	-0.454384	-153.160425
9.300000	-0.378155	-125.090904	-38.657313	-26.343501	-38.657313	-26.343501	-0.460296	-153.915314
9.350000	-0.383108	-125.670892	-38.562764	-27.704446	-38.562764	-27.704446	-0.466259	-154.671147
9.400000	-0.388116	-126.250470	-38.469245	-29.063378	-38.469245	-29.063378	-0.472281	-155.428220
9.450000	-0.393180	-126.829638	-38.376733	-30.420298	-38.376733	-30.420298	-0.478364	-156.186534
9.500000	-0.398290	-127.408513	-38.285221	-31.775524	-38.285221	-31.775524	-0.484498	-156.945973
9.550000	-0.403465	-127.986976	-38.194697	-33.128381	-38.194697	-33.128381	-0.490701	-157.706988
9.600000	-0.408679	-128.565242	-38.105141	-34.479872	-38.105141	-34.479872	-0.496945	-158.468978
9.650000	-0.413967	-129.143112	-38.016563	-35.828634	-38.016563	-35.828634	-0.503269	-159.232918
9.700000	-0.419284	-129.720863	-37.928913	-37.176366	-37.928913	-37.176366	-0.509625	-159.997645
9.750000	-0.424684	-130.298254	-37.842241	-38.521010	-37.842241	-38.521010	-0.516069	-160.764738
9.800000	-0.430105	-130.875584	-37.756454	-39.864964	-37.756454	-39.864964	-0.522536	-161.532395
9.850000	-0.435619	-131.452608	-37.671650	-41.205470	-37.671650	-41.205470	-0.529100	-162.302874
9.900000	-0.441145	-132.029612	-37.587684	-42.545631	-37.587684	-42.545631	-0.535679	-163.073654
9.950000	-0.446773	-132.606384	-37.504716	-43.881989	-37.504716	-43.881989	-0.542363	-163.847755
10.000000	-0.452404	-133.183156	-37.422532	-45.218347	-37.422532	-45.218347	-0.549053	-164.621856
