! freq	dB(S11)	phase(S11)	dB(S12)	phase(S12)	
!     	dB(S21)	phase(S21)	dB(S22)	phase(S22)	
!S-par simulation data
#  GHz  S  DB  R 50
0.000000	0.000000	0.000000	-291.787525	180.000000	-291.787525	180.000000	-0.000000	-0.000000
0.050000	-0.000105	-0.993078	-87.360640	107.700133	-87.360640	107.700133	-0.000105	-0.993276
0.100000	-0.000418	-1.985929	-81.384159	97.364103	-81.384159	97.364103	-0.000419	-1.986325
0.150000	-0.000935	-2.978319	-77.872667	93.227200	-77.872667	93.227200	-0.000937	-2.978910
0.200000	-0.001629	-3.970095	-75.379732	90.595875	-75.379732	90.595875	-0.001632	-3.970880
0.250000	-0.002490	-4.961074	-73.446585	88.610060	-73.446585	88.610060	-0.002494	-4.962052
0.300000	-0.003514	-5.951014	-71.868338	86.970671	-71.868338	86.970671	-0.003519	-5.952182
0.350000	-0.004654	-6.939965	-70.535012	85.496648	-70.535012	85.496648	-0.004661	-6.941321
0.400000	-0.005909	-7.927687	-69.381404	84.150274	-69.381404	84.150274	-0.005917	-7.929229
0.450000	-0.007269	-8.913775	-68.365723	82.901166	-68.365723	82.901166	-0.007279	-8.915501
0.500000	-0.008669	-9.899197	-67.457407	81.687315	-67.457407	81.687315	-0.008680	-9.901106
0.550000	-0.010123	-10.883046	-66.637237	80.525606	-66.637237	80.525606	-0.010135	-10.885137
0.600000	-0.011615	-11.865771	-65.889243	79.401142	-65.889243	79.401142	-0.011628	-11.868043
0.650000	-0.013123	-12.847157	-65.202088	78.307442	-65.202088	78.307442	-0.013137	-12.849609
0.700000	-0.014648	-13.827203	-64.566728	77.244507	-64.566728	77.244507	-0.014661	-13.829836
0.750000	-0.016169	-14.806164	-63.975644	76.201912	-63.975644	76.201912	-0.016183	-14.808979
0.800000	-0.017685	-15.783607	-63.423483	75.187793	-63.423483	75.187793	-0.017699	-15.786603
0.850000	-0.019191	-16.760210	-62.904814	74.187892	-62.904814	74.187892	-0.019205	-16.763387
0.900000	-0.020675	-17.735133	-62.416285	73.216425	-62.416285	73.216425	-0.020689	-17.738493
0.950000	-0.022150	-18.709441	-61.953895	72.254850	-61.953895	72.254850	-0.022163	-18.712985
1.000000	-0.023592	-19.681909	-61.515220	71.322947	-61.515220	71.322947	-0.023605	-19.685636
1.050000	-0.025026	-20.653972	-61.097542	70.397372	-61.097542	70.397372	-0.025039	-20.657884
1.100000	-0.026423	-21.624017	-60.698561	69.503430	-60.698561	69.503430	-0.026436	-21.628114
1.150000	-0.027816	-22.593860	-60.316958	68.612573	-60.316958	68.612573	-0.027829	-22.598143
1.200000	-0.029170	-23.561482	-59.949874	67.755653	-59.949874	67.755653	-0.029182	-23.565952
1.250000	-0.030524	-24.529105	-59.597677	66.898732	-59.597677	66.898732	-0.030536	-24.533762
1.300000	-0.031840	-25.494277	-59.256307	66.078102	-59.256307	66.078102	-0.031852	-25.499122
1.350000	-0.033156	-26.459449	-58.927848	65.257472	-58.927848	65.257472	-0.033167	-26.464482
1.400000	-0.034443	-27.422329	-58.607507	64.469374	-58.607507	64.469374	-0.034455	-27.427550
1.450000	-0.035728	-28.385000	-58.298224	63.684234	-58.298224	63.684234	-0.035739	-28.390410
1.500000	-0.036992	-29.345532	-57.994920	62.927796	-57.994920	62.927796	-0.037003	-29.351130
1.550000	-0.038252	-30.305635	-57.700951	62.177100	-57.700951	62.177100	-0.038263	-30.311422
1.600000	-0.039498	-31.263755	-57.411322	61.451174	-57.411322	61.451174	-0.039510	-31.269731
1.650000	-0.040739	-32.221213	-57.129335	60.733505	-57.129335	60.733505	-0.040752	-32.227379
1.700000	-0.041972	-33.176853	-56.850500	60.036611	-56.850500	60.036611	-0.041985	-33.183208
1.750000	-0.043202	-34.131584	-56.577569	59.350104	-56.577569	59.350104	-0.043214	-34.138129
1.800000	-0.044426	-35.084675	-56.307025	58.680390	-56.307025	58.680390	-0.044439	-35.091409
1.850000	-0.045648	-36.036595	-56.040548	58.022671	-56.040548	58.022671	-0.045661	-36.043518
1.900000	-0.046868	-36.987068	-55.776100	57.377888	-55.776100	57.377888	-0.046882	-36.994181
1.950000	-0.048087	-37.936094	-55.513738	56.746044	-55.513738	56.746044	-0.048101	-37.943397
2.000000	-0.049306	-38.883883	-55.253445	56.123536	-55.253445	56.123536	-0.049321	-38.891375
2.050000	-0.050526	-39.829938	-54.993083	55.514103	-54.993083	55.514103	-0.050541	-39.837621
2.100000	-0.051747	-40.774980	-54.735220	54.910805	-54.735220	54.910805	-0.051763	-40.782853
2.150000	-0.052971	-41.717994	-54.474935	54.319781	-54.474935	54.319781	-0.052988	-41.726057
2.200000	-0.054197	-42.660232	-54.217971	53.732233	-54.217971	53.732233	-0.054214	-42.668486
2.250000	-0.055429	-43.600142	-53.956012	53.155114	-53.956012	53.155114	-0.055446	-43.608587
2.300000	-0.056663	-44.539525	-53.698589	52.579487	-53.698589	52.579487	-0.056680	-44.548162
2.350000	-0.057904	-45.476278	-53.433364	52.011322	-53.433364	52.011322	-0.057923	-45.485106
2.400000	-0.059147	-46.412765	-53.174278	51.443460	-53.174278	51.443460	-0.059166	-46.421785
2.450000	-0.060401	-47.346319	-52.904340	50.878928	-52.904340	50.878928	-0.060421	-47.355532
2.500000	-0.061656	-48.279874	-52.642538	50.314395	-52.642538	50.314395	-0.061676	-48.289280
2.550000	-0.062925	-49.210200	-52.366571	49.747901	-52.366571	49.747901	-0.062945	-49.219801
2.600000	-0.064194	-50.140527	-52.099102	49.181406	-52.099102	49.181406	-0.064215	-50.150322
2.650000	-0.065479	-51.067880	-51.817944	48.607832	-51.817944	48.607832	-0.065500	-51.077871
2.700000	-0.066765	-51.994963	-51.543696	48.033614	-51.543696	48.033614	-0.066786	-52.005150
2.750000	-0.068066	-52.919343	-51.256581	47.448117	-51.256581	47.448117	-0.068089	-52.929728
2.800000	-0.069371	-53.843182	-50.974543	46.860366	-50.974543	46.860366	-0.069394	-53.853765
2.850000	-0.070692	-54.764600	-50.680806	46.258157	-50.680806	46.258157	-0.070716	-54.775383
2.900000	-0.072019	-55.685211	-50.390052	45.651128	-50.390052	45.651128	-0.072042	-55.696195
2.950000	-0.073360	-56.603693	-50.089110	45.027540	-50.089110	45.027540	-0.073384	-56.614880
3.000000	-0.074710	-57.521111	-49.788782	44.395673	-49.788782	44.395673	-0.074734	-57.532501
3.050000	-0.076074	-58.436699	-49.480119	43.746233	-49.480119	43.746233	-0.076099	-58.448295
3.100000	-0.077450	-59.350980	-49.169391	43.084241	-49.169391	43.084241	-0.077475	-59.362782
3.150000	-0.078839	-60.263731	-48.852536	42.404724	-48.852536	42.404724	-0.078865	-60.275743
3.200000	-0.080243	-61.174954	-48.530588	41.707682	-48.530588	41.707682	-0.080269	-61.187178
3.250000	-0.081659	-62.084949	-48.205094	40.994159	-48.205094	40.994159	-0.081686	-62.097385
3.300000	-0.083094	-62.993222	-47.871072	40.257560	-47.871072	40.257560	-0.083121	-63.005875
3.350000	-0.084540	-63.900560	-47.536494	39.506423	-47.536494	39.506423	-0.084568	-63.913430
3.400000	-0.086009	-64.806026	-47.189468	38.726209	-47.189468	38.726209	-0.086038	-64.819118
3.450000	-0.087487	-65.710836	-46.845335	37.934192	-46.845335	37.934192	-0.087517	-65.724150
3.500000	-0.088994	-66.613675	-46.484242	37.106763	-46.484242	37.106763	-0.089024	-66.627218
3.550000	-0.090508	-67.516116	-46.130039	36.270938	-46.130039	36.270938	-0.090539	-67.529887
3.600000	-0.092057	-68.416561	-45.753626	35.393127	-45.753626	35.393127	-0.092088	-68.430568
3.650000	-0.093610	-69.316831	-45.388761	34.510886	-45.388761	34.510886	-0.093642	-69.331074
3.700000	-0.095206	-70.215175	-44.995511	33.579909	-44.995511	33.579909	-0.095239	-70.229664
3.750000	-0.096803	-71.113520	-44.619296	32.648932	-44.619296	32.648932	-0.096836	-71.128253
3.800000	-0.098452	-72.010139	-44.207328	31.662303	-44.207328	31.662303	-0.098487	-72.025128
3.850000	-0.100102	-72.906758	-43.814017	30.675675	-43.814017	30.675675	-0.100138	-72.922002
3.900000	-0.101808	-73.802238	-43.385911	29.635921	-43.385911	29.635921	-0.101845	-73.817750
3.950000	-0.103520	-74.697614	-42.973435	28.591337	-42.973435	28.591337	-0.103558	-74.713395
4.000000	-0.105291	-75.592478	-42.527312	27.496549	-42.527312	27.496549	-0.105330	-75.608540
4.050000	-0.107074	-76.487238	-42.093053	26.391721	-42.093053	26.391721	-0.107115	-76.503585
4.100000	-0.108922	-77.382159	-41.626572	25.239832	-41.626572	25.239832	-0.108964	-77.398806
4.150000	-0.110792	-78.277133	-41.167180	24.072257	-41.167180	24.072257	-0.110836	-78.294084
4.200000	-0.112713	-79.172660	-40.692454	22.872081	-40.692454	22.872081	-0.112758	-79.189928
4.250000	-0.114696	-80.069091	-40.197430	21.634484	-40.197430	21.634484	-0.114744	-80.086691
4.300000	-0.116742	-80.966727	-39.687111	20.363860	-39.687111	20.363860	-0.116791	-80.984673
4.350000	-0.118858	-81.865991	-39.160110	19.059084	-39.160110	19.059084	-0.118910	-81.884300
4.400000	-0.121056	-82.767388	-38.614832	17.718801	-38.614832	17.718801	-0.121110	-82.786080
4.450000	-0.123348	-83.671523	-38.049439	16.341357	-38.049439	16.341357	-0.123406	-83.690619
4.500000	-0.125753	-84.579128	-37.461797	14.924713	-37.461797	14.924713	-0.125814	-84.598653
4.550000	-0.128293	-85.491096	-36.849416	13.466323	-36.849416	13.466323	-0.128358	-85.511080
4.600000	-0.130979	-86.407914	-36.216599	11.967303	-36.216599	11.967303	-0.131049	-86.428389
4.650000	-0.133885	-87.332132	-35.545315	10.414791	-35.545315	10.414791	-0.133960	-87.353142
4.700000	-0.137048	-88.264955	-34.838666	8.807915	-34.838666	8.807915	-0.137130	-88.286550
4.750000	-0.140543	-89.208645	-34.091601	7.139709	-34.091601	7.139709	-0.140633	-89.230885
4.800000	-0.144477	-90.166163	-33.297936	5.400891	-33.297936	5.400891	-0.144576	-90.189125
4.850000	-0.149005	-91.141470	-32.449994	3.578866	-32.449994	3.578866	-0.149116	-91.165246
4.900000	-0.154345	-92.139627	-31.540154	1.657588	-31.540154	1.657588	-0.154472	-92.164336
4.950000	-0.160891	-93.169031	-30.551076	-0.391088	-30.551076	-0.391088	-0.161038	-93.194833
5.000000	-0.169218	-94.240319	-29.468887	-2.602085	-29.468887	-2.602085	-0.169393	-94.267424
5.050000	-0.180388	-95.371090	-28.267206	-5.035041	-28.267206	-5.035041	-0.180603	-95.399796
5.100000	-0.196195	-96.586393	-26.919853	-7.775817	-26.919853	-7.775817	-0.196470	-96.617120
5.150000	-0.220335	-97.930589	-25.377723	-10.981448	-25.377723	-10.981448	-0.220704	-97.963981
5.200000	-0.260716	-99.479894	-23.572980	-14.933490	-23.572980	-14.933490	-0.261247	-99.516986
5.250000	-0.337397	-101.380878	-21.391028	-20.218189	-21.391028	-20.218189	-0.338244	-101.423492
5.300000	-0.510348	-103.915484	-18.653365	-28.198404	-18.653365	-28.198404	-0.511928	-103.967127
5.350000	-1.011551	-107.440923	-15.108580	-42.739830	-15.108580	-42.739830	-1.015414	-107.508534
5.400000	-2.681828	-107.577049	-11.208269	-75.286375	-11.208269	-75.286375	-2.695390	-107.649791
5.450000	-2.517032	-90.542328	-11.453170	-126.521899	-11.453170	-126.521899	-2.529151	-90.502632
5.500000	-1.014829	-91.365906	-15.196418	-156.018170	-15.196418	-156.018170	-1.018413	-91.336672
5.550000	-0.556121	-94.606705	-18.391072	-169.448422	-18.391072	-169.448422	-0.557667	-94.592424
5.600000	-0.389942	-96.980165	-20.803990	-177.057188	-20.803990	-177.057188	-0.390804	-96.974398
5.650000	-0.314785	-98.791545	-22.684165	177.769825	-22.684165	177.769825	-0.315345	-98.791049
5.700000	-0.275347	-100.286307	-24.209151	173.798619	-24.209151	173.798619	-0.275748	-100.289397
5.750000	-0.252952	-101.587830	-25.473338	170.515128	-25.473338	170.515128	-0.253261	-101.593516
5.800000	-0.239277	-102.770230	-26.556756	167.639069	-26.556756	167.639069	-0.239527	-102.777918
5.850000	-0.230865	-103.869125	-27.491359	165.040552	-27.491359	165.040552	-0.231076	-103.878406
5.900000	-0.225657	-104.910212	-28.311587	162.629691	-28.311587	162.629691	-0.225840	-104.920805
5.950000	-0.222569	-105.908656	-29.037523	160.354618	-29.037523	160.354618	-0.222732	-105.920362
6.000000	-0.220917	-106.875441	-29.687339	158.178865	-29.687339	158.178865	-0.221066	-106.888110
6.050000	-0.220228	-107.819354	-30.280697	156.074138	-30.280697	156.074138	-0.220365	-107.832881
6.100000	-0.220378	-108.741889	-30.810161	154.035481	-30.810161	154.035481	-0.220507	-108.756179
6.150000	-0.221074	-109.649654	-31.296267	152.042604	-31.296267	152.042604	-0.221197	-109.664640
6.200000	-0.222212	-110.544930	-31.742531	150.088889	-31.742531	150.088889	-0.222330	-110.560559
6.250000	-0.223737	-111.428852	-32.148016	148.171632	-32.148016	148.171632	-0.223851	-111.445077
6.300000	-0.225532	-112.304608	-32.524906	146.281581	-32.524906	146.281581	-0.225644	-112.321395
6.350000	-0.227585	-113.172479	-32.870435	144.419160	-32.870435	144.419160	-0.227693	-113.189795
6.400000	-0.229870	-114.033120	-33.184403	142.584154	-33.184403	142.584154	-0.229978	-114.050940
6.450000	-0.232266	-114.890350	-33.487780	140.762754	-33.487780	140.762754	-0.232373	-114.908661
6.500000	-0.234887	-115.740725	-33.755690	138.971883	-33.755690	138.971883	-0.234993	-115.759502
6.550000	-0.237615	-116.587937	-34.009957	137.197545	-34.009957	137.197545	-0.237720	-116.607170
6.600000	-0.240446	-117.432137	-34.250146	135.439501	-34.250146	135.439501	-0.240552	-117.451817
6.650000	-0.243425	-118.272214	-34.466266	133.707364	-34.466266	133.707364	-0.243531	-118.292328
6.700000	-0.246523	-119.109244	-34.663888	131.999427	-34.663888	131.999427	-0.246630	-119.129784
6.750000	-0.249681	-119.944750	-34.853848	130.303590	-34.853848	130.303590	-0.249789	-119.965713
6.800000	-0.252949	-120.777794	-35.026732	128.633898	-35.026732	128.633898	-0.253058	-120.799175
6.850000	-0.256296	-121.609080	-35.187618	126.982881	-35.187618	126.982881	-0.256406	-121.630875
6.900000	-0.259729	-122.438785	-35.335928	125.355852	-35.335928	125.355852	-0.259841	-122.460992
6.950000	-0.263248	-123.266908	-35.470956	123.752813	-35.470956	123.752813	-0.263361	-123.289526
7.000000	-0.266834	-124.094077	-35.596786	122.171385	-35.596786	122.171385	-0.266950	-124.117105
7.050000	-0.270515	-124.919910	-35.708395	120.620212	-35.708395	120.620212	-0.270633	-124.943347
7.100000	-0.274248	-125.745228	-35.813405	119.087784	-35.813405	119.087784	-0.274368	-125.769076
7.150000	-0.278083	-126.569515	-35.903422	117.592846	-35.903422	117.592846	-0.278206	-126.593776
7.200000	-0.281958	-127.393581	-35.988902	116.113134	-35.988902	116.113134	-0.282083	-127.418257
7.250000	-0.285946	-128.216985	-36.058652	114.679099	-36.058652	114.679099	-0.286074	-128.242079
7.300000	-0.289960	-129.040341	-36.125575	113.256014	-36.125575	113.256014	-0.290091	-129.065857
7.350000	-0.294098	-129.863466	-36.175950	111.887684	-36.175950	111.887684	-0.294232	-129.889409
7.400000	-0.298251	-130.686615	-36.225006	110.525229	-36.225006	110.525229	-0.298388	-130.712987
7.450000	-0.302541	-131.510034	-36.256513	109.227396	-36.256513	109.227396	-0.302682	-131.536845
7.500000	-0.306834	-132.333453	-36.288134	107.929564	-36.288134	107.929564	-0.306977	-132.360702
7.550000	-0.311278	-133.157722	-36.300920	106.706864	-36.300920	106.706864	-0.311425	-133.185424
7.600000	-0.315725	-133.981992	-36.313724	105.484163	-36.313724	105.484163	-0.315876	-134.010147
7.650000	-0.320315	-134.807549	-36.309165	104.334294	-36.309165	104.334294	-0.320470	-134.836173
7.700000	-0.324920	-135.633224	-36.303031	103.191046	-36.303031	103.191046	-0.325079	-135.662317
7.750000	-0.329661	-136.460542	-36.280671	102.117200	-36.280671	102.117200	-0.329823	-136.490122
7.800000	-0.334430	-137.288189	-36.255135	101.057235	-36.255135	101.057235	-0.334597	-137.318259
7.850000	-0.339327	-138.117759	-36.214295	100.062087	-36.214295	100.062087	-0.339498	-138.148336
7.900000	-0.344269	-138.947971	-36.168550	99.088545	-36.168550	99.088545	-0.344444	-138.979061
7.950000	-0.349330	-139.780313	-36.108325	98.174102	-36.108325	98.174102	-0.349509	-139.811934
8.000000	-0.354452	-140.613720	-36.041215	97.289207	-36.041215	97.289207	-0.354636	-140.645882
8.050000	-0.359687	-141.449392	-35.960478	96.456636	-35.960478	96.456636	-0.359876	-141.482114
8.100000	-0.365003	-142.286681	-35.870490	95.661437	-35.870490	95.661437	-0.365196	-142.319977
8.150000	-0.370423	-143.126293	-35.767893	94.910878	-35.767893	94.910878	-0.370621	-143.160182
8.200000	-0.375947	-143.968228	-35.653142	94.204957	-35.653142	94.204957	-0.376151	-144.002728
8.250000	-0.381567	-144.812458	-35.527132	93.535320	-35.527132	93.535320	-0.381776	-144.847588
8.300000	-0.387319	-145.659901	-35.385351	92.916479	-35.385351	92.916479	-0.387533	-145.695687
8.350000	-0.393149	-146.509312	-35.235262	92.323031	-35.235262	92.323031	-0.393369	-146.545771
8.400000	-0.399131	-147.362661	-35.066945	91.780368	-35.066945	91.780368	-0.399358	-147.399824
8.450000	-0.405253	-148.219723	-34.882384	91.276221	-34.882384	91.276221	-0.405486	-148.257623
8.500000	-0.411470	-149.079290	-34.688844	90.798051	-34.688844	90.798051	-0.411710	-149.117946
8.550000	-0.417909	-149.945015	-34.468102	90.370157	-34.468102	90.370157	-0.418157	-149.984479
8.600000	-0.424424	-150.812765	-34.242638	89.956691	-34.242638	89.956691	-0.424680	-150.853054
8.650000	-0.431196	-151.687734	-33.987055	89.587453	-33.987055	89.587453	-0.431462	-151.728910
8.700000	-0.438104	-152.566424	-33.720316	89.234094	-33.720316	89.234094	-0.438380	-152.608519
8.750000	-0.445223	-153.450963	-33.433443	88.905686	-33.433443	88.905686	-0.445510	-153.494027
8.800000	-0.452607	-154.342795	-33.120758	88.596256	-33.120758	88.596256	-0.452907	-154.386893
8.850000	-0.460136	-155.238507	-32.801020	88.296922	-32.801020	88.296922	-0.460449	-155.283674
8.900000	-0.468114	-156.146282	-32.437124	88.011420	-32.437124	88.011420	-0.468443	-156.192625
8.950000	-0.476248	-157.057981	-32.070120	87.726927	-32.070120	87.726927	-0.476595	-157.105537
9.000000	-0.484882	-157.982513	-31.661946	87.441301	-31.661946	87.441301	-0.485251	-158.031399
9.050000	-0.493769	-158.913127	-31.246042	87.149949	-31.246042	87.149949	-0.494161	-158.963398
9.100000	-0.503223	-159.857322	-30.793216	86.842369	-30.793216	86.842369	-0.503643	-159.909107
9.150000	-0.513228	-160.814054	-30.312749	86.512749	-30.312749	86.512749	-0.513682	-160.867471
9.200000	-0.523883	-161.784880	-29.803273	86.153061	-29.803273	86.153061	-0.524376	-161.840063
9.250000	-0.535394	-162.773304	-29.257032	85.749836	-29.257032	85.749836	-0.535934	-162.830424
9.300000	-0.547892	-163.780766	-28.675899	85.294237	-28.675899	85.294237	-0.548487	-163.840008
9.350000	-0.561571	-164.809615	-28.059415	84.775392	-28.059415	84.775392	-0.562233	-164.871192
9.400000	-0.576714	-165.863174	-27.405303	84.179592	-27.405303	84.179592	-0.577455	-165.927332
9.450000	-0.593689	-166.945488	-26.710971	83.490753	-26.710971	83.490753	-0.594528	-167.012520
9.500000	-0.612994	-168.061531	-25.973450	82.689685	-25.973450	82.689685	-0.613951	-168.131784
9.550000	-0.635370	-169.218318	-25.187031	81.750119	-25.187031	81.750119	-0.636474	-169.292221
9.600000	-0.662059	-170.426796	-24.340235	80.631712	-24.340235	80.631712	-0.663349	-170.504906
9.650000	-0.694267	-171.694346	-23.435950	79.305569	-23.435950	79.305569	-0.695793	-171.777318
9.700000	-0.734044	-173.033814	-22.468394	77.722062	-22.468394	77.722062	-0.735874	-173.122473
9.750000	-0.785005	-174.465784	-21.422515	75.799173	-21.422515	75.799173	-0.787241	-174.561248
9.800000	-0.851934	-176.009717	-20.294373	73.449216	-20.294373	73.449216	-0.854723	-176.113429
9.850000	-0.942876	-177.692017	-19.073840	70.537203	-19.073840	70.537203	-0.946446	-177.805934
9.900000	-1.071768	-179.543388	-17.747092	66.857011	-17.747092	66.857011	-1.076499	-179.670254
9.950000	-1.260620	178.420903	-16.312950	62.138476	-16.312950	62.138476	-1.267169	178.277357
10.000000	-1.549742	176.230534	-14.770333	55.945063	-14.770333	55.945063	-1.559370	176.065317
