! freq	dB(S11)	phase(S11)	dB(S12)	phase(S12)	
!     	dB(S21)	phase(S21)	dB(S22)	phase(S22)	
!S-par simulation data
#  GHz  S  DB  R 50
0.000000	-0.000000	0.000000	-360.857100	0.000000	-360.857100	0.000000	-0.000000	0.000000
0.050000	-0.000110	-0.865336	-115.966355	85.593269	-115.966355	85.593269	-0.000102	-0.761767
0.100000	-0.000437	-1.730403	-110.418812	83.742221	-110.418812	83.742221	-0.000402	-1.523279
0.150000	-0.000967	-2.594950	-107.277866	83.259306	-107.277866	83.259306	-0.000887	-2.284304
0.200000	-0.001678	-3.458772	-105.080589	83.126230	-105.080589	83.126230	-0.001536	-3.044656
0.250000	-0.002555	-4.321638	-103.421041	83.036135	-103.421041	83.036135	-0.002332	-3.804130
0.300000	-0.003558	-5.183508	-102.116409	82.938774	-102.116409	82.938774	-0.003236	-4.562703
0.350000	-0.004666	-6.044264	-101.079477	82.856069	-101.079477	82.856069	-0.004229	-5.320282
0.400000	-0.005855	-6.903860	-100.256486	82.827486	-100.256486	82.827486	-0.005288	-6.076845
0.450000	-0.007101	-7.762283	-99.613857	82.900177	-99.613857	82.900177	-0.006391	-6.832397
0.500000	-0.008385	-8.619544	-99.130203	83.128555	-99.130203	83.128555	-0.007522	-7.586966
0.550000	-0.009691	-9.475669	-98.792163	83.578203	-98.792163	83.578203	-0.008666	-8.340587
0.600000	-0.011006	-10.330694	-98.591959	84.332395	-98.591959	84.332395	-0.009814	-9.093306
0.650000	-0.012319	-11.184655	-98.525683	85.501646	-98.525683	85.501646	-0.010957	-9.845165
0.700000	-0.013625	-12.037593	-98.591620	87.237635	-98.591620	87.237635	-0.012090	-10.596206
0.750000	-0.014917	-12.889540	-98.787737	89.753181	-98.787737	89.753181	-0.013210	-11.346464
0.800000	-0.016194	-13.740528	-99.106860	93.348615	-99.106860	93.348615	-0.014316	-12.095969
0.850000	-0.017453	-14.590580	-99.526759	98.437300	-99.526759	98.437300	-0.015407	-12.844744
0.900000	-0.018694	-15.439713	-99.991033	105.537289	-99.991033	105.537289	-0.016482	-13.592807
0.950000	-0.019917	-16.287939	-100.379974	115.138673	-100.379974	115.138673	-0.017543	-14.340169
1.000000	-0.021123	-17.135265	-100.492658	127.319387	-100.492658	127.319387	-0.018590	-15.086836
1.050000	-0.022312	-17.981692	-100.103518	141.194478	-100.103518	141.194478	-0.019625	-15.832810
1.100000	-0.023486	-18.827216	-99.120504	154.867102	-99.120504	154.867102	-0.020648	-16.578091
1.150000	-0.024647	-19.671831	-97.675727	166.505072	-97.675727	166.505072	-0.021661	-17.322672
1.200000	-0.025795	-20.515527	-96.002214	175.411044	-96.002214	175.411044	-0.022665	-18.066546
1.250000	-0.026932	-21.358290	-94.281255	-178.157422	-94.281255	-178.157422	-0.023662	-18.809703
1.300000	-0.028060	-22.200065	-92.599231	-173.698068	-92.599231	-173.698068	-0.024651	-19.552101
1.350000	-0.029178	-23.040876	-91.007856	-170.602803	-91.007856	-170.602803	-0.025634	-20.293758
1.400000	-0.030289	-23.880703	-89.515182	-168.500360	-89.515182	-168.500360	-0.026612	-21.034659
1.450000	-0.031394	-24.719528	-88.117766	-167.127408	-88.117766	-167.127408	-0.027585	-21.774790
1.500000	-0.032494	-25.557333	-86.807984	-166.298896	-86.807984	-166.298896	-0.028556	-22.514137
1.550000	-0.033588	-26.394096	-85.577236	-165.883918	-85.577236	-165.883918	-0.029523	-23.252685
1.600000	-0.034679	-27.229797	-84.417250	-165.788608	-84.417250	-165.788608	-0.030487	-23.990417
1.650000	-0.035767	-28.064415	-83.320549	-165.944547	-83.320549	-165.944547	-0.031449	-24.727317
1.700000	-0.036852	-28.897537	-82.256997	-166.353089	-82.256997	-166.353089	-0.032410	-25.463069
1.750000	-0.037936	-29.730076	-81.278406	-166.852307	-81.278406	-166.852307	-0.033370	-26.198373
1.800000	-0.039018	-30.561212	-80.331399	-167.502267	-80.331399	-167.502267	-0.034329	-26.932600
1.850000	-0.040100	-31.391345	-79.434086	-168.259899	-79.434086	-168.259899	-0.035288	-27.666058
1.900000	-0.041181	-32.220231	-78.571660	-169.106488	-78.571660	-169.106488	-0.036246	-28.398558
1.950000	-0.042262	-33.047871	-77.742479	-170.042034	-77.742479	-170.042034	-0.037205	-29.130101
2.000000	-0.043344	-33.874436	-76.950273	-171.030666	-76.950273	-171.030666	-0.038165	-29.860818
2.050000	-0.044426	-34.699496	-76.179037	-172.093618	-76.179037	-172.093618	-0.039125	-30.590380
2.100000	-0.045509	-35.523895	-75.452353	-173.181190	-75.452353	-173.181190	-0.040086	-31.319433
2.150000	-0.046595	-36.346576	-74.737773	-174.329857	-74.737773	-174.329857	-0.041049	-32.047166
2.200000	-0.047682	-37.167958	-74.046709	-175.516196	-74.046709	-175.516196	-0.042013	-32.773899
2.250000	-0.048771	-37.988024	-73.377598	-176.735683	-73.377598	-176.735683	-0.042980	-33.499618
2.300000	-0.049864	-38.806755	-72.729036	-177.984472	-72.729036	-177.984472	-0.043949	-34.224310
2.350000	-0.050959	-39.624136	-72.099754	-179.259279	-72.099754	-179.259279	-0.044921	-34.947961
2.400000	-0.052058	-40.440150	-71.488608	179.442724	-71.488608	179.442724	-0.045895	-35.670556
2.450000	-0.053160	-41.254781	-70.894555	178.123980	-70.894555	178.123980	-0.046873	-36.392083
2.500000	-0.054267	-42.068013	-70.316646	176.786616	-70.316646	176.786616	-0.047855	-37.112529
2.550000	-0.055378	-42.879770	-69.753098	175.431838	-69.753098	175.431838	-0.048840	-37.831832
2.600000	-0.056495	-43.690097	-69.204122	174.062057	-69.204122	174.062057	-0.049830	-38.550028
2.650000	-0.057616	-44.498980	-68.668977	172.678691	-68.668977	172.678691	-0.050824	-39.267103
2.700000	-0.058744	-45.306405	-68.146982	171.282994	-68.146982	171.282994	-0.051823	-39.983046
2.750000	-0.059877	-46.112360	-67.637507	169.876083	-67.637507	169.876083	-0.052828	-40.697845
2.800000	-0.061017	-46.916832	-67.139970	168.458957	-67.139970	168.458957	-0.053838	-41.411488
2.850000	-0.062164	-47.719808	-66.653829	167.032512	-66.653829	167.032512	-0.054853	-42.123964
2.900000	-0.063317	-48.521277	-66.178583	165.597550	-66.178583	165.597550	-0.055875	-42.835263
2.950000	-0.064479	-49.321227	-65.713765	164.154797	-65.713765	164.154797	-0.056904	-43.545372
3.000000	-0.065648	-50.119647	-65.258938	162.704911	-65.258938	162.704911	-0.057940	-44.254283
3.050000	-0.066826	-50.916527	-64.813694	161.248484	-64.813694	161.248484	-0.058982	-44.961985
3.100000	-0.068013	-51.711857	-64.377651	159.786058	-64.377651	159.786058	-0.060033	-45.668467
3.150000	-0.069209	-52.505627	-63.950452	158.318127	-63.950452	158.318127	-0.061091	-46.373721
3.200000	-0.070414	-53.297828	-63.531760	156.845139	-63.531760	156.845139	-0.062157	-47.077737
3.250000	-0.071630	-54.088452	-63.121258	155.367508	-63.121258	155.367508	-0.063233	-47.780506
3.300000	-0.072856	-54.877491	-62.718648	153.885611	-62.718648	153.885611	-0.064317	-48.482019
3.350000	-0.074095	-55.664657	-62.321854	152.399208	-62.321854	152.399208	-0.065412	-49.182045
3.400000	-0.075346	-56.450154	-61.932134	150.909061	-61.932134	150.909061	-0.066518	-49.880743
3.450000	-0.076604	-57.234809	-61.554192	149.417300	-61.554192	149.417300	-0.067629	-50.578771
3.500000	-0.077880	-58.016943	-61.177758	147.920696	-61.177758	147.920696	-0.068756	-51.274785
3.550000	-0.079161	-58.798511	-60.813895	146.423197	-60.813895	146.423197	-0.069887	-51.970347
3.600000	-0.080464	-59.577257	-60.449949	144.921216	-60.449949	144.921216	-0.071038	-52.663646
3.650000	-0.081770	-60.355718	-60.099215	143.418864	-60.099215	143.418864	-0.072191	-53.356716
3.700000	-0.083102	-61.131056	-59.747032	141.912429	-59.747032	141.912429	-0.073366	-54.047272
3.750000	-0.084435	-61.906393	-59.408573	140.405994	-59.408573	140.405994	-0.074541	-54.737827
3.800000	-0.085798	-62.678307	-59.067494	138.895900	-59.067494	138.895900	-0.075743	-55.425613
3.850000	-0.087161	-63.450221	-58.739303	137.385806	-58.739303	137.385806	-0.076945	-56.113400
3.900000	-0.088555	-64.218986	-58.409961	135.872989	-58.409961	135.872989	-0.078173	-56.798626
3.950000	-0.089951	-64.987465	-58.091504	134.359925	-58.091504	134.359925	-0.079403	-57.483620
4.000000	-0.091376	-65.753075	-57.773183	132.844886	-57.773183	132.844886	-0.080658	-58.166271
4.050000	-0.092807	-66.518112	-57.463970	131.329452	-57.463970	131.329452	-0.081917	-58.848453
4.100000	-0.094265	-67.280564	-57.156019	129.812636	-57.156019	129.812636	-0.083201	-59.528513
4.150000	-0.095733	-68.042155	-56.855597	128.295358	-56.855597	128.295358	-0.084492	-60.207865
4.200000	-0.097226	-68.801450	-56.557420	126.777158	-56.557420	126.777158	-0.085805	-60.885322
4.250000	-0.098732	-69.559596	-56.265372	125.258498	-56.265372	125.258498	-0.087129	-61.561831
4.300000	-0.100261	-70.315736	-55.976427	123.739270	-55.976427	123.739270	-0.088473	-62.236674
4.350000	-0.101808	-71.070443	-55.692364	122.219636	-55.692364	122.219636	-0.089832	-62.910327
4.400000	-0.103375	-71.823435	-55.412153	120.699695	-55.412153	120.699695	-0.091209	-63.582548
4.450000	-0.104964	-72.574712	-55.135717	119.179448	-55.135717	119.179448	-0.092604	-64.253337
4.500000	-0.106571	-73.324565	-54.863781	117.659080	-54.863781	117.659080	-0.094014	-64.922930
4.550000	-0.108204	-74.072425	-54.594635	116.138542	-54.594635	116.138542	-0.095447	-65.590849
4.600000	-0.109852	-74.819152	-54.330552	114.618003	-54.330552	114.618003	-0.096893	-66.257810
4.650000	-0.111531	-75.563612	-54.068386	113.097461	-54.068386	113.097461	-0.098366	-66.922855
4.700000	-0.113222	-76.307227	-53.811766	111.576983	-53.811766	111.576983	-0.099848	-67.587181
4.750000	-0.114949	-77.048308	-53.556287	110.056695	-53.556287	110.056695	-0.101362	-68.249351
4.800000	-0.116685	-77.788830	-53.306769	108.536488	-53.306769	108.536488	-0.102883	-68.911043
4.850000	-0.118461	-78.526556	-53.057705	107.016686	-53.057705	107.016686	-0.104439	-69.570340
4.900000	-0.120243	-79.264006	-52.814953	105.496941	-52.814953	105.496941	-0.106000	-70.229399
4.950000	-0.122071	-79.998406	-52.572049	103.977833	-52.572049	103.977833	-0.107601	-70.885828
5.000000	-0.123900	-80.732807	-52.335753	102.458725	-52.335753	102.458725	-0.109202	-71.542258
5.050000	-0.125782	-81.463913	-52.098767	100.940501	-52.098767	100.940501	-0.110849	-72.195826
5.100000	-0.127664	-82.195020	-51.868077	99.422277	-51.868077	99.422277	-0.112496	-72.849394
5.150000	-0.129597	-82.923139	-51.637346	97.905021	-51.637346	97.905021	-0.114187	-73.500348
5.200000	-0.131535	-83.650987	-51.412053	96.387853	-51.412053	96.387853	-0.115883	-74.151065
5.250000	-0.133520	-84.376151	-51.187301	94.871696	-51.187301	94.871696	-0.117619	-74.799415
5.300000	-0.135515	-85.100779	-50.967212	93.355741	-50.967212	93.355741	-0.119364	-75.447291
5.350000	-0.137554	-85.823024	-50.748181	91.840804	-50.748181	91.840804	-0.121147	-76.093049
5.400000	-0.139608	-86.544475	-50.533112	90.326206	-50.533112	90.326206	-0.122943	-76.738101
5.450000	-0.141703	-87.263838	-50.319560	88.812602	-50.319560	88.812602	-0.124774	-77.381279
5.500000	-0.143818	-87.982156	-50.109337	87.299493	-50.109337	87.299493	-0.126623	-78.023522
5.550000	-0.145970	-88.698676	-49.901039	85.787325	-49.901039	85.787325	-0.128504	-78.664137
5.600000	-0.148148	-89.413912	-49.695497	84.275828	-49.695497	84.275828	-0.130408	-79.303590
5.650000	-0.150358	-90.127632	-49.492241	82.765193	-49.492241	82.765193	-0.132340	-79.941659
5.700000	-0.152600	-90.839836	-49.291224	81.255420	-49.291224	81.255420	-0.134300	-80.578343
5.750000	-0.154870	-91.550800	-49.092811	79.746409	-49.092811	79.746409	-0.136284	-81.213884
5.800000	-0.157179	-92.260027	-48.896170	78.238466	-48.896170	78.238466	-0.138302	-81.847823
5.850000	-0.159511	-92.968282	-48.702413	76.731164	-48.702413	76.731164	-0.140340	-82.480855
5.900000	-0.161888	-93.674591	-48.510009	75.225146	-48.510009	75.225146	-0.142418	-83.112075
5.950000	-0.164283	-94.380186	-48.320731	73.719633	-48.320731	73.719633	-0.144511	-83.742621
6.000000	-0.166730	-95.083637	-48.132429	72.215633	-48.132429	72.215633	-0.146650	-84.371149
6.050000	-0.169189	-95.786622	-47.947465	70.711983	-47.947465	70.711983	-0.148800	-84.999232
6.100000	-0.171708	-96.487278	-47.763137	69.210084	-47.763137	69.210084	-0.151003	-85.625097
6.150000	-0.174233	-97.187707	-47.582328	67.708368	-47.582328	67.708368	-0.153211	-86.250742
6.200000	-0.176825	-97.885636	-47.401853	66.208650	-47.401853	66.208650	-0.155478	-86.873976
6.250000	-0.179418	-98.583564	-47.225051	64.708933	-47.225051	64.708933	-0.157745	-87.497210
6.300000	-0.182085	-99.278832	-47.048313	63.211470	-47.048313	63.211470	-0.160079	-88.117846
6.350000	-0.184754	-99.974101	-46.875099	61.714008	-46.875099	61.714008	-0.162413	-88.738482
6.400000	-0.187492	-100.666997	-46.702265	60.218676	-46.702265	60.218676	-0.164809	-89.356769
6.450000	-0.190237	-101.359678	-46.532535	58.723537	-46.532535	58.723537	-0.167212	-89.974842
6.500000	-0.193047	-102.050264	-46.363470	57.230388	-46.363470	57.230388	-0.169672	-90.590812
6.550000	-0.195871	-102.740430	-46.197125	55.737637	-46.197125	55.737637	-0.172144	-91.206360
6.600000	-0.198754	-103.428768	-46.031699	54.246721	-46.031699	54.246721	-0.174670	-91.820044
6.650000	-0.201658	-104.116497	-45.868643	52.756417	-45.868643	52.756417	-0.177213	-92.433106
6.700000	-0.204617	-104.802654	-45.706733	51.267780	-45.706733	51.267780	-0.179806	-93.044537
6.750000	-0.207603	-105.488024	-45.546875	49.779977	-45.546875	49.779977	-0.182423	-93.655153
6.800000	-0.210638	-106.172065	-45.388365	48.293661	-45.388365	48.293661	-0.185083	-94.264367
6.850000	-0.213708	-106.855157	-45.231616	46.808408	-45.231616	46.808408	-0.187775	-94.872579
6.900000	-0.216821	-107.537152	-45.076396	45.324452	-45.076396	45.324452	-0.190505	-95.479611
6.950000	-0.219976	-108.218050	-44.922672	43.841793	-44.922672	43.841793	-0.193273	-96.085463
7.000000	-0.223168	-108.898070	-44.770634	42.360230	-44.770634	42.360230	-0.196074	-96.690351
7.050000	-0.226410	-109.576859	-44.619853	40.880204	-44.619853	40.880204	-0.198920	-97.293889
7.100000	-0.229682	-110.254975	-44.470897	39.401067	-44.470897	39.401067	-0.201794	-97.896671
7.150000	-0.233013	-110.931744	-44.322981	37.923707	-44.322981	37.923707	-0.204720	-98.497941
7.200000	-0.236367	-111.608030	-44.177010	36.447020	-44.177010	36.447020	-0.207666	-99.098657
7.250000	-0.239787	-112.282868	-44.031882	34.972353	-44.031882	34.972353	-0.210674	-99.697708
7.300000	-0.243224	-112.957400	-43.888804	33.498138	-43.888804	33.498138	-0.213695	-100.296398
7.350000	-0.246737	-113.630400	-43.746392	32.026186	-43.746392	32.026186	-0.216785	-100.893280
7.400000	-0.250258	-114.303255	-43.606118	30.554460	-43.606118	30.554460	-0.219883	-101.489985
7.450000	-0.253863	-114.974511	-43.466351	29.085237	-43.466351	29.085237	-0.223058	-102.084749
7.500000	-0.257470	-115.645767	-43.328797	27.616013	-43.328797	27.616013	-0.226233	-102.679513
7.550000	-0.261170	-116.315375	-43.191606	26.149525	-43.191606	26.149525	-0.229493	-103.272212
7.600000	-0.264871	-116.984984	-43.056549	24.683037	-43.056549	24.683037	-0.232754	-103.864911
7.650000	-0.268660	-117.653172	-42.922012	23.219058	-42.922012	23.219058	-0.236095	-104.455767
7.700000	-0.272457	-118.321232	-42.789388	21.755306	-42.789388	21.755306	-0.239443	-105.046455
7.750000	-0.276334	-118.988085	-42.657425	20.293829	-42.657425	20.293829	-0.242865	-105.635514
7.800000	-0.280229	-119.654696	-42.527175	18.832806	-42.527175	18.832806	-0.246303	-106.224246
7.850000	-0.284197	-120.320298	-42.397712	17.373819	-42.397712	17.373819	-0.249807	-106.811555
7.900000	-0.288190	-120.985563	-42.269777	15.915509	-42.269777	15.915509	-0.253334	-107.398389
7.950000	-0.292250	-121.650001	-42.142741	14.458992	-42.142741	14.458992	-0.256922	-107.983996
8.000000	-0.296343	-122.314025	-42.017065	13.003372	-42.017065	13.003372	-0.260542	-108.568990
8.050000	-0.300495	-122.977387	-41.892388	11.549300	-41.892388	11.549300	-0.264215	-109.152945
8.100000	-0.304689	-123.640277	-41.768917	10.096336	-41.768917	10.096336	-0.267926	-109.736157
8.150000	-0.308935	-124.302654	-41.646533	8.644678	-41.646533	8.644678	-0.271685	-110.318510
8.200000	-0.313231	-124.964518	-41.525215	7.194327	-41.525215	7.194327	-0.275491	-110.900003
8.250000	-0.317572	-125.626001	-41.405060	5.745044	-41.405060	5.745044	-0.279337	-111.480804
8.300000	-0.321972	-126.286950	-41.285845	4.297256	-41.285845	4.297256	-0.283239	-112.060639
8.350000	-0.326407	-126.947632	-41.167861	2.850301	-41.167861	2.850301	-0.287173	-112.639942
8.400000	-0.330912	-127.607779	-41.050701	1.405014	-41.050701	1.405014	-0.291171	-113.218182
8.450000	-0.335444	-128.267754	-40.934829	-0.039666	-40.934829	-0.039666	-0.295194	-113.796039
8.500000	-0.340054	-128.927214	-40.819679	-1.482522	-40.819679	-1.482522	-0.299290	-114.372749
8.550000	-0.344683	-129.586578	-40.705865	-2.924988	-40.705865	-2.924988	-0.303403	-114.949215
8.600000	-0.349399	-130.245468	-40.592681	-4.365495	-40.592681	-4.365495	-0.307597	-115.524460
8.650000	-0.354126	-130.904319	-40.480874	-5.805814	-40.480874	-5.805814	-0.311801	-116.099590
8.700000	-0.358949	-131.562758	-40.369617	-7.244063	-40.369617	-7.244063	-0.316095	-116.673438
8.750000	-0.363775	-132.221196	-40.259766	-8.682312	-40.259766	-8.682312	-0.320391	-117.247287
8.800000	-0.368706	-132.879305	-40.150397	-10.118403	-40.150397	-10.118403	-0.324786	-117.819807
8.850000	-0.373640	-133.537413	-40.042388	-11.554495	-40.042388	-11.554495	-0.329183	-118.392327
8.900000	-0.378671	-134.195332	-39.934941	-12.988709	-39.934941	-12.988709	-0.333671	-118.963694
8.950000	-0.383713	-134.853234	-39.828738	-14.422753	-39.828738	-14.422753	-0.338169	-119.534955
9.000000	-0.388845	-135.511069	-39.723171	-15.855192	-39.723171	-15.855192	-0.342751	-120.105227
9.050000	-0.393996	-136.168890	-39.618744	-17.287309	-39.618744	-17.287309	-0.347352	-120.675301
9.100000	-0.399228	-136.826746	-39.515017	-18.718079	-39.515017	-18.718079	-0.352029	-121.244538
9.150000	-0.404489	-137.484614	-39.412337	-20.148399	-39.412337	-20.148399	-0.356733	-121.813497
9.200000	-0.409822	-138.142601	-39.310414	-21.577614	-39.310414	-21.577614	-0.361506	-122.381761
9.250000	-0.415193	-138.800646	-39.209455	-23.006275	-39.209455	-23.006275	-0.366314	-122.949678
9.300000	-0.420627	-139.458873	-39.109303	-24.434055	-39.109303	-24.434055	-0.371182	-123.517032
9.350000	-0.426108	-140.117228	-39.010043	-25.861206	-39.010043	-25.861206	-0.376094	-124.083982
9.400000	-0.431643	-140.775806	-38.911630	-27.287678	-38.911630	-27.287678	-0.381059	-124.650488
9.450000	-0.437234	-141.434606	-38.814049	-28.713471	-38.814049	-28.713471	-0.386076	-125.216549
9.500000	-0.442871	-142.093648	-38.717348	-30.138767	-38.717348	-30.138767	-0.391137	-125.782272
9.550000	-0.448572	-142.753031	-38.621430	-31.563366	-38.621430	-31.563366	-0.396259	-126.347521
9.600000	-0.454311	-143.412654	-38.526416	-32.987622	-38.526416	-32.987622	-0.401418	-126.912526
9.650000	-0.460122	-144.072758	-38.432149	-34.411194	-38.432149	-34.411194	-0.406645	-127.477042
9.700000	-0.465962	-144.733079	-38.338802	-35.834553	-38.338802	-35.834553	-0.411901	-128.041396
9.750000	-0.471882	-145.394048	-38.246176	-37.257271	-38.246176	-37.257271	-0.417234	-128.605260
9.800000	-0.477823	-146.055185	-38.154477	-38.679876	-38.154477	-38.679876	-0.422588	-129.169030
9.850000	-0.483852	-146.717164	-38.063488	-40.101917	-38.063488	-40.101917	-0.428027	-129.732326
9.900000	-0.489893	-147.379239	-37.973422	-41.523917	-37.973422	-41.523917	-0.433477	-130.295581
9.950000	-0.496031	-148.042376	-37.884068	-42.945461	-37.884068	-42.945461	-0.439022	-130.858391
10.000000	-0.502172	-148.705512	-37.795624	-44.367005	-37.795624	-44.367005	-0.444570	-131.421201
