! freq	dB(S11)	phase(S11)	dB(S12)	phase(S12)	
!     	dB(S21)	phase(S21)	dB(S22)	phase(S22)	
!S-par simulation data
#  GHz  S  DB  R 50
0.000000	-83.718239	0.000000	-0.000566	0.000000	-0.000566	0.000000	-83.718239	0.000000
0.050000	-40.083481	-91.625766	-0.004569	-2.852343	-0.004569	-2.852343	-40.091915	-92.495819
0.100000	-34.130091	-94.268137	-0.011707	-5.671596	-0.011707	-5.671596	-34.141306	-96.053889
0.150000	-30.655571	-96.879421	-0.018476	-8.473921	-0.018476	-8.473921	-30.667265	-99.568008
0.200000	-28.195042	-99.435521	-0.025095	-11.271525	-0.025095	-11.271525	-28.207205	-103.018986
0.250000	-26.294271	-101.937379	-0.032089	-14.067081	-0.032089	-14.067081	-26.307006	-106.413224
0.300000	-24.749482	-104.398687	-0.039730	-16.860727	-0.039730	-16.860727	-24.762720	-109.767773
0.350000	-23.451272	-106.830238	-0.048063	-19.652048	-0.048063	-19.652048	-23.464862	-113.095087
0.400000	-22.334646	-109.238507	-0.057079	-22.440584	-0.057079	-22.440584	-22.348414	-116.402734
0.450000	-21.358861	-111.626833	-0.066785	-25.225694	-0.066785	-25.225694	-21.372624	-119.695292
0.500000	-20.494248	-113.999901	-0.077071	-28.007386	-0.077071	-28.007386	-20.507850	-122.977779
0.550000	-19.720318	-116.359737	-0.087875	-30.785580	-0.087875	-30.785580	-19.733626	-126.252704
0.600000	-19.022329	-118.707358	-0.099152	-33.560163	-0.099152	-33.560163	-19.035228	-129.521724
0.650000	-18.389150	-121.043397	-0.110857	-36.331078	-0.110857	-36.331078	-18.401544	-132.786166
0.700000	-17.811644	-123.368557	-0.122935	-39.098439	-0.122935	-39.098439	-17.823460	-136.047174
0.750000	-17.282819	-125.683064	-0.135343	-41.862298	-0.135343	-41.862298	-17.294005	-139.305603
0.800000	-16.796954	-127.987061	-0.148040	-44.622733	-0.148040	-44.622733	-16.807473	-142.562207
0.850000	-16.349462	-130.280510	-0.160988	-47.379797	-0.160988	-47.379797	-16.359291	-145.817669
0.900000	-15.936139	-132.563640	-0.174142	-50.133647	-0.174142	-50.133647	-15.945269	-149.072648
0.950000	-15.554306	-134.835903	-0.187467	-52.884214	-0.187467	-52.884214	-15.562733	-152.327774
1.000000	-15.200636	-137.097668	-0.200915	-55.631725	-0.200915	-55.631725	-15.208364	-155.583663
1.050000	-14.872770	-139.348833	-0.214440	-58.376271	-0.214440	-58.376271	-14.879805	-158.840914
1.100000	-14.569344	-141.588695	-0.227996	-61.117810	-0.227996	-61.117810	-14.575692	-162.100271
1.150000	-14.287941	-143.817702	-0.241529	-63.856629	-0.241529	-63.856629	-14.293608	-165.362277
1.200000	-14.026981	-146.035788	-0.254990	-66.592888	-0.254990	-66.592888	-14.031972	-168.627547
1.250000	-13.785557	-148.242431	-0.268317	-69.326678	-0.268317	-69.326678	-13.789873	-171.896888
1.300000	-13.562243	-150.437742	-0.281457	-72.058252	-0.281457	-72.058252	-13.565883	-175.170920
1.350000	-13.355747	-152.621861	-0.294359	-74.787873	-0.294359	-74.787873	-13.358705	-178.450225
1.400000	-13.165369	-154.794472	-0.306962	-77.515738	-0.306962	-77.515738	-13.167637	178.264380
1.450000	-12.990431	-156.955332	-0.319207	-80.242080	-0.319207	-80.242080	-12.991997	174.972051
1.500000	-12.829770	-159.104797	-0.331061	-82.967212	-0.331061	-82.967212	-12.830620	171.672298
1.550000	-12.683351	-161.242132	-0.342456	-85.691360	-0.342456	-85.691360	-12.683469	168.363871
1.600000	-12.549316	-163.368625	-0.353414	-88.414909	-0.353414	-88.414909	-12.548686	165.047017
1.650000	-12.428802	-165.482406	-0.363830	-91.138122	-0.363830	-91.138122	-12.427404	161.719471
1.700000	-12.319660	-167.585251	-0.373765	-93.861414	-0.373765	-93.861414	-12.317477	158.381991
1.750000	-12.222555	-169.675887	-0.383148	-96.585212	-0.383148	-96.585212	-12.219568	155.032655
1.800000	-12.136797	-171.754586	-0.391979	-99.309985	-0.391979	-99.309985	-12.132989	151.670906
1.850000	-12.062052	-173.821266	-0.400244	-102.036230	-0.400244	-102.036230	-12.057407	148.295856
1.900000	-11.998135	-175.875702	-0.407920	-104.764482	-0.407920	-104.764482	-11.992638	144.906429
1.950000	-11.944787	-177.917774	-0.414993	-107.495270	-0.414993	-107.495270	-11.938427	141.501653
2.000000	-11.901681	-179.947476	-0.421457	-110.229079	-0.421457	-110.229079	-11.894450	138.080717
2.050000	-11.868634	178.035356	-0.427301	-112.966406	-0.427301	-112.966406	-11.860529	134.642625
2.100000	-11.845499	176.030919	-0.432518	-115.707741	-0.432518	-115.707741	-11.836521	131.186350
2.150000	-11.832160	174.039452	-0.437102	-118.453566	-0.437102	-118.453566	-11.822322	127.710826
2.200000	-11.828536	172.061234	-0.441052	-121.204357	-0.441052	-121.204357	-11.817859	124.214941
2.250000	-11.834577	170.096603	-0.444370	-123.960587	-0.444370	-123.960587	-11.823099	120.697522
2.300000	-11.850264	168.145955	-0.447058	-126.722721	-0.447058	-126.722721	-11.838045	117.157303
2.350000	-11.875612	166.209761	-0.449124	-129.491225	-0.449124	-129.491225	-11.862741	113.592867
2.400000	-11.910668	164.288577	-0.450578	-132.266561	-0.450578	-132.266561	-11.897253	110.002561
2.450000	-11.955512	162.383063	-0.451431	-135.049191	-0.451431	-135.049191	-11.941649	106.384452
2.500000	-12.010259	160.494001	-0.451697	-137.839574	-0.451697	-137.839574	-11.995943	102.736629
2.550000	-12.075268	158.622720	-0.451380	-140.638360	-0.451380	-140.638360	-12.060344	99.057285
2.600000	-12.150523	156.769980	-0.450511	-143.445842	-0.450511	-143.445842	-12.134838	95.346671
2.650000	-12.236253	154.937107	-0.449110	-146.262481	-0.449110	-146.262481	-12.219824	91.603633
2.700000	-12.332738	153.125672	-0.447199	-149.088743	-0.447199	-149.088743	-12.315741	87.825914
2.750000	-12.440306	151.337532	-0.444802	-151.925096	-0.444802	-151.925096	-12.423001	84.010778
2.800000	-12.559343	149.574865	-0.441943	-154.772010	-0.441943	-154.772010	-12.542030	80.155353
2.850000	-12.690296	147.840217	-0.438651	-157.629962	-0.438651	-157.629962	-12.673308	76.256609
2.900000	-12.833678	146.136555	-0.434955	-160.499436	-0.434955	-160.499436	-12.817384	72.311245
2.950000	-12.990075	144.467344	-0.430885	-163.380921	-0.430885	-163.380921	-12.974892	68.315572
3.000000	-13.160147	142.836638	-0.426474	-166.274915	-0.426474	-166.274915	-13.146559	64.265394
3.050000	-13.344634	141.249212	-0.421758	-169.181927	-0.421758	-169.181927	-13.333215	60.155885
3.100000	-13.544363	139.710713	-0.416775	-172.102473	-0.416775	-172.102473	-13.535806	55.981444
3.150000	-13.760376	138.228564	-0.411563	-175.037242	-0.411563	-175.037242	-13.755538	51.734653
3.200000	-13.993695	136.811145	-0.406166	-177.986795	-0.406166	-177.986795	-13.993640	47.407463
3.250000	-14.245318	135.467664	-0.400633	179.048464	-0.400633	179.048464	-14.251363	42.991333
3.300000	-14.516465	134.209990	-0.395015	176.067965	-0.395015	176.067965	-14.530265	38.475081
3.350000	-14.808119	133.049162	-0.389364	173.071611	-0.389364	173.071611	-14.831711	33.848909
3.400000	-15.122416	132.009380	-0.383737	170.057774	-0.383737	170.057774	-15.158499	29.088897
3.450000	-15.460435	131.109020	-0.378200	167.026367	-0.378200	167.026367	-15.512398	24.178343
3.500000	-15.823639	130.374663	-0.372819	163.976752	-0.372819	163.976752	-15.895833	19.091961
3.550000	-16.213390	129.839156	-0.367668	160.908278	-0.367668	160.908278	-16.311442	13.798050
3.600000	-16.630777	129.543192	-0.362827	157.820274	-0.362827	157.820274	-16.762001	8.256508
3.650000	-17.076339	129.537205	-0.358383	154.712054	-0.358383	154.712054	-17.250292	2.416179
3.700000	-17.549614	129.883505	-0.354429	151.582915	-0.354429	151.582915	-17.778819	-3.788653
3.750000	-18.048413	130.658397	-0.351068	148.432142	-0.351068	148.432142	-18.349271	-10.442801
3.800000	-18.566287	131.996382	-0.348469	145.257440	-0.348469	145.257440	-18.961003	-17.703453
3.850000	-19.096460	133.907573	-0.346624	142.061730	-0.346624	142.061730	-19.611071	-25.605111
3.900000	-19.620496	136.576524	-0.345761	138.841604	-0.345761	138.841604	-20.288464	-34.400371
3.950000	-20.112267	140.106392	-0.346019	135.596514	-0.346019	135.596514	-20.970833	-44.292662
4.000000	-20.535244	144.551096	-0.347542	132.326055	-0.347542	132.326055	-21.618504	-55.476428
4.050000	-20.842324	149.884064	-0.350501	129.029486	-0.350501	129.029486	-22.167591	-68.088556
4.100000	-20.983260	155.935728	-0.355081	125.706080	-0.355081	125.706080	-22.531869	-82.071364
4.150000	-20.918259	162.373971	-0.361481	122.355132	-0.361481	122.355132	-22.622645	-97.039986
4.200000	-20.630852	168.750071	-0.369943	118.975688	-0.369943	118.975688	-22.384149	-112.272372
4.250000	-20.140231	174.618979	-0.380693	115.567241	-0.380693	115.567241	-21.833504	-126.936287
4.300000	-19.489929	179.667351	-0.393974	112.129349	-0.393974	112.129349	-21.046172	-140.442161
4.350000	-18.730920	-176.254602	-0.410057	108.661505	-0.410057	108.661505	-20.114274	-152.557479
4.400000	-17.909754	-173.159013	-0.429231	105.163280	-0.429231	105.163280	-19.116045	-163.325998
4.450000	-17.062458	-170.973740	-0.451801	101.634346	-0.451801	101.634346	-18.105011	-172.926523
4.500000	-16.213980	-169.589932	-0.478094	98.074489	-0.478094	98.074489	-17.112916	178.429789
4.550000	-15.380226	-168.892415	-0.508453	94.483630	-0.508453	94.483630	-16.156484	170.549137
4.600000	-14.570405	-168.777255	-0.543259	90.861692	-0.543259	90.861692	-15.243069	163.273234
4.650000	-13.789570	-169.153508	-0.582917	87.208778	-0.582917	87.208778	-14.375031	156.475406
4.700000	-13.040541	-169.939646	-0.627772	83.525629	-0.627772	83.525629	-13.552487	150.052506
4.750000	-12.324001	-171.073284	-0.678223	79.812896	-0.678223	79.812896	-12.773702	143.929505
4.800000	-11.639691	-172.503422	-0.734677	76.071455	-0.734677	76.071455	-12.036391	138.048576
4.850000	-10.986836	-174.188309	-0.797544	72.302422	-0.797544	72.302422	-11.338128	132.365024
4.900000	-10.364403	-176.093578	-0.867236	68.507166	-0.867236	68.507166	-10.676556	126.844183
4.950000	-9.771263	-178.190700	-0.944158	64.687316	-0.944158	64.687316	-10.049477	121.459091
5.000000	-9.206275	179.544263	-1.028709	60.844768	-1.028709	60.844768	-9.454898	116.188743
5.050000	-8.668254	177.129767	-1.121381	56.981423	-1.121381	56.981423	-8.890951	111.018018
5.100000	-8.156300	174.585625	-1.222436	53.100048	-1.222436	53.100048	-8.356180	105.932716
5.150000	-7.669432	171.927001	-1.332213	49.203327	-1.332213	49.203327	-7.849157	100.923188
5.200000	-7.206733	169.167307	-1.451021	45.294182	-1.451021	45.294182	-7.368599	95.982097
5.250000	-6.767351	166.318552	-1.579136	41.375743	-1.579136	41.375743	-6.913352	91.103976
5.300000	-6.350481	163.391610	-1.716792	37.451323	-1.716792	37.451323	-6.482367	86.284873
5.350000	-5.955363	160.396422	-1.864183	33.524388	-1.864183	33.524388	-6.074675	81.522063
5.400000	-5.581266	157.342150	-2.021456	29.598516	-2.021456	29.598516	-5.689375	76.813810
5.450000	-5.227540	154.236877	-2.188775	25.677440	-2.188775	25.677440	-5.325676	72.159682
5.500000	-4.893481	151.088900	-2.366148	21.764890	-2.366148	21.764890	-4.982751	67.559098
5.550000	-4.578373	147.905809	-2.553541	17.864508	-2.553541	17.864508	-4.659776	63.011966
5.600000	-4.281525	144.694464	-2.750905	13.979895	-2.750905	13.979895	-4.355972	58.518788
5.650000	-4.002247	141.461253	-2.958146	10.114550	-2.958146	10.114550	-4.070572	54.080305
5.700000	-3.739846	138.212114	-3.175129	6.271828	-3.175129	6.271828	-3.802815	49.697394
5.750000	-3.493627	134.952542	-3.401678	2.454911	-3.401678	2.454911	-3.551947	45.370996
5.800000	-3.262889	131.687599	-3.637587	-1.333230	-3.637587	-1.333230	-3.317218	41.102046
5.850000	-3.047504	128.422144	-3.882725	-5.087714	-3.882725	-5.087714	-3.098477	36.895129
5.900000	-2.845323	125.159912	-4.136547	-8.811429	-4.136547	-8.811429	-2.893471	32.741604
5.950000	-2.657263	121.905619	-4.399014	-12.495904	-4.399014	-12.495904	-2.703153	28.652700
6.000000	-2.481416	118.661487	-4.669763	-16.144199	-4.669763	-16.144199	-2.525529	24.620771
6.050000	-2.317786	115.431420	-4.948490	-19.751649	-4.948490	-19.751649	-2.360603	20.650739
6.100000	-2.165528	112.217753	-5.234930	-23.317641	-5.234930	-23.317641	-2.207497	16.741510
6.150000	-2.023674	109.022063	-5.528886	-26.842666	-5.528886	-26.842666	-2.065204	12.890623
6.200000	-1.892355	105.848175	-5.829833	-30.321704	-5.829833	-30.321704	-1.933872	9.103568
6.250000	-1.769769	102.694376	-6.138070	-33.760860	-6.138070	-33.760860	-1.811620	5.370603
6.300000	-1.656883	99.566861	-6.452484	-37.150329	-6.452484	-37.150329	-1.699476	1.703584
6.350000	-1.551613	96.461613	-6.773882	-40.499329	-6.773882	-40.499329	-1.595261	-1.910803
6.400000	-1.454460	93.383240	-7.101292	-43.800947	-7.101292	-43.800947	-1.499519	-5.464689
6.450000	-1.364287	90.329840	-7.435172	-47.059608	-7.435172	-47.059608	-1.411061	-8.964702
6.500000	-1.280838	87.302771	-7.775209	-50.273862	-7.775209	-50.273862	-1.329635	-12.410008
6.550000	-1.203755	84.302710	-8.121232	-53.443237	-8.121232	-53.443237	-1.254876	-15.800993
6.600000	-1.132195	81.327625	-8.473872	-56.571565	-8.473872	-56.571565	-1.185904	-19.143199
6.650000	-1.066417	78.380923	-8.832114	-59.653571	-8.832114	-59.653571	-1.123010	-22.431402
6.700000	-1.005223	75.457793	-9.197580	-62.697234	-9.197580	-62.697234	-1.064933	-25.675811
6.750000	-0.949099	72.562799	-9.568787	-65.695080	-9.568787	-65.695080	-1.012205	-28.869058
6.800000	-0.896991	69.691025	-9.947599	-68.654921	-9.947599	-68.654921	-0.963712	-32.020912
6.850000	-0.849039	66.844736	-10.333329	-71.572620	-10.333329	-71.572620	-0.919618	-35.128126
6.900000	-0.804747	64.021840	-10.726992	-74.451044	-10.726992	-74.451044	-0.879402	-38.195022
6.950000	-0.763855	61.221558	-11.129195	-77.290647	-11.129195	-77.290647	-0.842793	-41.223514
7.000000	-0.726300	58.444333	-11.540057	-80.089495	-11.540057	-80.089495	-0.809733	-44.213356
7.050000	-0.691523	55.686735	-11.961601	-82.852284	-11.961601	-82.852284	-0.779626	-47.170672
7.100000	-0.659794	52.951313	-12.393110	-85.572208	-12.393110	-85.572208	-0.752771	-50.091590
7.150000	-0.630430	50.233169	-12.837728	-88.256503	-12.837728	-88.256503	-0.728432	-52.984356
7.200000	-0.603684	47.534325	-13.295219	-90.897584	-13.295219	-90.897584	-0.706889	-55.845801
7.250000	-0.579100	44.851158	-13.768628	-93.499750	-13.768628	-93.499750	-0.687645	-58.681811
7.300000	-0.556711	42.183523	-14.259353	-96.057945	-14.259353	-96.057945	-0.670738	-61.492483
7.350000	-0.536364	39.529634	-14.770092	-98.570354	-14.770092	-98.570354	-0.655996	-64.280430
7.400000	-0.517886	36.887364	-15.304285	-101.035029	-15.304285	-101.035029	-0.643227	-67.048672
7.450000	-0.501374	34.255966	-15.864958	-103.441455	-15.864958	-103.441455	-0.632523	-69.797626
7.500000	-0.486488	31.632070	-16.457884	-105.791351	-16.457884	-105.791351	-0.623512	-72.532194
7.550000	-0.473554	29.014868	-17.087728	-108.058985	-17.087728	-108.058985	-0.616513	-75.251792
7.600000	-0.462183	26.400765	-17.763016	-110.245669	-17.763016	-110.245669	-0.611102	-77.961618
7.650000	-0.452641	23.787259	-18.492955	-112.313405	-18.492955	-112.313405	-0.607519	-80.662842
7.700000	-0.444790	21.171144	-19.290367	-114.240765	-19.290367	-114.240765	-0.605593	-83.359002
7.750000	-0.438762	18.548447	-20.172427	-115.969479	-20.172427	-115.969479	-0.605410	-86.053034
7.800000	-0.434699	15.914513	-21.162849	-117.412513	-21.162849	-117.412513	-0.607058	-88.748316
7.850000	-0.432603	13.265161	-22.294128	-118.462346	-22.294128	-118.462346	-0.610483	-91.448305
7.900000	-0.433008	10.591262	-23.617033	-118.796854	-23.617033	-118.796854	-0.616095	-94.158231
7.950000	-0.435807	7.889766	-25.200927	-118.118889	-25.200927	-118.118889	-0.623732	-96.880829
8.000000	-0.442030	5.144072	-27.153796	-115.073990	-27.153796	-115.073990	-0.634164	-99.625018
8.050000	-0.451746	2.349996	-29.602636	-107.843265	-29.602636	-107.843265	-0.647353	-102.393511
8.100000	-0.466370	-0.514473	-32.327734	-89.806138	-32.327734	-89.806138	-0.664293	-105.197608
8.150000	-0.486941	-3.464528	-33.515503	-56.499089	-33.515503	-56.499089	-0.685642	-108.044714
8.200000	-0.515427	-6.525818	-31.169421	-25.239649	-31.169421	-25.239649	-0.712697	-110.946761
8.250000	-0.555381	-9.740571	-27.599819	-10.410823	-27.599819	-10.410823	-0.747800	-113.922659
8.300000	-0.609783	-13.134881	-24.476826	-4.446081	-24.476826	-4.446081	-0.792794	-116.982035
8.350000	-0.687684	-16.795571	-21.753133	-3.290486	-21.753133	-3.290486	-0.853483	-120.159948
8.400000	-0.801549	-20.813995	-19.315555	-4.603362	-19.315555	-4.603362	-0.937512	-123.486978
8.450000	-0.973160	-25.321298	-17.051178	-7.666898	-17.051178	-7.666898	-1.057799	-126.999622
8.500000	-1.243846	-30.512066	-14.874001	-12.365793	-14.874001	-12.365793	-1.237658	-130.734435
8.550000	-1.691785	-36.634306	-12.735521	-18.918304	-12.735521	-18.918304	-1.517494	-134.688870
8.600000	-2.500669	-44.005941	-10.603133	-28.012321	-10.603133	-28.012321	-1.979393	-138.699125
8.650000	-4.073690	-52.416346	-8.557124	-40.601046	-8.557124	-40.601046	-2.744222	-141.959743
8.700000	-7.370270	-58.165668	-6.845875	-57.668236	-6.845875	-57.668236	-3.853942	-141.926941
8.750000	-13.024580	-34.324628	-5.924415	-78.622743	-5.924415	-78.622743	-4.656831	-135.269030
8.800000	-9.650502	12.959139	-6.095811	-99.892957	-6.095811	-99.892957	-4.116226	-127.591570
8.850000	-5.450776	13.616659	-7.093587	-117.663087	-7.093587	-117.663087	-3.031808	-126.414265
8.900000	-3.426384	6.512495	-8.434459	-131.073721	-8.434459	-131.073721	-2.232531	-129.234404
8.950000	-2.385569	-0.461383	-9.824651	-141.077503	-9.824651	-141.077503	-1.746753	-133.173710
9.000000	-1.801289	-6.420109	-11.155692	-148.764503	-11.155692	-148.764503	-1.455502	-137.225107
9.050000	-1.447492	-11.486700	-12.405800	-154.915149	-12.405800	-154.915149	-1.275649	-141.141944
9.100000	-1.220394	-15.882404	-13.583133	-160.021761	-13.583133	-160.021761	-1.161031	-144.897587
9.150000	-1.068504	-19.782033	-14.702261	-164.384445	-14.702261	-164.384445	-1.086498	-148.517127
9.200000	-0.962114	-23.330245	-15.789190	-168.217374	-15.789190	-168.217374	-1.036636	-152.038970
9.250000	-0.886363	-26.611569	-16.859828	-171.630891	-16.859828	-171.630891	-1.003534	-155.490765
9.300000	-0.832895	-29.678374	-17.923266	-174.673888	-17.923266	-174.673888	-0.982639	-158.893876
9.350000	-0.794592	-32.588388	-19.003217	-177.396444	-19.003217	-177.396444	-0.969982	-162.270437
9.400000	-0.767399	-35.378712	-20.120696	-179.810098	-20.120696	-179.810098	-0.963270	-165.635551
9.450000	-0.748898	-38.073770	-21.295846	178.110400	-21.295846	178.110400	-0.961105	-169.000608
9.500000	-0.737844	-40.688214	-22.546613	176.469693	-22.546613	176.469693	-0.962694	-172.376789
9.550000	-0.732376	-43.245060	-23.912127	175.366355	-23.912127	175.366355	-0.966956	-175.771511
9.600000	-0.731715	-45.756047	-25.432730	175.020689	-25.432730	175.020689	-0.973386	-179.191046
9.650000	-0.735419	-48.230057	-27.158837	175.874755	-27.158837	175.874755	-0.981638	177.358017
9.700000	-0.743146	-50.675548	-29.148400	178.875600	-29.148400	178.875600	-0.991411	173.869401
9.750000	-0.754382	-53.101215	-31.447242	-174.361221	-31.447242	-174.361221	-1.002375	170.341038
9.800000	-0.768941	-55.512653	-33.913260	-160.787087	-33.913260	-160.787087	-1.014349	166.769511
9.850000	-0.786873	-57.914436	-35.523784	-136.532191	-35.523784	-136.532191	-1.027228	163.148697
9.900000	-0.807943	-60.311568	-34.838816	-109.585183	-34.838816	-109.585183	-1.040847	159.477201
9.950000	-0.831936	-62.707841	-32.666763	-91.301696	-32.666763	-91.301696	-1.055085	155.754302
10.000000	-0.858712	-65.106424	-30.343971	-81.910980	-30.343971	-81.910980	-1.069859	151.978211
