! freq	dB(S11)	phase(S11)	dB(S12)	phase(S12)	
!     	dB(S21)	phase(S21)	dB(S22)	phase(S22)	
!S-par simulation data
#  GHz  S  DB  R 50
0.000000	-0.000000	0.000000	-322.763935	180.000000	-322.763935	180.000000	-0.000000	0.000000
0.050000	-0.000105	-0.808086	-98.546221	81.440334	-98.546221	81.440334	-0.000106	-0.808133
0.100000	-0.000417	-1.615913	-92.733561	84.368183	-92.733561	84.368183	-0.000419	-1.616005
0.150000	-0.000926	-2.423223	-89.254994	84.901784	-89.254994	84.901784	-0.000931	-2.423354
0.200000	-0.001600	-3.229863	-86.774752	84.810962	-86.774752	84.810962	-0.001608	-3.230027
0.250000	-0.002422	-4.035662	-84.848398	84.451759	-84.848398	84.451759	-0.002434	-4.035852
0.300000	-0.003377	-4.840408	-83.274786	83.953018	-83.274786	83.953018	-0.003391	-4.840616
0.350000	-0.004418	-5.644201	-81.945142	83.392427	-81.945142	83.392427	-0.004435	-5.644424
0.400000	-0.005537	-6.446862	-80.794799	82.789334	-80.794799	82.789334	-0.005555	-6.447095
0.450000	-0.006712	-7.248124	-79.782282	82.162998	-79.782282	82.162998	-0.006732	-7.248365
0.500000	-0.007908	-8.048823	-78.876730	81.529238	-78.876730	81.529238	-0.007928	-8.049072
0.550000	-0.009119	-8.848301	-78.059182	80.894444	-78.059182	80.894444	-0.009138	-8.848559
0.600000	-0.010340	-9.646908	-77.313612	80.258911	-77.313612	80.258911	-0.010359	-9.647176
0.650000	-0.011555	-10.444561	-76.628497	79.631993	-76.628497	79.631993	-0.011572	-10.444842
0.700000	-0.012763	-11.241261	-75.994875	79.013689	-75.994875	79.013689	-0.012779	-11.241558
0.750000	-0.013958	-12.037234	-75.404919	78.407579	-75.404919	78.407579	-0.013972	-12.037549
0.800000	-0.015135	-12.832189	-74.853246	77.818542	-74.853246	77.818542	-0.015148	-12.832525
0.850000	-0.016301	-13.626599	-74.334320	77.242130	-74.334320	77.242130	-0.016311	-13.626959
0.900000	-0.017443	-14.419918	-73.844261	76.690968	-73.844261	76.690968	-0.017451	-14.420305
0.950000	-0.018576	-15.212844	-73.379623	76.150884	-73.379623	76.150884	-0.018583	-15.213258
1.000000	-0.019685	-16.004585	-72.936421	75.644036	-72.936421	75.644036	-0.019690	-16.005030
1.050000	-0.020788	-16.796066	-72.513761	75.145350	-72.513761	75.145350	-0.020793	-16.796542
1.100000	-0.021869	-17.586242	-72.106044	74.687469	-72.106044	74.687469	-0.021872	-17.586751
1.150000	-0.022947	-18.376286	-71.715846	74.233906	-71.715846	74.233906	-0.022950	-18.376827
1.200000	-0.024005	-19.164877	-71.334366	73.827839	-71.334366	73.827839	-0.024007	-19.165452
1.250000	-0.025063	-19.953468	-70.968938	73.421772	-70.968938	73.421772	-0.025064	-19.954077
1.300000	-0.026104	-20.740434	-70.605808	73.068321	-70.605808	73.068321	-0.026105	-20.741077
1.350000	-0.027145	-21.527400	-70.257253	72.714870	-70.257253	72.714870	-0.027146	-21.528077
1.400000	-0.028174	-22.312828	-69.906917	72.408197	-69.906917	72.408197	-0.028175	-22.313538
1.450000	-0.029203	-23.098116	-69.568835	72.105777	-69.568835	72.105777	-0.029204	-23.098859
1.500000	-0.030224	-23.881956	-69.225705	71.842252	-69.225705	71.842252	-0.030226	-23.882733
1.550000	-0.031244	-24.665507	-68.892208	71.586506	-68.892208	71.586506	-0.031246	-24.666316
1.600000	-0.032260	-25.447708	-68.551256	71.360169	-68.551256	71.360169	-0.032262	-25.448550
1.650000	-0.033274	-26.229460	-68.216842	71.143636	-68.216842	71.143636	-0.033277	-26.230334
1.700000	-0.034287	-27.009973	-67.873518	70.946063	-67.873518	70.946063	-0.034290	-27.010879
1.750000	-0.035299	-27.789866	-67.533013	70.757970	-67.533013	70.757970	-0.035302	-27.790804
1.800000	-0.036310	-28.568642	-67.183208	70.578260	-67.183208	70.578260	-0.036314	-28.569612
1.850000	-0.037321	-29.346620	-66.831762	70.404536	-66.831762	70.404536	-0.037325	-29.347622
1.900000	-0.038332	-30.123616	-66.471800	70.229453	-66.471800	70.229453	-0.038337	-30.124650
1.950000	-0.039345	-30.899630	-66.104897	70.053011	-66.104897	70.053011	-0.039350	-30.900696
2.000000	-0.040358	-31.674807	-65.731539	69.867300	-65.731539	69.867300	-0.040363	-31.675906
2.050000	-0.041373	-32.448814	-65.345000	69.668614	-65.345000	69.668614	-0.041379	-32.449946
2.100000	-0.042390	-33.222142	-64.955443	69.455470	-64.955443	69.455470	-0.042396	-33.223307
2.150000	-0.043410	-33.994112	-64.545393	69.213413	-64.545393	69.213413	-0.043416	-33.995311
2.200000	-0.044431	-34.765569	-64.137246	68.955079	-64.137246	68.955079	-0.044437	-34.766802
2.250000	-0.045457	-35.535485	-63.700021	68.647913	-63.700021	68.647913	-0.045464	-35.536753
2.300000	-0.046485	-36.305059	-63.271245	68.326341	-63.271245	68.326341	-0.046491	-36.306363
2.350000	-0.047519	-37.072922	-62.803216	67.932729	-62.803216	67.932729	-0.047526	-37.074264
2.400000	-0.048554	-37.840617	-62.352038	67.530242	-62.352038	67.530242	-0.048561	-37.841997
2.450000	-0.049598	-38.606455	-61.849329	67.030118	-61.849329	67.030118	-0.049605	-38.607875
2.500000	-0.050643	-39.372292	-61.374129	66.529993	-61.374129	66.529993	-0.050650	-39.373753
2.550000	-0.051700	-40.136165	-60.832214	65.905168	-60.832214	65.905168	-0.051707	-40.137670
2.600000	-0.052757	-40.900037	-60.322133	65.280342	-60.322133	65.280342	-0.052764	-40.901587
2.650000	-0.053828	-41.662210	-59.744535	64.526488	-59.744535	64.526488	-0.053836	-41.663809
2.700000	-0.054901	-42.424228	-59.194828	63.760904	-59.194828	63.760904	-0.054909	-42.425876
2.750000	-0.055991	-43.184856	-58.576855	62.866289	-58.576855	62.866289	-0.055998	-43.186559
2.800000	-0.057083	-43.945206	-57.981173	61.945868	-57.981173	61.945868	-0.057091	-43.946964
2.850000	-0.058195	-44.704534	-57.316413	60.899765	-57.316413	60.899765	-0.058203	-44.706353
2.900000	-0.059314	-45.463520	-56.665880	59.811769	-56.665880	59.811769	-0.059322	-45.465404
2.950000	-0.060456	-46.221932	-55.945357	58.603606	-55.945357	58.603606	-0.060464	-46.223888
3.000000	-0.061610	-46.980056	-55.227152	57.335359	-55.227152	57.335359	-0.061618	-46.982088
3.050000	-0.062794	-47.738176	-54.438032	55.953200	-54.438032	55.953200	-0.062803	-47.740294
3.100000	-0.064000	-48.496291	-53.632983	54.489677	-53.632983	54.489677	-0.064010	-48.498503
3.150000	-0.065248	-49.255169	-52.756388	52.917376	-52.756388	52.917376	-0.065259	-49.257488
3.200000	-0.066540	-50.014808	-51.834522	51.236297	-51.834522	51.236297	-0.066552	-50.017248
3.250000	-0.067899	-50.776327	-50.841498	49.447506	-50.841498	49.447506	-0.067912	-50.778908
3.300000	-0.069353	-51.540481	-49.752797	47.507916	-49.752797	47.507916	-0.069368	-51.543229
3.350000	-0.070868	-52.306476	-48.685770	45.501207	-48.685770	45.501207	-0.070886	-52.309407
3.400000	-0.072628	-53.079808	-47.404314	43.259072	-47.404314	43.259072	-0.072650	-53.082980
3.450000	-0.074696	-53.861889	-45.981437	40.803477	-45.981437	40.803477	-0.074724	-53.865366
3.500000	-0.077371	-54.659421	-44.329385	38.030867	-44.329385	38.030867	-0.077409	-54.663308
3.550000	-0.081210	-55.482172	-42.392683	34.803237	-42.392683	34.803237	-0.081265	-55.486636
3.600000	-0.087487	-56.348206	-40.086308	30.847702	-40.086308	30.847702	-0.087575	-56.353529
3.650000	-0.100864	-57.308547	-37.101901	25.339020	-37.101901	25.339020	-0.101030	-57.315328
3.700000	-0.142357	-58.499479	-32.886184	15.674645	-32.886184	15.674645	-0.142777	-58.509189
3.750000	-0.385165	-60.052402	-26.238679	-12.308940	-26.238679	-12.308940	-0.387122	-60.067506
3.800000	-0.463890	-56.643631	-25.273685	-97.418161	-25.273685	-97.418161	-0.466285	-56.631817
3.850000	-0.165188	-57.999669	-31.707825	-129.766378	-31.707825	-129.766378	-0.165683	-57.992478
3.900000	-0.116255	-59.205024	-35.629369	-140.361857	-35.629369	-140.361857	-0.116449	-59.200964
3.950000	-0.102166	-60.167203	-38.253670	-146.413062	-38.253670	-146.413062	-0.102269	-60.164690
4.000000	-0.096952	-61.026437	-40.159552	-150.865381	-40.159552	-150.865381	-0.097018	-61.024820
4.050000	-0.094908	-61.835193	-41.625220	-154.601741	-41.625220	-154.601741	-0.094955	-61.834159
4.100000	-0.094186	-62.617662	-42.838274	-157.990879	-42.838274	-157.990879	-0.094221	-62.617054
4.150000	-0.094288	-63.380451	-43.807447	-161.137924	-43.807447	-161.137924	-0.094316	-63.380153
4.200000	-0.094843	-64.130084	-44.595151	-164.136923	-44.595151	-164.136923	-0.094867	-64.130024
4.250000	-0.095592	-64.873379	-45.311700	-167.068821	-45.311700	-167.068821	-0.095612	-64.873524
4.300000	-0.096546	-65.609338	-45.913269	-169.926040	-45.913269	-169.926040	-0.096564	-65.609650
4.350000	-0.097655	-66.338769	-46.405974	-172.720151	-46.405974	-172.720151	-0.097672	-66.339218
4.400000	-0.098844	-67.064541	-46.845207	-175.478722	-46.845207	-175.478722	-0.098859	-67.065112
4.450000	-0.100107	-67.786735	-47.227401	-178.201744	-47.227401	-178.201744	-0.100121	-67.787412
4.500000	-0.101478	-68.503042	-47.506088	179.138422	-47.506088	179.138422	-0.101492	-68.503806
4.550000	-0.102850	-69.219350	-47.794015	176.478587	-47.794015	176.478587	-0.102863	-69.220201
4.600000	-0.104262	-69.933315	-48.050162	173.849508	-48.050162	173.849508	-0.104274	-69.934246
4.650000	-0.105754	-70.642595	-48.228846	171.281941	-48.228846	171.281941	-0.105766	-70.643593
4.700000	-0.107246	-71.351876	-48.411284	168.714373	-48.411284	168.714373	-0.107258	-71.352940
4.750000	-0.108791	-72.057930	-48.550567	166.201533	-48.550567	166.201533	-0.108802	-72.059055
4.800000	-0.110379	-72.761404	-48.654032	163.732474	-48.654032	163.732474	-0.110390	-72.762583
4.850000	-0.111966	-73.464878	-48.758746	161.263416	-48.758746	161.263416	-0.111978	-73.466111
4.900000	-0.113621	-74.164379	-48.817869	158.877791	-48.817869	158.877791	-0.113632	-74.165661
4.950000	-0.115295	-74.862746	-48.863961	156.516004	-48.863961	156.516004	-0.115306	-74.864073
5.000000	-0.116969	-75.561112	-48.910299	154.154218	-48.910299	154.154218	-0.116980	-75.562486
5.050000	-0.118725	-76.254822	-48.912425	151.907667	-48.912425	151.907667	-0.118736	-76.256236
5.100000	-0.120482	-76.948531	-48.914551	149.661115	-48.914551	149.661115	-0.120493	-76.949985
5.150000	-0.122258	-77.641277	-48.909155	147.441615	-48.909155	147.441615	-0.122269	-77.642770
5.200000	-0.124097	-78.330653	-48.877498	145.316794	-48.877498	145.316794	-0.124108	-78.332182
5.250000	-0.125937	-79.020028	-48.845956	143.191972	-48.845956	143.191972	-0.125948	-79.021593
5.300000	-0.127815	-79.707593	-48.802747	141.123693	-48.802747	141.123693	-0.127826	-79.709192
5.350000	-0.129739	-80.392894	-48.745119	139.126092	-48.745119	139.126092	-0.129751	-80.394524
5.400000	-0.131664	-81.078195	-48.687872	137.128491	-48.687872	137.128491	-0.131676	-81.079857
5.450000	-0.133647	-81.760932	-48.616810	135.219328	-48.616810	135.219328	-0.133659	-81.762624
5.500000	-0.135660	-82.442387	-48.539297	133.354385	-48.539297	133.354385	-0.135671	-82.444108
5.550000	-0.137673	-83.123842	-48.462469	131.489442	-48.462469	131.489442	-0.137684	-83.125592
5.600000	-0.139767	-83.802076	-48.370678	129.748230	-48.370678	129.748230	-0.139778	-83.803852
5.650000	-0.141871	-84.479906	-48.277914	128.022484	-48.277914	128.022484	-0.141883	-84.481709
5.700000	-0.143987	-85.157360	-48.184433	126.313196	-48.184433	126.313196	-0.143999	-85.159189
5.750000	-0.146188	-85.831797	-48.078519	124.735568	-48.078519	124.735568	-0.146201	-85.833649
5.800000	-0.148390	-86.506234	-47.973880	123.157939	-47.973880	123.157939	-0.148403	-86.508110
5.850000	-0.150627	-87.179624	-47.865857	121.633925	-47.865857	121.633925	-0.150639	-87.181523
5.900000	-0.152932	-87.850922	-47.750021	120.217139	-47.750021	120.217139	-0.152944	-87.852841
5.950000	-0.155237	-88.522220	-47.635710	118.800353	-47.635710	118.800353	-0.155250	-88.524160
6.000000	-0.157604	-89.191939	-47.515298	117.483027	-47.515298	117.483027	-0.157617	-89.193898
6.050000	-0.160021	-89.860394	-47.390552	116.245268	-47.390552	116.245268	-0.160034	-89.862371
6.100000	-0.162438	-90.528850	-47.267573	115.007510	-47.267573	115.007510	-0.162451	-90.530844
6.150000	-0.164948	-91.195376	-47.134745	113.928930	-47.134745	113.928930	-0.164962	-91.197385
6.200000	-0.167486	-91.861351	-47.000667	112.895830	-47.000667	112.895830	-0.167500	-91.863374
6.250000	-0.170025	-92.527326	-46.868626	111.862730	-46.868626	111.862730	-0.170039	-92.529363
6.300000	-0.172698	-93.191282	-46.720390	111.069695	-46.720390	111.069695	-0.172712	-93.193328
6.350000	-0.175371	-93.855237	-46.574641	110.276661	-46.574641	110.276661	-0.175385	-93.857292
6.400000	-0.178079	-94.518880	-46.425695	109.547553	-46.425695	109.547553	-0.178093	-94.520943
6.450000	-0.180906	-95.181431	-46.260007	109.042190	-46.260007	109.042190	-0.180921	-95.183497
6.500000	-0.183735	-95.843981	-46.097421	108.536827	-46.097421	108.536827	-0.183749	-95.846050
6.550000	-0.186644	-96.506290	-45.921123	108.186530	-45.921123	108.186530	-0.186660	-96.508359
6.600000	-0.189656	-97.168297	-45.727913	108.030065	-45.727913	108.030065	-0.189671	-97.170361
6.650000	-0.192669	-97.830305	-45.538908	107.873600	-45.538908	107.873600	-0.192684	-97.832363
6.700000	-0.195791	-98.492542	-45.327105	107.921435	-45.327105	107.921435	-0.195807	-98.494588
6.750000	-0.199006	-99.155111	-45.096813	108.135116	-45.096813	108.135116	-0.199023	-99.157141
6.800000	-0.202317	-99.818244	-44.846012	108.514404	-44.846012	108.514404	-0.202333	-99.820252
6.850000	-0.205766	-100.482567	-44.559793	109.112659	-44.559793	109.112659	-0.205782	-100.484546
6.900000	-0.209326	-101.148071	-44.246225	109.867746	-44.246225	109.867746	-0.209344	-101.150013
6.950000	-0.213008	-101.814946	-43.904193	110.781526	-43.904193	110.781526	-0.213025	-101.816842
7.000000	-0.216899	-102.484516	-43.504455	111.929167	-43.504455	111.929167	-0.216916	-102.486355
7.050000	-0.221010	-103.157236	-43.046349	113.259911	-43.046349	113.259911	-0.221027	-103.159003
7.100000	-0.225342	-103.833245	-42.536935	114.735663	-42.536935	114.735663	-0.225360	-103.834925
7.150000	-0.229948	-104.513407	-41.968176	116.360583	-41.968176	116.360583	-0.229966	-104.514983
7.200000	-0.235102	-105.202034	-41.269157	118.142910	-41.269157	118.142910	-0.235118	-105.203471
7.250000	-0.240622	-105.896247	-40.522270	119.973862	-40.522270	119.973862	-0.240636	-105.897523
7.300000	-0.246980	-106.602969	-39.630668	121.838928	-39.630668	121.838928	-0.246992	-106.604035
7.350000	-0.254395	-107.324625	-38.604330	123.648392	-38.604330	123.648392	-0.254403	-107.325423
7.400000	-0.263281	-108.065683	-37.436801	125.314144	-37.436801	125.314144	-0.263283	-108.066137
7.450000	-0.274641	-108.836459	-36.075326	126.694557	-36.075326	126.694557	-0.274632	-108.836453
7.500000	-0.290017	-109.649642	-34.493543	127.616186	-34.493543	127.616186	-0.289988	-109.649009
7.550000	-0.312768	-110.528534	-32.627919	127.789061	-32.627919	127.789061	-0.312703	-110.527005
7.600000	-0.350298	-111.511269	-30.396335	126.715746	-30.396335	126.715746	-0.350160	-111.508402
7.650000	-0.422004	-112.660534	-27.662355	123.347811	-27.662355	123.347811	-0.421698	-112.655543
7.700000	-0.589546	-114.017934	-24.210536	114.977909	-24.210536	114.977909	-0.588763	-114.009459
7.750000	-1.039940	-114.697430	-20.083087	93.738358	-20.083087	93.738358	-1.037521	-114.686026
7.800000	-1.336415	-110.054890	-18.121081	49.863205	-18.121081	49.863205	-1.332259	-110.062671
7.850000	-0.714052	-108.756772	-20.836875	15.082732	-20.836875	15.082732	-0.712161	-108.773762
7.900000	-0.447814	-110.308327	-23.871076	0.356123	-23.871076	0.356123	-0.446942	-110.322774
7.950000	-0.358450	-111.669715	-26.127834	-6.358416	-26.127834	-6.358416	-0.357954	-111.681956
8.000000	-0.323162	-112.770985	-27.791504	-9.944097	-27.791504	-9.944097	-0.322838	-112.781790
8.050000	-0.307663	-113.715971	-29.055236	-12.123537	-29.055236	-12.123537	-0.307432	-113.725821
8.100000	-0.300919	-114.566068	-30.033822	-13.589978	-30.033822	-13.589978	-0.300744	-114.575261
8.150000	-0.298436	-115.357592	-30.811769	-14.686099	-30.811769	-14.686099	-0.298299	-115.366316
8.200000	-0.298365	-116.109026	-31.432477	-15.575545	-31.432477	-15.575545	-0.298254	-116.117411
8.250000	-0.299705	-116.832905	-31.933014	-16.356790	-31.933014	-16.356790	-0.299613	-116.841042
8.300000	-0.301878	-117.538286	-32.346819	-17.088291	-32.346819	-17.088291	-0.301802	-117.546238
8.350000	-0.304734	-118.226734	-32.669889	-17.798128	-32.669889	-17.798128	-0.304669	-118.234560
8.400000	-0.307948	-118.905448	-32.939191	-18.509832	-32.939191	-18.509832	-0.307893	-118.913184
8.450000	-0.311471	-119.575325	-33.154853	-19.234413	-33.154853	-19.234413	-0.311425	-119.583004
8.500000	-0.315228	-120.238236	-33.325045	-19.979652	-33.325045	-19.979652	-0.315189	-120.245885
8.550000	-0.319170	-120.895590	-33.456176	-20.750074	-33.456176	-20.750074	-0.319137	-120.903234
8.600000	-0.323263	-121.548479	-33.553318	-21.548114	-33.553318	-21.548114	-0.323236	-121.556140
8.650000	-0.327484	-122.197769	-33.620511	-22.374860	-33.620511	-22.374860	-0.327462	-122.205467
8.700000	-0.331817	-122.844165	-33.660975	-23.230538	-33.660975	-23.230538	-0.331800	-122.851919
8.750000	-0.336252	-123.488258	-33.677272	-24.114841	-33.677272	-24.114841	-0.336239	-123.496084
8.800000	-0.340828	-124.129812	-33.659813	-25.042491	-33.659813	-25.042491	-0.340820	-124.137740
8.850000	-0.345407	-124.771366	-33.642389	-25.970140	-33.642389	-25.970140	-0.345404	-124.779395
8.900000	-0.350151	-125.411215	-33.587558	-26.948132	-33.587558	-26.948132	-0.350151	-125.419381
8.950000	-0.354912	-126.050909	-33.529697	-27.930700	-33.529697	-27.930700	-0.354917	-126.059215
9.000000	-0.359825	-126.690458	-33.439474	-28.956624	-33.439474	-28.956624	-0.359835	-126.698942
9.050000	-0.364771	-127.329978	-33.343712	-29.991219	-33.343712	-29.991219	-0.364785	-127.338647
9.100000	-0.369870	-127.970692	-33.217946	-31.064104	-33.217946	-31.064104	-0.369890	-127.979587
9.150000	-0.375022	-128.611802	-33.083796	-32.149751	-33.083796	-32.149751	-0.375049	-128.620938
9.200000	-0.380288	-129.254441	-32.930238	-33.260215	-32.930238	-33.260215	-0.380321	-129.263850
9.250000	-0.385704	-129.899424	-32.751910	-34.401688	-32.751910	-34.401688	-0.385745	-129.909148
9.300000	-0.391277	-130.547325	-32.549813	-35.572789	-32.549813	-35.572789	-0.391328	-130.557410
9.350000	-0.397041	-131.199068	-32.321034	-36.777270	-32.321034	-36.777270	-0.397103	-131.209569
9.400000	-0.403028	-131.855474	-32.064210	-38.018129	-32.064210	-38.018129	-0.403104	-131.866453
9.450000	-0.409295	-132.517794	-31.775488	-39.302178	-31.775488	-39.302178	-0.409387	-132.529326
9.500000	-0.415924	-133.187644	-31.449931	-40.639197	-31.449931	-40.639197	-0.416037	-133.199822
9.550000	-0.423016	-133.866776	-31.083280	-42.040688	-31.083280	-42.040688	-0.423156	-133.879709
9.600000	-0.430810	-134.559140	-30.661258	-43.534773	-30.661258	-43.534773	-0.430986	-134.572980
9.650000	-0.439642	-135.269355	-30.170577	-45.157378	-30.170577	-45.157378	-0.439867	-135.284301
9.700000	-0.449996	-136.002960	-29.598565	-46.955816	-29.598565	-46.955816	-0.450290	-136.019266
9.750000	-0.462751	-136.768837	-28.924256	-49.010523	-28.924256	-49.010523	-0.463145	-136.786840
9.800000	-0.479699	-137.582405	-28.110988	-51.471538	-28.110988	-51.471538	-0.480244	-137.602586
9.850000	-0.504317	-138.466611	-27.112773	-54.592449	-27.112773	-54.592449	-0.505106	-138.489638
9.900000	-0.544783	-139.460511	-25.854083	-58.888293	-25.854083	-58.888293	-0.545992	-139.487324
9.950000	-0.621233	-140.615761	-24.240129	-65.410248	-24.240129	-65.410248	-0.623222	-140.647499
10.000000	-0.792391	-141.923810	-22.169129	-76.708250	-22.169129	-76.708250	-0.795927	-141.960958
