! freq	dB(S11)	phase(S11)	dB(S12)	phase(S12)	
!     	dB(S21)	phase(S21)	dB(S22)	phase(S22)	
!S-par simulation data
#  GHz  S  DB  R 50
0.000000	-81.210587	0.000000	-0.000756	0.000000	-0.000756	0.000000	-81.210587	0.000000
0.050000	-52.992938	-82.562500	-0.006407	-2.972953	-0.006407	-2.972953	-53.111829	-81.256817
0.100000	-47.370396	-89.956160	-0.011990	-5.900387	-0.011990	-5.900387	-47.368312	-89.998105
0.150000	-43.984395	-94.882231	-0.016069	-8.820752	-0.016069	-8.820752	-43.974885	-95.027584
0.200000	-41.621268	-98.951111	-0.019827	-11.738886	-0.019827	-11.738886	-41.617232	-99.046140
0.250000	-39.839193	-102.668836	-0.023525	-14.655116	-0.023525	-14.655116	-39.840612	-102.704186
0.300000	-38.444541	-106.175976	-0.027160	-17.569647	-0.027160	-17.569647	-38.450273	-106.170228
0.350000	-37.330385	-109.554273	-0.030705	-20.483080	-0.030705	-20.483080	-37.339197	-109.532073
0.400000	-36.433566	-112.847560	-0.034144	-23.396056	-0.034144	-23.396056	-36.444251	-112.832006
0.450000	-35.714611	-116.081587	-0.037479	-26.309140	-0.037479	-26.309140	-35.726032	-116.091713
0.500000	-35.148235	-119.272470	-0.040721	-29.222793	-0.040721	-29.222793	-35.159445	-119.322972
0.550000	-34.718465	-122.430775	-0.043880	-32.137389	-0.043880	-32.137389	-34.728846	-122.533190
0.600000	-34.416042	-125.563726	-0.046969	-35.053238	-0.046969	-35.053238	-34.425397	-125.728573
0.650000	-34.241313	-128.675981	-0.049996	-37.970682	-0.049996	-37.970682	-34.249894	-128.915987
0.700000	-34.195976	-131.771976	-0.052969	-40.890006	-0.052969	-40.890006	-34.204406	-132.105023
0.750000	-34.282327	-134.856000	-0.055897	-43.811419	-0.055897	-43.811419	-34.291419	-135.307546
0.800000	-34.512701	-137.931819	-0.058788	-46.735191	-0.058788	-46.735191	-34.523338	-138.539146
0.850000	-34.895949	-141.003690	-0.061651	-49.661406	-0.061651	-49.661406	-34.908956	-141.815969
0.900000	-35.484766	-144.077185	-0.064492	-52.590736	-0.064492	-52.590736	-35.500934	-145.179269
0.950000	-36.320948	-147.160888	-0.067325	-55.523345	-0.067325	-55.523345	-36.340794	-148.680755
1.000000	-37.489379	-150.268907	-0.070167	-58.459574	-0.070167	-58.459574	-37.512846	-152.422771
1.050000	-39.143622	-153.429563	-0.073036	-61.399783	-0.073036	-61.399783	-39.168748	-156.625601
1.100000	-41.602567	-156.715696	-0.075958	-64.344343	-0.075958	-64.344343	-41.618847	-161.875485
1.150000	-45.718135	-160.412071	-0.078961	-67.293638	-0.078961	-67.293638	-45.653567	-170.444887
1.200000	-55.607499	-178.171734	-0.082078	-70.248060	-0.082078	-70.248060	-53.887472	157.602508
1.250000	-52.388831	19.045580	-0.085350	-73.208008	-0.085350	-73.208008	-50.946168	44.835323
1.300000	-43.275114	13.619639	-0.088825	-76.174020	-0.088825	-76.174020	-42.958239	25.501345
1.350000	-38.583775	10.040339	-0.092544	-79.146370	-0.092544	-79.146370	-38.428976	18.195439
1.400000	-35.318784	6.769899	-0.096556	-82.125432	-0.096556	-82.125432	-35.220880	13.271061
1.450000	-32.774610	3.601460	-0.100902	-85.111531	-0.100902	-85.111531	-32.704626	9.189119
1.500000	-30.670080	0.476431	-0.105621	-88.104876	-0.105621	-88.104876	-30.616387	5.497798
1.550000	-28.864099	-2.628301	-0.110754	-91.105443	-0.110754	-91.105443	-28.820950	2.017332
1.600000	-27.275614	-5.723755	-0.116370	-94.112884	-0.116370	-94.112884	-27.239764	-1.337897
1.650000	-25.853669	-8.815873	-0.122619	-97.126669	-0.122619	-97.126669	-25.823110	-4.613851
1.700000	-24.564089	-11.908131	-0.129740	-100.146631	-0.129740	-100.146631	-24.537493	-7.837399
1.750000	-23.382805	-15.002679	-0.137972	-103.173363	-0.137972	-103.173363	-23.359249	-11.025268
1.800000	-22.292208	-18.100873	-0.147450	-106.207790	-0.147450	-106.207790	-22.271025	-14.188380
1.850000	-21.279011	-21.203570	-0.158225	-109.250482	-0.158225	-109.250482	-21.259706	-17.334117
1.900000	-20.332526	-24.311338	-0.170347	-112.301570	-0.170347	-112.301570	-20.314724	-20.467506
1.950000	-19.444790	-27.424436	-0.183881	-115.360765	-0.183881	-115.360765	-19.428201	-23.592229
2.000000	-18.609698	-30.542858	-0.198900	-118.427558	-0.198900	-118.427558	-18.594096	-26.710903
2.050000	-17.821879	-33.666499	-0.215503	-121.501472	-0.215503	-121.501472	-17.807087	-29.825272
2.100000	-17.076890	-36.795116	-0.233797	-124.581980	-0.233797	-124.581980	-17.062766	-32.936520
2.150000	-16.371007	-39.928351	-0.253885	-127.668509	-0.253885	-127.668509	-16.357439	-36.045404
2.200000	-15.701077	-43.065739	-0.275868	-130.760427	-0.275868	-130.760427	-15.687976	-39.152342
2.250000	-15.064405	-46.206724	-0.299842	-133.857044	-0.299842	-133.857044	-15.051700	-42.257480
2.300000	-14.458664	-49.350660	-0.325895	-136.957607	-0.325895	-136.957607	-14.446299	-45.360742
2.350000	-13.881829	-52.496826	-0.354105	-140.061303	-0.354105	-140.061303	-13.869759	-48.461868
2.400000	-13.332124	-55.644431	-0.384542	-143.167261	-0.384542	-143.167261	-13.320313	-51.560444
2.450000	-12.807976	-58.792622	-0.417262	-146.274560	-0.417262	-146.274560	-12.796397	-54.655926
2.500000	-12.307986	-61.940494	-0.452311	-149.382229	-0.452311	-149.382229	-12.296617	-57.747666
2.550000	-11.830846	-65.087060	-0.489759	-152.489231	-0.489759	-152.489231	-11.819668	-60.834839
2.600000	-11.375510	-68.231343	-0.529586	-155.594519	-0.529586	-155.594519	-11.364510	-63.916698
2.650000	-10.940937	-71.372335	-0.571798	-158.697031	-0.571798	-158.697031	-10.930102	-66.992382
2.700000	-10.526171	-74.509015	-0.616382	-161.795693	-0.616382	-161.795693	-10.515493	-70.060993
2.750000	-10.130332	-77.640358	-0.663314	-164.889429	-0.663314	-164.889429	-10.119801	-73.121606
2.800000	-9.752600	-80.765347	-0.712553	-167.977171	-0.712553	-167.977171	-9.742208	-76.173292
2.850000	-9.392301	-83.882661	-0.764116	-171.057559	-0.764116	-171.057559	-9.382042	-79.214708
2.900000	-9.048575	-86.991875	-0.817797	-174.130098	-0.817797	-174.130098	-9.038440	-82.245665
2.950000	-8.720793	-90.091812	-0.873576	-177.193574	-0.873576	-177.193574	-8.710776	-85.264953
3.000000	-8.408312	-93.181580	-0.931357	179.752953	-0.931357	179.752953	-8.398405	-88.271723
3.050000	-8.110515	-96.260339	-0.991033	176.710368	-0.991033	176.710368	-8.100710	-91.265169
3.100000	-7.826812	-99.327314	-1.052483	173.679495	-1.052483	173.679495	-7.817103	-94.244542
3.150000	-7.556694	-102.381650	-1.115589	170.661233	-1.115589	170.661233	-7.547071	-97.208987
3.200000	-7.299626	-105.422695	-1.180206	167.656282	-1.180206	167.656282	-7.290080	-100.157867
3.250000	-7.055030	-108.450035	-1.246173	164.665104	-1.246173	164.665104	-7.045551	-103.090805
3.300000	-6.822397	-111.463204	-1.313337	161.688209	-1.313337	161.688209	-6.812977	-106.007344
3.350000	-6.601238	-114.461826	-1.381538	158.726022	-1.381538	158.726022	-6.591868	-108.907109
3.400000	-6.391079	-117.445614	-1.450614	155.778876	-1.450614	155.778876	-6.381748	-111.789813
3.450000	-6.191461	-120.414374	-1.520399	152.847016	-1.520399	152.847016	-6.182160	-114.655260
3.500000	-6.001942	-123.368007	-1.590726	149.930590	-1.590726	149.930590	-5.992662	-117.503341
3.550000	-5.822093	-126.306508	-1.661427	147.029655	-1.661427	147.029655	-5.812825	-120.334044
3.600000	-5.651499	-129.229971	-1.732337	144.144173	-1.732337	144.144173	-5.642234	-123.147446
3.650000	-5.489760	-132.138585	-1.803293	141.274011	-1.803293	141.274011	-5.480489	-125.943722
3.700000	-5.336488	-135.032639	-1.874136	138.418941	-1.874136	138.418941	-5.327202	-128.723138
3.750000	-5.191307	-137.912521	-1.944712	135.578642	-1.944712	135.578642	-5.181999	-131.486060
3.800000	-5.053968	-140.778436	-2.014848	132.752994	-2.014848	132.752994	-5.044630	-134.232613
3.850000	-4.923997	-143.631294	-2.084424	129.941153	-2.084424	129.941153	-4.914622	-136.963729
3.900000	-4.801051	-146.471806	-2.153312	127.142494	-2.153312	127.142494	-4.791631	-139.680083
3.950000	-4.684793	-149.300799	-2.221395	124.356289	-2.221395	124.356289	-4.675323	-142.382464
4.000000	-4.575155	-152.118691	-2.288490	121.582291	-2.288490	121.582291	-4.565627	-145.071109
4.050000	-4.471336	-154.927622	-2.354652	118.818393	-2.354652	118.818393	-4.461745	-147.748353
4.100000	-4.373229	-157.728378	-2.419756	116.064009	-2.419756	116.064009	-4.363567	-150.414821
4.150000	-4.280511	-160.522411	-2.483764	113.317879	-2.483764	113.317879	-4.270773	-153.071901
4.200000	-4.192854	-163.311405	-2.546670	110.578562	-2.546670	110.578562	-4.183032	-155.721208
4.250000	-4.109919	-166.097334	-2.608508	107.844395	-2.608508	107.844395	-4.100004	-158.364629
4.300000	-4.031345	-168.882543	-2.669367	105.113440	-2.669367	105.113440	-4.021326	-161.004415
4.350000	-3.956741	-171.669872	-2.729409	102.383411	-2.729409	102.383411	-3.946606	-163.643285
4.400000	-3.885668	-174.462835	-2.788895	99.651562	-2.788895	99.651562	-3.875398	-166.284613
4.450000	-3.817615	-177.265903	-2.848228	96.914532	-2.848228	96.914532	-3.807188	-168.932686
4.500000	-3.751968	179.915067	-2.908021	94.168102	-2.908021	94.168102	-3.741351	-171.593127
4.550000	-3.687956	177.072119	-2.969206	91.406844	-2.969206	91.406844	-3.677105	-174.273581
4.600000	-3.624699	174.198723	-3.032794	88.626473	-3.032794	88.626473	-3.613557	-176.980584
4.650000	-3.560743	171.270348	-3.101674	85.812116	-3.101674	85.812116	-3.549204	-179.737194
4.700000	-3.494190	168.264682	-3.179345	82.952133	-3.179345	82.952133	-3.482099	177.434773
4.750000	-3.422319	165.138498	-3.272379	80.026364	-3.272379	80.026364	-3.409418	174.493558
4.800000	-3.341550	161.821256	-3.392107	77.008357	-3.392107	77.008357	-3.327395	171.370791
4.850000	-3.245963	158.144261	-3.566289	73.852270	-3.566289	73.852270	-3.229629	167.902877
4.900000	-3.132339	153.753521	-3.857752	70.538128	-3.857752	70.538128	-3.111735	163.744697
4.950000	-3.030326	147.674797	-4.452347	67.377122	-4.452347	67.377122	-2.999471	157.941981
5.000000	-3.314960	137.111139	-5.864552	68.712491	-5.864552	68.712491	-3.249916	147.728819
5.050000	-6.425288	130.134309	-4.902347	87.361037	-4.902347	87.361037	-6.235337	140.610956
5.100000	-6.562208	149.496204	-2.710597	78.116801	-2.710597	78.116801	-6.479565	159.303525
5.150000	-5.366554	150.042963	-2.493484	69.852206	-2.493484	69.852206	-5.337166	160.258227
5.200000	-4.843575	147.178096	-2.520948	64.581773	-2.520948	64.581773	-4.826630	157.718543
5.250000	-4.587942	144.016106	-2.564646	60.499505	-2.564646	60.499505	-4.575300	154.825977
5.300000	-4.452088	140.893624	-2.596820	56.957888	-2.596820	56.957888	-4.441335	151.947879
5.350000	-4.377849	137.833565	-2.615914	53.684074	-2.615914	53.684074	-4.368084	149.120983
5.400000	-4.342555	134.822021	-2.623164	50.563490	-2.623164	50.563490	-4.333350	146.337367
5.450000	-4.330963	131.838267	-2.621548	47.521854	-2.621548	47.521854	-4.322116	143.579801
5.500000	-4.341151	128.873569	-2.610651	44.536053	-2.610651	44.536053	-4.332517	140.841235
5.550000	-4.366128	125.915038	-2.592926	41.574862	-2.592926	41.574862	-4.357627	138.109939
5.600000	-4.405484	122.955511	-2.568360	38.625609	-2.568360	38.625609	-4.397047	135.379674
5.650000	-4.458109	119.988481	-2.537502	35.676729	-2.537502	35.676729	-4.449677	132.644570
5.700000	-4.522267	117.010012	-2.501371	32.720406	-2.501371	32.720406	-4.513790	129.900869
5.750000	-4.599989	114.013019	-2.459311	29.747476	-2.459311	29.747476	-4.591405	127.142509
5.800000	-4.689752	110.996358	-2.412443	26.754540	-2.412443	26.754540	-4.681000	124.368202
5.850000	-4.792416	107.956259	-2.360851	23.736152	-2.360851	23.736152	-4.783425	121.574668
5.900000	-4.909968	104.887109	-2.304302	20.684682	-2.304302	20.684682	-4.900648	118.757164
5.950000	-5.041542	101.790270	-2.243742	17.600487	-2.243742	17.600487	-5.031796	115.916794
6.000000	-5.190196	98.659141	-2.178796	14.474394	-2.178796	14.474394	-5.179896	113.048202
6.050000	-5.356687	95.493295	-2.109995	11.304443	-2.109995	11.304443	-5.345683	110.151257
6.100000	-5.541806	92.293089	-2.037872	8.089608	-2.037872	8.089608	-5.529925	107.226580
6.150000	-5.751056	89.049619	-1.962003	4.815860	-1.962003	4.815860	-5.738047	104.267661
6.200000	-5.983661	85.769130	-1.883491	1.489192	-1.883491	1.489192	-5.969255	101.280265
6.250000	-6.244380	82.447626	-1.802438	-1.899533	-1.802438	-1.899533	-6.228217	98.262552
6.300000	-6.537877	79.083940	-1.719237	-5.357088	-1.719237	-5.357088	-6.519487	95.215577
6.350000	-6.865884	75.683967	-1.634719	-8.879956	-1.634719	-8.879956	-6.844710	92.145851
6.400000	-7.238278	72.244862	-1.549214	-12.484324	-1.549214	-12.484324	-7.213506	89.056104
6.450000	-7.658445	68.776322	-1.463638	-16.165292	-1.463638	-16.165292	-7.629075	85.957606
6.500000	-8.136343	65.285992	-1.378790	-19.931010	-1.378790	-19.931010	-8.100976	82.864268
6.550000	-8.683561	61.787780	-1.295631	-23.787426	-1.295631	-23.787426	-8.640228	79.797735
6.600000	-9.310673	58.303132	-1.215116	-27.731476	-1.215116	-27.731476	-9.256683	76.786242
6.650000	-10.042043	54.871809	-1.138831	-31.779479	-1.138831	-31.779479	-9.973095	73.891006
6.700000	-10.892957	51.533895	-1.067396	-35.916908	-1.067396	-35.916908	-10.803015	71.160324
6.750000	-11.905764	48.398263	-1.003078	-40.161710	-1.003078	-40.161710	-11.784294	68.747968
6.800000	-13.125906	45.617346	-0.947198	-44.508723	-0.947198	-44.508723	-12.954973	66.851470
6.850000	-14.627009	43.487331	-0.901486	-48.957758	-0.901486	-48.957758	-14.372858	65.846397
6.900000	-16.525898	42.620526	-0.867763	-53.507154	-0.867763	-53.507154	-16.117997	66.464330
6.950000	-19.012941	44.477133	-0.847911	-58.153558	-0.847911	-58.153558	-18.284064	70.265136
7.000000	-22.341123	53.224947	-0.843825	-62.891744	-0.843825	-62.891744	-20.857327	80.746762
7.050000	-25.941370	80.827596	-0.857367	-67.714485	-0.857367	-67.714485	-23.033912	103.735022
7.100000	-25.097035	125.438732	-0.890401	-72.612806	-0.890401	-72.612806	-22.559542	134.657050
7.150000	-21.066895	146.767503	-0.944648	-77.575460	-0.944648	-77.575460	-19.883070	154.346058
7.200000	-17.713378	152.871371	-1.021273	-82.588504	-1.021273	-82.588504	-17.137222	162.591302
7.250000	-15.155879	153.433552	-1.121330	-87.637186	-1.121330	-87.637186	-14.839339	165.052397
7.300000	-13.143399	151.644320	-1.245524	-92.705608	-1.245524	-92.705608	-12.953715	164.671663
7.350000	-11.507947	148.683143	-1.394178	-97.777208	-1.394178	-97.777208	-11.388173	162.771136
7.400000	-10.146823	145.074007	-1.567218	-102.835298	-1.567218	-102.835298	-10.069296	159.992596
7.450000	-8.994667	141.086398	-1.764175	-107.863606	-1.764175	-107.863606	-8.944531	156.680284
7.500000	-8.007588	136.875351	-1.984211	-112.846785	-1.984211	-112.846785	-7.976210	153.035864
7.550000	-7.155151	132.537165	-2.226354	-117.769812	-2.226354	-117.769812	-7.137169	149.184605
7.600000	-6.413932	128.138775	-2.488897	-122.621156	-2.488897	-122.621156	-6.405876	145.214351
7.650000	-5.766366	123.724740	-2.770200	-127.390578	-2.770200	-127.390578	-5.765873	141.182887
7.700000	-5.198573	119.326995	-3.068488	-132.069883	-3.068488	-132.069883	-5.203978	137.131445
7.750000	-4.699310	114.968654	-3.381915	-136.652905	-3.381915	-136.652905	-4.709400	133.089835
7.800000	-4.259281	110.666382	-3.708620	-141.135422	-3.708620	-141.135422	-4.273149	129.079648
7.850000	-3.870688	106.431980	-4.046773	-145.514992	-4.046773	-145.514992	-3.887636	125.116377
7.900000	-3.526909	102.273505	-4.394607	-149.790755	-4.394607	-149.790755	-3.546393	121.210890
7.950000	-3.222641	98.197315	-4.750329	-153.961736	-4.750329	-153.961736	-3.244219	117.371518
8.000000	-2.953552	94.208809	-5.111975	-158.026838	-5.111975	-158.026838	-2.976859	113.605059
8.050000	-2.712821	90.299154	-5.479308	-162.000139	-5.479308	-162.000139	-2.737577	109.905506
8.100000	-2.499347	86.477889	-5.849746	-165.873639	-5.849746	-165.873639	-2.525291	106.282026
8.150000	-2.308807	82.738852	-6.222780	-169.656657	-6.222780	-169.656657	-2.335728	102.729996
8.200000	-2.138477	79.079997	-6.597318	-173.353463	-6.597318	-173.353463	-2.166189	99.248084
8.250000	-1.986872	75.503338	-6.971407	-176.963737	-6.971407	-176.963737	-2.015204	95.838318
8.300000	-1.850276	71.996957	-7.346010	179.498445	-7.346010	179.498445	-1.879089	92.490356
8.350000	-1.729098	68.570359	-7.717184	176.041116	-7.717184	176.041116	-1.758246	89.212566
8.400000	-1.619489	65.206349	-8.087515	172.645451	-8.087515	172.645451	-1.648864	85.989759
8.450000	-1.521927	61.912999	-8.452900	169.317567	-8.452900	169.317567	-1.551409	82.828859
8.500000	-1.433922	58.677977	-8.815029	166.043880	-8.815029	166.043880	-1.463414	79.718862
8.550000	-1.355131	55.502180	-9.171477	162.823070	-9.171477	162.823070	-1.384539	76.660268
8.600000	-1.284517	52.380704	-9.521603	159.648350	-9.521603	159.648350	-1.313755	73.648490
8.650000	-1.221055	49.307674	-9.865141	156.511914	-9.865141	156.511914	-1.250048	70.678075
8.700000	-1.164741	46.283709	-10.198722	153.410511	-10.198722	153.410511	-1.193417	67.749047
8.750000	-1.114114	43.297948	-10.524350	150.332431	-10.524350	150.332431	-1.142417	64.851729
8.800000	-1.069960	40.354301	-10.835359	147.273536	-10.835359	147.273536	-1.097833	61.988554
8.850000	-1.030809	37.440405	-11.134737	144.221233	-11.134737	144.221233	-1.058220	59.148670
8.900000	-0.997288	34.555812	-11.416052	141.164411	-11.416052	141.164411	-1.024212	56.330471
8.950000	-0.968846	31.692196	-11.678749	138.089986	-11.678749	138.089986	-0.995280	53.526217
9.000000	-0.945801	28.843421	-11.917814	134.979325	-11.917814	134.979325	-0.971770	50.729290
9.050000	-0.928602	26.001435	-12.127637	131.808757	-12.127637	131.808757	-0.954168	47.931181
9.100000	-0.917431	23.156083	-12.304865	128.554441	-12.304865	128.554441	-0.942701	45.121902
9.150000	-0.914392	20.292787	-12.435516	125.160082	-12.435516	125.160082	-0.939570	42.285012
9.200000	-0.919874	17.399153	-12.517933	121.597099	-12.517933	121.597099	-0.945239	39.408764
9.250000	-0.939297	14.443030	-12.526109	117.736739	-12.526109	117.736739	-0.965402	36.457377
9.300000	-0.975552	11.405133	-12.454804	113.511217	-12.454804	113.511217	-1.003165	33.411429
9.350000	-1.039550	8.236749	-12.273738	108.702649	-12.273738	108.702649	-1.070070	30.217657
9.400000	-1.150183	4.879399	-11.950239	102.987445	-11.950239	102.987445	-1.186169	26.811841
9.450000	-1.342822	1.280191	-11.451871	95.856688	-11.451871	95.856688	-1.389171	23.133507
9.500000	-1.696806	-2.538854	-10.747207	86.333564	-10.747207	86.333564	-1.764226	19.195004
9.550000	-2.376008	-6.011233	-9.875838	72.701175	-9.875838	72.701175	-2.490253	15.577787
9.600000	-3.564479	-6.183499	-9.142868	52.500116	-9.142868	52.500116	-3.782278	15.461528
9.650000	-4.387397	2.954750	-9.417935	25.179875	-9.417935	25.179875	-4.693149	25.667599
9.700000	-3.302133	10.968716	-11.384087	-2.345788	-11.384087	-2.345788	-3.483968	34.544977
9.750000	-2.095171	9.744006	-14.334002	-23.146335	-14.334002	-23.146335	-2.176515	33.234172
9.800000	-1.444183	5.866556	-17.357118	-37.684946	-17.357118	-37.684946	-1.481964	29.154412
9.850000	-1.110863	1.981371	-20.094978	-48.505706	-20.094978	-48.505706	-1.127917	25.110302
9.900000	-0.926707	-1.521800	-22.478719	-57.381873	-22.478719	-57.381873	-0.932051	21.487640
9.950000	-0.818189	-4.671885	-24.465836	-65.217563	-24.465836	-65.217563	-0.815962	18.244210
10.000000	-0.749382	-7.560272	-26.067145	-72.467162	-26.067145	-72.467162	-0.741620	15.278371
