! freq	dB(S11)	phase(S11)	dB(S12)	phase(S12)	
!     	dB(S21)	phase(S21)	dB(S22)	phase(S22)	
!S-par simulation data
#  GHz  S  DB  R 50
0.000000	-0.000000	0.000000	-346.690745	0.000000	-346.690745	0.000000	-0.000000	0.000000
0.050000	-0.003182	-2.580434	-78.101780	91.451939	-78.101780	91.451939	-0.003257	-2.581213
0.100000	-0.008360	-5.130195	-72.105724	86.711750	-72.105724	86.711750	-0.008467	-5.131002
0.150000	-0.012251	-7.663512	-68.612305	83.354466	-68.612305	83.354466	-0.012325	-7.664512
0.200000	-0.015026	-10.191781	-66.151400	80.357834	-66.151400	80.357834	-0.015063	-10.193211
0.250000	-0.017262	-12.718050	-64.261033	77.516659	-64.261033	77.516659	-0.017276	-12.720010
0.300000	-0.019306	-15.242446	-62.734826	74.764923	-62.734826	74.764923	-0.019308	-15.244958
0.350000	-0.021336	-17.764244	-61.463935	72.079225	-61.463935	72.079225	-0.021333	-17.767302
0.400000	-0.023435	-20.282854	-60.380994	69.445304	-60.380994	69.445304	-0.023434	-20.286435
0.450000	-0.025645	-22.797620	-59.443394	66.858392	-59.443394	66.858392	-0.025648	-22.801698
0.500000	-0.027987	-25.307711	-58.623118	64.318501	-58.623118	64.318501	-0.027998	-25.312256
0.550000	-0.030463	-27.812694	-57.898212	61.823526	-57.898212	61.823526	-0.030483	-27.817676
0.600000	-0.033067	-30.312122	-57.252762	59.373078	-57.252762	59.373078	-0.033098	-30.317512
0.650000	-0.035797	-32.805344	-56.675531	56.968962	-56.675531	56.968962	-0.035838	-32.811112
0.700000	-0.038640	-35.291902	-56.157076	54.611829	-56.157076	54.611829	-0.038691	-35.298018
0.750000	-0.041583	-37.771581	-55.689200	52.300984	-55.689200	52.300984	-0.041644	-37.778018
0.800000	-0.044614	-40.243929	-55.266065	50.037582	-55.266065	50.037582	-0.044683	-40.250660
0.850000	-0.047722	-42.708340	-54.883264	47.823753	-54.883264	47.823753	-0.047798	-42.715336
0.900000	-0.050890	-45.164851	-54.535593	45.657753	-54.535593	45.657753	-0.050972	-45.172088
0.950000	-0.054105	-47.613188	-54.219489	43.539928	-54.219489	43.539928	-0.054192	-47.620642
1.000000	-0.057357	-50.052643	-53.932832	41.473176	-53.932832	41.473176	-0.057447	-50.060291
1.050000	-0.060631	-52.483399	-53.672072	39.455375	-53.672072	39.455375	-0.060722	-52.491220
1.100000	-0.063917	-54.905303	-53.434861	37.486519	-53.434861	37.486519	-0.064008	-54.913277
1.150000	-0.067203	-57.317848	-53.219772	35.568653	-53.219772	35.568653	-0.067292	-57.325957
1.200000	-0.070480	-59.721019	-53.024781	33.701291	-53.024781	33.701291	-0.070565	-59.729244
1.250000	-0.073739	-62.114888	-52.848027	31.883686	-52.848027	31.883686	-0.073819	-62.123215
1.300000	-0.076972	-64.499168	-52.688420	30.117232	-52.688420	30.117232	-0.077046	-64.507581
1.350000	-0.080171	-66.873602	-52.544954	28.403392	-52.544954	28.403392	-0.080236	-66.882086
1.400000	-0.083331	-69.238494	-52.416035	26.740871	-52.416035	26.740871	-0.083387	-69.247036
1.450000	-0.086447	-71.593776	-52.300730	25.130615	-52.300730	25.130615	-0.086493	-71.602365
1.500000	-0.089511	-73.938930	-52.198719	23.576415	-52.198719	23.576415	-0.089547	-73.947552
1.550000	-0.092524	-76.274483	-52.108547	22.076571	-52.108547	22.076571	-0.092549	-76.283129
1.600000	-0.095483	-78.600454	-52.029465	20.632488	-52.029465	20.632488	-0.095496	-78.609112
1.650000	-0.098383	-80.916451	-51.961180	19.248444	-51.961180	19.248444	-0.098384	-80.925110
1.700000	-0.101225	-83.222782	-51.902718	17.924971	-51.902718	17.924971	-0.101213	-83.231432
1.750000	-0.104009	-85.519670	-51.853255	16.663328	-51.853255	16.663328	-0.103985	-85.528300
1.800000	-0.106734	-87.807054	-51.812237	15.466987	-51.812237	15.466987	-0.106698	-87.815655
1.850000	-0.109402	-90.085031	-51.778956	14.338840	-51.778956	14.338840	-0.109354	-90.093591
1.900000	-0.112012	-92.353608	-51.752733	13.282883	-51.752733	13.282883	-0.111953	-92.362117
1.950000	-0.114567	-94.612911	-51.732739	12.302679	-51.732739	12.302679	-0.114497	-94.621359
2.000000	-0.117069	-96.863175	-51.718014	11.401114	-51.718014	11.401114	-0.116988	-96.871551
2.050000	-0.119520	-99.104545	-51.707574	10.581974	-51.707574	10.581974	-0.119430	-99.112837
2.100000	-0.121923	-101.337177	-51.700316	9.849066	-51.700316	9.849066	-0.121825	-101.345375
2.150000	-0.124282	-103.561237	-51.694994	9.206064	-51.694994	9.206064	-0.124175	-103.569329
2.200000	-0.126598	-105.776901	-51.690202	8.656316	-51.690202	8.656316	-0.126485	-105.784875
2.250000	-0.128876	-107.984354	-51.684360	8.202594	-51.684360	8.202594	-0.128757	-107.992198
2.300000	-0.131119	-110.183788	-51.675701	7.846794	-51.675701	7.846794	-0.130994	-110.191491
2.350000	-0.133329	-112.375405	-51.662275	7.589584	-51.662275	7.589584	-0.133201	-112.382956
2.400000	-0.135512	-114.559416	-51.641964	7.430007	-51.641964	7.430007	-0.135380	-114.566801
2.450000	-0.137670	-116.736034	-51.612511	7.365064	-51.612511	7.365064	-0.137535	-116.743242
2.500000	-0.139806	-118.905485	-51.571572	7.389304	-51.571572	7.389304	-0.139669	-118.912503
2.550000	-0.141924	-121.067850	-51.516428	7.495965	-51.516428	7.495965	-0.141787	-121.074667
2.600000	-0.144028	-123.223523	-51.445065	7.671556	-51.445065	7.671556	-0.143890	-123.230126
2.650000	-0.146120	-125.372743	-51.355422	7.901395	-51.355422	7.901395	-0.145984	-125.379120
2.700000	-0.148205	-127.515756	-51.245776	8.167826	-51.245776	8.167826	-0.148070	-127.521897
2.750000	-0.150285	-129.652812	-51.114856	8.450635	-51.114856	8.450635	-0.150152	-129.658705
2.800000	-0.152364	-131.784166	-50.961955	8.727727	-50.961955	8.727727	-0.152233	-131.789801
2.850000	-0.154443	-133.910076	-50.787003	8.976013	-50.787003	8.976013	-0.154315	-133.915443
2.900000	-0.156527	-136.030803	-50.590599	9.172445	-50.590599	9.172445	-0.156402	-136.035892
2.950000	-0.158616	-138.146613	-50.373998	9.295083	-50.373998	9.295083	-0.158495	-138.151414
3.000000	-0.160715	-140.257773	-50.139048	9.324086	-50.139048	9.324086	-0.160597	-140.262278
3.050000	-0.162824	-142.364552	-49.888086	9.242539	-49.888086	9.242539	-0.162711	-142.368753
3.100000	-0.164946	-144.467223	-49.623812	9.037020	-49.623812	9.037020	-0.164837	-144.471112
3.150000	-0.167083	-146.566020	-49.348967	8.696390	-49.348967	8.696390	-0.166979	-146.569592
3.200000	-0.169237	-148.661229	-49.066634	8.214789	-49.066634	8.214789	-0.169137	-148.664477
3.250000	-0.171409	-150.753166	-48.779971	7.591734	-48.779971	7.591734	-0.171313	-150.756085
3.300000	-0.173601	-152.842108	-48.491774	6.828483	-48.491774	6.828483	-0.173509	-152.844695
3.350000	-0.175813	-154.928333	-48.204602	5.928993	-48.204602	5.928993	-0.175725	-154.930584
3.400000	-0.178047	-157.012118	-47.920726	4.899379	-47.920726	4.899379	-0.177962	-157.014032
3.450000	-0.180303	-159.093740	-47.642105	3.747367	-47.642105	3.747367	-0.180222	-159.095314
3.500000	-0.182582	-161.173474	-47.370375	2.481785	-47.370375	2.481785	-0.182505	-161.174710
3.550000	-0.184885	-163.251598	-47.106857	1.112110	-47.106857	1.112110	-0.184810	-163.252496
3.600000	-0.187212	-165.328385	-46.852575	-0.351922	-46.852575	-0.351922	-0.187140	-165.328947
3.650000	-0.189563	-167.404107	-46.608284	-1.900634	-46.608284	-1.900634	-0.189493	-167.404338
3.700000	-0.191939	-169.479038	-46.374498	-3.524658	-46.374498	-3.524658	-0.191870	-169.478940
3.750000	-0.194338	-171.553445	-46.151524	-5.215121	-46.151524	-5.215121	-0.194271	-171.553025
3.800000	-0.196762	-173.627595	-45.939624	-6.964872	-45.939624	-6.964872	-0.196695	-173.626860
3.850000	-0.199209	-175.701766	-45.738670	-8.764992	-45.738670	-8.764992	-0.199142	-175.700723
3.900000	-0.201680	-177.776216	-45.548524	-10.608774	-45.548524	-10.608774	-0.201612	-177.774876
3.950000	-0.204172	-179.851205	-45.368958	-12.490290	-45.368958	-12.490290	-0.204104	-179.849577
4.000000	-0.206687	178.073014	-45.199683	-14.404381	-45.199683	-14.404381	-0.206617	178.074918
4.050000	-0.209222	175.996190	-45.040361	-16.346632	-45.040361	-16.346632	-0.209150	175.998357
4.100000	-0.211776	173.918077	-44.890630	-18.313330	-44.890630	-18.313330	-0.211703	173.920494
4.150000	-0.214350	171.838435	-44.750113	-20.301425	-44.750113	-20.301425	-0.214273	171.841084
4.200000	-0.216941	169.757025	-44.618429	-22.308470	-44.618429	-22.308470	-0.216861	169.759891
4.250000	-0.219548	167.673616	-44.495208	-24.332579	-44.495208	-24.332579	-0.219465	167.676680
4.300000	-0.222170	165.587982	-44.380093	-26.372368	-44.380093	-26.372368	-0.222083	165.591225
4.350000	-0.224806	163.499901	-44.272749	-28.426908	-44.272749	-28.426908	-0.224715	163.503302
4.400000	-0.227455	161.409128	-44.172933	-30.495829	-44.172933	-30.495829	-0.227358	161.412665
4.450000	-0.230114	159.315447	-44.080361	-32.578981	-44.080361	-32.578981	-0.230012	159.319096
4.500000	-0.232782	157.218686	-43.994721	-34.676392	-43.994721	-34.676392	-0.232675	157.222421
4.550000	-0.235458	155.118649	-43.915797	-36.788531	-43.915797	-36.788531	-0.235346	155.122445
4.600000	-0.238140	153.015149	-43.843413	-38.916115	-43.843413	-38.916115	-0.238022	153.018978
4.650000	-0.240826	150.908005	-43.777426	-41.060088	-43.777426	-41.060088	-0.240703	150.911838
4.700000	-0.243516	148.797045	-43.717730	-43.221588	-43.717730	-43.221588	-0.243386	148.800852
4.750000	-0.246206	146.682105	-43.664255	-45.401931	-43.664255	-45.401931	-0.246070	146.685854
4.800000	-0.248896	144.563027	-43.616967	-47.602594	-43.616967	-47.602594	-0.248755	144.566685
4.850000	-0.251584	142.439664	-43.575869	-49.825193	-43.575869	-49.825193	-0.251437	142.443196
4.900000	-0.254269	140.311876	-43.541001	-52.071476	-43.541001	-52.071476	-0.254116	140.315245
4.950000	-0.256949	138.179531	-43.512436	-54.343312	-43.512436	-54.343312	-0.256790	138.182702
5.000000	-0.259622	136.042509	-43.490285	-56.642679	-43.490285	-56.642679	-0.259458	136.045442
5.050000	-0.262288	133.900591	-43.474841	-58.972357	-43.474841	-58.972357	-0.262118	133.903244
5.100000	-0.264944	131.753775	-43.466151	-61.333943	-43.466151	-61.333943	-0.264769	131.756106
5.150000	-0.267591	129.601969	-43.464434	-63.729728	-43.464434	-63.729728	-0.267411	129.603935
5.200000	-0.270225	127.445090	-43.469944	-66.162107	-43.469944	-66.162107	-0.270041	127.446646
5.250000	-0.272848	125.283064	-43.482972	-68.633573	-43.482972	-68.633573	-0.272659	125.284163
5.300000	-0.275457	123.115827	-43.503842	-71.146728	-43.503842	-71.146728	-0.275265	123.116422
5.350000	-0.278052	120.943326	-43.532914	-73.704289	-43.532914	-73.704289	-0.277857	120.943366
5.400000	-0.280633	118.765516	-43.570582	-76.309096	-43.570582	-76.309096	-0.280435	118.764951
5.450000	-0.283199	116.582364	-43.617273	-78.964130	-43.617273	-78.964130	-0.282999	116.581140
5.500000	-0.285749	114.393845	-43.673449	-81.672528	-43.673449	-81.672528	-0.285547	114.391908
5.550000	-0.288284	112.199945	-43.739600	-84.437605	-43.739600	-84.437605	-0.288082	112.197238
5.600000	-0.290805	110.000658	-43.816248	-87.262888	-43.816248	-87.262888	-0.290601	109.997124
5.650000	-0.293310	107.795930	-43.904060	-90.152887	-43.904060	-90.152887	-0.293107	107.791508
5.700000	-0.295800	105.585775	-44.003618	-93.111812	-44.003618	-93.111812	-0.295598	105.580402
5.750000	-0.298278	103.370275	-44.115405	-96.143395	-44.115405	-96.143395	-0.298077	103.363887
5.800000	-0.300743	101.149460	-44.240027	-99.252480	-44.240027	-99.252480	-0.300544	101.141991
5.850000	-0.303196	98.923369	-44.378098	-102.444404	-44.378098	-102.444404	-0.303000	98.914753
5.900000	-0.305641	96.692049	-44.530231	-105.725095	-44.530231	-105.725095	-0.305448	96.682215
5.950000	-0.308078	94.455554	-44.697025	-109.101184	-44.697025	-109.101184	-0.307889	94.444431
6.000000	-0.310509	92.213945	-44.879051	-112.580141	-44.879051	-112.580141	-0.310325	92.201458
6.050000	-0.312937	89.967287	-45.076831	-116.170425	-45.076831	-116.170425	-0.312758	89.953361
6.100000	-0.315365	87.715651	-45.290811	-119.881667	-45.290811	-119.881667	-0.315192	87.700208
6.150000	-0.317796	85.459115	-45.521329	-123.724860	-45.521329	-123.724860	-0.317630	85.442072
6.200000	-0.320233	83.197757	-45.768569	-127.712583	-45.768569	-127.712583	-0.320074	83.179032
6.250000	-0.322680	80.931658	-46.032501	-131.859219	-46.032501	-131.859219	-0.322529	80.911166
6.300000	-0.325142	78.660805	-46.312935	-136.185418	-46.312935	-136.185418	-0.324999	78.638454
6.350000	-0.327623	76.385385	-46.608927	-140.706514	-46.608927	-140.706514	-0.327489	76.361083
6.400000	-0.330128	74.105481	-46.919205	-145.443590	-46.919205	-145.443590	-0.330003	74.079135
6.450000	-0.332662	71.821175	-47.241806	-150.419947	-47.241806	-150.419947	-0.332547	71.792688
6.500000	-0.335230	69.532548	-47.573875	-155.660743	-47.573875	-155.660743	-0.335126	69.501819
6.550000	-0.337841	67.239673	-47.911437	-161.192176	-47.911437	-161.192176	-0.337747	67.206599
6.600000	-0.340498	64.942619	-48.249141	-167.040022	-48.249141	-167.040022	-0.340417	64.907094
6.650000	-0.343211	62.641448	-48.580027	-173.227292	-48.580027	-173.227292	-0.343142	62.603361
6.700000	-0.345986	60.336211	-48.895362	-179.770813	-48.895362	-179.770813	-0.345929	60.295448
6.750000	-0.348831	58.026950	-49.184652	173.323295	-49.184652	173.323295	-0.348787	57.983394
6.800000	-0.351755	55.713693	-49.435940	166.064947	-49.435940	166.064947	-0.351725	55.667222
6.850000	-0.354767	53.396454	-49.636519	158.485353	-49.636519	158.485353	-0.354751	53.346942
6.900000	-0.357877	51.075186	-49.773289	150.638774	-49.773289	150.638774	-0.357876	51.022502
6.950000	-0.361097	48.749865	-49.835718	142.610291	-49.835718	142.610291	-0.361111	48.693872
7.000000	-0.364436	46.420489	-49.817932	134.505888	-49.817932	134.505888	-0.364466	46.361048
7.050000	-0.367905	44.086989	-49.718056	126.438523	-49.718056	126.438523	-0.367951	44.023955
7.100000	-0.371517	41.749268	-49.539224	118.518390	-49.539224	118.518390	-0.371580	41.682491
7.150000	-0.375284	39.407201	-49.288956	110.841028	-49.288956	110.841028	-0.375365	39.336526
7.200000	-0.379220	37.060629	-48.977827	103.479168	-48.977827	103.479168	-0.379320	36.985894
7.250000	-0.383340	34.709358	-48.617883	96.479625	-48.617883	96.479625	-0.383459	34.630396
7.300000	-0.387659	32.353154	-48.221214	89.864720	-48.221214	89.864720	-0.387798	32.269790
7.350000	-0.392193	29.991741	-47.798928	83.636603	-47.798928	83.636603	-0.392354	29.903794
7.400000	-0.396960	27.624796	-47.360582	77.782666	-47.360582	77.782666	-0.397143	27.532077
7.450000	-0.401978	25.251944	-46.913986	72.280738	-46.913986	72.280738	-0.402185	25.154257
7.500000	-0.407268	22.872755	-46.465264	67.103341	-46.465264	67.103341	-0.407500	22.769895
7.550000	-0.412856	20.486576	-46.018693	62.226530	-46.018693	62.226530	-0.413115	20.378326
7.600000	-0.418761	18.092985	-45.578169	57.613544	-45.578169	57.613544	-0.419048	17.979119
7.650000	-0.425007	15.691345	-45.146061	53.235949	-45.146061	53.235949	-0.425324	15.571630
7.700000	-0.431620	13.280944	-44.723989	49.067204	-44.723989	49.067204	-0.431969	13.155136
7.750000	-0.438628	10.860981	-44.313006	45.082916	-44.313006	45.082916	-0.439012	10.728824
7.800000	-0.446063	8.430564	-43.913756	41.260872	-43.913756	41.260872	-0.446484	8.291789
7.850000	-0.453957	5.988696	-43.526589	37.580932	-43.526589	37.580932	-0.454418	5.843021
7.900000	-0.462347	3.534269	-43.151660	34.024849	-43.151660	34.024849	-0.462851	3.381398
7.950000	-0.471273	1.066051	-42.788997	30.576065	-42.788997	30.576065	-0.471823	0.905672
8.000000	-0.480776	-1.417324	-42.438562	27.219491	-42.438562	27.219491	-0.481376	-1.585539
8.050000	-0.490906	-3.917367	-42.100291	23.941303	-42.100291	23.941303	-0.491559	-4.093765
8.100000	-0.501712	-6.435756	-41.774135	20.728743	-41.774135	20.728743	-0.502424	-6.620702
8.150000	-0.513261	-8.974586	-41.460101	17.570407	-41.460101	17.570407	-0.514036	-9.168472
8.200000	-0.525617	-11.535988	-41.158284	14.454805	-41.158284	14.454805	-0.526460	-11.739227
8.250000	-0.538843	-14.122028	-40.868842	11.370850	-40.868842	11.370850	-0.539759	-14.335057
8.300000	-0.553015	-16.735237	-40.592054	8.308496	-40.592054	8.308496	-0.554011	-16.958517
8.350000	-0.568221	-19.378416	-40.328347	5.258046	-40.328347	5.258046	-0.569302	-19.612440
8.400000	-0.584554	-22.054669	-40.078316	2.210062	-40.078316	2.210062	-0.585728	-22.299959
8.450000	-0.602123	-24.767436	-39.842764	-0.844718	-39.842764	-0.844718	-0.603396	-25.024548
8.500000	-0.621047	-27.520531	-39.622736	-3.915438	-39.622736	-3.915438	-0.622428	-27.790062
8.550000	-0.641460	-30.318191	-39.419565	-7.011177	-39.419565	-7.011177	-0.642956	-30.600778
8.600000	-0.663513	-33.165128	-39.234931	-10.140974	-39.234931	-10.140974	-0.665134	-33.461450
8.650000	-0.687376	-36.066581	-39.070929	-13.313835	-39.070929	-13.313835	-0.689131	-36.377368
8.700000	-0.713242	-39.028394	-38.930164	-16.538710	-38.930164	-16.538710	-0.715138	-39.354427
8.750000	-0.741326	-42.057085	-38.815863	-19.824424	-38.815863	-19.824424	-0.743374	-42.399202
8.800000	-0.771932	-45.161741	-38.732797	-23.181263	-38.732797	-23.181263	-0.774142	-45.520864
8.850000	-0.805294	-48.349135	-38.685485	-26.616008	-38.685485	-26.616008	-0.807675	-48.726234
8.900000	-0.841732	-51.628492	-38.680248	-30.135966	-38.680248	-30.135966	-0.844292	-52.024608
8.950000	-0.881607	-55.010171	-38.725060	-33.747139	-38.725060	-33.747139	-0.884354	-55.426422
9.000000	-0.925222	-58.502400	-38.828192	-37.450809	-38.828192	-37.450809	-0.928161	-58.939949
9.050000	-0.973225	-62.123978	-39.005791	-41.252361	-39.005791	-41.252361	-0.976360	-62.584131
9.100000	-1.026109	-65.888524	-39.274774	-45.145662	-39.274774	-45.145662	-1.029438	-66.372657
9.150000	-1.084454	-69.812225	-39.658528	-49.116148	-39.658528	-49.116148	-1.087971	-70.321793
9.200000	-1.148881	-73.912273	-40.188968	-53.133796	-40.188968	-53.133796	-1.152571	-74.448794
9.250000	-1.220251	-78.213407	-40.917159	-57.139799	-40.917159	-57.139799	-1.224086	-78.778493
9.300000	-1.299322	-82.737436	-41.916924	-61.014942	-41.916924	-61.014942	-1.303261	-83.332724
9.350000	-1.387011	-87.511833	-43.315477	-64.503717	-43.315477	-64.503717	-1.390989	-88.138979
9.400000	-1.484364	-92.569963	-45.355358	-66.948063	-45.355358	-66.948063	-1.488288	-93.230595
9.450000	-1.592257	-97.942258	-48.561358	-66.276609	-48.561358	-66.276609	-1.595994	-98.637869
9.500000	-1.711784	-103.671510	-54.254418	-50.991290	-54.254418	-50.991290	-1.715147	-104.403378
9.550000	-1.843708	-109.797375	-56.154100	27.351404	-56.154100	27.351404	-1.846444	-110.566375
9.600000	-1.988576	-116.364322	-48.293010	57.005082	-48.293010	57.005082	-1.990347	-117.170707
9.650000	-2.146603	-123.427065	-43.243111	58.945438	-43.243111	58.945438	-2.146960	-124.270146
9.700000	-2.316938	-131.027252	-39.670632	55.655398	-39.670632	55.655398	-2.315316	-131.905015
9.750000	-2.497810	-139.218638	-36.866097	50.369996	-36.866097	50.369996	-2.493509	-140.127184
9.800000	-2.685665	-148.040053	-34.535982	43.976578	-34.535982	43.976578	-2.677868	-148.973035
9.850000	-2.874973	-157.515179	-32.536086	36.778137	-32.536086	36.778137	-2.862796	-158.463275
9.900000	-3.057636	-167.659090	-30.787420	28.875442	-30.787420	28.875442	-3.040213	-168.609297
9.950000	-3.223524	-178.436493	-29.252478	20.318399	-29.252478	20.318399	-3.200175	-179.372405
10.000000	-3.360866	170.220454	-27.914630	11.132508	-27.914630	11.132508	-3.331285	169.318167
