! freq	dB(S11)	phase(S11)	dB(S12)	phase(S12)	
!     	dB(S21)	phase(S21)	dB(S22)	phase(S22)	
!S-par simulation data
#  GHz  S  DB  R 50
0.000000	-0.000000	-0.000000	-370.171447	180.000000	-370.171447	180.000000	-0.000000	-0.000000
0.050000	-0.000115	-0.950771	-112.272808	88.311495	-112.272808	88.311495	-0.000115	-0.950569
0.100000	-0.000458	-1.901268	-106.367452	86.811437	-106.367452	86.811437	-0.000454	-1.900866
0.150000	-0.001013	-2.851234	-103.010100	85.575658	-103.010100	85.575658	-0.001006	-2.850639
0.200000	-0.001762	-3.800454	-100.705835	84.578110	-100.705835	84.578110	-0.001750	-3.799675
0.250000	-0.002691	-4.748682	-98.991748	83.774356	-98.991748	83.774356	-0.002674	-4.747729
0.300000	-0.003759	-5.695862	-97.650928	83.102472	-97.650928	83.102472	-0.003736	-5.694745
0.350000	-0.004945	-6.641856	-96.581446	82.547759	-96.581446	82.547759	-0.004918	-6.640584
0.400000	-0.006225	-7.586600	-95.722061	82.106159	-95.722061	82.106159	-0.006193	-7.585180
0.450000	-0.007575	-8.530063	-95.035276	81.788844	-95.035276	81.788844	-0.007539	-8.528501
0.500000	-0.008973	-9.472239	-94.497224	81.619616	-94.497224	81.619616	-0.008935	-9.470538
0.550000	-0.010401	-10.413141	-94.092544	81.634448	-94.092544	81.634448	-0.010361	-10.411303
0.600000	-0.011845	-11.352794	-93.811540	81.883134	-93.811540	81.883134	-0.011804	-11.350818
0.650000	-0.013293	-12.291228	-93.648455	82.433108	-93.648455	82.433108	-0.013252	-12.289115
0.700000	-0.014735	-13.228479	-93.600181	83.375804	-93.600181	83.375804	-0.014696	-13.226226
0.750000	-0.016167	-14.164578	-93.664932	84.836250	-93.664932	84.836250	-0.016129	-14.162182
0.800000	-0.017582	-15.099555	-93.840295	86.986653	-93.840295	86.986653	-0.017546	-15.097013
0.850000	-0.018979	-16.033433	-94.119686	90.063651	-94.119686	90.063651	-0.018945	-16.030742
0.900000	-0.020355	-16.966232	-94.485581	94.384384	-94.485581	94.384384	-0.020324	-16.963388
0.950000	-0.021711	-17.897964	-94.897168	100.342733	-94.897168	100.342733	-0.021682	-17.894964
1.000000	-0.023047	-18.828637	-95.271565	108.337385	-95.271565	108.337385	-0.023021	-18.825479
1.050000	-0.024364	-19.758254	-95.467682	118.553754	-95.467682	118.553754	-0.024339	-19.754935
1.100000	-0.025661	-20.686812	-95.305159	130.588081	-95.305159	130.588081	-0.025639	-20.683330
1.150000	-0.026942	-21.614304	-94.653772	143.207367	-94.653772	143.207367	-0.026922	-21.610658
1.200000	-0.028208	-22.540721	-93.536558	154.799262	-93.536558	154.799262	-0.028189	-22.536909
1.250000	-0.029459	-23.466050	-92.110979	164.298527	-92.110979	164.298527	-0.029441	-23.462071
1.300000	-0.030697	-24.390226	-90.539139	171.431934	-90.539139	171.431934	-0.030681	-24.386079
1.350000	-0.031924	-25.313278	-88.959533	176.642849	-88.959533	176.642849	-0.031909	-25.308963
1.400000	-0.033141	-26.235187	-87.431528	-179.638707	-87.431528	-179.638707	-0.033127	-26.230705
1.450000	-0.034350	-27.155932	-85.979392	-177.043361	-85.979392	-177.043361	-0.034336	-27.151282
1.500000	-0.035551	-28.075491	-84.609381	-175.288508	-84.609381	-175.288508	-0.035538	-28.070674
1.550000	-0.036746	-28.993843	-83.319460	-174.166973	-83.319460	-174.166973	-0.036733	-28.988859
1.600000	-0.037937	-29.910964	-82.104231	-173.528606	-82.104231	-173.528606	-0.037924	-29.905814
1.650000	-0.039123	-30.826832	-80.957266	-173.264231	-80.957266	-173.264231	-0.039110	-30.821516
1.700000	-0.040305	-31.741422	-79.872159	-173.293644	-79.872159	-173.293644	-0.040292	-31.735941
1.750000	-0.041485	-32.654713	-78.842963	-173.557144	-78.842963	-173.557144	-0.041472	-32.649068
1.800000	-0.042663	-33.566681	-77.864331	-174.009653	-77.864331	-174.009653	-0.042650	-33.560872
1.850000	-0.043840	-34.477303	-76.931530	-174.616649	-76.931530	-174.616649	-0.043826	-34.471332
1.900000	-0.045017	-35.386557	-76.040397	-175.351329	-76.040397	-175.351329	-0.045002	-35.380425
1.950000	-0.046193	-36.294422	-75.187282	-176.192616	-75.187282	-176.192616	-0.046178	-36.288128
2.000000	-0.047370	-37.200875	-74.368976	-177.123732	-74.368976	-177.123732	-0.047355	-37.194421
2.050000	-0.048549	-38.105895	-73.582658	-178.131172	-73.582658	-178.131172	-0.048533	-38.099282
2.100000	-0.049728	-39.009463	-72.825837	-179.203955	-72.825837	-179.203955	-0.049712	-39.002692
2.150000	-0.050910	-39.911557	-72.096306	179.666938	-72.096306	179.666938	-0.050893	-39.904628
2.200000	-0.052094	-40.812159	-71.392103	178.488975	-71.392103	178.488975	-0.052077	-40.805074
2.250000	-0.053281	-41.711251	-70.711478	177.268397	-70.711478	177.268397	-0.053263	-41.704009
2.300000	-0.054472	-42.608812	-70.052862	176.010455	-70.052862	176.010455	-0.054453	-42.601415
2.350000	-0.055666	-43.504827	-69.414846	174.719598	-69.414846	174.719598	-0.055647	-43.497275
2.400000	-0.056864	-44.399279	-68.796155	173.399625	-68.796155	173.399625	-0.056845	-44.391571
2.450000	-0.058067	-45.292150	-68.195639	172.053793	-68.195639	172.053793	-0.058048	-45.284289
2.500000	-0.059276	-46.183425	-67.612251	170.684918	-67.612251	170.684918	-0.059255	-46.175411
2.550000	-0.060489	-47.073019	-67.044134	169.294646	-67.044134	169.294646	-0.060468	-47.064852
2.600000	-0.061709	-47.960987	-66.491415	167.886069	-66.491415	167.886069	-0.061688	-47.952668
2.650000	-0.062935	-48.847316	-65.953283	166.461024	-65.953283	166.461024	-0.062913	-48.838844
2.700000	-0.064167	-49.731991	-65.428996	165.021130	-65.428996	165.021130	-0.064145	-49.723368
2.750000	-0.065407	-50.615002	-64.917870	163.567820	-64.917870	163.567820	-0.065385	-50.606228
2.800000	-0.066654	-51.496336	-64.419274	162.102367	-64.419274	162.102367	-0.066632	-51.487412
2.850000	-0.067909	-52.375984	-63.932622	160.625906	-63.932622	160.625906	-0.067886	-52.366909
2.900000	-0.069173	-53.253933	-63.457374	159.139452	-63.457374	159.139452	-0.069150	-53.244709
2.950000	-0.070445	-54.130176	-62.993026	157.643918	-62.993026	157.643918	-0.070422	-54.120802
3.000000	-0.071727	-55.004702	-62.539109	156.140123	-62.539109	156.140123	-0.071703	-54.995179
3.050000	-0.073018	-55.877504	-62.095186	154.628809	-62.095186	154.628809	-0.072994	-55.867832
3.100000	-0.074320	-56.748575	-61.660849	153.110645	-61.660849	153.110645	-0.074296	-56.738755
3.150000	-0.075632	-57.617906	-61.235715	151.586241	-61.235715	151.586241	-0.075608	-57.607938
3.200000	-0.076955	-58.485493	-60.819426	150.056149	-60.819426	150.056149	-0.076931	-58.475377
3.250000	-0.078290	-59.351329	-60.411645	148.520875	-60.411645	148.520875	-0.078265	-59.341066
3.300000	-0.079637	-60.215410	-60.012055	146.980879	-60.012055	146.980879	-0.079612	-60.205000
3.350000	-0.080996	-61.077731	-59.620358	145.436583	-59.620358	145.436583	-0.080971	-61.067175
3.400000	-0.082369	-61.938289	-59.236272	143.888376	-59.236272	143.888376	-0.082344	-61.927586
3.450000	-0.083755	-62.797080	-58.859532	142.336613	-58.859532	142.336613	-0.083729	-62.786231
3.500000	-0.085154	-63.654103	-58.489887	140.781623	-58.489887	140.781623	-0.085129	-63.643109
3.550000	-0.086569	-64.509355	-58.127099	139.223707	-58.127099	139.223707	-0.086543	-64.498216
3.600000	-0.087998	-65.362836	-57.770942	137.663146	-57.770942	137.663146	-0.087972	-65.351552
3.650000	-0.089442	-66.214545	-57.421203	136.100199	-57.421203	136.100199	-0.089416	-66.203117
3.700000	-0.090903	-67.064483	-57.077678	134.535104	-57.077678	134.535104	-0.090876	-67.052911
3.750000	-0.092380	-67.912650	-56.740174	132.968084	-56.740174	132.968084	-0.092352	-67.900934
3.800000	-0.093874	-68.758971	-56.408212	131.399281	-56.408212	131.399281	-0.093847	-68.747113
3.850000	-0.095386	-69.603525	-56.081935	129.828969	-56.081935	129.828969	-0.095358	-69.591525
3.900000	-0.096915	-70.446316	-55.761174	128.257324	-55.761174	128.257324	-0.096887	-70.434173
3.950000	-0.098464	-71.287346	-55.445768	126.684514	-55.445768	126.684514	-0.098435	-71.275062
4.000000	-0.100031	-72.126620	-55.135564	125.110693	-55.135564	125.110693	-0.100002	-72.114195
4.050000	-0.101617	-72.964143	-54.830415	123.536005	-54.830415	123.536005	-0.101588	-72.951576
4.100000	-0.103223	-73.799919	-54.530182	121.960586	-54.530182	121.960586	-0.103194	-73.787212
4.150000	-0.104850	-74.633956	-54.234729	120.384563	-54.234729	120.384563	-0.104820	-74.621109
4.200000	-0.106498	-75.466258	-53.943929	118.808055	-53.943929	118.808055	-0.106467	-75.453272
4.250000	-0.108167	-76.296834	-53.657659	117.231174	-53.657659	117.231174	-0.108136	-76.283709
4.300000	-0.109857	-77.125691	-53.375799	115.654025	-53.375799	115.654025	-0.109826	-77.112427
4.350000	-0.111570	-77.952838	-53.098238	114.076707	-53.098238	114.076707	-0.111539	-77.939436
4.400000	-0.113306	-78.778283	-52.824866	112.499312	-52.824866	112.499312	-0.113275	-78.764743
4.450000	-0.115066	-79.602035	-52.555579	110.921929	-52.555579	110.921929	-0.115033	-79.588359
4.500000	-0.116849	-80.424106	-52.290277	109.344639	-52.290277	109.344639	-0.116816	-80.410293
4.550000	-0.118656	-81.244505	-52.028862	107.767521	-52.028862	107.767521	-0.118623	-81.230556
4.600000	-0.120489	-82.063244	-51.771242	106.190648	-51.771242	106.190648	-0.120455	-82.049159
4.650000	-0.122346	-82.880335	-51.517326	104.614089	-51.517326	104.614089	-0.122312	-82.866114
4.700000	-0.124230	-83.695789	-51.267030	103.037911	-51.267030	103.037911	-0.124195	-83.681434
4.750000	-0.126139	-84.509620	-51.020269	101.462175	-51.020269	101.462175	-0.126104	-84.495130
4.800000	-0.128076	-85.321841	-50.776963	99.886940	-50.776963	99.886940	-0.128040	-85.307217
4.850000	-0.130039	-86.132465	-50.537036	98.312263	-50.537036	98.312263	-0.130003	-86.117708
4.900000	-0.132031	-86.941509	-50.300411	96.738194	-50.300411	96.738194	-0.131994	-86.926619
4.950000	-0.134050	-87.748985	-50.067018	95.164786	-50.067018	95.164786	-0.134013	-87.733963
5.000000	-0.136099	-88.554911	-49.836786	93.592085	-49.836786	93.592085	-0.136061	-88.539757
5.050000	-0.138192	-89.358445	-49.608049	92.020588	-49.608049	92.020588	-0.138154	-89.343159
5.100000	-0.140287	-90.161978	-49.385181	90.449091	-49.385181	90.449091	-0.140248	-90.146561
5.150000	-0.142438	-90.962645	-49.162783	88.879203	-49.162783	88.879203	-0.142399	-90.947096
5.200000	-0.144595	-91.763050	-48.945486	87.309461	-48.945486	87.309461	-0.144555	-91.747371
5.250000	-0.146806	-92.560915	-48.729147	85.741318	-48.729147	85.741318	-0.146766	-92.545106
5.300000	-0.149028	-93.358271	-48.517217	84.173494	-48.517217	84.173494	-0.148987	-93.342332
5.350000	-0.151300	-94.153402	-48.306673	82.607221	-48.306673	82.607221	-0.151259	-94.137334
5.400000	-0.153590	-94.947791	-48.099919	81.041464	-48.099919	81.041464	-0.153547	-94.931595
5.450000	-0.155924	-95.740261	-47.894924	79.477174	-47.894924	79.477174	-0.155882	-95.723936
5.500000	-0.158282	-96.531771	-47.693166	77.913617	-47.693166	77.913617	-0.158239	-96.515318
5.550000	-0.160682	-97.321655	-47.493489	76.351415	-47.493489	76.351415	-0.160638	-97.305074
5.600000	-0.163110	-98.110377	-47.296555	74.790180	-47.296555	74.790180	-0.163066	-98.093669
5.650000	-0.165576	-98.897753	-47.101981	73.230161	-47.101981	73.230161	-0.165531	-98.880918
5.700000	-0.168078	-99.683784	-46.909709	71.671358	-46.909709	71.671358	-0.168032	-99.666821
5.750000	-0.170611	-100.468734	-46.720035	70.113609	-46.720035	70.113609	-0.170565	-100.451645
5.800000	-0.173187	-101.252173	-46.532271	68.557337	-46.532271	68.557337	-0.173141	-101.234958
5.850000	-0.175790	-102.034782	-46.347307	67.001938	-46.347307	67.001938	-0.175743	-102.017441
5.900000	-0.178443	-102.815733	-46.163905	65.448288	-46.163905	65.448288	-0.178396	-102.798266
5.950000	-0.181117	-103.596089	-45.983472	63.895313	-45.983472	63.895313	-0.181069	-103.578497
6.000000	-0.183849	-104.374661	-45.804293	62.344367	-45.804293	62.344367	-0.183800	-104.356944
6.050000	-0.186595	-105.152855	-45.628222	60.793883	-45.628222	60.793883	-0.186546	-105.135012
6.100000	-0.189407	-105.929160	-45.453133	59.245714	-45.453133	59.245714	-0.189358	-105.911192
6.150000	-0.192227	-106.705285	-45.281265	57.697782	-45.281265	57.697782	-0.192177	-106.687193
6.200000	-0.195122	-107.479439	-45.110142	56.152457	-45.110142	56.152457	-0.195072	-107.461222
6.250000	-0.198018	-108.253593	-44.942325	54.607132	-44.942325	54.607132	-0.197967	-108.235252
6.300000	-0.200997	-109.025716	-44.775048	53.064711	-44.775048	53.064711	-0.200946	-109.007251
6.350000	-0.203977	-109.797839	-44.610932	51.522291	-44.610932	51.522291	-0.203925	-109.779250
6.400000	-0.207035	-110.568214	-44.447595	49.982580	-44.447595	49.982580	-0.206983	-110.549501
6.450000	-0.210102	-111.338431	-44.287072	48.443115	-44.287072	48.443115	-0.210049	-111.319594
6.500000	-0.213240	-112.107164	-44.127539	46.906153	-44.127539	46.906153	-0.213187	-112.088204
6.550000	-0.216394	-112.875601	-43.970507	45.369691	-43.970507	45.369691	-0.216340	-112.856517
6.600000	-0.219615	-113.642803	-43.814649	43.835511	-43.814649	43.835511	-0.219560	-113.623595
6.650000	-0.222859	-114.409592	-43.661010	42.302091	-43.661010	42.302091	-0.222803	-114.390261
6.700000	-0.226163	-115.175373	-43.508703	40.770722	-43.508703	40.770722	-0.226107	-115.155918
6.750000	-0.229498	-115.940650	-43.358363	39.240378	-43.358363	39.240378	-0.229442	-115.921071
6.800000	-0.232887	-116.705125	-43.209491	37.711843	-43.209491	37.711843	-0.232830	-116.685423
6.850000	-0.236315	-117.469028	-43.062362	36.184602	-43.062362	36.184602	-0.236258	-117.449203
6.900000	-0.239791	-118.232316	-42.916814	34.658921	-42.916814	34.658921	-0.239733	-118.212366
6.950000	-0.243314	-118.994988	-42.772810	33.134802	-42.772810	33.134802	-0.243255	-118.974915
7.000000	-0.246877	-119.757207	-42.630480	31.611990	-42.630480	31.611990	-0.246818	-119.737010
7.050000	-0.250496	-120.518794	-42.489519	30.091008	-42.489519	30.091008	-0.250436	-120.498473
7.100000	-0.254149	-121.280069	-42.350308	28.571074	-42.350308	28.571074	-0.254088	-121.259625
7.150000	-0.257866	-122.040721	-42.212311	27.053237	-42.212311	27.053237	-0.257805	-122.020152
7.200000	-0.261609	-122.801177	-42.076125	25.536185	-42.076125	25.536185	-0.261547	-122.780484
7.250000	-0.265426	-123.561047	-41.941016	24.021493	-41.941016	24.021493	-0.265363	-123.540230
7.300000	-0.269261	-124.320813	-41.807764	22.507324	-41.807764	22.507324	-0.269197	-124.299871
7.350000	-0.273179	-125.080059	-41.675472	20.995771	-41.675472	20.995771	-0.273115	-125.058992
7.400000	-0.277107	-125.839266	-41.545068	19.484479	-41.545068	19.484479	-0.277042	-125.818074
7.450000	-0.281127	-126.598049	-41.415525	17.976053	-41.415525	17.976053	-0.281062	-126.576730
7.500000	-0.285150	-127.356831	-41.287887	16.467627	-41.287887	16.467627	-0.285084	-127.335387
7.550000	-0.289274	-128.115314	-41.161028	14.962310	-41.161028	14.962310	-0.289207	-128.093744
7.600000	-0.293401	-128.873798	-41.035995	13.456992	-41.035995	13.456992	-0.293333	-128.852101
7.650000	-0.297623	-129.632162	-40.911840	11.954499	-40.911840	11.954499	-0.297554	-129.610338
7.700000	-0.301855	-130.390514	-40.789354	10.452264	-40.789354	10.452264	-0.301786	-130.368564
7.750000	-0.306175	-131.148902	-40.667829	8.952569	-40.667829	8.952569	-0.306105	-131.126824
7.800000	-0.310514	-131.907297	-40.547834	7.453382	-40.547834	7.453382	-0.310443	-131.885090
7.850000	-0.314933	-132.665854	-40.428868	5.956453	-40.428868	5.956453	-0.314861	-132.643519
7.900000	-0.319381	-133.424467	-40.311310	4.460276	-40.311310	4.460276	-0.319308	-133.402003
7.950000	-0.323900	-134.183344	-40.194838	2.966075	-40.194838	2.966075	-0.323826	-134.160750
8.000000	-0.328457	-134.942353	-40.079667	1.472862	-40.079667	1.472862	-0.328382	-134.919630
8.050000	-0.333078	-135.701702	-39.965625	-0.018654	-39.965625	-0.018654	-0.333002	-135.678847
8.100000	-0.337745	-136.461292	-39.852794	-1.508956	-39.852794	-1.508956	-0.337669	-136.438307
8.150000	-0.342469	-137.221268	-39.741124	-2.997833	-39.741124	-2.997833	-0.342391	-137.198150
8.200000	-0.347248	-137.981627	-39.630588	-4.485283	-39.630588	-4.485283	-0.347169	-137.958376
8.250000	-0.352075	-138.742387	-39.521233	-5.971572	-39.521233	-5.971572	-0.351995	-138.719003
8.300000	-0.356967	-139.503707	-39.412951	-7.456236	-39.412951	-7.456236	-0.356886	-139.480188
8.350000	-0.361898	-140.265412	-39.305860	-8.939993	-39.305860	-8.939993	-0.361816	-140.241759
8.400000	-0.366903	-141.027889	-39.199792	-10.421940	-39.199792	-10.421940	-0.366820	-141.004099
8.450000	-0.371939	-141.790704	-39.094915	-11.903227	-39.094915	-11.903227	-0.371855	-141.766778
8.500000	-0.377060	-142.554537	-38.991027	-13.382532	-38.991027	-13.382532	-0.376974	-142.530473
8.550000	-0.382202	-143.318630	-38.888319	-14.861412	-38.888319	-14.861412	-0.382115	-143.294427
8.600000	-0.387437	-144.084023	-38.786577	-16.338157	-38.786577	-16.338157	-0.387350	-144.059681
8.650000	-0.392685	-144.849564	-38.685995	-17.814696	-38.685995	-17.814696	-0.392597	-144.825081
8.700000	-0.398037	-145.616726	-38.586370	-19.288965	-38.586370	-19.288965	-0.397947	-145.592101
8.750000	-0.403393	-146.383889	-38.487876	-20.763234	-38.487876	-20.763234	-0.403301	-146.359121
8.800000	-0.408861	-147.153033	-38.390342	-22.235115	-38.390342	-22.235115	-0.408768	-147.128120
8.850000	-0.414333	-147.922178	-38.293892	-23.706996	-38.293892	-23.706996	-0.414239	-147.897120
8.900000	-0.419909	-148.693338	-38.198433	-25.176770	-38.198433	-25.176770	-0.419814	-148.668133
8.950000	-0.425498	-149.464682	-38.104005	-26.646353	-38.104005	-26.646353	-0.425402	-149.439329
9.000000	-0.431183	-150.238044	-38.010589	-28.114097	-38.010589	-28.114097	-0.431085	-150.212540
9.050000	-0.436889	-151.011810	-37.918167	-29.581474	-37.918167	-29.581474	-0.436791	-150.986154
9.100000	-0.442682	-151.787561	-37.826766	-31.047266	-37.826766	-31.047266	-0.442582	-151.761752
9.150000	-0.448506	-152.563974	-37.736333	-32.512529	-37.736333	-32.512529	-0.448405	-152.538012
9.200000	-0.454408	-153.342308	-37.646923	-33.976445	-37.646923	-33.976445	-0.454305	-153.316188
9.250000	-0.460350	-154.121600	-37.558468	-35.439688	-37.558468	-35.439688	-0.460246	-154.095323
9.300000	-0.466359	-154.902711	-37.471026	-36.901804	-37.471026	-36.901804	-0.466254	-154.876273
9.350000	-0.472419	-155.685119	-37.384542	-38.363117	-37.384542	-38.363117	-0.472312	-155.658519
9.400000	-0.478536	-156.469206	-37.299050	-39.823508	-37.299050	-39.823508	-0.478428	-156.442442
9.450000	-0.484713	-157.254972	-37.214530	-41.282978	-37.214530	-41.282978	-0.484604	-157.228041
9.500000	-0.490938	-158.042238	-37.130973	-42.741715	-37.130973	-42.741715	-0.490828	-158.015139
9.550000	-0.497231	-158.831606	-37.048416	-44.199426	-37.048416	-44.199426	-0.497120	-158.804336
9.600000	-0.503564	-159.622259	-36.966781	-45.656577	-36.966781	-45.656577	-0.503452	-159.594816
9.650000	-0.509973	-160.415481	-36.886190	-47.112608	-36.886190	-47.112608	-0.509859	-160.387862
9.700000	-0.516413	-161.209731	-36.806466	-48.568236	-36.806466	-48.568236	-0.516298	-161.181934
9.750000	-0.522937	-162.007063	-36.727846	-50.022657	-36.727846	-50.022657	-0.522820	-161.979085
9.800000	-0.529482	-162.805124	-36.650028	-51.476820	-36.650028	-51.476820	-0.529365	-162.776963
9.850000	-0.536120	-163.606828	-36.573386	-52.929693	-36.573386	-52.929693	-0.536001	-163.578479
9.900000	-0.542770	-164.408919	-36.497471	-54.382441	-36.497471	-54.382441	-0.542650	-164.380382
9.950000	-0.549519	-165.215261	-36.422820	-55.833817	-36.422820	-55.833817	-0.549399	-165.186530
10.000000	-0.556274	-166.021604	-36.348805	-57.285193	-36.348805	-57.285193	-0.556152	-165.992678
