! freq	dB(S11)	phase(S11)	dB(S12)	phase(S12)	
!     	dB(S21)	phase(S21)	dB(S22)	phase(S22)	
!S-par simulation data
#  GHz  S  DB  R 50
0.000000	-0.000000	-0.000000	-345.187401	180.000000	-345.187401	180.000000	0.000000	0.000000
0.050000	-0.000101	-0.762706	-117.730122	85.103029	-117.730122	85.103029	-0.000101	-0.762714
0.100000	-0.000399	-1.525162	-112.238728	83.955693	-112.238728	83.955693	-0.000399	-1.525177
0.150000	-0.000885	-2.287118	-109.069324	83.942596	-109.069324	83.942596	-0.000886	-2.287140
0.200000	-0.001528	-3.048431	-106.835676	83.999628	-106.835676	83.999628	-0.001530	-3.048456
0.250000	-0.002310	-3.808936	-105.146014	83.984043	-105.146014	83.984043	-0.002313	-3.808964
0.300000	-0.003216	-4.568438	-103.836051	83.921562	-103.836051	83.921562	-0.003220	-4.568465
0.350000	-0.004203	-5.327036	-102.793192	83.870633	-102.793192	83.870633	-0.004208	-5.327062
0.400000	-0.005261	-6.084565	-101.977997	83.886080	-101.977997	83.886080	-0.005266	-6.084589
0.450000	-0.006362	-6.841122	-101.345128	84.017666	-101.345128	84.017666	-0.006368	-6.841142
0.500000	-0.007493	-7.596686	-100.877808	84.329677	-100.877808	84.329677	-0.007498	-7.596702
0.550000	-0.008637	-8.351301	-100.561713	84.894808	-100.561713	84.894808	-0.008643	-8.351315
0.600000	-0.009786	-9.105010	-100.389314	85.807647	-100.389314	85.807647	-0.009791	-9.105022
0.650000	-0.010931	-9.857855	-100.357002	87.195879	-100.357002	87.195879	-0.010936	-9.857865
0.700000	-0.012067	-10.609877	-100.463032	89.237616	-100.463032	89.237616	-0.012071	-10.609886
0.750000	-0.013190	-11.361111	-100.704147	92.186008	-100.704147	92.186008	-0.013194	-11.361119
0.800000	-0.014299	-12.111586	-101.068785	96.400080	-101.068785	96.400080	-0.014302	-12.111595
0.850000	-0.015390	-12.861204	-101.503802	102.841489	-101.503802	102.841489	-0.015392	-12.861215
0.900000	-0.016464	-13.610075	-101.939175	111.724052	-101.939175	111.724052	-0.016467	-13.610087
0.950000	-0.017532	-14.358580	-102.212835	121.855509	-102.212835	121.855509	-0.017534	-14.358595
1.000000	-0.018577	-15.105990	-101.946744	135.733652	-101.946744	135.733652	-0.018579	-15.106008
1.050000	-0.019619	-15.853158	-101.455220	149.329016	-101.455220	149.329016	-0.019619	-15.853178
1.100000	-0.020639	-16.599113	-99.962169	161.510490	-99.962169	161.510490	-0.020640	-16.599137
1.150000	-0.021658	-17.344944	-98.607517	173.233692	-98.607517	173.233692	-0.021659	-17.344972
1.200000	-0.022660	-18.089420	-96.693647	179.915917	-96.693647	179.915917	-0.022660	-18.089451
1.250000	-0.023661	-18.833895	-95.126281	-173.401858	-95.126281	-173.401858	-0.023661	-18.833930
1.300000	-0.024650	-19.577235	-93.453418	-169.644060	-93.453418	-169.644060	-0.024650	-19.577273
1.350000	-0.025634	-20.319832	-91.882963	-167.066926	-91.882963	-167.066926	-0.025634	-20.319874
1.400000	-0.026612	-21.061672	-90.414680	-165.346807	-90.414680	-165.346807	-0.026612	-21.061718
1.450000	-0.027586	-21.802742	-89.041425	-164.258031	-89.041425	-164.258031	-0.027586	-21.802791
1.500000	-0.028556	-22.543027	-87.754063	-163.642804	-87.754063	-163.642804	-0.028555	-22.543078
1.550000	-0.029522	-23.282510	-86.543494	-163.389406	-86.543494	-163.389406	-0.029522	-23.282564
1.600000	-0.030487	-24.021177	-85.401398	-163.417425	-85.401398	-163.417425	-0.030487	-24.021234
1.650000	-0.031449	-24.759011	-84.320441	-163.667949	-84.320441	-163.667949	-0.031449	-24.759071
1.700000	-0.032409	-25.495695	-83.271126	-164.143783	-83.271126	-164.143783	-0.032409	-25.495757
1.750000	-0.033369	-26.231930	-82.304413	-164.700662	-82.304413	-164.700662	-0.033369	-26.231995
1.800000	-0.034327	-26.967087	-81.367983	-165.393370	-81.367983	-165.393370	-0.034328	-26.967154
1.850000	-0.035286	-27.701473	-80.479857	-166.183097	-80.479857	-166.183097	-0.035286	-27.701542
1.900000	-0.036244	-28.434900	-79.625474	-167.053688	-79.625474	-167.053688	-0.036244	-28.434970
1.950000	-0.037202	-29.167368	-78.803363	-168.005142	-78.803363	-168.005142	-0.037203	-29.167440
2.000000	-0.038162	-29.899008	-78.017275	-169.005213	-78.017275	-169.005213	-0.038162	-29.899083
2.050000	-0.039122	-30.629491	-77.251438	-170.073349	-77.251438	-170.073349	-0.039122	-30.629567
2.100000	-0.040083	-31.359291	-76.523127	-171.170425	-76.523127	-171.170425	-0.040083	-31.359368
2.150000	-0.041046	-32.087724	-75.805905	-172.325381	-75.805905	-172.325381	-0.041046	-32.087803
2.200000	-0.042010	-32.815629	-75.127159	-173.496900	-75.127159	-173.496900	-0.042011	-32.815709
2.250000	-0.042977	-33.541948	-74.452430	-174.718107	-74.452430	-174.718107	-0.042978	-33.542030
2.300000	-0.043946	-34.267906	-73.816720	-175.947918	-73.816720	-175.947918	-0.043946	-34.267989
2.350000	-0.044918	-34.992051	-73.179513	-177.220745	-73.179513	-177.220745	-0.044919	-34.992136
2.400000	-0.045892	-35.716011	-72.581562	-178.496982	-72.581562	-178.496982	-0.045892	-35.716096
2.450000	-0.046871	-36.437923	-71.977784	-179.810727	-71.977784	-179.810727	-0.046872	-36.438010
2.500000	-0.047851	-37.159835	-71.413263	178.875527	-71.413263	178.875527	-0.047852	-37.159924
2.550000	-0.048839	-37.879458	-70.839500	177.528876	-70.839500	177.528876	-0.048840	-37.879547
2.600000	-0.049827	-38.599080	-70.301301	176.182225	-70.301301	176.182225	-0.049828	-38.599171
2.650000	-0.050824	-39.316554	-69.758180	174.811027	-69.758180	174.811027	-0.050824	-39.316646
2.700000	-0.051821	-40.033832	-69.243924	173.437598	-69.243924	173.437598	-0.051822	-40.033925
2.750000	-0.052828	-40.749113	-68.728345	172.045829	-68.728345	172.045829	-0.052828	-40.749207
2.800000	-0.053836	-41.463995	-68.235986	170.650391	-68.235986	170.650391	-0.053837	-41.464090
2.850000	-0.054854	-42.177042	-67.745309	169.241278	-67.745309	169.241278	-0.054855	-42.177139
2.900000	-0.055875	-42.889478	-67.273074	167.827606	-67.273074	167.827606	-0.055876	-42.889576
2.950000	-0.056906	-43.600252	-66.805036	166.403796	-66.805036	166.403796	-0.056906	-43.600351
3.000000	-0.057941	-44.310194	-66.351374	164.974918	-66.351374	164.974918	-0.057941	-44.310295
3.050000	-0.058985	-45.018657	-65.904019	163.538605	-65.904019	163.538605	-0.058985	-45.018759
3.100000	-0.060035	-45.726062	-65.467567	162.096981	-65.467567	162.096981	-0.060035	-45.726165
3.150000	-0.061094	-46.432177	-65.039186	160.649997	-65.039186	160.649997	-0.061094	-46.432282
3.200000	-0.062161	-47.137003	-64.618736	159.197651	-64.618736	159.197651	-0.062161	-47.137108
3.250000	-0.063236	-47.840737	-64.207834	157.741538	-64.207834	157.741538	-0.063237	-47.840844
3.300000	-0.064322	-48.542944	-63.802310	156.280151	-63.802310	156.280151	-0.064322	-48.543052
3.350000	-0.065415	-49.244265	-63.407567	154.816219	-63.407567	154.816219	-0.065415	-49.244374
3.400000	-0.066521	-49.943816	-63.016005	153.347197	-63.016005	153.347197	-0.066521	-49.943927
3.450000	-0.067633	-50.642695	-62.636249	151.876565	-62.636249	151.876565	-0.067633	-50.642806
3.500000	-0.068761	-51.339556	-62.257784	150.401100	-62.257784	150.401100	-0.068761	-51.339669
3.550000	-0.069892	-52.035964	-61.891970	148.924730	-61.891970	148.924730	-0.069892	-52.036079
3.600000	-0.071044	-52.730105	-61.525817	147.443835	-61.525817	147.443835	-0.071043	-52.730221
3.650000	-0.072197	-53.424017	-61.173009	145.962559	-61.173009	145.962559	-0.072197	-53.424134
3.700000	-0.073373	-54.115409	-60.818459	144.477102	-60.818459	144.477102	-0.073373	-54.115527
3.750000	-0.074549	-54.806801	-60.477816	142.991646	-60.477816	142.991646	-0.074549	-54.806920
3.800000	-0.075752	-55.495418	-60.134221	141.502377	-60.134221	141.502377	-0.075751	-55.495538
3.850000	-0.076954	-56.184035	-59.803703	140.013108	-59.803703	140.013108	-0.076954	-56.184157
3.900000	-0.078183	-56.870089	-59.471752	138.520942	-59.471752	138.520942	-0.078182	-56.870211
3.950000	-0.079414	-57.555909	-59.150835	137.028512	-59.150835	137.028512	-0.079413	-57.556032
4.000000	-0.080669	-58.239381	-58.829819	135.533920	-58.829819	135.533920	-0.080669	-58.239505
4.050000	-0.081930	-58.922384	-58.518022	134.038896	-58.518022	134.038896	-0.081929	-58.922509
4.100000	-0.083214	-59.603261	-58.207299	132.542299	-58.207299	132.542299	-0.083213	-59.603387
4.150000	-0.084506	-60.283430	-57.904177	131.045179	-57.904177	131.045179	-0.084506	-60.283557
4.200000	-0.085820	-60.961699	-57.603159	129.546953	-57.603159	129.546953	-0.085820	-60.961827
4.250000	-0.087145	-61.639019	-57.308302	128.048173	-57.308302	128.048173	-0.087145	-61.639148
4.300000	-0.088490	-62.314670	-57.016453	126.548653	-57.016453	126.548653	-0.088490	-62.314800
4.350000	-0.089850	-62.989130	-56.729480	125.048602	-56.729480	125.048602	-0.089850	-62.989261
4.400000	-0.091228	-63.662155	-56.446307	123.548088	-56.446307	123.548088	-0.091228	-63.662287
4.450000	-0.092624	-64.333746	-56.166865	122.047110	-56.166865	122.047110	-0.092624	-64.333878
4.500000	-0.094036	-65.004139	-55.891914	120.545873	-55.891914	120.545873	-0.094036	-65.004272
4.550000	-0.095470	-65.672855	-55.619674	119.044274	-55.619674	119.044274	-0.095470	-65.672989
4.600000	-0.096917	-66.340611	-55.352528	117.542560	-55.352528	117.542560	-0.096917	-66.340746
4.650000	-0.098391	-67.006449	-55.087183	116.040615	-55.087183	116.040615	-0.098391	-67.006584
4.700000	-0.099875	-67.671567	-54.827456	114.538644	-54.827456	114.538644	-0.099875	-67.671703
4.750000	-0.101390	-68.334526	-54.568720	113.036599	-54.568720	113.036599	-0.101390	-68.334662
4.800000	-0.102912	-68.997005	-54.316055	111.534574	-54.316055	111.534574	-0.102912	-68.997142
4.850000	-0.104470	-69.657087	-54.063660	110.032651	-54.063660	110.032651	-0.104470	-69.657225
4.900000	-0.106032	-70.316930	-53.817725	108.530754	-53.817725	108.530754	-0.106032	-70.317068
4.950000	-0.107635	-70.974140	-53.571419	107.029154	-53.571419	107.029154	-0.107635	-70.974279
5.000000	-0.109238	-71.631350	-53.331906	105.527554	-53.331906	105.527554	-0.109238	-71.631489
5.050000	-0.110887	-72.285695	-53.091454	104.026460	-53.091454	104.026460	-0.110887	-72.285834
5.100000	-0.112536	-72.940040	-52.857480	102.525366	-52.857480	102.525366	-0.112536	-72.940180
5.150000	-0.114229	-73.591767	-52.623256	101.024889	-52.623256	101.024889	-0.114229	-73.591908
5.200000	-0.115926	-74.243256	-52.394618	99.524468	-52.394618	99.524468	-0.115926	-74.243398
5.250000	-0.117665	-74.892377	-52.166350	98.024735	-52.166350	98.024735	-0.117665	-74.892518
5.300000	-0.119411	-75.541023	-51.942856	96.525139	-51.942856	96.525139	-0.119412	-75.541165
5.350000	-0.121197	-76.187548	-51.720287	95.026268	-51.720287	95.026268	-0.121197	-76.187690
5.400000	-0.122995	-76.833365	-51.501758	93.527638	-51.501758	93.527638	-0.122995	-76.833508
5.450000	-0.124828	-77.477308	-51.284649	92.029739	-51.284649	92.029739	-0.124829	-77.477451
5.500000	-0.126680	-78.120314	-51.070913	90.532204	-51.070913	90.532204	-0.126680	-78.120457
5.550000	-0.128563	-78.761690	-50.859042	89.035379	-50.859042	89.035379	-0.128563	-78.761834
5.600000	-0.130469	-79.401903	-50.649937	87.539060	-50.649937	87.539060	-0.130469	-79.402047
5.650000	-0.132403	-80.040731	-50.443093	86.043405	-50.443093	86.043405	-0.132404	-80.040875
5.700000	-0.134366	-80.678172	-50.238466	84.548414	-50.238466	84.548414	-0.134366	-80.678317
5.750000	-0.136353	-81.314469	-50.036451	83.054019	-50.036451	83.054019	-0.136353	-81.314614
5.800000	-0.138373	-81.949163	-49.836157	81.560459	-49.836157	81.560459	-0.138374	-81.949309
5.850000	-0.140414	-82.582950	-49.638786	80.067409	-49.638786	80.067409	-0.140414	-82.583096
5.900000	-0.142495	-83.214922	-49.442687	78.575378	-49.442687	78.575378	-0.142495	-83.215068
5.950000	-0.144591	-83.846220	-49.249785	77.083752	-49.249785	77.083752	-0.144591	-83.846367
6.000000	-0.146733	-84.475498	-49.057748	75.593342	-49.057748	75.593342	-0.146733	-84.475645
6.050000	-0.148886	-85.104332	-48.869149	74.103216	-48.869149	74.103216	-0.148886	-85.104479
6.100000	-0.151091	-85.730945	-48.681051	72.614512	-48.681051	72.614512	-0.151091	-85.731093
6.150000	-0.153302	-86.357339	-48.496599	71.125957	-48.496599	71.125957	-0.153302	-86.357487
6.200000	-0.155572	-86.981320	-48.312319	69.639041	-48.312319	69.639041	-0.155572	-86.981469
6.250000	-0.157843	-87.605301	-48.131867	68.152125	-48.131867	68.152125	-0.157843	-87.605450
6.300000	-0.160179	-88.226683	-47.951291	66.667072	-47.951291	66.667072	-0.160180	-88.226832
6.350000	-0.162517	-88.848065	-47.774392	65.182019	-47.774392	65.182019	-0.162517	-88.848215
6.400000	-0.164916	-89.467097	-47.597717	63.698740	-47.597717	63.698740	-0.164916	-89.467247
6.450000	-0.167322	-90.085916	-47.424270	62.215622	-47.424270	62.215622	-0.167322	-90.086066
6.500000	-0.169785	-90.702630	-47.251362	60.734172	-47.251362	60.734172	-0.169785	-90.702781
6.550000	-0.172260	-91.318922	-47.081268	59.253056	-47.081268	59.253056	-0.172261	-91.319074
6.600000	-0.174789	-91.933350	-46.911997	57.773488	-46.911997	57.773488	-0.174789	-91.933502
6.650000	-0.177336	-92.547156	-46.745163	56.294436	-46.745163	56.294436	-0.177336	-92.547308
6.700000	-0.179932	-93.159331	-46.579407	54.816798	-46.579407	54.816798	-0.179932	-93.159484
6.750000	-0.182552	-93.770691	-46.415742	53.339868	-46.415742	53.339868	-0.182552	-93.770845
6.800000	-0.185216	-94.380649	-46.253386	51.864207	-46.253386	51.864207	-0.185216	-94.380803
6.850000	-0.187911	-94.989606	-46.092804	50.389453	-46.092804	50.389453	-0.187911	-94.989761
6.900000	-0.190644	-95.597383	-45.933736	48.915810	-45.933736	48.915810	-0.190645	-95.597538
6.950000	-0.193416	-96.203981	-45.776152	47.443278	-45.776152	47.443278	-0.193416	-96.204136
7.000000	-0.196220	-96.809614	-45.620267	45.971692	-45.620267	45.971692	-0.196220	-96.809771
7.050000	-0.199070	-97.413899	-45.465601	44.501427	-45.465601	44.501427	-0.199070	-97.414055
7.100000	-0.201946	-98.017427	-45.312797	43.031930	-45.312797	43.031930	-0.201947	-98.017585
7.150000	-0.204876	-98.619446	-45.160972	41.563969	-45.160972	41.563969	-0.204876	-98.619604
7.200000	-0.207826	-99.220909	-45.011151	40.096593	-45.011151	40.096593	-0.207826	-99.221068
7.250000	-0.210836	-99.820710	-44.862091	38.630968	-44.862091	38.630968	-0.210836	-99.820870
7.300000	-0.213861	-100.420150	-44.715163	37.165736	-44.715163	37.165736	-0.213861	-100.420310
7.350000	-0.216954	-101.017785	-44.568794	35.702473	-44.568794	35.702473	-0.216955	-101.017945
7.400000	-0.220055	-101.615243	-44.424669	34.239407	-44.424669	34.239407	-0.220056	-101.615404
7.450000	-0.223233	-102.210762	-44.280922	32.778523	-44.280922	32.778523	-0.223233	-102.210924
7.500000	-0.226412	-102.806281	-44.139516	31.317640	-44.139516	31.317640	-0.226412	-102.806444
7.550000	-0.229675	-103.399739	-43.998322	29.859147	-43.998322	29.859147	-0.229675	-103.399902
7.600000	-0.232939	-103.993196	-43.859386	28.400655	-43.859386	28.400655	-0.232940	-103.993360
7.650000	-0.236283	-104.584814	-43.720844	26.944359	-43.720844	26.944359	-0.236283	-104.584978
7.700000	-0.239634	-105.176264	-43.584317	25.488262	-43.584317	25.488262	-0.239635	-105.176429
7.750000	-0.243059	-105.766089	-43.448348	24.034157	-43.448348	24.034157	-0.243059	-105.766255
7.800000	-0.246499	-106.355588	-43.314169	22.580452	-43.314169	22.580452	-0.246500	-106.355755
7.850000	-0.250006	-106.943667	-43.180697	21.128530	-43.180697	21.128530	-0.250007	-106.943834
7.900000	-0.253537	-107.531273	-43.048806	19.677202	-43.048806	19.677202	-0.253537	-107.531441
7.950000	-0.257127	-108.117656	-42.917757	18.227446	-42.917757	18.227446	-0.257128	-108.117824
8.000000	-0.260749	-108.703426	-42.788099	16.778475	-42.788099	16.778475	-0.260750	-108.703595
8.050000	-0.264425	-109.288162	-42.659403	15.330860	-42.659403	15.330860	-0.264425	-109.288331
8.100000	-0.268139	-109.872158	-42.531921	13.884214	-42.531921	13.884214	-0.268140	-109.872328
8.150000	-0.271901	-110.455297	-42.405511	12.438709	-42.405511	12.438709	-0.271901	-110.455468
8.200000	-0.275709	-111.037580	-42.280152	10.994346	-42.280152	10.994346	-0.275710	-111.037751
8.250000	-0.279557	-111.619174	-42.155963	9.550912	-42.155963	9.550912	-0.279558	-111.619346
8.300000	-0.283461	-112.199806	-42.032677	8.108779	-42.032677	8.108779	-0.283462	-112.199978
8.350000	-0.287397	-112.779909	-41.910648	6.667370	-41.910648	6.667370	-0.287398	-112.780081
8.400000	-0.291397	-113.358954	-41.789385	5.227405	-41.789385	5.227405	-0.291398	-113.359127
8.450000	-0.295422	-113.937619	-41.669456	3.787964	-41.669456	3.787964	-0.295423	-113.937792
8.500000	-0.299520	-114.515142	-41.550168	2.350093	-41.550168	2.350093	-0.299520	-114.515316
8.550000	-0.303635	-115.092424	-41.432283	0.912557	-41.432283	0.912557	-0.303635	-115.092597
8.600000	-0.307831	-115.668492	-41.314926	-0.523306	-41.314926	-0.523306	-0.307831	-115.668666
8.650000	-0.312036	-116.244446	-41.199031	-1.959009	-41.199031	-1.959009	-0.312037	-116.244619
8.700000	-0.316332	-116.819128	-41.083562	-3.392962	-41.083562	-3.392962	-0.316332	-116.819301
8.750000	-0.320629	-117.393809	-40.969607	-4.826914	-40.969607	-4.826914	-0.320630	-117.393983
8.800000	-0.325025	-117.967174	-40.855984	-6.259065	-40.855984	-6.259065	-0.325026	-117.967347
8.850000	-0.329423	-118.540538	-40.743828	-7.691216	-40.743828	-7.691216	-0.329424	-118.540712
8.900000	-0.333912	-119.112759	-40.632106	-9.121826	-40.632106	-9.121826	-0.333913	-119.112932
8.950000	-0.338412	-119.684876	-40.521713	-10.552297	-40.521713	-10.552297	-0.338412	-119.685049
9.000000	-0.342995	-120.256014	-40.411847	-11.981478	-40.411847	-11.981478	-0.342995	-120.256187
9.050000	-0.347597	-120.826956	-40.303183	-13.410402	-40.303183	-13.410402	-0.347596	-120.827128
9.100000	-0.352274	-121.397072	-40.195130	-14.838273	-40.195130	-14.838273	-0.352274	-121.397243
9.150000	-0.356979	-121.966912	-40.088164	-16.265794	-40.088164	-16.265794	-0.356978	-121.967082
9.200000	-0.361752	-122.536067	-39.981886	-17.692484	-39.981886	-17.692484	-0.361751	-122.536237
9.250000	-0.366560	-123.104880	-39.876590	-19.118759	-39.876590	-19.118759	-0.366559	-123.105049
9.300000	-0.371428	-123.673137	-39.772050	-20.544405	-39.772050	-20.544405	-0.371427	-123.673305
9.350000	-0.376341	-124.240999	-39.668398	-21.969601	-39.668398	-21.969601	-0.376339	-124.241166
9.400000	-0.381305	-124.808423	-39.565564	-23.394347	-39.565564	-23.394347	-0.381304	-124.808589
9.450000	-0.386322	-125.375411	-39.463534	-24.818642	-39.463534	-24.818642	-0.386320	-125.375575
9.500000	-0.391384	-125.942067	-39.362376	-26.242641	-39.362376	-26.242641	-0.391381	-125.942230
9.550000	-0.396506	-126.508260	-39.261950	-27.666223	-39.261950	-27.666223	-0.396503	-126.508421
9.600000	-0.401664	-127.074214	-39.162441	-29.089635	-39.162441	-29.089635	-0.401660	-127.074373
9.650000	-0.406891	-127.639692	-39.063603	-30.512703	-39.063603	-30.512703	-0.406887	-127.639849
9.700000	-0.412146	-128.205012	-38.965720	-31.935693	-38.965720	-31.935693	-0.412142	-128.205167
9.750000	-0.417479	-128.769858	-38.868459	-33.358452	-38.868459	-33.358452	-0.417474	-128.770010
9.800000	-0.422831	-129.334611	-38.772181	-34.781195	-38.772181	-34.781195	-0.422826	-129.334761
9.850000	-0.428270	-129.898907	-38.676490	-36.203858	-38.676490	-36.203858	-0.428264	-129.899055
9.900000	-0.433719	-130.463165	-38.581801	-37.626531	-38.581801	-37.626531	-0.433713	-130.463309
9.950000	-0.439263	-131.026997	-38.487677	-39.049317	-38.487677	-39.049317	-0.439256	-131.027138
10.000000	-0.444810	-131.590829	-38.394563	-40.472103	-38.394563	-40.472103	-0.444803	-131.590967
