! freq	dB(S11)	phase(S11)	dB(S12)	phase(S12)	
!     	dB(S21)	phase(S21)	dB(S22)	phase(S22)	
!S-par simulation data
#  GHz  S  DB  R 50
0.000000	-0.000000	0.000000	-324.817557	0.000000	-324.817557	0.000000	-0.000000	0.000000
0.050000	-0.000122	-1.283030	-96.334116	89.009235	-96.334116	89.009235	-0.000125	-1.283430
0.100000	-0.000484	-2.565791	-90.297653	87.890427	-90.297653	87.890427	-0.000497	-2.566581
0.150000	-0.001078	-3.848026	-86.771622	86.666727	-86.771622	86.666727	-0.001107	-3.849182
0.200000	-0.001890	-5.129503	-84.284431	85.401259	-84.284431	85.401259	-0.001940	-5.130995
0.250000	-0.002917	-6.409935	-82.373639	84.131571	-82.373639	84.131571	-0.002992	-6.411723
0.300000	-0.004122	-7.689218	-80.829129	82.874659	-80.829129	82.874659	-0.004223	-7.691260
0.350000	-0.005491	-8.967140	-79.540491	81.637902	-79.540491	81.637902	-0.005621	-8.969391
0.400000	-0.007005	-10.243555	-78.441242	80.425627	-78.441242	80.425627	-0.007163	-10.245969
0.450000	-0.008642	-11.518342	-77.488525	79.241011	-77.488525	79.241011	-0.008827	-11.520873
0.500000	-0.010381	-12.791402	-76.653108	78.087026	-76.653108	78.087026	-0.010591	-12.794009
0.550000	-0.012201	-14.062661	-75.914166	76.966803	-75.914166	76.966803	-0.012432	-14.065305
0.600000	-0.014084	-15.332060	-75.256334	75.883760	-75.256334	75.883760	-0.014333	-15.334709
0.650000	-0.016013	-16.599559	-74.667944	74.841662	-74.667944	74.841662	-0.016275	-16.602185
0.700000	-0.017972	-17.865128	-74.139915	73.844651	-74.139915	73.844651	-0.018244	-17.867708
0.750000	-0.019948	-19.128747	-73.665023	72.897265	-73.665023	72.897265	-0.020226	-19.131263
0.800000	-0.021932	-20.390403	-73.237407	72.004466	-73.237407	72.004466	-0.022210	-20.392842
0.850000	-0.023912	-21.650086	-72.852220	71.171659	-72.852220	71.171659	-0.024188	-21.652440
0.900000	-0.025882	-22.907790	-72.505377	70.404720	-72.505377	70.404720	-0.026152	-22.910053
0.950000	-0.027837	-24.163508	-72.193361	69.710016	-72.193361	69.710016	-0.028096	-24.165678
1.000000	-0.029770	-25.417234	-71.913085	69.094430	-71.913085	69.094430	-0.030018	-25.419310
1.050000	-0.031681	-26.668959	-71.661764	68.565366	-71.661764	68.565366	-0.031913	-26.670945
1.100000	-0.033565	-27.918674	-71.436824	68.130752	-71.436824	68.130752	-0.033781	-27.920572
1.150000	-0.035423	-29.166366	-71.235815	67.799012	-71.235815	67.799012	-0.035620	-29.168181
1.200000	-0.037253	-30.412020	-71.056332	67.579021	-71.056332	67.579021	-0.037431	-30.413759
1.250000	-0.039055	-31.655620	-70.895949	67.480009	-70.895949	67.480009	-0.039213	-31.657288
1.300000	-0.040829	-32.897055	-70.752647	67.517533	-70.752647	67.517533	-0.040967	-32.898659
1.350000	-0.042577	-34.136393	-70.623021	67.695731	-70.623021	67.695731	-0.042694	-34.137940
1.400000	-0.044300	-35.373611	-70.504127	68.023610	-70.504127	68.023610	-0.044397	-35.375106
1.450000	-0.046000	-36.608683	-70.392753	68.509345	-70.392753	68.509345	-0.046077	-36.610134
1.500000	-0.047677	-37.841583	-70.285374	69.159716	-70.285374	69.159716	-0.047735	-37.842996
1.550000	-0.049334	-39.072285	-70.178139	69.979415	-70.178139	69.979415	-0.049374	-39.073665
1.600000	-0.050973	-40.300760	-70.066881	70.970250	-70.066881	70.970250	-0.050995	-40.302114
1.650000	-0.052594	-41.526982	-69.947162	72.130278	-69.947162	72.130278	-0.052600	-41.528315
1.700000	-0.054200	-42.750921	-69.814370	73.452953	-69.814370	73.452953	-0.054191	-42.752238
1.750000	-0.055792	-43.972550	-69.663867	74.926385	-69.663867	74.926385	-0.055769	-43.973857
1.800000	-0.057372	-45.191842	-69.491182	76.532872	-69.491182	76.532872	-0.057337	-45.193143
1.850000	-0.058942	-46.408770	-69.292249	78.248812	-69.292249	78.248812	-0.058895	-46.410069
1.900000	-0.060502	-47.623308	-69.063655	80.045154	-69.063655	80.045154	-0.060446	-47.624610
1.950000	-0.062055	-48.835431	-68.802872	81.888394	-68.802872	81.888394	-0.061991	-48.836740
2.000000	-0.063602	-50.045115	-68.508437	83.742103	-68.508437	83.742103	-0.063531	-50.046435
2.050000	-0.065144	-51.252338	-68.180047	85.568816	-68.180047	85.568816	-0.065067	-51.253672
2.100000	-0.066683	-52.457079	-67.818556	87.332057	-67.818556	87.332057	-0.066601	-52.458432
2.150000	-0.068219	-53.659319	-67.425864	88.998227	-67.425864	88.998227	-0.068135	-53.660693
2.200000	-0.069754	-54.859039	-67.004729	90.538129	-67.004729	90.538129	-0.069668	-54.860438
2.250000	-0.071290	-56.056224	-66.558525	91.927963	-66.558525	91.927963	-0.071203	-56.057651
2.300000	-0.072827	-57.250860	-66.090986	93.149756	-66.090986	93.149756	-0.072740	-57.252318
2.350000	-0.074366	-58.442935	-65.605972	94.191268	-65.605972	94.191268	-0.074280	-58.444427
2.400000	-0.075909	-59.632439	-65.107261	95.045495	-65.107261	95.045495	-0.075825	-59.633967
2.450000	-0.077456	-60.819365	-64.598403	95.709918	-64.598403	95.709918	-0.077375	-60.820931
2.500000	-0.079008	-62.003706	-64.082619	96.185626	-64.082619	96.185626	-0.078930	-62.005314
2.550000	-0.080567	-63.185346	-63.561316	96.468677	-63.561316	96.468677	-0.080493	-63.186998
2.600000	-0.082133	-64.364399	-63.038529	96.573213	-63.038529	96.573213	-0.082063	-64.366096
2.650000	-0.083707	-65.540865	-62.516273	96.506273	-62.516273	96.506273	-0.083642	-65.542609
2.700000	-0.085290	-66.714750	-61.996192	96.275451	-61.996192	96.275451	-0.085230	-66.716543
2.750000	-0.086883	-67.886061	-61.479585	95.888473	-61.479585	95.888473	-0.086828	-67.887903
2.800000	-0.088486	-69.054807	-60.967451	95.352873	-60.967451	95.352873	-0.088437	-69.056700
2.850000	-0.090101	-70.221001	-60.460523	94.675749	-60.460523	94.675749	-0.090057	-70.222946
2.900000	-0.091728	-71.384660	-59.959303	93.863594	-59.959303	93.863594	-0.091689	-71.386658
2.950000	-0.093368	-72.545803	-59.464090	92.922173	-59.464090	92.922173	-0.093334	-72.547854
3.000000	-0.095021	-73.704453	-58.975006	91.856432	-58.975006	91.856432	-0.094993	-73.706558
3.050000	-0.096689	-74.860636	-58.492017	90.670438	-58.492017	90.670438	-0.096666	-74.862794
3.100000	-0.098373	-76.014383	-58.014947	89.367324	-58.014947	89.367324	-0.098354	-76.016594
3.150000	-0.100072	-77.165728	-57.543487	87.949248	-57.543487	87.949248	-0.100058	-77.167993
3.200000	-0.101789	-78.314711	-57.077198	86.417341	-57.077198	86.417341	-0.101778	-78.317030
3.250000	-0.103524	-79.461378	-56.615511	84.771654	-56.615511	84.771654	-0.103516	-79.463750
3.300000	-0.105277	-80.605780	-56.157718	83.011092	-56.157718	83.011092	-0.105273	-80.608204
3.350000	-0.107054	-81.747612	-55.698913	81.111711	-55.698913	81.111711	-0.107053	-81.750090
3.400000	-0.108853	-82.887215	-55.241561	79.086055	-55.241561	79.086055	-0.108854	-82.889745
3.450000	-0.110664	-84.025777	-54.794691	76.991825	-54.794691	76.991825	-0.110667	-84.028360
3.500000	-0.112511	-85.161220	-54.334366	74.691877	-54.334366	74.691877	-0.112516	-85.163856
3.550000	-0.114368	-86.296049	-53.887306	72.339363	-53.887306	72.339363	-0.114374	-86.298739
3.600000	-0.116271	-87.427812	-53.415116	69.724018	-53.415116	69.724018	-0.116278	-87.430558
3.650000	-0.118180	-88.559325	-52.960906	67.077111	-52.960906	67.077111	-0.118188	-88.562129
3.700000	-0.120150	-89.688099	-52.462861	64.083026	-52.462861	64.083026	-0.120158	-89.690965
3.750000	-0.122121	-90.816874	-51.991833	61.088942	-51.991833	61.088942	-0.122129	-90.819802
3.800000	-0.124153	-91.944026	-51.476289	57.755199	-51.476289	57.755199	-0.124161	-91.947025
3.850000	-0.126234	-93.070594	-50.932937	54.166995	-50.932937	54.166995	-0.126242	-93.073672
3.900000	-0.128373	-94.197029	-50.352681	50.290706	-50.352681	50.290706	-0.128381	-94.200196
3.950000	-0.130585	-95.323938	-49.723578	46.086454	-49.723578	46.086454	-0.130594	-95.327209
4.000000	-0.132895	-96.452163	-49.029734	41.507012	-49.029734	41.507012	-0.132904	-96.455558
4.050000	-0.135340	-97.582911	-48.249694	36.496318	-48.249694	36.496318	-0.135351	-97.586456
4.100000	-0.137986	-98.717990	-47.353993	30.987017	-47.353993	30.987017	-0.137999	-98.721726
4.150000	-0.140954	-99.860257	-46.301244	24.895430	-46.301244	24.895430	-0.140971	-99.864240
4.200000	-0.144373	-101.012311	-45.089975	18.208850	-45.089975	18.208850	-0.144397	-101.016613
4.250000	-0.148872	-102.185498	-43.542086	10.588559	-43.542086	10.588559	-0.148911	-102.190267
4.300000	-0.155624	-103.394970	-41.561242	1.811565	-41.561242	1.811565	-0.155692	-103.400449
4.350000	-0.168214	-104.675845	-38.934109	-8.794617	-38.934109	-8.794617	-0.168350	-104.682503
4.400000	-0.202442	-106.124529	-35.148816	-23.515397	-35.148816	-23.515397	-0.202786	-106.133461
4.450000	-0.365957	-107.844892	-29.259933	-53.150717	-29.259933	-53.150717	-0.367359	-107.857893
4.500000	-0.564181	-105.965264	-26.517697	-134.823995	-26.517697	-134.823995	-0.566779	-105.958349
4.550000	-0.253853	-107.052934	-32.477648	179.471227	-32.477648	179.471227	-0.254421	-107.046713
4.600000	-0.196425	-108.581486	-36.352923	161.618842	-36.352923	161.618842	-0.196628	-108.578169
4.650000	-0.181166	-109.894023	-38.786844	150.019679	-38.786844	150.019679	-0.181263	-109.892165
4.700000	-0.176231	-111.109660	-40.417104	140.841465	-40.417104	140.841465	-0.176285	-111.108637
4.750000	-0.174917	-112.277872	-41.556959	132.996671	-41.556959	132.996671	-0.174947	-112.277387
4.800000	-0.175231	-113.419139	-42.364485	126.079083	-42.364485	126.079083	-0.175249	-113.419027
4.850000	-0.176394	-114.543648	-42.938180	119.877639	-42.938180	119.877639	-0.176404	-114.543809
4.900000	-0.178044	-115.657066	-43.344944	114.256305	-43.344944	114.256305	-0.178049	-115.657435
4.950000	-0.180002	-116.762773	-43.630631	109.109181	-43.630631	109.109181	-0.180002	-116.763309
5.000000	-0.182174	-117.862693	-43.823650	104.368152	-43.823650	104.368152	-0.182172	-117.863364
5.050000	-0.184576	-118.956063	-43.912547	100.157341	-43.912547	100.157341	-0.184573	-118.956837
5.100000	-0.186979	-120.049433	-44.002362	95.946530	-44.002362	95.946530	-0.186974	-120.050309
5.150000	-0.189573	-121.137422	-44.010978	92.232941	-44.010978	92.232941	-0.189567	-121.138374
5.200000	-0.192185	-122.224922	-44.012165	88.564554	-44.012165	88.564554	-0.192178	-122.225948
5.250000	-0.194923	-123.309214	-43.968939	85.232355	-43.968939	85.232355	-0.194916	-123.310299
5.300000	-0.197688	-124.392865	-43.917115	81.967394	-43.917115	81.967394	-0.197681	-124.394005
5.350000	-0.200548	-125.474592	-43.840377	78.931164	-43.840377	78.931164	-0.200540	-125.475777
5.400000	-0.203439	-126.555677	-43.755993	75.971178	-43.755993	75.971178	-0.203431	-126.556904
5.450000	-0.206406	-127.635665	-43.657590	73.167521	-43.657590	73.167521	-0.206398	-127.636925
5.500000	-0.209411	-128.715104	-43.552966	70.442030	-43.552966	70.442030	-0.209403	-128.716394
5.550000	-0.212479	-129.794006	-43.440668	67.823538	-43.440668	67.823538	-0.212470	-129.795320
5.600000	-0.215590	-130.872524	-43.323518	65.281476	-43.323518	65.281476	-0.215581	-130.873856
5.650000	-0.218754	-131.950888	-43.202510	62.812390	-43.202510	62.812390	-0.218744	-131.952235
5.700000	-0.221969	-133.029101	-43.077826	60.416280	-43.077826	60.416280	-0.221959	-133.030456
5.750000	-0.225226	-134.107416	-42.951635	58.069377	-42.951635	58.069377	-0.225215	-134.108775
5.800000	-0.228542	-135.185876	-42.822736	55.791363	-42.822736	55.791363	-0.228531	-135.187233
5.850000	-0.231892	-136.264592	-42.693796	53.545734	-42.693796	53.545734	-0.231880	-136.265942
5.900000	-0.235308	-137.343817	-42.562944	51.364873	-42.562944	51.364873	-0.235296	-137.345153
5.950000	-0.238751	-138.423357	-42.432963	49.204325	-42.432963	49.204325	-0.238737	-138.424677
6.000000	-0.242268	-139.503845	-42.301728	47.104716	-42.301728	47.104716	-0.242254	-139.505138
6.050000	-0.245803	-140.584623	-42.171917	45.016625	-42.171917	45.016625	-0.245788	-140.585889
6.100000	-0.249421	-141.666859	-42.041409	42.986117	-42.041409	42.986117	-0.249405	-141.668087
6.150000	-0.253049	-142.749282	-41.912640	40.960592	-41.912640	40.960592	-0.253031	-142.750469
6.200000	-0.256769	-143.833750	-41.783655	38.989873	-41.783655	38.989873	-0.256750	-143.834887
6.250000	-0.260490	-144.918219	-41.656557	37.019154	-41.656557	37.019154	-0.260469	-144.919304
6.300000	-0.264312	-146.005406	-41.529673	35.101110	-41.529673	35.101110	-0.264290	-146.006426
6.350000	-0.268136	-147.092594	-41.404616	33.183066	-41.404616	33.183066	-0.268112	-147.093548
6.400000	-0.272053	-148.182722	-41.280349	31.308387	-41.280349	31.308387	-0.272027	-148.183599
6.450000	-0.275980	-149.273117	-41.157747	29.437650	-41.157747	29.437650	-0.275953	-149.273916
6.500000	-0.279993	-150.366601	-41.036334	27.603056	-41.036334	27.603056	-0.279964	-150.367311
6.550000	-0.284025	-151.460703	-40.916493	25.775692	-40.916493	25.775692	-0.283993	-151.461321
6.600000	-0.288135	-152.557966	-40.798108	23.978818	-40.798108	23.978818	-0.288101	-152.558483
6.650000	-0.292272	-153.656282	-40.681257	22.192109	-40.681257	22.192109	-0.292235	-153.656695
6.700000	-0.296480	-154.757755	-40.566025	20.431415	-40.566025	20.431415	-0.296441	-154.758055
6.750000	-0.300724	-155.860807	-40.452335	18.683729	-40.452335	18.683729	-0.300682	-155.860989
6.800000	-0.305031	-156.966932	-40.340343	16.958450	-40.340343	16.958450	-0.304987	-156.966990
6.850000	-0.309383	-158.075252	-40.229937	15.249175	-40.229937	15.249175	-0.309336	-158.075181
6.900000	-0.313791	-159.186483	-40.121239	13.559307	-40.121239	13.559307	-0.313741	-159.186278
6.950000	-0.318253	-160.300624	-40.014202	11.888845	-40.014202	11.888845	-0.318201	-160.300279
7.000000	-0.322764	-161.417428	-39.908824	10.235171	-39.908824	10.235171	-0.322708	-161.416940
7.050000	-0.327339	-162.537961	-39.805201	8.604997	-39.805201	8.604997	-0.327280	-162.537323
7.100000	-0.331954	-163.660822	-39.703141	6.989145	-39.703141	6.989145	-0.331891	-163.660031
7.150000	-0.336644	-164.788340	-39.602940	5.401935	-39.602940	5.401935	-0.336579	-164.787390
7.200000	-0.341366	-165.917759	-39.504164	3.826489	-39.504164	3.826489	-0.341297	-165.916649
7.250000	-0.346177	-167.052883	-39.407338	2.286334	-39.407338	2.286334	-0.346103	-167.051607
7.300000	-0.351010	-168.189383	-39.311773	0.754994	-39.311773	0.754994	-0.350932	-168.187940
7.350000	-0.355945	-169.332769	-39.218207	-0.732268	-39.218207	-0.732268	-0.355863	-169.331152
7.400000	-0.360893	-170.476900	-39.125728	-2.214450	-39.125728	-2.214450	-0.360808	-170.475111
7.450000	-0.365961	-171.629244	-39.035202	-3.640742	-39.035202	-3.640742	-0.365870	-171.627276
7.500000	-0.371031	-172.781589	-38.945611	-5.067035	-38.945611	-5.067035	-0.370936	-172.779441
7.550000	-0.376205	-173.941117	-38.857592	-6.440982	-38.857592	-6.440982	-0.376105	-173.938786
7.600000	-0.381451	-175.105490	-38.770749	-7.777232	-38.770749	-7.777232	-0.381346	-175.102973
7.650000	-0.386772	-176.274900	-38.684919	-9.072080	-38.684919	-9.072080	-0.386662	-176.272195
7.700000	-0.392173	-177.449555	-38.599893	-10.321215	-38.599893	-10.321215	-0.392057	-177.446658
7.750000	-0.397659	-178.629671	-38.515407	-11.519603	-38.515407	-11.519603	-0.397538	-178.626579
7.800000	-0.403237	-179.815485	-38.431120	-12.661357	-38.431120	-12.661357	-0.403110	-179.812194
7.850000	-0.408916	178.992751	-38.346595	-13.739563	-38.346595	-13.739563	-0.408782	178.996246
7.900000	-0.414705	177.794758	-38.261263	-14.746076	-38.261263	-14.746076	-0.414564	177.798462
7.950000	-0.420617	176.590230	-38.174386	-15.671271	-38.174386	-15.671271	-0.420469	176.594151
8.000000	-0.426668	175.378824	-38.084997	-16.503727	-38.084997	-16.503727	-0.426513	175.382971
8.050000	-0.432879	174.160149	-37.991814	-17.229855	-37.991814	-17.229855	-0.432715	174.164533
8.100000	-0.439275	172.933755	-37.893133	-17.833436	-37.893133	-17.833436	-0.439102	172.938392
8.150000	-0.445891	171.699117	-37.786657	-18.295085	-37.786657	-18.295085	-0.445709	171.704026
8.200000	-0.452773	170.455605	-37.669271	-18.591633	-37.669271	-18.591633	-0.452579	170.460812
8.250000	-0.459981	169.202452	-37.536699	-18.695466	-37.536699	-18.695466	-0.459775	169.207992
8.300000	-0.467601	167.938707	-37.383011	-18.573930	-37.383011	-18.573930	-0.467380	167.944625
8.350000	-0.475708	166.663955	-37.202758	-18.207437	-37.202758	-18.207437	-0.475469	166.670310
8.400000	-0.484512	165.375686	-36.982009	-17.531182	-36.982009	-17.531182	-0.484250	165.382563
8.450000	-0.494352	164.070636	-36.698005	-16.472495	-36.698005	-16.472495	-0.494060	164.078168
8.500000	-0.505432	162.748673	-36.340153	-15.048179	-36.340153	-15.048179	-0.505100	162.757025
8.550000	-0.518567	161.403411	-35.861849	-13.181326	-35.861849	-13.181326	-0.518173	161.412859
8.600000	-0.534801	160.029716	-35.217360	-10.904665	-35.217360	-10.904665	-0.534309	160.040677
8.650000	-0.556154	158.618853	-34.335513	-8.330012	-34.335513	-8.330012	-0.555490	158.632004
8.700000	-0.586573	157.158536	-33.119125	-5.767139	-33.119125	-5.767139	-0.585576	157.175005
8.750000	-0.635045	155.633286	-31.422538	-3.952280	-31.422538	-3.952280	-0.633302	155.654973
8.800000	-0.723525	154.050597	-29.058276	-4.585234	-29.058276	-4.585234	-0.719814	154.079729
8.850000	-0.904945	152.633376	-25.874899	-11.808670	-25.874899	-11.808670	-0.895596	152.661301
8.900000	-1.184777	152.765676	-22.550489	-35.118170	-22.550489	-35.118170	-1.169553	152.704030
8.950000	-1.032874	154.353263	-22.544902	-72.101507	-22.544902	-72.101507	-1.038416	154.261411
9.000000	-0.726075	153.126509	-25.304699	-93.324527	-25.304699	-93.324527	-0.732633	153.113571
9.050000	-0.605419	151.185192	-27.761959	-101.183292	-27.761959	-101.183292	-0.608660	151.188761
9.100000	-0.563274	149.381214	-29.538499	-103.903703	-29.538499	-103.903703	-0.564956	149.386456
9.150000	-0.548248	147.715554	-30.819273	-104.709333	-30.819273	-104.709333	-0.549211	147.720404
9.200000	-0.544034	146.136186	-31.751457	-104.792193	-31.751457	-104.792193	-0.544634	146.140520
9.250000	-0.544550	144.606834	-32.446178	-104.679730	-32.446178	-104.679730	-0.544945	144.610794
9.300000	-0.547428	143.107486	-32.971376	-104.606169	-32.971376	-104.606169	-0.547698	143.111213
9.350000	-0.551532	141.625349	-33.380789	-104.659344	-33.380789	-104.659344	-0.551722	141.628948
9.400000	-0.556383	140.153518	-33.696693	-104.876784	-33.696693	-104.876784	-0.556521	140.157076
9.450000	-0.561557	138.685147	-33.963405	-105.209163	-33.963405	-105.209163	-0.561657	138.688715
9.500000	-0.566972	137.217938	-34.183515	-105.660709	-34.183515	-105.660709	-0.567045	137.221566
9.550000	-0.572526	135.749407	-34.367695	-106.216768	-34.367695	-106.216768	-0.572580	135.753137
9.600000	-0.578159	134.277760	-34.523671	-106.864398	-34.523671	-106.864398	-0.578200	134.281631
9.650000	-0.583835	132.801666	-34.657230	-107.592291	-34.657230	-107.592291	-0.583866	132.805715
9.700000	-0.589527	131.320116	-34.772800	-108.390520	-34.772800	-108.390520	-0.589552	131.324381
9.750000	-0.595221	129.832328	-34.873827	-109.250348	-34.873827	-109.250348	-0.595242	129.836848
9.800000	-0.600904	128.337689	-34.963023	-110.164077	-34.963023	-110.164077	-0.600925	128.342505
9.850000	-0.606571	126.835710	-35.042546	-111.124935	-35.042546	-111.124935	-0.606591	126.840865
9.900000	-0.612214	125.325996	-35.114129	-112.126961	-35.114129	-112.126961	-0.612235	125.331538
9.950000	-0.617830	123.808229	-35.179174	-113.164913	-35.179174	-113.164913	-0.617854	123.814207
10.000000	-0.623417	122.282150	-35.238823	-114.234175	-35.238823	-114.234175	-0.623443	122.288618
