! freq	dB(S11)	phase(S11)	dB(S12)	phase(S12)	
!     	dB(S21)	phase(S21)	dB(S22)	phase(S22)	
!S-par simulation data
#  GHz  S  DB  R 50
0.000000	-86.159870	0.000000	-0.000427	0.000000	-0.000427	0.000000	-86.159870	0.000000
0.050000	-37.536129	-92.353191	-0.003469	-2.595047	-0.003469	-2.595047	-37.536155	-92.353463
0.100000	-31.509240	-95.074545	-0.010929	-5.172415	-0.010929	-5.172415	-31.509246	-95.075225
0.150000	-27.985429	-97.822285	-0.020305	-7.731566	-0.020305	-7.731566	-27.985440	-97.823505
0.200000	-25.506118	-100.621595	-0.030455	-10.279582	-0.030455	-10.279582	-25.506160	-100.623149
0.250000	-23.609857	-103.345097	-0.041226	-12.821904	-0.041226	-12.821904	-23.609894	-103.346825
0.300000	-22.074095	-105.953434	-0.052776	-15.360667	-0.052776	-15.360667	-22.074107	-105.955507
0.350000	-20.780770	-108.500543	-0.065271	-17.896259	-0.065271	-17.896259	-20.780769	-108.503075
0.400000	-19.664767	-111.026963	-0.078804	-20.428342	-0.078804	-20.428342	-19.664763	-111.029962
0.450000	-18.686021	-113.547343	-0.093448	-22.956210	-0.093448	-22.956210	-18.686019	-113.550790
0.500000	-17.816981	-116.065340	-0.109203	-25.479222	-0.109203	-25.479222	-17.816983	-116.069216
0.550000	-17.037920	-118.580857	-0.126059	-27.996712	-0.126059	-27.996712	-17.037926	-118.585151
0.600000	-16.334189	-121.092821	-0.143991	-30.508033	-0.143991	-30.508033	-16.334199	-121.097527
0.650000	-15.694323	-123.600138	-0.162935	-33.012742	-0.162935	-33.012742	-15.694335	-123.605255
0.700000	-15.109620	-126.101721	-0.182842	-35.510286	-0.182842	-35.510286	-15.109635	-126.107250
0.750000	-14.572900	-128.596777	-0.203635	-38.000332	-0.203635	-38.000332	-14.572917	-128.602719
0.800000	-14.078403	-131.084650	-0.225235	-40.482559	-0.225235	-40.482559	-14.078421	-131.091010
0.850000	-13.621544	-133.564714	-0.247569	-42.956589	-0.247569	-42.956589	-13.621564	-133.571497
0.900000	-13.198184	-136.036703	-0.270538	-45.422341	-0.270538	-45.422341	-13.198205	-136.043914
0.950000	-12.805107	-138.500244	-0.294058	-47.879567	-0.294058	-47.879567	-12.805129	-138.507889
1.000000	-12.439539	-140.955078	-0.318038	-50.328102	-0.318038	-50.328102	-12.439562	-140.963165
1.050000	-12.098958	-143.401146	-0.342379	-52.767950	-0.342379	-52.767950	-12.098982	-143.409681
1.100000	-11.781258	-145.838386	-0.366982	-55.199101	-0.366982	-55.199101	-11.781282	-145.847377
1.150000	-11.484601	-148.266798	-0.391751	-57.621611	-0.391751	-57.621611	-11.484625	-148.276254
1.200000	-11.207372	-150.686435	-0.416585	-60.035608	-0.416585	-60.035608	-11.207397	-150.696364
1.250000	-10.948144	-153.097400	-0.441388	-62.441309	-0.441388	-62.441309	-10.948170	-153.107810
1.300000	-10.705752	-155.499747	-0.466070	-64.838944	-0.466070	-64.838944	-10.705779	-155.510648
1.350000	-10.478960	-157.893758	-0.490560	-67.228984	-0.490560	-67.228984	-10.478987	-157.905160
1.400000	-10.266754	-160.279655	-0.514803	-69.611820	-0.514803	-69.611820	-10.266782	-160.291569
1.450000	-10.068223	-162.657695	-0.538765	-71.987770	-0.538765	-71.987770	-10.068252	-162.670131
1.500000	-9.882543	-165.028162	-0.562414	-74.357040	-0.562414	-74.357040	-9.882572	-165.041131
1.550000	-9.708968	-167.391364	-0.585707	-76.719748	-0.585707	-76.719748	-9.708998	-167.404880
1.600000	-9.546886	-169.747583	-0.608585	-79.075954	-0.608585	-79.075954	-9.546918	-169.761656
1.650000	-9.395633	-172.097213	-0.630983	-81.425862	-0.630983	-81.425862	-9.395666	-172.111858
1.700000	-9.254769	-174.440535	-0.652821	-83.769636	-0.652821	-83.769636	-9.254803	-174.455765
1.750000	-9.123445	-176.778191	-0.674061	-86.107854	-0.674061	-86.107854	-9.123481	-176.794021
1.800000	-9.001382	-179.110429	-0.694629	-88.440748	-0.694629	-88.440748	-9.001419	-179.126872
1.850000	-8.888145	178.562346	-0.714472	-90.768731	-0.714472	-90.768731	-8.888183	178.545274
1.900000	-8.783412	176.239762	-0.733536	-93.092188	-0.733536	-93.092188	-8.783452	176.222044
1.950000	-8.686811	173.921383	-0.751782	-95.411575	-0.751782	-95.411575	-8.686853	173.903003
2.000000	-8.597929	171.606736	-0.769185	-97.727383	-0.769185	-97.727383	-8.597973	171.587676
2.050000	-8.516455	169.295392	-0.785720	-100.040054	-0.785720	-100.040054	-8.516501	169.275635
2.100000	-8.442102	166.986927	-0.801362	-102.350031	-0.801362	-102.350031	-8.442149	166.966452
2.150000	-8.374605	164.680916	-0.816093	-104.657752	-0.816093	-104.657752	-8.374654	164.659704
2.200000	-8.313718	162.376936	-0.829898	-106.963653	-0.829898	-106.963653	-8.313769	162.354967
2.250000	-8.259214	160.074572	-0.842767	-109.268163	-0.842767	-109.268163	-8.259267	160.051825
2.300000	-8.210883	157.773414	-0.854692	-111.571708	-0.854692	-111.571708	-8.210938	157.749866
2.350000	-8.168529	155.473057	-0.865670	-113.874705	-0.865670	-113.874705	-8.168586	155.448686
2.400000	-8.131971	153.173108	-0.875700	-116.177565	-0.875700	-116.177565	-8.132031	153.147889
2.450000	-8.101042	150.873182	-0.884785	-118.480691	-0.884785	-118.480691	-8.101103	150.847090
2.500000	-8.075582	148.572902	-0.892930	-120.784474	-0.892930	-120.784474	-8.075646	148.545913
2.550000	-8.055559	146.271883	-0.900124	-123.089331	-0.900124	-123.089331	-8.055625	146.243969
2.600000	-8.040719	143.969781	-0.906399	-125.395619	-0.906399	-125.395619	-8.040787	143.940914
2.650000	-8.030934	141.666258	-0.911769	-127.703698	-0.911769	-127.703698	-8.031004	141.636410
2.700000	-8.026084	139.360990	-0.916250	-130.013919	-0.916250	-130.013919	-8.026157	139.330131
2.750000	-8.026058	137.053666	-0.919861	-132.326616	-0.919861	-132.326616	-8.026132	137.021765
2.800000	-8.030748	134.743990	-0.922623	-134.642114	-0.922623	-134.642114	-8.030825	134.711016
2.850000	-8.040054	132.431680	-0.924559	-136.960722	-0.924559	-136.960722	-8.040134	132.397601
2.900000	-8.053882	130.116470	-0.925692	-139.282737	-0.925692	-139.282737	-8.053964	130.081252
2.950000	-8.072141	127.798108	-0.926051	-141.608439	-0.926051	-141.608439	-8.072225	127.761716
3.000000	-8.094743	125.476357	-0.925661	-143.938096	-0.925661	-143.938096	-8.094830	125.438756
3.050000	-8.121607	123.150998	-0.924553	-146.271960	-0.924553	-146.271960	-8.121697	123.112152
3.100000	-8.152651	120.821825	-0.922758	-148.610267	-0.922758	-148.610267	-8.152743	120.781696
3.150000	-8.187839	118.488603	-0.920299	-150.953294	-0.920299	-150.953294	-8.187935	118.447152
3.200000	-8.227092	116.151152	-0.917211	-153.301251	-0.917211	-153.301251	-8.227191	116.108339
3.250000	-8.270292	113.809358	-0.913533	-155.654279	-0.913533	-155.654279	-8.270394	113.765144
3.300000	-8.317365	111.463079	-0.909301	-158.012551	-0.909301	-158.012551	-8.317470	111.417422
3.350000	-8.368239	109.112187	-0.904549	-160.376226	-0.904549	-160.376226	-8.368347	109.065045
3.400000	-8.422841	106.756570	-0.899311	-162.745448	-0.899311	-162.745448	-8.422953	106.707900
3.450000	-8.481098	104.396129	-0.893623	-165.120344	-0.893623	-165.120344	-8.481214	104.345889
3.500000	-8.542939	102.030782	-0.887520	-167.501028	-0.887520	-167.501028	-8.543059	101.978928
3.550000	-8.608289	99.660460	-0.881037	-169.887597	-0.881037	-169.887597	-8.608413	99.606947
3.600000	-8.677075	97.285108	-0.874210	-172.280136	-0.874210	-172.280136	-8.677204	97.229890
3.650000	-8.749221	94.904683	-0.867073	-174.678714	-0.867073	-174.678714	-8.749355	94.847716
3.700000	-8.824652	92.519159	-0.859660	-177.083386	-0.859660	-177.083386	-8.824791	92.460398
3.750000	-8.903289	90.128522	-0.852005	-179.494195	-0.852005	-179.494195	-8.903433	90.067920
3.800000	-8.985101	87.732658	-0.844138	178.088696	-0.844138	178.088696	-8.985251	87.670169
3.850000	-9.069953	85.331692	-0.836097	175.665404	-0.836097	175.665404	-9.070109	85.267270
3.900000	-9.157761	82.925648	-0.827913	173.235927	-0.827913	173.235927	-9.157923	82.859249
3.950000	-9.248440	80.514564	-0.819616	170.800270	-0.819616	170.800270	-9.248609	80.446143
4.000000	-9.341903	78.098490	-0.811237	168.358452	-0.811237	168.358452	-9.342080	78.028002
4.050000	-9.438062	75.677487	-0.802804	165.910502	-0.802804	165.910502	-9.438246	75.604890
4.100000	-9.536827	73.251629	-0.794345	163.456458	-0.794345	163.456458	-9.537018	73.176881
4.150000	-9.638103	70.821002	-0.785886	160.996366	-0.785886	160.996366	-9.638304	70.744061
4.200000	-9.741799	68.385702	-0.777451	158.530280	-0.777451	158.530280	-9.742008	68.306530
4.250000	-9.847817	65.945838	-0.769064	156.058264	-0.769064	156.058264	-9.848035	65.864398
4.300000	-9.956062	63.501530	-0.760747	153.580385	-0.760747	153.580385	-9.956289	63.417786
4.350000	-10.066434	61.052908	-0.752522	151.096719	-0.752522	151.096719	-10.066672	60.966826
4.400000	-10.178840	58.600069	-0.744409	148.607284	-0.744409	148.607284	-10.179088	58.511620
4.450000	-10.293174	56.143171	-0.736425	146.112168	-0.736425	146.112168	-10.293434	56.052328
4.500000	-10.409332	53.682421	-0.728588	143.611520	-0.728588	143.611520	-10.409604	53.589160
4.550000	-10.527213	51.217992	-0.720911	141.105434	-0.720911	141.105434	-10.527497	51.122293
4.600000	-10.646720	48.750063	-0.713407	138.594001	-0.713407	138.594001	-10.647016	48.651911
4.650000	-10.767754	46.278825	-0.706090	136.077318	-0.706090	136.077318	-10.768064	46.178207
4.700000	-10.890220	43.804474	-0.698968	133.555479	-0.698968	133.555479	-10.890544	43.701385
4.750000	-11.014026	41.327213	-0.692052	131.028582	-0.692052	131.028582	-11.014365	41.221652
4.800000	-11.139082	38.847253	-0.685349	128.496721	-0.685349	128.496721	-11.139437	38.739224
4.850000	-11.265303	36.364807	-0.678865	125.959992	-0.678865	125.959992	-11.265673	36.254321
4.900000	-11.392607	33.880094	-0.672606	123.418487	-0.672606	123.418487	-11.392994	33.767169
4.950000	-11.520920	31.393336	-0.666575	120.872297	-0.666575	120.872297	-11.521325	31.277995
5.000000	-11.650174	28.904754	-0.660774	118.321510	-0.660774	118.321510	-11.650597	28.787028
5.050000	-11.780284	26.414540	-0.655210	115.766114	-0.655210	115.766114	-11.780727	26.294470
5.100000	-11.911221	23.922956	-0.649879	113.206289	-0.649879	113.206289	-11.911683	23.800589
5.150000	-12.042945	21.430218	-0.644779	110.642111	-0.644779	110.642111	-12.043428	21.305611
5.200000	-12.175428	18.936541	-0.639908	108.073652	-0.639908	108.073652	-12.175933	18.809758
5.250000	-12.308655	16.442134	-0.635264	105.500977	-0.635264	105.500977	-12.309182	16.313249
5.300000	-12.442625	13.947198	-0.630842	102.924147	-0.630842	102.924147	-12.443175	13.816295
5.350000	-12.577354	11.451928	-0.626639	100.343216	-0.626639	100.343216	-12.577929	11.319101
5.400000	-12.712877	8.956513	-0.622648	97.758233	-0.622648	97.758233	-12.713476	8.821864
5.450000	-12.849245	6.461132	-0.618864	95.169239	-0.618864	95.169239	-12.849870	6.324776
5.500000	-12.986534	3.965957	-0.615280	92.576269	-0.615280	92.576269	-12.987184	3.828019
5.550000	-13.124840	1.471153	-0.611890	89.979349	-0.611890	89.979349	-13.125517	1.331769
5.600000	-13.264287	-1.023119	-0.608684	87.378501	-0.608684	87.378501	-13.264990	-1.163803
5.650000	-13.405014	-3.516695	-0.605658	84.773692	-0.605658	84.773692	-13.405745	-3.658517
5.700000	-13.547206	-6.009415	-0.602801	82.164928	-0.602801	82.164928	-13.547964	-6.152203
5.750000	-13.691085	-8.501131	-0.600104	79.552246	-0.600104	79.552246	-13.691871	-8.644701
5.800000	-13.836898	-10.991679	-0.597558	76.935632	-0.597558	76.935632	-13.837710	-11.135837
5.850000	-13.984925	-13.480888	-0.595153	74.315064	-0.595153	74.315064	-13.985763	-13.625424
5.900000	-14.135487	-15.968570	-0.592881	71.690510	-0.592881	71.690510	-14.136351	-16.113260
5.950000	-14.288946	-18.454513	-0.590731	69.061931	-0.590731	69.061931	-14.289835	-18.599122
6.000000	-14.445710	-20.938476	-0.588695	66.429276	-0.588695	66.429276	-14.446621	-21.082753
6.050000	-14.606231	-23.420183	-0.586765	63.792486	-0.586765	63.792486	-14.607164	-23.563860
6.100000	-14.771018	-25.899307	-0.584931	61.151490	-0.584931	61.151490	-14.771968	-26.042099
6.150000	-14.940631	-28.375465	-0.583184	58.506210	-0.583184	58.506210	-14.941597	-28.517070
6.200000	-15.115696	-30.848201	-0.581518	55.856555	-0.581518	55.856555	-15.116674	-30.988298
6.250000	-15.296901	-33.316979	-0.579925	53.202424	-0.579925	53.202424	-15.297886	-33.455221
6.300000	-15.485089	-35.781039	-0.578399	50.543604	-0.578399	50.543604	-15.486076	-35.917050
6.350000	-15.681053	-38.239696	-0.576933	47.880069	-0.576933	47.880069	-15.682035	-38.373078
6.400000	-15.885733	-40.692031	-0.575522	45.211686	-0.575522	45.211686	-15.886704	-40.822355
6.450000	-16.100174	-43.136949	-0.574162	42.538309	-0.574162	42.538309	-16.101123	-43.263749
6.500000	-16.325535	-45.573141	-0.572850	39.859783	-0.572850	39.859783	-16.326452	-45.695910
6.550000	-16.563114	-47.999040	-0.571583	37.175939	-0.571583	37.175939	-16.563986	-48.117222
6.600000	-16.814361	-50.412765	-0.570363	34.486600	-0.570363	34.486600	-16.815173	-50.525746
6.650000	-17.080913	-52.812044	-0.569189	31.791575	-0.569189	31.791575	-17.081646	-52.919143
6.700000	-17.364620	-55.194123	-0.568066	29.090663	-0.568066	29.090663	-17.365250	-55.294576
6.750000	-17.667588	-57.555640	-0.566997	26.383654	-0.566997	26.383654	-17.668089	-57.648586
6.800000	-17.992234	-59.892460	-0.565990	23.670323	-0.565990	23.670323	-17.992570	-59.976916
6.850000	-18.341347	-62.199454	-0.565054	20.950438	-0.565054	20.950438	-18.341475	-62.274291
6.900000	-18.718328	-64.469710	-0.564201	18.223680	-0.564201	18.223680	-18.718193	-64.533598
6.950000	-19.127041	-66.694721	-0.563447	15.489787	-0.563447	15.489787	-19.126573	-66.746092
7.000000	-19.571895	-68.864210	-0.562806	12.748572	-0.562806	12.748572	-19.571002	-68.901213
7.050000	-20.058346	-70.964227	-0.562300	9.999764	-0.562300	9.999764	-20.056907	-70.984629
7.100000	-20.593029	-72.976218	-0.561953	7.243088	-0.561953	7.243088	-20.590881	-72.977291
7.150000	-21.184115	-74.875011	-0.561790	4.478260	-0.561790	4.478260	-21.181033	-74.853364
7.200000	-21.841828	-76.625658	-0.561842	1.704994	-0.561842	1.704994	-21.837492	-76.577014
7.250000	-22.579153	-78.178329	-0.562144	-1.077000	-0.562144	-1.077000	-22.573099	-78.097200
7.300000	-23.412877	-79.459716	-0.562735	-3.868016	-0.562735	-3.868016	-23.404401	-79.338928
7.350000	-24.365060	-80.357901	-0.563656	-6.668345	-0.563656	-6.668345	-24.353057	-80.187923
7.400000	-25.465104	-80.694391	-0.564956	-9.478276	-0.564956	-9.478276	-25.447747	-80.462416
7.450000	-26.752304	-80.169453	-0.566685	-12.298097	-0.566685	-12.298097	-26.726401	-79.858369
7.500000	-28.277470	-78.249190	-0.568901	-15.128085	-0.568901	-15.128085	-28.237068	-77.837561
7.550000	-30.092356	-73.824300	-0.571677	-17.968743	-0.571677	-17.968743	-30.025501	-73.293362
7.600000	-32.186625	-64.823575	-0.575072	-20.820107	-0.575072	-20.820107	-32.069831	-64.204799
7.650000	-34.204318	-47.738577	-0.579155	-23.682419	-0.579155	-23.682419	-34.006309	-47.288281
7.700000	-34.929853	-21.928004	-0.584003	-26.555900	-0.584003	-26.555900	-34.681965	-22.184258
7.750000	-33.523036	2.487416	-0.589700	-29.440752	-0.589700	-29.440752	-33.330886	1.585447
7.800000	-31.139422	17.653461	-0.596330	-32.337150	-0.596330	-32.337150	-31.021121	16.605090
7.850000	-28.802852	25.503365	-0.603986	-35.245240	-0.603986	-35.245240	-28.730082	24.521859
7.900000	-26.759225	29.269873	-0.612764	-38.165134	-0.612764	-38.165134	-26.711749	28.386459
7.950000	-24.996749	30.790737	-0.622764	-41.096908	-0.622764	-41.096908	-24.963938	29.993502
8.000000	-23.462740	30.996754	-0.634091	-44.040597	-0.634091	-44.040597	-23.439001	30.268991
8.050000	-22.109659	30.378856	-0.646854	-46.996193	-0.646854	-46.996193	-22.091875	29.706477
8.100000	-20.900908	29.213376	-0.661163	-49.963638	-0.661163	-49.963638	-20.887233	28.585532
8.150000	-19.808831	27.662766	-0.677151	-52.942947	-0.677151	-52.942947	-19.798109	27.071163
8.200000	-18.813085	25.833706	-0.694939	-55.933949	-0.694939	-55.933949	-18.804561	25.272045
8.250000	-17.898687	23.799920	-0.714600	-58.936137	-0.714600	-58.936137	-17.891847	23.263438
8.300000	-17.053089	21.603635	-0.736292	-61.949472	-0.736292	-61.949472	-17.047570	21.088492
8.350000	-16.267125	19.280360	-0.760106	-64.973465	-0.760106	-64.973465	-16.262663	18.783536
8.400000	-15.533053	16.852730	-0.786200	-68.007884	-0.786200	-68.007884	-15.529453	16.371737
8.450000	-14.845058	14.340670	-0.814658	-71.052101	-0.814658	-71.052101	-14.842172	13.873500
8.500000	-14.198208	11.758212	-0.845590	-74.105569	-0.845590	-74.105569	-14.195919	11.303194
8.550000	-13.588429	9.116416	-0.879103	-77.167675	-0.879103	-77.167675	-13.586649	8.672144
8.600000	-13.012327	6.424180	-0.915295	-80.237741	-0.915295	-80.237741	-13.010982	5.989459
8.650000	-12.467040	3.688799	-0.954260	-83.315029	-0.954260	-83.315029	-12.466071	3.262603
8.700000	-11.950134	0.916361	-0.996083	-86.398745	-0.996083	-86.398745	-11.949493	0.497799
8.750000	-11.459519	-1.887970	-1.040840	-89.488037	-1.040840	-89.488037	-11.459166	-2.299677
8.800000	-10.993374	-4.720087	-1.088638	-92.582063	-1.088638	-92.582063	-10.993276	-5.125637
8.850000	-10.550160	-7.575676	-1.139493	-95.679798	-1.139493	-95.679798	-10.550288	-7.975681
8.900000	-10.128482	-10.451340	-1.193448	-98.780266	-1.193448	-98.780266	-10.128812	-10.846348
8.950000	-9.727104	-13.344053	-1.250533	-101.882461	-1.250533	-101.882461	-9.727616	-13.734562
9.000000	-9.344920	-16.251108	-1.310766	-104.985359	-1.310766	-104.985359	-9.345596	-16.637573
9.050000	-8.980934	-19.170065	-1.374152	-108.087929	-1.374152	-108.087929	-8.981759	-19.552903
9.100000	-8.634241	-22.098724	-1.440680	-111.189135	-1.440680	-111.189135	-8.635204	-22.478322
9.150000	-8.304019	-25.035098	-1.510328	-114.287952	-1.510328	-114.287952	-8.305108	-25.411815
9.200000	-7.989549	-27.977435	-1.583082	-117.383331	-1.583082	-117.383331	-7.990755	-28.351613
9.250000	-7.690121	-30.924066	-1.658876	-120.474293	-1.658876	-120.474293	-7.691439	-31.296023
9.300000	-7.405068	-33.873529	-1.737634	-123.559915	-1.737634	-123.559915	-7.406491	-34.243566
9.350000	-7.133783	-36.824548	-1.819279	-126.639309	-1.819279	-126.639309	-7.135308	-37.192951
9.400000	-6.875701	-39.776002	-1.903721	-129.711640	-1.903721	-129.711640	-6.877326	-40.143044
9.450000	-6.630294	-42.726915	-1.990862	-132.776141	-1.990862	-132.776141	-6.632018	-43.092858
9.500000	-6.397066	-45.676452	-2.080592	-135.832114	-2.080592	-135.832114	-6.398889	-46.041547
9.550000	-6.175552	-48.623911	-2.172793	-138.878943	-2.172793	-138.878943	-6.177476	-48.988399
9.600000	-5.965346	-51.568700	-2.267344	-141.916044	-2.267344	-141.916044	-5.967375	-51.932816
9.650000	-5.766073	-54.510343	-2.364116	-144.942915	-2.364116	-144.942915	-5.768210	-54.874315
9.700000	-5.577291	-57.448529	-2.462960	-147.959304	-2.462960	-147.959304	-5.579543	-57.812572
9.750000	-5.398644	-60.383022	-2.563735	-150.964957	-2.563735	-150.964957	-5.401019	-60.747347
9.800000	-5.229800	-63.313688	-2.666300	-153.959720	-2.666300	-153.959720	-5.232305	-63.678496
9.850000	-5.070450	-66.240474	-2.770513	-156.943536	-2.770513	-156.943536	-5.073096	-66.605961
9.900000	-4.920311	-69.163409	-2.876234	-159.916445	-2.876234	-159.916445	-4.923109	-69.529762
9.950000	-4.779120	-72.082589	-2.983324	-162.878584	-2.983324	-162.878584	-4.782082	-72.449987
10.000000	-4.646640	-74.998168	-3.091649	-165.830186	-3.091649	-165.830186	-4.649778	-75.366784
