! freq	dB(S11)	phase(S11)	dB(S12)	phase(S12)	
!     	dB(S21)	phase(S21)	dB(S22)	phase(S22)	
!S-par simulation data
#  GHz  S  DB  R 50
0.000000	-0.000000	0.000000	-368.212327	0.000000	-368.212327	0.000000	-0.000000	0.000000
0.050000	-0.000100	-0.943702	-90.264049	172.541224	-90.264049	172.541224	-0.000100	-0.943688
0.100000	-0.000396	-1.887190	-90.126965	164.749087	-90.126965	164.749087	-0.000396	-1.887162
0.150000	-0.000882	-2.830260	-89.913983	157.415841	-89.913983	157.415841	-0.000880	-2.830220
0.200000	-0.001541	-3.772734	-89.644302	150.561096	-89.644302	150.561096	-0.001539	-3.772683
0.250000	-0.002370	-4.714398	-89.335621	144.265364	-89.335621	144.265364	-0.002367	-4.714338
0.300000	-0.003335	-5.655185	-89.011791	138.495950	-89.011791	138.495950	-0.003330	-5.655118
0.350000	-0.004423	-6.594952	-88.687528	133.267878	-88.687528	133.267878	-0.004418	-6.594880
0.400000	-0.005616	-7.533613	-88.376731	128.559065	-88.376731	128.559065	-0.005609	-7.533537
0.450000	-0.006893	-8.471104	-88.090382	124.340482	-88.090382	124.340482	-0.006885	-8.471026
0.500000	-0.008236	-9.407385	-87.836988	120.582732	-87.836988	120.582732	-0.008227	-9.407306
0.550000	-0.009629	-10.342434	-87.623108	117.260540	-87.623108	117.260540	-0.009619	-10.342355
0.600000	-0.011055	-11.276243	-87.453868	114.355729	-87.453868	114.355729	-0.011045	-11.276165
0.650000	-0.012503	-12.208815	-87.333378	111.859297	-87.333378	111.859297	-0.012493	-12.208737
0.700000	-0.013961	-13.140160	-87.265030	109.773164	-87.265030	109.773164	-0.013950	-13.140084
0.750000	-0.015419	-14.070295	-87.251667	108.112019	-87.251667	108.112019	-0.015409	-14.070220
0.800000	-0.016872	-14.999237	-87.295599	106.905612	-87.295599	106.905612	-0.016862	-14.999162
0.850000	-0.018312	-15.927004	-87.398395	106.201766	-87.398395	106.201766	-0.018303	-15.926929
0.900000	-0.019738	-16.853613	-87.560374	106.070241	-87.560374	106.070241	-0.019729	-16.853537
0.950000	-0.021144	-17.779077	-87.779582	106.607238	-87.779582	106.607238	-0.021136	-17.778999
1.000000	-0.022530	-18.703408	-88.049983	107.939537	-88.049983	107.939537	-0.022523	-18.703328
1.050000	-0.023895	-19.626614	-88.358459	110.225398	-88.358459	110.225398	-0.023888	-19.626531
1.100000	-0.025239	-20.548699	-88.680265	113.645688	-88.680265	113.645688	-0.025232	-20.548613
1.150000	-0.026561	-21.469664	-88.973299	118.373011	-88.973299	118.373011	-0.026555	-21.469574
1.200000	-0.027863	-22.389506	-89.173683	124.502257	-89.173683	124.502257	-0.027858	-22.389411
1.250000	-0.029146	-23.308220	-89.199205	131.936261	-89.199205	131.936261	-0.029141	-23.308120
1.300000	-0.030409	-24.225747	-88.955476	140.277034	-88.955476	140.277034	-0.030406	-24.225641
1.350000	-0.031657	-25.142124	-88.411799	148.751906	-88.411799	148.751906	-0.031654	-25.142012
1.400000	-0.032889	-26.057337	-87.592317	156.624404	-87.592317	156.624404	-0.032886	-26.057219
1.450000	-0.034107	-26.971371	-86.568484	163.395779	-86.568484	163.395779	-0.034105	-26.971246
1.500000	-0.035313	-27.884209	-85.423847	168.880235	-85.423847	168.880235	-0.035312	-27.884077
1.550000	-0.036509	-28.795831	-84.228025	173.122935	-84.228025	173.122935	-0.036508	-28.795692
1.600000	-0.037695	-29.706217	-83.028629	176.282550	-83.028629	176.282550	-0.037695	-29.706071
1.650000	-0.038874	-30.615347	-81.854047	178.547176	-81.854047	178.547176	-0.038874	-30.615194
1.700000	-0.040046	-31.523200	-80.719247	-179.908070	-80.719247	-179.908070	-0.040046	-31.523040
1.750000	-0.041213	-32.429753	-79.630851	-178.935937	-79.630851	-178.935937	-0.041213	-32.429585
1.800000	-0.042376	-33.334983	-78.590671	-178.418378	-78.590671	-178.418378	-0.042376	-33.334809
1.850000	-0.043535	-34.238869	-77.597901	-178.262781	-77.597901	-178.262781	-0.043536	-34.238687
1.900000	-0.044693	-35.141388	-76.650409	-178.397046	-76.650409	-178.397046	-0.044693	-35.141199
1.950000	-0.045850	-36.042516	-75.745478	-178.765039	-75.745478	-178.765039	-0.045850	-36.042321
2.000000	-0.047007	-36.942233	-74.880208	-179.322880	-74.880208	-179.322880	-0.047007	-36.942031
2.050000	-0.048164	-37.840515	-74.051736	179.963954	-74.051736	179.963954	-0.048164	-37.840307
2.100000	-0.049323	-38.737341	-73.257341	179.122826	-73.257341	179.122826	-0.049323	-38.737126
2.150000	-0.050484	-39.632689	-72.494495	178.175595	-72.494495	178.175595	-0.050485	-39.632468
2.200000	-0.051648	-40.526539	-71.760880	177.139862	-71.760880	177.139862	-0.051649	-40.526312
2.250000	-0.052816	-41.418869	-71.054381	176.029906	-71.054381	176.029906	-0.052816	-41.418636
2.300000	-0.053988	-42.309660	-70.373078	174.857401	-70.373078	174.857401	-0.053988	-42.309421
2.350000	-0.055165	-43.198892	-69.715230	173.631952	-69.715230	173.631952	-0.055165	-43.198648
2.400000	-0.056346	-44.086546	-69.079257	172.361517	-69.079257	172.361517	-0.056346	-44.086297
2.450000	-0.057534	-44.972605	-68.463728	171.052726	-68.463728	171.052726	-0.057534	-44.972351
2.500000	-0.058728	-45.857051	-67.867341	169.711138	-67.867341	169.711138	-0.058727	-45.856792
2.550000	-0.059928	-46.739795	-67.288018	168.340394	-67.288018	168.340394	-0.059928	-46.739531
2.600000	-0.061136	-47.620892	-66.725670	166.945794	-66.725670	166.945794	-0.061135	-47.620623
2.650000	-0.062351	-48.500326	-66.179296	165.530637	-66.179296	165.530637	-0.062350	-48.500052
2.700000	-0.063573	-49.378082	-65.647982	164.097741	-65.647982	164.097741	-0.063573	-49.377803
2.750000	-0.064804	-50.254146	-65.130889	162.649526	-65.130889	162.649526	-0.064804	-50.253863
2.800000	-0.066044	-51.128507	-64.627248	161.188071	-64.627248	161.188071	-0.066043	-51.128219
2.850000	-0.067292	-52.001150	-64.136349	159.715172	-64.136349	159.715172	-0.067291	-52.000858
2.900000	-0.068550	-52.872064	-63.657538	158.232379	-63.657538	158.232379	-0.068549	-52.871768
2.950000	-0.069817	-53.741239	-63.190208	156.741035	-63.190208	156.741035	-0.069816	-53.740938
3.000000	-0.071094	-54.608664	-62.733802	155.242306	-62.733802	155.242306	-0.071093	-54.608359
3.050000	-0.072381	-55.474330	-62.287797	153.737204	-62.287797	153.737204	-0.072380	-55.474021
3.100000	-0.073679	-56.338229	-61.851713	152.226608	-61.851713	152.226608	-0.073678	-56.337914
3.150000	-0.074987	-57.200351	-61.425098	150.711285	-61.425098	150.711285	-0.074986	-57.200032
3.200000	-0.076307	-58.060690	-61.007535	149.191900	-61.007535	149.191900	-0.076306	-58.060367
3.250000	-0.077639	-58.919240	-60.598631	147.669033	-60.598631	147.669033	-0.077638	-58.918912
3.300000	-0.078982	-59.775994	-60.198021	146.143187	-60.198021	146.143187	-0.078981	-59.775662
3.350000	-0.080337	-60.630948	-59.805364	144.614800	-59.805364	144.614800	-0.080336	-60.630611
3.400000	-0.081705	-61.484097	-59.420338	143.084252	-59.420338	143.084252	-0.081704	-61.483756
3.450000	-0.083086	-62.335437	-59.042642	141.551870	-59.042642	141.551870	-0.083085	-62.335092
3.500000	-0.084480	-63.184967	-58.671995	140.017939	-58.671995	140.017939	-0.084479	-63.184616
3.550000	-0.085888	-64.032683	-58.308131	138.482703	-58.308131	138.482703	-0.085887	-64.032328
3.600000	-0.087310	-64.878584	-57.950801	136.946372	-57.950801	136.946372	-0.087309	-64.878224
3.650000	-0.088746	-65.722669	-57.599769	135.409123	-57.599769	135.409123	-0.088746	-65.722304
3.700000	-0.090198	-66.564939	-57.254813	133.871109	-57.254813	133.871109	-0.090197	-66.564568
3.750000	-0.091664	-67.405392	-56.915726	132.332457	-56.915726	132.332457	-0.091663	-67.405017
3.800000	-0.093147	-68.243953	-56.582002	130.793255	-56.582002	130.793255	-0.093146	-68.243572
3.850000	-0.094645	-69.080701	-56.253783	129.253617	-56.253783	129.253617	-0.094645	-69.080315
3.900000	-0.096161	-69.915639	-55.930892	127.713612	-55.930892	127.713612	-0.096160	-69.915248
3.950000	-0.097693	-70.748771	-55.613164	126.173297	-55.613164	126.173297	-0.097692	-70.748375
4.000000	-0.099242	-71.580100	-55.300439	124.632715	-55.300439	124.632715	-0.099242	-71.579698
4.050000	-0.100810	-72.409630	-54.992568	123.091900	-54.992568	123.091900	-0.100809	-72.409223
4.100000	-0.102395	-73.237367	-54.689411	121.550875	-54.689411	121.550875	-0.102395	-73.236955
4.150000	-0.104000	-74.063317	-54.390834	120.009658	-54.390834	120.009658	-0.103999	-74.062898
4.200000	-0.105623	-74.887484	-54.096711	118.468259	-54.096711	118.468259	-0.105623	-74.887060
4.250000	-0.107267	-75.709877	-53.806921	116.926680	-53.806921	116.926680	-0.107266	-75.709447
4.300000	-0.108930	-76.530502	-53.521352	115.384924	-53.521352	115.384924	-0.108929	-76.530067
4.350000	-0.110614	-77.349368	-53.239896	113.842985	-53.239896	113.842985	-0.110613	-77.348927
4.400000	-0.112320	-78.166483	-52.962452	112.300856	-52.962452	112.300856	-0.112319	-78.166036
4.450000	-0.114047	-78.981855	-52.688923	110.758531	-52.688923	110.758531	-0.114046	-78.981403
4.500000	-0.115796	-79.795496	-52.419218	109.215997	-52.419218	109.215997	-0.115795	-79.795038
4.550000	-0.117568	-80.607414	-52.153251	107.673245	-52.153251	107.673245	-0.117567	-80.606950
4.600000	-0.119363	-81.417620	-51.890939	106.130265	-51.890939	106.130265	-0.119362	-81.417151
4.650000	-0.121182	-82.226125	-51.632204	104.587044	-51.632204	104.587044	-0.121180	-82.225651
4.700000	-0.123025	-83.032942	-51.376974	103.043576	-51.376974	103.043576	-0.123023	-83.032462
4.750000	-0.124893	-83.838082	-51.125178	101.499851	-51.125178	101.499851	-0.124891	-83.837597
4.800000	-0.126786	-84.641558	-50.876750	99.955864	-50.876750	99.955864	-0.126784	-84.641067
4.850000	-0.128705	-85.443384	-50.631626	98.411610	-50.631626	98.411610	-0.128703	-85.442887
4.900000	-0.130651	-86.243572	-50.389746	96.867090	-50.389746	96.867090	-0.130649	-86.243070
4.950000	-0.132624	-87.042136	-50.151055	95.322305	-50.151055	95.322305	-0.132621	-87.041630
5.000000	-0.134624	-87.839093	-49.915498	93.777259	-49.915498	93.777259	-0.134621	-87.838581
5.050000	-0.136668	-88.633565	-49.681268	92.231829	-49.681268	92.231829	-0.136665	-88.633048
5.100000	-0.138712	-89.428037	-49.453190	90.686398	-49.453190	90.686398	-0.138709	-89.427516
5.150000	-0.140812	-90.219525	-49.225375	89.140551	-49.225375	89.140551	-0.140809	-90.219000
5.200000	-0.142918	-91.010743	-49.002889	87.594666	-49.002889	87.594666	-0.142915	-91.010212
5.250000	-0.145076	-91.799308	-48.781267	86.048488	-48.781267	86.048488	-0.145072	-91.798774
5.300000	-0.147245	-92.587344	-48.564245	84.502252	-48.564245	84.502252	-0.147241	-92.586805
5.350000	-0.149463	-93.373051	-48.348613	82.955862	-48.348613	82.955862	-0.149459	-93.372508
5.400000	-0.151697	-94.157982	-48.136936	81.409421	-48.136936	81.409421	-0.151693	-94.157435
5.450000	-0.153977	-94.940897	-47.927105	79.862968	-47.927105	79.862968	-0.153973	-94.940347
5.500000	-0.156280	-95.722805	-47.720666	78.316508	-47.720666	78.316508	-0.156275	-95.722250
5.550000	-0.158624	-96.502998	-47.516462	76.770174	-47.516462	76.770174	-0.158619	-96.502440
5.600000	-0.160997	-97.281966	-47.315162	75.223927	-47.315162	75.223927	-0.160991	-97.281405
5.650000	-0.163406	-98.059510	-47.116420	73.677924	-47.116420	73.677924	-0.163401	-98.058945
5.700000	-0.165852	-98.835628	-46.920166	72.132164	-46.920166	72.132164	-0.165846	-98.835060
5.750000	-0.168329	-99.610597	-46.726733	70.586737	-46.726733	70.586737	-0.168323	-99.610026
5.800000	-0.170850	-100.383957	-46.535436	69.041777	-46.535436	69.041777	-0.170844	-100.383383
5.850000	-0.173397	-101.156430	-46.347165	67.497200	-46.347165	67.497200	-0.173391	-101.155854
5.900000	-0.175995	-101.927129	-46.160739	65.953391	-46.160739	65.953391	-0.175989	-101.926549
5.950000	-0.178613	-102.697186	-45.977489	64.409966	-45.977489	64.409966	-0.178607	-102.696604
6.000000	-0.181291	-103.465322	-45.795849	62.867693	-45.795849	62.867693	-0.181284	-103.464737
6.050000	-0.183983	-104.233047	-45.617487	61.325746	-45.617487	61.325746	-0.183976	-104.232460
6.100000	-0.186742	-104.998724	-45.440545	59.785425	-45.440545	59.785425	-0.186734	-104.998134
6.150000	-0.189508	-105.764204	-45.266939	58.245303	-45.266939	58.245303	-0.189501	-105.763612
6.200000	-0.192351	-106.527527	-45.094608	56.707373	-45.094608	56.707373	-0.192343	-106.526933
6.250000	-0.195194	-107.290850	-44.925630	55.169442	-44.925630	55.169442	-0.195187	-107.290254
6.300000	-0.198122	-108.051931	-44.757818	53.634359	-44.757818	53.634359	-0.198115	-108.051332
6.350000	-0.201052	-108.813012	-44.593186	52.099275	-44.593186	52.099275	-0.201044	-108.812410
6.400000	-0.204060	-109.572141	-44.429952	50.567228	-44.429952	50.567228	-0.204052	-109.571537
6.450000	-0.207077	-110.331093	-44.269579	49.035458	-44.269579	49.035458	-0.207069	-110.330487
6.500000	-0.210167	-111.088369	-44.110783	47.506840	-44.110783	47.506840	-0.210159	-111.087760
6.550000	-0.213273	-111.845309	-43.954577	45.978852	-43.954577	45.978852	-0.213265	-111.844697
6.600000	-0.216447	-112.600831	-43.800080	44.454049	-43.800080	44.454049	-0.216439	-112.600216
6.650000	-0.219644	-113.355881	-43.647939	42.930307	-43.647939	42.930307	-0.219636	-113.355263
6.700000	-0.222903	-114.109753	-43.497603	41.409697	-43.497603	41.409697	-0.222895	-114.109132
6.750000	-0.226193	-114.863036	-43.349423	39.890653	-43.349423	39.890653	-0.226185	-114.862412
6.800000	-0.229538	-115.615364	-43.203105	38.374598	-43.203105	38.374598	-0.229530	-115.614736
6.850000	-0.232922	-116.367009	-43.058773	36.860679	-43.058773	36.860679	-0.232914	-116.366377
6.900000	-0.236355	-117.117901	-42.916332	35.349522	-42.916332	35.349522	-0.236347	-117.117265
6.950000	-0.239835	-117.868040	-42.775728	33.841126	-42.775728	33.841126	-0.239827	-117.867399
7.000000	-0.243357	-118.617607	-42.637021	32.335182	-42.637021	32.335182	-0.243348	-118.616961
7.050000	-0.246934	-119.366375	-42.500021	30.832670	-42.500021	30.832670	-0.246926	-119.365724
7.100000	-0.250546	-120.114732	-42.364903	29.332224	-42.364903	29.332224	-0.250537	-120.114075
7.150000	-0.254222	-120.862269	-42.231373	27.835908	-42.231373	27.835908	-0.254214	-120.861605
7.200000	-0.257925	-121.609533	-42.099699	26.341207	-42.099699	26.341207	-0.257916	-121.608863
7.250000	-0.261701	-122.355980	-41.969501	24.851347	-41.969501	24.851347	-0.261693	-122.355303
7.300000	-0.265496	-123.102271	-41.841124	23.362597	-41.841124	23.362597	-0.265487	-123.101586
7.350000	-0.269374	-123.847778	-41.714116	21.879392	-41.714116	21.879392	-0.269365	-123.847084
7.400000	-0.273262	-124.593219	-41.588890	20.396753	-41.588890	20.396753	-0.273253	-124.592516
7.450000	-0.277242	-125.337935	-41.464922	18.920335	-41.464922	18.920335	-0.277233	-125.337223
7.500000	-0.281224	-126.082651	-41.342699	17.443917	-41.342699	17.443917	-0.281214	-126.081930
7.550000	-0.285307	-126.826733	-41.221622	15.974345	-41.221622	15.974345	-0.285297	-126.826000
7.600000	-0.289392	-127.570815	-41.102209	14.504772	-41.102209	14.504772	-0.289382	-127.570071
7.650000	-0.293571	-128.314461	-40.983914	13.041458	-40.983914	13.041458	-0.293561	-128.313704
7.700000	-0.297760	-129.058068	-40.867163	11.578712	-40.867163	11.578712	-0.297750	-129.057299
7.750000	-0.302036	-129.801416	-40.751496	10.121573	-40.751496	10.121573	-0.302025	-129.800632
7.800000	-0.306330	-130.544712	-40.637257	8.665554	-40.637257	8.665554	-0.306319	-130.543914
7.850000	-0.310703	-131.287901	-40.524068	7.214442	-40.524068	7.214442	-0.310691	-131.287087
7.900000	-0.315103	-132.031055	-40.412191	5.764965	-40.412191	5.764965	-0.315091	-132.030225
7.950000	-0.319573	-132.774230	-40.301330	4.319666	-40.301330	4.319666	-0.319560	-132.773382
8.000000	-0.324079	-133.517414	-40.191666	2.876456	-40.191666	2.876456	-0.324066	-133.516549
8.050000	-0.328647	-134.260722	-40.082991	1.436691	-40.082991	1.436691	-0.328633	-134.259837
8.100000	-0.333261	-135.004116	-39.975391	-0.000615	-39.975391	-0.000615	-0.333246	-135.003212
8.150000	-0.337927	-135.747707	-39.868760	-1.435197	-39.868760	-1.435197	-0.337912	-135.746782
8.200000	-0.342648	-136.491494	-39.763080	-2.867055	-39.763080	-2.867055	-0.342631	-136.490548
8.250000	-0.347414	-137.235524	-39.658361	-4.296871	-39.658361	-4.296871	-0.347396	-137.234555
8.300000	-0.352242	-137.979892	-39.554460	-5.723829	-39.554460	-5.723829	-0.352223	-137.978900
8.350000	-0.357107	-138.724519	-39.451522	-7.149368	-39.451522	-7.149368	-0.357087	-138.723502
8.400000	-0.362043	-139.469663	-39.349267	-8.572068	-39.349267	-8.572068	-0.362022	-139.468621
8.450000	-0.367007	-140.215051	-39.247989	-9.993888	-39.247989	-9.993888	-0.366985	-140.213982
8.500000	-0.372051	-140.961169	-39.147251	-11.413065	-39.147251	-11.413065	-0.372028	-140.960074
8.550000	-0.377115	-141.707485	-39.047519	-12.831793	-39.047519	-12.831793	-0.377091	-141.706362
8.600000	-0.382268	-142.454784	-38.948181	-14.248274	-38.948181	-14.248274	-0.382242	-142.453632
8.650000	-0.387431	-143.202199	-38.849887	-15.664608	-38.849887	-15.664608	-0.387405	-143.201018
8.700000	-0.392692	-143.950890	-38.751840	-17.079312	-38.751840	-17.079312	-0.392664	-143.949678
8.750000	-0.397956	-144.699582	-38.654887	-18.494016	-38.654887	-18.494016	-0.397926	-144.698339
8.800000	-0.403325	-145.449883	-38.558034	-19.907952	-38.558034	-19.907952	-0.403294	-145.448607
8.850000	-0.408697	-146.200184	-38.462249	-21.321887	-38.462249	-21.321887	-0.408664	-146.198876
8.900000	-0.414165	-146.952166	-38.366592	-22.736123	-38.366592	-22.736123	-0.414131	-146.950825
8.950000	-0.419645	-147.704301	-38.271894	-24.150387	-38.271894	-24.150387	-0.419610	-147.702927
9.000000	-0.425213	-148.458158	-38.177367	-25.565907	-38.177367	-25.565907	-0.425177	-148.456749
9.050000	-0.430802	-149.212359	-38.083690	-26.981680	-38.083690	-26.981680	-0.430764	-149.210916
9.100000	-0.436469	-149.968288	-37.990242	-28.399531	-37.990242	-28.399531	-0.436430	-149.966810
9.150000	-0.442165	-150.724793	-37.897535	-29.818074	-37.897535	-29.818074	-0.442125	-150.723280
9.200000	-0.447932	-151.482998	-37.805130	-31.239358	-37.805130	-31.239358	-0.447891	-151.481450
9.250000	-0.453736	-152.242053	-37.713363	-32.662013	-37.713363	-32.662013	-0.453693	-152.240469
9.300000	-0.459601	-153.002744	-37.621979	-34.087888	-37.621979	-34.087888	-0.459558	-153.001125
9.350000	-0.465512	-153.764603	-37.531140	-35.516064	-37.531140	-35.516064	-0.465469	-153.762948
9.400000	-0.471477	-154.527995	-37.440773	-36.947737	-37.440773	-36.947737	-0.471433	-154.526305
9.450000	-0.477494	-155.292919	-37.350874	-38.382908	-37.350874	-38.382908	-0.477450	-155.291194
9.500000	-0.483557	-156.059233	-37.261538	-39.821631	-37.261538	-39.821631	-0.483513	-156.057474
9.550000	-0.489681	-156.827493	-37.172616	-41.265327	-37.172616	-41.265327	-0.489638	-156.825701
9.600000	-0.495842	-157.596958	-37.084344	-42.712389	-37.084344	-42.712389	-0.495799	-157.595132
9.650000	-0.502072	-158.368832	-36.996463	-44.166183	-36.996463	-44.166183	-0.502031	-158.366975
9.700000	-0.508331	-159.141682	-36.909308	-45.622903	-36.909308	-45.622903	-0.508291	-159.139794
9.750000	-0.514666	-159.917459	-36.822563	-47.088400	-36.822563	-47.088400	-0.514628	-159.915542
9.800000	-0.521022	-160.693935	-36.736602	-48.556116	-36.736602	-48.556116	-0.520987	-160.691990
9.850000	-0.527462	-161.473912	-36.651119	-50.034933	-36.651119	-50.034933	-0.527430	-161.471942
9.900000	-0.533915	-162.254264	-36.566450	-51.514993	-36.566450	-51.514993	-0.533887	-162.252269
9.950000	-0.540460	-163.038748	-36.482391	-53.008741	-36.482391	-53.008741	-0.540436	-163.036732
10.000000	-0.547009	-163.823231	-36.399138	-54.502488	-36.399138	-54.502488	-0.546990	-163.821195
