! freq	dB(S11)	phase(S11)	dB(S12)	phase(S12)	
!     	dB(S21)	phase(S21)	dB(S22)	phase(S22)	
!S-par simulation data
#  GHz  S  DB  R 50
0.000000	0.000000	0.000000	-325.554039	0.000000	-325.554039	0.000000	-0.000000	0.000000
0.050000	-0.000911	-1.438368	-109.780963	89.096203	-109.780963	89.096203	-0.000498	-0.771509
0.100000	-0.003099	-2.870150	-103.805472	87.948003	-103.805472	87.948003	-0.001661	-1.539248
0.150000	-0.005667	-4.294291	-100.356780	86.874217	-100.356780	86.874217	-0.002977	-2.302873
0.200000	-0.008088	-5.712994	-97.965860	85.844964	-97.965860	85.844964	-0.004184	-3.063815
0.250000	-0.010275	-7.129021	-96.159851	84.857142	-96.159851	84.857142	-0.005264	-3.823579
0.300000	-0.012247	-8.543488	-94.738531	83.921137	-94.738531	83.921137	-0.006244	-4.582769
0.350000	-0.014070	-9.957023	-93.593394	83.048493	-93.593394	83.048493	-0.007165	-5.341716
0.400000	-0.015799	-11.369810	-92.661621	82.254608	-92.661621	82.254608	-0.008060	-6.100545
0.450000	-0.017475	-12.781734	-91.911248	81.568019	-91.911248	81.568019	-0.008952	-6.859268
0.500000	-0.019128	-14.192718	-91.306475	81.002539	-91.306475	81.002539	-0.009851	-7.617865
0.550000	-0.020774	-15.602575	-90.829558	80.585657	-90.829558	80.585657	-0.010762	-8.376285
0.600000	-0.022421	-17.011108	-90.468535	80.351846	-90.468535	80.351846	-0.011684	-9.134469
0.650000	-0.024074	-18.418123	-90.215498	80.344916	-90.215498	80.344916	-0.012617	-9.892353
0.700000	-0.025736	-19.823431	-90.065438	80.621260	-90.065438	80.621260	-0.013559	-10.649871
0.750000	-0.027408	-21.226731	-90.021349	81.282451	-90.021349	81.282451	-0.014505	-11.406925
0.800000	-0.029090	-22.627846	-90.080218	82.442936	-90.080218	82.442936	-0.015455	-12.163445
0.850000	-0.030782	-24.026660	-90.235817	84.247068	-90.235817	84.247068	-0.016406	-12.919377
0.900000	-0.032482	-25.423207	-90.475209	86.825669	-90.475209	86.825669	-0.017357	-13.674713
0.950000	-0.034189	-26.817219	-90.789087	90.461575	-90.789087	90.461575	-0.018308	-14.429368
1.000000	-0.035901	-28.208572	-91.146141	95.456163	-91.146141	95.456163	-0.019258	-15.183299
1.050000	-0.037618	-29.597151	-91.486398	102.122487	-91.486398	102.122487	-0.020208	-15.936471
1.100000	-0.039337	-30.982850	-91.709363	110.657668	-91.709363	110.657668	-0.021158	-16.688852
1.150000	-0.041057	-32.365569	-91.678814	120.904077	-91.678814	120.904077	-0.022108	-17.440418
1.200000	-0.042777	-33.745217	-91.269022	132.114946	-91.269022	132.114946	-0.023059	-18.191148
1.250000	-0.044496	-35.121709	-90.442136	143.065313	-90.442136	143.065313	-0.024012	-18.941024
1.300000	-0.046212	-36.494820	-89.261460	152.557159	-89.261460	152.557159	-0.024965	-19.689996
1.350000	-0.047924	-37.864613	-87.889633	160.163458	-87.889633	160.163458	-0.025921	-20.438087
1.400000	-0.049631	-39.231021	-86.447660	165.954410	-86.447660	165.954410	-0.026877	-21.185287
1.450000	-0.051333	-40.593979	-85.012116	170.218790	-85.012116	170.218790	-0.027835	-21.931587
1.500000	-0.053029	-41.953426	-83.623039	173.276770	-83.623039	173.276770	-0.028795	-22.676979
1.550000	-0.054719	-43.309307	-82.297761	175.404817	-82.297761	175.404817	-0.029756	-23.421452
1.600000	-0.056402	-44.661568	-81.041318	176.819823	-81.041318	176.819823	-0.030718	-24.164999
1.650000	-0.058077	-46.010160	-79.852661	177.685473	-79.852661	177.685473	-0.031681	-24.907611
1.700000	-0.059746	-47.355038	-78.728021	178.123779	-78.728021	178.123779	-0.032644	-25.649280
1.750000	-0.061408	-48.696158	-77.662621	178.225763	-77.662621	178.225763	-0.033609	-26.389996
1.800000	-0.063064	-50.033482	-76.651517	178.059824	-76.651517	178.059824	-0.034574	-27.129750
1.850000	-0.064712	-51.366972	-75.689988	177.677900	-75.689988	177.677900	-0.035541	-27.868532
1.900000	-0.066355	-52.696595	-74.773693	177.119888	-74.773693	177.119888	-0.036507	-28.606333
1.950000	-0.067993	-54.022319	-73.898717	176.416808	-73.898717	176.416808	-0.037475	-29.343143
2.000000	-0.069625	-55.344117	-73.061564	175.593056	-73.061564	175.593056	-0.038443	-30.078952
2.050000	-0.071253	-56.661962	-72.259124	174.668039	-72.259124	174.668039	-0.039412	-30.813748
2.100000	-0.072876	-57.975831	-71.488635	173.657354	-71.488635	173.657354	-0.040383	-31.547521
2.150000	-0.074497	-59.285705	-70.747640	172.573665	-70.747640	172.573665	-0.041354	-32.280261
2.200000	-0.076116	-60.591566	-70.033953	171.427347	-70.033953	171.427347	-0.042328	-33.011955
2.250000	-0.077732	-61.893398	-69.345623	170.226973	-69.345623	170.226973	-0.043302	-33.742593
2.300000	-0.079348	-63.191188	-68.680902	168.979683	-68.680902	168.979683	-0.044279	-34.472164
2.350000	-0.080964	-64.484926	-68.038221	167.691471	-68.038221	167.691471	-0.045258	-35.200656
2.400000	-0.082580	-65.774606	-67.416167	166.367400	-67.416167	166.367400	-0.046239	-35.928057
2.450000	-0.084199	-67.060221	-66.813462	165.011776	-66.813462	165.011776	-0.047224	-36.654357
2.500000	-0.085819	-68.341768	-66.228949	163.628281	-66.228949	163.628281	-0.048211	-37.379543
2.550000	-0.087443	-69.619071	-65.660714	162.219140	-65.660714	162.219140	-0.049202	-38.103556
2.600000	-0.089072	-70.892308	-65.108757	160.788251	-65.108757	160.788251	-0.050197	-38.826431
2.650000	-0.090705	-72.161485	-64.572191	159.337954	-64.572191	159.337954	-0.051196	-39.548159
2.700000	-0.092345	-73.426609	-64.050203	157.870294	-64.050203	157.870294	-0.052200	-40.268727
2.750000	-0.093991	-74.687689	-63.542045	156.387070	-63.542045	156.387070	-0.053208	-40.988124
2.800000	-0.095645	-75.944736	-63.047030	154.889866	-63.047030	154.889866	-0.054222	-41.706341
2.850000	-0.097307	-77.197766	-62.564524	153.380083	-62.564524	153.380083	-0.055241	-42.423365
2.900000	-0.098979	-78.446794	-62.093941	151.858967	-62.093941	151.858967	-0.056267	-43.139187
2.950000	-0.100660	-79.691838	-61.634737	150.327629	-61.634737	150.327629	-0.057299	-43.853796
3.000000	-0.102353	-80.932921	-61.186407	148.787060	-61.186407	148.787060	-0.058338	-44.567182
3.050000	-0.104057	-82.170064	-60.748482	147.238151	-60.748482	147.238151	-0.059384	-45.279336
3.100000	-0.105774	-83.403293	-60.320523	145.681702	-60.320523	145.681702	-0.060438	-45.990246
3.150000	-0.107504	-84.632634	-59.902122	144.118436	-59.902122	144.118436	-0.061499	-46.699905
3.200000	-0.109248	-85.858119	-59.492895	142.549007	-59.492895	142.549007	-0.062569	-47.408303
3.250000	-0.111006	-87.079777	-59.092486	140.974006	-59.092486	140.974006	-0.063648	-48.115430
3.300000	-0.112781	-88.297642	-58.700556	139.393975	-58.700556	139.393975	-0.064735	-48.821279
3.350000	-0.114571	-89.511750	-58.316792	137.809403	-58.316792	137.809403	-0.065832	-49.525840
3.400000	-0.116378	-90.722138	-57.940894	136.220742	-57.940894	136.220742	-0.066940	-50.229106
3.450000	-0.118203	-91.928846	-57.572582	134.628402	-57.572582	134.628402	-0.068057	-50.931069
3.500000	-0.120047	-93.131914	-57.211592	133.032761	-57.211592	133.032761	-0.069185	-51.631721
3.550000	-0.121909	-94.331385	-56.857675	131.434169	-56.857675	131.434169	-0.070324	-52.331055
3.600000	-0.123791	-95.527306	-56.510593	129.832945	-56.510593	129.832945	-0.071474	-53.029065
3.650000	-0.125693	-96.719721	-56.170122	128.229388	-56.170122	128.229388	-0.072636	-53.725742
3.700000	-0.127617	-97.908680	-55.836050	126.623771	-55.836050	126.623771	-0.073810	-54.421082
3.750000	-0.129562	-99.094233	-55.508175	125.016350	-55.508175	125.016350	-0.074996	-55.115078
3.800000	-0.131530	-100.276288	-55.186050	123.407305	-55.186050	123.407305	-0.076196	-55.807666
3.850000	-0.133521	-101.455047	-54.869770	121.796932	-54.869770	121.796932	-0.077410	-56.498898
3.900000	-0.135536	-102.630565	-54.559158	120.185437	-54.559158	120.185437	-0.078636	-57.188769
3.950000	-0.137575	-103.802900	-54.254050	118.573009	-54.254050	118.573009	-0.079877	-57.877276
4.000000	-0.139639	-104.972109	-53.954284	116.959829	-53.954284	116.959829	-0.081132	-58.564413
4.050000	-0.141728	-106.138252	-53.659710	115.346063	-53.659710	115.346063	-0.082402	-59.250176
4.100000	-0.143843	-107.301391	-53.370182	113.731870	-53.370182	113.731870	-0.083687	-59.934562
4.150000	-0.145985	-108.461589	-53.085560	112.117396	-53.085560	112.117396	-0.084988	-60.617567
4.200000	-0.148153	-109.618909	-52.805712	110.502782	-52.805712	110.502782	-0.086304	-61.299189
4.250000	-0.150350	-110.773418	-52.530511	108.888159	-52.530511	108.888159	-0.087636	-61.979424
4.300000	-0.152574	-111.925183	-52.259833	107.273649	-52.259833	107.273649	-0.088985	-62.658270
4.350000	-0.154827	-113.074270	-51.993563	105.659371	-51.993563	105.659371	-0.090351	-63.335725
4.400000	-0.157110	-114.220751	-51.731586	104.045433	-51.731586	104.045433	-0.091735	-64.011787
4.450000	-0.159422	-115.364696	-51.473795	102.431939	-51.473795	102.431939	-0.093135	-64.686455
4.500000	-0.161764	-116.506177	-51.220086	100.818988	-51.220086	100.818988	-0.094554	-65.359727
4.550000	-0.164138	-117.645268	-50.970358	99.206672	-50.970358	99.206672	-0.095992	-66.031603
4.600000	-0.166542	-118.782042	-50.724516	97.595079	-50.724516	97.595079	-0.097448	-66.702082
4.650000	-0.168978	-119.916576	-50.482466	95.984290	-50.482466	95.984290	-0.098923	-67.371164
4.700000	-0.171446	-121.048946	-50.244119	94.374385	-50.244119	94.374385	-0.100418	-68.038848
4.750000	-0.173947	-122.179231	-50.009388	92.765435	-50.009388	92.765435	-0.101933	-68.705136
4.800000	-0.176482	-123.307508	-49.778190	91.157511	-49.778190	91.157511	-0.103468	-69.370028
4.850000	-0.179049	-124.433860	-49.550444	89.550678	-49.550444	89.550678	-0.105024	-70.033525
4.900000	-0.181651	-125.558366	-49.326074	87.944997	-49.326074	87.944997	-0.106601	-70.695628
4.950000	-0.184287	-126.681108	-49.105004	86.340526	-49.105004	86.340526	-0.108199	-71.356339
5.000000	-0.186958	-127.802172	-48.887161	84.737318	-48.887161	84.737318	-0.109819	-72.015660
5.050000	-0.189665	-128.921574	-48.672383	83.135485	-48.672383	83.135485	-0.111463	-72.673533
5.100000	-0.192408	-130.039474	-48.460702	81.535018	-48.460702	81.535018	-0.113128	-73.330020
5.150000	-0.195187	-131.155959	-48.252051	79.935962	-48.252051	79.935962	-0.114817	-73.985125
5.200000	-0.198003	-132.271115	-48.046369	78.338357	-48.046369	78.338357	-0.116529	-74.638851
5.250000	-0.200855	-133.385032	-47.843592	76.742241	-47.843592	76.742241	-0.118265	-75.291200
5.300000	-0.203744	-134.497798	-47.643661	75.147651	-47.643661	75.147651	-0.120026	-75.942178
5.350000	-0.206670	-135.609504	-47.446519	73.554619	-47.446519	73.554619	-0.121810	-76.591787
5.400000	-0.209634	-136.720241	-47.252109	71.963176	-47.252109	71.963176	-0.123620	-77.240032
5.450000	-0.212636	-137.830102	-47.060377	70.373349	-47.060377	70.373349	-0.125455	-77.886917
5.500000	-0.215677	-138.939180	-46.871272	68.785165	-46.871272	68.785165	-0.127315	-78.532447
5.550000	-0.218756	-140.047568	-46.684742	67.198647	-46.684742	67.198647	-0.129202	-79.176628
5.600000	-0.221873	-141.155363	-46.500739	65.613817	-46.500739	65.613817	-0.131115	-79.819464
5.650000	-0.225030	-142.262659	-46.319216	64.030694	-46.319216	64.030694	-0.133055	-80.460960
5.700000	-0.228225	-143.369553	-46.140126	62.449297	-46.140126	62.449297	-0.135023	-81.101124
5.750000	-0.231461	-144.476144	-45.963425	60.869642	-45.963425	60.869642	-0.137018	-81.739960
5.800000	-0.234735	-145.582529	-45.789071	59.291744	-45.789071	59.291744	-0.139041	-82.377476
5.850000	-0.238050	-146.688809	-45.617022	57.715615	-45.617022	57.715615	-0.141092	-83.013677
5.900000	-0.241405	-147.795084	-45.447238	56.141270	-45.447238	56.141270	-0.143173	-83.648571
5.950000	-0.244799	-148.901456	-45.279680	54.568717	-45.279680	54.568717	-0.145282	-84.282165
6.000000	-0.248234	-150.008025	-45.114312	52.997967	-45.114312	52.997967	-0.147421	-84.914465
6.050000	-0.251710	-151.114897	-44.951097	51.429030	-44.951097	51.429030	-0.149591	-85.545480
6.100000	-0.255225	-152.222174	-44.790000	49.861913	-44.790000	49.861913	-0.151790	-86.175218
6.150000	-0.258782	-153.329961	-44.630988	48.296625	-44.630988	48.296625	-0.154021	-86.803685
6.200000	-0.262379	-154.438365	-44.474029	46.733171	-44.474029	46.733171	-0.156283	-87.430892
6.250000	-0.266016	-155.547492	-44.319092	45.171560	-44.319092	45.171560	-0.158576	-88.056845
6.300000	-0.269696	-156.657490	-44.166115	43.611878	-44.166115	43.611878	-0.160903	-88.681500
6.350000	-0.273417	-157.768438	-44.015105	42.054052	-44.015105	42.054052	-0.163262	-89.304921
6.400000	-0.277179	-158.880445	-43.866033	40.498088	-43.866033	40.498088	-0.165654	-89.927117
6.450000	-0.280981	-159.993620	-43.718872	38.943993	-43.718872	38.943993	-0.168079	-90.548097
6.500000	-0.284823	-161.108076	-43.573596	37.391775	-43.573596	37.391775	-0.170538	-91.167871
6.550000	-0.288706	-162.223924	-43.430181	35.841441	-43.430181	35.841441	-0.173031	-91.786449
6.600000	-0.292630	-163.341279	-43.288603	34.293000	-43.288603	34.293000	-0.175559	-92.403841
6.650000	-0.296594	-164.460253	-43.148838	32.746460	-43.148838	32.746460	-0.178121	-93.020057
6.700000	-0.300599	-165.580961	-43.010866	31.201831	-43.010866	31.201831	-0.180718	-93.635107
6.750000	-0.304643	-166.703520	-42.874664	29.659126	-42.874664	29.659126	-0.183351	-94.249003
6.800000	-0.308727	-167.828046	-42.740213	28.118355	-42.740213	28.118355	-0.186020	-94.861756
6.850000	-0.312852	-168.954657	-42.607493	26.579533	-42.607493	26.579533	-0.188725	-95.473376
6.900000	-0.317015	-170.083471	-42.476485	25.042675	-42.476485	25.042675	-0.191467	-96.083875
6.950000	-0.321219	-171.214607	-42.347172	23.507797	-42.347172	23.507797	-0.194245	-96.693265
7.000000	-0.325461	-172.348187	-42.219536	21.974916	-42.219536	21.974916	-0.197062	-97.301556
7.050000	-0.329742	-173.484329	-42.093562	20.444054	-42.093562	20.444054	-0.199916	-97.908763
7.100000	-0.334062	-174.623158	-41.969233	18.915232	-41.969233	18.915232	-0.202809	-98.514895
7.150000	-0.338420	-175.764795	-41.846535	17.388473	-41.846535	17.388473	-0.205740	-99.119967
7.200000	-0.342816	-176.909365	-41.725452	15.863804	-41.725452	15.863804	-0.208710	-99.723990
7.250000	-0.347250	-178.056991	-41.605972	14.341252	-41.605972	14.341252	-0.211719	-100.326978
7.300000	-0.351721	-179.207799	-41.488080	12.820847	-41.488080	12.820847	-0.214768	-100.928943
7.350000	-0.356230	179.638086	-41.371765	11.302622	-41.371765	11.302622	-0.217857	-101.529898
7.400000	-0.360775	178.480535	-41.257013	9.786612	-41.257013	9.786612	-0.220987	-102.129858
7.450000	-0.365356	177.319423	-41.143813	8.272854	-41.143813	8.272854	-0.224157	-102.728835
7.500000	-0.369973	176.154619	-41.032154	6.761388	-41.032154	6.761388	-0.227368	-103.326844
7.550000	-0.374626	174.985824	-40.922030	5.252360	-40.922030	5.252360	-0.230623	-103.923858
7.600000	-0.379315	173.813068	-40.813428	3.745714	-40.813428	3.745714	-0.233919	-104.519932
7.650000	-0.384038	172.636220	-40.706336	2.241499	-40.706336	2.241499	-0.237258	-105.115082
7.700000	-0.388795	171.455149	-40.600745	0.739765	-40.600745	0.739765	-0.240639	-105.709322
7.750000	-0.393585	170.269725	-40.496644	-0.759435	-40.496644	-0.759435	-0.244063	-106.302667
7.800000	-0.398409	169.079814	-40.394025	-2.256046	-40.394025	-2.256046	-0.247530	-106.895133
7.850000	-0.403264	167.885284	-40.292877	-3.750009	-40.292877	-3.750009	-0.251040	-107.486734
7.900000	-0.408152	166.686002	-40.193192	-5.241265	-40.193192	-5.241265	-0.254595	-108.077485
7.950000	-0.413071	165.481834	-40.094959	-6.729749	-40.094959	-6.729749	-0.258193	-108.667403
8.000000	-0.418021	164.272648	-39.998170	-8.215397	-39.998170	-8.215397	-0.261836	-109.256504
8.050000	-0.423000	163.058309	-39.902816	-9.698140	-39.902816	-9.698140	-0.265524	-109.844804
8.100000	-0.428010	161.838682	-39.808887	-11.177908	-39.808887	-11.177908	-0.269256	-110.432318
8.150000	-0.433048	160.613633	-39.716375	-12.654629	-39.716375	-12.654629	-0.273034	-111.019064
8.200000	-0.438115	159.383029	-39.625270	-14.128227	-39.625270	-14.128227	-0.276858	-111.605057
8.250000	-0.443210	158.146734	-39.535563	-15.598627	-39.535563	-15.598627	-0.280728	-112.190317
8.300000	-0.448332	156.904615	-39.447245	-17.065748	-39.447245	-17.065748	-0.284643	-112.774858
8.350000	-0.453481	155.656537	-39.360307	-18.529510	-39.360307	-18.529510	-0.288606	-113.358699
8.400000	-0.458656	154.402367	-39.274738	-19.989831	-39.274738	-19.989831	-0.292614	-113.941858
8.450000	-0.463856	153.141972	-39.190529	-21.446625	-39.190529	-21.446625	-0.296670	-114.524351
8.500000	-0.469081	151.875218	-39.107671	-22.899809	-39.107671	-22.899809	-0.300773	-115.106198
8.550000	-0.474330	150.601974	-39.026152	-24.349293	-39.026152	-24.349293	-0.304924	-115.687417
8.600000	-0.479602	149.322108	-38.945963	-25.794990	-38.945963	-25.794990	-0.309122	-116.268025
8.650000	-0.484898	148.035490	-38.867093	-27.236811	-38.867093	-27.236811	-0.313368	-116.848043
8.700000	-0.490216	146.741990	-38.789531	-28.674664	-38.789531	-28.674664	-0.317663	-117.427488
8.750000	-0.495556	145.441481	-38.713266	-30.108459	-38.713266	-30.108459	-0.322006	-118.006381
8.800000	-0.500918	144.133518	-38.638314	-31.537918	-38.638314	-31.537918	-0.326399	-118.584717
8.850000	-0.506301	142.818282	-38.564637	-32.963127	-38.564637	-32.963127	-0.330841	-119.162542
8.900000	-0.511703	141.495650	-38.492222	-34.383991	-38.492222	-34.383991	-0.335332	-119.739875
8.950000	-0.517126	140.165499	-38.421056	-35.800418	-38.421056	-35.800418	-0.339873	-120.316737
9.000000	-0.522568	138.827711	-38.351127	-37.212316	-38.351127	-37.212316	-0.344463	-120.893147
9.050000	-0.528028	137.482168	-38.282421	-38.619593	-38.282421	-38.619593	-0.349102	-121.469127
9.100000	-0.533507	136.128755	-38.214925	-40.022155	-38.214925	-40.022155	-0.353791	-122.044698
9.150000	-0.539003	134.767360	-38.148625	-41.419913	-38.148625	-41.419913	-0.358530	-122.619881
9.200000	-0.544517	133.397875	-38.083506	-42.812774	-38.083506	-42.812774	-0.363319	-123.194698
9.250000	-0.550049	132.020193	-38.019553	-44.200650	-38.019553	-44.200650	-0.368158	-123.769171
9.300000	-0.555597	130.634212	-37.956752	-45.583452	-37.956752	-45.583452	-0.373047	-124.343322
9.350000	-0.561162	129.239833	-37.895087	-46.961093	-37.895087	-46.961093	-0.377987	-124.917173
9.400000	-0.566744	127.836962	-37.834542	-48.333487	-37.834542	-48.333487	-0.382977	-125.490747
9.450000	-0.572342	126.425506	-37.775101	-49.700550	-37.775101	-49.700550	-0.388017	-126.064067
9.500000	-0.577956	125.005381	-37.716748	-51.062199	-37.716748	-51.062199	-0.393109	-126.637157
9.550000	-0.583587	123.576504	-37.659465	-52.418353	-37.659465	-52.418353	-0.398251	-127.210040
9.600000	-0.589234	122.138799	-37.603237	-53.768935	-37.603237	-53.768935	-0.403443	-127.782740
9.650000	-0.594898	120.692194	-37.548045	-55.113867	-37.548045	-55.113867	-0.408687	-128.355282
9.700000	-0.600578	119.236626	-37.493871	-56.453076	-37.493871	-56.453076	-0.413981	-128.927691
9.750000	-0.606276	117.772032	-37.440698	-57.786489	-37.440698	-57.786489	-0.419326	-129.499990
9.800000	-0.611990	116.298361	-37.388508	-59.114039	-37.388508	-59.114039	-0.424722	-130.072207
9.850000	-0.617723	114.815566	-37.337281	-60.435658	-37.337281	-60.435658	-0.430169	-130.644366
9.900000	-0.623473	113.323606	-37.287000	-61.751283	-37.287000	-61.751283	-0.435667	-131.216494
9.950000	-0.629242	111.822450	-37.237645	-63.060852	-37.237645	-63.060852	-0.441215	-131.788617
10.000000	-0.635031	110.312072	-37.189197	-64.364308	-37.189197	-64.364308	-0.446815	-132.360761
