! freq	dB(S11)	phase(S11)	dB(S12)	phase(S12)	
!     	dB(S21)	phase(S21)	dB(S22)	phase(S22)	
!S-par simulation data
#  GHz  S  DB  R 50
0.000000	-82.354617	0.000000	-0.000662	0.000000	-0.000662	0.000000	-82.354617	0.000000
0.050000	-44.414004	-90.268967	-0.007025	-2.808730	-0.007025	-2.808730	-44.407577	-89.662532
0.100000	-38.411478	-94.822368	-0.011776	-5.576840	-0.011776	-5.576840	-38.409565	-93.616505
0.150000	-34.907583	-98.420109	-0.016132	-8.342327	-0.016132	-8.342327	-34.903550	-96.621459
0.200000	-32.431259	-101.786443	-0.020863	-11.104604	-0.020863	-11.104604	-32.423827	-99.401826
0.250000	-30.520796	-105.052471	-0.025918	-13.863256	-0.025918	-13.863256	-30.509782	-102.089338
0.300000	-28.971663	-108.264855	-0.031183	-16.618625	-0.031183	-16.618625	-28.957701	-104.729421
0.350000	-27.672715	-111.447914	-0.036569	-19.371783	-0.036569	-19.371783	-27.657097	-107.341668
0.400000	-26.557969	-114.611265	-0.042051	-22.123432	-0.042051	-22.123432	-26.542050	-109.930812
0.450000	-25.585240	-117.760021	-0.047631	-24.874053	-0.047631	-24.874053	-25.570109	-112.497912
0.500000	-24.726475	-120.897014	-0.053323	-27.623974	-0.053323	-27.623974	-24.712751	-115.043568
0.550000	-23.959672	-124.025100	-0.059131	-30.373457	-0.059131	-30.373457	-23.947471	-117.572272
0.600000	-23.269527	-127.145437	-0.065061	-33.122624	-0.065061	-33.122624	-23.258746	-120.087223
0.650000	-22.645145	-130.258485	-0.071118	-35.871550	-0.071118	-35.871550	-22.635622	-122.591053
0.700000	-22.077536	-133.364814	-0.077297	-38.620308	-0.077297	-38.620308	-22.069152	-125.086465
0.750000	-21.558914	-136.465135	-0.083584	-41.368967	-0.083584	-41.368967	-21.551621	-127.575520
0.800000	-21.083628	-139.559865	-0.089966	-44.117592	-0.089966	-44.117592	-21.077429	-130.059304
0.850000	-20.648254	-142.649188	-0.096433	-46.866272	-0.096433	-46.866272	-20.643191	-132.538244
0.900000	-20.248150	-145.734170	-0.102958	-49.615114	-0.102958	-49.615114	-20.244257	-135.013139
0.950000	-19.879948	-148.815692	-0.109522	-52.364232	-0.109522	-52.364232	-19.877247	-137.484404
1.000000	-19.541224	-151.894606	-0.116103	-55.113768	-0.116103	-55.113768	-19.539729	-139.952293
1.050000	-19.230730	-154.971820	-0.122675	-57.863934	-0.122675	-57.863934	-19.230459	-142.416933
1.100000	-18.945355	-158.048391	-0.129215	-60.614877	-0.129215	-60.614877	-18.946319	-144.878906
1.150000	-18.683427	-161.125084	-0.135699	-63.366788	-0.135699	-63.366788	-18.685653	-147.338557
1.200000	-18.444142	-164.202627	-0.142100	-66.119944	-0.142100	-66.119944	-18.447678	-149.796208
1.250000	-18.226307	-167.281647	-0.148391	-68.874616	-0.148391	-68.874616	-18.231223	-152.252349
1.300000	-18.028081	-170.362503	-0.154551	-71.630991	-0.154551	-71.630991	-18.034458	-154.707549
1.350000	-17.848491	-173.445492	-0.160559	-74.389318	-0.160559	-74.389318	-17.856422	-157.162309
1.400000	-17.687754	-176.531001	-0.166377	-77.150042	-0.166377	-77.150042	-17.697357	-159.617230
1.450000	-17.544326	-179.619016	-0.171989	-79.913331	-0.171989	-79.913331	-17.555717	-162.072960
1.500000	-17.417281	177.290488	-0.177378	-82.679385	-0.177378	-82.679385	-17.430576	-164.530110
1.550000	-17.306213	174.197534	-0.182525	-85.448472	-0.182525	-85.448472	-17.321532	-166.989362
1.600000	-17.211639	171.102084	-0.187400	-88.221069	-0.187400	-88.221069	-17.229117	-169.451709
1.650000	-17.131979	168.004530	-0.192022	-90.997153	-0.192022	-90.997153	-17.151738	-171.917741
1.700000	-17.066970	164.905107	-0.196399	-93.777001	-0.196399	-93.777001	-17.089134	-174.388301
1.750000	-17.016708	161.804100	-0.200542	-96.561062	-0.200542	-96.561062	-17.041413	-176.864472
1.800000	-16.980827	158.701940	-0.204470	-99.349729	-0.204470	-99.349729	-17.008213	-179.347248
1.850000	-16.959157	155.599126	-0.208197	-102.143500	-0.208197	-102.143500	-16.989374	178.162230
1.900000	-16.951736	152.496263	-0.211724	-104.942964	-0.211724	-104.942964	-16.984950	175.662598
1.950000	-16.958507	149.394086	-0.215050	-107.748651	-0.215050	-107.748651	-16.994900	173.152417
2.000000	-16.979317	146.293444	-0.218169	-110.560978	-0.218169	-110.560978	-17.019092	170.630240
2.050000	-17.014229	143.195341	-0.221077	-113.380389	-0.221077	-113.380389	-17.057611	168.094348
2.100000	-17.063363	140.100959	-0.223769	-116.207306	-0.223769	-116.207306	-17.110609	165.542825
2.150000	-17.126909	137.011694	-0.226248	-119.042138	-0.226248	-119.042138	-17.178307	162.973524
2.200000	-17.205125	133.929196	-0.228516	-121.885292	-0.228516	-121.885292	-17.261003	160.384035
2.250000	-17.298344	130.855411	-0.230581	-124.737177	-0.230581	-124.737177	-17.359072	157.771641
2.300000	-17.406982	127.792642	-0.232453	-127.598207	-0.232453	-127.598207	-17.472981	155.133263
2.350000	-17.531545	124.743614	-0.234143	-130.468806	-0.234143	-130.468806	-17.603295	152.465401
2.400000	-17.672640	121.711558	-0.235667	-133.349405	-0.235667	-133.349405	-17.750686	149.764051
2.450000	-17.830987	118.700318	-0.237040	-136.240448	-0.237040	-136.240448	-17.915950	147.024612
2.500000	-18.007428	115.714473	-0.238277	-139.142388	-0.238277	-139.142388	-18.100022	144.241757
2.550000	-18.203286	112.760323	-0.239397	-142.055949	-0.239397	-142.055949	-18.304340	141.408038
2.600000	-18.419384	109.843987	-0.240421	-144.981372	-0.240421	-144.981372	-18.529850	138.517026
2.650000	-18.657056	106.973523	-0.241371	-147.919153	-0.241371	-147.919153	-18.778040	135.559992
2.700000	-18.917841	104.158718	-0.242268	-150.869798	-0.242268	-150.869798	-19.050642	132.526499
2.750000	-19.203517	101.411545	-0.243137	-153.833836	-0.243137	-153.833836	-19.349669	129.403948
2.800000	-19.516128	98.746750	-0.244001	-156.811811	-0.244001	-156.811811	-19.677465	126.176964
2.850000	-19.858023	96.182648	-0.244888	-159.804288	-0.244888	-159.804288	-20.036755	122.826578
2.900000	-20.231880	93.742188	-0.245826	-162.811857	-0.245826	-162.811857	-20.430707	119.329089
2.950000	-20.640737	91.454411	-0.246844	-165.835131	-0.246844	-165.835131	-20.862989	115.654496
3.000000	-21.087988	89.356449	-0.247975	-168.874750	-0.247975	-168.874750	-21.337827	111.764289
3.050000	-21.577343	87.496292	-0.249253	-171.931386	-0.249253	-171.931386	-21.860032	107.608300
3.100000	-22.112680	85.936637	-0.250715	-175.005740	-0.250715	-175.005740	-22.434950	103.120184
3.150000	-22.697816	84.765606	-0.252405	-178.098760	-0.252405	-178.098760	-23.068395	98.204925
3.200000	-23.335344	84.098266	-0.254368	178.788752	-0.254368	178.788752	-23.765561	92.735471
3.250000	-24.025308	84.080392	-0.256649	175.656178	-0.256649	175.656178	-24.529721	86.545189
3.300000	-24.762532	84.910135	-0.259302	172.502656	-0.259302	172.502656	-25.359386	79.397756
3.350000	-25.530489	86.854004	-0.262390	169.327056	-0.262390	169.327056	-26.240924	70.957407
3.400000	-26.295451	90.171083	-0.265963	166.129033	-0.265963	166.129033	-27.139288	60.864637
3.450000	-26.996419	95.112371	-0.270085	162.907782	-0.270085	162.907782	-27.981825	48.737951
3.500000	-27.509466	101.929958	-0.274888	159.660221	-0.274888	159.660221	-28.605694	34.169509
3.550000	-27.716506	110.152790	-0.280418	156.386916	-0.280418	156.386916	-28.841230	17.775145
3.600000	-27.530550	118.932322	-0.286759	153.087039	-0.286759	153.087039	-28.572243	0.794282
3.650000	-26.941706	127.172951	-0.294033	149.758885	-0.294033	149.758885	-27.813642	-15.234771
3.700000	-26.035489	133.911114	-0.302391	146.400329	-0.302391	146.400329	-26.715014	-29.179467
3.750000	-24.951585	138.842124	-0.311946	143.010683	-0.311946	143.010683	-25.464590	-40.911562
3.800000	-23.795082	142.051524	-0.322863	139.588250	-0.322863	139.588250	-24.181457	-50.738552
3.850000	-22.634127	143.826542	-0.335307	136.131663	-0.335307	136.131663	-22.929866	-59.103911
3.900000	-21.504316	144.467492	-0.349465	132.639434	-0.349465	132.639434	-21.736782	-66.390856
3.950000	-20.420424	144.218180	-0.365572	129.109535	-0.365572	129.109535	-20.609170	-72.882504
4.000000	-19.388960	143.289560	-0.383830	125.540922	-0.383830	125.540922	-19.547548	-78.803947
4.050000	-18.407915	141.815896	-0.404567	121.930820	-0.404567	121.930820	-18.545863	-84.297979
4.100000	-17.476453	139.923334	-0.428001	118.278723	-0.428001	118.278723	-17.600346	-89.488719
4.150000	-16.588922	137.680615	-0.454573	114.581113	-0.454573	114.581113	-16.703498	-94.449660
4.200000	-15.743272	135.161876	-0.484540	110.837756	-0.484540	110.837756	-15.851855	-99.250811
4.250000	-14.934542	132.406380	-0.518419	107.045338	-0.518419	107.045338	-15.039574	-103.935484
4.300000	-14.160314	129.455051	-0.556581	103.203025	-0.556581	103.203025	-14.263541	-108.542979
4.350000	-13.417114	126.332829	-0.599597	99.308171	-0.599597	99.308171	-13.519820	-113.101428
4.400000	-12.702686	123.062533	-0.647994	95.359318	-0.647994	95.359318	-12.805796	-117.634490
4.450000	-12.014874	119.661048	-0.702385	91.354715	-0.702385	91.354715	-12.119049	-122.160976
4.500000	-11.351686	116.140895	-0.763493	87.292305	-0.763493	87.292305	-11.457393	-126.696315
4.550000	-10.712029	112.514438	-0.831956	83.171486	-0.831956	83.171486	-10.819568	-131.252876
4.600000	-10.094188	108.788128	-0.908743	78.989699	-0.908743	78.989699	-10.203745	-135.841632
4.650000	-9.497877	104.971935	-0.994487	74.747772	-0.994487	74.747772	-9.609529	-140.469951
4.700000	-8.921668	101.068713	-1.090448	70.442824	-1.090448	70.442824	-9.035419	-145.146268
4.750000	-8.365710	97.086694	-1.197309	66.076807	-1.197309	66.076807	-8.481489	-149.874223
4.800000	-7.829386	93.029309	-1.316295	61.648967	-1.316295	61.648967	-7.947069	-154.658618
4.850000	-7.312540	88.901065	-1.448549	57.160087	-1.448549	57.160087	-7.431956	-159.502226
4.900000	-6.815199	84.706679	-1.595224	52.611826	-1.595224	52.611826	-6.936134	-164.406333
4.950000	-6.337496	80.451198	-1.757435	48.006800	-1.757435	48.006800	-6.459707	-169.370700
5.000000	-5.879505	76.138469	-1.936669	43.347011	-1.936669	43.347011	-6.002716	-174.395405
5.050000	-5.441552	71.774724	-2.133944	38.637211	-2.133944	38.637211	-5.565470	-179.477216
5.100000	-5.023868	67.365151	-2.350643	33.881572	-2.350643	33.881572	-5.148181	175.386673
5.150000	-4.626747	62.915902	-2.588029	29.085568	-2.588029	29.085568	-4.751126	170.200668
5.200000	-4.250409	58.433921	-2.847181	24.255810	-2.847181	24.255810	-4.374521	164.970647
5.250000	-3.895254	53.925671	-3.129684	19.398691	-3.129684	19.398691	-4.018745	159.702036
5.300000	-3.561164	49.399673	-3.436039	14.523008	-3.436039	14.523008	-3.683691	154.403603
5.350000	-3.248109	44.863476	-3.767285	9.636774	-3.767285	9.636774	-3.369330	149.083024
5.400000	-2.956484	40.325075	-4.124894	4.748721	-4.124894	4.748721	-3.076033	143.748245
5.450000	-2.685803	35.792892	-4.509306	-0.131774	-4.509306	-0.131774	-2.803327	138.408813
5.500000	-2.435560	31.274759	-4.921170	-4.995762	-4.921170	-4.995762	-2.550715	133.073696
5.550000	-2.205667	26.779090	-5.361396	-9.833365	-5.361396	-9.833365	-2.318097	127.752288
5.600000	-1.995606	22.313782	-5.830554	-14.635009	-5.830554	-14.635009	-2.104955	122.453941
5.650000	-1.804259	17.884896	-6.329119	-19.392988	-6.329119	-19.392988	-1.910189	117.186509
5.700000	-1.630980	13.499119	-6.857779	-24.098491	-6.857779	-24.098491	-1.733152	111.958314
5.750000	-1.475391	9.164017	-7.417007	-28.741109	-7.417007	-28.741109	-1.573454	106.778733
5.800000	-1.335871	4.882172	-8.007706	-33.316111	-8.007706	-33.316111	-1.429502	101.652390
5.850000	-1.211436	0.657448	-8.630917	-37.816669	-8.630917	-37.816669	-1.300319	96.585089
5.900000	-1.101693	-3.503834	-9.287040	-42.231795	-9.287040	-42.231795	-1.185498	91.585458
5.950000	-1.005010	-7.602117	-9.978052	-46.558683	-9.978052	-46.558683	-1.083434	86.655030
6.000000	-0.920297	-11.636363	-10.705999	-50.791723	-10.705999	-50.791723	-0.993050	81.796896
6.050000	-0.846900	-15.603596	-11.472335	-54.920874	-11.472335	-54.920874	-0.913686	77.016570
6.100000	-0.783682	-19.504627	-12.280158	-58.940050	-12.280158	-58.940050	-0.844220	72.315374
6.150000	-0.729572	-23.340967	-13.133569	-62.842368	-13.133569	-62.842368	-0.783597	67.693848
6.200000	-0.683990	-27.111350	-14.035691	-66.612664	-14.035691	-66.612664	-0.731228	63.156151
6.250000	-0.645194	-30.825292	-14.998210	-70.255875	-14.998210	-70.255875	-0.685422	58.692497
6.300000	-0.613847	-34.472065	-16.018902	-73.722386	-16.018902	-73.722386	-0.646781	54.320216
6.350000	-0.587895	-38.066739	-17.118836	-77.023551	-17.118836	-77.023551	-0.613321	50.021640
6.400000	-0.567559	-41.603420	-18.302784	-80.093864	-18.302784	-80.093864	-0.585221	45.808569
6.450000	-0.551762	-45.090318	-19.594993	-82.904064	-19.594993	-82.904064	-0.561435	41.672309
6.500000	-0.540146	-48.528737	-21.018097	-85.359610	-21.018097	-85.359610	-0.541594	37.614736
6.550000	-0.532306	-51.921195	-22.605229	-87.315616	-22.605229	-87.315616	-0.525288	33.635990
6.600000	-0.527551	-55.274516	-24.417013	-88.583842	-24.417013	-88.583842	-0.511842	29.728703
6.650000	-0.525913	-58.587045	-26.512118	-88.562131	-26.512118	-88.562131	-0.501250	25.901342
6.700000	-0.526719	-61.866928	-29.021158	-86.379977	-29.021158	-86.379977	-0.492861	22.143627
6.750000	-0.529680	-65.117914	-32.107636	-79.912745	-32.107636	-79.912745	-0.486383	18.453207
6.800000	-0.534723	-68.341428	-35.626968	-62.666002	-35.626968	-62.666002	-0.481707	14.834110
6.850000	-0.541617	-71.541631	-37.515897	-28.462434	-37.515897	-28.462434	-0.478586	11.284732
6.900000	-0.550064	-74.723884	-35.754389	3.791596	-35.754389	3.791596	-0.476723	7.799176
6.950000	-0.559914	-77.892038	-32.914075	19.818093	-32.914075	19.818093	-0.475947	4.375673
7.000000	-0.571039	-81.050019	-30.538309	26.252846	-30.538309	26.252846	-0.476109	1.012451
7.050000	-0.583333	-84.201839	-28.688420	28.492699	-28.688420	28.492699	-0.477077	-2.292264
7.100000	-0.596712	-87.351616	-27.229765	28.742233	-27.229765	28.742233	-0.478736	-5.540242
7.150000	-0.611208	-90.504285	-26.063345	27.869434	-26.063345	27.869434	-0.481037	-8.727705
7.200000	-0.626678	-93.664535	-25.107980	26.418177	-25.107980	26.418177	-0.483831	-11.861663
7.250000	-0.643085	-96.836967	-24.314342	24.603592	-24.314342	24.603592	-0.487037	-14.944555
7.300000	-0.660417	-100.026445	-23.649480	22.545802	-23.649480	22.545802	-0.490591	-17.978150
7.350000	-0.678683	-103.238103	-23.090257	20.319722	-23.090257	20.319722	-0.494436	-20.964228
7.400000	-0.697895	-106.477142	-22.619554	17.975351	-22.619554	17.975351	-0.498522	-23.905033
7.450000	-0.718204	-109.753329	-22.231258	15.537306	-22.231258	15.537306	-0.502828	-26.797665
7.500000	-0.739500	-113.066772	-21.907081	13.042654	-21.907081	13.042654	-0.507286	-29.651640
7.550000	-0.762045	-116.431677	-21.649822	10.499056	-21.649822	10.499056	-0.511892	-32.462079
7.600000	-0.785887	-119.853100	-21.451791	7.924001	-21.451791	7.924001	-0.516613	-35.234059
7.650000	-0.811179	-123.339851	-21.311047	5.328525	-21.311047	5.328525	-0.521433	-37.969697
7.700000	-0.838114	-126.901761	-21.227419	2.723045	-21.227419	2.723045	-0.526348	-40.671217
7.750000	-0.866938	-130.549896	-21.202557	0.118721	-21.202557	0.118721	-0.531359	-43.340973
7.800000	-0.897959	-134.296812	-21.240135	-2.470931	-21.240135	-2.470931	-0.536483	-45.981487
7.850000	-0.931569	-138.156886	-21.346246	-5.027825	-21.346246	-5.027825	-0.541753	-48.595487
7.900000	-0.968263	-142.146721	-21.530071	-7.525900	-21.530071	-7.525900	-0.547224	-51.185968
7.950000	-1.008681	-146.285664	-21.804934	-9.925478	-21.804934	-9.925478	-0.552980	-53.756245
8.000000	-1.053644	-150.596476	-22.190000	-12.163292	-22.190000	-12.163292	-0.559152	-56.310040
8.050000	-1.104230	-155.106187	-22.712981	-14.133761	-22.712981	-14.133761	-0.565929	-58.851572
8.100000	-1.161857	-159.847208	-23.414560	-15.651382	-23.414560	-15.651382	-0.573586	-61.385668
8.150000	-1.228538	-164.862287	-24.357560	-16.352853	-24.357560	-16.352853	-0.582547	-63.917941
8.200000	-1.306942	-170.201524	-25.633065	-15.481782	-25.633065	-15.481782	-0.593421	-66.455068
8.250000	-1.400307	-175.916427	-27.353369	-11.418057	-27.353369	-11.418057	-0.607015	-69.004282
8.300000	-1.513865	177.909539	-29.532321	0.015713	-29.532321	0.015713	-0.624641	-71.574295
8.350000	-1.654267	171.187212	-31.161503	26.011418	-31.161503	26.011418	-0.648075	-74.174138
8.400000	-1.831992	163.782093	-29.437798	58.739472	-29.437798	58.739472	-0.680148	-76.814111
8.450000	-2.060850	155.543855	-25.617366	76.289695	-25.617366	76.289695	-0.724675	-79.502004
8.500000	-2.360122	146.283252	-21.970438	81.700762	-21.970438	81.700762	-0.786882	-82.240779
8.550000	-2.760162	135.710003	-18.823951	80.973978	-18.823951	80.973978	-0.874731	-85.024268
8.600000	-3.301560	123.469967	-16.105702	76.866891	-16.105702	76.866891	-0.997986	-87.822115
8.650000	-4.036649	109.099942	-13.739015	70.463364	-13.739015	70.463364	-1.167170	-90.564412
8.700000	-5.024431	91.954268	-11.687714	62.263572	-11.687714	62.263572	-1.390267	-93.123716
8.750000	-6.300577	71.119255	-9.950048	52.625523	-9.950048	52.625523	-1.665201	-95.312556
8.800000	-7.785896	45.324726	-8.540997	41.949455	-8.540997	41.949455	-1.970539	-96.923643
8.850000	-9.111372	13.753642	-7.467469	30.753739	-7.467469	30.753739	-2.262937	-97.854765
8.900000	-9.635325	-21.446654	-6.710830	19.584199	-6.710830	19.584199	-2.493194	-98.202988
8.950000	-9.145965	-54.364236	-6.225058	8.901748	-6.225058	8.901748	-2.631287	-98.247636
9.000000	-8.155284	-81.142613	-5.949310	-1.001124	-5.949310	-1.001124	-2.678538	-98.301367
9.050000	-7.152015	-102.227927	-5.820650	-10.022864	-5.820650	-10.022864	-2.659296	-98.569275
9.100000	-6.310086	-119.231208	-5.787979	-18.189628	-5.787979	-18.189628	-2.601524	-99.120928
9.150000	-5.646230	-133.443231	-5.814063	-25.593699	-5.814063	-25.593699	-2.526849	-99.939864
9.200000	-5.132578	-145.713511	-5.873885	-32.346045	-5.873885	-32.346045	-2.448729	-100.976086
9.250000	-4.734571	-156.616587	-5.951205	-38.563081	-5.951205	-38.563081	-2.374266	-102.172803
9.300000	-4.423232	-166.532276	-6.036390	-44.346110	-6.036390	-44.346110	-2.306434	-103.482525
9.350000	-4.176559	-175.718418	-6.124019	-49.777990	-6.124019	-49.777990	-2.246014	-104.869442
9.400000	-3.978049	175.642348	-6.211275	-54.926227	-6.211275	-54.926227	-2.192692	-106.307451
9.450000	-3.815368	167.418379	-6.296979	-59.844955	-6.296979	-59.844955	-2.145667	-107.778101
9.500000	-3.679243	159.513792	-6.380943	-64.577159	-6.380943	-64.577159	-2.103967	-109.268648
9.550000	-3.562644	151.858545	-6.463577	-69.156717	-6.463577	-69.156717	-2.066620	-110.770515
9.600000	-3.460233	144.402549	-6.545618	-73.609622	-6.545618	-73.609622	-2.032736	-112.278149
9.650000	-3.367869	137.109777	-6.627985	-77.956200	-6.627985	-77.956200	-2.001517	-113.788154
9.700000	-3.282302	129.953652	-6.711650	-82.213155	-6.711650	-82.213155	-1.972256	-115.298753
9.750000	-3.201177	122.918095	-6.797546	-86.392073	-6.797546	-86.392073	-1.944392	-116.809364
9.800000	-3.122771	115.993668	-6.886536	-90.501371	-6.886536	-90.501371	-1.917481	-118.320232
9.850000	-3.045886	109.175997	-6.979374	-94.546880	-6.979374	-94.546880	-1.891182	-119.832193
9.900000	-2.969765	102.464443	-7.076684	-98.532354	-7.076684	-98.532354	-1.865260	-121.346476
9.950000	-2.894005	95.861005	-7.178934	-102.459910	-7.178934	-102.459910	-1.839574	-122.864552
10.000000	-2.818482	89.369419	-7.286430	-106.330418	-7.286430	-106.330418	-1.814069	-124.387992
