! freq	dB(S11)	phase(S11)	dB(S12)	phase(S12)	
!     	dB(S21)	phase(S21)	dB(S22)	phase(S22)	
!S-par simulation data
#  GHz  S  DB  R 50
0.000000	-0.000000	0.000000	-353.415535	0.000000	-353.415535	0.000000	-0.000000	0.000000
0.050000	-0.000275	-0.861689	-111.068382	122.170858	-111.068382	122.170858	-0.000276	-0.861714
0.100000	-0.001050	-1.722331	-103.573548	105.393384	-103.573548	105.393384	-0.001051	-1.722373
0.150000	-0.002221	-2.581121	-99.780467	97.091972	-99.780467	97.091972	-0.002223	-2.581168
0.200000	-0.003631	-3.437939	-97.259490	91.609647	-97.259490	91.609647	-0.003634	-3.437980
0.250000	-0.005170	-4.292752	-95.402663	87.484894	-95.402663	87.484894	-0.005172	-4.292779
0.300000	-0.006744	-5.145772	-93.966116	84.140194	-93.966116	84.140194	-0.006743	-5.145780
0.350000	-0.008292	-5.997523	-92.815039	81.243987	-92.815039	81.243987	-0.008287	-5.997512
0.400000	-0.009761	-6.848070	-91.907585	78.778478	-91.907585	78.778478	-0.009754	-6.848041
0.450000	-0.011204	-7.698290	-91.116870	76.432772	-91.116870	76.432772	-0.011194	-7.698243
0.500000	-0.012524	-8.547565	-90.529551	74.529095	-90.529551	74.529095	-0.012511	-8.547504
0.550000	-0.013814	-9.396653	-90.016780	72.741691	-90.016780	72.741691	-0.013799	-9.396579
0.600000	-0.015019	-10.245224	-89.636303	71.289606	-89.636303	71.289606	-0.015002	-10.245142
0.650000	-0.016179	-11.093487	-89.338427	70.078107	-89.338427	70.078107	-0.016161	-11.093400
0.700000	-0.017295	-11.941443	-89.115376	69.107194	-89.115376	69.107194	-0.017276	-11.941352
0.750000	-0.018360	-12.788879	-88.991880	68.571183	-88.991880	68.571183	-0.018340	-12.788788
0.800000	-0.019407	-13.636131	-88.901999	68.189228	-88.901999	68.189228	-0.019388	-13.636041
0.850000	-0.020407	-14.482597	-88.919037	68.494376	-88.919037	68.494376	-0.020389	-14.482513
0.900000	-0.021398	-15.328783	-88.961149	69.062226	-88.961149	69.062226	-0.021380	-15.328706
0.950000	-0.022364	-16.174291	-89.064884	70.268069	-89.064884	70.268069	-0.022348	-16.174223
1.000000	-0.023319	-17.019182	-89.195683	72.110340	-89.195683	72.110340	-0.023304	-17.019124
1.050000	-0.024264	-17.863578	-89.349506	74.461754	-89.349506	74.461754	-0.024250	-17.863532
1.100000	-0.025198	-18.706942	-89.489647	77.945726	-89.489647	77.945726	-0.025186	-18.706909
1.150000	-0.026131	-19.549962	-89.618432	81.798583	-89.618432	81.798583	-0.026120	-19.549943
1.200000	-0.027058	-20.391697	-89.638573	86.964145	-89.638573	86.964145	-0.027049	-20.391694
1.250000	-0.027986	-21.232901	-89.576296	92.484056	-89.576296	92.484056	-0.027978	-21.232914
1.300000	-0.028915	-22.073106	-89.362589	98.670140	-89.362589	98.670140	-0.028908	-22.073135
1.350000	-0.029847	-22.912300	-88.960691	104.919991	-88.960691	104.919991	-0.029841	-22.912347
1.400000	-0.030781	-23.750852	-88.460939	111.210421	-88.460939	111.210421	-0.030776	-23.750915
1.450000	-0.031722	-24.587858	-87.715218	116.773180	-87.715218	116.773180	-0.031719	-24.587940
1.500000	-0.032666	-25.424385	-86.954627	122.054544	-86.954627	122.054544	-0.032664	-25.424483
1.550000	-0.033620	-26.259300	-86.038633	126.235765	-86.038633	126.235765	-0.033619	-26.259416
1.600000	-0.034579	-27.093423	-85.126641	129.914931	-85.126641	129.914931	-0.034579	-27.093557
1.650000	-0.035546	-27.926371	-84.190108	132.849670	-84.190108	132.849670	-0.035546	-27.926521
1.700000	-0.036523	-28.757806	-83.232758	135.055125	-83.232758	135.055125	-0.036524	-28.757972
1.750000	-0.037506	-29.588483	-82.320275	136.895938	-82.320275	136.895938	-0.037508	-29.588666
1.800000	-0.038499	-30.417649	-81.413153	138.234741	-81.413153	138.234741	-0.038502	-30.417848
1.850000	-0.039501	-31.245736	-80.539349	139.214966	-80.539349	139.214966	-0.039503	-31.245950
1.900000	-0.040511	-32.072472	-79.689612	139.899940	-79.689612	139.899940	-0.040514	-32.072702
1.950000	-0.041531	-32.897858	-78.864861	140.289665	-78.864861	140.289665	-0.041535	-32.898102
2.000000	-0.042560	-33.722076	-78.072579	140.510371	-78.072579	140.510371	-0.042563	-33.722334
2.050000	-0.043599	-34.544659	-77.296473	140.494450	-77.296473	140.494450	-0.043603	-34.544931
2.100000	-0.044643	-35.366522	-76.563761	140.404011	-76.563761	140.404011	-0.044647	-35.366808
2.150000	-0.045700	-36.186517	-75.839371	140.130299	-75.839371	140.130299	-0.045704	-36.186815
2.200000	-0.046765	-37.005098	-75.136293	139.748731	-75.136293	139.748731	-0.046770	-37.005409
2.250000	-0.047840	-37.822248	-74.453037	139.275650	-74.453037	139.275650	-0.047845	-37.822571
2.300000	-0.048924	-38.637949	-73.788166	138.724735	-73.788166	138.724735	-0.048928	-38.638283
2.350000	-0.050016	-39.452184	-73.140312	138.107511	-73.140312	138.107511	-0.050021	-39.452529
2.400000	-0.051117	-40.264937	-72.508184	137.433760	-72.508184	137.433760	-0.051122	-40.265293
2.450000	-0.052227	-41.076193	-71.890575	136.711852	-71.890575	136.711852	-0.052232	-41.076559
2.500000	-0.053346	-41.885938	-71.286353	135.949015	-71.286353	135.949015	-0.053350	-41.886314
2.550000	-0.054474	-42.694092	-70.693234	135.150308	-70.693234	135.150308	-0.054478	-42.694476
2.600000	-0.055610	-43.500707	-70.111513	134.322982	-70.111513	134.322982	-0.055614	-43.501100
2.650000	-0.056754	-44.305771	-69.540268	133.471936	-69.540268	133.471936	-0.056758	-44.306174
2.700000	-0.057907	-45.109275	-68.978645	132.601618	-68.978645	132.601618	-0.057911	-45.109686
2.750000	-0.059068	-45.911207	-68.425856	131.716123	-68.425856	131.716123	-0.059072	-45.911626
2.800000	-0.060237	-46.711558	-67.881169	130.819279	-67.881169	130.819279	-0.060241	-46.711985
2.850000	-0.061415	-47.510319	-67.343914	129.914719	-67.343914	129.914719	-0.061418	-47.510754
2.900000	-0.062601	-48.307481	-66.813477	129.005945	-66.813477	129.005945	-0.062604	-48.307925
2.950000	-0.063795	-49.103038	-66.289299	128.096377	-66.289299	128.096377	-0.063798	-49.103490
3.000000	-0.064998	-49.896983	-65.770880	127.189402	-65.770880	127.189402	-0.065001	-49.897442
3.050000	-0.066209	-50.689309	-65.257778	126.288411	-65.257778	126.288411	-0.066211	-50.689776
3.100000	-0.067428	-51.480011	-64.749612	125.396828	-64.749612	125.396828	-0.067431	-51.480485
3.150000	-0.068657	-52.269084	-64.246066	124.518130	-64.246066	124.518130	-0.068659	-52.269566
3.200000	-0.069894	-53.056523	-63.746897	123.655860	-63.746897	123.655860	-0.069896	-53.057013
3.250000	-0.071140	-53.842325	-63.251936	122.813630	-63.251936	122.813630	-0.071142	-53.842823
3.300000	-0.072395	-54.626487	-62.761098	121.995108	-62.761098	121.995108	-0.072397	-54.626992
3.350000	-0.073662	-55.408719	-62.270344	121.209858	-62.270344	121.209858	-0.073663	-55.409232
3.400000	-0.074938	-56.189234	-61.783308	120.457165	-61.783308	120.457165	-0.074939	-56.189756
3.450000	-0.076219	-56.968890	-61.311083	119.723954	-61.311083	119.723954	-0.076221	-56.969420
3.500000	-0.077517	-57.745967	-60.831799	119.049190	-60.831799	119.049190	-0.077518	-57.746505
3.550000	-0.078818	-58.522470	-60.370942	118.389607	-60.370942	118.389607	-0.078819	-58.523018
3.600000	-0.080137	-59.296107	-59.901802	117.805932	-59.901802	117.805932	-0.080138	-59.296663
3.650000	-0.081459	-60.069456	-59.453893	117.230526	-59.453893	117.230526	-0.081460	-60.070022
3.700000	-0.082802	-60.839654	-58.998520	116.746080	-58.998520	116.746080	-0.082803	-60.840230
3.750000	-0.084145	-61.609852	-58.565836	116.261635	-58.565836	116.261635	-0.084146	-61.610437
3.800000	-0.085514	-62.376617	-58.128925	115.876166	-58.128925	115.876166	-0.085515	-62.377213
3.850000	-0.086883	-63.143382	-57.712943	115.490696	-57.712943	115.490696	-0.086884	-63.143988
3.900000	-0.088277	-63.907009	-57.301185	115.184988	-57.301185	115.184988	-0.088278	-63.907626
3.950000	-0.089673	-64.670351	-56.906782	114.886530	-56.906782	114.886530	-0.089674	-64.670979
4.000000	-0.091094	-65.430851	-56.523599	114.639242	-56.523599	114.639242	-0.091095	-65.431491
4.050000	-0.092519	-66.190782	-56.155474	114.402187	-56.155474	114.402187	-0.092520	-66.191434
4.100000	-0.093969	-66.948167	-55.803150	114.182452	-55.803150	114.182452	-0.093970	-66.948831
4.150000	-0.095426	-67.704703	-55.464828	113.968491	-55.464828	113.968491	-0.095427	-67.705380
4.200000	-0.096906	-68.458987	-55.143984	113.738979	-55.143984	113.738979	-0.096907	-68.459678
4.250000	-0.098398	-69.212147	-54.836884	113.501690	-54.836884	113.501690	-0.098399	-69.212851
4.300000	-0.099910	-69.963348	-54.546273	113.223298	-54.546273	113.223298	-0.099912	-69.964066
4.350000	-0.101438	-70.713151	-54.269222	112.915545	-54.269222	112.915545	-0.101440	-70.713884
4.400000	-0.102986	-71.461287	-54.005886	112.552545	-54.005886	112.552545	-0.102988	-71.462035
4.450000	-0.104553	-72.207757	-53.755302	112.134297	-53.755302	112.134297	-0.104555	-72.208520
4.500000	-0.106137	-72.952848	-53.515028	111.658611	-53.515028	111.658611	-0.106139	-72.953627
4.550000	-0.107746	-73.696010	-53.285696	111.102513	-53.285696	111.102513	-0.107748	-73.696805
4.600000	-0.109370	-74.438078	-53.063622	110.496188	-53.063622	110.496188	-0.109372	-74.438889
4.650000	-0.111023	-75.177958	-52.849732	109.789412	-52.849732	109.789412	-0.111026	-75.178787
4.700000	-0.112689	-75.917025	-52.640961	109.045005	-52.640961	109.045005	-0.112691	-75.917871
4.750000	-0.114389	-76.653652	-52.437029	108.187704	-52.437029	108.187704	-0.114392	-76.654516
4.800000	-0.116098	-77.389742	-52.237134	107.306920	-52.237134	107.306920	-0.116101	-77.390624
4.850000	-0.117849	-78.123146	-52.038602	106.308713	-52.038602	106.308713	-0.117852	-78.124046
4.900000	-0.119604	-78.856285	-51.843937	105.300027	-51.843937	105.300027	-0.119607	-78.857203
4.950000	-0.121407	-79.586498	-51.647414	104.176068	-51.647414	104.176068	-0.121410	-79.587435
5.000000	-0.123210	-80.316710	-51.455240	103.052109	-51.455240	103.052109	-0.123214	-80.317667
5.050000	-0.125069	-81.043765	-51.258483	101.819767	-51.258483	101.819767	-0.125073	-81.044741
5.100000	-0.126928	-81.770819	-51.066085	100.587425	-51.066085	100.587425	-0.126932	-81.771814
5.150000	-0.128840	-82.495009	-50.868677	99.271561	-50.868677	99.271561	-0.128844	-82.496024
5.200000	-0.130757	-83.218938	-50.674840	97.948105	-50.674840	97.948105	-0.130762	-83.219974
5.250000	-0.132724	-83.940293	-50.476370	96.561903	-50.476370	96.561903	-0.132729	-83.941349
5.300000	-0.134702	-84.661133	-50.280602	95.163151	-50.280602	95.163151	-0.134707	-84.662210
5.350000	-0.136727	-85.379684	-50.081073	93.718254	-50.081073	93.718254	-0.136733	-85.380781
5.400000	-0.138768	-86.097471	-49.883395	92.257975	-49.883395	92.257975	-0.138774	-86.098589
5.450000	-0.140852	-86.813248	-49.683088	90.764410	-49.683088	90.764410	-0.140858	-86.814387
5.500000	-0.142958	-87.528020	-49.483864	89.254201	-49.483864	89.254201	-0.142965	-87.529179
5.550000	-0.145104	-88.241056	-49.283233	87.720460	-49.283233	87.720460	-0.145111	-88.242236
5.600000	-0.147278	-88.952852	-49.083033	86.169910	-49.083033	86.169910	-0.147286	-88.954052
5.650000	-0.149487	-89.663179	-48.882627	84.603120	-48.882627	84.603120	-0.149495	-89.664400
5.700000	-0.151731	-90.372039	-48.682133	83.020090	-48.682133	83.020090	-0.151739	-90.373281
5.750000	-0.154005	-91.079692	-48.482540	81.426219	-48.482540	81.426219	-0.154013	-91.080954
5.800000	-0.156320	-91.785657	-48.282473	79.817169	-48.282473	79.817169	-0.156329	-91.786939
5.850000	-0.158660	-92.490671	-48.084279	78.201233	-48.084279	78.201233	-0.158669	-92.491974
5.900000	-0.161049	-93.193784	-47.885361	76.571523	-47.885361	76.571523	-0.161058	-93.195107
5.950000	-0.163456	-93.896195	-47.689126	74.937779	-47.689126	74.937779	-0.163466	-93.897538
6.000000	-0.165920	-94.596501	-47.492039	73.291933	-47.492039	73.291933	-0.165930	-94.597863
6.050000	-0.168396	-95.296347	-47.298282	71.644049	-47.298282	71.644049	-0.168407	-95.297728
6.100000	-0.170936	-95.993892	-47.103657	69.985975	-47.103657	69.985975	-0.170947	-95.995292
6.150000	-0.173482	-96.691211	-46.912843	68.327169	-46.912843	68.327169	-0.173494	-96.692629
6.200000	-0.176099	-97.386044	-46.721244	66.660318	-46.721244	66.660318	-0.176111	-97.387480
6.250000	-0.178717	-98.080876	-46.533780	64.993468	-46.533780	64.993468	-0.178729	-98.082330
6.300000	-0.181411	-98.773046	-46.345697	63.320965	-46.345697	63.320965	-0.181424	-98.774517
6.350000	-0.184107	-99.465216	-46.161601	61.648462	-46.161601	61.648462	-0.184120	-99.466703
6.400000	-0.186874	-100.154993	-45.977777	59.973416	-45.977777	59.973416	-0.186887	-100.156497
6.450000	-0.189648	-100.844553	-45.797447	58.298139	-45.797447	58.298139	-0.189662	-100.846072
6.500000	-0.192487	-101.531984	-45.618104	56.622789	-45.618104	56.622789	-0.192501	-101.533518
6.550000	-0.195341	-102.218988	-45.441864	54.947423	-45.441864	54.947423	-0.195355	-102.220537
6.600000	-0.198253	-102.904120	-45.267161	53.273883	-45.267161	53.273883	-0.198268	-102.905682
6.650000	-0.201186	-103.588627	-45.095260	51.600952	-45.095260	51.600952	-0.201201	-103.590202
6.700000	-0.204171	-104.271509	-44.925297	49.931221	-44.925297	49.931221	-0.204186	-104.273097
6.750000	-0.207183	-104.953579	-44.757911	48.263091	-44.757911	48.263091	-0.207199	-104.955179
6.800000	-0.210241	-105.634264	-44.592732	46.599051	-44.592732	46.599051	-0.210257	-105.635876
6.850000	-0.213333	-106.313961	-44.429966	44.937933	-44.429966	44.937933	-0.213349	-106.315583
6.900000	-0.216463	-106.992504	-44.269566	43.281339	-44.269566	43.281339	-0.216480	-106.994136
6.950000	-0.219634	-107.669894	-44.111458	41.629272	-44.111458	41.629272	-0.219651	-107.671536
7.000000	-0.222837	-108.346352	-43.955785	39.981746	-43.955785	39.981746	-0.222855	-108.348003
7.050000	-0.226086	-109.021507	-43.802314	38.340579	-43.802314	38.340579	-0.226104	-109.023165
7.100000	-0.229362	-109.695941	-43.651274	36.703594	-43.651274	36.703594	-0.229380	-109.697606
7.150000	-0.232689	-110.368935	-43.502360	35.074971	-43.502360	35.074971	-0.232707	-110.370606
7.200000	-0.236037	-111.041408	-43.355827	33.449839	-43.355827	33.449839	-0.236054	-111.043085
7.250000	-0.239441	-111.712319	-43.211343	31.835177	-43.211343	31.835177	-0.239459	-111.714002
7.300000	-0.242860	-112.382898	-43.069156	30.223037	-43.069156	30.223037	-0.242878	-112.384585
7.350000	-0.246342	-113.051811	-42.928932	28.623509	-42.928932	28.623509	-0.246360	-113.053501
7.400000	-0.249831	-113.720565	-42.790907	27.025319	-42.790907	27.025319	-0.249849	-113.722259
7.450000	-0.253390	-114.387568	-42.654738	25.441846	-42.654738	25.441846	-0.253408	-114.389264
7.500000	-0.256950	-115.054571	-42.520670	23.858372	-42.520670	23.858372	-0.256967	-115.056269
7.550000	-0.260584	-115.719756	-42.388323	22.291612	-42.388323	22.291612	-0.260602	-115.721456
7.600000	-0.264220	-116.384942	-42.257961	20.724851	-42.257961	20.724851	-0.264237	-116.386643
7.650000	-0.267924	-117.048553	-42.129212	19.173772	-42.129212	19.173772	-0.267941	-117.050254
7.700000	-0.271636	-117.712021	-42.002314	17.624118	-42.002314	17.624118	-0.271653	-117.713721
7.750000	-0.275410	-118.374143	-41.876905	16.088830	-41.876905	16.088830	-0.275426	-118.375843
7.800000	-0.279197	-119.035997	-41.753214	14.556415	-41.753214	14.556415	-0.279213	-119.037696
7.850000	-0.283041	-119.696722	-41.630889	13.036836	-41.630889	13.036836	-0.283056	-119.698420
7.900000	-0.286904	-120.357072	-41.510140	11.521535	-41.510140	11.521535	-0.286919	-120.358768
7.950000	-0.290818	-121.016496	-41.390644	10.017398	-41.390644	10.017398	-0.290832	-121.018191
8.000000	-0.294757	-121.675457	-41.272571	8.518841	-41.272571	8.518841	-0.294771	-121.677150
8.050000	-0.298742	-122.333680	-41.155657	7.029699	-41.155657	7.029699	-0.298754	-122.335372
8.100000	-0.302759	-122.991375	-41.039996	5.547282	-41.039996	5.547282	-0.302770	-122.993066
8.150000	-0.306815	-123.648502	-40.925426	4.072522	-40.925426	4.072522	-0.306826	-123.650192
8.200000	-0.310910	-124.305061	-40.811922	2.605419	-40.811922	2.605419	-0.310920	-124.306749
8.250000	-0.315040	-124.961202	-40.699468	1.144269	-40.699468	1.144269	-0.315049	-124.962890
8.300000	-0.319216	-125.616759	-40.587879	-0.308548	-40.587879	-0.308548	-0.319224	-125.618447
8.350000	-0.323421	-126.272029	-40.477329	-1.757008	-40.477329	-1.757008	-0.323427	-126.273718
8.400000	-0.327681	-126.926726	-40.367425	-3.196755	-40.367425	-3.196755	-0.327686	-126.928417
8.450000	-0.331964	-127.581246	-40.258582	-4.633581	-40.258582	-4.633581	-0.331967	-127.582938
8.500000	-0.336311	-128.235233	-40.150157	-6.061644	-40.150157	-6.061644	-0.336313	-128.236929
8.550000	-0.340675	-128.889127	-40.042841	-7.488018	-40.042841	-7.488018	-0.340675	-128.890827
8.600000	-0.345113	-129.542558	-39.935707	-8.905939	-39.935707	-8.905939	-0.345112	-129.544265
8.650000	-0.349562	-130.195958	-39.829756	-10.323155	-39.829756	-10.323155	-0.349560	-130.197671
8.700000	-0.354098	-130.848997	-39.723752	-11.732612	-39.723752	-11.732612	-0.354094	-130.850721
8.750000	-0.358636	-131.502036	-39.619025	-13.142070	-39.619025	-13.142070	-0.358631	-131.503770
8.800000	-0.363277	-132.154853	-39.514014	-14.544863	-39.514014	-14.544863	-0.363269	-132.156602
8.850000	-0.367919	-132.807670	-39.410257	-15.947656	-39.410257	-15.947656	-0.367910	-132.809433
8.900000	-0.372663	-133.460444	-39.306266	-17.346087	-39.306266	-17.346087	-0.372652	-133.462226
8.950000	-0.377418	-134.113214	-39.203374	-18.744121	-39.203374	-18.744121	-0.377406	-134.115016
9.000000	-0.382273	-134.766098	-39.100333	-20.139852	-39.100333	-20.139852	-0.382259	-134.767925
9.050000	-0.387151	-135.419005	-38.998232	-21.535123	-38.998232	-21.535123	-0.387135	-135.420858
9.100000	-0.392126	-136.072155	-38.896096	-22.929872	-38.896096	-22.929872	-0.392109	-136.074040
9.150000	-0.397137	-136.725387	-38.794744	-24.324447	-38.794744	-24.324447	-0.397118	-136.727305
9.200000	-0.402245	-137.378965	-38.693495	-25.719976	-38.693495	-25.719976	-0.402224	-137.380922
9.250000	-0.407402	-138.032717	-38.592884	-27.115981	-38.592884	-27.115981	-0.407380	-138.034716
9.300000	-0.412653	-138.686889	-38.492530	-28.514083	-38.492530	-28.514083	-0.412630	-138.688935
9.350000	-0.417973	-139.341362	-38.392689	-29.913684	-38.392689	-29.913684	-0.417948	-139.343460
9.400000	-0.423381	-139.996298	-38.293267	-31.316174	-38.293267	-31.316174	-0.423356	-139.998452
9.450000	-0.428879	-140.651696	-38.194262	-32.721554	-38.194262	-32.721554	-0.428854	-140.653913
9.500000	-0.434461	-141.307568	-38.095839	-34.130251	-38.095839	-34.130251	-0.434435	-141.309852
9.550000	-0.440158	-141.964103	-37.997778	-35.543592	-37.997778	-35.543592	-0.440132	-141.966461
9.600000	-0.445930	-142.621087	-37.900450	-36.960306	-37.900450	-36.960306	-0.445903	-142.623525
9.650000	-0.451847	-143.278970	-37.803483	-38.383763	-37.803483	-38.383763	-0.451822	-143.281496
9.700000	-0.457828	-143.937245	-37.707378	-39.810275	-37.707378	-39.810275	-0.457803	-143.939863
9.750000	-0.463991	-144.596693	-37.611701	-41.245949	-37.611701	-41.245949	-0.463968	-144.599415
9.800000	-0.470203	-145.256438	-37.516977	-42.683995	-37.516977	-42.683995	-0.470182	-145.259266
9.850000	-0.476640	-145.917668	-37.422832	-44.133896	-37.422832	-44.133896	-0.476621	-145.920616
9.900000	-0.483105	-146.579065	-37.329681	-45.585140	-37.329681	-45.585140	-0.483089	-146.582134
9.950000	-0.489846	-147.242294	-37.237358	-47.051155	-37.237358	-47.051155	-0.489834	-147.245502
10.000000	-0.496592	-147.905524	-37.146005	-48.517170	-37.146005	-48.517170	-0.496584	-147.908870
