! freq	dB(S11)	phase(S11)	dB(S12)	phase(S12)	
!     	dB(S21)	phase(S21)	dB(S22)	phase(S22)	
!S-par simulation data
#  GHz  S  DB  R 50
0.000000	-0.000000	0.000000	-371.555557	180.000000	-371.555557	180.000000	-0.000000	0.000000
0.050000	-0.000085	-0.816019	-106.310153	31.966168	-106.310153	31.966168	-0.000135	-0.819778
0.100000	-0.000337	-1.631863	-104.631338	43.573948	-104.631338	43.573948	-0.000531	-1.639146
0.150000	-0.000749	-2.447367	-102.868335	52.745046	-102.868335	52.745046	-0.001166	-2.457739
0.200000	-0.001309	-3.262385	-101.263637	58.964349	-101.263637	58.964349	-0.002005	-3.275268
0.250000	-0.002014	-4.076743	-99.875661	63.093377	-99.875661	63.093377	-0.003022	-4.091434
0.300000	-0.002836	-4.890387	-98.697152	66.044049	-98.697152	66.044049	-0.004158	-4.906224
0.350000	-0.003763	-5.703200	-97.700788	68.181895	-97.700788	68.181895	-0.005385	-5.719528
0.400000	-0.004781	-6.515114	-96.862477	69.799945	-96.862477	69.799945	-0.006667	-6.531347
0.450000	-0.005872	-7.326077	-96.162412	71.091652	-96.162412	71.091652	-0.007977	-7.341727
0.500000	-0.007021	-8.136059	-95.585287	72.193154	-95.585287	72.193154	-0.009292	-8.150742
0.550000	-0.008214	-8.945044	-95.119643	73.208193	-95.119643	73.208193	-0.010596	-8.958481
0.600000	-0.009439	-9.753027	-94.757107	74.223494	-94.757107	74.223494	-0.011877	-9.765038
0.650000	-0.010683	-10.560015	-94.491714	75.319162	-94.491714	75.319162	-0.013128	-10.570504
0.700000	-0.011937	-11.366019	-94.319286	76.576709	-94.319286	76.576709	-0.014346	-11.374959
0.750000	-0.013194	-12.171056	-94.236801	78.086251	-94.236801	78.086251	-0.015530	-12.178474
0.800000	-0.014447	-12.975145	-94.241573	79.953913	-94.241573	79.953913	-0.016679	-12.981108
0.850000	-0.015692	-13.778303	-94.330041	82.309915	-94.330041	82.309915	-0.017797	-13.782906
0.900000	-0.016924	-14.580550	-94.495739	85.317030	-94.495739	85.317030	-0.018885	-14.583904
0.950000	-0.018142	-15.381899	-94.725880	89.177061	-94.725880	89.177061	-0.019947	-15.384127
1.000000	-0.019344	-16.182366	-94.995798	94.128433	-94.995798	94.128433	-0.020986	-16.183591
1.050000	-0.020528	-16.981959	-95.261002	100.419409	-95.261002	100.419409	-0.022006	-16.982306
1.100000	-0.021695	-17.780688	-95.449031	108.231391	-95.449031	108.231391	-0.023008	-17.780272
1.150000	-0.022844	-18.578555	-95.459363	117.532388	-95.459363	117.532388	-0.023997	-18.577487
1.200000	-0.023977	-19.375564	-95.185878	127.902730	-95.185878	127.902730	-0.024974	-19.373943
1.250000	-0.025093	-20.171711	-94.565461	138.504812	-94.565461	138.504812	-0.025943	-20.169629
1.300000	-0.026194	-20.966956	-93.602108	148.308021	-93.602108	148.308021	-0.026905	-20.964496
1.350000	-0.027281	-21.761330	-92.407095	156.682704	-92.407095	156.682704	-0.027862	-21.758562
1.400000	-0.028355	-22.554823	-91.087879	163.453490	-91.087879	163.453490	-0.028817	-22.551808
1.450000	-0.029418	-23.347426	-89.728147	168.737081	-89.728147	168.737081	-0.029770	-23.344216
1.500000	-0.030470	-24.139126	-88.380561	172.766604	-88.380561	172.766604	-0.030723	-24.135764
1.550000	-0.031514	-24.929911	-87.073581	175.786352	-87.073581	175.786352	-0.031677	-24.926432
1.600000	-0.032550	-25.719765	-85.820281	178.008527	-85.820281	178.008527	-0.032633	-25.716199
1.650000	-0.033579	-26.508674	-84.624980	179.603407	-84.624980	179.603407	-0.033591	-26.505042
1.700000	-0.034601	-27.296279	-83.457309	-179.422543	-83.457309	-179.422543	-0.034555	-27.292603
1.750000	-0.035621	-28.083376	-82.388310	-178.670093	-82.388310	-178.670093	-0.035520	-28.079663
1.800000	-0.036637	-28.869252	-81.353067	-178.274257	-81.353067	-178.274257	-0.036491	-28.865510
1.850000	-0.037650	-29.654256	-80.374971	-178.133144	-80.374971	-178.133144	-0.037466	-29.650490
1.900000	-0.038662	-30.438175	-79.437275	-178.193968	-79.437275	-178.193968	-0.038446	-30.434386
1.950000	-0.039673	-31.221009	-78.538129	-178.456729	-78.538129	-178.456729	-0.039432	-31.217196
2.000000	-0.040684	-32.002905	-77.682273	-178.835636	-77.682273	-178.835636	-0.040423	-31.999065
2.050000	-0.041695	-32.783490	-76.850892	-179.377148	-76.850892	-179.377148	-0.041421	-32.779616
2.100000	-0.042707	-33.563298	-76.064019	-179.985273	-76.064019	-179.985273	-0.042423	-33.559386
2.150000	-0.043722	-34.341556	-75.290948	179.273376	-75.290948	179.273376	-0.043433	-34.337593
2.200000	-0.044738	-35.119212	-74.562766	178.495042	-74.562766	178.495042	-0.044447	-35.115195
2.250000	-0.045759	-35.895065	-73.840247	177.605757	-73.840247	177.605757	-0.045470	-35.890980
2.300000	-0.046781	-36.670506	-73.162527	176.697723	-73.162527	176.697723	-0.046496	-36.666348
2.350000	-0.047809	-37.443881	-72.484223	175.695948	-72.484223	175.695948	-0.047532	-37.439634
2.400000	-0.048839	-38.217044	-71.850337	174.686882	-71.850337	174.686882	-0.048570	-38.212705
2.450000	-0.049877	-38.987870	-71.211051	173.597630	-71.211051	173.597630	-0.049620	-38.983421
2.500000	-0.050916	-39.758696	-70.615608	172.508378	-70.615608	172.508378	-0.050671	-39.754137
2.550000	-0.051966	-40.526904	-70.011042	171.349820	-70.011042	171.349820	-0.051735	-40.522216
2.600000	-0.053016	-41.295113	-69.445831	170.191263	-69.445831	170.191263	-0.052799	-41.290296
2.650000	-0.054077	-42.060864	-68.876174	168.981587	-68.876174	168.981587	-0.053876	-42.055903
2.700000	-0.055140	-42.826391	-68.338264	167.767265	-68.338264	167.767265	-0.054954	-42.821285
2.750000	-0.056215	-43.589634	-67.799736	166.515071	-67.799736	166.515071	-0.056044	-43.584370
2.800000	-0.057292	-44.352420	-67.286633	165.255303	-67.286633	165.255303	-0.057137	-44.346997
2.850000	-0.058381	-45.113108	-66.776056	163.967469	-66.776056	163.967469	-0.058241	-45.107517
2.900000	-0.059473	-45.873096	-66.285620	162.670280	-66.285620	162.670280	-0.059349	-45.867336
2.950000	-0.060577	-46.631185	-65.800298	161.352377	-65.800298	161.352377	-0.060467	-46.625250
3.000000	-0.061687	-47.388324	-65.330674	160.024117	-65.330674	160.024117	-0.061591	-47.382211
3.050000	-0.062807	-48.143773	-64.868296	158.680712	-64.868296	158.680712	-0.062724	-48.137481
3.100000	-0.063934	-48.898015	-64.417870	157.326488	-64.417870	157.326488	-0.063864	-48.891541
3.150000	-0.065071	-49.650786	-63.976440	155.961364	-63.976440	155.961364	-0.065013	-49.644130
3.200000	-0.066217	-50.402087	-63.543792	154.585340	-63.543792	154.585340	-0.066171	-50.395249
3.250000	-0.067372	-51.152147	-63.121573	153.201666	-63.121573	153.201666	-0.067336	-51.145127
3.300000	-0.068539	-51.900468	-62.705445	151.807282	-62.705445	151.807282	-0.068512	-51.893267
3.350000	-0.069714	-52.647785	-62.300914	150.407734	-62.300914	150.407734	-0.069695	-52.640404
3.400000	-0.070902	-53.393092	-61.900188	148.997860	-61.900188	148.997860	-0.070891	-53.385533
3.450000	-0.072096	-54.137637	-61.512000	147.584718	-61.512000	147.584718	-0.072093	-54.129903
3.500000	-0.073308	-54.879898	-61.125674	146.161773	-61.125674	146.161773	-0.073310	-54.871993
3.550000	-0.074524	-55.621647	-60.752639	144.736993	-60.752639	144.736993	-0.074531	-55.613572
3.600000	-0.075760	-56.360835	-60.379808	143.303033	-60.379808	143.303033	-0.075770	-56.352597
3.650000	-0.076998	-57.099765	-60.020862	141.868302	-60.020862	141.868302	-0.077012	-57.091365
3.700000	-0.078259	-57.835858	-59.660710	140.425087	-59.660710	140.425087	-0.078276	-57.827304
3.750000	-0.079521	-58.571951	-59.314899	138.981871	-59.314899	138.981871	-0.079540	-58.563243
3.800000	-0.080810	-59.304930	-58.966682	137.530913	-58.966682	137.530913	-0.080830	-59.296077
3.850000	-0.082100	-60.037908	-58.631888	136.079954	-58.631888	136.079954	-0.082120	-60.028911
3.900000	-0.083415	-60.768018	-58.296185	134.623097	-58.296185	134.623097	-0.083436	-60.758885
3.950000	-0.084733	-61.497867	-57.971808	133.165703	-57.971808	133.165703	-0.084753	-61.488600
4.000000	-0.086077	-62.225099	-57.647821	131.703891	-57.647821	131.703891	-0.086096	-62.215705
4.050000	-0.087426	-62.951808	-57.333308	130.241196	-57.333308	130.241196	-0.087443	-62.942289
4.100000	-0.088798	-63.676154	-57.020311	128.775264	-57.020311	128.775264	-0.088814	-63.666519
4.150000	-0.090179	-64.399714	-56.715153	127.308253	-56.715153	127.308253	-0.090193	-64.389964
4.200000	-0.091583	-65.121172	-56.412486	125.838938	-56.412486	125.838938	-0.091594	-65.111314
4.250000	-0.092998	-65.841579	-56.116209	124.368469	-56.116209	124.368469	-0.093006	-65.831615
4.300000	-0.094434	-66.560147	-55.823268	122.896420	-55.823268	122.896420	-0.094440	-66.550082
4.350000	-0.095886	-67.277401	-55.535435	121.423242	-55.535435	121.423242	-0.095888	-67.267239
4.400000	-0.097356	-67.993079	-55.251667	119.949035	-55.251667	119.949035	-0.097355	-67.982823
4.450000	-0.098845	-68.707183	-54.971871	118.473798	-54.971871	118.473798	-0.098840	-68.696836
4.500000	-0.100350	-69.419976	-54.696767	116.997940	-54.696767	116.997940	-0.100343	-69.409541
4.550000	-0.101879	-70.130935	-54.424628	115.521213	-54.424628	115.521213	-0.101868	-70.120415
4.600000	-0.103422	-70.840848	-54.157722	114.044152	-54.157722	114.044152	-0.103408	-70.830245
4.650000	-0.104993	-71.548672	-53.892886	112.566427	-53.892886	112.566427	-0.104976	-71.537988
4.700000	-0.106574	-72.255715	-53.633747	111.088560	-53.633747	111.088560	-0.106554	-72.244952
4.750000	-0.108189	-72.960416	-53.375883	109.610267	-53.375883	109.610267	-0.108166	-72.949574
4.800000	-0.109811	-73.664600	-53.124112	108.131941	-53.124112	108.131941	-0.109786	-73.653680
4.850000	-0.111471	-74.366194	-52.872912	106.653452	-52.872912	106.653452	-0.111443	-74.355197
4.900000	-0.113136	-75.067531	-52.628140	105.174973	-52.628140	105.174973	-0.113106	-75.056456
4.950000	-0.114844	-75.766037	-52.383315	103.696612	-52.383315	103.696612	-0.114812	-75.754884
5.000000	-0.116553	-76.464543	-52.145202	102.218251	-52.145202	102.218251	-0.116518	-76.453312
5.050000	-0.118311	-77.159982	-51.906483	100.740299	-51.906483	100.740299	-0.118275	-77.148671
5.100000	-0.120070	-77.855422	-51.674148	99.262346	-51.674148	99.262346	-0.120032	-77.844030
5.150000	-0.121876	-78.548073	-51.441844	97.784992	-51.441844	97.784992	-0.121837	-78.536596
5.200000	-0.123687	-79.240470	-51.215057	96.307693	-51.215057	96.307693	-0.123647	-79.228910
5.250000	-0.125543	-79.930356	-50.988868	94.831115	-50.988868	94.831115	-0.125502	-79.918706
5.300000	-0.127408	-80.619740	-50.767412	93.354682	-50.767412	93.354682	-0.127366	-80.608000
5.350000	-0.129315	-81.306886	-50.547062	91.879039	-50.547062	91.879039	-0.129273	-81.295050
5.400000	-0.131237	-81.993286	-50.330733	90.403659	-50.330733	90.403659	-0.131194	-81.981353
5.450000	-0.133197	-82.677719	-50.115963	88.929092	-50.115963	88.929092	-0.133153	-82.665684
5.500000	-0.135177	-83.361169	-49.904571	87.454932	-49.904571	87.454932	-0.135133	-83.349029
5.550000	-0.137191	-84.042919	-49.695142	85.981571	-49.695142	85.981571	-0.137148	-84.030669
5.600000	-0.139231	-84.723455	-49.488509	84.508781	-49.488509	84.508781	-0.139188	-84.711091
5.650000	-0.141303	-85.402553	-49.284196	83.036744	-49.284196	83.036744	-0.141259	-85.390071
5.700000	-0.143405	-86.080215	-49.082154	81.565460	-49.082154	81.565460	-0.143362	-86.067609
5.750000	-0.145534	-86.756696	-48.882750	80.094858	-48.882750	80.094858	-0.145491	-86.743962
5.800000	-0.147701	-87.431524	-48.685144	78.625210	-48.685144	78.625210	-0.147658	-87.418656
5.850000	-0.149889	-88.105424	-48.490453	77.156148	-48.490453	77.156148	-0.149847	-88.092418
5.900000	-0.152122	-88.777464	-48.297136	75.688259	-48.297136	75.688259	-0.152080	-88.764314
5.950000	-0.154372	-89.448820	-48.106979	74.220840	-48.106979	74.220840	-0.154330	-89.435523
6.000000	-0.156672	-90.118122	-47.917813	72.754831	-47.917813	72.754831	-0.156630	-90.104669
6.050000	-0.158985	-90.786975	-47.732019	71.289157	-47.732019	71.289157	-0.158943	-90.773364
6.100000	-0.161355	-91.453587	-47.546877	69.825153	-47.546877	69.825153	-0.161313	-91.439810
6.150000	-0.163732	-92.119979	-47.365286	68.361326	-47.365286	68.361326	-0.163689	-92.106036
6.200000	-0.166173	-92.783956	-47.184047	66.899453	-47.184047	66.899453	-0.166130	-92.769836
6.250000	-0.168615	-93.447933	-47.006512	65.437580	-47.006512	65.437580	-0.168572	-93.433636
6.300000	-0.171130	-94.109331	-46.829062	63.977971	-46.829062	63.977971	-0.171085	-94.094848
6.350000	-0.173645	-94.770730	-46.655164	62.518363	-46.655164	62.518363	-0.173600	-94.756060
6.400000	-0.176228	-95.429819	-46.481673	61.060961	-46.481673	61.060961	-0.176181	-95.414955
6.450000	-0.178818	-96.088699	-46.311313	59.603759	-46.311313	59.603759	-0.178770	-96.073639
6.500000	-0.181470	-96.745533	-46.141650	58.148690	-46.141650	58.148690	-0.181420	-96.730270
6.550000	-0.184136	-97.401958	-45.974732	56.694047	-45.974732	56.694047	-0.184084	-97.386491
6.600000	-0.186860	-98.056590	-45.808771	55.241445	-45.808771	55.241445	-0.186806	-98.040915
6.650000	-0.189603	-98.710626	-45.645205	53.789525	-45.645205	53.789525	-0.189547	-98.694739
6.700000	-0.192399	-99.363115	-45.482827	52.339537	-45.482827	52.339537	-0.192340	-99.347013
6.750000	-0.195221	-100.014831	-45.322527	50.890514	-45.322527	50.890514	-0.195159	-99.998512
6.800000	-0.198090	-100.665236	-45.163619	49.443294	-45.163619	49.443294	-0.198025	-100.648699
6.850000	-0.200992	-101.314706	-45.006503	47.997360	-45.006503	47.997360	-0.200924	-101.297947
6.900000	-0.203935	-101.963091	-44.850957	46.553072	-44.850957	46.553072	-0.203863	-101.946108
6.950000	-0.206919	-102.610391	-44.696945	45.110429	-44.696945	45.110429	-0.206843	-102.593184
7.000000	-0.209938	-103.256821	-44.544657	43.669249	-44.544657	43.669249	-0.209858	-103.239387
7.050000	-0.213004	-103.902032	-44.393671	42.230115	-44.393671	42.230115	-0.212920	-103.884371
7.100000	-0.216099	-104.546574	-44.244541	40.792227	-44.244541	40.792227	-0.216011	-104.528687
7.150000	-0.219249	-105.189780	-44.096505	39.356832	-44.096505	39.356832	-0.219157	-105.171665
7.200000	-0.222420	-105.832507	-43.950438	37.922432	-43.950438	37.922432	-0.222325	-105.814164
7.250000	-0.225655	-106.473796	-43.805276	36.491019	-43.805276	36.491019	-0.225555	-106.455227
7.300000	-0.228905	-107.114780	-43.662179	35.060312	-43.662179	35.060312	-0.228801	-107.095985
7.350000	-0.232226	-107.754245	-43.519816	33.633135	-43.519816	33.633135	-0.232118	-107.735224
7.400000	-0.235555	-108.393565	-43.379597	32.206334	-43.379597	32.206334	-0.235443	-108.374320
7.450000	-0.238962	-109.031301	-43.239957	30.783659	-43.239957	30.783659	-0.238847	-109.011834
7.500000	-0.242371	-109.669038	-43.102527	29.360983	-43.102527	29.360983	-0.242252	-109.649348
7.550000	-0.245867	-110.305147	-42.965535	27.943084	-42.965535	27.943084	-0.245744	-110.285238
7.600000	-0.249364	-110.941256	-42.830670	26.525184	-42.830670	26.525184	-0.249238	-110.921129
7.650000	-0.252941	-111.575971	-42.696385	25.111920	-42.696385	25.111920	-0.252813	-111.555629
7.700000	-0.256527	-112.210559	-42.564012	23.699076	-42.564012	23.699076	-0.256396	-112.190002
7.750000	-0.260187	-112.843972	-42.432341	22.290684	-42.432341	22.290684	-0.260055	-112.823204
7.800000	-0.263863	-113.477149	-42.302383	20.883182	-42.302383	20.883182	-0.263729	-113.456171
7.850000	-0.267606	-114.109356	-42.173236	19.479903	-42.173236	19.479903	-0.267473	-114.088170
7.900000	-0.271373	-114.741239	-42.045617	18.078030	-42.045617	18.078030	-0.271240	-114.719846
7.950000	-0.275202	-115.372340	-41.918901	16.680103	-41.918901	16.680103	-0.275069	-115.350742
8.000000	-0.279061	-116.003049	-41.793541	15.284147	-41.793541	15.284147	-0.278929	-115.981248
8.050000	-0.282975	-116.633148	-41.669164	13.891810	-41.669164	13.891810	-0.282846	-116.611145
8.100000	-0.286928	-117.262811	-41.545980	12.502057	-41.545980	12.502057	-0.286802	-117.240606
8.150000	-0.290929	-117.892017	-41.423852	11.115544	-41.423852	11.115544	-0.290806	-117.869610
8.200000	-0.294977	-118.520766	-41.302758	9.732272	-41.302758	9.732272	-0.294859	-118.498158
8.250000	-0.299066	-119.149193	-41.182784	8.351814	-41.182784	8.351814	-0.298953	-119.126381
8.300000	-0.303210	-119.777167	-41.063692	6.975294	-41.063692	6.975294	-0.303105	-119.754151
8.350000	-0.307388	-120.404932	-40.945780	5.601112	-40.945780	5.601112	-0.307290	-120.381709
8.400000	-0.311631	-121.032278	-40.828598	4.231604	-40.828598	4.231604	-0.311541	-121.008844
8.450000	-0.315900	-121.659504	-40.712653	2.863911	-40.712653	2.863911	-0.315820	-121.635857
8.500000	-0.320243	-122.286374	-40.597284	1.501660	-40.597284	1.501660	-0.320173	-122.262505
8.550000	-0.324605	-122.913190	-40.483213	0.140657	-40.483213	0.140657	-0.324546	-122.889098
8.600000	-0.329051	-123.539743	-40.369558	-1.214108	-40.369558	-1.214108	-0.329003	-123.515414
8.650000	-0.333507	-124.166284	-40.257263	-2.568232	-40.257263	-2.568232	-0.333472	-124.141715
8.700000	-0.338057	-124.792688	-40.145220	-3.915303	-40.145220	-3.915303	-0.338036	-124.767861
8.750000	-0.342610	-125.419092	-40.034605	-5.262374	-40.034605	-5.262374	-0.342602	-125.394006
8.800000	-0.347268	-126.045522	-39.924068	-6.601565	-39.924068	-6.601565	-0.347275	-126.020148
8.850000	-0.351929	-126.671953	-39.814920	-7.940756	-39.814920	-7.940756	-0.351950	-126.646291
8.900000	-0.356689	-127.298577	-39.705892	-9.272577	-39.705892	-9.272577	-0.356726	-127.272592
8.950000	-0.361461	-127.925219	-39.598106	-10.603727	-39.598106	-10.603727	-0.361512	-127.898908
9.000000	-0.366326	-128.552197	-39.490483	-11.928067	-39.490483	-11.928067	-0.366393	-128.525521
9.050000	-0.371213	-129.179243	-39.383948	-13.251044	-39.383948	-13.251044	-0.371294	-129.152193
9.100000	-0.376188	-129.806744	-39.277622	-14.567815	-39.277622	-14.567815	-0.376282	-129.779277
9.150000	-0.381193	-130.434397	-39.172226	-15.882517	-39.172226	-15.882517	-0.381301	-130.406498
9.200000	-0.386281	-131.062596	-39.067090	-17.191654	-39.067090	-17.191654	-0.386400	-131.034217
9.250000	-0.391411	-131.691069	-38.962716	-18.498010	-38.962716	-18.498010	-0.391540	-131.662187
9.300000	-0.396616	-132.320149	-38.858662	-19.799476	-38.858662	-19.799476	-0.396752	-132.290714
9.350000	-0.401875	-132.949665	-38.755191	-21.097450	-38.755191	-21.097450	-0.402018	-132.919641
9.400000	-0.407203	-133.579819	-38.652110	-22.391234	-38.652110	-22.391234	-0.407347	-133.549156
9.450000	-0.412599	-134.210612	-38.549421	-23.680828	-38.549421	-23.680828	-0.412742	-134.179260
9.500000	-0.418055	-134.842039	-38.447204	-24.966947	-38.447204	-24.966947	-0.418193	-134.809949
9.550000	-0.423594	-135.474356	-38.345170	-26.248200	-38.345170	-26.248200	-0.423721	-135.441458
9.600000	-0.429185	-136.107267	-38.243707	-27.526700	-38.243707	-27.526700	-0.429297	-136.073515
9.650000	-0.434876	-136.741366	-38.142202	-28.799694	-38.142202	-28.799694	-0.434965	-136.706669
9.700000	-0.440610	-137.375978	-38.041383	-30.070653	-38.041383	-30.070653	-0.440671	-137.340297
9.750000	-0.446462	-138.012132	-37.940277	-31.335509	-37.940277	-31.335509	-0.446484	-137.975348
9.800000	-0.452346	-138.648676	-37.839991	-32.599037	-37.839991	-32.599037	-0.452325	-138.610758
9.850000	-0.458370	-139.287169	-37.739152	-33.855923	-37.739152	-33.855923	-0.458290	-139.247968
9.900000	-0.464414	-139.925883	-37.639289	-35.112163	-37.639289	-35.112163	-0.464271	-139.885382
9.950000	-0.470623	-140.567018	-37.538582	-36.361292	-37.538582	-36.361292	-0.470394	-140.525027
10.000000	-0.476836	-141.208152	-37.439030	-37.610421	-37.439030	-37.610421	-0.476521	-141.164673
