! freq	dB(S11)	phase(S11)	dB(S12)	phase(S12)	
!     	dB(S21)	phase(S21)	dB(S22)	phase(S22)	
!S-par simulation data
#  GHz  S  DB  R 50
0.000000	-0.000000	0.000000	-397.630967	0.000000	-397.630967	0.000000	-0.000000	0.000000
0.050000	-0.000110	-0.866734	-114.231109	88.636447	-114.231109	88.636447	-0.000115	-0.905443
0.100000	-0.000437	-1.733197	-108.301824	87.372563	-108.301824	87.372563	-0.000455	-1.810604
0.150000	-0.000966	-2.599141	-104.919662	86.265081	-104.919662	86.265081	-0.001007	-2.715223
0.200000	-0.001676	-3.464361	-102.597825	85.322403	-102.597825	85.322403	-0.001748	-3.619083
0.250000	-0.002552	-4.328626	-100.875716	84.539774	-100.875716	84.539774	-0.002664	-4.521942
0.300000	-0.003554	-5.191895	-99.535097	83.885956	-99.535097	83.885956	-0.003711	-5.423754
0.350000	-0.004662	-6.054049	-98.472571	83.359123	-98.472571	83.359123	-0.004870	-6.324393
0.400000	-0.005849	-6.915043	-97.625703	82.962271	-97.625703	82.962271	-0.006113	-7.223806
0.450000	-0.007094	-7.774865	-96.956315	82.710394	-96.956315	82.710394	-0.007418	-8.121977
0.500000	-0.008378	-8.633525	-96.440329	82.630718	-96.440329	82.630718	-0.008763	-9.018912
0.550000	-0.009682	-9.491048	-96.062520	82.763976	-96.062520	82.763976	-0.010132	-9.914635
0.600000	-0.010996	-10.347469	-95.813588	83.167405	-95.813588	83.167405	-0.011511	-10.809180
0.650000	-0.012309	-11.202826	-95.688309	83.920067	-95.688309	83.920067	-0.012890	-11.702583
0.700000	-0.013614	-12.057158	-95.684076	85.131299	-95.684076	85.131299	-0.014260	-12.594883
0.750000	-0.014906	-12.910498	-95.799216	86.953365	-95.799216	86.953365	-0.015617	-13.486113
0.800000	-0.016182	-13.762876	-96.030236	89.599126	-96.030236	89.599126	-0.016957	-14.376303
0.850000	-0.017440	-14.614315	-96.366545	93.363155	-96.366545	93.363155	-0.018279	-15.265476
0.900000	-0.018681	-15.464834	-96.780195	98.635505	-96.780195	98.635505	-0.019582	-16.153650
0.950000	-0.019903	-16.314443	-97.207829	105.871736	-97.207829	105.871736	-0.020866	-17.040835
1.000000	-0.021109	-17.163149	-97.527390	115.438590	-97.527390	115.438590	-0.022131	-17.927037
1.050000	-0.022298	-18.010952	-97.553343	127.254431	-97.553343	127.254431	-0.023378	-18.812256
1.100000	-0.023472	-18.857850	-97.100986	140.366832	-97.100986	140.366832	-0.024610	-19.696488
1.150000	-0.024632	-19.703834	-96.117694	153.061724	-96.117694	153.061724	-0.025826	-20.579725
1.200000	-0.025780	-20.548896	-94.732795	163.830894	-94.732795	163.830894	-0.027029	-21.461954
1.250000	-0.026917	-21.393023	-93.146654	172.138429	-93.146654	172.138429	-0.028221	-22.343162
1.300000	-0.028044	-22.236156	-91.503088	178.136970	-91.503088	178.136970	-0.029401	-23.223286
1.350000	-0.029163	-23.078321	-89.903425	-177.581818	-89.903425	-177.581818	-0.030572	-24.102351
1.400000	-0.030274	-23.919499	-88.381822	-174.584030	-88.381822	-174.584030	-0.031734	-24.980339
1.450000	-0.031379	-24.759671	-86.948090	-172.536313	-86.948090	-172.536313	-0.032890	-25.857228
1.500000	-0.032478	-25.598818	-85.600944	-171.196079	-85.600944	-171.196079	-0.034040	-26.732997
1.550000	-0.033573	-26.436919	-84.334630	-170.389481	-84.334630	-170.389481	-0.035184	-27.607624
1.600000	-0.034663	-27.273954	-83.142011	-169.991648	-83.142011	-169.991648	-0.036325	-28.481086
1.650000	-0.035751	-28.109901	-82.015926	-169.911936	-82.015926	-169.911936	-0.037462	-29.353361
1.700000	-0.036836	-28.944741	-80.949738	-170.083620	-80.949738	-170.083620	-0.038596	-30.224425
1.750000	-0.037919	-29.778453	-79.937504	-170.456825	-79.937504	-170.456825	-0.039727	-31.094258
1.800000	-0.039001	-30.611015	-78.973989	-170.993703	-78.973989	-170.993703	-0.040858	-31.962836
1.850000	-0.040082	-31.442408	-78.054619	-171.665112	-78.054619	-171.665112	-0.041987	-32.830137
1.900000	-0.041163	-32.272611	-77.175396	-172.448299	-77.175396	-172.448299	-0.043115	-33.696140
1.950000	-0.042244	-33.101605	-76.332829	-173.325277	-76.332829	-173.325277	-0.044244	-34.560824
2.000000	-0.043325	-33.929369	-75.523857	-174.281652	-75.523857	-174.281652	-0.045373	-35.424166
2.050000	-0.044407	-34.755885	-74.745792	-175.305783	-74.745792	-175.305783	-0.046502	-36.286147
2.100000	-0.045490	-35.581133	-73.996260	-176.388157	-73.996260	-176.388157	-0.047633	-37.146746
2.150000	-0.046575	-36.405095	-73.273156	-177.520928	-73.273156	-177.520928	-0.048766	-38.005943
2.200000	-0.047661	-37.227753	-72.574611	-178.697572	-72.574611	-178.697572	-0.049900	-38.863720
2.250000	-0.048750	-38.049089	-71.898951	-179.912617	-71.898951	-179.912617	-0.051037	-39.720058
2.300000	-0.049842	-38.869086	-71.244678	178.838560	-71.244678	178.838560	-0.052177	-40.574938
2.350000	-0.050937	-39.687727	-70.610442	177.559888	-70.610442	177.559888	-0.053319	-41.428343
2.400000	-0.052036	-40.504996	-69.995023	176.254732	-69.995023	176.254732	-0.054466	-42.280255
2.450000	-0.053138	-41.320876	-69.397317	174.925989	-69.397317	174.925989	-0.055616	-43.130658
2.500000	-0.054244	-42.135352	-68.816317	173.576167	-68.816317	173.576167	-0.056771	-43.979536
2.550000	-0.055355	-42.948346	-68.250200	172.206717	-68.250200	172.206717	-0.057930	-44.826804
2.600000	-0.056471	-43.759905	-67.699127	170.820429	-67.699127	170.820429	-0.059095	-45.672516
2.650000	-0.057592	-44.570014	-67.162317	169.418954	-67.162317	169.418954	-0.060265	-46.516655
2.700000	-0.058719	-45.378661	-66.639054	168.003749	-66.639054	168.003749	-0.061441	-47.359209
2.750000	-0.059852	-46.185831	-66.128677	166.576107	-66.128677	166.576107	-0.062623	-48.200163
2.800000	-0.060992	-46.991512	-65.630574	165.137179	-65.630574	165.137179	-0.063812	-49.039506
2.850000	-0.062138	-47.795692	-65.144181	163.687995	-65.144181	163.687995	-0.065009	-49.877224
2.900000	-0.063291	-48.598358	-64.668973	162.229475	-64.668973	162.229475	-0.066213	-50.713306
2.950000	-0.064452	-49.399500	-64.204461	160.762450	-64.204461	160.762450	-0.067424	-51.547740
3.000000	-0.065622	-50.199106	-63.750191	159.287667	-63.750191	159.287667	-0.068645	-52.380517
3.050000	-0.066799	-50.997166	-63.305738	157.805802	-63.305738	157.805802	-0.069874	-53.211625
3.100000	-0.067986	-51.793669	-62.870704	156.317467	-62.870704	156.317467	-0.071112	-54.041056
3.150000	-0.069182	-52.588607	-62.444719	154.823220	-62.444719	154.823220	-0.072360	-54.868801
3.200000	-0.070387	-53.381971	-62.027432	153.323568	-62.027432	153.323568	-0.073619	-55.694850
3.250000	-0.071603	-54.173751	-61.618516	151.818976	-61.618516	151.818976	-0.074887	-56.519197
3.300000	-0.072829	-54.963939	-61.217663	150.309868	-61.217663	150.309868	-0.076167	-57.341833
3.350000	-0.074066	-55.752529	-60.824580	148.796632	-60.824580	148.796632	-0.077459	-58.162752
3.400000	-0.075314	-56.539512	-60.438994	147.279628	-60.438994	147.279628	-0.078762	-58.981948
3.450000	-0.076575	-57.324883	-60.060646	145.759183	-60.060646	145.759183	-0.080078	-59.799415
3.500000	-0.077847	-58.108634	-59.689289	144.235601	-59.689289	144.235601	-0.081406	-60.615148
3.550000	-0.079132	-58.890760	-59.324691	142.709165	-59.324691	142.709165	-0.082748	-61.429143
3.600000	-0.080430	-59.671257	-58.966633	141.180132	-58.966633	141.180132	-0.084104	-62.241394
3.650000	-0.081742	-60.450119	-58.614904	139.648744	-58.614904	139.648744	-0.085474	-63.051900
3.700000	-0.083068	-61.227341	-58.269307	138.115225	-58.269307	138.115225	-0.086858	-63.860656
3.750000	-0.084408	-62.002920	-57.929651	136.579782	-57.929651	136.579782	-0.088258	-64.667661
3.800000	-0.085763	-62.776782	-57.595452	135.042543	-57.595452	135.042543	-0.089674	-65.472836
3.850000	-0.087134	-63.548993	-57.266865	133.503769	-57.266865	133.503769	-0.091106	-66.276257
3.900000	-0.088521	-64.319553	-56.943725	131.963627	-56.943725	131.963627	-0.092554	-67.077922
3.950000	-0.089923	-65.088460	-56.625875	130.422273	-56.625875	130.422273	-0.094020	-67.877831
4.000000	-0.091343	-65.855710	-56.313164	128.879854	-56.313164	128.879854	-0.095503	-68.675985
4.050000	-0.092779	-66.621305	-56.005449	127.336505	-56.005449	127.336505	-0.097004	-69.472385
4.100000	-0.094233	-67.385243	-55.702593	125.792357	-55.702593	125.792357	-0.098523	-70.267032
4.150000	-0.095704	-68.147525	-55.404462	124.247528	-55.404462	124.247528	-0.100061	-71.059928
4.200000	-0.097201	-68.907574	-55.109093	122.701986	-55.109093	122.701986	-0.101625	-71.850468
4.250000	-0.098707	-69.666759	-54.820769	121.156187	-54.820769	121.156187	-0.103200	-72.640097
4.300000	-0.100237	-70.423931	-54.535690	119.609997	-54.535690	119.609997	-0.104799	-73.427607
4.350000	-0.101784	-71.179666	-54.255509	118.063528	-54.255509	118.063528	-0.106416	-74.213604
4.400000	-0.103352	-71.933680	-53.979262	116.516920	-53.979262	116.516920	-0.108056	-74.997794
4.450000	-0.104941	-72.685973	-53.706855	114.970174	-53.706855	114.970174	-0.109717	-75.780177
4.500000	-0.106549	-73.436838	-53.438972	113.423457	-53.438972	113.423457	-0.111398	-76.561066
4.550000	-0.108183	-74.185703	-53.173997	111.876782	-53.173997	111.876782	-0.113106	-77.339860
4.600000	-0.109831	-74.933431	-52.914049	110.330233	-52.914049	110.330233	-0.114831	-78.117468
4.650000	-0.111511	-75.678886	-52.656185	108.783939	-52.656185	108.783939	-0.116587	-78.892701
4.700000	-0.113203	-76.423493	-52.403776	107.237808	-52.403776	107.237808	-0.118357	-79.667053
4.750000	-0.114930	-77.165558	-52.152724	105.692172	-52.152724	105.692172	-0.120164	-80.438759
4.800000	-0.116666	-77.907063	-51.907488	104.146687	-51.907488	104.146687	-0.121979	-81.209882
4.850000	-0.118443	-78.645764	-51.662969	102.601958	-51.662969	102.601958	-0.123839	-81.978097
4.900000	-0.120225	-79.384187	-51.424565	101.057324	-51.424565	101.057324	-0.125703	-82.746024
4.950000	-0.122055	-80.119552	-51.186317	99.513728	-51.186317	99.513728	-0.127616	-83.510789
5.000000	-0.123884	-80.854917	-50.954430	97.970131	-50.954430	97.970131	-0.129530	-84.275553
5.050000	-0.125767	-81.586979	-50.722207	96.427869	-50.722207	96.427869	-0.131500	-85.036913
5.100000	-0.127650	-82.319041	-50.496032	94.885608	-50.496032	94.885608	-0.133470	-85.798273
5.150000	-0.129583	-83.048107	-50.270114	93.344738	-50.270114	93.344738	-0.135493	-86.556557
5.200000	-0.131522	-83.776902	-50.049439	91.803996	-50.049439	91.803996	-0.137522	-87.314561
5.250000	-0.133508	-84.503006	-49.829548	90.264658	-49.829548	90.264658	-0.139600	-88.069813
5.300000	-0.135504	-85.228572	-49.614172	88.725601	-49.614172	88.725601	-0.141688	-88.824515
5.350000	-0.137544	-85.951748	-49.400046	87.187923	-49.400046	87.187923	-0.143823	-89.576782
5.400000	-0.139599	-86.674129	-49.189783	85.650705	-49.189783	85.650705	-0.145973	-90.328238
5.450000	-0.141694	-87.394416	-48.981177	84.114805	-48.981177	84.114805	-0.148166	-91.077571
5.500000	-0.143810	-88.113657	-48.775847	82.579564	-48.775847	82.579564	-0.150380	-91.825841
5.550000	-0.145963	-88.831095	-48.572533	81.045551	-48.572533	81.045551	-0.152632	-92.572291
5.600000	-0.148142	-89.547245	-48.371968	79.512415	-48.371968	79.512415	-0.154912	-93.317441
5.650000	-0.150353	-90.261876	-48.173732	77.980390	-48.173732	77.980390	-0.157225	-94.061063
5.700000	-0.152596	-90.974988	-47.977771	76.449476	-47.977771	76.449476	-0.159573	-94.803159
5.750000	-0.154867	-91.686857	-47.784410	74.919532	-47.784410	74.919532	-0.161949	-95.544012
5.800000	-0.157177	-92.396986	-47.592902	73.390946	-47.592902	73.390946	-0.164366	-96.283125
5.850000	-0.159510	-93.106140	-47.404228	71.863170	-47.404228	71.863170	-0.166806	-97.021269
5.900000	-0.161888	-93.813344	-47.217028	70.337011	-47.217028	70.337011	-0.169294	-97.757473
5.950000	-0.164284	-94.519832	-47.032862	68.811481	-47.032862	68.811481	-0.171801	-98.492970
6.000000	-0.166732	-95.224173	-46.849832	67.287839	-46.849832	67.287839	-0.174362	-99.226344
6.050000	-0.169192	-95.928047	-46.670006	65.764631	-46.670006	65.764631	-0.176936	-99.959259
6.100000	-0.171712	-96.629588	-46.491016	64.243588	-46.491016	64.243588	-0.179571	-100.689882
6.150000	-0.174239	-97.330901	-46.315370	62.722769	-46.315370	62.722769	-0.182214	-101.420283
6.200000	-0.176832	-98.029709	-46.140296	61.204401	-46.140296	61.204401	-0.184926	-102.148240
6.250000	-0.179426	-98.728516	-45.968680	59.686033	-45.968680	59.686033	-0.187640	-102.876196
6.300000	-0.182095	-99.424660	-45.797402	58.170409	-45.797402	58.170409	-0.190430	-103.601573
6.350000	-0.184764	-100.120804	-45.629436	56.654784	-45.629436	56.654784	-0.193222	-104.326949
6.400000	-0.187504	-100.814572	-45.462079	55.141731	-45.462079	55.141731	-0.196086	-105.050043
6.450000	-0.190250	-101.508125	-45.297656	53.628911	-45.297656	53.628911	-0.198958	-105.772929
6.500000	-0.193062	-102.199579	-45.134083	52.118475	-45.134083	52.118475	-0.201897	-106.493817
6.550000	-0.195887	-102.890613	-44.973101	50.608516	-44.973101	50.608516	-0.204851	-107.214306
6.600000	-0.198772	-103.579817	-44.813183	49.100739	-44.813183	49.100739	-0.207867	-107.933067
6.650000	-0.201677	-104.268411	-44.655546	47.593690	-44.655546	47.593690	-0.210904	-108.651252
6.700000	-0.204637	-104.955431	-44.499159	46.088609	-44.499159	46.088609	-0.213997	-109.367968
6.750000	-0.207625	-105.641663	-44.344772	44.584512	-44.344772	44.584512	-0.217120	-110.083949
6.800000	-0.210662	-106.326566	-44.191799	43.082159	-44.191799	43.082159	-0.220293	-110.798702
6.850000	-0.213733	-107.010519	-44.040573	41.581052	-44.040573	41.581052	-0.223502	-111.512579
6.900000	-0.216847	-107.693373	-43.890903	40.081454	-43.890903	40.081454	-0.226756	-112.225455
6.950000	-0.220004	-108.375130	-43.742752	38.583367	-43.742752	38.583367	-0.230054	-112.937331
7.000000	-0.223197	-109.056008	-43.596279	37.086548	-43.596279	37.086548	-0.233390	-113.648417
7.050000	-0.226441	-109.735655	-43.451122	35.591504	-43.451122	35.591504	-0.236778	-114.358397
7.100000	-0.229715	-110.414628	-43.307744	34.097481	-43.307744	34.097481	-0.240197	-115.067783
7.150000	-0.233047	-111.092254	-43.165502	32.605499	-43.165502	32.605499	-0.243677	-115.775977
7.200000	-0.236402	-111.769397	-43.025125	31.114286	-43.025125	31.114286	-0.247181	-116.483752
7.250000	-0.239825	-112.445092	-42.885721	29.625377	-42.885721	29.625377	-0.250754	-117.190270
7.300000	-0.243263	-113.120480	-42.748252	28.136980	-42.748252	28.136980	-0.254344	-117.896528
7.350000	-0.246777	-113.794337	-42.611615	26.651149	-42.611615	26.651149	-0.258012	-118.601484
7.400000	-0.250300	-114.468048	-42.476968	25.165574	-42.476968	25.165574	-0.261689	-119.306319
7.450000	-0.253907	-115.140162	-42.343027	23.682817	-42.343027	23.682817	-0.265453	-120.009828
7.500000	-0.257515	-115.812275	-42.211119	22.200061	-42.211119	22.200061	-0.269219	-120.713337
7.550000	-0.261217	-116.482743	-42.079808	20.720371	-42.079808	20.720371	-0.273081	-121.415519
7.600000	-0.264919	-117.153210	-41.950452	19.240681	-41.950452	19.240681	-0.276945	-122.117700
7.650000	-0.268709	-117.822258	-41.821815	17.763787	-41.821815	17.763787	-0.280898	-122.818774
7.700000	-0.272508	-118.491178	-41.694950	16.287147	-41.694950	16.287147	-0.284861	-123.519747
7.750000	-0.276386	-119.158892	-41.568913	14.813031	-41.568913	14.813031	-0.288907	-124.219817
7.800000	-0.280283	-119.826366	-41.444481	13.339419	-41.444481	13.339419	-0.292970	-124.919706
7.850000	-0.284252	-120.492832	-41.320971	11.868055	-41.320971	11.868055	-0.297109	-125.618876
7.900000	-0.288246	-121.158962	-41.198917	10.397440	-41.198917	10.397440	-0.301274	-126.317806
7.950000	-0.292307	-121.824266	-41.077866	8.928800	-41.077866	8.928800	-0.305508	-127.016182
8.000000	-0.296401	-122.489158	-40.958138	7.461146	-40.958138	7.461146	-0.309776	-127.714281
8.050000	-0.300554	-123.153390	-40.839481	5.995194	-40.839481	5.995194	-0.314105	-128.411972
8.100000	-0.304749	-123.817151	-40.722029	4.530457	-40.722029	4.530457	-0.318478	-129.109370
8.150000	-0.308996	-124.480401	-40.605704	3.067153	-40.605704	3.067153	-0.322903	-129.806485
8.200000	-0.313293	-125.143140	-40.490482	1.605283	-40.490482	1.605283	-0.327382	-130.503316
8.250000	-0.317634	-125.805499	-40.376431	0.144583	-40.376431	0.144583	-0.331905	-131.199966
8.300000	-0.322035	-126.467328	-40.263394	-1.314479	-40.263394	-1.314479	-0.336489	-131.896365
8.350000	-0.326471	-127.128890	-40.151562	-2.772626	-40.151562	-2.772626	-0.341111	-132.592665
8.400000	-0.330975	-127.789922	-40.040667	-4.228943	-40.040667	-4.228943	-0.345803	-133.288769
8.450000	-0.335507	-128.450782	-39.931004	-5.684592	-39.931004	-5.684592	-0.350523	-133.984834
8.500000	-0.340117	-129.111132	-39.822213	-7.138235	-39.822213	-7.138235	-0.355324	-134.680783
8.550000	-0.344746	-129.771387	-39.714668	-8.591444	-39.714668	-8.591444	-0.360145	-135.376730
8.600000	-0.349462	-130.431172	-39.607945	-10.042489	-39.607945	-10.042489	-0.365054	-136.072668
8.650000	-0.354189	-131.090920	-39.502473	-11.493323	-39.502473	-11.493323	-0.369976	-136.768616
8.700000	-0.359011	-131.750260	-39.397784	-12.941852	-39.397784	-12.941852	-0.374996	-137.464688
8.750000	-0.363836	-132.409600	-39.294343	-14.390380	-39.294343	-14.390380	-0.380018	-138.160759
8.800000	-0.368766	-133.068618	-39.191659	-15.836478	-39.191659	-15.836478	-0.385149	-138.857112
8.850000	-0.373698	-133.727635	-39.090174	-17.282576	-39.090174	-17.282576	-0.390282	-139.553464
8.900000	-0.378727	-134.386470	-38.989501	-18.726532	-38.989501	-18.726532	-0.395515	-140.250213
8.950000	-0.383768	-135.045288	-38.889948	-20.170292	-38.889948	-20.170292	-0.400760	-140.946998
9.000000	-0.388897	-135.704046	-38.791249	-21.612183	-38.791249	-21.612183	-0.406096	-141.644271
9.050000	-0.394046	-136.362791	-38.693605	-23.053700	-38.693605	-23.053700	-0.411453	-142.341642
9.100000	-0.399274	-137.021579	-38.596849	-24.493609	-38.596849	-24.493609	-0.416892	-143.039568
9.150000	-0.404532	-137.680380	-38.501094	-25.932982	-38.501094	-25.932982	-0.422361	-143.737680
9.200000	-0.409862	-138.339305	-38.406252	-27.370992	-38.406252	-27.370992	-0.427903	-144.436392
9.250000	-0.415229	-138.998293	-38.312368	-28.808320	-38.312368	-28.808320	-0.433484	-145.135404
9.300000	-0.420658	-139.657467	-38.219413	-30.244516	-38.219413	-30.244516	-0.439130	-145.835036
9.350000	-0.426134	-140.316774	-38.127389	-31.679903	-38.127389	-31.679903	-0.444824	-146.535110
9.400000	-0.431665	-140.976309	-38.036297	-33.114370	-38.036297	-33.114370	-0.450573	-147.235797
9.450000	-0.437250	-141.636071	-37.946121	-34.547918	-37.946121	-34.547918	-0.456379	-147.937098
9.500000	-0.442882	-142.296081	-37.856873	-35.980741	-37.856873	-35.980741	-0.462232	-148.638979
9.550000	-0.448576	-142.956436	-37.768538	-37.412551	-37.768538	-37.412551	-0.468150	-149.341674
9.600000	-0.454307	-143.617036	-37.681117	-38.843815	-37.681117	-38.843815	-0.474106	-150.044890
9.650000	-0.460110	-144.278126	-37.594618	-40.273988	-37.594618	-40.273988	-0.480136	-150.749149
9.700000	-0.465942	-144.939434	-37.509009	-41.703775	-37.509009	-41.703775	-0.486195	-151.453843
9.750000	-0.471853	-145.601400	-37.424346	-43.132406	-37.424346	-43.132406	-0.492336	-152.159841
9.800000	-0.477785	-146.263537	-37.340537	-44.560796	-37.340537	-44.560796	-0.498498	-152.866157
9.850000	-0.483804	-146.926526	-37.257713	-45.987979	-37.257713	-45.987979	-0.504748	-153.574070
9.900000	-0.489835	-147.589613	-37.175696	-47.415049	-37.175696	-47.415049	-0.511012	-154.282157
9.950000	-0.495960	-148.253773	-37.094717	-48.840870	-37.094717	-48.840870	-0.517373	-154.992165
10.000000	-0.502090	-148.917934	-37.014486	-50.266691	-37.014486	-50.266691	-0.523738	-155.702173
