! freq	dB(S11)	phase(S11)	dB(S12)	phase(S12)	
!     	dB(S21)	phase(S21)	dB(S22)	phase(S22)	
!S-par simulation data
#  GHz  S  DB  R 50
0.000000	-82.477882	0.000000	-0.000653	0.000000	-0.000653	0.000000	-82.477882	0.000000
0.050000	-36.033746	-92.984615	-0.007449	-3.430721	-0.007449	-3.430721	-36.033793	-92.899423
0.100000	-30.081571	-96.613438	-0.017082	-6.811796	-0.017082	-6.811796	-30.081204	-96.436837
0.150000	-26.631984	-100.226908	-0.026983	-10.179856	-0.026983	-10.179856	-26.631646	-99.960880
0.200000	-24.215578	-103.796017	-0.038346	-13.541192	-0.038346	-13.541192	-24.215264	-103.442401
0.250000	-22.370244	-107.316107	-0.051302	-16.895624	-0.051302	-16.895624	-22.369914	-106.875167
0.300000	-20.893932	-110.791619	-0.065749	-20.242371	-0.065749	-20.242371	-20.893594	-110.262944
0.350000	-19.677210	-114.231793	-0.081406	-23.581558	-0.081406	-23.581558	-19.676900	-113.614755
0.400000	-18.654586	-117.644574	-0.097989	-26.913663	-0.097989	-26.913663	-18.654339	-116.938540
0.450000	-17.786705	-121.035365	-0.115240	-30.239023	-0.115240	-30.239023	-17.786551	-120.239728
0.500000	-17.042926	-124.410122	-0.132842	-33.558761	-0.132842	-33.558761	-17.042884	-123.524363
0.550000	-16.405730	-127.772153	-0.150503	-36.873662	-0.150503	-36.873662	-16.405809	-126.795764
0.600000	-15.859640	-131.125118	-0.167907	-40.185137	-0.167907	-40.185137	-15.859845	-130.057613
0.650000	-15.394698	-134.471833	-0.184737	-43.494725	-0.184737	-43.494725	-15.395028	-133.312699
0.700000	-15.003198	-137.815041	-0.200674	-46.804338	-0.200674	-46.804338	-15.003654	-136.563718
0.750000	-14.679665	-141.157441	-0.215402	-50.116249	-0.215402	-50.116249	-14.680248	-139.813298
0.800000	-14.420335	-144.501814	-0.228619	-53.433118	-0.228619	-53.433118	-14.421047	-143.064119
0.850000	-14.223184	-147.851130	-0.240026	-56.758078	-0.240026	-56.758078	-14.224033	-146.319020
0.900000	-14.087569	-151.208615	-0.249350	-60.094772	-0.249350	-60.094772	-14.088565	-149.581061
0.950000	-14.013306	-154.577549	-0.256381	-63.447100	-0.256381	-63.447100	-14.014464	-152.853329
1.000000	-14.002115	-157.961435	-0.260934	-66.819501	-0.260934	-66.819501	-14.003457	-156.139075
1.050000	-14.057245	-161.363897	-0.262877	-70.216890	-0.262877	-70.216890	-14.058798	-159.441596
1.100000	-14.183753	-164.788571	-0.262139	-73.644669	-0.262139	-73.644669	-14.185553	-162.764102
1.150000	-14.388962	-168.238919	-0.258722	-77.108729	-0.258722	-77.108729	-14.391054	-166.109479
1.200000	-14.683168	-171.717913	-0.252714	-80.615460	-0.252714	-80.615460	-14.685611	-169.479908
1.250000	-15.080762	-175.227506	-0.244306	-84.171740	-0.244306	-84.171740	-15.083629	-172.876202
1.300000	-15.603660	-178.768067	-0.233785	-87.785866	-0.233785	-87.785866	-15.607049	-176.296901
1.350000	-16.279975	177.664891	-0.221643	-91.464941	-0.221643	-91.464941	-16.284012	-179.734870
1.400000	-17.153647	174.083054	-0.208500	-95.217171	-0.208500	-95.217171	-17.158499	176.826137
1.450000	-18.293853	170.514080	-0.195163	-99.051064	-0.195163	-99.051064	-18.299741	173.422075
1.500000	-19.818082	167.022738	-0.182656	-102.975317	-0.182656	-102.975317	-19.825276	170.134570
1.550000	-21.947511	163.769728	-0.172213	-106.997725	-0.172213	-106.997725	-21.956187	167.163023
1.600000	-25.201321	161.298825	-0.165441	-111.128972	-0.165441	-111.128972	-25.210081	165.178349
1.650000	-31.285054	162.576260	-0.164152	-115.375839	-0.164152	-115.375839	-31.266828	167.810581
1.700000	-43.059929	-87.031774	-0.170561	-119.746139	-0.170561	-119.746139	-41.890727	-87.552828
1.750000	-28.318448	-45.159721	-0.187152	-124.245116	-0.187152	-124.245116	-28.228126	-43.898229
1.800000	-22.487580	-45.991825	-0.216768	-128.876714	-0.216768	-128.876714	-22.448985	-43.831310
1.850000	-18.799692	-49.414390	-0.262429	-133.641313	-0.262429	-133.641313	-18.775416	-46.854185
1.900000	-16.063276	-53.651346	-0.327777	-138.538817	-0.327777	-138.538817	-16.045429	-50.837128
1.950000	-13.878681	-58.290588	-0.415998	-143.561345	-0.415998	-143.561345	-13.864434	-55.282378
2.000000	-12.060462	-63.188269	-0.530748	-148.699640	-0.530748	-148.699640	-12.048498	-60.016956
2.050000	-10.509298	-68.270640	-0.675656	-153.939804	-0.675656	-153.939804	-10.498902	-64.954001
2.100000	-9.166579	-73.486870	-0.853750	-159.262128	-0.853750	-159.262128	-9.157319	-70.035816
2.150000	-7.994290	-78.796554	-1.067688	-164.643273	-1.067688	-164.643273	-7.985885	-75.218190
2.200000	-6.966296	-84.162709	-1.319482	-170.056536	-1.319482	-170.056536	-6.958551	-80.461833
2.250000	-6.063476	-89.549885	-1.610360	-175.473012	-1.610360	-175.473012	-6.056252	-85.729807
2.300000	-5.270994	-94.923971	-1.940732	179.137061	-1.940732	179.137061	-5.264186	-90.987002
2.350000	-4.576963	-100.252198	-2.310298	173.803496	-2.310298	173.803496	-4.570493	-96.199953
2.400000	-3.969804	-105.507367	-2.717280	168.551104	-2.717280	168.551104	-3.963611	-101.340923
2.450000	-3.441116	-110.662096	-3.160302	163.405864	-3.160302	163.405864	-3.435152	-106.382173
2.500000	-2.981461	-115.697764	-3.636772	158.385034	-3.636772	158.385034	-2.975689	-111.304775
2.550000	-2.583383	-120.596991	-4.144166	153.505072	-4.144166	153.505072	-2.577773	-116.091123
2.600000	-2.239376	-125.349259	-4.679771	148.775678	-4.679771	148.775678	-2.233903	-120.730509
2.650000	-1.942662	-129.948255	-5.241002	144.202503	-5.241002	144.202503	-1.937308	-125.216467
2.700000	-1.688269	-134.385514	-5.824796	139.793538	-5.824796	139.793538	-1.683018	-129.540393
2.750000	-1.468026	-138.675934	-6.430879	135.533243	-6.430879	135.533243	-1.462865	-133.717111
2.800000	-1.280853	-142.801380	-7.054408	131.439598	-7.054408	131.439598	-1.275769	-137.728333
2.850000	-1.118382	-146.791889	-7.698488	127.482006	-7.698488	127.482006	-1.113366	-141.604102
2.900000	-0.980625	-150.629643	-8.357426	123.678197	-8.357426	123.678197	-0.975668	-145.326437
2.950000	-0.861021	-154.345969	-9.036680	119.996463	-9.036680	119.996463	-0.856116	-148.926716
3.000000	-0.759980	-157.924031	-9.729558	116.453551	-9.729558	116.453551	-0.755118	-152.387916
3.050000	-0.672512	-161.393474	-10.443263	113.019565	-10.443263	113.019565	-0.667688	-155.739763
3.100000	-0.598066	-164.749460	-11.174575	109.699218	-11.174575	109.699218	-0.593271	-158.977286
3.150000	-0.534233	-168.006363	-11.927609	106.477988	-11.927609	106.477988	-0.529462	-162.114872
3.200000	-0.479523	-171.172184	-12.705011	103.347737	-12.705011	103.347737	-0.474770	-165.160485
3.250000	-0.433133	-174.249557	-13.507286	100.305676	-13.507286	100.305676	-0.428391	-168.116676
3.300000	-0.393152	-177.255166	-14.343957	97.334999	-14.343957	97.334999	-0.388417	-171.000212
3.350000	-0.359747	179.816932	-15.211692	94.441348	-15.211692	94.441348	-0.355012	-173.804947
3.400000	-0.331071	176.947092	-16.126118	91.604945	-16.126118	91.604945	-0.326331	-176.550693
3.450000	-0.307088	174.136978	-17.089290	88.826937	-17.089290	88.826937	-0.302339	-179.235632
3.500000	-0.287064	171.378431	-18.113287	86.098625	-18.113287	86.098625	-0.282301	178.132059
3.550000	-0.270245	168.662160	-19.216606	83.410088	-19.216606	83.410088	-0.265463	175.543020
3.600000	-0.256828	165.990768	-20.406285	80.761712	-20.406285	80.761712	-0.252024	173.000084
3.650000	-0.245904	163.351576	-21.718376	78.139296	-21.718376	78.139296	-0.241074	170.490379
3.700000	-0.237372	160.742049	-23.184943	75.535718	-23.184943	75.535718	-0.232512	168.011456
3.750000	-0.231104	158.158543	-24.854530	72.938260	-24.854530	72.938260	-0.226211	165.559750
3.800000	-0.226631	155.593314	-26.823039	70.327306	-26.823039	70.327306	-0.221703	163.127378
3.850000	-0.224060	153.043855	-29.224869	67.654625	-29.224869	67.654625	-0.219093	160.712013
3.900000	-0.223077	150.503579	-32.367822	64.821071	-32.367822	64.821071	-0.218069	158.306960
3.950000	-0.223541	147.967224	-37.027282	61.468657	-37.027282	61.468657	-0.218491	155.906928
4.000000	-0.225590	145.428639	-46.492620	45.319451	-46.492620	45.319451	-0.220495	153.505935
4.050000	-0.228928	142.881790	-46.695152	-88.623321	-46.695152	-88.623321	-0.223787	151.097737
4.100000	-0.233692	140.317764	-38.046863	-120.612085	-38.046863	-120.612085	-0.228505	148.673521
4.150000	-0.239924	137.726741	-33.945231	-123.850896	-33.945231	-123.850896	-0.234689	146.223433
4.200000	-0.247595	135.100400	-31.409048	-126.449487	-31.409048	-126.449487	-0.242314	143.739007
4.250000	-0.257294	132.413224	-29.742209	-128.677389	-29.742209	-128.677389	-0.251967	141.194844
4.300000	-0.269233	129.651884	-28.632772	-130.586428	-28.632772	-130.586428	-0.263864	138.577359
4.350000	-0.284396	126.783912	-28.013956	-131.984068	-28.013956	-131.984068	-0.278993	135.853964
4.400000	-0.305041	123.750042	-27.972163	-132.271983	-27.972163	-132.271983	-0.299621	132.965191
4.450000	-0.335998	120.457562	-28.766481	-129.542180	-28.766481	-129.542180	-0.330595	129.817857
4.500000	-0.388307	116.753861	-30.868330	-116.204519	-30.868330	-116.204519	-0.383001	126.258529
4.550000	-0.493758	112.321353	-31.529875	-65.548770	-31.529875	-65.548770	-0.488749	121.967940
4.600000	-0.766016	106.467003	-23.031825	-28.491839	-23.031825	-28.491839	-0.761959	116.248895
4.650000	-1.716893	98.233918	-14.313610	-33.640413	-14.313610	-33.640413	-1.716831	108.133834
4.700000	-5.059429	100.007132	-7.678446	-68.204864	-7.678446	-68.204864	-5.082699	110.060668
4.750000	-3.751790	124.238010	-6.638168	-110.809589	-6.638168	-110.809589	-3.762986	134.651648
4.800000	-1.935137	120.639923	-7.822807	-132.558892	-7.822807	-132.558892	-1.934851	131.182026
4.850000	-1.346669	115.323081	-8.682248	-143.476456	-8.682248	-143.476456	-1.343451	126.002798
4.900000	-1.117589	110.898231	-9.138340	-150.344102	-9.138340	-150.344102	-1.113187	121.726042
4.950000	-1.017928	107.060015	-9.336454	-155.479401	-9.336454	-155.479401	-1.012872	118.041422
5.000000	-0.978495	103.566466	-9.369192	-159.740202	-9.369192	-159.740202	-0.972999	114.704835
5.050000	-0.973117	100.281158	-9.290106	-163.508949	-9.290106	-163.508949	-0.967278	111.578867
5.100000	-0.986255	97.101332	-9.146718	-167.032914	-9.146718	-167.032914	-0.980111	108.559873
5.150000	-1.014977	93.993062	-8.950655	-170.385187	-8.950655	-170.385187	-1.008547	105.613772
5.200000	-1.054888	90.918459	-8.721199	-173.646176	-8.721199	-173.646176	-1.048172	102.702273
5.250000	-1.104803	87.856545	-8.466716	-176.855406	-8.466716	-176.855406	-1.097794	99.804191
5.300000	-1.164127	84.791659	-8.193572	179.959072	-8.193572	179.959072	-1.156808	96.903658
5.350000	-1.231913	81.712840	-7.908538	176.776060	-7.908538	176.776060	-1.224264	93.989474
5.400000	-1.309365	78.608403	-7.612537	173.579883	-7.612537	173.579883	-1.301361	91.049761
5.450000	-1.395311	75.475947	-7.311489	170.362271	-7.311489	170.362271	-1.386924	88.081898
5.500000	-1.491919	72.303155	-7.004514	167.108856	-7.004514	167.108856	-1.483115	85.073264
5.550000	-1.598270	69.091981	-6.695919	163.818600	-6.695919	163.818600	-1.589016	82.025632
5.600000	-1.716230	65.833646	-6.385666	160.480884	-6.385666	160.480884	-1.706488	78.929837
5.650000	-1.846125	62.527728	-6.075739	157.093678	-6.075739	157.093678	-1.835856	75.785192
5.700000	-1.988966	59.171801	-5.767277	153.653082	-5.767277	153.653082	-1.978129	72.588904
5.750000	-2.146558	55.761086	-5.460842	150.152694	-5.460842	150.152694	-2.135107	69.335674
5.800000	-2.318747	52.300619	-5.158337	146.596856	-5.158337	146.596856	-2.306640	66.030344
5.850000	-2.509145	48.780627	-4.859620	142.973205	-4.859620	142.973205	-2.496336	62.662112
5.900000	-2.716661	45.211845	-4.566705	139.292613	-4.566705	139.292613	-2.703102	59.241758
5.950000	-2.945369	41.586227	-4.279828	135.543779	-4.279828	135.543779	-2.931014	55.759842
6.000000	-3.195026	37.912815	-4.000302	131.735536	-4.000302	131.735536	-3.179828	52.225247
6.050000	-3.468672	34.190850	-3.728925	127.864160	-3.728925	127.864160	-3.452587	48.635864
6.100000	-3.768020	30.425308	-3.466584	123.932672	-3.466584	123.932672	-3.751005	44.995722
6.150000	-4.094556	26.622966	-3.214065	119.945935	-3.214065	119.945935	-4.076573	41.310644
6.200000	-4.452178	22.787015	-2.972469	115.902026	-2.972469	115.902026	-4.433199	37.581427
6.250000	-4.840778	18.929337	-2.741840	111.812968	-2.741840	111.812968	-4.820780	33.819893
6.300000	-5.266415	15.055540	-2.524091	107.673783	-2.524091	107.673783	-5.245413	30.026701
6.350000	-5.728592	11.178772	-2.318363	103.499081	-2.318363	103.499081	-5.706606	26.215535
6.400000	-6.232671	7.311997	-2.126340	99.289227	-2.126340	99.289227	-6.209795	22.393394
6.450000	-6.780805	3.468477	-1.947489	95.053668	-1.947489	95.053668	-6.757183	18.571633
6.500000	-7.377270	-0.333376	-1.782404	90.798293	-1.782404	90.798293	-7.353166	14.762668
6.550000	-8.026665	-4.072262	-1.631359	86.529798	-1.631359	86.529798	-8.002522	10.980810
6.600000	-8.733645	-7.730001	-1.493436	82.255852	-1.493436	82.255852	-8.710117	7.239184
6.650000	-9.504642	-11.262902	-1.369980	77.983138	-1.369980	77.983138	-9.482901	3.563934
6.700000	-10.347127	-14.653791	-1.258866	73.717778	-1.258866	73.717778	-10.328825	-0.032965
6.750000	-11.270006	-17.840135	-1.160840	69.466639	-1.160840	69.466639	-11.257950	-3.515083
6.800000	-12.284879	-20.761767	-1.075019	65.235233	-1.075019	65.235233	-12.283565	-6.847440
6.850000	-13.406425	-23.328295	-1.000767	61.028699	-1.000767	61.028699	-13.423314	-9.978295
6.900000	-14.652988	-25.399704	-0.937485	56.851890	-0.937485	56.851890	-14.700977	-12.827327
6.950000	-16.048081	-26.761174	-0.884392	52.708718	-0.884392	52.708718	-16.150396	-15.268576
7.000000	-17.621392	-27.074519	-0.840583	48.601919	-0.840583	48.601919	-17.821989	-17.093625
7.050000	-19.403807	-25.750154	-0.805246	44.533861	-0.805246	44.533861	-19.792055	-17.904966
7.100000	-21.407526	-21.741408	-0.777571	40.506245	-0.777571	40.506245	-22.179741	-16.862191
7.150000	-23.547927	-13.265963	-0.756758	36.520153	-0.756758	36.520153	-25.159083	-11.907476
7.200000	-25.425191	1.792353	-0.742035	32.576090	-0.742035	32.576090	-28.794234	2.649077
7.250000	-26.177942	22.465955	-0.732659	28.674048	-0.732659	28.674048	-31.513375	36.473958
7.300000	-25.389593	41.792746	-0.727929	24.813563	-0.727929	24.813563	-29.900417	73.678978
7.350000	-23.797509	54.517703	-0.727187	20.993778	-0.727187	20.993778	-26.660310	91.137141
7.400000	-22.135032	61.387554	-0.729826	17.213505	-0.729826	17.213505	-24.008634	97.355568
7.450000	-20.656356	64.601940	-0.735285	13.471278	-0.735285	13.471278	-21.980492	99.132159
7.500000	-19.394540	65.661277	-0.743058	9.765411	-0.743058	9.765411	-20.393095	98.902191
7.550000	-18.325851	65.397103	-0.752716	6.094749	-0.752716	6.094749	-19.117278	97.617356
7.600000	-17.416631	64.317561	-0.763802	2.456503	-0.763802	2.456503	-18.067213	95.742466
7.650000	-16.637957	62.696621	-0.775958	-1.151408	-0.775958	-1.151408	-17.187782	93.499543
7.700000	-15.966740	60.703960	-0.788867	-4.731124	-0.788867	-4.731124	-16.441434	91.014797
7.750000	-15.387127	58.437683	-0.802272	-8.283475	-0.802272	-8.283475	-15.804124	88.357441
7.800000	-14.880677	55.994830	-0.815896	-11.813178	-0.815896	-11.813178	-15.251560	85.590673
7.850000	-14.438077	53.412784	-0.829564	-15.321216	-0.829564	-15.321216	-14.771383	82.737950
7.900000	-14.050331	50.727011	-0.843111	-18.809707	-0.843111	-18.809707	-14.352341	79.820545
7.950000	-13.710153	47.963171	-0.856402	-22.280723	-0.856402	-22.280723	-13.985585	76.853073
8.000000	-13.411571	45.140200	-0.869330	-25.736279	-0.869330	-25.736279	-13.664034	73.845697
8.050000	-13.149638	42.272322	-0.881811	-29.178329	-0.881811	-29.178329	-13.381931	70.805520
8.100000	-12.920208	39.370390	-0.893786	-32.608759	-0.893786	-32.608759	-13.134531	67.737498
8.150000	-12.719777	36.442814	-0.905212	-36.029382	-0.905212	-36.029382	-12.917874	64.645045
8.200000	-12.545350	33.496196	-0.916068	-39.441937	-0.916068	-39.441937	-12.728617	61.530454
8.250000	-12.394342	30.535789	-0.926347	-42.848087	-0.926347	-42.848087	-12.563910	58.395188
8.300000	-12.264504	27.565825	-0.936056	-46.249421	-0.936056	-46.249421	-12.421293	55.240087
8.350000	-12.153856	24.589745	-0.945213	-49.647451	-0.945213	-49.647451	-12.298630	52.065518
8.400000	-12.060640	21.610376	-0.953850	-53.043619	-0.953850	-53.043619	-12.194041	48.871486
8.450000	-11.983279	18.630049	-0.962005	-56.439294	-0.962005	-56.439294	-12.105860	45.657716
8.500000	-11.920342	15.650690	-0.969726	-59.835779	-0.969726	-59.835779	-12.032595	42.423714
8.550000	-11.870516	12.673877	-0.977067	-63.234311	-0.977067	-63.234311	-11.972897	39.168809
8.600000	-11.832586	9.700883	-0.984088	-66.636067	-0.984088	-66.636067	-11.925537	35.892195
8.650000	-11.805416	6.732697	-0.990852	-70.042166	-0.990852	-70.042166	-11.889379	32.592951
8.700000	-11.787927	3.770036	-0.997427	-73.453676	-0.997427	-73.453676	-11.863367	29.270069
8.750000	-11.779093	0.813342	-1.003885	-76.871615	-1.003885	-76.871615	-11.846509	25.922467
8.800000	-11.778136	-2.137027	-1.010299	-80.297242	-1.010299	-80.297242	-11.838091	22.548116
8.850000	-11.783820	-5.081430	-1.016748	-83.731277	-1.016748	-83.731277	-11.836921	19.146643
8.900000	-11.795211	-8.020341	-1.023306	-87.174626	-1.023306	-87.174626	-11.842125	15.716831
8.950000	-11.811394	-10.954568	-1.030049	-90.628167	-1.030049	-90.628167	-11.852851	12.257447
9.000000	-11.831466	-13.885273	-1.037053	-94.092764	-1.037053	-94.092764	-11.868260	8.767252
9.050000	-11.854540	-16.813987	-1.044392	-97.569266	-1.044392	-97.569266	-11.887519	5.245017
9.100000	-11.879740	-19.742634	-1.052140	-101.058517	-1.052140	-101.058517	-11.909801	1.689531
9.150000	-11.906203	-22.673542	-1.060372	-104.561363	-1.060372	-104.561363	-11.934272	-1.900376
9.200000	-11.933091	-25.609293	-1.069148	-108.078379	-1.069148	-108.078379	-11.960090	-5.525151
9.250000	-11.959481	-28.553965	-1.078601	-111.611870	-1.078601	-111.611870	-11.986405	-9.189200
9.300000	-11.984701	-31.509637	-1.088706	-115.160430	-1.088706	-115.160430	-12.012379	-12.888075
9.350000	-12.007757	-34.481894	-1.099618	-118.726917	-1.099618	-118.726917	-12.037050	-16.626990
9.400000	-12.028002	-37.474147	-1.111364	-122.311289	-1.111364	-122.311289	-12.059631	-20.404394
9.450000	-12.044668	-40.491215	-1.124017	-125.914570	-1.124017	-125.914570	-12.079232	-24.220811
9.500000	-12.056764	-43.539963	-1.137707	-129.539001	-1.137707	-129.539001	-12.094735	-28.078886
9.550000	-12.064114	-46.622042	-1.152395	-133.183304	-1.152395	-133.183304	-12.105750	-31.974122
9.600000	-12.065023	-49.750315	-1.168355	-136.852590	-1.168355	-136.852590	-12.110407	-35.913376
9.650000	-12.059967	-52.922421	-1.185451	-140.543697	-1.185451	-140.543697	-12.108975	-39.888621
9.700000	-12.047042	-56.153869	-1.203999	-144.262358	-1.203999	-144.262358	-12.099289	-43.906095
9.750000	-12.026575	-59.443711	-1.223924	-148.006589	-1.223924	-148.006589	-12.081521	-47.959712
9.800000	-11.997227	-62.804004	-1.245456	-151.780182	-1.245456	-151.780182	-12.054088	-52.051267
9.850000	-11.958477	-66.240676	-1.268699	-155.584351	-1.268699	-155.584351	-12.016312	-56.178691
9.900000	-11.910003	-69.758120	-1.293739	-159.419782	-1.293739	-159.419782	-11.967778	-60.339050
9.950000	-11.850052	-73.372580	-1.320932	-163.291768	-1.320932	-163.291768	-11.906538	-64.533739
10.000000	-11.779703	-77.077054	-1.350157	-167.196953	-1.350157	-167.196953	-11.833830	-68.756014
