! freq	dB(S11)	phase(S11)	dB(S12)	phase(S12)	
!     	dB(S21)	phase(S21)	dB(S22)	phase(S22)	
!S-par simulation data
#  GHz  S  DB  R 50
0.000000	-0.000000	0.000000	-375.200625	0.000000	-375.200625	0.000000	-0.000000	0.000000
0.050000	-0.000096	-0.765021	-116.576266	85.714115	-116.576266	85.714115	-0.000096	-0.765014
0.100000	-0.000379	-1.529816	-110.981792	82.974148	-110.981792	82.974148	-0.000379	-1.529802
0.150000	-0.000844	-2.294156	-107.915322	81.713099	-107.915322	81.713099	-0.000843	-2.294137
0.200000	-0.001460	-3.057906	-105.814969	81.202006	-105.814969	81.202006	-0.001460	-3.057881
0.250000	-0.002216	-3.820908	-104.236819	81.035761	-104.236819	81.035761	-0.002215	-3.820877
0.300000	-0.003097	-4.582966	-103.007786	81.020241	-103.007786	81.020241	-0.003096	-4.582931
0.350000	-0.004063	-5.344162	-102.020621	81.072607	-102.020621	81.072607	-0.004062	-5.344123
0.400000	-0.005106	-6.104325	-101.241102	81.204047	-101.241102	81.204047	-0.005104	-6.104281
0.450000	-0.006199	-6.863531	-100.629323	81.435534	-100.629323	81.435534	-0.006197	-6.863484
0.500000	-0.007328	-7.621749	-100.171224	81.816681	-100.171224	81.816681	-0.007326	-7.621699
0.550000	-0.008478	-8.379011	-99.854585	82.409732	-99.854585	82.409732	-0.008476	-8.378957
0.600000	-0.009637	-9.135349	-99.673160	83.298032	-99.673160	83.298032	-0.009635	-9.135292
0.650000	-0.010797	-9.890799	-99.624278	84.593832	-99.624278	84.593832	-0.010795	-9.890738
0.700000	-0.011950	-10.645398	-99.707293	86.452096	-99.707293	86.452096	-0.011948	-10.645333
0.750000	-0.013093	-11.399179	-99.921148	89.091131	-99.921148	89.091131	-0.013091	-11.399111
0.800000	-0.014223	-12.152172	-100.259508	92.820491	-100.259508	92.820491	-0.014221	-12.152100
0.850000	-0.015334	-12.904276	-100.691373	98.501710	-100.691373	98.501710	-0.015333	-12.904201
0.900000	-0.016429	-13.655607	-101.164871	106.350848	-101.164871	106.350848	-0.016428	-13.655527
0.950000	-0.017516	-14.406561	-101.529506	115.526669	-101.529506	115.526669	-0.017514	-14.406477
1.000000	-0.018579	-15.156389	-101.496633	128.682533	-101.496633	128.682533	-0.018577	-15.156300
1.050000	-0.019636	-15.905969	-101.239622	141.828040	-101.239622	141.828040	-0.019635	-15.905876
1.100000	-0.020670	-16.654313	-99.975961	154.921761	-99.975961	154.921761	-0.020669	-16.654215
1.150000	-0.021703	-17.402533	-98.783243	167.567777	-98.783243	167.567777	-0.021702	-17.402430
1.200000	-0.022713	-18.149380	-96.904979	175.289031	-96.904979	175.289031	-0.022712	-18.149272
1.250000	-0.023724	-18.896227	-95.361542	-176.989715	-95.361542	-176.989715	-0.023723	-18.896114
1.300000	-0.024721	-19.641930	-93.668016	-172.550169	-93.668016	-172.550169	-0.024720	-19.641812
1.350000	-0.025710	-20.386888	-92.069601	-169.465562	-92.069601	-169.465562	-0.025709	-20.386765
1.400000	-0.026692	-21.131087	-90.572529	-167.363212	-90.572529	-167.363212	-0.026691	-21.130958
1.450000	-0.027669	-21.874514	-89.172252	-165.980954	-89.172252	-165.980954	-0.027668	-21.874380
1.500000	-0.028641	-22.617154	-87.860494	-165.135485	-87.860494	-165.135485	-0.028641	-22.617016
1.550000	-0.029609	-23.358994	-86.628268	-164.697555	-86.628268	-164.697555	-0.029609	-23.358849
1.600000	-0.030574	-24.100016	-85.467072	-164.574669	-85.467072	-164.574669	-0.030574	-24.099866
1.650000	-0.031537	-24.840205	-84.369290	-164.699493	-84.369290	-164.699493	-0.031537	-24.840050
1.700000	-0.032497	-25.579243	-83.304608	-165.073582	-83.304608	-165.073582	-0.032497	-25.579082
1.750000	-0.033457	-26.317832	-82.325020	-165.537175	-82.325020	-165.537175	-0.033456	-26.317666
1.800000	-0.034415	-27.055340	-81.376890	-166.149811	-81.376890	-166.149811	-0.034415	-27.055169
1.850000	-0.035373	-27.792077	-80.478469	-166.868904	-80.478469	-166.868904	-0.035373	-27.791900
1.900000	-0.036331	-28.527852	-79.614829	-167.676174	-79.614829	-167.676174	-0.036331	-28.527669
1.950000	-0.037290	-29.262665	-78.784376	-168.571622	-78.784376	-168.571622	-0.037290	-29.262477
2.000000	-0.038249	-29.996649	-77.990845	-169.519843	-77.990845	-169.519843	-0.038249	-29.996455
2.050000	-0.039210	-30.729470	-77.218161	-170.541948	-77.218161	-170.541948	-0.039210	-30.729272
2.100000	-0.040171	-31.461606	-76.483775	-171.595366	-76.483775	-171.595366	-0.040171	-31.461402
2.150000	-0.041136	-32.192369	-75.760866	-172.711411	-75.760866	-172.711411	-0.041135	-32.192159
2.200000	-0.042101	-32.922601	-75.077098	-173.845339	-75.077098	-173.845339	-0.042101	-32.922385
2.250000	-0.043070	-33.651239	-74.397595	-175.032914	-74.397595	-175.032914	-0.043070	-33.651019
2.300000	-0.044040	-34.379514	-73.757687	-176.229766	-73.757687	-176.229766	-0.044040	-34.379287
2.350000	-0.045015	-35.105966	-73.116438	-177.473001	-73.116438	-177.473001	-0.045015	-35.105734
2.400000	-0.045991	-35.832231	-72.514945	-178.719909	-72.514945	-178.719909	-0.045990	-35.831993
2.450000	-0.046973	-36.556436	-71.907719	179.992763	-71.907719	179.992763	-0.046973	-36.556193
2.500000	-0.047956	-37.280640	-71.340185	178.705435	-71.340185	178.705435	-0.047956	-37.280392
2.550000	-0.048947	-38.002540	-70.763464	177.382651	-70.763464	177.382651	-0.048947	-38.002287
2.600000	-0.049938	-38.724440	-70.222664	176.059867	-70.222664	176.059867	-0.049938	-38.724181
2.650000	-0.050939	-39.444177	-69.677018	174.710623	-69.677018	174.710623	-0.050938	-39.443912
2.700000	-0.051940	-40.163717	-69.160508	173.358973	-69.160508	173.358973	-0.051940	-40.163447
2.750000	-0.052951	-40.881246	-68.642762	171.987537	-68.642762	171.987537	-0.052951	-40.880970
2.800000	-0.053964	-41.598373	-68.148446	170.612145	-68.148446	170.612145	-0.053963	-41.598092
2.850000	-0.054986	-42.313653	-67.655907	169.221982	-67.655907	169.221982	-0.054985	-42.313366
2.900000	-0.056011	-43.028317	-67.181971	167.826897	-67.181971	167.826897	-0.056011	-43.028025
2.950000	-0.057046	-43.741308	-66.712330	166.420848	-66.712330	166.420848	-0.057046	-43.741010
3.000000	-0.058085	-44.453462	-66.257191	165.009319	-66.257191	165.009319	-0.058085	-44.453159
3.050000	-0.059134	-45.164126	-65.808454	163.589737	-65.808454	163.589737	-0.059134	-45.163817
3.100000	-0.060189	-45.873725	-65.370723	162.164404	-65.370723	162.164404	-0.060189	-45.873411
3.150000	-0.061253	-46.582026	-64.941155	160.733255	-64.941155	160.733255	-0.061252	-46.581707
3.200000	-0.062325	-47.289029	-64.519601	159.296292	-64.519601	159.296292	-0.062324	-47.288704
3.250000	-0.063405	-47.994934	-64.107682	157.855234	-64.107682	157.855234	-0.063404	-47.994604
3.300000	-0.064495	-48.699301	-63.701213	156.408446	-63.701213	156.408446	-0.064495	-48.698965
3.350000	-0.065593	-49.402778	-63.305603	154.958888	-63.305603	154.958888	-0.065592	-49.402437
3.400000	-0.066703	-50.104473	-62.913239	153.503792	-62.913239	153.503792	-0.066703	-50.104127
3.450000	-0.067819	-50.805492	-62.532750	152.046940	-62.532750	152.046940	-0.067819	-50.805140
3.500000	-0.068952	-51.504482	-62.153613	150.584820	-62.153613	150.584820	-0.068951	-51.504125
3.550000	-0.070088	-52.203016	-61.787186	149.121713	-61.787186	149.121713	-0.070087	-52.202653
3.600000	-0.071243	-52.899270	-61.420482	147.653667	-61.420482	147.653667	-0.071243	-52.898902
3.650000	-0.072401	-53.595294	-61.067170	146.185206	-61.067170	146.185206	-0.072400	-53.594920
3.700000	-0.073581	-54.288784	-60.712179	144.712178	-60.712179	144.712178	-0.073581	-54.288405
3.750000	-0.074761	-54.982274	-60.371129	143.239149	-60.371129	143.239149	-0.074761	-54.981890
3.800000	-0.075968	-55.672975	-60.027196	141.761955	-60.027196	141.761955	-0.075967	-55.672586
3.850000	-0.077175	-56.363676	-59.696365	140.284761	-59.696365	140.284761	-0.077174	-56.363281
3.900000	-0.078407	-57.051800	-59.364167	138.804401	-59.364167	138.804401	-0.078407	-57.051400
3.950000	-0.079642	-57.739691	-59.043024	137.323754	-59.043024	137.323754	-0.079641	-57.739285
4.000000	-0.080901	-58.425222	-58.721845	135.840748	-58.721845	135.840748	-0.080901	-58.424811
4.050000	-0.082166	-59.110282	-58.409904	134.357270	-58.409904	134.357270	-0.082165	-59.109866
4.100000	-0.083453	-59.793206	-58.099093	132.872081	-58.099093	132.872081	-0.083453	-59.792785
4.150000	-0.084749	-60.475419	-57.795905	131.386323	-57.795905	131.386323	-0.084749	-60.474993
4.200000	-0.086067	-61.155725	-57.494870	129.899368	-57.494870	129.899368	-0.086066	-61.155294
4.250000	-0.087396	-61.835077	-57.200018	128.411815	-57.200018	128.411815	-0.087395	-61.834641
4.300000	-0.088745	-62.512754	-56.908216	126.923467	-56.908216	126.923467	-0.088744	-62.512313
4.350000	-0.090108	-63.189235	-56.621316	125.434551	-56.621316	125.434551	-0.090108	-63.188789
4.400000	-0.091490	-63.864276	-56.338249	123.945147	-56.338249	123.945147	-0.091489	-63.863825
4.450000	-0.092889	-64.537878	-56.058944	122.455255	-56.058944	122.455255	-0.092889	-64.537421
4.500000	-0.094305	-65.210277	-55.784154	120.965100	-55.784154	120.965100	-0.094305	-65.209816
4.550000	-0.095743	-65.880993	-55.512111	119.474576	-55.512111	119.474576	-0.095742	-65.880527
4.600000	-0.097194	-66.550748	-55.245177	117.983945	-55.245177	117.983945	-0.097194	-66.550276
4.650000	-0.098672	-67.218577	-54.980085	116.493101	-54.980085	116.493101	-0.098671	-67.218101
4.700000	-0.100160	-67.885684	-54.720617	115.002247	-54.720617	115.002247	-0.100159	-67.885203
4.750000	-0.101678	-68.550626	-54.462187	113.511363	-54.462187	113.511363	-0.101678	-68.550140
4.800000	-0.103205	-69.215087	-54.209823	112.020515	-54.209823	112.020515	-0.103204	-69.214597
4.850000	-0.104767	-69.877144	-53.957783	110.529845	-53.957783	110.529845	-0.104766	-69.876649
4.900000	-0.106333	-70.538961	-53.712190	109.039212	-53.712190	109.039212	-0.106332	-70.538462
4.950000	-0.107940	-71.198139	-53.466286	107.548988	-53.466286	107.548988	-0.107939	-71.197636
5.000000	-0.109547	-71.857317	-53.227152	106.058763	-53.227152	106.058763	-0.109546	-71.856810
5.050000	-0.111200	-72.513624	-52.987144	104.569194	-52.987144	104.569194	-0.111200	-72.513112
5.100000	-0.112854	-73.169931	-52.753591	103.079625	-52.753591	103.079625	-0.112853	-73.169415
5.150000	-0.114551	-73.823616	-52.519845	101.590834	-52.519845	101.590834	-0.114551	-73.823095
5.200000	-0.116253	-74.477063	-52.291667	100.102114	-52.291667	100.102114	-0.116253	-74.476538
5.250000	-0.117997	-75.128136	-52.063907	98.614249	-52.063907	98.614249	-0.117996	-75.127607
5.300000	-0.119749	-75.778735	-51.840910	97.126554	-51.840910	97.126554	-0.119748	-75.778202
5.350000	-0.121539	-76.427210	-51.618878	95.639751	-51.618878	95.639751	-0.121539	-76.426673
5.400000	-0.123342	-77.074976	-51.400880	94.153244	-51.400880	94.153244	-0.123342	-77.074436
5.450000	-0.125181	-77.720867	-51.184335	92.667631	-51.184335	92.667631	-0.125181	-77.720322
5.500000	-0.127038	-78.365820	-50.971162	91.182464	-50.971162	91.182464	-0.127038	-78.365271
5.550000	-0.128927	-79.009142	-50.759879	89.698160	-50.759879	89.698160	-0.128927	-79.008591
5.600000	-0.130839	-79.651301	-50.551369	88.214473	-50.551369	88.214473	-0.130839	-79.650746
5.650000	-0.132779	-80.292074	-50.345135	86.731590	-50.345135	86.731590	-0.132779	-80.291516
5.700000	-0.134748	-80.931461	-50.141133	85.249512	-50.141133	85.249512	-0.134748	-80.930900
5.750000	-0.136741	-81.569704	-49.939751	83.768155	-49.939751	83.768155	-0.136741	-81.569139
5.800000	-0.138768	-82.206345	-49.740110	82.287808	-49.740110	82.287808	-0.138768	-82.205777
5.850000	-0.140815	-82.842080	-49.543392	80.808076	-49.543392	80.808076	-0.140815	-82.841509
5.900000	-0.142903	-83.476001	-49.347973	79.329575	-49.347973	79.329575	-0.142902	-83.475428
5.950000	-0.145005	-84.109251	-49.155744	77.851562	-49.155744	77.851562	-0.145005	-84.108674
6.000000	-0.147155	-84.740482	-48.964415	76.375014	-48.964415	76.375014	-0.147154	-84.739903
6.050000	-0.149315	-85.371270	-48.776508	74.898808	-48.776508	74.898808	-0.149314	-85.370688
6.100000	-0.151527	-85.999843	-48.589145	73.424314	-48.589145	73.424314	-0.151527	-85.999259
6.150000	-0.153746	-86.628197	-48.405404	71.950000	-48.405404	71.950000	-0.153745	-86.627610
6.200000	-0.156023	-87.254144	-48.221886	70.477657	-48.221886	70.477657	-0.156023	-87.253555
6.250000	-0.158302	-87.880091	-48.042165	69.005314	-48.042165	69.005314	-0.158301	-87.879500
6.300000	-0.160646	-88.503449	-47.862378	67.535213	-47.862378	67.535213	-0.160646	-88.502856
6.350000	-0.162992	-89.126806	-47.686237	66.065112	-47.686237	66.065112	-0.162991	-89.126212
6.400000	-0.165399	-89.747824	-47.510373	64.597147	-47.510373	64.597147	-0.165399	-89.747228
6.450000	-0.167813	-90.368630	-47.337712	63.129375	-47.337712	63.129375	-0.167813	-90.368032
6.500000	-0.170285	-90.987341	-47.165636	61.663614	-47.165636	61.663614	-0.170285	-90.986741
6.550000	-0.172769	-91.605633	-46.996358	60.198255	-46.996358	60.198255	-0.172769	-91.605032
6.600000	-0.175306	-92.222071	-46.827944	58.734765	-46.827944	58.734765	-0.175306	-92.221470
6.650000	-0.177862	-92.837892	-46.661956	57.271898	-46.661956	57.271898	-0.177862	-92.837289
6.700000	-0.180467	-93.452094	-46.497082	55.810743	-46.497082	55.810743	-0.180467	-93.451490
6.750000	-0.183096	-94.065486	-46.334298	54.350444	-46.334298	54.350444	-0.183096	-94.064881
6.800000	-0.185769	-94.677488	-46.172850	52.891686	-46.172850	52.891686	-0.185769	-94.676883
6.850000	-0.188474	-95.288496	-46.013185	51.434028	-46.013185	51.434028	-0.188473	-95.287891
6.900000	-0.191216	-95.898337	-45.855054	49.977725	-45.855054	49.977725	-0.191216	-95.897731
6.950000	-0.193997	-96.507009	-45.698427	48.522778	-45.698427	48.522778	-0.193997	-96.506404
7.000000	-0.196811	-97.114728	-45.543510	47.068989	-45.543510	47.068989	-0.196811	-97.114123
7.050000	-0.199671	-97.721113	-45.389844	45.616820	-45.389844	45.616820	-0.199671	-97.720507
7.100000	-0.202557	-98.326751	-45.238043	44.165598	-45.238043	44.165598	-0.202557	-98.326146
7.150000	-0.205497	-98.930898	-45.087263	42.716270	-45.087263	42.716270	-0.205497	-98.930293
7.200000	-0.208457	-99.534498	-44.938483	41.267669	-44.938483	41.267669	-0.208457	-99.533894
7.250000	-0.211477	-100.136459	-44.790519	39.821244	-44.790519	39.821244	-0.211478	-100.135856
7.300000	-0.214513	-100.738065	-44.644672	38.375313	-44.644672	38.375313	-0.214513	-100.737463
7.350000	-0.217616	-101.337895	-44.499455	36.931848	-44.499455	36.931848	-0.217617	-101.337294
7.400000	-0.220728	-101.937551	-44.356455	35.488635	-44.356455	35.488635	-0.220728	-101.936951
7.450000	-0.223916	-102.535304	-44.213919	34.048187	-44.213919	34.048187	-0.223916	-102.534706
7.500000	-0.227105	-103.133057	-44.073684	32.607738	-44.073684	32.607738	-0.227106	-103.132460
7.550000	-0.230380	-103.728790	-43.933766	31.170355	-43.933766	31.170355	-0.230380	-103.728196
7.600000	-0.233655	-104.324524	-43.796067	29.732973	-43.796067	29.732973	-0.233655	-104.323931
7.650000	-0.237009	-104.918460	-43.658859	28.298446	-43.658859	28.298446	-0.237010	-104.917870
7.700000	-0.240372	-105.512233	-43.523636	26.864179	-43.523636	26.864179	-0.240373	-105.511645
7.750000	-0.243808	-106.104423	-43.389063	25.432544	-43.389063	25.432544	-0.243809	-106.103837
7.800000	-0.247260	-106.696295	-43.256262	24.001436	-43.256262	24.001436	-0.247260	-106.695712
7.850000	-0.250779	-107.286789	-43.124251	22.572728	-43.124251	22.572728	-0.250779	-107.286209
7.900000	-0.254321	-107.876823	-42.993819	21.144820	-42.993819	21.144820	-0.254321	-107.876246
7.950000	-0.257923	-108.465674	-42.864301	19.719070	-42.864301	19.719070	-0.257924	-108.465100
8.000000	-0.261557	-109.053933	-42.736185	18.294398	-42.736185	18.294398	-0.261558	-109.053363
8.050000	-0.265245	-109.641195	-42.609094	16.871634	-42.609094	16.871634	-0.265246	-109.640628
8.100000	-0.268972	-110.227744	-42.483245	15.450232	-42.483245	15.450232	-0.268973	-110.227181
8.150000	-0.272746	-110.813472	-42.358517	14.030478	-42.358517	14.030478	-0.272747	-110.812913
8.200000	-0.276567	-111.398378	-42.234888	12.612373	-42.234888	12.612373	-0.276568	-111.397823
8.250000	-0.280429	-111.982628	-42.112463	11.195651	-42.112463	11.195651	-0.280430	-111.982077
8.300000	-0.284346	-112.565959	-41.991006	9.780867	-41.991006	9.780867	-0.284347	-112.565413
8.350000	-0.288296	-113.148789	-41.870826	8.367196	-41.870826	8.367196	-0.288297	-113.148247
8.400000	-0.292310	-113.730616	-41.751498	6.955751	-41.751498	6.955751	-0.292311	-113.730078
8.450000	-0.296349	-114.312084	-41.633506	5.545144	-41.633506	5.545144	-0.296350	-114.311551
8.500000	-0.300461	-114.892477	-41.516263	4.137052	-41.516263	4.137052	-0.300462	-114.891950
8.550000	-0.304591	-115.472643	-41.400406	2.729520	-41.400406	2.729520	-0.304592	-115.472121
8.600000	-0.308802	-116.051676	-41.285208	1.324790	-41.285208	1.324790	-0.308804	-116.051160
8.650000	-0.313024	-116.630602	-41.171435	-0.079661	-41.171435	-0.079661	-0.313025	-116.630091
8.700000	-0.317336	-117.208350	-41.058241	-1.481027	-41.058241	-1.481027	-0.317337	-117.207845
8.750000	-0.321650	-117.786098	-40.946503	-2.882393	-40.946503	-2.882393	-0.321651	-117.785598
8.800000	-0.326063	-118.362637	-40.835276	-4.280398	-40.835276	-4.280398	-0.326065	-118.362143
8.850000	-0.330479	-118.939176	-40.725455	-5.678402	-40.725455	-5.678402	-0.330480	-118.938689
8.900000	-0.334986	-119.514679	-40.616230	-7.073332	-40.616230	-7.073332	-0.334988	-119.514198
8.950000	-0.339504	-120.090087	-40.508291	-8.467983	-40.508291	-8.467983	-0.339506	-120.089613
9.000000	-0.344107	-120.664621	-40.401022	-9.859850	-40.401022	-9.859850	-0.344109	-120.664152
9.050000	-0.348729	-121.238979	-40.294933	-11.251160	-40.294933	-11.251160	-0.348731	-121.238517
9.100000	-0.353428	-121.812610	-40.189578	-12.639980	-40.189578	-12.639980	-0.353430	-121.812155
9.150000	-0.358155	-122.385999	-40.085306	-14.027970	-40.085306	-14.027970	-0.358156	-122.385552
9.200000	-0.362950	-122.958798	-39.981825	-15.413762	-39.981825	-15.413762	-0.362952	-122.958358
9.250000	-0.367782	-123.531303	-39.879341	-16.798456	-39.879341	-16.798456	-0.367784	-123.530869
9.300000	-0.372675	-124.103340	-39.777694	-18.181246	-39.777694	-18.181246	-0.372677	-124.102914
9.350000	-0.377613	-124.675044	-39.676970	-19.562675	-39.676970	-19.562675	-0.377615	-124.674625
9.400000	-0.382605	-125.246392	-39.577120	-20.942489	-39.577120	-20.942489	-0.382607	-125.245981
9.450000	-0.387650	-125.817384	-39.478130	-22.320690	-39.478130	-22.320690	-0.387652	-125.816980
9.500000	-0.392740	-126.388116	-39.380044	-23.697562	-39.380044	-23.697562	-0.392742	-126.387720
9.550000	-0.397893	-126.958484	-39.282762	-25.072576	-39.282762	-25.072576	-0.397895	-126.958096
9.600000	-0.403082	-127.528675	-39.186406	-26.446542	-39.186406	-26.446542	-0.403084	-127.528295
9.650000	-0.408343	-128.098512	-39.090810	-27.818415	-39.090810	-27.818415	-0.408345	-128.098139
9.700000	-0.413633	-128.668239	-38.996154	-29.189516	-38.996154	-29.189516	-0.413635	-128.667874
9.750000	-0.419002	-129.237636	-38.902223	-30.558301	-38.902223	-30.558301	-0.419004	-129.237280
9.800000	-0.424392	-129.806977	-38.809238	-31.926580	-38.809238	-31.926580	-0.424394	-129.806629
9.850000	-0.429871	-130.376031	-38.716952	-33.292332	-38.716952	-33.292332	-0.429873	-130.375691
9.900000	-0.435361	-130.945065	-38.625611	-34.657836	-38.625611	-34.657836	-0.435363	-130.944733
9.950000	-0.440950	-131.513874	-38.534954	-36.020616	-38.534954	-36.020616	-0.440951	-131.513551
10.000000	-0.446542	-132.082683	-38.445233	-37.383396	-38.445233	-37.383396	-0.446543	-132.082368
