! freq	dB(S11)	phase(S11)	dB(S12)	phase(S12)	
!     	dB(S21)	phase(S21)	dB(S22)	phase(S22)	
!S-par simulation data
#  GHz  S  DB  R 50
0.000000	-0.000000	0.000000	-311.237044	0.000000	-311.237044	0.000000	-0.000000	0.000000
0.050000	-0.000076	-0.763086	-102.075819	-174.156264	-102.075819	-174.156264	-0.000104	-0.815954
0.100000	-0.000301	-1.526033	-100.067461	155.830464	-100.067461	155.830464	-0.000412	-1.631657
0.150000	-0.000670	-2.288708	-98.418908	138.440678	-98.418908	138.440678	-0.000910	-2.446877
0.200000	-0.001173	-3.050995	-96.925876	126.759052	-96.925876	126.759052	-0.001579	-3.261423
0.250000	-0.001807	-3.812752	-95.611711	118.506011	-95.611711	118.506011	-0.002405	-4.075082
0.300000	-0.002548	-4.573931	-94.477206	112.151363	-94.477206	112.151363	-0.003349	-4.887817
0.350000	-0.003389	-5.334435	-93.502869	107.157759	-93.502869	107.157759	-0.004392	-5.699521
0.400000	-0.004313	-6.094201	-92.669624	103.116200	-92.669624	103.116200	-0.005510	-6.510154
0.450000	-0.005309	-6.853181	-91.960226	99.777423	-91.960226	99.777423	-0.006683	-7.319709
0.500000	-0.006363	-7.611343	-91.360307	96.985236	-91.360307	96.985236	-0.007890	-8.128197
0.550000	-0.007461	-8.368666	-90.858288	94.640529	-90.858288	94.640529	-0.009117	-8.935648
0.600000	-0.008593	-9.125138	-90.444986	92.681140	-90.444986	92.681140	-0.010353	-9.742097
0.650000	-0.009749	-9.880759	-90.113177	91.070339	-90.113177	91.070339	-0.011586	-10.547586
0.700000	-0.010919	-10.635531	-89.857211	89.790237	-89.857211	89.790237	-0.012812	-11.352152
0.750000	-0.012096	-11.389461	-89.672662	88.838168	-89.672662	88.838168	-0.014025	-12.155833
0.800000	-0.013275	-12.142560	-89.556008	88.225022	-89.556008	88.225022	-0.015223	-12.958660
0.850000	-0.014450	-12.894839	-89.504290	87.974946	-89.504290	87.974946	-0.016403	-13.760659
0.900000	-0.015617	-13.646308	-89.514703	88.126085	-89.514703	88.126085	-0.017566	-14.561851
0.950000	-0.016775	-14.396979	-89.584041	88.732100	-89.584041	88.732100	-0.018712	-15.362248
1.000000	-0.017920	-15.146859	-89.707886	89.864094	-89.707886	89.864094	-0.019842	-16.161861
1.050000	-0.019052	-15.895956	-89.879395	91.612224	-89.879395	91.612224	-0.020955	-16.960695
1.100000	-0.020170	-16.644275	-90.087510	94.085442	-90.087510	94.085442	-0.022055	-17.758749
1.150000	-0.021273	-17.391818	-90.314451	97.406348	-90.314451	97.406348	-0.023141	-18.556019
1.200000	-0.022362	-18.138586	-90.532647	101.695936	-90.532647	101.695936	-0.024216	-19.352501
1.250000	-0.023437	-18.884578	-90.701996	107.041033	-90.701996	107.041033	-0.025281	-20.148184
1.300000	-0.024498	-19.629756	-90.762636	113.476461	-90.762636	113.476461	-0.026336	-20.943022
1.350000	-0.025546	-20.374148	-90.658356	120.769913	-90.658356	120.769913	-0.027383	-21.737036
1.400000	-0.026582	-21.117747	-90.342695	128.543392	-90.342695	128.543392	-0.028423	-22.530214
1.450000	-0.027608	-21.860544	-89.799536	136.295908	-89.799536	136.295908	-0.029458	-23.322540
1.500000	-0.028623	-22.602530	-89.049878	143.546470	-89.049878	143.546470	-0.030488	-24.113999
1.550000	-0.029630	-23.343693	-88.141528	149.959670	-88.141528	149.959670	-0.031514	-24.904574
1.600000	-0.030628	-24.084022	-87.130567	155.385196	-87.130567	155.385196	-0.032536	-25.694248
1.650000	-0.031620	-24.823503	-86.066726	159.822292	-86.066726	159.822292	-0.033557	-26.483006
1.700000	-0.032603	-25.561817	-84.944956	163.103543	-84.944956	163.103543	-0.034574	-27.270498
1.750000	-0.033584	-26.299678	-83.893379	165.955933	-83.893379	165.955933	-0.035592	-28.057498
1.800000	-0.034559	-27.036447	-82.843300	168.069534	-82.843300	168.069534	-0.036608	-28.843312
1.850000	-0.035531	-27.772439	-81.835408	169.655429	-81.835408	169.655429	-0.037624	-29.628281
1.900000	-0.036501	-28.507462	-80.859788	170.820181	-80.859788	170.820181	-0.038640	-30.412198
1.950000	-0.037467	-29.241518	-79.917645	171.563790	-79.917645	171.563790	-0.039657	-31.195066
2.000000	-0.038433	-29.974740	-79.019620	172.072939	-79.019620	172.072939	-0.040674	-31.977030
2.050000	-0.039397	-30.706794	-78.144807	172.253844	-78.144807	172.253844	-0.041693	-32.757729
2.100000	-0.040362	-31.438158	-77.318271	172.306264	-77.318271	172.306264	-0.042714	-33.537684
2.150000	-0.041326	-32.168142	-76.505546	172.101713	-76.505546	172.101713	-0.043737	-34.316151
2.200000	-0.042292	-32.897592	-75.742154	171.829147	-75.742154	171.829147	-0.044762	-35.094046
2.250000	-0.043259	-33.625440	-74.984681	171.352530	-74.984681	171.352530	-0.045791	-35.870223
2.300000	-0.044227	-34.352921	-74.276329	170.842959	-74.276329	170.842959	-0.046821	-36.646008
2.350000	-0.045200	-35.078568	-73.567505	170.168613	-73.567505	170.168613	-0.047856	-37.419839
2.400000	-0.046172	-35.804026	-72.907070	169.481969	-72.907070	169.481969	-0.048893	-38.193470
2.450000	-0.047151	-36.527408	-72.241058	168.660038	-72.241058	168.660038	-0.049937	-38.964905
2.500000	-0.048130	-37.250790	-71.622497	167.838108	-71.622497	167.838108	-0.050982	-39.736341
2.550000	-0.049117	-37.971846	-70.994310	166.903394	-70.994310	166.903394	-0.052036	-40.505336
2.600000	-0.050105	-38.692902	-70.408507	165.968679	-70.408507	165.968679	-0.053091	-41.274331
2.650000	-0.051101	-39.411773	-69.817981	164.953321	-69.817981	164.953321	-0.054155	-42.041054
2.700000	-0.052099	-40.130446	-69.261508	163.930632	-69.261508	163.930632	-0.055221	-42.807570
2.750000	-0.053106	-40.847085	-68.704274	162.849744	-68.704274	162.849744	-0.056298	-43.571994
2.800000	-0.054115	-41.563318	-68.174204	161.757216	-68.174204	161.757216	-0.057377	-44.336000
2.850000	-0.055134	-42.277681	-67.646613	160.622485	-67.646613	160.622485	-0.058466	-45.098103
2.900000	-0.056157	-42.991422	-67.140442	159.473687	-67.140442	159.473687	-0.059560	-45.859573
2.950000	-0.057189	-43.703467	-66.639423	158.294293	-66.639423	158.294293	-0.060664	-46.619340
3.000000	-0.058226	-44.414666	-66.154996	157.099601	-66.154996	157.099601	-0.061774	-47.378255
3.050000	-0.059272	-45.124354	-65.677940	155.882863	-65.677940	155.882863	-0.062894	-48.135676
3.100000	-0.060325	-45.832963	-65.213391	154.650377	-65.213391	154.650377	-0.064022	-48.892028
3.150000	-0.061387	-46.540257	-64.758061	153.402218	-64.758061	153.402218	-0.065159	-49.647100
3.200000	-0.062457	-47.246234	-64.311766	152.138387	-64.311766	152.138387	-0.066307	-50.400890
3.250000	-0.063536	-47.951097	-63.876230	150.863676	-63.876230	150.863676	-0.067463	-51.153617
3.300000	-0.064625	-48.654402	-63.446759	149.573734	-63.446759	149.573734	-0.068633	-51.904856
3.350000	-0.065721	-49.356802	-63.029333	148.276532	-63.029333	148.276532	-0.069810	-52.655254
3.400000	-0.066831	-50.057396	-62.615420	146.964810	-62.615420	146.964810	-0.071003	-53.403967
3.450000	-0.067946	-50.757304	-62.214626	145.648558	-62.214626	145.648558	-0.072202	-54.152058
3.500000	-0.069077	-51.455153	-61.815138	144.318711	-61.815138	144.318711	-0.073421	-54.898284
3.550000	-0.070213	-52.152540	-61.429668	142.986369	-61.429668	142.986369	-0.074645	-55.644106
3.600000	-0.071367	-52.847613	-61.043582	141.641547	-61.043582	141.641547	-0.075892	-56.387903
3.650000	-0.072524	-53.542452	-60.672268	140.295708	-60.672268	140.295708	-0.077141	-57.131505
3.700000	-0.073704	-54.234721	-60.298649	138.938685	-60.298649	138.938685	-0.078419	-57.872953
3.750000	-0.074883	-54.926989	-59.940441	137.581662	-59.940441	137.581662	-0.079697	-58.614401
3.800000	-0.076089	-55.616429	-59.578425	136.214944	-59.578425	136.214944	-0.081008	-59.353607
3.850000	-0.077295	-56.305868	-59.230895	134.848227	-59.230895	134.848227	-0.082319	-60.092813
3.900000	-0.078527	-56.992693	-58.881143	133.474759	-58.881143	133.474759	-0.083664	-60.830095
3.950000	-0.079760	-57.679280	-58.543569	132.100677	-58.543569	132.100677	-0.085012	-61.567201
4.000000	-0.081019	-58.363475	-58.205154	130.722325	-58.205154	130.722325	-0.086394	-62.302713
4.050000	-0.082282	-59.047191	-57.876839	129.343119	-57.876839	129.343119	-0.087783	-63.037906
4.100000	-0.083568	-59.728741	-57.548888	127.961745	-57.548888	127.961745	-0.089205	-63.771850
4.150000	-0.084863	-60.409570	-57.229146	126.579649	-57.229146	126.579649	-0.090639	-64.505377
4.200000	-0.086179	-61.088465	-56.910819	125.197179	-56.910819	125.197179	-0.092106	-65.238011
4.250000	-0.087506	-61.766392	-56.598954	123.814522	-56.598954	123.814522	-0.093590	-65.970199
4.300000	-0.088853	-62.442621	-56.289424	122.433021	-56.289424	122.433021	-0.095109	-66.701862
4.350000	-0.090214	-63.117636	-55.984702	121.052347	-55.984702	121.052347	-0.096651	-67.433150
4.400000	-0.091594	-63.791192	-55.683129	119.674125	-55.683129	119.674125	-0.098228	-68.164287
4.450000	-0.092991	-64.463288	-55.384740	118.298356	-55.384740	118.298356	-0.099839	-68.895274
4.500000	-0.094404	-65.134164	-55.090238	116.926104	-55.090238	116.926104	-0.101485	-69.626484
4.550000	-0.095840	-65.803335	-54.797240	115.558776	-54.797240	115.558776	-0.103180	-70.358006
4.600000	-0.097288	-66.471530	-54.508826	114.195765	-54.508826	114.195765	-0.104910	-71.090105
4.650000	-0.098763	-67.137772	-54.220048	112.841387	-54.220048	112.841387	-0.106711	-71.823359
4.700000	-0.100248	-67.803283	-53.936571	111.491761	-53.936571	111.491761	-0.108549	-72.557490
4.750000	-0.101764	-68.466598	-53.650458	110.156386	-53.650458	110.156386	-0.110493	-73.294252
4.800000	-0.103287	-69.129426	-53.370484	108.825603	-53.370484	108.825603	-0.112473	-74.032057
4.850000	-0.104846	-69.789816	-53.084795	107.517783	-53.084795	107.517783	-0.114626	-74.775076
4.900000	-0.106409	-70.449962	-52.806418	106.213318	-52.806418	106.213318	-0.116808	-75.518991
4.950000	-0.108014	-71.107431	-52.517649	104.945774	-52.517649	104.945774	-0.119290	-76.272757
5.000000	-0.109618	-71.764900	-52.238172	103.678230	-52.238172	103.678230	-0.121773	-77.026524
5.050000	-0.111261	-72.419939	-51.945874	102.458360	-51.945874	102.458360	-0.124701	-77.794731
5.100000	-0.112924	-73.073793	-51.649121	101.270810	-51.649121	101.270810	-0.127987	-78.573909
5.150000	-0.114608	-73.726462	-51.346667	100.119716	-51.346667	100.119716	-0.131719	-79.366119
5.200000	-0.116317	-74.377625	-51.031034	99.024234	-51.031034	99.024234	-0.136209	-80.179509
5.250000	-0.118055	-75.027175	-50.689817	98.010425	-50.689817	98.010425	-0.142172	-81.028901
5.300000	-0.119812	-75.675757	-50.333320	97.055342	-50.333320	97.055342	-0.149453	-81.907387
5.350000	-0.121599	-76.322750	-49.928923	96.215917	-49.928923	96.215917	-0.160131	-82.852633
5.400000	-0.123417	-76.968227	-49.445909	95.509317	-49.445909	95.509317	-0.177461	-83.905106
5.450000	-0.125264	-77.612419	-48.857187	94.905154	-48.857187	94.905154	-0.206219	-85.106621
5.500000	-0.127147	-78.255051	-48.034890	94.268837	-48.034890	94.268837	-0.266841	-86.620109
5.550000	-0.129068	-78.896022	-46.754392	92.722833	-46.754392	92.722833	-0.425510	-88.730319
5.600000	-0.130974	-79.534719	-44.605423	85.475763	-44.605423	85.475763	-1.005587	-91.538131
5.650000	-0.132398	-80.172269	-43.431716	56.056178	-43.431716	56.056178	-2.284314	-84.226680
5.700000	-0.134242	-80.812995	-47.507781	40.665205	-47.507781	40.665205	-0.927114	-79.131091
5.750000	-0.136381	-81.449969	-49.626708	49.229022	-49.626708	49.229022	-0.437855	-81.771706
5.800000	-0.138478	-82.084923	-50.000536	56.405824	-50.000536	56.405824	-0.295513	-83.718417
5.850000	-0.140568	-82.718414	-49.881393	60.204790	-49.881393	60.204790	-0.239475	-85.147341
5.900000	-0.142670	-83.350509	-49.641967	61.987163	-49.641967	61.987163	-0.213135	-86.301929
5.950000	-0.144791	-83.981315	-49.380560	62.713847	-49.380560	62.713847	-0.198756	-87.311413
6.000000	-0.146936	-84.610843	-49.120536	62.796483	-49.120536	62.796483	-0.190635	-88.229128
6.050000	-0.149108	-85.239051	-48.868909	62.461582	-48.868909	62.461582	-0.186104	-89.084613
6.100000	-0.151308	-85.865928	-48.626953	61.854079	-48.626953	61.854079	-0.183699	-89.897470
6.150000	-0.153543	-86.491295	-48.394330	61.041600	-48.394330	61.041600	-0.182769	-90.676647
6.200000	-0.155801	-87.115693	-48.169124	60.136122	-48.169124	60.136122	-0.182471	-91.439830
6.250000	-0.158085	-87.739010	-47.950944	59.137689	-47.950944	59.137689	-0.182792	-92.186762
6.300000	-0.160412	-88.360572	-47.739308	58.036836	-47.739308	58.036836	-0.183761	-92.914683
6.350000	-0.162766	-88.981071	-47.532960	56.892001	-47.532960	56.892001	-0.185000	-93.633930
6.400000	-0.165147	-89.600512	-47.331519	55.707546	-47.331519	55.707546	-0.186481	-94.345212
6.450000	-0.167564	-90.218613	-47.134511	54.482386	-47.134511	54.482386	-0.188211	-95.047945
6.500000	-0.170019	-90.835294	-46.941379	53.224620	-46.941379	53.224620	-0.190141	-95.743365
6.550000	-0.172503	-91.450941	-46.751951	51.947032	-46.751951	51.947032	-0.192196	-96.434129
6.600000	-0.175016	-92.065558	-46.566014	50.651520	-46.566014	50.651520	-0.194366	-97.120564
6.650000	-0.177573	-92.678598	-46.382934	49.333977	-46.382934	49.333977	-0.196684	-97.801315
6.700000	-0.180171	-93.290266	-46.202562	48.001560	-46.202562	48.001560	-0.199110	-98.477882
6.750000	-0.182790	-93.901248	-46.025336	46.661707	-46.025336	46.661707	-0.201590	-99.152358
6.800000	-0.185452	-94.510812	-45.850425	45.310117	-45.850425	45.310117	-0.204167	-99.823174
6.850000	-0.188144	-95.119363	-45.678106	43.950142	-45.678106	43.950142	-0.206812	-100.491375
6.900000	-0.190875	-95.726721	-45.508026	42.582739	-45.508026	42.582739	-0.209529	-101.156958
6.950000	-0.193644	-96.332886	-45.340119	41.207907	-45.340119	41.207907	-0.212318	-101.819923
7.000000	-0.196445	-96.938076	-45.174441	39.828420	-45.174441	39.828420	-0.215161	-102.481025
7.050000	-0.199292	-97.541903	-45.010554	38.442415	-45.010554	38.442415	-0.218079	-103.139519
7.100000	-0.202165	-98.144966	-44.848931	37.053571	-44.848931	37.053571	-0.221038	-103.796721
7.150000	-0.205090	-98.746503	-44.688744	35.659046	-44.688744	35.659046	-0.224078	-104.451338
7.200000	-0.208037	-99.347480	-44.530879	34.262878	-44.530879	34.262878	-0.227147	-105.105103
7.250000	-0.211043	-99.946778	-44.374125	32.861781	-44.374125	32.861781	-0.230302	-105.756315
7.300000	-0.214063	-100.545711	-44.219766	31.459832	-44.219766	31.459832	-0.233476	-106.407025
7.350000	-0.217152	-101.142822	-44.066211	30.053617	-44.066211	30.053617	-0.236744	-107.055226
7.400000	-0.220248	-101.739756	-43.915132	28.647067	-43.915132	28.647067	-0.240022	-107.703206
7.450000	-0.223420	-102.334734	-43.764567	27.236828	-43.764567	27.236828	-0.243401	-108.348738
7.500000	-0.226593	-102.929712	-43.616567	25.826589	-43.616567	25.826589	-0.246781	-108.994271
7.550000	-0.229851	-103.522612	-43.468797	24.413145	-43.468797	24.413145	-0.250270	-109.637441
7.600000	-0.233109	-104.115512	-43.323500	22.999702	-43.323500	22.999702	-0.253761	-110.280612
7.650000	-0.236446	-104.706560	-43.178529	21.583873	-43.178529	21.583873	-0.257354	-110.921883
7.700000	-0.239792	-105.297439	-43.035755	20.167827	-43.035755	20.167827	-0.260957	-111.562981
7.750000	-0.243209	-105.886683	-42.893401	18.749959	-42.893401	18.749959	-0.264654	-112.202588
7.800000	-0.246643	-106.475600	-42.752972	17.331728	-42.752972	17.331728	-0.268371	-112.841897
7.850000	-0.250143	-107.063090	-42.613050	15.912043	-42.613050	15.912043	-0.272175	-113.480081
7.900000	-0.253666	-107.650105	-42.474781	14.491874	-42.474781	14.491874	-0.276010	-114.117891
7.950000	-0.257249	-108.235892	-42.337100	13.070461	-42.337100	13.070461	-0.279926	-114.754911
8.000000	-0.260863	-108.821066	-42.200790	11.648426	-42.200790	11.648426	-0.283884	-115.391536
8.050000	-0.264531	-109.405203	-42.065142	10.225227	-42.065142	10.225227	-0.287917	-116.027678
8.100000	-0.268238	-109.988599	-41.930563	8.801197	-41.930563	8.801197	-0.292006	-116.663473
8.150000	-0.271992	-110.571138	-41.796716	7.375973	-41.796716	7.375973	-0.296165	-117.299067
8.200000	-0.275793	-111.152822	-41.663596	5.949555	-41.663596	5.949555	-0.300397	-117.934458
8.250000	-0.279634	-111.733820	-41.531276	4.521819	-41.531276	4.521819	-0.304696	-118.569907
8.300000	-0.283530	-112.313858	-41.399272	3.092237	-41.399272	3.092237	-0.309089	-119.205434
8.350000	-0.287461	-112.893342	-41.268072	1.661020	-41.268072	1.661020	-0.313552	-119.841278
8.400000	-0.291460	-113.471719	-41.136515	0.226536	-41.136515	0.226536	-0.318152	-120.477754
8.450000	-0.295462	-114.050065	-41.006839	-1.208103	-41.006839	-1.208103	-0.322759	-121.114273
8.500000	-0.299571	-114.626779	-40.874727	-2.650919	-40.874727	-2.650919	-0.327648	-121.753047
8.550000	-0.303682	-115.203494	-40.744594	-4.093734	-40.744594	-4.093734	-0.332539	-122.391820
8.600000	-0.307871	-115.779104	-40.612304	-5.547010	-40.612304	-5.547010	-0.337740	-123.033748
8.650000	-0.312095	-116.354249	-40.480308	-7.004690	-40.480308	-7.004690	-0.343075	-123.677002
8.700000	-0.316365	-116.928822	-40.347072	-8.473836	-40.347072	-8.473836	-0.348725	-124.323534
8.750000	-0.320706	-117.502497	-40.210875	-9.960999	-40.210875	-9.960999	-0.354872	-124.975216
8.800000	-0.325057	-118.076095	-40.076127	-11.451285	-40.076127	-11.451285	-0.361107	-125.627691
8.850000	-0.329493	-118.648731	-39.935411	-12.980602	-39.935411	-12.980602	-0.368405	-126.290088
8.900000	-0.333991	-119.220763	-39.789574	-14.556768	-39.789574	-14.556768	-0.377012	-126.962705
8.950000	-0.338552	-119.792249	-39.637636	-16.203472	-39.637636	-16.203472	-0.387663	-127.648274
9.000000	-0.343181	-120.363185	-39.478372	-17.967465	-39.478372	-17.967465	-0.401874	-128.350735
9.050000	-0.347876	-120.933621	-39.313237	-19.886720	-39.313237	-19.886720	-0.421000	-129.070209
9.100000	-0.352671	-121.503266	-39.146988	-22.197584	-39.146988	-22.197584	-0.453350	-129.808304
9.150000	-0.357546	-122.072041	-39.017273	-25.105678	-39.017273	-25.105678	-0.507602	-130.515231
9.200000	-0.362464	-122.639620	-39.061710	-28.761807	-39.061710	-28.761807	-0.592743	-130.981912
9.250000	-0.367330	-123.206122	-39.456535	-31.429601	-39.456535	-31.429601	-0.650279	-130.916910
9.300000	-0.372100	-123.772289	-39.804607	-30.861550	-39.804607	-30.861550	-0.604059	-130.884504
9.350000	-0.376845	-124.338710	-39.770077	-29.759805	-39.770077	-29.759805	-0.536962	-131.343944
9.400000	-0.381651	-124.905331	-39.581859	-29.696527	-39.581859	-29.696527	-0.496445	-132.019041
9.450000	-0.386551	-125.471860	-39.383102	-30.357425	-39.383102	-30.357425	-0.476342	-132.729565
9.500000	-0.391539	-126.038126	-39.201775	-31.373294	-39.201775	-31.373294	-0.467078	-133.431572
9.550000	-0.396604	-126.604055	-39.037363	-32.543242	-39.037363	-32.543242	-0.462953	-134.119386
9.600000	-0.401729	-127.169694	-38.885127	-33.803044	-38.885127	-33.803044	-0.461927	-134.796641
9.650000	-0.406916	-127.735012	-38.743643	-35.124030	-38.743643	-35.124030	-0.463150	-135.463697
9.700000	-0.412182	-128.299905	-38.611714	-36.487211	-38.611714	-36.487211	-0.466072	-136.120825
9.750000	-0.417498	-128.864545	-38.484898	-37.866366	-38.484898	-37.866366	-0.469686	-136.773406
9.800000	-0.422864	-129.428941	-38.362569	-39.258746	-38.362569	-39.258746	-0.473888	-137.422007
9.850000	-0.428294	-129.993032	-38.244506	-40.663292	-38.244506	-40.663292	-0.478665	-138.066553
9.900000	-0.433785	-130.556871	-38.129555	-42.075362	-38.129555	-42.075362	-0.483818	-138.708514
9.950000	-0.439323	-131.120528	-38.017018	-43.492325	-38.017018	-43.492325	-0.489219	-139.348862
10.000000	-0.444908	-131.684015	-37.906666	-44.913597	-37.906666	-44.913597	-0.494844	-139.987838
