! freq	dB(S11)	phase(S11)	dB(S12)	phase(S12)	
!     	dB(S21)	phase(S21)	dB(S22)	phase(S22)	
!S-par simulation data
#  GHz  S  DB  R 50
0.000000	-0.000000	0.000000	-346.515700	180.000000	-346.515700	180.000000	-0.000000	0.000000
0.050000	-0.000115	-0.908027	-113.902808	88.078315	-113.902808	88.078315	-0.000107	-0.864018
0.100000	-0.000454	-1.815773	-108.031707	86.467947	-108.031707	86.467947	-0.000423	-1.727783
0.150000	-0.001004	-2.722980	-104.710362	85.254957	-104.710362	85.254957	-0.000936	-2.591056
0.200000	-0.001742	-3.629434	-102.435485	84.358139	-102.435485	84.358139	-0.001627	-3.453643
0.250000	-0.002655	-4.534891	-100.744257	83.686355	-100.744257	83.686355	-0.002482	-4.315319
0.300000	-0.003700	-5.439305	-99.421897	83.151128	-99.421897	83.151128	-0.003462	-5.176041
0.350000	-0.004856	-6.342548	-98.369127	82.731376	-98.369127	82.731376	-0.004549	-6.035687
0.400000	-0.006098	-7.244569	-97.526510	82.422920	-97.526510	82.422920	-0.005719	-6.894209
0.450000	-0.007402	-8.145347	-96.857835	82.240334	-96.857835	82.240334	-0.006950	-7.751584
0.500000	-0.008747	-9.044889	-96.340213	82.212554	-96.340213	82.212554	-0.008222	-8.607817
0.550000	-0.010116	-9.943217	-95.959096	82.382124	-95.959096	82.382124	-0.009519	-9.462929
0.600000	-0.011496	-10.840364	-95.705545	82.807366	-95.705545	82.807366	-0.010828	-10.316947
0.650000	-0.012875	-11.736365	-95.574516	83.567312	-95.574516	83.567312	-0.012138	-11.169909
0.700000	-0.014247	-12.631258	-95.563503	84.769856	-95.563503	84.769856	-0.013442	-12.021850
0.750000	-0.015606	-13.525076	-95.670959	86.563999	-95.670959	86.563999	-0.014735	-12.872803
0.800000	-0.016948	-14.417849	-95.893709	89.156997	-95.893709	89.156997	-0.016012	-13.722800
0.850000	-0.018272	-15.309600	-96.222005	92.835120	-96.222005	92.835120	-0.017272	-14.571865
0.900000	-0.019577	-16.200345	-96.629859	97.978417	-96.629859	97.978417	-0.018514	-15.420017
0.950000	-0.020862	-17.090097	-97.057896	105.036402	-97.057896	105.036402	-0.019737	-16.267271
1.000000	-0.022129	-17.978860	-97.390406	114.388953	-97.390406	114.388953	-0.020943	-17.113635
1.050000	-0.023379	-18.866635	-97.447633	126.008004	-97.447633	126.008004	-0.022131	-17.959113
1.100000	-0.024612	-19.753416	-97.042052	139.029780	-97.042052	139.029780	-0.023303	-18.803705
1.150000	-0.025830	-20.639197	-96.106049	151.792055	-96.106049	151.792055	-0.024461	-19.647405
1.200000	-0.027035	-21.523966	-94.754518	162.739765	-94.754518	162.739765	-0.025605	-20.490206
1.250000	-0.028228	-22.407708	-93.185375	171.251713	-93.185375	171.251713	-0.026737	-21.332098
1.300000	-0.029409	-23.290360	-91.547170	177.429064	-91.547170	177.429064	-0.027858	-22.173026
1.350000	-0.030581	-24.171949	-89.946846	-178.147015	-89.946846	-178.147015	-0.028971	-23.013016
1.400000	-0.031745	-25.052456	-88.421812	-175.038460	-88.421812	-175.038460	-0.030075	-23.852050
1.450000	-0.032901	-25.931858	-86.983595	-172.904903	-86.983595	-172.904903	-0.031172	-24.690112
1.500000	-0.034052	-26.810134	-85.631743	-171.497436	-85.631743	-171.497436	-0.032263	-25.527182
1.550000	-0.035197	-27.687263	-84.360880	-170.637343	-84.360880	-170.637343	-0.033350	-26.363242
1.600000	-0.036338	-28.563222	-83.164026	-170.196201	-83.164026	-170.196201	-0.034432	-27.198272
1.650000	-0.037476	-29.437988	-82.034067	-170.080814	-82.034067	-170.080814	-0.035511	-28.032252
1.700000	-0.038610	-30.311538	-80.964361	-170.222624	-80.964361	-170.222624	-0.036588	-28.865162
1.750000	-0.039742	-31.183851	-79.948942	-170.570430	-79.948942	-170.570430	-0.037662	-29.696982
1.800000	-0.040873	-32.054904	-78.982545	-171.085412	-78.982545	-171.085412	-0.038736	-30.527692
1.850000	-0.042003	-32.924673	-78.060559	-171.737705	-78.060559	-171.737705	-0.039809	-31.357272
1.900000	-0.043132	-33.793139	-77.178959	-172.504014	-77.178959	-172.504014	-0.040881	-32.185704
1.950000	-0.044261	-34.660278	-76.334224	-173.365936	-76.334224	-173.365936	-0.041954	-33.012966
2.000000	-0.045390	-35.526071	-75.523269	-174.308756	-75.523269	-174.308756	-0.043028	-33.839040
2.050000	-0.046520	-36.390496	-74.743383	-175.320583	-74.743383	-175.320583	-0.044103	-34.663908
2.100000	-0.047651	-37.253533	-73.992173	-176.391704	-73.992173	-176.391704	-0.045179	-35.487551
2.150000	-0.048784	-38.115162	-73.267520	-177.514116	-73.267520	-177.514116	-0.046257	-36.309950
2.200000	-0.049919	-38.975364	-72.567538	-178.681164	-72.567538	-178.681164	-0.047338	-37.131089
2.250000	-0.051056	-39.834121	-71.890544	-179.887272	-71.890544	-179.887272	-0.048422	-37.950950
2.300000	-0.052197	-40.691413	-71.235026	178.872269	-71.235026	178.872269	-0.049508	-38.769516
2.350000	-0.053340	-41.547223	-70.599627	177.601461	-70.599627	177.601461	-0.050598	-39.586770
2.400000	-0.054487	-42.401534	-69.983118	176.303729	-69.983118	176.303729	-0.051692	-40.402698
2.450000	-0.055638	-43.254329	-69.384389	174.982021	-69.384389	174.982021	-0.052789	-41.217283
2.500000	-0.056793	-44.105592	-68.802426	173.638889	-68.802426	173.638889	-0.053892	-42.030510
2.550000	-0.057953	-44.955239	-68.235398	172.275808	-68.235398	172.275808	-0.054999	-42.842305
2.600000	-0.059119	-45.803322	-67.683463	170.895615	-67.683463	170.895615	-0.056111	-43.652712
2.650000	-0.060290	-46.649827	-67.145839	169.499988	-67.145839	169.499988	-0.057229	-44.461718
2.700000	-0.061467	-47.494738	-66.621803	168.090408	-66.621803	168.090408	-0.058353	-45.269309
2.750000	-0.062650	-48.338044	-66.110691	166.668189	-66.110691	166.668189	-0.059484	-46.075474
2.800000	-0.063840	-49.179731	-65.611891	165.234501	-65.611891	165.234501	-0.060621	-46.880199
2.850000	-0.065037	-50.019787	-65.124833	163.790388	-65.124833	163.790388	-0.061765	-47.683473
2.900000	-0.066242	-50.858200	-64.648990	162.336789	-64.648990	162.336789	-0.062916	-48.485285
2.950000	-0.067455	-51.694959	-64.183873	160.874544	-64.183873	160.874544	-0.064075	-49.285624
3.000000	-0.068677	-52.530053	-63.729024	159.404413	-63.729024	159.404413	-0.065242	-50.084480
3.050000	-0.069907	-53.363472	-63.284016	157.927083	-63.284016	157.927083	-0.066418	-50.881843
3.100000	-0.071147	-54.195208	-62.848452	156.443177	-62.848452	156.443177	-0.067603	-51.677703
3.150000	-0.072397	-55.025250	-62.421957	154.953259	-62.421957	154.953259	-0.068797	-52.472051
3.200000	-0.073656	-55.853591	-62.004181	153.457847	-62.004181	153.457847	-0.070001	-53.264880
3.250000	-0.074927	-56.680222	-61.594795	151.957411	-61.594795	151.957411	-0.071216	-54.056181
3.300000	-0.076208	-57.505137	-61.193490	150.452382	-61.193490	150.452382	-0.072440	-54.845946
3.350000	-0.077502	-58.328329	-60.799972	148.943155	-60.799972	148.943155	-0.073676	-55.634170
3.400000	-0.078807	-59.149791	-60.413967	147.430095	-60.413967	147.430095	-0.074923	-56.420844
3.450000	-0.080124	-59.969518	-60.035215	145.913535	-60.035215	145.913535	-0.076182	-57.205963
3.500000	-0.081455	-60.787505	-59.663468	144.393784	-59.663468	144.393784	-0.077454	-57.989522
3.550000	-0.082799	-61.603748	-59.298495	142.871128	-59.298495	142.871128	-0.078738	-58.771515
3.600000	-0.084157	-62.418242	-58.940073	141.345830	-58.940073	141.345830	-0.080035	-59.551937
3.650000	-0.085529	-63.230985	-58.587993	139.818135	-58.587993	139.818135	-0.081345	-60.330785
3.700000	-0.086915	-64.041972	-58.242055	138.288271	-58.242055	138.288271	-0.082670	-61.108055
3.750000	-0.088317	-64.851203	-57.902071	136.756448	-57.902071	136.756448	-0.084009	-61.883743
3.800000	-0.089736	-65.658598	-57.567552	135.222796	-57.567552	135.222796	-0.085364	-62.657777
3.850000	-0.091170	-66.464234	-57.238656	133.687580	-57.238656	133.687580	-0.086734	-63.430225
3.900000	-0.092621	-67.268109	-56.915216	132.150972	-56.915216	132.150972	-0.088120	-64.201084
3.950000	-0.094090	-68.070224	-56.597075	130.613128	-56.597075	130.613128	-0.089522	-64.970353
4.000000	-0.095576	-68.870579	-56.284082	129.074198	-56.284082	129.074198	-0.090940	-65.738031
4.050000	-0.097080	-69.669174	-55.976092	127.534321	-55.976092	127.534321	-0.092376	-66.504118
4.100000	-0.098602	-70.466013	-55.672968	125.993626	-55.672968	125.993626	-0.093829	-67.268614
4.150000	-0.100143	-71.261096	-55.374577	124.452238	-55.374577	124.452238	-0.095301	-68.031519
4.200000	-0.101711	-72.053818	-55.078951	122.910120	-55.078951	122.910120	-0.096797	-68.792281
4.250000	-0.103289	-72.845626	-54.790382	121.367738	-54.790382	121.367738	-0.098303	-69.552215
4.300000	-0.104892	-73.635312	-54.505062	119.824954	-54.505062	119.824954	-0.099833	-70.310218
4.350000	-0.106512	-74.423480	-54.224647	118.281885	-54.224647	118.281885	-0.101380	-71.066842
4.400000	-0.108156	-75.209839	-53.948170	116.738670	-53.948170	116.738670	-0.102948	-71.821817
4.450000	-0.109821	-75.994387	-53.675540	115.195310	-53.675540	115.195310	-0.104537	-72.575144
4.500000	-0.111506	-76.777438	-53.407438	113.651977	-53.407438	113.651977	-0.106146	-73.327103
4.550000	-0.113219	-77.558391	-53.142248	112.108681	-53.142248	112.108681	-0.107780	-74.077148
4.600000	-0.114947	-78.338156	-52.882092	110.565510	-52.882092	110.565510	-0.109429	-74.826105
4.650000	-0.116708	-79.115543	-52.624020	109.022591	-52.624020	109.022591	-0.111110	-75.572887
4.700000	-0.118482	-79.892048	-52.371412	107.479837	-52.371412	107.479837	-0.112803	-76.318860
4.750000	-0.120294	-80.665903	-52.120160	105.937577	-52.120160	105.937577	-0.114532	-77.062404
4.800000	-0.122115	-81.439175	-51.874732	104.395469	-51.874732	104.395469	-0.116269	-77.805412
4.850000	-0.123979	-82.209536	-51.630019	102.854121	-51.630019	102.854121	-0.118049	-78.545744
4.900000	-0.125848	-82.979609	-51.391431	101.312867	-51.391431	101.312867	-0.119833	-79.285811
4.950000	-0.127767	-83.746517	-51.152995	99.772656	-51.152995	99.772656	-0.121664	-80.022963
5.000000	-0.129686	-84.513425	-50.920929	98.232446	-50.920929	98.232446	-0.123496	-80.760115
5.050000	-0.131662	-85.276927	-50.688524	96.693579	-50.688524	96.693579	-0.125382	-81.494121
5.100000	-0.133638	-86.040429	-50.462175	95.154712	-50.462175	95.154712	-0.127268	-82.228127
5.150000	-0.135667	-86.800854	-50.236081	93.617246	-50.236081	93.617246	-0.129206	-82.959285
5.200000	-0.137701	-87.561000	-50.015236	92.079909	-50.015236	92.079909	-0.131148	-83.690183
5.250000	-0.139786	-88.318394	-49.795173	90.543986	-49.795173	90.543986	-0.133139	-84.418527
5.300000	-0.141881	-89.075238	-49.579632	89.008346	-49.579632	89.008346	-0.135139	-85.146360
5.350000	-0.144022	-89.829649	-49.365339	87.474095	-49.365339	87.474095	-0.137184	-85.871928
5.400000	-0.146179	-90.583249	-49.154913	85.940308	-49.154913	85.940308	-0.139244	-86.596741
5.450000	-0.148379	-91.334727	-48.946144	84.407848	-48.946144	84.407848	-0.141346	-87.319572
5.500000	-0.150600	-92.085145	-48.740655	82.876053	-48.740655	82.876053	-0.143468	-88.041413
5.550000	-0.152860	-92.833744	-48.537183	81.345496	-48.537183	81.345496	-0.145627	-88.761551
5.600000	-0.155147	-93.581044	-48.336461	79.815822	-48.336461	79.815822	-0.147812	-89.480472
5.650000	-0.157468	-94.326820	-48.138070	78.287268	-48.138070	78.287268	-0.150031	-90.197961
5.700000	-0.159824	-95.071072	-47.941955	76.759834	-47.941955	76.759834	-0.152282	-90.914018
5.750000	-0.162208	-95.814083	-47.748444	75.233379	-47.748444	75.233379	-0.154562	-91.628905
5.800000	-0.164633	-96.555359	-47.556784	73.708293	-47.556784	73.708293	-0.156880	-92.342155
5.850000	-0.167082	-97.295667	-47.367962	72.184024	-47.367962	72.184024	-0.159222	-93.054491
5.900000	-0.169579	-98.034042	-47.180613	70.661386	-47.180613	70.661386	-0.161610	-93.764997
5.950000	-0.172094	-98.771711	-46.996302	69.139384	-46.996302	69.139384	-0.164016	-94.474832
6.000000	-0.174664	-99.507263	-46.813126	67.619288	-46.813126	67.619288	-0.166475	-95.182657
6.050000	-0.177247	-100.242359	-46.633158	66.099629	-46.633158	66.099629	-0.168947	-95.890047
6.100000	-0.179893	-100.975171	-46.454024	64.582158	-46.454024	64.582158	-0.171478	-96.595260
6.150000	-0.182545	-101.707762	-46.278239	63.064912	-46.278239	63.064912	-0.174017	-97.300260
6.200000	-0.185267	-102.437919	-46.103023	61.550145	-46.103023	61.550145	-0.176623	-98.002930
6.250000	-0.187990	-103.168076	-45.931271	60.035377	-45.931271	60.035377	-0.179231	-98.705600
6.300000	-0.190792	-103.895666	-45.759853	58.523384	-45.759853	58.523384	-0.181914	-99.405801
6.350000	-0.193593	-104.623256	-45.591753	57.011392	-45.591753	57.011392	-0.184597	-100.106002
6.400000	-0.196469	-105.348576	-45.424260	55.502002	-45.424260	55.502002	-0.187352	-100.804008
6.450000	-0.199351	-106.073690	-45.259704	53.992850	-45.259704	53.992850	-0.190114	-101.501816
6.500000	-0.202301	-106.796819	-45.095998	52.486114	-45.095998	52.486114	-0.192942	-102.197695
6.550000	-0.205266	-107.519550	-44.934886	50.979861	-44.934886	50.979861	-0.195785	-102.893188
6.600000	-0.208294	-108.240568	-44.774837	49.475823	-44.774837	49.475823	-0.198688	-103.587006
6.650000	-0.211343	-108.961014	-44.617072	47.972524	-44.617072	47.972524	-0.201611	-104.280266
6.700000	-0.214448	-109.680003	-44.460556	46.471224	-44.460556	46.471224	-0.204591	-104.972093
6.750000	-0.217583	-110.398262	-44.306043	44.970925	-44.306043	44.970925	-0.207598	-105.663204
6.800000	-0.220768	-111.115307	-44.152944	43.472401	-44.152944	43.472401	-0.210655	-106.353112
6.850000	-0.223990	-111.831483	-44.001594	41.975145	-44.001594	41.975145	-0.213748	-107.042161
6.900000	-0.227256	-112.546669	-43.851800	40.479428	-43.851800	40.479428	-0.216884	-107.730223
6.950000	-0.230567	-113.260866	-43.703526	38.985250	-43.703526	38.985250	-0.220064	-108.417299
7.000000	-0.233916	-113.974283	-43.556931	37.492368	-43.556931	37.492368	-0.223281	-109.103591
7.050000	-0.237318	-114.686609	-43.411652	36.001299	-43.411652	36.001299	-0.226549	-109.788786
7.100000	-0.240750	-115.398347	-43.268154	34.511274	-43.268154	34.511274	-0.229848	-110.473385
7.150000	-0.244244	-116.108910	-43.125791	33.023338	-43.125791	33.023338	-0.233206	-111.156793
7.200000	-0.247762	-116.819062	-42.985295	31.536189	-42.985295	31.536189	-0.236589	-111.839779
7.250000	-0.251349	-117.527976	-42.845770	30.051403	-42.845770	30.051403	-0.240039	-112.521497
7.300000	-0.254953	-118.236635	-42.708183	28.567144	-42.708183	28.567144	-0.243506	-113.202950
7.350000	-0.258636	-118.944016	-42.571424	27.085520	-42.571424	27.085520	-0.247050	-113.883078
7.400000	-0.262328	-119.651279	-42.436660	25.604160	-42.436660	25.604160	-0.250603	-114.563082
7.450000	-0.266107	-120.357243	-42.302597	24.125703	-42.302597	24.125703	-0.254242	-115.241721
7.500000	-0.269888	-121.063208	-42.170571	22.647246	-42.170571	22.647246	-0.257883	-115.920360
7.550000	-0.273765	-121.767876	-42.039136	21.171954	-42.039136	21.171954	-0.261618	-116.597615
7.600000	-0.277645	-122.472544	-41.909660	19.696663	-41.909660	19.696663	-0.265356	-117.274869
7.650000	-0.281613	-123.176137	-41.780898	18.224264	-41.780898	18.224264	-0.269181	-117.950953
7.700000	-0.285592	-123.879631	-41.653910	16.752129	-41.653910	16.752129	-0.273017	-118.626930
7.750000	-0.289654	-124.582252	-41.527744	15.282612	-41.527744	15.282612	-0.276934	-119.301933
7.800000	-0.293733	-125.284698	-41.403185	13.813618	-41.403185	13.813618	-0.280869	-119.976741
7.850000	-0.297889	-125.986454	-41.279542	12.346964	-41.279542	12.346964	-0.284879	-120.650757
7.900000	-0.302070	-126.687979	-41.157357	10.881089	-41.157357	10.881089	-0.288915	-121.324508
7.950000	-0.306321	-127.388977	-41.036168	9.417273	-41.036168	9.417273	-0.293019	-121.997631
8.000000	-0.310606	-128.089711	-40.916302	7.954487	-40.916302	7.954487	-0.297158	-122.670439
8.050000	-0.314952	-128.790061	-40.797501	6.493482	-40.797501	6.493482	-0.301357	-123.342766
8.100000	-0.319342	-129.490137	-40.679903	5.033748	-40.679903	5.033748	-0.305599	-124.014748
8.150000	-0.323784	-130.189951	-40.563426	3.575519	-40.563426	3.575519	-0.309895	-124.686376
8.200000	-0.328280	-130.889503	-40.448047	2.118793	-40.448047	2.118793	-0.314242	-125.357651
8.250000	-0.332821	-131.588895	-40.333835	0.663299	-40.333835	0.663299	-0.318635	-126.028681
8.300000	-0.337423	-132.288061	-40.220629	-0.790470	-40.220629	-0.790470	-0.323089	-126.699370
8.350000	-0.342062	-132.987145	-40.108626	-2.243273	-40.108626	-2.243273	-0.327579	-127.369905
8.400000	-0.346772	-133.686065	-39.997549	-3.694144	-39.997549	-3.694144	-0.332141	-128.040132
8.450000	-0.351511	-134.384960	-39.887701	-5.144306	-39.887701	-5.144306	-0.336731	-128.710276
8.500000	-0.356330	-135.083776	-39.778711	-6.592344	-39.778711	-6.592344	-0.341401	-129.380168
8.550000	-0.361169	-135.782600	-39.670967	-8.039922	-39.670967	-8.039922	-0.346092	-130.050026
8.600000	-0.366097	-136.481459	-39.564027	-9.485199	-39.564027	-9.485199	-0.350872	-130.719712
8.650000	-0.371037	-137.180334	-39.458340	-10.930253	-39.458340	-10.930253	-0.355664	-131.389392
8.700000	-0.376075	-137.879382	-39.353413	-12.372849	-39.353413	-12.372849	-0.360555	-132.059005
8.750000	-0.381116	-138.578430	-39.249738	-13.815444	-39.249738	-13.815444	-0.365448	-132.728618
8.800000	-0.386266	-139.277819	-39.146791	-15.255442	-39.146791	-15.255442	-0.370451	-133.398292
8.850000	-0.391418	-139.977208	-39.045050	-16.695441	-39.045050	-16.695441	-0.375457	-134.067966
8.900000	-0.396670	-140.677049	-38.944089	-18.133141	-38.944089	-18.133141	-0.380563	-134.737822
8.950000	-0.401933	-141.376931	-38.844252	-19.570633	-38.844252	-19.570633	-0.385682	-135.407694
9.000000	-0.407288	-142.077354	-38.745240	-21.006115	-38.745240	-21.006115	-0.390892	-136.077849
9.050000	-0.412664	-142.777886	-38.647283	-22.441196	-38.647283	-22.441196	-0.396124	-136.748060
9.100000	-0.418122	-143.479023	-38.550184	-23.874544	-38.550184	-23.874544	-0.401440	-137.418633
9.150000	-0.423609	-144.180363	-38.454083	-25.307314	-38.454083	-25.307314	-0.406786	-138.089326
9.200000	-0.429170	-144.882350	-38.358866	-26.738613	-38.358866	-26.738613	-0.412207	-138.760438
9.250000	-0.434770	-145.584660	-38.264600	-28.169177	-38.264600	-28.169177	-0.417668	-139.431760
9.300000	-0.440435	-146.287632	-38.171237	-29.598516	-38.171237	-29.598516	-0.423195	-140.103535
9.350000	-0.446147	-146.991076	-38.078790	-31.026981	-38.078790	-31.026981	-0.428771	-140.775634
9.400000	-0.451916	-147.695172	-37.987254	-32.454451	-37.987254	-32.454451	-0.434404	-141.448198
9.450000	-0.457740	-148.399919	-37.896611	-33.880926	-37.896611	-33.880926	-0.440096	-142.121227
9.500000	-0.463612	-149.105280	-37.806879	-35.306618	-37.806879	-35.306618	-0.445836	-142.794708
9.550000	-0.469548	-149.811501	-37.718030	-36.731215	-37.718030	-36.731215	-0.451643	-143.468822
9.600000	-0.475523	-150.518270	-37.630082	-38.155222	-37.630082	-38.155222	-0.457490	-144.143351
9.650000	-0.481571	-151.226137	-37.543018	-39.578051	-37.543018	-39.578051	-0.463413	-144.818709
9.700000	-0.487648	-151.934461	-37.456837	-41.000466	-37.456837	-41.000466	-0.469367	-145.494420
9.750000	-0.493807	-152.644152	-37.371556	-42.421637	-37.371556	-42.421637	-0.475405	-146.171185
9.800000	-0.499987	-153.354178	-37.287127	-43.842551	-37.287127	-43.842551	-0.481466	-146.848212
9.850000	-0.506255	-154.065874	-37.203626	-45.262173	-37.203626	-45.262173	-0.487620	-147.526549
9.900000	-0.512537	-154.777753	-37.120938	-46.681674	-37.120938	-46.681674	-0.493788	-148.205031
9.950000	-0.518914	-155.491637	-37.039220	-48.099851	-37.039220	-48.099851	-0.500057	-148.885109
10.000000	-0.525296	-156.205521	-36.958264	-49.518028	-36.958264	-49.518028	-0.506331	-149.565188
