! freq	dB(S11)	phase(S11)	dB(S12)	phase(S12)	
!     	dB(S21)	phase(S21)	dB(S22)	phase(S22)	
!S-par simulation data
#  GHz  S  DB  R 50
0.000000	-0.000000	0.000000	-397.732988	180.000000	-397.732988	180.000000	-0.000000	0.000000
0.050000	-0.000099	-0.761965	-117.450150	88.292793	-117.450150	88.292793	-0.000099	-0.761876
0.100000	-0.000392	-1.523689	-111.570462	86.843644	-111.570462	86.843644	-0.000392	-1.523511
0.150000	-0.000871	-2.284928	-108.249632	85.751346	-108.249632	85.751346	-0.000871	-2.284661
0.200000	-0.001505	-3.045541	-105.975762	84.945620	-105.975762	84.945620	-0.001505	-3.045185
0.250000	-0.002278	-3.805368	-104.285265	84.359135	-104.285265	84.359135	-0.002278	-3.804922
0.300000	-0.003175	-4.564212	-102.983463	83.946310	-102.983463	83.946310	-0.003175	-4.563676
0.350000	-0.004155	-5.322167	-101.945499	83.654286	-101.945499	83.654286	-0.004155	-5.321542
0.400000	-0.005207	-6.079066	-101.128083	83.501596	-101.128083	83.501596	-0.005207	-6.078352
0.450000	-0.006305	-6.834999	-100.484989	83.493816	-100.484989	83.493816	-0.006304	-6.834195
0.500000	-0.007434	-7.589943	-99.998523	83.670614	-99.998523	83.670614	-0.007433	-7.589051
0.550000	-0.008579	-8.343938	-99.653930	84.081759	-99.653930	84.081759	-0.008578	-8.342957
0.600000	-0.009730	-9.097024	-99.443072	84.798432	-99.443072	84.798432	-0.009729	-9.095954
0.650000	-0.010879	-9.849240	-99.361689	85.919166	-99.361689	85.919166	-0.010877	-9.848083
0.700000	-0.012019	-10.600626	-99.407741	87.581265	-99.407741	87.581265	-0.012017	-10.599382
0.750000	-0.013148	-11.351218	-99.579122	89.977798	-99.579122	89.977798	-0.013145	-11.349887
0.800000	-0.014262	-12.101046	-99.869482	93.380446	-99.869482	93.380446	-0.014259	-12.099628
0.850000	-0.015358	-12.850009	-100.254862	98.551350	-100.254862	98.551350	-0.015355	-12.848505
0.900000	-0.016439	-13.598220	-100.690759	105.672546	-100.690759	105.672546	-0.016435	-13.596630
0.950000	-0.017511	-14.346064	-101.043562	114.044348	-101.043562	114.044348	-0.017508	-14.344389
1.000000	-0.018561	-15.092808	-101.087287	126.167965	-101.087287	126.167965	-0.018558	-15.091047
1.050000	-0.019607	-15.839309	-100.930955	138.435279	-100.930955	138.435279	-0.019603	-15.837463
1.100000	-0.020631	-16.584596	-99.855507	151.421074	-99.855507	151.421074	-0.020627	-16.582665
1.150000	-0.021654	-17.329759	-98.807857	164.011478	-98.807857	164.011478	-0.021650	-17.327743
1.200000	-0.022658	-18.073569	-97.023697	172.252592	-97.023697	172.252592	-0.022653	-18.071468
1.250000	-0.023661	-18.817378	-95.544304	-179.506295	-95.544304	-179.506295	-0.023657	-18.815193
1.300000	-0.024652	-19.560054	-93.874984	-174.613383	-93.874984	-174.613383	-0.024648	-19.557785
1.350000	-0.025637	-20.301991	-92.284543	-171.167039	-92.284543	-171.167039	-0.025632	-20.299637
1.400000	-0.026616	-21.043175	-90.787109	-168.781543	-90.787109	-168.781543	-0.026611	-21.040737
1.450000	-0.027591	-21.783591	-89.382413	-167.177907	-89.382413	-167.177907	-0.027586	-21.781070
1.500000	-0.028561	-22.523226	-88.064438	-166.158157	-88.064438	-166.158157	-0.028556	-22.520620
1.550000	-0.029528	-23.262063	-86.825371	-165.581617	-86.825371	-165.581617	-0.029523	-23.259375
1.600000	-0.030492	-24.000089	-85.657313	-165.347242	-85.657313	-165.347242	-0.030487	-23.997317
1.650000	-0.031454	-24.737286	-84.552946	-165.381377	-84.552946	-165.381377	-0.031448	-24.734431
1.700000	-0.032413	-25.473338	-83.481771	-165.684897	-83.481771	-165.684897	-0.032408	-25.470401
1.750000	-0.033373	-26.208945	-82.496617	-166.085059	-82.496617	-166.085059	-0.033367	-26.205925
1.800000	-0.034331	-26.943478	-81.543218	-166.645471	-81.543218	-166.645471	-0.034325	-26.940376
1.850000	-0.035289	-27.677244	-80.640040	-167.320348	-80.640040	-167.320348	-0.035283	-27.674060
1.900000	-0.036246	-28.410056	-79.772033	-168.089545	-79.772033	-168.089545	-0.036241	-28.406790
1.950000	-0.037204	-29.141913	-78.937570	-168.953064	-78.937570	-168.953064	-0.037199	-29.138566
2.000000	-0.038163	-29.872948	-78.140420	-169.872759	-78.140420	-169.872759	-0.038157	-29.869518
2.050000	-0.039123	-30.602829	-77.364359	-170.871101	-77.364359	-170.871101	-0.039117	-30.599319
2.100000	-0.040083	-31.332030	-76.626961	-171.902625	-76.626961	-171.902625	-0.040077	-31.328440
2.150000	-0.041046	-32.059871	-75.901199	-173.000514	-75.901199	-173.000514	-0.041040	-32.056200
2.200000	-0.042010	-32.787185	-75.214906	-174.117272	-75.214906	-174.117272	-0.042004	-32.783434
2.250000	-0.042977	-33.512922	-74.532980	-175.290643	-74.532980	-175.290643	-0.042971	-33.509091
2.300000	-0.043945	-34.238297	-73.890940	-176.473765	-73.890940	-176.473765	-0.043939	-34.234387
2.350000	-0.044918	-34.961867	-73.247620	-177.705646	-73.247620	-177.705646	-0.044911	-34.957879
2.400000	-0.045891	-35.685253	-72.644311	-178.941376	-72.644311	-178.941376	-0.045884	-35.681185
2.450000	-0.046871	-36.406599	-72.035302	179.780552	-72.035302	179.780552	-0.046864	-36.402453
2.500000	-0.047851	-37.127945	-71.466210	178.502480	-71.466210	178.502480	-0.047844	-37.123721
2.550000	-0.048839	-37.847010	-70.887941	177.187382	-70.887941	177.187382	-0.048832	-37.842709
2.600000	-0.049827	-38.566074	-70.345780	175.872284	-70.345780	175.872284	-0.049820	-38.561696
2.650000	-0.050824	-39.282998	-69.798794	174.529630	-69.798794	174.529630	-0.050816	-39.278544
2.700000	-0.051822	-39.999728	-69.281086	173.184471	-69.281086	173.184471	-0.051814	-39.995196
2.750000	-0.052829	-40.714467	-68.762169	171.818757	-68.762169	171.818757	-0.052821	-40.709860
2.800000	-0.053838	-41.428809	-68.266791	170.448932	-68.266791	170.448932	-0.053830	-41.424126
2.850000	-0.054856	-42.141323	-67.773218	169.063795	-67.773218	169.063795	-0.054848	-42.136565
2.900000	-0.055878	-42.853227	-67.298332	167.673553	-67.298332	167.673553	-0.055869	-42.848395
2.950000	-0.056908	-43.563476	-66.827772	166.271962	-66.827772	166.271962	-0.056899	-43.558569
3.000000	-0.057943	-44.272896	-66.371776	164.864698	-66.371776	164.864698	-0.057935	-44.267916
3.050000	-0.058988	-44.980842	-65.922214	163.449108	-65.922214	163.449108	-0.058979	-44.975788
3.100000	-0.060039	-45.687734	-65.483702	162.027571	-65.483702	162.027571	-0.060029	-45.682607
3.150000	-0.061098	-46.393341	-65.053387	160.600023	-65.053387	160.600023	-0.061088	-46.388141
3.200000	-0.062166	-47.097663	-64.631118	159.166466	-64.631118	159.166466	-0.062156	-47.092391
3.250000	-0.063241	-47.800898	-64.218516	157.728677	-64.218516	157.728677	-0.063231	-47.795554
3.300000	-0.064327	-48.502611	-63.811384	156.284965	-63.811384	156.284965	-0.064317	-48.497195
3.350000	-0.065420	-49.203442	-63.415145	154.838388	-63.415145	154.838388	-0.065410	-49.197955
3.400000	-0.066526	-49.902509	-63.022162	153.386082	-63.022162	153.386082	-0.066516	-49.896951
3.450000	-0.067638	-50.600906	-62.641089	151.931956	-62.641089	151.931956	-0.067628	-50.595278
3.500000	-0.068766	-51.297294	-62.261370	150.472372	-62.261370	150.472372	-0.068755	-51.291596
3.550000	-0.069898	-51.993230	-61.894396	149.011761	-61.894396	149.011761	-0.069887	-51.987462
3.600000	-0.071049	-52.686907	-61.527140	147.546019	-61.527140	147.546019	-0.071038	-52.681071
3.650000	-0.072202	-53.380356	-61.173313	146.079843	-61.173313	146.079843	-0.072191	-53.374451
3.700000	-0.073378	-54.071295	-60.817795	144.608901	-60.817795	144.608901	-0.073366	-54.065322
3.750000	-0.074553	-54.762234	-60.476258	143.137959	-60.476258	143.137959	-0.074542	-54.756193
3.800000	-0.075756	-55.450409	-60.131819	141.662646	-60.131819	141.662646	-0.075744	-55.444301
3.850000	-0.076958	-56.138585	-59.800519	140.187333	-59.800519	140.187333	-0.076946	-56.132409
3.900000	-0.078186	-56.824206	-59.467836	138.708671	-59.467836	138.708671	-0.078174	-56.817964
3.950000	-0.079416	-57.509595	-59.146240	137.229704	-59.146240	137.229704	-0.079404	-57.503287
4.000000	-0.080671	-58.192645	-58.824596	135.748216	-58.824596	135.748216	-0.080659	-58.186272
4.050000	-0.081931	-58.875228	-58.512215	134.266223	-58.512215	134.266223	-0.081919	-58.868790
4.100000	-0.083214	-59.555694	-58.200957	132.782374	-58.200957	132.782374	-0.083202	-59.549191
4.150000	-0.084505	-60.235454	-57.897340	131.297905	-57.897340	131.297905	-0.084493	-60.228886
4.200000	-0.085818	-60.913323	-57.595874	129.812111	-57.595874	129.812111	-0.085805	-60.906691
4.250000	-0.087142	-61.590246	-57.300604	128.325652	-57.300604	128.325652	-0.087129	-61.583550
4.300000	-0.088486	-62.265508	-57.008385	126.838284	-57.008385	126.838284	-0.088473	-62.258749
4.350000	-0.089845	-62.939583	-56.721077	125.350267	-56.721077	125.350267	-0.089832	-62.932761
4.400000	-0.091222	-63.612229	-56.437606	123.861661	-56.437606	123.861661	-0.091208	-63.605345
4.450000	-0.092616	-64.283447	-56.157902	122.372468	-56.157902	122.372468	-0.092603	-64.276501
4.500000	-0.094027	-64.953473	-55.882721	120.882927	-55.882721	120.882927	-0.094013	-64.946464
4.550000	-0.095459	-65.621828	-55.610288	119.392901	-55.610288	119.392901	-0.095446	-65.614759
4.600000	-0.096905	-66.289228	-55.342975	117.902700	-55.342975	117.902700	-0.096891	-66.282098
4.650000	-0.098377	-66.954718	-55.077503	116.412149	-55.077503	116.412149	-0.098363	-66.947527
4.700000	-0.099860	-67.619491	-54.817668	114.921536	-54.817668	114.921536	-0.099845	-67.612240
4.750000	-0.101373	-68.282115	-54.558866	113.430737	-54.558866	113.430737	-0.101358	-68.274804
4.800000	-0.102893	-68.944261	-54.306148	111.939939	-54.306148	111.939939	-0.102878	-68.936891
4.850000	-0.104449	-69.604020	-54.053747	110.449145	-54.053747	110.449145	-0.104434	-69.596592
4.900000	-0.106009	-70.263542	-53.807810	108.958370	-53.807810	108.958370	-0.105994	-70.256055
4.950000	-0.107609	-70.920442	-53.561555	107.467808	-53.561555	107.467808	-0.107594	-70.912897
5.000000	-0.109210	-71.577342	-53.322090	105.977246	-53.322090	105.977246	-0.109195	-71.569740
5.050000	-0.110856	-72.231391	-53.081743	104.487124	-53.081743	104.487124	-0.110841	-72.223732
5.100000	-0.112503	-72.885440	-52.847867	102.997003	-52.847867	102.997003	-0.112488	-72.877723
5.150000	-0.114194	-73.536883	-52.613795	101.507460	-52.613795	101.507460	-0.114178	-73.529111
5.200000	-0.115888	-74.188090	-52.385306	100.017969	-52.385306	100.017969	-0.115872	-74.180261
5.250000	-0.117624	-74.836939	-52.157233	98.529150	-52.157233	98.529150	-0.117608	-74.829055
5.300000	-0.119368	-75.485316	-51.933936	97.040465	-51.933936	97.040465	-0.119352	-75.477377
5.350000	-0.121151	-76.131582	-51.711605	95.552506	-51.711605	95.552506	-0.121134	-76.123588
5.400000	-0.122946	-76.777144	-51.493319	94.064788	-51.493319	94.064788	-0.122929	-76.769096
5.450000	-0.124776	-77.420842	-51.276488	92.577813	-51.276488	92.577813	-0.124759	-77.412739
5.500000	-0.126625	-78.063606	-51.063039	91.091211	-51.063039	91.091211	-0.126607	-78.055450
5.550000	-0.128504	-78.704750	-50.851484	89.605339	-50.851484	89.605339	-0.128487	-78.696541
5.600000	-0.130407	-79.344737	-50.642710	88.119990	-50.642710	88.119990	-0.130390	-79.336475
5.650000	-0.132338	-79.983345	-50.436219	86.635332	-50.436219	86.635332	-0.132320	-79.975031
5.700000	-0.134297	-80.620575	-50.231965	85.151364	-50.231965	85.151364	-0.134279	-80.612208
5.750000	-0.136280	-81.256666	-50.030338	83.668021	-50.030338	83.668021	-0.136262	-81.248248
5.800000	-0.138297	-81.891163	-49.830458	82.185554	-49.830458	82.185554	-0.138279	-81.882694
5.850000	-0.140334	-82.524758	-49.633509	80.703624	-49.633509	80.703624	-0.140315	-82.516238
5.900000	-0.142410	-83.156549	-49.437864	79.222769	-49.437864	79.222769	-0.142392	-83.147978
5.950000	-0.144502	-83.787670	-49.245416	77.742343	-49.245416	77.742343	-0.144483	-83.779049
6.000000	-0.146640	-84.416782	-49.053874	76.263204	-49.053874	76.263204	-0.146621	-84.408111
6.050000	-0.148788	-85.045452	-48.865762	74.784368	-48.865762	74.784368	-0.148769	-85.036732
6.100000	-0.150989	-85.671916	-48.678197	73.307043	-48.678197	73.307043	-0.150969	-85.663147
6.150000	-0.153195	-86.298162	-48.494263	71.829876	-48.494263	71.829876	-0.153176	-86.289345
6.200000	-0.155461	-86.922010	-48.310555	70.354456	-48.310555	70.354456	-0.155441	-86.913144
6.250000	-0.157726	-87.545858	-48.130652	68.879036	-48.130652	68.879036	-0.157706	-87.536944
6.300000	-0.160058	-88.167124	-47.950687	67.405607	-47.950687	67.405607	-0.160037	-88.158163
6.350000	-0.162390	-88.788390	-47.774375	65.932178	-47.774375	65.932178	-0.162369	-88.779382
6.400000	-0.164783	-89.407322	-47.598344	64.460648	-47.598344	64.460648	-0.164763	-89.398268
6.450000	-0.167183	-90.026043	-47.425522	62.989290	-47.425522	62.989290	-0.167162	-90.016941
6.500000	-0.169641	-90.642673	-47.253289	61.519721	-47.253289	61.519721	-0.169619	-90.633526
6.550000	-0.172110	-91.258886	-47.083859	60.050510	-47.083859	60.050510	-0.172089	-91.249693
6.600000	-0.174632	-91.873247	-46.915296	58.582961	-46.915296	58.582961	-0.174611	-91.864009
6.650000	-0.177173	-92.486992	-46.749166	57.115966	-46.749166	57.115966	-0.177151	-92.477709
6.700000	-0.179762	-93.099119	-46.584152	55.650493	-46.584152	55.650493	-0.179740	-93.089791
6.750000	-0.182375	-93.710437	-46.421233	54.185781	-46.421233	54.185781	-0.182353	-93.701065
6.800000	-0.185031	-94.320365	-46.259653	52.722436	-46.259653	52.722436	-0.185009	-94.310950
6.850000	-0.187719	-94.929300	-46.099859	51.260067	-46.099859	51.260067	-0.187696	-94.919841
6.900000	-0.190445	-95.537066	-45.941602	49.798898	-45.941602	49.798898	-0.190422	-95.527564
6.950000	-0.193208	-96.143663	-45.784852	48.338929	-45.784852	48.338929	-0.193185	-96.134118
7.000000	-0.196004	-96.749305	-45.629814	46.879980	-45.629814	46.879980	-0.195981	-96.739718
7.050000	-0.198845	-97.353611	-45.476029	45.422462	-45.476029	45.422462	-0.198822	-97.343982
7.100000	-0.201713	-97.957169	-45.324112	43.965776	-45.324112	43.965776	-0.201689	-97.947498
7.150000	-0.204633	-98.559232	-45.173217	42.510755	-45.173217	42.510755	-0.204609	-98.549520
7.200000	-0.207573	-99.160746	-45.024325	41.056369	-45.024325	41.056369	-0.207549	-99.150993
7.250000	-0.210574	-99.760616	-44.876248	39.603888	-44.876248	39.603888	-0.210549	-99.750822
7.300000	-0.213588	-100.360128	-44.730291	38.151837	-44.730291	38.151837	-0.213564	-100.350294
7.350000	-0.216671	-100.957856	-44.584963	36.701933	-44.584963	36.701933	-0.216646	-100.947982
7.400000	-0.219761	-101.555410	-44.441855	35.252246	-44.441855	35.252246	-0.219736	-101.545496
7.450000	-0.222927	-102.151049	-44.299209	33.804951	-44.299209	33.804951	-0.222902	-102.141096
7.500000	-0.226094	-102.746689	-44.158868	32.357656	-44.158868	32.357656	-0.226068	-102.736696
7.550000	-0.229344	-103.340294	-44.018839	30.912997	-44.018839	30.912997	-0.229319	-103.330263
7.600000	-0.232596	-103.933900	-43.881033	29.468339	-43.881033	29.468339	-0.232570	-103.923830
7.650000	-0.235926	-104.525692	-43.743715	28.026116	-43.743715	28.026116	-0.235900	-104.515585
7.700000	-0.239264	-105.117320	-43.608386	26.584116	-43.608386	26.584116	-0.239238	-105.107175
7.750000	-0.242674	-105.707347	-43.473702	25.144344	-43.473702	25.144344	-0.242648	-105.697165
7.800000	-0.246100	-106.297055	-43.340793	23.705017	-43.340793	23.705017	-0.246073	-106.286836
7.850000	-0.249592	-106.885366	-43.208672	22.267705	-43.208672	22.267705	-0.249565	-106.875111
7.900000	-0.253106	-107.473213	-43.078131	20.831064	-43.078131	20.831064	-0.253079	-107.462921
7.950000	-0.256680	-108.059859	-42.948502	19.396218	-42.948502	19.396218	-0.256653	-108.049531
8.000000	-0.260285	-108.645904	-42.820278	17.962268	-42.820278	17.962268	-0.260257	-108.635541
8.050000	-0.263943	-109.230936	-42.693076	16.529887	-42.693076	16.529887	-0.263915	-109.220537
8.100000	-0.267639	-109.815243	-42.567118	15.098628	-42.567118	15.098628	-0.267611	-109.804810
8.150000	-0.271381	-110.398713	-42.442281	13.668710	-42.442281	13.668710	-0.271353	-110.388245
8.200000	-0.275170	-110.981345	-42.318543	12.240135	-42.318543	12.240135	-0.275141	-110.970843
8.250000	-0.278998	-111.563306	-42.196011	10.812673	-42.196011	10.812673	-0.278969	-111.552770
8.300000	-0.282880	-112.144329	-42.074447	9.386770	-42.074447	9.386770	-0.282851	-112.133759
8.350000	-0.286795	-112.724836	-41.954162	7.961752	-41.954162	7.961752	-0.286766	-112.714233
8.400000	-0.290772	-113.304315	-41.834731	6.538503	-41.834731	6.538503	-0.290742	-113.293679
8.450000	-0.294774	-113.883424	-41.716639	5.115911	-41.716639	5.115911	-0.294744	-113.872756
8.500000	-0.298847	-114.461427	-41.599299	3.695293	-41.599299	3.695293	-0.298817	-114.450726
8.550000	-0.302937	-115.039195	-41.483348	2.275108	-41.483348	2.275108	-0.302907	-115.028463
8.600000	-0.307107	-115.615792	-41.368061	0.857089	-41.368061	0.857089	-0.307076	-115.605028
8.650000	-0.311286	-116.192277	-41.254202	-0.560715	-41.254202	-0.560715	-0.311255	-116.181481
8.700000	-0.315554	-116.767538	-41.140931	-1.976169	-41.140931	-1.976169	-0.315522	-116.756712
8.750000	-0.319823	-117.342799	-41.029118	-3.391622	-41.029118	-3.391622	-0.319791	-117.331942
8.800000	-0.324189	-117.916796	-40.917830	-4.804552	-40.917830	-4.804552	-0.324156	-117.905910
8.850000	-0.328556	-118.490794	-40.807948	-6.217482	-40.807948	-6.217482	-0.328523	-118.479878
8.900000	-0.333013	-119.063702	-40.698679	-7.628143	-40.698679	-7.628143	-0.332980	-119.052757
8.950000	-0.337480	-119.636511	-40.590700	-9.038596	-40.590700	-9.038596	-0.337446	-119.625536
9.000000	-0.342029	-120.208391	-40.483409	-10.447030	-40.483409	-10.447030	-0.341995	-120.197388
9.050000	-0.346596	-120.780086	-40.377303	-11.855060	-40.377303	-11.855060	-0.346561	-120.769055
9.100000	-0.351237	-121.351003	-40.271953	-13.261314	-40.271953	-13.261314	-0.351202	-121.339945
9.150000	-0.355905	-121.921662	-40.167693	-14.666977	-40.167693	-14.666977	-0.355869	-121.910576
9.200000	-0.360639	-122.491681	-40.064248	-16.071103	-40.064248	-16.071103	-0.360602	-122.480569
9.250000	-0.365408	-123.061382	-39.961812	-17.474462	-39.961812	-17.474462	-0.365370	-123.050242
9.300000	-0.370235	-123.630570	-39.860238	-18.876514	-39.860238	-18.876514	-0.370197	-123.619405
9.350000	-0.375105	-124.199393	-39.759603	-20.277634	-39.759603	-20.277634	-0.375066	-124.188202
9.400000	-0.380026	-124.767817	-39.659869	-21.677669	-39.659869	-21.677669	-0.379987	-124.756602
9.450000	-0.384998	-125.335844	-39.561018	-23.076621	-39.561018	-23.076621	-0.384958	-125.324604
9.500000	-0.390012	-125.903575	-39.463095	-24.474700	-39.463095	-24.474700	-0.389972	-125.892310
9.550000	-0.395086	-126.470890	-39.366009	-25.871557	-39.366009	-25.871557	-0.395045	-126.459602
9.600000	-0.400195	-127.037996	-39.269872	-27.267741	-39.269872	-27.267741	-0.400153	-127.026685
9.650000	-0.405371	-127.604685	-39.174538	-28.662579	-39.174538	-28.662579	-0.405328	-127.593351
9.700000	-0.410574	-128.171239	-39.080162	-30.056933	-39.080162	-30.056933	-0.410530	-128.159882
9.750000	-0.415852	-128.737389	-38.986570	-31.449831	-38.986570	-31.449831	-0.415807	-128.726011
9.800000	-0.421150	-129.303464	-38.893933	-32.842419	-38.893933	-32.842419	-0.421104	-129.292064
9.850000	-0.426530	-129.869164	-38.802072	-34.233456	-38.802072	-34.233456	-0.426483	-129.857744
9.900000	-0.431921	-130.434834	-38.711157	-35.624345	-38.711157	-35.624345	-0.431873	-130.423393
9.950000	-0.437403	-131.000175	-38.621021	-37.013602	-38.621021	-37.013602	-0.437354	-130.988716
10.000000	-0.442889	-131.565517	-38.531811	-38.402858	-38.531811	-38.402858	-0.442838	-131.554038
