! freq	dB(S11)	phase(S11)	dB(S12)	phase(S12)	
!     	dB(S21)	phase(S21)	dB(S22)	phase(S22)	
!S-par simulation data
#  GHz  S  DB  R 50
0.000000	-83.035137	0.000000	-0.000612	0.000000	-0.000612	0.000000	-83.035137	0.000000
0.050000	-48.263416	-91.541908	-0.008309	-2.630159	-0.008309	-2.630159	-48.262971	-91.539640
0.100000	-42.260384	-94.663240	-0.017535	-5.187831	-0.017535	-5.187831	-42.259938	-94.658616
0.150000	-38.767250	-97.431142	-0.022790	-7.725971	-0.022790	-7.725971	-38.766800	-97.424168
0.200000	-36.306183	-100.114408	-0.026176	-10.263946	-0.026176	-10.263946	-36.305729	-100.105071
0.250000	-34.416918	-102.761160	-0.028806	-12.804152	-0.028806	-12.804152	-34.416458	-102.749436
0.300000	-32.893923	-105.388975	-0.031204	-15.346133	-0.031204	-15.346133	-32.893455	-105.374834
0.350000	-31.625150	-108.006653	-0.033606	-17.889062	-0.033606	-17.889062	-31.624675	-107.990058
0.400000	-30.549454	-110.616746	-0.036114	-20.432463	-0.036114	-20.432463	-30.548968	-110.597645
0.450000	-29.619093	-113.222369	-0.038748	-22.975896	-0.038748	-22.975896	-29.618595	-113.200711
0.500000	-28.811756	-115.823907	-0.041543	-25.519065	-0.041543	-25.519065	-28.811245	-115.799618
0.550000	-28.101319	-118.422740	-0.044472	-28.061836	-0.044472	-28.061836	-28.100793	-118.395747
0.600000	-27.476782	-121.019079	-0.047535	-30.604037	-0.047535	-30.604037	-27.476239	-120.989287
0.650000	-26.924915	-123.613448	-0.050708	-33.145630	-0.050708	-33.145630	-26.924353	-123.580753
0.700000	-26.437208	-126.206157	-0.053969	-35.686587	-0.053969	-35.686587	-26.436625	-126.170440
0.750000	-26.008858	-128.797388	-0.057301	-38.226880	-0.057301	-38.226880	-26.008251	-128.758504
0.800000	-25.630743	-131.387534	-0.060673	-40.766615	-0.060673	-40.766615	-25.630111	-131.345335
0.850000	-25.304640	-133.976664	-0.064066	-43.305764	-0.064066	-43.305764	-25.303980	-133.930949
0.900000	-25.020655	-136.565185	-0.067455	-45.844512	-0.067455	-45.844512	-25.019965	-136.515764
0.950000	-24.782300	-139.153267	-0.070816	-48.382907	-0.070816	-48.382907	-24.781576	-139.099882
1.000000	-24.582864	-141.741236	-0.074131	-50.921121	-0.074131	-50.921121	-24.582105	-141.683628
1.050000	-24.423682	-144.329406	-0.077379	-53.459299	-0.077379	-53.459299	-24.422885	-144.267254
1.100000	-24.303059	-146.918117	-0.080542	-55.997610	-0.080542	-55.997610	-24.302221	-146.851059
1.150000	-24.219047	-149.507722	-0.083611	-58.536232	-0.083611	-58.536232	-24.218164	-149.435360
1.200000	-24.175043	-152.098771	-0.086561	-61.075404	-0.086561	-61.075404	-24.174112	-152.020597
1.250000	-24.165471	-154.691488	-0.089403	-63.615234	-0.089403	-63.615234	-24.164489	-154.607003
1.300000	-24.197015	-157.286741	-0.092109	-66.156065	-0.092109	-66.156065	-24.195977	-157.195262
1.350000	-24.268187	-159.885044	-0.094684	-68.698070	-0.094684	-68.698070	-24.267089	-159.785817
1.400000	-24.380530	-162.487140	-0.097129	-71.241479	-0.097129	-71.241479	-24.379366	-162.379275
1.450000	-24.536128	-165.093900	-0.099445	-73.786519	-0.099445	-73.786519	-24.534894	-164.976344
1.500000	-24.737705	-167.706370	-0.101640	-76.333422	-0.101640	-76.333422	-24.736394	-167.577858
1.550000	-24.988758	-170.325819	-0.103721	-78.882411	-0.103721	-78.882411	-24.987364	-170.184823
1.600000	-25.293743	-172.953827	-0.105703	-81.433708	-0.105703	-81.433708	-25.292257	-172.798477
1.650000	-25.658340	-175.592403	-0.107600	-83.987527	-0.107600	-83.987527	-25.656754	-175.420381
1.700000	-26.091493	-178.244723	-0.109430	-86.544165	-0.109430	-86.544165	-26.089797	-178.052984
1.750000	-26.599604	179.086552	-0.111218	-89.103642	-0.111218	-89.103642	-26.597787	179.301688
1.800000	-27.196517	176.396103	-0.112986	-91.666212	-0.112986	-91.666212	-27.194569	176.639581
1.850000	-27.898951	173.676821	-0.114761	-94.232039	-0.114761	-94.232039	-27.896864	173.955303
1.900000	-28.730723	170.917389	-0.116573	-96.801303	-0.116573	-96.801303	-28.728493	171.240293
1.950000	-29.725112	168.099876	-0.118454	-99.374134	-0.118454	-99.374134	-29.722752	168.481015
2.000000	-30.931170	165.194574	-0.120437	-101.950595	-0.120437	-101.950595	-30.928739	165.655078
2.050000	-32.428247	162.144953	-0.122556	-104.530766	-0.122556	-104.530766	-32.425920	162.719879
2.100000	-34.354509	158.830716	-0.124847	-107.114702	-0.124847	-107.114702	-34.352841	159.584754
2.150000	-36.983987	154.941278	-0.127346	-109.702434	-0.127346	-109.702434	-36.984985	156.015399
2.200000	-40.991753	149.340433	-0.130089	-112.293967	-0.130089	-112.293967	-41.006009	151.151285
2.250000	-48.889716	130.944150	-0.133114	-114.889281	-0.133114	-114.889281	-49.095968	136.067070
2.300000	-51.275993	4.194307	-0.136455	-117.488327	-0.136455	-117.488327	-51.799625	-2.025375
2.350000	-41.505300	-22.261213	-0.140150	-120.091033	-0.140150	-120.091033	-41.567236	-24.398942
2.400000	-36.764042	-28.459033	-0.144231	-122.697300	-0.144231	-122.697300	-36.790598	-29.739465
2.450000	-33.624622	-32.521074	-0.148731	-125.307001	-0.148731	-125.307001	-33.640641	-33.447837
2.500000	-31.264417	-35.917929	-0.153680	-127.919987	-0.153680	-127.919987	-31.275689	-36.651884
2.550000	-29.366610	-39.018673	-0.159118	-130.536147	-0.159118	-130.536147	-29.375263	-39.632242
2.600000	-27.777775	-41.967444	-0.165058	-133.155212	-0.165058	-133.155212	-27.784791	-42.498115
2.650000	-26.410445	-44.825579	-0.171524	-135.776963	-0.171524	-135.776963	-26.416354	-45.295886
2.700000	-25.210428	-47.625483	-0.178532	-138.401164	-0.178532	-138.401164	-25.215544	-48.050011
2.750000	-24.141810	-50.385791	-0.186096	-141.027561	-0.186096	-141.027561	-24.146335	-50.774521
2.800000	-23.179565	-53.117916	-0.194226	-143.655886	-0.194226	-143.655886	-23.183633	-53.477981
2.850000	-22.305548	-55.829191	-0.202928	-146.285860	-0.202928	-146.285860	-22.309255	-56.165872
2.900000	-21.506188	-58.524503	-0.212201	-148.917195	-0.212201	-148.917195	-21.509604	-58.841821
2.950000	-20.771087	-61.207391	-0.222032	-151.549582	-0.222032	-151.549582	-20.774263	-61.508441
3.000000	-20.091995	-63.879745	-0.232433	-154.182763	-0.232433	-154.182763	-20.094972	-64.167094
3.050000	-19.462457	-66.543521	-0.243377	-156.816414	-0.243377	-156.816414	-19.465267	-66.819192
3.100000	-18.877170	-69.199910	-0.254843	-159.450244	-0.254843	-159.450244	-18.879838	-69.465574
3.150000	-18.331799	-71.849745	-0.266809	-162.083966	-0.266809	-162.083966	-18.334346	-72.106805
3.200000	-17.822732	-74.493663	-0.279244	-164.717302	-0.279244	-164.717302	-17.825175	-74.743308
3.250000	-17.346899	-77.132156	-0.292109	-167.349991	-0.292109	-167.349991	-17.349253	-77.375401
3.300000	-16.901711	-79.765561	-0.305363	-169.981792	-0.305363	-169.981792	-16.903988	-80.003286
3.350000	-16.485145	-82.394014	-0.318968	-172.612452	-0.318968	-172.612452	-16.487356	-82.627011
3.400000	-16.094985	-85.017913	-0.332860	-175.241823	-0.332860	-175.241823	-16.097138	-85.246851
3.450000	-15.729714	-87.637316	-0.346991	-177.869715	-0.346991	-177.869715	-15.731818	-87.862810
3.500000	-15.387905	-90.252347	-0.361302	179.504014	-0.361302	179.504014	-15.389967	-90.474952
3.550000	-15.068311	-92.863117	-0.375733	176.879472	-0.375733	176.879472	-15.070338	-93.083341
3.600000	-14.769844	-95.469736	-0.390217	174.256734	-0.390217	174.256734	-14.771841	-95.688047
3.650000	-14.491551	-98.072317	-0.404687	171.635835	-0.404687	171.635835	-14.493525	-98.289152
3.700000	-14.232602	-100.670983	-0.419073	169.016774	-0.419073	169.016774	-14.234557	-100.886752
3.750000	-13.992271	-103.265876	-0.433303	166.399507	-0.433303	166.399507	-13.994212	-103.480967
3.800000	-13.770193	-105.857080	-0.447296	163.783984	-0.447296	163.783984	-13.772125	-106.071876
3.850000	-13.565578	-108.444863	-0.460981	161.170033	-0.460981	161.170033	-13.567505	-108.659724
3.900000	-13.377959	-111.029435	-0.474283	158.557475	-0.474283	158.557475	-13.379886	-111.244714
3.950000	-13.206950	-113.611033	-0.487129	155.946088	-0.487129	155.946088	-13.208879	-113.827081
4.000000	-13.052230	-116.189924	-0.499443	153.335600	-0.499443	153.335600	-13.054167	-116.407088
4.050000	-12.913551	-118.766402	-0.511153	150.725694	-0.511153	150.725694	-12.915499	-118.985032
4.100000	-12.790728	-121.340790	-0.522189	148.116006	-0.522189	148.116006	-12.792692	-121.561244
4.150000	-12.683644	-123.913439	-0.532482	145.506123	-0.532482	145.506123	-12.685627	-124.136081
4.200000	-12.592247	-126.484724	-0.541966	142.895586	-0.541966	142.895586	-12.594254	-126.709933
4.250000	-12.516550	-129.055048	-0.550580	140.283887	-0.550580	140.283887	-12.518586	-129.283217
4.300000	-12.456640	-131.624833	-0.558265	137.670476	-0.558265	137.670476	-12.458708	-131.856377
4.350000	-12.412671	-134.194518	-0.564968	135.054753	-0.564968	135.054753	-12.414777	-134.429876
4.400000	-12.385056	-136.764567	-0.570629	132.436036	-0.570629	132.436036	-12.387206	-137.004213
4.450000	-12.374126	-139.335457	-0.575206	129.813614	-0.575206	129.813614	-12.376326	-139.579901
4.500000	-12.380114	-141.907646	-0.578673	127.186788	-0.578673	127.186788	-12.382370	-142.157436
4.550000	-12.403526	-144.481589	-0.581004	124.554788	-0.581004	124.554788	-12.405846	-144.737322
4.600000	-12.444976	-147.057722	-0.582177	121.916805	-0.582177	121.916805	-12.447368	-147.320053
4.650000	-12.505202	-149.636450	-0.582180	119.271995	-0.582180	119.271995	-12.507676	-149.906103
4.700000	-12.585078	-152.218129	-0.581011	116.619478	-0.581011	116.619478	-12.587646	-152.495909
4.750000	-12.685640	-154.803053	-0.578676	113.958346	-0.578676	113.958346	-12.688313	-155.089860
4.800000	-12.808102	-157.391419	-0.575193	111.287665	-0.575193	111.287665	-12.810897	-157.688268
4.850000	-12.953895	-159.983306	-0.570588	108.606473	-0.570588	108.606473	-12.956829	-160.291349
4.900000	-13.124698	-162.578629	-0.564903	105.913794	-0.564903	105.913794	-13.127793	-162.899180
4.950000	-13.322488	-165.177086	-0.558187	103.208632	-0.558187	103.208632	-13.325770	-165.511664
5.000000	-13.549602	-167.778098	-0.550507	100.489985	-0.550507	100.489985	-13.553102	-168.128461
5.050000	-13.809389	-170.380708	-0.541923	97.756507	-0.541923	97.756507	-13.813148	-170.748973
5.100000	-14.104647	-172.983365	-0.532550	95.007488	-0.532550	95.007488	-14.108713	-173.371996
5.150000	-14.439370	-175.583885	-0.522496	92.241932	-0.522496	92.241932	-14.443804	-175.995831
5.200000	-14.818408	-178.179140	-0.511884	89.458865	-0.511884	89.458865	-14.823290	-178.617983
5.250000	-15.247718	179.235301	-0.500854	86.657340	-0.500854	86.657340	-15.253153	178.765160
5.300000	-15.734713	176.665731	-0.489562	83.836444	-0.489562	83.836444	-15.740840	176.158788
5.350000	-16.288766	174.121143	-0.478178	80.995315	-0.478178	80.995315	-16.295775	173.570395
5.400000	-16.921949	171.614588	-0.466891	78.133145	-0.466891	78.133145	-16.930110	171.010929
5.450000	-17.649309	169.163717	-0.455895	75.249628	-0.455895	75.249628	-17.659007	168.495334
5.500000	-18.494314	166.801353	-0.445430	72.343140	-0.445430	72.343140	-18.506149	166.051245
5.550000	-19.486148	164.573444	-0.435726	69.413660	-0.435726	69.413660	-19.501074	163.717776
5.600000	-20.668965	162.559847	-0.427034	66.460743	-0.427034	66.460743	-20.688617	161.562962
5.650000	-22.111278	160.908849	-0.419628	63.483940	-0.419628	63.483940	-22.138722	159.713589
5.700000	-23.926089	159.921873	-0.413791	60.483067	-0.413791	60.483067	-23.967841	158.428865
5.750000	-26.318578	160.304626	-0.409806	57.458231	-0.409806	57.458231	-26.391192	158.321962
5.800000	-29.709962	164.186267	-0.407972	54.409573	-0.407972	54.409573	-29.869876	161.287467
5.850000	-34.946639	-178.945591	-0.408594	51.337416	-0.408594	51.337416	-35.504862	176.528375
5.900000	-38.217944	-113.914071	-0.411981	48.242268	-0.411981	48.242268	-39.484350	-110.732535
5.950000	-32.039552	-73.287245	-0.418455	45.124783	-0.418455	45.124783	-32.309489	-69.432200
6.000000	-27.423431	-64.664128	-0.428345	41.985775	-0.428345	41.985775	-27.513788	-62.226332
6.050000	-24.245852	-62.896890	-0.441929	38.826560	-0.441929	38.826560	-24.288455	-61.159574
6.100000	-21.846773	-63.413222	-0.459500	35.648482	-0.459500	35.648482	-21.870833	-62.071393
6.150000	-19.922024	-64.950656	-0.481337	32.453095	-0.481337	32.453095	-19.937166	-63.859623
6.200000	-18.315473	-67.032898	-0.507700	29.242154	-0.507700	29.242154	-18.325712	-66.114219
6.250000	-16.937632	-69.441288	-0.538830	26.017609	-0.538830	26.017609	-16.944920	-68.648011
6.300000	-15.732630	-72.062557	-0.574995	22.781486	-0.574995	22.781486	-15.738023	-71.364235
6.350000	-14.663729	-74.827734	-0.616328	19.536228	-0.616328	19.536228	-14.667843	-74.203925
6.400000	-13.705150	-77.695553	-0.662979	16.284264	-0.662979	16.284264	-13.708366	-77.131700
6.450000	-12.838227	-80.638315	-0.715065	13.028133	-0.715065	13.028133	-12.840796	-80.123695
6.500000	-12.049004	-83.636391	-0.772663	9.770459	-0.772663	9.770459	-12.051093	-83.162882
6.550000	-11.326757	-86.675201	-0.835814	6.513920	-0.835814	6.513920	-11.328483	-86.236506
6.600000	-10.663093	-89.743627	-0.904556	3.261267	-0.904556	3.261267	-10.664542	-89.334735
6.650000	-10.051240	-92.832380	-0.978820	0.015204	-0.978820	0.015204	-10.052472	-92.449291
6.700000	-9.485597	-95.933941	-1.058485	-3.221704	-1.058485	-3.221704	-9.486658	-95.573415
6.750000	-8.961641	-99.042167	-1.143491	-6.446751	-1.143491	-6.446751	-8.962566	-98.701490
6.800000	-8.475450	-102.151612	-1.233658	-9.657498	-1.233658	-9.657498	-8.476265	-101.828531
6.850000	-8.023627	-105.257652	-1.328773	-12.851718	-1.328773	-12.851718	-8.024352	-104.950275
6.900000	-7.603399	-108.356139	-1.428660	-16.026986	-1.428660	-16.026986	-7.604049	-108.062838
6.950000	-7.212227	-111.443458	-1.533066	-19.181252	-1.533066	-19.181252	-7.212815	-111.162836
7.000000	-6.847724	-114.516674	-1.641676	-22.312975	-1.641676	-22.312975	-6.848260	-114.247542
7.050000	-6.507869	-117.573145	-1.754207	-25.420561	-1.754207	-25.420561	-6.508359	-117.314467
7.100000	-6.190838	-120.610589	-1.870358	-28.502624	-1.870358	-28.502624	-6.191288	-120.361458
7.150000	-5.894979	-123.627062	-1.989819	-31.557981	-1.989819	-31.557981	-5.895395	-123.386681
7.200000	-5.618871	-126.620721	-2.112279	-34.585410	-2.112279	-34.585410	-5.619255	-126.388381
7.250000	-5.361295	-129.589768	-2.237416	-37.583625	-2.237416	-37.583625	-5.361650	-129.364830
7.300000	-5.120708	-132.533740	-2.364874	-40.552784	-2.364874	-40.552784	-5.121036	-132.315652
7.350000	-4.895931	-135.451838	-2.494334	-43.492516	-2.494334	-43.492516	-4.896234	-135.240104
7.400000	-4.685873	-138.343491	-2.625480	-46.402629	-2.625480	-46.402629	-4.686153	-138.137669
7.450000	-4.489522	-141.208340	-2.758007	-49.283094	-2.758007	-49.283094	-4.489780	-141.008030
7.500000	-4.305938	-144.046222	-2.891616	-52.134038	-2.891616	-52.134038	-4.306176	-143.851063
7.550000	-4.134519	-146.856221	-3.025966	-54.954729	-3.025966	-54.954729	-4.134737	-146.665876
7.600000	-3.974155	-149.639452	-3.160819	-57.746590	-3.160819	-57.746590	-3.974354	-149.453625
7.650000	-3.824087	-152.396236	-3.295914	-60.510135	-3.295914	-60.510135	-3.824270	-152.214657
7.700000	-3.683612	-155.127018	-3.431006	-63.245981	-3.431006	-63.245981	-3.683778	-154.949441
7.750000	-3.552071	-157.832352	-3.565863	-65.954827	-3.565863	-65.954827	-3.552222	-157.658550
7.800000	-3.428852	-160.512888	-3.700268	-68.637449	-3.700268	-68.637449	-3.428990	-160.342652
7.850000	-3.313536	-163.168753	-3.833945	-71.294052	-3.833945	-71.294052	-3.313662	-163.001883
7.900000	-3.205472	-165.801194	-3.966746	-73.926002	-3.966746	-73.926002	-3.205588	-165.637511
7.950000	-3.104117	-168.411281	-4.098523	-76.534457	-4.098523	-76.534457	-3.104224	-168.250616
8.000000	-3.009010	-170.999918	-4.229119	-79.120387	-4.229119	-79.120387	-3.009110	-170.842116
8.050000	-2.919725	-173.568051	-4.358389	-81.684790	-4.358389	-81.684790	-2.919820	-173.412963
8.100000	-2.835864	-176.116651	-4.486201	-84.228681	-4.486201	-84.228681	-2.835956	-175.964137
8.150000	-2.757128	-178.646408	-4.612376	-86.752771	-4.612376	-86.752771	-2.757218	-178.496333
8.200000	-2.683160	178.841620	-4.736803	-89.258145	-4.736803	-89.258145	-2.683251	178.989386
8.250000	-2.613568	176.346100	-4.859447	-91.746176	-4.859447	-91.746176	-2.613663	176.491679
8.300000	-2.548058	173.866013	-4.980222	-94.217899	-4.980222	-94.217899	-2.548157	174.009523
8.350000	-2.486352	171.400344	-5.099055	-96.674346	-5.099055	-96.674346	-2.486458	171.541900
8.400000	-2.428196	168.948082	-5.215879	-99.116539	-5.215879	-99.116539	-2.428312	169.087796
8.450000	-2.373376	166.508326	-5.330608	-101.545384	-5.330608	-101.545384	-2.373504	166.646310
8.500000	-2.321712	164.080246	-5.443130	-103.961711	-5.443130	-103.961711	-2.321854	164.216612
8.550000	-2.272925	161.662553	-5.553498	-106.366844	-5.553498	-106.366844	-2.273082	161.797410
8.600000	-2.226825	159.254297	-5.661680	-108.761753	-5.661680	-108.761753	-2.227000	159.387752
8.650000	-2.183237	156.854546	-5.767650	-111.147393	-5.767650	-111.147393	-2.183432	156.986708
8.700000	-2.141999	154.462390	-5.871387	-113.524701	-5.871387	-113.524701	-2.142215	154.593368
8.750000	-2.102959	152.076945	-5.972876	-115.894600	-5.972876	-115.894600	-2.103198	152.206849
8.800000	-2.066069	149.697603	-6.071937	-118.257710	-6.071937	-118.257710	-2.066333	149.826551
8.850000	-2.031099	147.323198	-6.168743	-120.615289	-6.168743	-120.615289	-2.031389	147.451303
8.900000	-1.997891	144.952847	-6.263379	-122.968301	-6.263379	-122.968301	-1.998208	145.080222
8.950000	-1.966382	142.585898	-6.355760	-125.317459	-6.355760	-125.317459	-1.966726	142.712663
9.000000	-1.936480	140.221598	-6.445878	-127.663614	-6.445878	-127.663614	-1.936851	140.347873
9.050000	-1.908116	137.859264	-6.533686	-130.007553	-6.533686	-130.007553	-1.908515	137.985177
9.100000	-1.881101	135.498087	-6.619446	-132.350227	-6.619446	-132.350227	-1.881527	135.623760
9.150000	-1.855529	133.137518	-6.702770	-134.692329	-6.702770	-134.692329	-1.855982	133.263093
9.200000	-1.831116	130.776889	-6.784203	-137.034673	-6.784203	-137.034673	-1.831593	130.902488
9.250000	-1.808020	128.415526	-6.863219	-139.378182	-6.863219	-139.378182	-1.808520	128.541303
9.300000	-1.785987	126.053022	-6.940347	-141.723393	-6.940347	-141.723393	-1.786509	126.179108
9.350000	-1.765088	123.688690	-7.015307	-144.071307	-7.015307	-144.071307	-1.765628	123.815240
9.400000	-1.745216	121.322158	-7.088298	-146.422502	-7.088298	-146.422502	-1.745771	121.449319
9.450000	-1.726329	118.952978	-7.159368	-148.777708	-7.159368	-148.777708	-1.726894	119.080904
9.500000	-1.708442	116.580569	-7.228423	-151.137908	-7.228423	-151.137908	-1.709013	116.709426
9.550000	-1.691417	114.204942	-7.295801	-153.503206	-7.295801	-153.503206	-1.691989	114.334882
9.600000	-1.675379	111.825123	-7.361158	-155.875339	-7.361158	-155.875339	-1.675945	111.956330
9.650000	-1.660136	109.441575	-7.424995	-158.253739	-7.424995	-158.253739	-1.660690	109.574204
9.700000	-1.645815	107.053310	-7.487006	-160.640340	-7.487006	-160.640340	-1.646348	107.187550
9.750000	-1.632286	104.660713	-7.547548	-163.034745	-7.547548	-163.034745	-1.632790	104.796734
9.800000	-1.619600	102.263257	-7.606547	-165.438259	-7.606547	-165.438259	-1.620065	102.401245
9.850000	-1.607731	99.860902	-7.664126	-167.851338	-7.664126	-167.851338	-1.608147	100.001044
9.900000	-1.596642	97.453754	-7.720442	-170.274216	-7.720442	-170.274216	-1.596998	97.596230
9.950000	-1.586406	95.041285	-7.775433	-172.708505	-7.775433	-172.708505	-1.586688	95.186298
10.000000	-1.576898	92.624268	-7.829436	-175.153065	-7.829436	-175.153065	-1.577095	92.771992
