! freq	dB(S11)	phase(S11)	dB(S12)	phase(S12)	
!     	dB(S21)	phase(S21)	dB(S22)	phase(S22)	
!S-par simulation data
#  GHz  S  DB  R 50
0.000000	-0.000000	0.000000	-345.233069	0.000000	-345.233069	0.000000	0.000000	0.000000
0.050000	-0.000686	-1.052575	-111.093111	89.103505	-111.093111	89.103505	-0.000573	-0.870331
0.100000	-0.002284	-2.099912	-105.113444	88.215078	-105.113444	88.215078	-0.001884	-1.736169
0.150000	-0.004087	-3.141548	-101.660217	87.343005	-101.660217	87.343005	-0.003329	-2.597280
0.200000	-0.005732	-4.179462	-99.262873	86.497921	-99.262873	86.497921	-0.004625	-3.455432
0.250000	-0.007202	-5.215718	-97.448953	85.685121	-97.448953	85.685121	-0.005775	-4.312305
0.300000	-0.008533	-6.251126	-96.017774	84.915583	-96.017774	84.915583	-0.006819	-5.168535
0.350000	-0.009786	-7.286126	-94.860604	84.200034	-94.860604	84.200034	-0.007811	-6.024453
0.400000	-0.011007	-8.320874	-93.914241	83.551595	-93.914241	83.551595	-0.008789	-6.880176
0.450000	-0.012225	-9.355364	-93.145667	82.993616	-93.145667	82.993616	-0.009781	-7.735709
0.500000	-0.013456	-10.389571	-92.518958	82.536310	-92.518958	82.536310	-0.010797	-8.591048
0.550000	-0.014706	-11.423419	-92.015275	82.201290	-92.015275	82.201290	-0.011841	-9.446155
0.600000	-0.015976	-12.456820	-91.621073	82.017008	-91.621073	82.017008	-0.012909	-10.300980
0.650000	-0.017261	-13.489679	-91.326398	82.022860	-91.326398	82.022860	-0.013997	-11.155463
0.700000	-0.018559	-14.521895	-91.124142	82.273973	-91.124142	82.273973	-0.015096	-12.009532
0.750000	-0.019865	-15.553317	-91.015204	82.869267	-91.015204	82.869267	-0.016200	-12.863068
0.800000	-0.021174	-16.583832	-90.997187	83.913470	-90.997187	83.913470	-0.017300	-13.715973
0.850000	-0.022483	-17.613357	-91.066180	85.520046	-91.066180	85.520046	-0.018393	-14.568161
0.900000	-0.023790	-18.641877	-91.212062	87.777406	-91.212062	87.777406	-0.019478	-15.419603
0.950000	-0.025093	-19.669251	-91.429674	90.892567	-91.429674	90.892567	-0.020554	-16.270180
1.000000	-0.026392	-20.695403	-91.697841	95.082865	-91.697841	95.082865	-0.021621	-17.119826
1.050000	-0.027687	-21.720268	-91.977354	100.590369	-91.977354	100.590369	-0.022682	-17.968487
1.100000	-0.028979	-22.743790	-92.202601	107.619685	-92.202601	107.619685	-0.023739	-18.816123
1.150000	-0.030269	-23.765921	-92.278218	116.206888	-92.278218	116.206888	-0.024794	-19.662700
1.200000	-0.031558	-24.786620	-92.094637	126.038123	-92.094637	126.038123	-0.025848	-20.508198
1.250000	-0.032846	-25.805855	-91.572089	136.358459	-91.572089	136.358459	-0.026904	-21.352598
1.300000	-0.034134	-26.823529	-90.692117	146.124058	-90.692117	146.124058	-0.027961	-22.195838
1.350000	-0.035422	-27.839682	-89.553740	154.582374	-89.553740	154.582374	-0.029021	-23.037954
1.400000	-0.036711	-28.854293	-88.266194	161.455086	-88.266194	161.455086	-0.030083	-23.878937
1.450000	-0.038001	-29.867342	-86.920794	166.803980	-86.920794	166.803980	-0.031148	-24.718777
1.500000	-0.039293	-30.878811	-85.577558	170.846009	-85.577558	170.846009	-0.032215	-25.557465
1.550000	-0.040585	-31.888683	-84.270041	173.828721	-84.270041	173.828721	-0.033284	-26.394990
1.600000	-0.041878	-32.896941	-83.014344	175.974042	-83.014344	175.974042	-0.034355	-27.231343
1.650000	-0.043171	-33.903570	-81.816418	177.462416	-81.816418	177.462416	-0.035427	-28.066512
1.700000	-0.044466	-34.908555	-80.676774	178.434389	-80.676774	178.434389	-0.036500	-28.900486
1.750000	-0.045761	-35.911879	-79.593212	178.997619	-79.593212	178.997619	-0.037575	-29.733254
1.800000	-0.047056	-36.913528	-78.562334	179.234295	-78.562334	179.234295	-0.038650	-30.564803
1.850000	-0.048353	-37.913486	-77.580337	179.207404	-77.580337	179.207404	-0.039726	-31.395120
1.900000	-0.049649	-38.911739	-76.643419	178.965580	-76.643419	178.965580	-0.040802	-32.224193
1.950000	-0.050947	-39.908270	-75.747977	178.546723	-75.747977	178.546723	-0.041879	-33.052007
2.000000	-0.052245	-40.903066	-74.890688	177.980664	-74.890688	177.980664	-0.042957	-33.878549
2.050000	-0.053544	-41.896112	-74.068529	177.291123	-74.068529	177.291123	-0.044035	-34.703805
2.100000	-0.054845	-42.887393	-73.278776	176.497143	-73.278776	176.497143	-0.045115	-35.527762
2.150000	-0.056147	-43.876894	-72.518981	175.614163	-72.518981	175.614163	-0.046195	-36.350404
2.200000	-0.057451	-44.864601	-71.786945	174.654810	-71.786945	174.654810	-0.047277	-37.171717
2.250000	-0.058756	-45.850502	-71.080695	173.629500	-71.080695	173.629500	-0.048360	-37.991688
2.300000	-0.060065	-46.834581	-70.398459	172.546893	-70.398459	172.546893	-0.049445	-38.810302
2.350000	-0.061376	-47.816827	-69.738639	171.414245	-69.738639	171.414245	-0.050532	-39.627545
2.400000	-0.062691	-48.797226	-69.099793	170.237676	-69.099793	170.237676	-0.051622	-40.443402
2.450000	-0.064009	-49.775767	-68.480617	169.022384	-68.480617	169.022384	-0.052715	-41.257861
2.500000	-0.065332	-50.752437	-67.879928	167.772810	-67.879928	167.772810	-0.053811	-42.070906
2.550000	-0.066660	-51.727144	-67.295707	166.491597	-67.295707	166.491597	-0.054911	-42.882461
2.600000	-0.067994	-52.699957	-66.728017	165.183470	-66.728017	165.183470	-0.056016	-43.692575
2.650000	-0.069334	-53.670868	-66.175949	163.851240	-66.175949	163.851240	-0.057125	-44.501235
2.700000	-0.070680	-54.639867	-65.638669	162.497364	-65.638669	162.497364	-0.058239	-45.308427
2.750000	-0.072034	-55.606945	-65.115412	161.124000	-65.115412	161.124000	-0.059359	-46.114139
2.800000	-0.073395	-56.572094	-64.605475	159.733048	-64.605475	159.733048	-0.060485	-46.918359
2.850000	-0.074764	-57.535307	-64.108208	158.326192	-64.108208	158.326192	-0.061618	-47.721075
2.900000	-0.076143	-58.496578	-63.623010	156.904922	-63.623010	156.904922	-0.062757	-48.522275
2.950000	-0.077531	-59.455902	-63.149325	155.470572	-63.149325	155.470572	-0.063904	-49.321948
3.000000	-0.078929	-60.413272	-62.686636	154.024329	-62.686636	154.024329	-0.065058	-50.120084
3.050000	-0.080338	-61.368684	-62.234463	152.567259	-62.234463	152.567259	-0.066222	-50.916670
3.100000	-0.081759	-62.322137	-61.792358	151.100322	-61.792358	151.100322	-0.067393	-51.711699
3.150000	-0.083191	-63.273625	-61.359902	149.624382	-61.359902	149.624382	-0.068575	-52.505159
3.200000	-0.084636	-64.223149	-60.936705	148.140221	-60.936705	148.140221	-0.069765	-53.297042
3.250000	-0.086094	-65.170706	-60.522399	146.648547	-60.522399	146.648547	-0.070966	-54.087339
3.300000	-0.087565	-66.116298	-60.116641	145.150004	-60.116641	145.150004	-0.072178	-54.876041
3.350000	-0.089051	-67.059923	-59.719108	143.645179	-59.719108	143.645179	-0.073401	-55.663141
3.400000	-0.090552	-68.001584	-59.329496	142.134606	-59.329496	142.134606	-0.074635	-56.448630
3.450000	-0.092068	-68.941283	-58.947518	140.618776	-58.947518	140.618776	-0.075881	-57.232503
3.500000	-0.093601	-69.879024	-58.572905	139.098135	-58.572905	139.098135	-0.077140	-58.014752
3.550000	-0.095150	-70.814809	-58.205400	137.573097	-58.205400	137.573097	-0.078411	-58.795372
3.600000	-0.096716	-71.748645	-57.844763	136.044041	-57.844763	136.044041	-0.079696	-59.574356
3.650000	-0.098300	-72.680536	-57.490765	134.511314	-57.490765	134.511314	-0.080994	-60.351700
3.700000	-0.099902	-73.610489	-57.143188	132.975241	-57.143188	132.975241	-0.082307	-61.127399
3.750000	-0.101523	-74.538512	-56.801828	131.436118	-56.801828	131.436118	-0.083634	-61.901448
3.800000	-0.103164	-75.464530	-56.466189	129.894114	-56.466189	129.894114	-0.084977	-62.673772
3.850000	-0.104825	-76.388636	-56.136407	128.349614	-56.136407	128.349614	-0.086335	-63.444440
3.900000	-0.106507	-77.310839	-55.812305	126.802854	-55.812305	126.802854	-0.087709	-64.213448
3.950000	-0.108210	-78.231151	-55.493712	125.254053	-55.493712	125.254053	-0.089099	-64.980794
4.000000	-0.109934	-79.149583	-55.180466	123.703415	-55.180466	123.703415	-0.090507	-65.746477
4.050000	-0.111680	-80.066147	-54.872413	122.151131	-54.872413	122.151131	-0.091931	-66.510494
4.100000	-0.113450	-80.980858	-54.569405	120.597379	-54.569405	120.597379	-0.093373	-67.272847
4.150000	-0.115242	-81.893729	-54.271301	119.042326	-54.271301	119.042326	-0.094832	-68.033533
4.200000	-0.117058	-82.804775	-53.977967	117.486128	-53.977967	117.486128	-0.096310	-68.792553
4.250000	-0.118898	-83.714012	-53.689272	115.928931	-53.689272	115.928931	-0.097807	-69.549908
4.300000	-0.120763	-84.621456	-53.405094	114.370874	-53.405094	114.370874	-0.099323	-70.305598
4.350000	-0.122653	-85.527124	-53.125313	112.812085	-53.125313	112.812085	-0.100859	-71.059625
4.400000	-0.124569	-86.431035	-52.849817	111.252686	-52.849817	111.252686	-0.102415	-71.811991
4.450000	-0.126511	-87.333208	-52.578496	109.692792	-52.578496	109.692792	-0.103991	-72.562699
4.500000	-0.128480	-88.233662	-52.311245	108.132511	-52.311245	108.132511	-0.105588	-73.311750
4.550000	-0.130476	-89.132418	-52.047964	106.571944	-52.047964	106.571944	-0.107206	-74.059149
4.600000	-0.132500	-90.029496	-51.788555	105.011190	-51.788555	105.011190	-0.108846	-74.804899
4.650000	-0.134552	-90.924919	-51.532925	103.450339	-51.532925	103.450339	-0.110507	-75.549004
4.700000	-0.136633	-91.818709	-51.280985	101.889477	-51.280985	101.889477	-0.112192	-76.291469
4.750000	-0.138743	-92.710890	-51.032648	100.328687	-51.032648	100.328687	-0.113899	-77.032298
4.800000	-0.140883	-93.601486	-50.787831	98.768047	-50.787831	98.768047	-0.115629	-77.771498
4.850000	-0.143052	-94.490521	-50.546453	97.207630	-50.546453	97.207630	-0.117383	-78.509073
4.900000	-0.145253	-95.378022	-50.308437	95.647508	-50.308437	95.647508	-0.119161	-79.245031
4.950000	-0.147484	-96.264014	-50.073708	94.087748	-50.073708	94.087748	-0.120964	-79.979377
5.000000	-0.149748	-97.148524	-49.842193	92.528413	-49.842193	92.528413	-0.122791	-80.712120
5.050000	-0.152044	-98.031519	-49.613699	90.969588	-49.613699	90.969588	-0.124645	-81.443197
5.100000	-0.154373	-98.913090	-49.388290	89.411313	-49.388290	89.411313	-0.126524	-82.172686
5.150000	-0.156736	-99.793268	-49.165900	87.853643	-49.165900	87.853643	-0.128430	-82.900596
5.200000	-0.159131	-100.672082	-48.946466	86.296632	-48.946466	86.296632	-0.130362	-83.626934
5.250000	-0.161561	-101.549562	-48.729924	84.740330	-48.729924	84.740330	-0.132321	-84.351711
5.300000	-0.164025	-102.425740	-48.516216	83.184786	-48.516216	83.184786	-0.134307	-85.074936
5.350000	-0.166524	-103.300647	-48.305284	81.630047	-48.305284	81.630047	-0.136321	-85.796619
5.400000	-0.169059	-104.174315	-48.097071	80.076159	-48.097071	80.076159	-0.138363	-86.516769
5.450000	-0.171629	-105.046779	-47.891522	78.523164	-47.891522	78.523164	-0.140434	-87.235398
5.500000	-0.174235	-105.918071	-47.688585	76.971105	-47.688585	76.971105	-0.142534	-87.952517
5.550000	-0.176878	-106.788226	-47.488207	75.420023	-47.488207	75.420023	-0.144662	-88.668137
5.600000	-0.179559	-107.657279	-47.290339	73.869956	-47.290339	73.869956	-0.146821	-89.382270
5.650000	-0.182277	-108.525265	-47.094932	72.320942	-47.094932	72.320942	-0.149009	-90.094927
5.700000	-0.185033	-109.392221	-46.901937	70.773019	-46.901937	70.773019	-0.151228	-90.806122
5.750000	-0.187827	-110.258184	-46.711310	69.226223	-46.711310	69.226223	-0.153478	-91.515867
5.800000	-0.190661	-111.123191	-46.523004	67.680587	-46.523004	67.680587	-0.155759	-92.224176
5.850000	-0.193540	-111.987131	-46.336682	66.136365	-46.336682	66.136365	-0.158078	-92.930819
5.900000	-0.196462	-112.850156	-46.152534	64.593426	-46.152534	64.593426	-0.160429	-93.635992
5.950000	-0.199404	-113.712758	-45.971373	63.051158	-45.971373	63.051158	-0.162798	-94.340443
6.000000	-0.202410	-114.574094	-45.791453	61.510904	-45.791453	61.510904	-0.165218	-95.042730
6.050000	-0.205431	-115.435177	-45.614660	59.971121	-45.614660	59.971121	-0.167650	-95.744546
6.100000	-0.208523	-116.295002	-45.438820	58.433693	-45.438820	58.433693	-0.170139	-96.444013
6.150000	-0.211623	-117.154715	-45.266223	56.896511	-45.266223	56.896511	-0.172635	-97.143250
6.200000	-0.214804	-118.013211	-45.094320	55.362046	-45.094320	55.362046	-0.175195	-97.839966
6.250000	-0.217985	-118.871707	-44.925754	53.827582	-44.925754	53.827582	-0.177756	-98.536682
6.300000	-0.221256	-119.729063	-44.757646	52.296223	-44.757646	52.296223	-0.180389	-99.230722
6.350000	-0.224527	-120.586418	-44.592731	50.764865	-44.592731	50.764865	-0.183023	-99.924762
6.400000	-0.227882	-121.442905	-44.428499	49.236490	-44.428499	49.236490	-0.185724	-100.616420
6.450000	-0.231245	-122.299314	-44.267102	47.708386	-44.267102	47.708386	-0.188432	-101.307861
6.500000	-0.234685	-123.155098	-44.106583	46.183129	-44.106583	46.183129	-0.191202	-101.997207
6.550000	-0.238142	-124.010759	-43.948570	44.658442	-43.948570	44.658442	-0.193985	-102.686133
6.600000	-0.241669	-124.866010	-43.791600	43.136453	-43.791600	43.136453	-0.196825	-103.373238
6.650000	-0.245220	-125.721126	-43.636833	41.615364	-43.636833	41.615364	-0.199685	-104.059737
6.700000	-0.248836	-126.576018	-43.483245	40.096817	-43.483245	40.096817	-0.202595	-104.744680
6.750000	-0.252484	-127.430798	-43.331575	38.579541	-43.331575	38.579541	-0.205532	-105.428846
6.800000	-0.256189	-128.285507	-43.181198	37.064643	-43.181198	37.064643	-0.208514	-106.111713
6.850000	-0.259935	-129.140166	-43.032460	35.551442	-43.032460	35.551442	-0.211528	-106.793650
6.900000	-0.263730	-129.994874	-42.885106	34.040448	-42.885106	34.040448	-0.214581	-107.474532
6.950000	-0.267575	-130.849631	-42.739109	32.531659	-42.739109	32.531659	-0.217674	-108.154358
7.000000	-0.271462	-131.704523	-42.594568	31.024896	-42.594568	31.024896	-0.220799	-108.833359
7.050000	-0.275408	-132.559602	-42.451075	29.520967	-42.451075	29.520967	-0.223969	-109.511206
7.100000	-0.279387	-133.414864	-42.309096	28.018863	-42.309096	28.018863	-0.227165	-110.188449
7.150000	-0.283433	-134.270494	-42.167791	26.520412	-42.167791	26.520412	-0.230411	-110.864481
7.200000	-0.287506	-135.126320	-42.028053	25.023549	-42.028053	25.023549	-0.233677	-111.540112
7.250000	-0.291654	-135.982733	-41.888477	23.531456	-41.888477	23.531456	-0.236998	-112.214540
7.300000	-0.295819	-136.839315	-41.750541	22.040635	-41.750541	22.040635	-0.240332	-112.888750
7.350000	-0.300068	-137.696747	-41.611964	20.556181	-41.611964	20.556181	-0.243724	-113.561873
7.400000	-0.304327	-138.554284	-41.475174	19.072516	-41.475174	19.072516	-0.247123	-114.234928
7.450000	-0.308675	-139.412971	-41.336293	17.597540	-41.336293	17.597540	-0.250583	-114.907229
7.500000	-0.313025	-140.271658	-41.199598	16.122564	-41.199598	16.122564	-0.254045	-115.579529
7.550000	-0.317446	-141.131434	-41.060143	14.656135	-41.060143	14.656135	-0.257557	-116.251716
7.600000	-0.321910	-141.991979	-40.918403	13.195809	-40.918403	13.195809	-0.261105	-116.924267
7.650000	-0.326414	-142.853346	-40.772737	11.741438	-40.772737	11.741438	-0.264702	-117.597715
7.700000	-0.330952	-143.715587	-40.620425	10.290998	-40.620425	10.290998	-0.268381	-118.272923
7.750000	-0.335512	-144.578759	-40.456689	8.836583	-40.456689	8.836583	-0.272229	-118.951378
7.800000	-0.340070	-145.442948	-40.272647	7.350920	-40.272647	7.350920	-0.276505	-119.635776
7.850000	-0.344577	-146.308378	-40.051646	5.736265	-40.051646	5.736265	-0.282050	-120.330947
7.900000	-0.348946	-147.175963	-39.773522	3.619646	-39.773522	3.619646	-0.291883	-121.041119
7.950000	-0.353252	-148.047664	-39.493844	0.292353	-39.493844	0.292353	-0.311231	-121.742090
8.000000	-0.358658	-148.925061	-39.656207	-4.294667	-39.656207	-4.294667	-0.335576	-122.279213
8.050000	-0.364712	-149.795491	-40.010047	-5.290538	-40.010047	-5.290538	-0.330632	-122.800706
8.100000	-0.370116	-150.664716	-40.035307	-5.330217	-40.035307	-5.330217	-0.323361	-123.435629
8.150000	-0.375290	-151.536228	-39.940898	-5.890143	-39.940898	-5.890143	-0.321114	-124.099601
8.200000	-0.380435	-152.409985	-39.820165	-6.825330	-39.820165	-6.825330	-0.321747	-124.767195
8.250000	-0.385613	-153.285863	-39.696127	-7.973763	-39.696127	-7.973763	-0.323924	-125.433516
8.300000	-0.390836	-154.163522	-39.574451	-9.225234	-39.574451	-9.225234	-0.326844	-126.098117
8.350000	-0.396124	-155.043494	-39.456381	-10.552910	-39.456381	-10.552910	-0.330328	-126.760765
8.400000	-0.401452	-155.924796	-39.341009	-11.910088	-39.341009	-11.910088	-0.334041	-127.422451
8.450000	-0.406852	-156.808670	-39.228947	-13.302247	-39.228947	-13.302247	-0.338048	-128.082687
8.500000	-0.412300	-157.694268	-39.119306	-14.708922	-39.119306	-14.708922	-0.342192	-128.742180
8.550000	-0.417795	-158.581615	-39.011999	-16.127944	-39.011999	-16.127944	-0.346459	-129.400988
8.600000	-0.423354	-159.471420	-38.907308	-17.558861	-38.907308	-17.558861	-0.350864	-130.059014
8.650000	-0.428971	-160.363622	-38.805480	-18.995387	-38.805480	-18.995387	-0.355373	-130.716453
8.700000	-0.434635	-161.257759	-38.706388	-20.429234	-38.706388	-20.429234	-0.359958	-131.373485
8.750000	-0.440345	-162.153863	-38.610122	-21.856353	-38.610122	-21.856353	-0.364614	-132.030144
8.800000	-0.446129	-163.053323	-38.511646	-23.245310	-38.511646	-23.245310	-0.369375	-132.686306
8.850000	-0.451958	-163.954921	-38.409768	-24.656919	-38.409768	-24.656919	-0.374195	-133.342226
8.900000	-0.457832	-164.858691	-38.306961	-26.090572	-38.306961	-26.090572	-0.379074	-133.997923
8.950000	-0.463763	-165.765296	-38.207853	-27.550923	-38.207853	-27.550923	-0.384024	-134.653379
9.000000	-0.469752	-166.675063	-38.112020	-29.012069	-38.112020	-29.012069	-0.389046	-135.308644
9.050000	-0.475786	-167.587214	-38.018161	-30.472155	-38.018161	-30.472155	-0.394122	-135.963800
9.100000	-0.481864	-168.501784	-37.925959	-31.930603	-37.925959	-31.930603	-0.399249	-136.618864
9.150000	-0.488006	-169.420221	-37.835314	-33.387114	-37.835314	-33.387114	-0.404454	-137.273844
9.200000	-0.494194	-170.341493	-37.745914	-34.842664	-37.745914	-34.842664	-0.409713	-137.928807
9.250000	-0.500424	-171.265404	-37.657693	-36.297425	-37.657693	-36.297425	-0.415021	-138.583771
9.300000	-0.506703	-172.192498	-37.570655	-37.751383	-37.570655	-37.751383	-0.420388	-139.238758
9.350000	-0.513039	-173.123649	-37.484838	-39.204492	-37.484838	-39.204492	-0.425822	-139.893818
9.400000	-0.519416	-174.057668	-37.400111	-40.657052	-37.400111	-40.657052	-0.431305	-140.548946
9.450000	-0.525832	-174.994592	-37.316455	-42.109073	-37.316455	-42.109073	-0.436834	-141.204145
9.500000	-0.532303	-175.935859	-37.233977	-43.560328	-37.233977	-43.560328	-0.442429	-141.859448
9.550000	-0.538818	-176.880771	-37.152603	-45.010959	-37.152603	-45.010959	-0.448072	-142.514770
9.600000	-0.545371	-177.828822	-37.072271	-46.461060	-37.072271	-46.461060	-0.453745	-143.169964
9.650000	-0.551963	-178.780349	-36.992993	-47.910577	-36.992993	-47.910577	-0.459442	-143.824892
9.700000	-0.558607	-179.736956	-36.914913	-49.359248	-36.914913	-49.359248	-0.464840	-144.477452
9.750000	-0.565286	179.303056	-36.837859	-50.807359	-36.837859	-50.807359	-0.469637	-145.142121
9.800000	-0.571998	178.339651	-36.761817	-52.254904	-36.761817	-52.254904	-0.474530	-145.813341
9.850000	-0.578753	177.371483	-36.686912	-53.701659	-36.686912	-53.701659	-0.482245	-146.468335
9.900000	-0.585547	176.398737	-36.613120	-55.147654	-36.613120	-55.147654	-0.488813	-147.124636
9.950000	-0.592371	175.422326	-36.540334	-56.593038	-36.540334	-56.593038	-0.495029	-147.782040
10.000000	-0.599224	174.442214	-36.468543	-58.037805	-36.468543	-58.037805	-0.501204	-148.440590
