! freq	dB(S11)	phase(S11)	dB(S12)	phase(S12)	
!     	dB(S21)	phase(S21)	dB(S22)	phase(S22)	
!S-par simulation data
#  GHz  S  DB  R 50
0.000000	-133.525298	0.000000	-0.000002	0.000000	0.000001	0.000000	-133.525298	180.000000
0.050000	-30.531677	-93.386929	-0.007036	-3.347427	-0.007036	-3.347427	-30.533661	-93.972122
0.100000	-24.560035	-96.659227	-0.024489	-6.684292	-0.024489	-6.684292	-24.561614	-97.833531
0.150000	-21.100875	-99.794622	-0.049258	-9.995729	-0.049258	-9.995729	-21.102443	-101.560751
0.200000	-18.671203	-102.824684	-0.080349	-13.280453	-0.080349	-13.280453	-18.673167	-105.183038
0.250000	-16.804573	-105.791209	-0.117163	-16.541802	-0.117163	-16.541802	-16.807107	-108.741541
0.300000	-15.296464	-108.716204	-0.159735	-19.779818	-0.159735	-19.779818	-15.299594	-112.258813
0.350000	-14.037525	-111.610994	-0.207868	-22.993854	-0.207868	-22.993854	-14.041202	-115.746992
0.400000	-12.963409	-114.478553	-0.261434	-26.181701	-0.261434	-26.181701	-12.967569	-119.209821
0.450000	-12.032252	-117.318778	-0.320135	-29.341235	-0.320135	-29.341235	-12.036835	-122.647815
0.500000	-11.215307	-120.130141	-0.383600	-32.470443	-0.383600	-32.470443	-11.220265	-126.059954
0.550000	-10.492265	-122.910206	-0.451464	-35.567056	-0.451464	-35.567056	-10.497562	-129.444299
0.600000	-9.847583	-125.657103	-0.523249	-38.629682	-0.523249	-38.629682	-9.853196	-132.799378
0.650000	-9.269321	-128.369231	-0.598472	-41.657270	-0.598472	-41.657270	-9.275235	-136.123961
0.700000	-8.748256	-131.045013	-0.676666	-44.648802	-0.676666	-44.648802	-8.754464	-139.416871
0.750000	-8.276909	-133.683332	-0.757350	-47.603692	-0.757350	-47.603692	-8.283409	-142.677371
0.800000	-7.849157	-136.283412	-0.840052	-50.521665	-0.840052	-50.521665	-7.855952	-145.905072
0.850000	-7.460002	-138.844615	-0.924308	-53.402553	-0.924308	-53.402553	-7.467099	-149.099751
0.900000	-7.105234	-141.366594	-1.009664	-56.246460	-1.009664	-56.246460	-7.112645	-152.261497
0.950000	-6.781030	-143.849838	-1.095683	-59.054255	-1.095683	-59.054255	-6.788766	-155.391145
1.000000	-6.484266	-146.294689	-1.181960	-61.826654	-1.181960	-61.826654	-6.492343	-158.489447
1.050000	-6.212242	-148.701686	-1.268110	-64.564553	-1.268110	-64.564553	-6.220676	-161.557367
1.100000	-5.962605	-151.071536	-1.353775	-67.269000	-1.353775	-67.269000	-5.971414	-164.596045
1.150000	-5.733481	-153.404580	-1.438590	-69.940732	-1.438590	-69.940732	-5.742685	-167.606399
1.200000	-5.523147	-155.701483	-1.522217	-72.580792	-1.522217	-72.580792	-5.532766	-170.589658
1.250000	-5.328608	-157.967251	-1.604632	-75.193954	-1.604632	-75.193954	-5.338661	-173.550213
1.300000	-5.150932	-160.195899	-1.685074	-77.775586	-1.685074	-77.775586	-5.161446	-176.484613
1.350000	-4.986453	-162.395570	-1.763838	-80.333067	-1.763838	-80.333067	-4.997447	-179.399394
1.400000	-4.835686	-164.562631	-1.840291	-82.863919	-1.840291	-82.863919	-4.847187	177.706934
1.450000	-4.696648	-166.701254	-1.914517	-85.372077	-1.914517	-85.372077	-4.708680	174.830723
1.500000	-4.568802	-168.811590	-1.986228	-87.858255	-1.986228	-87.858255	-4.581391	171.970812
1.550000	-4.451498	-170.894384	-2.055207	-90.323656	-2.055207	-90.323656	-4.464672	169.125635
1.600000	-4.343363	-172.952924	-2.121572	-92.771378	-2.121572	-92.771378	-4.357148	166.292298
1.650000	-4.244799	-174.985106	-2.184750	-95.200636	-2.184750	-95.200636	-4.259230	163.470451
1.700000	-4.154031	-176.995901	-2.245170	-97.615605	-2.245170	-97.615605	-4.169135	160.656644
1.750000	-4.071283	-178.984118	-2.302391	-100.016237	-2.302391	-100.016237	-4.087094	157.849932
1.800000	-3.995857	179.048386	-2.356439	-102.404547	-2.356439	-102.404547	-4.012410	155.048175
1.850000	-3.927316	177.100463	-2.407254	-104.782077	-2.407254	-104.782077	-3.944648	152.249492
1.900000	-3.866075	175.173445	-2.454284	-107.149260	-2.454284	-107.149260	-3.884232	149.451905
1.950000	-3.810184	173.261380	-2.498461	-109.509916	-2.498461	-109.509916	-3.829200	146.653455
2.000000	-3.760104	171.365641	-2.539295	-111.864310	-2.539295	-111.864310	-3.780024	143.852441
2.050000	-3.715545	169.485234	-2.576771	-114.213885	-2.576771	-114.213885	-3.736415	141.047015
2.100000	-3.676246	167.619207	-2.610881	-116.560060	-2.610881	-116.560060	-3.698117	138.235336
2.150000	-3.641973	165.766655	-2.641629	-118.904228	-2.641629	-118.904228	-3.664897	135.415571
2.200000	-3.612512	163.926717	-2.669025	-121.247751	-2.669025	-121.247751	-3.636548	132.585894
2.250000	-3.587675	162.098577	-2.693090	-123.591969	-2.693090	-123.591969	-3.612884	129.744485
2.300000	-3.567290	160.281470	-2.713849	-125.938191	-2.713849	-125.938191	-3.593738	126.889533
2.350000	-3.551205	158.474675	-2.731339	-128.287701	-2.731339	-128.287701	-3.578962	124.019230
2.400000	-3.539282	156.677524	-2.745600	-130.641755	-2.745600	-130.641755	-3.568425	121.131772
2.450000	-3.531400	154.889397	-2.756681	-133.001582	-2.756681	-133.001582	-3.562011	118.225362
2.500000	-3.527450	153.109723	-2.764637	-135.368383	-2.764637	-135.368383	-3.559617	115.298201
2.550000	-3.527496	151.338308	-2.769401	-137.743740	-2.769401	-137.743740	-3.561320	112.347433
2.600000	-3.531283	149.574328	-2.771178	-140.128493	-2.771178	-140.128493	-3.566867	109.372170
2.650000	-3.538735	147.817378	-2.770042	-142.523754	-2.770042	-142.523754	-3.576189	106.370622
2.700000	-3.549782	146.067108	-2.766076	-144.930607	-2.766076	-144.930607	-3.589228	103.341004
2.750000	-3.564175	144.322886	-2.759512	-147.349381	-2.759512	-147.349381	-3.605734	100.283219
2.800000	-3.582202	142.585097	-2.750176	-149.782335	-2.750176	-149.782335	-3.626019	97.192573
2.850000	-3.603658	140.853275	-2.738286	-152.229928	-2.738286	-152.229928	-3.649882	94.068561
2.900000	-3.628494	139.127295	-2.723948	-154.693118	-2.723948	-154.693118	-3.677287	90.909411
2.950000	-3.656665	137.407090	-2.707274	-157.172830	-2.707274	-157.172830	-3.708201	87.713364
3.000000	-3.688125	135.692653	-2.688378	-159.669949	-2.688378	-159.669949	-3.742591	84.478668
3.050000	-3.722830	133.984032	-2.667384	-162.185325	-2.667384	-162.185325	-3.780427	81.203585
3.100000	-3.760733	132.281336	-2.644418	-164.719765	-2.644418	-164.719765	-3.821676	77.886394
3.150000	-3.801813	130.584799	-2.619594	-167.274260	-2.619594	-167.274260	-3.866337	74.524900
3.200000	-3.846014	128.894651	-2.593054	-169.849553	-2.593054	-169.849553	-3.914368	71.117372
3.250000	-3.893241	127.211102	-2.564960	-172.446099	-2.564960	-172.446099	-3.965692	67.662645
3.300000	-3.943424	125.534480	-2.535461	-175.064520	-2.535461	-175.064520	-4.020256	64.159118
3.350000	-3.996485	123.865156	-2.504706	-177.705384	-2.504706	-177.705384	-4.078001	60.605237
3.400000	-4.052332	122.203542	-2.472852	179.630796	-2.472852	179.630796	-4.138854	56.999501
3.450000	-4.110863	120.550081	-2.440056	176.943560	-2.440056	176.943560	-4.202734	53.340475
3.500000	-4.171959	118.905241	-2.406478	174.232513	-2.406478	174.232513	-4.269540	49.626801
3.550000	-4.235485	117.269505	-2.372284	171.497316	-2.372284	171.497316	-4.339161	45.857210
3.600000	-4.301290	115.643356	-2.337636	168.737697	-2.337636	168.737697	-4.411462	42.030534
3.650000	-4.369200	114.027266	-2.302703	165.953448	-2.302703	165.953448	-4.486292	38.145724
3.700000	-4.439023	112.421679	-2.267649	163.144427	-2.267649	163.144427	-4.563475	34.201864
3.750000	-4.510543	110.826992	-2.232640	160.310560	-2.232640	160.310560	-4.642813	30.198193
3.800000	-4.583535	109.243788	-2.197847	157.451301	-2.197847	157.451301	-4.724103	26.132799
3.850000	-4.657709	107.672065	-2.163434	154.567257	-2.163434	154.567257	-4.807061	22.006600
3.900000	-4.732778	106.111946	-2.129560	151.658561	-2.129560	151.658561	-4.891408	17.819433
3.950000	-4.808431	104.563411	-2.096380	148.725414	-2.096380	148.725414	-4.976838	13.571374
4.000000	-4.884334	103.026276	-2.064046	145.768078	-2.064046	145.768078	-5.063017	9.262767
4.050000	-4.960134	101.500162	-2.032701	142.786878	-2.032701	142.786878	-5.149584	4.894242
4.100000	-5.035455	99.984471	-2.002484	139.782197	-2.002484	139.782197	-5.236154	0.466742
4.150000	-5.109908	98.478358	-1.973524	136.754473	-1.973524	136.754473	-5.322314	-4.018455
4.200000	-5.183092	96.980708	-1.945944	133.704191	-1.945944	133.704191	-5.407637	-8.559718
4.250000	-5.254595	95.490116	-1.919857	130.631881	-1.919857	130.631881	-5.491672	-13.155044
4.300000	-5.324006	94.004868	-1.895366	127.538111	-1.895366	127.538111	-5.573961	-17.802042
4.350000	-5.390912	92.522930	-1.872564	124.423478	-1.872564	124.423478	-5.654038	-22.497933
4.400000	-5.454873	91.041923	-1.851552	121.288393	-1.851552	121.288393	-5.731391	-27.239994
4.450000	-5.515490	89.559059	-1.832403	118.133515	-1.832403	118.133515	-5.805546	-32.024523
4.500000	-5.572437	88.071301	-1.815158	114.959712	-1.815158	114.959712	-5.876091	-36.847051
4.550000	-5.625380	86.575326	-1.799863	111.767627	-1.799863	111.767627	-5.942601	-41.703254
4.600000	-5.674020	85.067533	-1.786555	108.557896	-1.786555	108.557896	-6.004676	-46.588484
4.650000	-5.718096	83.544077	-1.775257	105.331139	-1.775257	105.331139	-6.061952	-51.497814
4.700000	-5.757392	82.000906	-1.765984	102.087948	-1.765984	102.087948	-6.114108	-56.426081
4.750000	-5.791743	80.433808	-1.758738	98.828882	-1.758738	98.828882	-6.160866	-61.367947
4.800000	-5.821030	78.838454	-1.753513	95.554458	-1.753513	95.554458	-6.202005	-66.317957
4.850000	-5.845189	77.210448	-1.750293	92.265147	-1.750293	92.265147	-6.237355	-71.270606
4.900000	-5.864206	75.545383	-1.749054	88.961363	-1.749054	88.961363	-6.266802	-76.220411
4.950000	-5.878117	73.838886	-1.749764	85.643462	-1.749764	85.643462	-6.290292	-81.161975
5.000000	-5.887005	72.086665	-1.752386	82.311732	-1.752386	82.311732	-6.307823	-86.090060
5.050000	-5.890895	70.283380	-1.756916	78.966102	-1.756916	78.966102	-6.319321	-90.999133
5.100000	-5.890062	68.426037	-1.763263	75.607012	-1.763263	75.607012	-6.325021	-95.884765
5.150000	-5.884708	66.510849	-1.771379	72.234530	-1.771379	72.234530	-6.325069	-100.742568
5.200000	-5.875060	64.534256	-1.781210	68.848641	-1.781210	68.848641	-6.319649	-105.568528
5.250000	-5.861364	62.492941	-1.792703	65.449257	-1.792703	65.449257	-6.308976	-110.359040
5.300000	-5.843883	60.383843	-1.805805	62.036208	-1.805805	62.036208	-6.293289	-115.110927
5.350000	-5.822889	58.204167	-1.820465	58.609248	-1.820465	58.609248	-6.272843	-119.821458
5.400000	-5.798656	55.951382	-1.836633	55.168054	-1.836633	55.168054	-6.247906	-124.488353
5.450000	-5.771456	53.623223	-1.854265	51.712232	-1.854265	51.712232	-6.218750	-129.109786
5.500000	-5.741558	51.217685	-1.873320	48.241314	-1.873320	48.241314	-6.185646	-133.684372
5.550000	-5.709217	48.733013	-1.893761	44.754768	-1.893761	44.754768	-6.148861	-138.211162
5.600000	-5.674679	46.167700	-1.915558	41.251998	-1.915558	41.251998	-6.108651	-142.689623
5.650000	-5.638152	43.519570	-1.938702	37.732158	-1.938702	37.732158	-6.065227	-147.119096
5.700000	-5.599855	40.787551	-1.963174	34.194515	-1.963174	34.194515	-6.018825	-151.499844
5.750000	-5.560004	37.971724	-1.988951	30.638495	-1.988951	30.638495	-5.969697	-155.833018
5.800000	-5.518777	35.071496	-2.016031	27.063297	-2.016031	27.063297	-5.918039	-160.119572
5.850000	-5.476333	32.086480	-2.044417	23.468087	-2.044417	23.468087	-5.864035	-164.360772
5.900000	-5.432813	29.016501	-2.074122	19.852001	-2.074122	19.852001	-5.807851	-168.558176
5.950000	-5.388347	25.861590	-2.105161	16.214149	-2.105161	16.214149	-5.749643	-172.713612
6.000000	-5.343050	22.621987	-2.137558	12.553624	-2.137558	12.553624	-5.689555	-176.829164
6.050000	-5.297027	19.298144	-2.171338	8.869505	-2.171338	8.869505	-5.627723	179.092847
6.100000	-5.250376	15.890728	-2.206532	5.160862	-2.206532	5.160862	-5.564280	175.049875
6.150000	-5.203191	12.400628	-2.243168	1.426759	-2.243168	1.426759	-5.499359	171.039166
6.200000	-5.155567	8.828957	-2.281278	-2.333742	-2.281278	-2.333742	-5.433095	167.057765
6.250000	-5.107600	5.177054	-2.320886	-6.121584	-2.320886	-6.121584	-5.365633	163.102529
6.300000	-5.059389	1.444824	-2.362041	-9.938350	-2.362041	-9.938350	-5.297098	159.170552
6.350000	-5.011068	-2.364169	-2.404721	-13.784399	-2.404721	-13.784399	-5.227704	155.257755
6.400000	-4.962775	-6.247877	-2.448923	-17.660704	-2.448923	-17.660704	-5.157652	151.360463
6.450000	-4.914672	-10.204029	-2.494620	-21.568261	-2.494620	-21.568261	-5.087169	147.474837
6.500000	-4.866953	-14.230144	-2.541764	-25.508112	-2.541764	-25.508112	-5.016519	143.596871
6.550000	-4.819846	-18.323543	-2.590278	-29.481365	-2.590278	-29.481365	-4.946006	139.722389
6.600000	-4.773622	-22.481374	-2.640045	-33.489223	-2.640045	-33.489223	-4.875981	135.847034
6.650000	-4.728604	-26.700635	-2.690908	-37.533022	-2.690908	-37.533022	-4.806851	131.966252
6.700000	-4.685168	-30.978165	-2.742655	-41.614243	-2.742655	-41.614243	-4.739080	128.075289
6.750000	-4.643779	-35.311131	-2.795014	-45.734928	-2.795014	-45.734928	-4.673223	124.168970
6.800000	-4.604949	-39.695784	-2.847638	-49.896785	-2.847638	-49.896785	-4.609891	120.242094
6.850000	-4.569294	-44.128962	-2.900104	-54.102296	-2.900104	-54.102296	-4.549800	116.288982
6.900000	-4.537621	-48.608314	-2.951866	-58.355342	-2.951866	-58.355342	-4.493862	112.302811
6.950000	-4.510836	-53.130763	-3.002264	-62.659831	-3.002264	-62.659831	-4.443103	108.276481
7.000000	-4.489908	-57.692809	-3.050559	-67.019603	-3.050559	-67.019603	-4.398616	104.202983
7.050000	-4.476069	-62.291996	-3.095851	-71.440425	-3.095851	-71.440425	-4.361774	100.073761
7.100000	-4.470805	-66.926183	-3.137086	-75.929486	-3.137086	-75.929486	-4.334225	95.878994
7.150000	-4.475924	-71.593572	-3.173033	-80.495773	-3.173033	-80.495773	-4.317974	91.607238
7.200000	-4.493783	-76.292957	-3.202198	-85.151442	-3.202198	-85.151442	-4.315646	87.244037
7.250000	-4.527561	-81.023591	-3.222731	-89.913163	-3.222731	-89.913163	-4.330800	82.770511
7.300000	-4.580521	-85.783426	-3.232944	-94.796933	-3.232944	-94.796933	-4.367147	78.168879
7.350000	-4.657300	-90.570687	-3.230748	-99.825992	-3.230748	-99.825992	-4.430019	73.414262
7.400000	-4.763982	-95.382036	-3.213863	-105.029965	-3.213863	-105.029965	-4.526546	68.475573
7.450000	-4.908696	-100.210606	-3.179884	-110.446793	-3.179884	-110.446793	-4.666500	63.313552
7.500000	-5.102491	-105.042241	-3.126418	-116.125277	-3.126418	-116.125277	-4.863616	57.878138
7.550000	-5.363220	-109.845533	-3.050544	-122.142279	-3.050544	-122.142279	-5.140988	52.090609
7.600000	-5.709467	-114.562188	-2.952167	-128.563015	-2.952167	-128.563015	-5.525080	45.884657
7.650000	-6.174022	-119.066930	-2.831244	-135.505459	-2.831244	-135.505459	-6.065963	39.139028
7.700000	-6.801269	-123.095807	-2.691860	-143.114710	-2.691860	-143.114710	-6.844780	31.702740
7.750000	-7.644317	-126.109391	-2.545068	-151.555411	-2.545068	-151.555411	-7.999460	23.398725
7.800000	-8.747152	-126.967883	-2.412651	-161.026239	-2.412651	-161.026239	-9.803278	13.995059
7.850000	-10.028452	-123.413895	-2.334076	-171.735228	-2.334076	-171.735228	-12.907551	3.166452
7.900000	-10.918590	-112.839332	-2.371383	176.189250	-2.371383	176.189250	-19.686754	-9.996661
7.950000	-10.299899	-98.473987	-2.609084	162.797805	-2.609084	162.797805	-27.275997	165.492645
8.000000	-8.301157	-90.400218	-3.132230	148.470912	-3.132230	148.470912	-13.798191	146.340581
8.050000	-6.171804	-90.801938	-3.989101	133.899889	-3.989101	133.899889	-8.790153	131.487210
8.100000	-4.501351	-96.126707	-5.166839	119.870988	-5.166839	119.870988	-5.947406	117.552053
8.150000	-3.331993	-103.361893	-6.592807	106.960080	-6.592807	106.960080	-4.191105	104.876638
8.200000	-2.550742	-110.954898	-8.175059	95.401769	-8.175059	95.401769	-3.073369	93.649517
8.250000	-2.035799	-118.243861	-9.834146	85.146121	-9.834146	85.146121	-2.345786	83.812489
8.300000	-1.695644	-125.014664	-11.512966	76.010253	-11.512966	76.010253	-1.861431	75.187658
8.350000	-1.468916	-131.242454	-13.171340	67.780331	-13.171340	67.780331	-1.531739	67.572823
8.400000	-1.314490	-136.985542	-14.790464	60.239149	-14.790464	60.239149	-1.300439	60.762555
8.450000	-1.207758	-142.308009	-16.350908	53.219762	-16.350908	53.219762	-1.134592	54.604769
8.500000	-1.132644	-147.274719	-17.838283	46.583468	-17.838283	46.583468	-1.012898	48.973752
8.550000	-1.078872	-151.940364	-19.237353	40.224291	-19.237353	40.224291	-0.921760	43.773199
8.600000	-1.039065	-156.364203	-20.551493	34.056056	-20.551493	34.056056	-0.851251	38.909155
8.650000	-1.009323	-160.576316	-21.760039	28.037192	-21.760039	28.037192	-0.796145	34.333197
8.700000	-0.986670	-164.607396	-22.851226	22.145302	-22.851226	22.145302	-0.752365	29.998577
8.750000	-0.969079	-168.482268	-23.814499	16.382207	-23.814499	16.382207	-0.717087	25.868442
8.800000	-0.955206	-172.218544	-24.637369	10.774011	-24.637369	10.774011	-0.688429	21.916727
8.850000	-0.943987	-175.835953	-25.321002	5.354195	-25.321002	5.354195	-0.664814	18.115766
8.900000	-0.934739	-179.348017	-25.865612	0.163418	-25.865612	0.163418	-0.645222	14.446685
8.950000	-0.926974	177.233955	-26.276058	-4.761898	-26.276058	-4.761898	-0.628898	10.893997
9.000000	-0.920335	173.900420	-26.561299	-9.396386	-26.561299	-9.396386	-0.615279	7.444872
9.050000	-0.914560	170.643251	-26.733331	-13.729382	-26.733331	-13.729382	-0.603933	4.088588
9.100000	-0.909456	167.455461	-26.805932	-17.765174	-26.805932	-17.765174	-0.594532	0.816107
9.150000	-0.904880	164.330991	-26.793465	-21.520618	-26.793465	-21.520618	-0.586821	-2.380259
9.200000	-0.900758	161.269818	-26.703976	-24.998999	-26.703976	-24.998999	-0.580728	-5.500794
9.250000	-0.896939	158.256839	-26.562839	-28.276675	-26.562839	-28.276675	-0.575834	-8.563679
9.300000	-0.893402	155.293034	-26.375232	-31.362544	-26.375232	-31.362544	-0.572143	-11.567733
9.350000	-0.890103	152.374707	-26.151218	-34.287028	-26.151218	-34.287028	-0.569551	-14.517302
9.400000	-0.887013	149.498528	-25.899345	-37.077900	-25.899345	-37.077900	-0.567977	-17.416229
9.450000	-0.884111	146.661488	-25.626748	-39.759509	-25.626748	-39.759509	-0.567352	-20.267933
9.500000	-0.881385	143.860845	-25.339292	-42.352570	-25.339292	-42.352570	-0.567619	-23.075481
9.550000	-0.878831	141.094094	-25.041732	-44.874302	-25.041732	-44.874302	-0.568733	-25.841635
9.600000	-0.876453	138.358936	-24.737878	-47.338768	-24.737878	-47.338768	-0.570654	-28.568904
9.650000	-0.874257	135.653253	-24.430745	-49.757299	-24.430745	-49.757299	-0.573350	-31.259577
9.700000	-0.872258	132.975085	-24.122690	-52.138937	-24.122690	-52.138937	-0.576794	-33.915753
9.750000	-0.870476	130.322616	-23.815529	-54.490843	-23.815529	-54.490843	-0.580961	-36.539372
9.800000	-0.868933	127.694160	-23.510642	-56.818665	-23.510642	-56.818665	-0.585832	-39.132231
9.850000	-0.867660	125.088148	-23.209053	-59.126842	-23.209053	-59.126842	-0.591390	-41.696007
9.900000	-0.866690	122.503119	-22.911500	-61.418870	-22.911500	-61.418870	-0.597621	-44.232267
9.950000	-0.866064	119.937713	-22.618497	-63.697504	-22.618497	-63.697504	-0.604511	-46.742489
10.000000	-0.865824	117.390661	-22.330379	-65.964931	-22.330379	-65.964931	-0.612050	-49.228065
