! freq	dB(S11)	phase(S11)	dB(S12)	phase(S12)	
!     	dB(S21)	phase(S21)	dB(S22)	phase(S22)	
!S-par simulation data
#  GHz  S  DB  R 50
0.000000	0.000000	0.000000	-361.129060	180.000000	-361.129060	180.000000	-0.000000	0.000000
0.050000	-0.000726	-1.143108	-113.686307	89.225095	-113.686307	89.225095	-0.000513	-0.765171
0.100000	-0.002457	-2.280913	-107.719737	88.232852	-107.719737	88.232852	-0.001675	-1.526253
0.150000	-0.004473	-3.412658	-104.283968	87.312379	-104.283968	87.312379	-0.002937	-2.283130
0.200000	-0.006362	-4.540196	-101.912106	86.442640	-101.912106	86.442640	-0.004056	-3.037447
0.250000	-0.008063	-5.665745	-100.129807	85.623207	-100.129807	85.623207	-0.005044	-3.790687
0.300000	-0.009599	-6.790216	-98.738195	84.868411	-98.738195	84.868411	-0.005941	-4.543393
0.350000	-0.011026	-7.914126	-97.629427	84.194123	-97.629427	84.194123	-0.006797	-5.295844
0.400000	-0.012389	-9.037649	-96.741713	83.621597	-96.741713	83.621597	-0.007648	-6.048136
0.450000	-0.013719	-10.160750	-96.045802	83.190449	-96.045802	83.190449	-0.008519	-6.800282
0.500000	-0.015040	-11.283376	-95.505380	82.922463	-95.505380	82.922463	-0.009420	-7.552290
0.550000	-0.016360	-12.405407	-95.104225	82.859496	-95.104225	82.859496	-0.010354	-8.304144
0.600000	-0.017686	-13.526714	-94.832147	83.056086	-94.832147	83.056086	-0.011316	-9.055821
0.650000	-0.019020	-14.647165	-94.683217	83.584461	-94.683217	83.584461	-0.012301	-9.807284
0.700000	-0.020362	-15.766631	-94.654451	84.541758	-94.654451	84.541758	-0.013299	-10.558482
0.750000	-0.021714	-16.884914	-94.751450	86.106529	-94.751450	86.106529	-0.014299	-11.309322
0.800000	-0.023073	-18.001891	-94.969993	88.496553	-94.969993	88.496553	-0.015293	-12.059711
0.850000	-0.024440	-19.117476	-95.296074	91.999680	-95.296074	91.999680	-0.016276	-12.809560
0.900000	-0.025812	-20.231677	-95.699494	96.883334	-95.699494	96.883334	-0.017247	-13.558827
0.950000	-0.027190	-21.344322	-96.129897	103.655769	-96.129897	103.655769	-0.018205	-14.307406
1.000000	-0.028572	-22.455326	-96.476351	112.710794	-96.476351	112.710794	-0.019152	-15.055232
1.050000	-0.029958	-23.564614	-96.562861	124.066439	-96.562861	124.066439	-0.020091	-15.802259
1.100000	-0.031347	-24.672114	-96.198271	136.929087	-96.198271	136.929087	-0.021026	-16.548455
1.150000	-0.032738	-25.777762	-95.301828	149.670567	-95.301828	149.670567	-0.021959	-17.293798
1.200000	-0.034131	-26.881500	-93.976835	160.687425	-93.976835	160.687425	-0.022893	-18.038277
1.250000	-0.035525	-27.983274	-92.420241	169.283410	-92.420241	169.283410	-0.023828	-18.781883
1.300000	-0.036919	-29.082943	-90.785436	175.518168	-90.785436	175.518168	-0.024766	-19.524574
1.350000	-0.038313	-30.180548	-89.184392	179.967599	-89.184392	179.967599	-0.025708	-20.266384
1.400000	-0.039707	-31.276046	-87.657222	-176.924387	-87.657222	-176.924387	-0.026653	-21.007311
1.450000	-0.041099	-32.369397	-86.216766	-174.810193	-86.216766	-174.810193	-0.027602	-21.747352
1.500000	-0.042491	-33.460563	-84.863132	-173.434974	-84.863132	-173.434974	-0.028553	-22.486501
1.550000	-0.043880	-34.549508	-83.591147	-172.615698	-83.591147	-172.615698	-0.029506	-23.224756
1.600000	-0.045268	-35.636199	-82.393862	-172.220938	-82.393862	-172.220938	-0.030462	-23.962109
1.650000	-0.046654	-36.720602	-81.264131	-172.155445	-81.264131	-172.155445	-0.031420	-24.698556
1.700000	-0.048037	-37.802686	-80.195252	-172.349258	-80.195252	-172.349258	-0.032379	-25.434088
1.750000	-0.049419	-38.882423	-79.181191	-172.750213	-79.181191	-172.750213	-0.033340	-26.168698
1.800000	-0.050798	-39.959783	-78.216620	-173.318828	-78.216620	-173.318828	-0.034301	-26.902378
1.850000	-0.052175	-41.034738	-77.296871	-174.024780	-77.296871	-174.024780	-0.035263	-27.635118
1.900000	-0.053549	-42.107261	-76.417866	-174.844460	-76.417866	-174.844460	-0.036225	-28.366909
1.950000	-0.054923	-43.177327	-75.576038	-175.759248	-75.576038	-175.759248	-0.037189	-29.097740
2.000000	-0.056294	-44.244911	-74.768264	-176.754285	-74.768264	-176.754285	-0.038152	-29.827603
2.050000	-0.057664	-45.309988	-73.991799	-177.817583	-73.991799	-177.817583	-0.039117	-30.556485
2.100000	-0.059033	-46.372535	-73.244218	-178.939371	-73.244218	-178.939371	-0.040082	-31.284377
2.150000	-0.060402	-47.432529	-72.523377	179.888387	-72.523377	179.888387	-0.041048	-32.011266
2.200000	-0.061770	-48.489949	-71.827367	178.672360	-71.827367	178.672360	-0.042016	-32.737142
2.250000	-0.063138	-49.544773	-71.154484	177.418123	-71.154484	177.418123	-0.042985	-33.461993
2.300000	-0.064507	-50.596982	-70.503201	176.130374	-70.503201	176.130374	-0.043955	-34.185807
2.350000	-0.065877	-51.646556	-69.872142	174.813096	-69.872142	174.813096	-0.044928	-34.908574
2.400000	-0.067249	-52.693478	-69.260068	173.469691	-69.260068	173.469691	-0.045902	-35.630281
2.450000	-0.068623	-53.737728	-68.665854	172.103078	-68.665854	172.103078	-0.046879	-36.350917
2.500000	-0.070000	-54.779291	-68.088478	170.715778	-68.088478	170.715778	-0.047860	-37.070470
2.550000	-0.071381	-55.818033	-67.526127	169.309262	-67.526127	169.309262	-0.048843	-37.788880
2.600000	-0.072766	-56.854056	-66.978922	167.886304	-66.978922	167.886304	-0.049831	-38.506182
2.650000	-0.074155	-57.887346	-66.446073	166.448546	-66.446073	166.448546	-0.050822	-39.222367
2.700000	-0.075549	-58.917891	-65.926852	164.997436	-65.926852	164.997436	-0.051818	-39.937421
2.750000	-0.076950	-59.945678	-65.420591	163.534255	-65.420591	163.534255	-0.052818	-40.651334
2.800000	-0.078357	-60.970697	-64.926671	162.060141	-64.926671	162.060141	-0.053824	-41.364095
2.850000	-0.079771	-61.992938	-64.444521	160.576106	-64.444521	160.576106	-0.054836	-42.075693
2.900000	-0.081194	-63.012393	-63.973610	159.083059	-63.973610	159.083059	-0.055853	-42.786117
2.950000	-0.082624	-64.029054	-63.513445	157.581811	-63.513445	157.581811	-0.056877	-43.495357
3.000000	-0.084064	-65.042914	-63.063569	156.073097	-63.063569	156.073097	-0.057908	-44.203403
3.050000	-0.085514	-66.053967	-62.623552	154.557576	-62.623552	154.557576	-0.058946	-44.910243
3.100000	-0.086974	-67.062209	-62.192995	153.035847	-62.192995	153.035847	-0.059991	-45.615870
3.150000	-0.088445	-68.067637	-61.771524	151.508455	-61.771524	151.508455	-0.061045	-46.320272
3.200000	-0.089927	-69.070247	-61.358788	149.975895	-61.358788	149.975895	-0.062106	-47.023440
3.250000	-0.091422	-70.070039	-60.954457	148.438619	-60.954457	148.438619	-0.063177	-47.725366
3.300000	-0.092930	-71.067013	-60.558222	146.897042	-60.558222	146.897042	-0.064257	-48.426041
3.350000	-0.094452	-72.061168	-60.169790	145.351545	-60.169790	145.351545	-0.065346	-49.125456
3.400000	-0.095987	-73.052507	-59.788888	143.802478	-59.788888	143.802478	-0.066445	-49.823602
3.450000	-0.097538	-74.041033	-59.415254	142.250164	-59.415254	142.250164	-0.067554	-50.520472
3.500000	-0.099103	-75.026750	-59.048644	140.694903	-59.048644	140.694903	-0.068674	-51.216058
3.550000	-0.100685	-76.009662	-58.688824	139.136973	-58.688824	139.136973	-0.069805	-51.910353
3.600000	-0.102283	-76.989775	-58.335575	137.576631	-58.335575	137.576631	-0.070948	-52.603349
3.650000	-0.103899	-77.967097	-57.988687	136.014117	-57.988687	136.014117	-0.072102	-53.295039
3.700000	-0.105531	-78.941636	-57.647962	134.449656	-57.647962	134.449656	-0.073269	-53.985418
3.750000	-0.107183	-79.913400	-57.313211	132.883457	-57.313211	132.883457	-0.074447	-54.674478
3.800000	-0.108853	-80.882280	-56.983965	131.315660	-56.983965	131.315660	-0.075640	-55.362156
3.850000	-0.110544	-81.848408	-56.660365	129.746521	-56.660365	129.746521	-0.076845	-56.048504
3.900000	-0.112254	-82.811796	-56.342243	128.176215	-56.342243	128.176215	-0.078065	-56.733517
3.950000	-0.113984	-83.772457	-56.029444	126.604902	-56.029444	126.604902	-0.079298	-57.417189
4.000000	-0.115736	-84.730405	-55.721816	125.032735	-55.721816	125.032735	-0.080546	-58.099516
4.050000	-0.117509	-85.685655	-55.419216	123.459861	-55.419216	123.459861	-0.081808	-58.780494
4.100000	-0.119304	-86.638224	-55.121506	121.886414	-55.121506	121.886414	-0.083085	-59.460118
4.150000	-0.121121	-87.588127	-54.828554	120.312526	-54.828554	120.312526	-0.084378	-60.138386
4.200000	-0.122962	-88.535384	-54.540233	118.738318	-54.540233	118.738318	-0.085687	-60.815292
4.250000	-0.124826	-89.480011	-54.256423	117.163908	-54.256423	117.163908	-0.087012	-61.490836
4.300000	-0.126714	-90.422030	-53.977006	115.589405	-53.977006	115.589405	-0.088353	-62.165013
4.350000	-0.128626	-91.361461	-53.701872	114.014916	-53.701872	114.014916	-0.089712	-62.837821
4.400000	-0.130564	-92.298324	-53.430911	112.440539	-53.430911	112.440539	-0.091087	-63.509258
4.450000	-0.132527	-93.232641	-53.164020	110.866370	-53.164020	110.866370	-0.092480	-64.179323
4.500000	-0.134516	-94.164437	-52.901099	109.292500	-52.901099	109.292500	-0.093892	-64.848013
4.550000	-0.136531	-95.093733	-52.642053	107.719012	-52.642053	107.719012	-0.095321	-65.515328
4.600000	-0.138573	-96.020556	-52.386788	106.145990	-52.386788	106.145990	-0.096770	-66.181267
4.650000	-0.140642	-96.944930	-52.135214	104.573511	-52.135214	104.573511	-0.098237	-66.845828
4.700000	-0.142739	-97.866880	-51.887246	103.001648	-51.887246	103.001648	-0.099724	-67.509012
4.750000	-0.144864	-98.786435	-51.642799	101.430470	-51.642799	101.430470	-0.101230	-68.170819
4.800000	-0.147017	-99.703621	-51.401794	99.860045	-51.401794	99.860045	-0.102757	-68.831248
4.850000	-0.149200	-100.618467	-51.164152	98.290435	-51.164152	98.290435	-0.104305	-69.490301
4.900000	-0.151411	-101.531001	-50.929797	96.721699	-50.929797	96.721699	-0.105873	-70.147978
4.950000	-0.153653	-102.441253	-50.698658	95.153894	-50.698658	95.153894	-0.107462	-70.804280
5.000000	-0.155925	-103.349254	-50.470662	93.587073	-50.470662	93.587073	-0.109074	-71.459209
5.050000	-0.158229	-104.254939	-50.245623	92.021333	-50.245623	92.021333	-0.110708	-72.112707
5.100000	-0.160563	-105.158438	-50.023601	90.456678	-50.023601	90.456678	-0.112365	-72.764835
5.150000	-0.162929	-106.059783	-49.804532	88.893153	-49.804532	88.893153	-0.114044	-73.415597
5.200000	-0.165327	-106.959006	-49.588353	87.330800	-49.588353	87.330800	-0.115747	-74.064993
5.250000	-0.167758	-107.856143	-49.375003	85.769656	-49.375003	85.769656	-0.117473	-74.713028
5.300000	-0.170220	-108.751226	-49.164424	84.209760	-49.164424	84.209760	-0.119224	-75.359704
5.350000	-0.172716	-109.644291	-48.956558	82.651144	-48.956558	82.651144	-0.120998	-76.005024
5.400000	-0.175245	-110.535372	-48.751351	81.093842	-48.751351	81.093842	-0.122798	-76.648992
5.450000	-0.177819	-111.423846	-48.548016	79.538362	-48.548016	79.538362	-0.124631	-77.291146
5.500000	-0.180412	-112.311316	-48.348251	77.983592	-48.348251	77.983592	-0.126478	-77.932597
5.550000	-0.183046	-113.196524	-48.150551	76.430533	-48.150551	76.430533	-0.128356	-78.572420
5.600000	-0.185711	-114.080114	-47.955555	74.878696	-47.955555	74.878696	-0.130257	-79.211080
5.650000	-0.188412	-114.961848	-47.762888	73.328375	-47.762888	73.328375	-0.132186	-79.848354
5.700000	-0.191150	-115.841725	-47.572493	71.779568	-47.572493	71.779568	-0.134143	-80.484243
5.750000	-0.193919	-116.720126	-47.384656	70.232057	-47.384656	70.232057	-0.136125	-81.118987
5.800000	-0.196732	-117.596459	-47.198704	68.686361	-47.198704	68.686361	-0.138139	-81.752128
5.850000	-0.199571	-118.471669	-47.015505	67.141724	-47.015505	67.141724	-0.140174	-82.384361
5.900000	-0.202460	-119.344632	-46.833847	65.599207	-46.833847	65.599207	-0.142248	-83.014780
5.950000	-0.205370	-120.216798	-46.655105	64.057498	-46.655105	64.057498	-0.144338	-83.644524
6.000000	-0.208337	-121.086571	-46.477600	62.518216	-46.477600	62.518216	-0.146473	-84.272247
6.050000	-0.211318	-121.955843	-46.303147	60.979481	-46.303147	60.979481	-0.148620	-84.899526
6.100000	-0.214364	-122.822607	-46.129663	59.443482	-46.129663	59.443482	-0.150818	-85.524583
6.150000	-0.217418	-123.689137	-45.959340	57.907759	-45.959340	57.907759	-0.153022	-86.149421
6.200000	-0.220545	-124.553080	-45.789752	56.375082	-45.789752	56.375082	-0.155285	-86.771844
6.250000	-0.223673	-125.417023	-45.623411	54.842406	-45.623411	54.842406	-0.157548	-87.394266
6.300000	-0.226882	-126.278336	-45.457601	53.313086	-45.457601	53.313086	-0.159877	-88.014087
6.350000	-0.230092	-127.139648	-45.294898	51.783766	-45.294898	51.783766	-0.162207	-88.633908
6.400000	-0.233377	-127.998726	-45.132962	50.257552	-45.132962	50.257552	-0.164599	-89.251376
6.450000	-0.236669	-128.857601	-44.973793	48.731621	-44.973793	48.731621	-0.166997	-89.868630
6.500000	-0.240031	-129.714610	-44.815601	47.208537	-44.815601	47.208537	-0.169452	-90.483775
6.550000	-0.243408	-130.571246	-44.659868	45.686023	-44.659868	45.686023	-0.171920	-91.098499
6.600000	-0.246848	-131.426353	-44.505298	44.166094	-44.505298	44.166094	-0.174441	-91.711354
6.650000	-0.250311	-132.280950	-44.352912	42.647026	-44.352912	42.647026	-0.176980	-92.323586
6.700000	-0.253830	-133.134325	-44.201847	41.130278	-44.201847	41.130278	-0.179568	-92.934184
6.750000	-0.257378	-133.987088	-44.052723	39.614689	-44.052723	39.614689	-0.182180	-93.543964
6.800000	-0.260978	-134.838903	-43.905056	38.101150	-43.905056	38.101150	-0.184836	-94.152339
6.850000	-0.264613	-135.690039	-43.759114	36.589075	-43.759114	36.589075	-0.187524	-94.759709
6.900000	-0.268293	-136.540469	-43.614745	35.078778	-43.614745	35.078778	-0.190249	-95.365896
6.950000	-0.272017	-137.390190	-43.471911	33.570257	-43.471911	33.570257	-0.193013	-95.970899
7.000000	-0.275779	-138.239411	-43.330745	32.063236	-43.330745	32.063236	-0.195810	-96.574935
7.050000	-0.279592	-139.087931	-43.190949	30.558316	-43.190949	30.558316	-0.198652	-97.177617
7.100000	-0.283436	-139.936123	-43.052895	29.054614	-43.052895	29.054614	-0.201522	-97.779539
7.150000	-0.287339	-140.783659	-42.916072	27.553350	-42.916072	27.553350	-0.204444	-98.379945
7.200000	-0.291266	-141.631004	-42.781048	26.053014	-42.781048	26.053014	-0.207387	-98.979793
7.250000	-0.295259	-142.477775	-42.647137	24.555468	-42.647137	24.555468	-0.210391	-99.577970
7.300000	-0.299270	-143.324457	-42.515063	23.058554	-42.515063	23.058554	-0.213409	-100.175784
7.350000	-0.303355	-144.170688	-42.384005	21.564800	-42.384005	21.564800	-0.216497	-100.771782
7.400000	-0.307449	-145.016893	-42.254807	20.071368	-42.254807	20.071368	-0.219592	-101.367603
7.450000	-0.311626	-145.862809	-42.126549	18.581489	-42.126549	18.581489	-0.222764	-101.961472
7.500000	-0.315805	-146.708726	-42.000156	17.091609	-42.000156	17.091609	-0.225937	-102.555342
7.550000	-0.320075	-147.554557	-41.874645	15.605698	-41.874645	15.605698	-0.229195	-103.147134
7.600000	-0.324346	-148.400388	-41.750922	14.119787	-41.750922	14.119787	-0.232454	-103.738927
7.650000	-0.328701	-149.246354	-41.628178	12.637611	-41.628178	12.637611	-0.235793	-104.328864
7.700000	-0.333066	-150.092332	-41.507077	11.155773	-41.507077	11.155773	-0.239141	-104.918633
7.750000	-0.337506	-150.938629	-41.387037	9.677428	-41.387037	9.677428	-0.242562	-105.506761
7.800000	-0.341964	-151.784989	-41.268513	8.199780	-41.268513	8.199780	-0.245999	-106.094561
7.850000	-0.346491	-152.631814	-41.151115	6.725369	-41.151115	6.725369	-0.249503	-106.680925
7.900000	-0.351042	-153.478795	-41.035126	5.252038	-41.035126	5.252038	-0.253031	-107.266812
7.950000	-0.355654	-154.326349	-40.920310	3.781675	-40.920310	3.781675	-0.256620	-107.851460
8.000000	-0.360299	-155.174191	-40.806814	2.312797	-40.806814	2.312797	-0.260240	-108.435490
8.050000	-0.364998	-156.022677	-40.694522	0.846601	-40.694522	0.846601	-0.263915	-109.018471
8.100000	-0.369736	-156.871624	-40.583479	-0.617678	-40.583479	-0.617678	-0.267629	-109.600702
8.150000	-0.374520	-157.721247	-40.473656	-2.079579	-40.473656	-2.079579	-0.271390	-110.182064
8.200000	-0.379352	-158.571547	-40.365024	-3.539103	-40.365024	-3.539103	-0.275199	-110.762557
8.250000	-0.384222	-159.422513	-40.257616	-4.996578	-40.257616	-4.996578	-0.279048	-111.342351
8.300000	-0.389147	-160.274415	-40.151355	-6.451184	-40.151355	-6.451184	-0.282953	-111.921166
8.350000	-0.394095	-161.126769	-40.046323	-7.904526	-40.046323	-7.904526	-0.286883	-112.499574
8.400000	-0.399103	-161.980319	-39.942411	-9.354584	-39.942411	-9.354584	-0.290876	-113.076938
8.450000	-0.404155	-162.834834	-39.839648	-10.802151	-39.839648	-10.802151	-0.294916	-113.653546
8.500000	-0.409252	-163.690374	-39.738022	-12.247189	-39.738022	-12.247189	-0.299003	-114.229414
8.550000	-0.414392	-164.546998	-39.637523	-13.689654	-39.637523	-13.689654	-0.303138	-114.804555
8.600000	-0.419576	-165.404766	-39.538138	-15.129508	-39.538138	-15.129508	-0.307321	-115.378986
8.650000	-0.424803	-166.263736	-39.439856	-16.566708	-39.439856	-16.566708	-0.311552	-115.952720
8.700000	-0.430074	-167.123970	-39.342665	-18.001213	-39.342665	-18.001213	-0.315831	-116.525773
8.750000	-0.435388	-167.985527	-39.246553	-19.432982	-39.246553	-19.432982	-0.320159	-117.098160
8.800000	-0.440746	-168.848532	-39.151510	-20.861850	-39.151510	-20.861850	-0.324538	-117.669869
8.850000	-0.446147	-169.712987	-39.057524	-22.287896	-39.057524	-22.287896	-0.328966	-118.240944
8.900000	-0.451590	-170.578956	-38.964583	-23.711078	-38.964583	-23.711078	-0.333443	-118.811402
8.950000	-0.457075	-171.446498	-38.872674	-25.131357	-38.872674	-25.131357	-0.337969	-119.381257
9.000000	-0.462602	-172.315676	-38.781786	-26.548692	-38.781786	-26.548692	-0.342545	-119.950527
9.050000	-0.468169	-173.186553	-38.691906	-27.963044	-38.691906	-27.963044	-0.347171	-120.519226
9.100000	-0.473777	-174.059190	-38.603022	-29.374373	-38.603022	-29.374373	-0.351846	-121.087372
9.150000	-0.479425	-174.933652	-38.515122	-30.782643	-38.515122	-30.782643	-0.356572	-121.654980
9.200000	-0.485113	-175.810000	-38.428192	-32.187817	-38.428192	-32.187817	-0.361347	-122.222067
9.250000	-0.490839	-176.688299	-38.342221	-33.589857	-38.342221	-33.589857	-0.366173	-122.788651
9.300000	-0.496605	-177.568612	-38.257195	-34.988729	-38.257195	-34.988729	-0.371050	-123.354746
9.350000	-0.502408	-178.451004	-38.173102	-36.384399	-38.173102	-36.384399	-0.375977	-123.920372
9.400000	-0.508249	-179.335537	-38.089930	-37.776834	-38.089930	-37.776834	-0.380954	-124.485544
9.450000	-0.514127	179.777722	-38.007664	-39.166003	-38.007664	-39.166003	-0.385982	-125.050280
9.500000	-0.520041	178.888710	-37.926291	-40.551876	-37.926291	-40.551876	-0.391061	-125.614597
9.550000	-0.525990	177.997361	-37.845800	-41.934424	-37.845800	-41.934424	-0.396190	-126.178513
9.600000	-0.531974	177.103610	-37.766176	-43.313621	-37.766176	-43.313621	-0.401371	-126.742046
9.650000	-0.537991	176.207391	-37.687407	-44.689441	-37.687407	-44.689441	-0.406602	-127.305213
9.700000	-0.544042	175.308640	-37.609479	-46.061860	-37.609479	-46.061860	-0.411884	-127.868033
9.750000	-0.550125	174.407290	-37.532378	-47.430858	-37.532378	-47.430858	-0.417217	-128.430523
9.800000	-0.556239	173.503275	-37.456091	-48.796413	-37.456091	-48.796413	-0.422600	-128.992703
9.850000	-0.562384	172.596528	-37.380606	-50.158508	-37.380606	-50.158508	-0.428035	-129.554590
9.900000	-0.568558	171.686984	-37.305907	-51.517128	-37.305907	-51.517128	-0.433520	-130.116203
9.950000	-0.574760	170.774576	-37.231983	-52.872257	-37.231983	-52.872257	-0.439056	-130.677562
10.000000	-0.580990	169.859238	-37.158818	-54.223885	-37.158818	-54.223885	-0.444642	-131.238685
