! freq	dB(S11)	phase(S11)	dB(S12)	phase(S12)	
!     	dB(S21)	phase(S21)	dB(S22)	phase(S22)	
!S-par simulation data
#  GHz  S  DB  R 50
0.000000	-88.355621	0.000000	-0.000332	0.000000	-0.000332	0.000000	-88.355621	0.000000
0.050000	-32.943236	-92.803452	-0.004024	-2.745859	-0.004024	-2.745859	-32.944426	-92.710667
0.100000	-26.940379	-95.737493	-0.014391	-5.479860	-0.014391	-5.479860	-26.941233	-95.552646
0.150000	-23.446097	-98.611824	-0.030008	-8.197213	-0.030008	-8.197213	-23.446527	-98.335869
0.200000	-20.983076	-101.445770	-0.049848	-10.898479	-0.049848	-10.898479	-20.983099	-101.079464
0.250000	-19.087408	-104.244249	-0.073398	-13.585629	-0.073398	-13.585629	-19.087106	-103.787916
0.300000	-17.552080	-107.011454	-0.100463	-16.259836	-0.100463	-16.259836	-17.551552	-106.465005
0.350000	-16.266603	-109.751234	-0.130957	-18.921170	-0.130957	-18.921170	-16.265941	-109.114312
0.400000	-15.165636	-112.465962	-0.164889	-21.568524	-0.164889	-21.568524	-15.164913	-111.738072
0.450000	-14.206001	-115.158535	-0.202035	-24.201279	-0.202035	-24.201279	-14.205268	-114.339179
0.500000	-13.359330	-117.829467	-0.242341	-26.817710	-0.242341	-26.817710	-13.358623	-116.918159
0.550000	-12.605162	-120.479059	-0.285653	-29.416287	-0.285653	-29.416287	-12.604503	-119.475361
0.600000	-11.926862	-123.109008	-0.331578	-31.997266	-0.331578	-31.997266	-11.926261	-122.012555
0.650000	-11.314069	-125.717694	-0.380085	-34.558293	-0.380085	-34.558293	-11.313533	-124.528125
0.700000	-10.757656	-128.304851	-0.430919	-37.098430	-0.430919	-37.098430	-10.757185	-127.021827
0.750000	-10.249607	-130.871165	-0.483758	-39.617930	-0.483758	-39.617930	-10.249198	-129.494368
0.800000	-9.784049	-133.416392	-0.538378	-42.116290	-0.538378	-42.116290	-9.783697	-131.945502
0.850000	-9.357236	-135.938690	-0.594620	-44.591462	-0.594620	-44.591462	-9.356935	-134.373345
0.900000	-8.964177	-138.439216	-0.652156	-47.044505	-0.652156	-47.044505	-8.963920	-136.779057
0.950000	-8.601209	-140.918300	-0.710743	-49.475694	-0.710743	-49.475694	-8.600987	-139.162948
1.000000	-8.265581	-143.375708	-0.770165	-51.884765	-0.770165	-51.884765	-8.265388	-141.524752
1.050000	-7.955550	-145.810213	-0.830193	-54.270453	-0.830193	-54.270453	-7.955377	-143.863182
1.100000	-7.667881	-148.223774	-0.890586	-56.634765	-0.890586	-56.634765	-7.667724	-146.180200
1.150000	-7.400662	-150.616720	-0.951146	-58.978046	-0.951146	-58.978046	-7.400513	-148.476105
1.200000	-7.152672	-152.988589	-1.011655	-61.299840	-1.011655	-61.299840	-7.152526	-150.750377
1.250000	-6.922410	-155.339836	-1.071898	-63.600627	-1.071898	-63.600627	-6.922262	-153.003432
1.300000	-6.708002	-157.672013	-1.131728	-65.882004	-1.131728	-65.882004	-6.707849	-155.236818
1.350000	-6.508263	-159.985729	-1.190984	-68.144604	-1.190984	-68.144604	-6.508101	-157.451112
1.400000	-6.322789	-162.280390	-1.249417	-70.387833	-1.249417	-70.387833	-6.322616	-159.645637
1.450000	-6.150064	-164.557783	-1.306930	-72.613516	-1.306930	-72.613516	-6.149877	-161.822181
1.500000	-5.989049	-166.819008	-1.363414	-74.822774	-1.363414	-74.822774	-5.988848	-163.981826
1.550000	-5.839051	-169.064698	-1.418729	-77.016248	-1.418729	-77.016248	-5.838834	-166.125165
1.600000	-5.699878	-171.294753	-1.472635	-79.193835	-1.472635	-79.193835	-5.699645	-168.252008
1.650000	-5.570219	-173.511306	-1.525155	-81.357692	-1.525155	-81.357692	-5.569970	-170.364519
1.700000	-5.450216	-175.713987	-1.575997	-83.507430	-1.575997	-83.507430	-5.449951	-172.462203
1.750000	-5.338182	-177.905770	-1.625366	-85.646061	-1.625366	-85.646061	-5.337901	-174.548143
1.800000	-5.234175	179.913360	-1.673040	-87.773549	-1.673040	-87.773549	-5.233880	-176.622223
1.850000	-5.137732	177.742392	-1.718948	-89.890905	-1.718948	-89.890905	-5.137422	-178.685423
1.900000	-5.048424	175.580296	-1.763027	-91.999150	-1.763027	-91.999150	-5.048101	179.261262
1.950000	-4.965861	173.426031	-1.805224	-94.099318	-1.805224	-94.099318	-4.965526	177.216822
2.000000	-4.889682	171.278547	-1.845492	-96.192452	-1.845492	-96.192452	-4.889335	175.180238
2.050000	-4.819553	169.136779	-1.883795	-98.279605	-1.883795	-98.279605	-4.819196	173.150477
2.100000	-4.755169	166.999655	-1.920104	-100.361838	-1.920104	-100.361838	-4.754803	171.126500
2.150000	-4.696245	164.866093	-1.954396	-102.440221	-1.954396	-102.440221	-4.695871	169.107253
2.200000	-4.642519	162.734998	-1.986659	-104.515834	-1.986659	-104.515834	-4.642136	167.091676
2.250000	-4.593746	160.605270	-2.016886	-106.589763	-2.016886	-106.589763	-4.593356	165.078694
2.300000	-4.549697	158.475791	-2.045080	-108.663108	-2.045080	-108.663108	-4.549300	163.067223
2.350000	-4.510160	156.345437	-2.071248	-110.736979	-2.071248	-110.736979	-4.509757	161.056163
2.400000	-4.474935	154.213063	-2.095409	-112.812500	-2.095409	-112.812500	-4.474525	159.044400
2.450000	-4.443831	152.077511	-2.117588	-114.890810	-2.117588	-114.890810	-4.443414	157.030799
2.500000	-4.416669	149.937601	-2.137815	-116.973067	-2.137815	-116.973067	-4.416245	155.014207
2.550000	-4.393428	147.791833	-2.156052	-119.060728	-2.156052	-119.060728	-4.392996	152.993205
2.600000	-4.373774	145.639161	-2.172434	-121.154829	-2.172434	-121.154829	-4.373333	150.966709
2.650000	-4.357543	143.478320	-2.187023	-123.256607	-2.187023	-123.256607	-4.357092	148.933470
2.700000	-4.344571	141.308003	-2.199886	-125.367335	-2.199886	-125.367335	-4.344109	146.892195
2.750000	-4.334694	139.126861	-2.211103	-127.488324	-2.211103	-127.488324	-4.334218	144.841544
2.800000	-4.327743	136.933487	-2.220765	-129.620938	-2.220765	-129.620938	-4.327252	142.780115
2.850000	-4.323544	134.726413	-2.228974	-131.766594	-2.228974	-131.766594	-4.323037	140.706437
2.900000	-4.321913	132.504095	-2.235845	-133.926777	-2.235845	-133.926777	-4.321386	138.618958
2.950000	-4.322653	130.264898	-2.241510	-136.103054	-2.241510	-136.103054	-4.322104	136.516026
3.000000	-4.325549	128.007081	-2.246116	-138.297082	-2.246116	-138.297082	-4.324976	134.395875
3.050000	-4.330367	125.728777	-2.249829	-140.510631	-2.249829	-140.510631	-4.329767	132.256597
3.100000	-4.336843	123.427967	-2.252837	-142.745603	-2.252837	-142.745603	-4.336214	130.096123
3.150000	-4.344682	121.102450	-2.255354	-145.004056	-2.255354	-145.004056	-4.344022	127.912180
3.200000	-4.353548	118.749805	-2.257623	-147.288237	-2.257623	-147.288237	-4.352854	125.702261
3.250000	-4.363055	116.367347	-2.259923	-149.600621	-2.259923	-149.600621	-4.362324	123.463566
3.300000	-4.372756	113.952067	-2.262575	-151.943953	-2.262575	-151.943953	-4.371988	121.192947
3.350000	-4.382111	111.499756	-2.265979	-154.322067	-2.265979	-154.322067	-4.381306	118.886026
3.400000	-4.390615	109.009943	-2.270457	-156.735257	-2.270457	-156.735257	-4.389774	116.542088
3.450000	-4.397624	106.477223	-2.276495	-159.188398	-2.276495	-159.188398	-4.396748	114.155523
3.500000	-4.401820	103.887840	-2.285133	-161.693943	-2.285133	-161.693943	-4.400914	111.712208
3.550000	-4.402381	101.241467	-2.296926	-164.251766	-2.296926	-164.251766	-4.401452	109.211365
3.600000	-4.398214	98.532008	-2.312710	-166.866990	-2.312710	-166.866990	-4.397274	106.646433
3.650000	-4.387974	95.750902	-2.333571	-169.546823	-2.333571	-169.546823	-4.387037	104.008295
3.700000	-4.370075	92.887843	-2.360854	-172.299825	-2.360854	-172.299825	-4.369164	101.285977
3.750000	-4.342659	89.930335	-2.396238	-175.136221	-2.396238	-175.136221	-4.341801	98.466190
3.800000	-4.303919	86.866353	-2.441518	-178.065562	-2.441518	-178.065562	-4.303153	95.536100
3.850000	-4.248724	83.655098	-2.501759	178.878664	-2.501759	178.878664	-4.248106	92.452846
3.900000	-4.174211	80.274888	-2.580784	175.680653	-2.580784	175.680653	-4.173815	89.193388
3.950000	-4.077067	76.696369	-2.683781	172.319211	-2.683781	172.319211	-4.076985	85.726800
4.000000	-3.952701	72.873943	-2.818785	168.761526	-2.818785	168.761526	-3.953052	82.005330
4.050000	-3.793181	68.722572	-3.000972	164.947588	-3.000972	164.947588	-3.794133	77.940274
4.100000	-3.593553	64.163686	-3.248127	160.829473	-3.248127	160.829473	-3.595314	73.450198
4.150000	-3.345152	59.047189	-3.595033	156.319817	-3.595033	156.319817	-3.348007	68.379942
4.200000	-3.044306	53.206745	-4.091776	151.348412	-4.091776	151.348412	-3.048606	62.558737
4.250000	-2.688052	46.344825	-4.840149	145.834752	-4.840149	145.834752	-2.694270	55.681633
4.300000	-2.289277	38.099978	-6.022176	139.871999	-6.022176	139.871999	-2.298006	47.379978
4.350000	-1.887732	27.955499	-8.035896	134.240419	-8.035896	134.240419	-1.899730	37.127158
4.400000	-1.582943	15.330597	-11.833484	133.695726	-11.833484	133.695726	-1.599180	24.330080
4.450000	-1.562085	-0.028548	-17.564735	172.266414	-17.564735	172.266414	-1.583765	8.721008
4.500000	-2.066385	-17.428234	-11.629335	-138.665081	-11.629335	-138.665081	-2.095001	-9.023337
4.550000	-3.227298	-34.951202	-6.501083	-141.450137	-6.501083	-141.450137	-3.264669	-27.005063
4.600000	-4.932543	-50.574836	-3.838640	-152.106546	-3.838640	-152.106546	-4.980785	-43.222681
4.650000	-6.931154	-63.416436	-2.427757	-162.720340	-2.427757	-162.720340	-6.992530	-56.816102
4.700000	-9.010839	-73.678281	-1.655234	-171.880476	-1.655234	-171.880476	-9.087507	-68.007132
4.750000	-11.044891	-81.924205	-1.215869	-179.594795	-1.215869	-179.594795	-11.138412	-77.374228
4.800000	-12.957432	-88.693162	-0.956915	173.854578	-0.956915	173.854578	-13.067893	-85.461620
4.850000	-14.726383	-94.460779	-0.796019	168.151227	-0.796019	168.151227	-14.851811	-92.721332
4.900000	-16.318515	-99.542574	-0.693344	163.086494	-0.693344	163.086494	-16.453609	-99.424495
4.950000	-17.712464	-104.190858	-0.625924	158.498430	-0.625924	158.498430	-17.848202	-105.742858
5.000000	-18.890739	-108.595751	-0.580671	154.270969	-0.580671	154.270969	-19.014922	-111.754947
5.050000	-19.835859	-112.893290	-0.550036	150.324512	-0.550036	150.324512	-19.934885	-117.462988
5.100000	-20.551636	-117.170615	-0.529035	146.592735	-0.529035	146.592735	-20.613746	-122.836914
5.150000	-21.044315	-121.463480	-0.514783	143.031474	-0.514783	143.031474	-21.062096	-127.831619
5.200000	-21.330160	-125.770004	-0.505416	139.607580	-0.505416	139.607580	-21.301928	-132.417495
5.250000	-21.433553	-130.064471	-0.499701	136.295835	-0.499701	136.295835	-21.362983	-136.593261
5.300000	-21.383806	-134.311987	-0.496805	133.076804	-0.496805	133.076804	-21.278261	-140.385868
5.350000	-21.211676	-138.479981	-0.496152	129.935327	-0.496152	129.935327	-21.080150	-143.842094
5.400000	-20.946455	-142.544650	-0.497332	126.859446	-0.497332	126.859446	-20.797867	-147.017783
5.450000	-20.608064	-146.480900	-0.500179	123.844444	-0.500179	123.844444	-20.450768	-149.951285
5.500000	-20.231270	-150.307491	-0.504201	120.872832	-0.504201	120.872832	-20.070832	-152.731169
5.550000	-19.826481	-154.017235	-0.509358	117.943379	-0.509358	117.943379	-19.667506	-155.379068
5.600000	-19.407196	-157.617301	-0.515509	115.050972	-0.515509	115.050972	-19.252907	-157.928639
5.650000	-18.983599	-161.117119	-0.522534	112.191381	-0.522534	112.191381	-18.836117	-160.405935
5.700000	-18.563189	-164.526934	-0.530325	109.361067	-0.530325	109.361067	-18.423804	-162.830614
5.750000	-18.151365	-167.856893	-0.538790	106.557049	-0.538790	106.557049	-18.020771	-165.217221
5.800000	-17.751911	-171.116519	-0.547838	103.776787	-0.547838	103.776787	-17.630391	-167.576358
5.850000	-17.367400	-174.314471	-0.557387	101.018096	-0.557387	101.018096	-17.254966	-169.915654
5.900000	-16.999507	-177.458461	-0.567356	98.279079	-0.567356	98.279079	-16.896000	-172.240544
5.950000	-16.649247	179.444724	-0.577668	95.558070	-0.577668	95.558070	-16.554407	-174.554854
6.000000	-16.317159	176.389151	-0.588246	92.853590	-0.588246	92.853590	-16.230673	-176.861252
6.050000	-16.003439	173.369646	-0.599016	90.164309	-0.599016	90.164309	-15.924975	-179.161575
6.100000	-15.708045	170.381697	-0.609906	87.489020	-0.609906	87.489020	-15.637270	178.542929
6.150000	-15.430768	167.421362	-0.620845	84.826617	-0.620845	84.826617	-15.367366	176.251426
6.200000	-15.171291	164.485179	-0.631764	82.176071	-0.631764	82.176071	-15.114967	173.963370
6.250000	-14.929228	161.570094	-0.642596	79.536417	-0.642596	79.536417	-14.879713	171.678410
6.300000	-14.704637	158.674083	-0.653268	76.907135	-0.653268	76.907135	-14.661699	169.396445
6.350000	-14.496623	155.793838	-0.663721	74.286885	-0.663721	74.286885	-14.460052	167.117217
6.400000	-14.304731	152.927203	-0.673899	71.674832	-0.673899	71.674832	-14.274347	164.840648
6.450000	-14.128521	150.072218	-0.683744	69.070164	-0.683744	69.070164	-14.104173	162.566693
6.500000	-13.967573	147.227082	-0.693206	66.472093	-0.693206	66.472093	-13.949136	160.295319
6.550000	-13.821495	144.390134	-0.702236	63.879842	-0.702236	63.879842	-13.808871	158.026502
6.600000	-13.689926	141.559825	-0.710789	61.292650	-0.710789	61.292650	-13.683039	155.760221
6.650000	-13.572537	138.734703	-0.718824	58.709764	-0.718824	58.709764	-13.571336	153.496454
6.700000	-13.469037	135.913395	-0.726305	56.130439	-0.726305	56.130439	-13.473490	151.235181
6.750000	-13.379172	133.094594	-0.733198	53.553935	-0.733198	53.553935	-13.389268	148.976385
6.800000	-13.302729	130.277050	-0.739475	50.979519	-0.739475	50.979519	-13.318475	146.720055
6.850000	-13.239533	127.459557	-0.745112	48.406460	-0.745112	48.406460	-13.260953	144.466191
6.900000	-13.189453	124.640945	-0.750089	45.834031	-0.750089	45.834031	-13.216587	142.214807
6.950000	-13.152400	121.820076	-0.754391	43.261507	-0.754391	43.261507	-13.185304	139.965941
7.000000	-13.128331	118.995834	-0.758007	40.688167	-0.758007	40.688167	-13.167074	137.719661
7.050000	-13.117249	116.167119	-0.760930	38.113291	-0.760930	38.113291	-13.161913	135.476072
7.100000	-13.119206	113.332842	-0.763161	35.536161	-0.763161	35.536161	-13.169887	133.235330
7.150000	-13.134306	110.491920	-0.764700	32.956063	-0.764700	32.956063	-13.191108	130.997647
7.200000	-13.162706	107.643271	-0.765556	30.372283	-0.765556	30.372283	-13.225746	128.763311
7.250000	-13.204624	104.785803	-0.765742	27.784111	-0.765742	27.784111	-13.274025	126.532698
7.300000	-13.260340	101.918416	-0.765273	25.190839	-0.765273	25.190839	-13.336234	124.306288
7.350000	-13.330202	99.039987	-0.764172	22.591762	-0.764172	22.591762	-13.412726	122.084691
7.400000	-13.414636	96.149369	-0.762465	19.986176	-0.762465	19.986176	-13.503930	119.868669
7.450000	-13.514150	93.245375	-0.760182	17.373381	-0.760182	17.373381	-13.610355	117.659170
7.500000	-13.629345	90.326773	-0.757358	14.752681	-0.757358	14.752681	-13.732600	115.457361
7.550000	-13.761581	87.391513	-0.754014	12.122972	-0.754014	12.122972	-13.872012	113.265158
7.600000	-13.911065	84.438848	-0.750218	9.483906	-0.750218	9.483906	-14.028789	111.084039
7.650000	-14.078769	81.467295	-0.746019	6.834793	-0.746019	6.834793	-14.203882	108.916225
7.700000	-14.265826	78.475243	-0.741473	4.174944	-0.741473	4.174944	-14.398393	106.764445
7.750000	-14.473556	75.460920	-0.736637	1.503672	-0.736637	1.503672	-14.613597	104.632050
7.800000	-14.703500	72.422351	-0.731575	-1.179709	-0.731575	-1.179709	-14.850976	102.523171
7.850000	-14.957463	69.357302	-0.726355	-3.875887	-0.726355	-3.875887	-15.112247	100.442923
7.900000	-15.237571	66.263200	-0.721049	-6.585547	-0.721049	-6.585547	-15.399411	98.397671
7.950000	-15.546332	63.137040	-0.715736	-9.309380	-0.715736	-9.309380	-15.714809	96.395389
8.000000	-15.886735	59.975242	-0.710497	-12.048078	-0.710497	-12.048078	-16.061183	94.446143
8.050000	-16.262364	56.773460	-0.705419	-14.802337	-0.705419	-14.802337	-16.441769	92.562767
8.100000	-16.677555	53.526317	-0.700596	-17.572860	-0.700596	-17.572860	-16.860398	90.761792
8.150000	-17.137612	50.227003	-0.696124	-20.360357	-0.696124	-20.360357	-17.321635	89.064790
8.200000	-17.649105	46.866700	-0.692108	-23.165549	-0.692108	-23.165549	-17.830940	87.500310
8.250000	-18.220295	43.433678	-0.688656	-25.989167	-0.688656	-25.989167	-18.394878	86.106763
8.300000	-18.861745	39.911890	-0.685884	-28.831959	-0.685884	-28.831959	-19.021352	84.936787
8.350000	-19.587244	36.278636	-0.683914	-31.694688	-0.683914	-31.694688	-19.719854	84.064034
8.400000	-20.415239	32.500566	-0.682875	-34.578136	-0.682875	-34.578136	-20.501640	83.593923
8.450000	-21.371148	28.526401	-0.682904	-37.483111	-0.682904	-37.483111	-21.379610	83.681032
8.500000	-22.491288	24.272791	-0.684147	-40.410444	-0.684147	-40.410444	-22.367245	84.557423
8.550000	-23.829935	19.594447	-0.686758	-43.360998	-0.686758	-43.360998	-23.474961	86.577805
8.600000	-25.472937	14.213949	-0.690903	-46.335667	-0.690903	-46.335667	-24.699629	90.284634
8.650000	-27.565947	7.532263	-0.696756	-49.335384	-0.696756	-49.335384	-25.997573	96.469979
8.700000	-30.375872	-1.980944	-0.704507	-52.361121	-0.704507	-52.361121	-27.225891	106.103481
8.750000	-34.394391	-19.131501	-0.714359	-55.413894	-0.714359	-55.413894	-28.066154	119.716457
8.800000	-38.760089	-65.671303	-0.726638	-58.496042	-0.726638	-58.496042	-28.059635	135.780848
8.850000	-35.850318	-123.874363	-0.741493	-61.607512	-0.741493	-61.607512	-27.162252	150.397043
8.900000	-31.162222	-149.226442	-0.759181	-64.749481	-0.759181	-64.749481	-25.733572	161.234774
8.950000	-27.675797	-161.436945	-0.779979	-67.923181	-0.779979	-67.923181	-24.146719	168.303111
9.000000	-25.052566	-169.367294	-0.803997	-71.128061	-0.803997	-71.128061	-22.606601	172.621472
9.050000	-22.953674	-175.406685	-0.831893	-74.368695	-0.831893	-74.368695	-21.163518	174.791453
9.100000	-21.205970	179.364147	-0.863884	-77.645075	-0.863884	-77.645075	-19.842069	175.586103
9.150000	-19.705008	174.577419	-0.900363	-80.958664	-0.900363	-80.958664	-18.634487	175.417429
9.200000	-18.387140	170.046283	-0.941667	-84.310243	-0.941667	-84.310243	-17.528286	174.560782
9.250000	-17.206904	165.678217	-0.988755	-87.705107	-0.988755	-87.705107	-16.506524	173.150564
9.300000	-16.140514	161.394965	-1.041355	-91.138870	-1.041355	-91.138870	-15.562871	171.367504
9.350000	-15.163393	157.165614	-1.100709	-94.618104	-1.100709	-94.618104	-14.683208	169.247585
9.400000	-14.262026	152.960027	-1.167074	-98.141898	-1.167074	-98.141898	-13.860964	166.864356
9.450000	-13.424786	148.758207	-1.241128	-101.711901	-1.241128	-101.711901	-13.089168	164.257474
9.500000	-12.641658	144.544698	-1.324059	-105.332522	-1.324059	-105.332522	-12.361027	161.443267
9.550000	-11.907913	140.309612	-1.415725	-108.999619	-1.415725	-108.999619	-11.674065	158.464124
9.600000	-11.215276	136.038035	-1.518571	-112.723605	-1.518571	-112.723605	-11.021739	155.305674
9.650000	-10.562370	131.728753	-1.631737	-116.495820	-1.631737	-116.495820	-10.403832	152.009404
9.700000	-9.943663	127.366898	-1.758055	-120.326909	-1.758055	-120.326909	-9.815813	148.557201
9.750000	-9.358007	122.953171	-1.897191	-124.210602	-1.897191	-124.210602	-9.257214	144.973798
9.800000	-8.802773	118.477799	-2.051270	-128.152180	-2.051270	-128.152180	-8.725998	141.252458
9.850000	-8.276653	113.937323	-2.221383	-132.151293	-2.221383	-132.151293	-8.221311	137.398545
9.900000	-7.778771	109.330445	-2.408412	-136.206233	-2.408412	-136.206233	-7.742650	133.419215
9.950000	-7.308510	104.647293	-2.615244	-140.322872	-2.615244	-140.322872	-7.289732	129.303843
10.000000	-6.865283	99.897015	-2.841180	-144.492285	-2.841180	-144.492285	-6.862228	125.073896
