! freq	dB(S11)	phase(S11)	dB(S12)	phase(S12)	
!     	dB(S21)	phase(S21)	dB(S22)	phase(S22)	
!S-par simulation data
#  GHz  S  DB  R 50
0.000000	-0.000000	0.000000	-359.736193	0.000000	-359.736193	0.000000	-0.000000	0.000000
0.050000	-0.000050	-0.771699	-100.550897	-1.188456	-100.550897	-1.188456	-0.000092	-0.770836
0.100000	-0.000201	-1.543324	-100.347178	8.584089	-100.347178	8.584089	-0.000363	-1.541464
0.150000	-0.000453	-2.314792	-100.110704	15.450634	-100.110704	15.450634	-0.000810	-2.311673
0.200000	-0.000798	-3.086050	-99.833098	21.220989	-99.833098	21.220989	-0.001405	-3.081333
0.250000	-0.001235	-3.857024	-99.534472	26.179351	-99.534472	26.179351	-0.002138	-3.850292
0.300000	-0.001769	-4.627611	-99.239627	30.401171	-99.239627	30.401171	-0.002998	-4.618356
0.350000	-0.002382	-5.397812	-98.970282	34.097521	-98.970282	34.097521	-0.003946	-5.385592
0.400000	-0.003082	-6.167506	-98.746903	37.278904	-98.746903	37.278904	-0.004976	-6.151823
0.450000	-0.003855	-6.936682	-98.581976	40.084964	-98.581976	40.084964	-0.006062	-6.917112
0.500000	-0.004701	-7.705265	-98.491185	42.591920	-98.491185	42.591920	-0.007190	-7.681415
0.550000	-0.005613	-8.473212	-98.487520	44.901634	-98.487520	44.901634	-0.008345	-8.444752
0.600000	-0.006584	-9.240480	-98.585122	47.120818	-98.585122	47.120818	-0.009514	-9.207146
0.650000	-0.007610	-10.007029	-98.800264	49.373985	-98.800264	49.373985	-0.010689	-9.968625
0.700000	-0.008684	-10.772824	-99.152849	51.820172	-99.152849	51.820172	-0.011861	-10.729220
0.750000	-0.009800	-11.537835	-99.668011	54.683053	-99.668011	54.683053	-0.013025	-11.488963
0.800000	-0.010953	-12.302035	-100.377272	58.307825	-100.377272	58.307825	-0.014178	-12.247880
0.850000	-0.012137	-13.065401	-101.316636	63.273075	-101.316636	63.273075	-0.015315	-13.005999
0.900000	-0.013345	-13.827914	-102.511000	70.606441	-102.511000	70.606441	-0.016437	-13.763338
0.950000	-0.014574	-14.589559	-103.906272	82.092882	-103.906272	82.092882	-0.017543	-14.519915
1.000000	-0.015818	-15.350320	-105.160129	100.029282	-105.160129	100.029282	-0.018631	-15.275742
1.050000	-0.017073	-16.110189	-105.400943	124.528023	-105.400943	124.528023	-0.019704	-16.030827
1.100000	-0.018335	-16.869157	-103.949652	149.165247	-103.949652	149.165247	-0.020762	-16.785173
1.150000	-0.019599	-17.627217	-101.501524	166.633282	-101.501524	166.633282	-0.021806	-17.538780
1.200000	-0.020862	-18.384364	-98.959619	177.234046	-98.959619	177.234046	-0.022837	-18.291646
1.250000	-0.022121	-19.140595	-96.636050	-176.365367	-96.636050	-176.365367	-0.023856	-19.043765
1.300000	-0.023373	-19.895868	-94.555018	-172.447878	-94.555018	-172.447878	-0.024864	-19.795096
1.350000	-0.024616	-20.650220	-92.697817	-169.943200	-92.697817	-169.943200	-0.025864	-20.545661
1.400000	-0.025847	-21.403650	-91.023602	-168.354082	-91.023602	-168.354082	-0.026855	-21.295449
1.450000	-0.027066	-22.156159	-89.498745	-167.388278	-89.498745	-167.388278	-0.027839	-22.044445
1.500000	-0.028270	-22.907744	-88.097072	-166.865496	-88.097072	-166.865496	-0.028818	-22.792637
1.550000	-0.029460	-23.658405	-86.798389	-166.669375	-86.798389	-166.669375	-0.029791	-23.540010
1.600000	-0.030633	-24.408141	-85.586999	-166.721736	-85.586999	-166.721736	-0.030761	-24.286547
1.650000	-0.031790	-25.156950	-84.450553	-166.968171	-84.450553	-166.968171	-0.031727	-25.032233
1.700000	-0.032924	-25.904507	-83.355403	-167.410299	-83.355403	-167.410299	-0.032691	-25.776742
1.750000	-0.034049	-26.651579	-82.351718	-167.922787	-82.351718	-167.922787	-0.033653	-26.520792
1.800000	-0.035155	-27.397512	-81.383886	-168.554348	-81.383886	-168.554348	-0.034614	-27.263738
1.850000	-0.036246	-28.142633	-80.469375	-169.270962	-80.469375	-169.270962	-0.035574	-28.005893
1.900000	-0.037321	-28.886768	-79.592213	-170.060147	-79.592213	-170.060147	-0.036535	-28.747065
1.950000	-0.038380	-29.629918	-78.750346	-170.921903	-78.750346	-170.921903	-0.037495	-29.487254
2.000000	-0.039427	-30.372237	-77.947010	-171.828705	-77.947010	-171.828705	-0.038457	-30.226592
2.050000	-0.040456	-31.113393	-77.165752	-172.798571	-77.165752	-172.798571	-0.039420	-30.964740
2.100000	-0.041478	-31.853873	-76.423884	-173.796262	-76.423884	-173.796262	-0.040384	-31.702185
2.150000	-0.042483	-32.593003	-75.694180	-174.849600	-75.694180	-174.849600	-0.041351	-32.438223
2.200000	-0.043483	-33.331618	-75.004431	-175.919514	-75.004431	-175.919514	-0.042319	-33.173716
2.250000	-0.044468	-34.068685	-74.319279	-177.039154	-74.319279	-177.039154	-0.043291	-33.907576
2.300000	-0.045450	-34.805402	-73.674387	-178.167773	-73.674387	-178.167773	-0.044264	-34.641061
2.350000	-0.046420	-35.540365	-73.028246	-179.341289	-73.028246	-179.341289	-0.045243	-35.372675
2.400000	-0.047389	-36.275149	-72.422450	179.481479	-72.422450	179.481479	-0.046223	-36.104098
2.450000	-0.048350	-37.007960	-71.810846	178.263364	-71.810846	178.263364	-0.047210	-36.833405
2.500000	-0.049310	-37.740771	-71.239489	177.045249	-71.239489	177.045249	-0.048197	-37.562711
2.550000	-0.050266	-38.471378	-70.658753	175.789648	-70.658753	175.789648	-0.049193	-38.289650
2.600000	-0.051221	-39.201986	-70.114424	174.534047	-70.114424	174.534047	-0.050189	-39.016589
2.650000	-0.052178	-39.930524	-69.565086	173.249196	-69.565086	173.249196	-0.051195	-39.741304
2.700000	-0.053134	-40.658873	-69.045262	171.961686	-69.045262	171.961686	-0.052202	-40.465818
2.750000	-0.054096	-41.385294	-68.524084	170.651303	-68.524084	170.651303	-0.053218	-41.188265
2.800000	-0.055058	-42.111328	-68.026623	169.336345	-68.026623	169.336345	-0.054236	-41.910298
2.850000	-0.056028	-42.835581	-67.530868	168.003525	-67.530868	168.003525	-0.055265	-42.630433
2.900000	-0.057001	-43.559241	-67.053929	166.664751	-67.053929	166.664751	-0.056296	-43.349936
2.950000	-0.057983	-44.281277	-66.581264	165.312100	-66.581264	165.312100	-0.057337	-44.067718
3.000000	-0.058971	-45.002502	-66.123253	163.952511	-66.123253	163.952511	-0.058383	-44.784641
3.050000	-0.059969	-45.722272	-65.671667	162.582249	-65.671667	162.582249	-0.059438	-45.500033
3.100000	-0.060975	-46.441001	-65.231191	161.204363	-65.231191	161.204363	-0.060499	-46.214330
3.150000	-0.061992	-47.158453	-64.798942	159.818399	-64.798942	159.818399	-0.061569	-46.927294
3.200000	-0.063020	-47.874627	-64.374773	158.424356	-64.374773	158.424356	-0.062647	-47.638925
3.250000	-0.064059	-48.589711	-63.960336	157.024348	-63.960336	157.024348	-0.063734	-48.349428
3.300000	-0.065113	-49.303270	-63.551389	155.615987	-63.551389	155.615987	-0.064830	-49.058351
3.350000	-0.066176	-50.015937	-63.153424	154.203388	-63.153424	154.203388	-0.065934	-49.766361
3.400000	-0.067257	-50.726822	-62.758730	152.782311	-62.758730	152.782311	-0.067051	-50.472542
3.450000	-0.068347	-51.437025	-62.376049	151.358407	-62.376049	151.358407	-0.068173	-51.178028
3.500000	-0.069459	-52.145180	-61.994739	149.926020	-61.994739	149.926020	-0.069311	-51.881433
3.550000	-0.070576	-52.852871	-61.626286	148.491956	-61.626286	148.491956	-0.070453	-52.584369
3.600000	-0.071720	-53.558242	-61.257578	147.049508	-61.257578	147.049508	-0.071615	-53.284967
3.650000	-0.072868	-54.263377	-60.902410	145.606315	-60.902410	145.606315	-0.072778	-53.985328
3.700000	-0.074046	-54.965913	-60.545595	144.154924	-60.545595	144.154924	-0.073964	-54.683091
3.750000	-0.075224	-55.668449	-60.202861	142.703533	-60.202861	142.703533	-0.075150	-55.380854
3.800000	-0.076438	-56.368101	-59.857294	141.244210	-59.857294	141.244210	-0.076361	-56.075759
3.850000	-0.077651	-57.067753	-59.524951	139.784887	-59.524951	139.784887	-0.077573	-56.770663
3.900000	-0.078898	-57.764720	-59.191321	138.319135	-59.191321	138.319135	-0.078811	-57.462928
3.950000	-0.080147	-58.461444	-58.868849	136.852799	-58.868849	136.852799	-0.080051	-58.154952
4.000000	-0.081427	-59.155692	-58.546442	135.381321	-58.546442	135.381321	-0.081315	-58.844561
4.050000	-0.082714	-59.849445	-58.233362	133.908815	-58.233362	133.908815	-0.082584	-59.533686
4.100000	-0.084028	-60.540942	-57.921527	132.432265	-57.921527	132.432265	-0.083877	-60.220626
4.150000	-0.085352	-61.231687	-57.617396	130.954366	-57.617396	130.954366	-0.085177	-60.906837
4.200000	-0.086701	-61.920404	-57.315539	129.473352	-57.315539	129.473352	-0.086499	-61.591096
4.250000	-0.088062	-62.608107	-57.019948	127.990781	-57.019948	127.990781	-0.087832	-62.274380
4.300000	-0.089446	-63.294018	-56.727524	126.505877	-56.727524	126.505877	-0.089186	-62.955950
4.350000	-0.090845	-63.978649	-56.440091	125.019306	-56.440091	125.019306	-0.090553	-63.636296
4.400000	-0.092263	-64.661732	-56.156600	123.531049	-56.156600	123.531049	-0.091939	-64.315170
4.450000	-0.093700	-65.343265	-55.876969	122.041106	-55.876969	122.041106	-0.093343	-64.992572
4.500000	-0.095153	-66.023500	-55.601948	120.550004	-55.601948	120.550004	-0.094763	-65.668745
4.550000	-0.096628	-66.701915	-55.329787	119.057279	-55.329787	119.057279	-0.096204	-66.343199
4.600000	-0.098116	-67.379284	-55.062809	117.563811	-55.062809	117.563811	-0.097660	-67.016669
4.650000	-0.099629	-68.054563	-54.797805	116.068859	-54.797805	116.068859	-0.099141	-67.688172
4.700000	-0.101151	-68.729055	-54.538474	114.573481	-54.538474	114.573481	-0.100633	-68.358938
4.750000	-0.102702	-69.401185	-54.280332	113.076826	-54.280332	113.076826	-0.102156	-69.027492
4.800000	-0.104259	-70.072788	-54.028281	111.579969	-54.028281	111.579969	-0.103686	-69.695555
4.850000	-0.105848	-70.741760	-53.776724	110.082105	-53.776724	110.082105	-0.105252	-70.361165
4.900000	-0.107441	-71.410469	-53.531609	108.584179	-53.531609	108.584179	-0.106822	-71.026529
4.950000	-0.109069	-72.076279	-53.286375	107.085574	-53.286375	107.085574	-0.108433	-71.689200
5.000000	-0.110697	-72.742089	-53.047875	105.586968	-53.047875	105.586968	-0.110044	-72.351871
5.050000	-0.112364	-73.404736	-52.808716	104.088064	-52.808716	104.088064	-0.111701	-73.011613
5.100000	-0.114031	-74.067384	-52.575965	102.589159	-52.575965	102.589159	-0.113359	-73.671355
5.150000	-0.115735	-74.727137	-52.343212	101.090364	-52.343212	101.090364	-0.115061	-74.328422
5.200000	-0.117443	-75.386626	-52.115994	99.591578	-52.115994	99.591578	-0.116767	-74.985247
5.250000	-0.119185	-76.043491	-51.889357	98.093221	-51.889357	98.093221	-0.118514	-75.639653
5.300000	-0.120934	-76.699830	-51.667468	96.594950	-51.667468	96.594950	-0.120270	-76.293575
5.350000	-0.122715	-77.353818	-51.446677	95.097344	-51.446677	95.097344	-0.122065	-76.945332
5.400000	-0.124508	-78.007020	-51.229919	93.599961	-51.229919	93.599961	-0.123873	-77.596369
5.450000	-0.126330	-78.658143	-51.014718	92.103404	-51.014718	92.103404	-0.125716	-78.245494
5.500000	-0.128168	-79.308227	-50.802905	90.607261	-50.802905	90.607261	-0.127578	-78.893664
5.550000	-0.130034	-79.956503	-50.593055	89.112034	-50.593055	89.112034	-0.129471	-79.540174
5.600000	-0.131921	-80.603490	-50.386008	87.617463	-50.386008	87.617463	-0.131388	-80.185499
5.650000	-0.133833	-81.248941	-50.181282	86.123834	-50.181282	86.123834	-0.133332	-80.829414
5.700000	-0.135772	-81.892857	-49.978830	84.631147	-49.978830	84.631147	-0.135306	-81.471920
5.750000	-0.137734	-82.535509	-49.779016	83.139368	-49.779016	83.139368	-0.137303	-82.113261
5.800000	-0.139728	-83.176390	-49.580996	81.648859	-49.580996	81.648859	-0.139335	-82.752972
5.850000	-0.141744	-83.816272	-49.385892	80.159169	-49.385892	80.159169	-0.141387	-83.391762
5.900000	-0.143801	-84.454157	-49.192147	78.671114	-49.192147	78.671114	-0.143479	-84.028709
5.950000	-0.145874	-85.091306	-49.001564	77.183738	-49.001564	77.183738	-0.145587	-84.664972
6.000000	-0.147998	-85.726245	-48.811945	75.698396	-48.811945	75.698396	-0.147741	-85.299185
6.050000	-0.150136	-86.360702	-48.625703	74.213546	-48.625703	74.213546	-0.149906	-85.932949
6.100000	-0.152335	-86.992753	-48.440069	72.731159	-48.440069	72.731159	-0.152123	-86.564462
6.150000	-0.154541	-87.624570	-48.257998	71.249037	-48.257998	71.249037	-0.154346	-87.195754
6.200000	-0.156823	-88.253805	-48.076212	69.769831	-48.076212	69.769831	-0.156629	-87.824603
6.250000	-0.159105	-88.883039	-47.898153	68.290626	-47.898153	68.290626	-0.158912	-88.453452
6.300000	-0.161478	-89.509544	-47.720086	66.814816	-47.720086	66.814816	-0.161261	-89.079675
6.350000	-0.163851	-90.136048	-47.545596	65.339006	-47.545596	65.339006	-0.163611	-89.705898
6.400000	-0.166315	-90.760144	-47.371415	63.866492	-47.371415	63.866492	-0.166023	-90.329751
6.450000	-0.168788	-91.384022	-47.200380	62.394278	-47.200380	62.394278	-0.168441	-90.953388
6.500000	-0.171351	-92.005814	-47.029941	60.925220	-47.029941	60.925220	-0.170917	-91.574905
6.550000	-0.173931	-92.627189	-46.862251	59.456793	-46.862251	59.456793	-0.173405	-92.195998
6.600000	-0.176597	-93.246797	-46.695417	57.991342	-46.695417	57.991342	-0.175947	-92.815217
6.650000	-0.179293	-93.865815	-46.530968	56.526884	-46.530968	56.526884	-0.178506	-93.433811
6.700000	-0.182066	-94.483374	-46.367612	55.065189	-46.367612	55.065189	-0.181114	-94.050769
6.750000	-0.184879	-95.100203	-46.206307	53.604875	-46.206307	53.604875	-0.183747	-94.666911
6.800000	-0.187761	-95.715862	-46.046307	52.147081	-46.046307	52.147081	-0.186423	-95.281650
6.850000	-0.190691	-96.330685	-45.888054	50.691087	-45.888054	50.691087	-0.189130	-95.895388
6.900000	-0.193677	-96.944601	-45.731298	49.237339	-45.731298	49.237339	-0.191875	-96.507949
6.950000	-0.196719	-97.557609	-45.576010	47.785838	-45.576010	47.785838	-0.194659	-97.119335
7.000000	-0.199801	-98.169936	-45.422392	46.336284	-45.422392	46.336284	-0.197474	-97.729762
7.050000	-0.202941	-98.781309	-45.269989	44.889458	-45.269989	44.889458	-0.200335	-98.338849
7.100000	-0.206106	-99.392187	-45.119411	43.444255	-45.119411	43.444255	-0.203223	-98.947188
7.150000	-0.209323	-100.002076	-44.969819	42.002297	-44.969819	42.002297	-0.206163	-99.554033
7.200000	-0.212555	-100.611620	-44.822188	40.561610	-44.822188	40.561610	-0.209123	-100.160331
7.250000	-0.215825	-101.220124	-44.675339	39.124736	-44.675339	39.124736	-0.212143	-100.764992
7.300000	-0.219101	-101.828404	-44.530571	37.688750	-44.530571	37.688750	-0.215178	-101.369299
7.350000	-0.222399	-102.435559	-44.386402	36.257206	-44.386402	36.257206	-0.218280	-101.971838
7.400000	-0.225699	-103.042598	-44.244418	34.826130	-44.244418	34.826130	-0.221390	-102.574205
7.450000	-0.229002	-103.648369	-44.102875	33.400210	-44.102875	33.400210	-0.224575	-103.174688
7.500000	-0.232306	-104.254140	-43.963602	31.974289	-43.963602	31.974289	-0.227762	-103.775170
7.550000	-0.235598	-104.858439	-43.824636	30.554353	-43.824636	30.554353	-0.231032	-104.373665
7.600000	-0.238891	-105.462738	-43.687859	29.134417	-43.687859	29.134417	-0.234303	-104.972160
7.650000	-0.242168	-106.065579	-43.551580	27.720386	-43.551580	27.720386	-0.237652	-105.568901
7.700000	-0.245445	-106.668287	-43.417260	26.306891	-43.417260	26.306891	-0.241010	-106.165483
7.750000	-0.248713	-107.269573	-43.283611	24.899263	-43.283611	24.899263	-0.244439	-106.760537
7.800000	-0.251979	-107.870573	-43.151717	23.492808	-43.151717	23.492808	-0.247884	-107.355285
7.850000	-0.255247	-108.470224	-43.020652	22.092234	-43.020652	22.092234	-0.251395	-107.948723
7.900000	-0.258517	-109.069425	-42.891160	20.693620	-42.891160	20.693620	-0.254928	-108.541725
7.950000	-0.261802	-109.667394	-42.762638	19.300972	-42.762638	19.300972	-0.258522	-109.133629
8.000000	-0.265096	-110.264746	-42.635531	17.911307	-42.635531	17.911307	-0.262146	-109.724984
8.050000	-0.268417	-110.861019	-42.509519	16.527782	-42.509519	16.527782	-0.265824	-110.315444
8.100000	-0.271758	-111.456522	-42.384788	15.148643	-42.384788	15.148643	-0.269541	-110.905265
8.150000	-0.275134	-112.051121	-42.261257	13.775930	-42.261257	13.775930	-0.273305	-111.494388
8.200000	-0.278546	-112.644818	-42.138899	12.409642	-42.138899	12.409642	-0.277116	-112.082814
8.250000	-0.281997	-113.237795	-42.017821	11.050197	-42.017821	11.050197	-0.280968	-112.670730
8.300000	-0.285502	-113.829767	-41.897829	9.700332	-41.897829	9.700332	-0.284878	-113.257935
8.350000	-0.289051	-114.421115	-41.779121	8.359479	-41.779121	8.359479	-0.288828	-113.844774
8.400000	-0.292688	-115.011217	-41.661319	7.036649	-41.661319	7.036649	-0.292859	-114.430880
8.450000	-0.296326	-115.601319	-41.545094	5.713820	-41.545094	5.713820	-0.296893	-115.016985
8.500000	-0.300061	-116.190352	-41.429684	4.418874	-41.429684	4.418874	-0.301016	-115.602771
8.550000	-0.303874	-116.778531	-41.315219	3.146235	-41.315219	3.146235	-0.305213	-116.188301
8.600000	-0.307689	-117.366710	-41.202243	1.873596	-41.202243	1.873596	-0.309412	-116.773831
8.650000	-0.311652	-117.953593	-41.088556	0.678556	-41.088556	0.678556	-0.313805	-117.360119
8.700000	-0.315660	-118.540104	-40.975728	-0.494314	-40.975728	-0.494314	-0.318255	-117.946624
8.750000	-0.319670	-119.126616	-40.864347	-1.667183	-40.864347	-1.667183	-0.322707	-118.533128
8.800000	-0.323883	-119.711729	-40.740443	-2.587676	-40.740443	-2.587676	-0.327859	-119.124935
8.850000	-0.328097	-120.296841	-40.618281	-3.508170	-40.618281	-3.508170	-0.333013	-119.716742
8.900000	-0.332342	-120.881787	-40.490249	-4.351019	-40.490249	-4.351019	-0.338468	-120.310391
8.950000	-0.336715	-121.466014	-40.316929	-4.792721	-40.316929	-4.792721	-0.345712	-120.913442
9.000000	-0.341164	-122.049878	-40.038919	-4.846193	-40.038919	-4.846193	-0.356544	-121.523653
9.050000	-0.345685	-122.633424	-39.511309	-4.876425	-39.511309	-4.876425	-0.375133	-122.123234
9.100000	-0.350283	-123.216669	-38.623359	-8.349770	-38.623359	-8.349770	-0.400660	-122.601223
9.150000	-0.354954	-123.799660	-38.493899	-16.148563	-38.493899	-16.148563	-0.399429	-122.993673
9.200000	-0.359696	-124.382432	-38.924919	-19.791396	-38.924919	-19.791396	-0.387303	-123.526659
9.250000	-0.364507	-124.965022	-39.162673	-21.115648	-39.162673	-21.115648	-0.382683	-124.114637
9.300000	-0.369384	-125.547466	-39.245733	-22.054636	-39.245733	-22.054636	-0.382728	-124.707137
9.350000	-0.374326	-126.129798	-39.251195	-23.013145	-39.251195	-23.013145	-0.384999	-125.295933
9.400000	-0.379326	-126.712057	-39.219732	-24.041331	-39.219732	-24.041331	-0.388329	-125.881098
9.450000	-0.384379	-127.294276	-39.167841	-25.133252	-39.167841	-25.133252	-0.392263	-126.463369
9.500000	-0.389485	-127.876488	-39.103357	-26.278110	-39.103357	-26.278110	-0.396595	-127.043303
9.550000	-0.394644	-128.458747	-39.030886	-27.466273	-39.030886	-27.466273	-0.401214	-127.621280
9.600000	-0.399845	-129.041085	-38.953679	-28.685401	-38.953679	-28.685401	-0.406033	-128.197804
9.650000	-0.405050	-129.623422	-38.877152	-29.904529	-38.877152	-29.904529	-0.410856	-128.774328
9.700000	-0.410303	-130.206029	-38.796022	-31.159473	-38.796022	-31.159473	-0.415930	-129.348997
9.750000	-0.415562	-130.788651	-38.715337	-32.416523	-38.715337	-32.416523	-0.421022	-129.923557
9.800000	-0.420824	-131.371542	-38.633793	-33.686369	-38.633793	-33.686369	-0.426234	-130.497332
9.850000	-0.426088	-131.954591	-38.552076	-34.963741	-38.552076	-34.963741	-0.431519	-131.070644
9.900000	-0.431337	-132.537806	-38.470764	-36.244509	-38.470764	-36.244509	-0.436856	-131.643700
9.950000	-0.436545	-133.121383	-38.389438	-37.532667	-38.389438	-37.532667	-0.442300	-132.216198
10.000000	-0.441757	-133.704961	-38.308867	-38.820825	-38.308867	-38.820825	-0.447748	-132.788695
