! freq	dB(S11)	phase(S11)	dB(S12)	phase(S12)	
!     	dB(S21)	phase(S21)	dB(S22)	phase(S22)	
!S-par simulation data
#  GHz  S  DB  R 50
0.000000	-0.000000	0.000000	-368.580775	0.000000	-368.580775	0.000000	-0.000000	0.000000
0.050000	-0.000498	-0.765390	-104.531253	88.931976	-104.531253	88.931976	-0.003851	-2.236263
0.100000	-0.001657	-1.526889	-98.564547	87.227966	-98.564547	87.227966	-0.006253	-4.450178
0.150000	-0.002949	-2.284249	-95.109199	85.678208	-95.109199	85.678208	-0.008641	-6.662093
0.200000	-0.004130	-3.039070	-92.699967	84.202662	-92.699967	84.202662	-0.011385	-8.869778
0.250000	-0.005169	-3.792616	-90.879452	82.787941	-90.879452	82.787941	-0.014400	-11.071765
0.300000	-0.006109	-4.545616	-89.444187	81.433758	-89.444187	81.433758	-0.017541	-13.267444
0.350000	-0.007000	-5.298396	-88.282861	80.142845	-88.282861	80.142845	-0.020693	-15.456916
0.400000	-0.007876	-6.051062	-87.331714	78.924062	-87.331714	78.924062	-0.023785	-17.640173
0.450000	-0.008758	-6.803632	-86.553698	77.793714	-86.553698	77.793714	-0.026775	-19.816975
0.500000	-0.009655	-7.556091	-85.917335	76.763498	-85.917335	76.763498	-0.029656	-21.987621
0.550000	-0.010571	-8.308403	-85.404014	75.852853	-85.404014	75.852853	-0.032432	-24.152019
0.600000	-0.011505	-9.060509	-85.004932	75.094211	-85.004932	75.094211	-0.035109	-26.309688
0.650000	-0.012453	-9.812355	-84.708013	74.515027	-84.708013	74.515027	-0.037706	-28.460624
0.700000	-0.013408	-10.563878	-84.506263	74.153148	-84.506263	74.153148	-0.040239	-30.604622
0.750000	-0.014368	-11.314992	-84.398367	74.068806	-84.398367	74.068806	-0.042722	-32.741148
0.800000	-0.015327	-12.065623	-84.381328	74.331769	-84.381328	74.331769	-0.045167	-34.869879
0.850000	-0.016282	-12.815702	-84.451736	75.028738	-84.451736	75.028738	-0.047585	-36.990563
0.900000	-0.017234	-13.565164	-84.606322	76.276466	-84.606322	76.276466	-0.049985	-39.102877
0.950000	-0.018181	-14.313950	-84.839642	78.231063	-84.839642	78.231063	-0.052373	-41.206450
1.000000	-0.019124	-15.062010	-85.139696	81.090608	-85.139696	81.090608	-0.054753	-43.300951
1.050000	-0.020065	-15.809306	-85.482578	85.095672	-85.482578	85.095672	-0.057129	-45.386058
1.100000	-0.021004	-16.555805	-85.824054	90.503939	-85.824054	90.503939	-0.059502	-47.461467
1.150000	-0.021944	-17.301486	-86.090493	97.511141	-86.090493	97.511141	-0.061872	-49.526889
1.200000	-0.022884	-18.046329	-86.177879	106.093058	-86.177879	106.093058	-0.064238	-51.582051
1.250000	-0.023826	-18.790322	-85.975099	115.815719	-85.975099	115.815719	-0.066597	-53.626699
1.300000	-0.024770	-19.533435	-85.407015	125.789134	-85.407015	125.789134	-0.068948	-55.660358
1.350000	-0.025717	-20.275678	-84.505276	134.999824	-84.505276	134.999824	-0.071286	-57.683037
1.400000	-0.026666	-21.017043	-83.365324	142.790750	-83.365324	142.790750	-0.073607	-59.694538
1.450000	-0.027618	-21.757523	-82.097431	148.962370	-82.097431	148.962370	-0.075907	-61.694676
1.500000	-0.028572	-22.497112	-80.788046	153.629447	-80.788046	153.629447	-0.078181	-63.683285
1.550000	-0.029528	-23.235804	-79.491420	157.034164	-79.491420	157.034164	-0.080423	-65.660212
1.600000	-0.030486	-23.973590	-78.236604	159.430424	-78.236604	159.430424	-0.082627	-67.625320
1.650000	-0.031445	-24.710463	-77.036739	161.037083	-77.036739	161.037083	-0.084789	-69.578484
1.700000	-0.032405	-25.446416	-75.896008	162.028220	-75.896008	162.028220	-0.086903	-71.519593
1.750000	-0.033367	-26.181441	-74.813918	162.537711	-74.813918	162.537711	-0.088964	-73.448546
1.800000	-0.034329	-26.915528	-73.787731	162.667352	-73.787731	162.667352	-0.090968	-75.365255
1.850000	-0.035292	-27.648670	-72.813775	162.494547	-72.813775	162.494547	-0.092912	-77.269641
1.900000	-0.036256	-28.380845	-71.887585	162.076367	-71.887585	162.076367	-0.094794	-79.161502
1.950000	-0.037220	-29.112044	-71.005486	161.459656	-71.005486	161.459656	-0.096613	-81.040780
2.000000	-0.038185	-29.842267	-70.164426	160.682065	-70.164426	160.682065	-0.098373	-82.907570
2.050000	-0.039150	-30.571504	-69.361069	159.771219	-69.361069	159.771219	-0.100075	-84.761847
2.100000	-0.040117	-31.299745	-68.592402	158.749127	-68.592402	158.749127	-0.101728	-86.603601
2.150000	-0.041084	-32.026977	-67.855718	157.633490	-67.855718	157.633490	-0.103337	-88.432847
2.200000	-0.042053	-32.753191	-67.148593	156.438675	-67.148593	156.438675	-0.104914	-90.249622
2.250000	-0.043023	-33.478376	-66.468854	155.176443	-66.468854	155.176443	-0.106468	-92.053988
2.300000	-0.043995	-34.202520	-65.814554	153.856498	-65.814554	153.856498	-0.108011	-93.846035
2.350000	-0.044969	-34.925611	-65.183945	152.486912	-65.183945	152.486912	-0.109556	-95.625881
2.400000	-0.045945	-35.647639	-64.575454	151.074443	-64.575454	151.074443	-0.111114	-97.393668
2.450000	-0.046923	-36.368593	-63.987660	149.624788	-63.987660	149.624788	-0.112695	-99.149567
2.500000	-0.047904	-37.088460	-63.419281	148.142780	-63.419281	148.142780	-0.114307	-100.893765
2.550000	-0.048889	-37.807206	-62.868793	146.632012	-62.868793	146.632012	-0.115958	-102.626225
2.600000	-0.049877	-38.524842	-62.335545	145.096690	-62.335545	145.096690	-0.117652	-104.347419
2.650000	-0.050869	-39.241359	-61.818567	143.539839	-61.818567	143.539839	-0.119390	-106.057573
2.700000	-0.051866	-39.956744	-61.316971	141.964083	-61.316971	141.964083	-0.121174	-107.756919
2.750000	-0.052868	-40.670924	-60.829254	140.370883	-60.829254	140.370883	-0.123004	-109.445121
2.800000	-0.053874	-41.384000	-60.355968	138.763852	-60.355968	138.763852	-0.124873	-111.123444
2.850000	-0.054886	-42.095912	-59.895835	137.143988	-59.895835	137.143988	-0.126780	-112.791650
2.900000	-0.055904	-42.806650	-59.448219	135.512842	-59.448219	135.512842	-0.128721	-114.449963
2.950000	-0.056929	-43.516203	-59.012536	133.871786	-59.012536	133.871786	-0.130690	-116.098601
3.000000	-0.057960	-44.224560	-58.588240	132.222042	-58.588240	132.222042	-0.132685	-117.737780
3.050000	-0.058998	-44.931713	-58.174829	130.564700	-58.174829	130.564700	-0.134700	-119.367712
3.100000	-0.060043	-45.637651	-57.771833	128.900737	-57.771833	128.900737	-0.136731	-120.988606
3.150000	-0.061097	-46.342365	-57.378815	127.231031	-57.378815	127.231031	-0.138776	-122.600671
3.200000	-0.062159	-47.045846	-56.995366	125.556372	-56.995366	125.556372	-0.140830	-124.204111
3.250000	-0.063229	-47.748084	-56.621104	123.877476	-56.621104	123.877476	-0.142892	-125.799132
3.300000	-0.064309	-48.449071	-56.255671	122.194989	-56.255671	122.194989	-0.144960	-127.385940
3.350000	-0.065398	-49.148799	-55.898732	120.509502	-55.898732	120.509502	-0.147031	-128.964739
3.400000	-0.066497	-49.847259	-55.549970	118.821549	-55.549970	118.821549	-0.149105	-130.535735
3.450000	-0.067606	-50.544443	-55.209087	117.131619	-55.209087	117.131619	-0.151180	-132.099133
3.500000	-0.068726	-51.240344	-54.875803	115.440161	-54.875803	115.440161	-0.153256	-133.655138
3.550000	-0.069857	-51.934953	-54.549852	113.747583	-54.549852	113.747583	-0.155334	-135.203959
3.600000	-0.070999	-52.628265	-54.230984	112.054260	-54.230984	112.054260	-0.157413	-136.745802
3.650000	-0.072153	-53.320273	-53.918961	110.360539	-53.918961	110.360539	-0.159493	-138.280876
3.700000	-0.073320	-54.010969	-53.613558	108.666734	-53.613558	108.666734	-0.161575	-139.809388
3.750000	-0.074498	-54.700348	-53.314560	106.973139	-53.314560	106.973139	-0.163660	-141.331547
3.800000	-0.075691	-55.388346	-53.021606	105.280054	-53.021606	105.280054	-0.165748	-142.847306
3.850000	-0.076896	-56.075014	-52.734678	103.587712	-52.734678	103.587712	-0.167841	-144.357149
3.900000	-0.078116	-56.760348	-52.453592	101.896340	-52.453592	101.896340	-0.169940	-145.861286
3.950000	-0.079349	-57.444343	-52.178169	100.206141	-52.178169	100.206141	-0.172045	-147.359926
4.000000	-0.080597	-58.126993	-51.908240	98.517307	-51.908240	98.517307	-0.174159	-148.853278
4.050000	-0.081859	-58.808295	-51.643645	96.830010	-51.643645	96.830010	-0.176281	-150.341550
4.100000	-0.083137	-59.488245	-51.384228	95.144410	-51.384228	95.144410	-0.178414	-151.824950
4.150000	-0.084430	-60.166838	-51.129843	93.460652	-51.129843	93.460652	-0.180558	-153.303686
4.200000	-0.085740	-60.844072	-50.880347	91.778868	-50.880347	91.778868	-0.182715	-154.777965
4.250000	-0.087065	-61.519943	-50.635607	90.099179	-50.635607	90.099179	-0.184886	-156.247992
4.300000	-0.088407	-62.194448	-50.395491	88.421694	-50.395491	88.421694	-0.187072	-157.713974
4.350000	-0.089766	-62.867586	-50.159877	86.746511	-50.159877	86.746511	-0.189274	-159.176113
4.400000	-0.091143	-63.539354	-49.928645	85.073718	-49.928645	85.073718	-0.191494	-160.634614
4.450000	-0.092537	-64.209750	-49.701682	83.403395	-49.701682	83.403395	-0.193733	-162.089678
4.500000	-0.093950	-64.878772	-49.478879	81.735611	-49.478879	81.735611	-0.195990	-163.541508
4.550000	-0.095380	-65.546420	-49.260130	80.070429	-49.260130	80.070429	-0.198269	-164.990302
4.600000	-0.096830	-66.212692	-49.045336	78.407903	-49.045336	78.407903	-0.200568	-166.436259
4.650000	-0.098299	-66.877587	-48.834401	76.748079	-48.834401	76.748079	-0.202890	-167.879577
4.700000	-0.099788	-67.541106	-48.627232	75.090999	-48.627232	75.090999	-0.205236	-169.320452
4.750000	-0.101296	-68.203249	-48.423741	73.436698	-48.423741	73.436698	-0.207605	-170.759079
4.800000	-0.102825	-68.864015	-48.223844	71.785205	-48.223844	71.785205	-0.209998	-172.195650
4.850000	-0.104374	-69.523404	-48.027459	70.136544	-48.027459	70.136544	-0.212417	-173.630358
4.900000	-0.105945	-70.181419	-47.834511	68.490736	-47.834511	68.490736	-0.214862	-175.063393
4.950000	-0.107537	-70.838060	-47.644924	66.847798	-47.644924	66.847798	-0.217333	-176.494944
5.000000	-0.109150	-71.493328	-47.458628	65.207744	-47.458628	65.207744	-0.219830	-177.925199
5.050000	-0.110787	-72.147165	-47.275528	63.570710	-47.275528	63.570710	-0.222356	-179.354302
5.100000	-0.112447	-72.799633	-47.095594	61.936580	-47.095594	61.936580	-0.224909	179.217504
5.150000	-0.114129	-73.450735	-46.918764	60.305363	-46.918764	60.305363	-0.227489	177.790038
5.200000	-0.115835	-74.100473	-46.744978	58.677065	-46.744978	58.677065	-0.230097	176.363120
5.250000	-0.117564	-74.748849	-46.574182	57.051694	-46.574182	57.051694	-0.232732	174.936570
5.300000	-0.119318	-75.395867	-46.406321	55.429257	-46.406321	55.429257	-0.235395	173.510211
5.350000	-0.121096	-76.041530	-46.241346	53.809764	-46.241346	53.809764	-0.238086	172.083867
5.400000	-0.122899	-76.685841	-46.079208	52.193225	-46.079208	52.193225	-0.240803	170.657364
5.450000	-0.124728	-77.328805	-45.919863	50.579654	-45.919863	50.579654	-0.243548	169.230531
5.500000	-0.126581	-77.970425	-45.763265	48.969066	-45.763265	48.969066	-0.246319	167.803197
5.550000	-0.128461	-78.610706	-45.609376	47.361483	-45.609376	47.361483	-0.249117	166.375194
5.600000	-0.130368	-79.249653	-45.458155	45.756926	-45.458155	45.756926	-0.251940	164.946356
5.650000	-0.132301	-79.887270	-45.309566	44.155426	-45.309566	44.155426	-0.254789	163.516517
5.700000	-0.134261	-80.523561	-45.163574	42.557016	-45.163574	42.557016	-0.257662	162.085515
5.750000	-0.136249	-81.158534	-45.020146	40.961736	-45.020146	40.961736	-0.260559	160.653190
5.800000	-0.138265	-81.792192	-44.879250	39.369631	-44.879250	39.369631	-0.263479	159.219383
5.850000	-0.140310	-82.424543	-44.740857	37.780755	-44.740857	37.780755	-0.266422	157.783937
5.900000	-0.142383	-83.055591	-44.604937	36.195167	-44.604937	36.195167	-0.269387	156.346699
5.950000	-0.144485	-83.685343	-44.471465	34.612934	-44.471465	34.612934	-0.272372	154.907515
6.000000	-0.146617	-84.313805	-44.340414	33.034133	-44.340414	33.034133	-0.275377	153.466237
6.050000	-0.148779	-84.940985	-44.211759	31.458847	-44.211759	31.458847	-0.278401	152.022717
6.100000	-0.150971	-85.566889	-44.085476	29.887168	-44.085476	29.887168	-0.281442	150.576810
6.150000	-0.153194	-86.191523	-43.961543	28.319199	-43.961543	28.319199	-0.284500	149.128372
6.200000	-0.155448	-86.814896	-43.839936	26.755049	-43.839936	26.755049	-0.287574	147.677264
6.250000	-0.157733	-87.437015	-43.720634	25.194840	-43.720634	25.194840	-0.290661	146.223349
6.300000	-0.160052	-88.057834	-43.603646	23.638883	-43.603646	23.638883	-0.293763	144.766356
6.350000	-0.162404	-88.677414	-43.488924	22.087149	-43.488924	22.087149	-0.296876	143.306277
6.400000	-0.164788	-89.295765	-43.376446	20.539787	-43.376446	20.539787	-0.299999	141.842983
6.450000	-0.167206	-89.912894	-43.266189	18.996958	-43.266189	18.996958	-0.303132	140.376348
6.500000	-0.169657	-90.528811	-43.158134	17.458830	-43.158134	17.458830	-0.306272	138.906250
6.550000	-0.172142	-91.143523	-43.052256	15.925583	-43.052256	15.925583	-0.309420	137.432568
6.600000	-0.174661	-91.757040	-42.948535	14.397404	-42.948535	14.397404	-0.312572	135.955186
6.650000	-0.177216	-92.369371	-42.846945	12.874491	-42.846945	12.874491	-0.315729	134.473992
6.700000	-0.179805	-92.980525	-42.747464	11.357048	-42.747464	11.357048	-0.318888	132.988877
6.750000	-0.182430	-93.590511	-42.650066	9.845290	-42.650066	9.845290	-0.322049	131.499734
6.800000	-0.185092	-94.199339	-42.554725	8.339438	-42.554725	8.339438	-0.325210	130.006461
6.850000	-0.187790	-94.807019	-42.461414	6.839721	-42.461414	6.839721	-0.328370	128.508962
6.900000	-0.190524	-95.413560	-42.370104	5.346376	-42.370104	5.346376	-0.331528	127.007141
6.950000	-0.193296	-96.018974	-42.280766	3.859644	-42.280766	3.859644	-0.334683	125.500909
7.000000	-0.196106	-96.623269	-42.193367	2.379774	-42.193367	2.379774	-0.337834	123.990181
7.050000	-0.198953	-97.226457	-42.107876	0.907020	-42.107876	0.907020	-0.340979	122.474875
7.100000	-0.201839	-97.828548	-42.024257	-0.558361	-42.024257	-0.558361	-0.344118	120.954916
7.150000	-0.204765	-98.429553	-41.942474	-2.016107	-41.942474	-2.016107	-0.347249	119.430231
7.200000	-0.207729	-99.029482	-41.862488	-3.465953	-41.862488	-3.465953	-0.350373	117.900754
7.250000	-0.210733	-99.628347	-41.784260	-4.907633	-41.784260	-4.907633	-0.353488	116.366423
7.300000	-0.213777	-100.226160	-41.707746	-6.340876	-41.707746	-6.340876	-0.356593	114.827181
7.350000	-0.216862	-100.822931	-41.632903	-7.765414	-41.632903	-7.765414	-0.359688	113.282979
7.400000	-0.219987	-101.418671	-41.559685	-9.180977	-41.559685	-9.180977	-0.362774	111.733771
7.450000	-0.223154	-102.013393	-41.488042	-10.587295	-41.488042	-10.587295	-0.365848	110.179516
7.500000	-0.226362	-102.607109	-41.417924	-11.984100	-41.417924	-11.984100	-0.368912	108.620181
7.550000	-0.229614	-103.199787	-41.349316	-13.370689	-41.349316	-13.370689	-0.371965	107.055515
7.600000	-0.232909	-103.791484	-41.282123	-14.747214	-41.282123	-14.747214	-0.375007	105.485719
7.650000	-0.236247	-104.382212	-41.216285	-16.113415	-41.216285	-16.113415	-0.378039	103.910778
7.700000	-0.239628	-104.971982	-41.151744	-17.469038	-41.151744	-17.469038	-0.381061	102.330685
7.750000	-0.243052	-105.560809	-41.088437	-18.813833	-41.088437	-18.813833	-0.384073	100.745439
7.800000	-0.246521	-106.148703	-41.026300	-20.147557	-41.026300	-20.147557	-0.387077	99.155045
7.850000	-0.250034	-106.735679	-40.965266	-21.469973	-40.965266	-21.469973	-0.390074	97.559518
7.900000	-0.253592	-107.321749	-40.905266	-22.780848	-40.905266	-22.780848	-0.393065	95.958876
7.950000	-0.257194	-107.906926	-40.846231	-24.079959	-40.846231	-24.079959	-0.396050	94.353149
8.000000	-0.260843	-108.491224	-40.788087	-25.367090	-40.788087	-25.367090	-0.399033	92.742370
8.050000	-0.264537	-109.074655	-40.730760	-26.642032	-40.730760	-26.642032	-0.402013	91.126582
8.100000	-0.268278	-109.657233	-40.674171	-27.904586	-40.674171	-27.904586	-0.404995	89.505836
8.150000	-0.272065	-110.238971	-40.618243	-29.154560	-40.618243	-29.154560	-0.407979	87.880189
8.200000	-0.275899	-110.819885	-40.562895	-30.391770	-40.562895	-30.391770	-0.410968	86.249708
8.250000	-0.279781	-111.399986	-40.508043	-31.616044	-40.508043	-31.616044	-0.413965	84.614467
8.300000	-0.283710	-111.979289	-40.453603	-32.827218	-40.453603	-32.827218	-0.416973	82.974548
8.350000	-0.287687	-112.557809	-40.399488	-34.025135	-40.399488	-34.025135	-0.419994	81.330041
8.400000	-0.291713	-113.135559	-40.345608	-35.209650	-40.345608	-35.209650	-0.423033	79.681045
8.450000	-0.295787	-113.712553	-40.291874	-36.380625	-40.291874	-36.380625	-0.426093	78.027667
8.500000	-0.299911	-114.288807	-40.238192	-37.537935	-40.238192	-37.537935	-0.429177	76.370021
8.550000	-0.304083	-114.864335	-40.184469	-38.681459	-40.184469	-38.681459	-0.432290	74.708230
8.600000	-0.308306	-115.439151	-40.130606	-39.811088	-40.130606	-39.811088	-0.435436	73.042428
8.650000	-0.312578	-116.013270	-40.076506	-40.926721	-40.076506	-40.926721	-0.438620	71.372753
8.700000	-0.316901	-116.586708	-40.022067	-42.028266	-40.022067	-42.028266	-0.441845	69.699353
8.750000	-0.321274	-117.159479	-39.967188	-43.115639	-39.967188	-43.115639	-0.445118	68.022386
8.800000	-0.325701	-117.731571	-39.911717	-44.188141	-39.911717	-44.188141	-0.448446	66.341875
8.850000	-0.330178	-118.303027	-39.855583	-45.246319	-39.855583	-45.246319	-0.451832	64.658150
8.900000	-0.334708	-118.873865	-39.798673	-46.290114	-39.798673	-46.290114	-0.455282	62.971392
8.950000	-0.339289	-119.444099	-39.740876	-47.319472	-39.740876	-47.319472	-0.458801	61.281791
9.000000	-0.343922	-120.013744	-39.682075	-48.334343	-39.682075	-48.334343	-0.462396	59.589543
9.050000	-0.348607	-120.582817	-39.622153	-49.334688	-39.622153	-49.334688	-0.466072	57.894853
9.100000	-0.353345	-121.151334	-39.560987	-50.320467	-39.560987	-50.320467	-0.469836	56.197933
9.150000	-0.358136	-121.719311	-39.498454	-51.291650	-39.498454	-51.291650	-0.473695	54.499001
9.200000	-0.362980	-122.286763	-39.434425	-52.248208	-39.434425	-52.248208	-0.477654	52.798282
9.250000	-0.367878	-122.853708	-39.368768	-53.190115	-39.368768	-53.190115	-0.481721	51.096010
9.300000	-0.372829	-123.420161	-39.301349	-54.117350	-39.301349	-54.117350	-0.485901	49.392421
9.350000	-0.377834	-123.986140	-39.232025	-55.029893	-39.232025	-55.029893	-0.490203	47.687761
9.400000	-0.382892	-124.551661	-39.160653	-55.927725	-39.160653	-55.927725	-0.494633	45.982280
9.450000	-0.388006	-125.116740	-39.087083	-56.810828	-39.087083	-56.810828	-0.499197	44.276233
9.500000	-0.393173	-125.681395	-39.011160	-57.679184	-39.011160	-57.679184	-0.503902	42.569881
9.550000	-0.398395	-126.245643	-38.932722	-58.532773	-38.932722	-58.532773	-0.508757	40.863488
9.600000	-0.403672	-126.809501	-38.851602	-59.371573	-38.851602	-59.371573	-0.513766	39.157325
9.650000	-0.409004	-127.372987	-38.767624	-60.195561	-38.767624	-60.195561	-0.518938	37.451664
9.700000	-0.414391	-127.936117	-38.680607	-61.004707	-38.680607	-61.004707	-0.524279	35.746783
9.750000	-0.419833	-128.498911	-38.590358	-61.798979	-38.590358	-61.798979	-0.529796	34.042962
9.800000	-0.425331	-129.061384	-38.496679	-62.578335	-38.496679	-62.578335	-0.535496	32.340483
9.850000	-0.430884	-129.623556	-38.399359	-63.342727	-38.399359	-63.342727	-0.541385	30.639632
9.900000	-0.436493	-130.185444	-38.298176	-64.092098	-38.298176	-64.092098	-0.547469	28.940695
9.950000	-0.442157	-130.747066	-38.192897	-64.826380	-38.192897	-64.826380	-0.553755	27.243961
10.000000	-0.447878	-131.308442	-38.083275	-65.545489	-38.083275	-65.545489	-0.560249	25.549719
