! freq	dB(S11)	phase(S11)	dB(S12)	phase(S12)	
!     	dB(S21)	phase(S21)	dB(S22)	phase(S22)	
!S-par simulation data
#  GHz  S  DB  R 50
0.000000	-82.262535	0.000000	-0.000669	0.000000	-0.000669	0.000000	-82.262535	0.000000
0.050000	-39.991080	-92.324017	-0.005251	-3.083377	-0.005251	-3.083377	-39.987386	-92.202615
0.100000	-34.042453	-95.551959	-0.013153	-6.128161	-0.013153	-6.128161	-34.041625	-95.340111
0.150000	-30.599697	-98.803745	-0.020426	-9.154078	-0.020426	-9.154078	-30.599027	-98.502106
0.200000	-28.178856	-102.069469	-0.027416	-12.174664	-0.027416	-12.174664	-28.177812	-101.669516
0.250000	-26.325998	-105.312926	-0.034683	-15.192528	-0.034683	-15.192528	-26.324919	-104.809322
0.300000	-24.838839	-108.522155	-0.042471	-18.207676	-0.042471	-18.207676	-24.838069	-107.913166
0.350000	-23.608652	-111.699133	-0.050770	-21.219688	-0.050770	-21.219688	-23.608326	-110.984107
0.400000	-22.571559	-114.847693	-0.059504	-24.228164	-0.059504	-24.228164	-22.571683	-114.026023
0.450000	-21.690399	-117.970695	-0.068568	-27.232575	-0.068568	-27.232575	-21.690907	-117.041372
0.500000	-20.931680	-121.075118	-0.077787	-30.233390	-0.077787	-30.233390	-20.932484	-120.036873
0.550000	-20.280032	-124.162905	-0.087025	-33.230488	-0.087025	-33.230488	-20.281048	-123.013956
0.600000	-19.718482	-127.238156	-0.096134	-36.224478	-0.096134	-36.224478	-19.719643	-125.976436
0.650000	-19.237480	-130.303351	-0.104973	-39.215870	-0.104973	-39.215870	-19.238738	-128.926345
0.700000	-18.828186	-133.361074	-0.113418	-42.205428	-0.113418	-42.205428	-18.829514	-131.865878
0.750000	-18.485612	-136.413426	-0.121339	-45.193989	-0.121339	-45.193989	-18.487000	-134.796568
0.800000	-18.204397	-139.462529	-0.128643	-48.182533	-0.128643	-48.182533	-18.205849	-137.720017
0.850000	-17.982165	-142.510330	-0.135224	-51.172168	-0.135224	-51.172168	-17.983695	-140.637409
0.900000	-17.816284	-145.558722	-0.141013	-54.164051	-0.141013	-54.164051	-17.817915	-143.549866
0.950000	-17.706141	-148.609591	-0.145938	-57.159472	-0.145938	-57.159472	-17.707899	-146.458227
1.000000	-17.651796	-151.664854	-0.149949	-60.159812	-0.149949	-60.159812	-17.653715	-149.363153
1.050000	-17.654299	-154.726477	-0.153012	-63.166540	-0.153012	-63.166540	-17.656413	-152.265050
1.100000	-17.715762	-157.796498	-0.155115	-66.181210	-0.155115	-66.181210	-17.718105	-155.163980
1.150000	-17.839498	-160.877048	-0.156264	-69.205454	-0.156264	-69.205454	-17.842105	-158.059531
1.200000	-18.030262	-163.970377	-0.156490	-72.240971	-0.156490	-72.240971	-18.033164	-160.950624
1.250000	-18.294607	-167.078887	-0.155849	-75.289518	-0.155849	-75.289518	-18.297829	-163.835201
1.300000	-18.643098	-170.205640	-0.154409	-78.353263	-0.154409	-78.353263	-18.646651	-166.709403
1.350000	-19.086411	-173.353227	-0.152306	-81.433759	-0.152306	-81.433759	-19.090287	-169.567417
1.400000	-19.641224	-176.525029	-0.149687	-84.532850	-0.149687	-84.532850	-19.645370	-172.399582
1.450000	-20.330926	-179.725173	-0.146733	-87.652372	-0.146733	-87.652372	-20.335205	-175.190044
1.500000	-21.189374	177.040885	-0.143661	-90.794129	-0.143661	-90.794129	-21.193474	-177.911989
1.550000	-22.267813	173.765129	-0.140725	-93.959861	-0.140725	-93.959861	-22.271029	179.482308
1.600000	-23.644231	170.436457	-0.138194	-97.150410	-0.138194	-97.150410	-23.644957	177.073072
1.650000	-25.473070	167.024283	-0.136441	-100.369045	-0.136441	-100.369045	-25.466815	175.072158
1.700000	-28.043478	163.464171	-0.135822	-103.616231	-0.135822	-103.616231	-28.015579	173.978930
1.750000	-32.108127	159.516572	-0.136746	-106.893139	-0.136746	-106.893139	-31.986106	175.610055
1.800000	-41.052211	152.921672	-0.139661	-110.200699	-0.139661	-110.200699	-39.755108	-166.226904
1.850000	-41.594861	-20.580773	-0.145049	-113.539555	-0.145049	-113.539555	-39.750513	-57.420230
1.900000	-31.515535	-27.443361	-0.153440	-116.910199	-0.153440	-116.910199	-31.228189	-39.081209
1.950000	-26.759160	-31.541689	-0.165384	-120.312568	-0.165384	-120.312568	-26.633651	-37.519368
2.000000	-23.562283	-35.294907	-0.181425	-123.746009	-0.181425	-123.746009	-23.486783	-38.771051
2.050000	-21.129396	-38.953432	-0.202133	-127.209588	-0.202133	-127.209588	-21.076506	-41.000906
2.100000	-19.155201	-42.583741	-0.228084	-130.701889	-0.228084	-130.701889	-19.114755	-43.692316
2.150000	-17.489860	-46.209788	-0.259845	-134.220990	-0.259845	-134.220990	-17.457137	-46.643441
2.200000	-16.048583	-49.841117	-0.297987	-137.764508	-0.297987	-137.764508	-16.021056	-49.758476
2.250000	-14.778782	-53.481083	-0.343069	-141.329555	-0.343069	-141.329555	-14.754958	-52.984915
2.300000	-13.646003	-57.129695	-0.395516	-144.912453	-0.395516	-144.912453	-13.624934	-56.289588
2.350000	-12.625937	-60.785185	-0.455746	-148.509256	-0.455746	-148.509256	-12.606988	-59.650879
2.400000	-11.700952	-64.444600	-0.524111	-152.115591	-0.524111	-152.115591	-11.683678	-63.052853
2.450000	-10.857819	-68.104182	-0.600883	-155.726723	-0.600883	-155.726723	-10.841899	-66.482903
2.500000	-10.086330	-71.759614	-0.686246	-159.337634	-0.686246	-159.337634	-10.071523	-69.930481
2.550000	-9.378438	-75.406054	-0.780373	-162.942981	-0.780373	-162.942981	-9.364564	-73.386376
2.600000	-8.727600	-79.038637	-0.883165	-166.537440	-0.883165	-166.537440	-8.714518	-76.842168
2.650000	-8.128359	-82.652379	-0.994506	-170.115686	-0.994506	-170.115686	-8.115958	-80.290354
2.700000	-7.576098	-86.242345	-1.114182	-173.672496	-1.114182	-173.672496	-7.564291	-83.724054
2.750000	-7.066838	-89.803754	-1.241882	-177.202842	-1.241882	-177.202842	-7.055554	-87.136961
2.800000	-6.597093	-93.332072	-1.377206	179.298017	-1.377206	179.298017	-6.586275	-90.523335
2.850000	-6.163873	-96.822762	-1.519705	175.834785	-1.519705	175.834785	-6.153475	-93.877705
2.900000	-5.764320	-100.272174	-1.668786	172.411268	-1.668786	172.411268	-5.754304	-97.195596
2.950000	-5.396128	-103.676153	-1.823867	169.031716	-1.823867	169.031716	-5.386462	-100.472270
3.000000	-5.056335	-107.033875	-1.984171	165.697100	-1.984171	165.697100	-5.046994	-103.706217
3.050000	-4.743143	-110.341861	-2.149083	162.410922	-2.149083	162.410922	-4.734104	-106.893625
3.100000	-4.454566	-113.598229	-2.317880	159.175097	-2.317880	159.175097	-4.445812	-110.032255
3.150000	-4.188909	-116.801002	-2.489818	155.991596	-2.489818	155.991596	-4.180424	-113.119856
3.200000	-3.944445	-119.949246	-2.664129	152.861337	-2.664129	152.861337	-3.936217	-116.155248
3.250000	-3.719430	-123.043099	-2.840086	149.784161	-2.840086	149.784161	-3.711448	-119.138343
3.300000	-3.512385	-126.082533	-3.016969	146.760044	-3.016969	146.760044	-3.504641	-122.068956
3.350000	-3.322051	-129.067384	-3.194037	143.789070	-3.194037	143.789070	-3.314538	-124.946814
3.400000	-3.146849	-131.999787	-3.370716	140.869066	-3.370716	140.869066	-3.139562	-127.773912
3.450000	-2.985582	-134.880963	-3.546415	137.998742	-3.546415	137.998742	-2.978517	-130.551395
3.500000	-2.837996	-137.708065	-3.720067	135.180715	-3.720067	135.180715	-2.831152	-133.276504
3.550000	-2.702358	-140.486222	-3.891414	132.409870	-3.891414	132.409870	-2.695733	-135.954232
3.600000	-2.577687	-143.217552	-4.059967	129.684010	-4.059967	129.684010	-2.571285	-138.586687
3.650000	-2.463347	-145.902940	-4.225064	127.002108	-4.225064	127.002108	-2.457169	-141.174808
3.700000	-2.358996	-148.542134	-4.385767	124.364182	-4.385767	124.364182	-2.353047	-143.718483
3.750000	-2.263350	-151.140473	-4.542070	121.764920	-4.542070	121.764920	-2.257638	-146.223005
3.800000	-2.175966	-153.699252	-4.693319	119.202848	-4.693319	119.202848	-2.170500	-148.689801
3.850000	-2.096355	-156.220394	-4.838962	116.675882	-4.838962	116.675882	-2.091148	-151.120929
3.900000	-2.024342	-158.704682	-4.978009	114.182904	-4.978009	114.182904	-2.019410	-153.517462
3.950000	-1.958924	-161.157660	-5.110696	111.718409	-5.110696	111.718409	-1.954285	-155.884956
4.000000	-1.899740	-163.581714	-5.236558	109.279808	-5.236558	109.279808	-1.895417	-158.226009
4.050000	-1.846477	-165.979301	-5.355123	106.864418	-5.355123	106.864418	-1.842495	-160.543319
4.100000	-1.798865	-168.352947	-5.465907	104.469447	-5.465907	104.469447	-1.795256	-162.839694
4.150000	-1.756682	-170.705258	-5.568414	102.091983	-5.568414	102.091983	-1.753482	-165.118067
4.200000	-1.719912	-173.038432	-5.661792	99.729317	-5.661792	99.729317	-1.717165	-167.381149
4.250000	-1.689014	-175.354262	-5.744155	97.378526	-5.744155	97.378526	-1.686782	-169.631826
4.300000	-1.663160	-177.658645	-5.816426	95.033794	-5.816426	95.033794	-1.661505	-171.875990
4.350000	-1.642351	-179.954808	-5.877962	92.691223	-5.877962	92.691223	-1.641350	-174.117524
4.400000	-1.626653	177.753814	-5.928072	90.346579	-5.928072	90.346579	-1.626394	-176.360633
4.450000	-1.616194	175.463538	-5.966013	87.995223	-5.966013	87.995223	-1.616785	-178.609897
4.500000	-1.611179	173.170387	-5.990978	85.632037	-5.990978	85.632037	-1.612747	179.129653
4.550000	-1.611901	170.870044	-6.002100	83.251338	-6.002100	83.251338	-1.614598	176.852464
4.600000	-1.619818	168.554743	-5.995913	80.841410	-5.995913	80.841410	-1.623865	174.547208
4.650000	-1.634931	166.218995	-5.972807	78.395435	-5.972807	78.395435	-1.640577	172.207323
4.700000	-1.657864	163.856741	-5.931980	75.904840	-5.931980	75.904840	-1.665415	169.824643
4.750000	-1.688035	161.467571	-5.875510	73.369882	-5.875510	73.369882	-1.697796	167.399498
4.800000	-1.730374	159.028603	-5.794139	70.754119	-5.794139	70.754119	-1.742905	164.897281
4.850000	-1.784932	156.536727	-5.690109	68.052857	-5.690109	68.052857	-1.800858	162.313933
4.900000	-1.854127	153.980504	-5.561470	65.246996	-5.561470	65.246996	-1.874264	159.631847
4.950000	-1.942092	151.342462	-5.404655	62.306238	-5.404655	62.306238	-1.967572	156.823233
5.000000	-2.054073	148.603644	-5.216549	59.195038	-5.216549	59.195038	-2.086489	153.856048
5.050000	-2.195586	145.749304	-4.996042	55.881208	-4.996042	55.881208	-2.237088	150.702104
5.100000	-2.375407	142.758755	-4.740615	52.316534	-4.740615	52.316534	-2.429068	147.319424
5.150000	-2.610667	139.596270	-4.444106	48.409498	-4.444106	48.409498	-2.681463	143.629163
5.200000	-2.916875	136.255998	-4.108888	44.102875	-4.108888	44.102875	-3.012122	139.586965
5.250000	-3.329346	132.718267	-3.731232	39.252452	-3.731232	39.252452	-3.461852	135.078961
5.300000	-3.894445	129.022842	-3.315979	33.719489	-3.315979	33.719489	-4.086868	130.012538
5.350000	-4.692666	125.321052	-2.872744	27.298181	-2.872744	27.298181	-4.990446	124.278064
5.400000	-5.850395	122.090011	-2.424908	19.759784	-2.424908	19.759784	-6.356371	117.853661
5.450000	-7.563440	120.703710	-2.015578	10.866178	-2.015578	10.866178	-8.559361	111.053096
5.500000	-10.026456	125.371700	-1.718031	0.419519	-1.718031	0.419519	-12.563452	105.914661
5.550000	-12.398949	145.845773	-1.633463	-11.520784	-1.633463	-11.520784	-21.934724	124.725231
5.600000	-11.169575	175.351236	-1.869301	-24.502587	-1.869301	-24.502587	-16.773066	-135.016734
5.650000	-7.897676	-173.736861	-2.483710	-37.656733	-2.483710	-37.656733	-9.688224	-135.059022
5.700000	-5.353265	-175.048968	-3.453648	-50.022972	-3.453648	-50.022972	-6.172530	-143.997923
5.750000	-3.681450	179.753042	-4.686242	-60.963245	-4.686242	-60.963245	-4.142282	-153.483858
5.800000	-2.608797	173.746707	-6.076697	-70.275262	-6.076697	-70.275262	-2.902230	-162.092731
5.850000	-1.916298	167.975216	-7.541416	-78.058906	-7.541416	-78.058906	-2.118809	-169.555782
5.900000	-1.461258	162.730625	-9.027243	-84.541140	-9.027243	-84.541140	-1.609011	-175.954511
5.950000	-1.155676	158.035070	-10.505550	-89.960726	-10.505550	-89.960726	-1.267905	178.537298
6.000000	-0.944700	153.817858	-11.968416	-94.534593	-11.968416	-94.534593	-1.032442	173.734479
6.050000	-0.796240	150.002134	-13.412076	-98.415559	-13.412076	-98.415559	-0.866386	169.494799
6.100000	-0.689754	146.514193	-14.839040	-101.720447	-14.839040	-101.720447	-0.746799	165.701553
6.150000	-0.612083	143.292024	-16.254520	-104.531674	-16.254520	-104.531674	-0.659081	162.263985
6.200000	-0.554612	140.285375	-17.665193	-106.903434	-17.665193	-106.903434	-0.593708	159.111958
6.250000	-0.511583	137.454067	-19.078541	-108.866114	-19.078541	-108.866114	-0.544322	156.191141
6.300000	-0.479573	134.773882	-20.487968	-110.400906	-20.487968	-110.400906	-0.507150	153.469538
6.350000	-0.454581	132.199830	-21.935849	-111.560286	-21.935849	-111.560286	-0.477767	150.888315
6.400000	-0.435794	129.728428	-23.397511	-112.242265	-23.397511	-112.242265	-0.455272	148.443847
6.450000	-0.421320	127.334115	-24.900411	-112.431497	-24.900411	-112.431497	-0.437567	146.103261
6.500000	-0.410316	125.005921	-26.443884	-112.012910	-26.443884	-112.012910	-0.423710	143.853269
6.550000	-0.402102	122.733387	-28.025300	-110.839335	-28.025300	-110.839335	-0.412935	141.681293
6.600000	-0.395944	120.502938	-29.663112	-108.795757	-29.663112	-108.795757	-0.404416	139.570210
6.650000	-0.391698	118.311461	-31.304906	-105.506948	-31.304906	-105.506948	-0.397971	137.518034
6.700000	-0.389061	116.150984	-32.884003	-100.558687	-32.884003	-100.558687	-0.393233	135.516512
6.750000	-0.387316	114.005900	-34.484694	-94.447967	-34.484694	-94.447967	-0.389416	133.542642
6.800000	-0.386692	111.878477	-35.919577	-86.710959	-35.919577	-86.710959	-0.386735	131.602974
6.850000	-0.387252	109.763054	-36.970501	-77.718889	-36.970501	-77.718889	-0.385174	129.695585
6.900000	-0.388572	107.650674	-37.773671	-68.862857	-37.773671	-68.862857	-0.384283	127.805564
6.950000	-0.390640	105.539015	-38.303220	-60.568430	-38.303220	-60.568430	-0.384026	125.930860
7.000000	-0.393797	103.420777	-38.580606	-54.423484	-38.580606	-54.423484	-0.384609	124.072040
7.050000	-0.397916	101.289080	-38.864825	-50.570257	-38.864825	-50.570257	-0.385850	122.220034
7.100000	-0.402931	99.141728	-39.234796	-48.779387	-39.234796	-48.779387	-0.387664	120.370934
7.150000	-0.408999	96.973421	-39.784606	-49.350370	-39.784606	-49.350370	-0.390121	118.522405
7.200000	-0.416962	94.760825	-40.745631	-54.570355	-40.745631	-54.570355	-0.393639	116.665894
7.250000	-0.426252	92.515994	-41.998783	-64.174416	-41.998783	-64.174416	-0.397862	114.800630
7.300000	-0.437947	90.212652	-43.349138	-83.902198	-43.349138	-83.902198	-0.403342	112.917121
7.350000	-0.452568	87.840256	-43.337093	-115.042413	-43.337093	-115.042413	-0.410318	111.009042
7.400000	-0.471113	85.380137	-40.748359	-145.776145	-40.748359	-145.776145	-0.419288	109.067473
7.450000	-0.494952	82.810104	-37.055639	-166.093316	-37.055639	-166.093316	-0.430946	107.082077
7.500000	-0.526687	80.090529	-33.431544	-177.941826	-33.431544	-177.941826	-0.446628	105.035486
7.550000	-0.570326	77.170552	-30.121862	174.057124	-30.121862	174.057124	-0.468421	102.905845
7.600000	-0.631797	73.988203	-27.083896	167.664936	-27.083896	167.664936	-0.499423	100.667610
7.650000	-0.721826	70.445174	-24.216047	161.857073	-24.216047	161.857073	-0.545236	98.282304
7.700000	-0.858548	66.407308	-21.449749	155.986070	-21.449749	155.986070	-0.615233	95.701605
7.750000	-1.083347	61.617868	-18.675246	149.444100	-18.675246	149.444100	-0.730429	92.842905
7.800000	-1.477049	55.746245	-15.860360	141.517631	-15.860360	141.517631	-0.929783	89.636862
7.850000	-2.239636	48.320184	-12.971137	131.088303	-12.971137	131.088303	-1.300281	86.104103
7.900000	-3.870740	39.355786	-10.110439	116.546681	-10.110439	116.546681	-2.005307	82.877103
7.950000	-7.721142	34.127135	-7.651511	96.117220	-7.651511	96.117220	-3.185895	82.936836
8.000000	-12.841386	74.364837	-6.332288	71.077211	-6.332288	71.077211	-4.037134	90.848551
8.050000	-7.379700	105.635805	-6.433097	47.653255	-6.433097	47.653255	-3.388622	98.749821
8.100000	-4.125161	100.745675	-7.304192	30.173048	-7.304192	30.173048	-2.410920	99.746412
8.150000	-2.668154	93.344784	-8.315253	17.989140	-8.315253	17.989140	-1.771201	97.715894
8.200000	-1.936243	87.048312	-9.224030	9.273099	-9.224030	9.273099	-1.395757	95.049207
8.250000	-1.528196	81.890285	-9.980148	2.704728	-9.980148	2.704728	-1.169651	92.400630
8.300000	-1.278424	77.544806	-10.598671	-2.540438	-10.598671	-2.540438	-1.025133	89.893786
8.350000	-1.118438	73.790653	-11.095317	-6.885006	-11.095317	-6.885006	-0.930075	87.534132
8.400000	-1.008627	70.431242	-11.499241	-10.650306	-11.499241	-10.650306	-0.863864	85.288937
8.450000	-0.931426	67.365389	-11.825004	-13.994314	-11.825004	-13.994314	-0.817003	83.135462
8.500000	-0.875767	64.515883	-12.086810	-17.032831	-12.086810	-17.032831	-0.783254	81.052357
8.550000	-0.835363	61.833938	-12.293894	-19.837744	-12.293894	-19.837744	-0.759007	79.024576
8.600000	-0.804999	59.269498	-12.459603	-22.480444	-12.459603	-22.480444	-0.741131	77.035413
8.650000	-0.782553	56.802389	-12.587995	-24.989984	-12.587995	-24.989984	-0.728375	75.077546
8.700000	-0.766119	54.411675	-12.684653	-27.395968	-12.684653	-27.395968	-0.719580	73.143208
8.750000	-0.754376	52.081498	-12.754052	-29.720671	-12.754052	-29.720671	-0.713935	71.226280
8.800000	-0.746520	49.801280	-12.798913	-31.979030	-12.798913	-31.979030	-0.710953	69.322225
8.850000	-0.741699	47.559095	-12.823308	-34.187524	-12.823308	-34.187524	-0.710097	67.426415
8.900000	-0.739435	45.347493	-12.829590	-36.356499	-12.829590	-36.356499	-0.711071	65.535642
8.950000	-0.739374	43.160422	-12.819715	-38.494342	-12.819715	-38.494342	-0.713655	63.647208
9.000000	-0.741249	40.992897	-12.795317	-40.607947	-12.795317	-40.607947	-0.717690	61.758805
9.050000	-0.744865	38.840761	-12.757769	-42.703053	-12.757769	-42.703053	-0.723057	59.868434
9.100000	-0.750073	36.700499	-12.708225	-44.784501	-12.708225	-44.784501	-0.729672	57.974333
9.150000	-0.756768	34.569105	-12.647666	-46.856422	-12.647666	-46.856422	-0.737481	56.074929
9.200000	-0.764877	32.443975	-12.576920	-48.922388	-12.576920	-48.922388	-0.746448	54.168795
9.250000	-0.774351	30.322821	-12.496695	-50.985526	-12.496695	-50.985526	-0.756557	52.254616
9.300000	-0.785164	28.203610	-12.407591	-53.048604	-12.407591	-53.048604	-0.767809	50.331167
9.350000	-0.797308	26.084512	-12.310119	-55.114107	-12.310119	-55.114107	-0.780216	48.397289
9.400000	-0.810792	23.963854	-12.204716	-57.184291	-12.204716	-57.184291	-0.793805	46.451870
9.450000	-0.825638	21.840092	-12.091749	-59.261233	-12.091749	-59.261233	-0.808615	44.493834
9.500000	-0.841885	19.711779	-11.971530	-61.346867	-11.971530	-61.346867	-0.824694	42.522125
9.550000	-0.859581	17.577542	-11.844321	-63.443019	-11.844321	-63.443019	-0.842103	40.535697
9.600000	-0.878790	15.436062	-11.710338	-65.551437	-11.710338	-65.551437	-0.860913	38.533508
9.650000	-0.899584	13.286060	-11.569756	-67.673811	-11.569756	-67.673811	-0.881207	36.514503
9.700000	-0.922053	11.126278	-11.422717	-69.811801	-11.422717	-69.811801	-0.903079	34.477616
9.750000	-0.946296	8.955469	-11.269328	-71.967054	-11.269328	-71.967054	-0.926637	32.421757
9.800000	-0.972429	6.772385	-11.109668	-74.141223	-11.109668	-74.141223	-0.951999	30.345805
9.850000	-1.000581	4.575765	-10.943787	-76.335990	-10.943787	-76.335990	-0.979301	28.248605
9.900000	-1.030897	2.364331	-10.771708	-78.553083	-10.771708	-78.553083	-1.008691	26.128961
9.950000	-1.063539	0.136771	-10.593433	-80.794293	-10.593433	-80.794293	-1.040336	23.985630
10.000000	-1.098688	-2.108259	-10.408938	-83.061498	-10.408938	-83.061498	-1.074421	21.817315
