! freq	dB(S11)	phase(S11)	dB(S12)	phase(S12)	
!     	dB(S21)	phase(S21)	dB(S22)	phase(S22)	
!S-par simulation data
#  GHz  S  DB  R 50
0.000000	-0.000000	0.000000	-342.351437	0.000000	-342.351437	0.000000	-0.000000	0.000000
0.050000	-0.003191	-1.019196	-103.718543	84.340461	-103.718543	84.340461	-0.004608	-1.112491
0.100000	-0.006959	-2.068508	-97.474677	85.173518	-97.474677	85.173518	-0.008853	-2.266088
0.150000	-0.009036	-3.125566	-93.937368	84.971630	-93.937368	84.971630	-0.010832	-3.424967
0.200000	-0.010282	-4.182159	-91.473947	84.398946	-91.473947	84.398946	-0.011974	-4.581880
0.250000	-0.011182	-5.237170	-89.600778	83.665124	-89.600778	83.665124	-0.012819	-5.736589
0.300000	-0.011976	-6.290855	-88.101034	82.871307	-88.101034	82.871307	-0.013591	-6.889698
0.350000	-0.012742	-7.343320	-86.864903	82.053607	-86.864903	82.053607	-0.014361	-8.041374
0.400000	-0.013524	-8.394685	-85.826203	81.238209	-85.826203	81.238209	-0.015166	-9.191753
0.450000	-0.014343	-9.445016	-84.942607	80.443246	-84.942607	80.443246	-0.016020	-10.340889
0.500000	-0.015207	-10.494335	-84.185496	79.683247	-84.185496	79.683247	-0.016932	-11.488786
0.550000	-0.016121	-11.542642	-83.534703	78.971315	-83.534703	78.971315	-0.017902	-12.635420
0.600000	-0.017084	-12.589922	-82.975568	78.320357	-82.975568	78.320357	-0.018930	-13.780748
0.650000	-0.018095	-13.636148	-82.497171	77.743902	-82.497171	77.743902	-0.020013	-14.924722
0.700000	-0.019151	-14.681293	-82.091223	77.256746	-82.091223	77.256746	-0.021147	-16.067286
0.750000	-0.020249	-15.725324	-81.751327	76.875536	-81.751327	76.875536	-0.022330	-17.208382
0.800000	-0.021386	-16.768208	-81.472458	76.619374	-81.472458	76.619374	-0.023555	-18.347956
0.850000	-0.022556	-17.809915	-81.250574	76.510472	-81.250574	76.510472	-0.024820	-19.485949
0.900000	-0.023757	-18.850412	-81.082299	76.574892	-81.082299	76.574892	-0.026119	-20.622307
0.950000	-0.024985	-19.889671	-80.964627	76.843383	-80.964627	76.843383	-0.027449	-21.756978
1.000000	-0.026236	-20.927663	-80.894617	77.352293	-80.894617	77.352293	-0.028806	-22.889910
1.050000	-0.027506	-21.964361	-80.869032	78.144500	-80.869032	78.144500	-0.030185	-24.021055
1.100000	-0.028794	-22.999742	-80.883883	79.270210	-80.883883	79.270210	-0.031584	-25.150368
1.150000	-0.030095	-24.033781	-80.933836	80.787333	-80.933836	80.787333	-0.032998	-26.277802
1.200000	-0.031408	-25.066455	-81.011429	82.760872	-81.011429	82.760872	-0.034424	-27.403317
1.250000	-0.032729	-26.097745	-81.106093	85.260426	-81.106093	85.260426	-0.035860	-28.526871
1.300000	-0.034057	-27.127567	-81.202112	88.382742	-81.202112	88.382742	-0.037304	-29.648337
1.350000	-0.035390	-28.155964	-81.277975	92.157363	-81.277975	92.157363	-0.038753	-30.767763
1.400000	-0.036726	-29.182918	-81.307291	96.602484	-81.307291	96.602484	-0.040204	-31.885114
1.450000	-0.038064	-30.208410	-81.259552	101.678514	-81.259552	101.678514	-0.041656	-33.000357
1.500000	-0.039402	-31.232425	-81.104111	107.268002	-81.104111	107.268002	-0.043108	-34.113457
1.550000	-0.040740	-32.254947	-80.816433	113.172303	-80.816433	113.172303	-0.044559	-35.224383
1.600000	-0.042078	-33.275958	-80.384564	119.135416	-80.384564	119.135416	-0.046007	-36.333105
1.650000	-0.043414	-34.295446	-79.812569	124.891107	-79.812569	124.891107	-0.047452	-37.439593
1.700000	-0.044748	-35.313393	-79.118951	130.213658	-79.118951	130.213658	-0.048893	-38.543818
1.750000	-0.046079	-36.329787	-78.331042	134.950684	-78.331042	134.950684	-0.050330	-39.645753
1.800000	-0.047409	-37.344613	-77.478421	139.029500	-77.478421	139.029500	-0.051762	-40.745371
1.850000	-0.048737	-38.357857	-76.587961	142.443259	-76.587961	142.443259	-0.053190	-41.842647
1.900000	-0.050062	-39.369505	-75.681362	145.228930	-75.681362	145.228930	-0.054612	-42.937554
1.950000	-0.051386	-40.379545	-74.774715	147.446666	-74.774715	147.446666	-0.056031	-44.030069
2.000000	-0.052708	-41.387964	-73.879159	149.164787	-73.879159	149.164787	-0.057445	-45.120169
2.050000	-0.054029	-42.394749	-73.001942	150.450636	-73.001942	150.450636	-0.058856	-46.207831
2.100000	-0.055349	-43.399888	-72.147454	151.365920	-72.147454	151.365920	-0.060263	-47.293033
2.150000	-0.056669	-44.403370	-71.318081	151.964889	-71.318081	151.964889	-0.061667	-48.375755
2.200000	-0.057990	-45.405183	-70.514857	152.294114	-70.514857	152.294114	-0.063068	-49.455977
2.250000	-0.059311	-46.405316	-69.737925	152.393035	-69.737925	152.393035	-0.064468	-50.533679
2.300000	-0.060634	-47.403760	-68.986867	152.294824	-68.986867	152.294824	-0.065867	-51.608845
2.350000	-0.061959	-48.400504	-68.260917	152.027303	-68.260917	152.027303	-0.067265	-52.681456
2.400000	-0.063286	-49.395540	-67.559111	151.613804	-67.559111	151.613804	-0.068663	-53.751497
2.450000	-0.064617	-50.388858	-66.880388	151.073929	-66.880388	151.073929	-0.070063	-54.818952
2.500000	-0.065952	-51.380450	-66.223647	150.424190	-66.223647	150.424190	-0.071464	-55.883808
2.550000	-0.067292	-52.370233	-65.586695	149.674933	-65.586695	149.674933	-0.072868	-56.945936
2.600000	-0.068638	-53.358275	-64.969711	148.842525	-64.969711	148.842525	-0.074276	-58.005439
2.650000	-0.069990	-54.344570	-64.371649	147.936866	-64.371649	147.936866	-0.075687	-59.062305
2.700000	-0.071349	-55.329114	-63.791518	146.966449	-63.791518	146.966449	-0.077104	-60.116524
2.750000	-0.072716	-56.311900	-63.228385	145.938590	-63.228385	145.938590	-0.078527	-61.168088
2.800000	-0.074091	-57.292925	-62.681377	144.859617	-62.681377	144.859617	-0.079956	-62.216988
2.850000	-0.075475	-58.272186	-62.149673	143.735024	-62.149673	143.735024	-0.081393	-63.263220
2.900000	-0.076869	-59.249680	-61.632511	142.569601	-61.632511	142.569601	-0.082839	-64.306776
2.950000	-0.078273	-60.225405	-61.129177	141.367542	-61.129177	141.367542	-0.084293	-65.347653
3.000000	-0.079689	-61.199361	-60.639006	140.132526	-60.639006	140.132526	-0.085757	-66.385848
3.050000	-0.081116	-62.171548	-60.161379	138.867800	-60.161379	138.867800	-0.087232	-67.421358
3.100000	-0.082556	-63.141967	-59.695714	137.576233	-59.695714	137.576233	-0.088718	-68.454183
3.150000	-0.084009	-64.110618	-59.241473	136.260369	-59.241473	136.260369	-0.090216	-69.484323
3.200000	-0.085475	-65.077504	-58.798148	134.922476	-58.798148	134.922476	-0.091727	-70.511780
3.250000	-0.086957	-66.042630	-58.365268	133.564573	-58.365268	133.564573	-0.093252	-71.536555
3.300000	-0.088453	-67.005998	-57.942388	132.188471	-57.942388	132.188471	-0.094791	-72.558654
3.350000	-0.089965	-67.967614	-57.529094	130.795794	-57.529094	130.795794	-0.096345	-73.578080
3.400000	-0.091494	-68.927485	-57.124997	129.388001	-57.124997	129.388001	-0.097915	-74.594839
3.450000	-0.093039	-69.885616	-56.729730	127.966409	-56.729730	127.966409	-0.099501	-75.608940
3.500000	-0.094602	-70.842015	-56.342949	126.532211	-56.342949	126.532211	-0.101104	-76.620389
3.550000	-0.096183	-71.796692	-55.964330	125.086483	-55.964330	125.086483	-0.102725	-77.629197
3.600000	-0.097784	-72.749656	-55.593567	123.630205	-55.593567	123.630205	-0.104364	-78.635375
3.650000	-0.099403	-73.700917	-55.230373	122.164267	-55.230373	122.164267	-0.106022	-79.638933
3.700000	-0.101043	-74.650487	-54.874476	120.689481	-54.874476	120.689481	-0.107699	-80.639885
3.750000	-0.102703	-75.598377	-54.525618	119.206588	-54.525618	119.206588	-0.109397	-81.638244
3.800000	-0.104385	-76.544530	-54.183267	117.715971	-54.183267	117.715971	-0.111116	-82.633915
3.850000	-0.106089	-77.489033	-53.847506	116.218596	-53.847506	116.218596	-0.112857	-83.627026
3.900000	-0.107815	-78.431900	-53.518115	114.715025	-53.518115	114.715025	-0.114620	-84.617595
3.950000	-0.109564	-79.373148	-53.194885	113.205777	-53.194885	113.205777	-0.116405	-85.605640
4.000000	-0.111337	-80.312794	-52.877616	111.691329	-52.877616	111.691329	-0.118213	-86.591181
4.050000	-0.113134	-81.250856	-52.566122	110.172119	-52.566122	110.172119	-0.120044	-87.574237
4.100000	-0.114955	-82.187353	-52.260223	108.648555	-52.260223	108.648555	-0.121900	-88.554831
4.150000	-0.116802	-83.122303	-51.959747	107.121010	-51.959747	107.121010	-0.123780	-89.532986
4.200000	-0.118674	-84.055729	-51.664533	105.589834	-51.664533	105.589834	-0.125685	-90.508724
4.250000	-0.120572	-84.987650	-51.374426	104.055348	-51.374426	104.055348	-0.127616	-91.482071
4.300000	-0.122497	-85.918091	-51.089278	102.517851	-51.089278	102.517851	-0.129573	-92.453051
4.350000	-0.124449	-86.847073	-50.808948	100.977621	-50.808948	100.977621	-0.131556	-93.421693
4.400000	-0.126429	-87.774622	-50.533301	99.434917	-50.533301	99.434917	-0.133566	-94.388023
4.450000	-0.128438	-88.700762	-50.262209	97.889980	-50.262209	97.889980	-0.135604	-95.352070
4.500000	-0.130475	-89.625519	-49.995549	96.343036	-49.995549	96.343036	-0.137670	-96.313863
4.550000	-0.132542	-90.548921	-49.733202	94.794293	-49.733202	94.794293	-0.139764	-97.273433
4.600000	-0.134639	-91.470994	-49.475057	93.243949	-49.475057	93.243949	-0.141887	-98.230812
4.650000	-0.136766	-92.391768	-49.221004	91.692187	-49.221004	91.692187	-0.144039	-99.186032
4.700000	-0.138924	-93.311272	-48.970940	90.139181	-48.970940	90.139181	-0.146222	-100.139125
4.750000	-0.141113	-94.229535	-48.724767	88.585092	-48.724767	88.585092	-0.148434	-101.090127
4.800000	-0.143335	-95.146591	-48.482387	87.030073	-48.482387	87.030073	-0.150677	-102.039072
4.850000	-0.145589	-96.062469	-48.243710	85.474268	-48.243710	85.474268	-0.152950	-102.985997
4.900000	-0.147876	-96.977205	-48.008647	83.917811	-48.008647	83.917811	-0.155256	-103.930938
4.950000	-0.150196	-97.890830	-47.777114	82.360831	-47.777114	82.360831	-0.157593	-104.873934
5.000000	-0.152551	-98.803381	-47.549029	80.803448	-47.549029	80.803448	-0.159962	-105.815022
5.050000	-0.154941	-99.714848	-47.324207	79.245770	-47.324207	79.245770	-0.162366	-106.754164
5.100000	-0.157367	-100.625316	-47.102687	77.687921	-47.102687	77.687921	-0.164802	-107.691483
5.150000	-0.159829	-101.534821	-46.884395	76.130004	-46.884395	76.130004	-0.167272	-108.627020
5.200000	-0.162326	-102.443401	-46.669260	74.572117	-46.669260	74.572117	-0.169777	-109.560818
5.250000	-0.164861	-103.351097	-46.457214	73.014353	-46.457214	73.014353	-0.172315	-110.492920
5.300000	-0.167432	-104.257946	-46.248191	71.456799	-46.248191	71.456799	-0.174888	-111.423371
5.350000	-0.170042	-105.163991	-46.042126	69.899541	-46.042126	69.899541	-0.177497	-112.352215
5.400000	-0.172689	-106.069273	-45.838959	68.342658	-45.838959	68.342658	-0.180141	-113.279498
5.450000	-0.175375	-106.973834	-45.638627	66.786230	-45.638627	66.786230	-0.182821	-114.205267
5.500000	-0.178101	-107.877717	-45.441075	65.230329	-45.441075	65.230329	-0.185537	-115.129570
5.550000	-0.180866	-108.780967	-45.246245	63.675028	-45.246245	63.675028	-0.188290	-116.052456
5.600000	-0.183671	-109.683628	-45.054082	62.120394	-45.054082	62.120394	-0.191080	-116.973974
5.650000	-0.186517	-110.585746	-44.864534	60.566493	-44.864534	60.566493	-0.193908	-117.894174
5.700000	-0.189405	-111.487368	-44.677549	59.013388	-44.677549	59.013388	-0.196774	-118.813108
5.750000	-0.192334	-112.388540	-44.493076	57.461140	-44.493076	57.461140	-0.199678	-119.730828
5.800000	-0.195306	-113.289312	-44.311067	55.909807	-44.311067	55.909807	-0.202621	-120.647389
5.850000	-0.198320	-114.189733	-44.131473	54.359446	-44.131473	54.359446	-0.205604	-121.562843
5.900000	-0.201378	-115.089852	-43.954249	52.810110	-43.954249	52.810110	-0.208626	-122.477246
5.950000	-0.204480	-115.989721	-43.779348	51.261851	-43.779348	51.261851	-0.211688	-123.390655
6.000000	-0.207626	-116.889390	-43.606726	49.714720	-43.606726	49.714720	-0.214791	-124.303127
6.050000	-0.210817	-117.788913	-43.436339	48.168763	-43.436339	48.168763	-0.217934	-125.214720
6.100000	-0.214053	-118.688342	-43.268145	46.624027	-43.268145	46.624027	-0.221120	-126.125495
6.150000	-0.217335	-119.587733	-43.102101	45.080556	-43.102101	45.080556	-0.224347	-127.035512
6.200000	-0.220663	-120.487140	-42.938166	43.538391	-42.938166	43.538391	-0.227616	-127.944832
6.250000	-0.224039	-121.386620	-42.776300	41.997573	-42.776300	41.997573	-0.230928	-128.853520
6.300000	-0.227488	-122.286337	-42.615947	40.458943	-42.615947	40.458943	-0.234308	-129.761359
6.350000	-0.230938	-123.186054	-42.458499	38.920313	-42.458499	38.920313	-0.237689	-130.669198
6.400000	-0.234480	-124.086257	-42.302200	37.384471	-42.302200	37.384471	-0.241153	-131.576222
6.450000	-0.238032	-124.986505	-42.148516	35.848882	-42.148516	35.848882	-0.244627	-132.483173
6.500000	-0.241668	-125.887413	-41.996103	34.315936	-41.996103	34.315936	-0.248178	-133.389637
6.550000	-0.245323	-126.788452	-41.846042	32.783518	-41.846042	32.783518	-0.251747	-134.296004
6.600000	-0.249056	-127.690290	-41.697349	31.253561	-41.697349	31.253561	-0.255388	-135.202174
6.650000	-0.252816	-128.592394	-41.550772	29.724424	-41.550772	29.724424	-0.259054	-136.108277
6.700000	-0.256648	-129.495392	-41.405639	28.197533	-41.405639	28.197533	-0.262786	-137.014429
6.750000	-0.260515	-130.398839	-41.262405	26.671763	-41.262405	26.671763	-0.266552	-137.920605
6.800000	-0.264447	-131.303237	-41.120675	25.147994	-41.120675	25.147994	-0.270379	-138.827031
6.850000	-0.268424	-132.208315	-40.980644	23.625654	-40.980644	23.625654	-0.274249	-139.733636
6.900000	-0.272457	-133.114356	-40.842161	22.105046	-40.842161	22.105046	-0.278172	-140.640645
6.950000	-0.276546	-134.021362	-40.705188	20.586170	-40.705188	20.586170	-0.282149	-141.548056
7.000000	-0.280682	-134.929298	-40.569798	19.068740	-40.569798	19.068740	-0.286172	-142.455972
7.050000	-0.284885	-135.838536	-40.435735	17.553334	-40.435735	17.553334	-0.290260	-143.364593
7.100000	-0.289117	-136.748399	-40.303391	16.038790	-40.303391	16.038790	-0.294377	-144.273606
7.150000	-0.293424	-137.659904	-40.172217	14.526470	-40.172217	14.526470	-0.298569	-145.183676
7.200000	-0.297787	-138.572728	-40.042389	13.015782	-40.042389	13.015782	-0.302817	-146.094671
7.250000	-0.302206	-139.486944	-39.913867	11.506709	-39.913867	11.506709	-0.307124	-147.006704
7.300000	-0.306682	-140.402631	-39.786609	9.999227	-39.786609	9.999227	-0.311491	-147.919889
7.350000	-0.311216	-141.319864	-39.660574	8.493309	-39.660574	8.493309	-0.315920	-148.834347
7.400000	-0.315807	-142.238722	-39.535719	6.988921	-39.535719	6.988921	-0.320412	-149.750205
7.450000	-0.320457	-143.159284	-39.411998	5.486026	-39.411998	5.486026	-0.324969	-150.667594
7.500000	-0.325165	-144.081631	-39.289365	3.984578	-39.289365	3.984578	-0.329594	-151.586655
7.550000	-0.329935	-145.005929	-39.167744	2.484583	-39.167744	2.484583	-0.334292	-152.507622
7.600000	-0.334764	-145.932183	-39.047111	0.985918	-39.047111	0.985918	-0.339062	-153.430579
7.650000	-0.339653	-146.860478	-38.927416	-0.511484	-38.927416	-0.511484	-0.343909	-154.355692
7.700000	-0.344602	-147.790898	-38.808601	-2.007701	-38.808601	-2.007701	-0.348835	-155.283141
7.750000	-0.349611	-148.723529	-38.690610	-3.502821	-38.690610	-3.502821	-0.353844	-156.213115
7.800000	-0.354682	-149.658460	-38.573380	-4.996940	-38.573380	-4.996940	-0.358942	-157.145819
7.850000	-0.359813	-150.595778	-38.456846	-6.490172	-38.456846	-6.490172	-0.364133	-158.081472
7.900000	-0.365006	-151.535573	-38.340938	-7.982640	-38.340938	-7.982640	-0.369422	-159.020311
7.950000	-0.370261	-152.477937	-38.225580	-9.474486	-38.225580	-9.474486	-0.374818	-159.962596
8.000000	-0.375577	-153.422961	-38.110691	-10.965872	-38.110691	-10.965872	-0.380327	-160.908606
8.050000	-0.380956	-154.370738	-37.996181	-12.456978	-37.996181	-12.456978	-0.385960	-161.858651
8.100000	-0.386397	-155.321364	-37.881953	-13.948014	-37.881953	-13.948014	-0.391726	-162.813067
8.150000	-0.391900	-156.274935	-37.767902	-15.439217	-37.767902	-15.439217	-0.397638	-163.772230
8.200000	-0.397467	-157.231546	-37.653910	-16.930860	-37.653910	-16.930860	-0.403711	-164.736556
8.250000	-0.403096	-158.191298	-37.539844	-18.423261	-37.539844	-18.423261	-0.409963	-165.706508
8.300000	-0.408788	-159.154289	-37.425561	-19.916788	-37.425561	-19.916788	-0.416416	-166.682607
8.350000	-0.414546	-160.120824	-37.310766	-21.412006	-37.310766	-21.412006	-0.423109	-167.665892
8.400000	-0.420356	-161.090136	-37.195835	-22.908804	-37.195835	-22.908804	-0.430005	-168.655065
8.450000	-0.426248	-162.064119	-37.079371	-24.409167	-37.079371	-24.409167	-0.437288	-169.655046
8.500000	-0.432194	-163.041238	-36.962180	-25.912657	-36.962180	-25.912657	-0.444876	-170.663010
8.550000	-0.438194	-164.021539	-36.844156	-27.419680	-36.844156	-27.419680	-0.452796	-171.679418
8.600000	-0.444265	-165.006306	-36.724051	-28.932691	-36.724051	-28.932691	-0.461244	-172.708671
8.650000	-0.450404	-165.995407	-36.601499	-30.453303	-36.601499	-30.453303	-0.470320	-173.752049
8.700000	-0.456596	-166.987996	-36.477031	-31.981257	-36.477031	-31.981257	-0.479989	-174.807881
8.750000	-0.462841	-167.984124	-36.350497	-33.517338	-36.350497	-33.517338	-0.490307	-175.876944
8.800000	-0.469168	-168.986261	-36.218128	-35.071635	-36.218128	-35.071635	-0.502032	-176.972172
8.850000	-0.475547	-169.992210	-36.081952	-36.641365	-36.081952	-36.641365	-0.514943	-178.087019
8.900000	-0.481973	-171.001656	-35.942352	-38.226485	-35.942352	-38.226485	-0.529041	-179.220764
8.950000	-0.488467	-172.016593	-35.794929	-39.842237	-35.794929	-39.842237	-0.545488	179.611211
9.000000	-0.495017	-173.036358	-35.639525	-41.493399	-35.639525	-41.493399	-0.564680	178.407478
9.050000	-0.501623	-174.061173	-35.474177	-43.192006	-35.474177	-43.192006	-0.587598	177.160143
9.100000	-0.508279	-175.090787	-35.297825	-44.949387	-35.297825	-44.949387	-0.615219	175.863898
9.150000	-0.514987	-176.126040	-35.105465	-46.798666	-35.105465	-46.798666	-0.650355	174.499113
9.200000	-0.521737	-177.166142	-34.897514	-48.754290	-34.897514	-48.754290	-0.694463	173.063849
9.250000	-0.528532	-178.212131	-34.666383	-50.886246	-34.666383	-50.886246	-0.753917	171.526660
9.300000	-0.535362	-179.263881	-34.409140	-53.265667	-34.409140	-53.265667	-0.835885	169.870390
9.350000	-0.542226	179.678330	-34.122066	-56.017131	-34.122066	-56.017131	-0.953456	168.073636
9.400000	-0.549126	178.614211	-33.805617	-59.330072	-33.805617	-59.330072	-1.128055	166.132685
9.450000	-0.556092	177.542971	-33.471083	-63.553823	-33.471083	-63.553823	-1.401501	164.106679
9.500000	-0.563227	176.464072	-33.167464	-69.146118	-33.167464	-69.146118	-1.833857	162.289569
9.550000	-0.570821	175.377096	-33.032304	-76.660295	-33.032304	-76.660295	-2.490639	161.625953
9.600000	-0.579268	174.284619	-33.351785	-85.922765	-33.351785	-85.922765	-3.260598	164.089423
9.650000	-0.588227	173.192133	-34.426872	-94.456031	-34.426872	-94.456031	-3.571123	170.273318
9.700000	-0.596640	172.098686	-36.065311	-97.973932	-36.065311	-97.973932	-3.093972	175.509009
9.750000	-0.604364	170.998574	-37.516057	-95.185105	-37.516057	-95.185105	-2.390438	176.893439
9.800000	-0.611806	169.889712	-38.269010	-89.432673	-38.269010	-89.432673	-1.850767	175.979246
9.850000	-0.619212	168.772318	-38.425605	-84.231410	-38.425605	-84.231410	-1.496914	174.290514
9.900000	-0.626666	167.646780	-38.281994	-80.746100	-38.281994	-80.746100	-1.269960	172.455269
9.950000	-0.634191	166.513442	-38.035571	-78.761420	-38.035571	-78.761420	-1.120743	170.671373
10.000000	-0.641787	165.372397	-37.771737	-77.836314	-37.771737	-77.836314	-1.019902	168.984720
