! freq	dB(S11)	phase(S11)	dB(S12)	phase(S12)	
!     	dB(S21)	phase(S21)	dB(S22)	phase(S22)	
!S-par simulation data
#  GHz  S  DB  R 50
0.000000	-88.221697	0.000000	-0.000337	0.000000	-0.000337	0.000000	-88.221697	0.000000
0.050000	-31.222815	-93.103835	-0.005879	-3.034728	-0.005879	-3.034728	-31.223022	-93.104215
0.100000	-25.228097	-96.299142	-0.021219	-6.051697	-0.021219	-6.051697	-25.228212	-96.300191
0.150000	-21.745434	-99.419567	-0.043898	-9.044976	-0.043898	-9.044976	-21.745455	-99.421618
0.200000	-19.296317	-102.480312	-0.072326	-12.016147	-0.072326	-12.016147	-19.296270	-102.483537
0.250000	-17.415711	-105.490004	-0.105782	-14.967809	-0.105782	-14.967809	-17.415634	-105.494377
0.300000	-15.896398	-108.456667	-0.144077	-17.900463	-0.144077	-17.900463	-15.896321	-108.462039
0.350000	-14.627947	-111.386666	-0.187135	-20.813034	-0.187135	-20.813034	-14.627886	-111.392851
0.400000	-13.544382	-114.284303	-0.234815	-23.703858	-0.234815	-23.703858	-13.544344	-114.291131
0.450000	-12.603751	-117.151191	-0.287007	-26.570476	-0.287007	-26.570476	-12.603738	-117.158527
0.500000	-11.776824	-119.988455	-0.343417	-29.411132	-0.343417	-29.411132	-11.776836	-119.996209
0.550000	-11.042978	-122.795959	-0.403761	-32.223924	-0.403761	-32.223924	-11.043012	-122.804076
0.600000	-10.387035	-125.572970	-0.467726	-35.007005	-0.467726	-35.007005	-10.387087	-125.581427
0.650000	-9.796959	-128.319243	-0.534912	-37.759446	-0.534912	-37.759446	-9.797027	-128.328036
0.700000	-9.263812	-131.033700	-0.604971	-40.479774	-0.604971	-40.479774	-9.263894	-131.042843
0.750000	-8.780022	-133.716057	-0.677495	-43.167489	-0.677495	-43.167489	-8.780114	-133.725576
0.800000	-8.339527	-136.365959	-0.752091	-45.822130	-0.752091	-45.822130	-8.339628	-136.375885
0.850000	-7.937549	-138.982755	-0.828386	-48.443001	-0.828386	-48.443001	-7.937658	-138.993124
0.900000	-7.569578	-141.566958	-0.905982	-51.030639	-0.905982	-51.030639	-7.569692	-141.577809
0.950000	-7.232208	-144.118380	-0.984520	-53.584881	-0.984520	-53.584881	-7.232326	-144.129750
1.000000	-6.922449	-146.637137	-1.063639	-56.105896	-1.063639	-56.105896	-6.922571	-146.649066
1.050000	-6.637520	-149.123942	-1.143000	-58.594462	-1.143000	-58.594462	-6.637646	-149.136466
1.100000	-6.375116	-151.579381	-1.222280	-61.051231	-1.222280	-61.051231	-6.375243	-151.592535
1.150000	-6.133211	-154.004158	-1.301178	-63.476976	-1.301178	-63.476976	-6.133341	-154.017977
1.200000	-5.910023	-156.399090	-1.379407	-65.872580	-1.379407	-65.872580	-5.910155	-156.413604
1.250000	-5.703974	-158.765080	-1.456703	-68.239015	-1.456703	-68.239015	-5.704108	-158.780320
1.300000	-5.513773	-161.102821	-1.532793	-70.577036	-1.532793	-70.577036	-5.513909	-161.118815
1.350000	-5.338041	-163.413676	-1.607469	-72.888072	-1.607469	-72.888072	-5.338180	-163.430451
1.400000	-5.175659	-165.698748	-1.680518	-75.173285	-1.680518	-75.173285	-5.175801	-165.716328
1.450000	-5.025622	-167.959178	-1.751747	-77.433873	-1.751747	-77.433873	-5.025767	-167.977587
1.500000	-4.887261	-170.195533	-1.820908	-79.670460	-1.820908	-79.670460	-4.887411	-170.214793
1.550000	-4.759330	-172.410143	-1.887965	-81.885424	-1.887965	-81.885424	-4.759484	-172.430275
1.600000	-4.641293	-174.603706	-1.952718	-84.079514	-1.952718	-84.079514	-4.641452	-174.624731
1.650000	-4.532490	-176.777443	-2.015037	-86.253996	-2.015037	-86.253996	-4.532654	-176.799380
1.700000	-4.432323	-178.932577	-2.074802	-88.410137	-2.074802	-88.410137	-4.432493	-178.955445
1.750000	-4.340253	178.929671	-2.131909	-90.549201	-2.131909	-90.549201	-4.340430	178.905854
1.800000	-4.255793	176.808083	-2.186265	-92.672443	-2.186265	-92.672443	-4.255977	176.783299
1.850000	-4.178501	174.701454	-2.237787	-94.781111	-2.237787	-94.781111	-4.178692	174.675684
1.900000	-4.108043	172.608722	-2.286369	-96.876304	-2.286369	-96.876304	-4.108242	172.581948
1.950000	-4.044052	170.528666	-2.331950	-98.959281	-2.331950	-98.959281	-4.044260	170.500870
2.000000	-3.986138	168.459970	-2.374511	-101.031386	-2.374511	-101.031386	-3.986354	168.431133
2.050000	-3.934010	166.401485	-2.414009	-103.093801	-2.414009	-103.093801	-3.934235	166.371587
2.100000	-3.887408	164.352078	-2.450409	-105.147689	-2.450409	-105.147689	-3.887641	164.321099
2.150000	-3.846096	162.310636	-2.483682	-107.194193	-2.483682	-107.194193	-3.846338	162.278557
2.200000	-3.809867	160.276065	-2.513808	-109.234437	-2.513808	-109.234437	-3.810118	160.242863
2.250000	-3.778535	158.247287	-2.540773	-111.269527	-2.540773	-111.269527	-3.778796	158.212941
2.300000	-3.751938	156.223247	-2.564569	-113.300546	-2.564569	-113.300546	-3.752207	156.187732
2.350000	-3.729931	154.202907	-2.585192	-115.328562	-2.585192	-115.328562	-3.730209	154.166198
2.400000	-3.712391	152.185246	-2.602649	-117.354620	-2.602649	-117.354620	-3.712677	152.147317
2.450000	-3.699211	150.169266	-2.616946	-119.379748	-2.616946	-119.379748	-3.699506	150.130089
2.500000	-3.690303	148.153983	-2.628098	-121.404957	-2.628098	-121.404957	-3.690605	148.113530
2.550000	-3.685682	146.138408	-2.636057	-123.431282	-2.636057	-123.431282	-3.685993	146.096645
2.600000	-3.685200	144.121580	-2.640916	-125.459696	-2.640916	-125.459696	-3.685518	144.078474
2.650000	-3.688814	142.102574	-2.642703	-127.491152	-2.642703	-127.491152	-3.689139	142.058090
2.700000	-3.696496	140.080481	-2.641452	-129.526590	-2.641452	-129.526590	-3.696827	140.034581
2.750000	-3.708231	138.054411	-2.637201	-131.566930	-2.637201	-131.566930	-3.708568	138.007054
2.800000	-3.724017	136.023490	-2.629991	-133.613076	-2.629991	-133.613076	-3.724359	135.974636
2.850000	-3.743867	133.986866	-2.619869	-135.665916	-2.619869	-135.665916	-3.744213	133.936467
2.900000	-3.767803	131.943700	-2.606886	-137.726322	-2.606886	-137.726322	-3.768154	131.891710
2.950000	-3.795864	129.893175	-2.591098	-139.795148	-2.591098	-139.795148	-3.796218	129.839543
3.000000	-3.828097	127.834492	-2.572563	-141.873231	-2.572563	-141.873231	-3.828455	127.779163
3.050000	-3.864565	125.766871	-2.551346	-143.961392	-2.551346	-143.961392	-3.864925	125.709788
3.100000	-3.905340	123.689552	-2.527514	-146.060433	-2.527514	-146.060433	-3.905702	123.630655
3.150000	-3.950555	121.601675	-2.501114	-148.171275	-2.501114	-148.171275	-3.950918	121.540900
3.200000	-4.000309	119.502501	-2.472224	-150.294709	-2.472224	-150.294709	-4.000674	119.439777
3.250000	-4.054668	117.391451	-2.440954	-152.431351	-2.440954	-152.431351	-4.055035	117.326708
3.300000	-4.113757	115.267860	-2.407392	-154.581925	-2.407392	-154.581925	-4.114124	115.201020
3.350000	-4.177711	113.131087	-2.371627	-156.747132	-2.371627	-156.747132	-4.178079	113.062070
3.400000	-4.246680	110.980520	-2.333756	-158.927648	-2.333756	-158.927648	-4.247048	110.909242
3.450000	-4.320826	108.815579	-2.293878	-161.124127	-2.293878	-161.124127	-4.321196	108.741950
3.500000	-4.400327	106.635715	-2.252098	-163.337192	-2.252098	-163.337192	-4.400698	106.559640
3.550000	-4.485373	104.440414	-2.208526	-165.567441	-2.208526	-165.567441	-4.485744	104.361792
3.600000	-4.576167	102.229200	-2.163276	-167.815440	-2.163276	-167.815440	-4.576541	102.147926
3.650000	-4.672930	100.001637	-2.116466	-170.081721	-2.116466	-170.081721	-4.673307	99.917599
3.700000	-4.775897	97.757332	-2.068218	-172.366783	-2.068218	-172.366783	-4.776277	97.670414
3.750000	-4.885317	95.495941	-2.018661	-174.671086	-2.018661	-174.671086	-4.885702	95.406017
3.800000	-5.001575	93.216784	-1.967895	-176.995487	-1.967895	-176.995487	-5.001966	93.123721
3.850000	-5.124842	90.919994	-1.916091	-179.339942	-1.916091	-179.339942	-5.125240	90.823653
3.900000	-5.255418	88.605392	-1.863389	178.295220	-1.863389	178.295220	-5.255826	88.505627
3.950000	-5.393625	86.272862	-1.809929	175.909716	-1.809929	175.909716	-5.394044	86.169517
4.000000	-5.539801	83.922351	-1.755859	173.503317	-1.755859	173.503317	-5.540234	83.815263
4.050000	-5.694304	81.553879	-1.701326	171.075844	-1.701326	171.075844	-5.694754	81.442874
4.100000	-5.857516	79.167541	-1.646481	168.627177	-1.646481	168.627177	-5.857985	79.052436
4.150000	-6.029840	76.763513	-1.591475	166.157252	-1.591475	166.157252	-6.030331	76.644111
4.200000	-6.211703	74.342055	-1.536461	163.666066	-1.536461	163.666066	-6.212220	74.218149
4.250000	-6.403557	71.903517	-1.481593	161.153676	-1.481593	161.153676	-6.404104	71.774885
4.300000	-6.605885	69.448345	-1.427024	158.620205	-1.427024	158.620205	-6.606466	69.314752
4.350000	-6.819197	66.977088	-1.372908	156.065839	-1.372908	156.065839	-6.819817	66.838281
4.400000	-7.044103	64.490242	-1.319398	153.490610	-1.319398	153.490610	-7.044767	64.345947
4.450000	-7.281180	61.988610	-1.266649	150.894850	-1.266649	150.894850	-7.281894	61.838531
4.500000	-7.530983	59.473260	-1.214804	148.279170	-1.214804	148.279170	-7.531752	59.317083
4.550000	-7.794174	56.945226	-1.164002	145.644024	-1.164002	145.644024	-7.795005	56.782610
4.600000	-8.071466	54.405685	-1.114380	142.989929	-1.114380	142.989929	-8.072367	54.236260
4.650000	-8.363631	51.855966	-1.066066	140.317460	-1.066066	140.317460	-8.364609	51.679329
4.700000	-8.671502	49.297567	-1.019185	137.627256	-1.019185	137.627256	-8.672567	49.113277
4.750000	-8.995989	46.732170	-0.973852	134.920005	-0.973852	134.920005	-8.997151	46.539745
4.800000	-9.338088	44.161669	-0.930174	132.196452	-0.930174	132.196452	-9.339359	43.960573
4.850000	-9.698894	41.588188	-0.888249	129.457384	-0.888249	129.457384	-9.700287	41.377832
4.900000	-10.079623	39.014127	-0.848165	126.703632	-0.848165	126.703632	-10.081153	38.793851
4.950000	-10.481627	36.442199	-0.810001	123.936063	-0.810001	123.936063	-10.483313	36.211267
5.000000	-10.906426	33.875494	-0.773824	121.155572	-0.773824	121.155572	-10.908288	33.633077
5.050000	-11.355775	31.317841	-0.739732	118.362840	-0.739732	118.362840	-11.357841	31.062976
5.100000	-11.831560	28.773275	-0.707731	115.559083	-0.707731	115.559083	-11.833860	28.504885
5.150000	-12.336022	26.246657	-0.677852	112.745248	-0.677852	112.745248	-12.338594	25.963503
5.200000	-12.871760	23.743754	-0.650116	109.922279	-0.650116	109.922279	-12.874652	23.444402
5.250000	-13.441814	21.271511	-0.624532	107.091118	-0.624532	107.091118	-13.445087	20.954284
5.300000	-14.049779	18.838426	-0.601098	104.252693	-0.601098	104.252693	-14.053510	18.501345
5.350000	-14.699946	16.455082	-0.579799	101.407912	-0.579799	101.407912	-14.704236	16.095789
5.400000	-15.397498	14.134921	-0.560613	98.557657	-0.560613	98.557657	-15.402480	13.750572
5.450000	-16.148780	11.895387	-0.543505	95.702779	-0.543505	95.702779	-16.154634	11.482503
5.500000	-16.961662	9.759654	-0.528430	92.844089	-0.528430	92.844089	-16.968638	9.313921
5.550000	-17.846061	7.759331	-0.515337	89.982358	-0.515337	89.982358	-17.854508	7.275308
5.600000	-18.814680	5.938807	-0.504165	87.118306	-0.504165	87.118306	-18.825111	5.409508
5.650000	-19.883848	4.366275	-0.494864	84.252593	-0.494864	84.252593	-19.897035	3.782412
5.700000	-21.075393	3.144332	-0.487358	81.385853	-0.487358	81.385853	-21.092558	2.493361
5.750000	-22.419273	2.430727	-0.481546	78.518658	-0.481546	78.518658	-22.442432	1.695571
5.800000	-23.956313	2.496773	-0.477344	75.651502	-0.477344	75.651502	-23.989019	1.653678
5.850000	-25.741984	3.834080	-0.474662	72.784820	-0.474662	72.784820	-25.790973	2.850625
5.900000	-27.844503	7.405157	-0.473410	69.918984	-0.473410	69.918984	-27.923634	6.243761
5.950000	-30.303677	15.217164	-0.473494	67.054305	-0.473494	67.054305	-30.442985	13.877301
6.000000	-32.887147	31.137342	-0.474819	64.191034	-0.474819	64.191034	-33.140349	29.883203
6.050000	-34.381308	57.892334	-0.477291	61.329362	-0.477291	61.329362	-34.737802	57.584637
6.100000	-33.382034	85.640519	-0.480815	58.469423	-0.480815	58.469423	-33.661234	86.427021
6.150000	-31.076247	102.695453	-0.485299	55.611294	-0.485299	55.611294	-31.236676	103.676635
6.200000	-28.831208	111.085126	-0.490651	52.754997	-0.490651	52.754997	-28.925095	111.919067
6.250000	-26.941716	114.949513	-0.496781	49.900504	-0.496781	49.900504	-27.001578	115.614172
6.300000	-25.376548	116.428116	-0.503617	47.047775	-0.503617	47.047775	-25.417790	116.954757
6.350000	-24.066119	116.599127	-0.511059	44.196642	-0.511059	44.196642	-24.096238	117.017019
6.400000	-22.952282	115.967927	-0.519028	41.346939	-0.519028	41.346939	-22.975281	116.299089
6.450000	-21.992396	114.814301	-0.527448	38.498458	-0.527448	38.498458	-22.010578	115.074692
6.500000	-21.155427	113.303528	-0.536250	35.650956	-0.536250	35.650956	-21.170198	113.504747
6.550000	-20.418464	111.538741	-0.545367	32.804156	-0.545367	32.804156	-20.430733	111.689339
6.600000	-19.764258	109.587301	-0.554738	29.957753	-0.554738	29.957753	-19.774634	109.693680
6.650000	-19.179559	107.494910	-0.564306	27.111412	-0.564306	27.111412	-19.188467	107.561933
6.700000	-18.653989	105.293574	-0.574020	24.264778	-0.574020	24.264778	-18.661734	105.324988
6.750000	-18.179277	103.006321	-0.583832	21.417471	-0.583832	21.417471	-18.186086	103.005040
6.800000	-17.748726	100.650099	-0.593700	18.569093	-0.593700	18.569093	-17.754769	100.618407
6.850000	-17.356834	98.237624	-0.603587	15.719232	-0.603587	15.719232	-17.362243	98.177323
6.900000	-16.999203	95.778178	-0.613461	12.867433	-0.613461	12.867433	-17.004082	95.690704
6.950000	-16.671935	93.279461	-0.623293	10.013241	-0.623293	10.013241	-16.676367	93.165947
7.000000	-16.371551	90.747766	-0.633060	7.156224	-0.633060	7.156224	-16.375605	90.609093
7.050000	-16.095225	88.187678	-0.642744	4.295925	-0.642744	4.295925	-16.098956	88.024541
7.100000	-15.840496	85.602860	-0.652330	1.431875	-0.652330	1.431875	-15.843953	85.415798
7.150000	-15.605209	82.996255	-0.661809	-1.436399	-0.661809	-1.436399	-15.608432	82.785683
7.200000	-15.387452	80.370237	-0.671174	-4.309374	-0.671174	-4.309374	-15.390477	80.136468
7.250000	-15.185522	77.726726	-0.680423	-7.187533	-0.680423	-7.187533	-15.188379	77.469988
7.300000	-14.997884	75.067274	-0.689557	-10.071364	-0.689557	-10.071364	-15.000603	74.787726
7.350000	-14.823147	72.393131	-0.698582	-12.961354	-0.698582	-12.961354	-14.825753	72.090878
7.400000	-14.660040	69.705296	-0.707505	-15.857998	-0.707505	-15.857998	-14.662557	69.380399
7.450000	-14.507393	67.004557	-0.716338	-18.761792	-0.716338	-18.761792	-14.509844	66.657045
7.500000	-14.364123	64.291523	-0.725095	-21.673235	-0.725095	-21.673235	-14.366532	63.921398
7.550000	-14.229337	61.566394	-0.733793	-24.593019	-0.733793	-24.593019	-14.231725	61.173645
7.600000	-14.101940	58.829742	-0.742454	-27.521486	-0.742454	-27.521486	-14.104329	58.414348
7.650000	-13.981038	56.081749	-0.751102	-30.459148	-0.751102	-30.459148	-13.983451	55.643690
7.700000	-13.865784	53.322482	-0.759762	-33.406520	-0.759762	-33.406520	-13.868243	52.861744
7.750000	-13.755372	50.551904	-0.768463	-36.364127	-0.768463	-36.364127	-13.757899	50.068489
7.800000	-13.649029	47.769877	-0.777238	-39.332496	-0.777238	-39.332496	-13.651647	47.263807
7.850000	-13.546012	44.976170	-0.786120	-42.312164	-0.786120	-42.312164	-13.548746	44.447492
7.900000	-13.445608	42.170455	-0.795146	-45.303677	-0.795146	-45.303677	-13.448483	41.619253
7.950000	-13.347126	39.352312	-0.804356	-48.307587	-0.804356	-48.307587	-13.350167	38.778709
8.000000	-13.249900	36.521229	-0.813792	-51.324457	-0.813792	-51.324457	-13.253133	35.925394
8.050000	-13.153282	33.676603	-0.823500	-54.354864	-0.823500	-54.354864	-13.156733	33.058758
8.100000	-13.056647	30.817737	-0.833528	-57.399392	-0.833528	-57.399392	-13.060343	30.178163
8.150000	-12.959363	27.943670	-0.843931	-60.458811	-0.843931	-60.458811	-12.963330	27.282714
8.200000	-12.860824	25.053485	-0.854766	-63.533755	-0.854766	-63.533755	-12.865088	24.371565
8.250000	-12.760482	22.146362	-0.866087	-66.624699	-0.866087	-66.624699	-12.765068	21.443966
8.300000	-12.657792	19.221226	-0.877953	-69.732294	-0.877953	-69.732294	-12.662724	18.498918
8.350000	-12.552234	16.276909	-0.890429	-72.857212	-0.890429	-72.857212	-12.557532	15.535329
8.400000	-12.443308	13.312151	-0.903584	-76.000149	-0.903584	-76.000149	-12.448992	12.552022
8.450000	-12.330540	10.325607	-0.917488	-79.161830	-0.917488	-79.161830	-12.336625	9.547730
8.500000	-12.213485	7.315843	-0.932219	-82.343005	-0.932219	-82.343005	-12.219983	6.521101
8.550000	-12.091724	4.281347	-0.947856	-85.544464	-0.947856	-85.544464	-12.098643	3.470698
8.600000	-11.964872	1.220531	-0.964488	-88.767031	-0.964488	-88.767031	-11.972213	0.395009
8.650000	-11.832662	-1.867935	-0.982192	-92.011323	-0.982192	-92.011323	-11.840423	-2.707240
8.700000	-11.694561	-4.986575	-1.001103	-95.278874	-1.001103	-95.278874	-11.702733	-5.838477
8.750000	-11.550411	-8.136702	-1.021310	-98.570286	-1.021310	-98.570286	-11.558978	-8.999976
8.800000	-11.399871	-11.320512	-1.042951	-101.886854	-1.042951	-101.886854	-11.408812	-12.193872
8.850000	-11.242833	-14.539514	-1.066145	-105.229385	-1.066145	-105.229385	-11.252118	-15.421648
8.900000	-11.079140	-17.795575	-1.091037	-108.598992	-1.091037	-108.598992	-11.088737	-18.685144
8.950000	-10.908685	-21.090573	-1.117792	-111.996833	-1.117792	-111.996833	-10.918550	-21.986219
9.000000	-10.731402	-24.426381	-1.146591	-115.424102	-1.146591	-115.424102	-10.741491	-25.326739
9.050000	-10.547277	-27.804853	-1.177633	-118.882020	-1.177633	-118.882020	-10.557538	-28.708563
9.100000	-10.355921	-31.229575	-1.211241	-122.373087	-1.211241	-122.373087	-10.366296	-32.135240
9.150000	-10.158192	-34.699125	-1.247489	-125.896252	-1.247489	-125.896252	-10.168627	-35.605465
9.200000	-9.954135	-38.215522	-1.286651	-129.452960	-1.286651	-129.452960	-9.964571	-39.121275
9.250000	-9.743289	-41.783205	-1.329195	-133.046415	-1.329195	-133.046415	-9.753665	-42.687074
9.300000	-9.526272	-45.402079	-1.375343	-136.676603	-1.375343	-136.676603	-9.536532	-46.302855
9.350000	-9.303378	-49.073564	-1.425441	-140.344613	-1.425441	-140.344613	-9.313466	-49.970080
9.400000	-9.074947	-52.798944	-1.479854	-144.051464	-1.479854	-144.051464	-9.084815	-53.690079
9.450000	-8.841371	-56.579351	-1.538973	-147.798093	-1.538973	-147.798093	-8.850978	-57.464025
9.500000	-8.603095	-60.415743	-1.603211	-151.585345	-1.603211	-151.585345	-8.612405	-61.292910
9.550000	-8.360607	-64.308883	-1.673003	-155.413967	-1.673003	-155.413967	-8.369595	-65.177521
9.600000	-8.114397	-68.259591	-1.748834	-159.284808	-1.748834	-159.284808	-8.123049	-69.118688
9.650000	-7.865007	-72.268444	-1.831216	-163.198615	-1.831216	-163.198615	-7.873317	-73.116980
9.700000	-7.613168	-76.334901	-1.920596	-167.155399	-1.920596	-167.155399	-7.621143	-77.171846
9.750000	-7.359548	-80.458674	-2.017496	-171.155457	-2.017496	-171.155457	-7.367203	-81.282959
9.800000	-7.104849	-84.639149	-2.122457	-175.198964	-2.122457	-175.198964	-7.112207	-85.449646
9.850000	-6.849803	-88.875357	-2.236046	-179.285967	-2.236046	-179.285967	-6.856895	-89.670857
9.900000	-6.595169	-93.165944	-2.358851	176.583624	-2.358851	176.583624	-6.602028	-93.945141
9.950000	-6.341722	-97.509155	-2.491489	172.410045	-2.491489	172.410045	-6.348382	-98.270622
10.000000	-6.090250	-101.902804	-2.634600	168.193690	-2.634600	168.193690	-6.096738	-102.644984
