! freq	dB(S11)	phase(S11)	dB(S12)	phase(S12)	
!     	dB(S21)	phase(S21)	dB(S22)	phase(S22)	
!S-par simulation data
#  GHz  S  DB  R 50
0.000000	-0.000000	-0.000000	-397.320175	180.000000	-397.320175	180.000000	-0.000000	-0.000000
0.050000	-0.000108	-0.855019	-116.182798	85.902935	-116.182798	85.902935	-0.000101	-0.760159
0.100000	-0.000428	-1.709778	-110.600763	84.149143	-110.600763	84.149143	-0.000400	-1.520066
0.150000	-0.000946	-2.564035	-107.436152	83.653919	-107.436152	83.653919	-0.000883	-2.279490
0.200000	-0.001642	-3.417592	-105.224722	83.483627	-105.224722	83.483627	-0.001529	-3.038245
0.250000	-0.002502	-4.270223	-103.556510	83.357675	-103.556510	83.357675	-0.002322	-3.796128
0.300000	-0.003487	-5.121888	-102.246153	83.230792	-102.246153	83.230792	-0.003223	-4.553116
0.350000	-0.004576	-5.972470	-101.205121	83.124943	-101.205121	83.124943	-0.004213	-5.309115
0.400000	-0.005746	-6.821923	-100.378928	83.078450	-100.378928	83.078450	-0.005269	-6.064102
0.450000	-0.006974	-7.670233	-99.733567	83.137237	-99.733567	83.137237	-0.006370	-6.818083
0.500000	-0.008241	-8.517409	-99.247384	83.354638	-99.247384	83.354638	-0.007498	-7.571082
0.550000	-0.009531	-9.363474	-98.906829	83.795285	-98.906829	83.795285	-0.008641	-8.323138
0.600000	-0.010830	-10.208463	-98.703968	84.541527	-98.703968	84.541527	-0.009787	-9.074292
0.650000	-0.012129	-11.052414	-98.634758	85.702840	-98.634758	85.702840	-0.010929	-9.824588
0.700000	-0.013421	-11.895364	-98.697348	87.429536	-98.697348	87.429536	-0.012061	-10.574066
0.750000	-0.014701	-12.737348	-98.889589	89.932425	-98.889589	89.932425	-0.013181	-11.322763
0.800000	-0.015965	-13.578397	-99.204254	93.508716	-99.204254	93.508716	-0.014287	-12.070708
0.850000	-0.017212	-14.418536	-99.619280	98.567038	-99.619280	98.567038	-0.015377	-12.817923
0.900000	-0.018441	-15.257784	-100.078999	105.619342	-100.078999	105.619342	-0.016452	-13.564427
0.950000	-0.019652	-16.096154	-100.465539	115.151557	-100.465539	115.151557	-0.017513	-14.310232
1.000000	-0.020846	-16.933654	-100.580911	127.248264	-100.580911	127.248264	-0.018560	-15.055343
1.050000	-0.022023	-17.770287	-100.201347	141.050144	-100.201347	141.050144	-0.019595	-15.799763
1.100000	-0.023185	-18.606052	-99.232080	154.691498	-99.232080	154.691498	-0.020618	-16.543490
1.150000	-0.024334	-19.440943	-97.799782	166.344080	-97.799782	166.344080	-0.021631	-17.286519
1.200000	-0.025469	-20.274951	-96.134687	175.288655	-96.134687	175.288655	-0.022635	-18.028844
1.250000	-0.026594	-21.108067	-94.418457	-178.236996	-94.418457	-178.236996	-0.023631	-18.770455
1.300000	-0.027708	-21.940236	-92.738711	-173.739486	-92.738711	-173.739486	-0.024619	-19.511308
1.350000	-0.028814	-22.771482	-91.148243	-170.612288	-91.148243	-170.612288	-0.025602	-20.251422
1.400000	-0.029913	-23.601790	-89.655724	-168.483512	-89.655724	-168.483512	-0.026580	-20.990784
1.450000	-0.031005	-24.431140	-88.258060	-167.088765	-88.258060	-167.088765	-0.027553	-21.729379
1.500000	-0.032091	-25.259515	-86.947820	-166.241991	-86.947820	-166.241991	-0.028523	-22.467192
1.550000	-0.033173	-26.086895	-85.716508	-165.811478	-85.716508	-165.811478	-0.029489	-23.204209
1.600000	-0.034251	-26.913262	-84.555911	-165.702741	-84.555911	-165.702741	-0.030453	-23.940414
1.650000	-0.035326	-27.738597	-83.458584	-165.846890	-83.458584	-165.846890	-0.031415	-24.675790
1.700000	-0.036399	-28.562503	-82.394359	-166.245255	-82.394359	-166.245255	-0.032374	-25.410022
1.750000	-0.037470	-29.385853	-81.415175	-166.734874	-81.415175	-166.734874	-0.033334	-26.143809
1.800000	-0.038540	-30.207864	-80.467557	-167.376158	-80.467557	-167.376158	-0.034292	-26.876523
1.850000	-0.039609	-31.028919	-79.569667	-168.125775	-79.569667	-168.125775	-0.035250	-27.608470
1.900000	-0.040678	-31.848785	-78.706670	-168.964874	-78.706670	-168.964874	-0.036207	-28.339464
1.950000	-0.041747	-32.667461	-77.876933	-169.893454	-77.876933	-169.893454	-0.037165	-29.069505
2.000000	-0.042816	-33.485112	-77.084193	-170.875420	-77.084193	-170.875420	-0.038124	-29.798723
2.050000	-0.043887	-34.301327	-76.312418	-171.932129	-76.312418	-171.932129	-0.039083	-30.526791
2.100000	-0.044959	-35.116912	-75.585241	-173.013593	-75.585241	-173.013593	-0.040043	-31.254352
2.150000	-0.046032	-35.930857	-74.870151	-174.156491	-74.870151	-174.156491	-0.041005	-31.980598
2.200000	-0.047108	-36.743563	-74.178585	-175.337267	-74.178585	-175.337267	-0.041969	-32.705848
2.250000	-0.048187	-37.555012	-73.508978	-176.551369	-73.508978	-176.551369	-0.042934	-33.430089
2.300000	-0.049268	-38.365189	-72.859925	-177.794933	-72.859925	-177.794933	-0.043902	-34.153307
2.350000	-0.050353	-39.174077	-72.230158	-179.064655	-72.230158	-179.064655	-0.044873	-34.875487
2.400000	-0.051441	-39.981660	-71.618529	179.642305	-71.618529	179.642305	-0.045846	-35.596616
2.450000	-0.052533	-40.787924	-71.023996	178.328405	-71.023996	178.328405	-0.046823	-36.316682
2.500000	-0.053629	-41.592852	-70.445609	176.995780	-70.445609	176.995780	-0.047803	-37.035670
2.550000	-0.054730	-42.396373	-69.881582	175.645642	-69.881582	175.645642	-0.048788	-37.753521
2.600000	-0.055836	-43.198528	-69.332128	174.280415	-69.332128	174.280415	-0.049776	-38.470267
2.650000	-0.056948	-43.999306	-68.796505	172.901520	-68.796505	172.901520	-0.050770	-39.185898
2.700000	-0.058065	-44.798694	-68.274032	171.510219	-68.274032	171.510219	-0.051767	-39.900401
2.750000	-0.059188	-45.596677	-67.764077	170.107633	-67.764077	170.107633	-0.052771	-40.613765
2.800000	-0.060318	-46.393245	-67.266060	168.694764	-67.266060	168.694764	-0.053779	-41.325977
2.850000	-0.061455	-47.188385	-66.779437	167.272511	-66.779437	167.272511	-0.054794	-42.037027
2.900000	-0.062599	-47.982086	-66.303709	165.841680	-66.303709	165.841680	-0.055815	-42.746903
2.950000	-0.063750	-48.774338	-65.838405	164.403000	-65.838405	164.403000	-0.056842	-43.455596
3.000000	-0.064910	-49.565130	-65.383091	162.957128	-65.383091	162.957128	-0.057876	-44.163093
3.050000	-0.066078	-50.354452	-64.937357	161.504662	-64.937357	161.504662	-0.058917	-44.869386
3.100000	-0.067255	-51.142294	-64.500822	160.046142	-64.500822	160.046142	-0.059966	-45.574464
3.150000	-0.068441	-51.928647	-64.073127	158.582064	-64.073127	158.582064	-0.061023	-46.278318
3.200000	-0.069636	-52.713503	-63.653937	157.112879	-63.653937	157.112879	-0.062089	-46.980939
3.250000	-0.070842	-53.496854	-63.242934	155.639000	-63.242934	155.639000	-0.063162	-47.682316
3.300000	-0.072058	-54.278691	-62.839821	154.160806	-62.839821	154.160806	-0.064245	-48.382443
3.350000	-0.073287	-55.058741	-62.442511	152.678050	-62.442511	152.678050	-0.065339	-49.081088
3.400000	-0.074528	-55.837198	-62.052270	151.191498	-62.052270	151.191498	-0.066443	-49.778409
3.450000	-0.075775	-56.614852	-61.673827	149.703307	-61.673827	149.703307	-0.067553	-50.475062
3.500000	-0.077041	-57.390098	-61.296863	148.210201	-61.296863	148.210201	-0.068679	-51.169709
3.550000	-0.078311	-58.164805	-60.932496	146.716183	-60.932496	146.716183	-0.069808	-51.863905
3.600000	-0.079604	-58.936818	-60.568009	145.217602	-60.568009	145.217602	-0.070957	-52.555845
3.650000	-0.080899	-59.708559	-60.216769	143.718642	-60.216769	143.718642	-0.072108	-53.247558
3.700000	-0.082221	-60.477320	-59.864034	142.215510	-59.864034	142.215510	-0.073282	-53.936764
3.750000	-0.083543	-61.246080	-59.525066	140.712379	-59.525066	140.712379	-0.074456	-54.625970
3.800000	-0.084895	-62.011572	-59.183425	139.205493	-59.183425	139.205493	-0.075656	-55.312415
3.850000	-0.086248	-62.777065	-58.854714	137.698607	-58.854714	137.698607	-0.076856	-55.998861
3.900000	-0.087630	-63.539552	-58.524808	136.188912	-58.524808	136.188912	-0.078082	-56.682755
3.950000	-0.089015	-64.301766	-58.205821	134.678962	-58.205821	134.678962	-0.079310	-57.366417
4.000000	-0.090429	-65.061243	-57.886935	133.166958	-57.886935	133.166958	-0.080563	-58.047742
4.050000	-0.091849	-65.820172	-57.577181	131.654544	-57.577181	131.654544	-0.081821	-58.728601
4.100000	-0.093296	-66.576634	-57.268662	130.140676	-57.268662	130.140676	-0.083102	-59.407343
4.150000	-0.094752	-67.332275	-56.967690	128.626324	-56.967690	128.626324	-0.084391	-60.085380
4.200000	-0.096233	-68.085725	-56.668943	127.110988	-56.668943	127.110988	-0.085702	-60.761527
4.250000	-0.097728	-68.838079	-56.376335	125.595160	-56.376335	125.595160	-0.087024	-61.436729
4.300000	-0.099245	-69.588518	-56.086819	124.078709	-56.086819	124.078709	-0.088366	-62.110269
4.350000	-0.100780	-70.337591	-55.802188	122.561814	-55.802188	122.561814	-0.089722	-62.782624
4.400000	-0.102336	-71.085027	-55.521403	121.044566	-55.521403	121.044566	-0.091097	-63.453549
4.450000	-0.103912	-71.830827	-55.244390	119.526965	-55.244390	119.526965	-0.092490	-64.123047
4.500000	-0.105507	-72.575268	-54.971879	118.009205	-54.971879	118.009205	-0.093898	-64.791352
4.550000	-0.107128	-73.317809	-54.702149	116.491221	-54.702149	116.491221	-0.095328	-65.457986
4.600000	-0.108764	-74.059268	-54.437489	114.973206	-54.437489	114.973206	-0.096772	-66.123665
4.650000	-0.110431	-74.798566	-54.174730	113.455127	-54.174730	113.455127	-0.098242	-66.787433
4.700000	-0.112110	-75.537058	-53.917533	111.937088	-53.917533	111.937088	-0.099722	-67.450484
4.750000	-0.113824	-76.273133	-53.661454	110.419172	-53.661454	110.419172	-0.101233	-68.111384
4.800000	-0.115547	-77.008675	-53.411357	108.901322	-53.411357	108.901322	-0.102751	-68.771806
4.850000	-0.117311	-77.741553	-53.161687	107.383801	-53.161687	107.383801	-0.104305	-69.429840
4.900000	-0.119080	-78.474166	-52.918356	105.866330	-52.918356	105.866330	-0.105862	-70.087636
4.950000	-0.120895	-79.203873	-52.674839	104.349415	-52.674839	104.349415	-0.107460	-70.742808
5.000000	-0.122711	-79.933580	-52.437963	102.832499	-52.437963	102.832499	-0.109059	-71.397979
5.050000	-0.124581	-80.660149	-52.200359	101.316379	-52.200359	101.316379	-0.110703	-72.050296
5.100000	-0.126450	-81.386717	-51.969082	99.800259	-51.969082	99.800259	-0.112347	-72.702612
5.150000	-0.128370	-82.110440	-51.737733	98.285027	-51.737733	98.285027	-0.114035	-73.352320
5.200000	-0.130295	-82.833905	-51.511848	96.769876	-51.511848	96.769876	-0.115727	-74.001790
5.250000	-0.132267	-83.554814	-51.286478	95.255664	-51.286478	95.255664	-0.117461	-74.648898
5.300000	-0.134249	-84.275213	-51.065792	93.741640	-51.065792	93.741640	-0.119202	-75.295534
5.350000	-0.136275	-84.993344	-50.846143	92.228570	-50.846143	92.228570	-0.120982	-75.940054
5.400000	-0.138316	-85.710719	-50.630471	90.715819	-50.630471	90.715819	-0.122775	-76.583868
5.450000	-0.140398	-86.426107	-50.416303	89.204004	-50.416303	89.204004	-0.124603	-77.225813
5.500000	-0.142500	-87.140503	-50.205472	87.692659	-50.205472	87.692659	-0.126448	-77.866824
5.550000	-0.144639	-87.853188	-49.996559	86.182205	-49.996559	86.182205	-0.128326	-78.506209
5.600000	-0.146803	-88.564653	-49.790405	84.672389	-49.790405	84.672389	-0.130226	-79.144433
5.650000	-0.149001	-89.274677	-49.586535	83.163394	-49.586535	83.163394	-0.132154	-79.781275
5.700000	-0.151230	-89.983261	-49.384902	81.655221	-49.384902	81.655221	-0.134110	-80.416734
5.750000	-0.153487	-90.690668	-49.185876	80.147777	-49.185876	80.147777	-0.136090	-81.051051
5.800000	-0.155783	-91.396427	-48.988616	78.641354	-48.988616	78.641354	-0.138105	-81.683767
5.850000	-0.158102	-92.101263	-48.794247	77.135548	-48.794247	77.135548	-0.140139	-82.315578
5.900000	-0.160466	-92.804252	-48.601220	75.630974	-48.601220	75.630974	-0.142213	-82.945578
5.950000	-0.162848	-93.506565	-48.411332	74.126885	-48.411332	74.126885	-0.144302	-83.574904
6.000000	-0.165283	-94.206847	-48.222403	72.624252	-48.222403	72.624252	-0.146437	-84.202214
6.050000	-0.167729	-94.906687	-48.036830	71.121957	-48.036830	71.121957	-0.148583	-84.829079
6.100000	-0.170235	-95.604323	-47.851873	69.621351	-47.851873	69.621351	-0.150781	-85.453727
6.150000	-0.172748	-96.301744	-47.670457	68.120921	-47.670457	68.120921	-0.152985	-86.078156
6.200000	-0.175328	-96.996800	-47.489350	66.622424	-47.489350	66.622424	-0.155247	-86.700173
6.250000	-0.177909	-97.691856	-47.311942	65.123927	-47.311942	65.123927	-0.157511	-87.322191
6.300000	-0.180564	-98.384401	-47.134570	63.627614	-47.134570	63.627614	-0.159840	-87.941611
6.350000	-0.183220	-99.076946	-46.960747	62.131300	-46.960747	62.131300	-0.162169	-88.561031
6.400000	-0.185947	-99.767254	-46.787281	60.637053	-46.787281	60.637053	-0.164561	-89.178103
6.450000	-0.188680	-100.457358	-46.616940	59.142994	-46.616940	59.142994	-0.166958	-89.794960
6.500000	-0.191479	-101.145490	-46.447244	57.650867	-46.447244	57.650867	-0.169414	-90.409713
6.550000	-0.194291	-101.833228	-46.280285	56.159128	-46.280285	56.159128	-0.171881	-91.024044
6.600000	-0.197164	-102.519248	-46.114231	54.669173	-46.114231	54.669173	-0.174402	-91.636509
6.650000	-0.200057	-103.204696	-45.950559	53.179813	-45.950559	53.179813	-0.176941	-92.248353
6.700000	-0.203005	-103.888669	-45.788023	51.692077	-45.788023	51.692077	-0.179528	-92.858564
6.750000	-0.205981	-104.571905	-45.627546	50.205153	-45.627546	50.205153	-0.182140	-93.467960
6.800000	-0.209005	-105.253899	-45.468413	48.719679	-45.468413	48.719679	-0.184795	-94.075951
6.850000	-0.212065	-105.935004	-45.311043	47.235242	-45.311043	47.235242	-0.187481	-94.682940
6.900000	-0.215168	-106.615087	-45.155200	45.752070	-45.155200	45.752070	-0.190206	-95.288747
6.950000	-0.218314	-107.294146	-45.000853	44.270163	-45.000853	44.270163	-0.192969	-95.893373
7.000000	-0.221496	-107.972388	-44.848195	42.789328	-44.848195	42.789328	-0.195764	-96.497033
7.050000	-0.224730	-108.649487	-44.696789	41.309994	-44.696789	41.309994	-0.198605	-97.099340
7.100000	-0.227994	-109.325962	-44.547214	39.831527	-44.547214	39.831527	-0.201473	-97.700890
7.150000	-0.231316	-110.001188	-44.398671	38.354798	-44.398671	38.354798	-0.204393	-98.300925
7.200000	-0.234662	-110.675969	-44.252082	36.878727	-44.252082	36.878727	-0.207334	-98.900404
7.250000	-0.238076	-111.349414	-44.106326	35.404632	-44.106326	35.404632	-0.210335	-99.498214
7.300000	-0.241505	-112.022578	-43.962631	33.930979	-43.962631	33.930979	-0.213351	-100.095662
7.350000	-0.245011	-112.694335	-43.819588	32.459539	-43.819588	32.459539	-0.216435	-100.691297
7.400000	-0.248526	-113.365959	-43.678700	30.988322	-43.678700	30.988322	-0.219527	-101.286755
7.450000	-0.252126	-114.036122	-43.538299	29.519553	-43.538299	29.519553	-0.222695	-101.880266
7.500000	-0.255728	-114.706286	-43.400132	28.050784	-43.400132	28.050784	-0.225864	-102.473777
7.550000	-0.259423	-115.374954	-43.262305	26.584694	-43.262305	26.584694	-0.229117	-103.065215
7.600000	-0.263120	-116.043622	-43.126632	25.118604	-43.126632	25.118604	-0.232372	-103.656653
7.650000	-0.266905	-116.711011	-42.991460	23.654970	-42.991460	23.654970	-0.235706	-104.246240
7.700000	-0.270699	-117.378283	-42.858217	22.191559	-42.858217	22.191559	-0.239048	-104.835659
7.750000	-0.274574	-118.044478	-42.725621	20.730375	-42.725621	20.730375	-0.242463	-105.423441
7.800000	-0.278467	-118.710457	-42.594750	19.269636	-42.594750	19.269636	-0.245893	-106.010896
7.850000	-0.282434	-119.375544	-42.464654	17.810889	-42.464654	17.810889	-0.249390	-106.596919
7.900000	-0.286426	-120.040333	-42.336095	16.352806	-42.336095	16.352806	-0.252911	-107.182466
7.950000	-0.290486	-120.704401	-42.208427	14.896478	-42.208427	14.896478	-0.256491	-107.766778
8.000000	-0.294580	-121.368108	-42.082124	13.441027	-42.082124	13.441027	-0.260103	-108.350474
8.050000	-0.298734	-122.031247	-41.956815	11.987091	-41.956815	11.987091	-0.263768	-108.933124
8.100000	-0.302931	-122.693980	-41.832714	10.534239	-41.832714	10.534239	-0.267473	-109.515027
8.150000	-0.307180	-123.356282	-41.709698	9.082664	-41.709698	9.082664	-0.271224	-110.096065
8.200000	-0.311481	-124.018152	-41.587746	7.632367	-41.587746	7.632367	-0.275022	-110.676236
8.250000	-0.315826	-124.679710	-41.466960	6.183114	-41.466960	6.183114	-0.278860	-111.255711
8.300000	-0.320232	-125.340831	-41.347109	4.735320	-41.347109	4.735320	-0.282753	-111.834211
8.350000	-0.324674	-126.001741	-41.228492	3.288340	-41.228492	3.288340	-0.286679	-112.412175
8.400000	-0.329187	-126.662228	-41.110692	1.842988	-41.110692	1.842988	-0.290668	-112.989067
8.450000	-0.333728	-127.322586	-40.994188	0.398228	-40.994188	0.398228	-0.294683	-113.565573
8.500000	-0.338348	-127.982558	-40.878394	-1.044755	-40.878394	-1.044755	-0.298769	-114.140921
8.550000	-0.342988	-128.642463	-40.763948	-2.487358	-40.763948	-2.487358	-0.302874	-114.716022
8.600000	-0.347717	-129.302040	-40.650117	-3.928055	-40.650117	-3.928055	-0.307059	-115.289889
8.650000	-0.352457	-129.961593	-40.537676	-5.368569	-40.537676	-5.368569	-0.311254	-115.863640
8.700000	-0.357295	-130.620897	-40.425768	-6.807072	-40.425768	-6.807072	-0.315538	-116.436094
8.750000	-0.362136	-131.280201	-40.315283	-8.245575	-40.315283	-8.245575	-0.319825	-117.008549
8.800000	-0.367085	-131.939357	-40.205258	-9.681987	-40.205258	-9.681987	-0.324209	-117.579658
8.850000	-0.372037	-132.598513	-40.096610	-11.118399	-40.096610	-11.118399	-0.328596	-118.150767
8.900000	-0.377088	-133.257651	-39.988507	-12.552999	-39.988507	-12.552999	-0.333074	-118.720706
8.950000	-0.382152	-133.916788	-39.881662	-13.987433	-39.881662	-13.987433	-0.337562	-119.290539
9.000000	-0.387306	-134.576017	-39.775438	-15.420322	-39.775438	-15.420322	-0.342133	-119.859366
9.050000	-0.392482	-135.235264	-39.670363	-16.852901	-39.670363	-16.852901	-0.346723	-120.427992
9.100000	-0.397740	-135.894694	-39.565978	-18.284189	-39.565978	-18.284189	-0.351389	-120.995767
9.150000	-0.403028	-136.554184	-39.462646	-19.715046	-39.462646	-19.715046	-0.356082	-121.563258
9.200000	-0.408391	-137.213927	-39.360064	-21.144849	-39.360064	-21.144849	-0.360843	-122.130041
9.250000	-0.413793	-137.873797	-39.258449	-22.574126	-39.258449	-22.574126	-0.365639	-122.696469
9.300000	-0.419260	-138.533967	-39.157635	-24.002568	-39.157635	-24.002568	-0.370495	-123.262322
9.350000	-0.424776	-139.194353	-39.057714	-25.430414	-39.057714	-25.430414	-0.375395	-123.827763
9.400000	-0.430348	-139.855068	-38.958638	-26.857625	-38.958638	-26.857625	-0.380347	-124.392747
9.450000	-0.435978	-140.516112	-38.860392	-28.284200	-38.860392	-28.284200	-0.385351	-124.957276
9.500000	-0.441656	-141.177490	-38.763027	-29.710314	-38.763027	-29.710314	-0.390399	-125.521456
9.550000	-0.447399	-141.839335	-38.666440	-31.135782	-38.666440	-31.135782	-0.395508	-126.085149
9.600000	-0.453183	-142.501497	-38.570761	-32.560940	-38.570761	-32.560940	-0.400653	-126.648589
9.650000	-0.459041	-143.164290	-38.475820	-33.985475	-38.475820	-33.985475	-0.405866	-127.211525
9.700000	-0.464930	-143.827358	-38.381806	-35.409821	-38.381806	-35.409821	-0.411108	-127.774292
9.750000	-0.470903	-144.491249	-38.288502	-36.833600	-38.288502	-36.833600	-0.416426	-128.336550
9.800000	-0.476897	-145.155349	-38.196135	-38.257284	-38.196135	-38.257284	-0.421765	-128.898709
9.850000	-0.482984	-145.820490	-38.104464	-39.680488	-38.104464	-39.680488	-0.427188	-129.460372
9.900000	-0.489083	-146.485749	-38.013729	-41.103660	-38.013729	-41.103660	-0.432624	-130.021992
9.950000	-0.495284	-147.152297	-37.923690	-42.526475	-37.923690	-42.526475	-0.438152	-130.583141
10.000000	-0.501488	-147.818845	-37.834575	-43.949289	-37.834575	-43.949289	-0.443684	-131.144291
