! freq	dB(S11)	phase(S11)	dB(S12)	phase(S12)	
!     	dB(S21)	phase(S21)	dB(S22)	phase(S22)	
!S-par simulation data
#  GHz  S  DB  R 50
0.000000	-0.000000	0.000000	-326.803059	0.000000	-326.803059	0.000000	-0.000000	0.000000
0.050000	-0.002630	-3.062756	-101.170167	89.135538	-101.170167	89.135538	-0.000506	-0.769121
0.100000	-0.007502	-6.100437	-95.406007	86.742662	-95.406007	86.742662	-0.001670	-1.534234
0.150000	-0.011951	-9.119605	-91.910884	84.430464	-91.910884	84.430464	-0.002950	-2.295158
0.200000	-0.015849	-12.127662	-89.489141	82.547865	-89.489141	82.547865	-0.004109	-3.053572
0.250000	-0.019508	-15.125544	-87.669879	80.750114	-87.669879	80.750114	-0.005124	-3.810742
0.300000	-0.023129	-18.111916	-86.241232	79.006922	-86.241232	79.006922	-0.006042	-4.567376
0.350000	-0.026781	-21.085457	-85.088763	77.320572	-85.088763	77.320572	-0.006917	-5.323781
0.400000	-0.030469	-24.044413	-84.147549	75.702040	-84.147549	75.702040	-0.007783	-6.080054
0.450000	-0.034172	-26.986426	-83.380006	74.169310	-83.380006	74.169310	-0.008662	-6.836210
0.500000	-0.037861	-29.910865	-82.754119	72.735059	-82.754119	72.735059	-0.009564	-7.592244
0.550000	-0.041512	-32.816440	-82.250969	71.418620	-82.250969	71.418620	-0.010491	-8.348127
0.600000	-0.045097	-35.700938	-81.861441	70.251183	-81.861441	70.251183	-0.011442	-9.103814
0.650000	-0.048604	-38.563908	-81.573084	69.258041	-81.573084	69.258041	-0.012410	-9.859258
0.700000	-0.052022	-41.404511	-81.378547	68.473596	-81.378547	68.473596	-0.013389	-10.614402
0.750000	-0.055339	-44.221012	-81.276096	67.952293	-81.276096	67.952293	-0.014370	-11.369160
0.800000	-0.058551	-47.012488	-81.262376	67.755761	-81.262376	67.755761	-0.015349	-12.123452
0.850000	-0.061657	-49.778351	-81.333818	67.959394	-81.333818	67.959394	-0.016321	-12.877200
0.900000	-0.064655	-52.517857	-81.487366	68.663900	-81.487366	68.663900	-0.017285	-13.630329
0.950000	-0.067546	-55.230162	-81.718623	70.003098	-81.718623	70.003098	-0.018241	-14.382771
1.000000	-0.070329	-57.914601	-82.018332	72.146405	-82.018332	72.146405	-0.019189	-15.134470
1.050000	-0.073007	-60.570582	-82.368430	75.302230	-82.368430	75.302230	-0.020132	-15.885383
1.100000	-0.075581	-63.197595	-82.735508	79.704833	-82.735508	79.704833	-0.021072	-16.635478
1.150000	-0.078053	-65.795207	-83.062734	85.565368	-83.062734	85.565368	-0.022011	-17.384731
1.200000	-0.080426	-68.363063	-83.265042	92.961543	-83.265042	92.961543	-0.022950	-18.133127
1.250000	-0.082703	-70.900882	-83.239169	101.672080	-83.239169	101.672080	-0.023891	-18.880654
1.300000	-0.084883	-73.407797	-82.891356	111.058563	-82.891356	111.058563	-0.024834	-19.627284
1.350000	-0.086974	-75.884330	-82.209180	120.180386	-82.209180	120.180386	-0.025780	-20.373032
1.400000	-0.088979	-78.330420	-81.252287	128.251457	-81.252287	128.251457	-0.026729	-21.117890
1.450000	-0.090900	-80.746066	-80.119679	134.870127	-80.119679	134.870127	-0.027680	-21.861854
1.500000	-0.092744	-83.131332	-78.904695	139.999445	-78.904695	139.999445	-0.028635	-22.604918
1.550000	-0.094512	-85.486337	-77.673915	143.807135	-77.673915	143.807135	-0.029591	-23.347077
1.600000	-0.096211	-87.811253	-76.467131	146.525431	-76.467131	146.525431	-0.030550	-24.088325
1.650000	-0.097844	-90.106302	-75.304951	148.376756	-75.304951	148.376756	-0.031510	-24.828653
1.700000	-0.099416	-92.371752	-74.196232	149.547461	-74.196232	149.547461	-0.032472	-25.568055
1.750000	-0.100931	-94.607912	-73.143263	150.184859	-73.143263	150.184859	-0.033434	-26.306523
1.800000	-0.102394	-96.815129	-72.144904	150.402605	-72.144904	150.402605	-0.034398	-27.044049
1.850000	-0.103809	-98.993783	-71.198375	150.287734	-71.198375	150.287734	-0.035363	-27.780622
1.900000	-0.105181	-101.143987	-70.299757	149.904683	-70.299757	149.904683	-0.036328	-28.516223
1.950000	-0.106513	-103.266194	-69.445605	149.306259	-69.445605	149.306259	-0.037294	-29.250842
2.000000	-0.107811	-105.361175	-68.632902	148.534743	-68.632902	148.534743	-0.038260	-29.984479
2.050000	-0.109078	-107.429416	-67.858328	147.621124	-67.858328	147.621124	-0.039227	-30.717123
2.100000	-0.110318	-109.471417	-67.118849	146.589997	-67.118849	146.589997	-0.040195	-31.448763
2.150000	-0.111535	-111.487697	-66.411714	145.461062	-66.411714	145.461062	-0.041165	-32.179388
2.200000	-0.112733	-113.478786	-65.734444	144.250230	-65.734444	144.250230	-0.042135	-32.908988
2.250000	-0.113914	-115.445222	-65.084811	142.970463	-65.084811	142.970463	-0.043107	-33.637550
2.300000	-0.115082	-117.387553	-64.460811	141.632399	-64.460811	141.632399	-0.044080	-34.365064
2.350000	-0.116239	-119.306332	-63.860641	140.244835	-63.860641	140.244835	-0.045055	-35.091517
2.400000	-0.117389	-121.202114	-63.282681	138.815096	-63.282681	138.815096	-0.046033	-35.816898
2.450000	-0.118533	-123.075460	-62.725463	137.349318	-62.725463	137.349318	-0.047013	-36.541196
2.500000	-0.119674	-124.926928	-62.187665	135.852676	-62.187665	135.852676	-0.047996	-37.264399
2.550000	-0.120815	-126.756625	-61.667804	134.329068	-61.667804	134.329068	-0.048983	-37.986471
2.600000	-0.121956	-128.565584	-61.165111	132.782861	-61.165111	132.782861	-0.049973	-38.707424
2.650000	-0.123100	-130.354357	-60.678586	131.217229	-60.678586	131.217229	-0.050967	-39.427248
2.700000	-0.124248	-132.123492	-60.207318	129.634901	-60.207318	129.634901	-0.051966	-40.145930
2.750000	-0.125403	-133.873534	-59.750470	128.038240	-59.750470	128.038240	-0.052969	-40.863461
2.800000	-0.126564	-135.605018	-59.307278	126.429300	-59.307278	126.429300	-0.053978	-41.579827
2.850000	-0.127733	-137.318475	-58.877037	124.809869	-58.877037	124.809869	-0.054992	-42.295020
2.900000	-0.128912	-139.014429	-58.459098	123.181514	-58.459098	123.181514	-0.056012	-43.009028
2.950000	-0.130101	-140.693395	-58.052863	121.545611	-58.052863	121.545611	-0.057039	-43.721841
3.000000	-0.131301	-142.355881	-57.657776	119.903372	-57.657776	119.903372	-0.058072	-44.433449
3.050000	-0.132512	-144.002386	-57.273323	118.255868	-57.273323	118.255868	-0.059112	-45.143841
3.100000	-0.133737	-145.633400	-56.899026	116.604050	-56.899026	116.604050	-0.060160	-45.853008
3.150000	-0.134976	-147.247355	-56.533648	114.948382	-56.533648	114.948382	-0.061217	-46.560764
3.200000	-0.136227	-148.848739	-56.178352	113.290452	-56.178352	113.290452	-0.062282	-47.267437
3.250000	-0.137493	-150.436060	-55.831969	111.630479	-55.831969	111.630479	-0.063355	-47.972856
3.300000	-0.138773	-152.009769	-55.494133	109.969064	-55.494133	109.969064	-0.064437	-48.677014
3.350000	-0.140068	-153.570311	-55.164506	108.306746	-55.164506	108.306746	-0.065529	-49.379900
3.400000	-0.141379	-155.118122	-54.842766	106.644009	-54.842766	106.644009	-0.066631	-50.081508
3.450000	-0.142705	-156.653627	-54.528612	104.981288	-54.528612	104.981288	-0.067743	-50.781829
3.500000	-0.144048	-158.177243	-54.221761	103.318978	-54.221761	103.318978	-0.068866	-51.480856
3.550000	-0.145407	-159.689376	-53.921946	101.657431	-53.921946	101.657431	-0.070000	-52.178581
3.600000	-0.146782	-161.190424	-53.628914	99.996967	-53.628914	99.996967	-0.071145	-52.874997
3.650000	-0.148175	-162.680778	-53.342427	98.337875	-53.342427	98.337875	-0.072302	-53.570097
3.700000	-0.149584	-164.160817	-53.062258	96.680415	-53.062258	96.680415	-0.073471	-54.263875
3.750000	-0.151011	-165.630912	-52.788193	95.024822	-52.788193	95.024822	-0.074653	-54.956325
3.800000	-0.152457	-167.091027	-52.519925	93.371407	-52.519925	93.371407	-0.075848	-55.647382
3.850000	-0.153920	-168.541947	-52.257379	91.720277	-52.257379	91.720277	-0.077057	-56.337099
3.900000	-0.155401	-169.984018	-52.000370	90.071602	-52.000370	90.071602	-0.078280	-57.025471
3.950000	-0.156900	-171.417576	-51.748723	88.425533	-51.748723	88.425533	-0.079516	-57.712493
4.000000	-0.158417	-172.842951	-51.502270	86.782207	-51.502270	86.782207	-0.080767	-58.398160
4.050000	-0.159952	-174.260464	-51.260853	85.141745	-51.260853	85.141745	-0.082033	-59.082468
4.100000	-0.161506	-175.670428	-51.024320	83.504254	-51.024320	83.504254	-0.083315	-59.765413
4.150000	-0.163079	-177.073149	-50.792525	81.869831	-50.792525	81.869831	-0.084611	-60.446992
4.200000	-0.164670	-178.468928	-50.565332	80.238561	-50.565332	80.238561	-0.085924	-61.127201
4.250000	-0.166280	-179.858056	-50.342608	78.610516	-50.342608	78.610516	-0.087253	-61.806037
4.300000	-0.167908	178.759183	-50.124227	76.985761	-50.124227	76.985761	-0.088599	-62.483497
4.350000	-0.169556	177.382508	-49.910070	75.364352	-49.910070	75.364352	-0.089962	-63.159580
4.400000	-0.171222	176.011650	-49.700022	73.746336	-49.700022	73.746336	-0.091342	-63.834283
4.450000	-0.172907	174.646341	-49.493974	72.131752	-49.493974	72.131752	-0.092740	-64.507605
4.500000	-0.174611	173.286323	-49.291820	70.520634	-49.291820	70.520634	-0.094156	-65.179543
4.550000	-0.176333	171.931343	-49.093461	68.913010	-49.093461	68.913010	-0.095591	-65.850097
4.600000	-0.178075	170.581152	-48.898801	67.308900	-48.898801	67.308900	-0.097044	-66.519267
4.650000	-0.179834	169.235511	-48.707750	65.708323	-48.707750	65.708323	-0.098517	-67.187051
4.700000	-0.181613	167.894182	-48.520219	64.111292	-48.520219	64.111292	-0.100010	-67.853450
4.750000	-0.183410	166.556936	-48.336126	62.517816	-48.336126	62.517816	-0.101523	-68.518463
4.800000	-0.185225	165.223546	-48.155391	60.927901	-48.155391	60.927901	-0.103056	-69.182090
4.850000	-0.187058	163.893794	-47.977939	59.341552	-47.977939	59.341552	-0.104609	-69.844334
4.900000	-0.188909	162.567463	-47.803697	57.758772	-47.803697	57.758772	-0.106184	-70.505193
4.950000	-0.190778	161.244345	-47.632596	56.179561	-47.632596	56.179561	-0.107781	-71.164671
5.000000	-0.192665	159.924234	-47.464571	54.603920	-47.464571	54.603920	-0.109399	-71.822768
5.050000	-0.194569	158.607043	-47.299553	53.032006	-47.299553	53.032006	-0.111041	-72.479426
5.100000	-0.196490	157.292445	-47.137492	51.463664	-47.137492	51.463664	-0.112705	-73.134707
5.150000	-0.198428	155.980250	-46.978333	49.898896	-46.978333	49.898896	-0.114393	-73.788614
5.200000	-0.200382	154.670271	-46.822020	48.337707	-46.822020	48.337707	-0.116103	-74.441150
5.250000	-0.202353	153.362326	-46.668501	46.780101	-46.668501	46.780101	-0.117838	-75.092317
5.300000	-0.204338	152.056238	-46.517728	45.226088	-46.517728	45.226088	-0.119597	-75.742119
5.350000	-0.206339	150.751832	-46.369654	43.675680	-46.369654	43.675680	-0.121381	-76.390559
5.400000	-0.208355	149.448939	-46.224234	42.128891	-46.224234	42.128891	-0.123189	-77.037641
5.450000	-0.210385	148.147392	-46.081425	40.585742	-46.081425	40.585742	-0.125023	-77.683369
5.500000	-0.212430	146.847029	-45.941187	39.046255	-45.941187	39.046255	-0.126883	-78.327747
5.550000	-0.214487	145.547692	-45.803481	37.510459	-45.803481	37.510459	-0.128769	-78.970779
5.600000	-0.216558	144.249227	-45.668271	35.978390	-45.668271	35.978390	-0.130681	-79.612471
5.650000	-0.218641	142.951482	-45.535522	34.450085	-45.535522	34.450085	-0.132620	-80.252828
5.700000	-0.220736	141.654310	-45.405200	32.925591	-45.405200	32.925591	-0.134587	-80.891854
5.750000	-0.222842	140.357567	-45.277272	31.404960	-45.277272	31.404960	-0.136581	-81.529555
5.800000	-0.224959	139.061112	-45.151709	29.888250	-45.151709	29.888250	-0.138604	-82.165937
5.850000	-0.227087	137.764809	-45.028480	28.375527	-45.028480	28.375527	-0.140655	-82.801006
5.900000	-0.229224	136.468524	-44.907556	26.866864	-44.907556	26.866864	-0.142735	-83.434768
5.950000	-0.231371	135.172126	-44.788910	25.362341	-44.788910	25.362341	-0.144844	-84.067230
6.000000	-0.233527	133.875489	-44.672515	23.862044	-44.672515	23.862044	-0.146983	-84.698397
6.050000	-0.235691	132.578488	-44.558345	22.366070	-44.558345	22.366070	-0.149152	-85.328277
6.100000	-0.237862	131.281004	-44.446373	20.874520	-44.446373	20.874520	-0.151351	-85.956877
6.150000	-0.240040	129.982919	-44.336575	19.387506	-44.336575	19.387506	-0.153581	-86.584205
6.200000	-0.242226	128.684120	-44.228925	17.905146	-44.228925	17.905146	-0.155843	-87.210267
6.250000	-0.244417	127.384494	-44.123399	16.427564	-44.123399	16.427564	-0.158136	-87.835071
6.300000	-0.246613	126.083890	-44.020010	14.955117	-44.020010	14.955117	-0.160463	-88.458572
6.350000	-0.248815	124.782238	-43.918697	13.487736	-43.918697	13.487736	-0.162822	-89.080831
6.400000	-0.251022	123.479439	-43.819434	12.025573	-43.819434	12.025573	-0.165214	-89.701859
6.450000	-0.253232	122.175394	-43.722196	10.568783	-43.722196	10.568783	-0.167639	-90.321662
6.500000	-0.255446	120.870008	-43.626958	9.117530	-43.626958	9.117530	-0.170098	-90.940250
6.550000	-0.257664	119.563192	-43.533691	7.671984	-43.533691	7.671984	-0.172591	-91.557631
6.600000	-0.259884	118.254855	-43.442370	6.232321	-43.442370	6.232321	-0.175118	-92.173815
6.650000	-0.262107	116.944913	-43.352965	4.798722	-43.352965	4.798722	-0.177680	-92.788811
6.700000	-0.264333	115.633284	-43.265449	3.371377	-43.265449	3.371377	-0.180278	-93.402629
6.750000	-0.266560	114.319889	-43.179790	1.950476	-43.179790	1.950476	-0.182911	-94.015278
6.800000	-0.268790	113.004653	-43.095959	0.536217	-43.095959	0.536217	-0.185580	-94.626767
6.850000	-0.271021	111.687504	-43.013923	-0.871198	-43.013923	-0.871198	-0.188285	-95.237108
6.900000	-0.273254	110.368372	-42.933648	-2.271565	-42.933648	-2.271565	-0.191027	-95.846309
6.950000	-0.275488	109.047192	-42.855102	-3.664677	-42.855102	-3.664677	-0.193807	-96.454382
7.000000	-0.277725	107.723901	-42.778246	-5.050322	-42.778246	-5.050322	-0.196624	-97.061337
7.050000	-0.279963	106.398440	-42.703045	-6.428288	-42.703045	-6.428288	-0.199478	-97.667185
7.100000	-0.282203	105.070754	-42.629460	-7.798363	-42.629460	-7.798363	-0.202371	-98.271936
7.150000	-0.284446	103.740789	-42.557451	-9.160331	-42.557451	-9.160331	-0.205303	-98.875601
7.200000	-0.286691	102.408497	-42.486976	-10.513977	-42.486976	-10.513977	-0.208274	-99.478192
7.250000	-0.288939	101.073832	-42.417991	-11.859089	-42.417991	-11.859089	-0.211284	-100.079721
7.300000	-0.291191	99.736753	-42.350452	-13.195453	-42.350452	-13.195453	-0.214333	-100.680197
7.350000	-0.293447	98.397219	-42.284313	-14.522856	-42.284313	-14.522856	-0.217423	-101.279634
7.400000	-0.295708	97.055198	-42.219525	-15.841091	-42.219525	-15.841091	-0.220554	-101.878043
7.450000	-0.297974	95.710656	-42.156040	-17.149950	-42.156040	-17.149950	-0.223725	-102.475435
7.500000	-0.300247	94.363567	-42.093804	-18.449230	-42.093804	-18.449230	-0.226937	-103.071823
7.550000	-0.302528	93.013793	-42.032798	-19.738297	-42.032798	-19.738297	-0.230193	-103.667178
7.600000	-0.304817	91.661425	-41.972931	-21.017372	-41.972931	-21.017372	-0.233490	-104.261554
7.650000	-0.307117	90.306447	-41.914146	-22.286267	-41.914146	-22.286267	-0.236830	-104.854964
7.700000	-0.309427	88.948846	-41.856386	-23.544796	-41.856386	-23.544796	-0.240213	-105.447421
7.750000	-0.311751	87.588614	-41.799591	-24.792782	-41.799591	-24.792782	-0.243638	-106.038939
7.800000	-0.314089	86.225747	-41.743699	-26.030050	-41.743699	-26.030050	-0.247106	-106.629529
7.850000	-0.316442	84.860242	-41.688647	-27.256435	-41.688647	-27.256435	-0.250619	-107.219205
7.900000	-0.318814	83.492104	-41.634371	-28.471778	-41.634371	-28.471778	-0.254175	-107.807981
7.950000	-0.321205	82.121338	-41.580804	-29.675926	-41.580804	-29.675926	-0.257775	-108.395869
8.000000	-0.323618	80.747957	-41.527880	-30.868735	-41.527880	-30.868735	-0.261419	-108.982884
8.050000	-0.326056	79.371975	-41.475529	-32.050065	-41.475529	-32.050065	-0.265109	-109.569040
8.100000	-0.328519	77.993411	-41.423681	-33.219789	-41.423681	-33.219789	-0.268843	-110.154349
8.150000	-0.331012	76.612288	-41.372264	-34.377783	-41.372264	-34.377783	-0.272623	-110.738826
8.200000	-0.333536	75.228633	-41.321204	-35.523933	-41.321204	-35.523933	-0.276449	-111.322485
8.250000	-0.336094	73.842478	-41.270426	-36.658134	-41.270426	-36.658134	-0.280320	-111.905340
8.300000	-0.338689	72.453857	-41.219855	-37.780286	-41.219855	-37.780286	-0.284238	-112.487407
8.350000	-0.341324	71.062811	-41.169412	-38.890302	-41.169412	-38.890302	-0.288203	-113.068699
8.400000	-0.344002	69.669382	-41.119019	-39.988097	-41.119019	-39.988097	-0.292214	-113.649231
8.450000	-0.346727	68.273619	-41.068595	-41.073599	-41.068595	-41.073599	-0.296272	-114.229017
8.500000	-0.349501	66.875573	-41.018058	-42.146741	-41.018058	-42.146741	-0.300377	-114.808074
8.550000	-0.352329	65.475301	-40.967324	-43.207465	-40.967324	-43.207465	-0.304530	-115.386416
8.600000	-0.355214	64.072862	-40.916309	-44.255722	-40.916309	-44.255722	-0.308730	-115.964057
8.650000	-0.358160	62.668321	-40.864925	-45.291467	-40.864925	-45.291467	-0.312978	-116.541015
8.700000	-0.361170	61.261747	-40.813086	-46.314665	-40.813086	-46.314665	-0.317275	-117.117304
8.750000	-0.364249	59.853211	-40.760700	-47.325289	-40.760700	-47.325289	-0.321620	-117.692939
8.800000	-0.367403	58.442712	-40.707630	-48.322769	-40.707630	-48.322769	-0.326015	-118.267910
8.850000	-0.370636	57.030416	-40.653820	-49.307637	-40.653820	-49.307637	-0.330459	-118.842261
8.900000	-0.373949	55.616410	-40.599173	-50.279887	-40.599173	-50.279887	-0.334952	-119.416009
8.950000	-0.377349	54.200780	-40.543592	-51.239518	-40.543592	-51.239518	-0.339494	-119.989168
9.000000	-0.380840	52.783622	-40.486978	-52.186535	-40.486978	-52.186535	-0.344086	-120.561757
9.050000	-0.384426	51.365030	-40.429227	-53.120949	-40.429227	-53.120949	-0.348726	-121.133791
9.100000	-0.388111	49.945106	-40.370235	-54.042777	-40.370235	-54.042777	-0.353416	-121.705287
9.150000	-0.391902	48.523955	-40.309896	-54.952040	-40.309896	-54.952040	-0.358156	-122.276262
9.200000	-0.395801	47.101683	-40.248098	-55.848765	-40.248098	-55.848765	-0.362946	-122.846733
9.250000	-0.399816	45.678403	-40.184729	-56.732982	-40.184729	-56.732982	-0.367785	-123.416717
9.300000	-0.403949	44.254229	-40.119673	-57.604727	-40.119673	-57.604727	-0.372674	-123.986231
9.350000	-0.408207	42.829280	-40.052809	-58.464040	-40.052809	-58.464040	-0.377614	-124.555294
9.400000	-0.412594	41.403677	-39.984015	-59.310962	-39.984015	-59.310962	-0.382603	-125.123921
9.450000	-0.417115	39.977545	-39.913162	-60.145541	-39.913162	-60.145541	-0.387643	-125.692132
9.500000	-0.421776	38.551012	-39.840118	-60.967827	-39.840118	-60.967827	-0.392732	-126.259944
9.550000	-0.426581	37.124208	-39.764747	-61.777870	-39.764747	-61.777870	-0.397872	-126.827375
9.600000	-0.431535	35.697267	-39.686906	-62.575725	-39.686906	-62.575725	-0.403062	-127.394444
9.650000	-0.436644	34.270326	-39.606448	-63.361450	-39.606448	-63.361450	-0.408302	-127.961169
9.700000	-0.441913	32.843523	-39.523219	-64.135103	-39.523219	-64.135103	-0.413593	-128.527568
9.750000	-0.447346	31.417000	-39.437059	-64.896743	-39.437059	-64.896743	-0.418933	-129.093660
9.800000	-0.452948	29.990901	-39.347798	-65.646432	-39.347798	-65.646432	-0.424324	-129.659464
9.850000	-0.458725	28.565371	-39.255263	-66.384230	-39.255263	-66.384230	-0.429764	-130.225000
9.900000	-0.464680	27.140558	-39.159268	-67.110201	-39.159268	-67.110201	-0.435255	-130.790286
9.950000	-0.470820	25.716612	-39.059619	-67.824407	-39.059619	-67.824407	-0.440795	-131.355342
10.000000	-0.477148	24.293684	-38.956113	-68.526909	-38.956113	-68.526909	-0.446385	-131.920187
