! freq	dB(S11)	phase(S11)	dB(S12)	phase(S12)	
!     	dB(S21)	phase(S21)	dB(S22)	phase(S22)	
!S-par simulation data
#  GHz  S  DB  R 50
0.000000	-0.000000	0.000000	-337.415022	0.000000	-337.415022	0.000000	-0.000000	0.000000
0.050000	-0.000100	-0.765622	-115.705329	82.434043	-115.705329	82.434043	-0.000085	-0.772770
0.100000	-0.000394	-1.531001	-110.505089	79.023790	-110.505089	79.023790	-0.000339	-1.545357
0.150000	-0.000876	-2.295891	-107.672170	78.334632	-107.672170	78.334632	-0.000756	-2.317572
0.200000	-0.001514	-3.060150	-105.682552	78.513091	-105.682552	78.513091	-0.001316	-3.089297
0.250000	-0.002291	-3.823616	-104.154618	78.892487	-104.154618	78.892487	-0.002007	-3.860391
0.300000	-0.003194	-4.586091	-102.948076	79.259272	-102.948076	79.259272	-0.002825	-4.630669
0.350000	-0.004179	-5.347670	-101.972670	79.595197	-101.972670	79.595197	-0.003733	-5.400183
0.400000	-0.005237	-6.108184	-101.199487	79.929812	-101.199487	79.929812	-0.004726	-6.168758
0.450000	-0.006340	-6.867725	-100.591926	80.315667	-100.591926	80.315667	-0.005781	-6.936439
0.500000	-0.007475	-7.626268	-100.137249	80.815736	-100.137249	80.815736	-0.006884	-7.703173
0.550000	-0.008625	-8.383854	-99.823994	81.503524	-99.823994	81.503524	-0.008022	-8.468965
0.600000	-0.009781	-9.140524	-99.646377	82.470015	-99.646377	82.470015	-0.009182	-9.233827
0.650000	-0.010934	-9.896318	-99.602065	83.833426	-99.602065	83.833426	-0.010353	-9.997777
0.700000	-0.012079	-10.651276	-99.690711	85.754177	-99.690711	85.754177	-0.011528	-10.760837
0.750000	-0.013211	-11.405433	-99.911525	88.456675	-99.911525	88.456675	-0.012701	-11.523031
0.800000	-0.014328	-12.158820	-100.258303	92.258550	-100.258303	92.258550	-0.013865	-12.284384
0.850000	-0.015427	-12.911337	-100.699098	98.040855	-100.699098	98.040855	-0.015016	-13.044782
0.900000	-0.016510	-13.663095	-101.180818	106.028219	-101.180818	106.028219	-0.016152	-13.804346
0.950000	-0.017585	-14.414484	-101.549399	115.357937	-101.549399	115.357937	-0.017281	-14.563508
1.000000	-0.018637	-15.164764	-101.505168	128.714717	-101.505168	128.714717	-0.018384	-15.321461
1.050000	-0.019684	-15.914800	-101.232373	142.034665	-101.232373	142.034665	-0.019483	-16.079152
1.100000	-0.020710	-16.663612	-99.936471	155.170451	-99.936471	155.170451	-0.020554	-16.835531
1.150000	-0.021734	-17.412299	-98.719286	167.849221	-98.719286	167.849221	-0.021623	-17.591779
1.200000	-0.022739	-18.159621	-96.823919	175.500813	-96.823919	175.500813	-0.022665	-18.346591
1.250000	-0.023744	-18.906943	-95.268967	-176.847595	-95.268967	-176.847595	-0.023707	-19.101403
1.300000	-0.024736	-19.653122	-93.570046	-172.471850	-93.570046	-172.471850	-0.024730	-19.855030
1.350000	-0.025722	-20.398554	-91.969008	-169.438568	-91.969008	-169.438568	-0.025741	-20.607891
1.400000	-0.026702	-21.143227	-90.470822	-167.376562	-90.470822	-167.376562	-0.026744	-21.359976
1.450000	-0.027677	-21.887125	-89.070236	-166.025914	-89.070236	-166.025914	-0.027737	-22.111274
1.500000	-0.028649	-22.630233	-87.758589	-165.205361	-87.758589	-165.205361	-0.028723	-22.861774
1.550000	-0.029617	-23.372537	-86.526681	-164.787277	-86.526681	-164.787277	-0.029703	-23.611462
1.600000	-0.030582	-24.114019	-85.365895	-164.680398	-85.365895	-164.680398	-0.030677	-24.360324
1.650000	-0.031545	-24.854665	-84.268551	-164.818306	-84.268551	-164.818306	-0.031646	-25.108346
1.700000	-0.032507	-25.594154	-83.204324	-165.202698	-83.204324	-165.202698	-0.032611	-25.855206
1.750000	-0.033468	-26.333193	-82.225130	-165.675614	-82.225130	-165.675614	-0.033575	-26.601615
1.800000	-0.034428	-27.071146	-81.277370	-166.296081	-81.277370	-166.296081	-0.034536	-27.346937
1.850000	-0.035387	-27.808323	-80.379280	-167.021941	-80.379280	-167.021941	-0.035495	-28.091481
1.900000	-0.036347	-28.544536	-79.515933	-167.835207	-79.515933	-167.835207	-0.036454	-28.835057
1.950000	-0.037307	-29.279783	-78.685740	-168.735877	-78.685740	-168.735877	-0.037412	-29.577666
2.000000	-0.038268	-30.014197	-77.892431	-169.688926	-77.892431	-169.688926	-0.038371	-30.319438
2.050000	-0.039230	-30.747446	-77.119942	-170.715305	-77.119942	-170.715305	-0.039331	-31.060041
2.100000	-0.040193	-31.480007	-76.385720	-171.772801	-76.385720	-171.772801	-0.040292	-31.799952
2.150000	-0.041158	-32.211191	-75.662950	-172.892530	-75.662950	-172.892530	-0.041255	-32.538479
2.200000	-0.042124	-32.941844	-74.979298	-174.030052	-74.979298	-174.030052	-0.042220	-33.276470
2.250000	-0.043094	-33.670899	-74.299888	-175.220947	-74.299888	-175.220947	-0.043189	-34.012853
2.300000	-0.044065	-34.399590	-73.660058	-176.421082	-73.660058	-176.421082	-0.044159	-34.748868
2.350000	-0.045041	-35.126454	-73.018866	-177.667414	-73.018866	-177.667414	-0.045135	-35.483041
2.400000	-0.046017	-35.853132	-72.417420	-178.917409	-72.417420	-178.917409	-0.046111	-36.217026
2.450000	-0.047000	-36.577746	-71.810223	179.792296	-71.810223	179.792296	-0.047096	-36.948926
2.500000	-0.047983	-37.302360	-71.242714	178.502002	-71.242714	178.502002	-0.048080	-37.680827
2.550000	-0.048974	-38.024667	-70.666000	177.176324	-70.666000	177.176324	-0.049074	-38.410394
2.600000	-0.049965	-38.746974	-70.125206	175.850647	-70.125206	175.850647	-0.050069	-39.139960
2.650000	-0.050965	-39.467115	-69.579552	174.498543	-69.579552	174.498543	-0.051073	-39.867335
2.700000	-0.051966	-40.187059	-69.063034	173.144037	-69.063034	173.144037	-0.052079	-40.594510
2.750000	-0.052977	-40.904991	-68.545271	171.769758	-68.545271	171.769758	-0.053095	-41.319646
2.800000	-0.053989	-41.622520	-68.050936	170.391525	-68.050936	170.391525	-0.054114	-42.044375
2.850000	-0.055010	-42.338201	-67.558373	168.998527	-67.558373	168.998527	-0.055142	-42.767230
2.900000	-0.056035	-43.053265	-67.084412	167.600606	-67.084412	167.600606	-0.056174	-43.489460
2.950000	-0.057069	-43.766655	-66.614743	166.191724	-66.614743	166.191724	-0.057217	-44.209993
3.000000	-0.058108	-44.479208	-66.159576	164.777361	-66.159576	164.777361	-0.058264	-44.929677
3.050000	-0.059156	-45.190269	-65.710809	163.354947	-65.710809	163.354947	-0.059321	-45.647848
3.100000	-0.060210	-45.900265	-65.273048	161.926784	-65.273048	161.926784	-0.060385	-46.364940
3.150000	-0.061273	-46.608962	-64.843450	160.492809	-64.843450	160.492809	-0.061457	-47.080715
3.200000	-0.062345	-47.316360	-64.421867	159.053023	-64.421867	159.053023	-0.062539	-47.795172
3.250000	-0.063424	-48.022659	-64.009920	157.609150	-64.009920	157.609150	-0.063628	-48.508516
3.300000	-0.064514	-48.727419	-63.603423	156.159555	-63.603423	156.159555	-0.064728	-49.220301
3.350000	-0.065611	-49.431287	-63.207787	154.707199	-63.207787	154.707199	-0.065836	-49.931182
3.400000	-0.066721	-50.133373	-62.815399	153.249322	-62.815399	153.249322	-0.066957	-50.640258
3.450000	-0.067836	-50.834782	-62.434887	151.789699	-62.434887	151.789699	-0.068083	-51.348649
3.500000	-0.068968	-51.534160	-62.055729	150.324835	-62.055729	150.324835	-0.069225	-52.054984
3.550000	-0.070104	-52.233082	-61.689282	148.858992	-61.689282	148.858992	-0.070372	-52.760857
3.600000	-0.071259	-52.929721	-61.322561	147.388252	-61.322561	147.388252	-0.071538	-53.464422
3.650000	-0.072416	-53.626130	-60.969232	145.917101	-60.969232	145.917101	-0.072706	-54.167754
3.700000	-0.073596	-54.320003	-60.614228	144.441440	-60.614228	144.441440	-0.073896	-54.868523
3.750000	-0.074777	-55.013875	-60.273166	142.965779	-60.273166	142.965779	-0.075086	-55.569292
3.800000	-0.075983	-55.704956	-59.929223	141.486028	-59.929223	141.486028	-0.076303	-56.267242
3.850000	-0.077190	-56.396036	-59.598383	140.006277	-59.598383	140.006277	-0.077519	-56.965192
3.900000	-0.078422	-57.084537	-59.266177	138.523443	-59.266177	138.523443	-0.078761	-57.660541
3.950000	-0.079657	-57.772803	-58.945028	137.040328	-58.945028	137.040328	-0.080006	-58.355653
4.000000	-0.080917	-58.458708	-58.623844	135.554943	-58.623844	135.554943	-0.081274	-59.048387
4.050000	-0.082181	-59.144140	-58.311899	134.069103	-58.311899	134.069103	-0.082548	-59.740645
4.100000	-0.083469	-59.827434	-58.001085	132.581641	-58.001085	132.581641	-0.083844	-60.430753
4.150000	-0.084765	-60.510015	-57.697894	131.093640	-57.697894	131.093640	-0.085149	-61.120143
4.200000	-0.086084	-61.190687	-57.396855	129.604532	-57.396855	129.604532	-0.086475	-61.807616
4.250000	-0.087413	-61.870404	-57.102001	128.114870	-57.102001	128.114870	-0.087812	-62.494129
4.300000	-0.088762	-62.548444	-56.810195	126.624501	-56.810195	126.624501	-0.089169	-63.178961
4.350000	-0.090126	-63.225285	-56.523292	125.133627	-56.523292	125.133627	-0.090540	-63.862590
4.400000	-0.091508	-63.900684	-56.240220	123.642348	-56.240220	123.642348	-0.091929	-64.544776
4.450000	-0.092909	-64.574642	-55.960908	122.150663	-55.960908	122.150663	-0.093336	-65.225517
4.500000	-0.094325	-65.247395	-55.686111	120.658791	-55.686111	120.658791	-0.094759	-65.905055
4.550000	-0.095763	-65.918463	-55.414057	119.166658	-55.414057	119.166658	-0.096204	-66.582909
4.600000	-0.097215	-66.588567	-55.147110	117.674484	-55.147110	117.674484	-0.097662	-67.259800
4.650000	-0.098693	-67.256743	-54.882002	116.182230	-54.882002	116.182230	-0.099146	-67.934767
4.700000	-0.100182	-67.924196	-54.622516	114.690020	-54.622516	114.690020	-0.100640	-68.609015
4.750000	-0.101701	-68.589479	-54.364061	113.197944	-54.364061	113.197944	-0.102166	-69.281101
4.800000	-0.103228	-69.254281	-54.111673	111.705943	-54.111673	111.705943	-0.103699	-69.952710
4.850000	-0.104791	-69.916675	-53.859598	110.214318	-53.859598	110.214318	-0.105267	-70.621925
4.900000	-0.106357	-70.578828	-53.613972	108.722752	-53.613972	108.722752	-0.106840	-71.290902
4.950000	-0.107964	-71.238337	-53.368021	107.231830	-53.368021	107.231830	-0.108454	-71.957256
5.000000	-0.109572	-71.897847	-53.128844	105.740908	-53.128844	105.740908	-0.110067	-72.623611
5.050000	-0.111226	-72.554479	-52.888776	104.250921	-52.888776	104.250921	-0.111728	-73.287120
5.100000	-0.112880	-73.211112	-52.655165	102.760934	-52.655165	102.760934	-0.113389	-73.950630
5.150000	-0.114578	-73.865117	-52.421345	101.272003	-52.421345	101.272003	-0.115094	-74.611546
5.200000	-0.116280	-74.518883	-52.193094	99.783169	-52.193094	99.783169	-0.116803	-75.272227
5.250000	-0.118024	-75.170271	-51.965242	98.295464	-51.965242	98.295464	-0.118555	-75.930569
5.300000	-0.119776	-75.821183	-51.742154	96.807985	-51.742154	96.807985	-0.120315	-76.588443
5.350000	-0.121566	-76.469967	-51.520013	95.321666	-51.520013	95.321666	-0.122114	-77.244229
5.400000	-0.123370	-77.118041	-51.301903	93.835735	-51.301903	93.835735	-0.123927	-77.899320
5.450000	-0.125209	-77.764235	-51.085229	92.350958	-51.085229	92.350958	-0.125776	-78.552572
5.500000	-0.127065	-78.409488	-50.871922	90.866758	-50.871922	90.866758	-0.127643	-79.204906
5.550000	-0.128954	-79.053107	-50.660487	89.383671	-50.660487	89.383671	-0.129543	-79.855649
5.600000	-0.130866	-79.695559	-50.451817	87.901379	-50.451817	87.901379	-0.131466	-80.505257
5.650000	-0.132806	-80.336622	-50.245409	86.420128	-50.245409	86.420128	-0.133419	-81.153517
5.700000	-0.134774	-80.976295	-50.041219	84.939916	-50.041219	84.939916	-0.135401	-81.800432
5.750000	-0.136766	-81.614821	-49.839636	83.460643	-49.839636	83.460643	-0.137408	-82.446239
5.800000	-0.138793	-82.251740	-49.639776	81.982681	-49.639776	81.982681	-0.139450	-83.090498
5.850000	-0.140839	-82.887750	-49.442830	80.505526	-49.442830	80.505526	-0.141513	-83.733884
5.900000	-0.142926	-83.521941	-49.247158	79.029983	-49.247158	79.029983	-0.143617	-84.375526
5.950000	-0.145028	-84.155457	-49.054672	77.555088	-49.054672	77.555088	-0.145738	-85.016526
6.000000	-0.147176	-84.786949	-48.863053	76.082134	-48.863053	76.082134	-0.147906	-85.655597
6.050000	-0.149335	-85.417997	-48.674858	74.609642	-48.674858	74.609642	-0.150086	-86.294247
6.100000	-0.151546	-86.046820	-48.487165	73.139452	-48.487165	73.139452	-0.152320	-86.930794
6.150000	-0.153763	-86.675424	-48.303103	71.669508	-48.303103	71.669508	-0.154560	-87.567135
6.200000	-0.156039	-87.301612	-48.119211	70.202264	-48.119211	70.202264	-0.156863	-88.201211
6.250000	-0.158316	-87.927800	-47.939133	68.735019	-47.939133	68.735019	-0.159165	-88.835287
6.300000	-0.160659	-88.551386	-47.758927	67.270910	-47.758927	67.270910	-0.161537	-89.466949
6.350000	-0.163003	-89.174973	-47.582383	65.806801	-47.582383	65.806801	-0.163910	-90.098610
6.400000	-0.165408	-89.796209	-47.406057	64.345752	-47.406057	64.345752	-0.166347	-90.728115
6.450000	-0.167820	-90.417231	-47.232944	62.884982	-47.232944	62.884982	-0.168792	-91.357425
6.500000	-0.170290	-91.036148	-47.060360	61.427177	-47.060360	61.427177	-0.171296	-91.984830
6.550000	-0.172771	-91.654644	-46.890578	59.969964	-46.890578	59.969964	-0.173814	-92.611855
6.600000	-0.175306	-92.271276	-46.721606	58.515602	-46.721606	58.515602	-0.176388	-93.237221
6.650000	-0.177860	-92.887286	-46.555058	57.062189	-46.555058	57.062189	-0.178981	-93.862035
6.700000	-0.180462	-93.501667	-46.389574	55.611488	-46.389574	55.611488	-0.181626	-94.485430
6.750000	-0.183088	-94.115234	-46.226167	54.162142	-46.226167	54.162142	-0.184296	-95.108115
6.800000	-0.185758	-94.727400	-46.064052	52.715345	-46.064052	52.715345	-0.187012	-95.729610
6.850000	-0.188460	-95.338566	-45.903697	51.270369	-45.903697	51.270369	-0.189762	-96.350255
6.900000	-0.191199	-95.948554	-45.744838	49.827749	-45.744838	49.827749	-0.192552	-96.969930
6.950000	-0.193977	-96.557365	-45.587447	48.387486	-45.587447	48.387486	-0.195383	-97.588636
7.000000	-0.196788	-97.165215	-45.431736	46.949352	-45.431736	46.949352	-0.198249	-98.206580
7.050000	-0.199644	-97.771718	-45.277224	45.514201	-45.277224	45.514201	-0.201163	-98.823457
7.100000	-0.202526	-98.377468	-45.124555	44.080909	-45.124555	44.080909	-0.204106	-99.439767
7.150000	-0.205462	-98.981711	-44.972839	42.651336	-44.972839	42.651336	-0.207105	-100.054942
7.200000	-0.208418	-99.585403	-44.823111	41.223295	-44.823111	41.223295	-0.210127	-100.669727
7.250000	-0.211434	-100.187437	-44.674107	39.799853	-44.674107	39.799853	-0.213214	-101.283343
7.300000	-0.214465	-100.789111	-44.527222	38.377545	-44.527222	38.377545	-0.216317	-101.896727
7.350000	-0.217565	-101.388987	-44.380845	36.960900	-44.380845	36.960900	-0.219495	-102.508949
7.400000	-0.220672	-101.988688	-44.236706	35.544890	-44.236706	35.544890	-0.222681	-103.121072
7.450000	-0.223855	-102.586460	-44.092873	34.135854	-44.092873	34.135854	-0.225953	-103.732094
7.500000	-0.227040	-103.184231	-43.951382	32.726818	-43.951382	32.726818	-0.229225	-104.343117
7.550000	-0.230309	-103.779951	-43.810002	31.326393	-43.810002	31.326393	-0.232593	-104.953168
7.600000	-0.233579	-104.375672	-43.670887	29.925969	-43.670887	29.925969	-0.235963	-105.563220
7.650000	-0.236928	-104.969564	-43.532042	28.534592	-43.532042	28.534592	-0.239425	-106.172634
7.700000	-0.240285	-105.563289	-43.395209	27.144038	-43.395209	27.144038	-0.242896	-106.781991
7.750000	-0.243716	-106.155400	-43.258783	25.763047	-43.258783	25.763047	-0.246457	-107.391052
7.800000	-0.247162	-106.747187	-43.124130	24.383969	-43.124130	24.383969	-0.250036	-108.000054
7.850000	-0.250675	-107.337564	-42.989998	23.015061	-42.989998	23.015061	-0.253701	-108.609110
7.900000	-0.254211	-107.927471	-42.857403	21.649543	-42.857403	21.649543	-0.257397	-109.218184
7.950000	-0.257808	-108.516164	-42.725420	20.294903	-42.725420	20.294903	-0.261176	-109.827670
8.000000	-0.261435	-109.104250	-42.594732	18.945703	-42.594732	18.945703	-0.264999	-110.437363
8.050000	-0.265117	-109.691308	-42.464723	17.608197	-42.464723	17.608197	-0.268906	-111.047839
8.100000	-0.268838	-110.277633	-42.335745	16.279045	-42.335745	16.279045	-0.272872	-111.658874
8.150000	-0.272606	-110.863106	-42.207486	14.962501	-42.207486	14.962501	-0.276924	-112.271071
8.200000	-0.276421	-111.447729	-42.079942	13.658565	-42.079942	13.658565	-0.281061	-112.884431
8.250000	-0.280276	-112.031669	-41.953130	12.368207	-41.953130	12.368207	-0.285286	-113.499335
8.300000	-0.284187	-112.614650	-41.826607	11.096858	-41.826607	11.096858	-0.289634	-114.116403
8.350000	-0.288125	-113.197220	-41.701087	9.836237	-41.701087	9.836237	-0.294052	-114.734856
8.400000	-0.292121	-113.778813	-41.575382	8.602090	-41.575382	8.602090	-0.298640	-115.356784
8.450000	-0.296165	-114.359680	-41.449717	7.392082	-41.449717	7.392082	-0.303385	-115.982104
8.500000	-0.300262	-114.939719	-41.323407	6.215808	-41.323407	6.215808	-0.308356	-116.612421
8.550000	-0.304407	-115.519045	-41.196260	5.075682	-41.196260	5.075682	-0.313581	-117.248355
8.600000	-0.308600	-116.097682	-41.067749	3.978006	-41.067749	3.978006	-0.319120	-117.891128
8.650000	-0.312842	-116.675639	-40.937088	2.931578	-40.937088	2.931578	-0.325064	-118.542434
8.700000	-0.317132	-117.252922	-40.803176	1.947641	-40.803176	1.947641	-0.331542	-119.204472
8.750000	-0.321471	-117.829534	-40.664455	1.040653	-40.664455	1.040653	-0.338739	-119.880136
8.800000	-0.325859	-118.405489	-40.519088	0.226115	-40.519088	0.226115	-0.346887	-120.572645
8.850000	-0.330305	-118.980681	-40.361107	-0.449224	-40.361107	-0.449224	-0.356687	-121.291595
8.900000	-0.334803	-119.555131	-40.184058	-0.950398	-40.184058	-0.950398	-0.368971	-122.045414
8.950000	-0.339354	-120.128820	-39.977464	-1.231142	-39.977464	-1.231142	-0.385149	-122.846413
9.000000	-0.343955	-120.701655	-39.722504	-1.225195	-39.722504	-1.225195	-0.407888	-123.714687
9.050000	-0.348602	-121.273382	-39.374807	-0.829825	-39.374807	-0.829825	-0.443869	-124.690981
9.100000	-0.353264	-121.843657	-38.859822	-0.033818	-38.859822	-0.033818	-0.506646	-125.826282
9.150000	-0.357833	-122.411634	-38.009371	0.827604	-38.009371	0.827604	-0.635151	-127.189860
9.200000	-0.361844	-122.976306	-36.560826	-0.305045	-36.560826	-0.305045	-0.939298	-128.603599
9.250000	-0.364011	-123.544502	-34.709921	-10.117772	-34.709921	-10.117772	-1.565653	-127.739174
9.300000	-0.367189	-124.136124	-34.634254	-29.052788	-34.634254	-29.052788	-1.563555	-122.213873
9.350000	-0.373541	-124.718471	-36.199049	-38.463285	-36.199049	-38.463285	-0.972102	-121.386024
9.400000	-0.379587	-125.290411	-37.357887	-39.903373	-37.357887	-39.903373	-0.686268	-122.689733
9.450000	-0.385190	-125.859911	-37.974428	-39.462004	-37.974428	-39.462004	-0.565981	-123.978572
9.500000	-0.390598	-126.428779	-38.289203	-38.975591	-38.289203	-38.975591	-0.508748	-125.074750
9.550000	-0.395928	-126.997354	-38.441165	-38.791063	-38.441165	-38.791063	-0.479289	-126.024685
9.600000	-0.401237	-127.565694	-38.501069	-38.930785	-38.501069	-38.930785	-0.463788	-126.872869
9.650000	-0.406552	-128.133842	-38.514979	-39.295835	-38.514979	-39.295835	-0.454836	-127.661954
9.700000	-0.411891	-128.701764	-38.495011	-39.870005	-38.495011	-39.870005	-0.450542	-128.401520
9.750000	-0.417267	-129.269453	-38.453949	-40.605665	-38.453949	-40.605665	-0.449098	-129.105645
9.800000	-0.422670	-129.837005	-38.403928	-41.420609	-38.403928	-41.420609	-0.448880	-129.793008
9.850000	-0.428119	-130.404337	-38.342967	-42.344005	-38.342967	-42.344005	-0.450162	-130.458091
9.900000	-0.433614	-130.971484	-38.275892	-43.340674	-38.275892	-43.340674	-0.452318	-131.108634
9.950000	-0.439148	-131.538497	-38.205333	-44.385474	-38.205333	-44.385474	-0.455011	-131.749761
10.000000	-0.444720	-132.105382	-38.131999	-45.473008	-38.131999	-45.473008	-0.458157	-132.382618
