! freq	dB(S11)	phase(S11)	dB(S12)	phase(S12)	
!     	dB(S21)	phase(S21)	dB(S22)	phase(S22)	
!S-par simulation data
#  GHz  S  DB  R 50
0.000000	-82.781037	0.000000	-0.000631	0.000000	-0.000631	0.000000	-82.781037	0.000000
0.050000	-37.604573	-86.175623	-0.018939	-3.088724	-0.018939	-3.088724	-37.613507	-86.030075
0.100000	-31.732650	-92.303834	-0.028337	-6.150285	-0.028337	-6.150285	-31.732003	-92.138864
0.150000	-28.288996	-96.692490	-0.036839	-9.194281	-0.036839	-9.194281	-28.287921	-96.447029
0.200000	-25.856435	-100.517104	-0.045612	-12.231242	-0.045612	-12.231242	-25.857863	-100.190589
0.250000	-23.991052	-104.057332	-0.055259	-15.262670	-0.055259	-15.262670	-23.995092	-103.655074
0.300000	-22.490336	-107.452874	-0.065943	-18.288428	-0.065943	-18.288428	-22.495614	-106.976979
0.350000	-21.243790	-110.763615	-0.077588	-21.308223	-0.077588	-21.308223	-21.248772	-110.211680
0.400000	-20.185796	-114.017681	-0.090090	-24.321689	-0.090090	-24.321689	-20.189395	-113.384160
0.450000	-19.276636	-117.227651	-0.103354	-27.328034	-0.103354	-27.328034	-19.278480	-116.505950
0.500000	-18.484589	-120.404104	-0.117160	-30.327673	-0.117160	-30.327673	-18.485007	-119.590454
0.550000	-17.789056	-123.550583	-0.131349	-33.320684	-0.131349	-33.320684	-17.788596	-122.644136
0.600000	-17.176068	-126.669145	-0.145763	-36.307031	-0.145763	-36.307031	-17.175241	-125.671250
0.650000	-16.636362	-129.761920	-0.160227	-39.286616	-0.160227	-39.286616	-16.635508	-128.674919
0.700000	-16.159234	-132.834085	-0.174567	-42.260192	-0.174567	-42.260192	-16.158509	-131.659904
0.750000	-15.738098	-135.888744	-0.188631	-45.228129	-0.188631	-45.228129	-15.737560	-134.628653
0.800000	-15.369440	-138.928127	-0.202235	-48.190650	-0.202235	-48.190650	-15.369100	-137.582656
0.850000	-15.048415	-141.955331	-0.215221	-51.148518	-0.215221	-51.148518	-15.048268	-140.524281
0.900000	-14.771231	-144.972775	-0.227450	-54.102528	-0.227450	-54.102528	-14.771273	-143.455430
0.950000	-14.535444	-147.982413	-0.238775	-57.053514	-0.238775	-57.053514	-14.535679	-146.377659
1.000000	-14.339012	-150.986084	-0.249067	-60.002459	-0.249067	-60.002459	-14.339448	-149.292505
1.050000	-14.181918	-153.985414	-0.258151	-62.950495	-0.258151	-62.950495	-14.182569	-152.201280
1.100000	-14.059704	-156.982300	-0.266045	-65.898814	-0.266045	-65.898814	-14.060584	-155.105865
1.150000	-13.973603	-159.978139	-0.272596	-68.848703	-0.272596	-68.848703	-13.974727	-158.007386
1.200000	-13.923382	-162.974512	-0.277732	-71.801586	-0.277732	-71.801586	-13.924763	-160.907244
1.250000	-13.909213	-165.972982	-0.281397	-74.758976	-0.281397	-74.758976	-13.910863	-163.806811
1.300000	-13.932912	-168.975281	-0.283508	-77.722738	-0.283508	-77.722738	-13.934839	-166.707498
1.350000	-13.994351	-171.982857	-0.284104	-80.694388	-0.284104	-80.694388	-13.996560	-169.610559
1.400000	-14.095065	-174.997198	-0.283197	-83.675654	-0.283197	-83.675654	-14.097560	-172.517143
1.450000	-14.237147	-178.019726	-0.280825	-86.668303	-0.280825	-86.668303	-14.239933	-175.428245
1.500000	-14.423340	178.948229	-0.277050	-89.674130	-0.277050	-89.674130	-14.426421	-178.344651
1.550000	-14.657170	175.905479	-0.271962	-92.694936	-0.271962	-92.694936	-14.660553	178.733157
1.600000	-14.943128	172.851038	-0.265677	-95.732512	-0.265677	-95.732512	-14.946822	175.805116
1.650000	-15.286928	169.784210	-0.258341	-98.788621	-0.258341	-98.788621	-15.290948	172.871756
1.700000	-15.695870	166.704712	-0.250129	-101.864974	-0.250129	-101.864974	-15.700240	169.934450
1.750000	-16.179382	163.612855	-0.241244	-104.963210	-0.241244	-104.963210	-16.184131	166.995803
1.800000	-16.749811	160.509836	-0.231921	-108.084868	-0.231921	-108.084868	-16.754978	164.060252
1.850000	-17.423670	157.398201	-0.222419	-111.231368	-0.222419	-111.231368	-17.429301	161.135075
1.900000	-18.224391	154.282696	-0.213035	-114.404273	-0.213035	-114.404273	-18.230534	158.232597
1.950000	-19.184465	151.172174	-0.204095	-117.604704	-0.204095	-117.604704	-19.191145	155.373703
2.000000	-20.351347	148.082475	-0.195940	-120.833247	-0.195940	-120.833247	-20.358512	152.594106
2.050000	-21.801249	145.043947	-0.188935	-124.090535	-0.188935	-124.090535	-21.808584	149.961672
2.100000	-23.665569	142.121279	-0.183458	-127.376939	-0.183458	-127.376939	-23.671879	147.619811
2.150000	-26.201591	139.478832	-0.179903	-130.692540	-0.179903	-130.692540	-26.202168	145.930990
2.200000	-30.032098	137.694827	-0.178673	-134.037109	-0.178673	-134.037109	-30.001812	146.157555
2.250000	-37.503652	141.817766	-0.180169	-137.410087	-0.180169	-137.410087	-37.086878	158.134578
2.300000	-43.503063	-84.076354	-0.184790	-140.810570	-0.184790	-140.810570	-41.294039	-97.411522
2.350000	-31.704143	-62.248760	-0.192923	-144.237303	-0.192923	-144.237303	-31.477142	-64.878088
2.400000	-26.659747	-63.339229	-0.204931	-147.688680	-0.204931	-147.688680	-26.562437	-63.181299
2.450000	-23.409102	-65.925201	-0.221152	-151.162748	-0.221152	-151.162748	-23.348936	-64.597363
2.500000	-20.998494	-68.962262	-0.241886	-154.657227	-0.241886	-154.657227	-20.954854	-66.961983
2.550000	-19.079789	-72.203921	-0.267493	-158.169855	-0.267493	-158.169855	-19.045243	-69.750486
2.600000	-17.488053	-75.554461	-0.298071	-161.697321	-0.298071	-161.697321	-17.459205	-72.759650
2.650000	-16.130861	-78.972073	-0.333756	-165.236541	-0.333756	-165.236541	-16.105902	-75.902156
2.700000	-14.951525	-82.433220	-0.374615	-168.784268	-0.374615	-168.784268	-14.929391	-79.130462
2.750000	-13.912743	-85.922915	-0.420643	-172.337152	-0.420643	-172.337152	-13.892760	-82.415742
2.800000	-12.988631	-89.430623	-0.471757	-175.891807	-0.471757	-175.891807	-12.970352	-85.738928
2.850000	-12.160468	-92.948356	-0.527799	-179.444881	-0.527799	-179.444881	-12.143577	-89.086475
2.900000	-11.414239	-96.469716	-0.588529	177.006875	-0.588529	177.006875	-11.398508	-92.448217
2.950000	-10.739154	-99.989409	-0.653632	173.466534	-0.653632	173.466534	-10.724412	-95.816206
3.000000	-10.126702	-103.502981	-0.722717	169.936925	-0.722717	169.936925	-10.112813	-99.184065
3.050000	-9.570027	-107.006681	-0.795319	166.420572	-0.795319	166.420572	-9.556884	-102.546610
3.100000	-9.063510	-110.497395	-0.870910	162.919629	-0.870910	162.919629	-9.051024	-105.899638
3.150000	-8.602689	-113.972418	-0.948910	159.436037	-0.948910	159.436037	-8.590782	-109.239620
3.200000	-8.183646	-117.429782	-1.028647	155.971092	-1.028647	155.971092	-8.172251	-112.563899
3.250000	-7.802824	-120.868367	-1.109405	152.525340	-1.109405	152.525340	-7.791883	-115.870792
3.300000	-7.457360	-124.287475	-1.190446	149.098970	-1.190446	149.098970	-7.446819	-119.159160
3.350000	-7.145002	-127.686825	-1.270974	145.691774	-1.270974	145.691774	-7.134811	-122.428353
3.400000	-6.863103	-131.067453	-1.350235	142.302277	-1.350235	142.302277	-6.853217	-125.679076
3.450000	-6.609752	-134.430497	-1.427466	138.928908	-1.427466	138.928908	-6.600131	-128.912199
3.500000	-6.385167	-137.776417	-1.501509	135.570542	-1.501509	135.570542	-6.375772	-132.127898
3.550000	-6.186704	-141.108864	-1.571710	132.223108	-1.571710	132.223108	-6.177499	-135.329586
3.600000	-6.013197	-144.430878	-1.637284	128.883033	-1.637284	128.883033	-6.004150	-138.520089
3.650000	-5.864396	-147.745853	-1.697260	125.546213	-1.697260	125.546213	-5.855477	-141.702555
3.700000	-5.741198	-151.058380	-1.750308	122.206974	-1.750308	122.206974	-5.732377	-144.881246
3.750000	-5.641987	-154.373954	-1.796001	118.859201	-1.796001	118.859201	-5.633237	-148.061479
3.800000	-5.567057	-157.698222	-1.833472	115.496190	-1.833472	115.496190	-5.558354	-151.248625
3.850000	-5.518376	-161.038763	-1.861343	112.108610	-1.861343	112.108610	-5.509693	-154.449832
3.900000	-5.497241	-164.404121	-1.878658	108.686065	-1.878658	108.686065	-5.488550	-157.673226
3.950000	-5.504380	-167.802097	-1.884960	105.219002	-1.884960	105.219002	-5.495653	-160.926254
4.000000	-5.542287	-171.242120	-1.879413	101.695361	-1.879413	101.695361	-5.533489	-164.217807
4.050000	-5.617409	-174.740049	-1.860127	98.094055	-1.860127	98.094055	-5.608495	-167.562665
4.100000	-5.732741	-178.305710	-1.827125	94.401199	-1.827125	94.401199	-5.723654	-170.969932
4.150000	-5.894245	178.048717	-1.779994	90.598461	-1.779994	90.598461	-5.884904	-174.450667
4.200000	-6.111482	174.307801	-1.718073	86.660944	-1.718073	86.660944	-6.101773	-178.018571
4.250000	-6.401127	170.449400	-1.640295	82.549087	-1.640295	82.549087	-6.390862	178.307369
4.300000	-6.776283	166.468852	-1.548209	78.241587	-1.548209	78.241587	-6.765182	174.525282
4.350000	-7.260698	162.359400	-1.442852	73.702582	-1.442852	73.702582	-7.248305	170.633396
4.400000	-7.893539	158.121835	-1.325791	68.879628	-1.325791	68.879628	-7.879047	166.641542
4.450000	-8.730724	153.793752	-1.200739	63.720202	-1.200739	63.720202	-8.712607	162.602235
4.500000	-9.860293	149.488133	-1.073563	58.168969	-1.073563	58.168969	-9.835403	158.655602
4.550000	-11.429903	145.500477	-0.952831	52.174055	-0.952831	52.174055	-11.390858	155.150786
4.600000	-13.734206	142.723114	-0.851111	45.669606	-0.851111	45.669606	-13.659031	153.115629
4.650000	-17.401737	144.202467	-0.784128	38.628300	-0.784128	38.628300	-17.200658	155.920802
4.700000	-23.490720	169.705271	-0.774716	31.013246	-0.774716	31.013246	-22.580399	-177.608527
4.750000	-21.766555	-119.303455	-0.846073	22.866697	-0.846073	22.866697	-21.010906	-114.710925
4.800000	-15.279492	-102.379409	-1.021506	14.278013	-1.021506	14.278013	-15.065306	-96.617494
4.850000	-11.168931	-104.113560	-1.326458	5.385173	-1.326458	5.385173	-11.069096	-97.241916
4.900000	-8.380163	-109.887113	-1.772600	-3.597729	-1.772600	-3.597729	-8.319061	-102.358224
4.950000	-6.374681	-116.977372	-2.358354	-12.448173	-2.358354	-12.448173	-6.331223	-108.993369
5.000000	-4.899622	-124.438040	-3.074765	-20.955408	-3.074765	-20.955408	-4.865658	-116.104225
5.050000	-3.805827	-131.792913	-3.900750	-28.958654	-3.900750	-28.958654	-3.777586	-123.168450
5.100000	-2.990561	-138.804005	-4.811238	-36.370719	-4.811238	-36.370719	-2.966072	-129.924699
5.150000	-2.381088	-145.362745	-5.782440	-43.160572	-5.782440	-43.160572	-2.359216	-136.251849
5.200000	-1.923746	-151.437165	-6.793806	-49.340994	-6.793806	-49.340994	-1.903797	-142.110384
5.250000	-1.580817	-157.027771	-7.826008	-54.937410	-7.826008	-54.937410	-1.562333	-147.496218
5.300000	-1.318905	-162.193044	-8.872297	-60.029551	-8.872297	-60.029551	-1.301588	-152.464189
5.350000	-1.118694	-166.967485	-9.922270	-64.660373	-9.922270	-64.660373	-1.102328	-157.046840
5.400000	-0.964528	-171.397697	-10.970449	-68.883010	-10.970449	-68.883010	-0.948955	-161.289212
5.450000	-0.847442	-175.502080	-12.000360	-72.713870	-12.000360	-72.713870	-0.832535	-165.208766
5.500000	-0.753630	-179.373723	-13.034969	-76.258618	-13.034969	-76.258618	-0.739302	-168.897284
5.550000	-0.679811	176.978889	-14.061669	-79.520719	-14.061669	-79.520719	-0.665989	-172.362862
5.600000	-0.621369	173.525147	-15.080108	-82.529895	-15.080108	-82.529895	-0.607991	-175.635604
5.650000	-0.574850	170.238666	-16.090268	-85.310796	-16.090268	-85.310796	-0.561864	-178.741500
5.700000	-0.537650	167.096777	-17.092243	-87.883745	-17.092243	-87.883745	-0.525011	178.297102
5.750000	-0.507794	164.080020	-18.086057	-90.265510	-18.086057	-90.265510	-0.495463	175.460995
5.800000	-0.483776	161.171646	-19.071496	-92.470092	-19.071496	-92.470092	-0.471715	172.733645
5.850000	-0.464433	158.357198	-20.047948	-94.509570	-20.047948	-94.509570	-0.452612	170.100767
5.900000	-0.448872	155.624126	-21.014237	-96.395028	-21.014237	-96.395028	-0.437257	167.549963
5.950000	-0.436393	152.961474	-21.968440	-98.137648	-21.968440	-98.137648	-0.424956	165.070400
6.000000	-0.426456	150.359602	-22.907686	-99.750036	-22.907686	-99.750036	-0.415166	162.652549
6.050000	-0.418636	147.809959	-23.827933	-101.247855	-23.827933	-101.247855	-0.407462	160.287956
6.100000	-0.412602	145.304879	-24.723742	-102.651840	-24.723742	-102.651840	-0.401515	157.969044
6.150000	-0.408102	142.837415	-25.588035	-103.990182	-25.588035	-103.990182	-0.397069	155.688947
6.200000	-0.404940	140.401184	-26.411891	-105.301206	-26.411891	-105.301206	-0.393926	153.441360
6.250000	-0.402976	137.990229	-27.184385	-106.636070	-27.184385	-106.636070	-0.391943	151.220403
6.300000	-0.402158	135.599476	-27.886817	-108.068846	-27.886817	-108.068846	-0.391063	149.021154
6.350000	-0.402387	133.222338	-28.509407	-109.682659	-28.509407	-109.682659	-0.391181	146.837052
6.400000	-0.403658	130.853317	-29.034869	-111.575034	-29.034869	-111.575034	-0.392285	144.662703
6.450000	-0.406014	128.486750	-29.443983	-113.850535	-29.443983	-113.850535	-0.394408	142.492563
6.500000	-0.409557	126.116606	-29.715827	-116.610009	-29.715827	-116.610009	-0.397637	140.320750
6.550000	-0.414465	123.736224	-29.828259	-119.936188	-29.828259	-119.936188	-0.402130	138.140789
6.600000	-0.421025	121.337952	-29.758848	-123.878426	-29.758848	-123.878426	-0.408148	135.945274
6.650000	-0.429683	118.912629	-29.486405	-128.441563	-29.486405	-128.441563	-0.416098	133.725373
6.700000	-0.441462	116.444376	-28.969978	-133.625890	-28.969978	-133.625890	-0.426920	131.465970
6.750000	-0.456856	113.927505	-28.248080	-139.252029	-28.248080	-139.252029	-0.441073	129.161331
6.800000	-0.477187	111.347088	-27.320530	-145.292900	-27.320530	-145.292900	-0.459777	126.797261
6.850000	-0.507418	108.651675	-26.092416	-151.792234	-26.092416	-151.792234	-0.487630	124.325053
6.900000	-0.554780	105.794840	-24.566705	-158.782603	-24.566705	-158.782603	-0.531369	121.700496
6.950000	-0.620608	102.791783	-22.929854	-166.237238	-22.929854	-166.237238	-0.592252	118.937779
7.000000	-0.744254	99.438728	-20.862799	-175.008974	-20.862799	-175.008974	-0.706966	115.844078
7.050000	-0.982044	95.678754	-18.445276	173.940931	-18.445276	173.940931	-0.928096	112.365227
7.100000	-1.508520	91.691149	-15.633212	158.001093	-15.633212	158.001093	-1.418029	108.666696
7.150000	-2.658438	90.443704	-12.832700	132.010950	-12.832700	132.010950	-2.485151	107.485106
7.200000	-3.260560	99.999613	-11.903796	94.128527	-11.903796	94.128527	-3.070625	116.232062
7.250000	-1.960813	103.608859	-13.891244	61.300414	-13.891244	61.300414	-1.891245	119.840921
7.300000	-1.171785	99.863813	-16.726238	41.596516	-16.726238	41.596516	-1.147431	116.523801
7.350000	-0.844172	95.618029	-19.409938	29.558566	-19.409938	29.558566	-0.833494	112.638667
7.400000	-0.693490	91.744850	-21.972379	21.255944	-21.972379	21.255944	-0.687665	109.068778
7.450000	-0.619957	88.175545	-24.598743	15.132460	-24.598743	15.132460	-0.615838	105.768846
7.500000	-0.585116	84.790052	-27.578287	10.721521	-27.578287	10.721521	-0.581374	102.631812
7.550000	-0.570611	81.485967	-31.543784	8.654939	-31.543784	8.654939	-0.566643	99.563634
7.600000	-0.569405	78.201709	-38.213020	20.935323	-38.213020	20.935323	-0.564864	96.506587
7.650000	-0.578462	74.892478	-42.483209	92.904103	-42.483209	92.904103	-0.573104	93.417949
7.700000	-0.596713	71.521695	-34.399795	154.706831	-34.399795	154.706831	-0.590338	90.262291
7.750000	-0.624353	68.056586	-29.022978	156.645744	-29.022978	156.645744	-0.616772	87.007399
7.800000	-0.662588	64.465237	-25.440622	154.274637	-25.440622	154.274637	-0.653604	83.621502
7.850000	-0.713632	60.714463	-22.656521	150.780135	-22.656521	150.780135	-0.703034	80.071223
7.900000	-0.781896	56.756564	-20.294677	146.688842	-20.294677	146.688842	-0.769437	76.308048
7.950000	-0.873207	52.545235	-18.189045	142.139010	-18.189045	142.139010	-0.858606	72.284669
8.000000	-0.994504	48.043051	-16.262593	137.157995	-16.262593	137.157995	-0.977457	67.962563
8.050000	-1.152361	43.231721	-14.484071	131.750276	-14.484071	131.750276	-1.132550	63.322558
8.100000	-1.369459	37.995352	-12.778663	125.768375	-12.778663	125.768375	-1.346491	58.244293
8.150000	-1.668168	32.290037	-11.144905	119.141083	-11.144905	119.141083	-1.641652	52.680008
8.200000	-2.079388	26.089341	-9.588381	111.792824	-9.588381	111.792824	-2.048974	46.597679
8.250000	-2.647018	19.399174	-8.119552	103.649095	-8.119552	103.649095	-2.612501	39.994594
8.300000	-3.442036	12.287321	-6.752979	94.619855	-6.752979	94.619855	-3.403689	32.921992
8.350000	-4.550561	5.030671	-5.523943	84.732390	-5.523943	84.732390	-4.509965	25.630990
8.400000	-6.081600	-1.771308	-4.469495	74.123711	-4.469495	74.123711	-6.043980	18.675212
8.450000	-8.164719	-6.911568	-3.619385	63.054214	-3.619385	63.054214	-8.146368	13.177767
8.500000	-10.916306	-7.899909	-2.985331	51.878675	-2.985331	51.878675	-10.970793	11.501104
8.550000	-14.190876	0.495989	-2.554554	40.963370	-2.554554	40.963370	-14.494479	19.032157
8.600000	-16.422288	24.140273	-2.295280	30.603861	-2.295280	30.603861	-17.223975	44.100623
8.650000	-15.537190	48.999901	-2.162044	20.954642	-2.162044	20.954642	-16.344292	72.841850
8.700000	-13.416175	59.912458	-2.114282	12.075601	-2.114282	12.075601	-13.948574	85.189237
8.750000	-11.659994	62.308746	-2.114422	3.901117	-2.114422	3.901117	-12.020299	87.895804
8.800000	-10.419988	60.880795	-2.137433	-3.621484	-2.137433	-3.621484	-10.683642	86.568560
8.850000	-9.567311	57.938296	-2.164015	-10.642218	-2.164015	-10.642218	-9.770831	83.723224
8.900000	-9.003574	54.268252	-2.183887	-17.258596	-2.183887	-17.258596	-9.166014	80.177941
8.950000	-8.668960	50.247891	-2.190234	-23.554856	-2.190234	-23.554856	-8.800902	76.315253
9.000000	-8.525902	46.073291	-2.179074	-29.616245	-2.179074	-29.616245	-8.633189	72.330774
9.050000	-8.540351	41.848076	-2.150663	-35.531852	-2.150663	-35.531852	-8.625731	68.325466
9.100000	-8.703394	37.627834	-2.105781	-41.362881	-2.105781	-41.362881	-8.767612	64.356116
9.150000	-9.025348	33.468346	-2.045603	-47.165259	-2.045603	-47.165259	-9.067232	60.484487
9.200000	-9.515264	29.441298	-1.973935	-52.993608	-1.973935	-52.993608	-9.531279	56.789373
9.250000	-10.193953	25.650889	-1.895188	-58.888769	-1.895188	-58.888769	-10.177323	53.385451
9.300000	-11.102971	22.276515	-1.814027	-64.885098	-1.814027	-64.885098	-11.041442	50.468835
9.350000	-12.322820	19.776161	-1.736826	-71.025175	-1.736826	-71.025175	-12.192109	48.530811
9.400000	-13.935395	18.918833	-1.670389	-77.319065	-1.670389	-77.319065	-13.687814	48.345642
9.450000	-16.067581	21.334569	-1.621299	-83.774181	-1.621299	-83.774181	-15.602307	51.448378
9.500000	-18.729190	31.670324	-1.598800	-90.400879	-1.598800	-90.400879	-17.840607	61.690994
9.550000	-20.781801	57.262719	-1.610422	-97.180981	-1.610422	-97.180981	-19.424691	83.611657
9.600000	-19.445152	88.610170	-1.663913	-104.087384	-1.663913	-104.087384	-18.475214	110.067013
9.650000	-16.238221	104.230008	-1.765963	-111.078674	-1.765963	-111.078674	-15.825666	125.510210
9.700000	-13.360464	108.650919	-1.920680	-118.101536	-1.920680	-118.101536	-13.208118	131.030773
9.750000	-11.070481	108.059656	-2.130317	-125.097205	-2.130317	-125.097205	-11.031086	131.409665
9.800000	-9.254033	105.143824	-2.394660	-132.005366	-2.394660	-132.005366	-9.267990	129.226568
9.850000	-7.796706	101.076906	-2.711134	-138.769436	-2.711134	-138.769436	-7.838012	125.716478
9.900000	-6.616759	96.434407	-3.075502	-145.337597	-3.075502	-145.337597	-6.672889	121.509175
9.950000	-5.655325	91.537013	-3.481665	-151.669517	-3.481665	-151.669517	-5.719795	116.962136
10.000000	-4.858828	86.572766	-3.921541	-157.770676	-3.921541	-157.770676	-4.928291	112.293284
