! freq	dB(S11)	phase(S11)	dB(S12)	phase(S12)	
!     	dB(S21)	phase(S21)	dB(S22)	phase(S22)	
!S-par simulation data
#  GHz  S  DB  R 50
0.000000	-80.869728	0.000000	-0.000786	0.000000	-0.000786	0.000000	-80.869728	0.000000
0.050000	-40.629128	-92.500159	-0.005887	-3.317529	-0.005887	-3.317529	-40.628465	-92.362961
0.100000	-34.646998	-95.949239	-0.014148	-6.591200	-0.014148	-6.591200	-34.645668	-95.669921
0.150000	-31.170409	-99.350231	-0.021335	-9.846316	-0.021335	-9.846316	-31.168890	-98.925681
0.200000	-28.714062	-102.811202	-0.028049	-13.097547	-0.028049	-13.097547	-28.712854	-102.242134
0.250000	-26.810800	-106.306176	-0.035050	-16.348227	-0.035050	-16.348227	-26.810033	-105.594587
0.300000	-25.255538	-109.804165	-0.042668	-19.598549	-0.042668	-19.598549	-25.255101	-108.951195
0.350000	-23.940905	-113.286574	-0.051024	-22.848306	-0.051024	-22.848306	-23.940640	-112.292185
0.400000	-22.803474	-116.747798	-0.060096	-26.097437	-0.060096	-26.097437	-22.803276	-115.611281
0.450000	-21.803043	-120.186267	-0.069903	-29.345969	-0.069903	-29.345969	-21.802859	-118.906578
0.500000	-20.911566	-123.605700	-0.080372	-32.594120	-0.080372	-32.594120	-20.911387	-122.181782
0.550000	-20.109059	-127.009350	-0.091467	-35.842142	-0.091467	-35.842142	-20.108897	-125.440151
0.600000	-19.380849	-130.400023	-0.103172	-39.090349	-0.103172	-39.090349	-19.380724	-128.684458
0.650000	-18.715314	-133.780909	-0.115443	-42.339073	-0.115443	-42.339073	-18.715250	-131.917908
0.700000	-18.103497	-137.154323	-0.128259	-45.588664	-0.128259	-45.588664	-18.103517	-135.142776
0.750000	-17.538086	-140.522302	-0.141595	-48.839458	-0.141595	-48.839458	-17.538209	-138.361072
0.800000	-17.013148	-143.886459	-0.155432	-52.091790	-0.155432	-52.091790	-17.013391	-141.574368
0.850000	-16.523826	-147.248127	-0.169760	-55.346013	-0.169760	-55.346013	-16.524204	-144.783950
0.900000	-16.065997	-150.608475	-0.184568	-58.602473	-0.184568	-58.602473	-16.066522	-147.990954
0.950000	-15.636124	-153.968519	-0.199846	-61.861497	-0.199846	-61.861497	-15.636805	-151.196388
1.000000	-15.231203	-157.329152	-0.215588	-65.123432	-0.215588	-65.123432	-15.232047	-154.401138
1.050000	-14.848633	-160.691187	-0.231793	-68.388635	-0.231793	-68.388635	-14.849643	-157.606031
1.100000	-14.486138	-164.055379	-0.248461	-71.657476	-0.248461	-71.657476	-14.487316	-160.811849
1.150000	-14.141712	-167.422435	-0.265597	-74.930341	-0.265597	-74.930341	-14.143056	-164.019348
1.200000	-13.813571	-170.793027	-0.283208	-78.207633	-0.283208	-78.207633	-13.815078	-167.229267
1.250000	-13.500119	-174.167794	-0.301305	-81.489774	-0.301305	-81.489774	-13.501783	-170.442337
1.300000	-13.199944	-177.547430	-0.319910	-84.777290	-0.319910	-84.777290	-13.201758	-173.659348
1.350000	-12.911701	179.067537	-0.339034	-88.070573	-0.339034	-88.070573	-12.913656	-176.880977
1.400000	-12.634199	175.676541	-0.358701	-91.370110	-0.358701	-91.370110	-12.636285	179.892058
1.450000	-12.366346	172.279035	-0.378939	-94.676403	-0.378939	-94.676403	-12.368552	176.659033
1.500000	-12.107137	168.874493	-0.399780	-97.989977	-0.399780	-97.989977	-12.109452	173.419229
1.550000	-11.855642	165.462408	-0.421261	-101.311374	-0.421261	-101.311374	-11.858055	170.171922
1.600000	-11.610998	162.042285	-0.443425	-104.641152	-0.443425	-104.641152	-11.613498	166.916385
1.650000	-11.372402	158.613650	-0.466320	-107.979884	-0.466320	-107.979884	-11.374980	163.651890
1.700000	-11.139054	155.175730	-0.490028	-111.328490	-0.490028	-111.328490	-11.141701	160.377363
1.750000	-10.910338	151.728638	-0.514563	-114.686962	-0.514563	-114.686962	-10.913045	157.092685
1.800000	-10.685571	148.271671	-0.540015	-118.056182	-0.540015	-118.056182	-10.688331	153.796834
1.850000	-10.464145	144.804393	-0.566460	-121.436762	-0.566460	-121.436762	-10.466953	150.489066
1.900000	-10.245464	141.326254	-0.593992	-124.829451	-0.593992	-124.829451	-10.248313	147.168484
1.950000	-10.028994	137.836817	-0.622706	-128.234883	-0.622706	-128.234883	-10.031879	143.834313
2.000000	-9.814286	134.335778	-0.652693	-131.653534	-0.652693	-131.653534	-9.817203	140.485936
2.050000	-9.600906	130.822725	-0.684061	-135.086004	-0.684061	-135.086004	-9.603848	137.122604
2.100000	-9.388458	127.297252	-0.716930	-138.532877	-0.716930	-138.532877	-9.391421	133.743573
2.150000	-9.176592	123.758960	-0.751430	-141.994723	-0.751430	-141.994723	-9.179569	130.348111
2.200000	-8.965000	120.207464	-0.787697	-145.472086	-0.787697	-145.472086	-8.967985	126.935503
2.250000	-8.753418	116.642393	-0.825884	-148.965484	-0.825884	-148.965484	-8.756402	123.505061
2.300000	-8.541628	113.063397	-0.866148	-152.475400	-0.866148	-152.475400	-8.544602	120.056130
2.350000	-8.329454	109.470153	-0.908663	-156.002280	-0.908663	-156.002280	-8.332410	116.588100
2.400000	-8.116834	105.862532	-0.953583	-159.546325	-0.953583	-159.546325	-8.119760	113.100634
2.450000	-7.903524	102.239882	-1.001167	-163.108360	-1.001167	-163.108360	-7.906410	109.592692
2.500000	-7.689582	98.602239	-1.051582	-166.688380	-1.051582	-166.688380	-7.692417	106.064184
2.550000	-7.474952	94.949292	-1.105078	-170.286796	-1.105078	-170.286796	-7.477726	102.514556
2.600000	-7.259751	91.281127	-1.161851	-173.903540	-1.161851	-173.903540	-7.262454	98.943808
2.650000	-7.043984	87.597492	-1.222195	-177.538952	-1.222195	-177.538952	-7.046607	95.351485
2.700000	-6.827946	83.898883	-1.286269	178.807525	-1.286269	178.807525	-6.830480	91.738180
2.750000	-6.611751	80.185307	-1.354363	175.135852	-1.354363	175.135852	-6.614189	88.103805
2.800000	-6.395613	76.457034	-1.426742	171.446305	-1.426742	171.446305	-6.397948	84.448647
2.850000	-6.179778	72.714446	-1.503675	167.739284	-1.503675	167.739284	-6.182005	80.773137
2.900000	-5.964523	68.958035	-1.585438	164.015316	-1.585438	164.015316	-5.966637	77.077860
2.950000	-5.750152	65.188420	-1.672312	160.275067	-1.672312	160.275067	-5.752150	73.363560
3.000000	-5.536991	61.406341	-1.764579	156.519347	-1.764579	156.519347	-5.538869	69.631138
3.050000	-5.325387	57.612673	-1.862521	152.749113	-1.862521	152.749113	-5.327139	65.881661
3.100000	-5.115697	53.808424	-1.966419	148.965474	-1.966419	148.965474	-5.117321	62.116356
3.150000	-4.908273	49.994672	-2.076592	145.169608	-2.076592	145.169608	-4.909764	58.336508
3.200000	-4.703504	46.172733	-2.193311	141.362970	-2.193311	141.362970	-4.704856	54.543703
3.250000	-4.501787	42.344101	-2.316797	137.547233	-2.316797	137.547233	-4.502993	50.739761
3.300000	-4.303493	38.510322	-2.447297	133.724116	-2.447297	133.724116	-4.304547	46.926524
3.350000	-4.108986	34.673063	-2.585047	129.895474	-2.585047	129.895474	-4.109877	43.105966
3.400000	-3.918614	30.834100	-2.730265	126.063289	-2.730265	126.063289	-3.919333	39.280179
3.450000	-3.732741	26.995387	-2.883330	122.229687	-2.883330	122.229687	-3.733277	35.451336
3.500000	-3.551639	23.158832	-3.044087	118.396907	-3.044087	118.396907	-3.551980	31.621867
3.550000	-3.375605	19.326467	-3.212849	114.567182	-3.212849	114.567182	-3.375738	27.794031
3.600000	-3.204895	15.500374	-3.389752	110.742849	-3.389752	110.742849	-3.204808	23.970229
3.650000	-3.039735	11.682663	-3.574906	106.926287	-3.574906	106.926287	-3.039416	20.152888
3.700000	-2.880320	7.875453	-3.768403	103.119893	-3.768403	103.119893	-2.879756	16.344439
3.750000	-2.726811	4.080850	-3.970307	99.326059	-3.970307	99.326059	-2.725989	12.547292
3.800000	-2.579413	0.301287	-4.180731	95.547530	-4.180731	95.547530	-2.578321	8.764166
3.850000	-2.438148	-3.461502	-4.399611	91.786345	-4.399611	91.786345	-2.436776	4.997110
3.900000	-2.303069	-7.205594	-4.626949	88.044744	-4.626949	88.044744	-2.301406	1.248331
3.950000	-2.174194	-10.929169	-4.862732	84.324874	-4.862732	84.324874	-2.172232	-2.480079
4.000000	-2.051511	-14.630529	-5.106935	80.628773	-5.106935	80.628773	-2.049242	-6.186157
4.050000	-1.934976	-18.308114	-5.359525	76.958353	-5.359525	76.958353	-1.932392	-9.868090
4.100000	-1.824516	-21.960517	-5.620462	73.315389	-5.620462	73.315389	-1.821613	-13.524225
4.150000	-1.720036	-25.586497	-5.889708	69.701507	-5.889708	69.701507	-1.716807	-17.153086
4.200000	-1.621412	-29.184991	-6.167228	66.118179	-6.167228	66.118179	-1.617853	-20.753382
4.250000	-1.528505	-32.755115	-6.452998	62.566717	-6.452998	62.566717	-1.524612	-24.324013
4.300000	-1.441156	-36.296175	-6.747009	59.048275	-6.747009	59.048275	-1.436925	-27.864075
4.350000	-1.359193	-39.807666	-7.049272	55.563849	-7.049272	55.563849	-1.354619	-31.372863
4.400000	-1.282479	-43.288947	-7.359796	52.114668	-7.359796	52.114668	-1.277559	-34.849521
4.450000	-1.210816	-46.739892	-7.678635	48.701451	-7.678635	48.701451	-1.205546	-38.293732
4.500000	-1.143957	-50.160896	-8.005933	45.324374	-8.005933	45.324374	-1.138331	-41.705733
4.550000	-1.081698	-53.552206	-8.341856	41.983876	-8.341856	41.983876	-1.075712	-45.085599
4.600000	-1.023834	-56.914242	-8.686625	38.680295	-8.686625	38.680295	-1.017482	-48.433584
4.650000	-0.970163	-60.247585	-9.040527	35.413886	-9.040527	35.413886	-0.963438	-51.750108
4.700000	-0.920483	-63.552976	-9.403928	32.184846	-9.403928	32.184846	-0.913376	-55.035753
4.750000	-0.874597	-66.831301	-9.777278	28.993344	-9.777278	28.993344	-0.867100	-58.291250
4.800000	-0.832314	-70.083587	-10.161130	25.839546	-10.161130	25.839546	-0.824418	-61.517470
4.850000	-0.793449	-73.310989	-10.556151	22.723658	-10.556151	22.723658	-0.785142	-64.715420
4.900000	-0.757826	-76.514788	-10.963144	19.645968	-10.963144	19.645968	-0.749096	-67.886225
4.950000	-0.725275	-79.696377	-11.383066	16.606900	-11.383066	16.606900	-0.716110	-71.031127
5.000000	-0.695638	-82.857260	-11.817057	13.607079	-11.817057	13.607079	-0.686022	-74.151472
5.050000	-0.668818	-85.998664	-12.266315	10.648316	-12.266315	10.648316	-0.658736	-77.248238
5.100000	-0.644616	-89.122744	-12.732600	7.731089	-12.732600	7.731089	-0.634051	-80.323501
5.150000	-0.622901	-92.231295	-13.217826	4.857264	-13.217826	4.857264	-0.611836	-83.378887
5.200000	-0.603555	-95.326197	-13.724271	2.029432	-13.724271	2.029432	-0.591971	-86.416101
5.250000	-0.586469	-98.409412	-14.254658	-0.748852	-14.254658	-0.748852	-0.574345	-89.436921
5.300000	-0.571544	-101.482979	-14.812265	-3.472725	-14.812265	-3.472725	-0.558860	-92.443197
5.350000	-0.558694	-104.549015	-15.401052	-6.135542	-15.401052	-6.135542	-0.545426	-95.436845
5.400000	-0.547841	-107.609712	-16.025854	-8.728199	-16.025854	-8.728199	-0.533967	-98.419846
5.450000	-0.538919	-110.667337	-16.692626	-11.238140	-16.692626	-11.238140	-0.524413	-101.394242
5.500000	-0.531873	-113.724232	-17.408786	-13.647859	-17.408786	-13.647859	-0.516709	-104.362138
5.550000	-0.526659	-116.782814	-18.183703	-15.932593	-18.183703	-15.932593	-0.510808	-107.325701
5.600000	-0.523243	-119.845574	-19.029393	-18.056629	-19.029393	-18.056629	-0.506676	-110.287157
5.650000	-0.521622	-122.915186	-19.961499	-19.963959	-19.961499	-19.963959	-0.504308	-113.248821
5.700000	-0.521787	-125.994394	-21.000900	-21.569653	-21.000900	-21.569653	-0.503690	-116.213126
5.750000	-0.523718	-129.085862	-22.175988	-22.742746	-22.175988	-22.742746	-0.504803	-119.182487
5.800000	-0.527431	-132.192410	-23.525995	-23.258202	-23.525995	-23.258202	-0.507659	-122.159383
5.850000	-0.532952	-135.316945	-25.105597	-22.710392	-25.105597	-22.710392	-0.512281	-125.146359
5.900000	-0.540319	-138.462463	-26.987876	-20.308253	-26.987876	-20.308253	-0.518707	-128.146027
5.950000	-0.549587	-141.632049	-29.245664	-14.378897	-29.245664	-14.378897	-0.526985	-131.161063
6.000000	-0.560822	-144.828880	-31.794862	-1.359598	-31.794862	-1.359598	-0.537180	-134.194214
6.050000	-0.574107	-148.056221	-33.712701	23.371771	-33.712701	23.371771	-0.549371	-137.248289
6.100000	-0.589541	-151.317433	-33.106815	53.614090	-33.106815	53.614090	-0.563650	-140.326165
6.150000	-0.607236	-154.615961	-30.589389	73.699075	-30.589389	73.699075	-0.580130	-143.430780
6.200000	-0.627326	-157.955336	-27.960630	83.273664	-27.960630	83.273664	-0.598938	-146.565134
6.250000	-0.649961	-161.339169	-25.704645	87.344606	-25.704645	87.344606	-0.620219	-149.732277
6.300000	-0.675372	-164.772273	-23.801599	88.603526	-23.801599	88.603526	-0.644198	-152.936160
6.350000	-0.703694	-168.257426	-22.174429	88.349768	-22.174429	88.349768	-0.671009	-156.179206
6.400000	-0.735139	-171.798410	-20.756069	87.168511	-20.756069	87.168511	-0.700858	-159.464569
6.450000	-0.769937	-175.399027	-19.498289	85.372970	-19.498289	85.372970	-0.733971	-162.795408
6.500000	-0.808340	-179.063076	-18.366737	83.142722	-18.366737	83.142722	-0.770598	-166.174863
6.550000	-0.850618	177.205683	-17.336602	80.586710	-17.336602	80.586710	-0.811006	-169.606032
6.600000	-0.897061	173.403565	-16.389635	77.774118	-16.389635	77.774118	-0.855482	-173.091937
6.650000	-0.947973	169.527001	-15.512166	74.750544	-15.512166	74.750544	-0.904332	-176.635496
6.700000	-1.003564	165.574462	-14.694290	71.550559	-14.694290	71.550559	-0.957769	179.761977
6.750000	-1.064425	161.538200	-13.926782	68.186795	-13.926782	68.186795	-1.016384	176.094344
6.800000	-1.130733	157.417993	-13.204234	64.680607	-13.204234	64.680607	-1.080364	172.361325
6.850000	-1.202809	153.211352	-12.521802	61.043366	-12.521802	61.043366	-1.150042	168.560890
6.900000	-1.280958	148.916243	-11.875703	57.283804	-11.875703	57.283804	-1.225735	164.691357
6.950000	-1.365454	144.531167	-11.262984	53.408937	-11.262984	53.408937	-1.307740	160.751446
7.000000	-1.456532	140.055246	-10.681351	49.424714	-10.681351	49.424714	-1.396316	156.740330
7.050000	-1.554363	135.488310	-10.129032	45.336489	-10.129032	45.336489	-1.491667	152.657681
7.100000	-1.659070	130.830545	-9.604660	41.148925	-9.604660	41.148925	-1.593954	148.503364
7.150000	-1.770667	126.083046	-9.107245	36.866804	-9.107245	36.866804	-1.703242	144.277832
7.200000	-1.888971	121.249131	-8.636071	32.496425	-8.636071	32.496425	-1.819400	139.983133
7.250000	-2.013708	116.332209	-8.190564	28.043465	-8.190564	28.043465	-1.942218	135.621181
7.300000	-2.144448	111.336681	-7.770287	23.514002	-7.770287	23.514002	-2.071337	131.194418
7.350000	-2.280581	106.267939	-7.374892	18.914546	-7.374892	18.914546	-2.206224	126.705755
7.400000	-2.421309	101.132341	-7.004081	14.252018	-7.004081	14.252018	-2.346166	122.158509
7.450000	-2.565638	95.937160	-6.657568	9.533705	-6.657568	9.533705	-2.490258	117.556316
7.500000	-2.712383	90.690507	-6.335053	4.767177	-6.335053	4.767177	-2.637402	112.903039
7.550000	-2.860132	85.400755	-6.036403	-0.040285	-6.036403	-0.040285	-2.786282	108.202056
7.600000	-3.007348	80.078142	-5.761058	-4.880166	-5.761058	-4.880166	-2.935431	103.458149
7.650000	-3.152369	74.732614	-5.508558	-9.744724	-5.508558	-9.744724	-3.083250	98.675330
7.700000	-3.293439	69.374424	-5.278380	-14.626407	-5.278380	-14.626407	-3.228029	93.857534
7.750000	-3.428764	64.013959	-5.069935	-19.517960	-5.069935	-19.517960	-3.367995	89.008599
7.800000	-3.556558	58.661571	-4.882582	-24.412520	-4.882582	-24.412520	-3.501353	84.132279
7.850000	-3.675103	53.327399	-4.715631	-29.303686	-4.715631	-29.303686	-3.626344	79.232280
7.900000	-3.782808	48.021197	-4.568357	-34.185565	-4.568357	-34.185565	-3.741296	74.312325
7.950000	-3.878116	42.752618	-4.440173	-39.052603	-4.440173	-39.052603	-3.844544	69.376114
8.000000	-3.959890	37.530146	-4.330234	-43.899952	-4.330234	-43.899952	-3.934796	64.427802
8.050000	-4.027275	32.361249	-4.237700	-48.723374	-4.237700	-48.723374	-4.011017	59.471721
8.100000	-4.079642	27.252655	-4.161822	-53.519024	-4.161822	-53.519024	-4.072383	54.512435
8.150000	-4.116662	22.210107	-4.101870	-58.283467	-4.101870	-58.283467	-4.118356	49.554846
8.200000	-4.138309	17.238337	-4.057139	-63.013622	-4.057139	-63.013622	-4.148704	44.604197
8.250000	-4.144848	12.341075	-4.026949	-67.706697	-4.026949	-67.706697	-4.163492	39.666041
8.300000	-4.136809	7.521098	-4.010646	-72.360138	-4.010646	-72.360138	-4.163078	34.746175
8.350000	-4.114902	2.780689	-4.007661	-76.971352	-4.007661	-76.971352	-4.148014	29.850714
8.400000	-4.080054	-1.878642	-4.017434	-81.537843	-4.017434	-81.537843	-4.119109	24.985956
8.450000	-4.033535	-6.457245	-4.039244	-86.057878	-4.039244	-86.057878	-4.077560	20.157651
8.500000	-3.976591	-10.955244	-4.072510	-90.529395	-4.072510	-90.529395	-4.024573	15.371629
8.550000	-3.910545	-15.373188	-4.116654	-94.950391	-4.116654	-94.950391	-3.961460	10.633468
8.600000	-3.836751	-19.711937	-4.171102	-99.318921	-4.171102	-99.318921	-3.889598	5.948406
8.650000	-3.756560	-23.972573	-4.235272	-103.633104	-4.235272	-103.633104	-3.810387	1.321275
8.700000	-3.671292	-28.156314	-4.308576	-107.891133	-4.308576	-107.891133	-3.725213	-3.243554
8.750000	-3.582207	-32.264456	-4.390413	-112.091296	-4.390413	-112.091296	-3.635418	-7.742208
8.800000	-3.490452	-36.297272	-4.480258	-116.231114	-4.480258	-116.231114	-3.542228	-12.170283
8.850000	-3.397181	-40.257194	-4.577367	-120.309976	-4.577367	-120.309976	-3.446906	-16.525934
8.900000	-3.303370	-44.144643	-4.681151	-124.325782	-4.681151	-124.325782	-3.350514	-20.805893
8.950000	-3.209918	-47.962981	-4.790812	-128.279266	-4.790812	-128.279266	-3.254058	-25.010599
9.000000	-3.117568	-51.712622	-4.905750	-132.168773	-4.905750	-132.168773	-3.158359	-29.137852
9.050000	-3.026975	-55.394865	-5.025290	-135.993638	-5.025290	-135.993638	-3.064149	-33.186835
9.100000	-2.938742	-59.009350	-5.148787	-139.751734	-5.148787	-139.751734	-2.972097	-37.155124
9.150000	-2.853322	-62.558614	-5.275482	-143.443983	-5.275482	-143.443983	-2.882725	-41.044105
9.200000	-2.771068	-66.044613	-5.404668	-147.071001	-5.404668	-147.071001	-2.796441	-44.854861
9.250000	-2.692269	-69.468787	-5.535655	-150.633075	-5.535655	-150.633075	-2.713581	-48.588129
9.300000	-2.617146	-72.832633	-5.667755	-154.130721	-5.667755	-154.130721	-2.634403	-52.244942
9.350000	-2.545859	-76.137712	-5.800287	-157.564675	-5.800287	-157.564675	-2.559099	-55.826600
9.400000	-2.478574	-79.384692	-5.932523	-160.934816	-5.932523	-160.934816	-2.487861	-59.333396
9.450000	-2.415361	-82.575350	-6.063764	-164.242346	-6.063764	-164.242346	-2.420780	-62.767161
9.500000	-2.356185	-85.712425	-6.193390	-167.489680	-6.193390	-167.489680	-2.357837	-66.131091
9.550000	-2.301041	-88.797733	-6.320752	-170.678315	-6.320752	-170.678315	-2.299038	-69.427261
9.600000	-2.249901	-91.833138	-6.445203	-173.809897	-6.445203	-173.809897	-2.244365	-72.657863
9.650000	-2.202720	-94.820551	-6.566107	-176.886211	-6.566107	-176.886211	-2.193779	-75.825191
9.700000	-2.159472	-97.761536	-6.682775	-179.908717	-6.682775	-179.908717	-2.147259	-78.931107
9.750000	-2.120152	-100.657388	-6.794446	177.121367	-6.794446	177.121367	-2.104805	-81.977128
9.800000	-2.084594	-103.511288	-6.900639	174.200539	-6.900639	174.200539	-2.066251	-84.967292
9.850000	-2.052724	-106.325244	-7.000718	171.326581	-7.000718	171.326581	-2.031525	-87.904084
9.900000	-2.024470	-109.101264	-7.094039	168.497187	-7.094039	168.497187	-2.000557	-90.790001
9.950000	-1.999763	-111.841355	-7.179943	165.709968	-7.179943	165.709968	-1.973281	-93.627534
10.000000	-1.978539	-114.547514	-7.257755	162.962448	-7.257755	162.962448	-1.949636	-96.419158
