! freq	dB(S11)	phase(S11)	dB(S12)	phase(S12)	
!     	dB(S21)	phase(S21)	dB(S22)	phase(S22)	
!S-par simulation data
#  GHz  S  DB  R 50
0.000000	-0.000000	0.000000	-298.217327	180.000000	-298.217327	180.000000	-0.000000	0.000000
0.050000	-0.001698	-2.101082	-94.679816	88.233315	-94.679816	88.233315	-0.000894	-1.397760
0.100000	-0.004992	-4.187226	-88.684027	86.608743	-88.684027	86.608743	-0.003030	-2.788941
0.150000	-0.008166	-6.262488	-85.206951	84.959861	-85.206951	84.959861	-0.005501	-4.172746
0.200000	-0.011037	-8.332185	-82.769806	83.310599	-82.769806	83.310599	-0.007830	-5.551737
0.250000	-0.013747	-10.397957	-80.911380	81.668767	-80.911380	81.668767	-0.009907	-6.928113
0.300000	-0.016397	-12.460043	-79.426084	80.040053	-79.426084	80.040053	-0.011778	-8.303213
0.350000	-0.019026	-14.518439	-78.202138	78.429576	-78.202138	78.429576	-0.013519	-9.677626
0.400000	-0.021642	-16.572923	-77.174247	76.844061	-77.174247	76.844061	-0.015185	-11.051483
0.450000	-0.024245	-18.623090	-76.302433	75.293535	-76.302433	75.293535	-0.016812	-12.424703
0.500000	-0.026833	-20.668923	-75.555509	73.786174	-75.555509	73.786174	-0.018427	-13.797180
0.550000	-0.029405	-22.710187	-74.913458	72.332467	-74.913458	72.332467	-0.020044	-15.168752
0.600000	-0.031960	-24.746376	-74.364239	70.947071	-74.364239	70.947071	-0.021672	-16.539199
0.650000	-0.034499	-26.777365	-73.895471	69.639757	-73.895471	69.639757	-0.023314	-17.908395
0.700000	-0.037020	-28.802902	-73.498745	68.421864	-73.498745	68.421864	-0.024973	-19.276205
0.750000	-0.039522	-30.822478	-73.169641	67.310021	-73.169641	67.310021	-0.026651	-20.642447
0.800000	-0.042004	-32.835756	-72.903382	66.319871	-72.903382	66.319871	-0.028345	-22.006997
0.850000	-0.044462	-34.842258	-72.697191	65.472922	-72.697191	65.472922	-0.030055	-23.369707
0.900000	-0.046898	-36.842375	-72.542669	64.773329	-72.542669	64.773329	-0.031779	-24.730678
0.950000	-0.049304	-38.834618	-72.445605	64.275438	-72.445605	64.275438	-0.033514	-26.089508
1.000000	-0.051683	-40.819269	-72.399237	63.996050	-72.399237	63.996050	-0.035259	-27.446283
1.050000	-0.054032	-42.796409	-72.398955	63.959239	-72.398955	63.959239	-0.037011	-28.801039
1.100000	-0.056352	-44.765447	-72.444242	64.216652	-72.444242	64.216652	-0.038767	-30.153632
1.150000	-0.058639	-46.725625	-72.533981	64.841739	-72.533981	64.841739	-0.040526	-31.503878
1.200000	-0.060895	-48.676849	-72.661941	65.894319	-72.661941	65.894319	-0.042284	-32.851773
1.250000	-0.063122	-50.619149	-72.819634	67.434037	-72.819634	67.434037	-0.044038	-34.197343
1.300000	-0.065320	-52.552120	-72.996594	69.550694	-72.996594	69.550694	-0.045786	-35.540500
1.350000	-0.067490	-54.475381	-73.176275	72.338256	-73.176275	72.338256	-0.047523	-36.881165
1.400000	-0.069635	-56.389112	-73.336306	75.837666	-73.336306	75.837666	-0.049245	-38.219396
1.450000	-0.071755	-58.293130	-73.448120	80.080226	-73.448120	80.080226	-0.050943	-39.555156
1.500000	-0.073850	-60.186785	-73.471931	85.065629	-73.471931	85.065629	-0.052608	-40.888277
1.550000	-0.075924	-62.070505	-73.376343	90.622589	-73.376343	90.622589	-0.054226	-42.218835
1.600000	-0.077976	-63.944197	-73.134044	96.526952	-73.134044	96.526952	-0.055782	-43.546723
1.650000	-0.080007	-65.807337	-72.724521	102.475826	-72.724521	102.475826	-0.057255	-44.871609
1.700000	-0.082016	-67.660136	-72.159493	108.145426	-72.159493	108.145426	-0.058649	-46.193242
1.750000	-0.084006	-69.502720	-71.466425	113.293273	-71.466425	113.293273	-0.059996	-47.511325
1.800000	-0.085975	-71.334916	-70.676266	117.757143	-70.676266	117.757143	-0.061369	-48.825639
1.850000	-0.087923	-73.156710	-69.823551	121.477697	-69.823551	121.477697	-0.062844	-50.136398
1.900000	-0.089851	-74.967993	-68.936992	124.463033	-68.936992	124.463033	-0.064452	-51.444071
1.950000	-0.091758	-76.768780	-68.039997	126.775309	-68.039997	126.775309	-0.066165	-52.749079
2.000000	-0.093644	-78.559213	-67.149792	128.501305	-67.149792	128.501305	-0.067935	-54.051602
2.050000	-0.095511	-80.339328	-66.276793	129.722070	-66.276793	129.722070	-0.069724	-55.351601
2.100000	-0.097357	-82.109175	-65.427339	130.512981	-65.427339	130.512981	-0.071510	-56.648969
2.150000	-0.099183	-83.868812	-64.604935	130.940481	-64.604935	130.940481	-0.073286	-57.943600
2.200000	-0.100992	-85.618304	-63.811184	131.061398	-63.811184	131.061398	-0.075047	-59.235406
2.250000	-0.102783	-87.357726	-63.046465	130.923525	-63.046465	130.923525	-0.076795	-60.524324
2.300000	-0.104558	-89.087160	-62.310388	130.566717	-62.310388	130.566717	-0.078532	-61.810308
2.350000	-0.106318	-90.806694	-61.602106	130.024086	-61.602106	130.024086	-0.080259	-63.093330
2.400000	-0.108066	-92.516423	-60.920513	129.323135	-60.920513	129.323135	-0.081980	-64.373367
2.450000	-0.109804	-94.216446	-60.264373	128.486747	-60.264373	128.486747	-0.083697	-65.650407
2.500000	-0.111533	-95.906868	-59.632409	127.534021	-59.632409	127.534021	-0.085411	-66.924443
2.550000	-0.113257	-97.587494	-59.022711	126.478084	-59.022711	126.478084	-0.087126	-68.195375
2.600000	-0.114978	-99.258749	-58.434795	125.336061	-58.434795	125.336061	-0.088842	-69.463301
2.650000	-0.116699	-100.920754	-57.867463	124.119150	-57.867463	124.119150	-0.090561	-70.728227
2.700000	-0.118423	-102.573628	-57.319587	122.836878	-57.319587	122.836878	-0.092285	-71.990161
2.750000	-0.120151	-104.217496	-56.790110	121.497390	-56.790110	121.497390	-0.094016	-73.249111
2.800000	-0.121887	-105.852486	-56.278044	120.107676	-56.278044	120.107676	-0.095754	-74.505091
2.850000	-0.123634	-107.478728	-55.782470	118.673764	-55.782470	118.673764	-0.097500	-75.758116
2.900000	-0.125393	-109.096357	-55.302533	117.200872	-55.302533	117.200872	-0.099256	-77.008202
2.950000	-0.127167	-110.705507	-54.837438	115.693538	-54.837438	115.693538	-0.101024	-78.255369
3.000000	-0.128957	-112.306318	-54.386449	114.155722	-54.386449	114.155722	-0.102803	-79.499639
3.050000	-0.130766	-113.898932	-53.948877	112.590893	-53.948877	112.590893	-0.104596	-80.741036
3.100000	-0.132594	-115.483493	-53.524086	111.002100	-53.524086	111.002100	-0.106402	-81.979584
3.150000	-0.134442	-117.060150	-53.111480	109.392033	-53.111480	109.392033	-0.108224	-83.215312
3.200000	-0.136312	-118.629054	-52.710506	107.763072	-52.710506	107.763072	-0.110061	-84.448249
3.250000	-0.138205	-120.190359	-52.320647	106.117329	-52.320647	106.117329	-0.111916	-85.678428
3.300000	-0.140119	-121.744221	-51.941421	104.456684	-51.941421	104.456684	-0.113788	-86.905882
3.350000	-0.142057	-123.290802	-51.572376	102.782813	-51.572376	102.782813	-0.115679	-88.130647
3.400000	-0.144016	-124.830266	-51.213091	101.097218	-51.213091	101.097218	-0.117589	-89.352761
3.450000	-0.145998	-126.362779	-50.863170	99.401243	-50.863170	99.401243	-0.119520	-90.572262
3.500000	-0.148002	-127.888512	-50.522241	97.696097	-50.522241	97.696097	-0.121471	-91.789194
3.550000	-0.150027	-129.407638	-50.189954	95.982868	-50.189954	95.982868	-0.123445	-93.003598
3.600000	-0.152072	-130.920333	-49.865983	94.262537	-49.865983	94.262537	-0.125440	-94.215520
3.650000	-0.154138	-132.426776	-49.550018	92.535989	-49.550018	92.535989	-0.127460	-95.425007
3.700000	-0.156223	-133.927149	-49.241766	90.804026	-49.241766	90.804026	-0.129503	-96.632108
3.750000	-0.158328	-135.421636	-48.940955	89.067374	-48.940955	89.067374	-0.131571	-97.836873
3.800000	-0.160451	-136.910184	-48.647204	87.326542	-48.647204	87.326542	-0.133666	-99.039258
3.850000	-0.162592	-138.393237	-48.360407	85.582325	-48.360407	85.582325	-0.135787	-100.239417
3.900000	-0.164751	-139.870985	-48.080330	83.835256	-48.080330	83.835256	-0.137934	-101.437408
3.950000	-0.166927	-141.343620	-47.806752	82.085821	-47.806752	82.085821	-0.140110	-102.633287
4.000000	-0.169119	-142.811335	-47.539464	80.334464	-47.539464	80.334464	-0.142313	-103.827114
4.050000	-0.171329	-144.274322	-47.278266	78.581587	-47.278266	78.581587	-0.144545	-105.018949
4.100000	-0.173555	-145.732777	-47.022970	76.827554	-47.022970	76.827554	-0.146807	-106.208853
4.150000	-0.175798	-147.186893	-46.773398	75.072700	-46.773398	75.072700	-0.149098	-107.396892
4.200000	-0.178059	-148.636867	-46.529380	73.317326	-46.529380	73.317326	-0.151421	-108.583130
4.250000	-0.180337	-150.082892	-46.290756	71.561708	-46.290756	71.561708	-0.153774	-109.767633
4.300000	-0.182633	-151.525165	-46.057371	69.806095	-46.057371	69.806095	-0.156159	-110.950471
4.350000	-0.184947	-152.963880	-45.829081	68.050716	-45.829081	68.050716	-0.158577	-112.131712
4.400000	-0.187281	-154.399231	-45.605748	66.295775	-45.605748	66.295775	-0.161027	-113.311427
4.450000	-0.189634	-155.831412	-45.387240	64.541460	-45.387240	64.541460	-0.163511	-114.489689
4.500000	-0.192008	-157.260617	-45.173434	62.787940	-45.173434	62.787940	-0.166028	-115.666571
4.550000	-0.194404	-158.687038	-44.964211	61.035369	-44.964211	61.035369	-0.168580	-116.842149
4.600000	-0.196822	-160.110866	-44.759458	59.283887	-44.759458	59.283887	-0.171167	-118.016499
4.650000	-0.199263	-161.532292	-44.559069	57.533620	-44.559069	57.533620	-0.173789	-119.189699
4.700000	-0.201729	-162.951506	-44.362943	55.784682	-44.362943	55.784682	-0.176447	-120.361827
4.750000	-0.204220	-164.368696	-44.170983	54.037178	-44.170983	54.037178	-0.179141	-121.532964
4.800000	-0.206737	-165.784050	-43.983098	52.291200	-43.983098	52.291200	-0.181872	-122.703191
4.850000	-0.209281	-167.197754	-43.799202	50.546837	-43.799202	50.546837	-0.184641	-123.872591
4.900000	-0.211853	-168.609992	-43.619213	48.804165	-43.619213	48.804165	-0.187447	-125.041248
4.950000	-0.214454	-170.020950	-43.443055	47.063258	-43.443055	47.063258	-0.190291	-126.209246
5.000000	-0.217085	-171.430808	-43.270652	45.324182	-43.270652	45.324182	-0.193173	-127.376673
5.050000	-0.219749	-172.839718	-43.101956	43.587084	-43.101956	43.587084	-0.196096	-128.543598
5.100000	-0.222444	-174.247905	-42.936889	41.851943	-42.936889	41.851943	-0.199058	-129.710135
5.150000	-0.225171	-175.655550	-42.775390	40.118813	-42.775390	40.118813	-0.202060	-130.876374
5.200000	-0.227932	-177.062828	-42.617400	38.387748	-42.617400	38.387748	-0.205101	-132.042406
5.250000	-0.230727	-178.469914	-42.462865	36.658800	-42.462865	36.658800	-0.208183	-133.208322
5.300000	-0.233556	-179.876985	-42.311734	34.932020	-42.311734	34.932020	-0.211305	-134.374215
5.350000	-0.236420	178.715789	-42.163959	33.207460	-42.163959	33.207460	-0.214468	-135.540180
5.400000	-0.239319	177.308236	-42.019495	31.485173	-42.019495	31.485173	-0.217672	-136.706311
5.450000	-0.242255	175.900186	-41.878300	29.765212	-41.878300	29.765212	-0.220918	-137.872705
5.500000	-0.245227	174.491470	-41.740335	28.047635	-41.740335	28.047635	-0.224205	-139.039458
5.550000	-0.248235	173.081922	-41.605564	26.332500	-41.605564	26.332500	-0.227534	-140.206668
5.600000	-0.251280	171.671377	-41.473953	24.619870	-41.473953	24.619870	-0.230906	-141.374435
5.650000	-0.254361	170.259670	-41.345471	22.909812	-41.345471	22.909812	-0.234319	-142.542859
5.700000	-0.257480	168.846639	-41.220088	21.202397	-41.220088	21.202397	-0.237775	-143.712039
5.750000	-0.260635	167.432124	-41.097778	19.497702	-41.097778	19.497702	-0.241274	-144.882078
5.800000	-0.263827	166.015965	-40.978517	17.795809	-40.978517	17.795809	-0.244815	-146.053080
5.850000	-0.267055	164.598006	-40.862280	16.096806	-40.862280	16.096806	-0.248399	-147.225146
5.900000	-0.270320	163.178089	-40.749049	14.400787	-40.749049	14.400787	-0.252026	-148.398381
5.950000	-0.273620	161.756063	-40.638803	12.707853	-40.638803	12.707853	-0.255697	-149.572892
6.000000	-0.276955	160.331773	-40.531526	11.018115	-40.531526	11.018115	-0.259410	-150.748783
6.050000	-0.280326	158.905071	-40.427200	9.331686	-40.427200	9.331686	-0.263166	-151.926162
6.100000	-0.283731	157.475807	-40.325812	7.648693	-40.325812	7.648693	-0.266966	-153.105137
6.150000	-0.287169	156.043835	-40.227348	5.969268	-40.227348	5.969268	-0.270809	-154.285815
6.200000	-0.290641	154.609011	-40.131796	4.293551	-40.131796	4.293551	-0.274695	-155.468306
6.250000	-0.294144	153.171191	-40.039144	2.621692	-40.039144	2.621692	-0.278624	-156.652720
6.300000	-0.297681	151.730094	-39.949469	0.954032	-39.949469	0.954032	-0.282598	-157.839262
6.350000	-0.301247	150.285712	-39.862679	-0.709428	-39.862679	-0.709428	-0.286615	-159.027958
6.400000	-0.304844	148.837908	-39.778765	-2.368510	-39.778765	-2.368510	-0.290675	-160.218922
6.450000	-0.308469	147.386552	-39.697718	-4.023027	-39.697718	-4.023027	-0.294778	-161.412266
6.500000	-0.312121	145.931511	-39.619531	-5.672782	-39.619531	-5.672782	-0.298922	-162.608102
6.550000	-0.315800	144.472660	-39.544194	-7.317571	-39.544194	-7.317571	-0.303109	-163.806546
6.600000	-0.319505	143.009871	-39.471701	-8.957180	-39.471701	-8.957180	-0.307339	-165.007710
6.650000	-0.323233	141.543024	-39.402043	-10.591384	-39.402043	-10.591384	-0.311609	-166.211711
6.700000	-0.326985	140.072000	-39.335214	-12.219951	-39.335214	-12.219951	-0.315922	-167.418663
6.750000	-0.330759	138.596682	-39.271205	-13.842640	-39.271205	-13.842640	-0.320275	-168.628682
6.800000	-0.334554	137.116958	-39.210009	-15.459201	-39.210009	-15.459201	-0.324669	-169.841884
6.850000	-0.338369	135.632718	-39.151617	-17.069377	-39.151617	-17.069377	-0.329103	-171.058386
6.900000	-0.342202	134.143857	-39.096022	-18.672899	-39.096022	-18.672899	-0.333578	-172.278304
6.950000	-0.346052	132.650271	-39.043214	-20.269495	-39.043214	-20.269495	-0.338092	-173.501756
7.000000	-0.349918	131.151864	-38.993184	-21.858880	-38.993184	-21.858880	-0.342645	-174.728858
7.050000	-0.353800	129.648539	-38.945923	-23.440766	-38.945923	-23.440766	-0.347236	-175.959727
7.100000	-0.357696	128.140208	-38.901420	-25.014855	-38.901420	-25.014855	-0.351865	-177.194482
7.150000	-0.361604	126.626783	-38.859664	-26.580841	-38.859664	-26.580841	-0.356532	-178.433239
7.200000	-0.365524	125.108183	-38.820644	-28.138414	-38.820644	-28.138414	-0.361235	-179.676116
7.250000	-0.369455	123.584332	-38.784348	-29.687255	-38.784348	-29.687255	-0.365974	179.076770
7.300000	-0.373396	122.055157	-38.750764	-31.227038	-38.750764	-31.227038	-0.370748	177.825301
7.350000	-0.377346	120.520590	-38.719877	-32.757432	-38.719877	-32.757432	-0.375557	176.569362
7.400000	-0.381304	118.980571	-38.691674	-34.278098	-38.691674	-34.278098	-0.380400	175.308836
7.450000	-0.385270	117.435041	-38.666141	-35.788690	-38.666141	-35.788690	-0.385275	174.043606
7.500000	-0.389243	115.883950	-38.643262	-37.288858	-38.643262	-37.288858	-0.390183	172.773557
7.550000	-0.393221	114.327007	-38.623133	-38.777756	-38.623133	-38.777756	-0.395123	171.498354
7.600000	-0.397206	112.764416	-38.605627	-40.255470	-38.605627	-40.255470	-0.400093	170.218093
7.650000	-0.401196	111.196143	-38.590725	-41.721627	-38.590725	-41.721627	-0.405092	168.932660
7.700000	-0.405191	109.622163	-38.578410	-43.175842	-38.578410	-43.175842	-0.410119	167.641943
7.750000	-0.409192	108.042456	-38.568666	-44.617725	-38.568666	-44.617725	-0.415172	166.345830
7.800000	-0.413197	106.457010	-38.561473	-46.046875	-38.561473	-46.046875	-0.420252	165.044211
7.850000	-0.417208	104.865818	-38.556813	-47.462879	-38.556813	-47.462879	-0.425357	163.736978
7.900000	-0.421224	103.268883	-38.554669	-48.865313	-38.554669	-48.865313	-0.430484	162.424022
7.950000	-0.425247	101.666211	-38.555022	-50.253739	-38.555022	-50.253739	-0.435634	161.105238
8.000000	-0.429276	100.057821	-38.557853	-51.627706	-38.557853	-51.627706	-0.440805	159.780521
8.050000	-0.433313	98.443735	-38.563146	-52.986742	-38.563146	-52.986742	-0.445995	158.449769
8.100000	-0.437359	96.823985	-38.570881	-54.330359	-38.570881	-54.330359	-0.451203	157.112881
8.150000	-0.441414	95.198611	-38.581040	-55.658044	-38.581040	-55.658044	-0.456428	155.769759
8.200000	-0.445481	93.567661	-38.593608	-56.969259	-38.593608	-56.969259	-0.461668	154.420307
8.250000	-0.449560	91.931190	-38.608566	-58.263436	-38.608566	-58.263436	-0.466922	153.064430
8.300000	-0.453653	90.289263	-38.625897	-59.539976	-38.625897	-59.539976	-0.472187	151.702037
8.350000	-0.457762	88.642413	-38.645388	-60.799899	-38.645388	-60.799899	-0.477463	150.333624
8.400000	-0.461890	86.989738	-38.667446	-62.039053	-38.667446	-62.039053	-0.482748	148.957872
8.450000	-0.466039	85.331854	-38.691829	-63.258500	-38.691829	-63.258500	-0.488041	147.575347
8.500000	-0.470211	83.668861	-38.718522	-64.457445	-38.718522	-64.457445	-0.493338	146.185970
8.550000	-0.474410	82.000868	-38.747509	-65.635030	-38.747509	-65.635030	-0.498639	144.789666
8.600000	-0.478637	80.327991	-38.778772	-66.790317	-38.778772	-66.790317	-0.503942	143.386363
8.650000	-0.482897	78.650359	-38.812295	-67.922280	-38.812295	-67.922280	-0.509245	141.975993
8.700000	-0.487193	76.968107	-38.848059	-69.029794	-38.848059	-69.029794	-0.514546	140.558495
8.750000	-0.491528	75.281379	-38.886041	-70.111617	-38.886041	-70.111617	-0.519843	139.133808
8.800000	-0.495907	73.590240	-38.926260	-71.165750	-38.926260	-71.165750	-0.525134	137.701721
8.850000	-0.500333	71.894951	-38.968639	-72.191211	-38.968639	-72.191211	-0.530417	136.262341
8.900000	-0.504811	70.195683	-39.013140	-73.186282	-39.013140	-73.186282	-0.535690	134.815623
8.950000	-0.509345	68.492619	-39.059715	-74.149040	-39.059715	-74.149040	-0.540952	133.361529
9.000000	-0.513943	66.785761	-39.108395	-75.075366	-39.108395	-75.075366	-0.546199	131.899624
9.050000	-0.518604	65.075660	-39.158926	-75.966183	-39.158926	-75.966183	-0.551430	130.430604
9.100000	-0.523335	63.362364	-39.211282	-76.817274	-39.211282	-76.817274	-0.556644	128.954128
9.150000	-0.528141	61.646090	-39.265328	-77.625532	-39.265328	-77.625532	-0.561838	127.470180
9.200000	-0.533028	59.927061	-39.320886	-78.387441	-39.320886	-78.387441	-0.567010	125.978754
9.250000	-0.538002	58.205510	-39.377726	-79.099024	-39.377726	-79.099024	-0.572158	124.479849
9.300000	-0.543066	56.481676	-39.435545	-79.755783	-39.435545	-79.755783	-0.577280	122.973469
9.350000	-0.548228	54.755807	-39.493950	-80.352642	-39.493950	-80.352642	-0.582374	121.459628
9.400000	-0.553493	53.028157	-39.552426	-80.883886	-39.552426	-80.883886	-0.587437	119.938348
9.450000	-0.558866	51.298986	-39.610305	-81.343121	-39.610305	-81.343121	-0.592469	118.409656
9.500000	-0.564353	49.568563	-39.666714	-81.723243	-39.666714	-81.723243	-0.597467	116.873588
9.550000	-0.569961	47.837161	-39.720520	-82.016466	-39.720520	-82.016466	-0.602429	115.330189
9.600000	-0.575695	46.105059	-39.770257	-82.214404	-39.770257	-82.214404	-0.607353	113.779512
9.650000	-0.581561	44.372543	-39.814030	-82.308288	-39.814030	-82.308288	-0.612238	112.221617
9.700000	-0.587566	42.639902	-39.849407	-82.289354	-39.849407	-82.289354	-0.617081	110.656576
9.750000	-0.593714	40.907430	-39.873290	-82.149520	-39.873290	-82.149520	-0.621882	109.084466
9.800000	-0.600012	39.175425	-39.881779	-81.882456	-39.881779	-81.882456	-0.626637	107.505376
9.850000	-0.606466	37.444191	-39.870032	-81.485221	-39.870032	-81.485221	-0.631347	105.919402
9.900000	-0.613082	35.714032	-39.832175	-80.960633	-39.832175	-80.960633	-0.636008	104.326652
9.950000	-0.619865	33.985255	-39.761298	-80.320509	-39.761298	-80.320509	-0.640621	102.727240
10.000000	-0.626820	32.258172	-39.649628	-79.589811	-39.649628	-79.589811	-0.645183	101.121292
