! freq	dB(S11)	phase(S11)	dB(S12)	phase(S12)	
!     	dB(S21)	phase(S21)	dB(S22)	phase(S22)	
!S-par simulation data
#  GHz  S  DB  R 50
0.000000	-82.476526	0.000000	-0.000653	0.000000	-0.000653	0.000000	-82.476526	0.000000
0.050000	-55.010364	-37.268149	-0.016365	-2.586082	-0.016365	-2.586082	-55.047106	-37.688589
0.100000	-49.334757	-49.777938	-0.027995	-5.118307	-0.027995	-5.118307	-49.311477	-49.701422
0.150000	-46.523965	-57.265973	-0.036821	-7.651744	-0.036821	-7.651744	-46.483920	-57.092344
0.200000	-44.750780	-63.330213	-0.044107	-10.188244	-0.044107	-10.188244	-44.706358	-63.126609
0.250000	-43.397218	-68.949470	-0.050491	-12.723557	-0.050491	-12.723557	-43.349816	-68.696222
0.300000	-42.287559	-74.202018	-0.056052	-15.256196	-0.056052	-15.256196	-42.235889	-73.868099
0.350000	-41.335103	-79.178272	-0.061045	-17.786648	-0.061045	-17.786648	-41.277549	-78.745364
0.400000	-40.506749	-83.904183	-0.065581	-20.315509	-0.065581	-20.315509	-40.442040	-83.363859
0.450000	-39.791617	-88.367325	-0.069708	-22.843316	-0.069708	-22.843316	-39.718992	-87.717500
0.500000	-39.173364	-92.620991	-0.073566	-25.370759	-0.073566	-25.370759	-39.093103	-91.861029
0.550000	-38.642382	-96.683881	-0.077217	-27.898198	-0.077217	-27.898198	-38.555112	-95.810900
0.600000	-38.197265	-100.551418	-0.080691	-30.425920	-0.080691	-30.425920	-38.103576	-99.558286
0.650000	-37.828711	-104.249242	-0.084035	-32.954082	-0.084035	-32.954082	-37.728917	-103.125887
0.700000	-37.531858	-107.792689	-0.087274	-35.482783	-0.087274	-35.482783	-37.425871	-106.526557
0.750000	-37.306600	-111.187486	-0.090418	-38.012109	-0.090418	-38.012109	-37.193882	-109.763316
0.800000	-37.143535	-114.462636	-0.093488	-40.542007	-0.093488	-40.542007	-37.023310	-112.865212
0.850000	-37.052641	-117.608913	-0.096480	-43.072581	-0.096480	-43.072581	-36.923578	-115.817748
0.900000	-37.021758	-120.658012	-0.099413	-45.603697	-0.099413	-45.603697	-36.882499	-118.653539
0.950000	-37.064148	-123.599094	-0.102280	-48.135437	-0.102280	-48.135437	-36.912661	-121.353557
1.000000	-37.173713	-126.449785	-0.105097	-50.667703	-0.105097	-50.667703	-37.007753	-123.933674
1.050000	-37.360847	-129.203447	-0.107862	-53.200526	-0.107862	-53.200526	-37.177338	-126.377083
1.100000	-37.631190	-131.858441	-0.110585	-55.733888	-0.110585	-55.733888	-37.426155	-128.672825
1.150000	-37.991307	-134.409704	-0.113272	-58.267773	-0.113272	-58.267773	-37.759508	-130.804201
1.200000	-38.462856	-136.828690	-0.115928	-60.802249	-0.115928	-60.802249	-38.196480	-132.716008
1.250000	-39.050426	-139.109075	-0.118564	-63.337252	-0.118564	-63.337252	-38.739168	-134.390116
1.300000	-39.801157	-141.161616	-0.121183	-65.872944	-0.121183	-65.872944	-39.427317	-135.666933
1.350000	-40.731942	-142.952179	-0.123797	-68.409233	-0.123797	-68.409233	-40.269940	-136.487609
1.400000	-41.919028	-144.269340	-0.126412	-70.946270	-0.126412	-70.946270	-41.321540	-136.504478
1.450000	-43.446339	-144.863467	-0.129037	-73.484038	-0.129037	-73.484038	-42.628195	-135.355695
1.500000	-45.483949	-143.983130	-0.131679	-76.022622	-0.131679	-76.022622	-44.263116	-132.076683
1.550000	-48.345785	-139.605421	-0.134348	-78.562094	-0.134348	-78.562094	-46.281077	-124.711196
1.600000	-52.533761	-125.134845	-0.137050	-81.102438	-0.137050	-81.102438	-48.534011	-109.981888
1.650000	-55.631901	-76.743083	-0.139797	-83.643839	-0.139797	-83.643839	-49.745231	-83.130459
1.700000	-51.903166	-28.605390	-0.142591	-86.186171	-0.142591	-86.186171	-48.631601	-53.936418
1.750000	-47.109435	-14.742011	-0.145450	-88.729685	-0.145450	-88.729685	-45.839502	-36.154556
1.800000	-43.696872	-10.336528	-0.148371	-91.274233	-0.148371	-91.274233	-43.157660	-26.889110
1.850000	-41.083449	-9.432336	-0.151372	-93.819980	-0.151372	-93.819980	-40.832639	-22.680430
1.900000	-38.975527	-9.930606	-0.154456	-96.366889	-0.154456	-96.366889	-38.857067	-20.938603
1.950000	-37.206591	-11.135750	-0.157630	-98.914981	-0.157630	-98.914981	-37.155795	-20.557668
2.000000	-35.676981	-12.774624	-0.160909	-101.464342	-0.160909	-101.464342	-35.662819	-21.050160
2.050000	-34.333793	-14.652001	-0.164288	-104.014838	-0.164288	-104.014838	-34.341084	-22.037545
2.100000	-33.129297	-16.716860	-0.167793	-106.566683	-0.167793	-106.566683	-33.149043	-23.422154
2.150000	-32.043685	-18.887453	-0.171409	-109.119633	-0.171409	-109.119633	-32.071131	-25.035054
2.200000	-31.051372	-21.148453	-0.175164	-111.673885	-0.175164	-111.673885	-31.083373	-26.846531
2.250000	-30.141143	-23.467307	-0.179046	-114.229256	-0.179046	-114.229256	-30.175880	-28.787470
2.300000	-29.299816	-25.832976	-0.183070	-116.785808	-0.183070	-116.785808	-29.336074	-30.835311
2.350000	-28.518853	-28.233660	-0.187237	-119.343484	-0.187237	-119.343484	-28.555854	-32.964943
2.400000	-27.791576	-30.660164	-0.191545	-121.902203	-0.191545	-121.902203	-27.828829	-35.156511
2.450000	-27.111191	-33.108771	-0.196011	-124.462019	-0.196011	-124.462019	-27.148349	-37.402711
2.500000	-26.474169	-35.572144	-0.200613	-127.022728	-0.200613	-127.022728	-26.511042	-39.686708
2.550000	-25.875289	-38.049779	-0.205381	-129.584476	-0.205381	-129.584476	-25.911723	-42.008737
2.600000	-25.312190	-40.536447	-0.210285	-132.147014	-0.210285	-132.147014	-25.348122	-44.356052
2.650000	-24.781585	-43.031475	-0.215343	-134.710413	-0.215343	-134.710413	-24.816968	-46.728058
2.700000	-24.281169	-45.532483	-0.220538	-137.274534	-0.220538	-137.274534	-24.315993	-49.118877
2.750000	-23.808851	-48.038353	-0.225870	-139.839344	-0.225870	-139.839344	-23.843119	-51.526177
2.800000	-23.362844	-50.548088	-0.231336	-142.404794	-0.231336	-142.404794	-23.396571	-53.947761
2.850000	-22.941371	-53.060570	-0.236918	-144.970778	-0.236918	-144.970778	-22.974582	-56.380609
2.900000	-22.543531	-55.575431	-0.242622	-147.537309	-0.242622	-147.537309	-22.576257	-58.824514
2.950000	-22.167346	-58.091768	-0.248419	-150.104249	-0.248419	-150.104249	-22.199619	-61.276428
3.000000	-21.812773	-60.609382	-0.254317	-152.671626	-0.254317	-152.671626	-21.844630	-63.736774
3.050000	-21.477834	-63.127715	-0.260288	-155.239330	-0.260288	-155.239330	-21.509311	-66.203313
3.100000	-21.162470	-65.646535	-0.266325	-157.807357	-0.266325	-157.807357	-21.193607	-68.675984
3.150000	-20.865508	-68.165564	-0.272410	-160.375658	-0.272410	-160.375658	-20.896341	-71.153781
3.200000	-20.586302	-70.684592	-0.278529	-162.944205	-0.278529	-162.944205	-20.616868	-73.636135
3.250000	-20.324765	-73.203434	-0.284664	-165.512994	-0.284664	-165.512994	-20.355102	-76.122816
3.300000	-20.079331	-75.721970	-0.290799	-168.081989	-0.290799	-168.081989	-20.109473	-78.612963
3.350000	-19.850933	-78.240015	-0.296913	-170.651222	-0.296913	-170.651222	-19.880919	-81.106753
3.400000	-19.638313	-80.757492	-0.302989	-173.220681	-0.302989	-173.220681	-19.668176	-83.603571
3.450000	-19.441307	-83.274291	-0.309007	-175.790391	-0.309007	-175.790391	-19.471083	-86.103233
3.500000	-19.259624	-85.790319	-0.314950	-178.360382	-0.314950	-178.360382	-19.289346	-88.605529
3.550000	-19.093018	-88.305488	-0.320797	179.069306	-0.320797	179.069306	-19.122721	-91.110282
3.600000	-18.941285	-90.819712	-0.326530	176.498621	-0.326530	176.498621	-18.971004	-93.617343
3.650000	-18.804263	-93.332907	-0.332130	173.927499	-0.332130	173.927499	-18.834033	-96.126589
3.700000	-18.681829	-95.844987	-0.337579	171.355869	-0.337579	171.355869	-18.711684	-98.637915
3.750000	-18.573897	-98.355862	-0.342860	168.783646	-0.342860	168.783646	-18.603875	-101.151239
3.800000	-18.480714	-100.865405	-0.347950	166.210719	-0.347950	166.210719	-18.510853	-103.666533
3.850000	-18.401986	-103.373540	-0.352839	163.636994	-0.352839	163.636994	-18.432327	-106.183702
3.900000	-18.337739	-105.880153	-0.357511	161.062359	-0.357511	161.062359	-18.368324	-108.702710
3.950000	-18.288036	-108.385119	-0.361953	158.486688	-0.361953	158.486688	-18.318909	-111.223528
4.000000	-18.252980	-110.888297	-0.366154	155.909851	-0.366154	155.909851	-18.284190	-113.746143
4.050000	-18.232713	-113.389530	-0.370101	153.331707	-0.370101	153.331707	-18.264312	-116.270549
4.100000	-18.227420	-115.888637	-0.373788	150.752111	-0.373788	150.752111	-18.259465	-118.796748
4.150000	-18.237334	-118.385414	-0.377205	148.170909	-0.377205	148.170909	-18.269886	-121.324751
4.200000	-18.262732	-120.879623	-0.380349	145.587946	-0.380349	145.587946	-18.295860	-123.854574
4.250000	-18.303945	-123.370990	-0.383216	143.003059	-0.383216	143.003059	-18.337724	-126.386237
4.300000	-18.361361	-125.859199	-0.385803	140.416084	-0.385803	140.416084	-18.395875	-128.919766
4.350000	-18.435429	-128.343879	-0.388113	137.826856	-0.388113	137.826856	-18.470773	-131.455187
4.400000	-18.526849	-130.824546	-0.390145	135.235179	-0.390145	135.235179	-18.563129	-133.992545
4.450000	-18.636224	-133.300669	-0.391903	132.640883	-0.391903	132.640883	-18.673560	-136.531865
4.500000	-18.764056	-135.771680	-0.393399	130.043829	-0.393399	130.043829	-18.802584	-139.073143
4.550000	-18.911124	-138.236855	-0.394641	127.443858	-0.394641	127.443858	-18.950999	-141.616388
4.600000	-19.078318	-140.695333	-0.395642	124.840813	-0.395642	124.840813	-19.119717	-144.161595
4.650000	-19.266656	-143.146083	-0.396414	122.234543	-0.396414	122.234543	-19.309782	-146.708744
4.700000	-19.477301	-145.587869	-0.396973	119.624906	-0.396973	119.624906	-19.522393	-149.257793
4.750000	-19.711591	-148.019199	-0.397336	117.011768	-0.397336	117.011768	-19.758926	-151.808668
4.800000	-19.971066	-150.438267	-0.397523	114.395002	-0.397523	114.395002	-20.020971	-154.361262
4.850000	-20.257504	-152.842869	-0.397556	111.774493	-0.397556	111.774493	-20.310368	-156.915417
4.900000	-20.572972	-155.230301	-0.397455	109.150140	-0.397455	109.150140	-20.629261	-159.470915
4.950000	-20.919885	-157.597217	-0.397247	106.521853	-0.397247	106.521853	-20.980164	-162.027463
5.000000	-21.301081	-159.939446	-0.396955	103.889554	-0.396955	103.889554	-21.366042	-164.584664
5.050000	-21.720272	-162.251052	-0.396606	101.253110	-0.396606	101.253110	-21.790783	-167.141978
5.100000	-22.181134	-164.525674	-0.396229	98.612546	-0.396229	98.612546	-22.258280	-169.698681
5.150000	-22.689272	-166.752229	-0.395852	95.967674	-0.395852	95.967674	-22.774470	-172.253700
5.200000	-23.248923	-168.923914	-0.395503	93.318845	-0.395503	93.318845	-23.343957	-174.805973
5.250000	-23.868413	-171.022015	-0.395210	90.665842	-0.395210	90.665842	-23.975706	-177.353572
5.300000	-24.556523	-173.028664	-0.395000	88.008786	-0.395000	88.008786	-24.679341	-179.894349
5.350000	-25.325850	-174.908829	-0.394904	85.347540	-0.394904	85.347540	-25.468864	177.575612
5.400000	-26.191271	-176.621696	-0.394949	82.682259	-0.394949	82.682259	-26.361241	175.061247
5.450000	-27.173434	-178.099300	-0.395162	80.012982	-0.395162	80.012982	-27.380674	172.570704
5.500000	-28.300261	-179.237748	-0.395570	77.339819	-0.395570	77.339819	-28.561305	170.116826
5.550000	-29.611184	-179.865532	-0.396194	74.662898	-0.396194	74.662898	-29.954353	167.721537
5.600000	-31.163591	-179.674701	-0.397057	71.982341	-0.397057	71.982341	-31.641904	165.426284
5.650000	-33.042313	-178.065398	-0.398180	69.298283	-0.398180	69.298283	-33.767681	163.319437
5.700000	-35.367229	-173.735360	-0.399580	66.610874	-0.399580	66.610874	-36.619944	161.629120
5.750000	-38.240042	-163.536102	-0.401274	63.920274	-0.401274	63.920274	-40.927080	161.181479
5.800000	-41.198148	-140.411617	-0.403273	61.226652	-0.403273	61.226652	-49.748476	169.207385
5.850000	-41.593463	-103.203557	-0.405590	58.530174	-0.405590	58.530174	-50.946310	-48.182982
5.900000	-38.837492	-76.689939	-0.408235	55.831013	-0.408235	55.831013	-41.348515	-38.141980
5.950000	-35.865881	-64.709739	-0.411207	53.129385	-0.411207	53.129385	-36.863843	-38.421549
6.000000	-33.435759	-59.607197	-0.414508	50.425479	-0.414508	50.425479	-33.931576	-40.078377
6.050000	-31.478350	-57.635995	-0.418137	47.719486	-0.418137	47.719486	-31.759397	-42.186322
6.100000	-29.868651	-57.264902	-0.422086	45.011590	-0.422086	45.011590	-30.041450	-44.498039
6.150000	-28.515534	-57.803986	-0.426348	42.301973	-0.426348	42.301973	-28.627344	-46.919310
6.200000	-27.357400	-58.905717	-0.430910	39.590809	-0.430910	39.590809	-27.431992	-49.406339
6.250000	-26.352120	-60.378179	-0.435758	36.878263	-0.435758	36.878263	-26.402595	-51.935932
6.300000	-25.470392	-62.109994	-0.440877	34.164469	-0.440877	34.164469	-25.504521	-54.494892
6.350000	-24.690485	-64.025431	-0.446242	31.449586	-0.446242	31.449586	-24.713069	-57.074346
6.400000	-23.996466	-66.077821	-0.451829	28.733733	-0.451829	28.733733	-24.010633	-59.668806
6.450000	-23.376248	-68.235051	-0.457612	26.017014	-0.457612	26.017014	-23.384101	-62.274460
6.500000	-22.820478	-70.474335	-0.463563	23.299508	-0.463563	23.299508	-22.823475	-64.888560
6.550000	-22.321812	-72.779081	-0.469653	20.581275	-0.469653	20.581275	-22.320980	-67.509061
6.600000	-21.874404	-75.136936	-0.475849	17.862350	-0.475849	17.862350	-21.870483	-70.134398
6.650000	-21.473562	-77.538539	-0.482118	15.142744	-0.482118	15.142744	-21.467088	-72.763346
6.700000	-21.116356	-79.977671	-0.488428	12.422418	-0.488428	12.422418	-21.107727	-75.394980
6.750000	-20.798077	-82.446689	-0.494744	9.701370	-0.494744	9.701370	-20.787574	-78.028370
6.800000	-20.516986	-84.942227	-0.501032	6.979511	-0.501032	6.979511	-20.504817	-80.662926
6.850000	-20.271063	-87.460793	-0.507260	4.256742	-0.507260	4.256742	-20.257375	-83.298088
6.900000	-20.058996	-89.999812	-0.513393	1.532924	-0.513393	1.532924	-20.043888	-85.933366
6.950000	-19.879536	-92.557034	-0.519399	-1.192105	-0.519399	-1.192105	-19.863069	-88.568317
7.000000	-19.731433	-95.130536	-0.525251	-3.918515	-0.525251	-3.918515	-19.713633	-91.202548
7.050000	-19.614017	-97.718998	-0.530921	-6.646517	-0.530921	-6.646517	-19.594883	-93.835686
7.100000	-19.526879	-100.321418	-0.536385	-9.376345	-0.536385	-9.376345	-19.506386	-96.467358
7.150000	-19.469865	-102.937071	-0.541621	-12.108259	-0.541621	-12.108259	-19.447961	-99.097176
7.200000	-19.443066	-105.565477	-0.546612	-14.842537	-0.546612	-14.842537	-19.419678	-101.724712
7.250000	-19.446828	-108.206374	-0.551345	-17.579482	-0.551345	-17.579482	-19.421854	-104.349481
7.300000	-19.481760	-110.859707	-0.555808	-20.319411	-0.555808	-20.319411	-19.455074	-106.970909
7.350000	-19.548755	-113.525623	-0.559997	-23.062658	-0.559997	-23.062658	-19.520200	-109.588299
7.400000	-19.649022	-116.204465	-0.563912	-25.809570	-0.563912	-25.809570	-19.618405	-112.200789
7.450000	-19.784125	-118.896791	-0.567556	-28.560502	-0.567556	-28.560502	-19.751213	-114.807297
7.500000	-19.956044	-121.603387	-0.570941	-31.315816	-0.570941	-31.315816	-19.920553	-117.406450
7.550000	-20.168031	-124.325674	-0.574076	-34.075989	-0.574076	-34.075989	-20.129610	-119.996236
7.600000	-20.422414	-127.064749	-0.576988	-36.841290	-0.576988	-36.841290	-20.380640	-122.574490
7.650000	-20.722999	-129.822432	-0.579704	-39.612079	-0.579704	-39.612079	-20.677344	-125.138172
7.700000	-21.074513	-132.601090	-0.582257	-42.388706	-0.582257	-42.388706	-21.024322	-127.683259
7.750000	-21.481739	-135.403083	-0.584688	-45.171332	-0.584688	-45.171332	-21.426189	-130.205184
7.800000	-21.954154	-138.233743	-0.587033	-47.960587	-0.587033	-47.960587	-21.892162	-132.695444
7.850000	-22.500867	-141.098533	-0.589346	-50.756695	-0.589346	-50.756695	-22.431010	-135.143991
7.900000	-23.134222	-144.005367	-0.591681	-53.559899	-0.591681	-53.559899	-23.054579	-137.536393
7.950000	-23.870871	-146.965826	-0.594097	-56.370427	-0.594097	-56.370427	-23.778765	-139.851500
8.000000	-24.733863	-149.997635	-0.596658	-59.188492	-0.596658	-59.188492	-24.625414	-142.057010
8.050000	-25.756025	-153.129108	-0.599431	-62.014272	-0.599431	-62.014272	-25.625333	-144.101535
8.100000	-26.986320	-156.408458	-0.602486	-64.847904	-0.602486	-64.847904	-26.823833	-145.898393
8.150000	-28.502820	-159.927164	-0.605899	-67.689526	-0.605899	-67.689526	-28.291657	-147.285815
8.200000	-30.439684	-163.877672	-0.609748	-70.539185	-0.609748	-70.539185	-30.146210	-147.932327
8.250000	-33.059629	-168.764440	-0.614115	-73.396945	-0.614115	-73.396945	-32.602868	-147.010714
8.300000	-36.980822	-176.295795	-0.619067	-76.262578	-0.619067	-76.262578	-36.096929	-142.024949
8.350000	-44.217843	162.879640	-0.624668	-79.135854	-0.624668	-79.135854	-41.440437	-122.414075
8.400000	-46.632032	52.621956	-0.631023	-82.016956	-0.631023	-82.016956	-43.683220	-55.490945
8.450000	-37.768876	21.665993	-0.638198	-84.905542	-0.638198	-84.905542	-37.602596	-19.562673
8.500000	-33.112935	13.116595	-0.646268	-87.801383	-0.646268	-87.801383	-33.198704	-11.411923
8.550000	-30.010637	7.885712	-0.655297	-90.704099	-0.655297	-90.704099	-30.131705	-9.493644
8.600000	-27.680440	3.741757	-0.665344	-93.613322	-0.665344	-93.613322	-27.802135	-9.725688
8.650000	-25.812469	0.082623	-0.676469	-96.528635	-0.676469	-96.528635	-25.927838	-10.932841
8.700000	-24.253419	-3.319717	-0.688721	-99.449576	-0.688721	-99.449576	-24.361535	-12.661824
8.750000	-22.916412	-6.570128	-0.702142	-102.375645	-0.702142	-102.375645	-23.017835	-14.702179
8.800000	-21.747421	-9.722591	-0.716779	-105.306346	-0.716779	-105.306346	-21.843022	-16.944468
8.850000	-20.710820	-12.809309	-0.732646	-108.241053	-0.732646	-108.241053	-20.801473	-19.322377
8.900000	-19.781642	-15.848890	-0.749756	-111.179172	-0.749756	-111.179172	-19.868117	-21.796689
8.950000	-18.941790	-18.853167	-0.768115	-114.120090	-0.768115	-114.120090	-19.024752	-24.341617
9.000000	-18.177732	-21.829908	-0.787716	-117.063180	-0.787716	-117.063180	-18.257747	-26.939426
9.050000	-17.479087	-24.784328	-0.808541	-120.007814	-0.808541	-120.007814	-17.556640	-29.577445
9.100000	-16.837774	-27.719844	-0.830571	-122.953365	-0.830571	-122.953365	-16.913282	-32.246511
9.150000	-16.247282	-30.639008	-0.853757	-125.899205	-0.853757	-125.899205	-16.321110	-34.939284
9.200000	-15.702283	-33.543564	-0.878040	-128.844736	-0.878040	-128.844736	-15.774751	-37.650140
9.250000	-15.198573	-36.434443	-0.903369	-131.789373	-0.903369	-131.789373	-15.269966	-40.374880
9.300000	-14.732468	-39.312509	-0.929659	-134.732580	-0.929659	-134.732580	-14.803044	-43.109803
9.350000	-14.300944	-42.178217	-0.956823	-137.673858	-0.956823	-137.673858	-14.370939	-45.851998
9.400000	-13.901442	-45.031825	-0.984763	-140.612759	-0.984763	-140.612759	-13.971071	-48.599035
9.450000	-13.531779	-47.873450	-1.013374	-143.548884	-1.013374	-143.548884	-13.601247	-51.348861
9.500000	-13.190088	-50.703100	-1.042539	-146.481899	-1.042539	-146.481899	-13.259586	-54.099726
9.550000	-12.874761	-53.520704	-1.072134	-149.411532	-1.072134	-149.411532	-12.944473	-56.850119
9.600000	-12.584485	-56.326067	-1.102025	-152.337567	-1.102025	-152.337567	-12.654590	-59.598713
9.650000	-12.318142	-59.118935	-1.132071	-155.259861	-1.132071	-155.259861	-12.388817	-62.344315
9.700000	-12.074561	-61.899184	-1.162123	-158.178409	-1.162123	-158.178409	-12.145981	-65.085914
9.750000	-11.852854	-64.666522	-1.192030	-161.093256	-1.192030	-161.093256	-11.925192	-67.822577
9.800000	-11.652260	-67.420600	-1.221635	-164.004531	-1.221635	-164.004531	-11.725695	-70.553434
9.850000	-11.472137	-70.161004	-1.250779	-166.912456	-1.250779	-166.912456	-11.546851	-73.277659
9.900000	-11.311945	-72.887243	-1.279300	-169.817345	-1.279300	-169.817345	-11.388128	-75.994438
9.950000	-11.171243	-75.598732	-1.307032	-172.719603	-1.307032	-172.719603	-11.249094	-78.702949
10.000000	-11.049676	-78.294774	-1.333811	-175.619736	-1.333811	-175.619736	-11.129410	-81.402331
