! freq	dB(S11)	phase(S11)	dB(S12)	phase(S12)	
!     	dB(S21)	phase(S21)	dB(S22)	phase(S22)	
!S-par simulation data
#  GHz  S  DB  R 50
0.000000	-0.000000	0.000000	-360.600833	0.000000	-360.600833	0.000000	-0.000000	0.000000
0.050000	-0.000088	-1.051108	-89.782155	11.418484	-89.782155	11.418484	-0.000088	-1.051099
0.100000	-0.000351	-2.102045	-89.363491	20.270728	-89.363491	20.270728	-0.000352	-2.102026
0.150000	-0.000784	-3.152644	-88.752918	28.373562	-88.752918	28.373562	-0.000786	-3.152614
0.200000	-0.001378	-4.202755	-88.032510	35.292352	-88.032510	35.292352	-0.001381	-4.202712
0.250000	-0.002135	-5.252187	-87.261948	40.965832	-87.261948	40.965832	-0.002139	-5.252129
0.300000	-0.003028	-6.300866	-86.495545	45.658209	-86.495545	45.658209	-0.003033	-6.300790
0.350000	-0.004053	-7.348644	-85.754709	49.497019	-85.754709	49.497019	-0.004059	-7.348547
0.400000	-0.005196	-8.395412	-85.053682	52.650692	-85.053682	52.650692	-0.005204	-8.395291
0.450000	-0.006444	-9.441075	-84.399062	55.262768	-84.399062	55.262768	-0.006454	-9.440927
0.500000	-0.007784	-10.485553	-83.793006	57.450371	-83.793006	57.450371	-0.007795	-10.485375
0.550000	-0.009201	-11.528778	-83.235234	59.307565	-83.235234	59.307565	-0.009213	-11.528567
0.600000	-0.010683	-12.570694	-82.724211	60.909860	-82.724211	60.909860	-0.010697	-12.570448
0.650000	-0.012218	-13.611258	-82.257823	62.318443	-82.257823	62.318443	-0.012232	-13.610973
0.700000	-0.013793	-14.650433	-81.833744	63.583693	-81.833744	63.583693	-0.013808	-14.650108
0.750000	-0.015399	-15.688193	-81.449631	64.747970	-81.449631	64.747970	-0.015414	-15.687826
0.800000	-0.017026	-16.724516	-81.103204	65.847792	-81.103204	65.847792	-0.017041	-16.724105
0.850000	-0.018666	-17.759385	-80.792272	66.915519	-80.792272	66.915519	-0.018681	-17.758929
0.900000	-0.020311	-18.792789	-80.514720	67.980661	-80.514720	67.980661	-0.020325	-18.792287
0.950000	-0.021955	-19.824715	-80.268461	69.070903	-80.268461	69.070903	-0.021969	-19.824166
1.000000	-0.023594	-20.855156	-80.051374	70.212904	-80.051374	70.212904	-0.023607	-20.854559
1.050000	-0.025222	-21.884101	-79.861227	71.432893	-79.861227	71.432893	-0.025235	-21.883457
1.100000	-0.026838	-22.911544	-79.695572	72.757098	-79.695572	72.757098	-0.026849	-22.910852
1.150000	-0.028437	-23.937474	-79.551623	74.211965	-79.551623	74.211965	-0.028448	-23.936734
1.200000	-0.030019	-24.961881	-79.426124	75.824149	-79.426124	75.824149	-0.030028	-24.961093
1.250000	-0.031581	-25.984753	-79.315183	77.620198	-79.315183	77.620198	-0.031589	-25.983917
1.300000	-0.033123	-27.006010	-79.214213	79.636055	-79.214213	79.636055	-0.033130	-27.005127
1.350000	-0.034643	-28.025704	-79.116821	81.886895	-79.116821	81.886895	-0.034649	-28.024775
1.400000	-0.036144	-29.043819	-79.016058	84.391501	-79.016058	84.391501	-0.036148	-29.042844
1.450000	-0.037624	-30.060338	-78.903835	87.161573	-78.903835	87.161573	-0.037627	-30.059317
1.500000	-0.039084	-31.075241	-78.771034	90.198498	-78.771034	90.198498	-0.039087	-31.074175
1.550000	-0.040526	-32.088510	-78.607858	93.489966	-78.607858	93.489966	-0.040527	-32.087399
1.600000	-0.041949	-33.100124	-78.404425	97.007141	-78.404425	97.007141	-0.041949	-33.098969
1.650000	-0.043355	-34.110059	-78.151621	100.703315	-78.151621	100.703315	-0.043355	-34.108861
1.700000	-0.044746	-35.118295	-77.842084	104.514972	-77.842084	104.514972	-0.044744	-35.117054
1.750000	-0.046121	-36.124807	-77.471138	108.365726	-77.471138	108.365726	-0.046118	-36.123525
1.800000	-0.047482	-37.129573	-77.037425	112.172792	-77.037425	112.172792	-0.047479	-37.128249
1.850000	-0.048831	-38.132567	-76.543056	115.854801	-76.543056	115.854801	-0.048827	-38.131202
1.900000	-0.050169	-39.133766	-75.993243	119.339237	-75.993243	119.339237	-0.050164	-39.132361
1.950000	-0.051496	-40.133145	-75.395507	122.567979	-75.395507	122.567979	-0.051491	-40.131701
2.000000	-0.052815	-41.130680	-74.758699	125.500086	-74.758699	125.500086	-0.052809	-41.129197
2.050000	-0.054126	-42.126347	-74.092042	128.111850	-74.092042	128.111850	-0.054119	-42.124825
2.100000	-0.055430	-43.120121	-73.404379	130.394798	-73.404379	130.394798	-0.055424	-43.118562
2.150000	-0.056729	-44.111980	-72.703666	132.352581	-72.703666	132.352581	-0.056723	-44.110383
2.200000	-0.058024	-45.101899	-71.996721	133.997580	-71.996721	133.997580	-0.058017	-45.100266
2.250000	-0.059316	-46.089856	-71.289160	135.347810	-71.289160	135.347810	-0.059309	-46.088187
2.300000	-0.060606	-47.075829	-70.585454	136.424404	-70.585454	136.424404	-0.060599	-47.074124
2.350000	-0.061895	-48.059797	-69.889062	137.249735	-69.889062	137.249735	-0.061888	-48.058056
2.400000	-0.063184	-49.041738	-69.202581	137.846122	-69.202581	137.846122	-0.063177	-49.039962
2.450000	-0.064475	-50.021632	-68.527904	138.235009	-68.527904	138.235009	-0.064468	-50.019822
2.500000	-0.065767	-50.999460	-67.866359	138.436487	-67.866359	138.436487	-0.065760	-50.997616
2.550000	-0.067063	-51.975112	-67.217414	138.462514	-67.217414	138.462514	-0.067056	-51.973234
2.600000	-0.068362	-52.948660	-66.583239	138.337864	-66.583239	138.337864	-0.068356	-52.946749
2.650000	-0.069666	-53.920088	-65.964085	138.077561	-65.964085	138.077561	-0.069660	-53.918143
2.700000	-0.070977	-54.889380	-65.360010	137.695117	-65.360010	137.695117	-0.070971	-54.887402
2.750000	-0.072293	-55.856520	-64.770927	137.202662	-64.770927	137.202662	-0.072287	-55.854510
2.800000	-0.073617	-56.821496	-64.196641	136.611063	-64.196641	136.611063	-0.073611	-56.819453
2.850000	-0.074949	-57.784294	-63.636884	135.930059	-63.636884	135.930059	-0.074944	-57.782219
2.900000	-0.076289	-58.744903	-63.091329	135.168378	-63.091329	135.168378	-0.076284	-58.742796
2.950000	-0.077639	-59.703311	-62.559616	134.333848	-62.559616	134.333848	-0.077635	-59.701173
3.000000	-0.079000	-60.659509	-62.041356	133.433499	-62.041356	133.433499	-0.078995	-60.657339
3.050000	-0.080371	-61.613488	-61.536147	132.473652	-61.536147	132.473652	-0.080367	-61.611287
3.100000	-0.081753	-62.565240	-61.043579	131.459997	-61.043579	131.459997	-0.081750	-62.563008
3.150000	-0.083148	-63.514758	-60.563237	130.397663	-60.563237	130.397663	-0.083145	-63.512495
3.200000	-0.084556	-64.462037	-60.094710	129.291281	-60.094710	129.291281	-0.084552	-64.459744
3.250000	-0.085977	-65.407073	-59.637589	128.145034	-59.637589	128.145034	-0.085973	-65.404749
3.300000	-0.087412	-66.349860	-59.191472	126.962704	-59.191472	126.962704	-0.087409	-66.347506
3.350000	-0.088861	-67.290397	-58.755965	125.747716	-58.755965	125.747716	-0.088858	-67.288013
3.400000	-0.090325	-68.228683	-58.330683	124.503169	-58.330683	124.503169	-0.090323	-68.226268
3.450000	-0.091806	-69.164715	-57.915249	123.231870	-57.915249	123.231870	-0.091803	-69.162271
3.500000	-0.093302	-70.098496	-57.509299	121.936362	-57.509299	121.936362	-0.093299	-70.096022
3.550000	-0.094815	-71.030026	-57.112477	120.618944	-57.112477	120.618944	-0.094812	-71.027523
3.600000	-0.096345	-71.959308	-56.724438	119.281697	-56.724438	119.281697	-0.096342	-71.956775
3.650000	-0.097893	-72.886345	-56.344850	117.926502	-56.344850	117.926502	-0.097890	-72.883783
3.700000	-0.099459	-73.811142	-55.973389	116.555054	-55.973389	116.555054	-0.099456	-73.808551
3.750000	-0.101043	-74.733704	-55.609744	115.168881	-55.609744	115.168881	-0.101041	-74.731083
3.800000	-0.102648	-75.653940	-55.253307	113.768834	-55.253307	113.768834	-0.102646	-75.651291
3.850000	-0.104272	-76.571956	-54.904120	112.356764	-54.904120	112.356764	-0.104270	-76.569278
3.900000	-0.105916	-77.487760	-54.561901	110.933755	-54.561901	110.933755	-0.105914	-77.485054
3.950000	-0.107581	-78.401361	-54.226378	109.500771	-54.226378	109.500771	-0.107579	-78.398627
4.000000	-0.109267	-79.312769	-53.897291	108.058667	-53.897291	108.058667	-0.109265	-79.310007
4.050000	-0.110974	-80.221996	-53.574389	106.608198	-53.574389	106.608198	-0.110972	-80.219206
4.100000	-0.112704	-81.129054	-53.257432	105.150027	-53.257432	105.150027	-0.112701	-81.126236
4.150000	-0.114455	-82.033955	-52.946192	103.684730	-52.946192	103.684730	-0.114453	-82.031111
4.200000	-0.116229	-82.936714	-52.640447	102.212805	-52.640447	102.212805	-0.116227	-82.933843
4.250000	-0.118027	-83.837346	-52.339987	100.734679	-52.339987	100.734679	-0.118024	-83.834448
4.300000	-0.119848	-84.735866	-52.044612	99.250713	-52.044612	99.250713	-0.119845	-84.732941
4.350000	-0.121693	-85.632290	-51.754131	97.761206	-51.754131	97.761206	-0.121689	-85.629338
4.400000	-0.123562	-86.526636	-51.468360	96.266404	-51.468360	96.266404	-0.123558	-86.523659
4.450000	-0.125456	-87.418922	-51.187125	94.766500	-51.187125	94.766500	-0.125452	-87.415919
4.500000	-0.127375	-88.309167	-50.910260	93.261643	-50.910260	93.261643	-0.127371	-88.306139
4.550000	-0.129320	-89.197392	-50.637607	91.751939	-50.637607	91.751939	-0.129316	-89.194338
4.600000	-0.131291	-90.083616	-50.369016	90.237458	-50.369016	90.237458	-0.131286	-90.080538
4.650000	-0.133288	-90.967861	-50.104344	88.718232	-50.104344	88.718232	-0.133283	-90.964758
4.700000	-0.135312	-91.850150	-49.843454	87.194265	-49.843454	87.194265	-0.135307	-91.847023
4.750000	-0.137363	-92.730505	-49.586218	85.665532	-49.586218	85.665532	-0.137358	-92.727355
4.800000	-0.139442	-93.608951	-49.332511	84.131982	-49.332511	84.131982	-0.139436	-93.605778
4.850000	-0.141548	-94.485512	-49.082215	82.593542	-49.082215	82.593542	-0.141543	-94.482316
4.900000	-0.143683	-95.360214	-48.835218	81.050116	-48.835218	81.050116	-0.143677	-95.356996
4.950000	-0.145847	-96.233084	-48.591411	79.501590	-48.591411	79.501590	-0.145841	-96.229843
5.000000	-0.148039	-97.104148	-48.350692	77.947833	-48.350692	77.947833	-0.148033	-97.100886
5.050000	-0.150263	-97.973358	-48.112807	76.388453	-48.112807	76.388453	-0.150256	-97.970075
5.100000	-0.152516	-98.840822	-47.877816	74.823510	-47.877816	74.823510	-0.152509	-98.837518
5.150000	-0.154799	-99.706570	-47.645626	73.252823	-47.645626	73.252823	-0.154793	-99.703246
5.200000	-0.157114	-100.570633	-47.416144	71.676191	-47.416144	71.676191	-0.157107	-100.567289
5.250000	-0.159459	-101.433041	-47.189276	70.093398	-47.189276	70.093398	-0.159452	-101.429678
5.300000	-0.161835	-102.293828	-46.964932	68.504211	-46.964932	68.504211	-0.161828	-102.290445
5.350000	-0.164244	-103.153026	-46.743018	66.908375	-46.743018	66.908375	-0.164236	-103.149625
5.400000	-0.166684	-104.010671	-46.523441	65.305613	-46.523441	65.305613	-0.166677	-104.007252
5.450000	-0.169158	-104.866797	-46.306104	63.695621	-46.306104	63.695621	-0.169150	-104.863360
5.500000	-0.171664	-105.721441	-46.090907	62.078066	-46.090907	62.078066	-0.171656	-105.717988
5.550000	-0.174203	-106.574642	-45.877744	60.452576	-45.877744	60.452576	-0.174195	-106.571172
5.600000	-0.176776	-107.426437	-45.666504	58.818737	-45.666504	58.818737	-0.176768	-107.422951
5.650000	-0.179383	-108.276868	-45.457067	57.176083	-45.457067	57.176083	-0.179375	-108.273366
5.700000	-0.182025	-109.125977	-45.249304	55.524086	-45.249304	55.524086	-0.182016	-109.122459
5.750000	-0.184701	-109.973806	-45.043073	53.862143	-45.043073	53.862143	-0.184693	-109.970273
5.800000	-0.187413	-110.820403	-44.838218	52.189558	-44.838218	52.189558	-0.187404	-110.816855
5.850000	-0.190167	-111.665623	-44.633884	50.503243	-44.633884	50.503243	-0.190158	-111.662060
5.900000	-0.192959	-112.509659	-44.430424	48.803977	-44.430424	48.803977	-0.192950	-112.506082
5.950000	-0.195770	-113.353154	-44.229499	47.097145	-44.229499	47.097145	-0.195761	-113.349563
6.000000	-0.198640	-114.195023	-44.026893	45.367621	-44.026893	45.367621	-0.198630	-114.191418
6.050000	-0.201523	-115.036576	-43.827280	43.631856	-43.827280	43.631856	-0.201513	-115.032958
6.100000	-0.204472	-115.876548	-43.624213	41.864892	-43.624213	41.864892	-0.204463	-115.872916
6.150000	-0.207429	-116.716389	-43.424817	40.093930	-43.424817	40.093930	-0.207420	-116.712743
6.200000	-0.210463	-117.554785	-43.219485	38.278998	-43.219485	38.278998	-0.210453	-117.551125
6.250000	-0.213497	-118.393182	-43.018896	36.464065	-43.018896	36.464065	-0.213487	-118.389507
6.300000	-0.216597	-119.230637	-42.812792	34.603810	-42.812792	34.603810	-0.216586	-119.226949
6.350000	-0.219741	-120.067642	-42.603899	32.708039	-42.603899	32.708039	-0.219731	-120.063938
6.400000	-0.222933	-120.904323	-42.391327	30.770518	-42.391327	30.770518	-0.222922	-120.900603
6.450000	-0.226174	-121.740832	-42.173996	28.783391	-42.173996	28.783391	-0.226163	-121.737096
6.500000	-0.229471	-122.577352	-41.950579	26.736642	-41.950579	26.736642	-0.229459	-122.573598
6.550000	-0.232829	-123.414104	-41.719430	24.617326	-41.719430	24.617326	-0.232816	-123.410331
6.600000	-0.236257	-124.251367	-41.478478	22.408465	-41.478478	22.408465	-0.236243	-124.247572
6.650000	-0.239770	-125.089497	-41.225083	20.087387	-41.225083	20.087387	-0.239755	-125.085678
6.700000	-0.243374	-125.928747	-40.959103	17.643831	-40.959103	17.643831	-0.243357	-125.924902
6.750000	-0.247136	-126.770202	-40.668755	14.989450	-40.668755	14.989450	-0.247118	-126.766326
6.800000	-0.251080	-127.614260	-40.355016	12.107446	-40.355016	12.107446	-0.251058	-127.610349
6.850000	-0.255329	-128.462546	-40.005094	8.874111	-40.005094	8.874111	-0.255303	-128.458595
6.900000	-0.260037	-129.316599	-39.611232	5.173512	-39.611232	5.173512	-0.260005	-129.312602
6.950000	-0.265509	-130.178906	-39.160666	0.803383	-39.160666	0.803383	-0.265468	-130.174857
7.000000	-0.272487	-131.054296	-38.628236	-4.667047	-38.628236	-4.667047	-0.272433	-131.050194
7.050000	-0.282475	-131.948674	-37.995050	-11.906969	-37.995050	-11.906969	-0.282401	-131.944531
7.100000	-0.299369	-132.868899	-37.255393	-22.332854	-37.255393	-22.332854	-0.299267	-132.864776
7.150000	-0.332948	-133.800467	-36.536886	-38.776209	-36.536886	-38.776209	-0.332823	-133.796525
7.200000	-0.397796	-134.582545	-36.565167	-65.819686	-36.565167	-65.819686	-0.397709	-134.578702
7.250000	-0.443300	-134.883117	-39.260351	-102.810980	-39.260351	-102.810980	-0.443138	-134.878597
7.300000	-0.402772	-135.287868	-45.652232	-139.530200	-45.652232	-139.530200	-0.402492	-135.284325
7.350000	-0.362235	-136.061272	-55.181126	162.335585	-55.181126	162.335585	-0.362029	-136.058443
7.400000	-0.342000	-136.929441	-53.556445	72.284743	-53.556445	72.284743	-0.341868	-136.926727
7.450000	-0.332964	-137.803070	-49.297652	46.449205	-49.297652	46.449205	-0.332876	-137.800299
7.500000	-0.329406	-138.667710	-47.036023	35.234358	-47.036023	35.234358	-0.329344	-138.664852
7.550000	-0.328865	-139.522759	-45.665885	28.382340	-45.665885	28.382340	-0.328819	-139.519819
7.600000	-0.329815	-140.371412	-44.701813	23.230529	-44.701813	23.230529	-0.329780	-140.368399
7.650000	-0.331857	-141.214481	-43.995878	19.200442	-43.995878	19.200442	-0.331829	-141.211407
7.700000	-0.334553	-142.053810	-43.439449	15.802144	-43.439449	15.802144	-0.334530	-142.050682
7.750000	-0.337720	-142.890273	-42.984795	12.843395	-42.984795	12.843395	-0.337702	-142.887097
7.800000	-0.341281	-143.724347	-42.607221	10.236045	-42.607221	10.236045	-0.341264	-143.721128
7.850000	-0.345019	-144.557369	-42.268772	7.782824	-42.268772	7.782824	-0.345005	-144.554110
7.900000	-0.349037	-145.388870	-41.977326	5.562256	-41.977326	5.562256	-0.349024	-145.385574
7.950000	-0.353207	-146.219709	-41.711827	3.458444	-41.711827	3.458444	-0.353196	-146.216376
8.000000	-0.357506	-147.050066	-41.466965	1.448913	-41.466965	1.448913	-0.357495	-147.046698
8.050000	-0.361938	-147.880036	-41.240842	-0.467271	-41.240842	-0.467271	-0.361928	-147.876632
8.100000	-0.366511	-148.709837	-41.030741	-2.296245	-41.030741	-2.296245	-0.366500	-148.706398
8.150000	-0.371171	-149.539663	-40.830831	-4.076297	-40.830831	-4.076297	-0.371160	-149.536187
8.200000	-0.375915	-150.369568	-40.639890	-5.811685	-40.639890	-5.811685	-0.375905	-150.366055
8.250000	-0.380772	-151.199759	-40.457639	-7.493924	-40.457639	-7.493924	-0.380761	-151.196206
8.300000	-0.385714	-152.030322	-40.281416	-9.141926	-40.281416	-9.141926	-0.385702	-152.026729
8.350000	-0.390735	-152.861326	-40.110132	-10.761639	-40.110132	-10.761639	-0.390723	-152.857690
8.400000	-0.395849	-153.692925	-39.943288	-12.351106	-39.943288	-12.351106	-0.395835	-153.689243
8.450000	-0.401003	-154.524866	-39.779512	-13.930687	-39.779512	-13.930687	-0.400988	-154.521137
8.500000	-0.406275	-155.357833	-39.618543	-15.480608	-39.618543	-15.480608	-0.406258	-155.354052
8.550000	-0.411574	-156.191078	-39.460111	-17.026183	-39.460111	-17.026183	-0.411556	-156.187244
8.600000	-0.416998	-157.025712	-39.302589	-18.550028	-39.302589	-18.550028	-0.416978	-157.021820
8.650000	-0.422437	-157.860508	-39.147541	-20.072639	-39.147541	-20.072639	-0.422415	-157.856557
8.700000	-0.428009	-158.697083	-38.991635	-21.581671	-38.991635	-21.581671	-0.427986	-158.693065
8.750000	-0.433586	-159.533657	-38.838478	-23.090703	-38.838478	-23.090703	-0.433560	-159.529573
8.800000	-0.439270	-160.371846	-38.684241	-24.594941	-38.684241	-24.594941	-0.439242	-160.367688
8.850000	-0.445025	-161.211145	-38.529923	-26.099158	-38.529923	-26.099158	-0.444993	-161.206909
8.900000	-0.450849	-162.051607	-38.375288	-27.605477	-38.375288	-27.605477	-0.450815	-162.047289
8.950000	-0.456743	-162.893287	-38.220126	-29.116003	-38.220126	-29.116003	-0.456705	-162.888881
9.000000	-0.462706	-163.736237	-38.064249	-30.632839	-38.064249	-30.632839	-0.462665	-163.731737
9.050000	-0.468739	-164.580508	-37.907492	-32.158106	-37.907492	-32.158106	-0.468694	-164.575909
9.100000	-0.474842	-165.426151	-37.749709	-33.693955	-37.749709	-33.693955	-0.474792	-165.421447
9.150000	-0.481013	-166.273215	-37.590776	-35.242579	-37.590776	-35.242579	-0.480959	-166.268400
9.200000	-0.487254	-167.121752	-37.430589	-36.806229	-37.430589	-36.806229	-0.487196	-167.116818
9.250000	-0.493564	-167.971808	-37.269064	-38.387220	-37.269064	-38.387220	-0.493501	-167.966750
9.300000	-0.499944	-168.823433	-37.106139	-39.987943	-37.106139	-39.987943	-0.499875	-168.818243
9.350000	-0.506393	-169.676674	-36.941775	-41.610877	-36.941775	-41.610877	-0.506318	-169.671345
9.400000	-0.512911	-170.531579	-36.775956	-43.258590	-36.775956	-43.258590	-0.512831	-170.526102
9.450000	-0.519499	-171.388194	-36.608693	-44.933750	-36.608693	-44.933750	-0.519412	-171.382562
9.500000	-0.526157	-172.246566	-36.440025	-46.639132	-36.440025	-46.639132	-0.526063	-172.240770
9.550000	-0.532884	-173.106740	-36.270023	-48.377615	-36.270023	-48.377615	-0.532783	-173.100771
9.600000	-0.539680	-173.968762	-36.098793	-50.152187	-36.098793	-50.152187	-0.539571	-173.962612
9.650000	-0.546546	-174.832678	-35.926480	-51.965942	-35.926480	-51.965942	-0.546429	-174.826336
9.700000	-0.553482	-175.698531	-35.753272	-53.822074	-35.753272	-53.822074	-0.553356	-175.691988
9.750000	-0.560487	-176.566365	-35.579406	-55.723869	-35.579406	-55.723869	-0.560352	-176.559611
9.800000	-0.567561	-177.436225	-35.405172	-57.674685	-35.405172	-57.674685	-0.567417	-177.429249
9.850000	-0.574705	-178.308154	-35.230917	-59.677937	-35.230917	-59.677937	-0.574551	-178.300945
9.900000	-0.581918	-179.182194	-35.057058	-61.737062	-35.057058	-61.737062	-0.581753	-179.174741
9.950000	-0.589200	179.941612	-34.884078	-63.855483	-34.884078	-63.855483	-0.589024	179.949321
10.000000	-0.596551	179.063223	-34.712543	-66.036561	-34.712543	-66.036561	-0.596364	179.071199
