! freq	dB(S11)	phase(S11)	dB(S12)	phase(S12)	
!     	dB(S21)	phase(S21)	dB(S22)	phase(S22)	
!S-par simulation data
#  GHz  S  DB  R 50
0.000000	-82.700189	0.000000	-0.000637	0.000000	-0.000637	0.000000	-82.700189	0.000000
0.050000	-44.839005	-89.895963	-0.004896	-2.684158	-0.004896	-2.684158	-44.822420	-90.775879
0.100000	-39.000305	-93.783564	-0.010964	-5.330948	-0.010964	-5.330948	-38.971283	-93.534804
0.150000	-35.550970	-97.154925	-0.015793	-7.964949	-0.015793	-7.964949	-35.550233	-96.612710
0.200000	-33.106056	-100.285987	-0.020183	-10.596313	-0.020183	-10.596313	-33.107917	-99.569047
0.250000	-31.223548	-103.285295	-0.024619	-13.226122	-0.024619	-13.226122	-31.220675	-102.378155
0.300000	-29.701551	-106.213594	-0.029255	-15.854149	-0.029255	-15.854149	-29.693911	-105.106730
0.350000	-28.432347	-109.094951	-0.034092	-18.480085	-0.034092	-18.480085	-28.421151	-107.787269
0.400000	-27.350853	-111.943985	-0.039078	-21.103861	-0.039078	-21.103861	-27.337430	-110.437564
0.450000	-26.415971	-114.768812	-0.044157	-23.725493	-0.044157	-23.725493	-26.401537	-113.065990
0.500000	-25.598550	-117.575814	-0.049272	-26.345191	-0.049272	-26.345191	-25.584125	-115.677842
0.550000	-24.878144	-120.369170	-0.054385	-28.963167	-0.054385	-28.963167	-24.864561	-118.275861
0.600000	-24.239845	-123.151984	-0.059466	-31.579625	-0.059466	-31.579625	-24.227771	-120.861639
0.650000	-23.672955	-125.926620	-0.064491	-34.194743	-0.064491	-34.194743	-23.662909	-123.435976
0.700000	-23.168696	-128.695229	-0.069446	-36.808714	-0.069446	-36.808714	-23.161044	-125.999588
0.750000	-22.719943	-131.459615	-0.074317	-39.421718	-0.074317	-39.421718	-22.714911	-128.553031
0.800000	-22.321358	-134.221273	-0.079093	-42.033900	-0.079093	-42.033900	-22.319054	-131.096589
0.850000	-21.969785	-136.981555	-0.083758	-44.645380	-0.083758	-44.645380	-21.970224	-133.630114
0.900000	-21.660329	-139.741808	-0.088306	-47.256332	-0.088306	-47.256332	-21.663425	-136.154234
0.950000	-21.390818	-142.503234	-0.092720	-49.866883	-0.092720	-49.866883	-21.396414	-138.668861
1.000000	-21.159080	-145.267049	-0.096985	-52.477186	-0.096985	-52.477186	-21.166962	-141.174037
1.050000	-20.963416	-148.034481	-0.101087	-55.087406	-0.101087	-55.087406	-20.973321	-143.669748
1.100000	-20.802530	-150.806803	-0.105010	-57.697722	-0.105010	-57.697722	-20.814162	-146.155912
1.150000	-20.675487	-153.585359	-0.108736	-60.308336	-0.108736	-60.308336	-20.688527	-148.632356
1.200000	-20.581682	-156.371596	-0.112251	-62.919469	-0.112251	-62.919469	-20.595801	-151.098796
1.250000	-20.520819	-159.167093	-0.115541	-65.531363	-0.115541	-65.531363	-20.535686	-153.554806
1.300000	-20.493626	-161.973892	-0.118587	-68.144310	-0.118587	-68.144310	-20.508914	-155.999516
1.350000	-20.499718	-164.793785	-0.121386	-70.758578	-0.121386	-70.758578	-20.515127	-158.432297
1.400000	-20.539726	-167.629050	-0.123930	-73.374471	-0.123930	-73.374471	-20.554982	-160.851994
1.450000	-20.614620	-170.482328	-0.126218	-75.992307	-0.126218	-75.992307	-20.629489	-163.257081
1.500000	-20.725747	-173.356719	-0.128249	-78.612417	-0.128249	-78.612417	-20.740040	-165.645552
1.550000	-20.874881	-176.255918	-0.130029	-81.235146	-0.130029	-81.235146	-20.888462	-168.014791
1.600000	-21.064294	-179.184392	-0.131570	-83.860840	-0.131570	-83.860840	-21.077088	-170.361392
1.650000	-21.296850	177.852370	-0.132885	-86.489851	-0.132885	-86.489851	-21.308857	-172.680913
1.700000	-21.576140	174.847515	-0.133995	-89.122532	-0.133995	-89.122532	-21.587439	-174.967534
1.750000	-21.906655	171.792322	-0.134927	-91.759226	-0.134927	-91.759226	-21.917424	-177.213566
1.800000	-22.294040	168.675477	-0.135712	-94.400271	-0.135712	-94.400271	-22.304568	-179.408743
1.850000	-22.745433	165.481980	-0.136385	-97.045991	-0.136385	-97.045991	-22.756150	178.460855
1.900000	-23.270488	162.190075	-0.136987	-99.696750	-0.136987	-99.696750	-23.282008	176.415665
1.950000	-23.881144	158.769872	-0.137568	-102.352840	-0.137568	-102.352840	-23.894319	174.484236
2.000000	-24.591869	155.182952	-0.138178	-105.014389	-0.138178	-105.014389	-24.607863	172.703829
2.050000	-25.424980	151.362281	-0.138874	-107.681745	-0.138874	-107.681745	-25.445470	171.139248
2.100000	-26.409521	147.208771	-0.139715	-110.355062	-0.139715	-110.355062	-26.436965	169.887287
2.150000	-27.587716	142.554391	-0.140763	-113.034501	-0.140763	-113.034501	-27.625940	169.112877
2.200000	-29.022410	137.093112	-0.142087	-115.720202	-0.142087	-115.720202	-29.077818	169.118441
2.250000	-30.809509	130.203102	-0.143758	-118.412283	-0.143758	-118.412283	-30.893903	170.524683
2.300000	-33.091409	120.511817	-0.145845	-121.110728	-0.145845	-121.110728	-33.228963	174.725311
2.350000	-36.012131	104.465175	-0.148418	-123.815531	-0.148418	-123.815531	-36.254924	-174.560674
2.400000	-39.036532	73.431269	-0.151551	-126.526637	-0.151551	-126.526637	-39.425847	-147.846393
2.450000	-38.912428	27.489716	-0.155315	-129.243943	-0.155315	-129.243943	-39.136562	-105.527744
2.500000	-35.569693	-3.855944	-0.159783	-131.967300	-0.159783	-131.967300	-35.580355	-79.957539
2.550000	-32.309731	-19.924373	-0.165032	-134.696571	-0.165032	-134.696571	-32.261037	-69.906714
2.600000	-29.695685	-29.672599	-0.171123	-137.431443	-0.171123	-137.431443	-29.633435	-65.967586
2.650000	-27.578537	-36.626977	-0.178121	-140.171624	-0.178121	-140.171624	-27.514792	-64.696305
2.700000	-25.813864	-42.164496	-0.186085	-142.916776	-0.186085	-142.916776	-25.752170	-64.775135
2.750000	-24.305311	-46.898444	-0.195071	-145.666520	-0.195071	-145.666520	-24.246747	-65.620799
2.800000	-22.989699	-51.136853	-0.205132	-148.420436	-0.205132	-148.420436	-22.934533	-66.940655
2.850000	-21.824193	-55.047915	-0.216321	-151.178095	-0.216321	-151.178095	-21.772409	-68.574674
2.900000	-20.779127	-58.734902	-0.228671	-153.938978	-0.228671	-153.938978	-20.730593	-70.424201
2.950000	-19.832931	-62.261319	-0.242212	-156.702557	-0.242212	-156.702557	-19.787466	-72.428219
3.000000	-18.969501	-65.668496	-0.256969	-159.468287	-0.256969	-159.468287	-18.926901	-74.546679
3.050000	-18.176543	-68.984702	-0.272958	-162.235602	-0.272958	-162.235602	-18.136593	-76.751886
3.100000	-17.444470	-72.229847	-0.290188	-165.003924	-0.290188	-165.003924	-17.406944	-79.024052
3.150000	-16.765650	-75.418052	-0.308668	-167.772659	-0.308668	-167.772659	-16.730313	-81.348856
3.200000	-16.133949	-78.560032	-0.328390	-170.541201	-0.328390	-170.541201	-16.100558	-83.715211
3.250000	-15.544332	-81.663956	-0.349331	-173.308952	-0.349331	-173.308952	-15.512635	-86.114476
3.300000	-14.992597	-84.735807	-0.371467	-176.075321	-0.371467	-176.075321	-14.962342	-88.540094
3.350000	-14.475271	-87.779610	-0.394792	-178.839666	-0.394792	-178.839666	-14.446197	-90.987247
3.400000	-13.989277	-90.800092	-0.419218	178.398488	-0.419218	178.398488	-13.961132	-93.450842
3.450000	-13.532066	-93.799546	-0.444719	175.639721	-0.444719	175.639721	-13.504600	-95.927815
3.500000	-13.101407	-96.780215	-0.471239	172.884556	-0.471239	172.884556	-13.074379	-98.415275
3.550000	-12.695356	-99.743902	-0.498715	170.133484	-0.498715	170.133484	-12.668536	-100.910793
3.600000	-12.312202	-102.692070	-0.527080	167.386965	-0.527080	167.386965	-12.285374	-103.412305
3.650000	-11.950429	-105.625919	-0.556259	164.645423	-0.556259	164.645423	-11.923396	-105.918043
3.700000	-11.608688	-108.546451	-0.586172	161.909244	-0.586172	161.909244	-11.581272	-108.426480
3.750000	-11.285769	-111.454517	-0.616734	159.178771	-0.616734	159.178771	-11.257813	-110.936287
3.800000	-10.980724	-114.350611	-0.647863	156.454441	-0.647863	156.454441	-10.952093	-113.446281
3.850000	-10.692430	-117.235651	-0.679456	153.736381	-0.679456	153.736381	-10.663018	-115.955418
3.900000	-10.419983	-120.110221	-0.711416	151.024797	-0.711416	151.024797	-10.389711	-118.462801
3.950000	-10.162561	-122.974868	-0.743645	148.319845	-0.743645	148.319845	-10.131374	-120.967638
4.000000	-9.919408	-125.830113	-0.776045	145.621633	-0.776045	145.621633	-9.887276	-123.469224
4.050000	-9.689826	-128.676463	-0.808514	142.930222	-0.808514	142.930222	-9.656746	-125.966936
4.100000	-9.473175	-131.514422	-0.840951	140.245625	-0.840951	140.245625	-9.439166	-128.460225
4.150000	-9.268861	-134.344500	-0.873255	137.567806	-0.873255	137.567806	-9.233961	-130.948607
4.200000	-9.076332	-137.167214	-0.905327	134.896682	-0.905327	134.896682	-9.040599	-133.431663
4.250000	-8.895076	-139.983100	-0.937066	132.232127	-0.937066	132.232127	-8.858584	-135.909031
4.300000	-8.724618	-142.792711	-0.968376	129.573968	-0.968376	129.573968	-8.687453	-138.380408
4.350000	-8.564514	-145.596623	-0.999161	126.921990	-0.999161	126.921990	-8.526771	-140.845545
4.400000	-8.414426	-148.395385	-1.029319	124.275999	-1.029319	124.275999	-8.376210	-143.304173
4.450000	-8.273967	-151.189646	-1.058759	121.635687	-1.058759	121.635687	-8.235382	-145.756148
4.500000	-8.142697	-153.980113	-1.087400	119.000655	-1.087400	119.000655	-8.103848	-148.201451
4.550000	-8.020280	-156.767463	-1.115162	116.370532	-1.115162	116.370532	-7.981266	-150.640046
4.600000	-7.906400	-159.552402	-1.141964	113.744914	-1.141964	113.744914	-7.867314	-153.071946
4.650000	-7.800763	-162.335660	-1.167733	111.123366	-1.167733	111.123366	-7.761688	-155.497215
4.700000	-7.703096	-165.117992	-1.192397	108.505424	-1.192397	108.505424	-7.664101	-157.915964
4.750000	-7.613144	-167.900176	-1.215892	105.890597	-1.215892	105.890597	-7.574283	-160.328355
4.800000	-7.530668	-170.683016	-1.238156	103.278370	-1.238156	103.278370	-7.491980	-162.734594
4.850000	-7.455449	-173.467334	-1.259133	100.668203	-1.259133	100.668203	-7.416952	-165.134931
4.900000	-7.387281	-176.253975	-1.278773	98.059540	-1.278773	98.059540	-7.348977	-167.529662
4.950000	-7.325976	-179.043800	-1.297029	95.451801	-1.297029	95.451801	-7.287846	-169.919120
5.000000	-7.271357	178.162309	-1.313861	92.844394	-1.313861	92.844394	-7.233364	-172.303678
5.050000	-7.223398	175.363331	-1.329201	90.236690	-1.329201	90.236690	-7.185484	-174.683653
5.100000	-7.181814	172.558442	-1.343050	87.628061	-1.343050	87.628061	-7.143905	-177.059590
5.150000	-7.146470	169.746722	-1.355384	85.017876	-1.355384	85.017876	-7.108476	-179.431955
5.200000	-7.117243	166.927241	-1.366186	82.405495	-1.366186	82.405495	-7.079061	178.198769
5.250000	-7.094021	164.099060	-1.375441	79.790272	-1.375441	79.790272	-7.055539	175.832081
5.300000	-7.076705	161.261235	-1.383142	77.171557	-1.383142	77.171557	-7.037800	173.467469
5.350000	-7.065205	158.412819	-1.389286	74.548699	-1.389286	74.548699	-7.025751	171.104417
5.400000	-7.059442	155.552864	-1.393876	71.921043	-1.393876	71.921043	-7.019312	168.742410
5.450000	-7.059345	152.680423	-1.396921	69.287937	-1.396921	69.287937	-7.018414	166.380941
5.500000	-7.064854	149.794550	-1.398435	66.648734	-1.398435	66.648734	-7.023002	164.019517
5.550000	-7.075918	146.894309	-1.398436	64.002790	-1.398436	64.002790	-7.033033	161.657663
5.600000	-7.092493	143.978769	-1.396949	61.349467	-1.396949	61.349467	-7.048477	159.294933
5.650000	-7.114602	141.046825	-1.393988	58.688045	-1.393988	58.688045	-7.069370	156.930891
5.700000	-7.142214	138.097542	-1.389588	56.017886	-1.389588	56.017886	-7.095699	154.565147
5.750000	-7.175250	135.130211	-1.383804	53.338473	-1.383804	53.338473	-7.127406	152.197383
5.800000	-7.213695	132.143963	-1.376681	50.649218	-1.376681	50.649218	-7.164495	149.827310
5.850000	-7.257540	129.137954	-1.368268	47.949548	-1.368268	47.949548	-7.206980	147.454693
5.900000	-7.306782	126.111368	-1.358618	45.238911	-1.358618	45.238911	-7.254877	145.079347
5.950000	-7.361423	123.063415	-1.347787	42.516771	-1.347787	42.516771	-7.308210	142.701139
6.000000	-7.421471	119.993339	-1.335837	39.782617	-1.335837	39.782617	-7.367002	140.319993
6.050000	-7.486936	116.900421	-1.322833	37.035960	-1.322833	37.035960	-7.431281	137.935884
6.100000	-7.557833	113.783981	-1.308843	34.276338	-1.308843	34.276338	-7.501073	135.548838
6.150000	-7.634182	110.643382	-1.293937	31.503312	-1.293937	31.503312	-7.576406	133.158927
6.200000	-7.716003	107.478035	-1.278190	28.716474	-1.278190	28.716474	-7.657304	130.766268
6.250000	-7.803322	104.287400	-1.261677	25.915443	-1.261677	25.915443	-7.743789	128.371013
6.300000	-7.896263	101.070424	-1.244463	23.099546	-1.244463	23.099546	-7.835981	125.973299
6.350000	-7.994754	97.827233	-1.226644	20.268774	-1.226644	20.268774	-7.933791	123.573389
6.400000	-8.098826	94.557469	-1.208301	17.422839	-1.208301	17.422839	-8.037229	121.171507
6.450000	-8.208512	91.260840	-1.189515	14.561487	-1.189515	14.561487	-8.146304	118.767881
6.500000	-8.323849	87.937121	-1.170367	11.684495	-1.170367	11.684495	-8.261019	116.362740
6.550000	-8.444874	84.586164	-1.150937	8.791669	-1.150937	8.791669	-8.381376	113.956300
6.600000	-8.571630	81.207897	-1.131307	5.882849	-1.131307	5.882849	-8.507375	111.548760
6.650000	-8.704160	77.802328	-1.111553	2.957899	-1.111553	2.957899	-8.639014	109.140296
6.700000	-8.842515	74.369550	-1.091753	0.016715	-1.091753	0.016715	-8.776293	106.731051
6.750000	-8.986748	70.909742	-1.071981	-2.940784	-1.071981	-2.940784	-8.919215	104.321133
6.800000	-9.136921	67.423172	-1.052308	-5.914653	-1.052308	-5.914653	-9.067788	101.910612
6.850000	-9.293104	63.910202	-1.032803	-8.904930	-1.032803	-8.904930	-9.222026	99.499514
6.900000	-9.455411	60.371009	-1.013533	-11.911808	-1.013533	-11.911808	-9.381982	97.087820
6.950000	-9.623931	56.806168	-0.994561	-14.935293	-0.994561	-14.935293	-9.547690	94.675474
7.000000	-9.798740	53.216613	-0.975942	-17.975195	-0.975942	-17.975195	-9.719171	92.262391
7.050000	-9.979968	49.603096	-0.957728	-21.031502	-0.957728	-21.031502	-9.896500	89.848453
7.100000	-10.167770	45.966465	-0.939965	-24.104196	-0.939965	-24.104196	-10.079775	87.433518
7.150000	-10.362330	42.307665	-0.922698	-27.193261	-0.922698	-27.193261	-10.269121	85.017438
7.200000	-10.563867	38.627735	-0.905964	-30.298690	-0.905964	-30.298690	-10.464697	82.600070
7.250000	-10.772640	34.927807	-0.889797	-33.420487	-0.889797	-33.420487	-10.666698	80.181291
7.300000	-10.988958	31.209101	-0.874226	-36.558671	-0.874226	-36.558671	-10.875364	77.761022
7.350000	-11.213189	27.472924	-0.859277	-39.713282	-0.859277	-39.713282	-11.090981	75.339248
7.400000	-11.445767	23.720664	-0.844971	-42.884386	-0.844971	-42.884386	-11.313896	72.916051
7.450000	-11.687207	19.953784	-0.831325	-46.072080	-0.831325	-46.072080	-11.544517	70.491640
7.500000	-11.938117	16.173818	-0.818355	-49.276493	-0.818355	-49.276493	-11.783326	68.066396
7.550000	-12.199278	12.382151	-0.806088	-52.498167	-0.806088	-52.498167	-12.030935	65.640929
7.600000	-12.471487	8.580730	-0.794521	-55.736951	-0.794521	-55.736951	-12.287970	63.216155
7.650000	-12.755747	4.771268	-0.783661	-58.993104	-0.783661	-58.993104	-12.555207	60.793327
7.700000	-13.053244	0.955527	-0.773519	-62.266935	-0.773519	-62.266935	-12.833552	58.374143
7.750000	-13.365374	-2.864681	-0.764104	-65.558803	-0.764104	-65.558803	-13.124058	55.960862
7.800000	-13.693790	-6.687496	-0.755425	-68.869121	-0.755425	-68.869121	-13.427948	53.556441
7.850000	-14.040449	-10.510997	-0.747495	-72.198359	-0.747495	-72.198359	-13.746650	51.164721
7.900000	-14.407681	-14.333190	-0.740328	-75.547044	-0.740328	-75.547044	-14.081826	48.790660
7.950000	-14.798268	-18.151980	-0.733941	-78.915762	-0.733941	-78.915762	-14.435416	46.440639
8.000000	-15.215555	-21.965122	-0.728358	-82.305160	-0.728358	-82.305160	-14.809692	44.122870
8.050000	-15.663593	-25.770158	-0.723606	-85.715946	-0.723606	-85.715946	-15.207317	41.847940
8.100000	-16.147333	-29.564300	-0.719717	-89.148891	-0.719717	-89.148891	-15.631426	39.629560
8.150000	-16.673051	-33.344068	-0.716743	-92.605089	-0.716743	-92.605089	-16.085814	37.486669
8.200000	-17.248490	-37.105246	-0.714732	-96.085472	-0.714732	-96.085472	-16.574889	35.443822
8.250000	-17.883293	-40.842657	-0.713734	-99.590760	-0.713734	-99.590760	-17.103739	33.532122
8.300000	-18.590152	-44.549018	-0.713816	-103.121988	-0.713816	-103.121988	-17.678473	31.794631
8.350000	-19.385103	-48.215471	-0.715019	-106.679442	-0.715019	-106.679442	-18.305922	30.281441
8.400000	-20.292818	-51.823383	-0.717510	-110.265993	-0.717510	-110.265993	-18.995103	29.090621
8.450000	-21.345255	-55.348670	-0.721355	-113.882002	-0.721355	-113.882002	-19.754839	28.331342
8.500000	-22.591067	-58.747724	-0.726676	-117.528775	-0.726676	-117.528775	-20.594470	28.171772
8.550000	-24.107148	-61.938935	-0.733611	-121.207686	-0.733611	-121.207686	-21.521234	28.858052
8.600000	-26.025720	-64.750605	-0.742319	-124.920173	-0.742319	-124.920173	-22.534569	30.751334
8.650000	-28.603986	-66.752580	-0.752980	-128.667735	-0.752980	-128.667735	-23.612726	34.367244
8.700000	-32.451545	-66.497282	-0.765799	-132.451928	-0.765799	-132.451928	-24.684689	40.368664
8.750000	-39.613376	-54.987031	-0.781008	-136.274354	-0.781008	-136.274354	-25.586102	49.352689
8.800000	-42.745526	50.694170	-0.798915	-140.137256	-0.798915	-140.137256	-26.032789	61.194025
8.850000	-33.460372	77.112892	-0.819783	-144.041740	-0.819783	-144.041740	-25.784245	74.093610
8.900000	-28.633268	78.824591	-0.843953	-147.989461	-0.843953	-147.989461	-24.863281	85.476598
8.950000	-25.408969	77.156847	-0.871802	-151.982048	-0.871802	-151.982048	-23.533674	93.828549
9.000000	-22.966171	74.406326	-0.903757	-156.021065	-0.903757	-156.021065	-22.059848	99.116508
9.050000	-20.984974	71.162983	-0.940290	-160.107973	-0.940290	-160.107973	-20.594995	101.961862
9.100000	-19.308813	67.645135	-0.981928	-164.244078	-0.981928	-164.244078	-19.203907	103.017784
9.150000	-17.849755	63.951415	-1.029247	-168.430477	-1.029247	-168.430477	-17.906021	102.784461
9.200000	-16.553254	60.131488	-1.082942	-172.668487	-1.082942	-172.668487	-16.700981	101.604301
9.250000	-15.384220	56.214606	-1.143683	-176.958330	-1.143683	-176.958330	-15.582848	99.723284
9.300000	-14.318504	52.218203	-1.212174	178.700228	-1.212174	178.700228	-14.543602	97.308078
9.350000	-13.338738	48.153258	-1.289194	174.307688	-1.289194	174.307688	-13.575170	94.473127
9.400000	-12.432233	44.027533	-1.375557	169.865158	-1.375557	169.865158	-12.670474	91.301270
9.450000	-11.589658	39.847407	-1.472037	165.374721	-1.472037	165.374721	-11.823704	87.855622
9.500000	-10.803550	35.617452	-1.579616	160.838272	-1.579616	160.838272	-11.029545	84.180191
9.550000	-10.068563	31.343078	-1.699093	156.259443	-1.699093	156.259443	-10.284123	80.314063
9.600000	-9.380418	27.029494	-1.831330	151.642354	-1.831330	151.642354	-9.584078	76.287450
9.650000	-8.735866	22.682901	-1.976963	146.992521	-1.976963	146.992521	-8.926791	72.127809
9.700000	-8.132163	18.309556	-2.136721	142.315755	-2.136721	142.315755	-8.309882	67.856854
9.750000	-7.567118	13.916470	-2.311275	137.618706	-2.311275	137.618706	-7.731373	63.493828
9.800000	-7.038867	9.511731	-2.500927	132.909115	-2.500927	132.909115	-7.189566	59.057905
9.850000	-6.545746	5.103739	-2.706004	128.194950	-2.706004	128.194950	-6.682881	54.565322
9.900000	-6.086352	0.701660	-2.926772	123.484787	-2.926772	123.484787	-6.209968	50.030933
9.950000	-5.659124	-3.685132	-3.163031	118.787297	-3.163031	118.787297	-5.769370	45.469596
10.000000	-5.262600	-8.047091	-3.414573	114.111120	-3.414573	114.111120	-5.359736	40.894346
