! freq	dB(S11)	phase(S11)	dB(S12)	phase(S12)	
!     	dB(S21)	phase(S21)	dB(S22)	phase(S22)	
!S-par simulation data
#  GHz  S  DB  R 50
0.000000	-0.000000	-0.000000	-347.760632	180.000000	-347.760632	180.000000	-0.000000	-0.000000
0.050000	-0.000514	-0.773218	-93.009730	87.887301	-93.009730	87.887301	-0.002458	-3.658583
0.100000	-0.001683	-1.542310	-87.013197	85.691226	-87.013197	85.691226	-0.008237	-7.296666
0.150000	-0.002952	-2.307190	-83.531165	83.523336	-83.531165	83.523336	-0.014770	-10.910891
0.200000	-0.004090	-3.069610	-81.086820	81.372940	-81.086820	81.372940	-0.020815	-14.507282
0.250000	-0.005083	-3.830834	-79.219101	79.241964	-79.219101	79.241964	-0.026150	-18.090149
0.300000	-0.005983	-4.591541	-77.722583	77.134343	-77.722583	77.134343	-0.030940	-21.661291
0.350000	-0.006844	-5.352012	-76.485893	75.053532	-76.485893	75.053532	-0.035404	-25.220990
0.400000	-0.007701	-6.112326	-75.443866	73.004260	-75.443866	73.004260	-0.039682	-28.768102
0.450000	-0.008576	-6.872490	-74.556383	70.993325	-74.556383	70.993325	-0.043858	-32.300446
0.500000	-0.009479	-7.632497	-73.792351	69.024264	-73.792351	69.024264	-0.047985	-35.817105
0.550000	-0.010412	-8.392323	-73.131375	67.102657	-73.131375	67.102657	-0.052081	-39.316508
0.600000	-0.011375	-9.151929	-72.560542	65.237361	-72.560542	65.237361	-0.056147	-42.796195
0.650000	-0.012361	-9.911281	-72.066859	63.433374	-72.066859	63.433374	-0.060180	-46.255374
0.700000	-0.013360	-10.670332	-71.641126	61.697347	-71.641126	61.697347	-0.064170	-49.692965
0.750000	-0.014366	-11.429008	-71.277793	60.039831	-71.277793	60.039831	-0.068105	-53.107075
0.800000	-0.015369	-12.187231	-70.971195	58.470166	-70.971195	58.470166	-0.071974	-56.496658
0.850000	-0.016364	-12.944926	-70.716307	56.997801	-70.716307	56.997801	-0.075766	-59.861066
0.900000	-0.017347	-13.702013	-70.509322	55.634173	-70.509322	55.634173	-0.079473	-63.199557
0.950000	-0.018319	-14.458418	-70.347282	54.392951	-70.347282	54.392951	-0.083088	-66.511343
1.000000	-0.019279	-15.214079	-70.227470	53.289266	-70.227470	53.289266	-0.086605	-69.795858
1.050000	-0.020230	-15.968948	-70.147431	52.340359	-70.147431	52.340359	-0.090021	-73.052649
1.100000	-0.021175	-16.722990	-70.104827	51.565889	-70.104827	51.565889	-0.093333	-76.281378
1.150000	-0.022116	-17.476179	-70.097279	50.988238	-70.097279	50.988238	-0.096541	-79.481811
1.200000	-0.023055	-18.228500	-70.122199	50.632771	-70.122199	50.632771	-0.099645	-82.653813
1.250000	-0.023994	-18.979942	-70.176578	50.528000	-70.176578	50.528000	-0.102647	-85.797344
1.300000	-0.024934	-19.730480	-70.257170	50.712450	-70.257170	50.712450	-0.105547	-88.911834
1.350000	-0.025876	-20.480129	-70.358600	51.215056	-70.358600	51.215056	-0.108350	-91.998038
1.400000	-0.026821	-21.228885	-70.474780	52.071552	-70.474780	52.071552	-0.111061	-95.056161
1.450000	-0.027768	-21.976745	-70.597895	53.316822	-70.597895	53.316822	-0.113685	-98.086482
1.500000	-0.028718	-22.723705	-70.718046	54.981259	-70.718046	54.981259	-0.116225	-101.089341
1.550000	-0.029670	-23.469762	-70.823047	57.085404	-70.823047	57.085404	-0.118687	-104.065136
1.600000	-0.030624	-24.214910	-70.898523	59.632923	-70.898523	59.632923	-0.121077	-107.014317
1.650000	-0.031580	-24.959143	-70.928539	62.602703	-70.928539	62.602703	-0.123399	-109.937385
1.700000	-0.032538	-25.702455	-70.896911	65.941935	-70.896911	65.941935	-0.125659	-112.834880
1.750000	-0.033497	-26.444838	-70.789181	69.563052	-70.789181	69.563052	-0.127863	-115.707384
1.800000	-0.034458	-27.186283	-70.594914	73.347398	-70.594914	73.347398	-0.130015	-118.555511
1.850000	-0.035420	-27.926782	-70.309634	77.156783	-70.309634	77.156783	-0.132121	-121.379908
1.900000	-0.036382	-28.666316	-69.934591	80.848209	-69.934591	80.848209	-0.134186	-124.181003
1.950000	-0.037346	-29.404874	-69.478542	84.294247	-69.478542	84.294247	-0.136214	-126.959518
2.000000	-0.038311	-30.142455	-68.955797	87.403828	-68.955797	87.403828	-0.138211	-129.716421
2.050000	-0.039278	-30.879050	-68.381553	90.119479	-68.381553	90.119479	-0.140181	-132.452445
2.100000	-0.040245	-31.614648	-67.770933	92.416136	-67.770933	92.416136	-0.142128	-135.168339
2.150000	-0.041214	-32.349237	-67.137564	94.294477	-67.137564	94.294477	-0.144056	-137.864862
2.200000	-0.042185	-33.082805	-66.492869	95.773007	-66.492869	95.773007	-0.145970	-140.542785
2.250000	-0.043158	-33.815343	-65.845898	96.880862	-65.845898	96.880862	-0.147872	-143.202884
2.300000	-0.044133	-34.546838	-65.203505	97.652234	-65.203505	97.652234	-0.149767	-145.845940
2.350000	-0.045110	-35.277278	-64.570671	98.122527	-64.570671	98.122527	-0.151657	-148.472739
2.400000	-0.046090	-36.006651	-63.950872	98.325977	-63.950872	98.325977	-0.153545	-151.084068
2.450000	-0.047073	-36.734947	-63.346423	98.294336	-63.346423	98.294336	-0.155434	-153.680715
2.500000	-0.048059	-37.462154	-62.758765	98.056289	-62.758765	98.056289	-0.157326	-156.263466
2.550000	-0.049049	-38.188235	-62.188301	97.633895	-62.188301	97.633895	-0.159225	-158.832840
2.600000	-0.050043	-38.913203	-61.635871	97.053816	-61.635871	97.053816	-0.161132	-161.389922
2.650000	-0.051042	-39.637047	-61.101467	96.335396	-61.101467	96.335396	-0.163050	-163.935487
2.700000	-0.052045	-40.359756	-60.584865	95.495452	-60.584865	95.495452	-0.164980	-166.470310
2.750000	-0.053054	-41.081318	-60.085695	94.548582	-60.085695	94.548582	-0.166924	-168.995158
2.800000	-0.054067	-41.801722	-59.603493	93.507457	-59.603493	93.507457	-0.168884	-171.510793
2.850000	-0.055087	-42.520959	-59.137738	92.383079	-59.137738	92.383079	-0.170861	-174.017969
2.900000	-0.056113	-43.239017	-58.687883	91.185021	-58.687883	91.185021	-0.172857	-176.517434
2.950000	-0.057145	-43.955886	-58.253371	89.921624	-58.253371	89.921624	-0.174873	-179.009929
3.000000	-0.058185	-44.671557	-57.833646	88.600179	-57.833646	88.600179	-0.176910	178.503813
3.050000	-0.059231	-45.386019	-57.428169	87.227072	-57.428169	87.227072	-0.178970	176.023067
3.100000	-0.060286	-46.099263	-57.036416	85.807920	-57.036416	85.807920	-0.181054	173.547116
3.150000	-0.061348	-46.811267	-56.657852	84.347278	-56.657852	84.347278	-0.183162	171.075286
3.200000	-0.062419	-47.522021	-56.292021	82.849659	-56.292021	82.849659	-0.185297	168.606853
3.250000	-0.063499	-48.231530	-55.938512	81.319373	-55.938512	81.319373	-0.187458	166.141080
3.300000	-0.064588	-48.939785	-55.596897	79.759868	-55.596897	79.759868	-0.189647	163.677281
3.350000	-0.065687	-49.646778	-55.266775	78.174234	-55.266775	78.174234	-0.191864	161.214781
3.400000	-0.066796	-50.352503	-54.947769	76.565252	-54.947769	76.565252	-0.194111	158.752910
3.450000	-0.067914	-51.056950	-54.639529	74.935438	-54.639529	74.935438	-0.196389	156.291006
3.500000	-0.069044	-51.760114	-54.341724	73.287076	-54.341724	73.287076	-0.198698	153.828413
3.550000	-0.070185	-52.461931	-54.054085	71.621651	-54.054085	71.621651	-0.201041	151.364387
3.600000	-0.071337	-53.162521	-53.776260	69.942495	-53.776260	69.942495	-0.203415	148.898481
3.650000	-0.072501	-53.861807	-53.508007	68.250524	-53.508007	68.250524	-0.205825	146.429975
3.700000	-0.073676	-54.559785	-53.249081	66.547389	-53.249081	66.547389	-0.208270	143.958236
3.750000	-0.074865	-55.256449	-52.999254	64.834632	-52.999254	64.834632	-0.210752	141.482639
3.800000	-0.076067	-55.951735	-52.758414	63.113415	-52.758414	63.113415	-0.213274	139.002336
3.850000	-0.077282	-56.645696	-52.526294	61.385527	-52.526294	61.385527	-0.215837	136.516875
3.900000	-0.078510	-57.338328	-52.302709	59.652275	-52.302709	59.652275	-0.218442	134.025638
3.950000	-0.079753	-58.029626	-52.087494	57.914922	-52.087494	57.914922	-0.221090	131.528008
4.000000	-0.081010	-58.719588	-51.880494	56.174696	-51.880494	56.174696	-0.223785	129.023368
4.050000	-0.082282	-59.408208	-51.681565	54.432798	-51.681565	54.432798	-0.226528	126.511099
4.100000	-0.083569	-60.095485	-51.490578	52.690414	-51.490578	52.690414	-0.229322	123.990579
4.150000	-0.084872	-60.781416	-51.307412	50.948724	-51.307412	50.948724	-0.232170	121.461179
4.200000	-0.086189	-61.466129	-51.131548	49.208632	-51.131548	49.208632	-0.235069	118.923249
4.250000	-0.087523	-62.149375	-50.963635	47.471725	-50.963635	47.471725	-0.238034	116.374363
4.300000	-0.088874	-62.831267	-50.803235	45.739077	-50.803235	45.739077	-0.241064	113.814682
4.350000	-0.090242	-63.511806	-50.650265	44.011932	-50.650265	44.011932	-0.244164	111.243538
4.400000	-0.091628	-64.190975	-50.504700	42.291660	-50.504700	42.291660	-0.247339	108.660107
4.450000	-0.093032	-64.868773	-50.366475	40.579637	-50.366475	40.579637	-0.250596	106.063657
4.500000	-0.094454	-65.545215	-50.235469	38.877181	-50.235469	38.877181	-0.253941	103.453588
4.550000	-0.095894	-66.220300	-50.111620	37.185748	-50.111620	37.185748	-0.257380	100.829141
4.600000	-0.097353	-66.894029	-49.994865	35.506876	-49.994865	35.506876	-0.260922	98.189519
4.650000	-0.098832	-67.566403	-49.885146	33.842190	-49.885146	33.842190	-0.264576	95.533888
4.700000	-0.100330	-68.237423	-49.782404	32.193416	-49.782404	32.193416	-0.268352	92.861367
4.750000	-0.101849	-68.907089	-49.686577	30.562394	-49.686577	30.562394	-0.272263	90.171023
4.800000	-0.103388	-69.575404	-49.597601	28.951091	-49.597601	28.951091	-0.276320	87.461858
4.850000	-0.104948	-70.242369	-49.515406	27.361615	-49.515406	27.361615	-0.280539	84.732808
4.900000	-0.106529	-70.907987	-49.439914	25.796232	-49.439914	25.796232	-0.284935	81.982724
4.950000	-0.108131	-71.572261	-49.371034	24.257378	-49.371034	24.257378	-0.289528	79.210365
5.000000	-0.109756	-72.235192	-49.308661	22.747683	-49.308661	22.747683	-0.294338	76.414383
5.050000	-0.111404	-72.896757	-49.252800	21.270750	-49.252800	21.270750	-0.299394	73.592724
5.100000	-0.113074	-73.556987	-49.203167	19.829028	-49.203167	19.829028	-0.304718	70.744276
5.150000	-0.114768	-74.215886	-49.159579	18.425847	-49.159579	18.425847	-0.310341	67.867252
5.200000	-0.116485	-74.873459	-49.121812	17.064803	-49.121812	17.064803	-0.316296	64.959673
5.250000	-0.118227	-75.529711	-49.089594	15.749776	-49.089594	15.749776	-0.322624	62.019344
5.300000	-0.119992	-76.184646	-49.062597	14.484945	-49.062597	14.484945	-0.329368	59.043819
5.350000	-0.121783	-76.838269	-49.040417	13.274796	-49.040417	13.274796	-0.336579	56.030360
5.400000	-0.123598	-77.490587	-49.022566	12.124130	-49.022566	12.124130	-0.344316	52.975897
5.450000	-0.125440	-78.141605	-49.008448	11.038051	-49.008448	11.038051	-0.352647	49.876967
5.500000	-0.127307	-78.791330	-48.997344	10.021945	-48.997344	10.021945	-0.361647	46.729657
5.550000	-0.129200	-79.439767	-48.988382	9.081439	-48.988382	9.081439	-0.371409	43.529527
5.600000	-0.131121	-80.086925	-48.980511	8.222324	-48.980511	8.222324	-0.382036	40.271517
5.650000	-0.133068	-80.732797	-48.972451	7.451460	-48.972451	7.451460	-0.393662	36.949080
5.700000	-0.135044	-81.377391	-48.962632	6.774761	-48.962632	6.774761	-0.406438	33.555319
5.750000	-0.137047	-82.020728	-48.949238	6.196620	-48.949238	6.196620	-0.420522	30.083201
5.800000	-0.139079	-82.662817	-48.930125	5.721667	-48.930125	5.721667	-0.436120	26.523783
5.850000	-0.141140	-83.303666	-48.902780	5.353379	-48.902780	5.353379	-0.453471	22.866667
5.900000	-0.143229	-83.943286	-48.864294	5.093503	-48.864294	5.093503	-0.472868	19.099711
5.950000	-0.145348	-84.581685	-48.811337	4.941341	-48.811337	4.941341	-0.494658	15.208666
6.000000	-0.147497	-85.218874	-48.740163	4.892871	-48.740163	4.892871	-0.519266	11.176736
6.050000	-0.149676	-85.854861	-48.646637	4.939729	-48.646637	4.939729	-0.547208	6.984015
6.100000	-0.151886	-86.489659	-48.526307	5.068082	-48.526307	5.068082	-0.579116	2.606793
6.150000	-0.154126	-87.123291	-48.374968	5.257136	-48.374968	5.257136	-0.615710	-1.980571
6.200000	-0.156399	-87.755737	-48.186884	5.479530	-48.186884	5.479530	-0.658101	-6.818929
6.250000	-0.158703	-88.387027	-47.958179	5.696998	-47.958179	5.696998	-0.707418	-11.946291
6.300000	-0.161040	-89.017162	-47.684318	5.861413	-47.684318	5.861413	-0.765272	-17.417659
6.350000	-0.163410	-89.646166	-47.362800	5.915558	-47.362800	5.915558	-0.833480	-23.292332
6.400000	-0.165814	-90.274054	-46.991942	5.792288	-46.991942	5.792288	-0.914394	-29.647092
6.450000	-0.168251	-90.900838	-46.571800	5.415063	-46.571800	5.415063	-1.010914	-36.576645
6.500000	-0.170723	-91.526531	-46.104647	4.698870	-46.104647	4.698870	-1.126545	-44.197826
6.550000	-0.173230	-92.151148	-45.595515	3.551647	-45.595515	3.551647	-1.265366	-52.654203
6.600000	-0.175773	-92.774693	-45.052399	1.871399	-45.052399	1.871399	-1.431996	-62.130254
6.650000	-0.178352	-93.397189	-44.488831	-0.434614	-44.488831	-0.434614	-1.630120	-72.824459
6.700000	-0.180969	-94.018644	-43.922716	-3.461110	-43.922716	-3.461110	-1.861633	-84.979472
6.750000	-0.183624	-94.639065	-43.378638	-7.281034	-43.378638	-7.281034	-2.122824	-98.840346
6.800000	-0.186317	-95.258469	-42.887346	-11.922872	-42.887346	-11.922872	-2.399547	-114.594930
6.850000	-0.189048	-95.876856	-42.485005	-17.361772	-42.485005	-17.361772	-2.662036	-132.318005
6.900000	-0.191815	-96.494237	-42.208446	-23.476057	-42.208446	-23.476057	-2.864596	-151.791565
6.950000	-0.194616	-97.110630	-42.088568	-30.050005	-42.088568	-30.050005	-2.958368	-172.421326
7.000000	-0.197449	-97.726060	-42.142656	-36.794920	-42.142656	-36.794920	-2.916183	166.720823
7.050000	-0.200312	-98.340564	-42.370381	-43.401989	-42.370381	-43.401989	-2.750205	146.640558
7.100000	-0.203206	-98.954185	-42.754050	-49.606539	-42.754050	-49.606539	-2.504599	128.095282
7.150000	-0.206131	-99.566957	-43.267264	-55.221545	-43.267264	-55.221545	-2.229006	111.472006
7.200000	-0.209091	-100.178911	-43.880365	-60.149206	-43.880365	-60.149206	-1.960812	96.819642
7.250000	-0.212087	-100.790078	-44.566951	-64.367880	-44.566951	-64.367880	-1.719836	83.973743
7.300000	-0.215121	-101.400473	-45.306712	-67.883417	-45.306712	-67.883417	-1.513370	72.723612
7.350000	-0.218194	-102.010120	-46.085299	-70.732661	-46.085299	-70.732661	-1.340840	62.814009
7.400000	-0.221307	-102.619041	-46.893442	-72.945432	-46.893442	-72.945432	-1.198664	54.025818
7.450000	-0.224460	-103.227265	-47.726157	-74.546992	-47.726157	-74.546992	-1.082078	46.162114
7.500000	-0.227655	-103.834805	-48.579340	-75.529912	-48.579340	-75.529912	-0.986973	39.078195
7.550000	-0.230891	-104.441701	-49.452107	-75.887331	-49.452107	-75.887331	-0.909089	32.630800
7.600000	-0.234168	-105.047979	-50.341546	-75.571770	-50.341546	-75.571770	-0.845335	26.720759
7.650000	-0.237487	-105.653669	-51.243158	-74.513801	-51.243158	-74.513801	-0.793076	21.262606
7.700000	-0.240848	-106.258812	-52.149242	-72.627511	-52.149242	-72.627511	-0.750124	16.183621
7.750000	-0.244252	-106.863429	-53.040840	-69.770040	-53.040840	-69.770040	-0.715014	11.436392
7.800000	-0.247698	-107.467580	-53.896297	-65.866387	-53.896297	-65.866387	-0.686128	6.962107
7.850000	-0.251187	-108.071305	-54.677354	-60.839568	-54.677354	-60.839568	-0.662454	2.724317
7.900000	-0.254720	-108.674629	-55.322889	-54.655890	-55.322889	-54.655890	-0.643338	-1.299414
7.950000	-0.258297	-109.277613	-55.779052	-47.536405	-55.779052	-47.536405	-0.627957	-5.142274
8.000000	-0.261917	-109.880310	-56.001855	-39.868136	-56.001855	-39.868136	-0.615727	-8.828277
8.050000	-0.265583	-110.482766	-55.967365	-32.166214	-55.967365	-32.166214	-0.606287	-12.372092
8.100000	-0.269296	-111.085041	-55.697948	-24.961731	-55.697948	-24.961731	-0.599270	-15.789846
8.150000	-0.273053	-111.687199	-55.251699	-18.593848	-55.251699	-18.593848	-0.594312	-19.098806
8.200000	-0.276858	-112.289307	-54.685897	-13.223635	-54.685897	-13.223635	-0.591197	-22.309377
8.250000	-0.280712	-112.891438	-54.050355	-8.879036	-54.050355	-8.879036	-0.589780	-25.428770
8.300000	-0.284616	-113.493674	-53.387603	-5.438525	-53.387603	-5.438525	-0.589861	-28.467727
8.350000	-0.288565	-114.096085	-52.727678	-2.699504	-52.727678	-2.699504	-0.591183	-31.440567
8.400000	-0.292571	-114.698802	-52.078940	-0.641645	-52.078940	-0.641645	-0.593841	-34.343071
8.450000	-0.296629	-115.301911	-51.453894	0.918477	-51.453894	0.918477	-0.597622	-37.187649
8.500000	-0.300741	-115.905519	-50.856497	2.083351	-50.856497	2.083351	-0.602438	-39.980296
8.550000	-0.304909	-116.509747	-50.287844	2.931672	-50.287844	2.931672	-0.608227	-42.725717
8.600000	-0.309135	-117.114731	-49.747587	3.528158	-49.747587	3.528158	-0.614937	-45.428181
8.650000	-0.313421	-117.720627	-49.234565	3.926129	-49.234565	3.926129	-0.622529	-48.091520
8.700000	-0.317773	-118.327628	-48.747095	4.166094	-48.747095	4.166094	-0.630987	-50.718488
8.750000	-0.322196	-118.935993	-48.283356	4.285197	-48.283356	4.285197	-0.640309	-53.311614
8.800000	-0.326693	-119.545910	-47.841495	4.322529	-47.841495	4.322529	-0.650437	-55.875608
8.850000	-0.331268	-120.157592	-47.419512	4.306635	-47.419512	4.306635	-0.661339	-58.413934
8.900000	-0.335928	-120.771329	-47.015358	4.260769	-47.015358	4.260769	-0.673007	-60.929006
8.950000	-0.340689	-121.387682	-46.626698	4.208372	-46.626698	4.208372	-0.685498	-63.421796
9.000000	-0.345555	-122.006862	-46.251482	4.172204	-46.251482	4.172204	-0.698744	-65.896581
9.050000	-0.350538	-122.629315	-45.887415	4.171742	-45.887415	4.171742	-0.712747	-68.355489
9.100000	-0.355661	-123.255723	-45.531730	4.229133	-45.531730	4.229133	-0.727539	-70.800154
9.150000	-0.360951	-123.886919	-45.181066	4.368796	-45.181066	4.368796	-0.743146	-73.232594
9.200000	-0.366430	-124.523459	-44.832442	4.607706	-44.832442	4.607706	-0.759537	-75.655496
9.250000	-0.372135	-125.166268	-44.481999	4.966489	-44.481999	4.966489	-0.776726	-78.070700
9.300000	-0.378138	-125.817063	-44.123284	5.477230	-44.123284	5.477230	-0.794780	-80.479759
9.350000	-0.384507	-126.477186	-43.750287	6.158463	-43.750287	6.158463	-0.813691	-82.884912
9.400000	-0.391334	-127.148238	-43.356225	7.025816	-43.356225	7.025816	-0.833457	-85.288037
9.450000	-0.398753	-127.832506	-42.932067	8.096509	-42.932067	8.096509	-0.854100	-87.690833
9.500000	-0.407055	-128.534668	-42.459148	9.400751	-42.459148	9.400751	-0.875719	-90.095295
9.550000	-0.416583	-129.258892	-41.920990	10.926552	-41.920990	10.926552	-0.898304	-92.503373
9.600000	-0.427706	-130.008639	-41.307864	12.635031	-41.307864	12.635031	-0.921801	-94.916341
9.650000	-0.441261	-130.792414	-40.592177	14.482475	-40.592177	14.482475	-0.946263	-97.336039
9.700000	-0.458499	-131.620213	-39.747699	16.369200	-39.747699	16.369200	-0.971680	-99.763982
9.750000	-0.480624	-132.498169	-38.777426	18.168632	-38.777426	18.168632	-0.997940	-102.200429
9.800000	-0.512349	-133.455968	-37.598139	19.598826	-37.598139	19.598826	-1.025091	-104.648159
9.850000	-0.559397	-134.510650	-36.203807	20.308670	-36.203807	20.308670	-1.052821	-107.106303
9.900000	-0.633908	-135.686228	-34.562270	19.735014	-34.562270	19.735014	-1.080553	-109.572933
9.950000	-0.758091	-136.979828	-32.670412	17.055481	-32.670412	17.055481	-1.106711	-112.040429
10.000000	-0.971675	-138.275481	-30.576770	11.007331	-30.576770	11.007331	-1.125749	-114.483173
