! freq	dB(S11)	phase(S11)	dB(S12)	phase(S12)	
!     	dB(S21)	phase(S21)	dB(S22)	phase(S22)	
!S-par simulation data
#  GHz  S  DB  R 50
0.000000	-84.442949	0.000000	-0.000521	0.000000	-0.000521	0.000000	-84.442949	0.000000
0.050000	-34.752601	-93.136632	-0.005989	-3.197367	-0.005989	-3.197367	-34.751611	-92.939187
0.100000	-28.759601	-96.553082	-0.016751	-6.356041	-0.016751	-6.356041	-28.758078	-96.157264
0.150000	-25.279322	-99.898818	-0.028971	-9.493671	-0.028971	-9.493671	-25.277306	-99.304114
0.200000	-22.833389	-103.215425	-0.042936	-12.621308	-0.042936	-12.621308	-22.831085	-102.422456
0.250000	-20.956683	-106.508079	-0.059123	-15.740505	-0.059123	-15.740505	-20.954264	-105.518151
0.300000	-19.441589	-109.777113	-0.077637	-18.850154	-0.077637	-18.850154	-19.439116	-108.591312
0.350000	-18.178233	-113.022160	-0.098417	-21.948615	-0.098417	-21.948615	-18.175696	-111.640909
0.400000	-17.100481	-116.244279	-0.121226	-25.034872	-0.121226	-25.034872	-17.097858	-114.667390
0.450000	-16.167511	-119.443461	-0.145901	-28.107361	-0.145901	-28.107361	-16.164796	-117.670389
0.500000	-15.348292	-122.622742	-0.172043	-31.166622	-0.172043	-31.166622	-15.345503	-120.652896
0.550000	-14.624992	-125.781180	-0.199524	-34.210822	-0.199524	-34.210822	-14.622160	-123.613935
0.600000	-13.981164	-128.920764	-0.228012	-37.240393	-0.228012	-37.240393	-13.978323	-126.555593
0.650000	-13.405966	-132.041843	-0.257263	-40.254818	-0.257263	-40.254818	-13.403148	-129.478269
0.700000	-12.890014	-135.145437	-0.287008	-43.254334	-0.287008	-43.254334	-12.887247	-132.383029
0.750000	-12.426417	-138.232054	-0.316992	-46.238927	-0.316992	-46.238927	-12.423721	-135.270393
0.800000	-12.009347	-141.302405	-0.346964	-49.208891	-0.346964	-49.208891	-12.006738	-138.141067
0.850000	-11.634540	-144.356899	-0.376662	-52.164349	-0.376662	-52.164349	-11.632028	-140.995435
0.900000	-11.297093	-147.396947	-0.405865	-55.106425	-0.405865	-55.106425	-11.294683	-143.834898
0.950000	-10.994151	-150.423116	-0.434337	-58.035532	-0.434337	-58.035532	-10.991848	-146.659982
1.000000	-10.722940	-153.436351	-0.461853	-60.952483	-0.461853	-60.952483	-10.720746	-149.471602
1.050000	-10.481110	-156.437699	-0.488200	-63.858221	-0.488200	-63.858221	-10.479028	-152.270769
1.100000	-10.266667	-159.428303	-0.513179	-66.753819	-0.513179	-66.753819	-10.264698	-155.058594
1.150000	-10.077916	-162.409400	-0.536599	-69.640473	-0.536599	-69.640473	-10.076062	-157.836286
1.200000	-9.913418	-165.382321	-0.558289	-72.519491	-0.558289	-72.519491	-9.911684	-160.605147
1.250000	-9.771963	-168.348479	-0.578089	-75.392288	-0.578089	-75.392288	-9.770353	-163.366567
1.300000	-9.652968	-171.309282	-0.595809	-78.260313	-0.595809	-78.260313	-9.651487	-166.121920
1.350000	-9.555157	-174.266440	-0.611371	-81.125309	-0.611371	-81.125309	-9.553814	-168.872914
1.400000	-9.477861	-177.221569	-0.624669	-83.988957	-0.624669	-83.988957	-9.476665	-171.621156
1.450000	-9.420559	179.823670	-0.635620	-86.853006	-0.635620	-86.853006	-9.419522	-174.368305
1.500000	-9.382870	176.867579	-0.644159	-89.719259	-0.644159	-89.719259	-9.382006	-177.116062
1.550000	-9.364548	173.908437	-0.650243	-92.589562	-0.650243	-92.589562	-9.363874	-179.866161
1.600000	-9.365473	170.944510	-0.653851	-95.465794	-0.653851	-95.465794	-9.365010	177.379643
1.650000	-9.385654	167.974063	-0.654981	-98.349853	-0.654981	-98.349853	-9.385423	174.619581
1.700000	-9.425221	164.995376	-0.653656	-101.243649	-0.653656	-101.243649	-9.425250	171.851885
1.750000	-9.484433	162.006754	-0.649918	-104.149086	-0.649918	-104.149086	-9.484752	169.074796
1.800000	-9.563675	159.006546	-0.643835	-107.068054	-0.643835	-107.068054	-9.564318	166.286577
1.850000	-9.663466	155.993156	-0.635493	-110.002415	-0.635493	-110.002415	-9.664474	163.485524
1.900000	-9.784682	152.964891	-0.624980	-112.954196	-0.624980	-112.954196	-9.786100	160.669806
1.950000	-9.928136	149.920285	-0.612433	-115.925224	-0.612433	-115.925224	-9.930018	157.837771
2.000000	-10.094580	146.858202	-0.598028	-118.917005	-0.598028	-118.917005	-10.096987	154.988058
2.050000	-10.285156	143.777495	-0.581940	-121.931149	-0.581940	-121.931149	-10.288156	152.119235
2.100000	-10.501195	140.677189	-0.564360	-124.969170	-0.564360	-124.969170	-10.504870	149.229975
2.150000	-10.744245	137.556516	-0.545500	-128.032473	-0.545500	-128.032473	-10.748688	146.319064
2.200000	-11.016095	134.414955	-0.525585	-131.122335	-0.525585	-131.122335	-11.021416	143.385421
2.250000	-11.318812	131.252276	-0.504857	-134.239898	-0.504857	-134.239898	-11.325140	140.428112
2.300000	-11.654788	128.068598	-0.483567	-137.386153	-0.483567	-137.386153	-11.662276	137.446358
2.350000	-12.026794	124.864453	-0.461979	-140.561927	-0.461979	-140.561927	-12.035627	134.439552
2.400000	-12.438061	121.640879	-0.440359	-143.767878	-0.440359	-143.767878	-12.448460	131.407263
2.450000	-12.892370	118.399533	-0.418980	-147.004485	-0.418980	-147.004485	-12.904608	128.349249
2.500000	-13.394187	115.142843	-0.398110	-150.272040	-0.398110	-150.272040	-13.408602	125.265451
2.550000	-13.949266	111.874075	-0.378036	-153.571327	-0.378036	-153.571327	-13.966286	122.155444
2.600000	-14.563542	108.598391	-0.359003	-156.901585	-0.359003	-156.901585	-14.583713	119.020090
2.650000	-15.244833	105.322427	-0.341251	-160.262549	-0.341251	-160.262549	-15.268869	115.859828
2.700000	-16.002855	102.055373	-0.325002	-163.653795	-0.325002	-163.653795	-16.031710	112.675180
2.750000	-16.849917	98.810153	-0.310451	-167.074748	-0.310451	-167.074748	-16.884902	109.466664
2.800000	-17.801986	95.605413	-0.297769	-170.524713	-0.297769	-170.524713	-17.844959	106.234647
2.850000	-18.880355	92.468984	-0.287090	-174.002901	-0.287090	-174.002901	-18.934057	102.979077
2.900000	-20.114397	89.444318	-0.278515	-177.508464	-0.278515	-177.508464	-20.183072	99.698994
2.950000	-21.546371	86.603281	-0.272103	178.959465	-0.272103	178.959465	-21.637004	96.391542
3.000000	-23.240381	84.073969	-0.267873	175.401725	-0.267873	175.401725	-23.365461	93.049781
3.050000	-25.300641	82.108619	-0.265799	171.819076	-0.265799	171.819076	-25.485189	89.657178
3.100000	-27.913015	81.277605	-0.265810	168.212147	-0.265810	168.212147	-28.216431	86.171029
3.150000	-31.449027	83.249014	-0.267812	164.581114	-0.267812	164.581114	-32.059363	82.448938
3.200000	-36.701301	95.149549	-0.271641	160.926154	-0.271641	160.926154	-38.675207	77.662669
3.250000	-41.781017	151.040002	-0.277076	157.247364	-0.277076	157.247364	-51.323292	-57.281829
3.300000	-36.861762	-159.039899	-0.283886	153.544192	-0.283886	153.544192	-37.842170	-103.355677
3.350000	-32.351954	-147.715691	-0.291784	149.816407	-0.291784	149.816407	-32.488798	-107.847913
3.400000	-29.489405	-146.261121	-0.300548	146.060891	-0.300548	146.060891	-29.472303	-111.407155
3.450000	-27.542601	-147.499401	-0.309847	142.276349	-0.309847	142.276349	-27.472781	-114.718566
3.500000	-26.166936	-149.930546	-0.319386	138.460010	-0.319386	138.460010	-26.070221	-117.879970
3.550000	-25.197238	-153.024670	-0.328882	134.608394	-0.328882	134.608394	-25.080302	-120.905756
3.600000	-24.549095	-156.561022	-0.338080	130.717241	-0.338080	130.717241	-24.411209	-123.776027
3.650000	-24.181533	-160.446743	-0.346772	126.781464	-0.346772	126.781464	-24.017183	-126.443267
3.700000	-24.082476	-164.658126	-0.354815	122.795090	-0.354815	122.795090	-23.880783	-128.824065
3.750000	-24.264997	-169.225623	-0.362158	118.751222	-0.362158	118.751222	-24.006485	-130.776403
3.800000	-24.776793	-174.256172	-0.368862	114.640920	-0.368862	114.640920	-24.424625	-132.034107
3.850000	-25.702491	-179.972927	-0.375169	110.456145	-0.375169	110.456145	-25.182380	-132.120010
3.900000	-27.217202	173.081520	-0.381504	106.187079	-0.381504	106.187079	-26.357211	-130.042734
3.950000	-29.693198	163.328304	-0.388536	101.823015	-0.388536	101.823015	-28.018542	-123.587025
4.000000	-33.988247	143.976766	-0.397227	97.352486	-0.397227	97.352486	-29.943869	-107.949208
4.050000	-38.681820	79.310190	-0.408890	92.763463	-0.408890	92.763463	-30.573903	-79.081737
4.100000	-32.160234	16.373102	-0.425253	88.043678	-0.425253	88.043678	-28.206436	-51.038441
4.150000	-26.422246	-2.445988	-0.448521	83.181075	-0.448521	83.181075	-24.718147	-36.741299
4.200000	-22.443872	-12.712364	-0.481530	78.163257	-0.481530	78.163257	-21.532250	-31.476450
4.250000	-19.387364	-20.639669	-0.527625	72.981176	-0.527625	72.981176	-18.817741	-30.570179
4.300000	-16.887189	-27.697863	-0.590705	67.628740	-0.590705	67.628740	-16.492068	-31.951685
4.350000	-14.764363	-34.402579	-0.675273	62.103335	-0.675273	62.103335	-14.469518	-34.691961
4.400000	-12.920457	-40.977206	-0.786418	56.407157	-0.786418	56.407157	-12.688418	-38.326267
4.450000	-11.297424	-47.527597	-0.929588	50.549451	-0.929588	50.549451	-11.107350	-42.592343
4.500000	-9.859856	-54.100128	-1.109719	44.549660	-1.109719	44.549660	-9.699260	-47.319134
4.550000	-8.582705	-60.707637	-1.332143	38.432521	-1.332143	38.432521	-8.443656	-52.393645
4.600000	-7.449160	-67.340694	-1.601415	32.232220	-1.601415	32.232220	-7.326381	-57.722595
4.650000	-6.446626	-73.974431	-1.920399	25.990829	-1.920399	25.990829	-6.336470	-63.222157
4.700000	-5.564464	-80.574467	-2.291169	19.754144	-2.291169	19.754144	-5.464330	-68.819308
4.750000	-4.793462	-87.100212	-2.714296	13.571091	-2.714296	13.571091	-4.701441	-74.445728
4.800000	-4.123880	-93.512098	-3.188047	7.487835	-3.188047	7.487835	-4.038545	-80.039642
4.850000	-3.546398	-99.772490	-3.709804	1.546851	-3.709804	1.546851	-3.466658	-85.548010
4.900000	-3.052222	-105.846775	-4.275764	-4.213370	-4.275764	-4.213370	-2.977229	-90.924822
4.950000	-2.631223	-111.712934	-4.881121	-9.767487	-4.881121	-9.767487	-2.560312	-96.137880
5.000000	-2.274331	-117.354345	-5.521000	-15.096152	-5.521000	-15.096152	-2.206973	-101.163273
5.050000	-1.974011	-122.755703	-6.189763	-20.181518	-6.189763	-20.181518	-1.909777	-105.980534
5.100000	-1.721184	-127.920679	-6.883131	-25.025104	-6.883131	-25.025104	-1.659731	-110.587733
5.150000	-1.508783	-132.852365	-7.596976	-29.627942	-7.596976	-29.627942	-1.449831	-114.984140
5.200000	-1.330579	-137.557888	-8.327726	-33.995152	-8.327726	-33.995152	-1.273899	-119.173722
5.250000	-1.181160	-142.047226	-9.072413	-38.134696	-9.072413	-38.134696	-1.126564	-123.163831
5.300000	-1.055884	-146.332184	-9.828675	-42.056300	-9.828675	-42.056300	-1.003217	-126.964073
5.350000	-0.951213	-150.420951	-10.593181	-45.765486	-10.593181	-45.765486	-0.900347	-130.581069
5.400000	-0.863410	-154.330522	-11.365580	-49.277039	-11.365580	-49.277039	-0.814239	-134.029979
5.450000	-0.789560	-158.075590	-12.145665	-52.603149	-12.145665	-52.603149	-0.742001	-137.324074
5.500000	-0.727366	-161.668770	-12.933186	-55.753471	-12.933186	-55.753471	-0.681350	-140.474844
5.550000	-0.674913	-165.122049	-13.728294	-58.736624	-13.728294	-58.736624	-0.630386	-143.493315
5.600000	-0.630875	-168.441912	-14.528855	-61.553720	-14.528855	-61.553720	-0.587794	-146.385388
5.650000	-0.593471	-171.646760	-15.339861	-64.220759	-15.339861	-64.220759	-0.551804	-149.168346
5.700000	-0.561710	-174.744586	-16.161938	-66.739919	-16.161938	-66.739919	-0.521435	-151.849661
5.750000	-0.534972	-177.738326	-16.992572	-69.104986	-16.992572	-69.104986	-0.496077	-154.432046
5.800000	-0.512003	179.352856	-17.841743	-71.333409	-17.841743	-71.333409	-0.474479	-156.933671
5.850000	-0.492798	176.536595	-18.699935	-73.397052	-18.699935	-73.397052	-0.456646	-159.347260
5.900000	-0.476217	173.790387	-19.583193	-75.320138	-19.583193	-75.320138	-0.441443	-161.694224
5.950000	-0.462287	171.120965	-20.483013	-77.065953	-20.483013	-77.065953	-0.428905	-163.968197
6.000000	-0.450331	168.513384	-21.412615	-78.643869	-21.412615	-78.643869	-0.418357	-166.183434
6.050000	-0.440193	165.967427	-22.371526	-80.019767	-22.371526	-80.019767	-0.409652	-168.340221
6.100000	-0.431584	163.477295	-23.366434	-81.169781	-23.366434	-81.169781	-0.402503	-170.444156
6.150000	-0.424233	161.036687	-24.407235	-82.064442	-24.407235	-82.064442	-0.396644	-172.501317
6.200000	-0.418072	158.646454	-25.493972	-82.619434	-25.493972	-82.619434	-0.392015	-174.511050
6.250000	-0.412789	156.296065	-26.648906	-82.814408	-26.648906	-82.814408	-0.388301	-176.483414
6.300000	-0.408438	153.991138	-27.863684	-82.433292	-27.863684	-82.433292	-0.385572	-178.413354
6.350000	-0.404740	151.720289	-29.169644	-81.430796	-29.169644	-81.430796	-0.383542	179.688314
6.400000	-0.401746	149.488879	-30.549086	-79.312810	-30.549086	-79.312810	-0.382280	177.826268
6.450000	-0.399229	147.285706	-32.041558	-76.073982	-32.041558	-76.073982	-0.381548	175.990012
6.500000	-0.397253	145.116953	-33.570010	-70.517376	-33.570010	-70.517376	-0.381432	174.184785
6.550000	-0.395626	142.971670	-35.122514	-62.598773	-35.122514	-62.598773	-0.381726	172.400440
6.600000	-0.394324	140.848997	-36.608926	-52.056865	-36.608926	-52.056865	-0.382407	170.636058
6.650000	-0.393452	138.758210	-37.427410	-37.260688	-37.427410	-37.260688	-0.383623	168.899219
6.700000	-0.392806	136.685399	-37.625060	-21.914222	-37.625060	-21.914222	-0.385137	167.177481
6.750000	-0.392433	134.634880	-37.050705	-7.972948	-37.050705	-7.972948	-0.387021	165.474122
6.800000	-0.392290	132.603879	-36.042797	2.829594	-36.042797	2.829594	-0.389233	163.786331
6.850000	-0.392352	130.591072	-34.889653	10.452940	-34.889653	10.452940	-0.391755	162.112520
6.900000	-0.392602	128.595230	-33.752805	15.585216	-33.752805	15.585216	-0.394577	160.451171
6.950000	-0.393021	126.615207	-32.695640	18.948042	-32.695640	18.948042	-0.397690	158.800819
7.000000	-0.393598	124.649936	-31.733454	21.082088	-31.733454	21.082088	-0.401088	157.160049
7.050000	-0.394320	122.698423	-30.862540	22.354929	-30.862540	22.354929	-0.404769	155.527485
7.100000	-0.395178	120.759737	-30.073056	23.011610	-30.073056	23.011610	-0.408735	153.901780
7.150000	-0.396167	118.833009	-29.354099	23.216935	-29.354099	23.216935	-0.412990	152.281616
7.200000	-0.397279	116.917424	-28.695519	23.083850	-28.695519	23.083850	-0.417540	150.665686
7.250000	-0.398513	115.012219	-28.088435	22.691426	-28.088435	22.691426	-0.422395	149.052694
7.300000	-0.399865	113.116678	-27.525262	22.096178	-27.525262	22.096178	-0.427569	147.441347
7.350000	-0.401337	111.230125	-26.999584	21.339269	-26.999584	21.339269	-0.433078	145.830342
7.400000	-0.402929	109.351926	-26.505971	20.451183	-26.505971	20.451183	-0.438941	144.218365
7.450000	-0.404644	107.481482	-26.039819	19.454814	-26.039819	19.454814	-0.445183	142.604077
7.500000	-0.406486	105.618227	-25.597197	18.367551	-25.597197	18.367551	-0.451830	140.986108
7.550000	-0.408468	103.761889	-25.174620	17.199816	-25.174620	17.199816	-0.458937	139.362756
7.600000	-0.410593	101.911651	-24.769187	15.965454	-24.769187	15.965454	-0.466523	137.732710
7.650000	-0.412870	100.067031	-24.378357	14.672115	-24.378357	14.672115	-0.474635	136.094434
7.700000	-0.415312	98.227568	-23.999900	13.325684	-23.999900	13.325684	-0.483323	134.446314
7.750000	-0.417933	96.392822	-23.631837	11.930625	-23.631837	11.930625	-0.492647	132.786643
7.800000	-0.420750	94.562369	-23.272396	10.490245	-23.272396	10.490245	-0.502677	131.113607
7.850000	-0.423783	92.735798	-22.919979	9.006878	-22.919979	9.006878	-0.513494	129.425262
7.900000	-0.427055	90.912711	-22.573126	7.482024	-22.573126	7.482024	-0.525191	127.719517
7.950000	-0.430593	89.092721	-22.230495	5.916444	-22.230495	5.916444	-0.537878	125.994105
8.000000	-0.434428	87.275446	-21.890832	4.310221	-21.890832	4.310221	-0.551684	124.246558
8.050000	-0.438598	85.460510	-21.552958	2.662802	-21.552958	2.662802	-0.566759	122.474170
8.100000	-0.443145	83.647540	-21.215749	0.972998	-21.215749	0.972998	-0.583285	120.673958
8.150000	-0.448120	81.836163	-20.878117	-0.761022	-20.878117	-0.761022	-0.601473	118.842614
8.200000	-0.453583	80.026005	-20.539002	-2.541777	-20.539002	-2.541777	-0.621580	116.976446
8.250000	-0.459603	78.216689	-20.197350	-4.372539	-20.197350	-4.372539	-0.643915	115.071312
8.300000	-0.466265	76.407834	-19.852104	-6.257435	-19.852104	-6.257435	-0.668853	113.122533
8.350000	-0.473651	74.599061	-19.502593	-8.200278	-19.502593	-8.200278	-0.696784	111.125896
8.400000	-0.481931	72.789963	-19.146614	-10.210917	-19.146614	-10.210917	-0.728466	109.072342
8.450000	-0.491223	70.980153	-18.783743	-12.294810	-18.783743	-12.294810	-0.764498	106.956799
8.500000	-0.501709	69.169258	-18.412777	-14.461486	-18.412777	-14.461486	-0.805780	104.771211
8.550000	-0.513613	67.356933	-18.032440	-16.722739	-18.032440	-16.722739	-0.853464	102.506195
8.600000	-0.527218	65.542890	-17.641376	-19.093275	-17.641376	-19.093275	-0.909048	100.150769
8.650000	-0.542879	63.726955	-17.238141	-21.591611	-17.238141	-21.591611	-0.974508	97.692014
8.700000	-0.561053	61.909160	-16.821212	-24.241339	-16.821212	-24.241339	-1.052497	95.114694
8.750000	-0.582514	60.089885	-16.387129	-27.083624	-16.387129	-27.083624	-1.147612	92.393254
8.800000	-0.607751	58.270325	-15.937629	-30.141679	-15.937629	-30.141679	-1.263519	89.519225
8.850000	-0.638202	56.452946	-15.467794	-33.492872	-15.467794	-33.492872	-1.409892	86.453096
8.900000	-0.675087	54.642691	-14.979131	-37.202322	-14.979131	-37.202322	-1.597199	83.177320
8.950000	-0.719792	52.847164	-14.474587	-41.348517	-14.474587	-41.348517	-1.839477	79.679872
9.000000	-0.775496	51.085384	-13.954519	-46.128789	-13.954519	-46.128789	-2.169902	75.933186
9.050000	-0.844401	49.388538	-13.433725	-51.733039	-13.433725	-51.733039	-2.630531	72.002402
9.100000	-0.928001	47.813685	-12.941693	-58.443702	-12.941693	-58.443702	-3.291558	68.115639
9.150000	-1.023091	46.455578	-12.541056	-66.614283	-12.541056	-66.614283	-4.255854	64.975482
9.200000	-1.112236	45.445664	-12.364196	-76.597134	-12.364196	-76.597134	-5.609727	64.611791
9.250000	-1.151986	44.824456	-12.640091	-88.241571	-12.640091	-88.241571	-7.024918	71.061427
9.300000	-1.090400	44.304838	-13.672184	-100.074409	-13.672184	-100.074409	-7.107853	84.121395
9.350000	-0.937852	43.315435	-15.634917	-108.446573	-15.634917	-108.446573	-5.542976	91.078061
9.400000	-0.775732	41.620619	-18.210264	-107.910990	-18.210264	-107.910990	-3.962260	88.468288
9.450000	-0.663992	39.476758	-20.088685	-95.065799	-20.088685	-95.065799	-2.979968	81.464033
9.500000	-0.609157	37.194522	-19.835402	-78.660124	-19.835402	-78.660124	-2.488274	73.103553
9.550000	-0.597434	34.934802	-18.268066	-69.870494	-18.268066	-69.870494	-2.323391	64.295053
9.600000	-0.615408	32.756666	-16.587429	-68.168261	-16.587429	-68.168261	-2.385382	55.122104
9.650000	-0.654068	30.678174	-15.126453	-70.392121	-15.126453	-70.392121	-2.627070	45.390212
9.700000	-0.707751	28.708629	-13.898739	-74.814564	-13.898739	-74.814564	-3.035944	34.801041
9.750000	-0.772042	26.859637	-12.872809	-80.648176	-12.872809	-80.648176	-3.619507	22.984447
9.800000	-0.842057	25.145049	-12.027454	-87.509763	-12.027454	-87.509763	-4.392401	9.479714
9.850000	-0.911378	23.574750	-11.356794	-95.166366	-11.356794	-95.166366	-5.357403	-6.311781
9.900000	-0.971970	22.143722	-10.865071	-103.413613	-10.865071	-103.413613	-6.465642	-25.146540
9.950000	-1.015787	20.820895	-10.557179	-112.020861	-10.557179	-112.020861	-7.549717	-47.681457
10.000000	-1.031975	19.567540	-10.467021	-120.415828	-10.467021	-120.415828	-8.264465	-72.449135
