! freq	dB(S11)	phase(S11)	dB(S12)	phase(S12)	
!     	dB(S21)	phase(S21)	dB(S22)	phase(S22)	
!S-par simulation data
#  GHz  S  DB  R 50
0.000000	-83.558144	0.000000	-0.000577	0.000000	-0.000577	0.000000	-83.558144	0.000000
0.050000	-55.899495	-89.216196	-0.008559	-2.384086	-0.008559	-2.384086	-55.903396	-89.228606
0.100000	-49.825068	-92.253828	-0.012011	-4.725016	-0.012011	-4.725016	-49.829079	-92.280628
0.150000	-46.234956	-94.746206	-0.014606	-7.065929	-0.014606	-7.065929	-46.239285	-94.786631
0.200000	-43.679792	-97.252305	-0.017045	-9.405036	-0.017045	-9.405036	-43.684579	-97.305018
0.250000	-41.703777	-99.817711	-0.019353	-11.742448	-0.019353	-11.742448	-41.709095	-99.880901
0.300000	-40.103114	-102.421273	-0.021563	-14.078734	-0.021563	-14.078734	-40.108969	-102.493004
0.350000	-38.764753	-105.036315	-0.023735	-16.414430	-0.023735	-16.414430	-38.771091	-105.114983
0.400000	-37.621135	-107.650320	-0.025909	-18.749699	-0.025909	-18.749699	-37.627903	-107.734306
0.450000	-36.627769	-110.255832	-0.028119	-21.084625	-0.028119	-21.084625	-36.634917	-110.343524
0.500000	-35.755813	-112.848460	-0.030393	-23.419196	-0.030393	-23.419196	-35.763299	-112.938019
0.550000	-34.981937	-115.428230	-0.032739	-25.753420	-0.032739	-25.753420	-34.989728	-115.517793
0.600000	-34.289428	-117.995910	-0.035158	-28.087289	-0.035158	-28.087289	-34.297498	-118.083491
0.650000	-33.665977	-120.552406	-0.037649	-30.420791	-0.037649	-30.420791	-33.674308	-120.635827
0.700000	-33.102033	-123.098781	-0.040208	-32.753924	-0.040208	-32.753924	-33.110613	-123.175651
0.750000	-32.590039	-125.636124	-0.042828	-35.086697	-0.042828	-35.086697	-32.598862	-125.703814
0.800000	-32.124353	-128.165307	-0.045503	-37.419122	-0.045503	-37.419122	-32.133419	-128.220859
0.850000	-31.701173	-130.686954	-0.048226	-39.751213	-0.048226	-39.751213	-31.710487	-130.726886
0.900000	-31.314685	-133.202668	-0.050985	-42.083042	-0.050985	-42.083042	-31.324257	-133.223470
0.950000	-30.961442	-135.713271	-0.053771	-44.414660	-0.053771	-44.414660	-30.971283	-135.711117
1.000000	-30.638516	-138.219536	-0.056576	-46.746124	-0.056576	-46.746124	-30.648644	-138.190258
1.050000	-30.343402	-140.722189	-0.059394	-49.077496	-0.059394	-49.077496	-30.353839	-140.661259
1.100000	-30.073932	-143.221930	-0.062218	-51.408845	-0.062218	-51.408845	-30.084703	-143.124430
1.150000	-29.829369	-145.719322	-0.065042	-53.740250	-0.065042	-53.740250	-29.840511	-145.579493
1.200000	-29.607491	-148.215191	-0.067862	-56.071795	-0.067862	-56.071795	-29.619044	-148.026927
1.250000	-29.406123	-150.710289	-0.070673	-58.403553	-0.070673	-58.403553	-29.418129	-150.467235
1.300000	-29.223934	-153.205281	-0.073473	-60.735599	-0.073473	-60.735599	-29.236445	-152.900565
1.350000	-29.059724	-155.700842	-0.076261	-63.068012	-0.076261	-63.068012	-29.072796	-155.327045
1.400000	-28.912395	-158.197657	-0.079035	-65.400866	-0.079035	-65.400866	-28.926093	-157.746774
1.450000	-28.781020	-160.696446	-0.081795	-67.734239	-0.081795	-67.734239	-28.795416	-160.159793
1.500000	-28.665975	-163.198296	-0.084540	-70.068273	-0.084540	-70.068273	-28.681164	-162.565480
1.550000	-28.564879	-165.703718	-0.087273	-72.402979	-0.087273	-72.402979	-28.580954	-164.964606
1.600000	-28.476899	-168.213476	-0.089994	-74.738425	-0.089994	-74.738425	-28.493964	-167.357185
1.650000	-28.401236	-170.728349	-0.092708	-77.074675	-0.092708	-77.074675	-28.419407	-169.743216
1.700000	-28.337732	-173.249532	-0.095414	-79.411844	-0.095414	-79.411844	-28.357148	-172.122282
1.750000	-28.284820	-175.777433	-0.098119	-81.749928	-0.098119	-81.749928	-28.305623	-174.494808
1.800000	-28.242058	-178.313074	-0.100823	-84.089011	-0.100823	-84.089011	-28.264412	-176.860525
1.850000	-28.208682	179.142691	-0.103531	-86.429145	-0.103531	-86.429145	-28.232768	-179.219326
1.900000	-28.183922	176.589012	-0.106247	-88.770381	-0.106247	-88.770381	-28.209941	178.428920
1.950000	-28.167000	174.025057	-0.108974	-91.112765	-0.108974	-91.112765	-28.195173	176.084379
2.000000	-28.157122	171.450020	-0.111716	-93.456341	-0.111716	-93.456341	-28.187694	173.747243
2.050000	-28.153472	168.863138	-0.114477	-95.801149	-0.114477	-95.801149	-28.186714	171.417741
2.100000	-28.155211	166.263705	-0.117261	-98.147227	-0.117261	-98.147227	-28.191417	169.096130
2.150000	-28.161467	163.651089	-0.120071	-100.494610	-0.120071	-100.494610	-28.200960	166.782699
2.200000	-28.171337	161.024754	-0.122911	-102.843331	-0.122911	-102.843331	-28.214467	164.477765
2.250000	-28.183880	158.384283	-0.125784	-105.193420	-0.125784	-105.193420	-28.231027	162.181668
2.300000	-28.198117	155.729399	-0.128694	-107.544906	-0.128694	-107.544906	-28.249687	159.894770
2.350000	-28.213028	153.059991	-0.131643	-109.897816	-0.131643	-109.897816	-28.269455	157.617441
2.400000	-28.227557	150.376142	-0.134634	-112.252175	-0.134634	-112.252175	-28.289299	155.350059
2.450000	-28.240607	147.678153	-0.137671	-114.608008	-0.137671	-114.608008	-28.308142	153.092988
2.500000	-28.251049	144.966574	-0.140754	-116.965339	-0.140754	-116.965339	-28.324869	150.846573
2.550000	-28.257502	142.241716	-0.143889	-119.324258	-0.143889	-119.324258	-28.338130	148.611607
2.600000	-28.258896	139.505320	-0.147075	-121.684722	-0.147075	-121.684722	-28.346830	146.387866
2.650000	-28.254033	136.758836	-0.150315	-124.046755	-0.150315	-124.046755	-28.349758	144.175506
2.700000	-28.241715	134.004030	-0.153609	-126.410380	-0.153609	-126.410380	-28.345688	141.974582
2.750000	-28.220755	131.242974	-0.156959	-128.775620	-0.156959	-128.775620	-28.333390	139.785026
2.800000	-28.189990	128.478035	-0.160366	-131.142499	-0.160366	-131.142499	-28.311644	137.606622
2.850000	-28.148302	125.711851	-0.163831	-133.511043	-0.163831	-133.511043	-28.279254	135.438992
2.900000	-28.094630	122.947293	-0.167355	-135.881278	-0.167355	-135.881278	-28.235066	133.281578
2.950000	-28.027989	120.187411	-0.170940	-138.253231	-0.170940	-138.253231	-28.177987	131.133628
3.000000	-27.947487	117.435380	-0.174586	-140.626931	-0.174586	-140.626931	-28.107000	128.994197
3.050000	-27.852341	114.694425	-0.178294	-143.002407	-0.178294	-143.002407	-28.021186	126.862143
3.100000	-27.741889	111.967744	-0.182065	-145.379692	-0.182065	-145.379692	-27.919743	124.736137
3.150000	-27.615607	109.258426	-0.185900	-147.758818	-0.185900	-147.758818	-27.801997	122.614686
3.200000	-27.473113	106.569374	-0.189801	-150.139819	-0.189801	-150.139819	-27.667424	120.496151
3.250000	-27.314177	103.903220	-0.193770	-152.522731	-0.193770	-152.522731	-27.515655	118.378783
3.300000	-27.138721	101.262263	-0.197808	-154.907593	-0.197808	-154.907593	-27.346490	116.260763
3.350000	-26.946819	98.648407	-0.201916	-157.294442	-0.201916	-157.294442	-27.159897	114.140243
3.400000	-26.738694	96.063119	-0.206099	-159.683319	-0.206099	-159.683319	-26.956012	112.015386
3.450000	-26.514709	93.507403	-0.210358	-162.074264	-0.210358	-162.074264	-26.735139	109.884418
3.500000	-26.275355	90.981789	-0.214697	-164.467319	-0.214697	-164.467319	-26.497737	107.745662
3.550000	-26.021245	88.486338	-0.219120	-166.862526	-0.219120	-166.862526	-26.244408	105.597581
3.600000	-25.753093	86.020668	-0.223631	-169.259929	-0.223631	-169.259929	-25.975888	103.438802
3.650000	-25.471703	83.583988	-0.228235	-171.659570	-0.228235	-171.659570	-25.693019	101.268142
3.700000	-25.177949	81.175141	-0.232937	-174.061492	-0.232937	-174.061492	-25.396740	99.084625
3.750000	-24.872766	78.792663	-0.237744	-176.465736	-0.237744	-176.465736	-25.088064	96.887483
3.800000	-24.556199	76.435820	-0.242668	-178.872448	-0.242668	-178.872448	-24.767080	94.675530
3.850000	-24.230207	74.101536	-0.247712	178.718435	-0.247712	178.718435	-24.435898	92.449034
3.900000	-23.895811	71.787762	-0.252884	176.306874	-0.252884	176.306874	-24.095649	90.207859
3.950000	-23.554036	69.492381	-0.258193	173.892838	-0.258193	173.892838	-23.747462	87.952038
4.000000	-23.205891	67.213256	-0.263650	171.476293	-0.263650	171.476293	-23.392455	85.681757
4.050000	-22.852368	64.948272	-0.269265	169.057213	-0.269265	169.057213	-23.031720	83.397327
4.100000	-22.494430	62.695374	-0.275048	166.635575	-0.275048	166.635575	-22.666312	81.099168
4.150000	-22.133005	60.452593	-0.281013	164.211361	-0.281013	164.211361	-22.297247	78.787787
4.200000	-21.768979	58.218069	-0.287172	161.784557	-0.287172	161.784557	-21.925489	76.463755
4.250000	-21.403197	55.990069	-0.293538	159.355158	-0.293538	159.355158	-21.551952	74.127694
4.300000	-21.036458	53.766993	-0.300126	156.923162	-0.300126	156.923162	-21.177492	71.780256
4.350000	-20.669512	51.547384	-0.306949	154.488578	-0.306949	154.488578	-20.802911	69.422116
4.400000	-20.304921	49.329807	-0.313989	152.051753	-0.313989	152.051753	-20.430875	67.055169
4.450000	-19.939374	47.113469	-0.321330	149.612015	-0.321330	149.612015	-20.057972	64.677474
4.500000	-19.575597	44.897038	-0.328953	147.169758	-0.328953	147.169758	-19.687031	62.291117
4.550000	-19.214152	42.679619	-0.336873	144.725027	-0.336873	144.725027	-19.318633	59.896749
4.600000	-18.855553	40.460440	-0.345108	142.277874	-0.345108	142.277874	-18.953309	57.495003
4.650000	-18.500276	38.238847	-0.353673	139.828362	-0.353673	139.828362	-18.591544	55.086486
4.700000	-18.148754	36.014295	-0.362584	137.376564	-0.362584	137.376564	-18.233777	52.671782
4.750000	-17.801381	33.786339	-0.371856	134.922565	-0.371856	134.922565	-17.880407	50.251448
4.800000	-17.458517	31.554626	-0.381504	132.466463	-0.381504	132.466463	-17.531793	47.826019
4.850000	-17.120488	29.318886	-0.391543	130.008365	-0.391543	130.008365	-17.188261	45.396001
4.900000	-16.787590	27.078924	-0.401986	127.548391	-0.401986	127.548391	-16.850101	42.961880
4.950000	-16.460089	24.834614	-0.412847	125.086672	-0.412847	125.086672	-16.517575	40.524119
5.000000	-16.138226	22.585892	-0.424137	122.623350	-0.424137	122.623350	-16.190917	38.083161
5.050000	-15.822105	20.332654	-0.435875	120.158552	-0.435875	120.158552	-15.870221	35.639378
5.100000	-15.512058	18.075039	-0.448062	117.692478	-0.448062	117.692478	-15.555818	33.193246
5.150000	-15.208260	15.813135	-0.460703	115.225304	-0.460703	115.225304	-15.247872	30.745157
5.200000	-14.910865	13.547067	-0.473805	112.757216	-0.473805	112.757216	-14.946529	28.295487
5.250000	-14.620010	11.276995	-0.487371	110.288409	-0.487371	110.288409	-14.651918	25.844603
5.300000	-14.335816	9.003110	-0.501400	107.819084	-0.501400	107.819084	-14.364154	23.392860
5.350000	-14.058393	6.725630	-0.515893	105.349453	-0.515893	105.349453	-14.083335	20.940603
5.400000	-13.787836	4.444794	-0.530843	102.879732	-0.530843	102.879732	-13.809551	18.488169
5.450000	-13.524228	2.160862	-0.546245	100.410140	-0.546245	100.410140	-13.542876	16.035887
5.500000	-13.267643	-0.125888	-0.562088	97.940902	-0.562088	97.940902	-13.283378	13.584079
5.550000	-13.018147	-2.415166	-0.578360	95.472246	-0.578360	95.472246	-13.031113	11.133057
5.600000	-12.775793	-4.706670	-0.595044	93.004397	-0.595044	93.004397	-12.786131	8.683127
5.650000	-12.540645	-7.000108	-0.612126	90.537594	-0.612126	90.537594	-12.548486	6.234606
5.700000	-12.312756	-9.295154	-0.629580	88.072068	-0.629580	88.072068	-12.318226	3.787791
5.750000	-12.092156	-11.591467	-0.647378	85.608024	-0.647378	85.608024	-12.095375	1.342945
5.800000	-11.878875	-13.888728	-0.665490	83.145672	-0.665490	83.145672	-11.879957	-1.099663
5.850000	-11.672939	-16.186620	-0.683883	80.685214	-0.683883	80.685214	-11.671991	-3.539777
5.900000	-11.474368	-18.484831	-0.702520	78.226840	-0.702520	78.226840	-11.471495	-5.977155
5.950000	-11.283184	-20.783056	-0.721361	75.770726	-0.721361	75.770726	-11.278483	-8.411567
6.000000	-11.099402	-23.080998	-0.740364	73.317034	-0.740364	73.317034	-11.092966	-10.842802
6.050000	-10.923219	-25.378331	-0.759482	70.866028	-0.759482	70.866028	-10.915137	-13.270508
6.100000	-10.754253	-27.674868	-0.778664	68.417568	-0.778664	68.417568	-10.744610	-15.694858
6.150000	-10.592729	-29.970316	-0.797859	65.971902	-0.797859	65.971902	-10.581604	-18.115510
6.200000	-10.438661	-32.264438	-0.817013	63.529110	-0.817013	63.529110	-10.426132	-20.532334
6.250000	-10.292068	-34.557015	-0.836069	61.089248	-0.836069	61.089248	-10.278209	-22.945220
6.300000	-10.153207	-36.847765	-0.854952	58.652472	-0.854952	58.652472	-10.138088	-25.353910
6.350000	-10.021887	-39.136585	-0.873608	56.218652	-0.873608	56.218652	-10.005577	-27.758525
6.400000	-9.898136	-41.423328	-0.891970	53.787749	-0.891970	53.787749	-9.880701	-30.159046
6.450000	-9.781986	-43.707873	-0.909972	51.359693	-0.909972	51.359693	-9.763489	-32.555482
6.500000	-9.673477	-45.990127	-0.927545	48.934380	-0.927545	48.934380	-9.653980	-34.947875
6.550000	-9.572656	-48.270021	-0.944621	46.511667	-0.944621	46.511667	-9.552220	-37.336302
6.600000	-9.479580	-50.547519	-0.961128	44.091375	-0.961128	44.091375	-9.458263	-39.720872
6.650000	-9.394316	-52.822608	-0.976996	41.673283	-0.976996	41.673283	-9.372178	-42.101730
6.700000	-9.316942	-55.095306	-0.992155	39.257129	-0.992155	39.257129	-9.294042	-44.479056
6.750000	-9.247553	-57.365657	-1.006532	36.842609	-1.006532	36.842609	-9.223950	-46.853067
6.800000	-9.186258	-59.633733	-1.020058	34.429373	-1.020058	34.429373	-9.162011	-49.224016
6.850000	-9.133184	-61.899630	-1.032663	32.017027	-1.032663	32.017027	-9.108354	-51.592193
6.900000	-9.088477	-64.163466	-1.044280	29.605129	-1.044280	29.605129	-9.063127	-53.957922
6.950000	-9.052308	-66.425384	-1.054840	27.193186	-1.054840	27.193186	-9.026503	-56.321567
7.000000	-9.024870	-68.685541	-1.064281	24.780658	-1.064281	24.780658	-8.998678	-58.683523
7.050000	-9.006389	-70.944111	-1.072540	22.366951	-1.072540	22.366951	-8.979882	-61.044221
7.100000	-8.997118	-73.201274	-1.079558	19.951417	-1.079558	19.951417	-8.970372	-63.404124
7.150000	-8.997351	-75.457216	-1.085281	17.533353	-1.085281	17.533353	-8.970448	-65.763726
7.200000	-9.007421	-77.712120	-1.089657	15.111999	-1.089657	15.111999	-8.980449	-68.123549
7.250000	-9.027705	-79.966154	-1.092639	12.686535	-1.092639	12.686535	-9.000762	-70.484139
7.300000	-9.058637	-82.219465	-1.094187	10.256078	-1.094187	10.256078	-9.031828	-72.846062
7.350000	-9.100708	-84.472161	-1.094264	7.819680	-1.094264	7.819680	-9.074151	-75.209901
7.400000	-9.154479	-86.724299	-1.092841	5.376326	-1.092841	5.376326	-9.128306	-77.576246
7.450000	-9.220589	-88.975858	-1.089897	2.924925	-1.089897	2.924925	-9.194949	-79.945687
7.500000	-9.299768	-91.226719	-1.085417	0.464312	-1.085417	0.464312	-9.274830	-82.318801
7.550000	-9.393305	-93.476579	-1.079346	-2.007158	-1.079346	-2.007158	-9.369271	-84.696300
7.600000	-9.501758	-95.725008	-1.071741	-4.490526	-1.071741	-4.490526	-9.478856	-87.078558
7.650000	-9.626242	-97.971307	-1.062619	-6.987240	-1.062619	-6.987240	-9.604739	-89.466000
7.700000	-9.768047	-100.214463	-1.052010	-9.498854	-1.052010	-9.498854	-9.748261	-91.858936
7.750000	-9.928673	-102.453041	-1.039959	-12.027049	-1.039959	-12.027049	-9.910984	-94.257516
7.800000	-10.109870	-104.685053	-1.026524	-14.573639	-1.026524	-14.573639	-10.094741	-96.661662
7.850000	-10.313701	-106.907770	-1.011786	-17.140602	-1.011786	-17.140602	-10.301701	-99.070974
7.900000	-10.542607	-109.117464	-0.995844	-19.730097	-0.995844	-19.730097	-10.534443	-101.484591
7.950000	-10.799503	-111.309049	-0.978823	-22.344506	-0.978823	-22.344506	-10.796074	-103.901004
8.000000	-11.087906	-113.475557	-0.960876	-24.986475	-0.960876	-24.986475	-11.090365	-106.317766
8.050000	-11.412102	-115.607373	-0.942194	-27.658974	-0.942194	-27.658974	-11.421963	-108.731059
8.100000	-11.777379	-117.691089	-0.923008	-30.365381	-0.923008	-30.365381	-11.796666	-111.135031
8.150000	-12.190715	-119.706689	-0.903607	-33.110046	-0.903607	-33.110046	-12.222228	-113.520384
8.200000	-12.660648	-121.625404	-0.884364	-35.897712	-0.884364	-35.897712	-12.708350	-115.872595
8.250000	-13.197751	-123.406145	-0.865742	-38.733478	-0.865742	-38.733478	-13.267392	-118.169422
8.300000	-13.816351	-124.984853	-0.848334	-41.624069	-0.848334	-41.624069	-13.916645	-120.374499
8.350000	-14.534104	-126.271660	-0.832849	-44.575936	-0.832849	-44.575936	-14.678567	-122.433145
8.400000	-15.380158	-127.075666	-0.820504	-47.603938	-0.820504	-47.603938	-15.592306	-124.226076
8.450000	-16.387439	-127.115129	-0.812719	-50.719527	-0.812719	-50.719527	-16.709111	-125.557154
8.500000	-17.600533	-125.849924	-0.811683	-53.941313	-0.811683	-53.941313	-18.113845	-126.015636
8.550000	-19.062998	-122.217801	-0.820785	-57.295276	-0.820785	-57.295276	-19.946542	-124.661956
8.600000	-20.732783	-113.868928	-0.846171	-60.823630	-0.846171	-60.823630	-22.419472	-118.725893
8.650000	-22.166563	-97.500564	-0.896816	-64.571524	-0.896816	-64.571524	-25.499742	-100.632303
8.700000	-21.927853	-73.241317	-0.992608	-68.626134	-0.992608	-68.626134	-26.143105	-60.009981
8.750000	-19.383419	-53.724791	-1.171013	-73.083402	-1.171013	-73.083402	-21.874206	-31.135714
8.800000	-15.893602	-46.536164	-1.519701	-78.019241	-1.519701	-78.019241	-17.186159	-25.263075
8.850000	-12.430740	-50.159024	-2.236304	-83.055376	-2.236304	-83.055376	-13.183113	-31.498437
8.900000	-9.478019	-64.310333	-3.661550	-85.072318	-3.661550	-85.072318	-9.977225	-47.892001
8.950000	-8.019668	-88.067093	-4.930207	-74.887296	-4.930207	-74.887296	-8.396769	-73.518046
9.000000	-8.862975	-112.485470	-3.626908	-64.894345	-3.626908	-64.894345	-9.191067	-99.625963
9.050000	-11.188558	-128.975799	-2.198731	-67.083523	-2.198731	-67.083523	-11.526289	-117.828911
9.100000	-14.077384	-137.567818	-1.479825	-72.275697	-1.479825	-72.275697	-14.500574	-128.393873
9.150000	-17.346002	-139.652720	-1.128368	-77.401552	-1.128368	-77.401552	-18.008043	-133.037740
9.200000	-21.093423	-133.391612	-0.948510	-82.097227	-0.948510	-82.097227	-22.435209	-130.083434
9.250000	-24.824939	-110.986948	-0.854966	-86.434450	-0.854966	-86.434450	-28.114263	-105.956375
9.300000	-25.341664	-72.762560	-0.809873	-90.515431	-0.809873	-90.515431	-28.552825	-46.632412
9.350000	-22.506150	-48.741924	-0.795917	-94.410950	-0.795917	-94.410950	-23.709648	-21.462251
9.400000	-19.699781	-39.228255	-0.802794	-98.177454	-0.802794	-98.177454	-20.207586	-15.324929
9.450000	-17.474114	-36.071744	-0.825875	-101.844915	-0.825875	-101.844915	-17.725087	-14.556786
9.500000	-15.707120	-35.703094	-0.862542	-105.432864	-0.862542	-105.432864	-15.841881	-15.743764
9.550000	-14.263182	-36.624651	-0.910291	-108.959361	-0.910291	-108.959361	-14.335459	-17.750988
9.600000	-13.051651	-38.267098	-0.967916	-112.433467	-0.967916	-112.433467	-13.086541	-20.185601
9.650000	-12.015352	-40.356231	-1.034949	-115.858880	-1.034949	-115.858880	-12.026180	-22.866494
9.700000	-11.113781	-42.710279	-1.110283	-119.241539	-1.110283	-119.241539	-11.107986	-25.681192
9.750000	-10.319763	-45.237016	-1.193304	-122.583808	-1.193304	-122.583808	-10.301901	-28.573713
9.800000	-9.614731	-47.881674	-1.283702	-125.885410	-1.283702	-125.885410	-9.587763	-31.510501
9.850000	-8.983992	-50.602433	-1.380874	-129.147257	-1.380874	-129.147257	-8.949870	-34.467243
9.900000	-8.416031	-53.370693	-1.484175	-132.370399	-1.484175	-132.370399	-8.376071	-37.427891
9.950000	-7.902976	-56.168213	-1.593250	-135.553395	-1.593250	-135.553395	-7.858087	-40.381085
10.000000	-7.437809	-58.979795	-1.707532	-138.696269	-1.707532	-138.696269	-7.388606	-43.318188
