! freq	dB(S11)	phase(S11)	dB(S12)	phase(S12)	
!     	dB(S21)	phase(S21)	dB(S22)	phase(S22)	
!S-par simulation data
#  GHz  S  DB  R 50
0.000000	-154.085872	180.000000	-0.000000	0.000000	-0.000000	0.000000	-154.085872	180.000000
0.050000	-36.463689	-93.251204	-0.006244	-3.129390	-0.006244	-3.129390	-36.454468	-92.386289
0.100000	-30.510520	-96.897694	-0.015222	-6.212762	-0.015222	-6.212762	-30.500660	-95.185749
0.150000	-27.041402	-100.575406	-0.024476	-9.283585	-0.024476	-9.283585	-27.030056	-98.017222
0.200000	-24.592124	-104.200548	-0.035060	-12.348336	-0.035060	-12.348336	-24.579448	-100.796038
0.250000	-22.704513	-107.779681	-0.047235	-15.406893	-0.047235	-15.406893	-22.690806	-103.527629
0.300000	-21.175130	-111.325987	-0.061010	-18.458697	-0.061010	-18.458697	-21.160626	-106.223916
0.350000	-19.894620	-114.850260	-0.076254	-21.503770	-0.076254	-21.503770	-19.879478	-108.894887
0.400000	-18.798115	-118.358508	-0.092875	-24.542055	-0.092875	-24.542055	-18.782444	-111.545894
0.450000	-17.843791	-121.854322	-0.110778	-27.573469	-0.110778	-27.573469	-17.827671	-114.179919
0.500000	-17.003933	-125.339513	-0.129902	-30.597592	-0.129902	-30.597592	-16.987428	-116.797905
0.550000	-16.256641	-128.816143	-0.150056	-33.614775	-0.150056	-33.614775	-16.239810	-119.401637
0.600000	-15.588238	-132.284612	-0.171179	-36.624371	-0.171179	-36.624371	-15.571132	-121.990383
0.650000	-14.986490	-135.746015	-0.193098	-39.626523	-0.193098	-39.626523	-14.969155	-124.564725
0.700000	-14.442261	-139.201137	-0.215662	-42.621241	-0.215662	-42.621241	-14.424737	-127.124786
0.750000	-13.949061	-142.650533	-0.238732	-45.608299	-0.238732	-45.608299	-13.931377	-129.670081
0.800000	-13.501085	-146.095017	-0.262139	-48.587800	-0.262139	-48.587800	-13.483265	-132.200630
0.850000	-13.093398	-149.535497	-0.285717	-51.560015	-0.285717	-51.560015	-13.075459	-134.716640
0.900000	-12.722072	-152.972883	-0.309301	-54.525231	-0.309301	-54.525231	-12.704022	-137.218228
0.950000	-12.383933	-156.408141	-0.332732	-57.483786	-0.332732	-57.483786	-12.365777	-139.705467
1.000000	-12.076247	-159.842331	-0.355850	-60.436151	-0.355850	-60.436151	-12.057983	-142.178551
1.050000	-11.796693	-163.276598	-0.378500	-63.382898	-0.378500	-63.382898	-11.778317	-144.637725
1.100000	-11.543293	-166.712171	-0.400534	-66.324706	-0.400534	-66.324706	-11.524798	-147.083295
1.150000	-11.314356	-170.150364	-0.421807	-69.262353	-0.421807	-69.262353	-11.295734	-149.515613
1.200000	-11.108438	-173.592577	-0.442183	-72.196718	-0.442183	-72.196718	-11.089680	-151.935081
1.250000	-10.924305	-177.040298	-0.461533	-75.128781	-0.461533	-75.128781	-10.905400	-154.342144
1.300000	-10.761462	179.504618	-0.479694	-78.059608	-0.479694	-78.059608	-10.742403	-156.736911
1.350000	-10.618463	176.040668	-0.496591	-80.990461	-0.496591	-80.990461	-10.599239	-159.120306
1.400000	-10.494570	172.566085	-0.512124	-83.922606	-0.512124	-83.922606	-10.475173	-161.492872
1.450000	-10.389185	169.079011	-0.526211	-86.857391	-0.526211	-86.857391	-10.369605	-163.855170
1.500000	-10.301835	165.577494	-0.538785	-89.796215	-0.538785	-89.796215	-10.282064	-166.207770
1.550000	-10.232168	162.059483	-0.549799	-92.740469	-0.549799	-92.740469	-10.212197	-168.551240
1.600000	-10.179949	158.522825	-0.559219	-95.691462	-0.559219	-95.691462	-10.159766	-170.886140
1.650000	-10.145057	154.965259	-0.567000	-98.650396	-0.567000	-98.650396	-10.124648	-173.213005
1.700000	-10.127486	151.384410	-0.573066	-101.618524	-0.573066	-101.618524	-10.106835	-175.532334
1.750000	-10.127346	147.777784	-0.577322	-104.597382	-0.577322	-104.597382	-10.106434	-177.844571
1.800000	-10.144872	144.142750	-0.579696	-107.588848	-0.579696	-107.588848	-10.123674	179.849916
1.850000	-10.180425	140.476533	-0.580156	-110.594977	-0.580156	-110.594977	-10.158911	177.550856
1.900000	-10.232067	136.781058	-0.578956	-113.615379	-0.578956	-113.615379	-10.210205	175.257288
1.950000	-10.305473	133.043491	-0.575619	-116.656906	-0.575619	-116.656906	-10.283212	172.970922
2.000000	-10.398885	129.265305	-0.570462	-119.719149	-0.570462	-119.719149	-10.376168	170.691110
2.050000	-10.513317	125.442919	-0.563543	-122.804061	-0.563543	-122.804061	-10.490073	168.418367
2.100000	-10.650000	121.572460	-0.554930	-125.913623	-0.554930	-125.913623	-10.626142	166.153557
2.150000	-10.810418	117.649710	-0.544705	-129.049860	-0.544705	-129.049860	-10.785836	163.897993
2.200000	-10.996351	113.670022	-0.532961	-132.214840	-0.532961	-132.214840	-10.970905	161.653566
2.250000	-11.209929	109.628224	-0.519811	-135.410678	-0.519811	-135.410678	-11.183441	159.422915
2.300000	-11.453708	105.518474	-0.505382	-138.639532	-0.505382	-138.639532	-11.425948	157.209663
2.350000	-11.730761	101.334078	-0.489821	-141.903605	-0.489821	-141.903605	-11.701425	155.018728
2.400000	-12.044805	97.067216	-0.473295	-145.205138	-0.473295	-145.205138	-12.013487	152.856765
2.450000	-12.400364	92.708573	-0.455992	-148.546408	-0.455992	-148.546408	-12.366513	150.732785
2.500000	-12.802994	88.246787	-0.438123	-151.929725	-0.438123	-151.929725	-12.765846	148.659051
2.550000	-13.260370	83.664661	-0.419922	-155.358447	-0.419922	-155.358447	-13.218820	146.654394
2.600000	-13.780548	78.945707	-0.401665	-158.834019	-0.401665	-158.834019	-13.733010	144.741765
2.650000	-14.374690	74.064845	-0.383643	-162.358814	-0.383643	-162.358814	-14.318797	142.955326
2.700000	-15.057366	68.987166	-0.366178	-165.935208	-0.366178	-165.935208	-14.989470	141.344772
2.750000	-15.848036	63.661906	-0.349622	-169.565567	-0.349622	-169.565567	-15.762313	139.984489
2.800000	-16.773440	58.011420	-0.334360	-173.252234	-0.334360	-173.252234	-16.660160	138.989827
2.850000	-17.871554	51.909579	-0.320814	-176.997512	-0.320814	-176.997512	-17.713556	138.547601
2.900000	-19.198488	45.135827	-0.309441	179.196355	-0.309441	179.196355	-18.963364	138.976690
2.950000	-20.840832	37.266796	-0.300737	175.327207	-0.300737	175.327207	-20.461967	140.855737
3.000000	-22.937030	27.385049	-0.295238	171.392997	-0.295238	171.392997	-22.262863	145.301725
3.050000	-25.697995	13.170659	-0.293520	167.391818	-0.293520	167.391818	-24.349987	154.522930
3.100000	-29.213177	-12.076978	-0.296198	163.321944	-0.296198	163.321944	-26.327531	172.150612
3.150000	-31.244509	-60.517830	-0.303991	159.181087	-0.303991	159.181087	-26.847324	-161.340524
3.200000	-28.233804	-105.281016	-0.317617	154.967969	-0.317617	154.967969	-25.167723	-137.749110
3.250000	-24.447638	-128.484872	-0.337754	150.682438	-0.337754	150.682438	-22.678211	-124.035324
3.300000	-21.439060	-142.264616	-0.365162	146.323941	-0.365162	146.323941	-20.318480	-117.319941
3.350000	-19.064483	-152.427888	-0.400377	141.894451	-0.400377	141.894451	-18.277189	-114.390204
3.400000	-17.118229	-160.866164	-0.444711	137.389778	-0.444711	137.389778	-16.518293	-113.693549
3.450000	-15.477517	-168.476094	-0.498716	132.813142	-0.498716	132.813142	-14.992882	-114.260832
3.500000	-14.062203	-175.626469	-0.563188	128.165920	-0.563188	128.165920	-13.653390	-115.641734
3.550000	-12.820427	177.488739	-0.638901	123.450063	-0.638901	123.450063	-12.464066	-117.578715
3.600000	-11.717163	170.759361	-0.726587	118.668112	-0.726587	118.668112	-11.398518	-119.914886
3.650000	-10.727848	164.119335	-0.826914	113.823190	-0.826914	113.823190	-10.437130	-122.549048
3.700000	-9.834697	157.527622	-0.940464	108.918978	-0.940464	108.918978	-9.565108	-125.412450
3.750000	-9.024475	150.958251	-1.067708	103.959660	-1.067708	103.959660	-8.771110	-128.456086
3.800000	-8.287207	144.394679	-1.209145	98.949184	-1.209145	98.949184	-8.046385	-131.645080
3.850000	-7.615015	137.826515	-1.364755	93.893271	-1.364755	93.893271	-7.383904	-134.948757
3.900000	-7.001629	131.247650	-1.534494	88.796980	-1.534494	88.796980	-6.777959	-138.344466
3.950000	-6.441962	124.654527	-1.718087	83.665323	-1.718087	83.665323	-6.223852	-141.813381
4.000000	-5.931820	118.045093	-1.915006	78.503029	-1.915006	78.503029	-5.717643	-145.339501
4.050000	-5.467685	111.417952	-2.124426	73.314281	-2.124426	73.314281	-5.255976	-148.909024
4.100000	-5.046577	104.771628	-2.345199	68.102399	-2.345199	68.102399	-4.835947	-152.509972
4.150000	-4.665955	98.103864	-2.575813	62.869472	-2.575813	62.869472	-4.455021	-156.131973
4.200000	-4.323897	91.410605	-2.814334	57.615720	-2.814334	57.615720	-4.111192	-159.766186
4.250000	-4.018521	84.685719	-3.058302	52.339389	-3.058302	52.339389	-3.802429	-163.405011
4.300000	-3.748305	77.919869	-3.304773	47.035852	-3.304773	47.035852	-3.526964	-167.042471
4.350000	-3.512280	71.099124	-3.550189	41.696682	-3.550189	41.696682	-3.283448	-170.674115
4.400000	-3.310036	64.203523	-3.790256	36.308633	-3.790256	36.308633	-3.070902	-174.296977
4.450000	-3.142110	57.203939	-4.019650	30.851439	-4.019650	30.851439	-2.888993	-177.909507
4.500000	-3.009805	50.060583	-4.232117	25.296697	-4.232117	25.296697	-2.737777	178.488327
4.550000	-2.915798	42.718636	-4.420279	19.604905	-4.420279	19.604905	-2.618069	174.895371
4.600000	-2.865298	35.099500	-4.575117	13.719612	-4.575117	13.719612	-2.532133	171.310087
4.650000	-2.866775	27.093780	-4.686250	7.563187	-4.686250	7.563187	-2.483807	167.731993
4.700000	-2.938733	18.506499	-4.738266	1.000461	-4.738266	1.000461	-2.482303	164.166287
4.750000	-3.105231	9.101031	-4.719352	-6.125049	-4.719352	-6.125049	-2.537590	160.632049
4.800000	-3.415269	-1.540729	-4.614530	-14.074665	-4.614530	-14.074665	-2.669472	157.186210
4.850000	-3.964060	-14.149335	-4.413224	-23.257956	-4.413224	-23.257956	-2.909577	153.987786
4.900000	-4.933247	-29.985157	-4.126194	-34.242522	-4.126194	-34.242522	-3.296315	151.432882
4.950000	-6.719635	-51.892366	-3.813458	-47.869588	-3.813458	-47.869588	-3.848122	150.501330
5.000000	-10.033904	-88.031953	-3.648135	-64.948642	-3.648135	-64.948642	-4.397955	152.886603
5.050000	-12.949699	-163.220280	-3.951204	-85.453215	-3.951204	-85.453215	-4.355979	158.689012
5.100000	-8.622027	125.655423	-5.021728	-107.305409	-5.021728	-107.305409	-3.412792	162.493731
5.150000	-5.009287	89.095859	-6.800780	-127.309456	-6.800780	-127.309456	-2.309299	161.005862
5.200000	-3.122883	65.458030	-8.926535	-143.805329	-8.926535	-143.805329	-1.547049	156.715082
5.250000	-2.135274	48.378078	-11.063147	-156.996907	-11.063147	-156.996907	-1.101605	151.893510
5.300000	-1.583636	35.196017	-13.043721	-167.789266	-13.043721	-167.789266	-0.844259	147.324884
5.350000	-1.257112	24.543621	-14.790148	-176.918831	-14.790148	-176.918831	-0.691928	143.146342
5.400000	-1.054410	15.621860	-16.263785	175.116929	-16.263785	175.116929	-0.598944	139.326492
5.450000	-0.918837	7.835983	-17.496311	167.935200	-17.496311	167.935200	-0.538178	135.776425
5.500000	-0.825777	0.904992	-18.485697	161.369541	-18.485697	161.369541	-0.497703	132.444130
5.550000	-0.759767	-5.386078	-19.253609	155.302320	-19.253609	155.302320	-0.469989	129.281598
5.600000	-0.712095	-11.170988	-19.820786	149.672480	-19.820786	149.672480	-0.450820	126.256139
5.650000	-0.676423	-16.576403	-20.228179	144.406025	-20.228179	144.406025	-0.437177	123.334112
5.700000	-0.649442	-21.669438	-20.501549	139.467005	-20.501549	139.467005	-0.427501	120.496909
5.750000	-0.629241	-26.487805	-20.659944	134.836166	-20.659944	134.836166	-0.420900	117.733401
5.800000	-0.613572	-31.100458	-20.738704	130.446672	-20.738704	130.446672	-0.416345	115.024018
5.850000	-0.602042	-35.503999	-20.745035	126.307174	-20.745035	126.307174	-0.413656	112.368193
5.900000	-0.593181	-39.758249	-20.707055	122.345957	-20.707055	122.345957	-0.412168	109.749321
5.950000	-0.586865	-43.856151	-20.630559	118.567980	-20.630559	118.567980	-0.411827	107.167616
6.000000	-0.582354	-47.832770	-20.530481	114.927825	-20.530481	114.927825	-0.412300	104.613394
6.050000	-0.579447	-51.692063	-20.413219	111.415777	-20.413219	111.415777	-0.413498	102.084325
6.100000	-0.577853	-55.447511	-20.285424	108.012115	-20.285424	108.012115	-0.415290	99.576163
6.150000	-0.577318	-59.112534	-20.152301	104.698260	-20.152301	104.698260	-0.417563	97.084913
6.200000	-0.577773	-62.686870	-20.016983	101.470046	-20.016983	101.470046	-0.420287	94.609270
6.250000	-0.578952	-66.190266	-19.882609	98.305485	-19.882609	98.305485	-0.423343	92.144711
6.300000	-0.580901	-69.613415	-19.751268	95.209330	-19.751268	95.209330	-0.426754	89.691321
6.350000	-0.583391	-72.976825	-19.624199	92.161580	-19.624199	92.161580	-0.430417	87.245162
6.400000	-0.586468	-76.271508	-19.503404	89.166757	-19.503404	89.166757	-0.434358	84.805942
6.450000	-0.589949	-79.517192	-19.388387	86.208207	-19.388387	86.208207	-0.438492	82.370852
6.500000	-0.593894	-82.703523	-19.281491	83.291311	-19.281491	83.291311	-0.442856	79.939265
6.550000	-0.598145	-85.849622	-19.181268	80.401521	-19.181268	80.401521	-0.447376	77.509165
6.600000	-0.602686	-88.957097	-19.087773	77.537186	-19.087773	77.537186	-0.452047	75.080029
6.650000	-0.607619	-92.010679	-19.004710	74.706595	-19.004710	74.706595	-0.456932	72.650529
6.700000	-0.612769	-95.034325	-18.928690	71.893835	-18.928690	71.893835	-0.461943	70.219768
6.750000	-0.618186	-98.021262	-18.861737	69.102378	-18.861737	69.102378	-0.467116	67.786670
6.800000	-0.623836	-100.976722	-18.803634	66.328443	-18.803634	66.328443	-0.472439	65.350418
6.850000	-0.629705	-103.903576	-18.754617	63.569830	-18.754617	63.569830	-0.477911	62.910196
6.900000	-0.635783	-106.804624	-18.714952	60.824503	-18.714952	60.824503	-0.483535	60.465234
6.950000	-0.642062	-109.682619	-18.684955	58.090564	-18.684955	58.090564	-0.489311	58.014798
7.000000	-0.648538	-112.540286	-18.665004	55.366233	-18.665004	55.366233	-0.495246	55.558184
7.050000	-0.655209	-115.380348	-18.655556	52.649829	-18.655556	52.649829	-0.501345	53.094708
7.100000	-0.662078	-118.205544	-18.657162	49.939757	-18.657162	49.939757	-0.507615	50.623703
7.150000	-0.669151	-121.018656	-18.670489	47.234505	-18.670489	47.234505	-0.514066	48.144504
7.200000	-0.676438	-123.822532	-18.696342	44.532631	-18.696342	44.532631	-0.520707	45.656446
7.250000	-0.683955	-126.620112	-18.735690	41.832772	-18.735690	41.832772	-0.527552	43.158850
7.300000	-0.691721	-129.414464	-18.789705	39.133646	-18.789705	39.133646	-0.534615	40.651015
7.350000	-0.699765	-132.208812	-18.859801	36.434071	-18.859801	36.434071	-0.541914	38.132208
7.400000	-0.708123	-135.006580	-18.947692	33.732992	-18.947692	33.732992	-0.549470	35.601647
7.450000	-0.716839	-137.811438	-19.055462	31.029529	-19.055462	31.029529	-0.557308	33.058489
7.500000	-0.725974	-140.627356	-19.185659	28.323044	-19.185659	28.323044	-0.565457	30.501812
7.550000	-0.735627	-143.459569	-19.342571	25.613128	-19.342571	25.613128	-0.573972	27.929907
7.600000	-0.745876	-146.312456	-19.529276	22.900261	-19.529276	22.900261	-0.582885	25.342194
7.650000	-0.756847	-149.191437	-19.750782	20.185666	-19.750782	20.185666	-0.592252	22.737349
7.700000	-0.768696	-152.102630	-20.013472	17.471913	-20.013472	17.471913	-0.602147	20.113847
7.750000	-0.781627	-155.052994	-20.325599	14.763712	-20.325599	14.763712	-0.612658	17.469928
7.800000	-0.795899	-158.050537	-20.698034	12.069235	-20.698034	12.069235	-0.623904	14.803530
7.850000	-0.811849	-161.104558	-21.145408	9.402440	-21.145408	9.402440	-0.636035	12.112233
7.900000	-0.829918	-164.225967	-21.687944	6.787324	-21.687944	6.787324	-0.649247	9.393170
7.950000	-0.850683	-167.427694	-22.354502	4.266169	-22.354502	4.266169	-0.663801	6.642925
8.000000	-0.874915	-170.725225	-23.187980	1.916833	-23.187980	1.916833	-0.680045	3.857409
8.050000	-0.903645	-174.137300	-24.255489	-0.107246	-24.255489	-0.107246	-0.698446	1.031704
8.100000	-0.938278	-177.686843	-25.669215	-1.470474	-25.669215	-1.470474	-0.719643	-1.840121
8.150000	-0.979422	178.623922	-27.594351	-1.743373	-27.594351	-1.743373	-0.743900	-4.757170
8.200000	-1.032077	174.710719	-30.516504	1.845945	-30.516504	1.845945	-0.773533	-7.743559
8.250000	-1.098987	170.551933	-35.129011	19.742919	-35.129011	19.742919	-0.809782	-10.802177
8.300000	-1.185647	166.090364	-36.849899	80.705081	-36.849899	80.705081	-0.855142	-13.945204
8.350000	-1.299782	161.256687	-30.632185	117.606648	-30.632185	117.606648	-0.913073	-17.185372
8.400000	-1.453416	155.954409	-25.522788	124.600432	-25.522788	124.600432	-0.988855	-20.537644
8.450000	-1.665377	150.054049	-21.691325	123.904556	-21.691325	123.904556	-1.090473	-24.015605
8.500000	-1.966874	143.373410	-18.551520	120.162277	-18.551520	120.162277	-1.230464	-27.625378
8.550000	-2.403387	135.714619	-15.844358	114.554434	-15.844358	114.554434	-1.425079	-31.342740
8.600000	-3.051461	126.806826	-13.439652	107.347669	-13.439652	107.347669	-1.697478	-35.091365
8.650000	-4.032251	116.349120	-11.292616	98.584895	-11.292616	98.584895	-2.073402	-38.690945
8.700000	-5.579237	103.841335	-9.399070	88.173138	-9.399070	88.173138	-2.578768	-41.744746
8.750000	-8.088381	88.627162	-7.815203	76.270174	-7.815203	76.270174	-3.194734	-43.637014
8.800000	-12.450054	68.128631	-6.606286	63.281264	-6.606286	63.281264	-3.816157	-43.699334
8.850000	-20.947569	20.209728	-5.805073	49.961574	-5.805073	49.961574	-4.249782	-41.977821
8.900000	-17.776446	-88.504737	-5.389188	37.157327	-5.389188	37.157327	-4.345709	-39.619654
8.950000	-11.662027	-118.799038	-5.267223	25.453638	-5.267223	25.453638	-4.156405	-38.038346
9.000000	-8.527405	-134.217911	-5.346907	15.140067	-5.346907	15.140067	-3.828544	-37.849889
9.050000	-6.663101	-145.566987	-5.539292	6.163371	-5.539292	6.163371	-3.487285	-38.861371
9.100000	-5.454349	-154.736293	-5.785523	-1.653291	-5.785523	-1.653291	-3.188241	-40.687718
9.150000	-4.626448	-162.455481	-6.049723	-8.515097	-6.049723	-8.515097	-2.944444	-42.981195
9.200000	-4.038693	-169.113373	-6.311090	-14.598167	-6.311090	-14.598167	-2.750240	-45.560874
9.250000	-3.606884	-174.985468	-6.558871	-20.068813	-6.558871	-20.068813	-2.599195	-48.296114
9.300000	-3.277524	179.717787	-6.789340	-25.074752	-6.789340	-25.074752	-2.481339	-51.108611
9.350000	-3.021171	174.873952	-7.001131	-29.706955	-7.001131	-29.706955	-2.389923	-53.961465
9.400000	-2.821501	170.418857	-7.191955	-34.012930	-7.191955	-34.012930	-2.321213	-56.833324
9.450000	-2.659403	166.239016	-7.365532	-38.085310	-7.365532	-38.085310	-2.268586	-59.710638
9.500000	-2.528382	162.304697	-7.521192	-41.947766	-7.521192	-41.947766	-2.230208	-62.587929
9.550000	-2.418833	158.548987	-7.662549	-45.656680	-7.662549	-45.656680	-2.202184	-65.462687
9.600000	-2.328955	154.968009	-7.788105	-49.214883	-7.788105	-49.214883	-2.184283	-68.333664
9.650000	-2.252021	151.506420	-7.902232	-52.669952	-7.902232	-52.669952	-2.173340	-71.201853
9.700000	-2.187357	148.164167	-8.003823	-56.021989	-8.003823	-56.021989	-2.169424	-74.067829
9.750000	-2.132803	144.924862	-8.093766	-59.285456	-8.093766	-59.285456	-2.171690	-76.933329
9.800000	-2.083569	141.740230	-8.177551	-62.502117	-8.177551	-62.502117	-2.177303	-79.799454
9.850000	-2.041755	138.636015	-8.251334	-65.650363	-8.251334	-65.650363	-2.187950	-82.668035
9.900000	-2.005340	135.592574	-8.317177	-68.747797	-8.317177	-68.747797	-2.202577	-85.541323
9.950000	-1.972607	132.591357	-8.377410	-71.810495	-8.377410	-71.810495	-2.220075	-88.419506
10.000000	-1.943205	129.629206	-8.432294	-74.841419	-8.432294	-74.841419	-2.240298	-91.303267
