! freq	dB(S11)	phase(S11)	dB(S12)	phase(S12)	
!     	dB(S21)	phase(S21)	dB(S22)	phase(S22)	
!S-par simulation data
#  GHz  S  DB  R 50
0.000000	-0.000000	-0.000000	-355.321087	180.000000	-355.321087	180.000000	0.000000	0.000000
0.050000	-0.000610	-1.035557	-90.222441	88.153443	-90.222441	88.153443	-0.001599	-2.664001
0.100000	-0.002153	-2.067333	-84.214434	86.330537	-84.214434	86.330537	-0.005661	-5.317876
0.150000	-0.004077	-3.094352	-80.716536	84.519202	-80.716536	84.519202	-0.010763	-7.958584
0.200000	-0.005980	-4.117637	-78.254155	82.716674	-78.254155	82.716674	-0.015838	-10.588184
0.250000	-0.007728	-5.138951	-76.360580	80.923659	-76.360580	80.923659	-0.020504	-13.211096
0.300000	-0.009291	-6.159113	-74.831284	79.143280	-74.831284	79.143280	-0.024664	-15.829099
0.350000	-0.010694	-7.178658	-73.556341	77.378435	-73.556341	77.378435	-0.028378	-18.443317
0.400000	-0.011976	-8.197802	-72.470511	75.632343	-72.470511	75.632343	-0.031739	-21.054006
0.450000	-0.013167	-9.216554	-71.534093	73.910369	-71.534093	73.910369	-0.034826	-23.660613
0.500000	-0.014308	-10.234900	-70.715181	72.213646	-70.715181	72.213646	-0.037746	-26.263068
0.550000	-0.015419	-11.252758	-69.993223	70.545418	-69.993223	70.545418	-0.040555	-28.860872
0.600000	-0.016516	-12.270037	-69.353056	68.909077	-69.353056	68.909077	-0.043296	-31.453511
0.650000	-0.017609	-13.286646	-68.783172	67.308198	-68.783172	67.308198	-0.046000	-34.040484
0.700000	-0.018708	-14.302501	-68.274632	65.746563	-68.274632	65.746563	-0.048689	-36.621316
0.750000	-0.019819	-15.317464	-67.822032	64.231128	-67.822032	64.231128	-0.051381	-39.195129
0.800000	-0.020946	-16.331455	-67.419416	62.766640	-67.419416	62.766640	-0.054086	-41.761490
0.850000	-0.022090	-17.344515	-67.059003	61.351921	-67.059003	61.351921	-0.056810	-44.320853
0.900000	-0.023253	-18.356462	-66.740020	59.998543	-66.740020	59.998543	-0.059558	-46.871985
0.950000	-0.024436	-19.367274	-66.458057	58.710034	-66.458057	58.710034	-0.062331	-49.414862
1.000000	-0.025639	-20.376895	-66.210271	57.492626	-66.210271	57.492626	-0.065126	-51.949186
1.050000	-0.026859	-21.385271	-65.994178	56.353101	-65.994178	56.353101	-0.067943	-54.474685
1.100000	-0.028097	-22.392350	-65.807556	55.298850	-65.807556	55.298850	-0.070778	-56.991122
1.150000	-0.029352	-23.398087	-65.648372	54.337920	-65.648372	54.337920	-0.073627	-59.498285
1.200000	-0.030620	-24.402436	-65.514715	53.479060	-65.514715	53.479060	-0.076486	-61.995990
1.250000	-0.031902	-25.405355	-65.404726	52.731753	-65.404726	52.731753	-0.079351	-64.484083
1.300000	-0.033195	-26.406773	-65.316955	52.109129	-65.316955	52.109129	-0.082217	-66.962219
1.350000	-0.034498	-27.406683	-65.248969	51.619766	-65.248969	51.619766	-0.085079	-69.430506
1.400000	-0.035809	-28.405051	-65.198669	51.275301	-65.198669	51.275301	-0.087933	-71.888869
1.450000	-0.037127	-29.401842	-65.163746	51.087853	-65.163746	51.087853	-0.090775	-74.337256
1.500000	-0.038449	-30.397027	-65.141603	51.069772	-65.141603	51.069772	-0.093600	-76.775641
1.550000	-0.039775	-31.390575	-65.129284	51.233255	-65.129284	51.233255	-0.096404	-79.204018
1.600000	-0.041103	-32.382458	-65.123405	51.589791	-65.123405	51.589791	-0.099186	-81.622405
1.650000	-0.042433	-33.372649	-65.120092	52.149417	-65.120092	52.149417	-0.101940	-84.030843
1.700000	-0.043762	-34.361124	-65.114950	52.919759	-65.114950	52.919759	-0.104666	-86.429389
1.750000	-0.045090	-35.347858	-65.103064	53.904857	-65.103064	53.904857	-0.107360	-88.818125
1.800000	-0.046417	-36.332829	-65.079055	55.103848	-65.079055	55.103848	-0.110021	-91.197148
1.850000	-0.047741	-37.316015	-65.037217	56.509591	-65.037217	56.509591	-0.112648	-93.566574
1.900000	-0.049062	-38.297136	-64.967449	58.131215	-64.967449	58.131215	-0.115234	-95.925220
1.950000	-0.050380	-39.276668	-64.871450	59.894863	-64.871450	59.894863	-0.117790	-98.275791
2.000000	-0.051695	-40.254355	-64.741105	61.793981	-64.741105	61.793981	-0.120309	-100.617218
2.050000	-0.053005	-41.230180	-64.572407	63.789335	-64.572407	63.789335	-0.122793	-102.949678
2.100000	-0.054312	-42.204125	-64.362684	65.835899	-64.362684	65.835899	-0.125243	-105.273363
2.150000	-0.055615	-43.176175	-64.110840	67.885452	-64.110840	67.885452	-0.127658	-107.588477
2.200000	-0.056914	-44.146313	-63.817451	69.889672	-63.817451	69.889672	-0.130040	-109.895236
2.250000	-0.058210	-45.114525	-63.484669	71.803263	-63.484669	71.803263	-0.132392	-112.193865
2.300000	-0.059503	-46.080797	-63.115978	73.586625	-63.115978	73.586625	-0.134714	-114.484601
2.350000	-0.060793	-47.045115	-62.715837	75.207708	-62.715837	75.207708	-0.137008	-116.767689
2.400000	-0.062080	-48.007465	-62.289278	76.642890	-62.289278	76.642890	-0.139278	-119.043382
2.450000	-0.063367	-48.967837	-61.841530	77.876928	-61.841530	77.876928	-0.141525	-121.311941
2.500000	-0.064652	-49.926217	-61.377705	78.902206	-61.377705	78.902206	-0.143751	-123.573634
2.550000	-0.065936	-50.882507	-60.901114	79.708600	-60.901114	79.708600	-0.145960	-125.828461
2.600000	-0.067222	-51.836784	-60.417755	80.309614	-60.417755	80.309614	-0.148153	-128.077000
2.650000	-0.068508	-52.789036	-59.931312	80.713134	-59.931312	80.713134	-0.150335	-130.319537
2.700000	-0.069797	-53.739256	-59.444891	80.929350	-59.444891	80.929350	-0.152508	-132.556359
2.750000	-0.071088	-54.687433	-58.961053	80.969820	-58.961053	80.969820	-0.154674	-134.787759
2.800000	-0.072384	-55.633560	-58.481866	80.846742	-58.481866	80.846742	-0.156836	-137.014032
2.850000	-0.073684	-56.577628	-58.008967	80.572421	-58.008967	80.572421	-0.158998	-139.235476
2.900000	-0.074990	-57.519632	-57.543623	80.158892	-57.543623	80.158892	-0.161161	-141.452390
2.950000	-0.076302	-58.459563	-57.086795	79.617675	-57.086795	79.617675	-0.163328	-143.665074
3.000000	-0.077622	-59.397417	-56.639186	78.959626	-56.639186	78.959626	-0.165501	-145.873830
3.050000	-0.078951	-60.333188	-56.201293	78.194854	-56.201293	78.194854	-0.167683	-148.078960
3.100000	-0.080289	-61.266870	-55.773446	77.332694	-55.773446	77.332694	-0.169876	-150.280766
3.150000	-0.081637	-62.198460	-55.355840	76.381710	-55.355840	76.381710	-0.172082	-152.479548
3.200000	-0.082997	-63.127955	-54.948567	75.349726	-54.948567	75.349726	-0.174302	-154.675608
3.250000	-0.084368	-64.055351	-54.551634	74.243859	-54.551634	74.243859	-0.176539	-156.869245
3.300000	-0.085754	-64.980647	-54.164987	73.070574	-54.164987	73.070574	-0.178793	-159.060754
3.350000	-0.087153	-65.903840	-53.788521	71.835730	-53.788521	71.835730	-0.181066	-161.250432
3.400000	-0.088567	-66.824930	-53.422094	70.544632	-53.422094	70.544632	-0.183359	-163.438570
3.450000	-0.089997	-67.743916	-53.065541	69.202080	-53.065541	69.202080	-0.185673	-165.625458
3.500000	-0.091443	-68.660799	-52.718675	67.812416	-52.718675	67.812416	-0.188008	-167.811382
3.550000	-0.092907	-69.575581	-52.381296	66.379569	-52.381296	66.379569	-0.190365	-169.996623
3.600000	-0.094389	-70.488263	-52.053198	64.907092	-52.053198	64.907092	-0.192745	-172.181458
3.650000	-0.095890	-71.398848	-51.734170	63.398200	-51.734170	63.398200	-0.195147	-174.366162
3.700000	-0.097411	-72.307339	-51.423999	61.855806	-51.423999	61.855806	-0.197572	-176.551001
3.750000	-0.098953	-73.213740	-51.122477	60.282546	-51.122477	60.282546	-0.200019	-178.736238
3.800000	-0.100516	-74.117966	-50.829338	58.679673	-50.829338	58.679673	-0.202488	179.077831
3.850000	-0.102101	-75.020114	-50.544469	57.050667	-50.544469	57.050667	-0.204979	176.890972
3.900000	-0.103709	-75.920190	-50.267670	55.397469	-50.267670	55.397469	-0.207490	174.702946
3.950000	-0.105340	-76.818201	-49.998753	53.721843	-49.998753	53.721843	-0.210020	172.513515
4.000000	-0.106994	-77.714156	-49.737531	52.025393	-49.737531	52.025393	-0.212569	170.322454
4.050000	-0.108673	-78.608063	-49.483832	50.309580	-49.483832	50.309580	-0.215135	168.129542
4.100000	-0.110376	-79.499932	-49.237488	48.575735	-49.237488	48.575735	-0.217717	165.934570
4.150000	-0.112104	-80.389774	-48.998341	46.825074	-48.998341	46.825074	-0.220313	163.737335
4.200000	-0.113859	-81.277600	-48.766243	45.058708	-48.766243	45.058708	-0.222923	161.537646
4.250000	-0.115639	-82.163422	-48.541055	43.277655	-48.541055	43.277655	-0.225544	159.335321
4.300000	-0.117445	-83.047252	-48.322644	41.482851	-48.322644	41.482851	-0.228175	157.130186
4.350000	-0.119279	-83.929106	-48.110890	39.675156	-48.110890	39.675156	-0.230815	154.922082
4.400000	-0.121140	-84.808996	-47.905678	37.855368	-47.905678	37.855368	-0.233461	152.710857
4.450000	-0.123028	-85.686939	-47.706904	36.024224	-47.706904	36.024224	-0.236111	150.496375
4.500000	-0.124944	-86.562951	-47.514471	34.182414	-47.514471	34.182414	-0.238765	148.278507
4.550000	-0.126889	-87.437048	-47.328291	32.330583	-47.328291	32.330583	-0.241420	146.057141
4.600000	-0.128862	-88.309249	-47.148282	30.469339	-47.148282	30.469339	-0.244074	143.832175
4.650000	-0.130864	-89.179572	-46.974373	28.599258	-46.974373	28.599258	-0.246726	141.603521
4.700000	-0.132896	-90.048036	-46.806496	26.720893	-46.806496	26.720893	-0.249373	139.371105
4.750000	-0.134956	-90.914661	-46.644593	24.834773	-46.644593	24.834773	-0.252015	137.134866
4.800000	-0.137047	-91.779469	-46.488611	22.941411	-46.488611	22.941411	-0.254649	134.894758
4.850000	-0.139167	-92.642482	-46.338504	21.041308	-46.338504	21.041308	-0.257274	132.650750
4.900000	-0.141317	-93.503721	-46.194231	19.134958	-46.194231	19.134958	-0.259889	130.402825
4.950000	-0.143498	-94.363210	-46.055758	17.222847	-46.055758	17.222847	-0.262491	128.150981
5.000000	-0.145710	-95.220973	-45.923053	15.305461	-45.923053	15.305461	-0.265080	125.895232
5.050000	-0.147954	-96.076962	-45.796263	13.383101	-45.796263	13.383101	-0.267654	123.635441
5.100000	-0.150229	-96.931278	-45.675206	11.456487	-45.675206	11.456487	-0.270212	121.371824
5.150000	-0.152535	-97.783948	-45.559864	9.526112	-45.559864	9.526112	-0.272753	119.104446
5.200000	-0.154873	-98.634998	-45.450221	7.592477	-45.450221	7.592477	-0.275277	116.833384
5.250000	-0.157243	-99.484456	-45.346262	5.656092	-45.346262	5.656092	-0.277782	114.558733
5.300000	-0.159645	-100.332352	-45.247975	3.717472	-45.247975	3.717472	-0.280269	112.280605
5.350000	-0.162080	-101.178713	-45.155351	1.777143	-45.155351	1.777143	-0.282737	109.999126
5.400000	-0.164547	-102.023572	-45.068380	-0.164363	-45.068380	-0.164363	-0.285186	107.714438
5.450000	-0.167047	-102.866957	-44.987054	-2.106505	-44.987054	-2.106505	-0.287616	105.426700
5.500000	-0.169580	-103.708901	-44.911364	-4.048737	-44.911364	-4.048737	-0.290027	103.136084
5.550000	-0.172147	-104.549436	-44.841301	-5.990507	-44.841301	-5.990507	-0.292420	100.842778
5.600000	-0.174748	-105.388594	-44.776856	-7.931260	-44.776856	-7.931260	-0.294795	98.546987
5.650000	-0.177383	-106.226409	-44.718019	-9.870440	-44.718019	-9.870440	-0.297154	96.248927
5.700000	-0.180053	-107.062916	-44.664776	-11.807493	-44.664776	-11.807493	-0.299496	93.948829
5.750000	-0.182758	-107.898148	-44.617116	-13.741869	-44.617116	-13.741869	-0.301825	91.646939
5.800000	-0.185498	-108.732141	-44.575022	-15.673026	-44.575022	-15.673026	-0.304140	89.343515
5.850000	-0.188273	-109.564931	-44.538478	-17.600433	-44.538478	-17.600433	-0.306444	87.038825
5.900000	-0.191085	-110.396556	-44.507464	-19.523576	-44.507464	-19.523576	-0.308738	84.733153
5.950000	-0.193934	-111.227052	-44.481959	-21.441956	-44.481959	-21.441956	-0.311025	82.426791
6.000000	-0.196819	-112.056457	-44.461937	-23.355103	-44.461937	-23.355103	-0.313308	80.120040
6.050000	-0.199742	-112.884809	-44.447373	-25.262573	-44.447373	-25.262573	-0.315588	77.813215
6.100000	-0.202703	-113.712149	-44.438239	-27.163954	-44.438239	-27.163954	-0.317868	75.506635
6.150000	-0.205703	-114.538515	-44.434503	-29.058874	-44.434503	-29.058874	-0.320152	73.200629
6.200000	-0.208742	-115.363948	-44.436133	-30.947007	-44.436133	-30.947007	-0.322442	70.895533
6.250000	-0.211820	-116.188490	-44.443095	-32.828074	-44.443095	-32.828074	-0.324742	68.591686
6.300000	-0.214941	-117.012146	-44.455580	-34.701527	-44.455580	-34.701527	-0.327057	66.289522
6.350000	-0.218102	-117.834999	-44.473319	-36.567524	-44.473319	-36.567524	-0.329389	63.989336
6.400000	-0.221305	-118.657090	-44.496273	-38.425984	-44.496273	-38.425984	-0.331742	61.691480
6.450000	-0.224550	-119.478465	-44.524403	-40.276902	-44.524403	-40.276902	-0.334122	59.396309
6.500000	-0.227838	-120.299167	-44.557668	-42.120359	-44.557668	-42.120359	-0.336531	57.104177
6.550000	-0.231169	-121.119242	-44.596032	-43.956529	-44.596032	-43.956529	-0.338975	54.815439
6.600000	-0.234544	-121.938735	-44.639455	-45.785686	-44.639455	-45.785686	-0.341457	52.530446
6.650000	-0.237964	-122.757692	-44.687900	-47.608219	-44.687900	-47.608219	-0.343984	50.249549
6.700000	-0.241430	-123.576163	-44.741332	-49.424635	-44.741332	-49.424635	-0.346559	47.973092
6.750000	-0.244942	-124.394194	-44.799717	-51.235578	-44.799717	-51.235578	-0.349188	45.701416
6.800000	-0.248501	-125.211835	-44.863023	-53.041840	-44.863023	-53.041840	-0.351875	43.434857
6.850000	-0.252107	-126.029136	-44.931219	-54.844375	-44.931219	-54.844375	-0.354627	41.173742
6.900000	-0.255762	-126.846148	-45.004279	-56.644317	-45.004279	-56.644317	-0.357448	38.918391
6.950000	-0.259466	-127.662923	-45.082176	-58.443002	-45.082176	-58.443002	-0.360344	36.669115
7.000000	-0.263220	-128.479515	-45.164887	-60.241989	-45.164887	-60.241989	-0.363321	34.426214
7.050000	-0.267025	-129.295978	-45.252388	-62.043086	-45.252388	-62.043086	-0.366384	32.189979
7.100000	-0.270881	-130.112368	-45.344657	-63.848382	-45.344657	-63.848382	-0.369539	29.960688
7.150000	-0.274789	-130.928742	-45.441672	-65.660280	-45.441672	-65.660280	-0.372792	27.738608
7.200000	-0.278751	-131.745160	-45.543407	-67.481543	-45.543407	-67.481543	-0.376150	25.523989
7.250000	-0.282765	-132.561682	-45.649832	-69.315338	-45.649832	-69.315338	-0.379618	23.317072
7.300000	-0.286835	-133.378371	-45.760911	-71.165293	-45.760911	-71.165293	-0.383202	21.118077
7.350000	-0.290959	-134.195291	-45.876592	-73.035563	-45.876592	-73.035563	-0.386910	18.927214
7.400000	-0.295140	-135.012509	-45.996811	-74.930907	-45.996811	-74.930907	-0.390747	16.744673
7.450000	-0.299377	-135.830096	-46.121478	-76.856772	-46.121478	-76.856772	-0.394722	14.570627
7.500000	-0.303672	-136.648124	-46.250468	-78.819404	-46.250468	-78.819404	-0.398839	12.405234
7.550000	-0.308027	-137.466695	-46.383690	-80.828262	-46.383690	-80.828262	-0.403115	10.249017
7.600000	-0.312442	-138.285870	-46.520795	-82.890120	-46.520795	-82.890120	-0.407549	8.101718
7.650000	-0.316917	-139.105734	-46.661457	-85.014588	-46.661457	-85.014588	-0.412150	5.963431
7.700000	-0.321453	-139.926374	-46.805233	-87.212694	-46.805233	-87.212694	-0.416926	3.834232
7.750000	-0.326051	-140.747886	-46.951527	-89.497078	-46.951527	-89.497078	-0.421885	1.714175
7.800000	-0.330712	-141.570370	-47.099541	-91.882197	-47.099541	-91.882197	-0.427037	-0.396708
7.850000	-0.335438	-142.393933	-47.248212	-94.384537	-47.248212	-94.384537	-0.432390	-2.498407
7.900000	-0.340229	-143.218690	-47.396125	-97.022791	-47.396125	-97.022791	-0.437955	-4.590937
7.950000	-0.345087	-144.044765	-47.541414	-99.817998	-47.541414	-99.817998	-0.443743	-6.674337
8.000000	-0.350015	-144.872294	-47.681621	-102.793564	-47.681621	-102.793564	-0.449765	-8.748673
8.050000	-0.355013	-145.701422	-47.813540	-105.975101	-47.813540	-105.975101	-0.456033	-10.814036
8.100000	-0.360086	-146.532311	-47.933016	-109.389967	-47.933016	-109.389967	-0.462562	-12.870550
8.150000	-0.365234	-147.365139	-48.034729	-113.066349	-48.034729	-113.066349	-0.469367	-14.918365
8.200000	-0.370464	-148.200102	-48.111963	-117.031715	-48.111963	-117.031715	-0.476464	-16.957669
8.250000	-0.375778	-149.037420	-48.156418	-121.310447	-48.156418	-121.310447	-0.483873	-18.988685
8.300000	-0.381183	-149.877342	-48.158094	-125.920535	-48.158094	-125.920535	-0.491615	-21.011676
8.350000	-0.386685	-150.720147	-48.105379	-130.869401	-48.105379	-130.869401	-0.499714	-23.026952
8.400000	-0.392294	-151.566159	-47.985398	-136.149256	-47.985398	-136.149256	-0.508199	-25.034872
8.450000	-0.398020	-152.415745	-47.784748	-141.732852	-47.784748	-141.732852	-0.517104	-27.035857
8.500000	-0.403879	-153.269339	-47.490596	-147.570973	-47.490596	-147.570973	-0.526468	-29.030394
8.550000	-0.409889	-154.127446	-47.092021	-153.593150	-47.092021	-153.593150	-0.536338	-31.019053
8.600000	-0.416073	-154.990667	-46.581306	-159.712620	-46.581306	-159.712620	-0.546773	-33.002504
8.650000	-0.422465	-155.859724	-45.954796	-165.835347	-45.954796	-165.835347	-0.557844	-34.981534
8.700000	-0.429107	-156.735496	-45.213015	-171.871391	-45.213015	-171.871391	-0.569641	-36.957083
8.750000	-0.436056	-157.619063	-44.359958	-177.745862	-44.359958	-177.745862	-0.582281	-38.930280
8.800000	-0.443411	-158.512147	-43.394334	176.600950	-43.394334	176.600950	-0.595953	-40.902536
8.850000	-0.451277	-159.416251	-42.328813	171.185645	-42.328813	171.185645	-0.610840	-42.875656
8.900000	-0.459824	-160.333662	-41.168656	166.003907	-41.168656	166.003907	-0.627229	-44.851819
8.950000	-0.469302	-161.267407	-39.916636	161.026772	-39.916636	161.026772	-0.645526	-46.833806
9.000000	-0.480094	-162.221563	-38.571960	156.202053	-38.571960	156.202053	-0.666327	-48.825227
9.050000	-0.492808	-163.201746	-37.129296	151.453224	-37.129296	151.453224	-0.690531	-50.830829
9.100000	-0.508310	-164.214506	-35.590488	146.678750	-35.590488	146.678750	-0.719350	-52.856052
9.150000	-0.528558	-165.273653	-33.911760	141.720363	-33.911760	141.720363	-0.755488	-54.910810
9.200000	-0.556555	-166.393716	-32.082592	136.354669	-32.082592	136.354669	-0.802770	-57.004514
9.250000	-0.598706	-167.598192	-30.056198	130.201776	-30.056198	130.201776	-0.869024	-59.148309
9.300000	-0.668225	-168.911374	-27.786379	122.607738	-27.786379	122.607738	-0.969295	-61.339836
9.350000	-0.794729	-170.323943	-25.227667	112.323228	-25.227667	112.323228	-1.134344	-63.505328
9.400000	-1.040962	-171.579803	-22.422767	96.859694	-22.422767	96.859694	-1.417500	-65.232739
9.450000	-1.438640	-171.395774	-19.897292	72.475453	-19.897292	72.475453	-1.782255	-65.085543
9.500000	-1.573957	-168.585137	-19.075375	40.484301	-19.075375	40.484301	-1.727830	-62.867485
9.550000	-1.235815	-167.222028	-20.327074	13.312978	-20.327074	13.312978	-1.279578	-63.265392
9.600000	-0.949598	-168.022514	-22.207276	-3.979649	-22.207276	-3.979649	-0.999994	-65.669187
9.650000	-0.798707	-169.336276	-23.920361	-14.791728	-23.920361	-14.791728	-0.880034	-68.270382
9.700000	-0.720879	-170.648833	-25.340611	-22.082595	-25.340611	-22.082595	-0.832399	-70.707771
9.750000	-0.679247	-171.883323	-26.501952	-27.364828	-26.501952	-27.364828	-0.817097	-72.986331
9.800000	-0.656310	-173.048249	-27.462843	-31.428269	-27.462843	-31.428269	-0.817264	-75.152201
9.850000	-0.643958	-174.161200	-28.267615	-34.684062	-28.267615	-34.684062	-0.825710	-77.240339
9.900000	-0.638081	-175.236706	-28.948545	-37.365361	-28.948545	-37.365361	-0.839045	-79.274226
9.950000	-0.636309	-176.286363	-29.534532	-39.628388	-29.534532	-39.628388	-0.855451	-81.270917
10.000000	-0.637428	-177.317471	-30.041675	-41.557925	-30.041675	-41.557925	-0.874060	-83.240673
