! freq	dB(S11)	phase(S11)	dB(S12)	phase(S12)	
!     	dB(S21)	phase(S21)	dB(S22)	phase(S22)	
!S-par simulation data
#  GHz  S  DB  R 50
0.000000	-0.000000	0.000000	-330.239210	180.000000	-330.239210	180.000000	-0.000000	0.000000
0.050000	-0.000483	-0.766761	-97.359110	87.951683	-97.359110	87.951683	-0.002053	-3.466366
0.100000	-0.001633	-1.529951	-91.372014	85.908066	-91.372014	85.908066	-0.007305	-6.918472
0.150000	-0.002961	-2.289045	-87.907212	83.874431	-87.907212	83.874431	-0.014005	-10.349673
0.200000	-0.004206	-3.045554	-85.485728	81.855658	-85.485728	81.855658	-0.020751	-13.761492
0.250000	-0.005313	-3.800692	-83.647432	79.858524	-83.647432	79.858524	-0.026900	-17.155436
0.300000	-0.006311	-4.555241	-82.187064	77.890758	-82.187064	77.890758	-0.032280	-20.532475
0.350000	-0.007246	-5.309576	-80.992675	75.959407	-80.992675	75.959407	-0.036984	-23.892864
0.400000	-0.008147	-6.063825	-79.999389	74.073475	-79.999389	74.073475	-0.041138	-27.235222
0.450000	-0.009035	-6.818010	-79.168181	72.245607	-79.168181	72.245607	-0.044855	-30.556787
0.500000	-0.009922	-7.572102	-78.467426	70.483905	-78.467426	70.483905	-0.048267	-33.856562
0.550000	-0.010814	-8.326049	-77.877238	68.799874	-77.877238	68.799874	-0.051455	-37.132600
0.600000	-0.011711	-9.079772	-77.386166	67.211140	-77.386166	67.211140	-0.054475	-40.381731
0.650000	-0.012615	-9.833203	-76.981229	65.729548	-76.981229	65.729548	-0.057381	-43.603055
0.700000	-0.013524	-10.586274	-76.653761	64.370489	-76.653761	64.370489	-0.060204	-46.795254
0.750000	-0.014438	-11.338899	-76.399537	63.157831	-76.399537	63.157831	-0.062966	-49.955906
0.800000	-0.015354	-12.091012	-76.213584	62.115156	-76.213584	62.115156	-0.065682	-53.083723
0.850000	-0.016274	-12.842555	-76.091316	61.268458	-76.091316	61.268458	-0.068361	-56.177928
0.900000	-0.017197	-13.593478	-76.029388	60.650449	-76.029388	60.650449	-0.071008	-59.237606
0.950000	-0.018123	-14.343729	-76.025115	60.302062	-76.025115	60.302062	-0.073626	-62.261766
1.000000	-0.019053	-15.093270	-76.075421	60.271897	-76.075421	60.271897	-0.076213	-65.249700
1.050000	-0.019986	-15.842065	-76.176555	60.618447	-76.176555	60.618447	-0.078767	-68.200839
1.100000	-0.020922	-16.590087	-76.323360	61.411369	-76.323360	61.411369	-0.081285	-71.114755
1.150000	-0.021863	-17.337311	-76.508259	62.731799	-76.508259	62.731799	-0.083764	-73.991147
1.200000	-0.022808	-18.083718	-76.719882	64.670435	-76.719882	64.670435	-0.086200	-76.829836
1.250000	-0.023756	-18.829291	-76.941340	67.321134	-76.941340	67.321134	-0.088588	-79.630758
1.300000	-0.024709	-19.573996	-77.147268	70.785209	-77.147268	70.785209	-0.090922	-82.393136
1.350000	-0.025664	-20.317838	-77.304434	75.089592	-77.304434	75.089592	-0.093201	-85.117938
1.400000	-0.026623	-21.060808	-77.372679	80.200577	-77.372679	80.200577	-0.095421	-87.805400
1.450000	-0.027584	-21.802894	-77.310362	85.972680	-77.310362	85.972680	-0.097578	-90.455838
1.500000	-0.028548	-22.544086	-77.084233	92.138188	-77.084233	92.138188	-0.099671	-93.069643
1.550000	-0.029513	-23.284376	-76.680032	98.344391	-76.680032	98.344391	-0.101698	-95.647271
1.600000	-0.030479	-24.023754	-76.107523	104.233080	-76.107523	104.233080	-0.103657	-98.189239
1.650000	-0.031447	-24.762211	-75.396433	109.522700	-75.396433	109.522700	-0.105548	-100.696113
1.700000	-0.032415	-25.499739	-74.586185	114.051508	-74.586185	114.051508	-0.107371	-103.168508
1.750000	-0.033384	-26.236328	-73.715687	117.772253	-73.715687	117.772253	-0.109127	-105.607076
1.800000	-0.034353	-26.971969	-72.817202	120.718568	-72.817202	120.718568	-0.110816	-108.012505
1.850000	-0.035322	-27.706654	-71.914497	122.967627	-71.914497	122.967627	-0.112440	-110.385510
1.900000	-0.036291	-28.440362	-71.022873	124.606624	-71.022873	124.606624	-0.114002	-112.726494
1.950000	-0.037260	-29.173083	-70.152691	125.730079	-70.152691	125.730079	-0.115503	-115.036240
2.000000	-0.038230	-29.904818	-69.310396	126.426602	-69.310396	126.426602	-0.116947	-117.315866
2.050000	-0.039199	-30.635557	-68.498727	126.766696	-68.498727	126.766696	-0.118338	-119.566155
2.100000	-0.040168	-31.365289	-67.718609	126.809488	-67.718609	126.809488	-0.119680	-121.787897
2.150000	-0.041138	-32.094005	-66.969835	126.603931	-66.969835	126.603931	-0.120976	-123.981888
2.200000	-0.042108	-32.821694	-66.251535	126.190311	-66.251535	126.190311	-0.122231	-126.148922
2.250000	-0.043079	-33.548346	-65.562460	125.601726	-65.562460	125.601726	-0.123448	-128.289795
2.300000	-0.044051	-34.273949	-64.901181	124.865399	-64.901181	124.865399	-0.124632	-130.405299
2.350000	-0.045025	-34.998493	-64.266199	124.003778	-64.266199	124.003778	-0.125787	-132.496219
2.400000	-0.046000	-35.721967	-63.656017	123.035446	-63.656017	123.035446	-0.126918	-134.563336
2.450000	-0.046978	-36.444360	-63.069187	121.975848	-63.069187	121.975848	-0.128029	-136.607421
2.500000	-0.047958	-37.165662	-62.504329	120.837886	-62.504329	120.837886	-0.129124	-138.629238
2.550000	-0.048940	-37.885836	-61.959853	119.631126	-61.959853	119.631126	-0.130206	-140.629089
2.600000	-0.049927	-38.604897	-61.434887	118.366291	-61.434887	118.366291	-0.131280	-142.608198
2.650000	-0.050916	-39.322832	-60.928295	117.051028	-60.928295	117.051028	-0.132351	-144.567296
2.700000	-0.051910	-40.039632	-60.439025	115.691846	-60.439025	115.691846	-0.133420	-146.507099
2.750000	-0.052909	-40.755284	-59.966102	114.294311	-59.966102	114.294311	-0.134492	-148.428313
2.800000	-0.053912	-41.469780	-59.508628	112.863200	-59.508628	112.863200	-0.135570	-150.331628
2.850000	-0.054921	-42.183108	-59.065772	111.402630	-59.065772	111.402630	-0.136656	-152.217724
2.900000	-0.055935	-42.895257	-58.636766	109.916159	-58.636766	109.916159	-0.137754	-154.087267
2.950000	-0.056956	-43.606218	-58.220901	108.406877	-58.220901	108.406877	-0.138865	-155.940910
3.000000	-0.057984	-44.315980	-57.817520	106.877471	-57.817520	106.877471	-0.139992	-157.779292
3.050000	-0.059019	-45.024533	-57.426015	105.330289	-57.426015	105.330289	-0.141137	-159.603039
3.100000	-0.060061	-45.731868	-57.045824	103.767388	-57.045824	103.767388	-0.142302	-161.412766
3.150000	-0.061111	-46.437961	-56.676368	102.190439	-56.676368	102.190439	-0.143489	-163.208934
3.200000	-0.062170	-47.142804	-56.317177	100.601080	-56.317177	100.601080	-0.144699	-164.992150
3.250000	-0.063238	-47.846400	-55.967854	99.000854	-55.967854	99.000854	-0.145933	-166.763137
3.300000	-0.064315	-48.548740	-55.627979	97.390994	-55.627979	97.390994	-0.147192	-168.522455
3.350000	-0.065402	-49.249816	-55.297159	95.772595	-55.297159	95.772595	-0.148477	-170.270656
3.400000	-0.066499	-49.949620	-54.975027	94.146631	-54.975027	94.146631	-0.149789	-172.008280
3.450000	-0.067606	-50.648143	-54.661242	92.513972	-54.661242	92.513972	-0.151128	-173.735853
3.500000	-0.068724	-51.345378	-54.355484	90.875395	-54.355484	90.875395	-0.152495	-175.453892
3.550000	-0.069854	-52.041317	-54.057455	89.231596	-54.057455	89.231596	-0.153890	-177.162902
3.600000	-0.070995	-52.735953	-53.766875	87.583202	-53.766875	87.583202	-0.155313	-178.863378
3.650000	-0.072148	-53.429280	-53.483483	85.930777	-53.483483	85.930777	-0.156765	179.444195
3.700000	-0.073314	-54.121290	-53.207032	84.274830	-53.207032	84.274830	-0.158245	177.759345
3.750000	-0.074492	-54.811977	-52.937294	82.615823	-52.937294	82.615823	-0.159752	176.081605
3.800000	-0.075684	-55.501306	-52.674018	80.954127	-52.674018	80.954127	-0.161289	174.410657
3.850000	-0.076889	-56.189301	-52.417043	79.290188	-52.417043	79.290188	-0.162852	172.745900
3.900000	-0.078108	-56.875955	-52.166176	77.624354	-52.166176	77.624354	-0.164443	171.086900
3.950000	-0.079342	-57.561265	-51.921237	75.956945	-51.921237	75.956945	-0.166061	169.433230
4.000000	-0.080591	-58.245151	-51.682010	74.288194	-51.682010	74.288194	-0.167707	167.784724
4.050000	-0.081854	-58.927742	-51.448429	72.618500	-51.448429	72.618500	-0.169377	166.140490
4.100000	-0.083133	-59.608974	-51.220300	70.948056	-51.220300	70.948056	-0.171073	164.500349
4.150000	-0.084427	-60.288845	-50.997481	69.277097	-50.997481	69.277097	-0.172793	162.863907
4.200000	-0.085738	-60.967349	-50.779837	67.605847	-50.779837	67.605847	-0.174538	161.230778
4.250000	-0.087065	-61.644486	-50.567242	65.934516	-50.567242	65.934516	-0.176305	159.600585
4.300000	-0.088409	-62.320251	-50.359577	64.263303	-50.359577	64.263303	-0.178096	157.972956
4.350000	-0.089769	-62.994642	-50.156730	62.592400	-50.156730	62.592400	-0.179908	156.347528
4.400000	-0.091148	-63.667657	-49.958595	60.921991	-49.958595	60.921991	-0.181742	154.723945
4.450000	-0.092544	-64.339295	-49.765071	59.252254	-49.765071	59.252254	-0.183597	153.101855
4.500000	-0.093959	-65.009553	-49.576063	57.583362	-49.576063	57.583362	-0.185471	151.480916
4.550000	-0.095392	-65.678430	-49.391483	55.915486	-49.391483	55.915486	-0.187365	149.860790
4.600000	-0.096844	-66.345926	-49.211245	54.248794	-49.211245	54.248794	-0.189277	148.241146
4.650000	-0.098315	-67.012040	-49.035269	52.583452	-49.035269	52.583452	-0.191208	146.621660
4.700000	-0.099806	-67.676771	-48.863481	50.919629	-48.863481	50.919629	-0.193155	145.002013
4.750000	-0.101317	-68.340120	-48.695809	49.257491	-48.695809	49.257491	-0.195119	143.381890
4.800000	-0.102848	-69.002087	-48.532184	47.597209	-48.532184	47.597209	-0.197099	141.760986
4.850000	-0.104400	-69.662673	-48.372544	45.938954	-48.372544	45.938954	-0.199094	140.138996
4.900000	-0.105974	-70.321877	-48.216827	44.282904	-48.216827	44.282904	-0.201105	138.515624
4.950000	-0.107568	-70.979702	-48.064976	42.629238	-48.064976	42.629238	-0.203129	136.890580
5.000000	-0.109185	-71.636149	-47.916937	40.978143	-47.916937	40.978143	-0.205168	135.263575
5.050000	-0.110825	-72.291160	-47.772718	39.329942	-47.772718	39.329942	-0.207220	133.634217
5.100000	-0.112487	-72.944797	-47.632217	37.684723	-47.632217	37.684723	-0.209285	132.002316
5.150000	-0.114173	-73.597062	-47.495387	36.042698	-47.495387	36.042698	-0.211363	130.367599
5.200000	-0.115882	-74.247958	-47.362182	34.404086	-47.362182	34.404086	-0.213454	128.729799
5.250000	-0.117614	-74.897488	-47.232561	32.769118	-47.232561	32.769118	-0.215556	127.088654
5.300000	-0.119371	-75.545654	-47.106481	31.138035	-47.106481	31.138035	-0.217671	125.443903
5.350000	-0.121152	-76.192460	-46.983903	29.511094	-46.983903	29.511094	-0.219798	123.795293
5.400000	-0.122959	-76.837910	-46.864788	27.888565	-46.864788	27.888565	-0.221938	122.142572
5.450000	-0.124790	-77.482008	-46.749099	26.270736	-46.749099	26.270736	-0.224090	120.485493
5.500000	-0.126648	-78.124757	-46.636799	24.657909	-46.636799	24.657909	-0.226256	118.823811
5.550000	-0.128531	-78.766162	-46.527852	23.050408	-46.527852	23.050408	-0.228435	117.157285
5.600000	-0.130441	-79.406229	-46.422220	21.448579	-46.422220	21.448579	-0.230628	115.485677
5.650000	-0.132378	-80.044961	-46.319868	19.852791	-46.319868	19.852791	-0.232836	113.808751
5.700000	-0.134343	-80.682363	-46.220757	18.263437	-46.220757	18.263437	-0.235061	112.126273
5.750000	-0.136335	-81.318442	-46.124849	16.680941	-46.124849	16.680941	-0.237303	110.438010
5.800000	-0.138355	-81.953202	-46.032103	15.105756	-46.032103	15.105756	-0.239565	108.743733
5.850000	-0.140401	-82.586763	-45.942285	13.537638	-45.942285	13.537638	-0.241845	107.043778
5.900000	-0.142479	-83.218890	-45.855752	11.978626	-45.855752	11.978626	-0.244152	105.336726
5.950000	-0.144586	-83.849716	-45.772240	10.428520	-45.772240	10.428520	-0.246484	103.622962
6.000000	-0.146723	-84.479248	-45.691694	8.887937	-45.691694	8.887937	-0.248845	101.902251
6.050000	-0.148890	-85.107493	-45.614050	7.357548	-45.614050	7.357548	-0.251240	100.174357
6.100000	-0.151088	-85.734458	-45.539237	5.838080	-45.539237	5.838080	-0.253671	98.439037
6.150000	-0.153317	-86.360149	-45.467174	4.330327	-45.467174	4.330327	-0.256145	96.696045
6.200000	-0.155577	-86.984574	-45.397767	2.835155	-45.397767	2.835155	-0.258666	94.945124
6.250000	-0.157869	-87.607741	-45.330909	1.353512	-45.330909	1.353512	-0.261243	93.186007
6.300000	-0.160194	-88.229630	-45.266513	-0.113220	-45.266513	-0.113220	-0.263884	91.418222
6.350000	-0.162552	-88.850276	-45.204384	-1.564181	-45.204384	-1.564181	-0.266598	89.641645
6.400000	-0.164943	-89.469688	-45.144344	-2.998100	-45.144344	-2.998100	-0.269396	87.855955
6.450000	-0.167368	-90.087872	-45.086183	-4.413573	-45.086183	-4.413573	-0.272293	86.060800
6.500000	-0.169827	-90.704839	-45.029647	-5.809037	-45.029647	-5.809037	-0.275304	84.255790
6.550000	-0.172320	-91.320596	-44.974429	-7.182760	-44.974429	-7.182760	-0.278449	82.440492
6.600000	-0.174849	-91.935152	-44.920159	-8.532804	-44.920159	-8.532804	-0.281753	80.614414
6.650000	-0.177413	-92.548515	-44.866385	-9.857006	-44.866385	-9.857006	-0.285246	78.776991
6.700000	-0.180013	-93.160695	-44.812552	-11.152939	-44.812552	-11.152939	-0.288964	76.927564
6.750000	-0.182650	-93.771701	-44.757972	-12.417880	-44.757972	-12.417880	-0.292954	75.065352
6.800000	-0.185325	-94.381541	-44.701786	-13.648769	-44.701786	-13.648769	-0.297276	73.189422
6.850000	-0.188037	-94.990223	-44.642912	-14.842170	-44.642912	-14.842170	-0.302006	71.298631
6.900000	-0.190788	-95.597746	-44.579907	-15.993739	-44.579907	-15.993739	-0.307253	69.391375
6.950000	-0.193579	-96.204117	-44.510918	-17.099045	-44.510918	-17.099045	-0.313157	67.465801
7.000000	-0.196411	-96.809357	-44.433633	-18.153841	-44.433633	-18.153841	-0.319902	65.519771
7.050000	-0.199284	-97.413473	-44.344926	-19.153166	-44.344926	-19.153166	-0.327753	63.550263
7.100000	-0.202200	-98.016472	-44.240576	-20.092130	-44.240576	-20.092130	-0.337092	61.553247
7.150000	-0.205161	-98.618356	-44.114786	-20.966667	-44.114786	-20.966667	-0.348488	59.523238
7.200000	-0.208169	-99.219127	-43.959426	-21.775189	-43.959426	-21.775189	-0.362817	57.452589
7.250000	-0.211226	-99.818778	-43.762822	-22.522128	-43.762822	-22.522128	-0.381495	55.330384
7.300000	-0.214337	-100.417317	-43.509894	-23.225578	-43.509894	-23.225578	-0.406676	53.142657
7.350000	-0.217508	-101.014646	-43.170840	-23.933294	-43.170840	-23.933294	-0.443094	50.861587
7.400000	-0.220746	-101.610709	-42.707232	-24.768863	-42.707232	-24.768863	-0.499006	48.452996
7.450000	-0.224059	-102.205310	-42.056587	-26.032120	-42.056587	-26.032120	-0.592459	45.866282
7.500000	-0.227446	-102.798004	-41.127265	-28.477414	-41.127265	-28.477414	-0.766239	43.059350
7.550000	-0.230822	-103.387774	-39.826957	-34.115756	-39.826957	-34.115756	-1.131993	40.233011
7.600000	-0.233720	-103.973735	-38.407076	-47.534518	-38.407076	-47.534518	-1.874040	39.416550
7.650000	-0.235470	-104.562781	-38.522970	-71.032759	-38.522970	-71.032759	-2.221691	45.342199
7.700000	-0.237865	-105.160760	-41.207926	-87.856539	-41.207926	-87.856539	-1.334209	47.444074
7.750000	-0.241350	-105.756317	-44.085728	-89.937206	-44.085728	-89.937206	-0.777661	44.496732
7.800000	-0.245058	-106.347953	-45.997180	-85.195893	-45.997180	-85.195893	-0.549139	41.222358
7.850000	-0.248768	-106.937256	-47.075077	-79.279175	-47.075077	-79.279175	-0.447835	38.283260
7.900000	-0.252466	-107.525034	-47.657547	-74.188153	-47.657547	-74.188153	-0.397750	35.613614
7.950000	-0.256168	-108.111597	-47.976545	-70.278528	-47.976545	-70.278528	-0.371464	33.124423
8.000000	-0.259884	-108.697144	-48.170979	-67.325193	-48.170979	-67.325193	-0.356802	30.747862
8.050000	-0.263623	-109.281752	-48.304092	-65.084983	-48.304092	-65.084983	-0.348702	28.446900
8.100000	-0.267393	-109.865430	-48.407560	-63.369120	-48.407560	-63.369120	-0.344672	26.199440
8.150000	-0.271197	-110.448245	-48.499041	-61.998275	-48.499041	-61.998275	-0.343101	23.987391
8.200000	-0.275036	-111.030229	-48.586285	-60.857890	-48.586285	-60.857890	-0.343167	21.800007
8.250000	-0.278914	-111.611381	-48.672778	-59.870406	-48.672778	-59.870406	-0.344417	19.630474
8.300000	-0.282834	-112.191721	-48.759831	-58.972256	-48.759831	-58.972256	-0.346527	17.473269
8.350000	-0.286795	-112.771256	-48.847354	-58.116362	-48.847354	-58.116362	-0.349305	15.324488
8.400000	-0.290796	-113.350083	-48.934659	-57.268253	-48.934659	-57.268253	-0.352567	13.180763
8.450000	-0.294844	-113.928098	-49.020078	-56.400152	-49.020078	-56.400152	-0.356303	11.040563
8.500000	-0.298933	-114.505418	-49.102352	-55.495313	-49.102352	-55.495313	-0.360399	8.901832
8.550000	-0.303068	-115.082002	-49.179152	-54.535333	-49.179152	-54.535333	-0.364844	6.763326
8.600000	-0.307248	-115.657882	-49.248462	-53.510699	-49.248462	-53.510699	-0.369604	4.623988
8.650000	-0.311472	-116.233100	-49.308371	-52.417426	-49.308371	-52.417426	-0.374653	2.483008
8.700000	-0.315744	-116.807607	-49.355398	-51.245728	-49.355398	-51.245728	-0.380008	0.339478
8.750000	-0.320058	-117.381521	-49.389318	-50.007638	-49.389318	-50.007638	-0.385620	-1.806768
8.800000	-0.324424	-117.954722	-49.404392	-48.692752	-49.404392	-48.692752	-0.391547	-3.956934
8.850000	-0.328832	-118.527362	-49.402202	-47.322801	-49.402202	-47.322801	-0.397731	-6.110681
8.900000	-0.333290	-119.099362	-49.377804	-45.900028	-49.377804	-45.900028	-0.404220	-8.269017
8.950000	-0.337794	-119.670797	-49.331705	-44.442301	-49.331705	-44.442301	-0.410992	-10.431852
9.000000	-0.342345	-120.241662	-49.261846	-42.964244	-49.261846	-42.964244	-0.418063	-12.599686
9.050000	-0.346944	-120.811963	-49.167062	-41.482983	-49.167062	-41.482983	-0.425448	-14.772910
9.100000	-0.351589	-121.381759	-49.049122	-40.015949	-49.049122	-40.015949	-0.433132	-16.951384
9.150000	-0.356285	-121.950999	-48.904838	-38.584739	-48.904838	-38.584739	-0.441166	-19.136151
9.200000	-0.361025	-122.519787	-48.739549	-37.199365	-48.739549	-37.199365	-0.449506	-21.326444
9.250000	-0.365818	-123.088048	-48.549481	-35.887204	-48.549481	-35.887204	-0.458226	-23.523739
9.300000	-0.370655	-123.655883	-48.340679	-34.649766	-48.340679	-34.649766	-0.467278	-25.727184
9.350000	-0.375543	-124.223256	-48.112111	-33.508410	-48.112111	-33.508410	-0.476716	-27.937843
9.400000	-0.380479	-124.790213	-47.867211	-32.466729	-47.867211	-32.466729	-0.486531	-30.155595
9.450000	-0.385462	-125.356772	-47.608066	-31.531344	-47.608066	-31.531344	-0.496736	-32.380743
9.500000	-0.390496	-125.922929	-47.335604	-30.712920	-47.335604	-30.712920	-0.507367	-34.614048
9.550000	-0.395575	-126.488746	-47.054162	-30.000492	-47.054162	-30.000492	-0.518393	-36.854910
9.600000	-0.400707	-127.054183	-46.762526	-29.414173	-46.762526	-29.414173	-0.529899	-39.105138
9.650000	-0.405884	-127.619324	-46.465864	-28.930648	-46.465864	-28.930648	-0.541819	-41.363428
9.700000	-0.411113	-128.184133	-46.163061	-28.566721	-46.163061	-28.566721	-0.554246	-43.631749
9.750000	-0.416389	-128.748672	-45.857619	-28.304048	-45.857619	-28.304048	-0.567133	-45.909239
9.800000	-0.421715	-129.312940	-45.549780	-28.146441	-45.549780	-28.146441	-0.580535	-48.197096
9.850000	-0.427089	-129.876961	-45.240944	-28.087147	-45.240944	-28.087147	-0.594459	-50.495586
9.900000	-0.432511	-130.440767	-44.932515	-28.117406	-44.932515	-28.117406	-0.608904	-52.804776
9.950000	-0.437984	-131.004357	-44.624329	-28.240612	-44.624329	-28.240612	-0.623938	-55.126281
10.000000	-0.443502	-131.567781	-44.318558	-28.438487	-44.318558	-28.438487	-0.639498	-57.458799
