! freq	dB(S11)	phase(S11)	dB(S12)	phase(S12)	
!     	dB(S21)	phase(S21)	dB(S22)	phase(S22)	
!S-par simulation data
#  GHz  S  DB  R 50
0.000000	-0.000000	0.000000	-317.828020	0.000000	-317.828020	0.000000	-0.000000	0.000000
0.050000	-0.004486	-1.868431	-83.316103	87.573473	-83.316103	87.573473	-0.004496	-1.868132
0.100000	-0.007974	-3.700019	-77.337644	86.023641	-77.337644	86.023641	-0.007979	-3.699384
0.150000	-0.009727	-5.529470	-73.837171	84.337879	-73.837171	84.337879	-0.009726	-5.528541
0.200000	-0.011064	-7.360358	-71.359153	82.604498	-71.359153	82.604498	-0.011061	-7.359132
0.250000	-0.012367	-9.192120	-69.445447	80.851408	-69.445447	80.851408	-0.012362	-9.190582
0.300000	-0.013774	-11.024116	-67.891732	79.091185	-67.891732	79.091185	-0.013769	-11.022246
0.350000	-0.015312	-12.855926	-66.586584	77.330757	-66.586584	77.330757	-0.015305	-12.853705
0.400000	-0.016994	-14.687305	-65.465300	75.573625	-65.465300	75.573625	-0.016987	-14.684707
0.450000	-0.018818	-16.518083	-64.485650	73.822493	-64.485650	73.822493	-0.018810	-16.515081
0.500000	-0.020784	-18.348077	-63.620155	72.080448	-63.620155	72.080448	-0.020776	-18.344637
0.550000	-0.022871	-20.177262	-62.847202	70.349014	-62.847202	70.349014	-0.022861	-20.173351
0.600000	-0.025060	-22.005625	-62.151240	68.629699	-62.151240	68.629699	-0.025049	-22.001206
0.650000	-0.027339	-23.833158	-61.520734	66.924174	-61.520734	66.924174	-0.027325	-23.828192
0.700000	-0.029692	-25.659873	-60.946717	65.234098	-60.946717	65.234098	-0.029677	-25.654317
0.750000	-0.032109	-27.485799	-60.422077	63.561156	-60.422077	63.561156	-0.032090	-27.479609
0.800000	-0.034576	-29.310962	-59.941430	61.907580	-59.941430	61.907580	-0.034555	-29.304089
0.850000	-0.037086	-31.135380	-59.501025	60.276786	-59.501025	60.276786	-0.037061	-31.127767
0.900000	-0.039623	-32.959189	-59.095610	58.668876	-59.095610	58.668876	-0.039594	-32.950782
0.950000	-0.042181	-34.782464	-58.721905	57.085799	-58.721905	57.085799	-0.042147	-34.773207
1.000000	-0.044750	-36.605291	-58.377119	55.529590	-58.377119	55.529590	-0.044712	-36.595122
1.050000	-0.047327	-38.427759	-58.058853	54.002381	-58.058853	54.002381	-0.047283	-38.416616
1.100000	-0.049905	-40.249963	-57.765020	52.506403	-57.765020	52.506403	-0.049855	-40.237780
1.150000	-0.052480	-42.071999	-57.494755	51.046652	-57.494755	51.046652	-0.052423	-42.058701
1.200000	-0.055048	-43.893992	-57.245966	49.624902	-57.245966	49.624902	-0.054985	-43.879503
1.250000	-0.057608	-45.716057	-57.016606	48.242287	-57.016606	48.242287	-0.057537	-45.700300
1.300000	-0.060158	-47.538306	-56.805333	46.901505	-56.805333	46.901505	-0.060079	-47.521203
1.350000	-0.062697	-49.360856	-56.610909	45.605365	-56.610909	45.605365	-0.062610	-49.342323
1.400000	-0.065225	-51.183824	-56.432174	44.356778	-56.432174	44.356778	-0.065129	-51.163777
1.450000	-0.067742	-53.007340	-56.268092	43.159079	-56.268092	43.159079	-0.067637	-52.985687
1.500000	-0.070247	-54.831613	-56.118644	42.021326	-56.118644	42.021326	-0.070132	-54.808253
1.550000	-0.072742	-56.656712	-55.981547	40.941028	-55.981547	40.941028	-0.072617	-56.631547
1.600000	-0.075230	-58.482771	-55.855753	39.921373	-55.855753	39.921373	-0.075094	-58.455702
1.650000	-0.077710	-60.309930	-55.740208	38.965543	-55.740208	38.965543	-0.077563	-60.280854
1.700000	-0.080185	-62.138277	-55.633551	38.073865	-55.633551	38.073865	-0.080027	-62.107091
1.750000	-0.082657	-63.968115	-55.535494	37.257350	-55.535494	37.257350	-0.082486	-63.934700
1.800000	-0.085127	-65.799533	-55.444378	36.515044	-55.444378	36.515044	-0.084943	-65.763772
1.850000	-0.087598	-67.632694	-55.358947	35.849642	-55.358947	35.849642	-0.087401	-67.594468
1.900000	-0.090071	-69.467792	-55.277906	35.264345	-55.277906	35.264345	-0.089861	-69.426977
1.950000	-0.092549	-71.305011	-55.199818	34.761016	-55.199818	34.761016	-0.092325	-71.261477
2.000000	-0.095035	-73.144514	-55.123180	34.339939	-55.123180	34.339939	-0.094795	-73.098128
2.050000	-0.097531	-74.986490	-55.046463	34.001478	-55.046463	34.001478	-0.097275	-74.937116
2.100000	-0.100038	-76.831136	-54.968082	33.745072	-54.968082	33.745072	-0.099766	-76.778635
2.150000	-0.102559	-78.678656	-54.886412	33.569084	-54.886412	33.569084	-0.102271	-78.622883
2.200000	-0.105096	-80.529261	-54.799807	33.470670	-54.799807	33.470670	-0.104791	-80.470067
2.250000	-0.107653	-82.383169	-54.706627	33.445662	-54.706627	33.445662	-0.107329	-82.320403
2.300000	-0.110230	-84.240608	-54.605274	33.488489	-54.605274	33.488489	-0.109887	-84.174110
2.350000	-0.112830	-86.101810	-54.494227	33.592139	-54.494227	33.592139	-0.112467	-86.031420
2.400000	-0.115455	-87.967018	-54.372084	33.748181	-54.372084	33.748181	-0.115072	-87.892568
2.450000	-0.118107	-89.836481	-54.237604	33.946854	-54.237604	33.946854	-0.117704	-89.757801
2.500000	-0.120789	-91.710459	-54.089748	34.177215	-54.089748	34.177215	-0.120364	-91.627372
2.550000	-0.123503	-93.589327	-53.927318	34.427505	-53.927318	34.427505	-0.123055	-93.501650
2.600000	-0.126251	-95.473266	-53.750131	34.684421	-53.750131	34.684421	-0.125780	-95.380810
2.650000	-0.129035	-97.362558	-53.557947	34.935037	-53.557947	34.935037	-0.128539	-97.265134
2.700000	-0.131856	-99.257497	-53.350812	35.166451	-53.350812	35.166451	-0.131335	-99.154908
2.750000	-0.134717	-101.158387	-53.129051	35.366132	-53.129051	35.366132	-0.134170	-101.050431
2.800000	-0.137619	-103.065538	-52.893249	35.522232	-52.893249	35.522232	-0.137045	-102.952008
2.850000	-0.140565	-104.979270	-52.644217	35.623859	-52.644217	35.623859	-0.139963	-104.859954
2.900000	-0.143555	-106.899914	-52.382960	35.661293	-52.382960	35.661293	-0.142925	-106.774592
2.950000	-0.146593	-108.827807	-52.110630	35.626122	-52.110630	35.626122	-0.145933	-108.696257
3.000000	-0.149680	-110.763297	-51.828486	35.511327	-51.828486	35.511327	-0.148989	-110.625288
3.050000	-0.152817	-112.706740	-51.537850	35.311290	-51.537850	35.311290	-0.152094	-112.562038
3.100000	-0.156007	-114.658503	-51.240070	35.021753	-51.240070	35.021753	-0.155251	-114.506866
3.150000	-0.159251	-116.619059	-50.936322	34.638704	-50.936322	34.638704	-0.158461	-116.460236
3.200000	-0.162550	-118.588804	-50.627944	34.160290	-50.627944	34.160290	-0.161725	-118.422539
3.250000	-0.165907	-120.568038	-50.316362	33.586771	-50.316362	33.586771	-0.165046	-120.394069
3.300000	-0.169323	-122.557161	-50.002755	32.918259	-50.002755	32.918259	-0.168424	-122.375223
3.350000	-0.172798	-124.556584	-49.688215	32.155580	-49.688215	32.155580	-0.171861	-124.366404
3.400000	-0.176334	-126.566725	-49.373750	31.300136	-49.373750	31.300136	-0.175358	-126.368024
3.450000	-0.179933	-128.588011	-49.060277	30.353780	-49.060277	30.353780	-0.178916	-128.380503
3.500000	-0.183595	-130.620874	-48.748623	29.318697	-48.748623	29.318697	-0.182537	-130.404267
3.550000	-0.187323	-132.665757	-48.439534	28.197313	-48.439534	28.197313	-0.186222	-132.439753
3.600000	-0.191116	-134.723108	-48.133673	26.992203	-48.133673	26.992203	-0.189971	-134.487402
3.650000	-0.194976	-136.793381	-47.831633	25.706029	-47.831633	25.706029	-0.193786	-136.547664
3.700000	-0.198903	-138.877038	-47.533938	24.341478	-47.533938	24.341478	-0.197667	-138.620991
3.750000	-0.202899	-140.974546	-47.241054	22.901216	-47.241054	22.901216	-0.201616	-140.707846
3.800000	-0.206965	-143.086697	-46.953310	21.386326	-46.953310	21.386326	-0.205634	-142.809009
3.850000	-0.211101	-145.213666	-46.671185	19.800978	-46.671185	19.800978	-0.209721	-144.924655
3.900000	-0.215306	-147.355933	-46.395000	18.147591	-46.395000	18.147591	-0.213876	-147.055259
3.950000	-0.219582	-149.513980	-46.125044	16.428471	-46.125044	16.428471	-0.218100	-149.201296
4.000000	-0.223927	-151.688288	-45.861574	14.645794	-45.861574	14.645794	-0.222393	-151.363245
4.050000	-0.228341	-153.879342	-45.604825	12.801610	-45.604825	12.801610	-0.226756	-153.541586
4.100000	-0.232825	-156.087625	-45.355009	10.897834	-45.355009	10.897834	-0.231186	-155.736796
4.150000	-0.237378	-158.313617	-45.112323	8.936251	-45.112323	8.936251	-0.235685	-157.949354
4.200000	-0.241999	-160.557795	-44.876950	6.918515	-44.876950	6.918515	-0.240251	-160.179733
4.250000	-0.246686	-162.820633	-44.649064	4.846153	-44.649064	4.846153	-0.244883	-162.428405
4.300000	-0.251439	-165.102597	-44.428831	2.720571	-44.428831	2.720571	-0.249580	-164.695833
4.350000	-0.256255	-167.404144	-44.216413	0.543052	-44.216413	0.543052	-0.254341	-166.982476
4.400000	-0.261134	-169.725947	-44.012006	-1.685770	-44.012006	-1.685770	-0.259164	-169.289001
4.450000	-0.266074	-172.068454	-43.815789	-3.964800	-43.815789	-3.964800	-0.264048	-171.615859
4.500000	-0.271070	-174.431871	-43.627888	-6.292536	-43.627888	-6.292536	-0.268989	-173.963261
4.550000	-0.276121	-176.816600	-43.448465	-8.668125	-43.448465	-8.668125	-0.273985	-176.331613
4.600000	-0.281223	-179.223028	-43.277688	-11.090810	-43.277688	-11.090810	-0.279033	-178.721305
4.650000	-0.286372	178.348483	-43.115729	-13.559926	-43.115729	-13.559926	-0.284129	178.867291
4.700000	-0.291565	175.897592	-42.962768	-16.074894	-42.962768	-16.074894	-0.289269	176.433829
4.750000	-0.296797	173.423987	-42.818993	-18.635221	-42.818993	-18.635221	-0.294449	173.977988
4.800000	-0.302064	170.927386	-42.684600	-21.240496	-42.684600	-21.240496	-0.299666	171.499473
4.850000	-0.307359	168.407539	-42.559797	-23.890387	-42.559797	-23.890387	-0.304913	168.998024
4.900000	-0.312678	165.864235	-42.444802	-26.584644	-42.444802	-26.584644	-0.310186	166.473412
4.950000	-0.318015	163.297299	-42.339847	-29.323094	-42.339847	-29.323094	-0.315479	163.925447
5.000000	-0.323362	160.706600	-42.245174	-32.105643	-42.245174	-32.105643	-0.320786	161.353980
5.050000	-0.328714	158.091535	-42.161262	-34.933240	-42.161262	-34.933240	-0.326100	158.758390
5.100000	-0.334062	155.452590	-42.088185	-37.805001	-42.088185	-37.805001	-0.331413	156.139135
5.150000	-0.339400	152.789787	-42.026230	-40.721090	-42.026230	-40.721090	-0.336719	153.496210
5.200000	-0.344718	150.103204	-41.975703	-43.681761	-41.975703	-43.681761	-0.342010	150.829665
5.250000	-0.350008	147.392981	-41.936924	-46.687368	-41.936924	-46.687368	-0.347278	148.139611
5.300000	-0.355263	144.659320	-41.910234	-49.738373	-41.910234	-49.738373	-0.352513	145.426214
5.350000	-0.360471	141.902488	-41.895990	-52.835353	-41.895990	-52.835353	-0.357709	142.689709
5.400000	-0.365626	139.122824	-41.894572	-55.979020	-41.894572	-55.979020	-0.362855	139.930394
5.450000	-0.370716	136.320735	-41.906379	-59.170232	-41.906379	-59.170232	-0.367942	137.148638
5.500000	-0.375732	133.496705	-41.931829	-62.410019	-41.931829	-62.410019	-0.372961	134.344882
5.550000	-0.380665	130.651292	-41.971366	-65.699601	-41.971366	-65.699601	-0.377903	131.519640
5.600000	-0.385505	127.785132	-42.025451	-69.040425	-42.025451	-69.040425	-0.382757	128.673502
5.650000	-0.390240	124.898732	-42.094734	-72.434798	-42.094734	-72.434798	-0.387514	125.806923
5.700000	-0.394862	121.992917	-42.179728	-75.884814	-42.179728	-75.884814	-0.392164	122.920677
5.750000	-0.399361	119.068782	-42.280804	-79.392301	-42.280804	-79.392301	-0.396698	120.015812
5.800000	-0.403729	116.127288	-42.398509	-82.960090	-42.398509	-82.960090	-0.401107	117.093235
5.850000	-0.407957	113.169470	-42.533410	-86.591525	-42.533410	-86.591525	-0.405383	114.153931
5.900000	-0.412037	110.196443	-42.686091	-90.290553	-42.686091	-90.290553	-0.409518	111.198960
5.950000	-0.415961	107.209393	-42.857150	-94.061839	-42.857150	-94.061839	-0.413504	108.229457
6.000000	-0.419722	104.209579	-43.047192	-97.910900	-43.047192	-97.910900	-0.417333	105.246629
6.050000	-0.423315	101.198328	-43.256821	-101.844270	-43.256821	-101.844270	-0.421001	102.251750
6.100000	-0.426733	98.177028	-43.486631	-105.869684	-43.486631	-105.869684	-0.424499	99.246162
6.150000	-0.429972	95.147129	-43.737183	-109.996312	-43.737183	-109.996312	-0.427825	96.231262
6.200000	-0.433029	92.110130	-44.008987	-114.235017	-44.008987	-114.235017	-0.430974	93.208508
6.250000	-0.435900	89.067580	-44.302464	-118.598667	-44.302464	-118.598667	-0.433943	90.179403
6.300000	-0.438581	86.021020	-44.618107	-123.105946	-44.618107	-123.105946	-0.436725	87.145428
6.350000	-0.441074	82.972194	-44.955695	-127.772331	-44.955695	-127.772331	-0.439326	84.108309
6.400000	-0.443382	79.922752	-45.314970	-132.619203	-45.314970	-132.619203	-0.441743	81.069663
6.450000	-0.445505	76.874362	-45.695226	-137.671551	-45.695226	-137.671551	-0.443979	78.031127
6.500000	-0.447446	73.828699	-46.095130	-142.958293	-46.095130	-142.958293	-0.446037	74.994353
6.550000	-0.449211	70.787445	-46.512469	-148.512408	-46.512469	-148.512408	-0.447919	71.961001
6.600000	-0.450803	67.752270	-46.943831	-154.370673	-46.943831	-154.370673	-0.449631	68.932727
6.650000	-0.452230	64.724835	-47.384203	-160.572714	-47.384203	-160.572714	-0.451178	65.911179
6.700000	-0.453498	61.706777	-47.826500	-167.158922	-47.826500	-167.158922	-0.452566	62.897988
6.750000	-0.454615	58.699703	-48.261091	-174.166708	-48.261091	-174.166708	-0.453804	59.894759
6.800000	-0.455592	55.705186	-48.675421	178.375456	-48.675421	178.375456	-0.454900	56.903068
6.850000	-0.456437	52.724753	-49.053963	170.456458	-49.053963	170.456458	-0.455864	53.924450
6.900000	-0.457160	49.760069	-49.377874	162.088578	-49.377874	162.088578	-0.456703	50.960570
6.950000	-0.457773	46.812603	-49.627852	153.329454	-49.627852	153.329454	-0.457430	48.012915
7.000000	-0.458288	43.883544	-49.787514	144.284634	-49.787514	144.284634	-0.458057	45.082705
7.050000	-0.458718	40.974185	-49.844485	135.094230	-49.844485	135.094230	-0.458595	42.171257
7.100000	-0.459076	38.085749	-49.793757	125.922539	-49.793757	125.922539	-0.459056	39.279820
7.150000	-0.459372	35.219387	-49.638793	116.934973	-49.638793	116.934973	-0.459454	36.409575
7.200000	-0.459622	32.376172	-49.390640	108.274678	-49.390640	108.274678	-0.459800	33.561631
7.250000	-0.459836	29.557103	-49.065440	100.046487	-49.065440	100.046487	-0.460106	30.737019
7.300000	-0.460028	26.763098	-48.681401	92.311735	-48.681401	92.311735	-0.460387	27.936697
7.350000	-0.460211	23.994998	-48.256198	85.092452	-48.256198	85.092452	-0.460653	25.161543
7.400000	-0.460397	21.253560	-47.805324	78.380739	-47.805324	78.380739	-0.460918	22.412356
7.450000	-0.460597	18.539468	-47.341372	72.149186	-47.341372	72.149186	-0.461193	19.689858
7.500000	-0.460824	15.853322	-46.873995	66.359804	-46.873995	66.359804	-0.461490	16.994694
7.550000	-0.461090	13.196277	-46.409909	60.978244	-46.409909	60.978244	-0.461821	14.328048
7.600000	-0.461406	10.568172	-45.954560	55.953032	-45.954560	55.953032	-0.462198	11.689814
7.650000	-0.461781	7.969377	-45.511144	51.244939	-45.511144	51.244939	-0.462630	9.080405
7.700000	-0.462227	5.400194	-45.081643	46.818375	-45.081643	46.818375	-0.463127	6.500164
7.750000	-0.462751	2.860858	-44.667150	42.641714	-44.667150	42.641714	-0.463700	3.949365
7.800000	-0.463363	0.351536	-44.268132	38.687200	-44.268132	38.687200	-0.464356	1.428216
7.850000	-0.464072	-2.127664	-43.884616	34.930656	-43.884616	34.930656	-0.465105	-1.063138
7.900000	-0.464885	-4.576694	-43.516334	31.351101	-43.516334	31.351101	-0.465955	-3.524609
7.950000	-0.465809	-6.995561	-43.162818	27.930351	-43.162818	27.930351	-0.466913	-5.956171
8.000000	-0.466851	-9.384324	-42.823481	24.652635	-42.823481	24.652635	-0.467985	-8.357847
8.050000	-0.468017	-11.743090	-42.497658	21.504253	-42.497658	21.504253	-0.469179	-10.729711
8.100000	-0.469313	-14.072011	-42.184651	18.473270	-42.184651	18.473270	-0.470500	-13.071886
8.150000	-0.470746	-16.370964	-41.883763	15.550313	-41.883763	15.550313	-0.471954	-15.384217
8.200000	-0.472319	-18.640191	-41.594287	12.725959	-41.594287	12.725959	-0.473548	-17.666919
8.250000	-0.474037	-20.880286	-41.315515	9.991050	-41.315515	9.991050	-0.475283	-19.920557
8.300000	-0.475902	-23.091553	-41.046776	7.338506	-41.046776	7.338506	-0.477163	-22.145411
8.350000	-0.477918	-25.274324	-40.787427	4.762032	-40.787427	4.762032	-0.479193	-24.341790
8.400000	-0.480087	-27.428960	-40.536858	2.256005	-40.536858	2.256005	-0.481375	-26.510032
8.450000	-0.482412	-29.555842	-40.294485	-0.184621	-40.294485	-0.184621	-0.483711	-28.650500
8.500000	-0.484896	-31.655377	-40.059761	-2.564392	-40.059761	-2.564392	-0.486204	-30.763581
8.550000	-0.487539	-33.727987	-39.832166	-4.887422	-39.832166	-4.887422	-0.488856	-32.849680
8.600000	-0.490344	-35.774111	-39.611211	-7.157450	-39.611211	-7.157450	-0.491669	-34.909221
8.650000	-0.493312	-37.794205	-39.396434	-9.377891	-39.396434	-9.377891	-0.494643	-36.942645
8.700000	-0.496443	-39.788734	-39.187402	-11.551872	-39.187402	-11.551872	-0.497781	-38.950404
8.750000	-0.499738	-41.758175	-38.983707	-13.682272	-38.983707	-13.682272	-0.501081	-40.932963
8.800000	-0.503202	-43.702491	-38.784965	-15.770918	-38.784965	-15.770918	-0.504550	-42.890271
8.850000	-0.506830	-45.622720	-38.590806	-17.821215	-38.590806	-17.821215	-0.508182	-44.823359
8.900000	-0.510623	-47.519362	-38.400888	-19.835447	-38.400888	-19.835447	-0.511979	-46.732718
8.950000	-0.514580	-49.392919	-38.214890	-21.815752	-38.214890	-21.815752	-0.515941	-48.618843
9.000000	-0.518702	-51.243897	-38.032508	-23.764136	-38.032508	-23.764136	-0.520067	-50.482233
9.050000	-0.522988	-53.072804	-37.853456	-25.682488	-37.853456	-25.682488	-0.524356	-52.323390
9.100000	-0.527436	-54.880149	-37.677465	-27.572592	-37.677465	-27.572592	-0.528808	-54.142816
9.150000	-0.532048	-56.666438	-37.504278	-29.436141	-37.504278	-29.436141	-0.533423	-55.941016
9.200000	-0.536820	-58.432181	-37.333654	-31.274746	-37.333654	-31.274746	-0.538199	-57.718494
9.250000	-0.541753	-60.177883	-37.165365	-33.089944	-37.165365	-33.089944	-0.543136	-59.475752
9.300000	-0.546846	-61.904047	-36.999193	-34.883208	-36.999193	-34.883208	-0.548232	-61.213290
9.350000	-0.552097	-63.611173	-36.834934	-36.655954	-36.834934	-36.655954	-0.553487	-62.931607
9.400000	-0.557507	-65.299563	-36.672377	-38.409355	-36.672377	-38.409355	-0.558901	-64.631000
9.450000	-0.563074	-66.969726	-36.511332	-40.144774	-36.511332	-40.144774	-0.564472	-66.311979
9.500000	-0.568796	-68.622353	-36.351637	-41.863701	-36.351637	-41.863701	-0.570198	-67.975234
9.550000	-0.574671	-70.257927	-36.193127	-43.567382	-36.193127	-43.567382	-0.576076	-69.621248
9.600000	-0.580709	-71.875535	-36.035468	-45.255941	-36.035468	-45.255941	-0.582119	-71.249092
9.650000	-0.586883	-73.478647	-35.878868	-46.932996	-35.878868	-46.932996	-0.588297	-72.862271
9.700000	-0.593206	-75.066116	-35.723000	-48.598370	-35.723000	-48.598370	-0.594624	-74.459621
9.750000	-0.599675	-76.638407	-35.567726	-50.253222	-35.567726	-50.253222	-0.601097	-76.041605
9.800000	-0.606289	-78.195976	-35.412915	-51.898705	-35.412915	-51.898705	-0.607716	-77.608683
9.850000	-0.613046	-79.739276	-35.258442	-53.535959	-35.258442	-53.535959	-0.614477	-79.161308
9.900000	-0.619945	-81.268754	-35.104190	-55.166122	-35.104190	-55.166122	-0.621380	-80.699927
9.950000	-0.626983	-82.784850	-34.950044	-56.790331	-34.950044	-56.790331	-0.628422	-82.224983
10.000000	-0.634158	-84.288000	-34.795897	-58.409724	-34.795897	-58.409724	-0.635602	-83.736913
