! freq	dB(S11)	phase(S11)	dB(S12)	phase(S12)	
!     	dB(S21)	phase(S21)	dB(S22)	phase(S22)	
!S-par simulation data
#  GHz  S  DB  R 50
0.000000	0.000000	-0.000000	-339.945149	180.000000	-339.945149	180.000000	0.000000	-0.000000
0.050000	-0.000100	-0.773661	-117.243401	85.674169	-117.243401	85.674169	-0.000100	-0.773660
0.100000	-0.000396	-1.547078	-111.693771	84.061663	-111.693771	84.061663	-0.000396	-1.547075
0.150000	-0.000879	-2.320005	-108.538619	83.730914	-108.538619	83.730914	-0.000879	-2.320001
0.200000	-0.001520	-3.092299	-106.325657	83.657171	-106.325657	83.657171	-0.001519	-3.092295
0.250000	-0.002300	-3.863795	-104.650932	83.597860	-104.650932	83.597860	-0.002299	-3.863793
0.300000	-0.003208	-4.634295	-103.349609	83.524235	-103.349609	83.524235	-0.003206	-4.634294
0.350000	-0.004198	-5.403891	-102.310974	83.468864	-102.310974	83.468864	-0.004196	-5.403892
0.400000	-0.005261	-6.172414	-101.496353	83.478948	-101.496353	83.478948	-0.005259	-6.172418
0.450000	-0.006371	-6.939953	-100.861353	83.599662	-100.861353	83.599662	-0.006369	-6.939960
0.500000	-0.007513	-7.706484	-100.389430	83.892075	-100.389430	83.892075	-0.007511	-7.706494
0.550000	-0.008671	-8.472046	-100.066418	84.425738	-100.066418	84.425738	-0.008669	-8.472058
0.600000	-0.009834	-9.236678	-99.884788	85.290964	-99.884788	85.290964	-0.009833	-9.236693
0.650000	-0.010995	-10.000421	-99.840894	86.609055	-99.840894	86.609055	-0.010994	-10.000438
0.700000	-0.012147	-10.763315	-99.933072	88.548320	-99.933072	88.548320	-0.012146	-10.763332
0.750000	-0.013286	-11.525394	-100.158612	91.346956	-100.158612	91.346956	-0.013285	-11.525413
0.800000	-0.014411	-12.286689	-100.507741	95.342370	-100.507741	95.342370	-0.014410	-12.286709
0.850000	-0.015516	-13.047098	-100.936103	101.451816	-100.936103	101.451816	-0.015516	-13.047118
0.900000	-0.016605	-13.806734	-101.381017	109.887343	-101.381017	109.887343	-0.016606	-13.806754
0.950000	-0.017687	-14.565994	-101.685416	119.599641	-101.685416	119.599641	-0.017687	-14.566014
1.000000	-0.018744	-15.324123	-101.508055	133.142253	-101.508055	133.142253	-0.018745	-15.324143
1.050000	-0.019797	-16.082002	-101.105309	146.507940	-101.105309	146.507940	-0.019798	-16.082022
1.100000	-0.020828	-16.838633	-99.701798	158.989004	-99.701798	158.989004	-0.020829	-16.838653
1.150000	-0.021857	-17.595137	-98.409910	171.017102	-98.409910	171.017102	-0.021858	-17.595157
1.200000	-0.022866	-18.350248	-96.513635	178.062589	-96.513635	178.062589	-0.022867	-18.350268
1.250000	-0.023875	-19.105358	-94.958073	-174.891924	-94.958073	-174.891924	-0.023876	-19.105379
1.300000	-0.024872	-19.859302	-93.280462	-170.893684	-93.280462	-170.893684	-0.024873	-19.859323
1.350000	-0.025861	-20.612484	-91.701897	-168.138100	-91.701897	-168.138100	-0.025862	-20.612505
1.400000	-0.026846	-21.364889	-90.224667	-166.284872	-90.224667	-166.284872	-0.026846	-21.364911
1.450000	-0.027825	-22.116503	-88.842725	-165.095600	-88.842725	-165.095600	-0.027825	-22.116526
1.500000	-0.028800	-22.867310	-87.547365	-164.403403	-87.547365	-164.403403	-0.028801	-22.867335
1.550000	-0.029772	-23.617295	-86.329610	-164.090209	-86.329610	-164.090209	-0.029772	-23.617321
1.600000	-0.030741	-24.366440	-85.181135	-164.071159	-85.181135	-164.071159	-0.030741	-24.366468
1.650000	-0.031708	-25.114731	-84.094541	-164.284201	-84.094541	-164.284201	-0.031708	-25.114761
1.700000	-0.032673	-25.861838	-83.040087	-164.731689	-83.040087	-164.731689	-0.032673	-25.861870
1.750000	-0.033637	-26.608485	-82.069069	-165.263450	-82.069069	-165.263450	-0.033637	-26.608519
1.800000	-0.034601	-27.354021	-81.128758	-165.936066	-81.128758	-165.936066	-0.034601	-27.354058
1.850000	-0.035564	-28.098765	-80.237233	-166.709291	-80.237233	-166.709291	-0.035564	-28.098805
1.900000	-0.036528	-28.842521	-79.379830	-167.566129	-79.379830	-167.566129	-0.036528	-28.842564
1.950000	-0.037492	-29.585290	-78.555027	-168.506579	-78.555027	-168.506579	-0.037492	-29.585336
2.000000	-0.038457	-30.327207	-77.766570	-169.497177	-77.766570	-169.497177	-0.038457	-30.327256
2.050000	-0.039423	-31.067931	-76.998594	-170.557984	-76.998594	-170.557984	-0.039423	-31.067983
2.100000	-0.040390	-31.807951	-76.268412	-171.648580	-76.268412	-171.648580	-0.040390	-31.808007
2.150000	-0.041360	-32.546562	-75.549489	-172.798755	-75.549489	-172.798755	-0.041359	-32.546622
2.200000	-0.042330	-33.284629	-74.869262	-173.965949	-74.869262	-173.965949	-0.042330	-33.284693
2.250000	-0.043305	-34.021063	-74.193182	-175.184199	-74.193182	-175.184199	-0.043304	-34.021130
2.300000	-0.044280	-34.757122	-73.556299	-176.411275	-73.556299	-176.411275	-0.044280	-34.757194
2.350000	-0.045260	-35.491313	-72.918028	-177.682481	-72.918028	-177.682481	-0.045260	-35.491389
2.400000	-0.046241	-36.225313	-72.319151	-178.957179	-72.319151	-178.957179	-0.046241	-36.225393
2.450000	-0.047229	-36.957201	-71.714544	179.729699	-71.714544	179.729699	-0.047229	-36.957286
2.500000	-0.048217	-37.689090	-71.149297	178.416577	-71.149297	178.416577	-0.048216	-37.689179
2.550000	-0.049213	-38.418617	-70.574902	177.069793	-70.574902	177.069793	-0.049213	-38.418710
2.600000	-0.050209	-39.148144	-70.036146	175.723009	-70.036146	175.723009	-0.050209	-39.148242
2.650000	-0.051215	-39.875456	-69.492557	174.351146	-69.492557	174.351146	-0.051215	-39.875559
2.700000	-0.052221	-40.602566	-68.977888	172.977004	-68.977888	172.977004	-0.052221	-40.602674
2.750000	-0.053237	-41.327618	-68.461977	171.584149	-68.461977	171.584149	-0.053237	-41.327730
2.800000	-0.054254	-42.052258	-67.969329	170.187551	-67.969329	170.187551	-0.054255	-42.052375
2.850000	-0.055282	-42.775007	-67.478436	168.777018	-67.478436	168.777018	-0.055282	-42.775130
2.900000	-0.056312	-43.497126	-67.006020	167.361839	-67.006020	167.361839	-0.056312	-43.497255
2.950000	-0.057352	-44.217533	-66.537865	165.936346	-66.537865	165.936346	-0.057352	-44.217667
3.000000	-0.058397	-44.937084	-66.084118	164.505694	-66.084118	164.505694	-0.058397	-44.937223
3.050000	-0.059450	-45.655111	-65.636729	163.067490	-65.636729	163.067490	-0.059451	-45.655255
3.100000	-0.060511	-46.372048	-65.200276	161.623889	-65.200276	161.623889	-0.060511	-46.372198
3.150000	-0.061580	-47.087658	-64.771936	160.174852	-64.771936	160.174852	-0.061580	-47.087813
3.200000	-0.062657	-47.801940	-64.351560	158.720376	-64.351560	158.720376	-0.062658	-47.802100
3.250000	-0.063743	-48.515098	-63.940763	157.262087	-63.940763	157.262087	-0.063743	-48.515265
3.300000	-0.064839	-49.226685	-63.535382	155.798458	-63.535382	155.798458	-0.064840	-49.226858
3.350000	-0.065942	-49.937362	-63.140799	154.332259	-63.140799	154.332259	-0.065943	-49.937540
3.400000	-0.067059	-50.646217	-62.749442	152.860919	-62.749442	152.860919	-0.067060	-50.646401
3.450000	-0.068181	-51.354381	-62.369897	151.387956	-62.369897	151.387956	-0.068182	-51.354572
3.500000	-0.069319	-52.060472	-61.991692	149.910123	-61.991692	149.910123	-0.069321	-52.060668
3.550000	-0.070462	-52.766096	-61.626134	148.431382	-61.626134	148.431382	-0.070463	-52.766299
3.600000	-0.071624	-53.469391	-61.260293	146.948096	-61.260293	146.948096	-0.071626	-53.469600
3.650000	-0.072788	-54.172450	-60.907781	145.464429	-60.907781	145.464429	-0.072790	-54.172666
3.700000	-0.073976	-54.872922	-60.553591	143.976578	-60.553591	143.976578	-0.073977	-54.873144
3.750000	-0.075163	-55.573393	-60.213280	142.488728	-60.213280	142.488728	-0.075165	-55.573622
3.800000	-0.076377	-56.271016	-59.870089	140.997081	-59.870089	140.997081	-0.076379	-56.271251
3.850000	-0.077591	-56.968639	-59.539944	139.505434	-59.539944	139.505434	-0.077593	-56.968881
3.900000	-0.078831	-57.663632	-59.208429	138.010919	-59.208429	138.010919	-0.078833	-57.663881
3.950000	-0.080074	-58.358385	-58.887924	136.516143	-58.887924	136.516143	-0.080076	-58.358641
4.000000	-0.081341	-59.050731	-58.567374	135.019243	-58.567374	135.019243	-0.081343	-59.050993
4.050000	-0.082614	-59.742595	-58.256025	133.521920	-58.256025	133.521920	-0.082616	-59.742865
4.100000	-0.083910	-60.432281	-57.945794	132.023068	-57.945794	132.023068	-0.083912	-60.432557
4.150000	-0.085215	-61.121240	-57.643154	130.523706	-57.643154	130.523706	-0.085217	-61.121524
4.200000	-0.086541	-61.808254	-57.342653	129.023286	-57.342653	129.023286	-0.086543	-61.808546
4.250000	-0.087879	-62.494296	-57.048310	127.522336	-57.048310	127.522336	-0.087881	-62.494595
4.300000	-0.089237	-63.178629	-56.757000	126.020692	-56.757000	126.020692	-0.089239	-63.178936
4.350000	-0.090610	-63.861743	-56.470572	124.518552	-56.470572	124.518552	-0.090612	-63.862057
4.400000	-0.092001	-64.543389	-56.187959	123.015993	-56.187959	123.015993	-0.092004	-64.543710
4.450000	-0.093411	-65.223567	-55.909090	121.513016	-55.909090	121.513016	-0.093413	-65.223897
4.500000	-0.094837	-65.902521	-55.634719	120.009822	-55.634719	120.009822	-0.094839	-65.902858
4.550000	-0.096285	-66.579759	-55.363079	118.506323	-55.363079	118.506323	-0.096287	-66.580105
4.600000	-0.097746	-67.256018	-55.096530	117.002744	-55.096530	117.002744	-0.097748	-67.256371
4.650000	-0.099234	-67.930316	-54.831811	115.499006	-54.831811	115.499006	-0.099236	-67.930677
4.700000	-0.100733	-68.603879	-54.572698	113.995271	-54.572698	113.995271	-0.100735	-68.604248
4.750000	-0.102262	-69.275236	-54.314612	112.491547	-54.314612	112.491547	-0.102265	-69.275614
4.800000	-0.103800	-69.946105	-54.062576	110.987863	-54.062576	110.987863	-0.103802	-69.946491
4.850000	-0.105373	-70.614527	-53.810854	109.484382	-53.810854	109.484382	-0.105375	-70.614921
4.900000	-0.106950	-71.282705	-53.565563	107.980939	-53.565563	107.980939	-0.106953	-71.283107
4.950000	-0.108569	-71.948198	-53.319952	106.477909	-53.319952	106.477909	-0.108571	-71.948609
5.000000	-0.110187	-72.613691	-53.081096	104.974878	-53.081096	104.974878	-0.110190	-72.614110
5.050000	-0.111852	-73.276264	-52.841359	103.472487	-52.841359	103.472487	-0.111855	-73.276692
5.100000	-0.113518	-73.938838	-52.608063	101.970096	-52.608063	101.970096	-0.113520	-73.939273
5.150000	-0.115228	-74.598745	-52.374567	100.468448	-52.374567	100.468448	-0.115230	-74.599190
5.200000	-0.116942	-75.258411	-52.146625	98.966867	-52.146625	98.966867	-0.116944	-75.258863
5.250000	-0.118697	-75.915665	-51.919095	97.466094	-51.919095	97.466094	-0.118700	-75.916126
5.300000	-0.120461	-76.572438	-51.696317	95.965482	-51.696317	95.965482	-0.120464	-76.572907
5.350000	-0.122264	-77.227053	-51.474496	94.465705	-51.474496	94.465705	-0.122267	-77.227531
5.400000	-0.124080	-77.880949	-51.256700	92.966207	-51.256700	92.966207	-0.124083	-77.881436
5.450000	-0.125932	-78.532940	-51.040350	91.467540	-51.040350	91.467540	-0.125935	-78.533436
5.500000	-0.127801	-79.183980	-50.827364	89.969288	-50.827364	89.969288	-0.127805	-79.184484
5.550000	-0.129703	-79.833366	-50.616259	88.471836	-50.616259	88.471836	-0.129706	-79.833878
5.600000	-0.131628	-80.481570	-50.407920	86.974955	-50.407920	86.974955	-0.131631	-80.482092
5.650000	-0.133581	-81.128370	-50.201850	85.478816	-50.201850	85.478816	-0.133585	-81.128900
5.700000	-0.135563	-81.773764	-49.998005	83.983421	-49.998005	83.983421	-0.135566	-81.774303
5.750000	-0.137569	-82.417998	-49.796773	82.488689	-49.796773	82.488689	-0.137573	-82.418545
5.800000	-0.139609	-83.060608	-49.597275	80.994886	-49.597275	80.994886	-0.139613	-83.061164
5.850000	-0.141670	-83.702300	-49.400693	79.501648	-49.400693	79.501648	-0.141674	-83.702865
5.900000	-0.143770	-84.342155	-49.205404	78.009538	-49.205404	78.009538	-0.143774	-84.342728
5.950000	-0.145887	-84.981329	-49.013298	76.517874	-49.013298	76.517874	-0.145891	-84.981911
6.000000	-0.148049	-85.618460	-48.822085	75.027551	-48.822085	75.027551	-0.148053	-85.619051
6.050000	-0.150222	-86.255143	-48.634288	73.537539	-48.634288	73.537539	-0.150227	-86.255742
6.100000	-0.152448	-86.889583	-48.447026	72.049090	-48.447026	72.049090	-0.152453	-86.890190
6.150000	-0.154680	-87.523801	-48.263383	70.560804	-48.263383	70.560804	-0.154684	-87.524417
6.200000	-0.156971	-88.155585	-48.079951	69.074312	-48.079951	69.074312	-0.156976	-88.156210
6.250000	-0.159263	-88.787369	-47.900313	67.587820	-47.900313	67.587820	-0.159267	-88.788002
6.300000	-0.161621	-89.416535	-47.720597	66.103363	-47.720597	66.103363	-0.161625	-89.417176
6.350000	-0.163979	-90.045701	-47.544524	64.618905	-47.544524	64.618905	-0.163984	-90.046350
6.400000	-0.166400	-90.672502	-47.368715	63.136380	-47.368715	63.136380	-0.166405	-90.673160
6.450000	-0.168827	-91.299088	-47.196105	61.654029	-47.196105	61.654029	-0.168832	-91.299754
6.500000	-0.171311	-91.923559	-47.024067	60.173492	-47.024067	60.173492	-0.171317	-91.924234
6.550000	-0.173808	-92.547607	-46.854822	58.693317	-46.854822	58.693317	-0.173814	-92.548290
6.600000	-0.176359	-93.169784	-46.686426	57.214821	-46.686426	57.214821	-0.176364	-93.170475
6.650000	-0.178927	-93.791337	-46.520453	55.736885	-46.520453	55.736885	-0.178933	-93.792036
6.700000	-0.181544	-94.411256	-46.355577	54.260480	-46.355577	54.260480	-0.181550	-94.411964
6.750000	-0.184186	-95.030359	-46.192784	52.784841	-46.192784	52.784841	-0.184192	-95.031075
6.800000	-0.186871	-95.648060	-46.031311	51.310574	-46.031311	51.310574	-0.186878	-95.648784
6.850000	-0.189588	-96.264759	-45.871612	49.837287	-45.871612	49.837287	-0.189594	-96.265491
6.900000	-0.192343	-96.880280	-45.713433	48.365199	-45.713433	48.365199	-0.192349	-96.881021
6.950000	-0.195135	-97.494625	-45.556744	46.894313	-45.556744	46.894313	-0.195142	-97.495373
7.000000	-0.197961	-98.108008	-45.401751	45.424444	-45.401751	45.424444	-0.197968	-98.108765
7.050000	-0.200831	-98.720048	-45.247992	43.956002	-45.247992	43.956002	-0.200839	-98.720812
7.100000	-0.203729	-99.331336	-45.096086	42.488388	-45.096086	42.488388	-0.203736	-99.332109
7.150000	-0.206679	-99.941122	-44.945178	41.022429	-44.945178	41.022429	-0.206686	-99.941903
7.200000	-0.209649	-100.550359	-44.796262	39.557099	-44.796262	39.557099	-0.209657	-100.551148
7.250000	-0.212680	-101.157946	-44.648131	38.093656	-44.648131	38.093656	-0.212688	-101.158743
7.300000	-0.215725	-101.765175	-44.502113	36.630638	-44.502113	36.630638	-0.215733	-101.765980
7.350000	-0.218837	-102.370618	-44.356686	35.169739	-44.356686	35.169739	-0.218846	-102.371431
7.400000	-0.221958	-102.975887	-44.213478	33.709053	-44.213478	33.709053	-0.221967	-102.976708
7.450000	-0.225155	-103.579242	-44.070685	32.250719	-44.070685	32.250719	-0.225163	-103.580072
7.500000	-0.228352	-104.182598	-43.930202	30.792384	-43.930202	30.792384	-0.228361	-104.183435
7.550000	-0.231633	-104.783924	-43.789975	29.336627	-43.789975	29.336627	-0.231643	-104.784770
7.600000	-0.234916	-105.385251	-43.651976	27.880871	-43.651976	27.880871	-0.234925	-105.386105
7.650000	-0.238276	-105.984772	-43.514410	26.427484	-43.514410	26.427484	-0.238286	-105.985635
7.700000	-0.241645	-106.584129	-43.378834	24.974312	-43.378834	24.974312	-0.241655	-106.585000
7.750000	-0.245086	-107.181897	-43.243849	23.523295	-43.243849	23.523295	-0.245097	-107.182777
7.800000	-0.248543	-107.779347	-43.110636	22.072708	-43.110636	22.072708	-0.248553	-107.780235
7.850000	-0.252065	-108.375413	-42.978157	20.624053	-42.978157	20.624053	-0.252076	-108.376310
7.900000	-0.255611	-108.971018	-42.847249	19.176042	-42.847249	19.176042	-0.255622	-108.971924
7.950000	-0.259216	-109.565437	-42.717203	17.729737	-42.717203	17.729737	-0.259227	-109.566352
8.000000	-0.262851	-110.159262	-42.588543	16.284286	-42.588543	16.284286	-0.262863	-110.160186
8.050000	-0.266540	-110.752087	-42.460861	14.840312	-42.460861	14.840312	-0.266552	-110.753021
8.100000	-0.270267	-111.344199	-42.334395	13.397393	-42.334395	13.397393	-0.270279	-111.345142
8.150000	-0.274040	-111.935487	-42.209011	11.955724	-42.209011	11.955724	-0.274052	-111.936440
8.200000	-0.277859	-112.525952	-42.084688	10.515304	-42.084688	10.515304	-0.277872	-112.526915
8.250000	-0.281718	-113.115759	-41.961537	9.075907	-41.961537	9.075907	-0.281730	-113.116733
8.300000	-0.285631	-113.704647	-41.839305	7.637942	-41.839305	7.637942	-0.285644	-113.705631
8.350000	-0.289575	-114.293032	-41.718328	6.200777	-41.718328	6.200777	-0.289589	-114.294027
8.400000	-0.293583	-114.880413	-41.598140	4.765212	-41.598140	4.765212	-0.293596	-114.881419
8.450000	-0.297615	-115.467435	-41.479277	3.330232	-41.479277	3.330232	-0.297629	-115.468453
8.500000	-0.301718	-116.053381	-41.361087	1.897004	-41.361087	1.897004	-0.301732	-116.054411
8.550000	-0.305838	-116.639101	-41.244283	0.464153	-41.244283	0.464153	-0.305852	-116.640142
8.600000	-0.310037	-117.223686	-41.128046	-0.966813	-41.128046	-0.966813	-0.310052	-117.224740
8.650000	-0.314246	-117.808164	-41.013249	-2.397597	-41.013249	-2.397597	-0.314261	-117.809230
8.700000	-0.318543	-118.391463	-40.898924	-3.826384	-40.898924	-3.826384	-0.318558	-118.392543
8.750000	-0.322842	-118.974762	-40.786083	-5.255172	-40.786083	-5.255172	-0.322857	-118.975856
8.800000	-0.327236	-119.556852	-40.673630	-6.681876	-40.673630	-6.681876	-0.327252	-119.557961
8.850000	-0.331633	-120.138942	-40.562613	-8.108580	-40.562613	-8.108580	-0.331649	-120.140066
8.900000	-0.336118	-120.719996	-40.452079	-9.533472	-40.452079	-9.533472	-0.336135	-120.721135
8.950000	-0.340614	-121.300955	-40.342851	-10.958198	-40.342851	-10.958198	-0.340631	-121.302110
9.000000	-0.345191	-121.881038	-40.234193	-12.381373	-40.234193	-12.381373	-0.345208	-121.882210
9.050000	-0.349786	-122.460946	-40.126721	-13.804237	-40.126721	-13.804237	-0.349804	-122.462135
9.100000	-0.354455	-123.040127	-40.019896	-15.225799	-40.019896	-15.225799	-0.354473	-123.041334
9.150000	-0.359150	-123.619066	-39.914149	-16.646927	-39.914149	-16.646927	-0.359168	-123.620291
9.200000	-0.363911	-124.197413	-39.809119	-18.066987	-39.809119	-18.066987	-0.363930	-124.198658
9.250000	-0.368706	-124.775465	-39.705070	-19.486514	-39.705070	-19.486514	-0.368726	-124.776730
9.300000	-0.373560	-125.353050	-39.601800	-20.905192	-39.601800	-20.905192	-0.373580	-125.354336
9.350000	-0.378457	-125.930300	-39.499424	-22.323264	-39.499424	-22.323264	-0.378477	-125.931608
9.400000	-0.383404	-126.507193	-39.397881	-23.740685	-39.397881	-23.740685	-0.383425	-126.508524
9.450000	-0.388401	-127.083728	-39.297155	-25.157456	-39.297155	-25.157456	-0.388423	-127.085084
9.500000	-0.393441	-127.660003	-39.197309	-26.573752	-39.197309	-26.573752	-0.393464	-127.661383
9.550000	-0.398540	-128.235911	-39.098216	-27.989385	-39.098216	-27.989385	-0.398563	-128.237317
9.600000	-0.403674	-128.811641	-39.000040	-29.404694	-39.000040	-29.404694	-0.403698	-128.813074
9.650000	-0.408874	-129.387013	-38.902563	-30.819359	-38.902563	-30.819359	-0.408899	-129.388474
9.700000	-0.414102	-129.962273	-38.806033	-32.233826	-38.806033	-32.233826	-0.414127	-129.963764
9.750000	-0.419403	-130.537201	-38.710162	-33.647700	-38.710162	-33.647700	-0.419429	-130.538723
9.800000	-0.424724	-131.112069	-38.615257	-35.061473	-38.615257	-35.061473	-0.424751	-131.113623
9.850000	-0.430127	-131.686646	-38.520983	-36.474739	-38.520983	-36.474739	-0.430154	-131.688233
9.900000	-0.435541	-132.261201	-38.427686	-37.887971	-38.427686	-37.887971	-0.435569	-132.262823
9.950000	-0.441045	-132.835523	-38.335004	-39.300819	-38.335004	-39.300819	-0.441074	-132.837181
10.000000	-0.446553	-133.409844	-38.243300	-40.713666	-38.243300	-40.713666	-0.446583	-133.411540
