! freq	dB(S11)	phase(S11)	dB(S12)	phase(S12)	
!     	dB(S21)	phase(S21)	dB(S22)	phase(S22)	
!S-par simulation data
#  GHz  S  DB  R 50
0.000000	-87.122511	0.000000	-0.000383	0.000000	-0.000383	0.000000	-87.122511	0.000000
0.050000	-32.216855	-92.897531	-0.006846	-3.045453	-0.006846	-3.045453	-32.208207	-92.966033
0.100000	-26.198693	-96.298709	-0.020362	-6.053719	-0.020362	-6.053719	-26.204446	-96.101353
0.150000	-22.717977	-99.561836	-0.037820	-9.042525	-0.037820	-9.042525	-22.715658	-99.194931
0.200000	-20.269943	-102.686419	-0.059624	-12.018491	-0.059624	-12.018491	-20.265413	-102.217315
0.250000	-18.384796	-105.742305	-0.085972	-14.981248	-0.085972	-14.981248	-18.382600	-105.156157
0.300000	-16.856779	-108.764521	-0.116763	-17.929377	-0.116763	-17.929377	-16.856111	-108.045407
0.350000	-15.577648	-111.765191	-0.151903	-20.861121	-0.151903	-20.861121	-15.577010	-110.912245
0.400000	-14.482267	-114.748103	-0.191113	-23.775402	-0.191113	-23.775402	-14.481009	-113.765743
0.450000	-13.529782	-117.712330	-0.234341	-26.669991	-0.234341	-26.669991	-13.527848	-116.604743
0.500000	-12.690433	-120.657468	-0.281162	-29.544531	-0.281162	-29.544531	-12.688031	-119.427020
0.550000	-11.943480	-123.582210	-0.331313	-32.398069	-0.331313	-32.398069	-11.940863	-122.229972
0.600000	-11.274059	-126.484638	-0.384598	-35.229094	-0.384598	-35.229094	-11.271462	-125.010776
0.650000	-10.671345	-129.362203	-0.440830	-38.035476	-0.440830	-38.035476	-10.668962	-127.766243
0.700000	-10.124779	-132.215484	-0.499535	-40.818081	-0.499535	-40.818081	-10.122733	-130.496667
0.750000	-9.627025	-135.043715	-0.560429	-43.576342	-0.560429	-43.576342	-9.625389	-133.201140
0.800000	-9.172956	-137.844974	-0.623282	-46.308515	-0.623282	-46.308515	-9.171764	-135.877642
0.850000	-8.757214	-140.619418	-0.687733	-49.014805	-0.687733	-49.014805	-8.756458	-138.526378
0.900000	-8.375405	-143.367265	-0.753463	-51.695417	-0.753463	-51.695417	-8.375053	-141.147647
0.950000	-8.024087	-146.088413	-0.820175	-54.350206	-0.820175	-54.350206	-8.024083	-143.741434
1.000000	-7.700227	-148.783089	-0.887579	-56.979309	-0.887579	-56.979309	-7.700504	-146.308073
1.050000	-7.401209	-151.451675	-0.955395	-59.582994	-0.955395	-59.582994	-7.401691	-148.848053
1.100000	-7.124757	-154.094692	-1.023357	-62.161643	-1.023357	-62.161643	-7.125366	-151.361999
1.150000	-6.868877	-156.712780	-1.091214	-64.715756	-1.091214	-64.715756	-6.869538	-153.850643
1.200000	-6.631814	-159.306682	-1.158731	-67.245933	-1.158731	-67.245933	-6.632457	-156.314809
1.250000	-6.412015	-161.877234	-1.225687	-69.752873	-1.225687	-69.752873	-6.412578	-158.755396
1.300000	-6.208321	-164.424879	-1.291845	-72.236895	-1.291845	-72.236895	-6.208754	-161.172888
1.350000	-6.019259	-166.951100	-1.357042	-74.699375	-1.357042	-74.699375	-6.019524	-163.568798
1.400000	-5.843728	-169.456923	-1.421102	-77.141251	-1.421102	-77.141251	-5.843801	-165.944156
1.450000	-5.680742	-171.943414	-1.483864	-79.563521	-1.483864	-79.563521	-5.680612	-168.300015
1.500000	-5.529872	-174.410720	-1.545076	-81.966262	-1.545076	-81.966262	-5.529543	-170.636479
1.550000	-5.389462	-176.861748	-1.604785	-84.352379	-1.604785	-84.352379	-5.388951	-172.956424
1.600000	-5.259177	-179.296825	-1.662791	-86.722167	-1.662791	-86.722167	-5.258510	-175.260107
1.650000	-5.138361	178.282904	-1.718981	-89.076765	-1.718981	-89.076765	-5.137575	-177.548605
1.700000	-5.026421	175.876284	-1.773255	-91.417332	-1.773255	-91.417332	-5.025560	-179.822987
1.750000	-4.922818	173.482162	-1.825521	-93.745037	-1.825521	-93.745037	-4.921933	177.915678
1.800000	-4.827061	171.099386	-1.875702	-96.061057	-1.875702	-96.061057	-4.826205	175.666326
1.850000	-4.738705	168.726807	-1.923725	-98.366570	-1.923725	-98.366570	-4.737933	173.427898
1.900000	-4.657343	166.363282	-1.969530	-100.662756	-1.969530	-100.662756	-4.656708	171.199339
1.950000	-4.582603	164.007680	-2.013064	-102.950793	-2.013064	-102.950793	-4.582158	168.979593
2.000000	-4.514146	161.658872	-2.054283	-105.231853	-2.054283	-105.231853	-4.513937	166.767606
2.050000	-4.451662	159.315744	-2.093153	-107.507106	-2.093153	-107.507106	-4.451730	164.562324
2.100000	-4.394866	156.977188	-2.129645	-109.777713	-2.129645	-109.777713	-4.395245	162.362687
2.150000	-4.343500	154.642105	-2.163740	-112.044832	-2.163740	-112.044832	-4.344213	160.167632
2.200000	-4.297324	152.309405	-2.195423	-114.309613	-2.195423	-114.309613	-4.298387	157.976090
2.250000	-4.256119	149.978005	-2.224691	-116.573203	-2.224691	-116.573203	-4.257538	155.786982
2.300000	-4.219682	147.646827	-2.251543	-118.836742	-2.251543	-118.836742	-4.221453	153.599218
2.350000	-4.187830	145.314797	-2.275987	-121.101368	-2.275987	-121.101368	-4.189937	151.411698
2.400000	-4.160389	142.980847	-2.298038	-123.368215	-2.298038	-123.368215	-4.162809	149.223307
2.450000	-4.137201	140.643906	-2.317716	-125.638417	-2.317716	-125.638417	-4.139902	147.032915
2.500000	-4.118119	138.302903	-2.335048	-127.913110	-2.335048	-127.913110	-4.121061	144.839375
2.550000	-4.103171	135.956488	-2.349967	-130.193731	-2.349967	-130.193731	-4.106304	142.641276
2.600000	-4.092052	133.603755	-2.362617	-132.481229	-2.362617	-132.481229	-4.095323	140.437565
2.650000	-4.084642	131.243608	-2.373044	-134.776758	-2.373044	-134.776758	-4.087995	138.227025
2.700000	-4.080826	128.874940	-2.381301	-137.081484	-2.381301	-137.081484	-4.084202	136.008415
2.750000	-4.080493	126.496623	-2.387448	-139.396589	-2.387448	-139.396589	-4.083832	133.780460
2.800000	-4.083537	124.107509	-2.391550	-141.723275	-2.391550	-141.723275	-4.086780	131.541854
2.850000	-4.089851	121.706419	-2.393681	-144.062768	-2.393681	-144.062768	-4.092943	129.291249
2.900000	-4.099332	119.292142	-2.393924	-146.416325	-2.393924	-146.416325	-4.102219	127.027252
2.950000	-4.111870	116.863426	-2.392366	-148.785242	-2.392366	-148.785242	-4.114506	124.748417
3.000000	-4.127357	114.418969	-2.389108	-151.170857	-2.389108	-151.170857	-4.129700	122.453237
3.050000	-4.145674	111.957413	-2.384257	-153.574562	-2.384257	-153.574562	-4.147692	120.140136
3.100000	-4.166696	109.477328	-2.377932	-155.997811	-2.377932	-155.997811	-4.168366	117.807449
3.150000	-4.190285	106.977203	-2.370266	-158.442138	-2.370266	-158.442138	-4.191593	115.453418
3.200000	-4.216289	104.455426	-2.361402	-160.909162	-2.361402	-160.909162	-4.217231	113.076163
3.250000	-4.244534	101.910270	-2.351502	-163.400613	-2.351502	-163.400613	-4.245119	110.673667
3.300000	-4.274822	99.339863	-2.340745	-165.918348	-2.340745	-165.918348	-4.275069	108.243743
3.350000	-4.306924	96.742162	-2.329330	-168.464377	-2.329330	-168.464377	-4.306865	105.784006
3.400000	-4.340571	94.114918	-2.317482	-171.040897	-2.317482	-171.040897	-4.340249	103.291826
3.450000	-4.375449	91.455626	-2.305455	-173.650324	-2.305455	-173.650324	-4.374919	100.764280
3.500000	-4.411181	88.761474	-2.293540	-176.295345	-2.293540	-176.295345	-4.410511	98.198087
3.550000	-4.447321	86.029265	-2.282070	-178.978977	-2.282070	-178.978977	-4.446588	95.589525
3.600000	-4.483332	83.255332	-2.271432	178.295367	-2.271432	178.295367	-4.482626	92.934330
3.650000	-4.518567	80.435411	-2.262082	175.523776	-2.262082	175.523776	-4.517988	90.227566
3.700000	-4.552247	77.564495	-2.254559	172.701728	-2.254559	172.701728	-4.551903	87.463457
3.750000	-4.583422	74.636629	-2.249515	169.823940	-2.249515	169.823940	-4.583431	84.635165
3.800000	-4.610708	71.641434	-2.247930	166.881106	-2.247930	166.881106	-4.611204	81.730882
3.850000	-4.632764	68.572365	-2.250714	163.867968	-2.250714	163.867968	-4.633883	78.743184
3.900000	-4.647803	65.418220	-2.259151	160.775187	-2.259151	160.775187	-4.649689	75.659483
3.950000	-4.653615	62.164885	-2.274901	157.591270	-2.274901	157.591270	-4.656422	72.464058
4.000000	-4.648226	58.801431	-2.299549	154.308201	-2.299549	154.308201	-4.652108	69.144963
4.050000	-4.627139	55.293471	-2.336895	150.897920	-2.336895	150.897920	-4.632277	65.664255
4.100000	-4.586647	51.615213	-2.390583	147.341813	-2.390583	147.341813	-4.593226	61.994208
4.150000	-4.521567	47.725667	-2.466301	143.610175	-2.466301	143.610175	-4.529789	58.090894
4.200000	-4.425496	43.568775	-2.572365	139.664052	-2.572365	139.664052	-4.435580	53.894830
4.250000	-4.290609	39.066304	-2.721374	135.451945	-2.721374	135.451945	-4.302797	49.323813
4.300000	-4.108142	34.112104	-2.932436	130.909379	-2.932436	130.909379	-4.122698	44.267434
4.350000	-3.866223	28.530363	-3.240297	125.938909	-3.240297	125.938909	-3.883452	38.543758
4.400000	-3.554956	22.078382	-3.703160	120.436336	-3.703160	120.436336	-3.575202	31.904302
4.450000	-3.169482	14.389259	-4.430484	114.317705	-4.430484	114.317705	-3.193150	23.975670
4.500000	-2.722152	4.913177	-5.645738	107.705540	-5.645738	107.705540	-2.749753	14.201049
4.550000	-2.271948	-7.112855	-7.849098	101.868725	-7.849098	101.868725	-2.304216	1.810994
4.600000	-1.979645	-22.494842	-12.157988	105.352173	-12.157988	105.352173	-2.017665	-14.003775
4.650000	-2.144417	-41.302636	-14.996091	157.450136	-14.996091	157.450136	-2.189323	-33.308082
4.700000	-3.069949	-61.772105	-8.555048	-179.559111	-8.555048	-179.559111	-3.121459	-54.324375
4.750000	-4.748026	-80.844675	-4.739625	172.393322	-4.739625	172.393322	-4.802957	-73.979540
4.800000	-6.842573	-96.711569	-2.853963	161.091287	-2.853963	161.091287	-6.895431	-90.443583
4.850000	-9.006548	-109.436884	-1.897318	150.959758	-1.897318	150.959758	-9.050214	-103.735780
4.900000	-11.041281	-119.915855	-1.382681	142.397960	-1.382681	142.397960	-11.067214	-114.680669
4.950000	-12.834779	-128.953561	-1.091971	135.109608	-1.091971	135.109608	-12.833734	-123.992655
5.000000	-14.327169	-137.140188	-0.919831	128.747048	-0.919831	128.747048	-14.291401	-132.169684
5.050000	-15.479897	-144.827408	-0.814673	123.048158	-0.814673	123.048158	-15.406300	-139.492875
5.100000	-16.287597	-152.183699	-0.748903	117.816449	-0.748903	117.816449	-16.179719	-146.123092
5.150000	-16.755557	-159.233764	-0.708454	112.925957	-0.708454	112.925957	-16.623557	-152.135324
5.200000	-16.926284	-165.951776	-0.684661	108.276516	-0.684661	108.276516	-16.783326	-157.614615
5.250000	-16.842888	-172.294824	-0.673151	103.806325	-0.673151	103.806325	-16.701948	-162.630736
5.300000	-16.559084	-178.248971	-0.671200	99.467182	-0.671200	99.467182	-16.430083	-167.269984
5.350000	-16.126542	176.167154	-0.677237	95.222898	-0.677237	95.222898	-16.015434	-171.620292
5.400000	-15.589762	170.910812	-0.690404	91.045672	-0.690404	91.045672	-15.498984	-175.762323
5.450000	-14.984216	165.927671	-0.710312	86.913652	-0.710312	86.913652	-14.913719	-179.764216
5.500000	-14.336675	161.161884	-0.736894	82.809251	-0.736894	82.809251	-14.284945	176.319719
5.550000	-13.666562	156.562029	-0.770320	78.717985	-0.770320	78.717985	-13.631402	172.447757
5.600000	-12.987555	152.083596	-0.810948	74.627634	-0.810948	74.627634	-12.966581	168.588435
5.650000	-12.308554	147.689921	-0.859388	70.527448	-0.859388	70.527448	-12.299476	164.717774
5.700000	-11.636044	143.349520	-0.916340	66.407846	-0.916340	66.407846	-11.636800	160.817334
5.750000	-10.974646	139.036670	-0.982558	62.260615	-0.982558	62.260615	-10.983457	156.873470
5.800000	-10.326930	134.730879	-1.059041	58.078128	-1.059041	58.078128	-10.342298	152.875082
5.850000	-9.694466	130.415017	-1.146962	53.853292	-1.146962	53.853292	-9.715147	148.812889
5.900000	-9.078173	126.074543	-1.247693	49.579456	-1.247693	49.579456	-9.103143	144.678837
5.950000	-8.478559	121.696907	-1.362830	45.250352	-1.362830	45.250352	-8.506986	140.465701
6.000000	-7.895911	117.271095	-1.494224	40.860094	-1.494224	40.860094	-7.927117	136.166835
6.050000	-7.330416	112.787318	-1.644022	36.403209	-1.644022	36.403209	-7.363854	131.776028
6.100000	-6.782261	108.236804	-1.814710	31.874722	-1.814710	31.874722	-6.817486	127.287454
6.150000	-6.251698	103.611691	-2.009173	27.270283	-2.009173	27.270283	-6.288353	122.695678
6.200000	-5.739102	98.904996	-2.230752	22.586356	-2.230752	22.586356	-5.776893	117.995738
6.250000	-5.245002	94.110668	-2.483326	17.820475	-2.483326	17.820475	-5.283686	113.183270
6.300000	-4.770005	89.221593	-2.772056	12.969774	-2.772056	12.969774	-4.809377	108.252107
6.350000	-4.315263	84.235979	-3.101670	8.036928	-3.101670	8.036928	-4.355147	103.202197
6.400000	-3.881882	79.151582	-3.478315	3.025226	-3.478315	3.025226	-3.922124	98.032338
6.450000	-3.471149	73.967872	-3.909206	-2.058962	-3.909206	-2.058962	-3.511607	92.742907
6.500000	-3.084242	68.688866	-4.401777	-7.203991	-4.401777	-7.203991	-3.124790	87.339241
6.550000	-2.723020	63.313397	-4.968176	-12.397518	-4.968176	-12.397518	-2.763529	81.819963
6.600000	-2.389086	57.849009	-5.620380	-17.616109	-5.620380	-17.616109	-2.429435	76.193574
6.650000	-2.083970	52.304970	-6.373615	-22.827859	-6.373615	-22.827859	-2.124044	70.470088
6.700000	-1.808971	46.692999	-7.247283	-27.988543	-7.247283	-27.988543	-1.848662	64.661955
6.750000	-1.565634	41.026090	-8.267962	-33.031788	-8.267962	-33.031788	-1.604840	58.782574
6.800000	-1.354688	35.320745	-9.471027	-37.859201	-9.471027	-37.859201	-1.393321	52.849242
6.850000	-1.176684	29.594471	-10.908389	-42.310013	-10.908389	-42.310013	-1.214666	46.880128
6.900000	-1.031741	23.865825	-12.660026	-46.096028	-12.660026	-46.096028	-1.069010	40.894496
6.950000	-0.919516	18.153718	-14.858086	-48.627911	-14.858086	-48.627911	-0.956026	34.912015
7.000000	-0.839207	12.476693	-17.736211	-48.464279	-17.736211	-48.464279	-0.874925	28.952036
7.050000	-0.789570	6.852221	-21.686795	-41.123677	-21.686795	-41.123677	-0.824478	23.032900
7.100000	-0.769110	1.296494	-26.265017	-10.331117	-26.265017	-10.331117	-0.803200	17.171672
7.150000	-0.775968	-4.176231	-24.829097	40.250831	-24.829097	40.250831	-0.809242	11.383555
7.200000	-0.807676	-9.555578	-20.438821	59.249450	-20.438821	59.249450	-0.840140	5.680048
7.250000	-0.861983	-14.832726	-17.192348	63.296562	-17.192348	63.296562	-0.893643	0.071007
7.300000	-0.936064	-20.004583	-14.839130	62.705055	-14.839130	62.705055	-0.966925	-5.439235
7.350000	-1.028479	-25.061974	-13.049700	60.205397	-13.049700	60.205397	-1.058539	-10.840679
7.400000	-1.136062	-30.009642	-11.631502	56.875823	-11.631502	56.875823	-1.165314	-16.136624
7.450000	-1.257009	-34.846037	-10.476481	53.107001	-10.476481	53.107001	-1.285433	-21.324440
7.500000	-1.389256	-39.573759	-9.516401	49.110384	-9.516401	49.110384	-1.416821	-26.405465
7.550000	-1.530728	-44.200401	-8.704241	45.000003	-8.704241	45.000003	-1.557390	-31.385996
7.600000	-1.680035	-48.725962	-8.011741	40.836197	-8.011741	40.836197	-1.705731	-36.264654
7.650000	-1.835341	-53.163039	-7.413158	36.659301	-7.413158	36.659301	-1.859992	-41.052677
7.700000	-1.995382	-57.516280	-6.893306	32.490962	-6.893306	32.490962	-2.018884	-45.753143
7.750000	-2.158850	-61.795318	-6.438950	28.344335	-6.438950	28.344335	-2.181071	-50.374058
7.800000	-2.324630	-66.010883	-6.039594	24.225541	-6.039594	24.225541	-2.345407	-54.924562
7.850000	-2.491560	-70.171206	-5.689021	20.138601	-5.689021	20.138601	-2.510678	-59.410523
7.900000	-2.658748	-74.290942	-5.379593	16.081439	-5.379593	16.081439	-2.675942	-63.844948
7.950000	-2.825066	-78.382154	-5.107905	12.052554	-5.107905	12.052554	-2.839985	-68.236948
8.000000	-2.989412	-82.461897	-4.870646	8.047091	-4.870646	8.047091	-3.001593	-72.600428
8.050000	-3.150736	-86.550051	-4.665342	4.058352	-4.665342	4.058352	-3.159568	-76.951917
8.100000	-3.308299	-90.668230	-4.489382	0.078064	-4.489382	0.078064	-3.313010	-81.310394
8.150000	-3.460698	-94.845482	-4.343655	-3.902200	-4.343655	-3.902200	-3.460228	-85.699520
8.200000	-3.605623	-99.131458	-4.233004	-7.894104	-4.233004	-7.894104	-3.598368	-90.159175
8.250000	-3.742056	-103.582390	-4.160621	-11.909468	-4.160621	-11.909468	-3.725781	-94.738403
8.300000	-3.869006	-108.277245	-4.134371	-15.956909	-4.134371	-15.956909	-3.840491	-99.505520
8.350000	-3.986223	-113.339705	-4.169479	-20.037254	-4.169479	-20.037254	-3.940576	-104.567874
8.400000	-4.097175	-119.010451	-4.299464	-24.116494	-4.299464	-24.116494	-4.026006	-110.136125
8.450000	-4.218268	-125.613442	-4.572793	-28.044367	-4.572793	-28.044367	-4.107648	-116.501317
8.500000	-4.402209	-133.745133	-5.081918	-31.276661	-5.081918	-31.276661	-4.226063	-124.202234
8.550000	-4.811038	-144.279970	-5.922437	-31.968195	-5.922437	-31.968195	-4.516315	-134.036814
8.600000	-5.890007	-157.708890	-6.723985	-25.717719	-6.723985	-25.717719	-5.357768	-146.456025
8.650000	-8.467895	-170.464282	-5.852038	-14.991098	-5.852038	-14.991098	-7.417685	-158.360624
8.700000	-12.513966	-168.880092	-3.885132	-14.844332	-3.885132	-14.844332	-10.538287	-159.533670
8.750000	-14.518662	-147.715720	-2.650271	-21.530658	-2.650271	-21.530658	-12.443246	-147.465621
8.800000	-13.621170	-134.044037	-2.061820	-28.676164	-2.061820	-28.676164	-12.419020	-137.333406
8.850000	-12.592920	-131.260862	-1.774059	-34.900820	-1.774059	-34.900820	-11.924419	-134.016176
8.900000	-11.968873	-132.492929	-1.611502	-40.323628	-1.611502	-40.323628	-11.556610	-134.269473
8.950000	-11.663754	-135.205866	-1.508633	-45.143519	-1.508633	-45.143519	-11.377275	-136.181936
9.000000	-11.554924	-138.426850	-1.432800	-49.574315	-1.432800	-49.574315	-11.337558	-138.781959
9.050000	-11.583629	-141.855934	-1.371820	-53.722014	-1.371820	-53.722014	-11.404954	-141.717209
9.100000	-11.711864	-145.364841	-1.319353	-57.663909	-1.319353	-57.663909	-11.554481	-144.808518
9.150000	-11.905634	-148.900736	-1.271555	-61.475378	-1.271555	-61.475378	-11.760230	-147.960708
9.200000	-12.164325	-152.450937	-1.227749	-65.164568	-1.227749	-65.164568	-12.022924	-151.139872
9.250000	-12.471869	-156.009276	-1.186595	-68.772676	-1.186595	-68.772676	-12.329494	-154.316862
9.300000	-12.823467	-159.577863	-1.147643	-72.317537	-1.147643	-72.317537	-12.676168	-157.478236
9.350000	-13.219341	-163.164001	-1.110837	-75.807240	-1.110837	-75.807240	-13.063467	-160.611721
9.400000	-13.658344	-166.776644	-1.076037	-79.253023	-1.076037	-79.253023	-13.490605	-163.708767
9.450000	-14.139448	-170.423507	-1.043037	-82.666010	-1.043037	-82.666010	-13.956807	-166.765392
9.500000	-14.665305	-174.117053	-1.011865	-86.051050	-1.011865	-86.051050	-14.464563	-169.773447
9.550000	-15.240842	-177.881373	-0.982759	-89.410150	-0.982759	-89.410150	-15.018416	-172.715939
9.600000	-15.868599	178.274122	-0.955473	-92.750861	-0.955473	-92.750861	-15.620628	-175.590574
9.650000	-16.554922	174.327951	-0.930035	-96.076014	-0.930035	-96.076014	-16.276882	-178.384362
9.700000	-17.308804	170.229382	-0.906742	-99.386446	-0.906742	-99.386446	-16.995280	178.936642
9.750000	-18.139899	165.945409	-0.885470	-102.685723	-0.885470	-102.685723	-17.784327	176.391752
9.800000	-19.061733	161.427529	-0.866182	-105.976063	-0.866182	-105.976063	-18.655929	174.011367
9.850000	-20.092251	156.568934	-0.849071	-109.258446	-0.849071	-109.258446	-19.626081	171.865276
9.900000	-21.254407	151.203087	-0.834295	-112.534044	-0.834295	-112.534044	-20.715557	170.061299
9.950000	-22.580414	145.168285	-0.821678	-115.804692	-0.821678	-115.804692	-21.953466	168.700959
10.000000	-24.113651	138.142572	-0.811279	-119.071258	-0.811279	-119.071258	-23.380804	167.988070
