! freq	dB(S11)	phase(S11)	dB(S12)	phase(S12)	
!     	dB(S21)	phase(S21)	dB(S22)	phase(S22)	
!S-par simulation data
#  GHz  S  DB  R 50
0.000000	-83.207142	0.000000	-0.000600	0.000000	-0.000600	0.000000	-83.207142	0.000000
0.050000	-37.077887	-93.666219	-0.005666	-3.088671	-0.005666	-3.088671	-37.016933	-91.486938
0.100000	-31.089757	-97.837950	-0.014582	-6.138324	-0.014582	-6.138324	-31.059636	-93.886769
0.150000	-27.605366	-101.968725	-0.023736	-9.170652	-0.023736	-9.170652	-27.580243	-96.201988
0.200000	-25.144501	-106.085456	-0.033619	-12.197324	-0.033619	-12.197324	-25.118372	-98.436305
0.250000	-23.245382	-110.180137	-0.044770	-15.220199	-0.044770	-15.220199	-23.217101	-100.612450
0.300000	-21.702740	-114.251772	-0.057383	-18.239069	-0.057383	-18.239069	-21.672234	-102.748621
0.350000	-20.406675	-118.304591	-0.071416	-21.253711	-0.071416	-21.253711	-20.374178	-104.856989
0.400000	-19.292173	-122.342835	-0.086829	-24.263856	-0.086829	-24.263856	-19.258009	-106.943289
0.450000	-18.317918	-126.370268	-0.103609	-27.269131	-0.103609	-27.269131	-18.282432	-109.009841
0.500000	-17.454555	-130.390975	-0.121615	-30.269672	-0.121615	-30.269672	-17.418069	-111.059025
0.550000	-16.681707	-134.407734	-0.140774	-33.265398	-0.140774	-33.265398	-16.644487	-113.091226
0.600000	-15.984780	-138.422867	-0.161045	-36.256069	-0.161045	-36.256069	-15.947035	-115.105691
0.650000	-15.352005	-142.438473	-0.182325	-39.241745	-0.182325	-39.241745	-15.313878	-117.102351
0.700000	-14.774583	-146.456364	-0.204541	-42.222350	-0.204541	-42.222350	-14.736165	-119.080393
0.750000	-14.245280	-150.478155	-0.227601	-45.197940	-0.227601	-45.197940	-14.206614	-121.039289
0.800000	-13.758306	-154.505356	-0.251416	-48.168580	-0.251416	-48.168580	-13.719398	-122.978364
0.850000	-13.309005	-158.539511	-0.275903	-51.134338	-0.275903	-51.134338	-13.269835	-124.896742
0.900000	-12.893413	-162.582125	-0.300973	-54.095379	-0.300973	-54.095379	-12.853938	-126.793701
0.950000	-12.508089	-166.634641	-0.326531	-57.051958	-0.326531	-57.051958	-12.468252	-128.668707
1.000000	-12.150165	-170.698586	-0.352490	-60.004358	-0.352490	-60.004358	-12.109896	-130.521110
1.050000	-11.817167	-174.775535	-0.378762	-62.952923	-0.378762	-62.952923	-11.776390	-132.350276
1.100000	-11.506941	-178.867126	-0.405264	-65.898059	-0.405264	-65.898059	-11.465571	-134.155594
1.150000	-11.217596	177.024933	-0.431914	-68.840228	-0.431914	-68.840228	-11.175543	-135.936464
1.200000	-10.947460	172.898862	-0.458635	-71.779953	-0.458635	-71.779953	-10.904628	-137.692299
1.250000	-10.695042	168.752798	-0.485354	-74.717814	-0.485354	-74.717814	-10.651329	-139.422522
1.300000	-10.459141	164.584446	-0.512000	-77.654435	-0.512000	-77.654435	-10.414434	-141.126171
1.350000	-10.238406	160.392060	-0.538511	-80.590534	-0.538511	-80.590534	-10.192588	-142.803050
1.400000	-10.031744	156.173516	-0.564833	-83.526848	-0.564833	-83.526848	-9.984684	-144.452590
1.450000	-9.838153	151.926599	-0.590915	-86.464166	-0.590915	-86.464166	-9.789709	-146.074223
1.500000	-9.656712	147.649003	-0.616716	-89.403322	-0.616716	-89.403322	-9.606729	-147.667381
1.550000	-9.486570	143.338331	-0.642201	-92.345197	-0.642201	-92.345197	-9.434875	-149.231490
1.600000	-9.326934	138.992091	-0.667346	-95.290718	-0.667346	-95.290718	-9.273336	-150.765978
1.650000	-9.177061	134.607697	-0.692132	-98.240856	-0.692132	-98.240856	-9.121348	-152.270267
1.700000	-9.036452	130.181037	-0.716537	-101.196850	-0.716537	-101.196850	-8.978377	-153.742756
1.750000	-8.904043	125.711930	-0.740591	-104.159387	-0.740591	-104.159387	-8.843355	-155.184783
1.800000	-8.779388	121.196319	-0.764292	-107.129748	-0.764292	-107.129748	-8.715798	-156.594883
1.850000	-8.661870	116.631237	-0.787661	-110.109099	-0.787661	-110.109099	-8.595062	-157.972495
1.900000	-8.550941	112.013022	-0.810728	-113.098785	-0.810728	-113.098785	-8.480562	-159.316706
1.950000	-8.446001	107.338412	-0.833535	-116.100128	-0.833535	-116.100128	-8.371664	-160.626972
2.000000	-8.346413	102.604734	-0.856139	-119.114354	-0.856139	-119.114354	-8.267703	-161.903158
2.050000	-8.251600	97.808660	-0.878604	-122.142856	-0.878604	-122.142856	-8.168068	-163.144813
2.100000	-8.160984	92.946781	-0.901003	-125.187086	-0.901003	-125.187086	-8.072143	-164.351539
2.150000	-8.073978	88.015615	-0.923421	-128.248549	-0.923421	-128.248549	-7.979308	-165.523013
2.200000	-7.989988	83.011617	-0.945956	-131.328811	-0.945956	-131.328811	-7.888931	-166.659001
2.250000	-7.908404	77.931187	-0.968719	-134.429491	-0.968719	-134.429491	-7.800370	-167.759382
2.300000	-7.828599	72.770686	-0.991837	-137.552274	-0.991837	-137.552274	-7.712964	-168.824175
2.350000	-7.749928	67.526449	-1.015454	-140.698906	-1.015454	-140.698906	-7.626035	-169.853572
2.400000	-7.671718	62.194810	-1.039734	-143.871207	-1.039734	-143.871207	-7.538883	-170.847965
2.450000	-7.593276	56.772118	-1.064860	-147.071077	-1.064860	-147.071077	-7.450789	-171.807994
2.500000	-7.513875	51.254771	-1.091044	-150.300504	-1.091044	-150.300504	-7.361008	-172.734584
2.550000	-7.432693	45.637029	-1.118552	-153.562313	-1.118552	-153.562313	-7.268682	-173.628338
2.600000	-7.348982	39.917543	-1.147633	-156.858062	-1.147633	-156.858062	-7.173078	-174.491664
2.650000	-7.261930	34.093066	-1.178590	-160.190073	-1.178590	-160.190073	-7.073387	-175.326694
2.700000	-7.170704	28.160544	-1.211763	-163.560796	-1.211763	-163.560796	-6.968790	-176.136070
2.750000	-7.074448	22.117170	-1.247540	-166.972819	-1.247540	-166.972819	-6.858460	-176.923001
2.800000	-6.972296	15.960422	-1.286353	-170.428884	-1.286353	-170.428884	-6.741569	-177.691324
2.850000	-6.863378	9.688117	-1.328696	-173.931889	-1.328696	-173.931889	-6.617304	-178.445564
2.900000	-6.746831	3.298447	-1.375125	-177.484904	-1.375125	-177.484904	-6.484873	-179.190976
2.950000	-6.621813	-3.209974	-1.426271	178.908823	-1.426271	178.908823	-6.343526	-179.933595
3.000000	-6.487524	-9.838084	-1.482851	175.245864	-1.482851	175.245864	-6.192565	179.319737
3.050000	-6.343330	-16.585363	-1.545625	171.523130	-1.545625	171.523130	-6.031489	178.561537
3.100000	-6.188277	-23.454403	-1.615668	167.735419	-1.615668	167.735419	-5.859465	177.782873
3.150000	-6.021895	-30.443695	-1.694012	163.879179	-1.694012	163.879179	-5.676185	176.974420
3.200000	-5.843743	-37.552234	-1.781895	159.950185	-1.781895	159.950185	-5.481375	176.125971
3.250000	-5.653636	-44.777935	-1.880677	155.944511	-1.880677	155.944511	-5.275024	175.226983
3.300000	-5.451495	-52.118975	-1.991968	151.857756	-1.991968	151.857756	-5.057227	174.266206
3.350000	-5.237532	-59.572697	-2.117554	147.685878	-2.117554	147.685878	-4.828366	173.232376
3.400000	-5.011807	-67.138649	-2.259838	143.422798	-2.259838	143.422798	-4.588671	172.111985
3.450000	-4.775185	-74.812614	-2.421116	139.065379	-2.421116	139.065379	-4.339157	170.894081
3.500000	-4.528578	-82.591713	-2.604242	134.609585	-2.604242	134.609585	-4.080871	169.566907
3.550000	-4.273187	-90.472886	-2.812517	130.051815	-2.812517	130.051815	-3.815127	168.119141
3.600000	-4.010507	-98.452860	-3.049770	125.389115	-3.049770	125.389115	-3.543509	166.540169
3.650000	-3.742326	-106.528088	-3.320455	120.619452	-3.320455	120.619452	-3.267866	164.820379
3.700000	-3.470718	-114.694640	-3.629766	115.742038	-3.629766	115.742038	-2.990307	162.951470
3.750000	-3.198022	-122.948038	-3.983790	110.757737	-3.983790	110.757737	-2.713176	160.926779
3.800000	-2.926755	-131.284150	-4.390265	105.668131	-4.390265	105.668131	-2.438988	158.739240
3.850000	-2.659844	-139.695462	-4.857261	100.480657	-4.857261	100.480657	-2.170603	156.388800
3.900000	-2.400210	-148.174493	-5.395045	95.204733	-5.395045	95.204733	-1.910873	153.875730
3.950000	-2.150841	-156.712307	-6.016167	89.854303	-6.016167	89.854303	-1.662694	151.203101
4.000000	-1.914714	-165.298351	-6.736317	84.449242	-6.736317	84.449242	-1.428934	148.376934
4.050000	-1.694703	-173.920371	-7.575669	79.017553	-7.575669	79.017553	-1.212347	145.406229
4.100000	-1.493489	177.435551	-8.561130	73.599124	-8.561130	73.599124	-1.015480	142.302859
4.150000	-1.313465	168.784811	-9.730254	68.252889	-9.730254	68.252889	-0.840588	139.081319
4.200000	-1.156873	160.144230	-11.138956	63.074976	-11.138956	63.074976	-0.689778	135.757514
4.250000	-1.025244	151.531345	-12.874904	58.234046	-12.874904	58.234046	-0.564429	132.350697
4.300000	-0.919563	142.963422	-15.091283	54.074478	-15.091283	54.074478	-0.465380	128.880741
4.350000	-0.840420	134.457197	-18.093156	51.484997	-18.093156	51.484997	-0.393083	125.367283
4.400000	-0.787931	126.028186	-22.610250	53.769615	-22.610250	53.769615	-0.347516	121.829518
4.450000	-0.761778	117.690106	-30.118130	84.409905	-30.118130	84.409905	-0.328231	118.285578
4.500000	-0.761280	109.454392	-27.565027	165.398609	-27.565027	165.398609	-0.334414	114.752013
4.550000	-0.785468	101.329860	-21.157055	-179.932295	-21.157055	-179.932295	-0.364972	111.243439
4.600000	-0.833285	93.323090	-17.375792	-179.800093	-17.375792	-179.800093	-0.418714	107.772568
4.650000	-0.903532	85.437793	-14.791631	177.245401	-14.791631	177.245401	-0.494302	104.350092
4.700000	-0.994677	77.673034	-12.858599	173.216464	-12.858599	173.216464	-0.590076	100.983764
4.750000	-1.105467	70.026373	-11.333205	168.717533	-11.333205	168.717533	-0.704637	97.679823
4.800000	-1.234750	62.492960	-10.086808	163.995836	-10.086808	163.995836	-0.836680	94.442919
4.850000	-1.381521	55.065768	-9.043159	159.169247	-9.043159	159.169247	-0.985032	91.276433
4.900000	-1.544951	47.735837	-8.153247	154.299376	-8.153247	154.299376	-1.148681	88.182833
4.950000	-1.724407	40.492487	-7.383645	149.420006	-7.383645	149.420006	-1.326789	85.164024
5.000000	-1.919461	33.323496	-6.710508	144.549797	-6.710508	144.549797	-1.518700	82.221699
5.050000	-2.130031	26.215878	-6.116658	139.698961	-6.116658	139.698961	-1.724043	79.358846
5.100000	-2.355935	19.153506	-5.588246	134.871671	-5.588246	134.871671	-1.942366	76.576657
5.150000	-2.597347	12.120009	-5.114974	130.068945	-5.114974	130.068945	-2.173501	73.878215
5.200000	-2.854613	5.097627	-4.688754	125.289690	-4.688754	125.289690	-2.417403	71.267688
5.250000	-3.128229	-1.932911	-4.303163	120.531477	-4.303163	120.531477	-2.674113	68.750638
5.300000	-3.418811	-8.992575	-3.953058	115.791056	-3.953058	115.791056	-2.943715	66.334311
5.350000	-3.727054	-16.104300	-3.634305	111.064730	-3.634305	111.064730	-3.226290	64.027944
5.400000	-4.053675	-23.293328	-3.343572	106.348614	-3.343572	106.348614	-3.521840	61.843053
5.450000	-4.399386	-30.588941	-3.078338	101.638867	-3.078338	101.638867	-3.830223	59.795187
5.500000	-4.764628	-38.022509	-2.836377	96.931703	-2.836377	96.931703	-4.150967	57.900956
5.550000	-5.149538	-45.628578	-2.615925	92.223721	-2.615925	92.223721	-4.483210	56.179602
5.600000	-5.553748	-53.446430	-2.415667	87.511965	-2.415667	87.511965	-4.825516	54.653880
5.650000	-5.976063	-61.519919	-2.234598	82.793983	-2.234598	82.793983	-5.175649	53.349066
5.700000	-6.414070	-69.897452	-2.071974	78.067898	-2.071974	78.067898	-5.530333	52.292160
5.750000	-6.863622	-78.631240	-1.927262	73.332480	-1.927262	73.332480	-5.884983	51.510444
5.800000	-7.318208	-87.775260	-1.800104	68.587191	-1.800104	68.587191	-6.233448	51.029139
5.850000	-7.768054	-97.383572	-1.690360	63.832188	-1.690360	63.832188	-6.567663	50.869568
5.900000	-8.199388	-107.501167	-1.597999	59.068422	-1.597999	59.068422	-6.877619	51.042840
5.950000	-8.595130	-118.143851	-1.522830	54.297749	-1.522830	54.297749	-7.152435	51.539041
6.000000	-8.934554	-129.296534	-1.464851	49.522685	-1.464851	49.522685	-7.380239	52.330161
6.050000	-9.195450	-140.894562	-1.424080	44.746466	-1.424080	44.746466	-7.549612	53.363396
6.100000	-9.357486	-152.815543	-1.400519	39.972996	-1.400519	39.972996	-7.651120	54.561142
6.150000	-9.404982	-164.883957	-1.394352	35.206907	-1.394352	35.206907	-7.677930	55.825672
6.200000	-9.336925	-176.892461	-1.404997	30.452892	-1.404997	30.452892	-7.631006	57.049470
6.250000	-9.157599	171.362618	-1.432637	25.716509	-1.432637	25.716509	-7.512594	58.128153
6.300000	-8.882164	160.058064	-1.477185	21.003671	-1.477185	21.003671	-7.330210	58.968424
6.350000	-8.533703	149.305439	-1.538076	16.319880	-1.538076	16.319880	-7.095905	59.506105
6.400000	-8.133571	139.177929	-1.615242	11.671737	-1.615242	11.671737	-6.821049	59.692903
6.450000	-7.704638	129.670492	-1.707735	7.064051	-1.707735	7.064051	-6.519353	59.522426
6.500000	-7.264017	120.751389	-1.814725	2.501049	-1.814725	2.501049	-6.202012	59.005822
6.550000	-6.823811	112.390783	-1.935735	-2.012107	-1.935735	-2.012107	-5.877663	58.156013
6.600000	-6.393003	104.575712	-2.070760	-6.466886	-2.070760	-6.466886	-5.553312	56.979260
6.650000	-5.978887	97.215404	-2.218040	-10.863708	-2.218040	-10.863708	-5.235627	55.532231
6.700000	-5.584938	90.269571	-2.376865	-15.199034	-2.376865	-15.199034	-4.928348	53.843604
6.750000	-5.213417	83.707317	-2.546594	-19.468280	-2.546594	-19.468280	-4.634303	51.938488
6.800000	-4.865264	77.487242	-2.726257	-23.669784	-2.726257	-23.669784	-4.355295	49.848774
6.850000	-4.540570	71.576661	-2.914972	-27.801904	-2.914972	-27.801904	-4.092326	47.601267
6.900000	-4.238986	65.949898	-3.111898	-31.862817	-3.111898	-31.862817	-3.845913	45.218605
6.950000	-3.959663	60.581502	-3.316138	-35.852010	-3.316138	-35.852010	-3.616048	42.722330
7.000000	-3.701366	55.447080	-3.526827	-39.770239	-3.526827	-39.770239	-3.402283	40.131872
7.050000	-3.462869	50.527951	-3.743174	-43.617910	-3.743174	-43.617910	-3.204065	37.462700
7.100000	-3.242896	45.807675	-3.964428	-47.395794	-3.964428	-47.395794	-3.020712	34.728041
7.150000	-3.040169	41.271696	-4.189884	-51.104974	-4.189884	-51.104974	-2.851460	31.939141
7.200000	-2.853440	36.907050	-4.418878	-54.746801	-4.418878	-54.746801	-2.695511	29.105517
7.250000	-2.681507	32.702116	-4.650797	-58.322845	-4.650797	-58.322845	-2.552053	26.235187
7.300000	-2.523231	28.646423	-4.885070	-61.834856	-4.885070	-61.834856	-2.420281	23.334871
7.350000	-2.377541	24.730484	-5.121173	-65.284726	-5.121173	-65.284726	-2.299417	20.410175
7.400000	-2.243434	20.945660	-5.358623	-68.674453	-5.358623	-68.674453	-2.188708	17.465743
7.450000	-2.119983	17.284058	-5.596977	-72.006109	-5.596977	-72.006109	-2.087444	14.505395
7.500000	-2.006328	13.738431	-5.835833	-75.281822	-5.835833	-75.281822	-1.994950	11.532244
7.550000	-1.901830	10.304342	-6.074674	-78.502630	-6.074674	-78.502630	-1.910745	8.548612
7.600000	-1.805586	6.973143	-6.313299	-81.671921	-6.313299	-81.671921	-1.834075	5.556720
7.650000	-1.716930	3.739160	-6.551403	-84.791863	-6.551403	-84.791863	-1.764396	2.558065
7.700000	-1.635253	0.597129	-6.788710	-87.864615	-6.788710	-87.864615	-1.701205	-0.446247
7.750000	-1.559998	-2.457847	-7.024965	-90.892314	-7.024965	-90.892314	-1.644042	-3.455444
7.800000	-1.490657	-5.430332	-7.259935	-93.877077	-7.259935	-93.877077	-1.592482	-6.469050
7.850000	-1.426767	-8.324581	-7.493405	-96.820992	-7.493405	-96.820992	-1.546140	-9.486842
7.900000	-1.367904	-11.144575	-7.725174	-99.726121	-7.725174	-99.726121	-1.504665	-12.508828
7.950000	-1.313683	-13.894037	-7.955058	-102.594502	-7.955058	-102.594502	-1.467739	-15.535212
8.000000	-1.263752	-16.576457	-8.182881	-105.428149	-8.182881	-105.428149	-1.435079	-18.566377
8.050000	-1.217792	-19.195109	-8.408476	-108.229058	-8.408476	-108.229058	-1.406428	-21.602866
8.100000	-1.175512	-21.753066	-8.631685	-110.999212	-8.631685	-110.999212	-1.381561	-24.645367
8.150000	-1.137071	-24.245456	-8.851192	-113.736815	-8.851192	-113.736815	-1.360755	-27.695805
8.200000	-1.101380	-26.690337	-9.069081	-116.451422	-9.069081	-116.451422	-1.342902	-30.753170
8.250000	-1.068641	-29.082731	-9.284130	-119.141275	-9.284130	-119.141275	-1.328314	-33.819421
8.300000	-1.038656	-31.425053	-9.496190	-121.808392	-9.496190	-121.808392	-1.316867	-36.895737
8.350000	-1.011242	-33.719582	-9.705109	-124.454829	-9.705109	-124.454829	-1.308459	-39.983417
8.400000	-0.986237	-35.968469	-9.910730	-127.082692	-9.910730	-127.082692	-1.303009	-43.083872
8.450000	-0.963490	-38.173752	-10.112894	-129.694151	-10.112894	-129.694151	-1.300455	-46.198641
8.500000	-0.942868	-40.337357	-10.311431	-132.291465	-10.311431	-132.291465	-1.300758	-49.329395
8.550000	-0.924249	-42.461109	-10.506163	-134.876995	-10.506163	-134.876995	-1.303893	-52.477950
8.600000	-0.907523	-44.546738	-10.696902	-137.453229	-10.696902	-137.453229	-1.309859	-55.646287
8.650000	-0.892594	-46.595885	-10.883447	-140.022813	-10.883447	-140.022813	-1.318669	-58.836574
8.700000	-0.879374	-48.610108	-11.065582	-142.588577	-11.065582	-142.588577	-1.330359	-62.051195
8.750000	-0.867786	-50.590887	-11.243072	-145.153573	-11.243072	-145.153573	-1.344983	-65.292785
8.800000	-0.857829	-52.538297	-11.415295	-147.721399	-11.415295	-147.721399	-1.362752	-68.565728
8.850000	-0.849377	-54.455118	-11.582338	-150.295768	-11.582338	-150.295768	-1.383644	-71.872185
8.900000	-0.842383	-56.342611	-11.743896	-152.880737	-11.743896	-152.880737	-1.407793	-75.215910
8.950000	-0.836809	-58.201971	-11.899640	-155.480819	-11.899640	-155.480819	-1.435366	-78.601163
9.000000	-0.832552	-60.035761	-12.049695	-158.099774	-12.049695	-158.099774	-1.466372	-82.030093
9.050000	-0.829732	-61.842414	-12.192796	-160.745191	-12.192796	-160.745191	-1.501413	-85.512736
9.100000	-0.828277	-63.624135	-12.328892	-163.422696	-12.328892	-163.422696	-1.540659	-89.053549
9.150000	-0.828193	-65.381876	-12.457508	-166.139601	-12.457508	-166.139601	-1.584506	-92.659932
9.200000	-0.829468	-67.116919	-12.578311	-168.903208	-12.578311	-168.903208	-1.633355	-96.338924
9.250000	-0.832260	-68.828093	-12.689800	-171.728936	-12.689800	-171.728936	-1.688355	-100.108781
9.300000	-0.836405	-70.519279	-12.792862	-174.618673	-12.792862	-174.618673	-1.749452	-103.968043
9.350000	-0.842136	-72.188627	-12.885604	-177.594237	-12.885604	-177.594237	-1.818420	-107.942564
9.400000	-0.849444	-73.837835	-12.967965	179.334037	-12.967965	179.334037	-1.896126	-112.042113
9.450000	-0.858433	-75.467241	-13.039223	176.147944	-13.039223	176.147944	-1.984239	-116.286308
9.500000	-0.869337	-77.075814	-13.097923	172.818340	-13.097923	172.818340	-2.085577	-120.707954
9.550000	-0.882090	-78.665743	-13.144844	169.337425	-13.144844	169.337425	-2.201422	-125.313190
9.600000	-0.897114	-80.234186	-13.177837	165.655925	-13.177837	165.655925	-2.337110	-130.158199
9.650000	-0.914590	-81.780628	-13.196796	161.740333	-13.196796	161.740333	-2.497352	-135.279417
9.700000	-0.934743	-83.303551	-13.201767	157.550143	-13.201767	157.550143	-2.688464	-140.721897
9.750000	-0.957859	-84.799994	-13.193072	153.033460	-13.193072	153.033460	-2.919345	-146.545058
9.800000	-0.984203	-86.265538	-13.171840	148.131276	-13.171840	148.131276	-3.201860	-152.819544
9.850000	-1.013838	-87.695251	-13.140633	142.796371	-13.140633	142.796371	-3.549568	-159.608564
9.900000	-1.046914	-89.077690	-13.102758	136.936218	-13.102758	136.936218	-3.987269	-167.046258
9.950000	-1.082786	-90.402149	-13.064284	130.517141	-13.064284	130.517141	-4.540884	-175.232634
10.000000	-1.120035	-91.653834	-13.032932	123.532058	-13.032932	123.532058	-5.247124	175.686245
