! freq	dB(S11)	phase(S11)	dB(S12)	phase(S12)	
!     	dB(S21)	phase(S21)	dB(S22)	phase(S22)	
!S-par simulation data
#  GHz  S  DB  R 50
0.000000	-6153.053111	0.000000	-0.000000	0.000000	-0.000000	0.000000	-6153.053111	0.000000
0.050000	-45.411965	-92.452476	-0.003955	-2.476742	-0.003955	-2.476742	-45.430559	-92.527590
0.100000	-39.425286	-94.244700	-0.009426	-4.919047	-0.009426	-4.919047	-39.401530	-93.899277
0.150000	-36.025619	-96.910700	-0.013718	-7.350642	-0.013718	-7.350642	-36.021990	-96.374820
0.200000	-33.569108	-99.796786	-0.017633	-9.780533	-0.017633	-9.780533	-33.564820	-99.084719
0.250000	-31.653361	-102.546988	-0.021621	-12.209606	-0.021621	-12.209606	-31.649536	-101.647222
0.300000	-30.091440	-105.229332	-0.025823	-14.637555	-0.025823	-14.637555	-30.088185	-104.145253
0.350000	-28.776696	-107.875549	-0.030248	-17.064051	-0.030248	-17.064051	-28.773845	-106.608826
0.400000	-27.644130	-110.500481	-0.034859	-19.488973	-0.034859	-19.488973	-27.641531	-109.051497
0.450000	-26.651826	-113.110566	-0.039616	-21.912297	-0.039616	-21.912297	-26.649375	-111.479038
0.500000	-25.770647	-115.709673	-0.044485	-24.334167	-0.044485	-24.334167	-25.768288	-113.894934
0.550000	-24.979857	-118.299828	-0.049443	-26.754744	-0.049443	-26.754744	-24.977566	-116.300955
0.600000	-24.264146	-120.882277	-0.054478	-29.174192	-0.054478	-29.174192	-24.261922	-118.698136
0.650000	-23.612028	-123.457779	-0.059589	-31.592651	-0.059589	-31.592651	-23.609889	-121.087012
0.700000	-23.014360	-126.027061	-0.064779	-34.010266	-0.064779	-34.010266	-23.012336	-123.468124
0.750000	-22.463790	-128.590764	-0.070053	-36.427153	-0.070053	-36.427153	-22.461922	-125.841948
0.800000	-21.954476	-131.149392	-0.075418	-38.843394	-0.075418	-38.843394	-21.952806	-128.208811
0.850000	-21.481937	-133.703281	-0.080885	-41.259023	-0.080885	-41.259023	-21.480514	-130.568793
0.900000	-21.041745	-136.253151	-0.086457	-43.674103	-0.086457	-43.674103	-21.040615	-132.922550
0.950000	-20.630710	-138.799413	-0.092140	-46.088641	-0.092140	-46.088641	-20.629916	-135.270294
1.000000	-20.245984	-141.342569	-0.097936	-48.502644	-0.097936	-48.502644	-20.245564	-137.612380
1.050000	-19.885126	-143.883127	-0.103845	-50.916112	-0.103845	-50.916112	-19.885113	-139.949184
1.100000	-19.546029	-146.421599	-0.109864	-53.329040	-0.109864	-53.329040	-19.546448	-142.281098
1.150000	-19.226861	-148.958490	-0.115989	-55.741428	-0.115989	-55.741428	-19.227731	-144.608529
1.200000	-18.926019	-151.494299	-0.122214	-58.153276	-0.122214	-58.153276	-18.927348	-146.931894
1.250000	-18.642089	-154.029511	-0.128528	-60.564593	-0.128528	-60.564593	-18.643881	-149.251612
1.300000	-18.373966	-156.564593	-0.134924	-62.975388	-0.134924	-62.975388	-18.376216	-151.568039
1.350000	-18.120382	-159.099995	-0.141389	-65.385700	-0.141389	-65.385700	-18.123078	-153.881664
1.400000	-17.880338	-161.636117	-0.147911	-67.795568	-0.147911	-67.795568	-17.883465	-156.192878
1.450000	-17.652933	-164.173326	-0.154477	-70.205044	-0.154477	-70.205044	-17.656474	-158.502052
1.500000	-17.437353	-166.711945	-0.161076	-72.614190	-0.161076	-72.614190	-17.441288	-160.809531
1.550000	-17.232854	-169.252258	-0.167696	-75.023081	-0.167696	-75.023081	-17.237166	-163.115626
1.600000	-17.038754	-171.794500	-0.174326	-77.431800	-0.174326	-77.431800	-17.043428	-165.420616
1.650000	-16.854425	-174.338862	-0.180955	-79.840442	-0.180955	-79.840442	-16.859451	-167.724738
1.700000	-16.679283	-176.885489	-0.187574	-82.249107	-0.187574	-82.249107	-16.684658	-170.028192
1.750000	-16.512781	-179.434478	-0.194176	-84.657906	-0.194176	-84.657906	-16.518509	-172.331137
1.800000	-16.354406	178.014117	-0.200752	-87.066952	-0.200752	-87.066952	-16.360500	-174.633692
1.850000	-16.203670	175.460283	-0.207299	-89.476367	-0.207299	-89.476367	-16.210153	-176.935940
1.900000	-16.060158	172.904023	-0.213812	-91.886279	-0.213812	-91.886279	-16.067062	-179.237927
1.950000	-15.923416	170.345404	-0.220289	-94.296818	-0.220289	-94.296818	-15.930783	178.460327
2.000000	-15.792963	167.784551	-0.226729	-96.708103	-0.226729	-96.708103	-15.800841	176.158825
2.050000	-15.668380	165.221590	-0.233133	-99.120260	-0.233133	-99.120260	-15.676826	173.857587
2.100000	-15.549260	162.656672	-0.239504	-101.533413	-0.239504	-101.533413	-15.558333	171.556642
2.150000	-15.435204	160.089968	-0.245844	-103.947683	-0.245844	-103.947683	-15.444968	169.256017
2.200000	-15.325820	157.521662	-0.252159	-106.363187	-0.252159	-106.363187	-15.336339	166.955733
2.250000	-15.220723	154.951953	-0.258454	-108.780042	-0.258454	-108.780042	-15.232058	164.655794
2.300000	-15.119532	152.381048	-0.264737	-111.198356	-0.264737	-111.198356	-15.131742	162.356180
2.350000	-15.021872	149.809157	-0.271015	-113.618236	-0.271015	-113.618236	-15.035008	160.056839
2.400000	-14.927371	147.236494	-0.277297	-116.039782	-0.277297	-116.039782	-14.941478	157.757683
2.450000	-14.835664	144.663271	-0.283593	-118.463089	-0.283593	-118.463089	-14.850775	155.458581
2.500000	-14.746390	142.089700	-0.289913	-120.888248	-0.289913	-120.888248	-14.762528	153.159354
2.550000	-14.659209	139.515990	-0.296268	-123.315388	-0.296268	-123.315388	-14.676386	150.859762
2.600000	-14.573739	136.942351	-0.302670	-125.744548	-0.302670	-125.744548	-14.591954	148.559529
2.650000	-14.489637	134.368981	-0.309130	-128.175801	-0.309130	-128.175801	-14.508876	146.258326
2.700000	-14.406566	131.796074	-0.315661	-130.609217	-0.315661	-130.609217	-14.426804	143.955778
2.750000	-14.324197	129.223816	-0.322274	-133.044860	-0.322274	-133.044860	-14.345400	141.651470
2.800000	-14.242212	126.652393	-0.328984	-135.482791	-0.328984	-135.482791	-14.264335	139.344944
2.850000	-14.160301	124.081985	-0.335802	-137.923064	-0.335802	-137.923064	-14.183293	137.035716
2.900000	-14.078167	121.512772	-0.342742	-140.365730	-0.342742	-140.365730	-14.101972	134.723272
2.950000	-13.995525	118.944930	-0.349818	-142.810838	-0.349818	-142.810838	-14.020081	132.407083
3.000000	-13.912103	116.378637	-0.357043	-145.258431	-0.357043	-145.258431	-13.937347	130.086609
3.050000	-13.827642	113.814070	-0.364430	-147.708549	-0.364430	-147.708549	-13.853512	127.761310
3.100000	-13.741900	111.251409	-0.371995	-150.161231	-0.371995	-150.161231	-13.768335	125.430650
3.150000	-13.654620	108.690858	-0.379753	-152.616538	-0.379753	-152.616538	-13.681562	123.094040
3.200000	-13.565586	106.132609	-0.387719	-155.074503	-0.387719	-155.074503	-13.592980	120.750962
3.250000	-13.474631	103.576822	-0.395906	-157.535127	-0.395906	-157.535127	-13.502428	118.401013
3.300000	-13.381582	101.023685	-0.404329	-159.998436	-0.404329	-159.998436	-13.409740	116.043758
3.350000	-13.286083	98.473563	-0.413017	-162.464612	-0.413017	-162.464612	-13.314562	113.678336
3.400000	-13.188386	95.926309	-0.421959	-164.933367	-0.421959	-164.933367	-13.217156	111.305299
3.450000	-13.088249	93.382217	-0.431178	-167.404829	-0.431178	-167.404829	-13.117283	108.924050
3.500000	-12.985583	90.841466	-0.440691	-169.879013	-0.440691	-169.879013	-13.014859	106.534347
3.550000	-12.880317	88.304228	-0.450513	-172.355935	-0.450513	-172.355935	-12.909818	104.135998
3.600000	-12.771953	85.771099	-0.460697	-174.835911	-0.460697	-174.835911	-12.801660	101.727879
3.650000	-12.660865	83.241870	-0.471229	-177.318667	-0.471229	-177.318667	-12.690763	99.310814
3.700000	-12.547069	80.716670	-0.482122	-179.804195	-0.482122	-179.804195	-12.577146	96.884827
3.750000	-12.430577	78.195636	-0.493396	177.707496	-0.493396	177.707496	-12.460816	94.449933
3.800000	-12.311417	75.678898	-0.505067	175.216399	-0.505067	175.216399	-12.341802	92.006195
3.850000	-12.189638	73.166565	-0.517153	172.722506	-0.517153	172.722506	-12.220149	89.553718
3.900000	-12.065125	70.658933	-0.529692	170.225687	-0.529692	170.225687	-12.095737	87.092287
3.950000	-11.937836	68.156227	-0.542717	167.725842	-0.542717	167.725842	-11.968519	84.621858
4.000000	-11.808200	65.658169	-0.556217	165.223162	-0.556217	165.223162	-11.838920	82.143289
4.050000	-11.676349	63.164793	-0.570211	162.717620	-0.570211	162.717620	-11.707066	79.656835
4.100000	-11.542432	60.676111	-0.584717	160.209181	-0.584717	160.209181	-11.573102	77.162778
4.150000	-11.406625	58.192113	-0.599754	157.697789	-0.599754	157.697789	-11.437195	74.661422
4.200000	-11.269123	55.712766	-0.615341	155.183367	-0.615341	155.183367	-11.299539	72.153091
4.250000	-11.129913	53.238331	-0.631535	152.665573	-0.631535	152.665573	-11.160107	69.637689
4.300000	-10.989464	50.768487	-0.648326	150.144376	-0.648326	150.144376	-11.019368	67.115941
4.350000	-10.848156	48.303052	-0.665723	147.619573	-0.665723	147.619573	-10.877695	64.588341
4.400000	-10.706287	45.842034	-0.683761	145.090655	-0.683761	145.090655	-10.735379	62.055129
4.450000	-10.564349	43.385308	-0.702457	142.557007	-0.702457	142.557007	-10.592904	59.516758
4.500000	-10.423005	40.932658	-0.721814	140.017872	-0.721814	140.017872	-10.450928	56.973860
4.550000	-10.283025	38.484124	-0.741863	137.471821	-0.741863	137.471821	-10.310210	54.426988
4.600000	-10.145582	36.040076	-0.762666	134.916299	-0.762666	134.916299	-10.171897	51.876959
4.650000	-10.012379	33.601136	-0.784264	132.348063	-0.784264	132.348063	-10.037671	49.325482
4.700000	-9.886083	31.169556	-0.806810	129.761043	-0.806810	129.761043	-9.910145	46.775650
4.750000	-9.772269	28.752985	-0.830793	127.141690	-0.830793	127.141690	-9.794760	44.235969
4.800000	-9.680982	26.373496	-0.857464	124.465877	-0.857464	124.465877	-9.701304	41.730258
4.850000	-9.633647	24.106046	-0.890996	121.681165	-0.890996	121.681165	-9.650531	39.335601
4.900000	-9.695271	22.375829	-0.954418	118.627062	-0.954418	118.627062	-9.704705	37.477836
4.950000	-9.850059	24.280947	-1.215403	115.244480	-1.215403	115.244480	-9.838368	39.183884
5.000000	-8.366969	24.144029	-1.439103	116.166846	-1.439103	116.166846	-8.376230	38.683563
5.050000	-8.162170	17.097144	-1.163076	113.920708	-1.163076	113.920708	-8.184214	31.566346
5.100000	-8.143579	13.424758	-1.110078	111.049118	-1.110078	111.049118	-8.165860	27.777879
5.150000	-8.074085	10.564286	-1.110731	108.326726	-1.110731	108.326726	-8.095275	24.777703
5.200000	-7.977872	7.938813	-1.126833	105.685933	-1.126833	105.685933	-7.997822	22.003146
5.250000	-7.866546	5.421561	-1.150233	103.094938	-1.150233	103.094938	-7.885263	19.331541
5.300000	-7.746722	2.962207	-1.177751	100.536313	-1.177751	100.536313	-7.764247	16.714699
5.350000	-7.623182	0.532713	-1.207563	97.997045	-1.207563	97.997045	-7.639555	14.126157
5.400000	-7.497638	-1.875096	-1.239155	95.473381	-1.239155	95.473381	-7.512899	11.558410
5.450000	-7.371456	-4.266994	-1.272141	92.962300	-1.272141	92.962300	-7.385641	9.006276
5.500000	-7.245477	-6.645350	-1.306357	90.462876	-1.306357	90.462876	-7.258620	6.467914
5.550000	-7.120504	-9.013114	-1.341558	87.973236	-1.341558	87.973236	-7.132638	3.940787
5.600000	-6.997024	-11.371695	-1.377608	85.492540	-1.377608	85.492540	-7.008180	1.423807
5.650000	-6.875384	-13.721796	-1.414411	83.020453	-1.414411	83.020453	-6.885591	-1.083444
5.700000	-6.755861	-16.063857	-1.451888	80.556806	-1.451888	80.556806	-6.765147	-3.581152
5.750000	-6.638679	-18.398140	-1.489964	78.101537	-1.489964	78.101537	-6.647071	-6.069356
5.800000	-6.524050	-20.724604	-1.528576	75.654865	-1.528576	75.654865	-6.531575	-8.547760
5.850000	-6.412236	-23.042799	-1.567665	73.217435	-1.567665	73.217435	-6.418919	-11.015573
5.900000	-6.303265	-25.353419	-1.607131	70.788572	-1.607131	70.788572	-6.309128	-13.473515
5.950000	-6.197241	-27.656423	-1.646905	68.368388	-1.646905	68.368388	-6.202306	-15.921408
6.000000	-6.094251	-29.951749	-1.686918	65.957002	-1.686918	65.957002	-6.098538	-18.359071
6.050000	-5.994368	-32.239324	-1.727098	63.554533	-1.727098	63.554533	-5.997896	-20.786324
6.100000	-5.897655	-34.519069	-1.767372	61.161093	-1.767372	61.161093	-5.900443	-23.202998
6.150000	-5.804333	-36.790321	-1.807649	58.777463	-1.807649	58.777463	-5.806396	-25.608136
6.200000	-5.714391	-39.053245	-1.847846	56.403462	-1.847846	56.403462	-5.715744	-28.001913
6.250000	-5.627766	-41.308125	-1.887894	54.038764	-1.887894	54.038764	-5.628423	-30.384680
6.300000	-5.544485	-43.554920	-1.927715	51.683418	-1.927715	51.683418	-5.544459	-32.756348
6.350000	-5.464566	-45.793606	-1.967227	49.337452	-1.967227	49.337452	-5.463871	-35.116854
6.400000	-5.388026	-48.024179	-2.006351	47.000871	-2.006351	47.000871	-5.386673	-37.466163
6.450000	-5.314892	-50.246606	-2.044999	44.673714	-2.044999	44.673714	-5.312892	-39.804196
6.500000	-5.245471	-52.460096	-2.083006	42.356904	-2.083006	42.356904	-5.242837	-42.129811
6.550000	-5.179462	-54.665614	-2.120360	40.049331	-2.120360	40.049331	-5.176205	-44.444300
6.600000	-5.116866	-56.863254	-2.156980	37.750896	-2.156980	37.750896	-5.112997	-46.747746
6.650000	-5.057683	-59.053140	-2.192781	35.461472	-2.192781	35.461472	-5.053214	-49.040261
6.700000	-5.002094	-61.234981	-2.227615	33.181416	-2.227615	33.181416	-4.997035	-51.321359
6.750000	-4.949878	-63.409511	-2.261473	30.909897	-2.261473	30.909897	-4.944243	-53.591996
6.800000	-4.901126	-65.576718	-2.294239	28.646959	-2.294239	28.646959	-4.894926	-55.852061
6.850000	-4.855838	-67.736843	-2.325830	26.392352	-2.325830	26.392352	-4.849087	-58.101788
6.900000	-4.813589	-69.891004	-2.356351	24.144790	-2.356351	24.144790	-4.806298	-60.342715
6.950000	-4.775273	-72.037688	-2.385337	21.906114	-2.385337	21.906114	-4.767456	-62.572434
7.000000	-4.740437	-74.178182	-2.412901	19.674846	-2.412901	19.674846	-4.732107	-64.792688
7.050000	-4.709091	-76.312839	-2.438965	17.450625	-2.438965	17.450625	-4.700261	-67.003818
7.100000	-4.681248	-78.442037	-2.463452	15.233056	-2.463452	15.233056	-4.671932	-69.206191
7.150000	-4.656925	-80.566178	-2.486289	13.021722	-2.486289	13.021722	-4.647136	-71.400197
7.200000	-4.636145	-82.685690	-2.507403	10.816174	-2.507403	10.816174	-4.625895	-73.586248
7.250000	-4.618932	-84.801025	-2.526724	8.615940	-2.526724	8.615940	-4.608233	-75.764778
7.300000	-4.605318	-86.912659	-2.544186	6.420518	-2.544186	6.420518	-4.594181	-77.936242
7.350000	-4.595341	-89.021091	-2.559724	4.229382	-2.559724	4.229382	-4.583776	-80.101115
7.400000	-4.589043	-91.126842	-2.573278	2.041981	-2.573278	2.041981	-4.577059	-82.259891
7.450000	-4.586474	-93.230455	-2.584789	-0.142263	-2.584789	-0.142263	-4.574079	-84.413081
7.500000	-4.587692	-95.332495	-2.594203	-2.323951	-2.594203	-2.323951	-4.574891	-86.561216
7.550000	-4.592847	-97.433542	-2.601420	-4.503683	-2.601420	-4.503683	-4.579644	-88.704759
7.600000	-4.601929	-99.534240	-2.606439	-6.682167	-2.606439	-6.682167	-4.588328	-90.844383
7.650000	-4.615022	-101.635220	-2.609217	-8.860078	-2.609217	-8.860078	-4.601021	-92.980670
7.700000	-4.632217	-103.737133	-2.609713	-11.038114	-2.609713	-11.038114	-4.617815	-95.114215
7.750000	-4.653617	-105.840653	-2.607893	-13.216997	-2.607893	-13.216997	-4.638809	-97.245629
7.800000	-4.679334	-107.946472	-2.603726	-15.397468	-2.603726	-15.397468	-4.664113	-99.375536
7.850000	-4.709495	-110.055307	-2.597185	-17.580293	-2.597185	-17.580293	-4.693851	-101.504572
7.900000	-4.744237	-112.167895	-2.588250	-19.766256	-2.588250	-19.766256	-4.728157	-103.633390
7.950000	-4.783712	-114.284994	-2.576903	-21.956164	-2.576903	-21.956164	-4.767182	-105.762649
8.000000	-4.828088	-116.407385	-2.563134	-24.150842	-2.563134	-24.150842	-4.811089	-107.893022
8.050000	-4.877547	-118.535871	-2.546938	-26.351135	-2.546938	-26.351135	-4.860059	-110.025192
8.100000	-4.932291	-120.671279	-2.528315	-28.557907	-2.528315	-28.557907	-4.914290	-112.159849
8.150000	-4.992596	-122.814551	-2.507245	-30.772128	-2.507245	-30.772128	-4.974057	-114.297731
8.200000	-5.058712	-124.966589	-2.483740	-32.994727	-2.483740	-32.994727	-5.039603	-116.439562
8.250000	-5.130846	-127.128206	-2.457849	-35.226538	-2.457849	-35.226538	-5.111137	-118.586011
8.300000	-5.209288	-129.300319	-2.429599	-37.468489	-2.429599	-37.468489	-5.188945	-120.737778
8.350000	-5.294534	-131.484232	-2.398954	-39.721872	-2.398954	-39.721872	-5.273518	-122.895752
8.400000	-5.386302	-133.679612	-2.366203	-41.986378	-2.366203	-41.986378	-5.364576	-125.059913
8.450000	-5.485946	-135.889482	-2.331028	-44.264949	-2.331028	-44.264949	-5.463464	-127.232045
8.500000	-5.593019	-138.112982	-2.293804	-46.556743	-2.293804	-46.556743	-5.569737	-129.411764
8.550000	-5.708493	-140.352280	-2.254424	-48.863843	-2.254424	-48.863843	-5.684363	-131.600319
8.600000	-5.832744	-142.608108	-2.213008	-51.186929	-2.213008	-51.186929	-5.807712	-133.798112
8.650000	-5.966043	-144.880855	-2.169729	-53.526333	-2.169729	-53.526333	-5.940053	-136.005294
8.700000	-6.109737	-147.173335	-2.124482	-55.884712	-2.124482	-55.884712	-6.082726	-138.223278
8.750000	-6.263274	-149.483635	-2.077687	-58.260168	-2.077687	-58.260168	-6.235177	-140.450825
8.800000	-6.429160	-151.817144	-2.029058	-60.657782	-2.029058	-60.657782	-6.399896	-142.690464
8.850000	-6.606409	-154.170443	-1.979118	-63.074210	-1.979118	-63.074210	-6.575895	-144.940022
8.900000	-6.797311	-156.547996	-1.927745	-65.513603	-1.927745	-65.513603	-6.765445	-147.201141
8.950000	-7.001984	-158.948578	-1.875249	-67.974712	-1.875249	-67.974712	-6.968653	-149.472546
9.000000	-7.221926	-161.374110	-1.821741	-70.459250	-1.821741	-70.459250	-7.186992	-151.754166
9.050000	-7.458609	-163.826028	-1.767380	-72.968464	-1.767380	-72.968464	-7.421904	-154.045417
9.100000	-7.712599	-166.303186	-1.712439	-75.501196	-1.712439	-75.501196	-7.673928	-156.344509
9.150000	-7.987016	-168.810077	-1.657010	-78.061534	-1.657010	-78.061534	-7.946119	-158.650861
9.200000	-8.281605	-171.342596	-1.601426	-80.645596	-1.601426	-80.645596	-8.238187	-160.961420
9.250000	-8.600760	-173.906908	-1.545838	-83.259011	-1.545838	-83.259011	-8.554408	-163.273986
9.300000	-8.944597	-176.498490	-1.490529	-85.897554	-1.490529	-85.897554	-8.894833	-165.584915
9.350000	-9.317269	-179.121171	-1.435755	-88.564713	-1.435755	-88.564713	-9.263442	-167.889195
9.400000	-9.721059	178.226514	-1.381764	-91.259118	-1.381764	-91.259118	-9.662352	-170.181500
9.450000	-10.159486	175.544438	-1.328826	-93.980876	-1.328826	-93.980876	-10.094837	-172.454405
9.500000	-10.637601	172.830872	-1.277277	-96.731568	-1.277277	-96.731568	-10.565573	-174.696902
9.550000	-11.158582	170.089458	-1.227261	-99.507833	-1.227261	-99.507833	-11.077378	-176.901109
9.600000	-11.731088	167.315284	-1.179338	-102.314116	-1.179338	-102.314116	-11.638070	-179.042066
9.650000	-12.359370	164.514419	-1.133457	-105.144723	-1.133457	-105.144723	-12.251254	178.888154
9.700000	-13.055190	161.682122	-1.090284	-108.003623	-1.090284	-108.003623	-12.927024	176.933727
9.750000	-13.827905	158.822515	-1.049785	-110.886523	-1.049785	-110.886523	-13.673058	175.116032
9.800000	-14.693544	155.933157	-1.012459	-113.794384	-1.012459	-113.794384	-14.502013	173.501112
9.850000	-15.671759	153.013606	-0.978526	-116.725602	-0.978526	-116.725602	-15.428578	172.160494
9.900000	-16.789466	150.062472	-0.948126	-119.678007	-0.948126	-119.678007	-16.471476	171.193363
9.950000	-18.087730	147.070376	-0.921870	-122.652159	-0.921870	-122.652159	-17.655172	170.822999
10.000000	-19.625659	144.032516	-0.899384	-125.643434	-0.899384	-125.643434	-19.012471	171.211816
