! freq	dB(S11)	phase(S11)	dB(S12)	phase(S12)	
!     	dB(S21)	phase(S21)	dB(S22)	phase(S22)	
!S-par simulation data
#  GHz  S  DB  R 50
0.000000	-87.938982	0.000000	-0.000348	0.000000	-0.000348	0.000000	-87.938982	0.000000
0.050000	-31.812976	-93.151925	-0.005972	-2.943176	-0.005972	-2.943176	-31.816407	-92.854984
0.100000	-25.821245	-96.341999	-0.020201	-5.859847	-0.020201	-5.859847	-25.818645	-95.821777
0.150000	-22.334491	-99.458549	-0.039774	-8.751240	-0.039774	-8.751240	-22.332003	-98.719778
0.200000	-19.878633	-102.541273	-0.063768	-11.625589	-0.063768	-11.625589	-19.878515	-101.565928
0.250000	-17.991405	-105.593811	-0.092219	-14.486478	-0.092219	-14.486478	-17.993464	-104.366824
0.300000	-16.466464	-108.615347	-0.125254	-17.333546	-0.125254	-17.333546	-16.469636	-107.128578
0.350000	-15.193325	-111.605602	-0.162856	-20.164912	-0.162856	-20.164912	-15.196489	-109.856461
0.400000	-14.105622	-114.565272	-0.204855	-22.978453	-0.204855	-22.978453	-14.107941	-112.554371
0.450000	-13.160967	-117.494676	-0.251097	-25.771611	-0.251097	-25.771611	-13.161933	-115.223966
0.500000	-12.329797	-120.395021	-0.301266	-28.542582	-0.301266	-28.542582	-12.329214	-117.866501
0.550000	-11.591262	-123.266945	-0.355070	-31.289537	-0.355070	-31.289537	-11.589151	-120.482019
0.600000	-10.930049	-126.110765	-0.412210	-34.010757	-0.412210	-34.010757	-10.926572	-123.069942
0.650000	-10.334095	-128.927224	-0.472312	-36.705355	-0.472312	-36.705355	-10.329495	-125.630048
0.700000	-9.794455	-131.716213	-0.535068	-39.371994	-0.535068	-39.371994	-9.789008	-128.161296
0.750000	-9.303611	-134.478166	-0.600110	-42.010192	-0.600110	-42.010192	-9.297597	-130.663313
0.800000	-8.855574	-137.213305	-0.667098	-44.619511	-0.667098	-44.619511	-8.849253	-133.135622
0.850000	-8.445625	-139.921496	-0.735704	-47.199307	-0.735704	-47.199307	-8.439234	-135.577446
0.900000	-8.069356	-142.603456	-0.805585	-49.750008	-0.805585	-49.750008	-8.063092	-137.989065
0.950000	-7.723429	-145.259259	-0.876426	-52.271434	-0.876426	-52.271434	-7.717457	-140.370098
1.000000	-7.404928	-147.889180	-0.947919	-54.763685	-0.947919	-54.763685	-7.399378	-142.720438
1.050000	-7.111147	-150.493932	-1.019766	-57.227400	-1.019766	-57.227400	-7.106115	-145.040541
1.100000	-6.839842	-153.074105	-1.091687	-59.663099	-1.091687	-59.663099	-6.835393	-147.330756
1.150000	-6.589045	-155.630375	-1.163417	-62.071416	-1.163417	-62.071416	-6.585215	-149.591562
1.200000	-6.357019	-158.163503	-1.234707	-64.453077	-1.234707	-64.453077	-6.353821	-151.823578
1.250000	-6.142226	-160.674327	-1.305321	-66.808891	-1.305321	-66.808891	-6.139645	-154.027565
1.300000	-5.943409	-163.163535	-1.375022	-69.139476	-1.375022	-69.139476	-5.941401	-156.204174
1.350000	-5.759219	-165.632344	-1.443621	-71.446053	-1.443621	-71.446053	-5.757691	-158.354876
1.400000	-5.588557	-168.081787	-1.510929	-73.729610	-1.510929	-73.729610	-5.587320	-160.481159
1.450000	-5.430436	-170.512942	-1.576771	-75.991175	-1.576771	-75.991175	-5.429053	-162.584844
1.500000	-5.284196	-172.926497	-1.640928	-78.231266	-1.640928	-78.231266	-5.281530	-164.666458
1.550000	-5.148600	-175.324436	-1.703357	-80.451978	-1.703357	-80.451978	-5.142439	-166.720865
1.600000	-5.023113	-177.707576	-1.763882	-82.653955	-1.763882	-82.653955	-5.012349	-168.728777
1.650000	-4.907075	179.922869	-1.822381	-84.838311	-1.822381	-84.838311	-4.895143	-170.697898
1.700000	-4.799883	177.565661	-1.878746	-87.006166	-1.878746	-87.006166	-4.789492	-172.657920
1.750000	-4.700991	175.219546	-1.932881	-89.158644	-1.932881	-89.158644	-4.692122	-174.610009
1.800000	-4.609902	172.883258	-1.984700	-91.296869	-1.984700	-91.296869	-4.601942	-176.547957
1.850000	-4.526161	170.555517	-2.034126	-93.421959	-2.034126	-93.421959	-4.518603	-178.469335
1.900000	-4.449420	168.235103	-2.081065	-95.534909	-2.081065	-95.534909	-4.441896	179.626373
1.950000	-4.379294	165.920677	-2.125460	-97.636860	-2.125460	-97.636860	-4.371533	177.738729
2.000000	-4.315373	163.610866	-2.167294	-99.729034	-2.167294	-99.729034	-4.307167	175.866873
2.050000	-4.257345	161.304370	-2.206527	-101.812510	-2.206527	-101.812510	-4.248525	174.010053
2.100000	-4.204926	158.999886	-2.243130	-103.888353	-2.243130	-103.888353	-4.195346	172.167509
2.150000	-4.157856	156.696113	-2.277080	-105.957614	-2.277080	-105.957614	-4.147392	170.338488
2.200000	-4.115900	154.391748	-2.308361	-108.021326	-2.308361	-108.021326	-4.104439	168.522261
2.250000	-4.078843	152.085488	-2.336964	-110.080508	-2.336964	-110.080508	-4.066285	166.718128
2.300000	-4.046490	149.776029	-2.362887	-112.136159	-2.362887	-112.136159	-4.032742	164.925420
2.350000	-4.018665	147.462070	-2.386134	-114.189261	-2.386134	-114.189261	-4.003642	163.143500
2.400000	-3.995207	145.142306	-2.406715	-116.240778	-2.406715	-116.240778	-3.978831	161.371767
2.450000	-3.975972	142.815437	-2.424647	-118.291655	-2.424647	-118.291655	-3.958170	159.609656
2.500000	-3.960830	140.480158	-2.439951	-120.342819	-2.439951	-120.342819	-3.941532	157.856637
2.550000	-3.949747	138.134926	-2.452597	-122.395221	-2.452597	-122.395221	-3.928888	156.112396
2.600000	-3.942530	135.778620	-2.462677	-124.449742	-2.462677	-124.449742	-3.920048	154.376286
2.650000	-3.939086	133.409935	-2.470227	-126.507246	-2.470227	-126.507246	-3.914923	152.647898
2.700000	-3.939331	131.027567	-2.475291	-128.568576	-2.475291	-128.568576	-3.913430	150.926863
2.750000	-3.943191	128.630210	-2.477916	-130.634556	-2.477916	-130.634556	-3.915497	149.212854
2.800000	-3.950601	126.216559	-2.478154	-132.705986	-2.478154	-132.705986	-3.921059	147.505588
2.850000	-3.961503	123.785308	-2.476063	-134.783645	-2.476063	-134.783645	-3.930057	145.804825
2.900000	-3.975846	121.335149	-2.471703	-136.868287	-2.471703	-136.868287	-3.942441	144.110372
2.950000	-3.993585	118.864777	-2.465141	-138.960645	-2.465141	-138.960645	-3.958163	142.422081
3.000000	-4.014680	116.372887	-2.456448	-141.061425	-2.456448	-141.061425	-3.977181	140.739851
3.050000	-4.039098	113.858175	-2.445697	-143.171307	-2.445697	-143.171307	-3.999456	139.063631
3.100000	-4.066806	111.319340	-2.432968	-145.290947	-2.432968	-145.290947	-4.024954	137.393417
3.150000	-4.097810	108.754795	-2.418325	-147.421090	-2.418325	-147.421090	-4.053672	135.729324
3.200000	-4.132083	106.163204	-2.401856	-149.562353	-2.401856	-149.562353	-4.085578	134.071456
3.250000	-4.169565	103.543560	-2.383674	-151.715188	-2.383674	-151.715188	-4.120603	132.419902
3.300000	-4.210231	100.894591	-2.363875	-153.880128	-2.363875	-153.880128	-4.158715	130.774867
3.350000	-4.254056	98.215034	-2.342556	-156.057673	-2.342556	-156.057673	-4.199878	129.136609
3.400000	-4.301012	95.503643	-2.319820	-158.248290	-2.319820	-158.248290	-4.244052	127.505437
3.450000	-4.351069	92.759193	-2.295772	-160.452406	-2.295772	-160.452406	-4.291195	125.881712
3.500000	-4.404192	89.980476	-2.270521	-162.670414	-2.270521	-162.670414	-4.341260	124.265842
3.550000	-4.460342	87.166316	-2.244178	-164.902666	-2.244178	-164.902666	-4.394190	122.658286
3.600000	-4.519472	84.315566	-2.216858	-167.149474	-2.216858	-167.149474	-4.449925	121.059545
3.650000	-4.581527	81.427119	-2.188675	-169.411107	-2.188675	-169.411107	-4.508393	119.470164
3.700000	-4.646445	78.499909	-2.159748	-171.687792	-2.159748	-171.687792	-4.569512	117.890723
3.750000	-4.714150	75.532922	-2.130198	-173.979707	-2.130198	-173.979707	-4.633191	116.321837
3.800000	-4.784600	72.524297	-2.100134	-176.287325	-2.100134	-176.287325	-4.699362	114.764402
3.850000	-4.857644	69.474016	-2.069695	-178.610397	-2.069695	-178.610397	-4.767858	113.218850
3.900000	-4.933165	66.381275	-2.039003	179.051042	-2.039003	179.051042	-4.838544	111.685846
3.950000	-5.011030	63.245356	-2.008179	176.697005	-2.008179	176.697005	-4.911267	110.166058
4.000000	-5.091088	60.065644	-1.977347	174.327558	-1.977347	174.327558	-4.985856	108.660136
4.050000	-5.173168	56.841636	-1.946625	171.942814	-1.946625	171.942814	-5.062123	107.168708
4.100000	-5.257079	53.572954	-1.916134	169.542936	-1.916134	169.542936	-5.139860	105.692357
4.150000	-5.342608	50.259361	-1.885990	167.128140	-1.885990	167.128140	-5.218839	104.231611
4.200000	-5.429521	46.900776	-1.856307	164.698686	-1.856307	164.698686	-5.298812	102.786925
4.250000	-5.517559	43.497292	-1.827195	162.254886	-1.827195	162.254886	-5.379513	101.358659
4.300000	-5.606444	40.049186	-1.798763	159.797096	-1.798763	159.797096	-5.460655	99.947063
4.350000	-5.695871	36.556944	-1.771112	157.325719	-1.771112	157.325719	-5.541932	98.552255
4.400000	-5.785504	33.020813	-1.744349	154.841061	-1.744349	154.841061	-5.623008	97.174384
4.450000	-5.874987	29.441779	-1.718571	152.343626	-1.718571	152.343626	-5.703534	95.813231
4.500000	-5.963963	25.821536	-1.693854	149.834080	-1.693854	149.834080	-5.783171	94.468207
4.550000	-6.052051	22.161573	-1.670278	147.312983	-1.670278	147.312983	-5.861556	93.138697
4.600000	-6.138919	18.464544	-1.647886	144.781177	-1.647886	144.781177	-5.938389	91.823527
4.650000	-6.224069	14.730870	-1.626794	142.238805	-1.626794	142.238805	-6.013196	90.522262
4.700000	-6.307123	10.963549	-1.607044	139.686691	-1.607044	139.686691	-6.085644	89.233336
4.750000	-6.387651	7.165108	-1.588693	137.125451	-1.588693	137.125451	-6.155349	87.955221
4.800000	-6.465275	3.338781	-1.571774	134.555834	-1.571774	134.555834	-6.221987	86.686001
4.850000	-6.539604	-0.512186	-1.556322	131.978519	-1.556322	131.978519	-6.285225	85.423617
4.900000	-6.610214	-4.384456	-1.542380	129.394124	-1.542380	129.394124	-6.344705	84.165796
4.950000	-6.676875	-8.273782	-1.529927	126.803504	-1.529927	126.803504	-6.400261	82.909977
5.000000	-6.739194	-12.176512	-1.518998	124.207227	-1.518998	124.207227	-6.451571	81.653535
5.050000	-6.796767	-16.088561	-1.509631	121.605871	-1.509631	121.605871	-6.498310	80.393467
5.100000	-6.849447	-20.005285	-1.501789	119.000217	-1.501789	119.000217	-6.540399	79.126780
5.150000	-6.897029	-23.922228	-1.495460	116.390904	-1.495460	116.390904	-6.577702	77.850377
5.200000	-6.939351	-27.834872	-1.490629	113.778552	-1.490629	113.778552	-6.610123	76.561097
5.250000	-6.976300	-31.738683	-1.487271	111.163756	-1.487271	111.163756	-6.637612	75.255763
5.300000	-7.007814	-35.629164	-1.485357	108.547085	-1.485357	108.547085	-6.660162	73.931214
5.350000	-7.033878	-39.501907	-1.484854	105.929077	-1.484854	105.929077	-6.677806	72.584346
5.400000	-7.054524	-43.352632	-1.485722	103.310239	-1.485722	103.310239	-6.690621	71.212152
5.450000	-7.069835	-47.177240	-1.487919	100.691042	-1.487919	100.691042	-6.698720	69.811748
5.500000	-7.079931	-50.971844	-1.491397	98.071924	-1.491397	98.071924	-6.702247	68.380409
5.550000	-7.084975	-54.732813	-1.496109	95.453285	-1.496109	95.453285	-6.701382	66.915591
5.600000	-7.085163	-58.456791	-1.502001	92.835491	-1.502001	92.835491	-6.696328	65.414953
5.650000	-7.080674	-62.140258	-1.509032	90.218883	-1.509032	90.218883	-6.687267	63.875938
5.700000	-7.071768	-65.780395	-1.517145	87.603760	-1.517145	87.603760	-6.674451	62.296594
5.750000	-7.058763	-69.375248	-1.526273	84.990360	-1.526273	84.990360	-6.658177	60.675691
5.800000	-7.041945	-72.922754	-1.536360	82.378898	-1.536360	82.378898	-6.638706	59.011821
5.850000	-7.021603	-76.421174	-1.547351	79.769554	-1.547351	79.769554	-6.616306	57.303810
5.900000	-6.998032	-79.869085	-1.559190	77.162475	-1.559190	77.162475	-6.591240	55.550712
5.950000	-6.971526	-83.265365	-1.571826	74.557779	-1.571826	74.557779	-6.563771	53.751798
6.000000	-6.942372	-86.609183	-1.585207	71.955550	-1.585207	71.955550	-6.534155	51.906550
6.050000	-6.910849	-89.899976	-1.599282	69.355848	-1.599282	69.355848	-6.502639	50.014644
6.100000	-6.877225	-93.137435	-1.614004	66.758706	-1.614004	66.758706	-6.469459	48.075942
6.150000	-6.841750	-96.321479	-1.629328	64.164136	-1.629328	64.164136	-6.434838	46.090473
6.200000	-6.804663	-99.452245	-1.645212	61.572125	-1.645212	61.572125	-6.398988	44.058427
6.250000	-6.766180	-102.530058	-1.661617	58.982646	-1.661617	58.982646	-6.362103	41.980133
6.300000	-6.726474	-105.554297	-1.678515	56.395706	-1.678515	56.395706	-6.324346	39.855071
6.350000	-6.685758	-108.526786	-1.695863	53.811192	-1.695863	53.811192	-6.285909	37.684834
6.400000	-6.644188	-111.448339	-1.713631	51.229033	-1.713631	51.229033	-6.246941	35.470116
6.450000	-6.601901	-114.319897	-1.731791	48.649151	-1.731791	48.649151	-6.207578	33.211706
6.500000	-6.559015	-117.142522	-1.750322	46.071463	-1.750322	46.071463	-6.167941	30.910480
6.550000	-6.515628	-119.917382	-1.769202	43.495879	-1.769202	43.495879	-6.128137	28.567390
6.600000	-6.471822	-122.645743	-1.788414	40.922310	-1.788414	40.922310	-6.088261	26.183462
6.650000	-6.427659	-125.328962	-1.807945	38.350666	-1.807945	38.350666	-6.048396	23.759782
6.700000	-6.383190	-127.968482	-1.827783	35.780859	-1.827783	35.780859	-6.008612	21.297496
6.750000	-6.338452	-130.565824	-1.847919	33.212807	-1.847919	33.212807	-5.968970	18.797799
6.800000	-6.293471	-133.122579	-1.868348	30.646431	-1.868348	30.646431	-5.929522	16.261936
6.850000	-6.248265	-135.640401	-1.889065	28.081660	-1.889065	28.081660	-5.890310	13.691195
6.900000	-6.202840	-138.120619	-1.910072	25.518449	-1.910072	25.518449	-5.851370	11.086552
6.950000	-6.157204	-140.565052	-1.931370	22.956743	-1.931370	22.956743	-5.812730	8.449414
7.000000	-6.111369	-142.975899	-1.952957	20.396486	-1.952957	20.396486	-5.774412	5.781543
7.050000	-6.065339	-145.354982	-1.974838	17.837647	-1.974838	17.837647	-5.736430	3.084361
7.100000	-6.019124	-147.704132	-1.997017	15.280210	-1.997017	15.280210	-5.698798	0.359315
7.150000	-5.972734	-150.025177	-2.019501	12.724169	-2.019501	12.724169	-5.661523	-2.392126
7.200000	-5.926184	-152.319931	-2.042295	10.169535	-2.042295	10.169535	-5.624610	-5.168474
7.250000	-5.879494	-154.590182	-2.065406	7.616329	-2.065406	7.616329	-5.588062	-7.968229
7.300000	-5.832688	-156.837675	-2.088842	5.064587	-2.088842	5.064587	-5.551880	-10.789877
7.350000	-5.785796	-159.064106	-2.112609	2.514357	-2.112609	2.514357	-5.516064	-13.631898
7.400000	-5.738849	-161.271111	-2.136714	-0.034300	-2.136714	-0.034300	-5.480612	-16.492767
7.450000	-5.691885	-163.460262	-2.161163	-2.581310	-2.161163	-2.581310	-5.445523	-19.370962
7.500000	-5.644940	-165.633055	-2.185961	-5.126587	-2.185961	-5.126587	-5.410796	-22.264960
7.550000	-5.598051	-167.790625	-2.211119	-7.669993	-2.211119	-7.669993	-5.376433	-25.173527
7.600000	-5.551264	-169.934673	-2.236634	-10.211460	-2.236634	-10.211460	-5.342431	-28.094819
7.650000	-5.504616	-172.066471	-2.262506	-12.750870	-2.262506	-12.750870	-5.308787	-31.027353
7.700000	-5.458146	-174.187220	-2.288737	-15.288100	-2.288737	-15.288100	-5.275505	-33.969669
7.750000	-5.411889	-176.298058	-2.315324	-17.823020	-2.315324	-17.823020	-5.242585	-36.920330
7.800000	-5.365876	-178.400055	-2.342264	-20.355495	-2.342264	-20.355495	-5.210032	-39.877928
7.850000	-5.320139	179.505770	-2.369552	-22.885384	-2.369552	-22.885384	-5.177850	-42.841089
7.900000	-5.274703	177.418455	-2.397179	-25.412545	-2.397179	-25.412545	-5.146045	-45.808474
7.950000	-5.229590	175.337082	-2.425137	-27.936836	-2.425137	-27.936836	-5.114624	-48.778785
8.000000	-5.184820	173.260773	-2.453414	-30.458113	-2.453414	-30.458113	-5.083595	-51.750768
8.050000	-5.140409	171.188690	-2.481996	-32.976235	-2.481996	-32.976235	-5.052967	-54.723213
8.100000	-5.096371	169.120026	-2.510867	-35.491065	-2.510867	-35.491065	-5.022751	-57.694964
8.150000	-5.052717	167.054023	-2.540011	-38.002432	-2.540011	-38.002432	-4.992961	-60.664880
8.200000	-5.009456	164.989903	-2.569406	-40.510204	-2.569406	-40.510204	-4.963610	-63.631876
8.250000	-4.966592	162.926911	-2.599029	-43.014302	-2.599029	-43.014302	-4.934707	-66.594978
8.300000	-4.924130	160.864340	-2.628856	-45.514616	-2.628856	-45.514616	-4.906265	-69.553250
8.350000	-4.882068	158.801526	-2.658858	-48.011164	-2.658858	-48.011164	-4.878285	-72.506005
8.400000	-4.840419	156.737762	-2.689013	-50.503617	-2.689013	-50.503617	-4.850806	-75.452046
8.450000	-4.799181	154.672401	-2.719289	-52.992028	-2.719289	-52.992028	-4.823828	-78.390801
8.500000	-4.758354	152.604805	-2.749655	-55.476339	-2.749655	-55.476339	-4.797365	-81.321572
8.550000	-4.717942	150.534355	-2.780080	-57.956505	-2.780080	-57.956505	-4.771430	-84.243725
8.600000	-4.677946	148.460446	-2.810530	-60.432500	-2.810530	-60.432500	-4.746036	-87.156682
8.650000	-4.638372	146.382491	-2.840972	-62.904310	-2.840972	-62.904310	-4.721195	-90.059925
8.700000	-4.599224	144.299920	-2.871372	-65.371944	-2.871372	-65.371944	-4.696918	-92.952995
8.750000	-4.560507	142.212180	-2.901696	-67.835426	-2.901696	-67.835426	-4.673217	-95.835487
8.800000	-4.522235	140.118648	-2.931904	-70.294740	-2.931904	-70.294740	-4.650109	-98.706889
8.850000	-4.484413	138.018885	-2.961965	-72.750010	-2.961965	-72.750010	-4.627597	-101.567063
8.900000	-4.447054	135.912401	-2.991843	-75.201317	-2.991843	-75.201317	-4.605688	-104.415765
8.950000	-4.410170	133.798726	-3.021506	-77.648765	-3.021506	-77.648765	-4.584390	-107.252802
9.000000	-4.373778	131.677415	-3.050919	-80.092473	-3.050919	-80.092473	-4.563709	-110.078030
9.050000	-4.337897	129.548049	-3.080050	-82.532584	-3.080050	-82.532584	-4.543650	-112.891347
9.100000	-4.302548	127.410233	-3.108867	-84.969256	-3.108867	-84.969256	-4.524217	-115.692693
9.150000	-4.267754	125.263603	-3.137342	-87.402670	-3.137342	-87.402670	-4.505413	-118.482051
9.200000	-4.233545	123.107732	-3.165440	-89.832995	-3.165440	-89.832995	-4.487245	-121.259325
9.250000	-4.199950	120.942355	-3.193137	-92.260467	-3.193137	-92.260467	-4.469710	-124.024626
9.300000	-4.166997	118.767249	-3.220411	-94.685338	-3.220411	-94.685338	-4.452807	-126.778101
9.350000	-4.134742	116.581834	-3.247221	-97.107789	-3.247221	-97.107789	-4.436551	-129.519477
9.400000	-4.103180	114.386600	-3.273586	-99.528234	-3.273586	-99.528234	-4.420901	-132.249683
9.450000	-4.072361	112.181199	-3.299477	-101.946910	-3.299477	-101.946910	-4.405864	-134.968660
9.500000	-4.042366	109.964912	-3.324849	-104.364024	-3.324849	-104.364024	-4.391469	-137.675946
9.550000	-4.013155	107.738877	-3.349758	-106.780039	-3.349758	-106.780039	-4.377641	-140.373035
9.600000	-3.984859	105.501845	-3.374128	-109.195144	-3.374128	-109.195144	-4.364442	-143.058881
9.650000	-3.957507	103.254135	-3.397974	-111.609728	-3.397974	-111.609728	-4.351844	-145.734058
9.700000	-3.931139	100.995965	-3.421304	-114.024153	-3.421304	-114.024153	-4.339832	-148.398978
9.750000	-3.905804	98.727445	-3.444122	-116.438779	-3.444122	-116.438779	-4.328394	-151.053911
9.800000	-3.881557	96.448738	-3.466436	-118.853972	-3.466436	-118.853972	-4.317519	-153.699130
9.850000	-3.858450	94.160057	-3.488259	-121.270105	-3.488259	-121.270105	-4.307196	-156.334919
9.900000	-3.836539	91.861666	-3.509608	-123.687556	-3.509608	-123.687556	-4.297411	-158.961563
9.950000	-3.815878	89.553883	-3.530505	-126.106708	-3.530505	-126.106708	-4.288150	-161.579352
10.000000	-3.796521	87.237077	-3.550976	-128.527944	-3.550976	-128.527944	-4.279399	-164.188575
