! freq	dB(S11)	phase(S11)	dB(S12)	phase(S12)	
!     	dB(S21)	phase(S21)	dB(S22)	phase(S22)	
!S-par simulation data
#  GHz  S  DB  R 50
0.000000	0.000000	0.000000	-300.938956	-180.000000	-300.938956	-180.000000	-0.000000	0.000000
0.050000	-0.000124	-1.065092	-109.416239	89.007302	-109.416239	89.007302	-0.000124	-1.065062
0.100000	-0.000493	-2.129887	-103.439301	88.023128	-103.439301	88.023128	-0.000491	-2.129830
0.150000	-0.001092	-3.194107	-99.990317	87.056204	-99.990317	87.056204	-0.001088	-3.194026
0.200000	-0.001903	-4.257515	-97.593125	86.115431	-97.593125	86.115431	-0.001896	-4.257415
0.250000	-0.002913	-5.319830	-95.791155	85.213392	-95.791155	85.213392	-0.002903	-5.319717
0.300000	-0.004078	-6.380979	-94.371889	84.358194	-94.371889	84.358194	-0.004065	-6.380858
0.350000	-0.005380	-7.440792	-93.230150	83.564472	-93.230150	83.564472	-0.005364	-7.440669
0.400000	-0.006791	-8.499177	-92.302090	82.847909	-92.302090	82.847909	-0.006772	-8.499055
0.450000	-0.008286	-9.556076	-91.547492	82.227366	-91.547492	82.227366	-0.008265	-9.555960
0.500000	-0.009841	-10.611460	-90.939936	81.725917	-90.939936	81.725917	-0.009819	-10.611351
0.550000	-0.011437	-11.665321	-90.461689	81.372258	-90.461689	81.372258	-0.011414	-11.665220
0.600000	-0.013057	-12.717667	-90.100827	81.202649	-90.100827	81.202649	-0.013034	-12.717575
0.650000	-0.014686	-13.768514	-89.849478	81.263608	-89.849478	81.263608	-0.014663	-13.768430
0.700000	-0.016313	-14.817886	-89.702630	81.615688	-89.702630	81.615688	-0.016291	-14.817808
0.750000	-0.017931	-15.865806	-89.657148	82.338768	-89.657148	82.338768	-0.017910	-15.865731
0.800000	-0.019533	-16.912294	-89.710691	83.539338	-89.710691	83.539338	-0.019513	-16.912221
0.850000	-0.021115	-17.957370	-89.860135	85.360167	-89.860135	85.360167	-0.021097	-17.957295
0.900000	-0.022674	-19.001046	-90.098863	87.991801	-90.098863	87.991801	-0.022658	-19.000968
0.950000	-0.024209	-20.043332	-90.411940	91.682419	-90.411940	91.682419	-0.024195	-20.043248
1.000000	-0.025720	-21.084230	-90.767821	96.734711	-90.767821	96.734711	-0.025707	-21.084138
1.050000	-0.027207	-22.123739	-91.106085	103.462523	-91.106085	103.462523	-0.027196	-22.123636
1.100000	-0.028672	-23.161850	-91.325569	112.061783	-91.325569	112.061783	-0.028662	-23.161735
1.150000	-0.030114	-24.198553	-91.289453	122.369766	-91.289453	122.369766	-0.030106	-24.198424
1.200000	-0.031537	-25.233832	-90.872158	133.631110	-90.872158	133.631110	-0.031530	-25.233688
1.250000	-0.032940	-26.267668	-90.037076	144.614714	-90.037076	144.614714	-0.032934	-26.267508
1.300000	-0.034327	-27.299975	-88.848948	154.124349	-88.848948	154.124349	-0.034321	-27.299799
1.350000	-0.035698	-28.330791	-87.471068	161.741004	-87.471068	161.741004	-0.035693	-28.330597
1.400000	-0.037055	-29.360091	-86.024251	167.540403	-86.024251	167.540403	-0.037051	-29.359879
1.450000	-0.038401	-30.387846	-84.584657	171.813927	-84.584657	171.813927	-0.038397	-30.387616
1.500000	-0.039736	-31.414027	-83.191975	174.882493	-83.191975	174.882493	-0.039732	-31.413779
1.550000	-0.041062	-32.438607	-81.863305	177.022478	-81.863305	177.022478	-0.041058	-32.438340
1.600000	-0.042380	-33.461554	-80.603542	178.450424	-80.603542	178.450424	-0.042377	-33.461268
1.650000	-0.043692	-34.482839	-79.411563	179.329644	-79.411563	179.329644	-0.043688	-34.482535
1.700000	-0.044998	-35.502431	-78.283559	179.781835	-78.283559	179.781835	-0.044994	-35.502108
1.750000	-0.046300	-36.520301	-77.214732	179.897776	-77.214732	179.897776	-0.046296	-36.519960
1.800000	-0.047598	-37.536419	-76.200132	179.745688	-76.200132	179.745688	-0.047594	-37.536059
1.850000	-0.048894	-38.550755	-75.235037	179.377378	-75.235037	179.377378	-0.048890	-38.550377
1.900000	-0.050188	-39.563282	-74.315109	178.832657	-74.315109	178.832657	-0.050184	-39.562886
1.950000	-0.051481	-40.573971	-73.436438	178.142481	-73.436438	178.142481	-0.051477	-40.573556
2.000000	-0.052774	-41.582794	-72.595533	177.331211	-72.595533	177.331211	-0.052769	-41.582361
2.050000	-0.054068	-42.589726	-71.789290	176.418228	-71.789290	176.418228	-0.054063	-42.589275
2.100000	-0.055362	-43.594740	-71.014953	175.419120	-71.014953	175.419120	-0.055357	-43.594271
2.150000	-0.056659	-44.597812	-70.270071	174.346550	-70.270071	174.346550	-0.056653	-44.597324
2.200000	-0.057957	-45.598918	-69.552465	173.210895	-69.552465	173.210895	-0.057951	-45.598411
2.250000	-0.059258	-46.598034	-68.860187	172.020740	-68.860187	172.020740	-0.059252	-46.597508
2.300000	-0.060563	-47.595140	-68.191495	170.783238	-68.191495	170.783238	-0.060556	-47.594594
2.350000	-0.061871	-48.590213	-67.544824	169.504399	-67.544824	169.504399	-0.061864	-48.589648
2.400000	-0.063183	-49.583234	-66.918764	168.189304	-66.918764	168.189304	-0.063176	-49.582648
2.450000	-0.064501	-50.574183	-66.312043	166.842277	-66.312043	166.842277	-0.064493	-50.573578
2.500000	-0.065823	-51.563044	-65.723506	165.467023	-65.723506	165.467023	-0.065816	-51.562417
2.550000	-0.067152	-52.549705	-65.151218	164.065773	-65.151218	164.065773	-0.067144	-52.549057
2.600000	-0.068486	-53.534244	-64.595208	162.642460	-64.595208	162.642460	-0.068479	-53.533574
2.650000	-0.069828	-54.516644	-64.054589	161.199447	-64.054589	161.199447	-0.069820	-54.515951
2.700000	-0.071176	-55.496892	-63.528549	159.738799	-63.528549	159.738799	-0.071169	-55.496176
2.750000	-0.072533	-56.474976	-63.016345	158.262333	-63.016345	158.262333	-0.072525	-56.474235
2.800000	-0.073897	-57.450883	-62.517288	156.771654	-62.517288	156.771654	-0.073890	-57.450118
2.850000	-0.075270	-58.424603	-62.030747	155.268182	-62.030747	155.268182	-0.075263	-58.423813
2.900000	-0.076652	-59.396127	-61.556134	153.753181	-61.556134	153.753181	-0.076645	-59.395310
2.950000	-0.078043	-60.365445	-61.092908	152.227776	-61.092908	152.227776	-0.078036	-60.364601
3.000000	-0.079444	-61.332550	-60.640563	150.692977	-60.640563	150.692977	-0.079438	-61.331679
3.050000	-0.080856	-62.297436	-60.198630	149.149687	-60.198630	149.149687	-0.080850	-62.296537
3.100000	-0.082279	-63.260097	-59.766671	147.598722	-59.766671	147.598722	-0.082273	-63.259168
3.150000	-0.083713	-64.220529	-59.344276	146.040816	-59.344276	146.040816	-0.083707	-64.219569
3.200000	-0.085160	-65.178727	-58.931064	144.476633	-58.931064	144.476633	-0.085154	-65.177736
3.250000	-0.086618	-66.134688	-58.526674	142.906777	-58.526674	142.906777	-0.086612	-66.133666
3.300000	-0.088090	-67.088412	-58.130770	141.331796	-58.130770	141.331796	-0.088084	-67.087357
3.350000	-0.089575	-68.039898	-57.743035	139.752188	-57.743035	139.752188	-0.089570	-68.038809
3.400000	-0.091075	-68.989145	-57.363172	138.168411	-57.363172	138.168411	-0.091069	-68.988022
3.450000	-0.092589	-69.936155	-56.990899	136.580882	-56.990899	136.580882	-0.092583	-69.934996
3.500000	-0.094118	-70.880930	-56.625950	134.989982	-56.625950	134.989982	-0.094112	-70.879735
3.550000	-0.095662	-71.823473	-56.268076	133.396062	-56.268076	133.396062	-0.095657	-71.822240
3.600000	-0.097223	-72.763787	-55.917038	131.799447	-55.917038	131.799447	-0.097218	-72.762517
3.650000	-0.098800	-73.701878	-55.572613	130.200434	-55.572613	130.200434	-0.098795	-73.700569
3.700000	-0.100395	-74.637752	-55.234586	128.599298	-55.234586	128.599298	-0.100390	-74.636402
3.750000	-0.102007	-75.571414	-54.902756	126.996293	-54.902756	126.996293	-0.102002	-75.570024
3.800000	-0.103639	-76.502777	-54.576661	125.391595	-54.576661	125.391595	-0.103634	-76.501345
3.850000	-0.105289	-77.431945	-54.256409	123.785502	-54.256409	123.785502	-0.105284	-77.430471
3.900000	-0.106958	-78.358928	-53.941825	122.178213	-53.941825	122.178213	-0.106954	-78.357410
3.950000	-0.108648	-79.283736	-53.632741	120.569917	-53.632741	120.569917	-0.108643	-79.282174
4.000000	-0.110358	-80.206380	-53.328997	118.960788	-53.328997	118.960788	-0.110353	-80.204773
4.050000	-0.112089	-81.126872	-53.030441	117.350990	-53.030441	117.350990	-0.112084	-81.125218
4.100000	-0.113842	-82.045224	-52.736928	115.740674	-52.736928	115.740674	-0.113837	-82.043523
4.150000	-0.115617	-82.961450	-52.448318	114.129983	-52.448318	114.129983	-0.115612	-82.959700
4.200000	-0.117414	-83.875563	-52.164479	112.519051	-52.164479	112.519051	-0.117409	-83.873765
4.250000	-0.119235	-84.787580	-51.885283	110.908004	-51.885283	110.908004	-0.119230	-84.785732
4.300000	-0.121080	-85.697516	-51.610608	109.296958	-51.610608	109.296958	-0.121074	-85.695616
4.350000	-0.122948	-86.605386	-51.340337	107.686025	-51.340337	107.686025	-0.122942	-86.603435
4.400000	-0.124842	-87.511210	-51.074357	106.075309	-51.074357	106.075309	-0.124835	-87.509206
4.450000	-0.126760	-88.415005	-50.812562	104.464908	-50.812562	104.464908	-0.126754	-88.412947
4.500000	-0.128705	-89.316789	-50.554847	102.854915	-50.554847	102.854915	-0.128698	-89.314676
4.550000	-0.130676	-90.216582	-50.301114	101.245418	-50.301114	101.245418	-0.130669	-90.214413
4.600000	-0.132673	-91.114405	-50.051265	99.636498	-50.051265	99.636498	-0.132666	-91.112179
4.650000	-0.134698	-92.010278	-49.805209	98.028234	-49.805209	98.028234	-0.134691	-92.007994
4.700000	-0.136751	-92.904223	-49.562858	96.420699	-49.562858	96.420699	-0.136744	-92.901881
4.750000	-0.138833	-93.796263	-49.324125	94.813965	-49.324125	94.813965	-0.138825	-93.793861
4.800000	-0.140943	-94.686420	-49.088929	93.208097	-49.088929	93.208097	-0.140935	-94.683957
4.850000	-0.143083	-95.574719	-48.857190	91.603159	-48.857190	91.603159	-0.143074	-95.572193
4.900000	-0.145252	-96.461183	-48.628830	89.999209	-48.628830	89.999209	-0.145243	-96.458595
4.950000	-0.147452	-97.345838	-48.403777	88.396304	-48.403777	88.396304	-0.147443	-97.343185
5.000000	-0.149683	-98.228710	-48.181958	86.794499	-48.181958	86.794499	-0.149673	-98.225992
5.050000	-0.151946	-99.109749	-47.963203	85.193897	-47.963203	85.193897	-0.151937	-99.106965
5.100000	-0.154242	-99.989061	-47.747555	83.594498	-47.747555	83.594498	-0.154232	-99.986209
5.150000	-0.156570	-100.866674	-47.534947	81.996347	-47.534947	81.996347	-0.156559	-100.863752
5.200000	-0.158930	-101.742614	-47.325317	80.399489	-47.325317	80.399489	-0.158920	-101.739622
5.250000	-0.161324	-102.616912	-47.118604	78.803965	-47.118604	78.803965	-0.161313	-102.613849
5.300000	-0.163752	-103.489597	-46.914749	77.209814	-46.914749	77.209814	-0.163740	-103.486461
5.350000	-0.166214	-104.360700	-46.713695	75.617073	-46.713695	75.617073	-0.166202	-104.357489
5.400000	-0.168710	-105.230250	-46.515386	74.025778	-46.515386	74.025778	-0.168698	-105.226964
5.450000	-0.171242	-106.098279	-46.319768	72.435962	-46.319768	72.435962	-0.171230	-106.094917
5.500000	-0.173809	-106.964819	-46.126790	70.847658	-46.126790	70.847658	-0.173796	-106.961379
5.550000	-0.176412	-107.829903	-45.936400	69.260894	-45.936400	69.260894	-0.176399	-107.826383
5.600000	-0.179052	-108.693564	-45.748551	67.675701	-45.748551	67.675701	-0.179039	-108.689963
5.650000	-0.181728	-109.555834	-45.563193	66.092105	-45.563193	66.092105	-0.181715	-109.552151
5.700000	-0.184442	-110.416749	-45.380281	64.510130	-45.380281	64.510130	-0.184428	-110.412982
5.750000	-0.187194	-111.276342	-45.199770	62.929803	-45.199770	62.929803	-0.187179	-111.272490
5.800000	-0.189983	-112.134650	-45.021616	61.351144	-45.021616	61.351144	-0.189969	-112.130711
5.850000	-0.192818	-112.991501	-44.845564	59.774476	-44.845564	59.774476	-0.192803	-112.987473
5.900000	-0.195694	-113.847086	-44.671743	58.199593	-44.671743	58.199593	-0.195678	-113.842968
5.950000	-0.198590	-114.702073	-44.500733	56.625619	-44.500733	56.625619	-0.198574	-114.697863
6.000000	-0.201548	-115.555262	-44.331265	55.054372	-44.331265	55.054372	-0.201532	-115.550958
6.050000	-0.204521	-116.408079	-44.164673	53.483742	-44.164673	53.483742	-0.204505	-116.403681
6.100000	-0.207563	-117.259037	-43.999420	51.916200	-43.999420	51.916200	-0.207547	-117.254542
6.150000	-0.210614	-118.109824	-43.837085	50.348972	-43.837085	50.348972	-0.210597	-118.105231
6.200000	-0.213742	-118.958722	-43.675918	48.785193	-43.675918	48.785193	-0.213725	-118.954028
6.250000	-0.216871	-119.807620	-43.517687	47.221414	-43.517687	47.221414	-0.216854	-119.802825
6.300000	-0.220087	-120.654632	-43.360484	45.661446	-43.360484	45.661446	-0.220069	-120.649733
6.350000	-0.223304	-121.501645	-43.206075	44.101479	-43.206075	44.101479	-0.223286	-121.496641
6.400000	-0.226602	-122.347093	-43.052856	42.545041	-43.052856	42.545041	-0.226583	-122.341981
6.450000	-0.229908	-123.192400	-42.902159	40.988923	-42.902159	40.988923	-0.229889	-123.187179
6.500000	-0.233289	-124.036438	-42.752789	39.436039	-42.752789	39.436039	-0.233270	-124.031105
6.550000	-0.236686	-124.880222	-42.605700	37.883802	-42.605700	37.883802	-0.236666	-124.874777
6.600000	-0.240152	-125.723006	-42.460049	36.334490	-42.460049	36.334490	-0.240131	-125.717445
6.650000	-0.243641	-126.565456	-42.316469	34.786154	-42.316469	34.786154	-0.243619	-126.559778
6.700000	-0.247191	-127.407145	-42.174415	33.240428	-42.174415	33.240428	-0.247170	-127.401347
6.750000	-0.250774	-128.248453	-42.034250	31.696007	-42.034250	31.696007	-0.250752	-128.242535
6.800000	-0.254412	-129.089211	-41.895680	30.153873	-41.895680	30.153873	-0.254389	-129.083169
6.850000	-0.258089	-129.929575	-41.758841	28.613373	-41.758841	28.613373	-0.258066	-129.923408
6.900000	-0.261815	-130.769567	-41.623645	27.074833	-41.623645	27.074833	-0.261791	-130.763272
6.950000	-0.265588	-131.609187	-41.490048	25.538253	-41.490048	25.538253	-0.265564	-131.602763
7.000000	-0.269403	-132.448583	-41.358125	24.003305	-41.358125	24.003305	-0.269378	-132.442027
7.050000	-0.273274	-133.287666	-41.227691	22.470639	-41.227691	22.470639	-0.273248	-133.280975
7.100000	-0.277178	-134.126639	-41.098944	20.939275	-41.098944	20.939275	-0.277152	-134.119812
7.150000	-0.281148	-134.965392	-40.971598	19.410512	-40.971598	19.410512	-0.281121	-134.958427
7.200000	-0.285143	-135.804118	-40.845936	17.882720	-40.845936	17.882720	-0.285115	-135.797012
7.250000	-0.289213	-136.642757	-40.721608	16.357843	-40.721608	16.357843	-0.289184	-136.635508
7.300000	-0.293300	-137.481414	-40.598948	14.833610	-40.598948	14.833610	-0.293271	-137.474020
7.350000	-0.297470	-138.320157	-40.477570	13.312598	-40.477570	13.312598	-0.297440	-138.312614
7.400000	-0.301651	-139.158928	-40.357831	11.791906	-40.357831	11.791906	-0.301619	-139.151236
7.450000	-0.305923	-139.997997	-40.239343	10.274736	-40.239343	10.274736	-0.305890	-139.990152
7.500000	-0.310197	-140.837067	-40.122450	8.757565	-40.122450	8.757565	-0.310163	-140.829067
7.550000	-0.314572	-141.676689	-40.006794	7.244211	-40.006794	7.244211	-0.314537	-141.668531
7.600000	-0.318948	-142.516312	-39.892657	5.730857	-39.892657	5.730857	-0.318913	-142.507995
7.650000	-0.323419	-143.356654	-39.779798	4.220976	-39.779798	4.220976	-0.323382	-143.348174
7.700000	-0.327899	-144.197061	-39.668368	2.711410	-39.668368	2.711410	-0.327862	-144.188417
7.750000	-0.332465	-145.038318	-39.558241	1.204978	-39.558241	1.204978	-0.332426	-145.029506
7.800000	-0.337051	-145.879745	-39.449472	-0.300826	-39.449472	-0.300826	-0.337010	-145.870763
7.850000	-0.341713	-146.722116	-39.342016	-1.803831	-39.342016	-1.803831	-0.341672	-146.712962
7.900000	-0.346404	-147.564803	-39.235864	-3.305902	-39.235864	-3.305902	-0.346361	-147.555474
7.950000	-0.351164	-148.408492	-39.131024	-4.805501	-39.131024	-4.805501	-0.351120	-148.398985
8.000000	-0.355960	-149.252683	-39.027449	-6.303865	-39.027449	-6.303865	-0.355915	-149.242996
8.050000	-0.360818	-150.097896	-38.925173	-7.800079	-38.925173	-7.800079	-0.360771	-150.088026
8.100000	-0.365721	-150.943839	-38.824141	-9.294758	-38.824141	-9.294758	-0.365672	-150.933784
8.150000	-0.370677	-151.790785	-38.724379	-10.787604	-38.724379	-10.787604	-0.370626	-151.780542
8.200000	-0.375686	-152.638734	-38.625857	-12.278619	-38.625857	-12.278619	-0.375634	-152.628301
8.250000	-0.380741	-153.487626	-38.528566	-13.768113	-38.528566	-13.768113	-0.380687	-153.477000
8.300000	-0.385857	-154.337839	-38.432526	-15.255478	-38.432526	-15.255478	-0.385802	-154.327016
8.350000	-0.391011	-155.188893	-38.337665	-16.741630	-38.337665	-16.741630	-0.390954	-155.177872
8.400000	-0.396235	-156.041631	-38.244081	-18.225356	-38.244081	-18.225356	-0.396176	-156.030409
8.450000	-0.401487	-156.895068	-38.151612	-19.708173	-38.151612	-19.708173	-0.401427	-156.883641
8.500000	-0.406818	-157.750598	-38.060462	-21.188262	-38.060462	-21.188262	-0.406756	-157.738964
8.550000	-0.412170	-158.606639	-37.970351	-22.667745	-37.970351	-22.667745	-0.412106	-158.594797
8.600000	-0.417609	-159.465233	-37.881616	-24.144193	-37.881616	-24.144193	-0.417543	-159.453178
8.650000	-0.423059	-160.324106	-37.793831	-25.620337	-37.793831	-25.620337	-0.422991	-160.311837
8.700000	-0.428605	-161.186040	-37.707494	-27.093130	-37.707494	-27.093130	-0.428536	-161.173551
8.750000	-0.434155	-162.047973	-37.622008	-28.565924	-37.622008	-28.565924	-0.434083	-162.035266
8.800000	-0.439783	-162.912586	-37.537869	-30.035963	-37.537869	-30.035963	-0.439709	-162.899656
8.850000	-0.445463	-163.779002	-37.454893	-31.504232	-37.454893	-31.504232	-0.445387	-163.765845
8.900000	-0.451193	-164.647285	-37.373074	-32.970723	-37.373074	-32.970723	-0.451115	-164.633899
8.950000	-0.456975	-165.517503	-37.292411	-34.435427	-37.292411	-34.435427	-0.456895	-165.503885
9.000000	-0.462808	-166.389721	-37.212898	-35.898332	-37.212898	-35.898332	-0.462726	-166.375868
9.050000	-0.468691	-167.264007	-37.134533	-37.359425	-37.134533	-37.359425	-0.468607	-167.249917
9.100000	-0.474625	-168.140427	-37.057312	-38.818694	-37.057312	-38.818694	-0.474539	-168.126097
9.150000	-0.480609	-169.019051	-36.981233	-40.276122	-36.981233	-40.276122	-0.480521	-169.004478
9.200000	-0.486644	-169.899947	-36.906294	-41.731694	-36.906294	-41.731694	-0.486554	-169.885127
9.250000	-0.492728	-170.783183	-36.832492	-43.185389	-36.832492	-43.185389	-0.492636	-170.768115
9.300000	-0.498861	-171.668829	-36.759824	-44.637190	-36.759824	-44.637190	-0.498768	-171.653510
9.350000	-0.505044	-172.556956	-36.688290	-46.087074	-36.688290	-46.087074	-0.504949	-172.541382
9.400000	-0.511276	-173.447632	-36.617887	-47.535017	-36.617887	-47.535017	-0.511178	-173.431801
9.450000	-0.517556	-174.340930	-36.548614	-48.980996	-36.548614	-48.980996	-0.517457	-174.324839
9.500000	-0.523884	-175.236921	-36.480469	-50.424984	-36.480469	-50.424984	-0.523783	-175.220567
9.550000	-0.530260	-176.135676	-36.413451	-51.866953	-36.413451	-51.866953	-0.530158	-176.119056
9.600000	-0.536683	-177.037268	-36.347560	-53.306872	-36.347560	-53.306872	-0.536579	-177.020379
9.650000	-0.543153	-177.941768	-36.282793	-54.744711	-36.282793	-54.744711	-0.543048	-177.924608
9.700000	-0.549669	-178.849251	-36.219150	-56.180435	-36.219150	-56.180435	-0.549562	-178.831817
9.750000	-0.556231	-179.759789	-36.156631	-57.614011	-36.156631	-57.614011	-0.556123	-179.742078
9.800000	-0.562838	179.326543	-36.095233	-59.045400	-36.095233	-59.045400	-0.562728	179.344534
9.850000	-0.569489	178.409672	-36.034958	-60.474564	-36.034958	-60.474564	-0.569378	178.427945
9.900000	-0.576183	177.489522	-35.975803	-61.901464	-35.975803	-61.901464	-0.576072	177.508081
9.950000	-0.582921	176.566020	-35.917769	-63.326056	-35.917769	-63.326056	-0.582809	176.584867
10.000000	-0.589701	175.639089	-35.860855	-64.748298	-35.860855	-64.748298	-0.589589	175.658228
