! freq	dB(S11)	phase(S11)	dB(S12)	phase(S12)	
!     	dB(S21)	phase(S21)	dB(S22)	phase(S22)	
!S-par simulation data
#  GHz  S  DB  R 50
0.000000	-87.186134	0.000000	-0.000380	0.000000	-0.000380	0.000000	-87.186133	0.000000
0.050000	-31.637197	-92.686844	-0.009228	-3.059868	-0.009228	-3.059868	-31.662614	-93.502699
0.100000	-25.629118	-95.514505	-0.028860	-6.172214	-0.028860	-6.172214	-25.654524	-97.147042
0.150000	-22.128017	-98.303513	-0.052376	-9.316364	-0.052376	-9.316364	-22.153406	-100.753447
0.200000	-19.658167	-101.074808	-0.079010	-12.464475	-0.079010	-12.464475	-19.683541	-104.343326
0.250000	-17.756821	-103.830234	-0.109583	-15.603573	-0.109583	-15.603573	-17.782188	-107.918919
0.300000	-16.217765	-106.568528	-0.144704	-18.728307	-0.144704	-18.728307	-16.243141	-111.479342
0.350000	-14.930951	-109.287629	-0.184650	-21.835821	-0.184650	-21.835821	-14.956362	-115.022907
0.400000	-13.830447	-111.985465	-0.229436	-24.924207	-0.229436	-24.924207	-13.855933	-118.547882
0.450000	-12.873566	-114.660087	-0.278938	-27.991918	-0.278938	-27.991918	-12.899174	-122.052642
0.500000	-12.031079	-117.309681	-0.332963	-31.037550	-0.332963	-31.037550	-12.056869	-125.535676
0.550000	-11.282022	-119.932652	-0.391266	-34.059868	-0.391266	-34.059868	-11.308066	-128.995681
0.600000	-10.610812	-122.527652	-0.453572	-37.057811	-0.453572	-37.057811	-10.637192	-132.431580
0.650000	-10.005615	-125.093421	-0.519597	-40.030355	-0.519597	-40.030355	-10.032423	-135.842390
0.700000	-9.457054	-127.629104	-0.589027	-42.976797	-0.589027	-42.976797	-9.484390	-139.227499
0.750000	-8.957524	-130.134268	-0.661528	-45.896775	-0.661528	-45.896775	-8.985496	-142.586672
0.800000	-8.500909	-132.608556	-0.736784	-48.789978	-0.736784	-48.789978	-8.529629	-145.919759
0.850000	-8.082145	-135.051832	-0.814483	-51.656271	-0.814483	-51.656271	-8.111729	-149.226820
0.900000	-7.696986	-137.464162	-0.894317	-54.495692	-0.894317	-54.495692	-7.727551	-152.508104
0.950000	-7.341867	-139.845718	-0.975993	-57.308367	-0.975993	-57.308367	-7.373531	-155.763972
1.000000	-7.013766	-142.196763	-1.059225	-60.094506	-1.059225	-60.094506	-7.046644	-158.994888
1.050000	-6.709904	-144.518124	-1.143730	-62.854812	-1.143730	-62.854812	-6.744105	-162.201792
1.100000	-6.427962	-146.810504	-1.229252	-65.589892	-1.229252	-65.589892	-6.463590	-165.385543
1.150000	-6.165911	-149.074721	-1.315548	-68.300459	-1.315548	-68.300459	-6.203060	-168.547108
1.200000	-5.921963	-151.311686	-1.402391	-70.987324	-1.402391	-70.987324	-5.960718	-171.687545
1.250000	-5.694537	-153.522389	-1.489572	-73.651381	-1.489572	-73.651381	-5.734971	-174.807986
1.300000	-5.482375	-155.707491	-1.576882	-76.293252	-1.576882	-76.293252	-5.524550	-177.909341
1.350000	-5.284058	-157.868528	-1.664155	-78.914338	-1.664155	-78.914338	-5.328019	179.006817
1.400000	-5.098465	-160.006645	-1.751230	-81.515716	-1.751230	-81.515716	-5.144242	175.939208
1.450000	-4.924587	-162.123013	-1.837966	-84.098502	-1.837966	-84.098502	-4.972196	172.886526
1.500000	-4.761518	-164.218822	-1.924236	-86.663843	-1.924236	-86.663843	-4.810957	169.847454
1.550000	-4.608436	-166.295272	-2.009928	-89.212912	-2.009928	-89.212912	-4.659690	166.820668
1.600000	-4.464598	-168.353567	-2.094945	-91.746898	-2.094945	-91.746898	-4.517635	163.804850
1.650000	-4.329327	-170.394912	-2.179207	-94.267002	-2.179207	-94.267002	-4.384102	160.798691
1.700000	-4.202008	-172.420506	-2.262646	-96.774433	-2.262646	-96.774433	-4.258461	157.800899
1.750000	-4.082075	-174.431545	-2.345206	-99.270400	-2.345206	-99.270400	-4.140136	154.810205
1.800000	-3.969012	-176.429217	-2.426848	-101.756112	-2.426848	-101.756112	-4.028599	151.825369
1.850000	-3.862341	-178.414704	-2.507543	-104.232772	-2.507543	-104.232772	-3.923365	148.845179
1.900000	-3.761670	179.610923	-2.587255	-106.701506	-2.587255	-106.701506	-3.824036	145.868489
1.950000	-3.666583	177.646450	-2.665981	-109.163541	-2.665981	-109.163541	-3.730189	142.894126
2.000000	-3.576647	175.690579	-2.743747	-111.620138	-2.743747	-111.620138	-3.641394	139.920963
2.050000	-3.491509	173.742130	-2.820569	-114.072461	-2.820569	-114.072461	-3.557296	136.947953
2.100000	-3.410835	171.799911	-2.896477	-116.521660	-2.896477	-116.521660	-3.477566	133.974098
2.150000	-3.334314	169.862713	-2.971508	-118.968872	-2.971508	-118.968872	-3.401897	130.998445
2.200000	-3.261650	167.929310	-3.045712	-121.415221	-3.045712	-121.415221	-3.330000	128.020092
2.250000	-3.192562	165.998447	-3.119147	-123.861819	-3.119147	-123.861819	-3.261604	125.038184
2.300000	-3.126785	164.068836	-3.191880	-126.309765	-3.191880	-126.309765	-3.196453	122.051920
2.350000	-3.064067	162.139150	-3.263989	-128.760145	-3.263989	-128.760145	-3.134304	119.060549
2.400000	-3.004167	160.208021	-3.335562	-131.214036	-3.335562	-131.214036	-3.074927	116.063369
2.450000	-2.946854	158.274027	-3.406695	-133.672506	-3.406695	-133.672506	-3.018101	113.059731
2.500000	-2.891908	156.335691	-3.477496	-136.136615	-3.477496	-136.136615	-2.963615	110.049036
2.550000	-2.839155	154.391312	-3.548068	-138.607586	-3.548068	-138.607586	-2.911302	107.030560
2.600000	-2.788351	152.439371	-3.618558	-141.086350	-3.618558	-141.086350	-2.860923	104.003960
2.650000	-2.739303	150.478188	-3.689107	-143.573956	-3.689107	-143.573956	-2.812287	100.968788
2.700000	-2.691826	148.506003	-3.759865	-146.071456	-3.759865	-146.071456	-2.765210	97.924644
2.750000	-2.645746	146.520971	-3.830995	-148.579908	-3.830995	-148.579908	-2.719512	94.871169
2.800000	-2.600894	144.521163	-3.902675	-151.100378	-3.902675	-151.100378	-2.675017	91.808051
2.850000	-2.557108	142.504552	-3.975094	-153.633943	-3.975094	-153.633943	-2.631550	88.735015
2.900000	-2.514237	140.469013	-4.048458	-156.181698	-4.048458	-156.181698	-2.588942	85.651823
2.950000	-2.472131	138.412315	-4.122992	-158.744757	-4.122992	-158.744757	-2.547025	82.558272
3.000000	-2.430652	136.332112	-4.198937	-161.324260	-4.198937	-161.324260	-2.505632	79.454186
3.050000	-2.389667	134.225940	-4.276555	-163.921378	-4.276555	-163.921378	-2.464601	76.339415
3.100000	-2.349046	132.091202	-4.356132	-166.537318	-4.356132	-166.537318	-2.423769	73.213830
3.150000	-2.308668	129.924790	-4.437999	-169.173561	-4.437999	-169.173561	-2.382972	70.077193
3.200000	-2.268414	127.723716	-4.522509	-171.831451	-4.522509	-171.831451	-2.342047	66.929391
3.250000	-2.228172	125.485261	-4.610020	-174.512127	-4.610020	-174.512127	-2.300839	63.770433
3.300000	-2.187837	123.206190	-4.700946	-177.217009	-4.700946	-177.217009	-2.259193	60.600199
3.350000	-2.147305	120.882615	-4.795778	-179.947852	-4.795778	-179.947852	-2.216948	57.418441
3.400000	-2.106495	118.512169	-4.894936	177.294502	-4.894936	177.294502	-2.173980	54.225303
3.450000	-2.065325	116.091556	-4.998932	174.508675	-4.998932	174.508675	-2.130161	51.020663
3.500000	-2.023659	113.612138	-5.108748	171.690427	-5.108748	171.690427	-2.085245	47.803292
3.550000	-1.981462	111.073235	-5.224821	168.839965	-5.224821	168.839965	-2.039177	44.573692
3.600000	-1.938677	108.471126	-5.347863	165.955804	-5.347863	165.955804	-1.991854	41.331613
3.650000	-1.895228	105.799823	-5.478857	163.035310	-5.478857	163.035310	-1.943128	38.076340
3.700000	-1.851008	103.049701	-5.619248	160.074103	-5.619248	160.074103	-1.892782	34.806478
3.750000	-1.806043	100.220467	-5.769726	157.072678	-5.769726	157.072678	-1.840848	31.522278
3.800000	-1.760307	97.306491	-5.931584	154.028816	-5.931584	154.028816	-1.787245	28.222905
3.850000	-1.713736	94.296913	-6.106844	150.937864	-6.106844	150.937864	-1.731804	24.906513
3.900000	-1.666343	91.184701	-6.297384	147.797311	-6.297384	147.797311	-1.674482	21.571821
3.950000	-1.618204	87.966909	-6.504833	144.606750	-6.504833	144.606750	-1.615355	18.218150
4.000000	-1.569376	84.636183	-6.731585	141.363853	-6.731585	141.363853	-1.554432	14.843918
4.050000	-1.519886	81.174245	-6.981899	138.061861	-6.981899	138.061861	-1.491586	11.445339
4.100000	-1.469941	77.579633	-7.258398	134.702254	-7.258398	134.702254	-1.427062	8.021554
4.150000	-1.419743	73.848046	-7.564532	131.285569	-7.564532	131.285569	-1.361070	4.571126
4.200000	-1.369517	69.959444	-7.906945	127.807074	-7.906945	127.807074	-1.293690	1.089332
4.250000	-1.319624	65.904483	-8.291892	124.268307	-8.291892	124.268307	-1.225260	-2.426666
4.300000	-1.270499	61.675808	-8.726660	120.673584	-8.726660	120.673584	-1.156214	-5.979382
4.350000	-1.222698	57.259410	-9.221656	117.028590	-9.221656	117.028590	-1.087051	-9.572835
4.400000	-1.176890	52.645158	-9.789301	113.345555	-9.789301	113.345555	-1.018422	-13.210263
4.450000	-1.133894	47.821642	-10.446075	109.644932	-10.446075	109.644932	-0.951121	-16.895159
4.500000	-1.094719	42.776193	-11.214363	105.961514	-11.214363	105.961514	-0.886125	-20.631184
4.550000	-1.060456	37.501878	-12.123476	102.353328	-12.123476	102.353328	-0.824539	-24.420416
4.600000	-1.032569	31.984425	-13.217888	98.926987	-13.217888	98.926987	-0.767784	-28.266212
4.650000	-1.012355	26.223820	-14.559533	95.863004	-14.559533	95.863004	-0.717223	-32.168002
4.700000	-1.001806	20.206142	-16.252873	93.566978	-16.252873	93.566978	-0.674816	-36.127522
4.750000	-1.002322	13.939366	-18.465957	92.862442	-18.465957	92.862442	-0.642087	-40.140494
4.800000	-1.016112	7.418068	-21.498545	96.241854	-21.498545	96.241854	-0.621297	-44.204113
4.850000	-1.044633	0.655577	-25.663930	111.840884	-25.663930	111.840884	-0.614087	-48.310166
4.900000	-1.089795	-6.339809	-27.976210	157.977833	-27.976210	157.977833	-0.622567	-52.449465
4.950000	-1.152798	-13.547747	-23.934327	-165.843168	-23.934327	-165.843168	-0.648235	-56.608975
5.000000	-1.234633	-20.945112	-19.847442	-156.025549	-19.847442	-156.025549	-0.692465	-60.773369
5.050000	-1.335785	-28.503612	-16.852440	-154.969648	-16.852440	-154.969648	-0.756220	-64.925005
5.100000	-1.455800	-36.188029	-14.583002	-157.034103	-14.583002	-157.034103	-0.839589	-69.045218
5.150000	-1.594066	-43.963298	-12.790173	-160.534728	-12.790173	-160.534728	-0.942631	-73.113728
5.200000	-1.748582	-51.788583	-11.331720	-164.752281	-11.331720	-164.752281	-1.063940	-77.113504
5.250000	-1.917555	-59.625097	-10.123159	-169.371923	-10.123159	-169.371923	-1.202521	-81.024905
5.300000	-2.097959	-67.434309	-9.106991	-174.196507	-9.106991	-174.196507	-1.355837	-84.837163
5.350000	-2.287050	-75.178326	-8.246197	-179.118198	-8.246197	-179.118198	-1.521850	-88.536249
5.400000	-2.481681	-82.826098	-7.510977	175.938921	-7.510977	175.938921	-1.697713	-92.118602
5.450000	-2.678900	-90.346442	-6.880722	171.024446	-6.880722	171.024446	-1.880872	-95.579148
5.500000	-2.876030	-97.716521	-6.337665	166.171691	-6.337665	166.171691	-2.068722	-98.920440
5.550000	-3.070702	-104.915683	-5.868208	161.403465	-5.868208	161.403465	-2.258909	-102.146109
5.600000	-3.260993	-111.928294	-5.461000	156.734243	-5.461000	156.734243	-2.449365	-105.262834
5.650000	-3.445553	-118.745292	-5.106187	152.171209	-5.106187	152.171209	-2.638429	-108.280382
5.700000	-3.623232	-125.356423	-4.796338	147.719819	-4.796338	147.719819	-2.824658	-111.207273
5.750000	-3.793727	-131.763305	-4.524012	143.377725	-4.524012	143.377725	-3.007251	-114.056224
5.800000	-3.956512	-137.959164	-4.284336	139.146275	-4.284336	139.146275	-3.185324	-116.835825
5.850000	-4.112068	-143.953504	-4.071682	135.017983	-4.071682	135.017983	-3.358821	-119.558875
5.900000	-4.260412	-149.743852	-3.882654	130.991450	-3.882654	130.991450	-3.527383	-122.233619
5.950000	-4.402367	-155.342304	-3.713250	127.058125	-3.713250	127.058125	-3.691381	-124.870686
6.000000	-4.538405	-160.751884	-3.560882	123.214124	-3.560882	123.214124	-3.850936	-127.477708
6.050000	-4.669395	-165.983742	-3.422846	119.451968	-3.422846	119.451968	-4.006581	-130.062654
6.100000	-4.796080	-171.045369	-3.297114	115.766176	-3.297114	115.766176	-4.158778	-132.632000
6.150000	-4.919273	-175.945874	-3.181888	112.150796	-3.181888	112.150796	-4.308101	-135.191568
6.200000	-5.039836	179.303601	-3.075547	108.599286	-3.075547	108.599286	-4.455222	-137.746423
6.250000	-5.158529	174.694755	-2.976846	105.106565	-2.976846	105.106565	-4.600742	-140.300796
6.300000	-5.275991	170.226738	-2.884991	101.670651	-2.884991	101.670651	-4.745123	-142.858797
6.350000	-5.393287	165.870676	-2.798276	98.278706	-2.798276	98.278706	-4.889459	-145.422621
6.400000	-5.510855	161.636622	-2.716590	94.933334	-2.716590	94.933334	-5.033995	-147.996025
6.450000	-5.629453	157.505619	-2.638893	91.626113	-2.638893	91.626113	-5.179525	-150.580311
6.500000	-5.749698	153.473936	-2.564737	88.354453	-2.564737	88.354453	-5.326599	-153.177861
6.550000	-5.872194	149.536094	-2.493688	85.115209	-2.493688	85.115209	-5.475786	-155.790598
6.600000	-5.997444	145.678484	-2.425166	81.902580	-2.425166	81.902580	-5.627657	-158.418739
6.650000	-6.126171	141.905654	-2.359088	78.716831	-2.359088	78.716831	-5.782807	-161.065836
6.700000	-6.258640	138.199753	-2.294907	75.551213	-2.294907	75.551213	-5.941665	-163.730210
6.750000	-6.395537	134.562868	-2.232553	72.405233	-2.232553	72.405233	-6.104834	-166.414746
6.800000	-6.537290	130.987838	-2.171794	69.275669	-2.171794	69.275669	-6.272791	-169.119817
6.850000	-6.684369	127.470032	-2.112479	66.160133	-2.112479	66.160133	-6.446034	-171.846277
6.900000	-6.837268	124.005755	-2.054501	63.056536	-2.054501	63.056536	-6.625076	-174.595187
6.950000	-6.996443	120.591054	-1.997773	59.962801	-1.997773	59.962801	-6.810408	-177.367362
7.000000	-7.162301	117.221923	-1.942223	56.876969	-1.942223	56.876969	-7.002485	179.836663
7.050000	-7.335278	113.895294	-1.887815	53.797371	-1.887815	53.797371	-7.201785	177.016108
7.100000	-7.515809	110.608452	-1.834529	50.722497	-1.834529	50.722497	-7.408786	174.170179
7.150000	-7.704327	107.359021	-1.782364	47.650983	-1.782364	47.650983	-7.623969	171.298061
7.200000	-7.901266	104.144961	-1.731331	44.581610	-1.731331	44.581610	-7.847820	168.398905
7.250000	-8.107061	100.964554	-1.681455	41.513294	-1.681455	41.513294	-8.080830	165.471819
7.300000	-8.322152	97.816400	-1.632771	38.445085	-1.632771	38.445085	-8.323496	162.515860
7.350000	-8.546981	94.699412	-1.585319	35.376156	-1.585319	35.376156	-8.576324	159.530025
7.400000	-8.781993	91.612814	-1.539148	32.305804	-1.539148	32.305804	-8.839827	156.513234
7.450000	-9.027640	88.556135	-1.494311	29.233438	-1.494311	29.233438	-9.114526	153.464324
7.500000	-9.284377	85.529215	-1.450864	26.158578	-1.450864	26.158578	-9.400950	150.382028
7.550000	-9.552737	82.532861	-1.408892	23.080779	-1.408892	23.080779	-9.699683	147.264172
7.600000	-9.833097	79.566906	-1.368425	19.999821	-1.368425	19.999821	-10.011206	144.109949
7.650000	-10.125923	76.632149	-1.329520	16.915522	-1.329520	16.915522	-10.336065	140.917664
7.700000	-10.431681	73.729707	-1.292227	13.827781	-1.292227	13.827781	-10.674808	137.685435
7.750000	-10.750839	70.861029	-1.256595	10.736574	-1.256595	10.736574	-11.027983	134.411160
7.800000	-11.083864	68.027902	-1.222667	7.641944	-1.222667	7.641944	-11.396134	131.092486
7.850000	-11.431221	65.232459	-1.190479	4.543993	-1.190479	4.543993	-11.779798	127.726771
7.900000	-11.793367	62.477192	-1.160062	1.442872	-1.160062	1.442872	-12.179495	124.311041
7.950000	-12.170750	59.764958	-1.131437	-1.661223	-1.131437	-1.661223	-12.595722	120.841948
8.000000	-12.563799	57.098994	-1.104619	-4.768066	-1.104619	-4.768066	-13.028938	117.315720
8.050000	-12.972924	54.482919	-1.079615	-7.877408	-1.079615	-7.877408	-13.479558	113.728119
8.100000	-13.398499	51.920739	-1.056422	-10.988984	-1.056422	-10.988984	-13.947924	110.074386
8.150000	-13.840792	49.417532	-1.035047	-14.102547	-1.035047	-14.102547	-14.434182	106.348370
8.200000	-14.300025	46.978233	-1.015471	-17.217822	-1.015471	-17.217822	-14.938396	102.543957
8.250000	-14.776447	44.607333	-0.997646	-20.334541	-0.997646	-20.334541	-15.460618	98.655410
8.300000	-15.270161	42.310236	-0.981537	-23.452475	-0.981537	-23.452475	-16.000611	94.675670
8.350000	-15.781153	40.092544	-0.967099	-26.571427	-0.967099	-26.571427	-16.557882	90.597233
8.400000	-16.309266	37.959918	-0.954284	-29.691236	-0.954284	-29.691236	-17.131615	86.412327
8.450000	-16.854164	35.917887	-0.943035	-32.811784	-0.943035	-32.811784	-17.720596	82.113221
8.500000	-17.415300	33.971565	-0.933291	-35.933001	-0.933291	-35.933001	-18.323128	77.692691
8.550000	-17.991876	32.125266	-0.924987	-39.054872	-0.924987	-39.054872	-18.936931	73.144709
8.600000	-18.582802	30.381981	-0.918055	-42.177435	-0.918055	-42.177435	-19.559057	68.465408
8.650000	-19.186663	28.742681	-0.912423	-45.300795	-0.912423	-45.300795	-20.185799	63.654381
8.700000	-19.801688	27.205426	-0.908018	-48.425118	-0.908018	-48.425118	-20.812643	58.716328
8.750000	-20.425743	25.764250	-0.904766	-51.550637	-0.904766	-51.550637	-21.434264	53.663048
8.800000	-21.055420	24.409219	-0.902616	-54.677696	-0.902616	-54.677696	-22.043307	48.514381
8.850000	-21.688712	23.119335	-0.901469	-57.806649	-0.901469	-57.806649	-22.634279	43.306481
8.900000	-22.322655	21.866803	-0.901254	-60.937953	-0.901254	-60.937953	-23.200349	38.086592
8.950000	-22.954228	20.613082	-0.901901	-64.072139	-0.901901	-64.072139	-23.734797	32.916536
9.000000	-23.580526	19.307080	-0.903346	-67.209819	-0.903346	-67.209819	-24.231383	27.872366
9.050000	-24.198914	17.883511	-0.905526	-70.351692	-0.905526	-70.351692	-24.684626	23.042379
9.100000	-24.807123	16.261515	-0.908386	-73.498542	-0.908386	-73.498542	-25.089872	18.523431
9.150000	-25.403177	14.343610	-0.911877	-76.651246	-0.911877	-76.651246	-25.443054	14.415746
9.200000	-25.985035	12.014997	-0.915956	-79.810777	-0.915956	-79.810777	-25.740109	10.816546
9.250000	-26.549778	9.143453	-0.920591	-82.978211	-0.920591	-82.978211	-25.976144	7.812680
9.300000	-27.092166	5.580496	-0.925763	-86.154729	-0.925763	-86.154729	-26.144526	5.472263
9.350000	-27.602404	1.165697	-0.931464	-89.341617	-0.931464	-89.341617	-26.236236	3.835154
9.400000	-28.062056	-4.274600	-0.937712	-92.540421	-0.937712	-92.540421	-26.238754	2.909807
9.450000	-28.441803	-10.879655	-0.944537	-95.752706	-0.944537	-95.752706	-26.138802	2.646005
9.500000	-28.700910	-18.697866	-0.951989	-98.979969	-0.951989	-98.979969	-25.925421	2.932858
9.550000	-28.788633	-27.651220	-0.960148	-102.223939	-0.960148	-102.223939	-25.590773	3.619640
9.600000	-28.656773	-37.474949	-0.969128	-105.486434	-0.969128	-105.486434	-25.133867	4.525023
9.650000	-28.277610	-47.733464	-0.979075	-108.769354	-0.979075	-108.769354	-24.561859	5.462419
9.700000	-27.657620	-57.926082	-0.990177	-112.074654	-0.990177	-112.074654	-23.889253	6.265839
9.750000	-26.836105	-67.631135	-1.002666	-115.404324	-1.002666	-115.404324	-23.135419	6.808054
9.800000	-25.869899	-76.598612	-1.016818	-118.760355	-1.016818	-118.760355	-22.321491	7.007057
9.850000	-24.815855	-84.753278	-1.032965	-122.144698	-1.032965	-122.144698	-21.467718	6.822306
9.900000	-23.720308	-92.141014	-1.051491	-125.559226	-1.051491	-125.559226	-20.591806	6.245245
9.950000	-22.616381	-98.867624	-1.072839	-129.005674	-1.072839	-129.005674	-19.708248	5.288568
10.000000	-21.525736	-105.055537	-1.097508	-132.485584	-1.097508	-132.485584	-18.828349	3.976994
