! freq	dB(S11)	phase(S11)	dB(S12)	phase(S12)	
!     	dB(S21)	phase(S21)	dB(S22)	phase(S22)	
!S-par simulation data
#  GHz  S  DB  R 50
0.000000	-0.000000	0.000000	-362.842732	180.000000	-362.842732	180.000000	-0.000000	-0.000000
0.050000	-0.000068	-0.768056	-91.766997	172.763932	-91.766997	172.763932	-0.000090	-0.866036
0.100000	-0.000272	-1.535989	-91.348222	159.422674	-91.348222	159.422674	-0.000357	-1.731884
0.150000	-0.000609	-2.303671	-90.757385	148.773368	-90.757385	148.773368	-0.000800	-2.597349
0.200000	-0.001067	-3.071015	-90.070637	139.718180	-90.070637	139.718180	-0.001394	-3.462306
0.250000	-0.001639	-3.837915	-89.343224	132.036134	-89.343224	132.036134	-0.002133	-4.326602
0.300000	-0.002329	-4.604225	-88.614614	125.602228	-88.614614	125.602228	-0.003012	-5.190033
0.350000	-0.003107	-5.369964	-87.919333	120.024623	-87.919333	120.024623	-0.003994	-6.052642
0.400000	-0.003976	-6.134978	-87.267161	115.267722	-87.267161	115.267722	-0.005076	-6.914225
0.450000	-0.004938	-6.898999	-86.672646	111.285793	-86.672646	111.285793	-0.006252	-7.774443
0.500000	-0.005936	-7.662614	-86.122308	107.598440	-86.122308	107.598440	-0.007464	-8.634104
0.550000	-0.006994	-8.425232	-85.633472	104.409538	-85.633472	104.409538	-0.008725	-9.492447
0.600000	-0.008093	-9.187139	-85.190180	101.576673	-85.190180	101.576673	-0.010022	-10.349850
0.650000	-0.009223	-9.948166	-84.801020	99.063461	-84.801020	99.063461	-0.011335	-11.206130
0.700000	-0.010382	-10.708312	-84.459902	96.869903	-84.459902	96.869903	-0.012665	-12.061287
0.750000	-0.011552	-11.467727	-84.162312	94.898964	-84.162312	94.898964	-0.013994	-12.915536
0.800000	-0.012738	-12.226118	-83.916248	93.239693	-83.916248	93.239693	-0.015321	-13.768513
0.850000	-0.013925	-12.983935	-83.702682	91.747900	-83.702682	91.747900	-0.016641	-14.620788
0.900000	-0.015112	-13.740606	-83.544683	90.591063	-83.544683	90.591063	-0.017944	-15.471661
0.950000	-0.016296	-14.496858	-83.408696	89.566022	-83.408696	89.566022	-0.019239	-16.322022
1.000000	-0.017469	-15.251854	-83.331744	88.936366	-83.331744	88.936366	-0.020507	-17.170851
1.050000	-0.018639	-16.006578	-83.267358	88.407357	-83.267358	88.407357	-0.021769	-18.019345
1.100000	-0.019788	-16.759942	-83.262703	88.381585	-83.262703	88.381585	-0.023000	-18.866164
1.150000	-0.020935	-17.513172	-83.262892	88.416849	-83.262892	88.416849	-0.024227	-19.712817
1.200000	-0.022055	-18.264934	-83.316517	89.123501	-83.316517	89.123501	-0.025421	-20.557633
1.250000	-0.023176	-19.016695	-83.370476	89.830153	-83.370476	89.830153	-0.026614	-21.402449
1.300000	-0.024267	-19.766871	-83.456845	91.441238	-83.456845	91.441238	-0.027775	-22.245243
1.350000	-0.025358	-20.517047	-83.544081	93.052323	-83.544081	93.052323	-0.028936	-23.088036
1.400000	-0.026424	-21.265769	-83.618239	95.648505	-83.618239	95.648505	-0.030071	-23.928937
1.450000	-0.027487	-22.014359	-83.691756	98.334242	-83.691756	98.334242	-0.031204	-24.769665
1.500000	-0.028529	-22.761617	-83.691857	101.950255	-83.691857	101.950255	-0.032318	-25.608625
1.550000	-0.029567	-23.508608	-83.677225	105.752323	-83.677225	105.752323	-0.033429	-26.447230
1.600000	-0.030589	-24.254381	-83.529138	110.178397	-83.529138	110.178397	-0.034527	-27.284191
1.650000	-0.031605	-24.999749	-83.340223	114.812471	-83.340223	114.812471	-0.035621	-28.120603
1.700000	-0.032610	-25.744011	-82.991152	119.556562	-82.991152	119.556562	-0.036708	-28.955501
1.750000	-0.033609	-26.487720	-82.577685	124.355660	-82.577685	124.355660	-0.037790	-29.789642
1.800000	-0.034601	-27.230439	-82.031338	128.821954	-82.031338	128.821954	-0.038868	-30.622410
1.850000	-0.035587	-27.972450	-81.416694	133.050531	-81.416694	133.050531	-0.039943	-31.454196
1.900000	-0.036568	-28.713588	-80.728981	136.790001	-80.728981	136.790001	-0.041017	-32.284763
1.950000	-0.037544	-29.453855	-79.987403	140.040364	-79.987403	140.040364	-0.042088	-33.114109
2.000000	-0.038519	-30.193374	-79.228866	142.870189	-79.228866	142.870189	-0.043160	-33.942404
2.050000	-0.039490	-30.931848	-78.434928	145.111263	-78.434928	145.111263	-0.044232	-34.769226
2.100000	-0.040460	-31.669708	-77.660715	147.068880	-77.660715	147.068880	-0.045305	-35.595178
2.150000	-0.041430	-32.406340	-76.864298	148.459585	-76.864298	148.459585	-0.046380	-36.419391
2.200000	-0.042399	-33.142499	-76.107136	149.686208	-76.107136	149.686208	-0.047456	-37.242932
2.250000	-0.043369	-33.877240	-75.334547	150.420586	-75.334547	150.420586	-0.048536	-38.064454
2.300000	-0.044340	-34.611659	-74.610153	151.073231	-74.610153	151.073231	-0.049618	-38.885515
2.350000	-0.045315	-35.344462	-73.872689	151.317213	-73.872689	151.317213	-0.050706	-39.704269
2.400000	-0.046289	-36.077100	-73.186746	151.530830	-73.186746	151.530830	-0.051795	-40.522786
2.450000	-0.047270	-36.807921	-72.487682	151.410422	-72.487682	151.410422	-0.052893	-41.338696
2.500000	-0.048251	-37.538743	-71.840714	151.290014	-71.840714	151.290014	-0.053991	-42.154607
2.550000	-0.049242	-38.267541	-71.179457	150.896857	-71.179457	150.896857	-0.055101	-42.967604
2.600000	-0.050232	-38.996340	-70.565000	150.503700	-70.565000	150.503700	-0.056210	-43.780602
2.650000	-0.051232	-39.723251	-69.943880	149.920898	-69.943880	149.920898	-0.057331	-44.590869
2.700000	-0.052234	-40.449991	-69.360219	149.320856	-69.360219	149.320856	-0.058454	-45.400888
2.750000	-0.053246	-41.174990	-68.775281	148.587926	-68.775281	148.587926	-0.059589	-46.208374
2.800000	-0.054261	-41.899641	-68.220138	147.828419	-68.220138	147.828419	-0.060726	-47.015355
2.850000	-0.055287	-42.622708	-67.667676	146.975110	-67.667676	146.975110	-0.061876	-47.820014
2.900000	-0.056317	-43.345246	-67.138651	146.090533	-67.138651	146.090533	-0.063029	-48.623900
2.950000	-0.057359	-44.066366	-66.615318	145.139360	-66.615318	145.139360	-0.064194	-49.425690
3.000000	-0.058406	-44.786776	-66.110095	144.154890	-66.110095	144.154890	-0.065365	-50.226432
3.050000	-0.059464	-45.505940	-65.612925	143.122989	-65.612925	143.122989	-0.066547	-51.025313
3.100000	-0.060530	-46.224215	-65.129356	142.057209	-65.129356	142.057209	-0.067737	-51.822866
3.150000	-0.061607	-46.941422	-64.655741	140.957677	-64.655741	140.957677	-0.068937	-52.618804
3.200000	-0.062694	-47.657564	-64.191876	139.824392	-64.191876	139.824392	-0.070147	-53.413127
3.250000	-0.063790	-48.372822	-63.739529	138.667264	-63.739529	138.667264	-0.071366	-54.206091
3.300000	-0.064899	-49.086844	-63.293611	137.476757	-63.293611	137.476757	-0.072599	-54.997151
3.350000	-0.066017	-49.800170	-62.860526	136.269722	-62.860526	136.269722	-0.073839	-55.787113
3.400000	-0.067150	-50.512101	-62.430977	135.029630	-62.430977	135.029630	-0.075094	-56.574880
3.450000	-0.068291	-51.223520	-62.015387	133.778544	-62.015387	133.778544	-0.076356	-57.361818
3.500000	-0.069450	-51.933403	-61.600786	132.494476	-61.600786	132.494476	-0.077636	-58.146268
3.550000	-0.070615	-52.642955	-61.201130	131.203745	-61.201130	131.203745	-0.078921	-58.930162
3.600000	-0.071803	-53.350853	-60.800193	129.879704	-60.800193	129.879704	-0.080228	-59.711276
3.650000	-0.072994	-54.058592	-60.415080	128.552556	-60.415080	128.552556	-0.081538	-60.492110
3.700000	-0.074212	-54.764589	-60.026632	127.191239	-60.026632	127.191239	-0.082873	-61.269873
3.750000	-0.075431	-55.470585	-59.654815	125.829922	-59.654815	125.829922	-0.084208	-62.047637
3.800000	-0.076682	-56.174793	-59.277770	124.432908	-59.277770	124.432908	-0.085573	-62.822041
3.850000	-0.077934	-56.879000	-58.916413	123.035894	-58.916413	123.035894	-0.086939	-63.596445
3.900000	-0.079218	-57.581703	-58.551452	121.606679	-58.551452	121.606679	-0.088333	-64.367767
3.950000	-0.080505	-58.284269	-58.199636	120.174537	-58.199636	120.174537	-0.089730	-65.138807
4.000000	-0.081825	-58.985624	-57.845654	118.712783	-57.845654	118.712783	-0.091155	-65.907047
4.050000	-0.083151	-59.686737	-57.502487	117.245107	-57.502487	117.245107	-0.092585	-66.674725
4.100000	-0.084510	-60.386946	-57.158430	115.749715	-57.158430	115.749715	-0.094042	-67.439887
4.150000	-0.085879	-61.086853	-56.823018	114.245085	-56.823018	114.245085	-0.095508	-68.204209
4.200000	-0.087281	-61.786169	-56.487857	112.714114	-56.487857	112.714114	-0.096999	-68.966301
4.250000	-0.088699	-62.485189	-56.159269	111.169973	-56.159269	111.169973	-0.098503	-69.727278
4.300000	-0.090149	-63.183935	-55.831967	109.600501	-55.831967	109.600501	-0.100029	-70.486313
4.350000	-0.091621	-63.882486	-55.509193	108.012934	-55.509193	108.012934	-0.101572	-71.243961
4.400000	-0.093126	-64.581079	-55.188663	106.400834	-55.188663	106.400834	-0.103135	-71.999955
4.450000	-0.094662	-65.279714	-54.870555	104.764201	-54.870555	104.764201	-0.104719	-72.754294
4.500000	-0.096229	-65.978694	-54.555616	103.103817	-54.555616	103.103817	-0.106321	-73.507267
4.550000	-0.097841	-66.678158	-54.240799	101.410184	-54.240799	101.410184	-0.107949	-74.258325
4.600000	-0.099484	-67.378239	-53.930107	99.693844	-53.930107	99.693844	-0.109591	-75.008300
4.650000	-0.101190	-68.079553	-53.616852	97.932094	-53.616852	97.932094	-0.111264	-75.756109
4.700000	-0.102925	-68.781689	-53.308809	96.149388	-53.308809	96.149388	-0.112948	-76.503115
4.750000	-0.104750	-69.486292	-52.994830	94.303820	-52.994830	94.303820	-0.114668	-77.247714
4.800000	-0.106602	-70.191790	-52.687452	92.440523	-52.687452	92.440523	-0.116397	-77.991785
4.850000	-0.108590	-70.901769	-52.369568	90.488583	-52.369568	90.488583	-0.118165	-78.733219
4.900000	-0.110597	-71.612459	-52.060288	88.525009	-52.060288	88.525009	-0.119939	-79.474394
4.950000	-0.112817	-72.330961	-51.733836	86.433469	-51.733836	86.433469	-0.121759	-80.212719
5.000000	-0.115038	-73.049462	-51.419211	84.341929	-51.419211	84.341929	-0.123579	-80.951044
5.050000	-0.117580	-73.779981	-51.080941	82.079513	-51.080941	82.079513	-0.125447	-81.686577
5.100000	-0.120243	-74.514891	-50.744213	79.761395	-50.744213	79.761395	-0.127327	-82.421457
5.150000	-0.123243	-75.262049	-50.390190	77.287892	-50.390190	77.287892	-0.129240	-83.154514
5.200000	-0.126641	-76.022647	-50.020210	74.660084	-50.020210	74.660084	-0.131177	-83.886304
5.250000	-0.130396	-76.795271	-49.639814	71.894212	-49.639814	71.894212	-0.133137	-84.616960
5.300000	-0.135224	-77.600126	-49.211708	68.793521	-49.211708	68.793521	-0.135133	-85.345802
5.350000	-0.140435	-78.416056	-48.782955	65.579962	-48.782955	65.579962	-0.137141	-86.074075
5.400000	-0.147672	-79.284620	-48.281022	61.870052	-48.281022	61.870052	-0.139188	-86.800630
5.450000	-0.157443	-80.210167	-47.710871	57.666695	-47.710871	57.666695	-0.141264	-87.526078
5.500000	-0.171473	-81.218914	-47.044139	52.796103	-47.044139	52.796103	-0.143372	-88.250553
5.550000	-0.192393	-82.343147	-46.254148	47.069112	-46.254148	47.069112	-0.145517	-88.974302
5.600000	-0.229308	-83.686162	-45.231260	39.863253	-45.231260	39.863253	-0.147723	-89.697613
5.650000	-0.300946	-85.389969	-43.871374	30.437109	-43.871374	30.437109	-0.150044	-90.421303
5.700000	-0.476161	-87.813863	-41.909027	16.745845	-41.909027	16.745845	-0.152713	-91.147094
5.750000	-1.047438	-91.403817	-38.990201	-6.588506	-38.990201	-6.588506	-0.156801	-91.877666
5.800000	-3.033443	-88.253986	-35.924627	-56.361131	-35.924627	-56.361131	-0.166024	-92.590204
5.850000	-1.783453	-73.044759	-38.679449	-121.802374	-38.679449	-121.802374	-0.167756	-93.246511
5.900000	-0.704030	-76.096764	-43.328402	-159.731497	-43.328402	-159.731497	-0.165948	-93.953819
5.950000	-0.409820	-78.910230	-46.394421	174.660491	-46.394421	174.660491	-0.166697	-94.669552
6.000000	-0.301226	-80.831482	-48.096791	154.525001	-48.096791	154.525001	-0.168401	-95.383381
6.050000	-0.251320	-82.275997	-48.906641	138.621350	-48.906641	138.621350	-0.170493	-96.095008
6.100000	-0.224385	-83.468229	-49.224487	126.070594	-49.224487	126.070594	-0.172775	-96.804870
6.150000	-0.208991	-84.503232	-49.267412	116.212398	-49.267412	116.212398	-0.175179	-97.513175
6.200000	-0.199775	-85.437814	-49.171038	108.342896	-49.171038	108.342896	-0.177670	-98.220100
6.250000	-0.194172	-86.304494	-49.006123	101.918058	-49.006123	101.918058	-0.180229	-98.925765
6.300000	-0.191647	-87.103808	-48.799117	96.973963	-48.799117	96.973963	-0.182876	-99.629654
6.350000	-0.189123	-87.903123	-48.596930	92.029868	-48.596930	92.029868	-0.185524	-100.333543
6.400000	-0.188599	-88.651261	-48.381646	88.209605	-48.381646	88.209605	-0.188267	-101.035450
6.450000	-0.188258	-89.394747	-48.170000	84.491507	-48.170000	84.491507	-0.191019	-101.737176
6.500000	-0.188860	-90.110053	-47.961152	81.375868	-47.961152	81.375868	-0.193851	-102.437284
6.550000	-0.189652	-90.819722	-47.756771	78.380721	-47.756771	78.380721	-0.196700	-103.137069
6.600000	-0.190946	-91.512667	-47.558624	75.730767	-47.558624	75.730767	-0.199620	-103.835545
6.650000	-0.192409	-92.200038	-47.365397	73.195878	-47.365397	73.195878	-0.202564	-104.533585
6.700000	-0.194166	-92.876960	-47.178636	70.869937	-47.178636	70.869937	-0.205571	-105.230595
6.750000	-0.196072	-93.548658	-46.996911	68.648471	-46.996911	68.648471	-0.208610	-105.927090
6.800000	-0.198163	-94.213603	-46.821110	66.559231	-46.821110	66.559231	-0.211705	-106.622804
6.850000	-0.200388	-94.873724	-46.650337	64.564440	-46.650337	64.564440	-0.214841	-107.317962
6.900000	-0.202737	-95.529403	-46.484828	62.656368	-46.484828	62.656368	-0.218026	-108.012563
6.950000	-0.205211	-96.180637	-46.324349	60.835015	-46.324349	60.835015	-0.221261	-108.706610
7.000000	-0.207771	-96.828943	-46.168514	59.072103	-46.168514	59.072103	-0.224539	-109.400297
7.050000	-0.210452	-97.473148	-46.017811	57.391007	-46.017811	57.391007	-0.227877	-110.093483
7.100000	-0.213193	-98.115459	-45.871182	55.749914	-45.871182	55.749914	-0.231251	-110.786475
7.150000	-0.216054	-98.753979	-45.729944	54.188825	-45.729944	54.188825	-0.234696	-111.479081
7.200000	-0.218957	-99.391332	-45.592223	52.654950	-45.592223	52.654950	-0.238170	-112.171624
7.250000	-0.221982	-100.025187	-45.460364	51.202720	-45.460364	51.202720	-0.241727	-112.863974
7.300000	-0.225034	-100.658399	-45.331432	49.767969	-45.331432	49.767969	-0.245305	-113.556344
7.350000	-0.228211	-101.288400	-45.209095	48.420614	-45.209095	48.420614	-0.248982	-114.248813
7.400000	-0.231402	-101.918137	-45.089010	47.082205	-45.089010	47.082205	-0.252671	-114.941328
7.450000	-0.234724	-102.544970	-44.976570	45.842195	-44.976570	45.842195	-0.256475	-115.634356
7.500000	-0.238048	-103.171803	-44.865567	44.602185	-44.865567	44.602185	-0.260281	-116.327384
7.550000	-0.241510	-103.796088	-44.763636	43.478715	-44.763636	43.478715	-0.264225	-117.021501
7.600000	-0.244973	-104.420372	-44.662887	42.355244	-44.662887	42.355244	-0.268171	-117.715618
7.650000	-0.248559	-105.042871	-44.571546	41.354361	-44.571546	41.354361	-0.272257	-118.411325
7.700000	-0.252159	-105.665208	-44.481898	40.364621	-44.481898	40.364621	-0.276357	-119.107176
7.750000	-0.255872	-106.286448	-44.401917	39.509430	-44.401917	39.509430	-0.280603	-119.805144
7.800000	-0.259608	-106.907468	-44.324400	38.681148	-44.324400	38.681148	-0.284879	-120.503535
7.850000	-0.263454	-107.528025	-44.256576	38.005947	-44.256576	38.005947	-0.289307	-121.204598
7.900000	-0.267336	-108.148427	-44.192260	37.381772	-44.192260	37.381772	-0.293788	-121.906552
7.950000	-0.271328	-108.768958	-44.137159	36.936896	-44.137159	36.936896	-0.298434	-122.611772
8.000000	-0.275375	-109.389553	-44.086753	36.581669	-44.086753	36.581669	-0.303163	-123.318625
8.050000	-0.279541	-110.010820	-44.044091	36.440970	-44.044091	36.440970	-0.308074	-124.029380
8.100000	-0.283792	-110.632566	-44.006941	36.453504	-44.006941	36.453504	-0.313115	-124.742922
8.150000	-0.288176	-111.255471	-43.974187	36.725428	-43.974187	36.725428	-0.318362	-125.461047
8.200000	-0.292693	-111.879534	-43.945781	37.256740	-43.945781	37.256740	-0.323816	-126.183755
8.250000	-0.297361	-112.505176	-43.915030	38.099001	-43.915030	38.099001	-0.329511	-126.911761
8.300000	-0.302241	-113.133026	-43.880990	39.376590	-43.880990	39.376590	-0.335543	-127.647183
8.350000	-0.307238	-113.762155	-43.839265	40.894300	-43.839265	40.894300	-0.341766	-128.386639
8.400000	-0.312573	-114.395074	-43.769299	43.114536	-43.769299	43.114536	-0.348554	-129.137963
8.450000	-0.318220	-115.031523	-43.656616	45.955395	-43.656616	45.955395	-0.355888	-129.900139
8.500000	-0.324248	-115.672238	-43.475341	49.490528	-43.475341	49.490528	-0.363916	-130.675391
8.550000	-0.330706	-116.317708	-43.200713	53.709346	-43.200713	53.709346	-0.372766	-131.465253
8.600000	-0.337797	-116.969941	-42.768385	58.701806	-42.768385	58.701806	-0.382882	-132.276085
8.650000	-0.345654	-117.629946	-42.137729	64.263300	-42.137729	64.263300	-0.394619	-133.111390
8.700000	-0.354526	-118.299581	-41.262809	70.118530	-41.262809	70.118530	-0.408618	-133.977643
8.750000	-0.364787	-118.981260	-40.111858	75.873868	-40.111858	75.873868	-0.425872	-134.883653
8.800000	-0.377085	-119.678637	-38.659438	81.054741	-38.659438	81.054741	-0.448161	-135.843336
8.850000	-0.392356	-120.395604	-36.922291	85.233388	-36.922291	85.233388	-0.478199	-136.873201
8.900000	-0.412261	-121.137434	-34.913015	88.027270	-34.913015	88.027270	-0.520977	-137.997936
8.950000	-0.439981	-121.910278	-32.623909	89.016695	-32.623909	89.016695	-0.586537	-139.253457
9.000000	-0.481204	-122.715185	-30.061783	87.692546	-30.061783	87.692546	-0.694202	-140.674442
9.050000	-0.547623	-123.530065	-27.202060	83.042992	-27.202060	83.042992	-0.887682	-142.255489
9.100000	-0.658608	-124.227311	-24.104874	73.195231	-24.104874	73.195231	-1.256391	-143.678327
9.150000	-0.814863	-124.363002	-21.156347	55.265932	-21.156347	55.265932	-1.882872	-143.292450
9.200000	-0.878653	-123.547445	-19.440675	29.252935	-19.440675	29.252935	-2.282473	-138.464285
9.250000	-0.744339	-123.140381	-19.615562	4.309193	-19.615562	4.309193	-1.814586	-134.349206
9.300000	-0.606580	-123.765852	-20.666083	-12.723973	-20.666083	-12.723973	-1.269508	-134.343777
9.350000	-0.535132	-124.748474	-21.685631	-23.502841	-21.685631	-23.502841	-0.960606	-135.712118
9.400000	-0.506870	-125.785730	-22.415967	-30.844481	-22.415967	-30.844481	-0.800013	-137.216997
9.450000	-0.503647	-126.834219	-22.831242	-36.476679	-22.831242	-36.476679	-0.715714	-138.625984
9.500000	-0.518822	-127.916885	-22.947890	-41.407125	-22.947890	-41.407125	-0.673491	-139.938692
9.550000	-0.554219	-129.076550	-22.767513	-46.336785	-22.767513	-46.336785	-0.659716	-141.193694
9.600000	-0.620903	-130.369492	-22.271499	-51.979591	-22.271499	-51.979591	-0.672095	-142.433517
9.650000	-0.749263	-131.855273	-21.416805	-59.406950	-21.416805	-59.406950	-0.720462	-143.689400
9.700000	-1.016279	-133.465059	-20.180644	-70.641300	-20.180644	-70.641300	-0.835234	-144.911834
9.750000	-1.576193	-134.143186	-18.791611	-89.663324	-18.791611	-89.663324	-1.068922	-145.596845
9.800000	-2.185284	-130.020820	-18.506867	-119.950017	-18.506867	-119.950017	-1.287992	-144.309900
9.850000	-1.753583	-124.831092	-20.889610	-150.959383	-20.889610	-150.959383	-1.095754	-142.774200
9.900000	-1.158552	-124.783927	-24.671247	-170.155281	-24.671247	-170.155281	-0.842036	-143.277497
9.950000	-0.858554	-126.184719	-28.469865	-179.945894	-28.469865	-179.945894	-0.710383	-144.392983
10.000000	-0.714334	-127.572576	-32.043689	175.725193	-32.043689	175.725193	-0.646950	-145.501918
