! freq	dB(S11)	phase(S11)	dB(S12)	phase(S12)	
!     	dB(S21)	phase(S21)	dB(S22)	phase(S22)	
!S-par simulation data
#  GHz  S  DB  R 50
0.000000	-0.000000	0.000000	-265.105932	0.000000	-265.105932	0.000000	-0.000000	0.000000
0.050000	-0.009035	-8.233727	-50.987738	84.717346	-50.987738	84.717346	-0.001937	-1.790156
0.100000	-0.024612	-16.335190	-45.046465	79.804190	-45.046465	79.804190	-0.005194	-3.562761
0.150000	-0.037314	-24.292668	-41.614749	74.980597	-41.614749	74.980597	-0.007969	-5.325872
0.200000	-0.047122	-32.097968	-39.226342	70.215696	-39.226342	70.215696	-0.010384	-7.085380
0.250000	-0.055313	-39.721054	-37.422454	65.532732	-37.422454	65.532732	-0.012701	-8.842461
0.300000	-0.062633	-47.135882	-35.994804	60.951673	-35.994804	60.951673	-0.015041	-10.597050
0.350000	-0.069353	-54.317697	-34.831755	56.488889	-34.831755	56.488889	-0.017439	-12.348826
0.400000	-0.075540	-61.248027	-33.865401	52.156126	-33.865401	52.156126	-0.019893	-14.097501
0.450000	-0.081195	-67.917493	-33.050363	47.959631	-33.050363	47.959631	-0.022393	-15.842877
0.500000	-0.086301	-74.321994	-32.355006	43.902418	-32.355006	43.902418	-0.024922	-17.584785
0.550000	-0.090850	-80.461458	-31.756350	39.984999	-31.756350	39.984999	-0.027469	-19.323062
0.600000	-0.094847	-86.340011	-31.236976	36.205245	-31.236976	36.205245	-0.030024	-21.057548
0.650000	-0.098313	-91.963503	-30.783552	32.559570	-30.783552	32.559570	-0.032576	-22.788047
0.700000	-0.101281	-97.341545	-30.385267	29.041795	-30.385267	29.041795	-0.035119	-24.514370
0.750000	-0.103788	-102.483511	-30.033534	25.645473	-30.033534	25.645473	-0.037646	-26.236278
0.800000	-0.105889	-107.406491	-29.720442	22.360400	-29.720442	22.360400	-0.040151	-27.953647
0.850000	-0.107627	-112.121077	-29.440145	19.180470	-29.440145	19.180470	-0.042629	-29.666215
0.900000	-0.109048	-116.639943	-29.187539	16.099425	-29.187539	16.099425	-0.045075	-31.373745
0.950000	-0.110197	-120.975667	-28.958390	13.111708	-28.958390	13.111708	-0.047485	-33.075998
1.000000	-0.111117	-125.140533	-28.749206	10.212104	-28.749206	10.212104	-0.049857	-34.772732
1.050000	-0.111849	-129.146405	-28.557090	7.395486	-28.557090	7.395486	-0.052190	-36.463709
1.100000	-0.112430	-133.004637	-28.379616	4.656730	-28.379616	4.656730	-0.054485	-38.148698
1.150000	-0.112896	-136.726022	-28.214726	1.990765	-28.214726	1.990765	-0.056741	-39.827480
1.200000	-0.113279	-140.320761	-28.060651	-0.607352	-28.060651	-0.607352	-0.058961	-41.499847
1.250000	-0.113607	-143.798462	-27.915864	-3.142360	-27.915864	-3.142360	-0.061148	-43.165607
1.300000	-0.113905	-147.165997	-27.779133	-5.617578	-27.779133	-5.617578	-0.063303	-44.824431
1.350000	-0.114197	-150.434323	-27.649153	-8.038591	-27.649153	-8.038591	-0.065432	-46.476301
1.400000	-0.114503	-153.611310	-27.524902	-10.409342	-27.524902	-10.409342	-0.067537	-48.121071
1.450000	-0.114839	-156.704313	-27.405479	-12.733516	-27.405479	-12.733516	-0.069621	-49.758609
1.500000	-0.115218	-159.720204	-27.290083	-15.014556	-27.290083	-15.014556	-0.071687	-51.388797
1.550000	-0.115653	-162.665403	-27.177999	-17.255680	-27.177999	-17.255680	-0.073738	-53.011528
1.600000	-0.116153	-165.545912	-27.068589	-19.459900	-27.068589	-19.459900	-0.075776	-54.626706
1.650000	-0.116727	-168.367347	-26.961277	-21.630042	-26.961277	-21.630042	-0.077803	-56.234246
1.700000	-0.117380	-171.135833	-26.855550	-23.769276	-26.855550	-23.769276	-0.079821	-57.834214
1.750000	-0.118127	-173.852113	-26.750901	-25.877610	-26.750901	-25.877610	-0.081832	-59.425835
1.800000	-0.118959	-176.527461	-26.646966	-27.961378	-26.646966	-27.961378	-0.083836	-61.010184
1.850000	-0.119891	-179.161305	-26.543270	-30.019855	-26.543270	-30.019855	-0.085836	-62.586298
1.900000	-0.120923	178.240024	-26.439519	-32.056542	-26.439519	-32.056542	-0.087832	-64.154592
1.950000	-0.122060	175.672899	-26.335363	-34.073318	-26.335363	-34.073318	-0.089826	-65.714953
2.000000	-0.123310	173.134964	-26.230406	-36.071290	-26.230406	-36.071290	-0.091819	-67.266973
2.050000	-0.124671	170.621009	-26.124475	-38.053439	-26.124475	-38.053439	-0.093813	-68.811094
2.100000	-0.126148	168.127814	-26.017319	-40.021525	-26.017319	-40.021525	-0.095808	-70.347297
2.150000	-0.127746	165.652284	-25.908704	-41.977258	-25.908704	-41.977258	-0.097807	-71.875574
2.200000	-0.129468	163.191436	-25.798413	-43.922308	-25.798413	-43.922308	-0.099810	-73.395918
2.250000	-0.131324	160.742649	-25.686131	-45.858087	-25.686131	-45.858087	-0.101820	-74.908088
2.300000	-0.133329	158.303237	-25.571438	-47.786006	-25.571438	-47.786006	-0.103840	-76.411650
2.350000	-0.135477	155.869510	-25.454443	-49.708395	-25.454443	-49.708395	-0.105869	-77.907300
2.400000	-0.137775	153.438795	-25.334978	-51.626818	-25.334978	-51.626818	-0.107911	-79.395054
2.450000	-0.140232	151.008457	-25.212882	-53.542823	-25.212882	-53.542823	-0.109969	-80.874932
2.500000	-0.142855	148.575891	-25.088006	-55.457955	-25.088006	-55.457955	-0.112043	-82.346961
2.550000	-0.145654	146.138506	-24.960207	-57.373753	-24.960207	-57.373753	-0.114137	-83.811172
2.600000	-0.148654	143.692911	-24.828935	-59.292064	-24.828935	-59.292064	-0.116256	-85.266982
2.650000	-0.151860	141.236488	-24.694250	-61.214546	-24.694250	-61.214546	-0.118402	-86.714770
2.700000	-0.155277	138.766903	-24.556215	-63.142672	-24.556215	-63.142672	-0.120577	-88.154866
2.750000	-0.158919	136.281505	-24.414719	-65.078021	-24.414719	-65.078021	-0.122784	-89.587318
2.800000	-0.162800	133.777598	-24.269654	-67.022190	-24.269654	-67.022190	-0.125028	-91.012177
2.850000	-0.166937	131.252432	-24.120919	-68.976805	-24.120919	-68.976805	-0.127312	-92.429498
2.900000	-0.171350	128.702851	-23.968339	-70.943689	-23.968339	-70.943689	-0.129640	-93.839248
2.950000	-0.176088	126.123105	-23.811190	-72.926015	-23.811190	-72.926015	-0.132022	-95.240811
3.000000	-0.181143	123.512743	-23.650063	-74.924227	-23.650063	-74.924227	-0.134457	-96.635032
3.050000	-0.186539	120.868635	-23.484882	-76.940116	-23.484882	-76.940116	-0.136951	-98.021976
3.100000	-0.192301	118.187527	-23.315579	-78.975523	-23.315579	-78.975523	-0.139509	-99.401711
3.150000	-0.198457	115.466028	-23.142092	-81.032351	-23.142092	-81.032351	-0.142136	-100.774308
3.200000	-0.205036	112.700592	-22.964369	-83.112568	-22.964369	-83.112568	-0.144838	-102.139837
3.250000	-0.212103	109.884333	-22.781857	-85.219912	-22.781857	-85.219912	-0.147627	-103.497945
3.300000	-0.219696	107.013013	-22.594543	-87.356686	-22.594543	-87.356686	-0.150510	-104.848760
3.350000	-0.227797	104.088751	-22.403364	-89.521770	-22.403364	-89.521770	-0.153483	-106.193137
3.400000	-0.236513	101.100326	-22.207308	-91.721148	-22.207308	-91.721148	-0.156566	-107.530364
3.450000	-0.245873	98.045238	-22.006721	-93.956113	-22.006721	-93.956113	-0.159763	-108.860791
3.500000	-0.255931	94.918366	-21.801612	-96.229329	-21.801612	-96.229329	-0.163082	-110.184488
3.550000	-0.266746	91.714285	-21.592015	-98.543586	-21.592015	-98.543586	-0.166535	-111.501522
3.600000	-0.278383	88.427242	-21.377982	-100.901812	-21.377982	-100.901812	-0.170129	-112.811957
3.650000	-0.290910	85.051140	-21.159593	-103.307076	-21.159593	-103.307076	-0.173877	-114.115850
3.700000	-0.304404	81.579515	-20.936957	-105.762595	-20.936957	-105.762595	-0.177789	-115.413252
3.750000	-0.318945	78.005526	-20.710216	-108.271735	-20.710216	-108.271735	-0.181876	-116.704204
3.800000	-0.334644	74.319380	-20.479338	-110.839342	-20.479338	-110.839342	-0.186154	-117.988601
3.850000	-0.351571	70.515638	-20.244769	-113.467925	-20.244769	-113.467925	-0.190632	-119.266602
3.900000	-0.369820	66.586247	-20.006793	-116.161297	-20.006793	-116.161297	-0.195322	-120.538213
3.950000	-0.389491	62.522772	-19.765753	-118.923393	-19.765753	-118.923393	-0.200235	-121.803423
4.000000	-0.410683	58.316428	-19.522062	-121.758249	-19.522062	-121.758249	-0.205382	-123.062205
4.050000	-0.433495	53.958120	-19.276207	-124.669967	-19.276207	-124.669967	-0.210774	-124.314511
4.100000	-0.457972	49.443631	-19.029000	-127.660123	-19.029000	-127.660123	-0.216410	-125.560470
4.150000	-0.484311	44.752577	-18.780566	-130.738265	-18.780566	-130.738265	-0.222314	-126.799558
4.200000	-0.512528	39.881168	-18.531983	-133.905512	-18.531983	-133.905512	-0.228478	-128.031890
4.250000	-0.542677	34.820093	-18.284135	-137.165638	-18.284135	-137.165638	-0.234903	-129.257325
4.300000	-0.574784	29.560430	-18.038024	-140.522092	-18.038024	-140.522092	-0.241580	-130.475700
4.350000	-0.608836	24.093927	-17.794778	-143.977870	-17.794778	-143.977870	-0.248497	-131.686833
4.400000	-0.644783	18.412140	-17.555643	-147.535908	-17.555643	-147.535908	-0.255634	-132.890486
4.450000	-0.682498	12.509151	-17.322027	-151.197796	-17.322027	-151.197796	-0.262959	-134.086457
4.500000	-0.721776	6.382206	-17.095441	-154.963524	-17.095441	-154.963524	-0.270429	-135.274592
4.550000	-0.762336	0.029761	-16.877481	-158.832431	-16.877481	-158.832431	-0.277994	-136.454720
4.600000	-0.803803	-6.546823	-16.669818	-162.802442	-16.669818	-162.802442	-0.285590	-137.626711
4.650000	-0.845705	-13.342760	-16.474168	-166.869888	-16.474168	-166.869888	-0.293141	-138.790491
4.700000	-0.887467	-20.349888	-16.292281	-171.029577	-16.292281	-171.029577	-0.300564	-139.946050
4.750000	-0.928417	-27.556026	-16.125924	-175.274572	-16.125924	-175.274572	-0.307764	-141.093458
4.800000	-0.967826	-34.941743	-15.976581	-179.594912	-15.976581	-179.594912	-0.314646	-142.233016
4.850000	-1.004926	-42.484755	-15.845651	176.020414	-15.845651	176.020414	-0.321116	-143.365092
4.900000	-1.038947	-50.158442	-15.734306	171.584045	-15.734306	171.584045	-0.327084	-144.490183
4.950000	-1.069164	-57.932362	-15.643441	167.109980	-15.643441	167.109980	-0.332472	-145.608916
5.000000	-1.094938	-65.773043	-15.573630	162.613207	-15.573630	162.613207	-0.337216	-146.722023
5.050000	-1.115710	-73.644950	-15.525325	158.109370	-15.525325	158.109370	-0.341266	-147.830276
5.100000	-1.131195	-81.511106	-15.498152	153.614324	-15.498152	153.614324	-0.344610	-148.934594
5.150000	-1.141249	-89.335833	-15.491600	149.143239	-15.491600	149.143239	-0.347252	-150.035840
5.200000	-1.145914	-97.085250	-15.504833	144.710397	-15.504833	144.710397	-0.349216	-151.134842
5.250000	-1.145412	-104.728352	-15.536723	140.328812	-15.536723	140.328812	-0.350550	-152.232359
5.300000	-1.140112	-112.237869	-15.585910	136.009932	-15.585910	136.009932	-0.351315	-153.329058
5.350000	-1.130470	-119.589408	-15.650960	131.764102	-15.650960	131.764102	-0.351581	-154.425495
5.400000	-1.117081	-126.765300	-15.730102	127.598836	-15.730102	127.598836	-0.351433	-155.522113
5.450000	-1.100559	-133.752389	-15.821571	123.519860	-15.821571	123.519860	-0.350952	-156.619232
5.500000	-1.081509	-140.541488	-15.923636	119.531334	-15.923636	119.531334	-0.350221	-157.717063
5.550000	-1.060511	-147.127423	-16.034602	115.635794	-16.034602	115.635794	-0.349314	-158.815727
5.600000	-1.038100	-153.508549	-16.152843	111.834338	-16.152843	111.834338	-0.348301	-159.915266
5.650000	-1.014755	-159.685129	-16.276840	108.127323	-16.276840	108.127323	-0.347244	-161.015668
5.700000	-0.990897	-165.661061	-16.405148	104.513532	-16.405148	104.513532	-0.346196	-162.116873
5.750000	-0.966882	-171.443234	-16.536452	100.990409	-16.536452	100.990409	-0.345200	-163.218787
5.800000	-0.943000	-177.038868	-16.669582	97.555263	-16.669582	97.555263	-0.344293	-164.321304
5.850000	-0.919481	177.543788	-16.803495	94.204919	-16.803495	94.204919	-0.343503	-165.424312
5.900000	-0.896507	172.295804	-16.937264	90.935862	-16.937264	90.935862	-0.342851	-166.527701
5.950000	-0.874241	167.213171	-17.069947	87.746950	-17.069947	87.746950	-0.342360	-167.631372
6.000000	-0.852738	162.276194	-17.201053	84.629353	-17.201053	84.629353	-0.342031	-168.735218
6.050000	-0.832086	157.480207	-17.329884	81.581482	-17.329884	81.581482	-0.341874	-169.839165
6.100000	-0.812327	152.815907	-17.455915	78.599446	-17.455915	78.599446	-0.341894	-170.943146
6.150000	-0.793485	148.274250	-17.578699	75.679413	-17.578699	75.679413	-0.342093	-172.047111
6.200000	-0.775568	143.846524	-17.697859	72.817652	-17.697859	72.817652	-0.342468	-173.151020
6.250000	-0.758572	139.524390	-17.813079	70.010556	-17.813079	70.010556	-0.343019	-174.254851
6.300000	-0.742503	135.301866	-17.923969	67.255688	-17.923969	67.255688	-0.343744	-175.358590
6.350000	-0.727320	131.169172	-18.030437	64.548550	-18.030437	64.548550	-0.344637	-176.462241
6.400000	-0.713000	127.119251	-18.132309	61.885985	-18.132309	61.885985	-0.345690	-177.565817
6.450000	-0.699516	123.145465	-18.229446	59.264995	-18.229446	59.264995	-0.346900	-178.669341
6.500000	-0.686839	119.241582	-18.321741	56.682730	-18.321741	56.682730	-0.348261	-179.772844
6.550000	-0.674940	115.401764	-18.409111	54.136493	-18.409111	54.136493	-0.349766	179.123634
6.600000	-0.663791	111.620549	-18.491496	51.623728	-18.491496	51.623728	-0.351411	178.020048
6.650000	-0.653364	107.892828	-18.568855	49.142018	-18.568855	49.142018	-0.353190	176.916345
6.700000	-0.643631	104.213670	-18.641188	46.688976	-18.641188	46.688976	-0.355097	175.812469
6.750000	-0.634568	100.578764	-18.708468	44.262518	-18.708468	44.262518	-0.357127	174.708358
6.800000	-0.626160	96.984413	-18.770630	41.860883	-18.770630	41.860883	-0.359276	173.603942
6.850000	-0.618387	93.426737	-18.827673	39.482139	-18.827673	39.482139	-0.361541	172.499149
6.900000	-0.611213	89.901085	-18.879783	37.123794	-18.879783	37.123794	-0.363913	171.393919
6.950000	-0.604627	86.404505	-18.926932	34.784358	-18.926932	34.784358	-0.366390	170.288175
7.000000	-0.598635	82.934749	-18.968971	32.462779	-18.968971	32.462779	-0.368971	169.181819
7.050000	-0.593199	79.487670	-19.006185	30.156671	-19.006185	30.156671	-0.371647	168.074801
7.100000	-0.588307	76.060648	-19.038619	27.864601	-19.038619	27.864601	-0.374417	166.967045
7.150000	-0.583980	72.652030	-19.066070	25.585792	-19.066070	25.585792	-0.377280	165.858428
7.200000	-0.580186	69.258597	-19.088820	23.318285	-19.088820	23.318285	-0.380231	164.748908
7.250000	-0.576919	65.878106	-19.106952	21.060757	-19.106952	21.060757	-0.383266	163.638411
7.300000	-0.574193	62.508872	-19.120364	18.812283	-19.120364	18.812283	-0.386386	162.526820
7.350000	-0.572003	59.148755	-19.129178	16.571530	-19.129178	16.571530	-0.389587	161.414064
7.400000	-0.570336	55.795756	-19.133562	14.337203	-19.133562	14.337203	-0.392865	160.300090
7.450000	-0.569205	52.448299	-19.133499	12.108328	-19.133499	12.108328	-0.396221	159.184795
7.500000	-0.568626	49.104813	-19.128966	9.883915	-19.128966	9.883915	-0.399654	158.068066
7.550000	-0.568582	45.763638	-19.120204	7.662782	-19.120204	7.662782	-0.403161	156.949877
7.600000	-0.569082	42.423402	-19.107274	5.443991	-19.107274	5.443991	-0.406739	155.830151
7.650000	-0.570163	39.082718	-19.090017	3.226663	-19.090017	3.226663	-0.410393	154.708717
7.700000	-0.571805	35.740322	-19.068740	1.009796	-19.068740	1.009796	-0.414117	153.585588
7.750000	-0.574017	32.395053	-19.043510	-1.207456	-19.043510	-1.207456	-0.417910	152.460689
7.800000	-0.576836	29.045587	-19.014227	-3.426000	-19.014227	-3.426000	-0.421776	151.333863
7.850000	-0.580258	25.690912	-18.981074	-5.646651	-18.981074	-5.646651	-0.425712	150.205084
7.900000	-0.584288	22.330076	-18.944179	-7.870160	-18.944179	-7.870160	-0.429717	149.074307
7.950000	-0.588955	18.961895	-18.903510	-10.097393	-18.903510	-10.097393	-0.433793	147.941405
8.000000	-0.594278	15.585302	-18.859116	-12.329161	-18.859116	-12.329161	-0.437941	146.806289
8.050000	-0.600254	12.199616	-18.811185	-14.566056	-18.811185	-14.566056	-0.442160	145.668956
8.100000	-0.606932	8.803342	-18.759582	-16.809130	-18.759582	-16.809130	-0.446452	144.529210
8.150000	-0.614286	5.396276	-18.704627	-19.058664	-18.704627	-19.058664	-0.450816	143.387138
8.200000	-0.622340	1.977366	-18.646328	-21.315431	-18.646328	-21.315431	-0.455252	142.242637
8.250000	-0.631154	-1.455026	-18.584531	-23.580559	-18.584531	-23.580559	-0.459767	141.095496
8.300000	-0.640659	-4.900249	-18.519730	-25.853738	-18.519730	-25.853738	-0.464353	139.945944
8.350000	-0.650981	-8.361277	-18.451443	-28.136918	-18.451443	-28.136918	-0.469023	138.793537
8.400000	-0.662070	-11.837755	-18.380065	-30.429933	-18.380065	-30.429933	-0.473772	137.638447
8.450000	-0.673956	-15.330901	-18.305581	-32.733592	-18.305581	-32.733592	-0.478603	136.480565
8.500000	-0.686655	-18.841699	-18.228045	-35.048532	-18.228045	-35.048532	-0.483519	135.319828
8.550000	-0.700185	-22.371162	-18.147503	-37.375391	-18.147503	-37.375391	-0.488523	134.156175
8.600000	-0.714561	-25.920344	-18.064000	-39.714805	-18.064000	-39.714805	-0.493616	132.989549
8.650000	-0.729799	-29.490345	-17.977578	-42.067416	-17.977578	-42.067416	-0.498804	131.819890
8.700000	-0.745912	-33.082313	-17.888275	-44.433871	-17.888275	-44.433871	-0.504088	130.647142
8.750000	-0.762915	-36.697455	-17.796124	-46.814830	-17.796124	-46.814830	-0.509473	129.471250
8.800000	-0.780840	-40.337606	-17.701071	-49.211311	-17.701071	-49.211311	-0.514965	128.292090
8.850000	-0.799678	-44.003610	-17.603224	-51.623692	-17.603224	-51.623692	-0.520567	127.109677
8.900000	-0.819439	-47.696893	-17.502604	-54.052689	-17.502604	-54.052689	-0.526284	125.923960
8.950000	-0.840131	-51.418969	-17.399226	-56.499047	-17.399226	-56.499047	-0.532120	124.734890
9.000000	-0.861761	-55.171441	-17.293105	-58.963542	-17.293105	-58.963542	-0.538084	123.542420
9.050000	-0.884331	-58.956017	-17.184247	-61.446994	-17.184247	-61.446994	-0.544180	122.346502
9.100000	-0.907845	-62.774511	-17.072659	-63.950262	-17.072659	-63.950262	-0.550418	121.147094
9.150000	-0.932299	-66.628856	-16.958342	-66.474260	-16.958342	-66.474260	-0.556804	119.944154
9.200000	-0.957671	-70.520184	-16.841395	-69.019434	-16.841395	-69.019434	-0.563345	118.737727
9.250000	-0.984000	-74.452948	-16.721572	-71.588099	-16.721572	-71.588099	-0.570061	117.527576
9.300000	-1.011246	-78.428207	-16.599015	-74.180626	-16.599015	-74.180626	-0.576959	116.313797
9.350000	-1.039392	-82.448460	-16.473728	-76.798197	-16.473728	-76.798197	-0.584051	115.096371
9.400000	-1.068419	-86.516374	-16.345716	-79.442072	-16.345716	-79.442072	-0.591354	113.875295
9.450000	-1.098299	-90.634796	-16.214997	-82.113599	-16.214997	-82.113599	-0.598883	112.650582
9.500000	-1.129003	-94.806764	-16.081603	-84.814211	-16.081603	-84.814211	-0.606657	111.422270
9.550000	-1.160493	-99.035523	-15.945587	-87.545430	-15.945587	-87.545430	-0.614693	110.190428
9.600000	-1.192729	-103.324850	-15.807011	-90.309030	-15.807011	-90.309030	-0.623011	108.955149
9.650000	-1.225664	-107.678840	-15.665982	-93.106911	-15.665982	-93.106911	-0.631626	107.716576
9.700000	-1.259238	-112.100892	-15.522739	-95.940552	-15.522739	-95.940552	-0.640542	106.474942
9.750000	-1.293387	-116.595266	-15.377566	-98.811845	-15.377566	-98.811845	-0.649754	105.230482
9.800000	-1.328048	-121.166529	-15.230867	-101.722816	-15.230867	-101.722816	-0.659243	103.983429
9.850000	-1.363147	-125.819583	-15.083221	-104.675708	-15.083221	-104.675708	-0.668971	102.733963
9.900000	-1.398613	-130.559697	-14.935446	-107.673179	-14.935446	-107.673179	-0.678889	101.482156
9.950000	-1.434372	-135.392544	-14.788687	-110.718700	-14.788687	-110.718700	-0.688942	100.227916
10.000000	-1.470353	-140.324242	-14.644524	-113.817367	-14.644524	-113.817367	-0.699082	98.970978
