! freq	dB(S11)	phase(S11)	dB(S12)	phase(S12)	
!     	dB(S21)	phase(S21)	dB(S22)	phase(S22)	
!S-par simulation data
#  GHz  S  DB  R 50
0.000000	-0.000000	0.000000	-352.239400	180.000000	-352.239400	180.000000	-0.000000	0.000000
0.050000	-0.000078	-0.762268	-96.660197	173.217861	-96.660197	173.217861	-0.000078	-0.762276
0.100000	-0.000309	-1.524380	-96.522789	165.610386	-96.522789	165.610386	-0.000309	-1.524396
0.150000	-0.000692	-2.286175	-96.308650	158.604959	-96.308650	158.604959	-0.000692	-2.286200
0.200000	-0.001208	-3.047549	-96.041774	152.110050	-96.041774	152.110050	-0.001207	-3.047583
0.250000	-0.001849	-3.808374	-95.740466	146.173305	-95.740466	146.173305	-0.001848	-3.808419
0.300000	-0.002614	-4.568482	-95.423090	140.866495	-95.423090	140.866495	-0.002613	-4.568537
0.350000	-0.003469	-5.327905	-95.110539	136.083674	-95.110539	136.083674	-0.003467	-5.327971
0.400000	-0.004414	-6.086475	-94.815725	131.886976	-94.815725	131.886976	-0.004412	-6.086552
0.450000	-0.005427	-6.844217	-94.549498	128.201025	-94.549498	128.201025	-0.005424	-6.844307
0.500000	-0.006495	-7.601068	-94.321083	125.025819	-94.321083	125.025819	-0.006493	-7.601170
0.550000	-0.007607	-8.357018	-94.137095	122.340975	-94.137095	122.340975	-0.007604	-8.357132
0.600000	-0.008750	-9.112063	-94.002707	120.140873	-94.002707	120.140873	-0.008747	-9.112190
0.650000	-0.009914	-9.866208	-93.921854	118.433259	-93.921854	118.433259	-0.009910	-9.866348
0.700000	-0.011089	-10.619464	-93.897355	117.242083	-93.897355	117.242083	-0.011085	-10.619616
0.750000	-0.012268	-11.371846	-93.930754	116.610657	-93.930754	116.610657	-0.012265	-11.372011
0.800000	-0.013445	-12.123371	-94.021798	116.605283	-94.021798	116.605283	-0.013443	-12.123549
0.850000	-0.014614	-12.873919	-94.172886	117.483433	-94.172886	117.483433	-0.014611	-12.874109
0.900000	-0.015772	-13.623610	-94.372140	119.243991	-94.372140	119.243991	-0.015770	-13.623812
0.950000	-0.016923	-14.372888	-94.577160	121.585428	-94.577160	121.585428	-0.016921	-14.373102
1.000000	-0.018052	-15.120924	-94.790482	125.669503	-94.790482	125.669503	-0.018050	-15.121150
1.050000	-0.019175	-15.868693	-94.973124	130.200430	-94.973124	130.200430	-0.019173	-15.868929
1.100000	-0.020270	-16.615121	-94.977815	136.965619	-94.977815	136.965619	-0.020268	-16.615369
1.150000	-0.021363	-17.361418	-94.938547	143.848035	-94.938547	143.848035	-0.021361	-17.361676
1.200000	-0.022425	-18.106262	-94.432061	152.019949	-94.432061	152.019949	-0.022424	-18.106530
1.250000	-0.023488	-18.851106	-93.953489	160.191863	-93.953489	160.191863	-0.023487	-18.851384
1.300000	-0.024527	-19.594763	-93.052523	167.705318	-93.052523	167.705318	-0.024526	-19.595052
1.350000	-0.025553	-20.337658	-91.972845	174.127725	-91.972845	174.127725	-0.025553	-20.337956
1.400000	-0.026568	-21.079785	-90.790773	179.329981	-90.790773	179.329981	-0.026567	-21.080093
1.450000	-0.027571	-21.821137	-89.567965	-176.624740	-89.567965	-176.624740	-0.027570	-21.821453
1.500000	-0.028564	-22.561703	-88.346192	-173.584361	-88.346192	-173.584361	-0.028564	-22.562029
1.550000	-0.029548	-23.301475	-87.150414	-171.376669	-87.150414	-171.376669	-0.029548	-23.301810
1.600000	-0.030524	-24.040441	-85.993907	-169.842893	-85.993907	-169.842893	-0.030525	-24.040785
1.650000	-0.031494	-24.778587	-84.882623	-168.849264	-84.882623	-168.849264	-0.031495	-24.778940
1.700000	-0.032457	-25.515606	-83.790988	-168.398642	-83.790988	-168.398642	-0.032458	-25.515967
1.750000	-0.033418	-26.252185	-82.784870	-168.142615	-82.784870	-168.142615	-0.033419	-26.252555
1.800000	-0.034375	-26.987709	-81.806945	-168.201559	-81.806945	-168.201559	-0.034375	-26.988088
1.850000	-0.035328	-27.722479	-80.879135	-168.485481	-80.879135	-168.485481	-0.035329	-27.722866
1.900000	-0.036281	-28.456310	-79.987170	-168.946556	-79.987170	-168.946556	-0.036282	-28.456707
1.950000	-0.037232	-29.189204	-79.129633	-169.584783	-79.129633	-169.584783	-0.037233	-29.189609
2.000000	-0.038183	-29.921287	-78.311476	-170.322893	-78.311476	-170.322893	-0.038184	-29.921701
2.050000	-0.039134	-30.652236	-77.515573	-171.200837	-77.515573	-171.200837	-0.039135	-30.652658
2.100000	-0.040086	-31.382513	-76.760652	-172.134333	-76.760652	-172.134333	-0.040087	-31.382944
2.150000	-0.041040	-32.111448	-76.018575	-173.178930	-76.018575	-173.178930	-0.041041	-32.111887
2.200000	-0.041996	-32.839861	-75.318088	-174.253152	-75.318088	-174.253152	-0.041997	-32.840310
2.250000	-0.042956	-33.566713	-74.623157	-175.416244	-74.623157	-175.416244	-0.042957	-33.567170
2.300000	-0.043917	-34.293206	-73.969867	-176.593631	-73.969867	-176.593631	-0.043918	-34.293671
2.350000	-0.044885	-35.017906	-73.316461	-177.842491	-73.316461	-177.842491	-0.044885	-35.018380
2.400000	-0.045853	-35.742423	-72.704420	-179.096593	-72.704420	-179.096593	-0.045854	-35.742905
2.450000	-0.046830	-36.464907	-72.087822	179.591636	-72.087822	179.591636	-0.046831	-36.465399
2.500000	-0.047807	-37.187392	-71.512109	178.279866	-71.512109	178.279866	-0.047808	-37.187892
2.550000	-0.048795	-37.907598	-70.928345	176.921529	-70.928345	176.921529	-0.048796	-37.908106
2.600000	-0.049783	-38.627804	-70.381356	175.563192	-70.381356	175.563192	-0.049784	-38.628320
2.650000	-0.050782	-39.345865	-69.830558	174.173104	-69.830558	174.173104	-0.050783	-39.346390
2.700000	-0.051783	-40.063731	-69.309518	172.780128	-69.309518	172.780128	-0.051783	-40.064265
2.750000	-0.052795	-40.779600	-68.788129	171.365667	-68.788129	171.365667	-0.052795	-40.780142
2.800000	-0.053809	-41.495070	-68.290645	169.946908	-68.290645	169.946908	-0.053810	-41.495620
2.850000	-0.054834	-42.208701	-67.795653	168.513811	-67.795653	168.513811	-0.054835	-42.209260
2.900000	-0.055863	-42.921719	-67.319643	167.075934	-67.319643	167.075934	-0.055864	-42.922286
2.950000	-0.056903	-43.633069	-66.848472	165.628692	-66.848472	165.628692	-0.056904	-43.633645
3.000000	-0.057948	-44.343585	-66.392117	164.176767	-66.392117	164.176767	-0.057949	-44.344169
3.050000	-0.059003	-45.052614	-65.942547	162.718916	-65.942547	162.718916	-0.059004	-45.053206
3.100000	-0.060065	-45.760580	-65.504244	161.256833	-65.504244	161.256833	-0.060066	-45.761180
3.150000	-0.061137	-46.467249	-65.074349	159.791166	-65.074349	159.791166	-0.061138	-46.467857
3.200000	-0.062217	-47.172621	-64.652679	158.321915	-64.652679	158.321915	-0.062218	-47.173238
3.250000	-0.063305	-47.876896	-64.240774	156.850640	-64.240774	156.850640	-0.063307	-47.877520
3.300000	-0.064405	-48.579632	-63.834476	155.376528	-63.834476	155.376528	-0.064406	-48.580264
3.350000	-0.065511	-49.281478	-63.439081	153.901385	-63.439081	153.901385	-0.065512	-49.282118
3.400000	-0.066631	-49.981542	-63.047026	152.424181	-63.047026	152.424181	-0.066632	-49.982190
3.450000	-0.067756	-50.680930	-62.666832	150.946538	-62.666832	150.946538	-0.067757	-50.681585
3.500000	-0.068897	-51.378287	-62.288008	149.467584	-62.288008	149.467584	-0.068899	-51.378949
3.550000	-0.070042	-52.075187	-61.921855	147.988505	-61.921855	147.988505	-0.070044	-52.075858
3.600000	-0.071206	-52.769806	-61.555350	146.508805	-61.555350	146.508805	-0.071207	-52.770484
3.650000	-0.072371	-53.464195	-61.202204	145.029103	-61.202204	145.029103	-0.072373	-53.464880
3.700000	-0.073559	-54.156047	-60.847196	143.549387	-60.847196	143.549387	-0.073560	-54.156740
3.750000	-0.074746	-54.847900	-60.506130	142.069670	-60.506130	142.069670	-0.074748	-54.848600
3.800000	-0.075958	-55.536963	-60.161876	140.590445	-60.161876	140.590445	-0.075960	-55.537670
3.850000	-0.077170	-56.226025	-59.830747	139.111220	-59.830747	139.111220	-0.077172	-56.226740
3.900000	-0.078407	-56.912510	-59.497887	137.632743	-59.497887	137.632743	-0.078409	-56.913232
3.950000	-0.079645	-57.598761	-59.176096	136.154334	-59.176096	136.154334	-0.079647	-57.599489
4.000000	-0.080907	-58.282653	-58.853872	134.676753	-58.853872	134.676753	-0.080909	-58.283388
4.050000	-0.082173	-58.966073	-58.540875	133.199338	-58.540875	133.199338	-0.082175	-58.966815
4.100000	-0.083461	-59.647359	-58.228607	131.722710	-58.228607	131.722710	-0.083463	-59.648108
4.150000	-0.084756	-60.327933	-57.923909	130.246344	-57.923909	130.246344	-0.084758	-60.328690
4.200000	-0.086072	-61.006602	-57.620983	128.770652	-57.620983	128.770652	-0.086074	-61.007365
4.250000	-0.087397	-61.684318	-57.324135	127.295295	-57.324135	127.295295	-0.087400	-61.685088
4.300000	-0.088742	-62.360361	-57.029999	125.820459	-57.029999	125.820459	-0.088744	-62.361138
4.350000	-0.090100	-63.035209	-56.740595	124.345993	-56.740595	124.345993	-0.090102	-63.035993
4.400000	-0.091475	-63.708620	-56.454749	122.871885	-56.454749	122.871885	-0.091477	-63.709411
4.450000	-0.092867	-64.380593	-56.172422	121.398133	-56.172422	121.398133	-0.092869	-64.381391
4.500000	-0.094273	-65.051367	-55.894414	119.924586	-55.894414	119.924586	-0.094276	-65.052171
4.550000	-0.095701	-65.720460	-55.618833	118.451326	-55.618833	118.451326	-0.095703	-65.721272
4.600000	-0.097141	-66.388594	-55.348257	116.978146	-55.348257	116.978146	-0.097143	-66.389412
4.650000	-0.098605	-67.054807	-55.079125	115.505126	-55.079125	115.505126	-0.098607	-67.055632
4.700000	-0.100080	-67.720300	-54.815610	114.032098	-54.815610	114.032098	-0.100082	-67.721132
4.750000	-0.101583	-68.383633	-54.552662	112.559049	-54.552662	112.559049	-0.101585	-68.384472
4.800000	-0.103094	-69.046487	-54.295877	111.085949	-54.295877	111.085949	-0.103096	-69.047333
4.850000	-0.104638	-69.706943	-54.038875	109.612595	-54.038875	109.612595	-0.104641	-69.707796
4.900000	-0.106187	-70.367160	-53.788518	108.139193	-53.788518	108.139193	-0.106189	-70.368020
4.950000	-0.107774	-71.024746	-53.537253	106.665265	-53.537253	106.665265	-0.107776	-71.025613
5.000000	-0.109362	-71.682331	-53.293053	105.191337	-53.293053	105.191337	-0.109364	-71.683205
5.050000	-0.110994	-72.337054	-53.047340	103.716578	-53.047340	103.716578	-0.110996	-72.337935
5.100000	-0.112626	-72.991776	-52.808388	102.241820	-52.808388	102.241820	-0.112628	-72.992665
5.150000	-0.114301	-73.643884	-52.568729	100.766088	-52.568729	100.766088	-0.114303	-73.644780
5.200000	-0.115981	-74.295754	-52.334877	99.290268	-52.334877	99.290268	-0.115983	-74.296657
5.250000	-0.117700	-74.945257	-52.101057	97.813396	-52.101057	97.813396	-0.117702	-74.946168
5.300000	-0.119428	-75.594287	-51.872178	96.336313	-51.872178	96.336313	-0.119430	-75.595205
5.350000	-0.121194	-76.241197	-51.644002	94.858164	-51.644002	94.858164	-0.121196	-76.242124
5.400000	-0.122973	-76.887402	-51.419986	93.379659	-51.419986	93.379659	-0.122975	-76.888336
5.450000	-0.124787	-77.531733	-51.197279	91.900128	-51.197279	91.900128	-0.124788	-77.532676
5.500000	-0.126618	-78.175129	-50.978031	90.420085	-50.978031	90.420085	-0.126620	-78.176079
5.550000	-0.128482	-78.816897	-50.760633	88.939107	-50.760633	88.939107	-0.128483	-78.817856
5.600000	-0.130368	-79.457503	-50.546072	87.457462	-50.546072	87.457462	-0.130370	-79.458469
5.650000	-0.132283	-80.096724	-50.333840	85.975011	-50.333840	85.975011	-0.132284	-80.097699
5.700000	-0.134226	-80.734560	-50.123896	84.491755	-50.123896	84.491755	-0.134228	-80.735543
5.750000	-0.136194	-81.371252	-49.916699	83.007849	-49.916699	83.007849	-0.136196	-81.372244
5.800000	-0.138197	-82.006342	-49.711311	81.523033	-49.711311	81.523033	-0.138198	-82.007342
5.850000	-0.140219	-82.640524	-49.509028	80.037735	-49.509028	80.037735	-0.140221	-82.641533
5.900000	-0.142282	-83.272892	-49.308144	78.551470	-49.308144	78.551470	-0.142284	-83.273910
5.950000	-0.144362	-83.904586	-49.110663	77.064887	-49.110663	77.064887	-0.144363	-83.905613
6.000000	-0.146488	-84.534258	-48.914236	75.577346	-48.914236	75.577346	-0.146489	-84.535294
6.050000	-0.148625	-85.163486	-48.721453	74.089632	-48.721453	74.089632	-0.148626	-85.164531
6.100000	-0.150816	-85.790491	-48.529437	72.601050	-48.529437	72.601050	-0.150818	-85.791545
6.150000	-0.153014	-86.417276	-48.341254	71.112406	-48.341254	71.112406	-0.153015	-86.418339
6.200000	-0.155272	-87.041644	-48.153608	69.623075	-48.153608	69.623075	-0.155273	-87.042716
6.250000	-0.157531	-87.666011	-47.969929	68.133744	-47.969929	68.133744	-0.157532	-87.667094
6.300000	-0.159858	-88.287774	-47.786608	66.644011	-47.786608	66.644011	-0.159859	-88.288865
6.350000	-0.162185	-88.909536	-47.607076	65.154279	-47.607076	65.154279	-0.162187	-88.910637
6.400000	-0.164577	-89.528941	-47.428300	63.664543	-47.428300	63.664543	-0.164579	-89.530052
6.450000	-0.166976	-90.148131	-47.252873	62.174807	-47.252873	62.174807	-0.166977	-90.149252
6.500000	-0.169434	-90.765208	-47.078542	60.685436	-47.078542	60.685436	-0.169436	-90.766339
6.550000	-0.171906	-91.381862	-46.907176	59.196137	-46.907176	59.196137	-0.171907	-91.383002
6.600000	-0.174432	-91.996641	-46.737187	57.707523	-46.737187	57.707523	-0.174434	-91.997792
6.650000	-0.176978	-92.610795	-46.569829	56.219137	-46.569829	56.219137	-0.176980	-92.611956
6.700000	-0.179575	-93.223309	-46.404078	54.731694	-46.404078	54.731694	-0.179577	-93.224480
6.750000	-0.182197	-93.835003	-46.240668	53.244723	-46.240668	53.244723	-0.182199	-93.836184
6.800000	-0.184864	-94.445285	-46.079048	51.758878	-46.079048	51.758878	-0.184866	-94.446476
6.850000	-0.187564	-95.054558	-45.919519	50.273839	-45.919519	50.273839	-0.187567	-95.055759
6.900000	-0.190304	-95.662642	-45.761917	48.790025	-45.761917	48.790025	-0.190307	-95.663854
6.950000	-0.193084	-96.269537	-45.606190	47.307438	-45.606190	47.307438	-0.193087	-96.270759
7.000000	-0.195898	-96.875459	-45.452490	45.826086	-45.452490	45.826086	-0.195901	-96.876692
7.050000	-0.198759	-97.480020	-45.300477	44.346463	-45.300477	44.346463	-0.198762	-97.481262
7.100000	-0.201649	-98.083817	-45.150558	42.867993	-45.150558	42.867993	-0.201652	-98.085070
7.150000	-0.204593	-98.686089	-45.002159	41.391827	-45.002159	41.391827	-0.204596	-98.687352
7.200000	-0.207559	-99.287800	-44.855895	39.916640	-44.855895	39.916640	-0.207562	-99.289074
7.250000	-0.210587	-99.887830	-44.710998	38.444388	-44.710998	38.444388	-0.210591	-99.889114
7.300000	-0.213631	-100.487494	-44.568259	36.972857	-44.568259	36.972857	-0.213635	-100.488788
7.350000	-0.216745	-101.085331	-44.426743	35.504931	-44.426743	35.504931	-0.216750	-101.086635
7.400000	-0.219868	-101.682989	-44.287393	34.037395	-44.287393	34.037395	-0.219872	-101.684304
7.450000	-0.223070	-102.278684	-44.149124	32.574148	-44.149124	32.574148	-0.223075	-102.280009
7.500000	-0.226273	-102.874378	-44.013023	31.110900	-44.013023	31.110900	-0.226278	-102.875713
7.550000	-0.229564	-103.467982	-43.877859	29.652613	-43.877859	29.652613	-0.229568	-103.469328
7.600000	-0.232855	-104.061587	-43.744767	28.194325	-43.744767	28.194325	-0.232860	-104.062943
7.650000	-0.236228	-104.653325	-43.612652	26.740766	-43.612652	26.740766	-0.236234	-104.654691
7.700000	-0.239610	-105.244893	-43.482424	25.287637	-43.482424	25.287637	-0.239615	-105.246269
7.750000	-0.243067	-105.834811	-43.353195	23.838895	-43.353195	23.838895	-0.243072	-105.836198
7.800000	-0.246540	-106.424399	-43.225679	22.391031	-43.225679	22.391031	-0.246545	-106.425796
7.850000	-0.250081	-107.012546	-43.099172	20.947119	-43.099172	20.947119	-0.250087	-107.013952
7.900000	-0.253646	-107.600211	-42.974208	19.504524	-42.974208	19.504524	-0.253652	-107.601628
7.950000	-0.257273	-108.186635	-42.850259	18.065369	-42.850259	18.065369	-0.257279	-108.188061
8.000000	-0.260931	-108.772437	-42.727682	16.627936	-42.727682	16.627936	-0.260938	-108.773873
8.050000	-0.264645	-109.357188	-42.606128	15.193381	-42.606128	15.193381	-0.264651	-109.358635
8.100000	-0.268398	-109.941188	-42.485772	13.760883	-42.485772	13.760883	-0.268404	-109.942645
8.150000	-0.272198	-110.524319	-42.366450	12.330678	-42.366450	12.330678	-0.272205	-110.525786
8.200000	-0.276047	-111.106581	-42.248145	10.902766	-42.248145	10.902766	-0.276054	-111.108057
8.250000	-0.279935	-111.688145	-42.130896	9.476564	-42.130896	9.476564	-0.279942	-111.689631
8.300000	-0.283880	-112.268732	-42.014474	8.052758	-42.014474	8.052758	-0.283887	-112.270229
8.350000	-0.287858	-112.848784	-41.899144	6.630114	-41.899144	6.630114	-0.287865	-112.850290
8.400000	-0.291899	-113.427765	-41.784440	5.209798	-41.784440	5.209798	-0.291907	-113.429281
8.450000	-0.295967	-114.006361	-41.670877	3.790167	-41.670877	3.790167	-0.295974	-114.007887
8.500000	-0.300106	-114.583804	-41.557731	2.372590	-41.557731	2.372590	-0.300114	-114.585340
8.550000	-0.304264	-115.161002	-41.445791	0.955322	-41.445791	0.955322	-0.304271	-115.162548
8.600000	-0.308502	-115.736977	-41.334051	-0.460407	-41.334051	-0.460407	-0.308509	-115.738533
8.650000	-0.312751	-116.312837	-41.223599	-1.876069	-41.223599	-1.876069	-0.312758	-116.314403
8.700000	-0.317089	-116.887418	-41.113120	-3.290982	-41.113120	-3.290982	-0.317096	-116.888994
8.750000	-0.321429	-117.461999	-41.004030	-4.705896	-41.004030	-4.705896	-0.321435	-117.463586
8.800000	-0.325867	-118.035262	-40.894683	-6.121167	-40.894683	-6.121167	-0.325873	-118.036859
8.850000	-0.330307	-118.608524	-40.786696	-7.536439	-40.786696	-7.536439	-0.330313	-118.610132
8.900000	-0.334837	-119.180649	-40.678506	-8.953244	-40.678506	-8.953244	-0.334844	-119.182266
8.950000	-0.339378	-119.752669	-40.571511	-10.370187	-40.571511	-10.370187	-0.339384	-119.754298
9.000000	-0.344002	-120.323722	-40.464389	-11.789736	-40.464389	-11.789736	-0.344008	-120.325361
9.050000	-0.348644	-120.894580	-40.358290	-13.209805	-40.358290	-13.209805	-0.348650	-120.896230
9.100000	-0.353362	-121.464628	-40.252163	-14.633409	-40.252163	-14.633409	-0.353367	-121.466290
9.150000	-0.358106	-122.034407	-40.146886	-16.058192	-40.146886	-16.058192	-0.358111	-122.036079
9.200000	-0.362918	-122.603521	-40.041701	-17.487264	-40.041701	-17.487264	-0.362922	-122.605205
9.250000	-0.367764	-123.172302	-39.937197	-18.918480	-39.937197	-18.918480	-0.367769	-123.173998
9.300000	-0.372670	-123.740554	-39.832922	-20.354525	-39.832922	-20.354525	-0.372675	-123.742261
9.350000	-0.377620	-124.308426	-39.729167	-21.794020	-39.729167	-21.794020	-0.377624	-124.310146
9.400000	-0.382621	-124.875887	-39.625791	-23.238634	-39.625791	-23.238634	-0.382625	-124.877620
9.450000	-0.387673	-125.442939	-39.522795	-24.688366	-39.522795	-24.688366	-0.387677	-125.444684
9.500000	-0.392770	-126.009686	-39.420335	-26.143225	-39.420335	-26.143225	-0.392773	-126.011444
9.550000	-0.397926	-126.576008	-39.318140	-27.605259	-39.318140	-27.605259	-0.397929	-126.577780
9.600000	-0.403119	-127.142119	-39.216639	-29.072112	-39.216639	-29.072112	-0.403121	-127.143904
9.650000	-0.408379	-127.707806	-39.115331	-30.548600	-39.115331	-30.548600	-0.408382	-127.709605
9.700000	-0.413668	-128.273358	-39.014863	-32.029255	-39.014863	-32.029255	-0.413670	-128.275172
9.750000	-0.419033	-128.838507	-38.914569	-33.522415	-38.914569	-33.522415	-0.419035	-128.840336
9.800000	-0.424418	-129.403583	-38.815239	-35.018730	-38.815239	-35.018730	-0.424420	-129.405427
9.850000	-0.429888	-129.968293	-38.716138	-36.530821	-38.716138	-36.530821	-0.429890	-129.970153
9.900000	-0.435369	-130.532976	-38.618088	-38.044678	-38.618088	-38.044678	-0.435372	-130.534851
9.950000	-0.440945	-131.097350	-38.520412	-39.577967	-38.520412	-39.577967	-0.440947	-131.099243
10.000000	-0.446524	-131.661725	-38.423822	-41.111256	-38.423822	-41.111256	-0.446526	-131.663634
