! freq	dB(S11)	phase(S11)	dB(S12)	phase(S12)	
!     	dB(S21)	phase(S21)	dB(S22)	phase(S22)	
!S-par simulation data
#  GHz  S  DB  R 50
0.000000	0.000000	0.000000	-332.782975	0.000000	-332.782975	0.000000	-0.000000	0.000000
0.050000	-0.000213	-2.115100	-67.703298	-41.552309	-67.703298	-41.552309	-0.000178	-1.006533
0.100000	-0.000845	-4.229537	-65.979504	-23.595827	-65.979504	-23.595827	-0.000678	-2.013559
0.150000	-0.001886	-6.342645	-65.630876	-15.921429	-65.630876	-15.921429	-0.001429	-3.021318
0.200000	-0.003304	-8.453848	-65.569924	-11.687506	-65.569924	-11.687506	-0.002346	-4.029713
0.250000	-0.005073	-10.562562	-65.622263	-9.017237	-65.622263	-9.017237	-0.003371	-5.038476
0.300000	-0.007157	-12.668267	-65.737954	-7.166617	-65.737954	-7.166617	-0.004469	-6.047269
0.350000	-0.009518	-14.770493	-65.899732	-5.801287	-65.899732	-5.801287	-0.005621	-7.055781
0.400000	-0.012115	-16.868826	-66.100775	-4.749865	-66.100775	-4.749865	-0.006819	-8.063754
0.450000	-0.014908	-18.962906	-66.338415	-3.915373	-66.338415	-3.915373	-0.008060	-9.070991
0.500000	-0.017855	-21.052425	-66.611981	-3.238273	-66.611981	-3.238273	-0.009340	-10.077344
0.550000	-0.020921	-23.137117	-66.921987	-2.679155	-66.921987	-2.679155	-0.010657	-11.082701
0.600000	-0.024070	-25.216759	-67.269821	-2.209820	-67.269821	-2.209820	-0.012008	-12.086978
0.650000	-0.027273	-27.291103	-67.657911	-1.808799	-67.657911	-1.808799	-0.013389	-13.090096
0.700000	-0.030501	-29.359979	-68.089242	-1.456608	-68.089242	-1.456608	-0.014796	-14.092006
0.750000	-0.033731	-31.423304	-68.567514	-1.134535	-68.567514	-1.134535	-0.016222	-15.092682
0.800000	-0.036946	-33.480955	-69.097868	-0.823584	-69.097868	-0.823584	-0.017665	-16.092095
0.850000	-0.040130	-35.532819	-69.686937	-0.501886	-69.686937	-0.501886	-0.019118	-17.090221
0.900000	-0.043272	-37.578794	-70.343319	-0.142364	-70.343319	-0.142364	-0.020578	-18.087040
0.950000	-0.046362	-39.618784	-71.078262	0.290628	-71.078262	0.290628	-0.022041	-19.082538
1.000000	-0.049395	-41.652697	-71.906700	0.846654	-71.906700	0.846654	-0.023503	-20.076700
1.050000	-0.052366	-43.680447	-72.848815	1.598332	-72.848815	1.598332	-0.024962	-21.069515
1.100000	-0.055273	-45.701949	-73.932515	2.658053	-73.932515	2.658053	-0.026414	-22.060972
1.150000	-0.058115	-47.717122	-75.197387	4.210747	-75.197387	4.210747	-0.027858	-23.051060
1.200000	-0.060893	-49.725889	-76.701037	6.583331	-76.701037	6.583331	-0.029293	-24.039768
1.250000	-0.063607	-51.728174	-78.528356	10.405700	-78.528356	10.405700	-0.030716	-25.027085
1.300000	-0.066258	-53.723765	-80.793250	17.153799	-80.793250	17.153799	-0.032127	-26.012970
1.350000	-0.068851	-55.712734	-83.560387	30.224616	-83.560387	30.224616	-0.033525	-26.997440
1.400000	-0.071388	-57.695022	-86.189307	56.629180	-86.189307	56.629180	-0.034911	-27.980482
1.450000	-0.073872	-59.670573	-86.116574	94.038529	-86.116574	94.038529	-0.036283	-28.962082
1.500000	-0.076307	-61.639337	-83.325565	120.654372	-83.325565	120.654372	-0.037643	-29.942227
1.550000	-0.078697	-63.601271	-80.350820	133.943440	-80.350820	133.943440	-0.038991	-30.920900
1.600000	-0.081043	-65.556339	-77.867879	140.655833	-77.867879	140.655833	-0.040327	-31.898087
1.650000	-0.083351	-67.504513	-75.822182	144.304310	-75.822182	144.304310	-0.041651	-32.873769
1.700000	-0.085623	-69.445771	-74.099988	146.357140	-74.099988	146.357140	-0.042965	-33.847932
1.750000	-0.087863	-71.380101	-72.616075	147.484442	-72.616075	147.484442	-0.044269	-34.820556
1.800000	-0.090074	-73.307498	-71.311928	148.027058	-71.311928	148.027058	-0.045564	-35.791624
1.850000	-0.092259	-75.227965	-70.147074	148.174766	-70.147074	148.174766	-0.046851	-36.761118
1.900000	-0.094420	-77.141440	-69.092498	148.038907	-69.092498	148.038907	-0.048131	-37.729002
1.950000	-0.096561	-79.047945	-68.127334	147.693065	-68.127334	147.693065	-0.049404	-38.695257
2.000000	-0.098684	-80.947585	-67.236207	147.187037	-67.236207	147.187037	-0.050672	-39.659881
2.050000	-0.100792	-82.840400	-66.407096	146.553332	-66.407096	146.553332	-0.051936	-40.622856
2.100000	-0.102888	-84.726436	-65.630625	145.815260	-65.630625	145.815260	-0.053196	-41.584163
2.150000	-0.104974	-86.605751	-64.899346	144.989981	-64.899346	144.989981	-0.054454	-42.543785
2.200000	-0.107051	-88.478408	-64.207259	144.090426	-64.207259	144.090426	-0.055710	-43.501703
2.250000	-0.109122	-90.344482	-63.549463	143.126533	-63.549463	143.126533	-0.056966	-44.457901
2.300000	-0.111190	-92.204053	-62.921909	142.106072	-62.921909	142.106072	-0.058221	-45.412360
2.350000	-0.113255	-94.057212	-62.321221	141.035218	-62.321221	141.035218	-0.059478	-46.365065
2.400000	-0.115320	-95.904054	-61.744555	139.918940	-61.744555	139.918940	-0.060737	-47.315999
2.450000	-0.117386	-97.744687	-61.189500	138.761289	-61.189500	138.761289	-0.061998	-48.265147
2.500000	-0.119455	-99.579222	-60.653996	137.565599	-60.653996	137.565599	-0.063263	-49.212493
2.550000	-0.121529	-101.407653	-60.135977	136.333936	-60.135977	136.333936	-0.064532	-50.157983
2.600000	-0.123609	-103.230240	-59.634230	135.069428	-59.634230	135.069428	-0.065806	-51.101643
2.650000	-0.125696	-105.047119	-59.147428	133.774028	-59.147428	133.774028	-0.067085	-52.043460
2.700000	-0.127792	-106.858430	-58.674416	132.449406	-58.674416	132.449406	-0.068372	-52.983422
2.750000	-0.129899	-108.664323	-58.214181	131.096997	-58.214181	131.096997	-0.069665	-53.921517
2.800000	-0.132016	-110.464950	-57.765837	129.718052	-57.765837	129.718052	-0.070966	-54.857733
2.850000	-0.134146	-112.260472	-57.328607	128.313660	-57.328607	128.313660	-0.072275	-55.792063
2.900000	-0.136289	-114.051056	-56.901806	126.884788	-56.901806	126.884788	-0.073594	-56.724495
2.950000	-0.138449	-115.836422	-56.483823	125.430051	-56.483823	125.430051	-0.074923	-57.654835
3.000000	-0.140623	-117.617620	-56.076065	123.954544	-56.076065	123.954544	-0.076262	-58.583427
3.050000	-0.142814	-119.394417	-55.677135	122.456905	-55.677135	122.456905	-0.077612	-59.510101
3.100000	-0.145022	-121.166998	-55.286616	120.937785	-55.286616	120.937785	-0.078973	-60.434848
3.150000	-0.147249	-122.935557	-54.904143	119.397792	-54.904143	119.397792	-0.080346	-61.357665
3.200000	-0.149495	-124.700290	-54.529391	117.837501	-54.529391	117.837501	-0.081732	-62.278548
3.250000	-0.151762	-126.461398	-54.162074	116.257465	-54.162074	116.257465	-0.083131	-63.197493
3.300000	-0.154049	-128.219087	-53.801940	114.658221	-53.801940	114.658221	-0.084544	-64.114497
3.350000	-0.156359	-129.973566	-53.448769	113.040298	-53.448769	113.040298	-0.085971	-65.029559
3.400000	-0.158691	-131.725049	-53.102366	111.404223	-53.102366	111.404223	-0.087412	-65.942679
3.450000	-0.161046	-133.473750	-52.762560	109.750529	-52.762560	109.750529	-0.088869	-66.853856
3.500000	-0.163426	-135.219892	-52.429202	108.079753	-52.429202	108.079753	-0.090342	-67.763092
3.550000	-0.165830	-136.963697	-52.102161	106.392449	-52.102161	106.392449	-0.091831	-68.670387
3.600000	-0.168259	-138.705391	-51.781323	104.689183	-51.781323	104.689183	-0.093337	-69.575746
3.650000	-0.170713	-140.445204	-51.466588	102.970545	-51.466588	102.970545	-0.094860	-70.479172
3.700000	-0.173195	-142.183369	-51.157869	101.237141	-51.157869	101.237141	-0.096401	-71.380668
3.750000	-0.175703	-143.920118	-50.855089	99.489605	-50.855089	99.489605	-0.097961	-72.280240
3.800000	-0.178239	-145.655651	-50.558002	97.728040	-50.558002	97.728040	-0.099540	-73.177811
3.850000	-0.180803	-147.390268	-50.266756	95.953746	-50.266756	95.953746	-0.101138	-74.073471
3.900000	-0.183396	-149.124210	-49.981295	94.167437	-49.981295	94.167437	-0.102756	-74.967229
3.950000	-0.186016	-150.857723	-49.701570	92.369847	-49.701570	92.369847	-0.104395	-75.859093
4.000000	-0.188665	-152.591052	-49.427691	90.562284	-49.427691	90.562284	-0.106053	-76.749175
4.050000	-0.191343	-154.324426	-49.159308	88.744498	-49.159308	88.744498	-0.107733	-77.637299
4.100000	-0.194051	-156.058106	-48.896516	86.917764	-48.896516	86.917764	-0.109435	-78.523560
4.150000	-0.196789	-157.792341	-48.639272	85.082906	-48.639272	85.082906	-0.111159	-79.407969
4.200000	-0.199556	-159.527384	-48.387530	83.240764	-48.387530	83.240764	-0.112906	-80.290538
4.250000	-0.202354	-161.263488	-48.141244	81.392190	-48.141244	81.392190	-0.114676	-81.171281
4.300000	-0.205181	-163.000905	-47.900364	79.538046	-47.900364	79.538046	-0.116469	-82.050211
4.350000	-0.208039	-164.739890	-47.664838	77.679200	-47.664838	77.679200	-0.118287	-82.927344
4.400000	-0.210927	-166.480721	-47.434603	75.816490	-47.434603	75.816490	-0.120130	-83.802676
4.450000	-0.213846	-168.223662	-47.209606	73.950810	-47.209606	73.950810	-0.121998	-84.676223
4.500000	-0.216795	-169.968951	-46.989791	72.083063	-46.989791	72.083063	-0.123891	-85.548023
4.550000	-0.219774	-171.716842	-46.775091	70.214094	-46.775091	70.214094	-0.125811	-86.418092
4.600000	-0.222783	-173.467594	-46.565430	68.344736	-46.565430	68.344736	-0.127757	-87.286449
4.650000	-0.225821	-175.221461	-46.360732	66.475800	-46.360732	66.475800	-0.129731	-88.153113
4.700000	-0.228889	-176.978701	-46.160912	64.608071	-46.160912	64.608071	-0.131732	-89.018105
4.750000	-0.231986	-178.739570	-45.965885	62.742308	-45.965885	62.742308	-0.133760	-89.881443
4.800000	-0.235112	179.495679	-45.775559	60.879236	-45.775559	60.879236	-0.135818	-90.743151
4.850000	-0.238267	177.726789	-45.589839	59.019546	-45.589839	59.019546	-0.137904	-91.603249
4.900000	-0.241449	175.953507	-45.408628	57.163889	-45.408628	57.163889	-0.140020	-92.461761
4.950000	-0.244660	174.175581	-45.231824	55.312877	-45.231824	55.312877	-0.142166	-93.318708
5.000000	-0.247898	172.392759	-45.059326	53.467074	-45.059326	53.467074	-0.144342	-94.174115
5.050000	-0.251163	170.604674	-44.891048	51.627140	-44.891048	51.627140	-0.146550	-95.027974
5.100000	-0.254454	168.811184	-44.726866	49.793432	-44.726866	49.793432	-0.148789	-95.880344
5.150000	-0.257771	167.012044	-44.566674	47.966373	-44.566674	47.966373	-0.151060	-96.731250
5.200000	-0.261112	165.207009	-44.410364	46.146339	-44.410364	46.146339	-0.153363	-97.580719
5.250000	-0.264478	163.395839	-44.257830	44.333658	-44.257830	44.333658	-0.155699	-98.428778
5.300000	-0.267867	161.578293	-44.108968	42.528608	-44.108968	42.528608	-0.158069	-99.275453
5.350000	-0.271279	159.754136	-43.963674	40.731424	-43.963674	40.731424	-0.160472	-100.120774
5.400000	-0.274713	157.923136	-43.821848	38.942293	-43.821848	38.942293	-0.162910	-100.964769
5.450000	-0.278168	156.085064	-43.683394	37.161360	-43.683394	37.161360	-0.165382	-101.807467
5.500000	-0.281644	154.239692	-43.548218	35.388728	-43.548218	35.388728	-0.167890	-102.648898
5.550000	-0.285139	152.386801	-43.416231	33.624463	-43.416231	33.624463	-0.170433	-103.489094
5.600000	-0.288652	150.526171	-43.287350	31.868593	-43.287350	31.868593	-0.173013	-104.328084
5.650000	-0.292184	148.657503	-43.161508	30.121208	-43.161508	30.121208	-0.175629	-105.165888
5.700000	-0.295732	146.780581	-43.038633	28.382274	-43.038633	28.382274	-0.178283	-106.002539
5.750000	-0.299297	144.895288	-42.918647	26.651643	-42.918647	26.651643	-0.180975	-106.838083
5.800000	-0.302876	143.001429	-42.801488	24.929239	-42.801488	24.929239	-0.183705	-107.672554
5.850000	-0.306469	141.098812	-42.687104	23.214971	-42.687104	23.214971	-0.186473	-108.505985
5.900000	-0.310075	139.187253	-42.575449	21.508738	-42.575449	21.508738	-0.189280	-109.338410
5.950000	-0.313694	137.266573	-42.466485	19.810434	-42.466485	19.810434	-0.192127	-110.169866
6.000000	-0.317324	135.336602	-42.360179	18.119953	-42.360179	18.119953	-0.195014	-111.000386
6.050000	-0.320965	133.397176	-42.256508	16.437197	-42.256508	16.437197	-0.197941	-111.830008
6.100000	-0.324616	131.448138	-42.155455	14.762080	-42.155455	14.762080	-0.200908	-112.658768
6.150000	-0.328276	129.489339	-42.057010	13.094534	-42.057010	13.094534	-0.203917	-113.486703
6.200000	-0.331944	127.520641	-41.961173	11.434515	-41.961173	11.434515	-0.206968	-114.313851
6.250000	-0.335620	125.541912	-41.867946	9.782011	-41.867946	9.782011	-0.210061	-115.140250
6.300000	-0.339304	123.552805	-41.777379	8.137213	-41.777379	8.137213	-0.213197	-115.965925
6.350000	-0.342995	121.553427	-41.689454	6.500031	-41.689454	6.500031	-0.216376	-116.790931
6.400000	-0.346693	119.543675	-41.604193	4.870589	-41.604193	4.870589	-0.219598	-117.615308
6.450000	-0.350397	117.523457	-41.521622	3.249067	-41.521622	3.249067	-0.222865	-118.439097
6.500000	-0.354107	115.492690	-41.441772	1.635712	-41.441772	1.635712	-0.226175	-119.262339
6.550000	-0.357825	113.451302	-41.364675	0.030836	-41.364675	0.030836	-0.229530	-120.085075
6.600000	-0.361549	111.399232	-41.290364	-1.565169	-41.290364	-1.565169	-0.232931	-120.907348
6.650000	-0.365281	109.336431	-41.218872	-3.151837	-41.218872	-3.151837	-0.236376	-121.729200
6.700000	-0.369020	107.262859	-41.150232	-4.728614	-41.150232	-4.728614	-0.239868	-122.550674
6.750000	-0.372769	105.178491	-41.084472	-6.294861	-41.084472	-6.294861	-0.243406	-123.371815
6.800000	-0.376527	103.083309	-41.021615	-7.849848	-41.021615	-7.849848	-0.246990	-124.192666
6.850000	-0.380297	100.977310	-40.961678	-9.392757	-40.961678	-9.392757	-0.250622	-125.013272
6.900000	-0.384081	98.860385	-40.904698	-10.922524	-40.904698	-10.922524	-0.254301	-125.833679
6.950000	-0.387879	96.732553	-40.850670	-12.438115	-40.850670	-12.438115	-0.258029	-126.653932
7.000000	-0.391695	94.593966	-40.799550	-13.938580	-40.799550	-13.938580	-0.261804	-127.474081
7.050000	-0.395531	92.444665	-40.751305	-15.422751	-40.751305	-15.422751	-0.265629	-128.294173
7.100000	-0.399390	90.284708	-40.705883	-16.889387	-40.705883	-16.889387	-0.269502	-129.114256
7.150000	-0.403275	88.114159	-40.663213	-18.337185	-40.663213	-18.337185	-0.273424	-129.934378
7.200000	-0.407190	85.933097	-40.623201	-19.764790	-40.623201	-19.764790	-0.277396	-130.754589
7.250000	-0.411140	83.741608	-40.585729	-21.170809	-40.585729	-21.170809	-0.281418	-131.574938
7.300000	-0.415129	81.539793	-40.550654	-22.553829	-40.550654	-22.553829	-0.285491	-132.395474
7.350000	-0.419163	79.327757	-40.517802	-23.912431	-40.517802	-23.912431	-0.289614	-133.216250
7.400000	-0.423247	77.105618	-40.486974	-25.245212	-40.486974	-25.245212	-0.293788	-134.037316
7.450000	-0.427388	74.873502	-40.457938	-26.550803	-40.457938	-26.550803	-0.298013	-134.858725
7.500000	-0.431593	72.631540	-40.430430	-27.827896	-40.430430	-27.827896	-0.302290	-135.680529
7.550000	-0.435871	70.379664	-40.404176	-29.074590	-40.404176	-29.074590	-0.306620	-136.502792
7.600000	-0.440230	68.118234	-40.378814	-30.290392	-40.378814	-30.290392	-0.311003	-137.325561
7.650000	-0.444678	65.847398	-40.353986	-31.474321	-40.353986	-31.474321	-0.315438	-138.148888
7.700000	-0.449227	63.567310	-40.329302	-32.625554	-40.329302	-32.625554	-0.319926	-138.972831
7.750000	-0.453887	61.278122	-40.304342	-33.743450	-40.304342	-33.743450	-0.324468	-139.797444
7.800000	-0.458671	58.979989	-40.278659	-34.827570	-40.278659	-34.827570	-0.329063	-140.622785
7.850000	-0.463592	56.673061	-40.251780	-35.877702	-40.251780	-35.877702	-0.333712	-141.448910
7.900000	-0.468664	54.357487	-40.223207	-36.893880	-40.223207	-36.893880	-0.338416	-142.275878
7.950000	-0.473905	52.033409	-40.192420	-37.876403	-40.192420	-37.876403	-0.343175	-143.103747
8.000000	-0.479330	49.700958	-40.158881	-38.825849	-40.158881	-38.825849	-0.347990	-143.932577
8.050000	-0.484961	47.360256	-40.122031	-39.743091	-40.122031	-39.743091	-0.352859	-144.762426
8.100000	-0.490818	45.011410	-40.081299	-40.629312	-40.081299	-40.629312	-0.357785	-145.593357
8.150000	-0.496928	42.654423	-40.036040	-41.485710	-40.036040	-41.485710	-0.362768	-146.425443
8.200000	-0.503319	40.289361	-39.985630	-42.314184	-39.985630	-42.314184	-0.367809	-147.258748
8.250000	-0.510017	37.916351	-39.929508	-43.117240	-39.929508	-43.117240	-0.372908	-148.093323
8.300000	-0.517058	35.535398	-39.867046	-43.897408	-39.867046	-43.897408	-0.378065	-148.929230
8.350000	-0.524478	33.146471	-39.797603	-44.657571	-39.797603	-44.657571	-0.383281	-149.766533
8.400000	-0.532321	30.749491	-39.720521	-45.400977	-39.720521	-45.400977	-0.388556	-150.605297
8.450000	-0.540637	28.344328	-39.635117	-46.131262	-39.635117	-46.131262	-0.393892	-151.445586
8.500000	-0.549484	25.930785	-39.540680	-46.852472	-39.540680	-46.852472	-0.399290	-152.287465
8.550000	-0.558929	23.508592	-39.436458	-47.569101	-39.436458	-47.569101	-0.404750	-153.131000
8.600000	-0.569053	21.077388	-39.321645	-48.286147	-39.321645	-48.286147	-0.410274	-153.976255
8.650000	-0.579951	18.636701	-39.195365	-49.009191	-39.195365	-49.009191	-0.415864	-154.823295
8.700000	-0.591738	16.185931	-39.056647	-49.744505	-39.056647	-49.744505	-0.421521	-155.672186
8.750000	-0.604554	13.724315	-38.904395	-50.499211	-38.904395	-50.499211	-0.427247	-156.522991
8.800000	-0.618608	11.250612	-38.736915	-51.282324	-38.736915	-51.282324	-0.433047	-157.375817
8.850000	-0.634100	8.763832	-38.553047	-52.103130	-38.553047	-52.103130	-0.438923	-158.230681
8.900000	-0.651321	6.262440	-38.350987	-52.973233	-38.350987	-52.973233	-0.444879	-159.087638
8.950000	-0.670650	3.744504	-38.128537	-53.906826	-38.128537	-53.906826	-0.450920	-159.946739
9.000000	-0.692594	1.207583	-37.882968	-54.921719	-37.882968	-54.921719	-0.457052	-160.808023
9.050000	-0.717852	-1.351414	-37.610847	-56.040885	-37.610847	-56.040885	-0.463284	-161.671517
9.100000	-0.747401	-3.936419	-37.307776	-57.294863	-37.307776	-57.294863	-0.469628	-162.537223
9.150000	-0.782665	-6.552418	-36.968051	-58.725583	-36.968051	-58.725583	-0.476097	-163.405109
9.200000	-0.825560	-9.204806	-36.585609	-60.386344	-36.585609	-60.386344	-0.482709	-164.275047
9.250000	-0.879818	-11.903028	-36.147507	-62.377764	-36.147507	-62.377764	-0.489495	-165.146926
9.300000	-0.950671	-14.654393	-35.641896	-64.830526	-35.641896	-64.830526	-0.496484	-166.020312
9.350000	-1.047402	-17.464321	-35.051337	-67.966002	-35.051337	-67.966002	-0.503711	-166.894471
9.400000	-1.187069	-20.322437	-34.353542	-72.172107	-34.353542	-72.172107	-0.511198	-167.767966
9.450000	-1.401122	-23.151722	-33.530076	-78.142414	-33.530076	-78.142414	-0.518861	-168.637981
9.500000	-1.744904	-25.622929	-32.597543	-87.189086	-32.597543	-87.189086	-0.526176	-169.499368
9.550000	-2.261561	-26.540473	-31.742515	-101.652528	-31.742515	-101.652528	-0.531096	-170.346751
9.600000	-2.625299	-23.615362	-31.698561	-123.883132	-31.698561	-123.883132	-0.529246	-171.198020
9.650000	-2.065193	-20.380382	-33.736222	-149.743422	-33.736222	-149.743422	-0.523373	-172.113920
9.700000	-1.297062	-22.556565	-37.959235	-168.211252	-37.959235	-168.211252	-0.524840	-173.075801
9.750000	-0.908326	-26.738447	-43.663840	-173.768298	-43.663840	-173.768298	-0.532089	-174.026443
9.800000	-0.751164	-30.805553	-50.762416	-155.440948	-50.762416	-155.440948	-0.540696	-174.961614
9.850000	-0.691642	-34.502149	-52.965869	-95.211971	-52.965869	-95.211971	-0.549240	-175.889876
9.900000	-0.674957	-37.911733	-48.832589	-67.888114	-48.832589	-67.888114	-0.557489	-176.816483
9.950000	-0.678225	-41.130353	-46.002728	-61.402072	-46.002728	-61.402072	-0.565473	-177.744202
10.000000	-0.691190	-44.231751	-44.144870	-59.777388	-44.144870	-59.777388	-0.573272	-178.674297
