! freq	dB(S11)	phase(S11)	dB(S12)	phase(S12)	
!     	dB(S21)	phase(S21)	dB(S22)	phase(S22)	
!S-par simulation data
#  GHz  S  DB  R 50
0.000000	-0.000000	-0.000000	-373.521957	180.000000	-373.521957	180.000000	-0.000000	-0.000000
0.050000	-0.000100	-0.857191	-94.848910	6.397006	-94.848910	6.397006	-0.000101	-0.857164
0.100000	-0.000397	-1.714148	-94.817644	8.379616	-94.817644	8.379616	-0.000399	-1.714093
0.150000	-0.000879	-2.570655	-94.782008	11.241642	-94.782008	11.241642	-0.000883	-2.570566
0.200000	-0.001529	-3.426529	-94.741502	14.224227	-94.741502	14.224227	-0.001536	-3.426401
0.250000	-0.002337	-4.281561	-94.702410	17.152735	-94.702410	17.152735	-0.002346	-4.281387
0.300000	-0.003266	-5.135707	-94.672520	19.970951	-94.672520	19.970951	-0.003277	-5.135482
0.350000	-0.004300	-5.988848	-94.660494	22.653892	-94.660494	22.653892	-0.004313	-5.988568
0.400000	-0.005418	-6.840932	-94.675746	25.199201	-94.675746	25.199201	-0.005433	-6.840593
0.450000	-0.006599	-7.691932	-94.728304	27.620060	-94.728304	27.620060	-0.006615	-7.691533
0.500000	-0.007827	-8.541840	-94.828932	29.943056	-94.828932	29.943056	-0.007842	-8.541382
0.550000	-0.009086	-9.390667	-94.989437	32.208401	-94.989437	32.208401	-0.009100	-9.390151
0.600000	-0.010363	-10.238431	-95.223167	34.472482	-95.223167	34.472482	-0.010376	-10.237859
0.650000	-0.011649	-11.085155	-95.545740	36.813658	-95.545740	36.813658	-0.011660	-11.084530
0.700000	-0.012936	-11.930864	-95.976023	39.343401	-95.976023	39.343401	-0.012945	-11.930190
0.750000	-0.014218	-12.775582	-96.537352	42.227085	-96.537352	42.227085	-0.014225	-12.774864
0.800000	-0.015492	-13.619332	-97.258723	45.723435	-97.258723	45.723435	-0.015497	-13.618572
0.850000	-0.016754	-14.462131	-98.174610	50.261411	-98.174610	50.261411	-0.016757	-14.461332
0.900000	-0.018003	-15.303992	-99.318019	56.590776	-99.318019	56.590776	-0.018003	-15.303157
0.950000	-0.019237	-16.144926	-100.686559	66.042951	-100.686559	66.042951	-0.019236	-16.144057
1.000000	-0.020457	-16.984937	-102.120342	80.698665	-102.120342	80.698665	-0.020454	-16.984037
1.050000	-0.021663	-17.824028	-103.036486	102.229379	-103.036486	102.229379	-0.021658	-17.823098
1.100000	-0.022854	-18.662196	-102.505390	127.871955	-102.505390	127.871955	-0.022848	-18.661238
1.150000	-0.024031	-19.499438	-100.512882	149.382500	-100.512882	149.382500	-0.024025	-19.498451
1.200000	-0.025195	-20.335744	-98.031887	163.350638	-98.031887	163.350638	-0.025188	-20.334731
1.250000	-0.026347	-21.171106	-95.648434	171.901677	-95.648434	171.901677	-0.026340	-21.170066
1.300000	-0.027488	-22.005470	-93.490291	177.186411	-93.490291	177.186411	-0.027480	-22.004404
1.350000	-0.028618	-22.838863	-91.565763	-179.356304	-91.565763	-179.356304	-0.028610	-22.837772
1.400000	-0.029738	-23.671271	-89.836419	-177.059684	-89.836419	-177.059684	-0.029730	-23.670155
1.450000	-0.030850	-24.502678	-88.266729	-175.539521	-88.266729	-175.539521	-0.030842	-24.501537
1.500000	-0.031954	-25.333068	-86.828123	-174.563855	-86.828123	-174.563855	-0.031946	-25.331901
1.550000	-0.033050	-26.162422	-85.498390	-173.985975	-85.498390	-173.985975	-0.033043	-26.161231
1.600000	-0.034141	-26.990724	-84.260300	-173.709054	-84.260300	-173.709054	-0.034133	-26.989508
1.650000	-0.035226	-27.817955	-83.100371	-173.666722	-83.100371	-173.666722	-0.035219	-27.816715
1.700000	-0.036305	-28.643709	-81.983013	-173.861389	-81.983013	-173.861389	-0.036298	-28.642445
1.750000	-0.037382	-29.468887	-80.960553	-174.141346	-80.960553	-174.141346	-0.037375	-29.467600
1.800000	-0.038454	-30.292684	-79.974487	-174.566987	-79.974487	-174.566987	-0.038448	-30.291375
1.850000	-0.039525	-31.115494	-79.043298	-175.096690	-79.043298	-175.096690	-0.039518	-31.114163
1.900000	-0.040593	-31.937078	-78.150004	-175.716721	-78.150004	-175.716721	-0.040587	-31.935725
1.950000	-0.041660	-32.757437	-77.292668	-176.427079	-77.292668	-176.427079	-0.041654	-32.756063
2.000000	-0.042726	-33.576740	-76.474585	-177.194710	-76.474585	-177.194710	-0.042720	-33.575347
2.050000	-0.043792	-34.394565	-75.678624	-178.042526	-75.678624	-178.042526	-0.043786	-34.393153
2.100000	-0.044858	-35.211739	-74.929781	-178.918446	-74.929781	-178.918446	-0.044852	-35.210309
2.150000	-0.045925	-36.027227	-74.193168	-179.864760	-74.193168	-179.864760	-0.045919	-36.025780
2.200000	-0.046993	-36.841438	-73.480984	179.143484	-73.480984	179.143484	-0.046987	-36.839975
2.250000	-0.048063	-37.654354	-72.791538	178.110382	-72.791538	178.110382	-0.048057	-37.652876
2.300000	-0.049136	-38.465958	-72.123329	177.039486	-72.123329	177.039486	-0.049129	-38.464467
2.350000	-0.050211	-39.276234	-71.475023	175.933897	-71.475023	175.933897	-0.050205	-39.274730
2.400000	-0.051290	-40.085163	-70.845426	174.796348	-70.845426	174.796348	-0.051283	-40.083648
2.450000	-0.052373	-40.892729	-70.233464	173.629265	-70.233464	173.629265	-0.052366	-40.891205
2.500000	-0.053460	-41.698917	-69.638168	172.434818	-69.638168	172.434818	-0.053453	-41.697384
2.550000	-0.054552	-42.503649	-69.057673	171.213936	-69.057673	171.213936	-0.054544	-42.502109
2.600000	-0.055649	-43.306970	-68.492267	169.969556	-68.492267	169.969556	-0.055641	-43.305424
2.650000	-0.056752	-44.108864	-67.941212	168.703270	-67.941212	168.703270	-0.056744	-44.107314
2.700000	-0.057861	-44.909318	-67.403831	167.416539	-67.403831	167.416539	-0.057852	-44.907764
2.750000	-0.058976	-45.708317	-66.879502	166.110711	-66.879502	166.110711	-0.058968	-45.706761
2.800000	-0.060098	-46.505847	-66.367652	164.787033	-66.367652	164.787033	-0.060090	-46.504291
2.850000	-0.061228	-47.301895	-65.867751	163.446665	-65.867751	163.446665	-0.061219	-47.300341
2.900000	-0.062365	-48.096450	-65.379307	162.090692	-65.379307	162.090692	-0.062356	-48.094898
2.950000	-0.063510	-48.889497	-64.901864	160.720128	-64.901864	160.720128	-0.063501	-48.887949
3.000000	-0.064664	-49.681026	-64.434994	159.335928	-64.434994	159.335928	-0.064654	-49.679483
3.050000	-0.065826	-50.471026	-63.978301	157.938992	-63.978301	157.938992	-0.065816	-50.469490
3.100000	-0.066998	-51.259485	-63.531409	156.530170	-63.531409	156.530170	-0.066988	-51.257956
3.150000	-0.068179	-52.046392	-63.093968	155.110266	-63.093968	155.110266	-0.068169	-52.044874
3.200000	-0.069370	-52.831740	-62.665648	153.680045	-62.665648	153.680045	-0.069360	-52.830232
3.250000	-0.070572	-53.615517	-62.246134	152.240233	-62.246134	152.240233	-0.070561	-53.614022
3.300000	-0.071784	-54.397715	-61.835132	150.791519	-61.835132	150.791519	-0.071773	-54.396233
3.350000	-0.073009	-55.178047	-61.430562	149.333312	-61.430562	149.333312	-0.072998	-55.176581
3.400000	-0.074246	-55.956714	-61.033687	147.867175	-61.033687	147.867175	-0.074235	-55.955266
3.450000	-0.075490	-56.734543	-60.649225	146.397602	-60.649225	146.397602	-0.075478	-56.733112
3.500000	-0.076752	-57.509855	-60.266897	144.917722	-60.266897	144.917722	-0.076740	-57.508444
3.550000	-0.078019	-58.284603	-59.897681	143.435940	-59.897681	143.435940	-0.078007	-58.283212
3.600000	-0.079307	-59.056532	-59.529091	141.944644	-59.529091	141.944644	-0.079295	-59.055164
3.650000	-0.080599	-59.828178	-59.174126	140.452572	-59.174126	140.452572	-0.080587	-59.826833
3.700000	-0.081916	-60.596701	-58.818518	138.951958	-58.818518	138.951958	-0.081904	-60.595382
3.750000	-0.083234	-61.365225	-58.476897	137.451343	-58.476897	137.451343	-0.083221	-61.363932
3.800000	-0.084581	-62.130326	-58.133565	135.943291	-58.133565	135.943291	-0.084569	-62.129061
3.850000	-0.085929	-62.895426	-57.803288	134.435239	-57.803288	134.435239	-0.085916	-62.894190
3.900000	-0.087305	-63.657376	-57.472734	132.921907	-57.472734	132.921907	-0.087293	-63.656171
3.950000	-0.088685	-64.419039	-57.153215	131.408095	-57.153215	131.408095	-0.088672	-64.417865
4.000000	-0.090092	-65.177830	-56.834630	129.890716	-56.834630	129.890716	-0.090079	-65.176690
4.050000	-0.091504	-65.936047	-56.525312	128.372624	-56.525312	128.372624	-0.091492	-65.934941
4.100000	-0.092943	-66.691675	-56.217951	126.852293	-56.217951	126.852293	-0.092930	-66.690606
4.150000	-0.094391	-67.446440	-55.918302	125.331216	-55.918302	125.331216	-0.094378	-67.445408
4.200000	-0.095863	-68.198904	-55.621475	123.808891	-55.621475	123.808891	-0.095851	-68.197910
4.250000	-0.097348	-68.950217	-55.330990	122.285943	-55.330990	122.285943	-0.097335	-68.949263
4.300000	-0.098855	-69.699518	-55.044056	120.762454	-55.044056	120.762454	-0.098843	-69.698605
4.350000	-0.100378	-70.447382	-54.762253	119.238580	-54.762253	119.238580	-0.100366	-70.446512
4.400000	-0.101922	-71.193526	-54.484616	117.714632	-54.484616	117.714632	-0.101910	-71.192699
4.450000	-0.103486	-71.937948	-54.211036	116.190612	-54.211036	116.190612	-0.103474	-71.937167
4.500000	-0.105068	-72.680942	-53.942145	114.666795	-53.942145	114.666795	-0.105055	-72.680206
4.550000	-0.106674	-73.421934	-53.676352	113.143261	-53.676352	113.143261	-0.106662	-73.421247
4.600000	-0.108295	-74.161789	-53.415693	111.620051	-53.415693	111.620051	-0.108283	-74.161149
4.650000	-0.109945	-74.899366	-53.157274	110.097490	-53.157274	110.097490	-0.109934	-74.898777
4.700000	-0.111608	-75.636095	-52.904370	108.575262	-52.904370	108.575262	-0.111596	-75.635557
4.750000	-0.113305	-76.370277	-52.652933	107.054034	-52.652933	107.054034	-0.113293	-76.369792
4.800000	-0.115010	-77.103897	-52.407341	105.533067	-52.407341	105.533067	-0.114998	-77.103465
4.850000	-0.116755	-77.834706	-52.162520	104.013410	-52.162520	104.013410	-0.116743	-77.834329
4.900000	-0.118504	-78.565236	-51.923827	102.493896	-51.923827	102.493896	-0.118493	-78.564915
4.950000	-0.120299	-79.292698	-51.685277	100.975945	-51.685277	100.975945	-0.120288	-79.292435
5.000000	-0.122095	-80.020161	-51.453104	99.457995	-51.453104	99.457995	-0.122084	-80.019955
5.050000	-0.123942	-80.744305	-51.220504	97.941792	-51.220504	97.941792	-0.123932	-80.744160
5.100000	-0.125790	-81.468450	-50.993971	96.425589	-50.993971	96.425589	-0.125780	-81.468365
5.150000	-0.127688	-82.189585	-50.767550	94.910953	-50.767550	94.910953	-0.127677	-82.189561
5.200000	-0.129590	-82.910446	-50.546381	93.396460	-50.546381	93.396460	-0.129579	-82.910485
5.250000	-0.131539	-83.628600	-50.325814	91.883305	-50.325814	91.883305	-0.131528	-83.628703
5.300000	-0.133497	-84.346213	-50.109756	90.370417	-50.109756	90.370417	-0.133487	-84.346381
5.350000	-0.135499	-85.061419	-49.894747	88.858616	-49.894747	88.858616	-0.135490	-85.061654
5.400000	-0.137516	-85.775824	-49.683567	87.347178	-49.683567	87.347178	-0.137507	-85.776126
5.450000	-0.139574	-86.488117	-49.473844	85.836576	-49.473844	85.836576	-0.139564	-86.488488
5.500000	-0.141651	-87.199356	-49.267330	84.326391	-49.267330	84.326391	-0.141642	-87.199795
5.550000	-0.143766	-87.908774	-49.062647	82.816811	-49.062647	82.816811	-0.143756	-87.909284
5.600000	-0.145906	-88.616891	-48.860609	81.307660	-48.860609	81.307660	-0.145897	-88.617473
5.650000	-0.148079	-89.323473	-48.660743	79.798911	-48.660743	79.798911	-0.148070	-89.324126
5.700000	-0.150284	-90.028518	-48.463009	78.290563	-48.463009	78.290563	-0.150275	-90.029245
5.750000	-0.152517	-90.732304	-48.267759	76.782451	-48.267759	76.782451	-0.152508	-90.733106
5.800000	-0.154789	-91.434327	-48.074179	75.274673	-48.074179	75.274673	-0.154781	-91.435204
5.850000	-0.157084	-92.135361	-47.883364	73.767012	-47.883364	73.767012	-0.157076	-92.136315
5.900000	-0.159425	-92.834417	-47.693805	72.259585	-47.693805	72.259585	-0.159417	-92.835448
5.950000	-0.161785	-93.532744	-47.507262	70.752198	-47.507262	70.752198	-0.161776	-93.533853
6.000000	-0.164197	-94.228888	-47.321611	69.244931	-47.321611	69.244931	-0.164188	-94.230076
6.050000	-0.166621	-94.924556	-47.139197	67.737664	-47.139197	67.737664	-0.166613	-94.925824
6.100000	-0.169106	-95.617846	-46.957356	66.230401	-46.957356	66.230401	-0.169098	-95.619196
6.150000	-0.171598	-96.310904	-46.778940	64.723128	-46.778940	64.723128	-0.171590	-96.312335
6.200000	-0.174158	-97.001403	-46.600830	63.215761	-46.600830	63.215761	-0.174151	-97.002916
6.250000	-0.176719	-97.691901	-46.426299	61.708394	-46.426299	61.708394	-0.176712	-97.693498
6.300000	-0.179356	-98.379671	-46.251851	60.200873	-46.251851	60.200873	-0.179349	-98.381352
6.350000	-0.181994	-99.067441	-46.080838	58.693352	-46.080838	58.693352	-0.181986	-99.069207
6.400000	-0.184703	-99.752769	-45.910263	57.185707	-45.910263	57.185707	-0.184696	-99.754622
6.450000	-0.187420	-100.437877	-45.742719	55.678050	-45.742719	55.678050	-0.187413	-100.439815
6.500000	-0.190203	-101.120821	-45.575935	54.170357	-45.575935	54.170357	-0.190196	-101.122847
6.550000	-0.193001	-101.803333	-45.411819	52.662656	-45.411819	52.662656	-0.192993	-101.805447
6.600000	-0.195859	-102.483952	-45.248750	51.155054	-45.248750	51.155054	-0.195852	-102.486155
6.650000	-0.198739	-103.163940	-45.088033	49.647485	-45.088033	49.647485	-0.198731	-103.166232
6.700000	-0.201674	-103.842293	-44.928612	48.140178	-44.928612	48.140178	-0.201667	-103.844675
6.750000	-0.204637	-104.519828	-44.771268	46.633001	-44.771268	46.633001	-0.204630	-104.522301
6.800000	-0.207650	-105.195977	-44.615433	45.126261	-44.615433	45.126261	-0.207643	-105.198540
6.850000	-0.210699	-105.871135	-44.461440	43.619832	-44.461440	43.619832	-0.210692	-105.873790
6.900000	-0.213792	-106.545142	-44.309134	42.114000	-44.309134	42.114000	-0.213785	-106.547889
6.950000	-0.216927	-107.217999	-44.158473	40.608766	-44.158473	40.608766	-0.216920	-107.220839
7.000000	-0.220100	-107.889929	-44.009639	39.104256	-44.009639	39.104256	-0.220093	-107.892863
7.050000	-0.223324	-108.560564	-43.862291	37.600759	-43.862291	37.600759	-0.223317	-108.563591
7.100000	-0.226578	-109.230484	-43.716875	36.098055	-43.716875	36.098055	-0.226571	-109.233605
7.150000	-0.229891	-109.898977	-43.572817	34.596933	-43.572817	34.596933	-0.229883	-109.902192
7.200000	-0.233227	-110.566955	-43.430761	33.096587	-43.430761	33.096587	-0.233219	-110.570265
7.250000	-0.236630	-111.233389	-43.289964	31.598567	-43.289964	31.598567	-0.236622	-111.236794
7.300000	-0.240049	-111.899493	-43.151210	30.101200	-43.151210	30.101200	-0.240041	-111.902994
7.350000	-0.243542	-112.563953	-43.013640	28.607096	-43.013640	28.607096	-0.243535	-112.567549
7.400000	-0.247045	-113.228256	-42.878125	27.113393	-42.878125	27.113393	-0.247038	-113.231947
7.450000	-0.250630	-113.890829	-42.743734	25.624099	-42.743734	25.624099	-0.250623	-113.894616
7.500000	-0.254217	-114.553401	-42.611391	24.134805	-42.611391	24.134805	-0.254210	-114.557285
7.550000	-0.257894	-115.214176	-42.480123	22.651284	-42.480123	22.651284	-0.257886	-115.218156
7.600000	-0.261572	-115.874951	-42.350809	21.167764	-42.350809	21.167764	-0.261565	-115.879027
7.650000	-0.265334	-116.534161	-42.222659	19.690478	-42.222659	19.690478	-0.265326	-116.538333
7.700000	-0.269104	-117.193229	-42.096307	18.213759	-42.096307	18.213759	-0.269097	-117.197497
7.750000	-0.272950	-117.850953	-41.971173	16.743604	-41.971173	16.743604	-0.272942	-117.855316
7.800000	-0.276812	-118.508407	-41.847700	15.274763	-41.847700	15.274763	-0.276804	-118.512866
7.850000	-0.280742	-119.164723	-41.725471	13.812668	-41.725471	13.812668	-0.280734	-119.169278
7.900000	-0.284695	-119.820660	-41.604778	12.352821	-41.604778	12.352821	-0.284688	-119.825310
7.950000	-0.288709	-120.475649	-41.485330	10.899733	-41.485330	10.899733	-0.288701	-120.480394
8.000000	-0.292753	-121.130166	-41.367300	9.450023	-41.367300	9.450023	-0.292745	-121.135005
8.050000	-0.296849	-121.783912	-41.250498	8.006901	-41.250498	8.006901	-0.296841	-121.788846
8.100000	-0.300983	-122.437109	-41.134996	6.568483	-41.134996	6.568483	-0.300975	-122.442135
8.150000	-0.305162	-123.089696	-41.020694	5.136291	-41.020694	5.136291	-0.305153	-123.094816
8.200000	-0.309384	-123.741675	-40.907566	3.710322	-40.907566	3.710322	-0.309376	-123.746887
8.250000	-0.313643	-124.393190	-40.795606	2.290017	-40.795606	2.290017	-0.313634	-124.398494
8.300000	-0.317952	-125.044057	-40.684676	0.877641	-40.684676	0.877641	-0.317943	-125.049451
8.350000	-0.322290	-125.694588	-40.574889	-0.529831	-40.574889	-0.529831	-0.322281	-125.700073
8.400000	-0.326683	-126.344449	-40.465966	-1.927495	-40.465966	-1.927495	-0.326675	-126.350023
8.450000	-0.331099	-126.994087	-40.358171	-3.321210	-40.358171	-3.321210	-0.331090	-126.999749
8.500000	-0.335574	-127.643054	-40.251041	-4.703077	-40.251041	-4.703077	-0.335565	-127.648802
8.550000	-0.340065	-128.291890	-40.145045	-6.082139	-40.145045	-6.082139	-0.340055	-128.297725
8.600000	-0.344620	-128.940075	-40.039478	-7.447168	-40.039478	-7.447168	-0.344610	-128.945994
8.650000	-0.349183	-129.588205	-39.935079	-8.810713	-39.935079	-8.810713	-0.349173	-129.594207
8.700000	-0.353813	-130.235724	-39.830825	-10.157917	-39.830825	-10.157917	-0.353803	-130.241808
8.750000	-0.358446	-130.883243	-39.727809	-11.505122	-39.727809	-11.505122	-0.358436	-130.889408
8.800000	-0.363149	-131.530215	-39.624602	-12.833571	-39.624602	-12.833571	-0.363138	-131.536458
8.850000	-0.367854	-132.177188	-39.522608	-14.162020	-39.522608	-14.162020	-0.367843	-132.183508
8.900000	-0.372619	-132.823771	-39.420303	-15.472482	-39.420303	-15.472482	-0.372607	-132.830165
8.950000	-0.377391	-133.470319	-39.319054	-16.781309	-39.319054	-16.781309	-0.377379	-133.476787
9.000000	-0.382214	-134.116617	-39.217395	-18.073117	-39.217395	-18.073117	-0.382202	-134.123155
9.050000	-0.387048	-134.762865	-39.116599	-19.361522	-39.116599	-19.361522	-0.387036	-134.769473
9.100000	-0.391924	-135.408986	-39.015321	-20.634058	-39.015321	-20.634058	-0.391911	-135.415659
9.150000	-0.396816	-136.055064	-38.914671	-21.901304	-38.914671	-21.901304	-0.396802	-136.061802
9.200000	-0.401740	-136.701116	-38.813503	-23.154000	-38.813503	-23.154000	-0.401726	-136.707915
9.250000	-0.406682	-137.347156	-38.712674	-24.399420	-38.712674	-24.399420	-0.406667	-137.354014
9.300000	-0.411649	-137.993254	-38.611337	-25.631754	-38.611337	-25.631754	-0.411633	-138.000167
9.350000	-0.416634	-138.639392	-38.509992	-26.854741	-38.509992	-26.854741	-0.416618	-138.646359
9.400000	-0.421637	-139.285650	-38.408198	-28.066237	-38.408198	-28.066237	-0.421620	-139.292666
9.450000	-0.426658	-139.932027	-38.305983	-29.266242	-38.305983	-29.266242	-0.426640	-139.939090
9.500000	-0.431690	-140.578564	-38.203438	-30.456465	-38.203438	-30.456465	-0.431671	-140.585670
9.550000	-0.436738	-141.225325	-38.099986	-31.632993	-38.099986	-31.632993	-0.436718	-141.232470
9.600000	-0.441792	-141.872263	-37.996387	-32.801544	-37.996387	-32.801544	-0.441771	-141.879444
9.650000	-0.446858	-142.519556	-37.891312	-33.954142	-37.891312	-33.954142	-0.446835	-142.526768
9.700000	-0.451926	-143.167020	-37.786350	-35.100654	-37.786350	-35.100654	-0.451902	-143.174261
9.750000	-0.456998	-143.814999	-37.679250	-36.228907	-37.679250	-36.228907	-0.456973	-143.822261
9.800000	-0.462071	-144.463118	-37.572606	-37.353036	-37.572606	-37.353036	-0.462045	-144.470401
9.850000	-0.467139	-145.111941	-37.463060	-38.456552	-37.463060	-38.456552	-0.467111	-145.119236
9.900000	-0.472208	-145.760848	-37.354406	-39.557975	-37.354406	-39.557975	-0.472178	-145.768154
9.950000	-0.477259	-146.410679	-37.241970	-40.636376	-37.241970	-40.636376	-0.477227	-146.417987
10.000000	-0.482313	-147.060510	-37.130971	-41.714777	-37.130971	-41.714777	-0.482279	-147.067819
