! freq	dB(S11)	phase(S11)	dB(S12)	phase(S12)	
!     	dB(S21)	phase(S21)	dB(S22)	phase(S22)	
!S-par simulation data
#  GHz  S  DB  R 50
0.000000	-0.000000	0.000000	-364.554303	180.000000	-364.554303	180.000000	-0.000000	0.000000
0.050000	-0.000101	-0.762847	-117.681653	84.130367	-117.681653	84.130367	-0.000101	-0.762854
0.100000	-0.000398	-1.525445	-112.289859	83.133842	-112.289859	83.133842	-0.000399	-1.525458
0.150000	-0.000883	-2.287547	-109.153961	83.340879	-109.153961	83.340879	-0.000885	-2.287563
0.200000	-0.001524	-3.049009	-106.933721	83.543675	-106.933721	83.543675	-0.001528	-3.049026
0.250000	-0.002305	-3.809667	-105.251316	83.622232	-105.251316	83.622232	-0.002310	-3.809682
0.300000	-0.003211	-4.569325	-103.946789	83.622992	-103.946789	83.622992	-0.003217	-4.569334
0.350000	-0.004198	-5.328081	-102.908926	83.621028	-102.908926	83.621028	-0.004205	-5.328082
0.400000	-0.005256	-6.085770	-102.099067	83.675782	-102.099067	83.675782	-0.005264	-6.085761
0.450000	-0.006358	-6.842485	-101.472138	83.842606	-101.472138	83.842606	-0.006367	-6.842465
0.500000	-0.007490	-7.598206	-101.011716	84.189122	-101.011716	84.189122	-0.007499	-7.598175
0.550000	-0.008637	-8.352975	-100.703742	84.791551	-100.703742	84.791551	-0.008646	-8.352934
0.600000	-0.009788	-9.106835	-100.540971	85.748565	-100.540971	85.748565	-0.009796	-9.106784
0.650000	-0.010936	-9.859828	-100.520077	87.193394	-100.520077	87.193394	-0.010943	-9.859768
0.700000	-0.012074	-10.611993	-100.639512	89.312342	-100.639512	89.312342	-0.012081	-10.611926
0.750000	-0.013200	-11.363367	-100.895902	92.371066	-100.895902	92.371066	-0.013206	-11.363294
0.800000	-0.014312	-12.113979	-101.276660	96.747184	-101.276660	96.747184	-0.014317	-12.113901
0.850000	-0.015405	-12.863730	-101.722192	103.442599	-101.722192	103.442599	-0.015410	-12.863648
0.900000	-0.016482	-13.612730	-102.156726	112.676586	-102.156726	112.676586	-0.016486	-13.612646
0.950000	-0.017552	-14.361364	-102.413233	123.144943	-102.413233	123.144943	-0.017555	-14.361278
1.000000	-0.018600	-15.108899	-102.084056	137.316413	-102.084056	137.316413	-0.018602	-15.108812
1.050000	-0.019643	-15.856191	-101.529135	151.125671	-101.529135	151.125671	-0.019644	-15.856103
1.100000	-0.020665	-16.602267	-99.967966	163.123873	-99.967966	163.123873	-0.020666	-16.602180
1.150000	-0.021686	-17.348220	-98.565870	174.658165	-98.565870	174.658165	-0.021686	-17.348132
1.200000	-0.022688	-18.092815	-96.634921	-178.910551	-96.634921	-178.910551	-0.022688	-18.092727
1.250000	-0.023690	-18.837409	-95.056133	-172.479268	-95.056133	-172.479268	-0.023691	-18.837322
1.300000	-0.024681	-19.580866	-93.383725	-168.895195	-93.383725	-168.895195	-0.024681	-19.580779
1.350000	-0.025665	-20.323579	-91.816791	-166.450475	-91.816791	-166.450475	-0.025665	-20.323492
1.400000	-0.026644	-21.065535	-90.353179	-164.831816	-90.353179	-164.831816	-0.026644	-21.065448
1.450000	-0.027618	-21.806719	-88.984837	-163.821780	-88.984837	-163.821780	-0.027618	-21.806631
1.500000	-0.028589	-22.547117	-87.702221	-163.268618	-87.702221	-163.268618	-0.028589	-22.547029
1.550000	-0.029556	-23.286713	-86.496064	-163.064931	-86.496064	-163.064931	-0.029556	-23.286624
1.600000	-0.030521	-24.025491	-85.357994	-163.133384	-85.357994	-163.133384	-0.030521	-24.025401
1.650000	-0.031483	-24.763436	-84.280677	-163.417278	-84.280677	-163.417278	-0.031483	-24.763344
1.700000	-0.032444	-25.500228	-83.234773	-163.919667	-83.234773	-163.919667	-0.032444	-25.500135
1.750000	-0.033404	-26.236571	-82.270947	-164.500685	-82.270947	-164.500685	-0.033404	-26.236476
1.800000	-0.034363	-26.971834	-81.337182	-165.213726	-81.337182	-165.213726	-0.034364	-26.971737
1.850000	-0.035322	-27.706325	-80.451428	-166.021069	-80.451428	-166.021069	-0.035323	-27.706226
1.900000	-0.036281	-28.439855	-79.599198	-166.907168	-79.599198	-166.907168	-0.036282	-28.439754
1.950000	-0.037240	-29.172424	-78.779046	-167.872025	-78.779046	-167.872025	-0.037241	-29.172320
2.000000	-0.038200	-29.904165	-77.994717	-168.884317	-77.994717	-168.884317	-0.038201	-29.904058
2.050000	-0.039160	-30.634746	-77.230511	-169.963017	-77.230511	-169.963017	-0.039161	-30.634636
2.100000	-0.040122	-31.364641	-76.503653	-171.069997	-76.503653	-171.069997	-0.040123	-31.364529
2.150000	-0.041086	-32.093168	-75.787801	-172.233534	-75.787801	-172.233534	-0.041087	-32.093053
2.200000	-0.042051	-32.821165	-75.110268	-173.413277	-75.110268	-173.413277	-0.042052	-32.821047
2.250000	-0.043019	-33.547573	-74.436700	-174.641637	-74.436700	-174.641637	-0.043020	-33.547452
2.300000	-0.043988	-34.273619	-73.802013	-175.878425	-73.802013	-175.878425	-0.043989	-34.273495
2.350000	-0.044962	-34.997848	-73.165798	-177.157349	-73.165798	-177.157349	-0.044963	-34.997721
2.400000	-0.045936	-35.721891	-72.568717	-178.439617	-72.568717	-178.439617	-0.045938	-35.721761
2.450000	-0.046917	-36.443882	-71.965794	-179.758664	-71.965794	-179.758664	-0.046918	-36.443749
2.500000	-0.047898	-37.165873	-71.402019	178.922290	-71.402019	178.922290	-0.047899	-37.165737
2.550000	-0.048886	-37.885569	-70.828996	177.570952	-70.828996	177.570952	-0.048888	-37.885429
2.600000	-0.049875	-38.605265	-70.291449	176.219614	-70.291449	176.219614	-0.049877	-38.605122
2.650000	-0.050873	-39.322806	-69.748969	174.844169	-69.748969	174.844169	-0.050874	-39.322661
2.700000	-0.051872	-40.040152	-69.235285	173.466533	-69.235285	173.466533	-0.051873	-40.040003
2.750000	-0.052879	-40.755496	-68.720263	172.070875	-68.720263	172.070875	-0.052881	-40.755344
2.800000	-0.053889	-41.470440	-68.228410	170.671612	-68.228410	170.671612	-0.053890	-41.470285
2.850000	-0.054908	-42.183544	-67.738222	169.258903	-67.738222	169.258903	-0.054909	-42.183387
2.900000	-0.055930	-42.896036	-67.266435	167.841713	-67.266435	167.841713	-0.055931	-42.895876
2.950000	-0.056962	-43.606861	-66.798828	166.414552	-66.798828	166.414552	-0.056962	-43.606698
3.000000	-0.057998	-44.316854	-66.345567	164.982406	-66.345567	164.982406	-0.057998	-44.316688
3.050000	-0.059043	-45.025362	-65.898593	163.542946	-65.898593	163.542946	-0.059043	-45.025194
3.100000	-0.060094	-45.732811	-65.462499	162.098262	-65.462499	162.098262	-0.060095	-45.732640
3.150000	-0.061154	-46.438966	-65.034459	160.648303	-65.034459	160.648303	-0.061155	-46.438793
3.200000	-0.062223	-47.143829	-64.614332	159.193070	-64.614332	159.193070	-0.062223	-47.143653
3.250000	-0.063299	-47.847597	-64.203734	157.734129	-64.203734	157.734129	-0.063299	-47.847419
3.300000	-0.064386	-48.549834	-63.798501	156.269999	-63.798501	156.269999	-0.064386	-48.549654
3.350000	-0.065480	-49.251184	-63.404032	154.803365	-63.404032	154.803365	-0.065480	-49.251001
3.400000	-0.066587	-49.950759	-63.012734	153.331725	-63.012734	153.331725	-0.066587	-49.950574
3.450000	-0.067699	-50.649660	-62.633225	151.858500	-62.633225	151.858500	-0.067699	-50.649473
3.500000	-0.068828	-51.346539	-62.254999	150.380523	-62.254999	150.380523	-0.068828	-51.346349
3.550000	-0.069961	-52.042963	-61.889408	148.901655	-61.889408	148.901655	-0.069961	-52.042772
3.600000	-0.071113	-52.737115	-61.523474	147.418339	-61.523474	147.418339	-0.071113	-52.736921
3.650000	-0.072267	-53.431036	-61.170868	145.934650	-61.170868	145.934650	-0.072267	-53.430841
3.700000	-0.073444	-54.122432	-60.816517	144.446853	-60.816517	144.446853	-0.073444	-54.122234
3.750000	-0.074621	-54.813828	-60.476058	142.959056	-60.476058	142.959056	-0.074621	-54.813628
3.800000	-0.075824	-55.502442	-60.132645	141.467518	-60.132645	141.467518	-0.075824	-55.502240
3.850000	-0.077028	-56.191056	-59.802295	139.975980	-59.802295	139.975980	-0.077028	-56.190852
3.900000	-0.078257	-56.877099	-59.470509	138.481602	-59.470509	138.481602	-0.078257	-56.876894
3.950000	-0.079488	-57.562909	-59.149746	136.986965	-59.149746	136.986965	-0.079488	-57.562702
4.000000	-0.080744	-58.246365	-58.828881	135.490214	-58.828881	135.490214	-0.080744	-58.246156
4.050000	-0.082006	-58.929351	-58.517225	133.993039	-58.517225	133.993039	-0.082006	-58.929139
4.100000	-0.083290	-59.610205	-58.206638	132.494330	-58.206638	132.494330	-0.083291	-59.609992
4.150000	-0.084583	-60.290349	-57.903645	130.995109	-57.903645	130.995109	-0.084583	-60.290134
4.200000	-0.085898	-60.968589	-57.602752	129.494813	-57.602752	129.494813	-0.085898	-60.968372
4.250000	-0.087223	-61.645877	-57.308012	127.993978	-57.308012	127.993978	-0.087223	-61.645659
4.300000	-0.088569	-62.321492	-57.016276	126.492426	-57.016276	126.492426	-0.088569	-62.321272
4.350000	-0.089929	-62.995913	-56.729410	124.990361	-56.729410	124.990361	-0.089930	-62.995691
4.400000	-0.091308	-63.668895	-56.446338	123.487851	-56.446338	123.487851	-0.091308	-63.668672
4.450000	-0.092704	-64.340439	-56.166993	121.984896	-56.166993	121.984896	-0.092705	-64.340214
4.500000	-0.094117	-65.010782	-55.892134	120.481696	-55.892134	120.481696	-0.094117	-65.010555
4.550000	-0.095551	-65.679444	-55.619981	118.978153	-55.619981	118.978153	-0.095552	-65.679215
4.600000	-0.096999	-66.347143	-55.352917	117.474504	-55.352917	117.474504	-0.097000	-66.346913
4.650000	-0.098473	-67.012919	-55.087650	115.970645	-55.087650	115.970645	-0.098474	-67.012687
4.700000	-0.099958	-67.677973	-54.827996	114.466768	-54.827996	114.466768	-0.099958	-67.677740
4.750000	-0.101473	-68.340862	-54.569329	112.962836	-54.569329	112.962836	-0.101474	-68.340627
4.800000	-0.102996	-69.003270	-54.316728	111.458928	-54.316728	111.458928	-0.102996	-69.003034
4.850000	-0.104554	-69.663275	-54.064392	109.955143	-54.064392	109.955143	-0.104555	-69.663037
4.900000	-0.106116	-70.323039	-53.818513	108.451386	-53.818513	108.451386	-0.106117	-70.322800
4.950000	-0.107719	-70.980163	-53.572259	106.947947	-53.572259	106.947947	-0.107720	-70.979923
5.000000	-0.109322	-71.637287	-53.332793	105.444507	-53.332793	105.444507	-0.109323	-71.637045
5.050000	-0.110972	-72.291538	-53.092384	103.941593	-53.092384	103.941593	-0.110972	-72.291295
5.100000	-0.112621	-72.945788	-52.858450	102.438679	-52.858450	102.438679	-0.112622	-72.945545
5.150000	-0.114314	-73.597414	-52.624260	100.936397	-52.624260	100.936397	-0.114315	-73.597170
5.200000	-0.116012	-74.248801	-52.395654	99.434174	-52.395654	99.434174	-0.116012	-74.248556
5.250000	-0.117750	-74.897812	-52.167412	97.932651	-52.167412	97.932651	-0.117751	-74.897565
5.300000	-0.119497	-75.546348	-51.943943	96.431268	-51.943943	96.431268	-0.119498	-75.546100
5.350000	-0.121283	-76.192755	-51.721392	94.930620	-51.721392	94.930620	-0.121284	-76.192507
5.400000	-0.123081	-76.838454	-51.502879	93.430217	-51.502879	93.430217	-0.123082	-76.838204
5.450000	-0.124915	-77.482272	-51.285782	91.930551	-51.285782	91.930551	-0.124916	-77.482021
5.500000	-0.126766	-78.125149	-51.072054	90.431255	-51.072054	90.431255	-0.126767	-78.124899
5.550000	-0.128649	-78.766393	-50.860187	88.932674	-50.860187	88.932674	-0.128650	-78.766142
5.600000	-0.130555	-79.406469	-50.651083	87.434603	-50.651083	87.434603	-0.130556	-79.406217
5.650000	-0.132490	-80.045155	-50.444235	85.937201	-50.444235	85.937201	-0.132491	-80.044903
5.700000	-0.134452	-80.682451	-50.239602	84.440466	-50.239602	84.440466	-0.134453	-80.682199
5.750000	-0.136439	-81.318599	-50.037576	82.944330	-50.037576	82.944330	-0.136440	-81.318346
5.800000	-0.138459	-81.953138	-49.837268	81.449034	-49.837268	81.449034	-0.138461	-81.952885
5.850000	-0.140500	-82.586767	-49.639880	79.954249	-49.639880	79.954249	-0.140501	-82.586514
5.900000	-0.142580	-83.218575	-49.443758	78.460487	-49.443758	78.460487	-0.142582	-83.218322
5.950000	-0.144676	-83.849707	-49.250832	76.967131	-49.250832	76.967131	-0.144677	-83.849454
6.000000	-0.146818	-84.478811	-49.058765	75.474995	-49.058765	75.474995	-0.146819	-84.478559
6.050000	-0.148971	-85.107470	-48.870136	73.983143	-48.870136	73.983143	-0.148972	-85.107218
6.100000	-0.151175	-85.733901	-48.682000	72.492716	-48.682000	72.492716	-0.151177	-85.733650
6.150000	-0.153386	-86.360112	-48.497511	71.002439	-48.497511	71.002439	-0.153387	-86.359861
6.200000	-0.155656	-86.983900	-48.313186	69.513802	-48.313186	69.513802	-0.155657	-86.983650
6.250000	-0.157926	-87.607688	-48.132691	68.025165	-48.132691	68.025165	-0.157927	-87.607439
6.300000	-0.160262	-88.228868	-47.952062	66.538394	-47.952062	66.538394	-0.160264	-88.228620
6.350000	-0.162599	-88.850048	-47.775112	65.051622	-47.775112	65.051622	-0.162600	-88.849801
6.400000	-0.164998	-89.468869	-47.598378	63.566626	-47.598378	63.566626	-0.164999	-89.468623
6.450000	-0.167402	-90.087476	-47.424873	62.081791	-47.424873	62.081791	-0.167404	-90.087231
6.500000	-0.169865	-90.703969	-47.251899	60.598625	-47.251899	60.598625	-0.169867	-90.703726
6.550000	-0.172340	-91.320040	-47.081741	59.115793	-47.081741	59.115793	-0.172341	-91.319798
6.600000	-0.174868	-91.934238	-46.912398	57.634510	-46.912398	57.634510	-0.174869	-91.933998
6.650000	-0.177414	-92.547812	-46.745492	56.153743	-46.745492	56.153743	-0.177415	-92.547573
6.700000	-0.180009	-93.159748	-46.579658	54.674391	-46.579658	54.674391	-0.180010	-93.159511
6.750000	-0.182628	-93.770866	-46.415914	53.195747	-46.415914	53.195747	-0.182629	-93.770631
6.800000	-0.185291	-94.380575	-46.253474	51.718373	-46.253474	51.718373	-0.185292	-94.380342
6.850000	-0.187985	-94.989279	-46.092805	50.241905	-46.092805	50.241905	-0.187986	-94.989048
6.900000	-0.190717	-95.596798	-45.933647	48.766550	-45.933647	48.766550	-0.190718	-95.596569
6.950000	-0.193487	-96.203132	-45.775970	47.292307	-45.775970	47.292307	-0.193489	-96.202906
7.000000	-0.196290	-96.808498	-45.619988	45.819010	-45.619988	45.819010	-0.196292	-96.808274
7.050000	-0.199138	-97.412508	-45.465222	44.347036	-45.465222	44.347036	-0.199140	-97.412287
7.100000	-0.202013	-98.015759	-45.312315	42.875830	-45.312315	42.875830	-0.202015	-98.015541
7.150000	-0.204941	-98.617492	-45.160382	41.406163	-45.160382	41.406163	-0.204942	-98.617277
7.200000	-0.207889	-99.218668	-45.010454	39.937080	-45.010454	39.937080	-0.207891	-99.218456
7.250000	-0.210898	-99.818174	-44.861278	38.469751	-44.861278	38.469751	-0.210900	-99.817964
7.300000	-0.213921	-100.417316	-44.714236	37.002817	-44.714236	37.002817	-0.213923	-100.417109
7.350000	-0.217012	-101.014643	-44.567745	35.537854	-44.567745	35.537854	-0.217014	-101.014439
7.400000	-0.220111	-101.611793	-44.423499	34.073089	-44.423499	34.073089	-0.220113	-101.611592
7.450000	-0.223287	-102.206994	-44.279622	32.610511	-44.279622	32.610511	-0.223289	-102.206797
7.500000	-0.226463	-102.802195	-44.138089	31.147933	-44.138089	31.147933	-0.226465	-102.802001
7.550000	-0.229724	-103.395323	-43.996757	29.687753	-43.996757	29.687753	-0.229726	-103.395132
7.600000	-0.232986	-103.988450	-43.857687	28.227572	-43.857687	28.227572	-0.232988	-103.988264
7.650000	-0.236326	-104.579728	-43.719001	26.769594	-43.719001	26.769594	-0.236328	-104.579545
7.700000	-0.239675	-105.170837	-43.582332	25.311816	-43.582332	25.311816	-0.239677	-105.170658
7.750000	-0.243097	-105.760311	-43.446212	23.856038	-43.446212	23.856038	-0.243099	-105.760135
7.800000	-0.246534	-106.349458	-43.311883	22.400660	-43.311883	22.400660	-0.246537	-106.349285
7.850000	-0.250038	-106.937175	-43.178252	20.947072	-43.178252	20.947072	-0.250041	-106.937007
7.900000	-0.253565	-107.524417	-43.046203	19.494081	-43.046203	19.494081	-0.253568	-107.524252
7.950000	-0.257152	-108.110427	-42.914989	18.042667	-42.914989	18.042667	-0.257155	-108.110265
8.000000	-0.260771	-108.695821	-42.785163	16.592043	-42.785163	16.592043	-0.260773	-108.695664
8.050000	-0.264442	-109.280173	-42.656294	15.142780	-42.656294	15.142780	-0.264445	-109.280019
8.100000	-0.268153	-109.863781	-42.528637	13.694492	-42.528637	13.694492	-0.268156	-109.863631
8.150000	-0.271910	-110.446526	-42.402046	12.247350	-42.402046	12.247350	-0.271913	-110.446379
8.200000	-0.275715	-111.028408	-42.276502	10.801356	-42.276502	10.801356	-0.275718	-111.028265
8.250000	-0.279559	-111.609597	-42.152124	9.356296	-42.152124	9.356296	-0.279562	-111.609458
8.300000	-0.283458	-112.189816	-42.028642	7.912544	-42.028642	7.912544	-0.283461	-112.189680
8.350000	-0.287389	-112.769502	-41.906416	6.469520	-41.906416	6.469520	-0.287393	-112.769370
8.400000	-0.291384	-113.348122	-41.784946	5.027949	-41.784946	5.027949	-0.291388	-113.347993
8.450000	-0.295404	-113.926358	-41.664812	3.586904	-41.664812	3.586904	-0.295408	-113.926233
8.500000	-0.299497	-114.503445	-41.545307	2.147439	-41.545307	2.147439	-0.299501	-114.503322
8.550000	-0.303606	-115.080286	-41.427207	0.708310	-41.427207	0.708310	-0.303610	-115.080167
8.600000	-0.307797	-115.655905	-41.309621	-0.729135	-41.309621	-0.729135	-0.307801	-115.655788
8.650000	-0.311997	-116.231407	-41.193502	-2.166420	-41.193502	-2.166420	-0.312001	-116.231293
8.700000	-0.316286	-116.805626	-41.077791	-3.601943	-41.077791	-3.601943	-0.316291	-116.805515
8.750000	-0.320578	-117.379845	-40.963601	-5.037466	-40.963601	-5.037466	-0.320582	-117.379736
8.800000	-0.324967	-117.952734	-40.849724	-6.471178	-40.849724	-6.471178	-0.324972	-117.952627
8.850000	-0.329359	-118.525622	-40.737320	-7.904890	-40.737320	-7.904890	-0.329363	-118.525518
8.900000	-0.333841	-119.097356	-40.625332	-9.337053	-40.625332	-9.337053	-0.333846	-119.097253
8.950000	-0.338334	-119.668985	-40.514678	-10.769076	-40.514678	-10.769076	-0.338338	-119.668883
9.000000	-0.342910	-120.239623	-40.404534	-12.199804	-40.404534	-12.199804	-0.342914	-120.239522
9.050000	-0.347504	-120.810063	-40.295594	-13.630274	-40.295594	-13.630274	-0.347509	-120.809964
9.100000	-0.352174	-121.379668	-40.187251	-15.059688	-40.187251	-15.059688	-0.352179	-121.379569
9.150000	-0.356871	-121.948993	-40.079994	-16.488751	-40.079994	-16.488751	-0.356876	-121.948894
9.200000	-0.361636	-122.517625	-39.973412	-17.916982	-39.973412	-17.916982	-0.361640	-122.517526
9.250000	-0.366436	-123.085909	-39.867809	-19.344798	-39.867809	-19.344798	-0.366441	-123.085810
9.300000	-0.371296	-123.653631	-39.762952	-20.771987	-39.762952	-20.771987	-0.371300	-123.653531
9.350000	-0.376200	-124.220952	-39.658976	-22.198727	-39.658976	-22.198727	-0.376204	-124.220850
9.400000	-0.381156	-124.787828	-39.555810	-23.625021	-39.555810	-23.625021	-0.381160	-124.787725
9.450000	-0.386163	-125.354261	-39.453439	-25.050868	-39.453439	-25.050868	-0.386168	-125.354156
9.500000	-0.391215	-125.920357	-39.351934	-26.476425	-39.351934	-26.476425	-0.391219	-125.920249
9.550000	-0.396328	-126.485982	-39.251148	-27.901573	-39.251148	-27.901573	-0.396331	-126.485871
9.600000	-0.401476	-127.051363	-39.151276	-29.326556	-39.151276	-29.326556	-0.401479	-127.051249
9.650000	-0.406693	-127.616259	-39.052059	-30.751208	-39.052059	-30.751208	-0.406696	-127.616141
9.700000	-0.411938	-128.180994	-38.953797	-32.175789	-38.953797	-32.175789	-0.411941	-128.180871
9.750000	-0.417261	-128.745244	-38.856137	-33.600158	-38.856137	-33.600158	-0.417263	-128.745115
9.800000	-0.422602	-129.309400	-38.759463	-35.024517	-38.759463	-35.024517	-0.422604	-129.309265
9.850000	-0.428030	-129.873087	-38.663353	-36.448824	-38.663353	-36.448824	-0.428031	-129.872945
9.900000	-0.433468	-130.436734	-38.568250	-37.873144	-38.568250	-37.873144	-0.433469	-130.436585
9.950000	-0.439001	-130.999942	-38.473686	-39.297616	-38.473686	-39.297616	-0.439001	-130.999785
10.000000	-0.444536	-131.563151	-38.380140	-40.722088	-38.380140	-40.722088	-0.444536	-131.562986
