! freq	dB(S11)	phase(S11)	dB(S12)	phase(S12)	
!     	dB(S21)	phase(S21)	dB(S22)	phase(S22)	
!S-par simulation data
#  GHz  S  DB  R 50
0.000000	-83.446147	0.000000	-0.000584	0.000000	-0.000584	0.000000	-83.446147	0.000000
0.050000	-34.448511	-93.204668	-0.005123	-3.381401	-0.005123	-3.381401	-34.455152	-93.191992
0.100000	-28.436833	-96.721995	-0.016639	-6.743051	-0.016639	-6.743051	-28.439404	-96.717087
0.150000	-24.930330	-100.181407	-0.031750	-10.083180	-0.031750	-10.083180	-24.930276	-100.211933
0.200000	-22.455614	-103.635194	-0.048903	-13.407451	-0.048903	-13.407451	-22.458300	-103.709737
0.250000	-20.552221	-107.086142	-0.067793	-16.721194	-0.067793	-16.721194	-20.561874	-107.174002
0.300000	-19.015745	-110.515194	-0.088632	-20.026321	-0.088632	-20.026321	-19.030348	-110.575756
0.350000	-17.733900	-113.897728	-0.111572	-23.323242	-0.111572	-23.323242	-17.747892	-113.921140
0.400000	-16.637114	-117.223096	-0.136741	-26.611320	-0.136741	-26.611320	-16.646778	-117.228048
0.450000	-15.680187	-120.500589	-0.164267	-29.889208	-0.164267	-29.889208	-15.685228	-120.510740
0.500000	-14.832149	-123.751003	-0.193994	-33.156470	-0.193994	-33.156470	-14.834040	-123.778492
0.550000	-14.072954	-126.986509	-0.225837	-36.412264	-0.225837	-36.412264	-14.073198	-127.034423
0.600000	-13.388976	-130.212111	-0.259759	-39.655232	-0.259759	-39.655232	-13.388620	-130.278854
0.650000	-12.768810	-133.429242	-0.295544	-42.885158	-0.295544	-42.885158	-12.768392	-133.511964
0.700000	-12.203720	-136.637238	-0.333015	-46.101668	-0.333015	-46.101668	-12.203474	-136.733277
0.750000	-11.687203	-139.834516	-0.372043	-49.303937	-0.372043	-49.303937	-11.687197	-139.941737
0.800000	-11.213478	-143.019838	-0.412439	-52.491715	-0.412439	-52.491715	-11.213691	-143.136743
0.850000	-10.777588	-146.192341	-0.454005	-55.665012	-0.454005	-55.665012	-10.777969	-146.317962
0.900000	-10.375481	-149.351333	-0.496558	-58.823811	-0.496558	-58.823811	-10.375972	-149.485073
0.950000	-10.003795	-152.496280	-0.539921	-61.968094	-0.539921	-61.968094	-10.004342	-152.637804
1.000000	-9.659597	-155.626914	-0.583918	-65.097995	-0.583918	-65.097995	-9.660158	-155.776064
1.050000	-9.340351	-158.743154	-0.628378	-68.213730	-0.628378	-68.213730	-9.340897	-158.899891
1.100000	-9.043848	-161.845077	-0.673136	-71.315593	-0.673136	-71.315593	-9.044359	-162.009433
1.150000	-8.768149	-164.932893	-0.718033	-74.403946	-0.718033	-74.403946	-8.768616	-165.104943
1.200000	-8.511544	-168.006928	-0.762918	-77.479211	-0.762918	-77.479211	-8.511966	-168.186766
1.250000	-8.272513	-171.067603	-0.807650	-80.541867	-0.807650	-80.541867	-8.272894	-171.255332
1.300000	-8.049911	-174.115155	-0.852081	-83.592186	-0.852081	-83.592186	-8.050261	-174.310876
1.350000	-7.842298	-177.150449	-0.896098	-86.631012	-0.896098	-86.631012	-7.842627	-177.354258
1.400000	-7.648580	179.825880	-0.939588	-89.658951	-0.939588	-89.658951	-7.648899	179.613899
1.450000	-7.467771	176.813157	-0.982447	-92.676639	-0.982447	-92.676639	-7.468092	176.592927
1.500000	-7.298975	173.810664	-1.024582	-95.684740	-1.024582	-95.684740	-7.299308	173.582118
1.550000	-7.141378	170.817659	-1.065911	-98.683944	-1.065911	-98.683944	-7.141732	170.580737
1.600000	-6.994237	167.833375	-1.106359	-101.674963	-1.106359	-101.674963	-6.994618	167.588023
1.650000	-6.856871	164.857030	-1.145863	-104.658526	-1.145863	-104.658526	-6.857283	164.603200
1.700000	-6.728654	161.887834	-1.184365	-107.635379	-1.184365	-107.635379	-6.729099	161.625482
1.750000	-6.609010	158.924993	-1.221819	-110.606277	-1.221819	-110.606277	-6.609490	158.654077
1.800000	-6.497409	155.967711	-1.258184	-113.571986	-1.258184	-113.571986	-6.497920	155.688193
1.850000	-6.393356	153.015201	-1.293427	-116.533275	-1.293427	-116.533275	-6.393898	152.727044
1.900000	-6.296459	150.066717	-1.327509	-119.490882	-1.327509	-119.490882	-6.297025	149.769885
1.950000	-6.206281	147.121463	-1.360409	-122.445598	-1.360409	-122.445598	-6.206867	146.815924
2.000000	-6.122365	144.178645	-1.392127	-125.398219	-1.392127	-125.398219	-6.122963	143.864369
2.050000	-6.044339	141.237526	-1.422656	-128.349492	-1.422656	-128.349492	-6.044944	140.914488
2.100000	-5.972259	138.297407	-1.451881	-131.300164	-1.451881	-131.300164	-5.972865	137.965583
2.150000	-5.904928	135.357508	-1.480043	-134.250964	-1.480043	-134.250964	-5.905529	135.016885
2.200000	-5.842516	132.417244	-1.507022	-137.202531	-1.507022	-137.202531	-5.843107	132.067814
2.250000	-5.784733	129.475968	-1.532830	-140.155537	-1.532830	-140.155537	-5.785310	129.117729
2.300000	-5.731308	126.533055	-1.557483	-143.110627	-1.557483	-143.110627	-5.731866	126.166016
2.350000	-5.681981	123.587908	-1.581000	-146.068423	-1.581000	-146.068423	-5.682517	123.212088
2.400000	-5.636509	120.639955	-1.603405	-149.029518	-1.603405	-149.029518	-5.637021	120.255384
2.450000	-5.594657	117.688653	-1.624726	-151.994477	-1.624726	-151.994477	-5.595144	117.295374
2.500000	-5.556206	114.733482	-1.644994	-154.963838	-1.644994	-154.963838	-5.556668	114.331553
2.550000	-5.521068	111.773741	-1.664196	-157.938345	-1.664196	-157.938345	-5.521505	111.363238
2.600000	-5.488903	108.809140	-1.682418	-160.918280	-1.682418	-160.918280	-5.489317	108.390152
2.650000	-5.459520	105.839246	-1.699699	-163.904088	-1.699699	-163.904088	-5.459913	105.411879
2.700000	-5.432738	102.863654	-1.716079	-166.896183	-1.716079	-166.896183	-5.433111	102.428032
2.750000	-5.408382	99.881986	-1.731598	-169.894950	-1.731598	-169.894950	-5.408738	99.438251
2.800000	-5.386285	96.893892	-1.746302	-172.900744	-1.746302	-172.900744	-5.386628	96.442202
2.850000	-5.366290	93.899045	-1.760233	-175.913892	-1.760233	-175.913892	-5.366622	93.439578
2.900000	-5.348245	90.897146	-1.773436	-178.934690	-1.773436	-178.934690	-5.348569	90.430100
2.950000	-5.332007	87.887922	-1.785954	178.036591	-1.785954	178.036591	-5.332324	87.413512
3.000000	-5.317436	84.871123	-1.797832	174.999707	-1.797832	174.999707	-5.317750	84.389583
3.050000	-5.304405	81.846524	-1.809114	171.954440	-1.809114	171.954440	-5.304716	81.358109
3.100000	-5.292790	78.813924	-1.819840	168.900597	-1.819840	168.900597	-5.293099	78.318905
3.150000	-5.282474	75.773143	-1.830053	165.838008	-1.830053	165.838008	-5.282782	75.271811
3.200000	-5.273348	72.724023	-1.839792	162.766524	-1.839792	162.766524	-5.273656	72.216689
3.250000	-5.265312	69.666429	-1.849095	159.686016	-1.849095	159.686016	-5.265618	69.153419
3.300000	-5.258270	66.600242	-1.857996	156.596373	-1.857996	156.596373	-5.258573	66.081902
3.350000	-5.252136	63.525362	-1.866530	153.497502	-1.866530	153.497502	-5.252434	63.002055
3.400000	-5.246830	60.441708	-1.874727	150.389323	-1.874727	150.389323	-5.247122	59.913813
3.450000	-5.242282	57.349211	-1.882616	147.271769	-1.882616	147.271769	-5.242564	56.817123
3.500000	-5.238428	54.247817	-1.890220	144.144783	-1.890220	144.144783	-5.238697	53.711947
3.550000	-5.235215	51.137482	-1.897562	141.008319	-1.897562	141.008319	-5.235467	50.598257
3.600000	-5.232596	48.018173	-1.904660	137.862333	-1.904660	137.862333	-5.232828	47.476032
3.650000	-5.230535	44.889862	-1.911531	134.706790	-1.911531	134.706790	-5.230743	44.345259
3.700000	-5.229004	41.752528	-1.918185	131.541654	-1.918185	131.541654	-5.229184	41.205929
3.750000	-5.227987	38.606148	-1.924630	128.366888	-1.924630	128.366888	-5.228133	38.058032
3.800000	-5.227497	35.450306	-1.930862	125.182032	-1.930862	125.182032	-5.227606	34.901184
3.850000	-5.227517	32.285368	-1.936890	121.987460	-1.936890	121.987460	-5.227584	31.735741
3.900000	-5.228060	29.111300	-1.942710	118.783120	-1.942710	118.783120	-5.228082	28.561676
3.950000	-5.229152	25.928056	-1.948314	115.568948	-1.948314	115.568948	-5.229126	25.378953
4.000000	-5.230830	22.735575	-1.953689	112.344866	-1.953689	112.344866	-5.230752	22.187518
4.050000	-5.233142	19.533778	-1.958818	109.110782	-1.958818	109.110782	-5.233008	18.987297
4.100000	-5.236148	16.322564	-1.963682	105.866582	-1.963682	105.866582	-5.235956	15.778195
4.150000	-5.239919	13.101804	-1.968253	102.612129	-1.968253	102.612129	-5.239667	12.560087
4.200000	-5.244450	9.872305	-1.972538	99.348294	-1.972538	99.348294	-5.244136	9.333730
4.250000	-5.249996	6.632077	-1.976440	96.072953	-1.976440	96.072953	-5.249617	6.097236
4.300000	-5.256595	3.381730	-1.979948	92.786781	-1.979948	92.786781	-5.256151	2.851171
4.350000	-5.264370	0.120990	-1.983020	89.489510	-1.983020	89.489510	-5.263858	-0.404741
4.400000	-5.273472	-3.150587	-1.985600	86.180698	-1.985600	86.180698	-5.272893	-3.670937
4.450000	-5.284059	-6.433392	-1.987635	82.859967	-1.987635	82.859967	-5.283410	-6.947808
4.500000	-5.296283	-9.727746	-1.989073	79.527018	-1.989073	79.527018	-5.295564	-10.235686
4.550000	-5.310324	-13.034153	-1.989853	76.181362	-1.989853	76.181362	-5.309534	-13.535076
4.600000	-5.326380	-16.353186	-1.989909	72.822442	-1.989909	72.822442	-5.325517	-16.846552
4.650000	-5.344664	-19.685491	-1.989173	69.449624	-1.989173	69.449624	-5.343727	-20.170767
4.700000	-5.365406	-23.031798	-1.987573	66.062186	-1.987573	66.062186	-5.364393	-23.508453
4.750000	-5.388854	-26.392923	-1.985035	62.659316	-1.985035	62.659316	-5.387763	-26.860430
4.800000	-5.415415	-29.770521	-1.981434	59.239325	-1.981434	59.239325	-5.414244	-30.228336
4.850000	-5.445066	-33.163968	-1.976798	55.802886	-1.976798	55.802886	-5.443810	-33.611601
4.900000	-5.478273	-36.575253	-1.970994	52.347952	-1.970994	52.347952	-5.476930	-37.012188
4.950000	-5.515364	-40.005609	-1.963944	48.873250	-1.963944	48.873250	-5.513927	-40.431335
5.000000	-5.556687	-43.456394	-1.955573	45.377371	-1.955573	45.377371	-5.555152	-43.870404
5.050000	-5.603009	-46.931062	-1.945685	41.856716	-1.945685	41.856716	-5.601367	-47.332807
5.100000	-5.653922	-50.427247	-1.934466	38.313720	-1.934466	38.313720	-5.652167	-50.816268
5.150000	-5.710608	-53.950528	-1.921622	34.742554	-1.921622	34.742554	-5.708730	-54.326288
5.200000	-5.773012	-57.500352	-1.907252	31.143758	-1.907252	31.143758	-5.771002	-57.862361
5.250000	-5.841832	-61.079990	-1.891247	27.513884	-1.891247	27.513884	-5.839678	-61.427735
5.300000	-5.917701	-64.692430	-1.873547	23.849779	-1.873547	23.849779	-5.915391	-65.025381
5.350000	-6.000652	-68.337678	-1.854265	20.151408	-1.854265	20.151408	-5.998173	-68.655339
5.400000	-6.092202	-72.023535	-1.833171	16.410614	-1.833171	16.410614	-6.089539	-72.325326
5.450000	-6.191673	-75.746331	-1.810585	12.631246	-1.810585	12.631246	-6.188811	-76.031752
5.500000	-6.301200	-79.517807	-1.786229	8.801114	-1.786229	8.801114	-6.298121	-79.786233
5.550000	-6.420021	-83.333867	-1.760462	4.924609	-1.760462	4.924609	-6.416710	-83.584750
5.600000	-6.549788	-87.204535	-1.733212	0.991534	-1.733212	0.991534	-6.546224	-87.437235
5.650000	-6.690658	-91.131406	-1.704705	-2.999434	-1.704705	-2.999434	-6.686824	-91.345289
5.700000	-6.843282	-95.119780	-1.675126	-7.053252	-1.675126	-7.053252	-6.839159	-95.314178
5.750000	-7.008844	-99.179495	-1.644648	-11.179225	-1.644648	-11.179225	-7.004413	-99.353665
5.800000	-7.186781	-103.308950	-1.613647	-15.374810	-1.613647	-15.374810	-7.182024	-103.462196
5.850000	-7.379207	-107.530034	-1.582393	-19.660296	-1.582393	-19.660296	-7.374107	-107.661489
5.900000	-7.584571	-111.835085	-1.551334	-24.026459	-1.551334	-24.026459	-7.579114	-111.944002
5.950000	-7.804393	-116.252014	-1.521033	-28.497354	-1.521033	-28.497354	-7.798568	-116.337480
6.000000	-8.037174	-120.779086	-1.491972	-33.068237	-1.491972	-33.068237	-8.030976	-120.840299
6.050000	-8.282430	-125.441493	-1.464975	-37.757511	-1.464975	-37.757511	-8.275862	-125.477619
6.100000	-8.538269	-130.255731	-1.440841	-42.574139	-1.440841	-42.574139	-8.531349	-130.266038
6.150000	-8.801713	-135.239087	-1.420447	-47.525869	-1.420447	-47.525869	-8.794473	-135.223042
6.200000	-9.067929	-140.439955	-1.405461	-52.642282	-1.405461	-52.642282	-9.060434	-140.397296
6.250000	-9.331796	-145.859907	-1.396448	-57.915478	-1.396448	-57.915478	-9.324132	-145.790851
6.300000	-9.581728	-151.585671	-1.396416	-63.395310	-1.396416	-63.395310	-9.574048	-151.491267
6.350000	-9.805242	-157.659839	-1.407409	-69.096759	-1.407409	-69.096759	-9.797756	-157.542269
6.400000	-9.984502	-164.154784	-1.432745	-75.052851	-1.432745	-75.052851	-9.977490	-164.017854
6.450000	-10.096314	-171.157448	-1.477017	-81.305061	-1.477017	-81.305061	-10.090134	-171.007114
6.500000	-10.111913	-178.768523	-1.546804	-87.905835	-1.546804	-87.905835	-10.106974	-178.613377
6.550000	-9.997964	172.900920	-1.651839	-94.921428	-1.651839	-94.921428	-9.994673	173.049422
6.600000	-9.719701	163.735207	-1.806938	-102.434380	-1.806938	-102.434380	-9.718368	163.863085
6.650000	-9.247054	153.620294	-2.035187	-110.543594	-2.035187	-110.543594	-9.247783	153.712266
6.700000	-8.561920	142.439173	-2.374195	-119.362832	-2.374195	-119.362832	-8.564531	142.480721
6.750000	-7.674696	130.094315	-2.882654	-128.979782	-2.882654	-128.979782	-7.678740	130.074526
6.800000	-6.632863	116.515412	-3.651526	-139.388413	-3.651526	-139.388413	-6.637755	116.429071
6.850000	-5.523458	101.712836	-4.817164	-150.333833	-4.817164	-150.333833	-5.528634	101.561112
6.900000	-4.463747	85.891726	-6.569640	-160.992109	-6.569640	-160.992109	-4.468756	85.681326
6.950000	-3.570225	69.564793	-9.138032	-169.351427	-9.138032	-169.351427	-3.574734	69.305776
7.000000	-2.913592	53.487187	-12.689360	-170.615176	-12.689360	-170.615176	-2.917357	53.190508
7.050000	-2.491930	38.386865	-16.458696	-154.674849	-16.458696	-154.674849	-2.494821	38.062435
7.100000	-2.253762	24.720921	-16.803479	-124.704036	-16.803479	-124.704036	-2.255775	24.377097
7.150000	-2.132378	12.608397	-14.465913	-110.698181	-14.465913	-110.698181	-2.133616	12.252031
7.200000	-2.072772	1.926590	-12.479313	-109.303735	-12.479313	-109.303735	-2.073389	1.563261
7.250000	-2.039994	-7.521678	-11.148601	-112.518704	-11.148601	-112.518704	-2.040153	-7.887368
7.300000	-2.014459	-15.979545	-10.276251	-117.310510	-10.276251	-117.310510	-2.014299	-16.343950
7.350000	-1.987346	-23.628809	-9.711304	-122.643651	-9.711304	-122.643651	-1.986975	-23.988977
7.400000	-1.955370	-30.626047	-9.354933	-128.100443	-9.354933	-128.100443	-1.954869	-30.979641
7.450000	-1.918191	-37.094462	-9.144308	-133.510604	-9.144308	-133.510604	-1.917614	-37.439649
7.500000	-1.876783	-43.129748	-9.038428	-138.805544	-9.038428	-138.805544	-1.876161	-43.465101
7.550000	-1.832540	-48.800711	-9.010713	-143.958372	-9.010713	-143.958372	-1.831887	-49.125115
7.600000	-1.786980	-54.172435	-9.040404	-148.967546	-9.040404	-148.967546	-1.786300	-54.485052
7.650000	-1.741364	-59.290048	-9.113968	-153.837892	-9.113968	-153.837892	-1.740650	-59.590240
7.700000	-1.696720	-64.189638	-9.221460	-158.577922	-9.221460	-158.577922	-1.695959	-64.476918
7.750000	-1.653840	-68.900461	-9.355406	-163.197526	-9.355406	-163.197526	-1.653017	-69.174461
7.800000	-1.613305	-73.446580	-9.510073	-167.706864	-9.510073	-167.706864	-1.612402	-73.707019
7.850000	-1.575519	-77.848075	-9.680987	-172.115853	-9.680987	-172.115853	-1.574516	-78.094737
7.900000	-1.540740	-82.121952	-9.864600	-176.433936	-9.864600	-176.433936	-1.539618	-82.354666
7.950000	-1.509110	-86.282813	-10.058065	179.329990	-10.058065	179.329990	-1.507852	-86.501438
8.000000	-1.480685	-90.343371	-10.259064	175.167583	-10.259064	175.167583	-1.479273	-90.547782
8.050000	-1.455452	-94.314829	-10.465693	171.071027	-10.465693	171.071027	-1.453871	-94.504910
8.100000	-1.433351	-98.207188	-10.676374	167.032987	-10.676374	167.032987	-1.431586	-98.382817
8.150000	-1.414316	-102.028795	-10.889747	163.047055	-10.889747	163.047055	-1.412355	-102.189841
8.200000	-1.398222	-105.788124	-11.104669	159.106518	-11.104669	159.106518	-1.396055	-105.934441
8.250000	-1.384901	-109.493459	-11.320241	155.204682	-11.320241	155.204682	-1.382519	-109.624877
8.300000	-1.374207	-113.151783	-11.535672	151.335721	-11.535672	151.335721	-1.371603	-113.268109
8.350000	-1.365991	-116.769636	-11.750286	147.494080	-11.750286	147.494080	-1.363159	-116.870644
8.400000	-1.360103	-120.353182	-11.963504	143.674445	-11.963504	143.674445	-1.357040	-120.438615
8.450000	-1.356396	-123.908274	-12.174824	139.871713	-12.174824	139.871713	-1.353101	-123.977836
8.500000	-1.354728	-127.440503	-12.383816	136.080974	-12.383816	136.080974	-1.351199	-127.493858
8.550000	-1.355035	-130.954784	-12.589768	132.297523	-12.589768	132.297523	-1.351274	-130.991535
8.600000	-1.357015	-134.457497	-12.793121	128.516513	-12.793121	128.516513	-1.353024	-134.477243
8.650000	-1.360645	-137.952821	-12.993182	124.733788	-12.993182	124.733788	-1.356427	-137.955091
8.700000	-1.365809	-141.445665	-13.189713	120.944991	-13.189713	120.944991	-1.361369	-141.429941
8.750000	-1.372398	-144.940834	-13.382514	117.145878	-13.382514	117.145878	-1.367741	-144.906544
8.800000	-1.380351	-148.443463	-13.571158	113.331659	-13.571158	113.331659	-1.375485	-148.389960
8.850000	-1.389531	-151.958085	-13.755776	109.498646	-13.755776	109.498646	-1.384463	-151.884685
8.900000	-1.399855	-155.489274	-13.936268	105.642873	-13.936268	105.642873	-1.394593	-155.395240
8.950000	-1.411247	-159.041555	-14.112559	101.760464	-14.112559	101.760464	-1.405800	-158.926091
9.000000	-1.423639	-162.619403	-14.284606	97.847625	-14.284606	97.847625	-1.418018	-162.481659
9.050000	-1.436974	-166.227252	-14.452396	93.900655	-14.452396	93.900655	-1.431188	-166.066319
9.100000	-1.451200	-169.869488	-14.615944	89.915955	-14.615944	89.915955	-1.445259	-169.684401
9.150000	-1.466275	-173.550443	-14.775299	85.890036	-14.775299	85.890036	-1.460190	-173.340187
9.200000	-1.482165	-177.274389	-14.930542	81.819537	-14.930542	81.819537	-1.475947	-177.037896
9.250000	-1.498844	178.954476	-15.081791	77.701247	-15.081791	77.701247	-1.492504	179.218321
9.300000	-1.516296	175.132052	-15.229199	73.532128	-15.229199	73.532128	-1.509844	175.424404
9.350000	-1.534514	171.254354	-15.372962	69.309346	-15.372962	69.309346	-1.527961	171.576403
9.400000	-1.553507	167.316862	-15.513258	65.029668	-15.513258	65.029668	-1.546864	167.669837
9.450000	-1.573287	163.315808	-15.650382	60.690713	-15.650382	60.690713	-1.566564	163.700953
9.500000	-1.593867	159.248426	-15.784728	56.291133	-15.784728	56.291133	-1.587072	159.666974
9.550000	-1.615278	155.111588	-15.916671	51.829349	-15.916671	51.829349	-1.608420	155.564755
9.600000	-1.637560	150.902497	-16.046638	47.304224	-16.046638	47.304224	-1.630646	151.391468
9.650000	-1.660761	146.618755	-16.175100	42.715124	-16.175100	42.715124	-1.653798	147.144661
9.700000	-1.684940	142.258424	-16.302576	38.061976	-16.302576	38.061976	-1.677933	142.822319
9.750000	-1.710161	137.820101	-16.429626	33.345335	-16.429626	33.345335	-1.703113	138.422935
9.800000	-1.736495	133.302993	-16.556847	28.566446	-16.556847	28.566446	-1.729411	133.945585
9.850000	-1.764020	128.706990	-16.684865	23.727303	-16.684865	23.727303	-1.756902	129.389998
9.900000	-1.792814	124.032745	-16.814329	18.830691	-16.814329	18.830691	-1.785665	124.756632
9.950000	-1.822961	119.281741	-16.945896	13.880235	-16.945896	13.880235	-1.815780	120.046744
10.000000	-1.854537	114.456359	-17.080218	8.880412	-17.080218	8.880412	-1.847328	115.262459
