! freq	dB(S11)	phase(S11)	dB(S12)	phase(S12)	
!     	dB(S21)	phase(S21)	dB(S22)	phase(S22)	
!S-par simulation data
#  GHz  S  DB  R 50
0.000000	-0.000000	0.000000	-360.082949	180.000000	-360.082949	180.000000	-0.000000	0.000000
0.050000	-0.007540	-1.162815	-104.794009	82.929405	-104.794009	82.929405	-0.007590	-1.162879
0.100000	-0.011155	-2.378760	-98.744049	84.714426	-98.744049	84.714426	-0.011182	-2.378957
0.150000	-0.012439	-3.591511	-95.269929	84.559021	-95.269929	84.559021	-0.012455	-3.591706
0.200000	-0.013219	-4.800791	-92.846595	83.948471	-92.846595	83.948471	-0.013228	-4.800976
0.250000	-0.013877	-6.007791	-91.008952	83.162182	-91.008952	83.162182	-0.013883	-6.007971
0.300000	-0.014540	-7.213040	-89.556556	82.306846	-89.556556	82.306846	-0.014546	-7.213221
0.350000	-0.015249	-8.417079	-88.368392	81.442189	-88.368392	81.442189	-0.015253	-8.417265
0.400000	-0.016024	-9.619815	-87.389264	80.597335	-87.389264	80.597335	-0.016028	-9.620009
0.450000	-0.016867	-10.821384	-86.571688	79.794834	-86.571688	79.794834	-0.016870	-10.821588
0.500000	-0.017780	-12.021711	-85.890896	79.056998	-85.890896	79.056998	-0.017783	-12.021928
0.550000	-0.018761	-13.220760	-85.327201	78.404659	-85.327201	78.404659	-0.018764	-13.220991
0.600000	-0.019808	-14.418470	-84.867058	77.860744	-84.867058	77.860744	-0.019810	-14.418717
0.650000	-0.020915	-15.614776	-84.500772	77.451552	-84.500772	77.451552	-0.020918	-15.615041
0.700000	-0.022080	-16.809611	-84.221381	77.208348	-84.221381	77.208348	-0.022082	-16.809895
0.750000	-0.023296	-18.002905	-84.023878	77.169233	-84.023878	77.169233	-0.023299	-18.003210
0.800000	-0.024560	-19.194591	-83.904591	77.381437	-83.904591	77.381437	-0.024562	-19.194919
0.850000	-0.025866	-20.384604	-83.860604	77.904222	-83.860604	77.904222	-0.025868	-20.384956
0.900000	-0.027209	-21.572881	-83.889058	78.812465	-83.889058	78.812465	-0.027212	-21.573258
0.950000	-0.028587	-22.759361	-83.986197	80.200881	-83.986197	80.200881	-0.028589	-22.759765
1.000000	-0.029993	-23.943987	-84.145885	82.188306	-84.145885	82.188306	-0.029996	-23.944420
1.050000	-0.031423	-25.126702	-84.357301	84.920393	-84.357301	84.920393	-0.031427	-25.127165
1.100000	-0.032875	-26.307455	-84.601437	88.566723	-84.601437	88.566723	-0.032878	-26.307951
1.150000	-0.034344	-27.486196	-84.846341	93.304322	-84.846341	93.304322	-0.034347	-27.486725
1.200000	-0.035827	-28.662876	-85.042152	99.274657	-85.042152	99.274657	-0.035831	-28.663442
1.250000	-0.037320	-29.837451	-85.119647	106.501508	-85.119647	106.501508	-0.037325	-29.838054
1.300000	-0.038823	-31.009782	-84.987456	114.800844	-84.987456	114.800844	-0.038827	-31.010425
1.350000	-0.040330	-32.179919	-84.589671	123.586163	-84.589671	123.586163	-0.040335	-32.180604
1.400000	-0.041841	-33.347824	-83.913702	132.163021	-83.913702	132.163021	-0.041846	-33.348553
1.450000	-0.043354	-34.513459	-83.001459	139.921656	-83.001459	139.921656	-0.043359	-34.514233
1.500000	-0.044866	-35.676787	-81.926048	146.510408	-81.926048	146.510408	-0.044872	-35.677610
1.550000	-0.046377	-36.837775	-80.761628	151.842160	-80.761628	151.842160	-0.046383	-36.838648
1.600000	-0.047886	-37.996390	-79.566050	156.002692	-79.566050	156.002692	-0.047892	-37.997315
1.650000	-0.049391	-39.152600	-78.377571	159.153764	-78.377571	159.153764	-0.049397	-39.153580
1.700000	-0.050890	-40.305514	-77.181603	161.253990	-77.181603	161.253990	-0.050897	-40.306552
1.750000	-0.052387	-41.457146	-76.080277	162.975133	-76.080277	162.975133	-0.052394	-41.458244
1.800000	-0.053877	-42.605731	-75.004649	164.085779	-75.004649	164.085779	-0.053885	-42.606891
1.850000	-0.055363	-43.752139	-73.985314	164.760354	-73.985314	164.760354	-0.055372	-43.753364
1.900000	-0.056844	-44.895879	-73.008455	165.099204	-73.008455	165.099204	-0.056853	-44.897171
1.950000	-0.058320	-46.036950	-72.072383	165.102330	-72.072383	165.102330	-0.058329	-46.038312
2.000000	-0.059791	-47.175755	-71.184265	164.920376	-71.184265	164.920376	-0.059801	-47.177189
2.050000	-0.061257	-48.311387	-70.323799	164.479314	-70.323799	164.479314	-0.061267	-48.312897
2.100000	-0.062720	-49.445176	-69.512444	163.936827	-69.512444	163.936827	-0.062730	-49.446763
2.150000	-0.064178	-50.575277	-68.718351	163.191491	-68.718351	163.191491	-0.064189	-50.576946
2.200000	-0.065634	-51.703976	-67.972814	162.392335	-67.972814	162.392335	-0.065646	-51.705728
2.250000	-0.067087	-52.828465	-67.236534	161.431716	-67.236534	161.431716	-0.067098	-52.830305
2.300000	-0.068539	-53.952007	-66.547559	160.444987	-66.547559	160.444987	-0.068551	-53.953936
2.350000	-0.069989	-55.070813	-65.861734	159.327705	-65.861734	159.327705	-0.070002	-55.072836
2.400000	-0.071439	-56.189140	-65.221686	158.200693	-65.221686	158.200693	-0.071452	-56.191258
2.450000	-0.072890	-57.302203	-64.580152	156.966662	-64.580152	156.966662	-0.072904	-57.304421
2.500000	-0.074342	-58.415265	-63.982760	155.732631	-63.982760	155.732631	-0.074356	-58.417584
2.550000	-0.075798	-59.522535	-63.380378	154.409852	-63.380378	154.409852	-0.075813	-59.524962
2.600000	-0.077254	-60.629806	-62.817077	153.087073	-62.817077	153.087073	-0.077270	-60.632340
2.650000	-0.078718	-61.731732	-62.252959	151.701433	-62.252959	151.701433	-0.078734	-61.734381
2.700000	-0.080183	-62.833173	-61.720255	150.310079	-61.720255	150.310079	-0.080199	-62.835937
2.750000	-0.081658	-63.929734	-61.190005	148.873976	-61.190005	148.873976	-0.081675	-63.932619
2.800000	-0.083135	-65.025320	-60.684931	147.428924	-60.684931	147.428924	-0.083153	-65.028326
2.850000	-0.084625	-66.116503	-60.184886	145.951999	-60.184886	145.951999	-0.084643	-66.119638
2.900000	-0.086119	-67.206220	-59.704905	144.464449	-59.704905	144.464449	-0.086137	-67.209484
2.950000	-0.087626	-68.292022	-59.231981	142.954297	-59.231981	142.954297	-0.087645	-68.295421
3.000000	-0.089140	-69.375867	-58.774910	141.432842	-58.774910	141.432842	-0.089160	-69.379404
3.050000	-0.090667	-70.456294	-58.326486	139.895518	-58.326486	139.895518	-0.090688	-70.459973
3.100000	-0.092205	-71.534279	-57.890434	138.346858	-57.890434	138.346858	-0.092226	-71.538104
3.150000	-0.093757	-72.609345	-57.464265	136.787246	-57.464265	136.787246	-0.093778	-72.613320
3.200000	-0.095322	-73.681492	-57.047581	135.216681	-57.047581	135.216681	-0.095344	-73.685621
3.250000	-0.096900	-74.751221	-56.641728	133.638762	-56.641728	133.638762	-0.096923	-74.755508
3.300000	-0.098496	-75.817565	-56.242965	132.050545	-56.242965	132.050545	-0.098520	-75.822014
3.350000	-0.100104	-76.881990	-55.855741	130.457595	-55.855741	130.457595	-0.100129	-76.886605
3.400000	-0.101735	-77.942577	-55.473620	128.855179	-55.473620	128.855179	-0.101760	-77.947364
3.450000	-0.103375	-79.001740	-55.103548	127.249920	-55.103548	127.249920	-0.103401	-79.006701
3.500000	-0.105043	-80.056630	-54.736932	125.636137	-54.736932	125.636137	-0.105070	-80.061771
3.550000	-0.106719	-81.110581	-54.382712	124.020850	-54.382712	124.020850	-0.106746	-81.115905
3.600000	-0.108427	-82.159843	-54.030585	122.398048	-54.030585	122.398048	-0.108456	-82.165357
3.650000	-0.110140	-83.208643	-53.691064	120.774659	-53.691064	120.774659	-0.110170	-83.214348
3.700000	-0.111893	-84.252360	-53.352515	119.144804	-53.352515	119.144804	-0.111923	-84.258265
3.750000	-0.113646	-85.296077	-53.026668	117.514950	-53.026668	117.514950	-0.113677	-85.302182
3.800000	-0.115445	-86.334342	-52.700874	115.879700	-52.700874	115.879700	-0.115477	-86.340657
3.850000	-0.117244	-87.372608	-52.386858	114.244451	-52.386858	114.244451	-0.117277	-87.379132
3.900000	-0.119088	-88.405971	-52.073996	112.605546	-52.073996	112.605546	-0.119122	-88.412715
3.950000	-0.120937	-89.438890	-51.771151	110.966309	-51.771151	110.966309	-0.120971	-89.445854
4.000000	-0.122828	-90.467449	-51.470378	109.324753	-51.470378	109.324753	-0.122864	-90.474642
4.050000	-0.124728	-91.495135	-51.178100	107.682733	-51.178100	107.682733	-0.124765	-91.502560
4.100000	-0.126668	-92.518994	-50.888654	106.039403	-50.888654	106.039403	-0.126706	-92.526657
4.150000	-0.128623	-93.541576	-50.606387	104.395635	-50.606387	104.395635	-0.128661	-93.549481
4.200000	-0.130614	-94.560846	-50.327578	102.751298	-50.327578	102.751298	-0.130654	-94.569000
4.250000	-0.132625	-95.578460	-50.054813	101.106677	-50.054813	101.106677	-0.132666	-95.586868
4.300000	-0.134669	-96.593261	-49.786014	99.462009	-49.786014	99.462009	-0.134712	-96.601929
4.350000	-0.136739	-97.606054	-49.522277	97.817308	-49.522277	97.817308	-0.136782	-97.614987
4.400000	-0.138838	-98.616515	-49.262914	96.172905	-49.262914	96.172905	-0.138883	-98.625719
4.450000	-0.140968	-99.624644	-49.007770	94.528799	-49.007770	94.528799	-0.141014	-99.634125
4.500000	-0.143124	-100.630899	-48.757318	92.885184	-48.757318	92.885184	-0.143171	-100.640662
4.550000	-0.145317	-101.634531	-48.510360	91.242258	-48.510360	91.242258	-0.145365	-101.644583
4.600000	-0.147531	-102.636723	-48.268336	89.599896	-48.268336	89.599896	-0.147581	-102.647069
4.650000	-0.149789	-103.636035	-48.029186	87.958660	-48.029186	87.958660	-0.149840	-103.646682
4.700000	-0.152063	-104.634312	-47.795146	86.317958	-47.795146	86.317958	-0.152116	-104.645265
4.750000	-0.154387	-105.629489	-47.563451	84.678856	-47.563451	84.678856	-0.154441	-105.640757
4.800000	-0.156723	-106.624009	-47.336985	83.040174	-47.336985	83.040174	-0.156778	-106.635594
4.850000	-0.159115	-107.615245	-47.112415	81.403593	-47.112415	81.403593	-0.159172	-107.627160
4.900000	-0.161514	-108.606171	-46.893143	79.767249	-46.893143	79.767249	-0.161573	-108.618415
4.950000	-0.163977	-109.593672	-46.675387	78.133522	-46.675387	78.133522	-0.164037	-109.606258
5.000000	-0.166440	-110.581172	-46.462958	76.499794	-46.462958	76.499794	-0.166502	-110.594102
5.050000	-0.168975	-111.565150	-46.251727	74.869209	-46.251727	74.869209	-0.169038	-111.578437
5.100000	-0.171510	-112.549128	-46.045511	73.238625	-46.045511	73.238625	-0.171575	-112.562772
5.150000	-0.174113	-113.530080	-45.840833	71.611148	-45.840833	71.611148	-0.174179	-113.544095
5.200000	-0.176722	-114.510757	-45.640580	69.983954	-45.640580	69.983954	-0.176790	-114.525144
5.250000	-0.179393	-115.488875	-45.442146	68.359762	-45.442146	68.359762	-0.179463	-115.503647
5.300000	-0.182078	-116.466482	-45.247618	66.736171	-45.247618	66.736171	-0.182149	-116.481641
5.350000	-0.184820	-117.441965	-45.055141	65.115417	-45.055141	65.115417	-0.184893	-117.457523
5.400000	-0.187581	-118.416740	-44.866115	63.495608	-44.866115	63.495608	-0.187657	-118.432702
5.450000	-0.190395	-119.389793	-44.679326	61.878423	-44.679326	61.878423	-0.190472	-119.406169
5.500000	-0.193236	-120.361986	-44.495592	60.262550	-44.495592	60.262550	-0.193315	-120.378782
5.550000	-0.196123	-121.332821	-44.314240	58.649048	-44.314240	58.649048	-0.196204	-121.350047
5.600000	-0.199044	-122.302687	-44.135600	57.037238	-44.135600	57.037238	-0.199127	-122.320350
5.650000	-0.202005	-123.271524	-43.959452	55.427514	-43.959452	55.427514	-0.202090	-123.289632
5.700000	-0.205008	-124.239331	-43.785719	53.819874	-43.785719	53.819874	-0.205095	-124.257893
5.750000	-0.208047	-125.206394	-43.614557	52.214011	-43.614557	52.214011	-0.208136	-125.225418
5.800000	-0.211133	-126.172416	-43.445554	50.610632	-43.445554	50.610632	-0.211225	-126.191912
5.850000	-0.214249	-127.137938	-43.279174	49.008699	-43.279174	49.008699	-0.214342	-127.157913
5.900000	-0.217422	-128.102460	-43.114735	47.409656	-43.114735	47.409656	-0.217517	-128.122927
5.950000	-0.220616	-129.066681	-42.952945	45.811714	-42.952945	45.811714	-0.220714	-129.087644
6.000000	-0.223876	-130.029998	-42.792915	44.217072	-42.792915	44.217072	-0.223976	-130.051472
6.050000	-0.227152	-130.993165	-42.635537	42.623173	-42.635537	42.623173	-0.227254	-131.015153
6.100000	-0.230501	-131.955582	-42.479766	41.032988	-42.479766	41.032988	-0.230606	-131.978101
6.150000	-0.233859	-132.917951	-42.326632	39.443179	-42.326632	39.443179	-0.233966	-132.941002
6.200000	-0.237300	-133.879783	-42.174983	37.857503	-42.174983	37.857503	-0.237409	-133.903386
6.250000	-0.240741	-134.841616	-42.025936	36.271826	-42.025936	36.271826	-0.240853	-134.865770
6.300000	-0.244275	-135.803191	-41.878276	34.690706	-41.878276	34.690706	-0.244389	-135.827918
6.350000	-0.247811	-136.764766	-41.733084	33.109586	-41.733084	33.109586	-0.247927	-136.790067
6.400000	-0.251432	-137.726417	-41.589372	31.532687	-41.589372	31.532687	-0.251551	-137.752311
6.450000	-0.255063	-138.688074	-41.447919	29.956171	-41.447919	29.956171	-0.255185	-138.714564
6.500000	-0.258775	-139.650094	-41.308015	28.383532	-41.308015	28.383532	-0.258899	-139.677199
6.550000	-0.262504	-140.612187	-41.170189	26.811668	-41.170189	26.811668	-0.262631	-140.639911
6.600000	-0.266308	-141.574883	-41.033960	25.243331	-41.033960	25.243331	-0.266437	-141.603242
6.650000	-0.270138	-142.537778	-40.899653	23.676170	-40.899653	23.676170	-0.270270	-142.566781
6.700000	-0.274036	-143.501466	-40.766973	22.112178	-40.766973	22.112178	-0.274170	-143.531127
6.750000	-0.277969	-144.465548	-40.636083	20.549771	-40.636083	20.549771	-0.278106	-144.495876
6.800000	-0.281964	-145.430558	-40.506829	18.990167	-40.506829	18.990167	-0.282104	-145.461568
6.850000	-0.286004	-146.396229	-40.379255	17.432565	-40.379255	17.432565	-0.286147	-146.427932
6.900000	-0.290099	-147.362907	-40.253311	15.877390	-40.253311	15.877390	-0.290245	-147.395315
6.950000	-0.294249	-148.330589	-40.128953	14.324641	-40.128953	14.324641	-0.294397	-148.363717
7.000000	-0.298446	-149.299296	-40.006203	12.773931	-40.006203	12.773931	-0.298598	-149.333154
7.050000	-0.302711	-150.269435	-39.884960	11.226074	-39.884960	11.226074	-0.302865	-150.304039
7.100000	-0.307015	-151.240551	-39.765291	9.679855	-39.765291	9.679855	-0.307172	-151.275911
7.150000	-0.311398	-152.213621	-39.647060	8.136909	-39.647060	8.136909	-0.311558	-152.249754
7.200000	-0.315813	-153.187548	-39.530358	6.595188	-39.530358	6.595188	-0.315976	-153.224463
7.250000	-0.320319	-154.164051	-39.415029	5.057140	-39.415029	5.057140	-0.320486	-154.201769
7.300000	-0.324849	-155.141217	-39.301178	3.519895	-39.301178	3.519895	-0.325019	-155.179742
7.350000	-0.329486	-156.121695	-39.188632	1.986673	-39.188632	1.986673	-0.329659	-156.161052
7.400000	-0.334136	-157.102553	-39.077511	0.453839	-39.077511	0.453839	-0.334312	-157.142744
7.450000	-0.338911	-158.087592	-38.967618	-1.074715	-38.967618	-1.074715	-0.339089	-158.128645
7.500000	-0.343688	-159.072632	-38.859098	-2.603270	-38.859098	-2.603270	-0.343869	-159.114546
7.550000	-0.348608	-160.062873	-38.751707	-4.127448	-38.751707	-4.127448	-0.348793	-160.105679
7.600000	-0.353532	-161.053114	-38.645628	-5.651626	-38.645628	-5.651626	-0.353720	-161.096812
7.650000	-0.358597	-162.048773	-38.540587	-7.172244	-38.540587	-7.172244	-0.358788	-162.093390
7.700000	-0.363678	-163.044923	-38.436781	-8.692539	-38.436781	-8.692539	-0.363872	-163.090462
7.750000	-0.368899	-164.046657	-38.333900	-10.210259	-38.333900	-10.210259	-0.369096	-164.093142
7.800000	-0.374151	-165.049508	-38.232164	-11.727464	-38.232164	-11.727464	-0.374351	-165.096944
7.850000	-0.379542	-166.058058	-38.131221	-13.243281	-38.131221	-13.243281	-0.379744	-166.106466
7.900000	-0.384982	-167.068506	-38.031311	-14.758635	-38.031311	-14.758635	-0.385187	-167.117894
7.950000	-0.390561	-168.084709	-37.932047	-16.274024	-37.932047	-16.274024	-0.390768	-168.135093
8.000000	-0.396211	-169.103789	-37.833661	-17.789430	-37.833661	-17.789430	-0.396420	-169.155179
8.050000	-0.402000	-170.128612	-37.735764	-19.306557	-37.735764	-19.306557	-0.402211	-170.181021
8.100000	-0.407888	-171.157538	-37.638525	-20.824912	-37.638525	-20.824912	-0.408101	-171.210974
8.150000	-0.413916	-172.192114	-37.541617	-22.346947	-37.541617	-22.346947	-0.414130	-172.246587
8.200000	-0.420083	-173.232340	-37.445043	-23.872659	-37.445043	-23.872659	-0.420297	-173.287858
8.250000	-0.426388	-174.278017	-37.348662	-25.404240	-37.348662	-25.404240	-0.426603	-174.334583
8.300000	-0.432885	-175.331327	-37.252136	-26.944037	-37.252136	-26.944037	-0.433099	-175.388946
8.350000	-0.439495	-176.388814	-37.155898	-28.490203	-37.155898	-28.490203	-0.439708	-176.447484
8.400000	-0.446323	-177.454653	-37.059187	-30.049106	-37.059187	-30.049106	-0.446534	-177.514372
8.450000	-0.453447	-178.531281	-36.961303	-31.629456	-36.961303	-31.629456	-0.453653	-178.592038
8.500000	-0.460796	-179.615710	-36.862742	-33.228647	-36.862742	-33.228647	-0.460996	-179.677490
8.550000	-0.468386	179.291678	-36.763379	-34.849216	-36.763379	-34.849216	-0.468578	179.228894
8.600000	-0.476349	178.186817	-36.662117	-36.506365	-36.662117	-36.506365	-0.476531	178.123063
8.650000	-0.484742	177.068786	-36.558508	-38.210889	-36.558508	-38.210889	-0.484908	177.004112
8.700000	-0.493527	175.939308	-36.452935	-39.961956	-36.452935	-39.961956	-0.493674	175.873767
8.750000	-0.502738	174.797759	-36.345226	-41.764895	-36.345226	-41.764895	-0.502860	174.731410
8.800000	-0.512837	173.632822	-36.231849	-43.687060	-36.231849	-43.687060	-0.512923	173.565809
8.850000	-0.523656	172.450676	-36.114537	-45.712768	-36.114537	-45.712768	-0.523695	172.383129
8.900000	-0.535187	171.252032	-35.993606	-47.842451	-35.993606	-47.842451	-0.535169	171.184080
8.950000	-0.548092	170.023821	-35.864782	-50.182697	-35.864782	-50.182697	-0.547993	169.955735
9.000000	-0.562554	168.765131	-35.727676	-52.770718	-35.727676	-52.770718	-0.562346	168.697230
9.050000	-0.579079	167.469425	-35.579982	-55.695306	-35.579982	-55.695306	-0.578720	167.402146
9.100000	-0.598155	166.132247	-35.419871	-59.042072	-35.419871	-59.042072	-0.597588	166.066140
9.150000	-0.621224	164.736628	-35.240103	-63.056297	-35.240103	-63.056297	-0.620352	164.672559
9.200000	-0.648982	163.280039	-35.037702	-67.849849	-35.037702	-67.849849	-0.647681	163.219010
9.250000	-0.684681	161.732630	-34.793356	-73.943405	-34.793356	-73.943405	-0.682719	161.676292
9.300000	-0.731992	160.072534	-34.479685	-81.861844	-34.479685	-81.861844	-0.728996	160.023154
9.350000	-0.797471	158.266245	-34.037827	-92.431624	-34.037827	-92.431624	-0.792797	158.227015
9.400000	-0.894377	156.261537	-33.328793	-106.989195	-33.328793	-106.989195	-0.886792	156.237039
9.450000	-1.047314	154.007866	-32.084094	-126.972435	-32.084094	-126.972435	-1.034376	154.003632
9.500000	-1.306844	151.503371	-29.892791	-153.282813	-29.892791	-153.282813	-1.283368	151.521765
9.550000	-1.766389	149.060945	-26.510054	174.541027	-26.510054	174.541027	-1.721491	149.077146
9.600000	-2.501666	148.050796	-22.378258	136.998767	-22.378258	136.998767	-2.420106	147.916348
9.650000	-3.236552	150.254931	-18.610839	94.804735	-18.610839	94.804735	-3.139120	149.612623
9.700000	-3.724627	153.802492	-15.946158	51.019303	-15.946158	51.019303	-3.703528	152.596779
9.750000	-4.124639	160.975688	-14.641052	5.321924	-14.641052	5.321924	-4.256412	159.970513
9.800000	-3.083358	169.013664	-15.762558	-38.536337	-15.762558	-38.536337	-3.218675	169.007145
9.850000	-1.848254	167.727984	-18.622235	-68.585326	-18.622235	-68.585326	-1.911125	167.925661
9.900000	-1.268801	164.083568	-21.521629	-85.733941	-21.521629	-85.733941	-1.298676	164.224160
9.950000	-1.008125	160.863642	-23.942534	-95.510709	-23.942534	-95.510709	-1.024152	160.940740
10.000000	-0.877319	158.196855	-25.896000	-101.275114	-25.896000	-101.275114	-0.886801	158.227523
