! freq	dB(S11)	phase(S11)	dB(S12)	phase(S12)	
!     	dB(S21)	phase(S21)	dB(S22)	phase(S22)	
!S-par simulation data
#  GHz  S  DB  R 50
0.000000	-83.577656	0.000000	-0.000575	0.000000	-0.000575	0.000000	-83.577656	0.000000
0.050000	-43.435723	-92.119963	-0.005206	-2.701918	-0.005206	-2.701918	-43.435641	-92.120897
0.100000	-37.430277	-95.097242	-0.012153	-5.361464	-0.012153	-5.361464	-37.430216	-95.099120
0.150000	-33.934226	-97.879973	-0.017339	-8.003324	-0.017339	-8.003324	-33.934199	-97.882836
0.200000	-31.469493	-100.615387	-0.021530	-10.642112	-0.021530	-10.642112	-31.469506	-100.619278
0.250000	-29.575499	-103.329193	-0.025444	-13.280606	-0.025444	-13.280606	-29.575559	-103.334165
0.300000	-28.047790	-106.030169	-0.029476	-15.918775	-0.029476	-15.918775	-28.047900	-106.036272
0.350000	-26.772958	-108.723441	-0.033764	-18.556151	-0.033764	-18.556151	-26.773118	-108.730715
0.400000	-25.686964	-111.410213	-0.038371	-21.192216	-0.038371	-21.192216	-25.687172	-111.418689
0.450000	-24.747633	-114.091413	-0.043302	-23.826559	-0.043302	-23.826559	-24.747886	-114.101113
0.500000	-23.928187	-116.767246	-0.048556	-26.458708	-0.048556	-26.458708	-23.928481	-116.778182
0.550000	-23.206711	-119.438312	-0.054078	-29.088522	-0.054078	-29.088522	-23.207042	-119.450487
0.600000	-22.567658	-122.104914	-0.059816	-31.715894	-0.059816	-31.715894	-22.568021	-122.118324
0.650000	-22.000541	-124.767098	-0.065722	-34.340668	-0.065722	-34.340668	-22.000931	-124.781737
0.700000	-21.496605	-127.425022	-0.071738	-36.962824	-0.071738	-36.962824	-21.497018	-127.440882
0.750000	-21.048155	-130.078957	-0.077804	-39.582472	-0.077804	-39.582472	-21.048587	-130.096033
0.800000	-20.650126	-132.729015	-0.083865	-42.199670	-0.083865	-42.199670	-20.650573	-132.747305
0.850000	-20.299169	-135.375259	-0.089859	-44.814485	-0.089859	-44.814485	-20.299627	-135.394765
0.900000	-19.990438	-138.018059	-0.095735	-47.427208	-0.095735	-47.427208	-19.990903	-138.038793
0.950000	-19.721134	-140.657640	-0.101443	-50.038062	-0.101443	-50.038062	-19.721604	-140.679617
1.000000	-19.490634	-143.294101	-0.106921	-52.647235	-0.106921	-52.647235	-19.491105	-143.317353
1.050000	-19.295711	-145.927884	-0.112134	-55.255120	-0.112134	-55.255120	-19.296179	-145.952446
1.100000	-19.134878	-148.559305	-0.117043	-57.862057	-0.117043	-57.862057	-19.135341	-148.585229
1.150000	-19.008288	-151.188638	-0.121599	-60.468400	-0.121599	-60.468400	-19.008743	-151.215987
1.200000	-18.914836	-153.816297	-0.125775	-63.074575	-0.125775	-63.074575	-18.915280	-153.845150
1.250000	-18.853524	-156.442709	-0.129554	-65.681009	-0.129554	-65.681009	-18.853955	-156.473159
1.300000	-18.824964	-159.068271	-0.132908	-68.288160	-0.132908	-68.288160	-18.825379	-159.100430
1.350000	-18.830060	-161.693430	-0.135816	-70.896535	-0.135816	-70.896535	-18.830456	-161.727433
1.400000	-18.868185	-164.318655	-0.138287	-73.506571	-0.138287	-73.506571	-18.868561	-164.354654
1.450000	-18.940385	-166.944399	-0.140320	-76.118755	-0.140320	-76.118755	-18.940740	-166.982574
1.500000	-19.049814	-169.571197	-0.141900	-78.733734	-0.141900	-78.733734	-19.050146	-169.611768
1.550000	-19.196374	-172.199474	-0.143064	-81.351872	-0.143064	-81.351872	-19.196682	-172.242690
1.600000	-19.382327	-174.829685	-0.143833	-83.973653	-0.143833	-83.973653	-19.382612	-174.875836
1.650000	-19.612251	-177.462399	-0.144220	-86.599761	-0.144220	-86.599761	-19.612512	-177.511846
1.700000	-19.888868	179.901995	-0.144271	-89.230589	-0.144271	-89.230589	-19.889106	179.848825
1.750000	-20.216122	177.263140	-0.144035	-91.866523	-0.144035	-91.866523	-20.216340	177.205743
1.800000	-20.600415	174.620625	-0.143557	-94.508087	-0.143557	-94.508087	-20.600614	174.558370
1.850000	-21.049172	171.974138	-0.142895	-97.155715	-0.142895	-97.155715	-21.049356	171.906239
1.900000	-21.572506	169.323404	-0.142112	-99.809887	-0.142112	-99.809887	-21.572679	169.248844
1.950000	-22.183089	166.668315	-0.141283	-102.470987	-0.141283	-102.470987	-22.183256	166.585760
2.000000	-22.897299	164.009001	-0.140486	-105.139281	-0.140486	-105.139281	-22.897467	163.916670
2.050000	-23.738435	161.345829	-0.139805	-107.815060	-0.139805	-107.815060	-23.738614	161.241244
2.100000	-24.739827	158.679645	-0.139329	-110.498573	-0.139329	-110.498573	-24.740030	158.559202
2.150000	-25.951453	156.012169	-0.139151	-113.190020	-0.139151	-113.190020	-25.951698	155.870331
2.200000	-27.453150	153.346911	-0.139370	-115.889545	-0.139370	-115.889545	-27.453468	153.174500
2.250000	-29.384278	150.691623	-0.140087	-118.597240	-0.140087	-118.597240	-29.384725	150.471717
2.300000	-32.022890	148.066602	-0.141407	-121.313135	-0.141407	-121.313135	-32.023592	147.762287
2.350000	-36.066032	145.546415	-0.143436	-124.037198	-0.143436	-124.037198	-36.067392	145.047619
2.400000	-44.455693	144.079737	-0.146284	-126.769335	-0.146284	-126.769335	-44.461791	142.345999
2.450000	-47.603595	-42.462344	-0.150057	-129.509382	-0.150057	-129.509382	-47.604021	-40.460095
2.500000	-36.650114	-43.709284	-0.154865	-132.257111	-0.154865	-132.257111	-36.649042	-43.171579
2.550000	-31.825198	-46.225859	-0.160841	-135.012376	-0.160841	-135.012376	-31.824425	-45.914190
2.600000	-28.657173	-48.882819	-0.168066	-137.774640	-0.168066	-137.774640	-28.656572	-48.665816
2.650000	-26.280265	-51.589422	-0.176642	-140.543464	-0.176642	-140.543464	-26.279775	-51.424322
2.700000	-24.370425	-54.321041	-0.186664	-143.318344	-0.186664	-143.318344	-24.370016	-54.188774
2.750000	-22.770522	-57.068032	-0.198222	-146.098712	-0.198222	-146.098712	-22.770177	-56.958453
2.800000	-21.392328	-59.825600	-0.211400	-148.883940	-0.211400	-148.883940	-21.392036	-59.732674
2.850000	-20.181319	-62.590884	-0.226275	-151.673340	-0.226275	-151.673340	-20.181073	-62.510725
2.900000	-19.101423	-65.361896	-0.242915	-154.466173	-0.242915	-154.466173	-19.101219	-65.291854
2.950000	-18.127529	-68.137082	-0.261378	-157.261652	-0.261378	-157.261652	-18.127362	-68.075269
3.000000	-17.241441	-70.915112	-0.281713	-160.058947	-0.281713	-160.058947	-17.241307	-70.860133
3.050000	-16.429546	-73.694779	-0.303958	-162.857192	-0.303958	-162.857192	-16.429443	-73.645575
3.100000	-15.681387	-76.474945	-0.328140	-165.655492	-0.328140	-165.655492	-15.681311	-76.430692
3.150000	-14.988722	-79.254495	-0.354296	-168.452909	-0.354296	-168.452909	-14.988671	-79.214534
3.200000	-14.345023	-82.032323	-0.382427	-171.248481	-0.382427	-171.248481	-14.344993	-81.996127
3.250000	-13.744963	-84.807390	-0.412504	-174.041277	-0.412504	-174.041277	-13.744952	-84.774533
3.300000	-13.184101	-87.578673	-0.444505	-176.830360	-0.444505	-176.830360	-13.184105	-87.548802
3.350000	-12.658719	-90.345172	-0.478396	-179.614803	-0.478396	-179.614803	-12.658736	-90.317996
3.400000	-12.165664	-93.105916	-0.514131	177.606306	-0.514131	177.606306	-12.165692	-93.081189
3.450000	-11.702237	-95.859971	-0.551653	174.833852	-0.551653	174.833852	-11.702272	-95.837486
3.500000	-11.266098	-98.606438	-0.590894	172.068691	-0.590894	172.068691	-11.266137	-98.586020
3.550000	-10.855205	-101.344466	-0.631774	169.311639	-0.631774	169.311639	-10.855247	-101.325966
3.600000	-10.467759	-104.073254	-0.674205	166.563472	-0.674205	166.563472	-10.467801	-104.056545
3.650000	-10.102161	-106.792056	-0.718090	163.824911	-0.718090	163.824911	-10.102201	-106.777029
3.700000	-9.756983	-109.500185	-0.763321	161.096627	-0.763321	161.096627	-9.757019	-109.486748
3.750000	-9.430938	-112.197019	-0.809786	158.379232	-0.809786	158.379232	-9.430969	-112.185094
3.800000	-9.123003	-114.881734	-0.857379	155.673536	-0.857379	155.673536	-9.123028	-114.871252
3.850000	-8.831981	-117.554094	-0.905953	152.979781	-0.905953	152.979781	-8.831998	-117.544997
3.900000	-8.556896	-120.213691	-0.955378	150.298384	-0.955378	150.298384	-8.556905	-120.205929
3.950000	-8.296854	-122.860186	-1.005519	147.629690	-1.005519	147.629690	-8.296855	-122.853716
4.000000	-8.051029	-125.493314	-1.056240	144.973977	-1.056240	144.973977	-8.051022	-125.488100
4.050000	-7.818657	-128.112885	-1.107402	142.331456	-1.107402	142.331456	-7.818642	-128.108893
4.100000	-7.599028	-130.718775	-1.158867	139.702269	-1.158867	139.702269	-7.599006	-130.715978
4.150000	-7.391482	-133.310935	-1.210494	137.086491	-1.210494	137.086491	-7.391453	-133.309305
4.200000	-7.195402	-135.889380	-1.262145	134.484133	-1.262145	134.484133	-7.195368	-135.888895
4.250000	-7.010213	-138.454194	-1.313683	131.895141	-1.313683	131.895141	-7.010175	-138.454831
4.300000	-6.835377	-141.005521	-1.364974	129.319403	-1.364974	129.319403	-6.835336	-141.007261
4.350000	-6.670388	-143.543567	-1.415884	126.756746	-1.415884	126.756746	-6.670346	-143.546391
4.400000	-6.514841	-146.068458	-1.466276	124.207078	-1.466276	124.207078	-6.514800	-146.072345
4.450000	-6.368288	-148.580521	-1.516021	121.670107	-1.516021	121.670107	-6.368249	-148.585455
4.500000	-6.230240	-151.080270	-1.565007	119.145359	-1.565007	119.145359	-6.230206	-151.086231
4.550000	-6.100307	-153.568121	-1.613119	116.632453	-1.613119	116.632453	-6.100278	-153.575091
4.600000	-5.978619	-156.043591	-1.660129	114.131911	-1.660129	114.131911	-5.978598	-156.051552
4.650000	-5.863755	-158.509230	-1.706176	111.641217	-1.706176	111.641217	-5.863742	-158.518164
4.700000	-5.755966	-160.964461	-1.751036	109.160983	-1.751036	109.160983	-5.755963	-160.974349
4.750000	-5.654945	-163.409855	-1.794617	106.690671	-1.794617	106.690671	-5.654954	-163.420677
4.800000	-5.560406	-165.846013	-1.836830	104.229714	-1.836830	104.229714	-5.560427	-165.857752
4.850000	-5.472077	-168.273566	-1.877593	101.777513	-1.877593	101.777513	-5.472112	-168.286202
4.900000	-5.389705	-170.693172	-1.916832	99.333442	-1.916832	99.333442	-5.389754	-170.706685
4.950000	-5.313051	-173.105510	-1.954477	96.896851	-1.954477	96.896851	-5.313114	-173.119882
5.000000	-5.241890	-175.511284	-1.990465	94.467064	-1.990465	94.467064	-5.241968	-175.526496
5.050000	-5.176339	-177.910870	-2.024604	92.043755	-2.024604	92.043755	-5.176432	-177.926901
5.100000	-5.115786	179.694473	-2.057006	89.625667	-2.057006	89.625667	-5.115893	179.677640
5.150000	-5.060049	177.304014	-2.087631	87.212092	-2.087631	87.212092	-5.060170	177.286397
5.200000	-5.008959	174.917007	-2.116442	84.802307	-2.116442	84.802307	-5.009093	174.898623
5.250000	-4.962354	172.532688	-2.143412	82.395571	-2.143412	82.395571	-4.962500	172.513553
5.300000	-4.920084	170.150277	-2.168518	79.991126	-2.168518	79.991126	-4.920240	170.130407
5.350000	-4.882194	167.768986	-2.191648	77.588227	-2.191648	77.588227	-4.882361	167.748397
5.400000	-4.848606	165.387876	-2.212759	75.185971	-2.212759	75.185971	-4.848780	165.366582
5.450000	-4.818917	163.006027	-2.231983	72.783440	-2.231983	72.783440	-4.819099	162.984043
5.500000	-4.793003	160.622559	-2.249326	70.379781	-2.249326	70.379781	-4.793189	160.599897
5.550000	-4.770739	158.236552	-2.264806	67.974112	-2.264806	67.974112	-4.770927	158.213224
5.600000	-4.752000	155.847036	-2.278447	65.565511	-2.278447	65.565511	-4.752190	155.823056
5.650000	-4.736664	153.452985	-2.290286	63.153009	-2.290286	63.153009	-4.736852	153.428365
5.700000	-4.724907	151.052613	-2.300206	60.734980	-2.300206	60.734980	-4.725092	151.027369
5.750000	-4.716317	148.644992	-2.308421	58.310565	-2.308421	58.310565	-4.716496	148.619141
5.800000	-4.710679	146.228817	-2.315055	55.878608	-2.315055	55.878608	-4.710850	146.202379
5.850000	-4.707816	143.802455	-2.320222	53.437709	-2.320222	53.437709	-4.707977	143.775454
5.900000	-4.707517	141.363961	-2.324076	50.986266	-2.324076	50.986266	-4.707667	141.336430
5.950000	-4.709526	138.910939	-2.326821	48.522395	-2.326821	48.522395	-4.709662	138.882921
6.000000	-4.713563	136.439654	-2.328722	46.043272	-2.328722	46.043272	-4.713683	136.411212
6.050000	-4.719204	133.944055	-2.330225	43.544589	-2.330225	43.544589	-4.719304	133.915285
6.100000	-4.725642	131.419340	-2.332041	41.023659	-2.332041	41.023659	-4.725719	131.390374
6.150000	-4.731964	128.855912	-2.335178	38.475067	-2.335178	38.475067	-4.732011	128.826947
6.200000	-4.736834	126.238376	-2.341298	35.891188	-2.341298	35.891188	-4.736841	126.209712
6.250000	-4.738474	123.544488	-2.352974	33.263191	-2.352974	33.263191	-4.738423	123.516578
6.300000	-4.733382	120.713213	-2.376775	30.569095	-2.376775	30.569095	-4.733228	120.686891
6.350000	-4.717242	117.623350	-2.426874	27.786639	-2.426874	27.786639	-4.716872	117.600137
6.400000	-4.690257	113.998148	-2.536614	24.920449	-2.536614	24.920449	-4.689362	113.980834
6.450000	-4.708962	108.962125	-2.812896	22.311309	-2.812896	22.311309	-4.706372	108.955971
6.500000	-5.363103	101.657154	-3.288710	23.362912	-3.288710	23.362912	-5.354086	101.655897
6.550000	-6.599526	104.581130	-2.524549	25.336275	-2.524549	25.336275	-6.587697	104.507114
6.600000	-6.284452	106.876140	-2.071051	20.770693	-2.071051	20.770693	-6.279005	106.785409
6.650000	-6.042363	105.201413	-1.964354	16.806289	-1.964354	16.806289	-6.039392	105.114557
6.700000	-5.954013	102.711741	-1.922437	13.435636	-1.922437	13.435636	-5.952023	102.626737
6.750000	-5.944922	100.033718	-1.891331	10.323083	-1.891331	10.323083	-5.943429	99.947926
6.800000	-5.978725	97.290735	-1.860303	7.310292	-1.860303	7.310292	-5.977558	97.202190
6.850000	-6.048119	94.500290	-1.826114	4.330518	-1.826114	4.330518	-6.047212	94.406860
6.900000	-6.148280	91.665698	-1.787730	1.332282	-1.787730	1.332282	-6.147645	91.565093
6.950000	-6.282120	88.781096	-1.744527	-1.728100	-1.744527	-1.728100	-6.281840	88.670392
7.000000	-6.463395	85.835351	-1.695696	-4.913538	-1.695696	-4.913538	-6.463684	85.710026
7.050000	-6.715886	82.836194	-1.642000	-8.314557	-1.642000	-8.314557	-6.717224	82.689185
7.100000	-7.094155	79.859508	-1.588604	-12.107239	-1.588604	-12.107239	-7.097746	79.678417
7.150000	-7.726596	77.350086	-1.562299	-16.670029	-1.562299	-16.670029	-7.736147	77.111689
7.200000	-8.861146	77.749248	-1.690495	-22.725500	-1.690495	-22.725500	-8.890700	77.426401
7.250000	-9.676379	91.676829	-2.578595	-29.959868	-2.578595	-29.959868	-9.758860	91.534515
7.300000	-6.735688	98.136731	-4.165424	-25.862223	-4.165424	-25.862223	-6.782967	98.368064
7.350000	-5.491611	86.703204	-3.619350	-19.505851	-3.619350	-19.505851	-5.510475	86.893696
7.400000	-5.426633	78.456497	-2.960015	-20.577376	-2.960015	-20.577376	-5.436181	78.595467
7.450000	-5.560747	72.808126	-2.593472	-23.316187	-2.593472	-23.316187	-5.566374	72.914080
7.500000	-5.717012	68.391151	-2.375935	-26.321655	-2.375935	-26.321655	-5.720630	68.475686
7.550000	-5.865132	64.600955	-2.233409	-29.338299	-2.233409	-29.338299	-5.867579	64.671021
7.600000	-6.002046	61.147438	-2.130836	-32.323357	-2.130836	-32.323357	-6.003730	61.207247
7.650000	-6.129246	57.896171	-2.052309	-35.276137	-2.052309	-35.276137	-6.130394	57.948507
7.700000	-6.248648	54.773761	-1.989352	-38.203065	-1.989352	-38.203065	-6.249397	54.820554
7.750000	-6.361460	51.740877	-1.937556	-41.109928	-1.937556	-41.109928	-6.361902	51.783580
7.800000	-6.469589	48.763292	-1.893046	-44.003937	-1.893046	-44.003937	-6.469779	48.802881
7.850000	-6.573494	45.828109	-1.854447	-46.888279	-1.854447	-46.888279	-6.573473	45.865385
7.900000	-6.673744	42.923817	-1.820517	-49.766051	-1.820517	-49.766051	-6.673541	42.959410
7.950000	-6.770718	40.042442	-1.790403	-52.639563	-1.790403	-52.639563	-6.770354	40.076859
8.000000	-6.864657	37.178319	-1.763503	-55.510533	-1.763503	-55.510533	-6.864150	37.211975
8.050000	-6.955703	34.327337	-1.739382	-58.380230	-1.739382	-58.380230	-6.955064	34.360574
8.100000	-7.043922	31.486452	-1.717718	-61.249593	-1.717718	-61.249593	-7.043161	31.519557
8.150000	-7.129326	28.653378	-1.698269	-64.119303	-1.698269	-64.119303	-7.128451	28.686591
8.200000	-7.211888	25.826368	-1.680849	-66.989852	-1.680849	-66.989852	-7.210906	25.859892
8.250000	-7.291555	23.004068	-1.665309	-69.861579	-1.665309	-69.861579	-7.290471	23.038076
8.300000	-7.368255	20.185418	-1.651533	-72.734713	-1.651533	-72.734713	-7.367073	20.220052
8.350000	-7.442121	17.369459	-1.639334	-75.609298	-1.639334	-75.609298	-7.440844	17.404834
8.400000	-7.512761	14.555717	-1.628767	-78.485540	-1.628767	-78.485540	-7.511391	14.591932
8.450000	-7.579861	11.743645	-1.619841	-81.363556	-1.619841	-81.363556	-7.578402	11.780782
8.500000	-7.643847	8.932598	-1.612297	-84.243101	-1.612297	-84.243101	-7.642301	8.970709
8.550000	-7.704346	6.122258	-1.606194	-87.124244	-1.606194	-87.124244	-7.702715	6.161381
8.600000	-7.761363	3.312279	-1.601460	-90.006879	-1.601460	-90.006879	-7.759647	3.352434
8.650000	-7.814989	0.502362	-1.597999	-92.890855	-1.597999	-92.890855	-7.813192	0.543551
8.700000	-7.864808	-2.307758	-1.595897	-95.776192	-1.595897	-95.776192	-7.862930	-2.265549
8.750000	-7.911388	-5.118261	-1.594923	-98.662587	-1.594923	-98.662587	-7.909430	-5.075059
8.800000	-7.953900	-7.929476	-1.595300	-101.550146	-1.595300	-101.550146	-7.951867	-7.885329
8.850000	-7.993163	-10.741446	-1.596739	-104.438529	-1.596739	-104.438529	-7.991056	-10.696404
8.900000	-8.028617	-13.554483	-1.599388	-107.327738	-1.599388	-107.327738	-8.026440	-13.508617
8.950000	-8.060663	-16.368646	-1.603103	-110.217569	-1.603103	-110.217569	-8.058420	-16.322030
9.000000	-8.089220	-19.184133	-1.607896	-113.107912	-1.607896	-113.107912	-8.086916	-19.136849
9.050000	-8.114300	-22.001110	-1.613754	-115.998641	-1.613754	-115.998641	-8.111940	-21.953248
9.100000	-8.136261	-24.819589	-1.620566	-118.889599	-1.620566	-118.889599	-8.133852	-24.771232
9.150000	-8.154774	-27.639915	-1.628433	-121.780673	-1.628433	-121.780673	-8.152323	-27.591156
9.200000	-8.169839	-30.462338	-1.637365	-124.671684	-1.637365	-124.671684	-8.167356	-30.413270
9.250000	-8.182799	-33.286185	-1.646963	-127.562560	-1.646963	-127.562560	-8.180289	-33.236859
9.300000	-8.192953	-36.112032	-1.657450	-130.453177	-1.657450	-130.453177	-8.190425	-36.062513
9.350000	-8.199953	-38.940491	-1.668967	-133.343246	-1.668967	-133.343246	-8.197416	-38.890832
9.400000	-8.204971	-41.770821	-1.681162	-136.232810	-1.681162	-136.232810	-8.202433	-41.721038
9.450000	-8.208161	-44.602960	-1.693994	-139.121848	-1.693994	-139.121848	-8.205628	-44.553062
9.500000	-8.208915	-47.437910	-1.707713	-142.009902	-1.707713	-142.009902	-8.206393	-47.387870
9.550000	-8.208036	-50.275060	-1.722072	-144.897072	-1.722072	-144.897072	-8.205528	-50.224828
9.600000	-8.205466	-53.114876	-1.737139	-147.783048	-1.737139	-147.783048	-8.202973	-53.064356
9.650000	-8.201716	-55.956928	-1.752754	-150.667923	-1.752754	-150.667923	-8.199234	-55.906007
9.700000	-8.196812	-58.801678	-1.768966	-153.551350	-1.768966	-153.551350	-8.194334	-58.750183
9.750000	-8.191127	-61.648811	-1.785657	-156.433396	-1.785657	-156.433396	-8.188639	-61.596554
9.800000	-8.184846	-64.498539	-1.802809	-159.313826	-1.802809	-159.313826	-8.182328	-64.445276
9.850000	-8.178220	-67.350820	-1.820362	-162.192560	-1.820362	-162.192560	-8.175646	-67.296272
9.900000	-8.171501	-70.205553	-1.838243	-165.069560	-1.838243	-165.069560	-8.168836	-70.149415
9.950000	-8.164936	-73.062972	-1.856419	-167.944548	-1.856419	-167.944548	-8.162130	-73.004869
10.000000	-8.158718	-75.922667	-1.874792	-170.817737	-1.874792	-170.817737	-8.155723	-75.862247
