! freq	dB(S11)	phase(S11)	dB(S12)	phase(S12)	
!     	dB(S21)	phase(S21)	dB(S22)	phase(S22)	
!S-par simulation data
#  GHz  S  DB  R 50
0.000000	-0.000000	0.000000	-294.615879	0.000000	-294.615879	0.000000	0.000000	0.000000
0.050000	-0.000091	-0.901954	-71.863401	169.770686	-71.863401	169.770686	-0.000091	-0.901877
0.100000	-0.000361	-1.803723	-71.702727	162.096050	-71.702727	162.096050	-0.000361	-1.803567
0.150000	-0.000809	-2.705112	-71.450339	154.239533	-71.450339	154.239533	-0.000809	-2.704878
0.200000	-0.001411	-3.605998	-71.127990	146.681738	-71.127990	146.681738	-0.001411	-3.605686
0.250000	-0.002160	-4.506227	-70.750837	139.569533	-70.750837	139.569533	-0.002161	-4.505835
0.300000	-0.003054	-5.405594	-70.331533	133.004025	-70.331533	133.004025	-0.003055	-5.405122
0.350000	-0.004054	-6.304138	-69.893864	126.903891	-69.893864	126.903891	-0.004055	-6.303586
0.400000	-0.005159	-7.201653	-69.443247	121.323022	-69.443247	121.323022	-0.005160	-7.201021
0.450000	-0.006364	-8.097791	-68.985501	116.328013	-68.985501	116.328013	-0.006366	-8.097078
0.500000	-0.007607	-8.993368	-68.540191	111.564219	-68.540191	111.564219	-0.007609	-8.992573
0.550000	-0.008904	-9.887607	-68.100932	107.252707	-68.100932	107.252707	-0.008907	-9.886731
0.600000	-0.010241	-10.780891	-67.672171	103.264255	-67.672171	103.264255	-0.010244	-10.779933
0.650000	-0.011599	-11.673029	-67.254945	99.591893	-67.254945	99.591893	-0.011601	-11.671990
0.700000	-0.012976	-12.564023	-66.848603	96.235619	-66.848603	96.235619	-0.012978	-12.562902
0.750000	-0.014355	-13.454088	-66.454407	93.095175	-66.454407	93.095175	-0.014357	-13.452885
0.800000	-0.015736	-14.342853	-66.069268	90.256891	-66.069268	90.256891	-0.015737	-14.341570
0.850000	-0.017109	-15.230903	-65.695286	87.561691	-65.695286	87.561691	-0.017110	-15.229539
0.900000	-0.018469	-16.117522	-65.326776	85.152658	-65.326776	85.152658	-0.018470	-16.116077
0.950000	-0.019820	-17.003623	-64.968491	82.833472	-64.968491	82.833472	-0.019821	-17.002098
1.000000	-0.021146	-17.888171	-64.610650	80.783823	-64.610650	80.783823	-0.021146	-17.886566
1.050000	-0.022466	-18.772383	-64.262966	78.784606	-64.262966	78.784606	-0.022466	-18.770698
1.100000	-0.023754	-19.654915	-63.909432	77.037550	-63.909432	77.037550	-0.023753	-19.653151
1.150000	-0.025039	-20.537283	-63.567236	75.311708	-63.567236	75.311708	-0.025038	-20.535440
1.200000	-0.026289	-21.417836	-63.211681	73.819208	-63.211681	73.819208	-0.026288	-21.415915
1.250000	-0.027540	-22.298390	-62.870109	72.326709	-62.870109	72.326709	-0.027538	-22.296389
1.300000	-0.028756	-23.176980	-62.506383	71.046440	-62.506383	71.046440	-0.028754	-23.174902
1.350000	-0.029973	-24.055571	-62.157278	69.766171	-62.157278	69.766171	-0.029970	-24.053414
1.400000	-0.031163	-24.932367	-61.783046	68.644982	-61.783046	68.644982	-0.031160	-24.930132
1.450000	-0.032351	-25.809001	-61.420913	67.538255	-61.420913	67.538255	-0.032347	-25.806688
1.500000	-0.033519	-26.684006	-61.031588	66.545778	-61.031588	66.545778	-0.033516	-26.681615
1.550000	-0.034685	-27.558685	-60.651002	65.576150	-60.651002	65.576150	-0.034681	-27.556216
1.600000	-0.035837	-28.431907	-60.242088	64.683024	-60.242088	64.683024	-0.035833	-28.429358
1.650000	-0.036986	-29.304642	-59.837490	63.815400	-59.837490	63.815400	-0.036982	-29.302015
1.700000	-0.038128	-30.175895	-59.394869	62.997467	-59.394869	62.997467	-0.038123	-30.173189
1.750000	-0.039266	-31.046406	-58.947149	62.204380	-58.947149	62.204380	-0.039261	-31.043621
1.800000	-0.040404	-31.916918	-58.521381	61.411294	-58.521381	61.411294	-0.040399	-31.914053
1.850000	-0.041540	-32.785296	-58.012345	60.644698	-58.012345	60.644698	-0.041534	-32.782350
1.900000	-0.042676	-33.653408	-57.519377	59.881414	-57.519377	59.881414	-0.042670	-33.650381
1.950000	-0.043813	-34.521291	-57.035545	59.114655	-57.035545	59.114655	-0.043807	-34.518182
2.000000	-0.044960	-35.387345	-56.446735	58.320100	-56.446735	58.320100	-0.044954	-35.384152
2.050000	-0.046108	-36.253399	-55.895318	57.525546	-55.895318	57.525546	-0.046102	-36.250121
2.100000	-0.047265	-37.119016	-55.307940	56.699028	-55.307940	56.699028	-0.047259	-37.115653
2.150000	-0.048443	-37.983761	-54.629917	55.808583	-54.629917	55.808583	-0.048437	-37.980308
2.200000	-0.049621	-38.848506	-54.001010	54.918138	-54.001010	54.918138	-0.049614	-38.844963
2.250000	-0.050823	-39.713215	-53.307251	53.962320	-53.307251	53.962320	-0.050817	-39.709578
2.300000	-0.052054	-40.578037	-52.556316	52.936108	-52.556316	52.936108	-0.052047	-40.574302
2.350000	-0.053326	-41.443575	-51.729684	51.819406	-51.729684	51.819406	-0.053318	-41.439737
2.400000	-0.054661	-42.310712	-50.810824	50.594586	-50.810824	50.594586	-0.054653	-42.306763
2.450000	-0.056069	-43.179898	-49.827092	49.267860	-49.827092	49.267860	-0.056060	-43.175829
2.500000	-0.057563	-44.051586	-48.788727	47.829539	-48.788727	47.829539	-0.057553	-44.047389
2.550000	-0.059287	-44.930079	-47.546609	46.167158	-47.546609	46.167158	-0.059276	-44.925731
2.600000	-0.061308	-45.816796	-46.162247	44.283694	-46.162247	44.283694	-0.061294	-45.812273
2.650000	-0.063935	-46.718680	-44.532018	42.048774	-44.532018	42.048774	-0.063918	-46.713939
2.700000	-0.067843	-47.647630	-42.553320	39.258299	-42.553320	39.258299	-0.067819	-47.642598
2.750000	-0.074835	-48.628279	-40.067170	35.482285	-40.067170	35.482285	-0.074797	-48.622818
2.800000	-0.092142	-49.730565	-36.658087	29.404251	-36.658087	29.404251	-0.092064	-49.724357
2.850000	-0.165191	-51.167944	-31.371121	15.546556	-31.371121	15.546556	-0.164932	-51.160091
2.900000	-0.624112	-50.825522	-24.236979	-46.677412	-24.236979	-46.677412	-0.622626	-50.820588
2.950000	-0.184935	-49.905133	-30.820392	-114.084059	-30.820392	-114.084059	-0.184628	-49.904765
3.000000	-0.102901	-51.350634	-36.110707	-129.168743	-36.110707	-129.168743	-0.102805	-51.348589
3.050000	-0.085522	-52.452120	-39.426344	-135.941566	-39.426344	-135.941566	-0.085473	-52.449310
3.100000	-0.079855	-53.425903	-41.805883	-140.495381	-41.805883	-140.495381	-0.079823	-53.422657
3.150000	-0.077906	-54.340301	-43.597500	-144.169348	-43.597500	-144.169348	-0.077881	-54.336768
3.200000	-0.077314	-55.226407	-45.080429	-147.493751	-45.080429	-147.493751	-0.077294	-55.222655
3.250000	-0.077449	-56.093877	-46.311986	-150.640800	-46.311986	-150.640800	-0.077432	-56.089951
3.300000	-0.077981	-56.948999	-47.355842	-153.714328	-47.355842	-153.714328	-0.077965	-56.944926
3.350000	-0.078772	-57.794255	-48.223102	-156.775788	-48.223102	-156.775788	-0.078758	-57.790057
3.400000	-0.079718	-58.632761	-48.963858	-159.852341	-48.963858	-159.852341	-0.079704	-58.628451
3.450000	-0.080708	-59.468843	-49.698436	-162.949178	-49.698436	-162.949178	-0.080695	-59.464425
3.500000	-0.081831	-60.297651	-50.257697	-166.106866	-50.257697	-166.106866	-0.081818	-60.293138
3.550000	-0.082971	-61.125279	-50.821269	-169.280340	-50.821269	-169.280340	-0.082959	-61.120672
3.600000	-0.084197	-61.947010	-51.242974	-172.532738	-51.242974	-172.532738	-0.084184	-61.942319
3.650000	-0.085428	-62.768263	-51.673742	-175.791783	-51.673742	-175.791783	-0.085416	-62.763488
3.700000	-0.086725	-63.584264	-51.983878	-179.123947	-51.983878	-179.123947	-0.086712	-63.579410
3.750000	-0.088021	-64.400264	-52.305499	177.543889	-52.305499	177.543889	-0.088009	-64.395332
3.800000	-0.089374	-65.211300	-52.521259	174.161375	-52.521259	174.161375	-0.089361	-65.206295
3.850000	-0.090727	-66.022336	-52.742516	170.778860	-52.742516	170.778860	-0.090714	-66.017257
3.900000	-0.092125	-66.829255	-52.884323	167.382782	-52.884323	167.382782	-0.092113	-66.824106
3.950000	-0.093528	-67.635800	-53.020647	163.985471	-53.020647	163.985471	-0.093515	-67.630582
4.000000	-0.094970	-68.438865	-53.096419	160.605503	-53.096419	160.605503	-0.094957	-68.433579
4.050000	-0.096420	-69.241233	-53.160257	157.229003	-53.160257	157.229003	-0.096407	-69.235881
4.100000	-0.097905	-70.040636	-53.177889	153.891557	-53.177889	153.891557	-0.097892	-70.035218
4.150000	-0.099402	-70.839051	-53.180020	150.567128	-53.180020	150.567128	-0.099388	-70.833568
4.200000	-0.100930	-71.634941	-53.147290	147.293580	-53.147290	147.293580	-0.100916	-71.629395
4.250000	-0.102474	-72.429569	-53.097369	144.045471	-53.097369	144.045471	-0.102460	-72.423961
4.300000	-0.104046	-73.222066	-53.021764	140.851373	-53.021764	140.851373	-0.104032	-73.216396
4.350000	-0.105639	-74.013041	-52.928468	137.695855	-52.928468	137.695855	-0.105625	-74.007311
4.400000	-0.107258	-74.802246	-52.816985	134.590962	-52.816985	134.590962	-0.107244	-74.796455
4.450000	-0.108902	-75.589681	-52.688019	131.536696	-52.688019	131.536696	-0.108888	-75.583831
4.500000	-0.110569	-76.375682	-52.547003	128.525561	-52.547003	128.525561	-0.110555	-76.369773
4.550000	-0.112267	-77.159676	-52.389075	125.574809	-52.389075	125.574809	-0.112253	-77.153708
4.600000	-0.113984	-77.942553	-52.224124	122.657701	-52.224124	122.657701	-0.113970	-77.936527
4.650000	-0.115738	-78.723197	-52.042954	119.807879	-52.042954	119.807879	-0.115724	-78.717113
4.700000	-0.117508	-79.503025	-51.858881	116.981812	-51.858881	116.981812	-0.117493	-79.496884
4.750000	-0.119321	-80.280406	-51.659251	114.227011	-51.659251	114.227011	-0.119307	-80.274208
4.800000	-0.121146	-81.057257	-51.460113	111.486726	-51.460113	111.486726	-0.121131	-81.051003
4.850000	-0.123021	-81.831460	-51.245943	108.819019	-51.245943	108.819019	-0.123007	-81.825149
4.900000	-0.124903	-82.605404	-51.035092	106.157826	-51.035092	106.157826	-0.124889	-82.599037
4.950000	-0.126842	-83.376514	-50.809543	103.568271	-50.809543	103.568271	-0.126829	-83.370091
5.000000	-0.128783	-84.147624	-50.589704	100.978716	-50.589704	100.978716	-0.128769	-84.141145
5.050000	-0.130789	-84.915728	-50.355272	98.458063	-50.355272	98.458063	-0.130775	-84.909194
5.100000	-0.132796	-85.683833	-50.127001	95.937409	-50.127001	95.937409	-0.132782	-85.677243
5.150000	-0.134864	-86.449269	-49.887229	93.471572	-49.887229	93.471572	-0.134851	-86.442624
5.200000	-0.136938	-87.214463	-49.652364	91.010717	-49.652364	91.010717	-0.136925	-87.207762
5.250000	-0.139069	-87.977315	-49.408551	88.592454	-49.408551	88.592454	-0.139055	-87.970559
5.300000	-0.141211	-88.739699	-49.168453	86.182709	-49.168453	86.182709	-0.141198	-88.732888
5.350000	-0.143404	-89.500061	-48.921542	83.805178	-48.921542	83.805178	-0.143391	-89.493196
5.400000	-0.145614	-90.259750	-48.677157	81.438386	-48.677157	81.438386	-0.145601	-90.252830
5.450000	-0.147868	-91.017730	-48.427779	79.095157	-48.427779	79.095157	-0.147855	-91.010755
5.500000	-0.150145	-91.774854	-48.179687	76.763711	-48.179687	76.763711	-0.150132	-91.767826
5.550000	-0.152460	-92.530572	-47.928192	74.448741	-47.928192	74.448741	-0.152446	-92.523491
5.600000	-0.154802	-93.285285	-47.676634	72.145539	-47.676634	72.145539	-0.154788	-93.278151
5.650000	-0.157176	-94.038881	-47.423117	69.853113	-47.423117	69.853113	-0.157161	-94.031695
5.700000	-0.159582	-94.791361	-47.168014	67.571462	-47.168014	67.571462	-0.159567	-94.784123
5.750000	-0.162014	-95.542996	-46.912331	65.296118	-46.912331	65.296118	-0.161998	-95.535707
5.800000	-0.164482	-96.293450	-46.653280	63.029604	-46.653280	63.029604	-0.164466	-96.286111
5.850000	-0.166972	-97.043309	-46.395053	60.766042	-46.395053	60.766042	-0.166955	-97.035921
5.900000	-0.169503	-97.791979	-46.131317	58.508384	-46.131317	58.508384	-0.169486	-97.784543
5.950000	-0.172051	-98.540273	-45.869933	56.251359	-45.869933	56.251359	-0.172034	-98.532789
6.000000	-0.174648	-99.287437	-45.600407	53.996235	-45.600407	53.996235	-0.174630	-99.279907
6.050000	-0.177256	-100.034404	-45.335009	51.740442	-45.335009	51.740442	-0.177238	-100.026827
6.100000	-0.179921	-100.780384	-45.058168	49.481306	-45.058168	49.481306	-0.179903	-100.772762
6.150000	-0.182593	-101.526296	-44.787643	47.221254	-44.787643	47.221254	-0.182575	-101.518629
6.200000	-0.185334	-102.271463	-44.501463	44.951123	-44.501463	44.951123	-0.185315	-102.263751
6.250000	-0.188075	-103.016629	-44.224413	42.680993	-44.224413	42.680993	-0.188056	-103.008873
6.300000	-0.190899	-103.761419	-43.926261	40.392213	-43.926261	40.392213	-0.190880	-103.753619
6.350000	-0.193724	-104.506208	-43.638005	38.103432	-43.638005	38.103432	-0.193705	-104.498365
6.400000	-0.196635	-105.251133	-43.327441	35.789658	-43.327441	35.789658	-0.196616	-105.243246
6.450000	-0.199555	-105.996070	-43.024833	33.473611	-43.024833	33.473611	-0.199536	-105.988140
6.500000	-0.202565	-106.741674	-42.698526	31.126565	-42.698526	31.126565	-0.202546	-106.733699
6.550000	-0.205594	-107.487410	-42.377515	28.773320	-42.377515	28.773320	-0.205576	-107.479392
6.600000	-0.208719	-108.234373	-42.031298	26.383378	-42.031298	26.383378	-0.208701	-108.226311
6.650000	-0.211877	-108.981744	-41.686631	23.981204	-41.686631	23.981204	-0.211859	-108.973638
6.700000	-0.215110	-109.730380	-41.326747	21.548804	-41.326747	21.548804	-0.215092	-109.722230
6.750000	-0.218434	-110.480720	-40.946914	19.079023	-40.946914	19.079023	-0.218416	-110.472524
6.800000	-0.221848	-111.232948	-40.549532	16.572360	-40.549532	16.572360	-0.221830	-111.224708
6.850000	-0.225363	-111.987496	-40.132230	14.024148	-40.132230	14.024148	-0.225345	-111.979210
6.900000	-0.228996	-112.744885	-39.692263	11.429053	-39.692263	11.429053	-0.228976	-112.736552
6.950000	-0.232765	-113.505748	-39.226431	8.780890	-39.226431	8.780890	-0.232745	-113.497367
7.000000	-0.236698	-114.270869	-38.730982	6.072374	-38.730982	6.072374	-0.236678	-114.262440
7.050000	-0.240832	-115.041232	-38.201477	3.294777	-38.201477	3.294777	-0.240811	-115.032753
7.100000	-0.245189	-115.817357	-37.640372	0.445722	-37.640372	0.445722	-0.245167	-115.808827
7.150000	-0.249894	-116.602236	-37.026062	-2.504407	-37.026062	-2.504407	-0.249870	-116.593651
7.200000	-0.255028	-117.397356	-36.358126	-5.564901	-36.358126	-5.564901	-0.255002	-117.388713
7.250000	-0.260750	-118.205596	-35.626830	-8.758611	-35.626830	-8.758611	-0.260721	-118.196890
7.300000	-0.267306	-119.030932	-34.819894	-12.116863	-34.819894	-12.116863	-0.267273	-119.022156
7.350000	-0.275096	-119.878997	-33.921532	-15.684225	-33.921532	-15.684225	-0.275058	-119.870143
7.400000	-0.284756	-120.757526	-32.914175	-19.522483	-32.914175	-19.522483	-0.284712	-120.748580
7.450000	-0.297561	-121.680070	-31.762486	-23.744241	-31.762486	-23.744241	-0.297509	-121.671015
7.500000	-0.315782	-122.665672	-30.431058	-28.515346	-30.431058	-28.515346	-0.315716	-122.656479
7.550000	-0.344380	-123.747290	-28.858054	-34.149967	-28.858054	-34.149967	-0.344294	-123.737916
7.600000	-0.394635	-124.976206	-26.963519	-41.236532	-26.963519	-41.236532	-0.394515	-124.966585
7.650000	-0.496116	-126.421353	-24.635544	-51.040102	-24.635544	-51.040102	-0.495929	-126.411387
7.700000	-0.736008	-128.023416	-21.775308	-66.637317	-21.775308	-66.637317	-0.735671	-128.013050
7.750000	-1.283199	-128.223961	-18.843625	-94.866097	-18.843625	-94.866097	-1.282503	-128.214211
7.800000	-1.499777	-123.551754	-18.360638	-136.794647	-18.360638	-136.794647	-1.499050	-123.546232
7.850000	-0.958377	-121.993550	-20.954409	-168.940607	-20.954409	-168.940607	-0.958127	-121.988723
7.900000	-0.647293	-123.192946	-23.834392	173.317625	-23.834392	173.317625	-0.647221	-123.187257
7.950000	-0.513317	-124.563258	-26.191827	162.530880	-26.191827	162.530880	-0.513301	-124.556976
8.000000	-0.449916	-125.777558	-28.074480	154.948289	-28.074480	154.948289	-0.449920	-125.770920
8.050000	-0.416746	-126.859634	-29.605617	149.019938	-29.605617	149.019938	-0.416759	-126.852778
8.100000	-0.398385	-127.850954	-30.872095	144.061260	-30.872095	144.061260	-0.398403	-127.843964
8.150000	-0.388128	-128.780243	-31.929736	139.736478	-31.929736	139.736478	-0.388149	-128.773175
8.200000	-0.382505	-129.668056	-32.829503	135.845377	-32.829503	135.845377	-0.382527	-129.660947
8.250000	-0.379867	-130.525986	-33.595997	132.290444	-33.595997	132.290444	-0.379889	-130.518866
8.300000	-0.379215	-131.362347	-34.250615	129.008842	-34.250615	129.008842	-0.379239	-131.355239
8.350000	-0.380038	-132.181841	-34.799099	125.981510	-34.799099	125.981510	-0.380063	-132.174768
8.400000	-0.381769	-132.990793	-35.274426	123.147812	-35.274426	123.147812	-0.381794	-132.983772
8.450000	-0.384250	-133.791147	-35.677048	120.508184	-35.677048	120.508184	-0.384277	-133.784194
8.500000	-0.387318	-134.585104	-36.013981	118.053831	-36.013981	118.053831	-0.387347	-134.578236
8.550000	-0.390860	-135.374395	-36.290912	115.779212	-36.290912	115.779212	-0.390891	-135.367628
8.600000	-0.394831	-136.160183	-36.506263	113.699961	-36.506263	113.699961	-0.394863	-136.153535
8.650000	-0.399128	-136.944040	-36.670600	111.795126	-36.670600	111.795126	-0.399163	-136.937528
8.700000	-0.403751	-137.726978	-36.779135	110.090609	-36.779135	110.090609	-0.403790	-137.720624
8.750000	-0.408585	-138.509742	-36.850304	108.523459	-36.850304	108.523459	-0.408627	-138.503560
8.800000	-0.413686	-139.293553	-36.870841	107.147466	-36.870841	107.147466	-0.413732	-139.287568
8.850000	-0.418930	-140.077922	-36.864239	105.873152	-36.864239	105.873152	-0.418981	-140.072147
8.900000	-0.424521	-140.865781	-36.787981	104.855802	-36.787981	104.855802	-0.424578	-140.860253
8.950000	-0.430215	-141.655038	-36.691884	103.908901	-36.691884	103.908901	-0.430278	-141.649772
9.000000	-0.436219	-142.449204	-36.533148	103.175709	-36.533148	103.175709	-0.436290	-142.444239
9.050000	-0.442359	-143.246007	-36.349525	102.521869	-36.349525	102.521869	-0.442438	-143.241363
9.100000	-0.448788	-144.048876	-36.110068	102.029110	-36.110068	102.029110	-0.448877	-144.044595
9.150000	-0.455473	-144.857674	-35.825031	101.650489	-35.825031	101.650489	-0.455572	-144.853797
9.200000	-0.462436	-145.673349	-35.493253	101.371598	-35.493253	101.371598	-0.462548	-145.669921
9.250000	-0.469742	-146.497812	-35.107199	101.182011	-35.107199	101.182011	-0.469869	-146.494890
9.300000	-0.477418	-147.331927	-34.669111	101.055313	-34.669111	101.055313	-0.477563	-147.329571
9.350000	-0.485515	-148.176970	-34.179105	100.968950	-34.179105	100.968950	-0.485680	-148.175251
9.400000	-0.494060	-149.033499	-33.643171	100.901102	-33.643171	100.901102	-0.494248	-149.032490
9.450000	-0.503253	-149.906266	-33.042745	100.828649	-33.042745	100.828649	-0.503469	-149.906073
9.500000	-0.513168	-150.796401	-32.385653	100.724843	-32.385653	100.724843	-0.513417	-150.797139
9.550000	-0.523989	-151.707302	-31.668741	100.562646	-31.668741	100.562646	-0.524277	-151.709112
9.600000	-0.535999	-152.643937	-30.885215	100.310173	-30.885215	100.310173	-0.536334	-152.646999
9.650000	-0.549482	-153.610346	-30.037987	99.941249	-30.037987	99.941249	-0.549873	-153.614877
9.700000	-0.564890	-154.612929	-29.124069	99.424603	-29.124069	99.424603	-0.565351	-154.619202
9.750000	-0.583001	-155.662211	-28.131814	98.716547	-28.131814	98.716547	-0.583553	-155.670597
9.800000	-0.604774	-156.768883	-27.059672	97.778848	-27.059672	97.778848	-0.605440	-156.779867
9.850000	-0.631764	-157.949154	-25.899062	96.558346	-25.899062	96.558346	-0.632585	-157.963400
9.900000	-0.666579	-159.227156	-24.635046	94.980225	-24.635046	94.980225	-0.667615	-159.245619
9.950000	-0.713275	-160.634194	-23.256304	92.951816	-23.256304	92.951816	-0.714624	-160.658261
10.000000	-0.779077	-162.217587	-21.742827	90.329582	-21.742827	90.329582	-0.780916	-162.249374
