! freq	dB(S11)	phase(S11)	dB(S12)	phase(S12)	
!     	dB(S21)	phase(S21)	dB(S22)	phase(S22)	
!S-par simulation data
#  GHz  S  DB  R 50
0.000000	-86.162315	0.000000	-0.000427	0.000000	-0.000427	0.000000	-86.162315	0.000000
0.050000	-28.746006	-93.815977	-0.010176	-3.731340	-0.010176	-3.731340	-28.746008	-93.816034
0.100000	-22.767358	-97.690549	-0.034551	-7.418334	-0.034551	-7.418334	-22.767360	-97.690668
0.150000	-19.307373	-101.456110	-0.069008	-11.066152	-0.069008	-11.066152	-19.307375	-101.456291
0.200000	-16.885075	-105.135495	-0.112891	-14.682365	-0.112891	-14.682365	-16.885079	-105.135735
0.250000	-15.035095	-108.745628	-0.166194	-18.265525	-0.166194	-18.265525	-15.035099	-108.745925
0.300000	-13.550421	-112.298059	-0.228609	-21.810695	-0.228609	-21.810695	-13.550426	-112.298408
0.350000	-12.320852	-115.798502	-0.299528	-25.312613	-0.299528	-25.312613	-12.320858	-115.798901
0.400000	-11.280625	-119.248578	-0.378171	-28.766600	-0.378171	-28.766600	-11.280632	-119.249023
0.450000	-10.387364	-122.647411	-0.463687	-32.168498	-0.463687	-32.168498	-10.387373	-122.647902
0.500000	-9.610734	-125.994956	-0.555019	-35.516847	-0.555019	-35.516847	-9.610743	-125.995494
0.550000	-8.930740	-129.287773	-0.651379	-38.807697	-0.651379	-38.807697	-8.930751	-129.288358
0.600000	-8.330350	-132.526056	-0.751723	-42.041584	-0.751723	-42.041584	-8.330362	-132.526691
0.650000	-7.798010	-135.707137	-0.855204	-45.216548	-0.855204	-45.216548	-7.798023	-135.707826
0.700000	-7.323474	-138.830927	-0.960921	-48.333609	-0.960921	-48.333609	-7.323488	-138.831673
0.750000	-6.899207	-141.896301	-1.068055	-51.392805	-1.068055	-51.392805	-6.899221	-141.897104
0.800000	-6.518805	-144.903477	-1.175822	-54.395300	-1.175822	-54.395300	-6.518819	-144.904336
0.850000	-6.176950	-147.853612	-1.283499	-57.342759	-1.283499	-57.342759	-6.176963	-147.854525
0.900000	-5.869310	-150.748287	-1.390413	-60.236833	-1.390413	-60.236833	-5.869323	-150.749250
0.950000	-5.592194	-153.589664	-1.495940	-63.079460	-1.495940	-63.079460	-5.592206	-153.590676
1.000000	-5.342467	-156.380121	-1.599490	-65.872670	-1.599490	-65.872670	-5.342479	-156.381182
1.050000	-5.117527	-159.121901	-1.700488	-68.618368	-1.700488	-68.618368	-5.117540	-159.123010
1.100000	-4.914109	-161.820073	-1.798666	-71.321310	-1.798666	-71.321310	-4.914122	-161.821231
1.150000	-4.730574	-164.476195	-1.893512	-73.982896	-1.893512	-73.982896	-4.730587	-164.477403
1.200000	-4.565065	-167.093114	-1.984656	-76.605854	-1.984656	-76.605854	-4.565079	-167.094373
1.250000	-4.415960	-169.673665	-2.071771	-79.192951	-2.071771	-79.192951	-4.415975	-169.674975
1.300000	-4.282098	-172.220002	-2.154452	-81.746319	-2.154452	-81.746319	-4.282113	-172.221364
1.350000	-4.161945	-174.735714	-2.232557	-84.269527	-2.232557	-84.269527	-4.161961	-174.737128
1.400000	-4.054419	-177.223570	-2.305870	-86.765350	-2.305870	-86.765350	-4.054435	-177.225036
1.450000	-3.958572	-179.686310	-2.374202	-89.236541	-2.374202	-89.236541	-3.958589	-179.687827
1.500000	-3.873575	177.873366	-2.437396	-91.685823	-2.437396	-91.685823	-3.873592	177.871799
1.550000	-3.798704	175.452793	-2.495316	-94.115885	-2.495316	-94.115885	-3.798721	175.451176
1.600000	-3.733330	173.049349	-2.547853	-96.529377	-2.547853	-96.529377	-3.733348	173.047685
1.650000	-3.676908	170.660457	-2.594919	-98.928909	-2.594919	-98.928909	-3.676925	170.658746
1.700000	-3.628966	168.283580	-2.636443	-101.317050	-2.636443	-101.317050	-3.628984	168.281826
1.750000	-3.589104	165.916229	-2.672378	-103.696331	-2.672378	-103.696331	-3.589121	165.914434
1.800000	-3.556981	163.555955	-2.702689	-106.069240	-2.702689	-106.069240	-3.556998	163.554121
1.850000	-3.532316	161.200350	-2.727361	-108.438229	-2.727361	-108.438229	-3.532333	161.198481
1.900000	-3.514955	158.847045	-2.746331	-110.805727	-2.746331	-110.805727	-3.514971	158.845145
1.950000	-3.504714	156.493634	-2.759617	-113.174193	-2.759617	-113.174193	-3.504729	156.491708
2.000000	-3.501382	154.137802	-2.767309	-115.545993	-2.767309	-115.545993	-3.501397	154.135855
2.050000	-3.504872	151.777292	-2.769452	-117.923444	-2.769452	-117.923444	-3.504886	151.775329
2.100000	-3.515136	149.409882	-2.766103	-120.308833	-2.766103	-120.308833	-3.515149	149.407912
2.150000	-3.532165	147.033383	-2.757334	-122.704421	-2.757334	-122.704421	-3.532177	147.031412
2.200000	-3.555992	144.645636	-2.743233	-125.112442	-2.743233	-125.112442	-3.556002	144.643673
2.250000	-3.586684	142.244515	-2.723901	-127.535101	-2.723901	-127.535101	-3.586693	142.242570
2.300000	-3.624347	139.827927	-2.699454	-129.974575	-2.699454	-129.974575	-3.624354	139.826012
2.350000	-3.669123	137.393812	-2.670024	-132.433011	-2.670024	-132.433011	-3.669127	137.391940
2.400000	-3.721188	134.940149	-2.635759	-134.912524	-2.635759	-134.912524	-3.721190	134.938334
2.450000	-3.780757	132.464956	-2.596822	-137.415189	-2.596822	-137.415189	-3.780757	132.463215
2.500000	-3.848082	129.966294	-2.553396	-139.943041	-2.553396	-139.943041	-3.848077	129.964646
2.550000	-3.923613	127.441685	-2.505583	-142.498703	-2.505583	-142.498703	-3.923605	127.440152
2.600000	-4.007518	124.889811	-2.453705	-145.083553	-2.453705	-145.083553	-4.007506	124.888417
2.650000	-4.100157	122.308913	-2.397998	-147.699451	-2.397998	-147.699451	-4.100141	122.307686
2.700000	-4.201928	119.697309	-2.338717	-150.348180	-2.338717	-150.348180	-4.201907	119.696280
2.750000	-4.313267	117.053402	-2.276137	-153.031435	-2.276137	-153.031435	-4.313240	117.052606
2.800000	-4.434643	114.375693	-2.210550	-155.750808	-2.210550	-155.750808	-4.434610	114.375172
2.850000	-4.566564	111.662797	-2.142268	-158.507777	-2.142268	-158.507777	-4.566524	111.662597
2.900000	-4.709573	108.913455	-2.071621	-161.303689	-2.071621	-161.303689	-4.709525	108.913627
2.950000	-4.864246	106.126549	-1.998952	-164.139745	-1.998952	-164.139745	-4.864190	106.127154
3.000000	-5.031193	103.301119	-1.924625	-167.016987	-1.924625	-167.016987	-5.031127	103.302225
3.050000	-5.211052	100.436378	-1.849011	-169.936280	-1.849011	-169.936280	-5.210974	100.438063
3.100000	-5.404488	97.531729	-1.772496	-172.898299	-1.772496	-172.898299	-5.404398	97.534081
3.150000	-5.612294	94.586337	-1.695464	-175.903991	-1.695464	-175.903991	-5.612190	94.589459
3.200000	-5.835173	91.600028	-1.618328	-178.953618	-1.618328	-178.953618	-5.835053	91.604037
3.250000	-6.073728	88.573308	-1.541500	177.953266	-1.541500	177.953266	-6.073591	88.578338
3.300000	-6.328669	85.506482	-1.465378	174.816862	-1.465378	174.816862	-6.328512	85.512686
3.350000	-6.600614	82.400466	-1.390347	171.638007	-1.390347	171.638007	-6.600434	82.408019
3.400000	-6.890314	79.255753	-1.316783	168.417045	-1.316783	168.417045	-6.890108	79.264856
3.450000	-7.198479	76.073057	-1.245065	165.154531	-1.245065	165.154531	-7.198243	76.083944
3.500000	-7.525806	72.853006	-1.175580	161.850887	-1.175580	161.850887	-7.525536	72.865951
3.550000	-7.872607	69.597973	-1.108617	158.508452	-1.108617	158.508452	-7.872298	69.613283
3.600000	-8.239303	66.309505	-1.044471	155.128679	-1.044471	155.128679	-8.238949	66.327537
3.650000	-8.626193	62.989257	-0.983408	151.713172	-0.983408	151.713172	-8.625786	63.010419
3.700000	-9.033415	59.638929	-0.925659	148.263667	-0.925659	148.263667	-9.032947	59.663694
3.750000	-9.460902	56.260203	-0.871422	144.782004	-0.871422	144.782004	-9.460364	56.289112
3.800000	-9.908176	52.853781	-0.820976	141.269113	-0.820976	141.269113	-9.907556	52.887482
3.850000	-10.374562	49.421994	-0.774325	137.728041	-0.774325	137.728041	-10.373847	49.461209
3.900000	-10.858989	45.965879	-0.731544	134.160724	-0.731544	134.160724	-10.858165	46.011433
3.950000	-11.359899	42.486021	-0.692664	130.569046	-0.692664	130.569046	-11.358948	42.538855
4.000000	-11.875138	38.982418	-0.657676	126.954799	-0.657676	126.954799	-11.874040	39.043594
4.050000	-12.401829	35.454322	-0.626535	123.319636	-0.626535	123.319636	-12.400563	35.525034
4.100000	-12.935459	31.899346	-0.599249	119.664558	-0.599249	119.664558	-12.934000	31.980956
4.150000	-13.471449	28.315078	-0.575636	115.991185	-0.575636	115.991185	-13.469774	28.409053
4.200000	-14.004040	24.697780	-0.555524	112.300646	-0.555524	112.300646	-14.002125	24.805674
4.250000	-14.525953	21.042275	-0.538751	108.593604	-0.538751	108.593604	-14.523776	21.165703
4.300000	-15.028514	17.342247	-0.525145	104.870399	-0.525145	104.870399	-15.026060	17.482817
4.350000	-15.501650	13.590486	-0.514532	101.131027	-0.514532	101.131027	-15.498912	13.749707
4.400000	-15.932777	9.778202	-0.506787	97.374830	-0.506787	97.374830	-15.929761	9.957378
4.450000	-16.309221	5.897765	-0.501751	93.601036	-0.501751	93.601036	-16.305954	6.097804
4.500000	-16.619433	1.944335	-0.499249	89.808826	-0.499249	89.808826	-16.615959	2.165577
4.550000	-16.851160	-2.085484	-0.499188	85.996760	-0.499188	85.996760	-16.847547	-1.843395
4.600000	-16.993541	-6.191646	-0.501525	82.163085	-0.501525	82.163085	-16.989873	-5.929867
4.650000	-17.038145	-10.370112	-0.506269	78.305778	-0.506269	78.305778	-17.034520	-10.090630
4.700000	-16.978986	-14.613409	-0.513516	74.422344	-0.513516	74.422344	-16.975503	-14.319001
4.750000	-16.813121	-18.910977	-0.523467	70.509771	-0.523467	70.509771	-16.809873	-18.605088
4.800000	-16.546452	-23.248614	-0.536295	66.566207	-0.536295	66.566207	-16.543507	-22.934936
4.850000	-16.186010	-27.614127	-0.552323	62.589117	-0.552323	62.589117	-16.183412	-27.296401
4.900000	-15.741867	-31.997196	-0.571968	58.576047	-0.571968	58.576047	-15.739634	-31.678950
4.950000	-15.226146	-36.390327	-0.595744	54.524726	-0.595744	54.524726	-15.224273	-36.074679
5.000000	-14.651975	-40.789150	-0.624263	50.433188	-0.624263	50.433188	-14.650439	-40.478690
5.050000	-14.029840	-45.192291	-0.658443	46.298410	-0.658443	46.298410	-14.028608	-44.889090
5.100000	-13.375608	-49.600352	-0.698927	42.120852	-0.698927	42.120852	-13.374640	-49.305839
5.150000	-12.700851	-54.015339	-0.746599	37.900276	-0.746599	37.900276	-12.700106	-53.730457
5.200000	-12.015812	-58.439667	-0.802414	33.637275	-0.802414	33.637275	-12.015252	-58.164948
5.250000	-11.329338	-62.875459	-0.867373	29.333384	-0.867373	29.333384	-11.328930	-62.611112
5.300000	-10.648918	-67.324012	-0.942501	24.991186	-0.942501	24.991186	-10.648632	-67.069995
5.350000	-9.979940	-71.785722	-1.029115	20.613611	-1.029115	20.613611	-9.979751	-71.541806
5.400000	-9.328480	-76.258907	-1.128050	16.206379	-1.128050	16.206379	-9.328367	-76.024742
5.450000	-8.698950	-80.740490	-1.240128	11.775910	-1.240128	11.775910	-8.698896	-80.515650
5.500000	-8.094542	-85.226022	-1.366157	7.329419	-1.366157	7.329419	-8.094534	-85.010037
5.550000	-7.517683	-89.709696	-1.506805	2.875105	-1.506805	2.875105	-7.517711	-89.502077
5.600000	-6.970119	-94.184410	-1.662660	-1.577932	-1.662660	-1.577932	-6.970175	-93.984660
5.650000	-6.453097	-98.642025	-1.834060	-6.019825	-1.834060	-6.019825	-6.453173	-98.449656
5.700000	-5.967324	-103.073935	-2.021003	-10.440472	-2.021003	-10.440472	-5.967416	-102.888478
5.750000	-5.512988	-107.471153	-2.223348	-14.829690	-2.223348	-14.829690	-5.513092	-107.292162
5.800000	-5.089861	-111.824678	-2.440728	-19.177493	-2.440728	-19.177493	-5.089974	-111.651730
5.850000	-4.697425	-116.125498	-2.672603	-23.474067	-2.672603	-23.474067	-4.697545	-115.958194
5.900000	-4.334887	-120.364999	-2.918205	-27.710143	-2.918205	-27.710143	-4.335012	-120.202965
5.950000	-4.000981	-124.536326	-3.176510	-31.878341	-3.176510	-31.878341	-4.001111	-124.379217
6.000000	-3.694366	-128.633059	-3.446450	-35.971840	-3.446450	-35.971840	-3.694500	-128.480554
6.050000	-3.413561	-132.649827	-3.726858	-39.984965	-3.726858	-39.984965	-3.413697	-132.501628
6.100000	-3.156994	-136.582358	-4.016504	-43.913219	-4.016504	-43.913219	-3.157133	-136.438187
6.150000	-2.923044	-140.427481	-4.314125	-47.753276	-4.314125	-47.753276	-2.923186	-140.287082
6.200000	-2.710081	-144.183088	-4.618458	-51.502931	-4.618458	-51.502931	-2.710225	-144.046224
6.250000	-2.516492	-147.848068	-4.928260	-55.161017	-4.928260	-55.161017	-2.516638	-147.714517
6.300000	-2.340897	-151.420899	-5.242212	-58.725990	-5.242212	-58.725990	-2.341045	-151.290454
6.350000	-2.181575	-154.903510	-5.559257	-62.199814	-5.559257	-62.199814	-2.181726	-154.775982
6.400000	-2.037099	-158.297189	-5.878336	-65.583825	-5.878336	-65.583825	-2.037251	-158.172402
6.450000	-1.906126	-161.603786	-6.198462	-68.879939	-6.198462	-68.879939	-1.906281	-161.481576
6.500000	-1.787408	-164.825602	-6.518735	-72.090545	-6.518735	-72.090545	-1.787565	-164.705818
6.550000	-1.679791	-167.965295	-6.838334	-75.218398	-6.838334	-75.218398	-1.679949	-167.847795
6.600000	-1.582214	-171.025785	-7.156520	-78.266528	-7.156520	-78.266528	-1.582373	-170.910438
6.650000	-1.493706	-174.010182	-7.472633	-81.238161	-7.472633	-81.238161	-1.493866	-173.896864
6.700000	-1.413600	-176.919455	-7.785619	-84.134385	-7.785619	-84.134385	-1.413762	-176.808049
6.750000	-1.340662	-179.761284	-8.095837	-86.963023	-8.095837	-86.963023	-1.340825	-179.651686
6.800000	-1.274381	177.463131	-8.402428	-89.725397	-8.402428	-89.725397	-1.274545	177.571021
6.850000	-1.214102	174.750507	-8.704997	-92.424925	-8.704997	-92.424925	-1.214266	174.856783
6.900000	-1.159285	172.098225	-9.003042	-95.064366	-9.003042	-95.064366	-1.159449	172.202975
6.950000	-1.109386	169.503022	-9.296271	-97.647126	-9.296271	-97.647126	-1.109549	169.606329
7.000000	-1.063876	166.961189	-9.584595	-100.177050	-9.584595	-100.177050	-1.064039	167.063132
7.050000	-1.022331	164.469770	-9.867800	-102.657231	-9.867800	-102.657231	-1.022493	164.570422
7.100000	-0.984369	162.025923	-10.145704	-105.090653	-10.145704	-105.090653	-0.984530	162.125353
7.150000	-0.949648	159.626921	-10.418153	-107.480182	-10.418153	-107.480182	-0.949808	159.725194
7.200000	-0.917862	157.270156	-10.685015	-109.828568	-10.685015	-109.828568	-0.918020	157.367335
7.250000	-0.888736	154.953139	-10.946180	-112.138440	-10.946180	-112.138440	-0.888891	155.049283
7.300000	-0.862023	152.673499	-11.201555	-114.412312	-11.201555	-114.412312	-0.862175	152.768665
7.350000	-0.837501	150.428980	-11.451060	-116.652583	-11.451060	-116.652583	-0.837650	150.523221
7.400000	-0.814972	148.217435	-11.694627	-118.861542	-11.694627	-118.861542	-0.815118	148.310803
7.450000	-0.794257	146.036826	-11.932198	-121.041375	-11.932198	-121.041375	-0.794400	146.129372
7.500000	-0.775197	143.885216	-12.163720	-123.194165	-12.163720	-123.194165	-0.775336	143.976988
7.550000	-0.757692	141.761601	-12.388758	-125.321139	-12.388758	-125.321139	-0.757827	141.852647
7.600000	-0.741560	139.663283	-12.607677	-127.425083	-12.607677	-127.425083	-0.741690	139.753650
7.650000	-0.726687	137.588612	-12.820433	-129.507806	-12.820433	-129.507806	-0.726812	137.678344
7.700000	-0.712969	135.536015	-13.026984	-131.571039	-13.026984	-131.571039	-0.713089	135.625155
7.750000	-0.700313	133.503994	-13.227284	-133.616443	-13.227284	-133.616443	-0.700427	133.592588
7.800000	-0.688635	131.491125	-13.421285	-135.645614	-13.421285	-135.645614	-0.688743	131.579214
7.850000	-0.677860	129.496043	-13.608937	-137.660090	-13.608937	-137.660090	-0.677962	129.583672
7.900000	-0.667921	127.517449	-13.790182	-139.661355	-13.790182	-139.661355	-0.668016	127.604660
7.950000	-0.658758	125.554094	-13.964956	-141.650846	-13.964956	-141.650846	-0.658846	125.640931
8.000000	-0.650315	123.604781	-14.133189	-143.629957	-14.133189	-143.629957	-0.650396	123.691289
8.050000	-0.642546	121.668359	-14.294800	-145.600050	-14.294800	-145.600050	-0.642619	121.754583
8.100000	-0.635407	119.743717	-14.449701	-147.562452	-14.449701	-147.562452	-0.635472	119.829703
8.150000	-0.628862	117.829779	-14.597791	-149.518470	-14.597791	-149.518470	-0.628917	117.915575
8.200000	-0.622876	115.925501	-14.738957	-151.469390	-14.738957	-151.469390	-0.622922	116.011157
8.250000	-0.617422	114.029867	-14.873075	-153.416485	-14.873075	-153.416485	-0.617458	114.115434
8.300000	-0.612475	112.141881	-15.000003	-155.361024	-15.000003	-155.361024	-0.612500	112.227413
8.350000	-0.607989	110.260248	-15.120111	-157.304256	-15.120111	-157.304256	-0.608003	110.345798
8.400000	-0.603986	108.384538	-15.232483	-159.247364	-15.232483	-159.247364	-0.603989	108.470165
8.450000	-0.600481	106.513934	-15.336407	-161.191885	-15.336407	-161.191885	-0.600470	106.599708
8.500000	-0.597404	104.646891	-15.432892	-163.138882	-15.432892	-163.138882	-0.597379	104.732873
8.550000	-0.594786	102.782708	-15.521004	-165.089940	-15.521004	-165.089940	-0.594746	102.868972
8.600000	-0.592621	100.920364	-15.600657	-167.046350	-15.600657	-167.046350	-0.592564	101.006985
8.650000	-0.590896	99.058823	-15.671930	-169.009297	-15.671930	-169.009297	-0.590822	99.145879
8.700000	-0.589668	97.197091	-15.733591	-170.981007	-15.733591	-170.981007	-0.589574	97.284675
8.750000	-0.588880	95.334254	-15.786792	-172.961605	-15.786792	-172.961605	-0.588763	95.422451
8.800000	-0.588661	93.468804	-15.829044	-174.955058	-15.829044	-174.955058	-0.588520	93.557727
8.850000	-0.588931	91.600177	-15.862079	-176.960549	-15.862079	-176.960549	-0.588763	91.689926
8.900000	-0.589816	89.726561	-15.883816	-178.982106	-15.883816	-178.982106	-0.589617	89.817261
8.950000	-0.591305	87.847177	-15.894801	178.979795	-15.894801	178.979795	-0.591073	87.938953
9.000000	-0.593484	85.960404	-15.894037	176.922270	-15.894037	176.922270	-0.593213	86.053397
9.050000	-0.596440	84.064603	-15.880673	174.842519	-15.880673	174.842519	-0.596124	84.158969
9.100000	-0.600197	82.158929	-15.855019	172.739714	-15.855019	172.739714	-0.599831	82.254827
9.150000	-0.604986	80.240071	-15.814490	170.607381	-15.814490	170.607381	-0.604562	80.337697
9.200000	-0.610760	78.308401	-15.760758	168.447295	-15.760758	168.447295	-0.610270	78.407938
9.250000	-0.617903	76.358810	-15.689900	166.249411	-15.689900	166.249411	-0.617335	76.460499
9.300000	-0.626378	74.391912	-15.603754	164.015758	-15.603754	164.015758	-0.625721	74.495978
9.350000	-0.636595	72.402774	-15.499101	161.736805	-15.499101	161.736805	-0.635834	72.509495
9.400000	-0.648736	70.389734	-15.375804	159.409614	-15.375804	159.409614	-0.647854	70.499400
9.450000	-0.663148	68.349460	-15.232433	157.027680	-15.232433	157.027680	-0.662124	68.462389
9.500000	-0.680409	66.276432	-15.066022	154.579813	-15.066022	154.579813	-0.679218	66.392999
9.550000	-0.700697	64.170324	-14.877833	152.064889	-14.877833	152.064889	-0.699311	64.290895
9.600000	-0.725314	62.019481	-14.660722	149.458015	-14.660722	149.458015	-0.723694	62.144538
9.650000	-0.754276	59.826656	-14.418609	146.763065	-14.418609	146.763065	-0.752382	59.956641
9.700000	-0.789551	57.576916	-14.142553	143.945150	-14.142553	143.945150	-0.787326	57.712409
9.750000	-0.831639	55.270578	-13.835134	141.000255	-13.835134	141.000255	-0.829023	55.412140
9.800000	-0.882863	52.894673	-13.489438	137.891306	-13.489438	137.891306	-0.879777	53.042973
9.850000	-0.945272	50.441571	-13.102857	134.588775	-13.102857	134.588775	-0.941622	50.597325
9.900000	-1.021275	47.904669	-12.673578	131.058862	-12.673578	131.058862	-1.016951	48.068633
9.950000	-1.116202	45.264661	-12.190600	127.220073	-12.190600	127.220073	-1.111058	45.437732
10.000000	-1.231940	42.527390	-11.661689	123.052278	-11.661689	123.052278	-1.225822	42.710391
