! freq	dB(S11)	phase(S11)	dB(S12)	phase(S12)	
!     	dB(S21)	phase(S21)	dB(S22)	phase(S22)	
!S-par simulation data
#  GHz  S  DB  R 50
0.000000	-81.097909	0.000000	-0.000765	0.000000	-0.000765	0.000000	-81.097909	0.000000
0.050000	-36.893099	-92.970838	-0.008736	-3.627158	-0.008736	-3.627158	-36.900384	-93.249065
0.100000	-30.924664	-96.591810	-0.017599	-7.200653	-0.017599	-7.200653	-30.929078	-97.129983
0.150000	-27.464248	-100.173589	-0.026885	-10.764897	-0.026885	-10.764897	-27.467495	-100.966888
0.200000	-25.029422	-103.739741	-0.037599	-14.321756	-0.037599	-14.321756	-25.032593	-104.792181
0.250000	-23.159273	-107.276824	-0.049766	-17.870470	-0.049766	-17.870470	-23.162751	-108.591974
0.300000	-21.649380	-110.782767	-0.063237	-21.411215	-0.063237	-21.411215	-21.653219	-112.361717
0.350000	-20.389957	-114.262270	-0.077839	-24.944691	-0.077839	-24.944691	-20.394097	-116.104425
0.400000	-19.316574	-117.719489	-0.093470	-28.471137	-0.093470	-28.471137	-19.320926	-119.823455
0.450000	-18.388939	-121.157381	-0.110058	-31.990366	-0.110058	-31.990366	-18.393410	-123.521339
0.500000	-17.577153	-124.579773	-0.127432	-35.502770	-0.127432	-35.502770	-17.581664	-127.201868
0.550000	-16.861014	-127.988725	-0.145457	-39.008364	-0.145457	-39.008364	-16.865501	-130.867036
0.600000	-16.226924	-131.385348	-0.163997	-42.506893	-0.163997	-42.506893	-16.231332	-134.517772
0.650000	-15.662474	-134.771476	-0.182864	-45.998758	-0.182864	-45.998758	-15.666761	-138.155835
0.700000	-15.158546	-138.148408	-0.201887	-49.484282	-0.201887	-49.484282	-15.162679	-141.782336
0.750000	-14.708981	-141.517053	-0.220889	-52.963665	-0.220889	-52.963665	-14.712930	-145.397804
0.800000	-14.308031	-144.878652	-0.239686	-56.437457	-0.239686	-56.437457	-14.311771	-149.003086
0.850000	-13.951517	-148.234423	-0.258091	-59.906269	-0.258091	-59.906269	-13.955023	-152.598822
0.900000	-13.632823	-151.586119	-0.276003	-63.371287	-0.276003	-63.371287	-13.636075	-156.186632
0.950000	-13.353048	-154.934618	-0.293159	-66.832848	-0.293159	-66.832848	-13.356017	-159.765951
1.000000	-13.105975	-158.281801	-0.309519	-70.292344	-0.309519	-70.292344	-13.108634	-163.338534
1.050000	-12.891425	-161.629313	-0.324879	-73.750762	-0.324879	-73.750762	-12.893740	-166.904580
1.100000	-12.707021	-164.978985	-0.339143	-77.209330	-0.339143	-77.209330	-12.708952	-170.464924
1.150000	-12.550254	-168.332692	-0.352251	-80.669316	-0.352251	-80.669316	-12.551758	-174.020454
1.200000	-12.422225	-171.693145	-0.363996	-84.132328	-0.363996	-84.132328	-12.423241	-177.571365
1.250000	-12.318058	-175.061482	-0.374514	-87.599232	-0.374514	-87.599232	-12.318529	178.881155
1.300000	-12.242062	-178.442486	-0.383454	-91.072674	-0.383454	-91.072674	-12.241897	175.337373
1.350000	-12.188392	178.163671	-0.391083	-94.552864	-0.391083	-94.552864	-12.187509	171.796272
1.400000	-12.160218	174.751617	-0.397161	-98.042643	-0.397161	-98.042643	-12.158496	168.258144
1.450000	-12.154853	171.319855	-0.401827	-101.542707	-0.401827	-101.542707	-12.152166	164.722770
1.500000	-12.172942	167.863958	-0.405044	-105.055146	-0.405044	-105.055146	-12.169133	161.190595
1.550000	-12.214795	164.379480	-0.406817	-108.581879	-0.406817	-108.581879	-12.209674	157.662353
1.600000	-12.278603	160.864457	-0.407306	-112.123414	-0.407306	-112.123414	-12.271961	154.138757
1.650000	-12.367509	157.309301	-0.406401	-115.683662	-0.406401	-115.683662	-12.359065	150.622175
1.700000	-12.478169	153.714682	-0.404382	-119.261488	-0.404382	-119.261488	-12.467631	147.113646
1.750000	-12.613122	150.070339	-0.401223	-122.860412	-0.401223	-122.860412	-12.600113	143.616858
1.800000	-12.772032	146.370647	-0.397072	-126.481471	-0.397072	-126.481471	-12.756112	140.135280
1.850000	-12.955264	142.607789	-0.392054	-130.126212	-0.392054	-130.126212	-12.935904	136.673636
1.900000	-13.163424	138.771873	-0.386300	-133.796427	-0.386300	-133.796427	-13.139988	133.238217
1.950000	-13.396879	134.852069	-0.379964	-137.493619	-0.379964	-137.493619	-13.368600	129.836692
2.000000	-13.655758	130.836874	-0.373210	-141.218917	-0.373210	-141.218917	-13.621722	126.477968
2.050000	-13.940320	126.711876	-0.366200	-144.973675	-0.366200	-144.973675	-13.899431	123.173254
2.100000	-14.250664	122.460103	-0.359100	-148.759202	-0.359100	-148.759202	-14.201603	119.936115
2.150000	-14.586619	118.061533	-0.352081	-152.576765	-0.352081	-152.576765	-14.527809	116.782829
2.200000	-14.947610	113.492558	-0.345312	-156.427602	-0.345312	-156.427602	-14.877173	113.732729
2.250000	-15.332457	108.725460	-0.338959	-160.312933	-0.338959	-160.312933	-15.248179	110.808477
2.300000	-15.739110	103.727973	-0.333188	-164.233976	-0.333188	-164.233976	-15.638417	108.036164
2.350000	-16.164286	98.463131	-0.328156	-168.191974	-0.328156	-168.191974	-16.044259	105.445063
2.400000	-16.603002	92.889665	-0.324014	-172.188218	-0.324014	-172.188218	-16.460448	103.066769
2.450000	-17.047982	86.963442	-0.320905	-176.224081	-0.320905	-176.224081	-16.879626	100.933334
2.500000	-17.488998	80.640610	-0.318965	179.698941	-0.318965	179.698941	-17.291835	99.073893
2.550000	-17.910475	73.868399	-0.318365	175.577738	-0.318365	175.577738	-17.682433	97.519061
2.600000	-18.295105	66.638877	-0.319190	171.411737	-0.319190	171.411737	-18.035916	96.262517
2.650000	-18.621072	58.960690	-0.321556	167.198750	-0.321556	167.198750	-18.333314	95.279529
2.700000	-18.864296	50.885287	-0.325583	162.936241	-0.325583	162.936241	-18.554361	94.508830
2.750000	-19.007933	42.527142	-0.331298	158.624226	-0.331298	158.624226	-18.685708	93.846257
2.800000	-19.021804	34.007227	-0.339019	154.254178	-0.339019	154.254178	-18.701994	93.164548
2.850000	-18.899400	25.527500	-0.348845	149.824331	-0.348845	149.824331	-18.598242	92.291553
2.900000	-18.639977	17.280346	-0.360993	145.330046	-0.360993	145.330046	-18.373231	91.058700
2.950000	-18.252546	9.431140	-0.375746	140.765951	-0.375746	140.765951	-18.033151	89.317816
3.000000	-17.752916	2.094236	-0.393470	136.125859	-0.393470	136.125859	-17.589536	86.959073
3.050000	-17.159804	-4.675915	-0.414652	131.402698	-0.414652	131.402698	-17.056509	83.918678
3.100000	-16.491524	-10.879837	-0.439928	126.588447	-0.439928	126.588447	-16.448337	80.176706
3.150000	-15.762817	-16.555469	-0.470194	121.672894	-0.470194	121.672894	-15.776715	75.741699
3.200000	-14.986720	-21.776586	-0.506578	116.645659	-0.506578	116.645659	-15.052536	70.656031
3.250000	-14.174653	-26.635773	-0.550442	111.496817	-0.550442	111.496817	-14.285937	64.983130
3.300000	-13.334796	-31.225565	-0.603589	106.214546	-0.603589	106.214546	-13.484534	58.785268
3.350000	-12.477041	-35.640682	-0.667899	100.791033	-0.667899	100.791033	-12.658179	52.137027
3.400000	-11.601490	-39.960533	-0.746961	95.204316	-0.746961	95.204316	-11.807180	45.071511
3.450000	-10.717890	-44.270860	-0.843913	89.446921	-0.843913	89.446921	-10.941818	37.657658
3.500000	-9.832907	-48.641759	-0.962997	83.507871	-0.962997	83.507871	-10.069432	29.942308
3.550000	-8.954740	-53.129843	-1.108837	77.381314	-1.108837	77.381314	-9.199029	21.968898
3.600000	-8.088443	-57.787079	-1.288281	71.055805	-1.288281	71.055805	-8.336353	13.764352
3.650000	-7.243607	-62.644887	-1.507664	64.535011	-1.507664	64.535011	-7.491813	5.364437
3.700000	-6.428549	-67.722876	-1.774551	57.826102	-1.774551	57.826102	-6.674433	-3.200913
3.750000	-5.651558	-73.026144	-2.097111	50.944821	-2.097111	50.944821	-5.893130	-11.900278
3.800000	-4.920483	-78.547279	-2.484436	43.915501	-2.484436	43.915501	-5.156264	-20.699174
3.850000	-4.242758	-84.259856	-2.944514	36.776274	-2.944514	36.776274	-4.471744	-29.555634
3.900000	-3.623781	-90.126234	-3.484872	29.573285	-3.484872	29.573285	-3.845342	-38.424272
3.950000	-3.068057	-96.104503	-4.114638	22.359652	-4.114638	22.359652	-3.281790	-47.254475
4.000000	-2.577232	-102.140719	-4.839950	15.195828	-4.839950	15.195828	-2.782970	-55.994342
4.050000	-2.150954	-108.182385	-5.667572	8.143233	-5.667572	8.143233	-2.348675	-64.593910
4.100000	-1.787885	-114.178255	-6.604906	1.267718	-6.604906	1.267718	-1.977655	-73.003341
4.150000	-1.483545	-120.084680	-7.660108	-5.371274	-7.660108	-5.371274	-1.665501	-81.186219
4.200000	-1.232527	-125.867794	-8.845272	-11.714901	-8.845272	-11.714901	-1.406839	-89.115478
4.250000	-1.029078	-131.503002	-10.178674	-17.697843	-10.178674	-17.697843	-1.195926	-96.772644
4.300000	-0.867254	-136.975204	-11.688770	-23.237748	-11.688770	-23.237748	-1.026812	-104.148673
4.350000	-0.741274	-142.277894	-13.421192	-28.210651	-13.421192	-28.210651	-0.893697	-111.242837
4.400000	-0.646206	-147.409021	-15.449412	-32.375155	-15.449412	-32.375155	-0.791622	-118.056653
4.450000	-0.577338	-152.373727	-17.901252	-35.186795	-17.901252	-35.186795	-0.715836	-124.598967
4.500000	-0.529884	-157.187347	-21.023110	-35.324705	-21.023110	-35.324705	-0.661510	-130.891668
4.550000	-0.499183	-161.873903	-25.329746	-29.141070	-25.329746	-29.141070	-0.623935	-136.969068
4.600000	-0.485224	-166.427993	-30.247044	4.575394	-30.247044	4.575394	-0.603017	-142.811905
4.650000	-0.483026	-170.889416	-29.398882	59.503035	-29.398882	59.503035	-0.593724	-148.479255
4.700000	-0.493059	-175.261246	-24.618653	79.477708	-24.618653	79.477708	-0.596395	-153.958683
4.750000	-0.512694	-179.573727	-21.238153	83.886312	-21.238153	83.886312	-0.608327	-159.291925
4.800000	-0.542014	176.156298	-18.810240	83.481663	-18.810240	83.481663	-0.629430	-164.486358
4.850000	-0.580606	171.906001	-16.941063	81.266228	-16.941063	81.266228	-0.659122	-169.562719
4.900000	-0.628324	167.651545	-15.421914	78.233966	-15.421914	78.233966	-0.697064	-174.542859
4.950000	-0.686800	163.365271	-14.136885	74.690229	-14.136885	74.690229	-0.744503	-179.435491
5.000000	-0.755624	159.026280	-13.014215	70.863634	-13.014215	70.863634	-0.800857	175.731319
5.050000	-0.839275	154.585101	-12.004479	66.773290	-12.004479	66.773290	-0.869735	170.952190
5.100000	-0.937606	150.026494	-11.079099	62.497915	-11.079099	62.497915	-0.950754	166.201369
5.150000	-1.057008	145.283463	-10.210127	58.008112	-10.210127	58.008112	-1.048941	161.466346
5.200000	-1.200826	140.321431	-9.383654	53.308416	-9.383654	53.308416	-1.166682	156.730398
5.250000	-1.377469	135.064621	-8.584519	48.358771	-8.584519	48.358771	-1.310306	151.978901
5.300000	-1.595951	129.443850	-7.804482	43.123291	-7.804482	43.123291	-1.486337	147.201810
5.350000	-1.873135	123.333360	-7.033904	37.526550	-7.033904	37.526550	-1.706908	142.393523
5.400000	-2.229353	116.605493	-6.270489	31.499439	-6.270489	31.499439	-1.985769	137.565674
5.450000	-2.697021	109.067385	-5.514063	24.942493	-5.514063	24.942493	-2.343718	132.759970
5.500000	-3.323154	100.464003	-4.770987	17.746836	-4.770987	17.746836	-2.807740	128.079807
5.550000	-4.178211	90.427910	-4.055223	9.797040	-4.055223	9.797040	-3.411343	123.744388
5.600000	-5.366854	78.400578	-3.390053	0.994783	-3.390053	0.994783	-4.188279	120.171238
5.650000	-7.055516	63.238929	-2.811142	-8.747446	-2.811142	-8.747446	-5.154951	118.173833
5.700000	-9.446886	42.442086	-2.365289	-19.396869	-2.365289	-19.396869	-6.234766	118.989964
5.750000	-12.468746	9.706470	-2.100487	-30.771688	-2.100487	-30.771688	-7.148282	123.717542
5.800000	-13.920413	-41.940915	-2.055034	-42.538153	-2.055034	-42.538153	-7.423470	131.540546
5.850000	-11.540977	-88.531614	-2.242550	-54.244237	-2.242550	-54.244237	-6.850606	138.587935
5.900000	-8.627905	-116.743257	-2.640776	-65.455829	-2.640776	-65.455829	-5.812634	141.877606
5.950000	-6.464234	-135.392140	-3.207715	-75.851412	-3.207715	-75.851412	-4.745932	141.513410
6.000000	-4.945904	-149.444800	-3.889465	-85.304616	-3.889465	-85.304616	-3.844049	138.890083
6.050000	-3.875952	-160.734915	-4.640102	-93.800768	-4.640102	-93.800768	-3.136678	135.077290
6.100000	-3.113024	-170.123626	-5.421791	-101.400521	-5.421791	-101.400521	-2.599060	130.730558
6.150000	-2.553214	-178.181278	-6.211467	-108.251513	-6.211467	-108.251513	-2.189040	126.211264
6.200000	-2.137389	174.803431	-6.991914	-114.452004	-6.991914	-114.452004	-1.876770	121.682569
6.250000	-1.822925	168.598165	-7.753221	-120.111105	-7.753221	-120.111105	-1.636896	117.224985
6.300000	-1.579588	163.016952	-8.492922	-125.334987	-8.492922	-125.334987	-1.449546	112.865874
6.350000	-1.390774	157.964570	-9.203508	-130.179562	-9.203508	-130.179562	-1.303537	108.618722
6.400000	-1.240537	153.319681	-9.888318	-134.726900	-9.888318	-134.726900	-1.187327	104.474354
6.450000	-1.120778	149.026140	-10.543356	-139.016109	-10.543356	-139.016109	-1.095064	100.428714
6.500000	-1.022465	144.998159	-11.176286	-143.110344	-11.176286	-143.110344	-1.019873	96.463056
6.550000	-0.941126	141.195426	-11.787534	-147.040457	-11.787534	-147.040457	-0.958383	92.568022
6.600000	-0.875143	137.613058	-12.367506	-150.812845	-12.367506	-150.812845	-0.909525	88.743685
6.650000	-0.819691	134.191378	-12.926733	-154.473523	-12.926733	-154.473523	-0.869484	84.971009
6.700000	-0.773345	130.917669	-13.461782	-158.035527	-13.461782	-158.035527	-0.837259	81.244960
6.750000	-0.733818	127.760785	-13.978116	-161.524063	-13.978116	-161.524063	-0.811053	77.554143
6.800000	-0.700225	124.710793	-14.473718	-164.950250	-14.473718	-164.950250	-0.790270	73.893443
6.850000	-0.671550	121.753731	-14.949077	-168.327970	-14.949077	-168.327970	-0.774189	70.256129
6.900000	-0.646987	118.877819	-15.404530	-171.669715	-15.404530	-171.669715	-0.762266	66.635876
6.950000	-0.625892	116.073043	-15.840254	-174.986904	-15.840254	-174.986904	-0.754093	63.026639
7.000000	-0.607745	113.330836	-16.256265	-178.290162	-16.256265	-178.290162	-0.749381	59.422531
7.050000	-0.592127	110.643816	-16.652408	178.410463	-16.652408	178.410463	-0.747936	55.817706
7.100000	-0.578697	108.005581	-17.028357	175.105301	-17.028357	175.105301	-0.749648	52.206226
7.150000	-0.567176	105.410547	-17.383605	171.784897	-17.383605	171.784897	-0.754485	48.581945
7.200000	-0.557339	102.853810	-17.717460	168.439859	-17.717460	168.439859	-0.762488	44.938360
7.250000	-0.549001	100.331037	-18.029037	165.060722	-18.029037	165.060722	-0.773772	41.268469
7.300000	-0.542013	97.838376	-18.317251	161.637824	-18.317251	161.637824	-0.788532	37.564594
7.350000	-0.536258	95.372378	-18.580808	158.161177	-18.580808	158.161177	-0.807046	33.818189
7.400000	-0.531642	92.929942	-18.818196	154.620342	-18.818196	154.620342	-0.829694	30.019606
7.450000	-0.528097	90.508255	-19.027685	151.004297	-19.027685	151.004297	-0.856971	26.157808
7.500000	-0.525575	88.104753	-19.207317	147.301281	-19.207317	147.301281	-0.889517	22.220033
7.550000	-0.524090	85.717669	-19.353320	143.493622	-19.353320	143.493622	-0.928452	18.186555
7.600000	-0.523592	83.344069	-19.464724	139.571097	-19.464724	139.571097	-0.974626	14.042592
7.650000	-0.524097	80.981964	-19.538853	135.518214	-19.538853	135.518214	-1.029412	9.766492
7.700000	-0.525640	78.629509	-19.572846	131.317606	-19.572846	131.317606	-1.094577	5.332079
7.750000	-0.528220	76.284625	-19.566151	126.959383	-19.566151	126.959383	-1.171661	0.719018
7.800000	-0.532028	73.946526	-19.511512	122.404649	-19.511512	122.404649	-1.264773	-4.130004
7.850000	-0.537136	71.613442	-19.407735	117.633720	-19.407735	117.633720	-1.377308	-9.255995
7.900000	-0.543695	69.284187	-19.251990	112.614931	-19.251990	112.614931	-1.514421	-14.720283
7.950000	-0.551895	66.957872	-19.041881	107.310134	-19.041881	107.310134	-1.683030	-20.601083
8.000000	-0.561969	64.634028	-18.775803	101.673000	-18.775803	101.673000	-1.892506	-26.999466
8.050000	-0.574185	62.312810	-18.453466	95.647167	-18.453466	95.647167	-2.155642	-34.047958
8.100000	-0.588831	59.995276	-18.076674	89.164571	-18.076674	89.164571	-2.489984	-41.923259
8.150000	-0.606194	57.683854	-17.649921	82.139529	-17.649921	82.139529	-2.920346	-50.877490
8.200000	-0.626405	55.382731	-17.183317	74.478556	-17.183317	74.478556	-3.479450	-61.258646
8.250000	-0.649253	53.097875	-16.694435	66.092177	-16.694435	66.092177	-4.206961	-73.552044
8.300000	-0.673945	50.836618	-16.209217	56.901504	-16.209217	56.901504	-5.144023	-88.497416
8.350000	-0.698791	48.605186	-15.763101	46.878194	-15.763101	46.878194	-6.301929	-107.184692
8.400000	-0.721019	46.405062	-15.400875	36.064840	-15.400875	36.064840	-7.565465	-131.228303
8.450000	-0.737391	44.225406	-15.166928	24.657925	-15.166928	24.657925	-8.511926	-161.524084
8.500000	-0.745495	42.041992	-15.094410	12.978974	-15.094410	12.978974	-8.511757	164.661260
8.550000	-0.745165	39.822599	-15.193680	1.430187	-15.193680	1.430187	-7.526357	133.639337
8.600000	-0.738784	37.538701	-15.448506	-9.601080	-15.448506	-9.601080	-6.183266	108.732046
8.650000	-0.730136	35.175773	-15.821206	-19.844744	-15.821206	-19.844744	-4.947912	89.217342
8.700000	-0.722703	32.731618	-16.268384	-29.168143	-16.268384	-29.168143	-3.954702	73.630662
8.750000	-0.718822	30.211878	-16.750250	-37.571521	-16.750250	-37.571521	-3.192566	60.825382
8.800000	-0.719874	27.620594	-17.235347	-45.102124	-17.235347	-45.102124	-2.618584	50.100280
8.850000	-0.726351	24.961771	-17.702350	-51.874992	-17.702350	-51.874992	-2.184815	40.914843
8.900000	-0.738450	22.234945	-18.138090	-58.001857	-18.138090	-58.001857	-1.854481	32.912427
8.950000	-0.756329	19.435843	-18.534848	-63.585505	-18.534848	-63.585505	-1.600603	25.838845
9.000000	-0.780370	16.555075	-18.887542	-68.710475	-18.887542	-68.710475	-1.404340	19.516664
9.050000	-0.811094	13.580484	-19.194616	-73.459512	-19.194616	-73.459512	-1.251139	13.798440
9.100000	-0.848855	10.503250	-19.458969	-77.917555	-19.458969	-77.917555	-1.129234	8.549501
9.150000	-0.895195	7.297932	-19.678574	-82.129720	-19.678574	-82.129720	-1.032717	3.709930
9.200000	-0.950772	3.954720	-19.858801	-86.164666	-19.858801	-86.164666	-0.954591	-0.814920
9.250000	-1.018776	0.427669	-19.996343	-90.052462	-19.996343	-90.052462	-0.892648	-5.044211
9.300000	-1.101057	-3.304236	-20.096866	-93.851259	-20.096866	-93.851259	-0.842523	-9.045684
9.350000	-1.200819	-7.277802	-20.162422	-97.600609	-20.162422	-97.600609	-0.802063	-12.852246
9.400000	-1.325348	-11.579366	-20.192024	-101.345015	-20.192024	-101.345015	-0.770263	-16.476333
9.450000	-1.478722	-16.239329	-20.192408	-105.129378	-20.192408	-105.129378	-0.744862	-19.961511
9.500000	-1.672626	-21.375779	-20.164556	-109.005671	-20.164556	-109.005671	-0.725361	-23.315856
9.550000	-1.921575	-27.116129	-20.113744	-113.033392	-20.113744	-113.033392	-0.710850	-26.558333
9.600000	-2.240477	-33.564957	-20.047620	-117.258215	-20.047620	-117.258215	-0.700431	-29.709142
9.650000	-2.664384	-41.014008	-19.974938	-121.769052	-19.974938	-121.769052	-0.693964	-32.772236
9.700000	-3.238614	-49.803961	-19.912618	-126.642876	-19.912618	-126.642876	-0.690965	-35.759579
9.750000	-4.018959	-60.322320	-19.882959	-131.920383	-19.882959	-131.920383	-0.690877	-38.684067
9.800000	-5.100496	-73.376876	-19.921090	-137.640323	-19.921090	-137.640323	-0.693413	-41.551543
9.850000	-6.595264	-90.321466	-20.074567	-143.737113	-20.074567	-143.737113	-0.698107	-44.369941
9.900000	-8.549956	-113.737851	-20.398692	-149.965866	-20.398692	-149.965866	-0.704411	-47.148375
9.950000	-10.523770	-147.902335	-20.942793	-155.816972	-20.942793	-155.816972	-0.711880	-49.897905
10.000000	-10.993137	169.846548	-21.607330	-160.803529	-21.607330	-160.803529	-0.721326	-52.536909
