! freq	dB(S11)	phase(S11)	dB(S12)	phase(S12)	
!     	dB(S21)	phase(S21)	dB(S22)	phase(S22)	
!S-par simulation data
#  GHz  S  DB  R 50
0.000000	-0.000000	0.000000	-358.413837	0.000000	-358.413837	0.000000	-0.000000	0.000000
0.050000	-0.000968	-0.934419	-106.880630	87.561893	-106.880630	87.561893	-0.003870	-1.461556
0.100000	-0.003086	-1.876916	-100.758547	85.948250	-100.758547	85.948250	-0.009254	-2.960131
0.150000	-0.005241	-2.827150	-97.201284	84.839714	-97.201284	84.839714	-0.012629	-4.472571
0.200000	-0.007024	-3.781225	-94.734513	83.884865	-94.734513	83.884865	-0.014731	-5.985788
0.250000	-0.008435	-4.736572	-92.885515	82.972567	-92.885515	82.972567	-0.016216	-7.496901
0.300000	-0.009623	-5.691813	-91.431057	82.080172	-91.431057	82.080172	-0.017480	-9.005755
0.350000	-0.010668	-6.646455	-90.259757	81.217655	-90.259757	81.217655	-0.018654	-10.512292
0.400000	-0.011637	-7.600253	-89.304204	80.401912	-89.304204	80.401912	-0.019821	-12.016560
0.450000	-0.012574	-8.553101	-88.521939	79.653405	-88.521939	79.653405	-0.021019	-13.518558
0.500000	-0.013506	-9.504948	-87.884976	78.995336	-87.884976	78.995336	-0.022269	-15.018239
0.550000	-0.014448	-10.455760	-87.374348	78.454432	-87.374348	78.454432	-0.023580	-16.515521
0.600000	-0.015410	-11.405510	-86.977052	78.062428	-86.977052	78.062428	-0.024953	-18.010302
0.650000	-0.016393	-12.354319	-86.672240	77.827493	-86.672240	77.827493	-0.026382	-19.502826
0.700000	-0.017406	-13.301861	-86.478796	77.854294	-86.478796	77.854294	-0.027878	-20.992244
0.750000	-0.018447	-14.248265	-86.379999	78.178622	-86.379999	78.178622	-0.029430	-22.478800
0.800000	-0.019513	-15.193505	-86.373094	78.880803	-86.373094	78.880803	-0.031032	-23.962372
0.850000	-0.020605	-16.137451	-86.462582	80.122416	-86.462582	80.122416	-0.032682	-25.442557
0.900000	-0.021718	-17.080301	-86.628193	81.937502	-86.628193	81.937502	-0.034367	-26.919827
0.950000	-0.022850	-18.021916	-86.870231	84.554036	-86.870231	84.554036	-0.036086	-28.393762
1.000000	-0.024000	-18.962274	-87.171574	88.197407	-87.171574	88.197407	-0.037835	-29.864253
1.050000	-0.025164	-19.901353	-87.499066	93.129035	-87.499066	93.129035	-0.039607	-31.331195
1.100000	-0.026342	-20.839133	-87.793834	99.598838	-87.793834	99.598838	-0.041397	-32.794486
1.150000	-0.027530	-21.775594	-87.963958	107.727735	-87.963958	107.727735	-0.043203	-34.254031
1.200000	-0.028727	-22.710719	-87.893006	117.313304	-87.893006	117.313304	-0.045019	-35.709737
1.250000	-0.029931	-23.644487	-87.480456	127.669638	-87.480456	127.669638	-0.046842	-37.161517
1.300000	-0.031139	-24.576822	-86.682649	137.701560	-86.682649	137.701560	-0.048667	-38.609110
1.350000	-0.032352	-25.507765	-85.589497	146.493801	-85.589497	146.493801	-0.050494	-40.052609
1.400000	-0.033566	-26.437298	-84.317419	153.649267	-84.317419	153.649267	-0.052317	-41.491940
1.450000	-0.034782	-27.365406	-82.970015	159.181760	-82.970015	159.181760	-0.054136	-42.927032
1.500000	-0.035998	-28.292070	-81.617141	163.308046	-81.617141	163.308046	-0.055949	-44.357818
1.550000	-0.037214	-29.217275	-80.298220	166.294146	-80.298220	166.294146	-0.057754	-45.784236
1.600000	-0.038428	-30.141004	-79.032270	168.382883	-79.032270	168.382883	-0.059549	-47.206226
1.650000	-0.039641	-31.063239	-77.826449	169.772129	-77.826449	169.772129	-0.061334	-48.623733
1.700000	-0.040852	-31.983964	-76.681608	170.615432	-76.681608	170.615432	-0.063108	-50.036703
1.750000	-0.042062	-32.903162	-75.595495	171.029690	-75.595495	171.029690	-0.064871	-51.445089
1.800000	-0.043269	-33.820816	-74.564495	171.103553	-74.564495	171.103553	-0.066623	-52.848843
1.850000	-0.044474	-34.736908	-73.584542	170.904508	-73.584542	170.904508	-0.068362	-54.247923
1.900000	-0.045677	-35.651423	-72.651578	170.484337	-72.651578	170.484337	-0.070091	-55.642290
1.950000	-0.046879	-36.564342	-71.761766	169.883162	-71.761766	169.883162	-0.071808	-57.031907
2.000000	-0.048079	-37.475649	-70.911574	169.132395	-70.911574	169.132395	-0.073514	-58.416741
2.050000	-0.049277	-38.385327	-70.097807	168.256894	-70.097807	168.256894	-0.075210	-59.796761
2.100000	-0.050475	-39.293358	-69.317588	167.276532	-69.317588	167.276532	-0.076897	-61.171940
2.150000	-0.051672	-40.199725	-68.568341	166.207353	-68.568341	166.207353	-0.078574	-62.542255
2.200000	-0.052869	-41.104412	-67.847760	165.062433	-67.847760	165.062433	-0.080244	-63.907683
2.250000	-0.054067	-42.007403	-67.153780	163.852523	-67.153780	163.852523	-0.081907	-65.268208
2.300000	-0.055265	-42.908680	-66.484548	162.586533	-66.484548	162.586533	-0.083564	-66.623812
2.350000	-0.056465	-43.808228	-65.838399	161.271906	-65.838399	161.271906	-0.085216	-67.974485
2.400000	-0.057667	-44.706031	-65.213832	159.914905	-65.213832	159.914905	-0.086864	-69.320217
2.450000	-0.058871	-45.602072	-64.609491	158.520833	-64.609491	158.520833	-0.088509	-70.661002
2.500000	-0.060078	-46.496337	-64.024149	157.094210	-64.024149	157.094210	-0.090152	-71.996835
2.550000	-0.061289	-47.388733	-63.455860	155.637821	-63.455860	155.637821	-0.091794	-73.327501
2.600000	-0.062504	-48.279322	-62.904537	154.156353	-62.904537	154.156353	-0.093437	-74.653219
2.650000	-0.063724	-49.168089	-62.369241	152.652647	-62.369241	152.652647	-0.095082	-75.973992
2.700000	-0.064949	-50.055022	-61.849112	151.129183	-61.849112	151.129183	-0.096729	-77.289830
2.750000	-0.066180	-50.940107	-61.343360	149.588128	-61.343360	149.588128	-0.098380	-78.600743
2.800000	-0.067418	-51.823332	-60.851260	148.031392	-60.851260	148.031392	-0.100036	-79.906745
2.850000	-0.068662	-52.704684	-60.372142	146.460658	-60.372142	146.460658	-0.101698	-81.207851
2.900000	-0.069914	-53.584151	-59.905388	144.877417	-59.905388	144.877417	-0.103367	-82.504081
2.950000	-0.071174	-54.461724	-59.450427	143.282997	-59.450427	143.282997	-0.105044	-83.795456
3.000000	-0.072443	-55.337390	-59.006725	141.678578	-59.006725	141.678578	-0.106730	-85.081999
3.050000	-0.073721	-56.211141	-58.573791	140.065220	-58.573791	140.065220	-0.108426	-86.363737
3.100000	-0.075008	-57.082967	-58.151163	138.443869	-58.151163	138.443869	-0.110133	-87.640700
3.150000	-0.076306	-57.952858	-57.738412	136.815380	-57.738412	136.815380	-0.111853	-88.912917
3.200000	-0.077615	-58.820808	-57.335137	135.180523	-57.335137	135.180523	-0.113585	-90.180422
3.250000	-0.078935	-59.686808	-56.940961	133.539992	-56.940961	133.539992	-0.115331	-91.443251
3.300000	-0.080267	-60.550851	-56.555532	131.894417	-56.555532	131.894417	-0.117092	-92.701443
3.350000	-0.081612	-61.412932	-56.178519	130.244372	-56.178519	130.244372	-0.118868	-93.955036
3.400000	-0.082969	-62.273044	-55.809610	128.590377	-55.809610	128.590377	-0.120661	-95.204073
3.450000	-0.084340	-63.131183	-55.448511	126.932908	-55.448511	126.932908	-0.122471	-96.448599
3.500000	-0.085724	-63.987343	-55.094946	125.272398	-55.094946	125.272398	-0.124299	-97.688660
3.550000	-0.087123	-64.841523	-54.748652	123.609245	-54.748652	123.609245	-0.126146	-98.924303
3.600000	-0.088537	-65.693717	-54.409383	121.943813	-54.409383	121.943813	-0.128012	-100.155580
3.650000	-0.089967	-66.543924	-54.076904	120.276436	-54.076904	120.276436	-0.129898	-101.382541
3.700000	-0.091412	-67.392142	-53.750994	118.607423	-53.750994	118.607423	-0.131805	-102.605241
3.750000	-0.092873	-68.238371	-53.431440	116.937058	-53.431440	116.937058	-0.133734	-103.823736
3.800000	-0.094352	-69.082521	-53.117822	115.265565	-53.117822	115.265565	-0.135686	-105.037904
3.850000	-0.095848	-69.924682	-52.810191	113.593244	-52.810191	113.593244	-0.137660	-106.247987
3.900000	-0.097362	-70.764853	-52.508365	111.920314	-52.508365	111.920314	-0.139658	-107.454047
3.950000	-0.098895	-71.603036	-52.212170	110.246981	-52.212170	110.246981	-0.141680	-108.656144
4.000000	-0.100446	-72.439232	-51.921440	108.573436	-51.921440	108.573436	-0.143726	-109.854343
4.050000	-0.102016	-73.273446	-51.636016	106.899855	-51.636016	106.899855	-0.145797	-111.048709
4.100000	-0.103606	-74.105680	-51.355748	105.226402	-51.355748	105.226402	-0.147894	-112.239307
4.150000	-0.105215	-74.935937	-51.080491	103.553229	-51.080491	103.553229	-0.150016	-113.426205
4.200000	-0.106846	-75.764224	-50.810106	101.880480	-50.810106	101.880480	-0.152165	-114.609473
4.250000	-0.108497	-76.590544	-50.544462	100.208285	-50.544462	100.208285	-0.154341	-115.789180
4.300000	-0.110170	-77.414905	-50.283431	98.536769	-50.283431	98.536769	-0.156544	-116.965397
4.350000	-0.111864	-78.237311	-50.026892	96.866047	-50.026892	96.866047	-0.158775	-118.138197
4.400000	-0.113581	-79.057771	-49.774729	95.196225	-49.774729	95.196225	-0.161034	-119.307653
4.450000	-0.115320	-79.876291	-49.526829	93.527405	-49.526829	93.527405	-0.163321	-120.473839
4.500000	-0.117083	-80.692880	-49.283085	91.859679	-49.283085	91.859679	-0.165637	-121.636831
4.550000	-0.118869	-81.507547	-49.043393	90.193136	-49.043393	90.193136	-0.167982	-122.796706
4.600000	-0.120679	-82.320301	-48.807655	88.527855	-48.807655	88.527855	-0.170357	-123.953540
4.650000	-0.122514	-83.131151	-48.575774	86.863915	-48.575774	86.863915	-0.172761	-125.107412
4.700000	-0.124373	-83.940109	-48.347659	85.201386	-48.347659	85.201386	-0.175195	-126.258401
4.750000	-0.126258	-84.747184	-48.123221	83.540334	-48.123221	83.540334	-0.177660	-127.406586
4.800000	-0.128168	-85.552390	-47.902375	81.880821	-47.902375	81.880821	-0.180155	-128.552049
4.850000	-0.130105	-86.355736	-47.685038	80.222906	-47.685038	80.222906	-0.182681	-129.694870
4.900000	-0.132068	-87.157237	-47.471130	78.566643	-47.471130	78.566643	-0.185239	-130.835131
4.950000	-0.134058	-87.956905	-47.260576	76.912081	-47.260576	76.912081	-0.187827	-131.972916
5.000000	-0.136076	-88.754754	-47.053301	75.259269	-47.053301	75.259269	-0.190447	-133.108307
5.050000	-0.138123	-89.550719	-46.849166	73.608329	-46.849166	73.608329	-0.193100	-134.241292
5.100000	-0.140198	-90.344895	-46.648176	71.959227	-46.648176	71.959227	-0.195785	-135.372060
5.150000	-0.142302	-91.137297	-46.450266	70.311999	-46.450266	70.311999	-0.198502	-136.500695
5.200000	-0.144435	-91.927940	-46.255369	68.666681	-46.255369	68.666681	-0.201251	-137.627284
5.250000	-0.146598	-92.716840	-46.063425	67.023305	-46.063425	67.023305	-0.204033	-138.751912
5.300000	-0.148790	-93.504013	-45.874372	65.381903	-45.874372	65.381903	-0.206847	-139.874665
5.350000	-0.151013	-94.289478	-45.688153	63.742501	-45.688153	63.742501	-0.209694	-140.995632
5.400000	-0.153267	-95.073250	-45.504710	62.105127	-45.504710	62.105127	-0.212573	-142.114900
5.450000	-0.155553	-95.855348	-45.323990	60.469804	-45.323990	60.469804	-0.215486	-143.232555
5.500000	-0.157870	-96.635789	-45.145939	58.836555	-45.145939	58.836555	-0.218431	-144.348687
5.550000	-0.160219	-97.414594	-44.970506	57.205401	-44.970506	57.205401	-0.221409	-145.463384
5.600000	-0.162600	-98.191780	-44.797643	55.576362	-44.797643	55.576362	-0.224420	-146.576735
5.650000	-0.165015	-98.967368	-44.627302	53.949456	-44.627302	53.949456	-0.227465	-147.688828
5.700000	-0.167463	-99.741376	-44.459436	52.324700	-44.459436	52.324700	-0.230542	-148.799754
5.750000	-0.169945	-100.513826	-44.294001	50.702109	-44.294001	50.702109	-0.233653	-149.909602
5.800000	-0.172461	-101.284738	-44.130954	49.081699	-44.130954	49.081699	-0.236797	-151.018461
5.850000	-0.175012	-102.054133	-43.970254	47.463484	-43.970254	47.463484	-0.239974	-152.126423
5.900000	-0.177598	-102.822033	-43.811859	45.847476	-43.811859	45.847476	-0.243184	-153.233577
5.950000	-0.180219	-103.588459	-43.655731	44.233689	-43.655731	44.233689	-0.246427	-154.340014
6.000000	-0.182876	-104.353434	-43.501833	42.622134	-43.501833	42.622134	-0.249703	-155.445824
6.050000	-0.185570	-105.116980	-43.350128	41.012823	-43.350128	41.012823	-0.253013	-156.551099
6.100000	-0.188300	-105.879120	-43.200582	39.405767	-43.200582	39.405767	-0.256355	-157.655929
6.150000	-0.191067	-106.639877	-43.053159	37.800977	-43.053159	37.800977	-0.259730	-158.760406
6.200000	-0.193872	-107.399275	-42.907827	36.198465	-42.907827	36.198465	-0.263138	-159.864620
6.250000	-0.196714	-108.157337	-42.764556	34.598240	-42.764556	34.598240	-0.266579	-160.968663
6.300000	-0.199597	-108.914033	-42.623302	33.000414	-42.623302	33.000414	-0.270054	-162.072627
6.350000	-0.202518	-109.669445	-42.484051	31.404900	-42.484051	31.404900	-0.273561	-163.176611
6.400000	-0.205479	-110.423598	-42.346774	29.811708	-42.346774	29.811708	-0.277100	-164.280706
6.450000	-0.208479	-111.176517	-42.211445	28.220851	-42.211445	28.220851	-0.280672	-165.385003
6.500000	-0.211519	-111.928228	-42.078036	26.632340	-42.078036	26.632340	-0.284275	-166.489594
6.550000	-0.214599	-112.678757	-41.946521	25.046190	-41.946521	25.046190	-0.287911	-167.594570
6.600000	-0.217720	-113.428130	-41.816877	23.462413	-41.816877	23.462413	-0.291578	-168.700022
6.650000	-0.220883	-114.176373	-41.689080	21.881024	-41.689080	21.881024	-0.295276	-169.806042
6.700000	-0.224086	-114.923513	-41.563106	20.302039	-41.563106	20.302039	-0.299006	-170.912720
6.750000	-0.227332	-115.669578	-41.438933	18.725474	-41.438933	18.725474	-0.302766	-172.020147
6.800000	-0.230620	-116.414595	-41.316542	17.151346	-41.316542	17.151346	-0.306557	-173.128413
6.850000	-0.233950	-117.158591	-41.195910	15.579675	-41.195910	15.579675	-0.310378	-174.237611
6.900000	-0.237324	-117.901595	-41.077019	14.010480	-41.077019	14.010480	-0.314230	-175.347829
6.950000	-0.240740	-118.643635	-40.959850	12.443781	-40.959850	12.443781	-0.318111	-176.459158
7.000000	-0.244201	-119.384740	-40.844384	10.879603	-40.844384	10.879603	-0.322021	-177.571689
7.050000	-0.247705	-120.124937	-40.730604	9.317968	-40.730604	9.317968	-0.325961	-178.685509
7.100000	-0.251254	-120.864258	-40.618494	7.758904	-40.618494	7.758904	-0.329929	-179.800710
7.150000	-0.254848	-121.602730	-40.508037	6.202435	-40.508037	6.202435	-0.333925	179.082620
7.200000	-0.258487	-122.340383	-40.399217	4.648593	-40.399217	4.648593	-0.337950	177.964392
7.250000	-0.262171	-123.077248	-40.292021	3.097407	-40.292021	3.097407	-0.342002	176.844519
7.300000	-0.265901	-123.813355	-40.186433	1.548910	-40.186433	1.548910	-0.346081	175.722911
7.350000	-0.269677	-124.548734	-40.082440	0.003136	-40.082440	0.003136	-0.350186	174.599482
7.400000	-0.273500	-125.283416	-39.980027	-1.539879	-39.980027	-1.539879	-0.354318	173.474145
7.450000	-0.277369	-126.017432	-39.879184	-3.080096	-39.879184	-3.080096	-0.358475	172.346813
7.500000	-0.281285	-126.750813	-39.779897	-4.617474	-39.779897	-4.617474	-0.362658	171.217400
7.550000	-0.285251	-127.483566	-39.682174	-6.151846	-39.682174	-6.151846	-0.366865	170.085722
7.600000	-0.289264	-128.215751	-39.585985	-7.683288	-39.585985	-7.683288	-0.371097	168.951786
7.650000	-0.293325	-128.947399	-39.491321	-9.211756	-39.491321	-9.211756	-0.375352	167.815508
7.700000	-0.297434	-129.678544	-39.398169	-10.737199	-39.398169	-10.737199	-0.379630	166.676803
7.750000	-0.301592	-130.409217	-39.306520	-12.259567	-39.306520	-12.259567	-0.383930	165.535590
7.800000	-0.305799	-131.139452	-39.216364	-13.778807	-39.216364	-13.778807	-0.388252	164.391787
7.850000	-0.310054	-131.869281	-39.127690	-15.294864	-39.127690	-15.294864	-0.392594	163.245312
7.900000	-0.314359	-132.598738	-39.040488	-16.807681	-39.040488	-16.807681	-0.396957	162.096086
7.950000	-0.318714	-133.327858	-38.954750	-18.317198	-38.954750	-18.317198	-0.401339	160.944030
8.000000	-0.323118	-134.056673	-38.870467	-19.823354	-38.870467	-19.823354	-0.405739	159.789066
8.050000	-0.327571	-134.785218	-38.787628	-21.326086	-38.787628	-21.326086	-0.410158	158.631116
8.100000	-0.332075	-135.513528	-38.706227	-22.825328	-38.706227	-22.825328	-0.414593	157.470104
8.150000	-0.336630	-136.241636	-38.626252	-24.321012	-38.626252	-24.321012	-0.419045	156.305956
8.200000	-0.341234	-136.969579	-38.547697	-25.813070	-38.547697	-25.813070	-0.423512	155.138598
8.250000	-0.345890	-137.697392	-38.470553	-27.301430	-38.470553	-27.301430	-0.427995	153.967957
8.300000	-0.350596	-138.425110	-38.394811	-28.786018	-38.394811	-28.786018	-0.432490	152.793963
8.350000	-0.355353	-139.152768	-38.320463	-30.266761	-38.320463	-30.266761	-0.436999	151.616545
8.400000	-0.360161	-139.880403	-38.247500	-31.743581	-38.247500	-31.743581	-0.441520	150.435636
8.450000	-0.365020	-140.608052	-38.175914	-33.216400	-38.175914	-33.216400	-0.446051	149.251168
8.500000	-0.369931	-141.335751	-38.105696	-34.685139	-38.105696	-34.685139	-0.450593	148.063078
8.550000	-0.374893	-142.063536	-38.036839	-36.149716	-38.036839	-36.149716	-0.455143	146.871300
8.600000	-0.379907	-142.791446	-37.969333	-37.610049	-37.969333	-37.610049	-0.459702	145.675774
8.650000	-0.384972	-143.519517	-37.903171	-39.066054	-37.903171	-39.066054	-0.464268	144.476440
8.700000	-0.390088	-144.247788	-37.838343	-40.517646	-37.838343	-40.517646	-0.468839	143.273238
8.750000	-0.395257	-144.976295	-37.774840	-41.964738	-37.774840	-41.964738	-0.473416	142.066114
8.800000	-0.400478	-145.705093	-37.712693	-43.407040	-37.712693	-43.407040	-0.477996	140.854839
8.850000	-0.405752	-146.434208	-37.651853	-44.844659	-37.651853	-44.844659	-0.482579	139.639529
8.900000	-0.411077	-147.163680	-37.592313	-46.277507	-37.592313	-46.277507	-0.487163	138.420138
8.950000	-0.416454	-147.893547	-37.534063	-47.705495	-37.534063	-47.705495	-0.491747	137.196616
9.000000	-0.421882	-148.623851	-37.477093	-49.128531	-37.477093	-49.128531	-0.496330	135.968920
9.050000	-0.427361	-149.354630	-37.421393	-50.546527	-37.421393	-50.546527	-0.500912	134.737007
9.100000	-0.432892	-150.085924	-37.366954	-51.959392	-37.366954	-51.959392	-0.505489	133.500838
9.150000	-0.438473	-150.817775	-37.313764	-53.367034	-37.313764	-53.367034	-0.510063	132.260375
9.200000	-0.444106	-151.550222	-37.261814	-54.769364	-37.261814	-54.769364	-0.514630	131.015584
9.250000	-0.449790	-152.283308	-37.211093	-56.166290	-37.211093	-56.166290	-0.519190	129.766434
9.300000	-0.455524	-153.017072	-37.161590	-57.557724	-37.161590	-57.557724	-0.523742	128.512895
9.350000	-0.461308	-153.751558	-37.113295	-58.943574	-37.113295	-58.943574	-0.528284	127.254943
9.400000	-0.467143	-154.486807	-37.066194	-60.323752	-37.066194	-60.323752	-0.532815	125.992555
9.450000	-0.473027	-155.222861	-37.020278	-61.698168	-37.020278	-61.698168	-0.537334	124.725711
9.500000	-0.478961	-155.959763	-36.975534	-63.066736	-36.975534	-63.066736	-0.541839	123.454395
9.550000	-0.484945	-156.697557	-36.931950	-64.429368	-36.931950	-64.429368	-0.546330	122.178596
9.600000	-0.490977	-157.436285	-36.889514	-65.785978	-36.889514	-65.785978	-0.550804	120.898302
9.650000	-0.497058	-158.175992	-36.848214	-67.136481	-36.848214	-67.136481	-0.555261	119.613509
9.700000	-0.503187	-158.916721	-36.808036	-68.480794	-36.808036	-68.480794	-0.559698	118.324215
9.750000	-0.509363	-159.658516	-36.768968	-69.818834	-36.768968	-69.818834	-0.564116	117.030421
9.800000	-0.515587	-160.401423	-36.730997	-71.150521	-36.730997	-71.150521	-0.568512	115.732133
9.850000	-0.521857	-161.145487	-36.694109	-72.475776	-36.694109	-72.475776	-0.572885	114.429359
9.900000	-0.528173	-161.890753	-36.658291	-73.794520	-36.658291	-73.794520	-0.577234	113.122114
9.950000	-0.534535	-162.637267	-36.623529	-75.106678	-36.623529	-75.106678	-0.581558	111.810415
10.000000	-0.540942	-163.385074	-36.589809	-76.412177	-36.589809	-76.412177	-0.585854	110.494283
