! freq	dB(S11)	phase(S11)	dB(S12)	phase(S12)	
!     	dB(S21)	phase(S21)	dB(S22)	phase(S22)	
!S-par simulation data
#  GHz  S  DB  R 50
0.000000	-84.862550	0.000000	-0.000496	0.000000	-0.000496	0.000000	-84.862550	0.000000
0.050000	-34.491266	-91.139469	-0.015819	-3.212203	-0.015819	-3.212203	-34.491472	-91.141960
0.100000	-28.649754	-95.100172	-0.025076	-6.354966	-0.025076	-6.354966	-28.649963	-95.104388
0.150000	-25.207804	-98.789369	-0.036035	-9.496755	-0.036035	-9.496755	-25.208020	-98.795617
0.200000	-22.772969	-102.266946	-0.049636	-12.630847	-0.049636	-12.630847	-22.773188	-102.275288
0.250000	-20.899347	-105.620669	-0.065721	-15.755517	-0.065721	-15.755517	-20.899567	-105.631122
0.300000	-19.385247	-108.894332	-0.084128	-18.870222	-0.084128	-18.870222	-19.385467	-108.906898
0.350000	-18.121664	-112.112568	-0.104679	-21.974627	-0.104679	-21.974627	-18.121884	-112.127246
0.400000	-17.043731	-115.289029	-0.127228	-25.068068	-0.127228	-25.068068	-17.043952	-115.305818
0.450000	-16.110220	-118.431765	-0.151640	-28.149521	-0.151640	-28.149521	-16.110441	-118.450661
0.500000	-15.291925	-121.547151	-0.177662	-31.218542	-0.177662	-31.218542	-15.292147	-121.568153
0.550000	-14.568309	-124.638887	-0.205055	-34.274631	-0.205055	-34.274631	-14.568531	-124.661994
0.600000	-13.924306	-127.709359	-0.233569	-37.317376	-0.233569	-37.317376	-13.924529	-127.734568
0.650000	-13.348925	-130.759912	-0.262951	-40.346277	-0.262951	-40.346277	-13.349148	-130.787224
0.700000	-12.833114	-133.791954	-0.292916	-43.361339	-0.292916	-43.361339	-12.833338	-133.821367
0.750000	-12.369486	-136.806752	-0.323180	-46.362862	-0.323180	-46.362862	-12.369711	-136.838264
0.800000	-11.952350	-139.805231	-0.353469	-49.351146	-0.353469	-49.351146	-11.952576	-139.838841
0.850000	-11.577250	-142.788190	-0.383508	-52.326577	-0.383508	-52.326577	-11.577476	-142.823896
0.900000	-11.240620	-145.756453	-0.413010	-55.289699	-0.413010	-55.289699	-11.240847	-145.794251
0.950000	-10.938950	-148.711284	-0.441719	-58.241542	-0.441719	-58.241542	-10.939177	-148.751168
1.000000	-10.669589	-151.653831	-0.469376	-61.183127	-0.469376	-61.183127	-10.669817	-151.695794
1.050000	-10.430330	-154.585354	-0.495737	-64.115640	-0.495737	-64.115640	-10.430559	-154.629386
1.100000	-10.219336	-157.507229	-0.520568	-67.040427	-0.520568	-67.040427	-10.219566	-157.553319
1.150000	-10.035413	-160.420868	-0.543616	-69.958929	-0.543616	-69.958929	-10.035644	-160.469000
1.200000	-9.877537	-163.327897	-0.564646	-72.872825	-0.564646	-72.872825	-9.877768	-163.378051
1.250000	-9.742184	-166.230565	-0.583725	-75.784189	-0.583725	-75.784189	-9.742415	-166.282720
1.300000	-9.633308	-169.129987	-0.600185	-78.694661	-0.600185	-78.694661	-9.633540	-169.184111
1.350000	-9.545693	-172.028608	-0.614378	-81.606347	-0.614378	-81.606347	-9.545926	-172.084669
1.400000	-9.482492	-174.928491	-0.625765	-84.521810	-0.625765	-84.521810	-9.482724	-174.986444
1.450000	-9.441453	-177.831621	-0.634484	-87.442980	-0.634484	-87.442980	-9.441684	-177.891418
1.500000	-9.423604	179.259559	-0.640323	-90.372629	-0.640323	-90.372629	-9.423834	179.197982
1.550000	-9.429770	176.342545	-0.643145	-93.313597	-0.643145	-93.313597	-9.429999	176.279263
1.600000	-9.458736	173.415635	-0.643122	-96.267676	-0.643122	-96.267676	-9.458962	173.350734
1.650000	-9.514720	170.474707	-0.639812	-99.239907	-0.639812	-99.239907	-9.514942	170.408304
1.700000	-9.595025	167.519369	-0.633682	-102.230585	-0.633682	-102.230585	-9.595242	167.451586
1.750000	-9.703827	164.545540	-0.624445	-105.244867	-0.624445	-105.244867	-9.704037	164.476542
1.800000	-9.842364	161.551122	-0.612243	-108.285522	-0.612243	-108.285522	-9.842564	161.481107
1.850000	-10.013116	158.533593	-0.597168	-111.356023	-0.597168	-111.356023	-10.013304	158.462802
1.900000	-10.219533	155.490120	-0.579321	-114.460390	-0.579321	-114.460390	-10.219706	155.418859
1.950000	-10.465526	152.417989	-0.558880	-117.602502	-0.558880	-117.602502	-10.465682	152.346639
2.000000	-10.755503	149.314650	-0.536099	-120.785876	-0.536099	-120.785876	-10.755640	149.243672
2.050000	-11.095277	146.177332	-0.511251	-124.014514	-0.511251	-124.014514	-11.095392	146.107291
2.100000	-11.490949	143.005208	-0.484704	-127.291215	-0.484704	-127.291215	-11.491034	142.936796
2.150000	-11.953524	139.797174	-0.456776	-130.622346	-0.456776	-130.622346	-11.953563	139.731341
2.200000	-12.494460	136.556843	-0.427962	-134.011390	-0.427962	-134.011390	-12.494431	136.494872
2.250000	-13.130345	133.289781	-0.398809	-137.463011	-0.398809	-137.463011	-13.130221	133.233445
2.300000	-13.882921	130.005961	-0.369948	-140.980981	-0.369948	-140.980981	-13.882658	129.957724
2.350000	-14.783327	126.722662	-0.342092	-144.569466	-0.342092	-144.569466	-14.782860	126.686094
2.400000	-15.877341	123.471746	-0.316052	-148.232480	-0.316052	-148.232480	-15.876555	123.452281
2.450000	-17.236344	120.314840	-0.292736	-151.973810	-0.292736	-151.973810	-17.235021	120.321300
2.500000	-18.980982	117.381429	-0.273158	-155.796912	-0.273158	-155.796912	-18.978651	117.429469
2.550000	-21.342265	114.999800	-0.258507	-159.705754	-0.258507	-159.705754	-21.337683	115.121903
2.600000	-24.843414	114.205058	-0.249977	-163.701876	-0.249977	-163.701876	-24.832032	114.484231
2.650000	-31.154682	120.942681	-0.248903	-167.786994	-0.248903	-167.786994	-31.101748	121.701022
2.700000	-38.585473	-143.292694	-0.256716	-171.961969	-0.256716	-171.961969	-38.283092	-144.563869
2.750000	-27.690317	-101.040634	-0.274929	-176.226664	-0.274929	-176.226664	-27.665399	-101.937485
2.800000	-22.351866	-99.187821	-0.305120	179.420201	-0.305120	179.420201	-22.344812	-99.787569
2.850000	-18.929283	-101.293085	-0.349027	174.980498	-0.349027	174.980498	-18.926324	-101.778857
2.900000	-16.398965	-104.586006	-0.408221	170.458677	-0.408221	170.458677	-16.397555	-105.013966
2.950000	-14.388814	-108.425398	-0.484260	165.860325	-0.484260	165.860325	-14.388155	-108.819972
3.000000	-12.723172	-112.577976	-0.578669	161.192208	-0.578669	161.192208	-12.722936	-112.952008
3.050000	-11.305565	-116.934353	-0.692863	156.462431	-0.692863	156.462431	-11.305594	-117.295458
3.100000	-10.077407	-121.433228	-0.828110	151.680316	-0.828110	151.680316	-10.077616	-121.786321
3.150000	-9.000482	-126.035272	-0.985596	146.856029	-0.985596	146.856029	-9.000821	-126.383753
3.200000	-8.048457	-130.711165	-1.166182	142.000854	-1.166182	142.000854	-8.048897	-131.057497
3.250000	-7.202142	-135.437505	-1.370377	137.126557	-1.370377	137.126557	-7.202662	-135.783547
3.300000	-6.447041	-140.195069	-1.598557	132.244763	-1.598557	132.244763	-6.447628	-140.542286
3.350000	-5.771795	-144.967211	-1.850860	127.366837	-1.850860	127.366837	-5.772441	-145.316796
3.400000	-5.167203	-149.739383	-2.127206	122.503558	-2.127206	122.503558	-5.167901	-150.092340
3.450000	-4.625661	-154.498876	-2.427360	117.664914	-2.427360	117.664914	-4.626408	-154.856073
3.500000	-4.140754	-159.234623	-2.750934	112.859975	-2.750934	112.859975	-4.141547	-159.596827
3.550000	-3.706534	-163.937779	-3.097283	108.095981	-3.097283	108.095981	-3.707371	-164.305679
3.600000	-3.317921	-168.601168	-3.465820	103.378978	-3.465820	103.378978	-3.318801	-168.975398
3.650000	-2.970638	-173.218790	-3.855976	98.714180	-3.855976	98.714180	-2.971562	-173.599950
3.700000	-2.659925	-177.788152	-4.267133	94.103303	-4.267133	94.103303	-2.660893	-178.176798
3.750000	-2.382508	177.693844	-4.698898	89.549103	-4.698898	89.549103	-2.383521	177.297165
3.800000	-2.135496	173.229303	-5.150830	85.053496	-5.150830	85.053496	-2.136555	172.824045
3.850000	-1.915358	168.816780	-5.622753	80.614767	-5.622753	80.614767	-1.916465	168.402415
3.900000	-1.719365	164.454901	-6.114687	76.231509	-6.114687	76.231509	-1.720521	164.030903
3.950000	-1.545061	160.141404	-6.626877	71.901531	-6.626877	71.901531	-1.546269	159.707243
4.000000	-1.390239	155.873287	-7.159814	67.622013	-7.159814	67.622013	-1.391502	155.428427
4.050000	-1.252920	151.646945	-7.714269	63.389639	-7.714269	63.389639	-1.254241	151.190838
4.100000	-1.131337	147.458290	-8.291312	59.200720	-8.291312	59.200720	-1.132719	146.990375
4.150000	-1.023911	143.302857	-8.892349	55.051314	-8.892349	55.051314	-1.025356	142.822556
4.200000	-0.929234	139.175892	-9.519159	50.937316	-9.519159	50.937316	-0.930749	138.682604
4.250000	-0.846059	135.072420	-10.173934	46.854549	-10.173934	46.854549	-0.847646	134.565524
4.300000	-0.773273	130.987307	-10.859338	42.798841	-10.859338	42.798841	-0.774938	130.466153
4.350000	-0.709893	126.915298	-11.578575	38.766079	-11.578575	38.766079	-0.711641	126.379204
4.400000	-0.655125	122.851069	-12.335177	34.752437	-12.335177	34.752437	-0.656963	122.299314
4.450000	-0.608176	118.789012	-13.133621	30.753962	-13.133621	30.753962	-0.610110	118.220834
4.500000	-0.568274	114.723549	-13.979591	26.766832	-13.979591	26.766832	-0.570313	114.138150
4.550000	-0.534813	110.649110	-14.879550	22.787640	-14.879550	22.787640	-0.536964	110.045645
4.600000	-0.507253	106.560032	-15.841243	18.813172	-15.841243	18.813172	-0.509527	105.937603
4.650000	-0.485112	102.450534	-16.873995	14.840333	-16.873995	14.840333	-0.487521	101.808182
4.700000	-0.467960	98.314674	-17.989115	10.865945	-17.989115	10.865945	-0.470515	97.651375
4.750000	-0.455411	94.146300	-19.200399	6.886320	-19.200399	6.886320	-0.458127	93.460954
4.800000	-0.447116	89.938983	-20.524800	2.896323	-20.524800	2.896323	-0.450010	89.230406
4.850000	-0.442763	85.685936	-21.983257	-1.112598	-21.983257	-1.112598	-0.445853	84.952850
4.900000	-0.442072	81.379909	-23.601669	-5.156652	-23.601669	-5.156652	-0.445379	80.620928
4.950000	-0.444793	77.013063	-25.411814	-9.269001	-25.411814	-9.269001	-0.448343	76.226676
5.000000	-0.450714	72.576813	-27.451440	-13.520647	-27.451440	-13.520647	-0.454534	71.761367
5.050000	-0.459864	68.055182	-29.732810	-18.116529	-29.732810	-18.116529	-0.463991	67.208719
5.100000	-0.471651	63.451615	-32.338121	-23.343015	-32.338121	-23.343015	-0.476119	62.572305
5.150000	-0.486362	58.743710	-35.181863	-30.106380	-35.181863	-30.106380	-0.491218	57.829274
5.200000	-0.504026	53.917810	-37.961471	-40.033647	-37.961471	-40.033647	-0.509322	52.965718
5.250000	-0.524805	48.958856	-39.786923	-54.288962	-39.786923	-54.288962	-0.530606	47.966299
5.300000	-0.549122	43.847482	-39.450725	-69.135517	-39.450725	-69.135517	-0.555503	42.811283
5.350000	-0.577719	38.560787	-37.055048	-78.601578	-37.055048	-78.601578	-0.584771	37.477326
5.400000	-0.611807	33.071574	-33.707000	-83.345470	-33.707000	-83.345470	-0.619640	31.936691
5.450000	-0.653378	27.344825	-30.156895	-86.640945	-30.156895	-86.640945	-0.662130	26.153653
5.500000	-0.705393	21.342301	-26.740000	-90.213870	-26.740000	-90.213870	-0.715231	20.089165
5.550000	-0.772265	15.019561	-23.562509	-94.562627	-23.562509	-94.562627	-0.783403	13.697793
5.600000	-0.860600	8.323911	-20.634057	-99.771990	-20.634057	-99.771990	-0.873306	6.925559
5.650000	-0.980073	1.196370	-17.936267	-105.831242	-17.936267	-105.831242	-0.994693	-0.288158
5.700000	-1.144622	-6.425318	-15.447419	-112.727647	-15.447419	-112.727647	-1.161608	-8.007738
5.750000	-1.373903	-14.599833	-13.151862	-120.462900	-13.151862	-120.462900	-1.393860	-16.294662
5.800000	-1.694523	-23.368010	-11.044074	-129.041075	-11.044074	-129.041075	-1.718272	-25.193463
5.850000	-2.142986	-32.741417	-9.125424	-138.459604	-9.125424	-138.459604	-2.171684	-34.721145
5.900000	-2.762565	-42.655322	-7.411394	-148.655948	-7.411394	-148.655948	-2.797880	-44.820299
5.950000	-3.601213	-52.948099	-5.920218	-159.492892	-5.920218	-159.492892	-3.645634	-55.339781
6.000000	-4.708154	-63.346427	-4.665855	-170.752812	-4.665855	-170.752812	-4.765574	-66.022110
6.050000	-6.129226	-73.463440	-3.651832	177.847416	-3.651832	177.847416	-6.206089	-76.505135
6.100000	-7.906606	-82.804378	-2.866912	166.610045	-2.866912	166.610045	-8.014355	-86.334944
6.150000	-10.087940	-90.757474	-2.283323	155.791074	-2.283323	155.791074	-10.248789	-94.966860
6.200000	-12.745602	-96.398728	-1.865589	145.565101	-1.865589	145.565101	-13.008268	-101.592899
6.250000	-15.999375	-97.993941	-1.575084	136.006575	-1.575084	136.006575	-16.488387	-104.626440
6.300000	-19.879786	-90.917692	-1.380051	127.138534	-1.380051	127.138534	-20.966128	-99.070313
6.350000	-23.297389	-66.279186	-1.251611	118.911272	-1.251611	118.911272	-25.583140	-69.775565
6.400000	-22.988661	-33.329471	-1.169183	111.261707	-1.169183	111.261707	-24.671043	-26.300104
6.450000	-20.491594	-16.849179	-1.117890	104.119435	-1.117890	104.119435	-21.206865	-9.714724
6.500000	-18.304531	-12.185569	-1.087295	97.415925	-1.087295	97.415925	-18.652351	-6.708297
6.550000	-16.680643	-12.360696	-1.070231	91.088988	-1.070231	91.088988	-16.878445	-8.091894
6.600000	-15.473603	-14.606701	-1.061854	85.084349	-1.061854	85.084349	-15.598831	-11.153960
6.650000	-14.556349	-17.828850	-1.058926	79.355689	-1.058926	79.355689	-14.641595	-14.945275
6.700000	-13.847297	-21.548847	-1.059366	73.870493	-1.059366	73.870493	-13.908500	-19.075138
6.750000	-13.283560	-25.510750	-1.061639	68.582640	-1.061639	68.582640	-13.328973	-23.347862
6.800000	-12.831020	-29.602013	-1.064938	63.471536	-1.064938	63.471536	-12.865601	-27.678742
6.850000	-12.463358	-33.753359	-1.068697	58.514229	-1.068697	58.514229	-12.490179	-32.018748
6.900000	-12.162233	-37.925358	-1.072566	53.692706	-1.072566	53.692706	-12.183304	-36.341420
6.950000	-11.913642	-42.094826	-1.076335	48.990225	-1.076335	48.990225	-11.930321	-40.632819
7.000000	-11.706883	-46.248852	-1.079892	44.391667	-1.079892	44.391667	-11.720115	-44.886659
7.050000	-11.534296	-50.380260	-1.083179	39.885367	-1.083179	39.885367	-11.544761	-49.100283
7.100000	-11.390015	-54.485271	-1.086171	35.461301	-1.086171	35.461301	-11.398220	-53.273268
7.150000	-11.269514	-58.562225	-1.088861	31.110803	-1.088861	31.110803	-11.275841	-57.406503
7.200000	-11.169279	-62.610799	-1.091247	26.826324	-1.091247	26.826324	-11.174024	-61.501632
7.250000	-11.086580	-66.631511	-1.093330	22.601247	-1.093330	22.601247	-11.089974	-65.560724
7.300000	-11.019296	-70.625419	-1.095111	18.429723	-1.095111	18.429723	-11.021525	-69.586064
7.350000	-10.965792	-74.593910	-1.096584	14.306545	-1.096584	14.306545	-10.967004	-73.580033
7.400000	-10.924818	-78.538580	-1.097739	10.227040	-1.097739	10.227040	-10.925139	-77.545035
7.450000	-10.895444	-82.461147	-1.098561	6.186979	-1.098561	6.186979	-10.894975	-81.483452
7.500000	-10.876995	-86.363401	-1.099030	2.182506	-1.099030	2.182506	-10.875825	-85.397623
7.550000	-10.869234	-90.246804	-1.099112	-1.789308	-1.099112	-1.789308	-10.867438	-89.289400
7.600000	-10.871656	-94.113638	-1.098788	-5.732510	-1.098788	-5.732510	-10.869300	-93.161526
7.650000	-10.884143	-97.965740	-1.098026	-9.650163	-1.098026	-9.650163	-10.881284	-97.016153
7.700000	-10.906710	-101.804941	-1.096796	-13.545155	-1.096796	-13.545155	-10.903399	-100.855377
7.750000	-10.939484	-105.633063	-1.095066	-17.420226	-1.095066	-17.420226	-10.935766	-104.681239
7.800000	-10.982695	-109.451917	-1.092805	-21.277997	-1.092805	-21.277997	-10.978612	-108.495732
7.850000	-11.036666	-113.263303	-1.089985	-25.120989	-1.089985	-25.120989	-11.032257	-112.300808
7.900000	-11.101807	-117.069015	-1.086580	-28.951641	-1.086580	-28.951641	-11.097106	-116.098385
7.950000	-11.179727	-120.870616	-1.082508	-32.771546	-1.082508	-32.771546	-11.174770	-119.889962
8.000000	-11.268934	-124.670532	-1.077868	-36.584749	-1.077868	-36.584749	-11.263747	-123.678355
8.050000	-11.371042	-128.470193	-1.072598	-40.392614	-1.072598	-40.392614	-11.365654	-127.464902
8.100000	-11.486787	-132.271405	-1.066698	-44.197374	-1.066698	-44.197374	-11.481224	-131.251451
8.150000	-11.615271	-136.075306	-1.060253	-48.001054	-1.060253	-48.001054	-11.609556	-135.039362
8.200000	-11.760936	-139.884934	-1.053110	-51.805914	-1.053110	-51.805914	-11.755098	-138.831273
8.250000	-11.923003	-143.701690	-1.045383	-55.614230	-1.045383	-55.614230	-11.917068	-142.628800
8.300000	-12.102603	-147.527484	-1.037110	-59.428120	-1.037110	-59.428120	-12.096598	-146.433835
8.350000	-12.300992	-151.364266	-1.028337	-63.249677	-1.028337	-63.249677	-12.294945	-150.248300
8.400000	-12.519569	-155.214040	-1.019125	-67.080967	-1.019125	-67.080967	-12.513512	-154.074155
8.450000	-12.759896	-159.078870	-1.009544	-70.924030	-1.009544	-70.924030	-12.753868	-157.913408
8.500000	-13.023727	-162.960892	-0.999677	-74.780873	-0.999677	-74.780873	-13.017773	-161.768123
8.550000	-13.313036	-166.862330	-0.989620	-78.653468	-0.989620	-78.653468	-13.307210	-165.640433
8.600000	-13.630059	-170.785511	-0.979480	-82.543748	-0.979480	-82.543748	-13.624428	-169.532557
8.650000	-13.977340	-174.732893	-0.969376	-86.453602	-0.969376	-86.453602	-13.971989	-173.446820
8.700000	-14.357797	-178.707092	-0.959436	-90.384868	-0.959436	-90.384868	-14.352831	-177.385680
8.750000	-14.774792	177.289068	-0.949802	-94.339332	-0.949802	-94.339332	-14.770345	178.648225
8.800000	-15.232641	173.251697	-0.940633	-98.319301	-0.940633	-98.319301	-15.228883	174.651288
8.850000	-15.735526	169.177935	-0.932080	-102.325929	-0.932080	-102.325929	-15.732673	170.620862
8.900000	-16.288871	165.063745	-0.924303	-106.360811	-0.924303	-106.360811	-16.287198	166.553212
8.950000	-16.899177	160.904322	-0.917468	-110.425471	-0.917468	-110.425471	-16.899038	162.443886
9.000000	-17.574339	156.693733	-0.911739	-114.521372	-0.911739	-114.521372	-17.576194	158.287349
9.050000	-18.324098	152.424345	-0.907279	-118.649911	-0.907279	-118.649911	-18.328554	154.076411
9.100000	-19.160695	148.085901	-0.904247	-122.812433	-0.904247	-122.812433	-19.168567	149.801284
9.150000	-20.099854	143.663963	-0.902791	-127.010237	-0.902791	-127.010237	-20.112260	145.447992
9.200000	-21.162324	139.137402	-0.903047	-131.244556	-0.903047	-131.244556	-21.180846	140.995765
9.250000	-22.376340	134.471888	-0.905153	-135.516918	-0.905153	-135.516918	-22.403298	136.410383
9.300000	-23.781923	129.613827	-0.909192	-139.828238	-0.909192	-139.828238	-23.820876	131.637493
9.350000	-25.438961	124.466803	-0.915246	-144.179832	-0.915246	-144.179832	-25.495687	126.577996
9.400000	-27.441917	118.830218	-0.923407	-148.573849	-0.923407	-148.573849	-27.526562	121.022679
9.450000	-29.955011	112.253151	-0.933704	-153.011912	-0.933704	-153.011912	-30.087240	114.491356
9.500000	-33.303509	103.524672	-0.946096	-157.495044	-0.946096	-157.495044	-33.527120	105.656583
9.550000	-38.216158	87.879638	-0.960551	-162.025246	-0.960551	-162.025246	-38.639825	89.034596
9.600000	-44.934668	37.204148	-0.977004	-166.604839	-0.977004	-166.604839	-45.165856	32.446991
9.650000	-41.564282	-36.915879	-0.995361	-171.236547	-0.995361	-171.236547	-40.828259	-37.165067
9.700000	-36.448944	-59.713111	-1.015517	-175.924088	-1.015517	-175.924088	-35.888291	-57.413969
9.750000	-33.435201	-69.575134	-1.037382	179.326212	-1.037382	179.326212	-32.956738	-66.479544
9.800000	-31.535154	-76.283751	-1.060685	174.513908	-1.060685	174.513908	-31.078098	-72.649266
9.850000	-30.344321	-81.391683	-1.085321	169.631823	-1.085321	169.631823	-29.871355	-77.270133
9.900000	-29.677785	-85.437857	-1.111094	164.676494	-1.111094	164.676494	-29.157199	-80.806466
9.950000	-29.521087	-88.243388	-1.137986	159.632789	-1.137986	159.632789	-28.909695	-83.048713
10.000000	-29.815842	-89.522374	-1.165784	154.505919	-1.165784	154.505919	-29.058160	-83.729073
