! freq	dB(S11)	phase(S11)	dB(S12)	phase(S12)	
!     	dB(S21)	phase(S21)	dB(S22)	phase(S22)	
!S-par simulation data
#  GHz  S  DB  R 50
0.000000	0.000000	-0.000000	-295.884429	180.000000	-295.884429	180.000000	-0.000000	-0.000000
0.050000	-0.004729	-1.892708	-82.189949	88.196114	-82.189949	88.196114	-0.003381	-1.683010
0.100000	-0.008210	-3.747115	-76.181575	86.416143	-76.181575	86.416143	-0.006637	-3.336290
0.150000	-0.009923	-5.599617	-72.676697	84.659349	-72.676697	84.659349	-0.008417	-4.985259
0.200000	-0.011236	-7.453215	-70.197312	82.915540	-70.197312	82.915540	-0.009742	-6.634759
0.250000	-0.012524	-9.307040	-68.282048	81.180102	-68.282048	81.180102	-0.010984	-8.284676
0.300000	-0.013921	-11.160204	-66.725876	79.451693	-66.725876	79.451693	-0.012289	-9.934452
0.350000	-0.015449	-13.012232	-65.417489	77.729633	-65.417489	77.729633	-0.013696	-11.583707
0.400000	-0.017122	-14.862678	-64.292112	76.015099	-64.292112	76.015099	-0.015221	-13.232135
0.450000	-0.018936	-16.711216	-63.307525	74.309242	-63.307525	74.309242	-0.016866	-14.879516
0.500000	-0.020890	-18.557358	-62.436056	72.614355	-62.436056	72.614355	-0.018630	-16.525559
0.550000	-0.022961	-20.401004	-61.656207	70.931214	-61.656207	70.931214	-0.020495	-18.170206
0.600000	-0.025131	-22.242025	-60.952441	69.260875	-60.952441	69.260875	-0.022446	-19.813396
0.650000	-0.027386	-24.080259	-60.313187	67.604648	-60.313187	67.604648	-0.024471	-21.455058
0.700000	-0.029711	-25.915567	-59.729432	65.963847	-59.729432	65.963847	-0.026556	-23.095137
0.750000	-0.032093	-27.747828	-59.194013	64.339792	-59.194013	64.339792	-0.028691	-24.733597
0.800000	-0.034520	-29.576855	-58.701431	62.734296	-58.701431	62.734296	-0.030866	-26.370371
0.850000	-0.036980	-31.402326	-58.247702	61.150192	-58.247702	61.150192	-0.033071	-28.005332
0.900000	-0.039461	-33.224456	-57.827741	59.587157	-57.827741	59.587157	-0.035295	-29.638626
0.950000	-0.041952	-35.043175	-57.438210	58.046574	-57.438210	58.046574	-0.037531	-31.270256
1.000000	-0.044447	-36.858424	-57.076262	56.529840	-57.076262	56.529840	-0.039771	-32.900230
1.050000	-0.046938	-38.670149	-56.739442	55.038375	-56.739442	55.038375	-0.042012	-34.528560
1.100000	-0.049421	-40.478305	-56.425613	53.573615	-56.425613	53.573615	-0.044249	-36.155262
1.150000	-0.051888	-42.282582	-56.133645	52.139200	-56.133645	52.139200	-0.046478	-37.780238
1.200000	-0.054336	-44.083051	-55.861497	50.735944	-55.861497	50.735944	-0.048695	-39.403562
1.250000	-0.056764	-45.879838	-55.607217	49.364119	-55.607217	49.364119	-0.050899	-41.025328
1.300000	-0.059169	-47.672918	-55.369446	48.025223	-55.369446	48.025223	-0.053089	-42.645562
1.350000	-0.061550	-49.462269	-55.146945	46.720763	-55.146945	46.720763	-0.055265	-44.264293
1.400000	-0.063906	-51.247874	-54.938569	45.452242	-54.938569	45.452242	-0.057426	-45.881549
1.450000	-0.066237	-53.029697	-54.743300	44.221400	-54.743300	44.221400	-0.059572	-47.497355
1.500000	-0.068540	-54.807334	-54.560907	43.033951	-54.560907	43.033951	-0.061702	-49.111601
1.550000	-0.070819	-56.581197	-54.389514	41.887175	-54.389514	41.887175	-0.063818	-50.724482
1.600000	-0.073075	-58.351284	-54.228204	40.782474	-54.228204	40.782474	-0.065922	-52.336038
1.650000	-0.075308	-60.117600	-54.076091	39.721193	-54.076091	39.721193	-0.068015	-53.946308
1.700000	-0.077522	-61.880305	-53.932093	38.702755	-53.932093	38.702755	-0.070098	-55.555385
1.750000	-0.079714	-63.638978	-53.795982	37.733591	-53.795982	37.733591	-0.072172	-57.163175
1.800000	-0.081888	-65.393860	-53.666545	36.812168	-53.666545	36.812168	-0.074238	-58.769804
1.850000	-0.084046	-67.144972	-53.542917	35.939422	-53.542917	35.939422	-0.076299	-60.375327
1.900000	-0.086189	-68.892304	-53.424261	35.116641	-53.424261	35.116641	-0.078355	-61.979790
1.950000	-0.088320	-70.635890	-53.309684	34.344360	-53.309684	34.344360	-0.080410	-63.583257
2.000000	-0.090440	-72.375810	-53.198276	33.622288	-53.198276	33.622288	-0.082464	-65.185807
2.050000	-0.092552	-74.112109	-53.089160	32.950373	-53.089160	32.950373	-0.084519	-66.787510
2.100000	-0.094656	-75.844837	-52.981455	32.328229	-52.981455	32.328229	-0.086577	-68.388439
2.150000	-0.096756	-77.574052	-52.874282	31.755098	-52.874282	31.755098	-0.088640	-69.988675
2.200000	-0.098853	-79.299814	-52.766762	31.229814	-52.766762	31.229814	-0.090710	-71.588299
2.250000	-0.100949	-81.022191	-52.658030	30.750775	-52.658030	30.750775	-0.092787	-73.187400
2.300000	-0.103046	-82.741257	-52.547234	30.315917	-52.547234	30.315917	-0.094874	-74.786072
2.350000	-0.105145	-84.457092	-52.433548	29.922694	-52.433548	29.922694	-0.096972	-76.384411
2.400000	-0.107249	-86.169781	-52.316178	29.568073	-52.316178	29.568073	-0.099083	-77.982521
2.450000	-0.109359	-87.879414	-52.194372	29.248533	-52.194372	29.248533	-0.101208	-79.580509
2.500000	-0.111477	-89.586090	-52.067434	28.960082	-52.067434	28.960082	-0.103350	-81.178489
2.550000	-0.113604	-91.289851	-51.934542	28.698748	-51.934542	28.698748	-0.105509	-82.776585
2.600000	-0.115742	-92.990872	-51.795289	28.458986	-51.795289	28.458986	-0.107687	-84.374921
2.650000	-0.117893	-94.689267	-51.649199	28.235587	-51.649199	28.235587	-0.109885	-85.973627
2.700000	-0.120058	-96.385158	-51.495886	28.023066	-51.495886	28.023066	-0.112106	-87.572839
2.750000	-0.122239	-98.078672	-51.335062	27.815742	-51.335062	27.815742	-0.114350	-89.172697
2.800000	-0.124437	-99.769941	-51.166536	27.607823	-51.166536	27.607823	-0.116619	-90.773349
2.850000	-0.126653	-101.459104	-50.990219	27.393490	-50.990219	27.393490	-0.118913	-92.374947
2.900000	-0.128890	-103.146304	-50.806119	27.166993	-50.806119	27.166993	-0.121236	-93.977650
2.950000	-0.131147	-104.831692	-50.614342	26.922733	-50.614342	26.922733	-0.123587	-95.581622
3.000000	-0.133427	-106.515423	-50.415084	26.655345	-50.415084	26.655345	-0.125968	-97.187034
3.050000	-0.135730	-108.197656	-50.208621	26.359768	-50.208621	26.359768	-0.128381	-98.794062
3.100000	-0.138058	-109.878560	-49.995302	26.031303	-49.995302	26.031303	-0.130826	-100.402889
3.150000	-0.140416	-111.558167	-49.773887	25.659846	-49.773887	25.659846	-0.133311	-102.014014
3.200000	-0.142798	-113.236949	-49.548049	25.252221	-49.548049	25.252221	-0.135827	-103.627067
3.250000	-0.145208	-114.914937	-49.316746	24.800222	-49.316746	24.800222	-0.138379	-105.242510
3.300000	-0.147647	-116.592318	-49.080511	24.300966	-49.080511	24.300966	-0.140969	-106.860551
3.350000	-0.150117	-118.269286	-48.839893	23.752039	-48.839893	23.752039	-0.143599	-108.481402
3.400000	-0.152618	-119.946039	-48.595450	23.151477	-48.595450	23.151477	-0.146269	-110.105286
3.450000	-0.155152	-121.622779	-48.347740	22.497750	-48.347740	22.497750	-0.148981	-111.732430
3.500000	-0.157720	-123.299716	-48.097310	21.789730	-48.097310	21.789730	-0.151736	-113.363065
3.550000	-0.160321	-124.977062	-47.844698	21.026655	-47.844698	21.026655	-0.154535	-114.997434
3.600000	-0.162958	-126.655034	-47.590418	20.208098	-47.590418	20.208098	-0.157380	-116.635782
3.650000	-0.165631	-128.333857	-47.334963	19.333925	-47.334963	19.333925	-0.160271	-118.278362
3.700000	-0.168341	-130.013758	-47.078799	18.404259	-47.078799	18.404259	-0.163210	-119.925435
3.750000	-0.171089	-131.694968	-46.822363	17.419444	-46.822363	17.419444	-0.166197	-121.577268
3.800000	-0.173878	-133.377804	-46.565760	16.377667	-46.565760	16.377667	-0.169238	-123.234365
3.850000	-0.176706	-135.062451	-46.309708	15.282026	-46.309708	15.282026	-0.172329	-124.896801
3.900000	-0.179574	-136.749155	-46.054555	14.133335	-46.054555	14.133335	-0.175473	-126.564864
3.950000	-0.182484	-138.438168	-45.800619	12.932501	-45.800619	12.932501	-0.178671	-128.238848
4.000000	-0.185435	-140.129745	-45.548191	11.680494	-45.548191	11.680494	-0.181924	-129.919055
4.050000	-0.188429	-141.824146	-45.297535	10.378332	-45.297535	10.378332	-0.185232	-131.605793
4.100000	-0.191466	-143.521635	-45.048888	9.027057	-45.048888	9.027057	-0.188598	-133.299377
4.150000	-0.194547	-145.222480	-44.802466	7.627724	-44.802466	7.627724	-0.192021	-135.000130
4.200000	-0.197672	-146.926954	-44.558461	6.181384	-44.558461	6.181384	-0.195504	-136.708378
4.250000	-0.200842	-148.635333	-44.317044	4.689074	-44.317044	4.689074	-0.199046	-138.424459
4.300000	-0.204058	-150.347897	-44.078368	3.151810	-44.078368	3.151810	-0.202650	-140.148713
4.350000	-0.207319	-152.064929	-43.842569	1.570575	-43.842569	1.570575	-0.206315	-141.881490
4.400000	-0.210628	-153.786718	-43.609768	-0.053685	-43.609768	-0.053685	-0.210043	-143.623143
4.450000	-0.213983	-155.513555	-43.380069	-1.720067	-43.380069	-1.720067	-0.213834	-145.374035
4.500000	-0.217385	-157.245735	-43.153566	-3.427713	-43.153566	-3.427713	-0.217690	-147.134534
4.550000	-0.220836	-158.983555	-42.930340	-5.175815	-42.930340	-5.175815	-0.221611	-148.905012
4.600000	-0.224330	-160.726768	-42.710638	-6.960238	-42.710638	-6.960238	-0.225592	-150.684909
4.650000	-0.227878	-162.476820	-42.494129	-8.787509	-42.494129	-8.787509	-0.229645	-152.476579
4.700000	-0.231474	-164.233433	-42.281087	-10.653110	-42.281087	-10.653110	-0.233766	-154.279393
4.750000	-0.235119	-165.996916	-42.071559	-12.556448	-42.071559	-12.556448	-0.237953	-156.093749
4.800000	-0.238813	-167.767582	-41.865582	-14.496987	-41.865582	-14.496987	-0.242209	-157.920048
4.850000	-0.242556	-169.545746	-41.663192	-16.474243	-41.663192	-16.474243	-0.246533	-159.758696
4.900000	-0.246349	-171.331725	-41.464415	-18.487789	-41.464415	-18.487789	-0.250925	-161.610103
4.950000	-0.250191	-173.125838	-41.269275	-20.537252	-41.269275	-20.537252	-0.255385	-163.474685
5.000000	-0.254083	-174.928406	-41.077793	-22.622311	-41.077793	-22.622311	-0.259914	-165.352857
5.050000	-0.258024	-176.739948	-40.889977	-24.743462	-40.889977	-24.743462	-0.264512	-167.245356
5.100000	-0.262015	-178.560604	-40.705856	-26.899718	-40.705856	-26.899718	-0.269178	-169.152310
5.150000	-0.266055	179.609302	-40.525439	-29.090918	-40.525439	-29.090918	-0.273912	-171.074142
5.200000	-0.270143	177.769446	-40.348734	-31.316949	-40.348734	-31.316949	-0.278713	-173.011279
5.250000	-0.274280	175.919504	-40.175747	-33.577749	-40.175747	-33.577749	-0.283581	-174.964146
5.300000	-0.278465	174.059153	-40.006482	-35.873303	-40.006482	-35.873303	-0.288514	-176.933168
5.350000	-0.282697	172.188070	-39.840941	-38.203642	-39.840941	-38.203642	-0.293511	-178.918769
5.400000	-0.286977	170.305933	-39.679126	-40.568843	-39.679126	-40.568843	-0.298572	179.078630
5.450000	-0.291303	168.412422	-39.521034	-42.969028	-39.521034	-42.969028	-0.303695	177.058613
5.500000	-0.295675	166.507221	-39.366665	-45.404362	-39.366665	-45.404362	-0.308879	175.020767
5.550000	-0.300091	164.590016	-39.216015	-47.875054	-39.216015	-47.875054	-0.314120	172.964686
5.600000	-0.304553	162.660494	-39.069079	-50.381351	-39.069079	-50.381351	-0.319419	170.889970
5.650000	-0.309057	160.718209	-38.925865	-52.923936	-38.925865	-52.923936	-0.324772	168.796020
5.700000	-0.313605	158.762849	-38.786370	-55.503148	-38.786370	-55.503148	-0.330178	166.682442
5.750000	-0.318194	156.794255	-38.650569	-58.118964	-38.650569	-58.118964	-0.335632	164.549076
5.800000	-0.322824	154.812138	-38.518451	-60.771786	-38.518451	-60.771786	-0.341132	162.395571
5.850000	-0.327492	152.816214	-38.390000	-63.462048	-38.390000	-63.462048	-0.346675	160.221589
5.900000	-0.332199	150.806209	-38.265201	-66.190217	-38.265201	-66.190217	-0.352257	158.026811
5.950000	-0.336941	148.781857	-38.144033	-68.956788	-38.144033	-68.956788	-0.357874	155.810939
6.000000	-0.341719	146.742903	-38.026474	-71.762284	-38.026474	-71.762284	-0.363522	153.573694
6.050000	-0.346531	144.689100	-37.912497	-74.607253	-37.912497	-74.607253	-0.369197	151.314823
6.100000	-0.351374	142.620216	-37.802071	-77.492260	-37.802071	-77.492260	-0.374893	149.034101
6.150000	-0.356248	140.536029	-37.695162	-80.417892	-37.695162	-80.417892	-0.380606	146.731329
6.200000	-0.361150	138.436332	-37.591728	-83.384748	-37.591728	-83.384748	-0.386331	144.406342
6.250000	-0.366079	136.320934	-37.491723	-86.393436	-37.491723	-86.393436	-0.392062	142.059007
6.300000	-0.371034	134.189308	-37.395144	-89.445507	-37.395144	-89.445507	-0.397793	139.688739
6.350000	-0.376012	132.041638	-37.301880	-92.540666	-37.301880	-92.540666	-0.403518	137.295971
6.400000	-0.381012	129.877785	-37.211862	-95.679516	-37.211862	-95.679516	-0.409230	134.880691
6.450000	-0.386030	127.697629	-37.125011	-98.862650	-37.125011	-98.862650	-0.414923	132.442933
6.500000	-0.391067	125.501072	-37.041239	-102.090639	-37.041239	-102.090639	-0.420590	129.982776
6.550000	-0.396118	123.288036	-36.960446	-105.364022	-36.960446	-105.364022	-0.426224	127.500351
6.600000	-0.401184	121.058468	-36.882521	-108.683303	-36.882521	-108.683303	-0.431819	124.995840
6.650000	-0.406261	118.812339	-36.807341	-112.048936	-36.807341	-112.048936	-0.437366	122.469480
6.700000	-0.411347	116.549646	-36.734767	-115.461314	-36.734767	-115.461314	-0.442858	119.921564
6.750000	-0.416442	114.270412	-36.664649	-118.920762	-36.664649	-118.920762	-0.448289	117.352445
6.800000	-0.421543	111.974689	-36.596818	-122.427517	-36.596818	-122.427517	-0.453651	114.762535
6.850000	-0.426648	109.662558	-36.531092	-125.981724	-36.531092	-125.981724	-0.458937	112.152308
6.900000	-0.431756	107.333954	-36.467285	-129.583926	-36.467285	-129.583926	-0.464138	109.522094
6.950000	-0.436865	104.989025	-36.405174	-133.234018	-36.405174	-133.234018	-0.469248	106.872519
7.000000	-0.441975	102.628125	-36.344507	-136.931234	-36.344507	-136.931234	-0.474261	104.204468
7.050000	-0.447082	100.251462	-36.285035	-140.675160	-36.285035	-140.675160	-0.479170	101.518679
7.100000	-0.452188	97.859280	-36.226488	-144.465207	-36.226488	-144.465207	-0.483969	98.815952
7.150000	-0.457290	95.451856	-36.168583	-148.300591	-36.168583	-148.300591	-0.488654	96.097154
7.200000	-0.462388	93.029502	-36.111020	-152.180319	-36.111020	-152.180319	-0.493218	93.363214
7.250000	-0.467482	90.592565	-36.053488	-156.103171	-36.053488	-156.103171	-0.497657	90.615121
7.300000	-0.472571	88.141425	-35.995663	-160.067688	-35.995663	-160.067688	-0.501968	87.853926
7.350000	-0.477657	85.676502	-35.937214	-164.072161	-35.937214	-164.072161	-0.506147	85.080736
7.400000	-0.482738	83.198247	-35.877802	-168.114617	-35.877802	-168.114617	-0.510191	82.296712
7.450000	-0.487816	80.707148	-35.817085	-172.192817	-35.817085	-172.192817	-0.514100	79.503065
7.500000	-0.492893	78.203725	-35.754722	-176.304250	-35.754722	-176.304250	-0.517871	76.701055
7.550000	-0.497968	75.688293	-35.690318	179.553274	-35.690318	179.553274	-0.521501	73.891858
7.600000	-0.503045	73.161709	-35.623588	175.383546	-35.623588	175.383546	-0.524995	71.076999
7.650000	-0.508126	70.624595	-35.554222	171.189884	-35.554222	171.189884	-0.528355	68.257849
7.700000	-0.513212	68.077604	-35.481924	166.975847	-35.481924	166.975847	-0.531581	65.435808
7.750000	-0.518308	65.521417	-35.406420	162.745209	-35.406420	162.745209	-0.534679	62.612296
7.800000	-0.523416	62.956741	-35.327467	158.501934	-35.327467	158.501934	-0.537653	59.788748
7.850000	-0.528540	60.384310	-35.244847	154.250147	-35.244847	154.250147	-0.540507	56.966606
7.900000	-0.533685	57.804882	-35.158378	149.994095	-35.158378	149.994095	-0.543247	54.147317
7.950000	-0.538855	55.219234	-35.067916	145.738113	-35.067916	145.738113	-0.545882	51.332323
8.000000	-0.544055	52.628163	-34.973351	141.486578	-34.973351	141.486578	-0.548417	48.523056
8.050000	-0.549290	50.032481	-34.874615	137.243867	-34.874615	137.243867	-0.550861	45.720934
8.100000	-0.554566	47.433016	-34.771679	133.014317	-34.771679	133.014317	-0.553223	42.927352
8.150000	-0.559891	44.830584	-34.664492	128.802416	-34.664492	128.802416	-0.555513	40.143799
8.200000	-0.565270	42.226058	-34.553102	124.612420	-34.553102	124.612420	-0.557739	37.371656
8.250000	-0.570710	39.620322	-34.437651	120.448089	-34.437651	120.448089	-0.559914	34.612108
8.300000	-0.576218	37.014229	-34.318258	116.313165	-34.318258	116.313165	-0.562048	31.866405
8.350000	-0.581802	34.408633	-34.195069	112.211163	-34.195069	112.211163	-0.564153	29.135753
8.400000	-0.587469	31.804380	-34.068256	108.145340	-34.068256	108.145340	-0.566239	26.421303
8.450000	-0.593227	29.202314	-33.938013	104.118682	-33.938013	104.118682	-0.568318	23.724153
8.500000	-0.599085	26.603267	-33.804549	100.133885	-33.804549	100.133885	-0.570401	21.045345
8.550000	-0.605050	24.008057	-33.668089	96.193350	-33.668089	96.193350	-0.572500	18.385859
8.600000	-0.611132	21.417490	-33.528864	92.299179	-33.528864	92.299179	-0.574626	15.746614
8.650000	-0.617338	18.832351	-33.387113	88.453177	-33.387113	88.453177	-0.576791	13.128468
8.700000	-0.623677	16.253408	-33.243074	84.656855	-33.243074	84.656855	-0.579005	10.532211
8.750000	-0.630158	13.681402	-33.096984	80.911444	-33.096984	80.911444	-0.581278	7.958572
8.800000	-0.636794	11.117235	-32.948986	77.219043	-32.948986	77.219043	-0.583624	5.408732
8.850000	-0.643589	8.561445	-32.799403	73.579231	-32.799403	73.579231	-0.586051	2.882794
8.900000	-0.650553	6.014693	-32.648450	69.992451	-32.648450	69.992451	-0.588569	0.381287
8.950000	-0.657695	3.477606	-32.496332	66.458924	-32.496332	66.458924	-0.591186	-2.095322
9.000000	-0.665022	0.950783	-32.343243	62.978669	-32.343243	62.978669	-0.593912	-4.546629
9.050000	-0.672543	-1.565215	-32.189361	59.551515	-32.189361	59.551515	-0.596755	-6.972288
9.100000	-0.680267	-4.069859	-32.034853	56.177126	-32.034853	56.177126	-0.599724	-9.372012
9.150000	-0.688201	-6.562658	-31.879871	52.855012	-31.879871	52.855012	-0.602824	-11.745572
9.200000	-0.696355	-9.043154	-31.724552	49.584552	-31.724552	49.584552	-0.606064	-14.092789
9.250000	-0.704735	-11.510930	-31.569020	46.365004	-31.569020	46.365004	-0.609450	-16.413538
9.300000	-0.713349	-13.965604	-31.413387	43.195523	-31.413387	43.195523	-0.612987	-18.707744
9.350000	-0.722205	-16.406833	-31.257750	40.075177	-31.257750	40.075177	-0.616682	-20.975378
9.400000	-0.731314	-18.834158	-31.102164	37.003464	-31.102164	37.003464	-0.620541	-23.216165
9.450000	-0.740681	-21.247303	-30.946707	33.979271	-30.946707	33.979271	-0.624570	-25.430167
9.500000	-0.750311	-23.646190	-30.791468	31.000941	-30.791468	31.000941	-0.628770	-27.617769
9.550000	-0.760212	-26.030628	-30.636500	28.067298	-30.636500	28.067298	-0.633146	-29.779105
9.600000	-0.770389	-28.400461	-30.481843	25.177129	-30.481843	25.177129	-0.637700	-31.914343
9.650000	-0.780849	-30.755570	-30.327530	22.329193	-30.327530	22.329193	-0.642437	-34.023682
9.700000	-0.791598	-33.095872	-30.173588	19.522229	-30.173588	19.522229	-0.647358	-36.107349
9.750000	-0.802641	-35.421317	-30.020033	16.754957	-30.020033	16.754957	-0.652467	-38.165598
9.800000	-0.813985	-37.731888	-29.866876	14.026090	-29.866876	14.026090	-0.657765	-40.198705
9.850000	-0.825635	-40.027602	-29.714124	11.334333	-29.714124	11.334333	-0.663255	-42.206971
9.900000	-0.837596	-42.308507	-29.561776	8.678388	-29.561776	8.678388	-0.668937	-44.190714
9.950000	-0.849873	-44.574679	-29.409827	6.056956	-29.409827	6.056956	-0.674813	-46.150271
10.000000	-0.862471	-46.826228	-29.258271	3.468743	-29.258271	3.468743	-0.680885	-48.085993
