! freq	dB(S11)	phase(S11)	dB(S12)	phase(S12)	
!     	dB(S21)	phase(S21)	dB(S22)	phase(S22)	
!S-par simulation data
#  GHz  S  DB  R 50
0.000000	-80.566691	0.000000	-0.000814	0.000000	-0.000814	0.000000	-80.566691	0.000000
0.050000	-65.392339	-18.828617	-0.006850	-2.811105	-0.006850	-2.811105	-65.281003	-18.720201
0.100000	-63.347473	-45.031670	-0.012065	-5.576605	-0.012065	-5.576605	-63.099076	-43.676342
0.150000	-61.503981	-60.859313	-0.015996	-8.336126	-0.015996	-8.336126	-61.146654	-57.849223
0.200000	-60.053649	-71.609714	-0.019661	-11.092228	-0.019661	-11.092228	-59.603497	-66.736294
0.250000	-59.021856	-79.643081	-0.023165	-13.845084	-0.023165	-13.845084	-58.472772	-72.676984
0.300000	-58.419790	-86.063031	-0.026469	-16.595400	-0.026469	-16.595400	-57.741703	-76.618061
0.350000	-58.193446	-91.639903	-0.029603	-19.344353	-0.029603	-19.344353	-57.340941	-79.200725
0.400000	-58.494499	-96.575040	-0.032560	-22.092464	-0.032560	-22.092464	-57.354322	-80.058009
0.450000	-59.358777	-101.244900	-0.035411	-24.840411	-0.035411	-24.840411	-57.737902	-79.087217
0.500000	-61.128469	-105.952916	-0.038192	-27.588540	-0.038192	-27.588540	-58.556161	-75.048401
0.550000	-64.733382	-111.760987	-0.040936	-30.337129	-0.040936	-30.337129	-59.779459	-65.193888
0.600000	-74.436591	-128.152185	-0.043676	-33.086289	-0.043676	-33.086289	-60.935691	-46.523713
0.650000	-69.278886	78.699347	-0.046432	-35.836256	-0.046432	-35.836256	-60.350988	-18.752698
0.700000	-60.207206	67.336689	-0.049219	-38.587052	-0.049219	-38.587052	-57.700232	4.951021
0.750000	-55.222118	62.657103	-0.052042	-41.338741	-0.052042	-41.338741	-54.470304	18.825690
0.800000	-51.590974	59.111309	-0.054913	-44.091536	-0.054913	-44.091536	-51.408920	25.199577
0.850000	-48.748724	55.876669	-0.057825	-46.845326	-0.057825	-46.845326	-48.787761	28.320905
0.900000	-46.372522	52.767909	-0.060781	-49.600278	-0.060781	-49.600278	-46.494526	29.400714
0.950000	-44.327781	49.643789	-0.063779	-52.356422	-0.063779	-52.356422	-44.472469	29.256906
1.000000	-42.538723	46.429246	-0.066813	-55.113676	-0.066813	-55.113676	-42.680579	28.358852
1.050000	-40.910932	43.081100	-0.069889	-57.872285	-0.069889	-57.872285	-41.038143	26.816212
1.100000	-39.425398	39.648547	-0.073001	-60.632056	-0.073001	-60.632056	-39.536652	24.887654
1.150000	-38.045018	36.179948	-0.076155	-63.393046	-0.076155	-63.393046	-38.141555	22.681700
1.200000	-36.743306	32.725758	-0.079361	-66.155356	-0.079361	-66.155356	-36.826865	20.287235
1.250000	-35.525260	29.313253	-0.082621	-68.918815	-0.082621	-68.918815	-35.597729	17.795742
1.300000	-34.369736	25.961907	-0.085957	-71.683599	-0.085957	-71.683599	-34.432529	15.238292
1.350000	-33.278618	22.668730	-0.089377	-74.449624	-0.089377	-74.449624	-33.333053	12.643987
1.400000	-32.249698	19.426750	-0.092893	-77.216845	-0.092893	-77.216845	-32.296946	10.026481
1.450000	-31.268885	16.236752	-0.096539	-79.985478	-0.096539	-79.985478	-31.309869	7.389552
1.500000	-30.340563	13.085344	-0.100319	-82.755373	-0.100319	-82.755373	-30.376150	4.739347
1.550000	-29.458796	9.968089	-0.104254	-85.526597	-0.104254	-85.526597	-29.489707	2.077423
1.600000	-28.617465	6.881449	-0.108375	-88.299273	-0.108375	-88.299273	-28.644296	-0.595348
1.650000	-27.817018	3.818658	-0.112686	-91.073310	-0.112686	-91.073310	-27.840293	-3.276929
1.700000	-27.054912	0.776121	-0.117200	-93.848696	-0.117200	-93.848696	-27.075076	-5.966238
1.750000	-26.326125	-2.247499	-0.121950	-96.625552	-0.121950	-96.625552	-26.343542	-8.662940
1.800000	-25.629896	-5.255465	-0.126943	-99.403811	-0.126943	-99.403811	-25.644884	-11.365800
1.850000	-24.964248	-8.249705	-0.132194	-102.183452	-0.132194	-102.183452	-24.977078	-14.073992
1.900000	-24.327403	-11.231802	-0.137714	-104.964444	-0.137714	-104.964444	-24.338305	-16.786747
1.950000	-23.717757	-14.203069	-0.143516	-107.746742	-0.143516	-107.746742	-23.726929	-19.503354
2.000000	-23.133859	-17.164602	-0.149609	-110.530286	-0.149609	-110.530286	-23.141475	-22.223155
2.050000	-22.574398	-20.117321	-0.156004	-113.315007	-0.156004	-113.315007	-22.580604	-24.945546
2.100000	-22.038134	-23.061975	-0.162708	-116.100824	-0.162708	-116.100824	-22.043060	-27.669980
2.150000	-21.523967	-25.999210	-0.169729	-118.887648	-0.169729	-118.887648	-21.527723	-30.395945
2.200000	-21.031010	-28.929677	-0.177067	-121.675362	-0.177067	-121.675362	-21.033692	-33.122954
2.250000	-20.558350	-31.853878	-0.184724	-124.463852	-0.184724	-124.463852	-20.560043	-35.850577
2.300000	-20.105154	-34.772252	-0.192700	-127.252996	-0.192700	-127.252996	-20.105930	-38.578417
2.350000	-19.670653	-37.685188	-0.200991	-130.042665	-0.200991	-130.042665	-19.670577	-41.306108
2.400000	-19.254143	-40.593035	-0.209594	-132.832726	-0.209594	-132.832726	-19.253269	-44.033307
2.450000	-18.854972	-43.496106	-0.218499	-135.623043	-0.218499	-135.623043	-18.853348	-46.759697
2.500000	-18.472541	-46.394687	-0.227699	-138.413477	-0.227699	-138.413477	-18.470206	-49.484981
2.550000	-18.106306	-49.288982	-0.237184	-141.203888	-0.237184	-141.203888	-18.103296	-52.208855
2.600000	-17.755763	-52.179300	-0.246936	-143.994136	-0.246936	-143.994136	-17.752107	-54.931074
2.650000	-17.420432	-55.065871	-0.256937	-146.784090	-0.256937	-146.784090	-17.416153	-57.651391
2.700000	-17.099865	-57.948913	-0.267167	-149.573621	-0.267167	-149.573621	-17.094984	-60.369575
2.750000	-16.793649	-60.828639	-0.277605	-152.362609	-0.277605	-152.362609	-16.788181	-63.085406
2.800000	-16.501398	-63.705257	-0.288226	-155.150940	-0.288226	-155.150940	-16.495353	-65.798677
2.850000	-16.222750	-66.578974	-0.299004	-157.938513	-0.299004	-157.938513	-16.216137	-68.509194
2.900000	-15.957370	-69.450000	-0.309910	-160.725238	-0.309910	-160.725238	-15.950194	-71.216772
2.950000	-15.705001	-72.318528	-0.320914	-163.511026	-0.320914	-163.511026	-15.697261	-73.921209
3.000000	-15.465332	-75.184796	-0.331984	-166.295820	-0.331984	-166.295820	-15.457027	-76.622357
3.050000	-15.238064	-78.049046	-0.343084	-169.079575	-0.343084	-169.079575	-15.229188	-79.320082
3.100000	-15.022942	-80.911525	-0.354180	-171.862264	-0.354180	-171.862264	-15.013485	-82.014246
3.150000	-14.819725	-83.772489	-0.365236	-174.643873	-0.365236	-174.643873	-14.809678	-84.704725
3.200000	-14.628192	-86.632215	-0.376215	-177.424409	-0.376215	-177.424409	-14.617539	-87.391402
3.250000	-14.448136	-89.490997	-0.387079	179.796101	-0.387079	179.796101	-14.436860	-90.074174
3.300000	-14.279363	-92.349151	-0.397790	177.017613	-0.397790	177.017613	-14.267444	-92.752948
3.350000	-14.121977	-95.207015	-0.408303	174.240088	-0.408303	174.240088	-14.109389	-95.427500
3.400000	-13.975352	-98.064969	-0.418591	171.463389	-0.418591	171.463389	-13.962071	-98.097990
3.450000	-13.839522	-100.923394	-0.428614	168.687428	-0.428614	168.687428	-13.825518	-100.764262
3.500000	-13.714345	-103.782709	-0.438333	165.912078	-0.438333	165.912078	-13.699586	-103.426258
3.550000	-13.599696	-106.643361	-0.447715	163.137193	-0.447715	163.137193	-13.584146	-106.083931
3.600000	-13.495460	-109.505828	-0.456725	160.362604	-0.456725	160.362604	-13.479080	-108.737238
3.650000	-13.401533	-112.370623	-0.465331	157.588127	-0.465331	157.588127	-13.384280	-111.386139
3.700000	-13.317824	-115.238289	-0.473502	154.813557	-0.473502	154.813557	-13.299652	-114.030598
3.750000	-13.244254	-118.109407	-0.481210	152.038673	-0.481210	152.038673	-13.225112	-116.670579
3.800000	-13.180962	-120.984698	-0.488416	149.263221	-0.488416	149.263221	-13.160796	-119.305945
3.850000	-13.127685	-123.864742	-0.495109	146.486954	-0.495109	146.486954	-13.106437	-121.936748
3.900000	-13.084376	-126.750237	-0.501266	143.709604	-0.501266	143.709604	-13.061982	-124.562937
3.950000	-13.050997	-129.641919	-0.506871	140.930894	-0.506871	140.930894	-13.027391	-127.184450
4.000000	-13.027521	-132.540566	-0.511908	138.150534	-0.511908	138.150534	-13.002631	-129.801208
4.050000	-13.013932	-135.447000	-0.516367	135.368227	-0.516367	135.368227	-12.987680	-132.413115
4.100000	-13.010222	-138.362088	-0.520238	132.583666	-0.520238	132.583666	-12.982526	-135.020052
4.150000	-13.016395	-141.286744	-0.523518	129.796541	-0.523518	129.796541	-12.987165	-137.621872
4.200000	-13.032460	-144.221931	-0.526205	127.006540	-0.526205	127.006540	-13.001603	-140.218398
4.250000	-13.058437	-147.168663	-0.528302	124.213345	-0.528302	124.213345	-13.025852	-142.809414
4.300000	-13.094354	-150.128009	-0.529815	121.416642	-0.529815	121.416642	-13.059933	-145.394660
4.350000	-13.140244	-153.101093	-0.530753	118.616119	-0.530753	118.616119	-13.103872	-147.973832
4.400000	-13.196250	-156.089278	-0.531123	115.811419	-0.531123	115.811419	-13.157804	-150.546492
4.450000	-13.262413	-159.093858	-0.530944	113.002230	-0.530944	113.002230	-13.221763	-153.112204
4.500000	-13.338673	-162.115993	-0.530242	110.188305	-0.530242	110.188305	-13.295681	-155.670543
4.550000	-13.425076	-165.157078	-0.529040	107.369362	-0.529040	107.369362	-13.379597	-158.220941
4.600000	-13.521669	-168.218587	-0.527365	104.545131	-0.527365	104.545131	-13.473549	-160.762750
4.650000	-13.628495	-171.302077	-0.525248	101.715357	-0.525248	101.715357	-13.577572	-163.295232
4.700000	-13.745590	-174.409195	-0.522720	98.879799	-0.522720	98.879799	-13.691696	-165.817556
4.750000	-13.872984	-177.541683	-0.519816	96.038235	-0.519816	96.038235	-13.815942	-168.328789
4.800000	-14.010691	179.298612	-0.516574	93.190461	-0.516574	93.190461	-13.950318	-170.827894
4.850000	-14.158712	176.109737	-0.513033	90.336293	-0.513033	90.336293	-14.094819	-173.313717
4.900000	-14.317023	172.889625	-0.509234	87.475568	-0.509234	87.475568	-14.249417	-175.784992
4.950000	-14.485571	169.636086	-0.505220	84.608145	-0.505220	84.608145	-14.414059	-178.240334
5.000000	-14.664273	166.346809	-0.501032	81.733903	-0.501032	81.733903	-14.588659	179.321764
5.050000	-14.853117	163.018464	-0.496715	78.852595	-0.496715	78.852595	-14.773214	176.903377
5.100000	-15.051774	159.649257	-0.492314	75.964297	-0.492314	75.964297	-14.967403	174.505869
5.150000	-15.259994	156.236495	-0.487875	73.068958	-0.487875	73.068958	-15.170993	172.131079
5.200000	-15.477456	152.777383	-0.483440	70.166551	-0.483440	70.166551	-15.383688	169.780930
5.250000	-15.703749	149.269036	-0.479053	67.257068	-0.479053	67.257068	-15.605110	167.457398
5.300000	-15.938361	145.708518	-0.474755	64.340523	-0.474755	64.340523	-15.834794	165.162486
5.350000	-16.180662	142.092881	-0.470584	61.416947	-0.470584	61.416947	-16.072168	162.898166
5.400000	-16.429882	138.419233	-0.466581	58.486388	-0.466581	58.486388	-16.316544	160.666330
5.450000	-16.685101	134.684816	-0.462779	55.548909	-0.462779	55.548909	-16.567100	158.468704
5.500000	-16.945222	130.887120	-0.459212	52.604587	-0.459212	52.604587	-16.822862	156.306752
5.550000	-17.208957	127.024023	-0.455912	49.653507	-0.455912	49.653507	-17.082692	154.181563
5.600000	-17.474808	123.093957	-0.452906	46.695763	-0.452906	46.695763	-17.345274	152.093700
5.650000	-17.740945	119.095387	-0.450223	43.731383	-0.450223	43.731383	-17.609004	150.043434
5.700000	-18.005344	115.028577	-0.447885	40.760469	-0.447885	40.760469	-17.872108	148.029688
5.750000	-18.265893	110.895866	-0.445909	37.783192	-0.445909	37.783192	-18.132738	146.049875
5.800000	-18.520169	106.700467	-0.444309	34.799643	-0.444309	34.799643	-18.388769	144.100483
5.850000	-18.765547	102.447502	-0.443101	31.809910	-0.443101	31.809910	-18.637890	142.176447
5.900000	-18.999235	98.144283	-0.442293	28.814067	-0.442293	28.814067	-18.877621	140.270949
5.950000	-19.218329	93.800535	-0.441895	25.812173	-0.441895	25.812173	-19.105349	138.375261
6.000000	-19.419877	89.428529	-0.441913	22.804273	-0.441913	22.804273	-19.318374	136.478654
6.050000	-19.600966	85.043083	-0.442353	19.790392	-0.442353	19.790392	-19.513961	134.568404
6.100000	-19.758811	80.661396	-0.443217	16.770532	-0.443217	16.770532	-19.689405	132.629917
6.150000	-19.890848	76.302685	-0.444509	13.744675	-0.444509	13.744675	-19.842101	130.647007
6.200000	-19.994823	71.987633	-0.446232	10.712775	-0.446232	10.712775	-19.969609	128.602311
6.250000	-20.068865	67.737654	-0.448389	7.674761	-0.448389	7.674761	-20.069719	126.477862
6.300000	-20.110826	63.576373	-0.450994	4.630398	-0.450994	4.630398	-20.139822	124.253259
6.350000	-20.120406	59.522459	-0.454045	1.579692	-0.454045	1.579692	-20.178950	121.913306
6.400000	-20.097080	55.593900	-0.457550	-1.477509	-0.457550	-1.477509	-20.185848	119.442813
6.450000	-20.040738	51.805770	-0.461521	-4.541382	-0.461521	-4.541382	-20.159614	116.829072
6.500000	-19.951637	48.169581	-0.465975	-7.612130	-0.465975	-7.612130	-20.099695	114.062499
6.550000	-19.830348	44.692830	-0.470933	-10.689974	-0.470933	-10.689974	-20.005880	111.137119
6.600000	-19.677699	41.378787	-0.476419	-13.775155	-0.476419	-13.775155	-19.878286	108.050851
6.650000	-19.494729	38.226506	-0.482466	-16.867928	-0.482466	-16.867928	-19.717349	104.805568
6.700000	-19.282647	35.231049	-0.489112	-19.968558	-0.489112	-19.968558	-19.523813	101.406950
6.750000	-19.042814	32.383887	-0.496402	-23.077317	-0.496402	-23.077317	-19.298724	97.864118
6.800000	-18.776720	29.673434	-0.504389	-26.194475	-0.504389	-26.194475	-19.043424	94.189109
6.850000	-18.485985	27.085685	-0.513133	-29.320297	-0.513133	-29.320297	-18.759536	90.396224
6.900000	-18.171987	24.605865	-0.522714	-32.455134	-0.522714	-32.455134	-18.448549	86.500383
6.950000	-17.836598	22.216587	-0.533210	-35.599226	-0.533210	-35.599226	-18.112607	82.518802
7.000000	-17.482161	19.899507	-0.544698	-38.752677	-0.544698	-38.752677	-17.754455	78.469308
7.050000	-17.110748	17.637701	-0.557273	-41.915652	-0.557273	-41.915652	-17.376595	74.368063
7.100000	-16.724504	15.414990	-0.571037	-45.088273	-0.571037	-45.088273	-16.981635	70.230185
7.150000	-16.325619	13.216344	-0.586100	-48.270608	-0.586100	-48.270608	-16.572233	66.069407
7.200000	-15.916296	11.028159	-0.602578	-51.462665	-0.602578	-51.462665	-16.151043	61.897848
7.250000	-15.498720	8.838445	-0.620593	-54.664380	-0.620593	-54.664380	-15.720668	57.725922
7.300000	-15.075026	6.636912	-0.640275	-57.875615	-0.640275	-57.875615	-15.283616	53.562336
7.350000	-14.647273	4.414979	-0.661755	-61.096145	-0.661755	-61.096145	-14.842263	49.414180
7.400000	-14.217652	2.166087	-0.685147	-64.325562	-0.685147	-64.325562	-14.399080	45.286777
7.450000	-13.787411	-0.116036	-0.710640	-67.563689	-0.710640	-67.563689	-13.955496	41.185122
7.500000	-13.358638	-2.434855	-0.738341	-70.809862	-0.738341	-70.809862	-13.513782	37.112025
7.550000	-12.932726	-4.793478	-0.768408	-74.063532	-0.768408	-74.063532	-13.075446	33.070083
7.600000	-12.511316	-7.193020	-0.800948	-77.323876	-0.800948	-77.323876	-12.642218	29.060474
7.650000	-12.095690	-9.634045	-0.836084	-80.590054	-0.836084	-80.590054	-12.215429	25.084116
7.700000	-11.686986	-12.116308	-0.873931	-83.861114	-0.873931	-83.861114	-11.796243	21.141511
7.750000	-11.286208	-14.638893	-0.914593	-87.136005	-0.914593	-87.136005	-11.385666	17.232858
7.800000	-10.894228	-17.200334	-0.958161	-90.413573	-0.958161	-90.413573	-10.984560	13.358159
7.850000	-10.511748	-19.799001	-1.004736	-93.692575	-1.004736	-93.692575	-10.593603	9.517573
7.900000	-10.139465	-22.432395	-1.054363	-96.971656	-1.054363	-96.971656	-10.213464	5.710743
7.950000	-9.777927	-25.097882	-1.107075	-100.249409	-1.107075	-100.249409	-9.844657	1.937397
8.000000	-9.427563	-27.792739	-1.162895	-103.524373	-1.162895	-103.524373	-9.487573	-1.802621
8.050000	-9.088711	-30.514113	-1.221823	-106.795040	-1.221823	-106.795040	-9.142511	-5.509427
8.100000	-8.761626	-33.259078	-1.283836	-110.059873	-1.283836	-110.059873	-8.809688	-9.183083
8.150000	-8.446494	-36.024827	-1.348908	-113.317245	-1.348908	-113.317245	-8.489252	-12.823327
8.200000	-8.143449	-38.808346	-1.416968	-116.565565	-1.416968	-116.565565	-8.181301	-16.430117
8.250000	-7.852532	-41.606580	-1.487900	-119.803362	-1.487900	-119.803362	-7.885844	-20.003638
8.300000	-7.573730	-44.416725	-1.561588	-123.029138	-1.561588	-123.029138	-7.602834	-23.543777
8.350000	-7.306978	-47.236088	-1.637889	-126.241452	-1.637889	-126.241452	-7.332179	-27.050409
8.400000	-7.052166	-50.062104	-1.716643	-129.438926	-1.716643	-129.438926	-7.073741	-30.523404
8.450000	-6.809145	-52.892361	-1.797665	-132.620269	-1.797665	-132.620269	-6.827349	-33.962653
8.500000	-6.577733	-55.724609	-1.880753	-135.784281	-1.880753	-135.784281	-6.592797	-37.368071
8.550000	-6.357716	-58.556778	-1.965686	-138.929871	-1.965686	-138.929871	-6.369853	-40.739621
8.600000	-6.148857	-61.386983	-2.052226	-142.056066	-2.052226	-142.056066	-6.158262	-44.077316
8.650000	-5.950900	-64.213531	-2.140123	-145.162016	-2.140123	-145.162016	-5.957750	-47.381240
8.700000	-5.763570	-67.034929	-2.229111	-148.247005	-2.229111	-148.247005	-5.768031	-50.651547
8.750000	-5.586583	-69.849880	-2.318916	-151.310453	-2.318916	-151.310453	-5.588804	-53.888475
8.800000	-5.419790	-72.657101	-2.409239	-154.351436	-2.409239	-154.351436	-5.419913	-57.091639
8.850000	-5.262749	-75.455843	-2.499792	-157.370135	-2.499792	-157.370135	-5.260902	-60.262183
8.900000	-5.115159	-78.245406	-2.590279	-160.366406	-2.590279	-160.366406	-5.111459	-63.400618
8.950000	-4.976717	-81.025275	-2.680403	-163.340247	-2.680403	-163.340247	-4.971272	-66.507545
9.000000	-4.847127	-83.795115	-2.769864	-166.291795	-2.769864	-166.291795	-4.840037	-69.583654
9.050000	-4.726100	-86.554757	-2.858363	-169.221326	-2.858363	-169.221326	-4.717454	-72.629723
9.100000	-4.613354	-89.304194	-2.945602	-172.129248	-2.945602	-172.129248	-4.603233	-75.646612
9.150000	-4.508618	-92.043571	-3.031284	-175.016099	-3.031284	-175.016099	-4.497096	-78.635259
9.200000	-4.411635	-94.773172	-3.115118	-177.882547	-3.115118	-177.882547	-4.398775	-81.596674
9.250000	-4.322157	-97.493417	-3.196816	179.270622	-3.196816	179.270622	-4.308014	-84.531937
9.300000	-4.239954	-100.204844	-3.276094	176.442501	-3.276094	176.442501	-4.224575	-87.442189
9.350000	-4.164812	-102.908104	-3.352676	173.632069	-3.352676	173.632069	-4.148233	-90.328625
9.400000	-4.096597	-105.603881	-3.426250	170.838359	-3.426250	170.838359	-4.078846	-93.192260
9.450000	-4.035126	-108.293053	-3.496544	168.060082	-3.496544	168.060082	-4.016219	-96.034428
9.500000	-3.980166	-110.976635	-3.563341	165.295703	-3.563341	165.295703	-3.960108	-98.856701
9.550000	-3.931570	-113.655639	-3.626391	162.543758	-3.626391	162.543758	-3.910357	-101.660438
9.600000	-3.889209	-116.331138	-3.685454	159.802681	-3.685454	159.802681	-3.866824	-104.447021
9.650000	-3.852974	-119.004267	-3.740294	157.070799	-3.740294	157.070799	-3.829386	-107.217852
9.700000	-3.822772	-121.676208	-3.790685	154.346331	-3.790685	154.346331	-3.797939	-109.974344
9.750000	-3.798530	-124.348188	-3.836409	151.627386	-3.836409	151.627386	-3.772396	-112.717921
9.800000	-3.780192	-127.021468	-3.877258	148.911962	-3.877258	148.911962	-3.752685	-115.450009
9.850000	-3.767721	-129.697340	-3.913029	146.197936	-3.913029	146.197936	-3.738754	-118.172034
9.900000	-3.761096	-132.377117	-3.943532	143.483062	-3.943532	143.483062	-3.730568	-120.885414
9.950000	-3.760316	-135.062133	-3.968586	140.764961	-3.968586	140.764961	-3.728108	-123.591558
10.000000	-3.765395	-137.753730	-3.988020	138.041116	-3.988020	138.041116	-3.731371	-126.291862
