! freq	dB(S11)	phase(S11)	dB(S12)	phase(S12)	
!     	dB(S21)	phase(S21)	dB(S22)	phase(S22)	
!S-par simulation data
#  GHz  S  DB  R 50
0.000000	-82.247162	0.000000	-0.000671	0.000000	-0.000671	0.000000	-82.247162	0.000000
0.050000	-40.189859	-91.534622	-0.006252	-3.105603	-0.006252	-3.105603	-40.197099	-91.874403
0.100000	-34.269259	-95.025855	-0.013610	-6.166507	-0.013610	-6.166507	-34.275925	-95.643734
0.150000	-30.790939	-98.314013	-0.020167	-9.216012	-0.020167	-9.216012	-30.798623	-99.226695
0.200000	-28.323317	-101.466303	-0.026972	-12.261957	-0.026972	-12.261957	-28.331876	-102.676274
0.250000	-26.413786	-104.541576	-0.034377	-15.305042	-0.034377	-15.305042	-26.423050	-106.047681
0.300000	-24.859284	-107.568129	-0.042447	-18.345479	-0.042447	-18.345479	-24.869104	-109.368334
0.350000	-23.550498	-110.563535	-0.051149	-21.383811	-0.051149	-21.383811	-23.560736	-112.655653
0.400000	-22.422220	-113.537688	-0.060470	-24.420551	-0.060470	-24.420551	-22.432757	-115.919462
0.450000	-21.432380	-116.497101	-0.070405	-27.456151	-0.070405	-27.456151	-21.443115	-119.166203
0.500000	-20.552637	-119.445898	-0.080975	-30.490948	-0.080975	-30.490948	-20.563489	-122.399785
0.550000	-19.761867	-122.387740	-0.092131	-33.525262	-0.092131	-33.525262	-19.772783	-125.623885
0.600000	-19.045576	-125.324320	-0.103905	-36.559275	-0.103905	-36.559275	-19.056519	-128.839800
0.650000	-18.391960	-128.257396	-0.116259	-39.593171	-0.116259	-39.593171	-18.402911	-132.049136
0.700000	-17.792003	-131.188135	-0.129166	-42.627099	-0.129166	-42.627099	-17.802954	-135.252810
0.750000	-17.238868	-134.117412	-0.142617	-45.661207	-0.142617	-45.661207	-17.249820	-138.451262
0.800000	-16.726780	-137.046042	-0.156578	-48.695651	-0.156578	-48.695651	-16.737742	-141.644939
0.850000	-16.250920	-139.974747	-0.171012	-51.730591	-0.171012	-51.730591	-16.261897	-144.834207
0.900000	-15.807339	-142.904197	-0.185884	-54.766207	-0.185884	-54.766207	-15.818335	-148.019301
0.950000	-15.392752	-145.835057	-0.201163	-57.802703	-0.201163	-57.802703	-15.403766	-151.200386
1.000000	-15.004330	-148.768017	-0.216814	-60.840311	-0.216814	-60.840311	-15.015351	-154.377615
1.050000	-14.639632	-151.703796	-0.232807	-63.879288	-0.232807	-63.879288	-14.650640	-157.551131
1.100000	-14.296533	-154.643158	-0.249112	-66.919923	-0.249112	-66.919923	-14.307494	-160.721070
1.150000	-13.973162	-157.586918	-0.265702	-69.962542	-0.265702	-69.962542	-13.984031	-163.887571
1.200000	-13.667859	-160.535944	-0.282554	-73.007503	-0.282554	-73.007503	-13.678579	-167.050779
1.250000	-13.379140	-163.491162	-0.299646	-76.055202	-0.299646	-76.055202	-13.389641	-170.210845
1.300000	-13.105793	-166.453733	-0.316964	-79.106153	-0.316964	-79.106153	-13.115993	-173.367870
1.350000	-12.846457	-169.424565	-0.334492	-82.160771	-0.334492	-82.160771	-12.856270	-176.522095
1.400000	-12.600015	-172.404754	-0.352218	-85.219573	-0.352218	-85.219573	-12.609350	-179.673700
1.450000	-12.365439	-175.395446	-0.370136	-88.283109	-0.370136	-88.283109	-12.374203	177.177123
1.500000	-12.141772	-178.397834	-0.388243	-91.351972	-0.388243	-91.351972	-12.149872	174.030176
1.550000	-11.928123	178.586838	-0.406540	-94.426789	-0.406540	-94.426789	-11.935471	170.885250
1.600000	-11.723656	175.557284	-0.425031	-97.508227	-0.425031	-97.508227	-11.730168	167.742136
1.650000	-11.527581	172.512169	-0.443725	-100.596985	-0.443725	-100.596985	-11.533183	164.600617
1.700000	-11.339155	169.450114	-0.462633	-103.693802	-0.462633	-103.693802	-11.343778	161.460474
1.750000	-11.157668	166.369684	-0.481773	-106.799450	-0.481773	-106.799450	-11.161252	158.321487
1.800000	-10.982445	163.269393	-0.501166	-109.914736	-0.501166	-109.914736	-10.984939	155.183434
1.850000	-10.812839	160.147694	-0.520837	-113.040504	-0.520837	-113.040504	-10.814198	152.046095
1.900000	-10.648246	157.002707	-0.540821	-116.177770	-0.540821	-116.177770	-10.648429	148.909250
1.950000	-10.488053	153.832691	-0.561156	-119.327486	-0.561156	-119.327486	-10.487022	145.772668
2.000000	-10.331659	150.636136	-0.581883	-122.490492	-0.581883	-122.490492	-10.329381	142.636114
2.050000	-10.178502	147.411204	-0.603050	-125.667793	-0.603050	-125.667793	-10.174942	139.499350
2.100000	-10.028034	144.155975	-0.624715	-128.860444	-0.624715	-128.860444	-10.023154	136.362124
2.150000	-9.879715	140.868448	-0.646943	-132.069548	-0.646943	-132.069548	-9.873472	133.224161
2.200000	-9.733017	137.546538	-0.669806	-135.296263	-0.669806	-135.296263	-9.725362	130.085159
2.250000	-9.587420	134.188073	-0.693389	-138.541807	-0.693389	-138.541807	-9.578292	126.944769
2.300000	-9.442407	130.790799	-0.717785	-141.807464	-0.717785	-141.807464	-9.431736	123.802590
2.350000	-9.297467	127.352377	-0.743099	-145.094589	-0.743099	-145.094589	-9.285169	120.658152
2.400000	-9.152094	123.870382	-0.769449	-148.404618	-0.769449	-148.404618	-9.138067	117.510896
2.450000	-9.005782	120.342304	-0.796968	-151.739071	-0.796968	-151.739071	-8.989910	114.360157
2.500000	-8.858031	116.765551	-0.825805	-155.099567	-0.825805	-155.099567	-8.840175	111.205147
2.550000	-8.708229	113.136259	-0.856163	-158.488474	-0.856163	-158.488474	-8.688226	108.044787
2.600000	-8.555964	109.452710	-0.888205	-161.907076	-0.888205	-161.907076	-8.533635	104.878047
2.650000	-8.400742	105.712036	-0.922147	-165.357348	-0.922147	-165.357348	-8.375886	101.703606
2.700000	-8.242074	101.911270	-0.958230	-168.841410	-0.958230	-168.841410	-8.214471	98.519921
2.750000	-8.079476	98.047346	-0.996728	-172.361536	-0.996728	-172.361536	-8.048888	95.325201
2.800000	-7.912475	94.117084	-1.037952	-175.920169	-1.037952	-175.920169	-7.878647	92.117380
2.850000	-7.740609	90.117186	-1.082254	-179.519942	-1.082254	-179.519942	-7.703272	88.894091
2.900000	-7.563428	86.044222	-1.130037	176.836313	-1.130037	176.836313	-7.522305	85.652641
2.950000	-7.380505	81.894616	-1.181757	173.145539	-1.181757	173.145539	-7.335314	82.389987
3.000000	-7.191433	77.664632	-1.237939	169.404440	-1.237939	169.404440	-7.141891	79.102704
3.050000	-6.995838	73.350352	-1.299184	165.609463	-1.299184	165.609463	-6.941665	75.786965
3.100000	-6.793380	68.947662	-1.366182	161.756774	-1.366182	161.756774	-6.734305	72.438515
3.150000	-6.583625	64.451162	-1.439805	157.841525	-1.439805	157.841525	-6.519386	69.052177
3.200000	-6.366315	59.856108	-1.521003	153.859114	-1.521003	153.859114	-6.296665	65.622575
3.250000	-6.141406	55.158637	-1.610789	149.805429	-1.610789	149.805429	-6.066125	62.144398
3.300000	-5.908806	50.353594	-1.710414	145.675356	-1.710414	145.675356	-5.827695	58.611421
3.350000	-5.668931	45.438950	-1.821009	141.465985	-1.821009	141.465985	-5.581831	55.018879
3.400000	-5.421009	40.401794	-1.944935	137.166354	-1.944935	137.166354	-5.327754	51.355503
3.450000	-5.165738	35.239701	-2.083869	132.773089	-2.083869	132.773089	-5.066203	47.615497
3.500000	-4.903509	29.946291	-2.240160	128.279953	-2.240160	128.279953	-4.797593	43.790613
3.550000	-4.634890	24.514935	-2.416577	123.680597	-2.416577	123.680597	-4.522510	39.872186
3.600000	-4.360648	18.938838	-2.616385	118.968701	-2.616385	118.968701	-4.241742	35.851228
3.650000	-4.081778	13.211149	-2.843455	114.138180	-2.843455	114.138180	-3.956299	31.718560
3.700000	-3.799534	7.325145	-3.102379	109.183478	-3.102379	109.183478	-3.667449	27.465004
3.750000	-3.515450	1.274458	-3.398630	104.099955	-3.398630	104.099955	-3.376736	23.081628
3.800000	-3.231264	-4.949144	-3.739278	98.882493	-3.739278	98.882493	-3.085906	18.557966
3.850000	-2.949320	-11.347831	-4.131789	93.532064	-4.131789	93.532064	-2.797322	13.888607
3.900000	-2.672124	-17.924566	-4.585682	88.050951	-4.585682	88.050951	-2.513507	9.067791
3.950000	-2.402490	-24.680154	-5.112559	82.445900	-5.112559	82.445900	-2.237295	4.091878
4.000000	-2.143499	-31.612630	-5.726747	76.729885	-5.726747	76.729885	-1.971796	-1.040020
4.050000	-1.898426	-38.716632	-6.446244	70.924613	-6.446244	70.924613	-1.720323	-6.325393
4.100000	-1.670641	-45.982842	-7.294220	65.064351	-7.294220	65.064351	-1.486292	-11.757755
4.150000	-1.463467	-53.397572	-8.301521	59.202291	-8.301521	59.202291	-1.273084	-17.326200
4.200000	-1.280246	-60.943608	-9.511645	53.424514	-9.511645	53.424514	-1.084105	-23.016178
4.250000	-1.123666	-68.597107	-10.987452	47.875625	-10.987452	47.875625	-0.922118	-28.806608
4.300000	-0.995744	-76.330760	-12.829038	42.819978	-12.829038	42.819978	-0.789212	-34.672827
4.350000	-0.897848	-84.114996	-15.212354	38.827517	-15.212354	38.827517	-0.686825	-40.587829
4.400000	-0.830496	-91.918604	-18.486443	37.450344	-18.486443	37.450344	-0.615541	-46.522956
4.450000	-0.793317	-99.710165	-23.408721	44.857923	-23.408721	44.857923	-0.575047	-52.449380
4.500000	-0.785073	-107.459505	-29.088997	92.054470	-29.088997	92.054470	-0.564154	-58.339601
4.550000	-0.803757	-115.138997	-24.292515	146.254298	-24.292515	146.254298	-0.580899	-64.168788
4.600000	-0.846835	-122.724015	-19.375558	155.368169	-19.375558	155.368169	-0.622788	-69.915353
4.650000	-0.911245	-130.193818	-16.219655	154.677804	-16.219655	154.677804	-0.686798	-75.561847
4.700000	-0.993387	-137.534080	-13.996019	151.268785	-13.996019	151.268785	-0.769358	-81.097198
4.750000	-1.089812	-144.733892	-12.323952	146.807668	-12.323952	146.807668	-0.867055	-86.514064
4.800000	-1.197128	-151.786291	-11.014278	141.883793	-11.014278	141.883793	-0.976535	-91.809244
4.850000	-1.312109	-158.687721	-9.960431	136.754351	-9.960431	136.754351	-1.094615	-96.983119
4.900000	-1.431777	-165.437421	-9.096455	131.546991	-9.096455	131.546991	-1.218357	-102.039020
4.950000	-1.553444	-172.036804	-8.378590	126.330066	-8.378590	126.330066	-1.345112	-106.982583
5.000000	-1.674737	-178.488887	-7.776257	121.141527	-7.776257	121.141527	-1.472541	-111.821147
5.050000	-1.793498	175.204719	-7.268147	116.003535	-7.268147	116.003535	-1.598524	-116.561647
5.100000	-1.908034	169.036502	-6.836461	110.926292	-6.836461	110.926292	-1.721364	-121.215268
5.150000	-2.016903	163.001288	-6.468457	105.914651	-6.468457	105.914651	-1.839618	-125.791626
5.200000	-2.118927	157.093795	-6.154177	100.969816	-6.154177	100.969816	-1.952088	-130.300398
5.250000	-2.213166	151.308811	-5.885723	96.090710	-5.885723	96.090710	-2.057796	-134.751123
5.300000	-2.298890	145.641299	-5.656757	91.274853	-5.656757	91.274853	-2.155959	-139.153035
5.350000	-2.375560	140.086470	-5.462142	86.518947	-5.462142	86.518947	-2.245963	-143.514960
5.400000	-2.442805	134.639811	-5.297686	81.819259	-5.297686	81.819259	-2.327346	-147.845226
5.450000	-2.500398	129.297099	-5.159945	77.171886	-5.159945	77.171886	-2.399778	-152.151611
5.500000	-2.548245	124.054387	-5.046078	72.572929	-5.046078	72.572929	-2.463046	-156.441300
5.550000	-2.586361	118.907989	-4.953730	68.018611	-4.953730	68.018611	-2.517038	-160.720855
5.600000	-2.614864	113.854454	-4.880951	63.505356	-4.880951	63.505356	-2.561739	-164.996199
5.650000	-2.633855	108.891472	-4.826293	59.030212	-4.826293	59.030212	-2.597113	-169.272655
5.700000	-2.643625	104.015879	-4.788374	54.590048	-4.788374	54.590048	-2.623310	-173.554949
5.750000	-2.644620	99.223796	-4.765894	50.181735	-4.765894	50.181735	-2.640644	-177.846933
5.800000	-2.637238	94.512455	-4.757931	45.802871	-4.757931	45.802871	-2.649387	177.848212
5.850000	-2.621923	89.879199	-4.763720	41.451368	-4.763720	41.451368	-2.649863	173.527985
5.900000	-2.599157	85.321480	-4.782634	37.125454	-4.782634	37.125454	-2.642446	169.190564
5.950000	-2.569451	80.836847	-4.814157	32.823669	-4.814157	32.823669	-2.627552	164.834793
6.000000	-2.533344	76.422945	-4.857867	28.544855	-4.857867	28.544855	-2.605628	160.460162
6.050000	-2.491389	72.077513	-4.913423	24.288155	-4.913423	24.288155	-2.577154	156.066781
6.100000	-2.444152	67.798392	-4.980551	20.052996	-4.980551	20.052996	-2.542630	151.655347
6.150000	-2.392206	63.583526	-5.059029	15.839081	-5.059029	15.839081	-2.502573	147.227104
6.200000	-2.336122	59.430967	-5.148681	11.646376	-5.148681	11.646376	-2.457511	142.783794
6.250000	-2.276471	55.338886	-5.249369	7.475097	-5.249369	7.475097	-2.407977	138.327605
6.300000	-2.213750	51.306815	-5.361179	3.326183	-5.361179	3.326183	-2.354422	133.860955
6.350000	-2.148590	47.331868	-5.483805	-0.800152	-5.483805	-0.800152	-2.297477	129.387049
6.400000	-2.081522	43.412605	-5.617168	-4.903034	-5.617168	-4.903034	-2.237661	124.909069
6.450000	-2.013054	39.547715	-5.761202	-8.981413	-5.761202	-8.981413	-2.175481	120.430397
6.500000	-1.943670	35.736022	-5.915845	-13.034084	-5.915845	-13.034084	-2.111426	115.954549
6.550000	-1.873828	31.976475	-6.081039	-17.059710	-6.081039	-17.059710	-2.045968	111.485125
6.600000	-1.803954	28.268147	-6.256721	-21.056846	-6.256721	-21.056846	-1.979558	107.025745
6.650000	-1.734447	24.610223	-6.442828	-25.023962	-6.442828	-25.023962	-1.912622	102.580008
6.700000	-1.665669	21.001995	-6.639291	-28.959466	-6.639291	-28.959466	-1.845563	98.151435
6.750000	-1.597951	17.442848	-6.846038	-32.861729	-6.846038	-32.861729	-1.778755	93.743434
6.800000	-1.531588	13.932245	-7.062987	-36.729112	-7.062987	-36.729112	-1.712546	89.359257
6.850000	-1.466841	10.469718	-7.290055	-40.559991	-7.290055	-40.559991	-1.647252	85.001967
6.900000	-1.403953	7.055363	-7.527187	-44.352346	-7.527187	-44.352346	-1.583173	80.674757
6.950000	-1.343124	3.688789	-7.774273	-48.104608	-7.774273	-48.104608	-1.520575	76.380302
7.000000	-1.284496	0.369119	-8.031182	-51.815765	-8.031182	-51.815765	-1.459677	72.120579
7.050000	-1.228197	-2.903995	-8.297832	-55.484507	-8.297832	-55.484507	-1.400676	67.897597
7.100000	-1.174324	-6.130909	-8.574154	-59.109658	-8.574154	-59.109658	-1.343740	63.713055
7.150000	-1.122947	-9.311995	-8.860097	-62.690194	-8.860097	-62.690194	-1.289011	59.568325
7.200000	-1.074110	-12.447656	-9.155637	-66.225257	-9.155637	-66.225257	-1.236602	55.464440
7.250000	-1.027836	-15.538330	-9.460788	-69.714156	-9.460788	-69.714156	-1.186605	51.402085
7.300000	-0.984125	-18.584504	-9.775608	-73.156371	-9.775608	-73.156371	-1.139090	47.381585
7.350000	-0.942960	-21.586712	-10.100216	-76.551537	-10.100216	-76.551537	-1.094107	43.402897
7.400000	-0.904308	-24.545550	-10.434801	-79.899438	-10.434801	-79.899438	-1.051688	39.465603
7.450000	-0.868121	-27.461670	-10.779637	-83.199973	-10.779637	-83.199973	-1.011852	35.568895
7.500000	-0.834341	-30.335790	-11.135101	-86.453137	-11.135101	-86.453137	-0.974605	31.711572
7.550000	-0.802947	-33.167813	-11.501598	-89.657956	-11.501598	-89.657956	-0.940001	27.892793
7.600000	-0.773814	-35.959504	-11.879849	-92.815527	-11.879849	-92.815527	-0.907978	24.109630
7.650000	-0.746861	-38.711775	-12.270668	-95.925882	-12.270668	-95.925882	-0.878528	20.359561
7.700000	-0.722005	-41.425603	-12.675073	-98.988955	-12.675073	-98.988955	-0.851641	16.639588
7.750000	-0.699159	-44.102028	-13.094329	-102.004500	-13.094329	-102.004500	-0.827315	12.946196
7.800000	-0.678236	-46.742151	-13.530000	-104.971992	-13.530000	-104.971992	-0.805554	9.275311
7.850000	-0.659152	-49.347131	-13.984018	-107.890479	-13.984018	-107.890479	-0.786375	5.622241
7.900000	-0.641823	-51.918189	-14.458777	-110.758383	-14.458777	-110.758383	-0.769812	1.981596
7.950000	-0.626169	-54.456607	-14.957253	-113.573214	-14.957253	-113.573214	-0.755922	-1.652802
8.000000	-0.612116	-56.963726	-15.483169	-116.331148	-15.483169	-116.331148	-0.744790	-5.288045
8.050000	-0.599596	-59.440954	-16.041216	-119.026400	-16.041216	-119.026400	-0.736538	-8.932290
8.100000	-0.588547	-61.889763	-16.637370	-121.650263	-16.637370	-121.650263	-0.731335	-12.594957
8.150000	-0.578934	-64.311428	-17.279382	-124.188460	-17.279382	-124.188460	-0.729448	-16.287442
8.200000	-0.570715	-66.707639	-17.977448	-126.619916	-17.977448	-126.619916	-0.731193	-20.023030
8.250000	-0.563851	-69.080416	-18.745049	-128.913374	-18.745049	-128.913374	-0.736941	-23.816610
8.300000	-0.558335	-71.431598	-19.600548	-131.017402	-19.600548	-131.017402	-0.747230	-27.686239
8.350000	-0.554164	-73.763404	-20.569169	-132.852762	-20.569169	-132.852762	-0.762677	-31.651775
8.400000	-0.551405	-76.077598	-21.687733	-134.271911	-21.687733	-134.271911	-0.784280	-35.740562
8.450000	-0.550187	-78.376123	-23.011306	-134.981812	-23.011306	-134.981812	-0.813494	-39.989469
8.500000	-0.550587	-80.662114	-24.619502	-134.479085	-24.619502	-134.479085	-0.851639	-44.431072
8.550000	-0.552810	-82.938149	-26.631445	-131.647073	-26.631445	-131.647073	-0.900838	-49.112644
8.600000	-0.557299	-85.206762	-29.157840	-123.272762	-29.157840	-123.272762	-0.964888	-54.113910
8.650000	-0.564419	-87.471445	-31.823180	-102.694898	-31.823180	-102.694898	-1.047291	-59.500536
8.700000	-0.574819	-89.735237	-32.187499	-67.425320	-32.187499	-67.425320	-1.153607	-65.372329
8.750000	-0.589638	-92.001086	-29.063353	-41.206177	-29.063353	-41.206177	-1.293152	-71.890958
8.800000	-0.610060	-94.270858	-25.529688	-30.707113	-25.529688	-30.707113	-1.476019	-79.210977
8.850000	-0.638337	-96.544403	-22.483563	-28.427877	-22.483563	-28.427877	-1.720920	-87.626547
8.900000	-0.676934	-98.816326	-19.899300	-30.123616	-19.899300	-30.123616	-2.049860	-97.460851
8.950000	-0.729195	-101.071796	-17.656339	-34.367922	-17.656339	-34.367922	-2.494660	-109.209937
9.000000	-0.798490	-103.279092	-15.687805	-40.614149	-15.687805	-40.614149	-3.092405	-123.563877
9.050000	-0.886202	-105.384248	-13.977999	-48.629361	-13.977999	-48.629361	-3.867499	-141.416906
9.100000	-0.988670	-107.311426	-12.549187	-58.249564	-12.549187	-58.249564	-4.781886	-163.896021
9.150000	-1.093091	-108.994498	-11.447299	-69.147144	-11.447299	-69.147144	-5.627905	168.288312
9.200000	-1.178811	-110.430158	-10.713800	-80.761446	-10.713800	-80.761446	-5.997072	136.426787
9.250000	-1.228003	-111.717620	-10.349107	-92.358307	-10.349107	-92.358307	-5.651178	104.926332
9.300000	-1.237244	-113.007640	-10.303358	-103.270744	-10.303358	-103.270744	-4.852109	77.930537
9.350000	-1.217184	-114.413533	-10.494582	-113.091725	-10.494582	-113.091725	-3.989755	56.399269
9.400000	-1.182549	-115.974440	-10.839945	-121.692987	-10.839945	-121.692987	-3.254585	39.461333
9.450000	-1.144785	-117.676754	-11.272730	-129.138348	-11.272730	-129.138348	-2.681941	25.980931
9.500000	-1.110227	-119.486623	-11.747004	-135.591527	-11.747004	-135.591527	-2.248273	15.019671
9.550000	-1.081483	-121.372893	-12.234861	-141.221065	-12.234861	-141.221065	-1.921384	5.928157
9.600000	-1.059154	-123.311688	-12.720077	-146.181736	-12.720077	-146.181736	-1.673383	-1.758072
9.650000	-1.042922	-125.286711	-13.193894	-150.602929	-13.193894	-150.602929	-1.483169	-8.370351
9.700000	-1.032307	-127.288229	-13.650612	-154.576208	-13.650612	-154.576208	-1.336517	-14.124888
9.750000	-1.026277	-129.308560	-14.091297	-158.209185	-14.091297	-158.209185	-1.220334	-19.245017
9.800000	-1.024357	-131.344950	-14.514517	-161.553123	-14.514517	-161.553123	-1.128017	-23.836119
9.850000	-1.026007	-133.395702	-14.920852	-164.658546	-14.920852	-164.658546	-1.053961	-27.996655
9.900000	-1.030783	-135.460335	-15.311280	-167.565331	-15.311280	-167.565331	-0.994080	-31.802082
9.950000	-1.038327	-137.539179	-15.686951	-170.305143	-15.686951	-170.305143	-0.945366	-35.311015
10.000000	-1.048356	-139.633129	-16.049059	-172.903304	-16.049059	-172.903304	-0.905570	-38.569574
