! freq	dB(S11)	phase(S11)	dB(S12)	phase(S12)	
!     	dB(S21)	phase(S21)	dB(S22)	phase(S22)	
!S-par simulation data
#  GHz  S  DB  R 50
0.000000	-82.352614	0.000000	-0.000663	0.000000	-0.000663	0.000000	-82.352614	0.000000
0.050000	-46.682544	-92.105084	-0.005603	-2.783012	-0.005603	-2.783012	-46.742617	-91.308623
0.100000	-40.675326	-95.639887	-0.012829	-5.519827	-0.012829	-5.519827	-40.720343	-94.094354
0.150000	-37.174895	-98.836048	-0.017868	-8.237696	-0.017868	-8.237696	-37.199044	-96.601550
0.200000	-34.702927	-101.930262	-0.021590	-10.952793	-0.021590	-10.952793	-34.706558	-99.074202
0.250000	-32.794396	-104.951274	-0.024782	-13.668394	-0.024782	-13.668394	-32.783341	-101.548606
0.300000	-31.234186	-107.932314	-0.027886	-16.384707	-0.027886	-16.384707	-31.225492	-104.029199
0.350000	-29.909106	-110.988562	-0.031102	-19.101240	-0.031102	-19.101240	-29.921101	-106.512009
0.400000	-28.772604	-114.199922	-0.034512	-21.817606	-0.034512	-21.817606	-28.805260	-108.993418
0.450000	-27.798527	-117.472442	-0.038150	-24.533462	-0.038150	-24.533462	-27.835354	-111.470294
0.500000	-26.954263	-120.701574	-0.042042	-27.248458	-0.042042	-27.248458	-26.984134	-113.939683
0.550000	-26.207915	-123.884928	-0.046162	-29.962443	-0.046162	-29.962443	-26.229224	-116.400497
0.600000	-25.540648	-127.041377	-0.050484	-32.675314	-0.050484	-32.675314	-25.554651	-118.852027
0.650000	-24.938608	-130.183877	-0.054972	-35.387094	-0.054972	-35.387094	-24.946958	-121.294498
0.700000	-24.396716	-133.318168	-0.059629	-38.097508	-0.059629	-38.097508	-24.401124	-123.725483
0.750000	-23.905758	-136.449788	-0.064407	-40.806684	-0.064407	-40.806684	-23.907567	-126.145715
0.800000	-23.460435	-139.581337	-0.069278	-43.514634	-0.069278	-43.514634	-23.460752	-128.554728
0.850000	-23.056895	-142.714732	-0.074213	-46.221377	-0.074213	-46.221377	-23.056652	-130.951804
0.900000	-22.690478	-145.851266	-0.079178	-48.927048	-0.079178	-48.927048	-22.690407	-133.337139
0.950000	-22.358079	-148.992030	-0.084148	-51.631750	-0.084148	-51.631750	-22.358789	-135.710403
1.000000	-22.059503	-152.138757	-0.089088	-54.335513	-0.089088	-54.335513	-22.061574	-138.069681
1.050000	-21.788252	-155.291189	-0.093984	-57.038653	-0.093984	-57.038653	-21.792062	-140.417306
1.100000	-21.544310	-158.450747	-0.098808	-59.741243	-0.098808	-59.741243	-21.550231	-142.751707
1.150000	-21.327505	-161.619050	-0.103534	-62.443435	-0.103534	-62.443435	-21.335892	-145.071399
1.200000	-21.135842	-164.796980	-0.108142	-65.145445	-0.108142	-65.145445	-21.146994	-147.376243
1.250000	-20.967313	-167.985233	-0.112622	-67.847475	-0.112622	-67.847475	-20.981481	-149.666285
1.300000	-20.820918	-171.184926	-0.116961	-70.549721	-0.116961	-70.549721	-20.838331	-151.940924
1.350000	-20.694729	-174.396470	-0.121156	-73.252347	-0.121156	-73.252347	-20.715584	-154.200443
1.400000	-20.590744	-177.623061	-0.125177	-75.955634	-0.125177	-75.955634	-20.615272	-156.441741
1.450000	-20.506775	179.134953	-0.129029	-78.659755	-0.129029	-78.659755	-20.535174	-158.665306
1.500000	-20.443299	175.875118	-0.132701	-81.364977	-0.132701	-81.364977	-20.475785	-160.869180
1.550000	-20.398873	172.596671	-0.136199	-84.071455	-0.136199	-84.071455	-20.435650	-163.053280
1.600000	-20.373187	169.297852	-0.139525	-86.779387	-0.139525	-86.779387	-20.414470	-165.216408
1.650000	-20.366832	165.975663	-0.142673	-89.489049	-0.142673	-89.489049	-20.412862	-167.356153
1.700000	-20.379158	162.628437	-0.145653	-92.200599	-0.145653	-92.200599	-20.430192	-169.471445
1.750000	-20.409789	159.254222	-0.148473	-94.914192	-0.148473	-94.914192	-20.466105	-171.560879
1.800000	-20.458992	155.849989	-0.151140	-97.630040	-0.151140	-97.630040	-20.520905	-173.621993
1.850000	-20.526837	152.412782	-0.153663	-100.348317	-0.153663	-100.348317	-20.594703	-175.652371
1.900000	-20.613661	148.938875	-0.156051	-103.069221	-0.156051	-103.069221	-20.687884	-177.648836
1.950000	-20.719672	145.424450	-0.158317	-105.792914	-0.158317	-105.792914	-20.800713	-179.608063
2.000000	-20.844961	141.865729	-0.160476	-108.519517	-0.160476	-108.519517	-20.933341	178.473316
2.050000	-20.989889	138.258002	-0.162541	-111.249166	-0.162541	-111.249166	-21.086204	176.599631
2.100000	-21.154893	134.595913	-0.164527	-113.981991	-0.164527	-113.981991	-21.259826	174.775915
2.150000	-21.340488	130.873345	-0.166451	-116.718111	-0.166451	-116.718111	-21.454822	173.008047
2.200000	-21.547271	127.083268	-0.168327	-119.457632	-0.168327	-119.457632	-21.671904	171.302913
2.250000	-21.775919	123.217562	-0.170172	-122.200654	-0.170172	-122.200654	-21.911883	169.668619
2.300000	-22.027190	119.266785	-0.172002	-124.947265	-0.172002	-124.947265	-22.175672	168.114746
2.350000	-22.301921	115.219902	-0.173834	-127.697544	-0.173834	-127.697544	-22.464285	166.652675
2.400000	-22.601019	111.063933	-0.175683	-130.451562	-0.175683	-130.451562	-22.778837	165.295988
2.450000	-22.925451	106.783528	-0.177567	-133.209379	-0.177567	-133.209379	-23.120531	164.060984
2.500000	-23.276219	102.360432	-0.179501	-135.971046	-0.179501	-135.971046	-23.490636	162.967319
2.550000	-23.654539	97.768638	-0.181502	-138.736692	-0.181502	-138.736692	-23.890685	162.043084
2.600000	-24.061015	92.984664	-0.183584	-141.506270	-0.183584	-141.506270	-24.321595	161.314680
2.650000	-24.496336	87.976457	-0.185762	-144.279807	-0.185762	-144.279807	-24.784402	160.818173
2.700000	-24.960819	82.705282	-0.188050	-147.057323	-0.188050	-147.057323	-25.279755	160.597821
2.750000	-25.454132	77.124385	-0.190460	-149.838834	-0.190460	-149.838834	-25.807581	160.707907
2.800000	-25.974873	71.177644	-0.193006	-152.624347	-0.193006	-152.624347	-26.366566	161.214674
2.850000	-26.519947	64.798512	-0.195697	-155.413868	-0.195697	-155.413868	-26.953338	162.197962
2.900000	-27.083662	57.909931	-0.198546	-158.207395	-0.198546	-158.207395	-27.561257	163.751614
2.950000	-27.656493	50.426416	-0.201561	-161.004923	-0.201561	-161.004923	-28.178704	165.980817
3.000000	-28.223539	42.260362	-0.204752	-163.806445	-0.204752	-163.806445	-28.786903	168.993192
3.050000	-28.762939	33.335392	-0.208125	-166.611950	-0.208125	-166.611950	-29.357717	172.879063
3.100000	-29.244952	23.609442	-0.211688	-169.421429	-0.211688	-169.421429	-29.852635	177.676846
3.150000	-29.631454	13.100212	-0.215448	-172.234910	-0.215448	-172.234910	-30.223261	-176.667393
3.200000	-29.882996	1.941339	-0.219410	-175.052381	-0.219410	-175.052381	-30.422677	-170.369112
3.250000	-29.969505	-9.611851	-0.223575	-177.873787	-0.223575	-177.873787	-30.421362	-163.792338
3.300000	-29.876547	-21.230391	-0.227946	179.300883	-0.227946	179.300883	-30.214696	-157.361403
3.350000	-29.611731	-32.574195	-0.232524	176.471636	-0.232524	176.471636	-29.826319	-151.459633
3.400000	-29.201759	-43.368215	-0.237309	173.638479	-0.237309	173.638479	-29.298504	-146.343858
3.450000	-28.683487	-53.445762	-0.242303	170.801412	-0.242303	170.801412	-28.678271	-142.123368
3.500000	-28.094417	-62.748070	-0.247502	167.960433	-0.247502	167.960433	-28.007010	-138.790946
3.550000	-27.466523	-71.296110	-0.252907	165.115535	-0.252907	165.115535	-27.316138	-136.270886
3.600000	-26.824015	-79.156498	-0.258514	162.266705	-0.258514	162.266705	-26.627145	-134.459199
3.650000	-26.183698	-86.414451	-0.264321	159.413924	-0.264321	159.413924	-25.953549	-133.248665
3.700000	-25.556419	-93.156929	-0.270324	156.557167	-0.270324	156.557167	-25.303165	-132.541231
3.750000	-24.948673	-99.464007	-0.276519	153.696402	-0.276519	153.696402	-24.679993	-132.252510
3.800000	-24.363680	-105.398951	-0.282907	150.831499	-0.282907	150.831499	-24.085395	-132.318422
3.850000	-23.803394	-111.029615	-0.289480	147.962499	-0.289480	147.962499	-23.519785	-132.673050
3.900000	-23.268011	-116.404572	-0.296233	145.089346	-0.296233	145.089346	-22.982305	-133.270203
3.950000	-22.756969	-121.563914	-0.303162	142.211976	-0.303162	142.211976	-22.471628	-134.072411
4.000000	-22.269261	-126.540618	-0.310264	139.330320	-0.310264	139.330320	-21.986189	-135.049278
4.050000	-21.803633	-131.361775	-0.317536	136.444296	-0.317536	136.444296	-21.524334	-136.176114
4.100000	-21.358715	-136.049651	-0.324975	133.553819	-0.324975	133.553819	-21.084401	-137.432816
4.150000	-20.933098	-140.622567	-0.332579	130.658793	-0.332579	130.658793	-20.664773	-138.802988
4.200000	-20.525391	-145.095614	-0.340346	127.759116	-0.340346	127.759116	-20.263905	-140.273228
4.250000	-20.134242	-149.481235	-0.348277	124.854677	-0.348277	124.854677	-19.880338	-141.832577
4.300000	-19.758361	-153.789695	-0.356370	121.945359	-0.356370	121.945359	-19.512701	-143.472070
4.350000	-19.396526	-158.029455	-0.364629	119.031040	-0.364629	119.031040	-19.159716	-145.184383
4.400000	-19.047571	-162.206877	-0.373057	116.111530	-0.373057	116.111530	-18.820184	-146.964222
4.450000	-18.710414	-166.327833	-0.381658	113.186690	-0.381658	113.186690	-18.492990	-148.806624
4.500000	-18.384064	-170.397600	-0.390436	110.256434	-0.390436	110.256434	-18.177102	-150.707032
4.550000	-18.067584	-174.419919	-0.399398	107.320615	-0.399398	107.320615	-17.871558	-152.662395
4.600000	-17.760102	-178.397800	-0.408552	104.379082	-0.408552	104.379082	-17.575462	-154.670321
4.650000	-17.460808	177.666365	-0.417907	101.431680	-0.417907	101.431680	-17.287981	-156.728974
4.700000	-17.168952	173.770706	-0.427475	98.478252	-0.427475	98.478252	-17.008341	-158.836991
4.750000	-16.883839	169.913792	-0.437268	95.518635	-0.437268	95.518635	-16.735818	-160.993400
4.800000	-16.604826	166.094562	-0.447302	92.552667	-0.447302	92.552667	-16.469741	-163.197563
4.850000	-16.331320	162.312260	-0.457593	89.580183	-0.457593	89.580183	-16.209483	-165.449121
4.900000	-16.062774	158.566386	-0.468159	86.601015	-0.468159	86.601015	-15.954459	-167.747939
4.950000	-15.798685	154.856642	-0.479019	83.614997	-0.479019	83.614997	-15.704125	-170.094067
5.000000	-15.538589	151.182889	-0.490197	80.621960	-0.490197	80.621960	-15.457976	-172.487699
5.050000	-15.281969	147.545898	-0.501723	77.621577	-0.501723	77.621577	-15.215463	-174.930185
5.100000	-15.028520	143.944965	-0.513616	74.613833	-0.513616	74.613833	-14.976213	-177.420875
5.150000	-14.777888	140.380217	-0.525905	71.598562	-0.525905	71.598562	-14.739816	-179.960194
5.200000	-14.529751	136.851809	-0.538619	68.575600	-0.538619	68.575600	-14.505894	177.451420
5.250000	-14.283813	133.359895	-0.551792	65.544784	-0.551792	65.544784	-14.274098	174.813535
5.300000	-14.039809	129.904601	-0.565457	62.505957	-0.565457	62.505957	-14.044102	172.125756
5.350000	-13.797498	126.486011	-0.579651	59.458963	-0.579651	59.458963	-13.815608	169.387739
5.400000	-13.556663	123.104147	-0.594413	56.403651	-0.594413	56.403651	-13.588341	166.599218
5.450000	-13.317112	119.758951	-0.609786	53.339875	-0.609786	53.339875	-13.362052	163.760016
5.500000	-13.078670	116.450274	-0.625813	50.267497	-0.625813	50.267497	-13.136512	160.870068
5.550000	-12.841188	113.177864	-0.642542	47.186386	-0.642542	47.186386	-12.911516	157.929426
5.600000	-12.604532	109.941359	-0.660021	44.096418	-0.660021	44.096418	-12.686881	154.938281
5.650000	-12.368526	106.740655	-0.678314	40.997384	-0.678314	40.997384	-12.462384	151.896427
5.700000	-12.133074	103.575128	-0.697476	37.889182	-0.697476	37.889182	-12.237882	148.804371
5.750000	-11.898163	100.443656	-0.717559	34.771825	-0.717559	34.771825	-12.013321	145.663318
5.800000	-11.663733	97.345385	-0.738624	31.645247	-0.738624	31.645247	-11.788609	142.474088
5.850000	-11.429747	94.279337	-0.760736	28.509399	-0.760736	28.509399	-11.563675	139.237665
5.900000	-11.196181	91.244422	-0.783963	25.364256	-0.783963	25.364256	-11.338475	135.955202
5.950000	-10.963033	88.239441	-0.808375	22.209816	-0.808375	22.209816	-11.112985	132.628012
6.000000	-10.730317	85.263098	-0.834046	19.046106	-0.834046	19.046106	-10.887208	129.257567
6.050000	-10.498067	82.314008	-0.861052	15.873183	-0.861052	15.873183	-10.661171	125.845493
6.100000	-10.266335	79.390711	-0.889472	12.691141	-0.889472	12.691141	-10.434923	122.393561
6.150000	-10.035193	76.491688	-0.919386	9.500109	-0.919386	9.500109	-10.208540	118.903680
6.200000	-9.804731	73.615371	-0.950876	6.300260	-0.950876	6.300260	-9.982124	115.377884
6.250000	-9.575058	70.760163	-0.984027	3.091811	-0.984027	3.091811	-9.755797	111.818322
6.300000	-9.346195	67.924842	-1.018959	-0.125145	-1.018959	-0.125145	-9.529588	108.226615
6.350000	-9.118404	65.107344	-1.055722	-3.350100	-1.055722	-3.350100	-9.303798	104.605848
6.400000	-8.891852	62.306088	-1.094401	-6.582676	-1.094401	-6.582676	-9.078619	100.958443
6.450000	-8.666719	59.519534	-1.135077	-9.822435	-1.135077	-9.822435	-8.854267	97.286885
6.500000	-8.443203	56.746200	-1.177828	-13.068883	-1.177828	-13.068883	-8.630974	93.593707
6.550000	-8.221514	53.984676	-1.222731	-16.321458	-1.222731	-16.321458	-8.408989	89.881475
6.600000	-8.001876	51.233640	-1.269854	-19.579540	-1.269854	-19.579540	-8.188578	86.152779
6.650000	-7.784522	48.491869	-1.319263	-22.842441	-1.319263	-22.842441	-7.970014	82.410215
6.700000	-7.569738	45.758127	-1.370977	-26.109356	-1.370977	-26.109356	-7.753636	78.656523
6.750000	-7.357568	43.032029	-1.425233	-29.379728	-1.425233	-29.379728	-7.539490	74.893621
6.800000	-7.148586	40.311759	-1.481766	-32.652296	-1.481766	-32.652296	-7.328256	71.125079
6.850000	-6.942825	37.597294	-1.540844	-35.926367	-1.540844	-35.926367	-7.119963	67.352812
6.900000	-6.740628	34.887734	-1.602360	-39.200904	-1.602360	-39.200904	-6.915016	63.579433
6.950000	-6.542242	32.182628	-1.666311	-42.474892	-1.666311	-42.474892	-6.713704	59.807341
7.000000	-6.347884	29.481908	-1.732797	-45.747207	-1.732797	-45.747207	-6.516262	56.039027
7.050000	-6.157807	26.784904	-1.801558	-49.017029	-1.801558	-49.017029	-6.323012	52.276169
7.100000	-5.972294	24.092240	-1.872860	-52.282660	-1.872860	-52.282660	-6.134230	48.522210
7.150000	-5.791444	21.403192	-1.946291	-55.543811	-1.946291	-55.543811	-5.950087	44.777500
7.200000	-5.615651	18.718613	-2.022037	-58.798420	-2.022037	-58.798420	-5.770976	41.045944
7.250000	-5.444913	16.038168	-2.099780	-62.046263	-2.099780	-62.046263	-5.596941	37.327659
7.300000	-5.279551	13.362514	-2.179484	-65.285687	-2.179484	-65.285687	-5.428318	33.625508
7.350000	-5.119685	10.691929	-2.260966	-68.515831	-2.260966	-68.515831	-5.265251	29.940776
7.400000	-4.965361	8.026621	-2.344005	-71.736102	-2.344005	-71.736102	-5.107807	26.274212
7.450000	-4.817000	5.367585	-2.428457	-74.944561	-2.428457	-74.944561	-4.956422	22.629014
7.500000	-4.674204	2.714317	-2.514028	-78.142185	-2.514028	-78.142185	-4.810713	19.003108
7.550000	-4.537852	0.068674	-2.600486	-81.325617	-2.600486	-81.325617	-4.671578	15.402121
7.600000	-4.407218	-2.570396	-2.687566	-84.496988	-2.687566	-84.496988	-4.538294	11.822068
7.650000	-4.283017	-5.201377	-2.774901	-87.653749	-2.774901	-87.653749	-4.411596	8.267139
7.700000	-4.164894	-7.824694	-2.862231	-90.796913	-2.862231	-90.796913	-4.291128	4.735444
7.750000	-4.053090	-10.439787	-2.949162	-93.925766	-2.949162	-93.925766	-4.177148	1.228109
7.800000	-3.947757	-13.046336	-3.035286	-97.040040	-3.035286	-97.040040	-4.069813	-2.254418
7.850000	-3.848555	-15.644930	-3.120346	-100.141024	-3.120346	-100.141024	-3.968784	-5.714243
7.900000	-3.756264	-18.234506	-3.203608	-103.227266	-3.203608	-103.227266	-3.874865	-9.148662
7.950000	-3.669988	-20.816687	-3.285079	-106.301712	-3.285079	-106.301712	-3.787143	-12.562430
8.000000	-3.590911	-23.390293	-3.363684	-109.362855	-3.363684	-109.362855	-3.706844	-15.952302
8.050000	-3.518096	-25.957156	-3.439517	-112.413886	-3.439517	-112.413886	-3.633007	-19.323273
8.100000	-3.452365	-28.517162	-3.511595	-115.455083	-3.511595	-115.455083	-3.566493	-22.674684
8.150000	-3.393489	-31.071555	-3.579613	-118.488749	-3.579613	-118.488749	-3.507071	-26.009529
8.200000	-3.341644	-33.621432	-3.642988	-121.517044	-3.642988	-121.517044	-3.454935	-29.330117
8.250000	-3.297455	-36.167903	-3.700778	-124.542324	-3.700778	-124.542324	-3.410747	-32.638424
8.300000	-3.260352	-38.712805	-3.753042	-127.567734	-3.753042	-127.567734	-3.373931	-35.938734
8.350000	-3.232027	-41.257910	-3.797918	-130.597286	-3.797918	-130.597286	-3.346269	-39.233631
8.400000	-3.211358	-43.805149	-3.836079	-133.634077	-3.836079	-133.634077	-3.326610	-42.527926
8.450000	-3.200399	-46.357617	-3.865374	-136.684808	-3.865374	-136.684808	-3.317134	-45.826799
8.500000	-3.198584	-48.917318	-3.886158	-139.753116	-3.886158	-139.753116	-3.317280	-49.134965
8.550000	-3.207541	-51.488116	-3.896855	-142.847282	-3.896855	-142.847282	-3.328805	-52.459822
8.600000	-3.228124	-54.073325	-3.896766	-145.974508	-3.896766	-145.974508	-3.352664	-55.808411
8.650000	-3.261187	-56.676219	-3.885396	-149.142352	-3.885396	-149.142352	-3.389826	-59.188149
8.700000	-3.309740	-59.303110	-3.860584	-152.366160	-3.860584	-152.366160	-3.443589	-62.612638
8.750000	-3.373464	-61.954628	-3.823403	-155.649000	-3.823403	-155.649000	-3.513714	-66.085634
8.800000	-3.458885	-64.641974	-3.769757	-159.021772	-3.769757	-159.021772	-3.607390	-69.633845
8.850000	-3.565232	-67.362651	-3.701913	-162.483735	-3.701913	-162.483735	-3.723980	-73.257401
8.900000	-3.699776	-70.125350	-3.616878	-166.068573	-3.616878	-166.068573	-3.871708	-76.985096
8.950000	-3.867389	-72.930998	-3.514526	-169.797115	-3.514526	-169.797115	-4.056368	-80.834316
9.000000	-4.075584	-75.778753	-3.394373	-173.698916	-3.394373	-173.698916	-4.286962	-84.828864
9.050000	-4.334362	-78.661839	-3.256328	-177.809400	-3.256328	-177.809400	-4.575765	-88.995815
9.100000	-4.658825	-81.561941	-3.100472	177.821521	-3.100472	177.821521	-4.941818	-93.370977
9.150000	-5.066805	-84.437157	-2.928868	173.145901	-2.928868	173.145901	-5.409086	-97.982836
9.200000	-5.580307	-87.212221	-2.745285	168.117271	-2.745285	168.117271	-6.009598	-102.849939
9.250000	-6.237585	-89.723447	-2.554723	162.649016	-2.554723	162.649016	-6.803067	-107.998399
9.300000	-7.081499	-91.666062	-2.366723	156.674643	-2.366723	156.674643	-7.873575	-113.393531
9.350000	-8.163376	-92.449716	-2.195035	150.124958	-2.195035	150.124958	-9.365300	-118.892810
9.400000	-9.520248	-90.883995	-2.059506	142.933946	-2.059506	142.933946	-11.555920	-124.019072
9.450000	-11.063826	-84.791400	-1.986468	135.071925	-1.986468	135.071925	-15.070193	-126.965463
9.500000	-12.278574	-71.708359	-2.006609	126.572413	-2.006609	126.572413	-21.750559	-116.501135
9.550000	-12.122318	-53.904956	-2.153513	117.542097	-2.153513	117.542097	-23.895911	-25.437318
9.600000	-10.485836	-40.525920	-2.456097	108.187389	-2.456097	108.187389	-15.450689	-4.775969
9.650000	-8.450848	-34.977369	-2.927913	98.797311	-2.927913	98.797311	-10.960733	-7.875782
9.700000	-6.648288	-34.828387	-3.566587	89.698400	-3.566587	89.698400	-8.137990	-14.624106
9.750000	-5.207386	-37.546659	-4.342386	81.179686	-4.342386	81.179686	-6.205325	-22.227258
9.800000	-4.106947	-41.710090	-5.210898	73.317621	-5.210898	73.317621	-4.842940	-29.883481
9.850000	-3.302413	-46.396734	-6.153244	66.064661	-6.153244	66.064661	-3.880166	-37.124194
9.900000	-2.716909	-51.048248	-7.156985	59.479482	-7.156985	59.479482	-3.187841	-43.749646
9.950000	-2.281930	-55.482960	-8.200704	53.571556	-8.200704	53.571556	-2.677384	-49.781842
10.000000	-1.967914	-59.484763	-9.216388	48.500691	-9.216388	48.500691	-2.309436	-55.012449
