! freq	dB(S11)	phase(S11)	dB(S12)	phase(S12)	
!     	dB(S21)	phase(S21)	dB(S22)	phase(S22)	
!S-par simulation data
#  GHz  S  DB  R 50
0.000000	-0.000000	0.000000	-299.471598	0.000000	-299.471598	0.000000	0.000000	0.000000
0.050000	-0.001075	-1.196922	-99.352392	88.654326	-99.352392	88.654326	-0.001464	-1.621512
0.100000	-0.003106	-2.384383	-93.366241	87.357612	-93.366241	87.357612	-0.004188	-3.229994
0.150000	-0.004970	-3.565451	-89.894997	86.013501	-89.894997	86.013501	-0.006667	-4.829792
0.200000	-0.006553	-4.743905	-87.463026	84.653622	-87.463026	84.653622	-0.008780	-6.425822
0.250000	-0.008004	-5.921314	-85.604328	83.301994	-85.604328	83.301994	-0.010731	-8.019970
0.300000	-0.009411	-7.097987	-84.113708	81.973504	-84.113708	81.973504	-0.012632	-9.612487
0.350000	-0.010818	-8.273937	-82.884002	80.680155	-82.884002	80.680155	-0.014534	-11.203230
0.400000	-0.012242	-9.449112	-81.851841	79.431690	-81.851841	79.431690	-0.016457	-12.791987
0.450000	-0.013686	-10.623521	-80.973069	78.232678	-80.973069	78.232678	-0.018401	-14.378713
0.500000	-0.015147	-11.797139	-80.219568	77.089726	-80.219568	77.089726	-0.020362	-15.963280
0.550000	-0.016622	-12.969889	-79.574776	76.014861	-79.574776	76.014861	-0.022334	-17.545401
0.600000	-0.018108	-14.141769	-79.022795	75.015918	-79.022795	75.015918	-0.024311	-19.124999
0.650000	-0.019601	-15.312777	-78.551104	74.100547	-78.551104	74.100547	-0.026289	-20.702018
0.700000	-0.021098	-16.482868	-78.151925	73.281720	-78.151925	73.281720	-0.028265	-22.276286
0.750000	-0.022597	-17.651939	-77.821803	72.580528	-77.821803	72.580528	-0.030234	-23.847473
0.800000	-0.024095	-18.820052	-77.549858	72.000217	-77.549858	72.000217	-0.032195	-25.415764
0.850000	-0.025591	-19.986961	-77.340972	71.587020	-77.340972	71.587020	-0.034145	-26.980420
0.900000	-0.027084	-21.152816	-77.181995	71.334667	-77.181995	71.334667	-0.036083	-28.541915
0.950000	-0.028572	-22.317343	-77.078693	71.306854	-77.078693	71.306854	-0.038007	-30.099451
1.000000	-0.030056	-23.480644	-77.021578	71.509583	-77.021578	71.509583	-0.039917	-31.653357
1.050000	-0.031534	-24.642548	-77.011131	72.005970	-77.011131	72.005970	-0.041813	-33.203158
1.100000	-0.033008	-25.803016	-77.042624	72.840718	-77.042624	72.840718	-0.043693	-34.748768
1.150000	-0.034477	-26.962042	-77.109369	74.058084	-77.109369	74.058084	-0.045559	-36.290192
1.200000	-0.035941	-28.119417	-77.207000	75.766748	-77.207000	75.766748	-0.047411	-37.826852
1.250000	-0.037403	-29.275331	-77.321828	77.959656	-77.321828	77.959656	-0.049250	-39.359312
1.300000	-0.038861	-30.429383	-77.440267	80.830913	-77.440267	80.830913	-0.051074	-40.886436
1.350000	-0.040317	-31.581882	-77.543038	84.305994	-77.543038	84.305994	-0.052887	-42.409120
1.400000	-0.041771	-32.732517	-77.599238	88.513173	-77.599238	88.513173	-0.054687	-43.926485
1.450000	-0.043225	-33.881421	-77.583274	93.357598	-77.583274	93.357598	-0.056477	-45.438912
1.500000	-0.044679	-35.028487	-77.459736	98.753029	-77.459736	98.753029	-0.058256	-46.946103
1.550000	-0.046133	-36.173648	-77.199637	104.511065	-77.199637	104.511065	-0.060026	-48.447866
1.600000	-0.047588	-37.317021	-76.800261	110.354659	-76.800261	110.354659	-0.061787	-49.944531
1.650000	-0.049044	-38.458322	-76.242063	115.990773	-76.242063	115.990773	-0.063538	-51.435287
1.700000	-0.050501	-39.597636	-75.554195	121.160102	-75.554195	121.160102	-0.065281	-52.920373
1.750000	-0.051960	-40.735104	-74.778782	125.757332	-74.778782	125.757332	-0.067016	-54.400187
1.800000	-0.053421	-41.870595	-73.936679	129.682731	-73.936679	129.682731	-0.068743	-55.874352
1.850000	-0.054884	-43.004094	-73.055806	132.928651	-73.055806	132.928651	-0.070463	-57.342820
1.900000	-0.056348	-44.135585	-72.158666	135.533527	-72.158666	135.533527	-0.072176	-58.805545
1.950000	-0.057815	-45.265056	-71.261867	137.559988	-71.261867	137.559988	-0.073882	-60.262488
2.000000	-0.059284	-46.392497	-70.376847	139.078984	-70.376847	139.078984	-0.075582	-61.713616
2.050000	-0.060755	-47.517896	-69.510989	140.160220	-69.510989	140.160220	-0.077275	-63.158900
2.100000	-0.062229	-48.641246	-68.668718	140.867345	-68.668718	140.867345	-0.078963	-64.598314
2.150000	-0.063706	-49.762540	-67.852404	141.256126	-67.852404	141.256126	-0.080644	-66.031839
2.200000	-0.065185	-50.881771	-67.063031	141.374283	-67.063031	141.374283	-0.082321	-67.459460
2.250000	-0.066667	-51.998934	-66.300682	141.262116	-66.300682	141.262116	-0.083993	-68.881165
2.300000	-0.068153	-53.114025	-65.564875	140.953424	-65.564875	140.953424	-0.085662	-70.296946
2.350000	-0.069643	-54.227043	-64.854782	140.476489	-64.854782	140.476489	-0.087326	-71.706801
2.400000	-0.071136	-55.337984	-64.169382	139.854974	-64.169382	139.854974	-0.088988	-73.110729
2.450000	-0.072635	-56.446847	-63.507561	139.108714	-63.507561	139.108714	-0.090648	-74.508735
2.500000	-0.074138	-57.553633	-62.868172	138.254387	-62.868172	138.254387	-0.092307	-75.900827
2.550000	-0.075648	-58.658253	-62.249106	137.302538	-62.249106	137.302538	-0.093965	-77.286759
2.600000	-0.077163	-59.760799	-61.650372	136.269520	-61.650372	136.269520	-0.095623	-78.666804
2.650000	-0.078686	-60.861274	-61.070891	135.165272	-61.070891	135.165272	-0.097283	-80.040981
2.700000	-0.080216	-61.959681	-60.509642	133.998305	-60.509642	133.998305	-0.098945	-81.409310
2.750000	-0.081754	-63.056027	-59.965667	132.775933	-59.965667	132.775933	-0.100610	-82.771818
2.800000	-0.083302	-64.150317	-59.438067	131.504472	-59.438067	131.504472	-0.102280	-84.128531
2.850000	-0.084859	-65.242558	-58.926003	130.189392	-58.926003	130.189392	-0.103954	-85.479482
2.900000	-0.086426	-66.332758	-58.428693	128.835454	-58.428693	128.835454	-0.105634	-86.824703
2.950000	-0.088005	-67.420925	-57.945408	127.446813	-57.945408	127.446813	-0.107322	-88.164231
3.000000	-0.089596	-68.507071	-57.475469	126.027111	-57.475469	126.027111	-0.109017	-89.498107
3.050000	-0.091200	-69.591206	-57.018240	124.579549	-57.018240	124.579549	-0.110722	-90.826373
3.100000	-0.092818	-70.673342	-56.573133	123.106949	-56.573133	123.106949	-0.112436	-92.149073
3.150000	-0.094450	-71.753494	-56.139596	121.611812	-56.139596	121.611812	-0.114162	-93.466255
3.200000	-0.096098	-72.831674	-55.717115	120.096353	-55.717115	120.096353	-0.115900	-94.777970
3.250000	-0.097761	-73.907899	-55.305208	118.562546	-55.305208	118.562546	-0.117650	-96.084270
3.300000	-0.099442	-74.982185	-54.903427	117.012153	-54.903427	117.012153	-0.119414	-97.385211
3.350000	-0.101140	-76.054606	-54.511579	115.447131	-54.511579	115.447131	-0.121193	-98.681001
3.400000	-0.102857	-77.125044	-54.128696	113.867921	-54.128696	113.867921	-0.122987	-99.971327
3.450000	-0.104593	-78.193631	-53.754876	112.276601	-53.754876	112.276601	-0.124798	-101.256554
3.500000	-0.106349	-79.260388	-53.389750	110.674266	-53.389750	110.674266	-0.126626	-102.536746
3.550000	-0.108125	-80.325335	-53.032977	109.061913	-53.032977	109.061913	-0.128472	-103.811964
3.600000	-0.109924	-81.388301	-52.683573	107.439530	-52.683573	107.439530	-0.130337	-105.081742
3.650000	-0.111746	-82.449500	-52.341926	105.808956	-52.341926	105.808956	-0.132223	-106.346663
3.700000	-0.113590	-83.508968	-52.007784	104.170980	-52.007784	104.170980	-0.134128	-107.606830
3.750000	-0.115458	-84.566732	-51.680871	102.526270	-51.680871	102.526270	-0.136054	-108.862312
3.800000	-0.117349	-85.622820	-51.360929	100.875441	-51.360929	100.875441	-0.138001	-110.113184
3.850000	-0.119265	-86.677260	-51.047714	99.219054	-51.047714	99.219054	-0.139970	-111.359520
3.900000	-0.121207	-87.730016	-50.740810	97.557433	-50.740810	97.557433	-0.141961	-112.601209
3.950000	-0.123177	-88.781076	-50.439899	95.890976	-50.439899	95.890976	-0.143978	-113.838206
4.000000	-0.125173	-89.830591	-50.145105	94.220475	-50.145105	94.220475	-0.146018	-115.070918
4.050000	-0.127196	-90.878596	-49.856229	92.546327	-49.856229	92.546327	-0.148082	-116.299428
4.100000	-0.129246	-91.925127	-49.573082	90.868897	-49.573082	90.868897	-0.150170	-117.523817
4.150000	-0.131324	-92.970220	-49.295484	89.188522	-49.295484	89.188522	-0.152283	-118.744172
4.200000	-0.133431	-94.013915	-49.023264	87.505516	-49.023264	87.505516	-0.154421	-119.960576
4.250000	-0.135570	-95.056128	-48.755984	85.819977	-48.755984	85.819977	-0.156587	-121.172771
4.300000	-0.137739	-96.096998	-48.493721	84.132360	-48.493721	84.132360	-0.158779	-122.381115
4.350000	-0.139938	-97.136600	-48.236404	82.442965	-48.236404	82.442965	-0.160998	-123.585794
4.400000	-0.142168	-98.174978	-47.983888	80.752019	-47.983888	80.752019	-0.163244	-124.786897
4.450000	-0.144429	-99.212177	-47.736037	79.059731	-47.736037	79.059731	-0.165516	-125.984517
4.500000	-0.146721	-100.248243	-47.492721	77.366295	-47.492721	77.366295	-0.167816	-127.178748
4.550000	-0.149047	-101.283197	-47.253761	75.671874	-47.253761	75.671874	-0.170145	-128.369606
4.600000	-0.151407	-102.317025	-47.018909	73.976600	-47.018909	73.976600	-0.172504	-129.556981
4.650000	-0.153801	-103.349876	-46.788256	72.280712	-46.788256	72.280712	-0.174891	-130.741273
4.700000	-0.156228	-104.381801	-46.561693	70.584350	-46.561693	70.584350	-0.177307	-131.922579
4.750000	-0.158695	-105.412735	-46.338860	68.887614	-46.338860	68.887614	-0.179755	-133.100591
4.800000	-0.161187	-106.443059	-46.120348	67.190712	-46.120348	67.190712	-0.182226	-134.276524
4.850000	-0.163719	-107.472476	-45.905320	65.493660	-45.905320	65.493660	-0.184731	-135.449278
4.900000	-0.166291	-108.501135	-45.693854	63.796628	-45.693854	63.796628	-0.187269	-136.619223
4.950000	-0.168894	-109.529244	-45.486200	62.099679	-45.486200	62.099679	-0.189833	-137.787042
5.000000	-0.171528	-110.556829	-45.282230	60.402853	-45.282230	60.402853	-0.192423	-138.952781
5.050000	-0.174207	-111.583762	-45.081387	58.706330	-45.081387	58.706330	-0.195051	-140.115709
5.100000	-0.176924	-112.610233	-44.883891	57.010139	-44.883891	57.010139	-0.197710	-141.276454
5.150000	-0.179679	-113.636307	-44.689667	55.314341	-44.689667	55.314341	-0.200400	-142.435125
5.200000	-0.182473	-114.662052	-44.498643	53.618993	-44.498643	53.618993	-0.203122	-143.591834
5.250000	-0.185306	-115.687534	-44.310749	51.924144	-44.310749	51.924144	-0.205876	-144.746692
5.300000	-0.188178	-116.712824	-44.125917	50.229837	-44.125917	50.229837	-0.208663	-145.899809
5.350000	-0.191090	-117.737991	-43.944082	48.536107	-43.944082	48.536107	-0.211482	-147.051298
5.400000	-0.194043	-118.763106	-43.765182	46.842985	-43.765182	46.842985	-0.214334	-148.201272
5.450000	-0.197037	-119.788242	-43.589157	45.150496	-43.589157	45.150496	-0.217219	-149.349846
5.500000	-0.200072	-120.813472	-43.415947	43.458660	-43.415947	43.458660	-0.220138	-150.497132
5.550000	-0.203148	-121.838871	-43.245498	41.767490	-43.245498	41.767490	-0.223090	-151.643248
5.600000	-0.206267	-122.864512	-43.077753	40.076996	-43.077753	40.076996	-0.226076	-152.788307
5.650000	-0.209429	-123.890473	-42.912662	38.387182	-42.912662	38.387182	-0.229097	-153.932426
5.700000	-0.212634	-124.916826	-42.750173	36.698048	-42.750173	36.698048	-0.232151	-155.075723
5.750000	-0.215882	-125.943649	-42.590238	35.009589	-42.590238	35.009589	-0.235241	-156.218315
5.800000	-0.219174	-126.971014	-42.432810	33.321798	-42.432810	33.321798	-0.238366	-157.360321
5.850000	-0.222511	-127.998994	-42.277843	31.634660	-42.277843	31.634660	-0.241525	-158.501858
5.900000	-0.225894	-129.027655	-42.125294	29.948159	-42.125294	29.948159	-0.244721	-159.643048
5.950000	-0.229324	-130.057057	-41.975120	28.262274	-41.975120	28.262274	-0.247951	-160.784010
6.000000	-0.232805	-131.087247	-41.827279	26.576981	-41.827279	26.576981	-0.251218	-161.924865
6.050000	-0.236341	-132.118253	-41.681734	24.892252	-41.681734	24.892252	-0.254521	-163.065737
6.100000	-0.239945	-133.150068	-41.538445	23.208054	-41.538445	23.208054	-0.257861	-164.206747
6.150000	-0.243646	-134.182643	-41.397376	21.524353	-41.397376	21.524353	-0.261237	-165.348019
6.200000	-0.247513	-135.215930	-41.258491	19.841111	-41.258491	19.841111	-0.264650	-166.489678
6.250000	-0.251707	-136.250226	-41.121754	18.158284	-41.121754	18.158284	-0.268100	-167.631849
6.300000	-0.256457	-137.288176	-40.987134	16.475841	-40.987134	16.475841	-0.271589	-168.774694
6.350000	-0.261146	-138.333872	-40.854600	14.793715	-40.854600	14.793715	-0.275115	-169.918316
6.400000	-0.264941	-139.382405	-40.724118	13.111850	-40.724118	13.111850	-0.278679	-171.062846
6.450000	-0.268405	-140.429378	-40.595659	11.430191	-40.595659	11.430191	-0.282281	-172.208414
6.500000	-0.271976	-141.475963	-40.469190	9.748674	-40.469190	9.748674	-0.285922	-173.355151
6.550000	-0.275723	-142.523621	-40.344683	8.067234	-40.344683	8.067234	-0.289600	-174.503191
6.600000	-0.279616	-143.573084	-40.222106	6.385800	-40.222106	6.385800	-0.293317	-175.652668
6.650000	-0.283622	-144.624688	-40.101430	4.704295	-40.101430	4.704295	-0.297073	-176.803720
6.700000	-0.287720	-145.678619	-39.982627	3.022637	-39.982627	3.022637	-0.300869	-177.956484
6.750000	-0.291898	-146.735016	-39.865665	1.340737	-39.865665	1.340737	-0.304704	-179.111100
6.800000	-0.296147	-147.793996	-39.750516	-0.341501	-39.750516	-0.341501	-0.308578	179.732287
6.850000	-0.300464	-148.855677	-39.637150	-2.024181	-39.637150	-2.024181	-0.312493	178.573534
6.900000	-0.304844	-149.920170	-39.525535	-3.707419	-39.525535	-3.707419	-0.316449	177.412491
6.950000	-0.309287	-150.987593	-39.415640	-5.391338	-39.415640	-5.391338	-0.320446	176.249008
7.000000	-0.313791	-152.058061	-39.307432	-7.076076	-39.307432	-7.076076	-0.324485	175.082931
7.050000	-0.318354	-153.131693	-39.200876	-8.761785	-39.200876	-8.761785	-0.328567	173.914101
7.100000	-0.322977	-154.208611	-39.095938	-10.448633	-39.095938	-10.448633	-0.332692	172.742356
7.150000	-0.327659	-155.288937	-38.992579	-12.136806	-38.992579	-12.136806	-0.336862	171.567529
7.200000	-0.332400	-156.372797	-38.890759	-13.826514	-38.890759	-13.826514	-0.341079	170.389448
7.250000	-0.337200	-157.460316	-38.790433	-15.517992	-38.790433	-15.517992	-0.345342	169.207935
7.300000	-0.342057	-158.551625	-38.691556	-17.211504	-38.691556	-17.211504	-0.349655	168.022806
7.350000	-0.346974	-159.646853	-38.594075	-18.907352	-38.594075	-18.907352	-0.354020	166.833869
7.400000	-0.351948	-160.746133	-38.497935	-20.605875	-38.497935	-20.605875	-0.358438	165.640923
7.450000	-0.356981	-161.849600	-38.403074	-22.307462	-38.403074	-22.307462	-0.362914	164.443759
7.500000	-0.362072	-162.957391	-38.309423	-24.012560	-38.309423	-24.012560	-0.367450	163.242154
7.550000	-0.367223	-164.069844	-38.216910	-25.721884	-38.216910	-25.721884	-0.372055	162.035662
7.600000	-0.372431	-165.186913	-38.125439	-27.435887	-38.125439	-27.435887	-0.376731	160.824222
7.650000	-0.377697	-166.308740	-38.034913	-29.155271	-38.034913	-29.155271	-0.381484	159.607567
7.700000	-0.383021	-167.435469	-37.945219	-30.880856	-37.945219	-30.880856	-0.386323	158.385407
7.750000	-0.388401	-168.567248	-37.856233	-32.613605	-37.856233	-32.613605	-0.391257	157.157428
7.800000	-0.393838	-169.704225	-37.767809	-34.354650	-37.767809	-34.354650	-0.396298	155.923286
7.850000	-0.399331	-170.846552	-37.679781	-36.105334	-37.679781	-36.105334	-0.401461	154.682602
7.900000	-0.404881	-171.994381	-37.591960	-37.867253	-37.591960	-37.867253	-0.406762	153.434956
7.950000	-0.410485	-173.147869	-37.504123	-39.642324	-37.504123	-39.642324	-0.412225	152.179875
8.000000	-0.416145	-174.307173	-37.416012	-41.432859	-37.416012	-41.432859	-0.417877	150.916824
8.050000	-0.421859	-175.472454	-37.327325	-43.241667	-37.327325	-43.241667	-0.423753	149.645189
8.100000	-0.427627	-176.643875	-37.237708	-45.072197	-37.237708	-45.072197	-0.429898	148.364259
8.150000	-0.433448	-177.821604	-37.146743	-46.928720	-37.146743	-46.928720	-0.436368	147.073200
8.200000	-0.439321	-179.005811	-37.053933	-48.816581	-37.053933	-48.816581	-0.443239	145.771024
8.250000	-0.445247	179.803330	-36.958686	-50.742563	-36.958686	-50.742563	-0.450609	144.456538
8.300000	-0.451224	178.605638	-36.860297	-52.715386	-36.860297	-52.715386	-0.458611	143.128287
8.350000	-0.457250	177.401138	-36.758111	-54.744186	-36.758111	-54.744186	-0.467396	141.785009
8.400000	-0.463329	176.189123	-36.650684	-56.849027	-36.650684	-56.849027	-0.477285	140.423212
8.450000	-0.469459	174.969805	-36.537144	-59.046413	-36.537144	-59.046413	-0.488582	139.041022
8.500000	-0.475641	173.742972	-36.416105	-61.363689	-36.416105	-61.363689	-0.501794	137.634871
8.550000	-0.481877	172.508407	-36.285969	-63.839092	-36.285969	-63.839092	-0.517671	136.200188
8.600000	-0.488178	171.265134	-36.143615	-66.552493	-36.143615	-66.552493	-0.537817	134.727384
8.650000	-0.494551	170.013487	-35.988083	-69.581833	-35.988083	-69.581833	-0.564061	133.210506
8.700000	-0.501020	168.753123	-35.818289	-73.067800	-35.818289	-73.067800	-0.599823	131.639350
8.750000	-0.507637	167.483215	-35.635630	-77.279069	-35.635630	-77.279069	-0.652117	130.000093
8.800000	-0.514494	166.203576	-35.452939	-82.592315	-35.452939	-82.592315	-0.732083	128.291891
8.850000	-0.521830	164.913205	-35.319389	-89.821286	-35.319389	-89.821286	-0.865027	126.555227
8.900000	-0.530117	163.612722	-35.399676	-100.200160	-35.399676	-100.200160	-1.089932	125.027277
8.950000	-0.540167	162.307045	-36.235477	-115.288591	-36.235477	-115.288591	-1.424670	124.555741
9.000000	-0.551566	161.012484	-39.161857	-132.601687	-39.161857	-132.601687	-1.633963	126.234696
9.050000	-0.559846	159.732071	-45.562304	-131.651060	-45.562304	-131.651060	-1.394338	127.828660
9.100000	-0.564027	158.431338	-48.025189	-80.760549	-48.025189	-80.760549	-1.046928	127.132202
9.150000	-0.567839	157.102732	-44.292874	-61.753732	-44.292874	-61.753732	-0.827791	125.386126
9.200000	-0.572516	155.756148	-42.090083	-60.706234	-42.090083	-60.706234	-0.709516	123.469338
9.250000	-0.577901	154.397161	-40.841684	-62.645025	-40.841684	-62.645025	-0.644722	121.606113
9.300000	-0.583733	153.027543	-40.058955	-65.094324	-40.058955	-65.094324	-0.607846	119.821123
9.350000	-0.589847	151.647353	-39.532292	-67.532106	-39.532292	-67.532106	-0.586616	118.101758
9.400000	-0.596132	150.257264	-39.150168	-69.854021	-39.150168	-69.854021	-0.574001	116.427119
9.450000	-0.602530	148.856935	-38.862376	-72.045717	-38.862376	-72.045717	-0.566847	114.784181
9.500000	-0.609009	147.445576	-38.641596	-74.112284	-38.641596	-74.112284	-0.563450	113.163618
9.550000	-0.615535	146.024238	-38.463231	-76.083390	-38.463231	-76.083390	-0.562295	111.555432
9.600000	-0.622097	144.590846	-38.321133	-77.958763	-38.321133	-77.958763	-0.563013	109.955308
9.650000	-0.628677	143.147355	-38.201868	-79.767538	-38.201868	-79.767538	-0.564846	108.357604
9.700000	-0.635265	141.691651	-38.103495	-81.508615	-38.103495	-81.508615	-0.567686	106.758969
9.750000	-0.641852	140.225113	-38.019752	-83.198745	-38.019752	-83.198745	-0.571209	105.156813
9.800000	-0.648431	138.746703	-37.948778	-84.840948	-37.948778	-84.840948	-0.575325	103.548452
9.850000	-0.654993	137.256506	-37.888170	-86.441745	-37.888170	-86.441745	-0.579918	101.932041
9.900000	-0.661535	135.754846	-37.835917	-88.007210	-37.835917	-88.007210	-0.584894	100.306216
9.950000	-0.668046	134.240447	-37.791453	-89.537770	-37.791453	-89.537770	-0.590229	98.668423
10.000000	-0.674527	132.715059	-37.752747	-91.041305	-37.752747	-91.041305	-0.595825	97.019145
