! freq	dB(S11)	phase(S11)	dB(S12)	phase(S12)	
!     	dB(S21)	phase(S21)	dB(S22)	phase(S22)	
!S-par simulation data
#  GHz  S  DB  R 50
0.000000	0.000000	-0.000000	-286.260845	180.000000	-286.260845	180.000000	0.000000	-0.000000
0.050000	-0.007035	-1.248952	-105.160031	111.585982	-105.160031	111.585982	-0.007009	-1.248814
0.100000	-0.011446	-2.553168	-97.368467	103.704643	-97.368467	103.704643	-0.011428	-2.552801
0.150000	-0.013148	-3.857322	-93.365073	97.742738	-93.365073	97.742738	-0.013137	-3.856806
0.200000	-0.014132	-5.157885	-90.734412	93.538244	-90.734412	93.538244	-0.014124	-5.157231
0.250000	-0.014913	-6.455743	-88.806714	90.369151	-88.806714	90.369151	-0.014908	-6.454952
0.300000	-0.015674	-7.751806	-87.302724	87.745743	-87.302724	87.745743	-0.015669	-7.750876
0.350000	-0.016467	-9.046271	-86.093197	85.513614	-86.093197	85.513614	-0.016463	-9.045199
0.400000	-0.017318	-10.339268	-85.102461	83.565307	-85.102461	83.565307	-0.017314	-10.338054
0.450000	-0.018237	-11.630828	-84.283687	81.843783	-84.283687	81.843783	-0.018234	-11.629471
0.500000	-0.019228	-12.920927	-83.606043	80.319975	-83.606043	80.319975	-0.019225	-12.919427
0.550000	-0.020290	-14.209514	-83.048322	78.981922	-83.048322	78.981922	-0.020287	-14.207870
0.600000	-0.021420	-15.496519	-82.595494	77.829365	-82.595494	77.829365	-0.021417	-15.494731
0.650000	-0.022615	-16.781868	-82.236691	76.871173	-82.236691	76.871173	-0.022612	-16.779934
0.700000	-0.023869	-18.065479	-81.963948	76.124393	-81.963948	76.124393	-0.023867	-18.063400
0.750000	-0.025179	-19.347272	-81.771360	75.614360	-81.771360	75.614360	-0.025176	-19.345048
0.800000	-0.026538	-20.627167	-81.654444	75.375631	-81.654444	75.375631	-0.026536	-20.624798
0.850000	-0.027943	-21.905087	-81.609588	75.453658	-81.609588	75.453658	-0.027940	-21.902572
0.900000	-0.029388	-23.180955	-81.633455	75.907140	-81.633455	75.907140	-0.029385	-23.178295
0.950000	-0.030868	-24.454698	-81.722220	76.810960	-81.722220	76.810960	-0.030865	-24.451892
1.000000	-0.032378	-25.726247	-81.870478	78.259321	-81.870478	78.259321	-0.032375	-25.723296
1.050000	-0.033915	-26.995536	-82.069593	80.368075	-82.069593	80.368075	-0.033912	-26.992439
1.100000	-0.035473	-28.262500	-82.305244	83.273897	-82.305244	83.273897	-0.035470	-28.259259
1.150000	-0.037049	-29.527079	-82.554028	87.125556	-82.554028	87.125556	-0.037046	-29.523693
1.200000	-0.038640	-30.789216	-82.779504	92.059291	-82.779504	92.059291	-0.038636	-30.785685
1.250000	-0.040241	-32.048856	-82.929462	98.148272	-82.929462	98.148272	-0.040238	-32.045180
1.300000	-0.041851	-33.305833	-82.929252	105.355848	-82.929252	105.355848	-0.041847	-33.302012
1.350000	-0.043466	-34.560206	-82.718290	113.309690	-82.718290	113.309690	-0.043462	-34.556240
1.400000	-0.045083	-35.811929	-82.259079	121.480769	-82.259079	121.480769	-0.045079	-35.807818
1.450000	-0.046701	-37.060956	-81.558085	129.281550	-81.558085	129.281550	-0.046697	-37.056701
1.500000	-0.048319	-38.307244	-80.661402	136.250866	-80.661402	136.250866	-0.048314	-38.302845
1.550000	-0.049934	-39.550754	-79.633139	142.148365	-79.633139	142.148365	-0.049929	-39.546211
1.600000	-0.051545	-40.791445	-78.534022	146.933762	-78.534022	146.933762	-0.051540	-40.786758
1.650000	-0.053151	-42.029281	-77.410589	150.691764	-77.410589	150.691764	-0.053146	-42.024451
1.700000	-0.054752	-43.264226	-76.293848	153.560860	-76.293848	153.560860	-0.054746	-43.259253
1.750000	-0.056346	-44.496248	-75.202347	155.687874	-75.202347	155.687874	-0.056341	-44.491131
1.800000	-0.057935	-45.725313	-74.146027	157.206082	-74.146027	157.206082	-0.057929	-45.720053
1.850000	-0.059516	-46.951392	-73.129384	158.227924	-73.129384	158.227924	-0.059511	-46.945989
1.900000	-0.061091	-48.174455	-72.153657	158.844873	-72.153657	158.844873	-0.061085	-48.168910
1.950000	-0.062660	-49.394476	-71.218249	159.130077	-71.218249	159.130077	-0.062654	-49.388788
2.000000	-0.064222	-50.611429	-70.321579	159.141664	-70.321579	159.141664	-0.064216	-50.605599
2.050000	-0.065778	-51.825290	-69.461607	158.925820	-69.461607	158.925820	-0.065772	-51.819318
2.100000	-0.067329	-53.036037	-68.636120	158.519373	-68.636120	158.519373	-0.067322	-53.029923
2.150000	-0.068875	-54.243648	-67.842910	157.951858	-67.842910	157.951858	-0.068868	-54.237392
2.200000	-0.070416	-55.448104	-67.079858	157.247128	-67.079858	157.247128	-0.070409	-55.441707
2.250000	-0.071954	-56.649388	-66.344978	156.424593	-66.344978	156.424593	-0.071947	-56.642849
2.300000	-0.073489	-57.847483	-65.636439	155.500182	-65.636439	155.500182	-0.073482	-57.840803
2.350000	-0.075022	-59.042375	-64.952562	154.487072	-64.952562	154.487072	-0.075015	-59.035554
2.400000	-0.076554	-60.234050	-64.291818	153.396258	-64.291818	153.396258	-0.076547	-60.227088
2.450000	-0.078086	-61.422498	-63.652820	152.236996	-63.652820	152.236996	-0.078078	-61.415395
2.500000	-0.079618	-62.607709	-63.034304	151.017139	-63.034304	151.017139	-0.079610	-62.600465
2.550000	-0.081152	-63.789533	-62.434180	149.741345	-62.434180	149.741345	-0.081144	-63.782148
2.600000	-0.082688	-64.968104	-61.852476	148.417942	-61.852476	148.417942	-0.082681	-64.960578
2.650000	-0.084228	-66.143418	-61.288228	147.051900	-61.288228	147.051900	-0.084221	-66.135752
2.700000	-0.085773	-67.315472	-60.740558	145.647593	-60.740558	145.647593	-0.085765	-67.307666
2.750000	-0.087323	-68.484265	-60.208659	144.208894	-60.208659	144.208894	-0.087315	-68.476318
2.800000	-0.088880	-69.649798	-59.691792	142.739264	-59.691792	142.739264	-0.088872	-69.641710
2.850000	-0.090444	-70.812071	-59.189273	141.241811	-59.189273	141.241811	-0.090436	-70.803843
2.900000	-0.092017	-71.971089	-58.700470	139.719342	-58.700470	139.719342	-0.092009	-71.962720
2.950000	-0.093599	-73.126858	-58.224798	138.174411	-58.224798	138.174411	-0.093591	-73.118348
3.000000	-0.095191	-74.279383	-57.761706	136.609349	-57.761706	136.609349	-0.095183	-74.270733
3.050000	-0.096795	-75.428674	-57.310683	135.026292	-57.310683	135.026292	-0.096787	-75.419884
3.100000	-0.098411	-76.574742	-56.871246	133.427204	-56.871246	133.427204	-0.098403	-76.565810
3.150000	-0.100040	-77.717597	-56.442940	131.813895	-56.442940	131.813895	-0.100032	-77.708525
3.200000	-0.101683	-78.857253	-56.025335	130.188034	-56.025335	130.188034	-0.101674	-78.848040
3.250000	-0.103341	-79.993726	-55.618020	128.551165	-55.618020	128.551165	-0.103332	-79.984372
3.300000	-0.105014	-81.127032	-55.220606	126.904714	-55.220606	126.904714	-0.105006	-81.117537
3.350000	-0.106705	-82.257189	-54.832721	125.249993	-54.832721	125.249993	-0.106696	-82.247553
3.400000	-0.108412	-83.384217	-54.454009	123.588216	-54.454009	123.588216	-0.108403	-83.374439
3.450000	-0.110138	-84.508137	-54.084128	121.920496	-54.084128	121.920496	-0.110129	-84.498218
3.500000	-0.111882	-85.628973	-53.722751	120.247855	-53.722751	120.247855	-0.111873	-85.618912
3.550000	-0.113647	-86.746748	-53.369563	118.571226	-53.369563	118.571226	-0.113637	-86.736545
3.600000	-0.115431	-87.861488	-53.024260	116.891456	-53.024260	116.891456	-0.115422	-87.851142
3.650000	-0.117237	-88.973221	-52.686550	115.209314	-52.686550	115.209314	-0.117228	-88.962733
3.700000	-0.119065	-90.081975	-52.356154	113.525490	-52.356154	113.525490	-0.119055	-90.071344
3.750000	-0.120915	-91.187780	-52.032801	111.840599	-52.032801	111.840599	-0.120905	-91.177006
3.800000	-0.122789	-92.290543	-51.716025	110.155188	-51.716025	110.155188	-0.122780	-92.279626
3.850000	-0.124687	-93.390425	-51.405801	108.469773	-51.405801	108.469773	-0.124678	-93.379364
3.900000	-0.126610	-94.487460	-51.101888	106.784760	-51.101888	106.784760	-0.126600	-94.476255
3.950000	-0.128558	-95.581684	-50.804055	105.100497	-50.804055	105.100497	-0.128548	-95.570335
4.000000	-0.130532	-96.673134	-50.512078	103.417274	-50.512078	103.417274	-0.130522	-96.661640
4.050000	-0.132531	-97.761849	-50.225747	101.735331	-50.225747	101.735331	-0.132521	-97.750210
4.100000	-0.134558	-98.847868	-49.944859	100.054860	-49.944859	100.054860	-0.134548	-98.836083
4.150000	-0.136612	-99.931232	-49.669221	98.376005	-49.669221	98.376005	-0.136602	-99.919301
4.200000	-0.138694	-101.011983	-49.398649	96.698872	-49.398649	96.698872	-0.138683	-100.999906
4.250000	-0.140804	-102.090164	-49.132970	95.023529	-49.132970	95.023529	-0.140793	-102.077940
4.300000	-0.142943	-103.165820	-48.872018	93.350010	-48.872018	93.350010	-0.142932	-103.153448
4.350000	-0.145112	-104.238996	-48.615638	91.678318	-48.615638	91.678318	-0.145101	-104.226476
4.400000	-0.147310	-105.309739	-48.363682	90.008431	-48.363682	90.008431	-0.147299	-105.297071
4.450000	-0.149538	-106.378096	-48.116013	88.340304	-48.116013	88.340304	-0.149527	-106.365279
4.500000	-0.151798	-107.444118	-47.872499	86.673873	-47.872499	86.673873	-0.151786	-107.431151
4.550000	-0.154088	-108.507852	-47.633020	85.009055	-47.633020	85.009055	-0.154076	-108.494735
4.600000	-0.156410	-109.569352	-47.397461	83.345758	-47.397461	83.345758	-0.156398	-109.556084
4.650000	-0.158764	-110.628667	-47.165715	81.683877	-47.165715	81.683877	-0.158752	-110.615248
4.700000	-0.161150	-111.685853	-46.937685	80.023301	-46.937685	80.023301	-0.161138	-111.672282
4.750000	-0.163569	-112.740962	-46.713277	78.363915	-46.713277	78.363915	-0.163556	-112.727238
4.800000	-0.166021	-113.794049	-46.492408	76.705602	-46.492408	76.705602	-0.166008	-113.780172
4.850000	-0.168506	-114.845171	-46.274997	75.048247	-46.274997	75.048247	-0.168493	-114.831140
4.900000	-0.171025	-115.894384	-46.060973	73.391735	-46.060973	73.391735	-0.171012	-115.880199
4.950000	-0.173579	-116.941747	-45.850269	71.735959	-45.850269	71.735959	-0.173565	-116.927406
5.000000	-0.176167	-117.987317	-45.642823	70.080818	-45.642823	70.080818	-0.176153	-117.972820
5.050000	-0.178791	-119.031082	-45.438510	68.426238	-45.438510	68.426238	-0.178777	-119.016428
5.100000	-0.181450	-120.073180	-45.237356	66.772112	-45.237356	66.772112	-0.181436	-120.058369
5.150000	-0.184145	-121.113673	-45.039312	65.118371	-45.039312	65.118371	-0.184130	-121.098703
5.200000	-0.186875	-122.152624	-44.844336	63.464958	-44.844336	63.464958	-0.186861	-122.137494
5.250000	-0.189642	-123.190094	-44.652386	61.811831	-44.652386	61.811831	-0.189627	-123.174804
5.300000	-0.192445	-124.226148	-44.463426	60.158962	-44.463426	60.158962	-0.192430	-124.210698
5.350000	-0.195284	-125.260851	-44.277421	58.506338	-44.277421	58.506338	-0.195269	-125.245239
5.400000	-0.198160	-126.294268	-44.094339	56.853961	-44.094339	56.853961	-0.198145	-126.278493
5.450000	-0.201074	-127.326465	-43.914150	55.201849	-43.914150	55.201849	-0.201058	-127.310527
5.500000	-0.204025	-128.357510	-43.736825	53.550033	-43.736825	53.550033	-0.204009	-128.341407
5.550000	-0.207014	-129.387469	-43.562336	51.898562	-43.562336	51.898562	-0.206998	-129.371201
5.600000	-0.210040	-130.416412	-43.390658	50.247498	-43.390658	50.247498	-0.210024	-130.399978
5.650000	-0.213105	-131.444408	-43.221765	48.596918	-43.221765	48.596918	-0.213089	-131.427807
5.700000	-0.216208	-132.471527	-43.055630	46.946912	-43.055630	46.946912	-0.216192	-132.454758
5.750000	-0.219350	-133.497840	-42.892229	45.297583	-42.892229	45.297583	-0.219333	-133.480901
5.800000	-0.222531	-134.523417	-42.731536	43.649044	-42.731536	43.649044	-0.222514	-134.506308
5.850000	-0.225751	-135.548331	-42.573525	42.001420	-42.573525	42.001420	-0.225734	-135.531051
5.900000	-0.229010	-136.572655	-42.418169	40.354846	-42.418169	40.354846	-0.228993	-136.555203
5.950000	-0.232309	-137.596462	-42.265441	38.709462	-42.265441	38.709462	-0.232292	-137.578837
6.000000	-0.235648	-138.619827	-42.115310	37.065418	-42.115310	37.065418	-0.235631	-138.602027
6.050000	-0.239026	-139.642823	-41.967748	35.422865	-41.967748	35.422865	-0.239009	-139.624848
6.100000	-0.242445	-140.665528	-41.822722	33.781962	-41.822722	33.781962	-0.242428	-140.647376
6.150000	-0.245905	-141.688016	-41.680201	32.142866	-41.680201	32.142866	-0.245888	-141.669686
6.200000	-0.249405	-142.710365	-41.540149	30.505735	-41.540149	30.505735	-0.249388	-142.691857
6.250000	-0.252946	-143.732652	-41.402529	28.870728	-41.402529	28.870728	-0.252929	-143.713964
6.300000	-0.256530	-144.754959	-41.267319	27.238105	-41.267319	27.238105	-0.256513	-144.736090
6.350000	-0.260155	-145.777369	-41.134467	25.607921	-41.134467	25.607921	-0.260138	-145.758318
6.400000	-0.263822	-146.799961	-41.003932	23.980318	-41.003932	23.980318	-0.263805	-146.780726
6.450000	-0.267531	-147.822814	-40.875672	22.355431	-40.875672	22.355431	-0.267514	-147.803394
6.500000	-0.271281	-148.846010	-40.749642	20.733383	-40.749642	20.733383	-0.271264	-148.826404
6.550000	-0.275074	-149.869630	-40.625795	19.114287	-40.625795	19.114287	-0.275057	-149.849837
6.600000	-0.278908	-150.893755	-40.504085	17.498243	-40.504085	17.498243	-0.278892	-150.873774
6.650000	-0.282786	-151.918470	-40.384464	15.885339	-40.384464	15.885339	-0.282769	-151.898298
6.700000	-0.286706	-152.943855	-40.266881	14.275646	-40.266881	14.275646	-0.286689	-152.923492
6.750000	-0.290668	-153.969997	-40.151287	12.669220	-40.151287	12.669220	-0.290652	-153.949441
6.800000	-0.294674	-154.996978	-40.037631	11.066100	-40.037631	11.066100	-0.294658	-154.976229
6.850000	-0.298723	-156.024885	-39.925862	9.466306	-39.925862	9.466306	-0.298708	-156.003939
6.900000	-0.302816	-157.053802	-39.815928	7.869843	-39.815928	7.869843	-0.302801	-157.032660
6.950000	-0.306952	-158.083816	-39.707777	6.276692	-39.707777	6.276692	-0.306937	-158.062475
7.000000	-0.311132	-159.115013	-39.601359	4.686817	-39.601359	4.686817	-0.311117	-159.093472
7.050000	-0.315356	-160.147481	-39.496621	3.100163	-39.496621	3.100163	-0.315342	-160.125739
7.100000	-0.319624	-161.181309	-39.393515	1.516652	-39.393515	1.516652	-0.319610	-161.159364
7.150000	-0.323936	-162.216584	-39.291988	-0.063814	-39.291988	-0.063814	-0.323923	-162.194434
7.200000	-0.328293	-163.253395	-39.191995	-1.641351	-39.191995	-1.641351	-0.328280	-163.231039
7.250000	-0.332694	-164.291832	-39.093485	-3.216098	-39.093485	-3.216098	-0.332682	-164.269268
7.300000	-0.337141	-165.331986	-38.996415	-4.788215	-38.996415	-4.788215	-0.337128	-165.309212
7.350000	-0.341632	-166.373947	-38.900740	-6.357879	-38.900740	-6.357879	-0.341620	-166.350961
7.400000	-0.346168	-167.417806	-38.806417	-7.925291	-38.806417	-7.925291	-0.346157	-167.394607
7.450000	-0.350750	-168.463655	-38.713407	-9.490667	-38.713407	-9.490667	-0.350739	-168.440241
7.500000	-0.355377	-169.511586	-38.621672	-11.054244	-38.621672	-11.054244	-0.355367	-169.487956
7.550000	-0.360052	-170.561791	-38.531189	-12.616222	-38.531189	-12.616222	-0.360042	-170.537942
7.600000	-0.364772	-171.614274	-38.441913	-14.176955	-38.441913	-14.176955	-0.364763	-171.590203
7.650000	-0.369538	-172.669126	-38.353815	-15.736731	-38.353815	-15.736731	-0.369530	-172.644833
7.700000	-0.374351	-173.726444	-38.266871	-17.295858	-38.266871	-17.295858	-0.374343	-173.701926
7.750000	-0.379210	-174.786321	-38.181057	-18.854656	-38.181057	-18.854656	-0.379202	-174.761576
7.800000	-0.384115	-175.848853	-38.096355	-20.413456	-38.096355	-20.413456	-0.384108	-175.823879
7.850000	-0.389066	-176.914135	-38.012752	-21.972605	-38.012752	-21.972605	-0.389060	-176.888930
7.900000	-0.394065	-177.982263	-37.930235	-23.532457	-37.930235	-23.532457	-0.394059	-177.956824
7.950000	-0.399110	-179.053333	-37.848799	-25.093378	-37.848799	-25.093378	-0.399104	-179.027659
8.000000	-0.404202	179.872557	-37.768442	-26.655741	-37.768442	-26.655741	-0.404197	179.898470
8.050000	-0.409341	178.795312	-37.689165	-28.219923	-37.689165	-28.219923	-0.409337	178.821465
8.100000	-0.414527	177.714833	-37.610977	-29.786307	-37.610977	-29.786307	-0.414523	177.741230
8.150000	-0.419761	176.631024	-37.533889	-31.355281	-37.533889	-31.355281	-0.419758	176.657666
8.200000	-0.425042	175.543787	-37.457917	-32.927229	-37.457917	-32.927229	-0.425039	175.570677
8.250000	-0.430371	174.453023	-37.383083	-34.502538	-37.383083	-34.502538	-0.430368	174.480164
8.300000	-0.435747	173.358634	-37.309414	-36.081591	-37.309414	-36.081591	-0.435745	173.386030
8.350000	-0.441171	172.260523	-37.236943	-37.664763	-37.236943	-37.664763	-0.441170	172.288175
8.400000	-0.446643	171.158591	-37.165705	-39.252425	-37.165705	-39.252425	-0.446642	171.186502
8.450000	-0.452163	170.052739	-37.095744	-40.844935	-37.095744	-40.844935	-0.452162	170.080913
8.500000	-0.457731	168.942869	-37.027107	-42.442640	-37.027107	-42.442640	-0.457730	168.971308
8.550000	-0.463348	167.828882	-36.959847	-44.045872	-36.959847	-44.045872	-0.463347	167.857590
8.600000	-0.469012	166.710681	-36.894024	-45.654945	-36.894024	-45.654945	-0.469011	166.739661
8.650000	-0.474725	165.588166	-36.829699	-47.270153	-36.829699	-47.270153	-0.474724	165.617421
8.700000	-0.480486	164.461240	-36.766942	-48.891765	-36.766942	-48.891765	-0.480485	164.490774
8.750000	-0.486296	163.329805	-36.705827	-50.520025	-36.705827	-50.520025	-0.486295	163.359621
8.800000	-0.492156	162.193558	-36.646494	-52.155455	-36.646494	-52.155455	-0.492155	162.223660
8.850000	-0.498065	161.052599	-36.588974	-53.797943	-36.588974	-53.797943	-0.498063	161.082990
8.900000	-0.504022	159.906830	-36.533357	-55.447630	-36.533357	-55.447630	-0.504020	159.937515
8.950000	-0.510028	158.756155	-36.479733	-57.104621	-36.479733	-57.104621	-0.510025	158.787137
9.000000	-0.516083	157.600478	-36.428201	-58.768975	-36.428201	-58.768975	-0.516079	157.631762
9.050000	-0.522186	156.439705	-36.378859	-60.440711	-36.378859	-60.440711	-0.522181	156.471294
9.100000	-0.528338	155.273741	-36.331809	-62.119796	-36.331809	-62.119796	-0.528332	155.305640
9.150000	-0.534539	154.102492	-36.287157	-63.806151	-36.287157	-63.806151	-0.534531	154.134705
9.200000	-0.540788	152.925866	-36.245008	-65.499643	-36.245008	-65.499643	-0.540779	152.958397
9.250000	-0.547086	151.743771	-36.205473	-67.200085	-36.205473	-67.200085	-0.547075	151.776625
9.300000	-0.553433	150.556116	-36.168658	-68.907234	-36.168658	-68.907234	-0.553419	150.589299
9.350000	-0.559828	149.362812	-36.134674	-70.620790	-36.134674	-70.620790	-0.559812	149.396328
9.400000	-0.566272	148.163771	-36.103627	-72.340392	-36.103627	-72.340392	-0.566253	148.197624
9.450000	-0.572764	146.958906	-36.075626	-74.065623	-36.075626	-74.065623	-0.572742	146.993102
9.500000	-0.579304	145.748132	-36.050773	-75.796004	-36.050773	-75.796004	-0.579280	145.782675
9.550000	-0.585893	144.531364	-36.029172	-77.530996	-36.029172	-77.530996	-0.585865	144.566261
9.600000	-0.592529	143.308522	-36.010918	-79.270004	-36.010918	-79.270004	-0.592498	143.343778
9.650000	-0.599214	142.079524	-35.996106	-81.012373	-35.996106	-81.012373	-0.599178	142.115144
9.700000	-0.605947	140.844293	-35.984822	-82.757395	-35.984822	-82.757395	-0.605906	140.880283
9.750000	-0.612727	139.602753	-35.977149	-84.504308	-35.977149	-84.504308	-0.612682	139.639119
9.800000	-0.619555	138.354829	-35.973160	-86.252301	-35.973160	-86.252301	-0.619504	138.391578
9.850000	-0.626430	137.100452	-35.972922	-88.000517	-35.972922	-88.000517	-0.626373	137.137588
9.900000	-0.633352	135.839550	-35.976493	-89.748056	-35.976493	-89.748056	-0.633289	135.877082
9.950000	-0.640321	134.572060	-35.983922	-91.493983	-35.983922	-91.493983	-0.640252	134.609992
10.000000	-0.647337	133.297916	-35.995249	-93.237330	-35.995249	-93.237330	-0.647260	133.336256
