! freq	dB(S11)	phase(S11)	dB(S12)	phase(S12)	
!     	dB(S21)	phase(S21)	dB(S22)	phase(S22)	
!S-par simulation data
#  GHz  S  DB  R 50
0.000000	-0.000000	0.000000	-292.733196	0.000000	-292.733196	0.000000	-0.000000	0.000000
0.050000	-0.002008	-3.245602	-67.095967	86.737236	-67.095967	86.737236	-0.002008	-3.245844
0.100000	-0.007012	-6.476864	-61.091018	83.480546	-61.091018	83.480546	-0.007013	-6.477339
0.150000	-0.013130	-9.689782	-57.594952	80.243895	-57.594952	80.243895	-0.013131	-9.690480
0.200000	-0.019132	-12.887984	-55.129409	77.033207	-55.129409	77.033207	-0.019133	-12.888892
0.250000	-0.024562	-16.075242	-53.231214	73.846681	-53.231214	73.846681	-0.024562	-16.076345
0.300000	-0.029388	-19.254005	-51.693974	70.679717	-51.693974	70.679717	-0.029387	-19.255286
0.350000	-0.033742	-22.425328	-50.406968	67.528560	-50.406968	67.528560	-0.033740	-22.426766
0.400000	-0.037744	-25.588889	-49.304878	64.392157	-49.304878	64.392157	-0.037741	-25.590462
0.450000	-0.041486	-28.743465	-48.346439	61.271323	-48.346439	61.271323	-0.041482	-28.745145
0.500000	-0.045058	-31.888445	-47.501745	58.166168	-47.501745	58.166168	-0.045053	-31.890202
0.550000	-0.048512	-35.022758	-46.750225	55.077897	-46.750225	55.077897	-0.048505	-35.024561
0.600000	-0.051884	-38.144747	-46.077552	52.008799	-46.077552	52.008799	-0.051875	-38.146560
0.650000	-0.055203	-41.253790	-45.471358	48.959693	-45.471358	48.959693	-0.055192	-41.255575
0.700000	-0.058488	-44.349089	-44.922363	45.931780	-44.922363	45.931780	-0.058475	-44.350806
0.750000	-0.061749	-47.429324	-44.423881	42.927152	-44.423881	42.927152	-0.061734	-47.430931
0.800000	-0.064996	-50.493714	-43.969938	39.947132	-43.969938	39.947132	-0.064977	-50.495167
0.850000	-0.068230	-53.541730	-43.555428	36.992708	-43.555428	36.992708	-0.068208	-53.542983
0.900000	-0.071453	-56.572784	-43.176232	34.065004	-43.176232	34.065004	-0.071427	-56.573790
0.950000	-0.074663	-59.586249	-42.828958	31.165237	-42.828958	31.165237	-0.074634	-59.586959
1.000000	-0.077858	-62.581639	-42.510637	28.294443	-42.510637	28.294443	-0.077825	-62.582003
1.050000	-0.081036	-65.558537	-42.218699	25.453576	-42.218699	25.453576	-0.080997	-65.558505
1.100000	-0.084191	-68.516595	-41.950889	22.643504	-41.950889	22.643504	-0.084147	-68.516115
1.150000	-0.087319	-71.455532	-41.705220	19.865010	-41.705220	19.865010	-0.087271	-71.454552
1.200000	-0.090418	-74.375131	-41.479922	17.118794	-41.479922	17.118794	-0.090363	-74.373598
1.250000	-0.093481	-77.275235	-41.273406	14.405470	-41.273406	14.405470	-0.093421	-77.273096
1.300000	-0.096506	-80.155318	-41.084503	11.726308	-41.084503	11.726308	-0.096439	-80.152519
1.350000	-0.099488	-83.015766	-40.911619	9.081034	-40.911619	9.081034	-0.099414	-83.012253
1.400000	-0.102426	-85.856590	-40.753560	6.470007	-40.753560	6.470007	-0.102345	-85.852309
1.450000	-0.105316	-88.677855	-40.609229	3.893503	-40.609229	3.893503	-0.105228	-88.672752
1.500000	-0.108157	-91.479668	-40.477613	1.351714	-40.477613	1.351714	-0.108061	-91.473690
1.550000	-0.110946	-94.262183	-40.357768	-1.155251	-40.357768	-1.155251	-0.110843	-94.255277
1.600000	-0.113684	-97.025594	-40.248817	-3.627363	-40.248817	-3.627363	-0.113573	-97.017707
1.650000	-0.116370	-99.770134	-40.149937	-6.064682	-40.149937	-6.064682	-0.116250	-99.761213
1.700000	-0.119004	-102.496072	-40.060351	-8.467348	-40.060351	-8.467348	-0.118875	-102.486064
1.750000	-0.121585	-105.203709	-39.979330	-10.835590	-39.979330	-10.835590	-0.121447	-105.192562
1.800000	-0.124116	-107.893377	-39.906182	-13.169721	-39.906182	-13.169721	-0.123969	-107.881040
1.850000	-0.126597	-110.565436	-39.840250	-15.470145	-39.840250	-15.470145	-0.126441	-110.551858
1.900000	-0.129029	-113.220091	-39.780970	-17.736997	-39.780970	-17.736997	-0.128864	-113.205219
1.950000	-0.131415	-115.857765	-39.727728	-19.970885	-39.727728	-19.970885	-0.131240	-115.841550
2.000000	-0.133757	-118.479079	-39.679889	-22.172853	-39.679889	-22.172853	-0.133573	-118.461469
2.050000	-0.136058	-121.084482	-39.636911	-24.343681	-39.636911	-24.343681	-0.135864	-121.065430
2.100000	-0.138317	-123.673152	-39.598585	-26.481714	-39.598585	-26.481714	-0.138113	-123.652604
2.150000	-0.140544	-126.248358	-39.563712	-28.593393	-39.563712	-28.593393	-0.140330	-126.226271
2.200000	-0.142738	-128.809093	-39.532216	-30.676843	-39.532216	-30.676843	-0.142514	-128.785419
2.250000	-0.144902	-131.355866	-39.503639	-32.733238	-39.503639	-32.733238	-0.144668	-131.330557
2.300000	-0.147039	-133.889193	-39.477546	-34.763857	-39.477546	-34.763857	-0.146795	-133.862204
2.350000	-0.149153	-136.409604	-39.453522	-36.770080	-39.453522	-36.770080	-0.148898	-136.380887
2.400000	-0.151246	-138.917631	-39.431171	-38.753391	-39.431171	-38.753391	-0.150981	-138.887142
2.450000	-0.153322	-141.413817	-39.410120	-40.715375	-39.410120	-40.715375	-0.153046	-141.381509
2.500000	-0.155383	-143.898705	-39.390015	-42.657718	-39.390015	-42.657718	-0.155098	-143.864535
2.550000	-0.157434	-146.372518	-39.370531	-44.581695	-39.370531	-44.581695	-0.157137	-146.336440
2.600000	-0.159476	-148.836171	-39.351334	-46.489820	-39.351334	-46.489820	-0.159169	-148.798142
2.650000	-0.161514	-151.290219	-39.332140	-48.384064	-39.332140	-48.384064	-0.161196	-151.250196
2.700000	-0.163549	-153.735213	-39.312689	-50.266476	-39.312689	-50.266476	-0.163221	-153.693154
2.750000	-0.165585	-156.171708	-39.292746	-52.139175	-39.292746	-52.139175	-0.165246	-156.127571
2.800000	-0.167624	-158.600255	-39.272099	-54.004348	-39.272099	-54.004348	-0.167275	-158.553999
2.850000	-0.169668	-161.021403	-39.250565	-55.864231	-39.250565	-55.864231	-0.169309	-160.972987
2.900000	-0.171721	-163.435699	-39.227983	-57.721103	-39.227983	-57.721103	-0.171351	-163.385084
2.950000	-0.173784	-165.843686	-39.204222	-59.577278	-39.204222	-59.577278	-0.173403	-165.790832
3.000000	-0.175858	-168.245903	-39.179172	-61.435083	-39.179172	-61.435083	-0.175467	-168.190773
3.050000	-0.177947	-170.642885	-39.152755	-63.296854	-39.152755	-63.296854	-0.177545	-170.585440
3.100000	-0.180052	-173.035161	-39.124915	-65.164921	-39.124915	-65.164921	-0.179639	-172.975365
3.150000	-0.182174	-175.423214	-39.095604	-67.041711	-39.095604	-67.041711	-0.181750	-175.361030
3.200000	-0.184315	-177.807579	-39.064817	-68.929579	-39.064817	-68.929579	-0.183881	-177.742971
3.250000	-0.186476	179.811190	-39.032591	-70.830659	-39.032591	-70.830659	-0.186031	179.878255
3.300000	-0.188658	177.432590	-38.998968	-72.747122	-38.998968	-72.747122	-0.188203	177.502146
3.350000	-0.190862	175.056127	-38.964008	-74.681072	-38.964008	-74.681072	-0.190397	175.128207
3.400000	-0.193089	172.681315	-38.927794	-76.634536	-38.927794	-76.634536	-0.192613	172.755949
3.450000	-0.195339	170.307677	-38.890426	-78.609455	-38.890426	-78.609455	-0.194853	170.384896
3.500000	-0.197614	167.934744	-38.852017	-80.607677	-38.852017	-80.607677	-0.197118	168.014576
3.550000	-0.199914	165.562042	-38.812658	-82.632139	-38.812658	-82.632139	-0.199408	165.644516
3.600000	-0.202237	163.189143	-38.772583	-84.681869	-38.772583	-84.681869	-0.201721	163.274283
3.650000	-0.204585	160.815612	-38.731887	-86.759804	-38.731887	-86.759804	-0.204059	160.903443
3.700000	-0.206957	158.441022	-38.690728	-88.867381	-38.690728	-88.867381	-0.206421	158.531566
3.750000	-0.209354	156.064954	-38.649274	-91.005929	-38.649274	-91.005929	-0.208809	156.158233
3.800000	-0.211776	153.686902	-38.607688	-93.178122	-38.607688	-93.178122	-0.211221	153.782936
3.850000	-0.214222	151.306536	-38.566169	-95.383712	-38.566169	-95.383712	-0.213658	151.405342
3.900000	-0.216691	148.923476	-38.524891	-97.623699	-38.524891	-97.623699	-0.216119	149.025068
3.950000	-0.219183	146.537351	-38.484032	-99.898979	-38.484032	-99.898979	-0.218602	146.641744
4.000000	-0.221697	144.147806	-38.443766	-102.210357	-38.443766	-102.210357	-0.221108	144.255010
4.050000	-0.224233	141.754497	-38.404267	-104.558544	-38.404267	-104.558544	-0.223636	141.864519
4.100000	-0.226790	139.357093	-38.365703	-106.944167	-38.365703	-106.944167	-0.226185	139.469939
4.150000	-0.229367	136.955276	-38.328239	-109.367773	-38.328239	-109.367773	-0.228754	137.070950
4.200000	-0.231964	134.548744	-38.292037	-111.829834	-38.292037	-111.829834	-0.231344	134.667245
4.250000	-0.234579	132.137205	-38.257250	-114.330750	-38.257250	-114.330750	-0.233952	132.258531
4.300000	-0.237212	129.720385	-38.224027	-116.870860	-38.224027	-116.870860	-0.236578	129.844529
4.350000	-0.239862	127.298020	-38.192512	-119.450440	-38.192512	-119.450440	-0.239222	127.424973
4.400000	-0.242528	124.869864	-38.162840	-122.069714	-38.162840	-122.069714	-0.241883	124.999612
4.450000	-0.245210	122.435682	-38.135141	-124.728852	-38.135141	-124.728852	-0.244560	122.568210
4.500000	-0.247907	119.995257	-38.109540	-127.427980	-38.109540	-127.427980	-0.247252	120.130543
4.550000	-0.250619	117.548383	-38.086154	-130.167181	-38.086154	-130.167181	-0.249960	117.686403
4.600000	-0.253344	115.095466	-38.064885	-132.943008	-38.064885	-132.943008	-0.252682	115.236194
4.650000	-0.256085	112.635076	-38.046277	-135.762883	-38.046277	-135.762883	-0.255419	112.778478
4.700000	-0.258839	110.167707	-38.030206	-138.622852	-38.030206	-138.622852	-0.258171	110.313743
4.750000	-0.261608	107.693209	-38.016771	-141.522849	-38.016771	-141.522849	-0.260938	107.841839
4.800000	-0.264390	105.211451	-38.006064	-144.462782	-38.006064	-144.462782	-0.263719	105.362627
4.850000	-0.267188	102.722313	-37.998177	-147.442526	-37.998177	-147.442526	-0.266516	102.875984
4.900000	-0.270001	100.225688	-37.993197	-150.461925	-37.993197	-150.461925	-0.269329	100.381796
4.950000	-0.272830	97.721482	-37.991214	-153.520798	-37.991214	-153.520798	-0.272159	97.879967
5.000000	-0.275677	95.209614	-37.992314	-156.618934	-37.992314	-156.618934	-0.275007	95.370407
5.050000	-0.278543	92.689844	-37.996658	-159.756934	-37.996658	-159.756934	-0.277876	92.852871
5.100000	-0.281431	90.162281	-38.004272	-162.933678	-38.004272	-162.933678	-0.280767	90.327463
5.150000	-0.284342	87.626876	-38.015251	-166.148869	-38.015251	-166.148869	-0.283682	87.794129
5.200000	-0.287279	85.083589	-38.029697	-169.402183	-38.029697	-169.402183	-0.286623	85.252822
5.250000	-0.290245	82.532390	-38.047721	-172.693272	-38.047721	-172.693272	-0.289595	82.703507
5.300000	-0.293243	79.973255	-38.069444	-176.021762	-38.069444	-176.021762	-0.292600	80.146152
5.350000	-0.296278	77.406163	-38.094995	-179.387258	-38.094995	-179.387258	-0.295642	77.580732
5.400000	-0.299353	74.831103	-38.124523	177.210657	-38.124523	177.210657	-0.298726	75.007228
5.450000	-0.302474	72.248061	-38.158191	173.772414	-38.158191	173.772414	-0.301856	72.425621
5.500000	-0.305646	69.657029	-38.196184	170.298456	-38.196184	170.298456	-0.305038	69.835895
5.550000	-0.308874	67.057996	-38.238710	166.789231	-38.238710	166.789231	-0.308278	67.238033
5.600000	-0.312166	64.450948	-38.286005	163.245183	-38.286005	163.245183	-0.311582	64.632015
5.650000	-0.315530	61.835781	-38.338393	159.666376	-38.338393	159.666376	-0.314959	62.017729
5.700000	-0.318972	59.212471	-38.396191	156.053227	-38.396191	156.053227	-0.318417	59.395141
5.750000	-0.322502	56.581071	-38.459698	152.406474	-38.459698	152.406474	-0.321962	56.764301
5.800000	-0.326128	53.941535	-38.529318	148.726419	-38.529318	148.726419	-0.325605	54.125156
5.850000	-0.329860	51.293805	-38.605513	145.013281	-38.605513	145.013281	-0.329356	51.477640
5.900000	-0.333708	48.637804	-38.688810	141.267170	-38.688810	141.267170	-0.333224	48.821668
5.950000	-0.337685	45.973433	-38.779816	137.488054	-38.779816	137.488054	-0.337222	46.157136
6.000000	-0.341803	43.300572	-38.879227	133.675718	-38.879227	133.675718	-0.341362	43.483916
6.050000	-0.346074	40.619073	-38.987843	129.829716	-38.987843	129.829716	-0.345658	40.801852
6.100000	-0.350513	37.928756	-39.106585	125.949314	-39.106585	125.949314	-0.350123	38.110757
6.150000	-0.355135	35.229408	-39.236517	122.033413	-39.236517	122.033413	-0.354773	35.410409
6.200000	-0.359957	32.520774	-39.378871	118.080462	-39.378871	118.080462	-0.359624	32.700547
6.250000	-0.364995	29.802557	-39.535075	114.088342	-39.535075	114.088342	-0.364693	29.980865
6.300000	-0.370274	27.074187	-39.707092	110.053220	-39.707092	110.053220	-0.370006	27.250778
6.350000	-0.375810	24.335466	-39.896636	105.972133	-39.896636	105.972133	-0.375578	24.510087
6.400000	-0.381623	21.585931	-40.106010	101.840089	-40.106010	101.840089	-0.381429	21.758318
6.450000	-0.387737	18.825051	-40.337933	97.650572	-40.337933	97.650572	-0.387584	18.994932
6.500000	-0.394177	16.052222	-40.595643	93.395073	-40.595643	93.395073	-0.394068	16.219316
6.550000	-0.400970	13.266761	-40.883019	89.062443	-40.883019	89.062443	-0.400907	13.430776
6.600000	-0.408143	10.467897	-41.204747	84.637961	-41.204747	84.637961	-0.408130	10.628531
6.650000	-0.415729	7.654763	-41.566540	80.101993	-41.566540	80.101993	-0.415768	7.811703
6.700000	-0.423752	4.826687	-41.974810	75.431301	-41.974810	75.431301	-0.423848	4.979615
6.750000	-0.432292	1.981045	-42.441580	70.571238	-42.441580	70.571238	-0.432449	2.129598
6.800000	-0.441318	-0.880899	-42.972609	65.500064	-42.972609	65.500064	-0.441540	-0.737043
6.850000	-0.450934	-3.762598	-43.586566	60.111871	-43.586566	60.111871	-0.451226	-3.623822
6.900000	-0.461154	-6.664428	-44.298998	54.314455	-44.298998	54.314455	-0.461520	-6.531104
6.950000	-0.472028	-9.588053	-45.132908	47.932770	-45.132908	47.932770	-0.472474	-9.460571
7.000000	-0.483652	-12.536676	-46.120896	40.636354	-46.120896	40.636354	-0.484185	-12.415466
7.050000	-0.496003	-15.509419	-47.290907	32.083703	-47.290907	32.083703	-0.496628	-15.394881
7.100000	-0.509289	-18.513343	-48.674870	21.062712	-48.674870	21.062712	-0.510013	-18.405974
7.150000	-0.523419	-21.545286	-50.248634	6.606002	-50.248634	6.606002	-0.524249	-21.445518
7.200000	-0.538640	-24.613647	-51.703273	-14.426593	-51.703273	-14.426593	-0.539586	-24.522017
7.250000	-0.554908	-27.716791	-52.354105	-41.989997	-52.354105	-41.989997	-0.555977	-27.633794
7.300000	-0.572411	-30.861067	-51.355463	-70.822635	-51.355463	-70.822635	-0.573613	-30.787268
7.350000	-0.591241	-34.049434	-49.212663	-93.801663	-49.212663	-93.801663	-0.592587	-33.985418
7.400000	-0.611474	-37.284242	-46.845978	-110.344278	-46.845978	-110.344278	-0.612973	-37.230602
7.450000	-0.633395	-40.574999	-44.585650	-122.212536	-44.585650	-122.212536	-0.635062	-40.532424
7.500000	-0.656913	-43.918111	-42.565947	-131.745203	-42.565947	-131.745203	-0.658757	-43.887226
7.550000	-0.682590	-47.332276	-40.711158	-139.572275	-40.711158	-139.572275	-0.684629	-47.313899
7.600000	-0.710220	-50.809769	-39.035493	-146.564118	-39.035493	-146.564118	-0.712465	-50.804603
7.650000	-0.740261	-54.365348	-37.483329	-152.939813	-37.483329	-152.939813	-0.742729	-54.374231
7.700000	-0.772954	-58.006137	-36.032387	-158.924357	-36.032387	-158.924357	-0.775662	-58.029951
7.750000	-0.808552	-61.739452	-34.665387	-164.661776	-34.665387	-164.661776	-0.811518	-61.779120
7.800000	-0.847376	-65.574577	-33.367058	-170.244780	-33.367058	-170.244780	-0.850616	-65.631075
7.850000	-0.889782	-69.521773	-32.125525	-175.740584	-32.125525	-175.740584	-0.893316	-69.596133
7.900000	-0.936168	-73.592372	-30.931505	178.799592	-30.931505	178.799592	-0.940013	-73.685679
7.950000	-0.987019	-77.800333	-29.776623	173.334403	-29.776623	173.334403	-0.991192	-77.913736
8.000000	-1.042809	-82.159098	-28.655840	167.829056	-28.655840	167.829056	-1.047326	-82.293787
8.050000	-1.104047	-86.683236	-27.565351	162.253889	-27.565351	162.253889	-1.108922	-86.840433
8.100000	-1.171304	-91.389444	-26.501886	156.582096	-26.501886	156.582096	-1.176543	-91.570392
8.150000	-1.245179	-96.295958	-25.463142	150.788830	-25.463142	150.788830	-1.250783	-96.501898
8.200000	-1.326288	-101.422594	-24.447691	144.850638	-24.447691	144.850638	-1.332247	-101.654736
8.250000	-1.415239	-106.790732	-23.454929	138.745179	-23.454929	138.745179	-1.421529	-107.050208
8.300000	-1.512575	-112.422524	-22.485243	132.451677	-22.485243	132.451677	-1.519152	-112.710323
8.350000	-1.618838	-118.345362	-21.538739	125.947685	-21.538739	125.947685	-1.625630	-118.662257
8.400000	-1.734278	-124.583700	-20.617622	119.215138	-20.617622	119.215138	-1.741181	-124.930124
8.450000	-1.858847	-131.161512	-19.724874	112.238724	-19.724874	112.238724	-1.865711	-131.537420
8.500000	-1.992112	-138.103579	-18.863861	105.005015	-18.863861	105.005015	-1.998737	-138.508277
8.550000	-2.133068	-145.433323	-18.038653	97.504068	-18.038653	97.504068	-2.139194	-145.865260
8.600000	-2.279942	-153.172188	-17.254003	89.729838	-17.254003	89.729838	-2.285243	-153.628697
8.650000	-2.429980	-161.331179	-16.515594	81.685358	-16.515594	81.685358	-2.434069	-161.808257
8.700000	-2.579393	-169.914916	-15.829247	73.379187	-15.829247	73.379187	-2.581838	-170.406991
8.750000	-2.723289	-178.916079	-15.200979	64.827967	-15.200979	64.827967	-2.723642	-179.415846
8.800000	-2.855651	171.685367	-14.637019	56.055752	-14.637019	56.055752	-2.853490	171.187038
8.850000	-2.970035	161.933659	-14.142862	47.098876	-14.142862	47.098876	-2.965031	161.447392
8.900000	-3.059930	151.889750	-13.723328	38.000464	-13.723328	38.000464	-3.051908	151.427241
8.950000	-3.119611	141.633719	-13.382178	28.811191	-13.382178	28.811191	-3.108607	141.206983
9.000000	-3.144776	131.261312	-13.122283	19.587772	-13.122283	19.587772	-3.131060	130.881799
9.050000	-3.133864	120.879392	-12.944151	10.391074	-12.944151	10.391074	-3.117918	120.556862
9.100000	-3.087894	110.594830	-12.846781	1.282184	-12.846781	1.282184	-3.070352	110.336606
9.150000	-3.010365	100.507409	-12.827588	-7.679823	-12.827588	-7.679823	-2.991929	100.317928
9.200000	-2.906632	90.704901	-12.882783	-16.439300	-12.882783	-16.439300	-2.887987	90.585659
9.250000	-2.783415	81.255171	-13.006697	-24.948808	-13.006697	-24.948808	-2.765151	81.205013
9.300000	-2.647630	72.205889	-13.192766	-33.169946	-13.192766	-33.169946	-2.630203	72.221585
9.350000	-2.505659	63.587107	-13.434035	-41.073089	-13.434035	-41.073089	-2.489384	63.663985
9.400000	-2.362949	55.414640	-13.723442	-48.636637	-13.723442	-48.636637	-2.348008	55.547160
9.450000	-2.223805	47.689785	-14.053822	-55.848922	-14.053822	-55.848922	-2.210273	47.872060
9.500000	-2.091287	40.402429	-14.418354	-62.707345	-14.418354	-62.707345	-2.079156	40.628621
9.550000	-1.967362	33.537165	-14.810927	-69.214385	-14.810927	-69.214385	-1.956571	33.801713
9.600000	-1.853132	27.075319	-15.226099	-75.376239	-15.226099	-75.376239	-1.843584	27.373065
9.650000	-1.749007	20.994997	-15.659090	-81.202907	-15.659090	-81.202907	-1.740587	21.321267
9.700000	-1.654791	15.268880	-16.105988	-86.710373	-16.105988	-86.710373	-1.647381	15.619550
9.750000	-1.570023	9.872187	-16.563675	-91.913493	-16.563675	-91.913493	-1.563505	10.243627
9.800000	-1.494040	4.780472	-17.029784	-96.827700	-17.029784	-96.827700	-1.488304	5.169518
9.850000	-1.426082	-0.029859	-17.502699	-101.468389	-17.502699	-101.468389	-1.421026	0.374047
9.900000	-1.365352	-4.581212	-17.981569	-105.850480	-17.981569	-105.850480	-1.360886	-4.164815
9.950000	-1.311067	-8.894603	-18.466373	-109.988157	-18.466373	-109.988157	-1.307110	-8.467755
10.000000	-1.262482	-12.989560	-18.958048	-113.894811	-18.958048	-113.894811	-1.258965	-12.554012
