! freq	dB(S11)	phase(S11)	dB(S12)	phase(S12)	
!     	dB(S21)	phase(S21)	dB(S22)	phase(S22)	
!S-par simulation data
#  GHz  S  DB  R 50
0.000000	-0.000000	0.000000	-320.369318	180.000000	-320.369318	180.000000	0.000000	0.000000
0.050000	-0.000735	-1.180366	-93.393761	88.428549	-93.393761	88.428549	-0.001279	-2.026116
0.100000	-0.002513	-2.355436	-87.389705	86.865985	-87.389705	86.865985	-0.004392	-4.042764
0.150000	-0.004599	-3.524439	-83.895388	85.307924	-83.895388	85.307924	-0.008077	-6.048078
0.200000	-0.006569	-4.689221	-81.436980	83.759026	-81.436980	83.759026	-0.011574	-8.044688
0.250000	-0.008350	-5.852019	-79.547851	82.221227	-79.547851	82.221227	-0.014735	-10.036341
0.300000	-0.009958	-7.013776	-78.023841	80.698147	-78.023841	80.698147	-0.017575	-12.024347
0.350000	-0.011447	-8.175037	-76.754368	79.192546	-76.754368	79.192546	-0.020184	-14.009449
0.400000	-0.012856	-9.335966	-75.676635	77.709737	-75.676635	77.709737	-0.022627	-15.991441
0.450000	-0.014224	-10.496569	-74.748184	76.253858	-74.748184	76.253858	-0.024971	-17.970008
0.500000	-0.015573	-11.656776	-73.938570	74.827738	-73.938570	74.827738	-0.027261	-19.944850
0.550000	-0.016917	-12.816473	-73.227326	73.435640	-73.227326	73.435640	-0.029519	-21.915463
0.600000	-0.018263	-13.975506	-72.600862	72.084202	-72.600862	72.084202	-0.031758	-23.881087
0.650000	-0.019617	-15.133774	-72.046550	70.777252	-72.046550	70.777252	-0.033990	-25.841367
0.700000	-0.020980	-16.291174	-71.555188	69.519750	-71.555188	69.519750	-0.036218	-27.795877
0.750000	-0.022355	-17.447573	-71.120707	68.319409	-71.120707	68.319409	-0.038446	-29.743958
0.800000	-0.023742	-18.602876	-70.737316	67.182921	-70.737316	67.182921	-0.040674	-31.685172
0.850000	-0.025140	-19.757013	-70.399954	66.116867	-70.399954	66.116867	-0.042902	-33.619187
0.900000	-0.026548	-20.909909	-70.104642	65.129025	-70.104642	65.129025	-0.045128	-35.545635
0.950000	-0.027967	-22.061493	-69.848170	64.228459	-69.848170	64.228459	-0.047351	-37.464128
1.000000	-0.029393	-23.211703	-69.627633	63.424866	-69.627633	63.424866	-0.049569	-39.374330
1.050000	-0.030827	-24.360483	-69.440422	62.728926	-69.440422	62.728926	-0.051779	-41.275927
1.100000	-0.032267	-25.507782	-69.284118	62.152398	-69.284118	62.152398	-0.053979	-43.168631
1.150000	-0.033712	-26.653554	-69.156390	61.708185	-69.156390	61.708185	-0.056166	-45.052171
1.200000	-0.035161	-27.797759	-69.054898	61.410387	-69.054898	61.410387	-0.058338	-46.926300
1.250000	-0.036612	-28.940356	-68.977188	61.274286	-68.977188	61.274286	-0.060493	-48.790790
1.300000	-0.038065	-30.081275	-68.920970	61.320531	-68.920970	61.320531	-0.062627	-50.645212
1.350000	-0.039519	-31.220517	-68.882694	61.562918	-68.882694	61.562918	-0.064741	-52.489585
1.400000	-0.040972	-32.358051	-68.858839	62.019173	-68.858839	62.019173	-0.066831	-54.323736
1.450000	-0.042426	-33.493851	-68.845286	62.706763	-68.845286	62.706763	-0.068898	-56.147509
1.500000	-0.043878	-34.627889	-68.837194	63.641881	-68.837194	63.641881	-0.070939	-57.960763
1.550000	-0.045329	-35.760140	-68.828908	64.838019	-68.828908	64.838019	-0.072954	-59.763373
1.600000	-0.046779	-36.890582	-68.813920	66.304116	-68.813920	66.304116	-0.074942	-61.555229
1.650000	-0.048227	-38.019192	-68.784911	68.042320	-68.784911	68.042320	-0.076903	-63.336236
1.700000	-0.049673	-39.145951	-68.733937	70.045540	-68.733937	70.045540	-0.078837	-65.106311
1.750000	-0.051118	-40.270839	-68.652773	72.295142	-68.652773	72.295142	-0.080744	-66.865386
1.800000	-0.052562	-41.393838	-68.533435	74.759307	-68.533435	74.759307	-0.082625	-68.613404
1.850000	-0.054004	-42.514932	-68.368840	77.392670	-68.368840	77.392670	-0.084479	-70.350323
1.900000	-0.055446	-43.634085	-68.152856	80.138211	-68.152856	80.138211	-0.086308	-72.075989
1.950000	-0.056887	-44.751281	-67.882113	82.927368	-67.882113	82.927368	-0.088112	-73.790382
2.000000	-0.058329	-45.866528	-67.556730	85.689242	-67.556730	85.689242	-0.089892	-75.493615
2.050000	-0.059771	-46.979815	-67.178877	88.356868	-67.178877	88.356868	-0.091650	-77.185690
2.100000	-0.061214	-48.091130	-66.753026	90.871213	-66.753026	90.871213	-0.093387	-78.866618
2.150000	-0.062659	-49.200465	-66.285348	93.184888	-66.285348	93.184888	-0.095104	-80.536422
2.200000	-0.064106	-50.307810	-65.783001	95.263903	-65.783001	95.263903	-0.096802	-82.195132
2.250000	-0.065556	-51.413159	-65.253438	97.087573	-65.253438	97.087573	-0.098483	-83.842790
2.300000	-0.067010	-52.516419	-64.701746	98.635662	-64.701746	98.635662	-0.100148	-85.478967
2.350000	-0.068468	-53.617780	-64.139397	99.934877	-64.139397	99.934877	-0.101799	-87.104791
2.400000	-0.069930	-54.717131	-63.569225	100.978390	-63.569225	100.978390	-0.103438	-88.719730
2.450000	-0.071398	-55.814470	-62.996050	101.778773	-62.996050	101.778773	-0.105066	-90.323853
2.500000	-0.072872	-56.909795	-62.423801	102.351612	-62.423801	102.351612	-0.106683	-91.917240
2.550000	-0.074353	-58.003019	-61.854282	102.705656	-61.854282	102.705656	-0.108293	-93.499516
2.600000	-0.075842	-59.094233	-61.291457	102.868232	-61.291457	102.868232	-0.109896	-95.071239
2.650000	-0.077339	-60.183438	-60.737098	102.856314	-60.737098	102.856314	-0.111493	-96.632507
2.700000	-0.078845	-61.270641	-60.192490	102.685990	-60.192490	102.685990	-0.113088	-98.183422
2.750000	-0.080361	-62.355847	-59.658530	102.372235	-59.658530	102.372235	-0.114680	-99.724094
2.800000	-0.081886	-63.439063	-59.135810	101.928804	-59.135810	101.928804	-0.116271	-101.254634
2.850000	-0.083423	-64.520299	-58.624681	101.368217	-58.624681	101.368217	-0.117864	-102.775161
2.900000	-0.084972	-65.599565	-58.125309	100.701788	-58.125309	100.701788	-0.119458	-104.285795
2.950000	-0.086533	-66.676873	-57.637720	99.939700	-57.637720	99.939700	-0.121056	-105.786663
3.000000	-0.088106	-67.752236	-57.161836	99.091087	-57.161836	99.091087	-0.122658	-107.277894
3.050000	-0.089694	-68.825668	-56.697498	98.164126	-56.697498	98.164126	-0.124266	-108.759620
3.100000	-0.091296	-69.897188	-56.244492	97.166130	-56.244492	97.166130	-0.125882	-110.231978
3.150000	-0.092913	-70.966811	-55.802564	96.103632	-55.802564	96.103632	-0.127505	-111.695106
3.200000	-0.094545	-72.034558	-55.371431	94.982476	-55.371431	94.982476	-0.129138	-113.149146
3.250000	-0.096194	-73.100450	-54.950793	93.807883	-54.950793	93.807883	-0.130781	-114.594241
3.300000	-0.097860	-74.164510	-54.540342	92.584525	-54.540342	92.584525	-0.132436	-116.030537
3.350000	-0.099544	-75.226762	-54.139761	91.316584	-54.139761	91.316584	-0.134103	-117.458182
3.400000	-0.101246	-76.287231	-53.748736	90.007808	-53.748736	90.007808	-0.135784	-118.877327
3.450000	-0.102968	-77.345946	-53.366955	88.661557	-53.366955	88.661557	-0.137478	-120.288123
3.500000	-0.104708	-78.402935	-52.994109	87.280846	-52.994109	87.280846	-0.139188	-121.690722
3.550000	-0.106470	-79.458231	-52.629896	85.868383	-52.629896	85.868383	-0.140914	-123.085279
3.600000	-0.108252	-80.511864	-52.274024	84.426601	-52.274024	84.426601	-0.142656	-124.471948
3.650000	-0.110056	-81.563871	-51.926205	82.957686	-51.926205	82.957686	-0.144415	-125.850887
3.700000	-0.111883	-82.614288	-51.586163	81.463603	-51.586163	81.463603	-0.146193	-127.222252
3.750000	-0.113732	-83.663153	-51.253628	79.946119	-51.253628	79.946119	-0.147990	-128.586200
3.800000	-0.115607	-84.710442	-50.928127	78.405938	-50.928127	78.405938	-0.149806	-129.942582
3.850000	-0.117506	-85.756266	-50.609644	76.845477	-50.609644	76.845477	-0.151643	-131.291878
3.900000	-0.119430	-86.800670	-50.297932	75.265993	-50.297932	75.265993	-0.153500	-132.634248
3.950000	-0.121380	-87.843699	-49.992755	73.668605	-49.992755	73.668605	-0.155378	-133.969850
4.000000	-0.123357	-88.885404	-49.693881	72.054310	-49.693881	72.054310	-0.157278	-135.298844
4.050000	-0.125362	-89.925834	-49.401088	70.423993	-49.401088	70.423993	-0.159200	-136.621388
4.100000	-0.127394	-90.965045	-49.114160	68.778431	-49.114160	68.778431	-0.161144	-137.937641
4.150000	-0.129456	-92.003092	-48.832886	67.118302	-48.832886	67.118302	-0.163111	-139.247762
4.200000	-0.131548	-93.040034	-48.557064	65.444193	-48.557064	65.444193	-0.165101	-140.551909
4.250000	-0.133669	-94.075933	-48.286497	63.756600	-48.286497	63.756600	-0.167114	-141.850240
4.300000	-0.135823	-95.110852	-48.020990	62.055938	-48.020990	62.055938	-0.169151	-143.142913
4.350000	-0.138008	-96.144860	-47.760356	60.342540	-47.760356	60.342540	-0.171213	-144.430085
4.400000	-0.140227	-97.178026	-47.504411	58.616661	-47.504411	58.616661	-0.173298	-145.711912
4.450000	-0.142479	-98.210426	-47.252975	56.878480	-47.252975	56.878480	-0.175408	-146.988550
4.500000	-0.144767	-99.242137	-47.005871	55.128104	-47.005871	55.128104	-0.177543	-148.260154
4.550000	-0.147090	-100.273241	-46.762924	53.365564	-46.762924	53.365564	-0.179702	-149.526880
4.600000	-0.149449	-101.303823	-46.523962	51.590818	-46.523962	51.590818	-0.181887	-150.788881
4.650000	-0.151847	-102.333975	-46.288813	49.803751	-46.288813	49.803751	-0.184096	-152.046310
4.700000	-0.154283	-103.363792	-46.057309	48.004172	-46.057309	48.004172	-0.186331	-153.299320
4.750000	-0.156760	-104.393374	-45.829280	46.191814	-45.829280	46.191814	-0.188591	-154.548063
4.800000	-0.159277	-105.422828	-45.604554	44.366331	-45.604554	44.366331	-0.190877	-155.792688
4.850000	-0.161837	-106.452268	-45.382961	42.527294	-45.382961	42.527294	-0.193188	-157.033348
4.900000	-0.164441	-107.481813	-45.164328	40.674188	-45.164328	40.674188	-0.195525	-158.270189
4.950000	-0.167090	-108.511592	-44.948477	38.806407	-44.948477	38.806407	-0.197886	-159.503362
5.000000	-0.169785	-109.541740	-44.735227	36.923248	-44.735227	36.923248	-0.200274	-160.733013
5.050000	-0.172531	-110.572434	-44.524270	35.023156	-44.524270	35.023156	-0.202688	-161.959150
5.100000	-0.175328	-111.603815	-44.315525	33.105863	-44.315525	33.105863	-0.205127	-163.182070
5.150000	-0.178176	-112.636054	-44.108790	31.170310	-44.108790	31.170310	-0.207592	-164.401921
5.200000	-0.181080	-113.669335	-43.903848	29.215299	-43.903848	29.215299	-0.210081	-165.618845
5.250000	-0.184041	-114.703857	-43.700474	27.239487	-43.700474	27.239487	-0.212597	-166.832986
5.300000	-0.187061	-115.739837	-43.498423	25.241362	-43.498423	25.241362	-0.215137	-168.044487
5.350000	-0.190145	-116.777513	-43.297434	23.219230	-43.297434	23.219230	-0.217702	-169.253490
5.400000	-0.193295	-117.817144	-43.097225	21.171190	-43.097225	21.171190	-0.220292	-170.460138
5.450000	-0.196517	-118.859019	-42.897486	19.095110	-42.897486	19.095110	-0.222907	-171.664570
5.500000	-0.199813	-119.903453	-42.697875	16.988597	-42.697875	16.988597	-0.225547	-172.866927
5.550000	-0.203191	-120.950802	-42.498017	14.848960	-42.498017	14.848960	-0.228212	-174.067351
5.600000	-0.206657	-122.001460	-42.297487	12.673172	-42.297487	12.673172	-0.230901	-175.265982
5.650000	-0.210218	-123.055873	-42.095812	10.457816	-42.095812	10.457816	-0.233615	-176.462959
5.700000	-0.213883	-124.114545	-41.892453	8.199030	-41.892453	8.199030	-0.236353	-177.658425
5.750000	-0.217663	-125.178051	-41.686793	5.892438	-41.686793	5.892438	-0.239116	-178.852519
5.800000	-0.221572	-126.247049	-41.478124	3.533066	-41.478124	3.533066	-0.241904	179.954616
5.850000	-0.225626	-127.322300	-41.265627	1.115241	-41.265627	1.115241	-0.244717	178.762835
5.900000	-0.229845	-128.404691	-41.048343	-1.367526	-41.048343	-1.367526	-0.247555	177.571994
5.950000	-0.234253	-129.495262	-40.825148	-3.922689	-40.825148	-3.922689	-0.250419	176.381944
6.000000	-0.238883	-130.595244	-40.594708	-6.558842	-40.594708	-6.558842	-0.253310	175.192533
6.050000	-0.243773	-131.706109	-40.355435	-9.285939	-40.355435	-9.285939	-0.256228	174.003604
6.100000	-0.248976	-132.829634	-40.105422	-12.115565	-40.105422	-12.115565	-0.259175	172.814994
6.150000	-0.254558	-133.967986	-39.842362	-15.061272	-39.842362	-15.061272	-0.262153	171.626532
6.200000	-0.260608	-135.123842	-39.563438	-18.139007	-39.563438	-18.139007	-0.265163	170.438032
6.250000	-0.267246	-136.300551	-39.265193	-21.367653	-39.265193	-21.367653	-0.268211	169.249297
6.300000	-0.274669	-137.503412	-38.941878	-24.776549	-38.941878	-24.776549	-0.271302	168.060081
6.350000	-0.283095	-138.737377	-38.588881	-28.388396	-38.588881	-28.388396	-0.274443	166.870138
6.400000	-0.292869	-140.009910	-38.199091	-32.237046	-38.199091	-32.237046	-0.277646	165.679171
6.450000	-0.304499	-141.331074	-37.763364	-36.364397	-37.763364	-36.364397	-0.280926	164.486821
6.500000	-0.318763	-142.714771	-37.269790	-40.823238	-37.269790	-40.823238	-0.284309	163.292637
6.550000	-0.336900	-144.180737	-36.702649	-45.681676	-36.702649	-45.681676	-0.287837	162.096032
6.600000	-0.360686	-145.753296	-36.046351	-51.012076	-36.046351	-51.012076	-0.291567	160.896341
6.650000	-0.394167	-147.484728	-35.261981	-56.976177	-35.261981	-56.976177	-0.295633	159.692196
6.700000	-0.443703	-149.438883	-34.316628	-63.736730	-34.316628	-63.736730	-0.300240	158.482103
6.750000	-0.523338	-151.735859	-33.149671	-71.605925	-33.149671	-71.605925	-0.305832	157.263448
6.800000	-0.664323	-154.576294	-31.682441	-81.107023	-31.682441	-81.107023	-0.313359	156.032554
6.850000	-0.948734	-158.312279	-29.804900	-93.293455	-29.804900	-93.293455	-0.325129	154.785179
6.900000	-1.637558	-163.391497	-27.399523	-110.589062	-27.399523	-110.589062	-0.347281	153.527183
6.950000	-3.627256	-167.516709	-24.675633	-138.515779	-24.675633	-138.515779	-0.391610	152.354497
7.000000	-6.225415	-145.474415	-23.492408	178.272185	-23.492408	178.272185	-0.426608	151.553678
7.050000	-3.139330	-131.062852	-25.578600	138.028273	-25.578600	138.028273	-0.388962	150.665241
7.100000	-1.562818	-135.700431	-28.490420	112.733141	-28.490420	112.733141	-0.357551	149.460777
7.150000	-0.990286	-140.261471	-30.906204	95.918944	-30.906204	95.918944	-0.344725	148.204036
7.200000	-0.740440	-143.675994	-32.763760	83.119243	-32.763760	83.119243	-0.340172	146.955308
7.250000	-0.613462	-146.339551	-34.181284	72.511901	-34.181284	72.511901	-0.339190	145.717512
7.300000	-0.541730	-148.542923	-35.266025	63.319492	-35.266025	63.319492	-0.339917	144.487214
7.350000	-0.498468	-150.451272	-36.094344	55.182891	-36.094344	55.182891	-0.341556	143.261506
7.400000	-0.470871	-152.168092	-36.732525	47.876115	-36.732525	47.876115	-0.343710	142.038288
7.450000	-0.452905	-153.750926	-37.222300	41.273594	-37.222300	41.273594	-0.346186	140.816250
7.500000	-0.441204	-155.236704	-37.595612	35.286340	-37.595612	35.286340	-0.348876	139.594463
7.550000	-0.433779	-156.649947	-37.876980	29.849042	-37.876980	29.849042	-0.351713	138.372203
7.600000	-0.429084	-158.013776	-38.094197	24.845759	-38.094197	24.845759	-0.354645	137.149075
7.650000	-0.426461	-159.338161	-38.258844	20.237702	-38.258844	20.237702	-0.357650	135.924701
7.700000	-0.425512	-160.629545	-38.378681	16.005611	-38.378681	16.005611	-0.360715	134.698657
7.750000	-0.425660	-161.898845	-38.468493	12.058009	-38.468493	12.058009	-0.363820	133.470952
7.800000	-0.426788	-163.148398	-38.531102	8.396411	-38.531102	8.396411	-0.366960	132.241146
7.850000	-0.428644	-164.383558	-38.573662	4.970572	-38.573662	4.970572	-0.370126	131.009211
7.900000	-0.431059	-165.608086	-38.601119	1.742059	-38.601119	1.742059	-0.373312	129.775147
7.950000	-0.434020	-166.822937	-38.614309	-1.278285	-38.614309	-1.278285	-0.376517	128.538407
8.000000	-0.437355	-168.031813	-38.618139	-4.145390	-38.618139	-4.145390	-0.379736	127.299350
8.050000	-0.441041	-169.235866	-38.613680	-6.861656	-38.613680	-6.861656	-0.382966	126.057667
8.100000	-0.445035	-170.436527	-38.602396	-9.438796	-38.602396	-9.438796	-0.386207	124.813204
8.150000	-0.449267	-171.635323	-38.586201	-11.903698	-38.586201	-11.903698	-0.389455	123.566198
8.200000	-0.453746	-172.833120	-38.565332	-14.248590	-38.565332	-14.248590	-0.392710	122.316123
8.250000	-0.458418	-174.030963	-38.541137	-16.496914	-38.541137	-16.496914	-0.395972	121.063282
8.300000	-0.463265	-175.229619	-38.514195	-18.655770	-38.514195	-18.655770	-0.399237	119.807609
8.350000	-0.468297	-176.430130	-38.484622	-20.717885	-38.484622	-20.717885	-0.402508	118.548544
8.400000	-0.473462	-177.632702	-38.453375	-22.709610	-38.453375	-22.709610	-0.405781	117.286773
8.450000	-0.478766	-178.838108	-38.420526	-24.627255	-38.420526	-24.627255	-0.409057	116.021941
8.500000	-0.484199	179.953106	-38.386330	-26.475432	-38.386330	-26.475432	-0.412336	114.754012
8.550000	-0.489753	178.740440	-38.350984	-28.258136	-38.350984	-28.258136	-0.415616	113.482956
8.600000	-0.495420	177.523429	-38.314640	-29.978824	-38.314640	-29.978824	-0.418899	112.208748
8.650000	-0.501196	176.301637	-38.277408	-31.640484	-38.277408	-31.640484	-0.422183	110.931366
8.700000	-0.507074	175.074657	-38.239369	-33.245691	-38.239369	-33.245691	-0.425469	109.650791
8.750000	-0.513052	173.842101	-38.200573	-34.796650	-38.200573	-34.796650	-0.428756	108.367011
8.800000	-0.519129	172.603326	-38.161012	-36.293038	-38.161012	-36.293038	-0.432045	107.079875
8.850000	-0.525299	171.358221	-38.120732	-37.738761	-38.120732	-37.738761	-0.435335	105.789517
8.900000	-0.531559	170.106448	-38.079725	-39.135104	-38.079725	-39.135104	-0.438626	104.495936
8.950000	-0.537908	168.847681	-38.037970	-40.483116	-38.037970	-40.483116	-0.441920	103.199135
9.000000	-0.544342	167.581600	-37.995434	-41.783623	-37.995434	-41.783623	-0.445215	101.899121
9.050000	-0.550863	166.307895	-37.952073	-43.037248	-37.952073	-43.037248	-0.448513	100.595904
9.100000	-0.557468	165.026263	-37.907837	-44.244422	-37.907837	-44.244422	-0.451813	99.289499
9.150000	-0.564157	163.736406	-37.862669	-45.405390	-37.862669	-45.405390	-0.455116	97.979925
9.200000	-0.570930	162.438031	-37.816506	-46.520223	-37.816506	-46.520223	-0.458423	96.667204
9.250000	-0.577786	161.130851	-37.769279	-47.588820	-37.769279	-47.588820	-0.461733	95.351364
9.300000	-0.584726	159.814581	-37.720921	-48.610909	-37.720921	-48.610909	-0.465048	94.032435
9.350000	-0.591750	158.488940	-37.671357	-49.586053	-37.671357	-49.586053	-0.468368	92.710452
9.400000	-0.598858	157.153651	-37.620515	-50.513645	-37.620515	-50.513645	-0.471693	91.385454
9.450000	-0.606052	155.808439	-37.568323	-51.392906	-37.568323	-51.392906	-0.475025	90.057486
9.500000	-0.613332	154.453031	-37.514709	-52.222882	-37.514709	-52.222882	-0.478364	88.726593
9.550000	-0.620698	153.087157	-37.459607	-53.002438	-37.459607	-53.002438	-0.481711	87.392827
9.600000	-0.628154	151.710550	-37.402953	-53.730250	-37.402953	-53.730250	-0.485067	86.056244
9.650000	-0.635699	150.322944	-37.344692	-54.404798	-37.344692	-54.404798	-0.488432	84.716903
9.700000	-0.643336	148.924076	-37.284776	-55.024354	-37.284776	-55.024354	-0.491808	83.374869
9.750000	-0.651066	147.513686	-37.223172	-55.586971	-37.223172	-55.586971	-0.495195	82.030209
9.800000	-0.658892	146.091515	-37.159857	-56.090473	-37.159857	-56.090473	-0.498595	80.682995
9.850000	-0.666816	144.657309	-37.094829	-56.532440	-37.094829	-56.532440	-0.502009	79.333302
9.900000	-0.674839	143.210815	-37.028108	-56.910191	-37.028108	-56.910191	-0.505437	77.981212
9.950000	-0.682966	141.751784	-36.959739	-57.220778	-36.959739	-57.220778	-0.508882	76.626807
10.000000	-0.691197	140.279971	-36.889802	-57.460963	-36.889802	-57.460963	-0.512344	75.270176
