! freq	dB(S11)	phase(S11)	dB(S12)	phase(S12)	
!     	dB(S21)	phase(S21)	dB(S22)	phase(S22)	
!S-par simulation data
#  GHz  S  DB  R 50
0.000000	-0.000000	0.000000	-370.143356	0.000000	-370.143356	0.000000	-0.000000	0.000000
0.050000	-0.000070	-0.867058	-79.864283	-8.589647	-79.864283	-8.589647	-0.000069	-0.867366
0.100000	-0.000277	-1.733994	-79.823261	-4.137152	-79.823261	-4.137152	-0.000277	-1.734610
0.150000	-0.000619	-2.600687	-79.867681	-2.558958	-79.867681	-2.558958	-0.000618	-2.601612
0.200000	-0.001089	-3.467030	-79.945297	-1.714154	-79.945297	-1.714154	-0.001088	-3.468264
0.250000	-0.001689	-4.332885	-80.051986	-1.185554	-80.051986	-1.185554	-0.001687	-4.334429
0.300000	-0.002398	-5.198198	-80.184745	-0.804389	-80.184745	-0.804389	-0.002396	-5.200053
0.350000	-0.003214	-6.062861	-80.345559	-0.523992	-80.345559	-0.523992	-0.003211	-6.065028
0.400000	-0.004126	-6.926796	-80.535990	-0.315178	-80.535990	-0.315178	-0.004123	-6.929276
0.450000	-0.005126	-7.789934	-80.758163	-0.163446	-80.758163	-0.163446	-0.005122	-7.792728
0.500000	-0.006201	-8.652216	-81.014774	-0.061796	-81.014774	-0.061796	-0.006198	-8.655324
0.550000	-0.007343	-9.513592	-81.309183	-0.007589	-81.309183	-0.007589	-0.007339	-9.517015
0.600000	-0.008541	-10.374024	-81.645563	-0.001117	-81.645563	-0.001117	-0.008537	-10.377763
0.650000	-0.009785	-11.233480	-82.029107	-0.045003	-82.029107	-0.045003	-0.009781	-11.237535
0.700000	-0.011066	-12.091937	-82.466336	-0.144126	-82.466336	-0.144126	-0.011063	-12.096308
0.750000	-0.012376	-12.949378	-82.965536	-0.305965	-82.965536	-0.305965	-0.012373	-12.954064
0.800000	-0.013707	-13.805791	-83.537401	-0.541435	-83.537401	-0.541435	-0.013704	-13.810793
0.850000	-0.015052	-14.661169	-84.196004	-0.866454	-84.196004	-0.866454	-0.015050	-14.666485
0.900000	-0.016404	-15.515508	-84.960326	-1.304789	-84.960326	-1.304789	-0.016403	-15.521138
0.950000	-0.017759	-16.368807	-85.856765	-1.893364	-85.856765	-1.893364	-0.017759	-16.374750
1.000000	-0.019112	-17.221066	-86.923470	-2.692752	-86.923470	-2.692752	-0.019113	-17.227321
1.050000	-0.020459	-18.072285	-88.218370	-3.809762	-88.218370	-3.809762	-0.020462	-18.078852
1.100000	-0.021797	-18.922468	-89.835344	-5.451874	-89.835344	-5.451874	-0.021801	-18.929344
1.150000	-0.023123	-19.771615	-91.940594	-8.080590	-91.940594	-8.080590	-0.023129	-19.778800
1.200000	-0.024437	-20.619727	-94.866666	-12.948272	-94.866666	-12.948272	-0.024444	-20.627219
1.250000	-0.025735	-21.466805	-99.396630	-24.465900	-99.396630	-24.465900	-0.025744	-21.474604
1.300000	-0.027017	-22.312802	-105.625606	-74.892338	-105.625606	-74.892338	-0.027027	-22.320906
1.350000	-0.028283	-23.157762	-100.737426	-141.051218	-100.737426	-141.051218	-0.028294	-23.166170
1.400000	-0.029532	-24.001682	-95.213000	-160.550803	-95.213000	-160.550803	-0.029545	-24.010392
1.450000	-0.030764	-24.844556	-91.482352	-167.321446	-91.482352	-167.321446	-0.030779	-24.853568
1.500000	-0.031981	-25.686378	-88.734052	-170.727841	-88.734052	-170.727841	-0.031997	-25.695691
1.550000	-0.033182	-26.527142	-86.550851	-172.889274	-86.550851	-172.889274	-0.033199	-26.536754
1.600000	-0.034367	-27.366839	-84.730103	-174.464316	-84.730103	-174.464316	-0.034387	-27.376750
1.650000	-0.035539	-28.205460	-83.160766	-175.724509	-83.160766	-175.724509	-0.035560	-28.215668
1.700000	-0.036693	-29.042610	-81.755824	-176.771375	-81.755824	-176.771375	-0.036715	-29.053114
1.750000	-0.037841	-29.879188	-80.521131	-177.750839	-80.521131	-177.750839	-0.037864	-29.889989
1.800000	-0.038975	-30.714408	-79.385413	-178.661648	-79.385413	-178.661648	-0.038999	-30.725503
1.850000	-0.040100	-31.548656	-78.346423	-179.523418	-78.346423	-179.523418	-0.040125	-31.560046
1.900000	-0.041216	-32.381709	-77.379176	179.631972	-77.379176	179.631972	-0.041242	-32.393393
1.950000	-0.042322	-33.213566	-76.473468	178.804524	-76.473468	178.804524	-0.042350	-33.225543
2.000000	-0.043423	-34.044400	-75.625046	177.975466	-75.625046	177.975466	-0.043452	-34.056669
2.050000	-0.044517	-34.873800	-74.816060	177.144155	-74.816060	177.144155	-0.044546	-34.886361
2.100000	-0.045608	-35.702572	-74.061209	176.307535	-74.061209	176.307535	-0.045638	-35.715424
2.150000	-0.046693	-36.529714	-73.331181	175.455941	-73.331181	175.455941	-0.046724	-36.542856
2.200000	-0.047775	-37.355623	-72.632582	174.589481	-72.632582	174.589481	-0.047807	-37.369055
2.250000	-0.048856	-38.180284	-71.962080	173.706238	-71.962080	173.706238	-0.048888	-38.194006
2.300000	-0.049936	-39.003680	-71.316859	172.804759	-71.316859	172.804759	-0.049968	-39.017691
2.350000	-0.051016	-39.825795	-70.694522	171.883954	-70.694522	171.883954	-0.051049	-39.840094
2.400000	-0.052096	-40.646611	-70.093008	170.943011	-70.093008	170.943011	-0.052130	-40.661198
2.450000	-0.053179	-41.466113	-69.510537	169.981342	-69.510537	169.981342	-0.053213	-41.480988
2.500000	-0.054264	-42.284285	-68.945559	168.998534	-68.945559	168.998534	-0.054298	-42.299446
2.550000	-0.055353	-43.101050	-68.395900	167.993384	-68.395900	167.993384	-0.055388	-43.116498
2.600000	-0.056446	-43.916451	-67.861250	166.966676	-67.861250	166.966676	-0.056481	-43.932185
2.650000	-0.057544	-44.730472	-67.340549	165.918374	-67.340549	165.918374	-0.057580	-44.746492
2.700000	-0.058648	-45.543098	-66.832860	164.848520	-66.832860	164.848520	-0.058684	-45.559403
2.750000	-0.059758	-46.354315	-66.337348	163.757226	-66.337348	163.757226	-0.059795	-46.370904
2.800000	-0.060876	-47.164106	-65.853270	162.644660	-65.853270	162.644660	-0.060912	-47.180980
2.850000	-0.062000	-47.972460	-65.379957	161.511044	-65.379957	161.511044	-0.062038	-47.989617
2.900000	-0.063134	-48.779360	-64.916812	160.356644	-64.916812	160.356644	-0.063171	-48.796800
2.950000	-0.064276	-49.584795	-64.463294	159.181765	-64.463294	159.181765	-0.064314	-49.602518
3.000000	-0.065427	-50.388751	-64.018918	157.986746	-64.018918	157.986746	-0.065465	-50.406756
3.050000	-0.066588	-51.191216	-63.583244	156.771958	-63.583244	156.771958	-0.066627	-51.209502
3.100000	-0.067759	-51.992178	-63.155873	155.537800	-63.155873	155.537800	-0.067799	-52.010745
3.150000	-0.068942	-52.791626	-62.736444	154.284696	-62.736444	154.284696	-0.068981	-52.810473
3.200000	-0.070135	-53.589548	-62.324627	153.013092	-62.324627	153.013092	-0.070175	-53.608675
3.250000	-0.071340	-54.385934	-61.920124	151.723458	-61.920124	151.723458	-0.071381	-54.405341
3.300000	-0.072558	-55.180775	-61.522660	150.416281	-61.522660	150.416281	-0.072598	-55.200460
3.350000	-0.073790	-55.973789	-61.130109	149.089260	-61.130109	149.089260	-0.073831	-55.993751
3.400000	-0.075035	-56.765170	-60.743833	147.745021	-60.743833	147.745021	-0.075077	-56.785410
3.450000	-0.076288	-57.555729	-60.368798	146.392667	-60.368798	146.392667	-0.076330	-57.576245
3.500000	-0.077562	-58.343818	-59.994315	145.015969	-59.994315	145.015969	-0.077605	-58.364611
3.550000	-0.078841	-59.131354	-59.632071	143.634272	-59.632071	143.634272	-0.078884	-59.152423
3.600000	-0.080144	-59.916123	-59.268779	142.227585	-59.268779	142.227585	-0.080189	-59.937466
3.650000	-0.081451	-60.700612	-58.918563	140.818612	-58.918563	140.818612	-0.081496	-60.722230
3.700000	-0.082786	-61.482036	-58.565956	139.384504	-58.565956	139.384504	-0.082831	-61.503927
3.750000	-0.084122	-62.263459	-58.227107	137.950397	-58.227107	137.950397	-0.084167	-62.285624
3.800000	-0.085490	-63.041520	-57.884756	136.491510	-57.884756	136.491510	-0.085536	-63.063957
3.850000	-0.086858	-63.819580	-57.555388	135.032624	-57.555388	135.032624	-0.086905	-63.842289
3.900000	-0.088257	-64.594546	-57.224227	133.553495	-57.224227	133.553495	-0.088305	-64.617526
3.950000	-0.089660	-65.369230	-56.904019	132.072527	-56.904019	132.072527	-0.089708	-65.392482
4.000000	-0.091092	-66.141096	-56.583530	130.575428	-56.583530	130.575428	-0.091141	-66.164618
4.050000	-0.092530	-66.912398	-56.272197	129.075103	-56.272197	129.075103	-0.092580	-66.936190
4.100000	-0.093996	-67.681163	-55.961910	127.562312	-55.961910	127.562312	-0.094047	-67.705224
4.150000	-0.095471	-68.449081	-55.659196	126.045366	-55.659196	126.045366	-0.095523	-68.473411
4.200000	-0.096972	-69.214748	-55.358677	124.519150	-55.358677	124.519150	-0.097024	-69.239346
4.250000	-0.098486	-69.979288	-55.064342	122.988300	-55.064342	122.988300	-0.098539	-70.004154
4.300000	-0.100023	-70.741864	-54.773187	121.450900	-54.773187	121.450900	-0.100077	-70.766997
4.350000	-0.101577	-71.503036	-54.487006	119.908822	-54.487006	119.908822	-0.101632	-71.528437
4.400000	-0.103152	-72.262533	-54.204834	118.362435	-54.204834	118.362435	-0.103208	-72.288200
4.450000	-0.104748	-73.020354	-53.926583	116.811738	-53.926583	116.811738	-0.104804	-73.046288
4.500000	-0.106361	-73.776788	-53.653031	115.258500	-53.653031	115.258500	-0.106419	-73.802988
4.550000	-0.108000	-74.531280	-53.382487	113.701704	-53.382487	113.701704	-0.108059	-74.557746
4.600000	-0.109654	-75.284671	-53.117207	112.143676	-53.117207	112.143676	-0.109713	-75.311403
4.650000	-0.111338	-76.035862	-52.854143	110.583184	-52.854143	110.583184	-0.111398	-76.062859
4.700000	-0.113034	-76.786236	-52.596797	109.022335	-52.596797	109.022335	-0.113095	-76.813498
4.750000	-0.114764	-77.534159	-52.340982	107.460416	-52.340982	107.460416	-0.114826	-77.561686
4.800000	-0.116503	-78.281543	-52.091241	105.898612	-52.091241	105.898612	-0.116566	-78.309336
4.850000	-0.118282	-79.026237	-51.842435	104.337378	-51.842435	104.337378	-0.118346	-79.054296
4.900000	-0.120066	-79.770666	-51.599980	102.776364	-51.599980	102.776364	-0.120131	-79.798990
4.950000	-0.121896	-80.512176	-51.357935	101.217758	-51.357935	101.217758	-0.121962	-80.540765
5.000000	-0.123726	-81.253686	-51.122453	99.659152	-51.122453	99.659152	-0.123793	-81.282541
5.050000	-0.125608	-81.992061	-50.886917	98.104930	-50.886917	98.104930	-0.125676	-82.021182
5.100000	-0.127491	-82.730436	-50.657599	96.550707	-50.657599	96.550707	-0.127560	-82.759824
5.150000	-0.129424	-83.465989	-50.428813	95.001935	-50.428813	95.001935	-0.129493	-83.495644
5.200000	-0.131361	-84.201285	-50.205423	93.453658	-50.205423	93.453658	-0.131432	-84.231207
5.250000	-0.133346	-84.934066	-49.983061	91.911470	-49.983061	91.911470	-0.133418	-84.964255
5.300000	-0.135340	-85.666343	-49.765357	90.370500	-49.765357	90.370500	-0.135413	-85.696800
5.350000	-0.137379	-86.396405	-49.549100	88.835877	-49.549100	88.835877	-0.137453	-86.427131
5.400000	-0.139433	-87.125728	-49.336837	87.303371	-49.336837	87.303371	-0.139508	-87.156724
5.450000	-0.141528	-87.853129	-49.126380	85.777143	-49.126380	85.777143	-0.141604	-87.884396
5.500000	-0.143643	-88.579568	-48.919312	84.254055	-48.919312	84.254055	-0.143721	-88.611106
5.550000	-0.145796	-89.304369	-48.714359	82.736901	-48.714359	82.736901	-0.145874	-89.336180
5.600000	-0.147976	-90.028000	-48.512242	81.223986	-48.512242	81.223986	-0.148055	-90.060083
5.650000	-0.150189	-90.750265	-48.312509	79.716437	-48.312509	79.716437	-0.150269	-90.782623
5.700000	-0.152436	-91.471165	-48.115102	78.214256	-48.115102	78.214256	-0.152517	-91.503799
5.750000	-0.154711	-92.190963	-47.920316	76.716704	-47.920316	76.716704	-0.154794	-92.223874
5.800000	-0.157027	-92.909216	-47.727385	75.225633	-47.727385	75.225633	-0.157110	-92.942406
5.850000	-0.159366	-93.626617	-47.537289	73.738332	-47.537289	73.738332	-0.159451	-93.660086
5.900000	-0.161754	-94.342311	-47.348606	72.258574	-47.348606	72.258574	-0.161840	-94.376062
5.950000	-0.164160	-95.057389	-47.162954	70.781653	-47.162954	70.781653	-0.164248	-95.091422
6.000000	-0.166622	-95.770615	-46.978303	69.313245	-46.978303	69.313245	-0.166711	-95.804933
6.050000	-0.169097	-96.483446	-46.796864	67.846711	-46.796864	67.846711	-0.169187	-96.518050
6.100000	-0.171636	-97.194298	-46.616040	66.389544	-46.616040	66.389544	-0.171727	-97.229192
6.150000	-0.174183	-97.904962	-46.438597	64.933292	-46.438597	64.933292	-0.174275	-97.940145
6.200000	-0.176801	-98.613539	-46.261407	63.487118	-46.261407	63.487118	-0.176894	-98.649016
6.250000	-0.179420	-99.322117	-46.087760	62.040943	-46.087760	62.040943	-0.179515	-99.357887
6.300000	-0.182121	-100.028520	-45.914026	60.605391	-45.914026	60.605391	-0.182217	-100.064589
6.350000	-0.184822	-100.734923	-45.743699	59.169839	-45.743699	59.169839	-0.184919	-100.771290
6.400000	-0.187600	-101.439428	-45.573547	57.743586	-45.573547	57.743586	-0.187699	-101.476098
6.450000	-0.190386	-102.143760	-45.406387	56.318178	-45.406387	56.318178	-0.190486	-102.180734
6.500000	-0.193243	-102.846455	-45.239652	54.900745	-45.239652	54.900745	-0.193345	-102.883738
6.550000	-0.196116	-103.548823	-45.075521	53.484907	-45.075521	53.484907	-0.196219	-103.586414
6.600000	-0.199054	-104.249797	-44.912056	52.075757	-44.912056	52.075757	-0.199159	-104.287703
6.650000	-0.202016	-104.950308	-44.750832	50.668836	-44.750832	50.668836	-0.202122	-104.988528
6.700000	-0.205038	-105.649653	-44.590506	49.267379	-44.590506	49.267379	-0.205146	-105.688193
6.750000	-0.208090	-106.348415	-44.432083	47.868653	-44.432083	47.868653	-0.208200	-106.387277
6.800000	-0.211197	-107.046222	-44.274782	46.474256	-44.274782	46.474256	-0.211308	-107.085411
6.850000	-0.214342	-107.743347	-44.119074	45.082950	-44.119074	45.082950	-0.214455	-107.782864
6.900000	-0.217534	-108.439708	-43.964698	43.694946	-43.964698	43.694946	-0.217649	-108.479558
6.950000	-0.220774	-109.135306	-43.811634	42.310244	-43.811634	42.310244	-0.220890	-109.175493
7.000000	-0.224054	-109.830314	-43.660101	40.927941	-43.660101	40.927941	-0.224172	-109.870841
7.050000	-0.227389	-110.524497	-43.509628	39.548997	-43.509628	39.548997	-0.227509	-110.565368
7.100000	-0.230757	-111.218244	-43.360871	38.171685	-43.360871	38.171685	-0.230880	-111.259462
7.150000	-0.234190	-111.911121	-43.212955	36.797637	-43.212955	36.797637	-0.234314	-111.952693
7.200000	-0.237647	-112.603700	-43.066921	35.424598	-43.066921	35.424598	-0.237774	-112.645626
7.250000	-0.241178	-113.295382	-42.921547	34.054580	-42.921547	34.054580	-0.241306	-113.337670
7.300000	-0.244725	-113.986882	-42.778197	32.685091	-42.778197	32.685091	-0.244856	-114.029534
7.350000	-0.248354	-114.677477	-42.635365	31.318245	-42.635365	31.318245	-0.248487	-114.720499
7.400000	-0.251992	-115.367990	-42.494675	29.951594	-42.494675	29.951594	-0.252127	-115.411384
7.450000	-0.255720	-116.057603	-42.354406	28.587079	-42.354406	28.587079	-0.255857	-116.101378
7.500000	-0.259449	-116.747215	-42.216365	27.222564	-42.216365	27.222564	-0.259589	-116.791372
7.550000	-0.263275	-117.435950	-42.078695	25.859570	-42.078695	25.859570	-0.263418	-117.480498
7.600000	-0.267103	-118.124685	-41.943173	24.496576	-41.943173	24.496576	-0.267248	-118.169623
7.650000	-0.271019	-118.812705	-41.808290	23.134273	-41.808290	23.134273	-0.271168	-118.858045
7.700000	-0.274946	-119.500661	-41.675340	21.772032	-41.675340	21.772032	-0.275097	-119.546403
7.750000	-0.278953	-120.188048	-41.543276	20.409824	-41.543276	20.409824	-0.279107	-120.234202
7.800000	-0.282977	-120.875320	-41.412969	19.047622	-41.412969	19.047622	-0.283135	-120.921888
7.850000	-0.287074	-121.562148	-41.283766	17.684962	-41.283766	17.684962	-0.287235	-121.609139
7.900000	-0.291195	-122.248829	-41.156187	16.322148	-41.156187	16.322148	-0.291360	-122.296244
7.950000	-0.295381	-122.935171	-41.029901	14.958544	-41.029901	14.958544	-0.295548	-122.983020
8.000000	-0.299598	-123.621344	-40.905150	13.594545	-40.905150	13.594545	-0.299770	-123.669632
8.050000	-0.303871	-124.307267	-40.781844	12.229569	-40.781844	12.229569	-0.304046	-124.356001
8.100000	-0.308184	-124.993012	-40.660036	10.863896	-40.660036	10.863896	-0.308363	-125.042197
8.150000	-0.312543	-125.678580	-40.539783	9.497191	-40.539783	9.497191	-0.312726	-125.728222
8.200000	-0.316949	-126.363970	-40.421044	8.129454	-40.421044	8.129454	-0.317137	-126.414077
8.250000	-0.321394	-127.049238	-40.303925	6.760739	-40.303925	6.760739	-0.321586	-127.099817
8.300000	-0.325892	-127.734338	-40.188392	5.390656	-40.188392	5.390656	-0.326089	-127.785395
8.350000	-0.330421	-128.419359	-40.074497	4.019735	-40.074497	4.019735	-0.330622	-128.470901
8.400000	-0.335009	-129.104225	-39.962316	2.647139	-39.962316	2.647139	-0.335215	-129.156261
8.450000	-0.339621	-129.789045	-39.851738	1.273905	-39.851738	1.273905	-0.339832	-129.841579
8.500000	-0.344298	-130.473726	-39.743062	-0.101244	-39.743062	-0.101244	-0.344514	-130.526769
8.550000	-0.348991	-131.158383	-39.635899	-1.476803	-39.635899	-1.476803	-0.349213	-131.211939
8.600000	-0.353755	-131.842919	-39.530887	-2.854412	-39.530887	-2.854412	-0.353983	-131.897001
8.650000	-0.358528	-132.527445	-39.427242	-4.232208	-39.427242	-4.232208	-0.358762	-132.582054
8.700000	-0.363378	-133.211865	-39.326054	-5.612048	-39.326054	-5.612048	-0.363618	-133.267018
8.750000	-0.368230	-133.896285	-39.226030	-6.991888	-39.226030	-6.991888	-0.368477	-133.951981
8.800000	-0.373164	-134.580610	-39.128825	-8.373586	-39.128825	-8.373586	-0.373418	-134.636867
8.850000	-0.378101	-135.264935	-39.032697	-9.755285	-39.032697	-9.755285	-0.378361	-135.321753
8.900000	-0.383113	-135.949181	-38.939464	-11.138215	-38.939464	-11.138215	-0.383380	-136.006577
8.950000	-0.388134	-136.633420	-38.847386	-12.521256	-38.847386	-12.521256	-0.388408	-136.691397
9.000000	-0.393222	-137.317588	-38.758221	-13.904869	-38.758221	-13.904869	-0.393505	-137.376160
9.050000	-0.398327	-138.001741	-38.670347	-15.288595	-38.670347	-15.288595	-0.398617	-138.060913
9.100000	-0.403492	-138.685821	-38.585339	-16.672238	-38.585339	-16.672238	-0.403791	-138.745608
9.150000	-0.408680	-139.369877	-38.501811	-18.055852	-38.501811	-18.055852	-0.408987	-139.430284
9.200000	-0.413924	-140.053854	-38.421043	-19.438772	-38.421043	-19.438772	-0.414239	-140.114895
9.250000	-0.419196	-140.737791	-38.341992	-20.821345	-38.341992	-20.821345	-0.419521	-140.799474
9.300000	-0.424518	-141.421641	-38.265535	-22.202695	-38.265535	-22.202695	-0.424852	-141.483978
9.350000	-0.429877	-142.105429	-38.191078	-23.583173	-38.191078	-23.583173	-0.430220	-142.168429
9.400000	-0.435280	-142.789120	-38.118993	-24.962021	-38.118993	-24.962021	-0.435633	-142.852796
9.450000	-0.440727	-143.472715	-38.049228	-26.339239	-38.049228	-26.339239	-0.441090	-143.537078
9.500000	-0.446212	-144.156208	-37.981565	-27.714573	-37.981565	-27.714573	-0.446586	-144.221268
9.550000	-0.451751	-144.839559	-37.916571	-29.087270	-37.916571	-29.087270	-0.452135	-144.905330
9.600000	-0.457323	-145.522808	-37.853364	-30.458013	-37.853364	-30.458013	-0.457717	-145.589299
9.650000	-0.462957	-146.205853	-37.793200	-31.824847	-37.793200	-31.824847	-0.463363	-146.273081
9.700000	-0.468619	-146.888804	-37.734469	-33.189866	-37.734469	-33.189866	-0.469036	-146.956775
9.750000	-0.474354	-147.571473	-37.679168	-34.549436	-37.679168	-34.549436	-0.474783	-147.640207
9.800000	-0.480111	-148.254067	-37.624918	-35.907555	-37.624918	-35.907555	-0.480550	-148.323568
9.850000	-0.485954	-148.936282	-37.574490	-37.258419	-37.574490	-37.258419	-0.486406	-149.006572
9.900000	-0.491810	-149.618451	-37.524711	-38.608435	-37.524711	-38.608435	-0.492274	-149.689534
9.950000	-0.497768	-150.300125	-37.479138	-39.949130	-37.479138	-39.949130	-0.498244	-150.372025
10.000000	-0.503731	-150.981798	-37.433803	-41.289825	-37.433803	-41.289825	-0.504219	-151.054517
