! freq	dB(S11)	phase(S11)	dB(S12)	phase(S12)	
!     	dB(S21)	phase(S21)	dB(S22)	phase(S22)	
!S-par simulation data
#  GHz  S  DB  R 50
0.000000	-0.000000	0.000000	-344.193120	0.000000	-344.193120	0.000000	-0.000000	0.000000
0.050000	-0.003473	-1.218648	-99.786275	99.361374	-99.786275	99.361374	-0.006678	-1.641450
0.100000	-0.007966	-2.470490	-94.424544	93.565240	-94.424544	93.565240	-0.012956	-3.342667
0.150000	-0.010617	-3.732859	-91.108068	90.063268	-91.108068	90.063268	-0.015917	-5.051837
0.200000	-0.012237	-4.995321	-88.745631	87.486146	-88.745631	87.486146	-0.017629	-6.757845
0.250000	-0.013403	-6.256096	-86.938884	85.357166	-86.938884	85.357166	-0.018899	-8.460243
0.300000	-0.014394	-7.515090	-85.499562	83.483839	-85.499562	83.483839	-0.020039	-10.159473
0.350000	-0.015333	-8.772445	-84.324570	81.783380	-84.324570	81.783380	-0.021173	-11.855805
0.400000	-0.016281	-10.028266	-83.351771	80.218356	-83.351771	80.218356	-0.022355	-13.549315
0.450000	-0.017265	-11.282603	-82.541143	78.773246	-82.541143	78.773246	-0.023608	-15.239958
0.500000	-0.018298	-12.535457	-81.865680	77.444833	-81.865680	77.444833	-0.024942	-16.927622
0.550000	-0.019387	-13.786804	-81.306565	76.238022	-81.306565	76.238022	-0.026358	-18.612153
0.600000	-0.020532	-15.036598	-80.850421	75.164085	-80.850421	75.164085	-0.027853	-20.293376
0.650000	-0.021733	-16.284767	-80.488459	74.242086	-80.488459	74.242086	-0.029425	-21.971067
0.700000	-0.022986	-17.531247	-80.213805	73.496496	-80.213805	73.496496	-0.031067	-23.645032
0.750000	-0.024288	-18.775993	-80.020715	72.956936	-80.020715	72.956936	-0.032771	-25.315120
0.800000	-0.025634	-20.018942	-79.905647	72.663699	-79.905647	72.663699	-0.034532	-26.981151
0.850000	-0.027022	-21.259861	-79.872258	72.701265	-79.872258	72.701265	-0.036345	-28.642558
0.900000	-0.028441	-22.499042	-79.904460	73.073491	-79.904460	73.073491	-0.038195	-30.299978
0.950000	-0.029892	-23.736242	-80.006686	73.894847	-80.006686	73.894847	-0.040081	-31.952829
1.000000	-0.031368	-24.971405	-80.174385	75.272859	-80.174385	75.272859	-0.041996	-33.600953
1.050000	-0.032867	-26.204570	-80.398227	77.301802	-80.398227	77.301802	-0.043933	-35.244420
1.100000	-0.034384	-27.435474	-80.667321	80.226827	-80.667321	80.226827	-0.045888	-36.882595
1.150000	-0.035917	-28.664183	-80.953182	84.189168	-80.953182	84.189168	-0.047856	-38.515611
1.200000	-0.037461	-29.890650	-81.213572	89.357587	-81.213572	89.357587	-0.049831	-40.143340
1.250000	-0.039014	-31.114828	-81.386056	95.820360	-81.386056	95.820360	-0.051809	-41.765659
1.300000	-0.040574	-32.336623	-81.386461	103.495435	-81.386461	103.495435	-0.053786	-43.382333
1.350000	-0.042136	-33.556044	-81.141942	111.949340	-81.141942	111.949340	-0.055759	-44.993372
1.400000	-0.043701	-34.773051	-80.614428	120.527165	-80.614428	120.527165	-0.057724	-46.598676
1.450000	-0.045265	-35.987607	-79.822680	128.535418	-79.822680	128.535418	-0.059681	-48.198151
1.500000	-0.046828	-37.199676	-78.830893	135.480017	-78.830893	135.480017	-0.061626	-49.791708
1.550000	-0.048388	-38.409223	-77.717523	141.157946	-77.717523	141.157946	-0.063557	-51.379267
1.600000	-0.049944	-39.616216	-76.550042	145.596175	-76.550042	145.596175	-0.065475	-52.960751
1.650000	-0.051496	-40.820622	-75.375771	148.941330	-75.375771	148.941330	-0.067376	-54.536090
1.700000	-0.053043	-42.022152	-74.212751	151.300654	-74.212751	151.300654	-0.069261	-56.104608
1.750000	-0.054585	-43.221263	-73.099055	153.003442	-73.099055	153.003442	-0.071130	-57.667396
1.800000	-0.056121	-44.417700	-72.030169	154.112566	-72.030169	154.112566	-0.072982	-59.223863
1.850000	-0.057652	-45.611435	-71.008415	154.745652	-71.008415	154.745652	-0.074819	-60.773960
1.900000	-0.059178	-46.802444	-70.033377	154.995876	-70.033377	154.995876	-0.076639	-62.317646
1.950000	-0.060698	-47.990703	-69.103215	154.936362	-69.103215	154.936362	-0.078443	-63.854883
2.000000	-0.062214	-49.176187	-68.215422	154.624438	-68.215422	154.624438	-0.080232	-65.385638
2.050000	-0.063725	-50.358876	-67.367253	154.105204	-67.367253	154.105204	-0.082007	-66.909885
2.100000	-0.065233	-51.538749	-66.555958	153.414354	-66.555958	153.414354	-0.083769	-68.427602
2.150000	-0.066738	-52.715786	-65.778903	152.580342	-65.778903	152.580342	-0.085518	-69.938771
2.200000	-0.068240	-53.889970	-65.033623	151.626028	-65.033623	151.626028	-0.087256	-71.443379
2.250000	-0.069740	-55.061284	-64.317852	150.569923	-64.317852	150.569923	-0.088983	-72.941420
2.300000	-0.071239	-56.229712	-63.629514	149.427134	-63.629514	149.427134	-0.090701	-74.432890
2.350000	-0.072738	-57.395240	-62.966726	148.210084	-62.966726	148.210084	-0.092412	-75.917790
2.400000	-0.074238	-58.557856	-62.327776	146.929060	-62.327776	146.929060	-0.094116	-77.396126
2.450000	-0.075739	-59.717547	-61.711112	145.592640	-61.711112	145.592640	-0.095814	-78.867910
2.500000	-0.077242	-60.874305	-61.115327	144.208025	-61.115327	144.208025	-0.097508	-80.333154
2.550000	-0.078749	-62.027991	-60.538336	142.779704	-60.538336	142.779704	-0.099199	-81.791597
2.600000	-0.080259	-63.178727	-59.979891	141.314821	-59.979891	141.314821	-0.100889	-83.243545
2.650000	-0.081775	-64.326507	-59.438921	139.817700	-59.438921	139.817700	-0.102579	-84.689027
2.700000	-0.083296	-65.471326	-58.914448	138.292056	-58.914448	138.292056	-0.104270	-86.128074
2.750000	-0.084824	-66.613183	-58.405580	136.741101	-58.405580	136.741101	-0.105963	-87.560722
2.800000	-0.086360	-67.752076	-57.911501	135.167625	-57.911501	135.167625	-0.107660	-88.987008
2.850000	-0.087904	-68.888005	-57.431460	133.574056	-57.431460	133.574056	-0.109362	-90.406977
2.900000	-0.089458	-70.020972	-56.964769	131.962522	-56.964769	131.962522	-0.111069	-91.820674
2.950000	-0.091021	-71.150980	-56.510793	130.334893	-56.510793	130.334893	-0.112784	-93.228148
3.000000	-0.092596	-72.278034	-56.068948	128.692817	-56.068948	128.692817	-0.114507	-94.629453
3.050000	-0.094182	-73.402140	-55.638692	127.037757	-55.638692	127.037757	-0.116240	-96.024645
3.100000	-0.095781	-74.523306	-55.219522	125.371011	-55.219522	125.371011	-0.117983	-97.413782
3.150000	-0.097394	-75.641541	-54.810973	123.693739	-54.810973	123.693739	-0.119737	-98.796927
3.200000	-0.099021	-76.756855	-54.412610	122.006979	-54.412610	122.006979	-0.121504	-100.174144
3.250000	-0.100662	-77.869261	-54.024031	120.311665	-54.024031	120.311665	-0.123284	-101.545502
3.300000	-0.102320	-78.978773	-53.644857	118.608638	-53.644857	118.608638	-0.125078	-102.911071
3.350000	-0.103994	-80.085405	-53.274735	116.898663	-53.274735	116.898663	-0.126888	-104.270924
3.400000	-0.105685	-81.189174	-52.913334	115.182432	-52.913334	115.182432	-0.128714	-105.625135
3.450000	-0.107394	-82.290097	-52.560343	113.460577	-52.560343	113.460577	-0.130556	-106.973784
3.500000	-0.109122	-83.388195	-52.215468	111.733678	-52.215468	111.733678	-0.132417	-108.316949
3.550000	-0.110870	-84.483488	-51.878434	110.002266	-51.878434	110.002266	-0.134295	-109.654713
3.600000	-0.112637	-85.575998	-51.548981	108.266831	-51.548981	108.266831	-0.136193	-110.987160
3.650000	-0.114425	-86.665749	-51.226860	106.527826	-51.226860	106.527826	-0.138111	-112.314376
3.700000	-0.116234	-87.752765	-50.911838	104.785671	-50.911838	104.785671	-0.140049	-113.636450
3.750000	-0.118066	-88.837073	-50.603694	103.040758	-50.603694	103.040758	-0.142008	-114.953470
3.800000	-0.119921	-89.918586	-50.302052	101.293364	-50.302052	101.293364	-0.143990	-116.265318
3.850000	-0.121799	-90.997450	-50.006895	99.543948	-50.006895	99.543948	-0.145994	-117.572306
3.900000	-0.123701	-92.073695	-49.718030	97.792828	-49.718030	97.792828	-0.148021	-118.874529
3.950000	-0.125628	-93.147354	-49.435272	96.040304	-49.435272	96.040304	-0.150071	-120.172083
4.000000	-0.127580	-94.218459	-49.158442	94.286658	-49.158442	94.286658	-0.152145	-121.465066
4.050000	-0.129558	-95.287045	-48.887370	92.532157	-48.887370	92.532157	-0.154243	-122.753576
4.100000	-0.131562	-96.353147	-48.621893	90.777055	-48.621893	90.777055	-0.156367	-124.037714
4.150000	-0.133592	-97.416802	-48.361854	89.021592	-48.361854	89.021592	-0.158515	-125.317581
4.200000	-0.135650	-98.478048	-48.107102	87.265995	-48.107102	87.265995	-0.160688	-126.593279
4.250000	-0.137736	-99.536923	-47.857490	85.510482	-47.857490	85.510482	-0.162888	-127.864911
4.300000	-0.139850	-100.593468	-47.612879	83.755258	-47.612879	83.755258	-0.165113	-129.132581
4.350000	-0.141993	-101.647724	-47.373132	82.000520	-47.373132	82.000520	-0.167365	-130.396395
4.400000	-0.144166	-102.699734	-47.138117	80.246454	-47.138117	80.246454	-0.169644	-131.656458
4.450000	-0.146369	-103.749541	-46.907709	78.493239	-46.907709	78.493239	-0.171949	-132.912876
4.500000	-0.148602	-104.797190	-46.681784	76.741042	-46.681784	76.741042	-0.174282	-134.165756
4.550000	-0.150866	-105.842726	-46.460223	74.990024	-46.460223	74.990024	-0.176642	-135.415207
4.600000	-0.153161	-106.886197	-46.242911	73.240339	-46.242911	73.240339	-0.179030	-136.661337
4.650000	-0.155488	-107.927650	-46.029737	71.492131	-46.029737	71.492131	-0.181446	-137.904255
4.700000	-0.157848	-108.967133	-45.820592	69.745537	-45.820592	69.745537	-0.183889	-139.144069
4.750000	-0.160240	-110.004698	-45.615371	68.000686	-45.615371	68.000686	-0.186361	-140.380891
4.800000	-0.162666	-111.040394	-45.413973	66.257701	-45.413973	66.257701	-0.188860	-141.614829
4.850000	-0.165125	-112.074273	-45.216299	64.516696	-45.216299	64.516696	-0.191388	-142.845995
4.900000	-0.167619	-113.106388	-45.022255	62.777779	-45.022255	62.777779	-0.193945	-144.074500
4.950000	-0.170147	-114.136793	-44.831748	61.041052	-44.831748	61.041052	-0.196529	-145.300453
5.000000	-0.172710	-115.165542	-44.644689	59.306606	-44.644689	59.306606	-0.199143	-146.523968
5.050000	-0.175310	-116.192623	-44.460968	57.574637	-44.460968	57.574637	-0.201785	-147.745058
5.100000	-0.177946	-117.218166	-44.280530	55.845123	-44.280530	55.845123	-0.204457	-148.963943
5.150000	-0.180619	-118.242226	-44.103295	54.118136	-44.103295	54.118136	-0.207156	-150.180733
5.200000	-0.183328	-119.264864	-43.929185	52.393743	-43.929185	52.393743	-0.209884	-151.395541
5.250000	-0.186074	-120.286137	-43.758124	50.672001	-43.758124	50.672001	-0.212641	-152.608477
5.300000	-0.188858	-121.306106	-43.590041	48.952964	-43.590041	48.952964	-0.215425	-153.819655
5.350000	-0.191680	-122.324831	-43.424866	47.236678	-43.424866	47.236678	-0.218238	-155.029186
5.400000	-0.194540	-123.342373	-43.262534	45.523182	-43.262534	45.523182	-0.221079	-156.237182
5.450000	-0.197439	-124.358796	-43.102980	43.812510	-43.102980	43.812510	-0.223948	-157.443753
5.500000	-0.200377	-125.374162	-42.946145	42.104690	-42.946145	42.104690	-0.226845	-158.649013
5.550000	-0.203354	-126.388535	-42.791970	40.399745	-42.791970	40.399745	-0.229769	-159.853072
5.600000	-0.206372	-127.401979	-42.640400	38.697692	-42.640400	38.697692	-0.232720	-161.056041
5.650000	-0.209429	-128.414561	-42.491383	36.998541	-42.491383	36.998541	-0.235699	-162.258032
5.700000	-0.212527	-129.426345	-42.344870	35.302301	-42.344870	35.302301	-0.238705	-163.459156
5.750000	-0.215666	-130.437400	-42.200814	33.608971	-42.200814	33.608971	-0.241738	-164.659522
5.800000	-0.218847	-131.447792	-42.059170	31.918550	-42.059170	31.918550	-0.244797	-165.859241
5.850000	-0.222069	-132.457590	-41.919898	30.231032	-41.919898	30.231032	-0.247883	-167.058424
5.900000	-0.225332	-133.466864	-41.782958	28.546405	-41.782958	28.546405	-0.250995	-168.257179
5.950000	-0.228639	-134.475681	-41.648315	26.864656	-41.648315	26.864656	-0.254132	-169.455616
6.000000	-0.231987	-135.484114	-41.515935	25.185767	-41.515935	25.185767	-0.257295	-170.653845
6.050000	-0.235379	-136.492234	-41.385788	23.509719	-41.385788	23.509719	-0.260482	-171.851973
6.100000	-0.238814	-137.500111	-41.257843	21.836490	-41.257843	21.836490	-0.263694	-173.050108
6.150000	-0.242293	-138.507818	-41.132076	20.166057	-41.132076	20.166057	-0.266931	-174.248359
6.200000	-0.245816	-139.515430	-41.008463	18.498394	-41.008463	18.498394	-0.270192	-175.446831
6.250000	-0.249382	-140.523019	-40.886983	16.833475	-40.886983	16.833475	-0.273475	-176.645633
6.300000	-0.252995	-141.530665	-40.767638	15.171391	-40.767638	15.171391	-0.276783	-177.844893
6.350000	-0.256653	-142.538445	-40.650394	13.511997	-40.650394	13.511997	-0.280114	-179.044703
6.400000	-0.260356	-143.546435	-40.535236	11.855266	-40.535236	11.855266	-0.283466	179.754833
6.450000	-0.264104	-144.554712	-40.422152	10.201176	-40.422152	10.201176	-0.286840	178.553610
6.500000	-0.267898	-145.563351	-40.311133	8.549703	-40.311133	8.549703	-0.290235	177.351525
6.550000	-0.271738	-146.572431	-40.202169	6.900827	-40.202169	6.900827	-0.293651	176.148476
6.600000	-0.275624	-147.582031	-40.095255	5.254531	-40.095255	5.254531	-0.297086	174.944360
6.650000	-0.279556	-148.592229	-39.990386	3.610800	-39.990386	3.610800	-0.300541	173.739076
6.700000	-0.283535	-149.603105	-39.887559	1.969625	-39.887559	1.969625	-0.304015	172.532525
6.750000	-0.287560	-150.614738	-39.786773	0.331000	-39.786773	0.331000	-0.307506	171.324606
6.800000	-0.291633	-151.627211	-39.688029	-1.305077	-39.688029	-1.305077	-0.311016	170.115222
6.850000	-0.295752	-152.640603	-39.591328	-2.938600	-39.591328	-2.938600	-0.314542	168.904274
6.900000	-0.299919	-153.654997	-39.496674	-4.569559	-39.496674	-4.569559	-0.318084	167.691665
6.950000	-0.304134	-154.670475	-39.404071	-6.197938	-39.404071	-6.197938	-0.321642	166.477301
7.000000	-0.308396	-155.687121	-39.313525	-7.823713	-39.313525	-7.823713	-0.325215	165.261087
7.050000	-0.312706	-156.705018	-39.225043	-9.446853	-39.225043	-9.446853	-0.328801	164.042929
7.100000	-0.317064	-157.724249	-39.138633	-11.067320	-39.138633	-11.067320	-0.332401	162.822735
7.150000	-0.321471	-158.744901	-39.054302	-12.685068	-39.054302	-12.685068	-0.336013	161.600414
7.200000	-0.325925	-159.767057	-38.972061	-14.300041	-38.972061	-14.300041	-0.339638	160.375876
7.250000	-0.330428	-160.790805	-38.891919	-15.912178	-38.891919	-15.912178	-0.343273	159.149034
7.300000	-0.334979	-161.816229	-38.813887	-17.521406	-38.813887	-17.521406	-0.346918	157.919798
7.350000	-0.339579	-162.843417	-38.737975	-19.127643	-38.737975	-19.127643	-0.350572	156.688085
7.400000	-0.344228	-163.872456	-38.664195	-20.730800	-38.664195	-20.730800	-0.354235	155.453810
7.450000	-0.348925	-164.903434	-38.592556	-22.330776	-38.592556	-22.330776	-0.357905	154.216891
7.500000	-0.353670	-165.936439	-38.523072	-23.927462	-38.523072	-23.927462	-0.361582	152.977245
7.550000	-0.358466	-166.971656	-38.455824	-25.520586	-38.455824	-25.520586	-0.365264	151.734669
7.600000	-0.363311	-168.009085	-38.390756	-27.110160	-38.390756	-27.110160	-0.368952	150.489203
7.650000	-0.368205	-169.048817	-38.327877	-28.696045	-38.327877	-28.696045	-0.372643	149.240772
7.700000	-0.373147	-170.090942	-38.267197	-30.278094	-38.267197	-30.278094	-0.376336	147.989302
7.750000	-0.378137	-171.135550	-38.208726	-31.856148	-38.208726	-31.856148	-0.380032	146.734721
7.800000	-0.383176	-172.182731	-38.152470	-33.430042	-38.152470	-33.430042	-0.383728	145.476960
7.850000	-0.388262	-173.232577	-38.098438	-34.999600	-38.098438	-34.999600	-0.387424	144.215951
7.900000	-0.393397	-174.285179	-38.046636	-36.564640	-38.046636	-36.564640	-0.391119	142.951629
7.950000	-0.398580	-175.340630	-37.997069	-38.124971	-37.997069	-38.124971	-0.394811	141.683930
8.000000	-0.403810	-176.399020	-37.949742	-39.680394	-37.949742	-39.680394	-0.398500	140.412793
8.050000	-0.409088	-177.460444	-37.904657	-41.230704	-37.904657	-41.230704	-0.402185	139.138161
8.100000	-0.414413	-178.524992	-37.861817	-42.775690	-37.861817	-42.775690	-0.405864	137.859976
8.150000	-0.419785	-179.592758	-37.821221	-44.315134	-37.821221	-44.315134	-0.409537	136.578186
8.200000	-0.425204	179.336165	-37.782868	-45.848813	-37.782868	-45.848813	-0.413203	135.292740
8.250000	-0.430668	178.261684	-37.746755	-47.376500	-37.746755	-47.376500	-0.416860	134.003589
8.300000	-0.436179	177.183705	-37.712878	-48.897965	-37.712878	-48.897965	-0.420507	132.710689
8.350000	-0.441735	176.102136	-37.681230	-50.412971	-37.681230	-50.412971	-0.424144	131.413997
8.400000	-0.447336	175.016883	-37.651803	-51.921284	-37.651803	-51.921284	-0.427768	130.113474
8.450000	-0.452982	173.927853	-37.624589	-53.422663	-37.624589	-53.422663	-0.431380	128.809083
8.500000	-0.458671	172.834952	-37.599576	-54.916870	-37.599576	-54.916870	-0.434978	127.500791
8.550000	-0.464404	171.738087	-37.576750	-56.403663	-37.576750	-56.403663	-0.438561	126.188569
8.600000	-0.470180	170.637164	-37.556097	-57.882804	-37.556097	-57.882804	-0.442129	124.872390
8.650000	-0.475998	169.532092	-37.537599	-59.354054	-37.537599	-59.354054	-0.445679	123.552231
8.700000	-0.481858	168.422777	-37.521240	-60.817176	-37.521240	-60.817176	-0.449211	122.228072
8.750000	-0.487759	167.309126	-37.506998	-62.271938	-37.506998	-62.271938	-0.452724	120.899897
8.800000	-0.493701	166.190850	-37.494941	-63.717723	-37.494941	-63.717723	-0.456216	119.567518
8.850000	-0.499682	165.068048	-37.484955	-65.154670	-37.484955	-65.154670	-0.459687	118.231103
8.900000	-0.505701	163.940626	-37.477014	-66.582557	-37.477014	-66.582557	-0.463136	116.890647
8.950000	-0.511758	162.808495	-37.471090	-68.001170	-37.471090	-68.001170	-0.466563	115.546149
9.000000	-0.517852	161.671564	-37.467155	-69.410299	-37.467155	-69.410299	-0.469965	114.197614
9.050000	-0.523980	160.529744	-37.465180	-70.809741	-37.465180	-70.809741	-0.473343	112.845049
9.100000	-0.530143	159.382947	-37.465133	-72.199301	-37.465133	-72.199301	-0.476695	111.488468
9.150000	-0.536339	158.231083	-37.466982	-73.578790	-37.466982	-73.578790	-0.480021	110.127885
9.200000	-0.542568	157.074068	-37.470692	-74.948029	-37.470692	-74.948029	-0.483320	108.763323
9.250000	-0.548827	155.911814	-37.476228	-76.306846	-37.476228	-76.306846	-0.486591	107.394805
9.300000	-0.555115	154.744236	-37.483556	-77.655077	-37.483556	-77.655077	-0.489834	106.022362
9.350000	-0.561432	153.571252	-37.492638	-78.992570	-37.492638	-78.992570	-0.493048	104.646027
9.400000	-0.567775	152.392779	-37.503435	-80.319180	-37.503435	-80.319180	-0.496232	103.265840
9.450000	-0.574144	151.208735	-37.515911	-81.634772	-37.515911	-81.634772	-0.499386	101.881844
9.500000	-0.580536	150.019041	-37.530025	-82.939221	-37.530025	-82.939221	-0.502510	100.494085
9.550000	-0.586951	148.823619	-37.545737	-84.232411	-37.545737	-84.232411	-0.505602	99.102618
9.600000	-0.593386	147.622394	-37.563009	-85.514237	-37.563009	-85.514237	-0.508663	97.707500
9.650000	-0.599839	146.415290	-37.581798	-86.784604	-37.581798	-86.784604	-0.511692	96.308791
9.700000	-0.606310	145.202234	-37.602064	-88.043425	-37.602064	-88.043425	-0.514689	94.906560
9.750000	-0.612796	143.983158	-37.623766	-89.290625	-37.623766	-89.290625	-0.517653	93.500878
9.800000	-0.619295	142.757991	-37.646862	-90.526138	-37.646862	-90.526138	-0.520586	92.091822
9.850000	-0.625805	141.526669	-37.671312	-91.749909	-37.671312	-91.749909	-0.523486	90.679472
9.900000	-0.632324	140.289127	-37.697073	-92.961889	-37.697073	-92.961889	-0.526354	89.263914
9.950000	-0.638850	139.045306	-37.724104	-94.162043	-37.724104	-94.162043	-0.529190	87.845241
10.000000	-0.645380	137.795146	-37.752365	-95.350342	-37.752365	-95.350342	-0.531993	86.423546
