! freq	dB(S11)	phase(S11)	dB(S12)	phase(S12)	
!     	dB(S21)	phase(S21)	dB(S22)	phase(S22)	
!S-par simulation data
#  GHz  S  DB  R 50
0.000000	-0.000000	0.000000	-358.027512	180.000000	-358.027512	180.000000	-0.000000	0.000000
0.050000	-0.001767	-1.270825	-106.003074	88.711573	-106.003074	88.711573	-0.001770	-1.270596
0.100000	-0.005245	-2.557618	-100.029378	87.432366	-100.029378	87.432366	-0.005251	-2.557196
0.150000	-0.008347	-3.856446	-96.585792	86.171795	-96.585792	86.171795	-0.008353	-3.855837
0.200000	-0.010683	-5.159701	-94.196112	84.939436	-94.196112	84.939436	-0.010688	-5.158897
0.250000	-0.012436	-6.463498	-92.404185	83.748785	-92.404185	83.748785	-0.012440	-6.462492
0.300000	-0.013893	-7.766333	-90.997014	82.608481	-90.997014	82.608481	-0.013894	-7.765122
0.350000	-0.015180	-9.067705	-89.869771	81.534162	-89.869771	81.534162	-0.015181	-9.066287
0.400000	-0.016393	-10.367406	-88.958757	80.542600	-88.958757	80.542600	-0.016393	-10.365781
0.450000	-0.017586	-11.665340	-88.223948	79.654021	-88.223948	79.654021	-0.017584	-11.663508
0.500000	-0.018789	-12.961438	-87.639176	78.893300	-87.639176	78.893300	-0.018787	-12.959401
0.550000	-0.020020	-14.255635	-87.187025	78.291583	-87.187025	78.291583	-0.020018	-14.253393
0.600000	-0.021288	-15.547859	-86.855963	77.888548	-86.855963	77.888548	-0.021285	-15.545412
0.650000	-0.022596	-16.838034	-86.638588	77.735590	-86.638588	77.735590	-0.022593	-16.835384
0.700000	-0.023946	-18.126081	-86.530422	77.900342	-86.530422	77.900342	-0.023942	-18.123230
0.750000	-0.025335	-19.411920	-86.528881	78.473083	-86.528881	78.473083	-0.025331	-19.408867
0.800000	-0.026762	-20.695469	-86.632050	79.575709	-86.632050	79.575709	-0.026757	-20.692217
0.850000	-0.028222	-21.976649	-86.836771	81.373724	-86.836771	81.373724	-0.028218	-21.973198
0.900000	-0.029713	-23.255381	-87.135197	84.090381	-87.135197	84.090381	-0.029708	-23.251733
0.950000	-0.031230	-24.531590	-87.508432	88.017612	-87.508432	88.017612	-0.031225	-24.527746
1.000000	-0.032770	-25.805201	-87.915541	93.506272	-87.915541	93.506272	-0.032765	-25.801163
1.050000	-0.034328	-27.076145	-88.277930	100.894978	-88.277930	100.894978	-0.034323	-27.071912
1.100000	-0.035902	-28.344352	-88.467751	110.317609	-88.467751	110.317609	-0.035896	-28.339927
1.150000	-0.037487	-29.609758	-88.326689	121.388936	-88.326689	121.388936	-0.037481	-29.605141
1.200000	-0.039081	-30.872298	-87.740983	133.015531	-87.740983	133.015531	-0.039075	-30.867491
1.250000	-0.040681	-32.131914	-86.726017	143.774608	-86.726017	143.774608	-0.040674	-32.126917
1.300000	-0.042284	-33.388413	-85.398879	152.593576	-85.398879	152.593576	-0.042277	-33.383229
1.350000	-0.043888	-34.641868	-83.938537	159.350222	-83.938537	159.350222	-0.043881	-34.636497
1.400000	-0.045491	-35.892224	-82.455046	164.300897	-82.455046	164.300897	-0.045484	-35.886668
1.450000	-0.047092	-37.139431	-81.008842	167.812965	-81.008842	167.812965	-0.047085	-37.133690
1.500000	-0.048689	-38.383437	-79.627259	170.223546	-79.627259	170.223546	-0.048681	-38.377513
1.550000	-0.050280	-39.624196	-78.319395	171.800660	-78.319395	171.800660	-0.050272	-39.618090
1.600000	-0.051866	-40.861661	-77.085341	172.745636	-77.085341	172.745636	-0.051858	-40.855374
1.650000	-0.053445	-42.095786	-75.921157	173.206678	-75.921157	173.206678	-0.053437	-42.089320
1.700000	-0.055017	-43.326529	-74.821385	173.292535	-74.821385	173.292535	-0.055009	-43.319884
1.750000	-0.056582	-44.553848	-73.780258	173.083368	-73.780258	173.083368	-0.056574	-44.547026
1.800000	-0.058140	-45.777704	-72.792258	172.638726	-72.792258	172.638726	-0.058131	-45.770706
1.850000	-0.059690	-46.998056	-71.852350	172.003250	-71.852350	172.003250	-0.059681	-46.990884
1.900000	-0.061233	-48.214870	-70.956060	171.210742	-70.956060	171.210742	-0.061224	-48.207524
1.950000	-0.062769	-49.428108	-70.099473	170.287101	-70.099473	170.287101	-0.062760	-49.420590
2.000000	-0.064299	-50.637738	-69.279198	169.252476	-69.279198	169.252476	-0.064290	-50.630049
2.050000	-0.065823	-51.843726	-68.492311	168.122841	-68.492311	168.122841	-0.065813	-51.835867
2.100000	-0.067341	-53.046043	-67.736288	166.911159	-67.736288	166.911159	-0.067331	-53.038015
2.150000	-0.068854	-54.244658	-67.008939	165.628212	-67.008939	165.628212	-0.068844	-54.236464
2.200000	-0.070363	-55.439545	-66.308342	164.283180	-66.308342	164.283180	-0.070353	-55.431185
2.250000	-0.071869	-56.630677	-65.632793	162.884020	-65.632793	162.884020	-0.071858	-56.622152
2.300000	-0.073371	-57.818031	-64.980757	161.437712	-64.980757	161.437712	-0.073361	-57.809343
2.350000	-0.074872	-59.001583	-64.350837	159.950408	-64.350837	159.950408	-0.074862	-58.992733
2.400000	-0.076371	-60.181313	-63.741745	158.427529	-63.741745	158.427529	-0.076361	-60.172302
2.450000	-0.077871	-61.357202	-63.152292	156.873839	-63.152292	156.873839	-0.077860	-61.348031
2.500000	-0.079370	-62.529232	-62.581374	155.293505	-62.581374	155.293505	-0.079359	-62.519903
2.550000	-0.080871	-63.697219	-62.027194	153.689295	-62.027194	153.689295	-0.080860	-63.687733
2.600000	-0.082374	-64.861316	-61.489662	152.065444	-61.489662	152.065444	-0.082363	-64.851675
2.650000	-0.083881	-66.021512	-60.967875	150.424611	-60.967875	150.424611	-0.083869	-66.011717
2.700000	-0.085391	-67.177797	-60.460999	148.769089	-60.460999	148.769089	-0.085379	-67.167849
2.750000	-0.086906	-68.330163	-59.968259	147.100856	-59.968259	147.100856	-0.086894	-68.320063
2.800000	-0.088426	-69.478602	-59.488940	145.421619	-59.488940	145.421619	-0.088415	-69.468352
2.850000	-0.089953	-70.623111	-59.022376	143.732853	-59.022376	143.732853	-0.089942	-70.612711
2.900000	-0.091488	-71.763686	-58.567951	142.035835	-58.567951	142.035835	-0.091476	-71.753138
2.950000	-0.093030	-72.900325	-58.125095	140.331675	-58.125095	140.331675	-0.093018	-72.889631
3.000000	-0.094581	-74.033031	-57.693277	138.621340	-57.693277	138.621340	-0.094569	-74.022190
3.050000	-0.096142	-75.161803	-57.272003	136.905674	-57.272003	136.905674	-0.096129	-75.150819
3.100000	-0.097713	-76.286648	-56.860816	135.185420	-56.860816	135.185420	-0.097700	-76.275520
3.150000	-0.099295	-77.407570	-56.459287	133.461231	-56.459287	133.461231	-0.099283	-77.396300
3.200000	-0.100890	-78.524577	-56.067018	131.733686	-56.067018	131.733686	-0.100877	-78.513166
3.250000	-0.102497	-79.637677	-55.683636	130.003296	-55.683636	130.003296	-0.102484	-79.626126
3.300000	-0.104117	-80.746882	-55.308792	128.270519	-55.308792	128.270519	-0.104104	-80.735193
3.350000	-0.105751	-81.852204	-54.942159	126.535763	-54.942159	126.535763	-0.105738	-81.840377
3.400000	-0.107400	-82.953657	-54.583429	124.799394	-54.583429	124.799394	-0.107387	-82.941694
3.450000	-0.109065	-84.051257	-54.232315	123.061743	-54.232315	123.061743	-0.109051	-84.039158
3.500000	-0.110745	-85.145019	-53.888544	121.323107	-53.888544	121.323107	-0.110732	-85.132786
3.550000	-0.112443	-86.234964	-53.551861	119.583756	-53.551861	119.583756	-0.112429	-86.222598
3.600000	-0.114157	-87.321111	-53.222024	117.843935	-53.222024	117.843935	-0.114143	-87.308612
3.650000	-0.115890	-88.403482	-52.898804	116.103868	-52.898804	116.103868	-0.115876	-88.390852
3.700000	-0.117641	-89.482100	-52.581986	114.363758	-52.581986	114.363758	-0.117627	-89.469339
3.750000	-0.119411	-90.556989	-52.271364	112.623794	-52.271364	112.623794	-0.119397	-90.544099
3.800000	-0.121202	-91.628015	-51.966543	110.884168	-51.966543	110.884168	-0.121188	-91.614996
3.850000	-0.123013	-92.695368	-51.667559	109.145029	-51.667559	109.145029	-0.122999	-92.682222
3.900000	-0.124845	-93.759077	-51.374237	107.406525	-51.374237	107.406525	-0.124831	-93.745803
3.950000	-0.126699	-94.819171	-51.086408	105.668787	-51.086408	105.668787	-0.126684	-94.805771
4.000000	-0.128574	-95.875681	-50.803913	103.931941	-50.803913	103.931941	-0.128559	-95.862156
4.050000	-0.130472	-96.928641	-50.526598	102.196102	-50.526598	102.196102	-0.130457	-96.914991
4.100000	-0.132393	-97.978083	-50.254320	100.461379	-50.254320	100.461379	-0.132378	-97.964309
4.150000	-0.134337	-99.024042	-49.986938	98.727872	-49.986938	98.727872	-0.134322	-99.010146
4.200000	-0.136306	-100.066555	-49.724321	96.995676	-49.724321	96.995676	-0.136290	-100.052536
4.250000	-0.138298	-101.105657	-49.466341	95.264880	-49.466341	95.264880	-0.138282	-101.091517
4.300000	-0.140316	-102.141388	-49.212876	93.535566	-49.212876	93.535566	-0.140300	-102.127126
4.350000	-0.142358	-103.173786	-48.963812	91.807813	-48.963812	91.807813	-0.142342	-103.159404
4.400000	-0.144427	-104.202891	-48.719035	90.081694	-48.719035	90.081694	-0.144411	-104.188389
4.450000	-0.146522	-105.228745	-48.478438	88.357279	-48.478438	88.357279	-0.146505	-105.214123
4.500000	-0.148643	-106.251388	-48.241920	86.634633	-48.241920	86.634633	-0.148626	-106.236648
4.550000	-0.150791	-107.270865	-48.009380	84.913819	-48.009380	84.913819	-0.150774	-107.256006
4.600000	-0.152967	-108.287218	-47.780723	83.194895	-47.780723	83.194895	-0.152950	-108.272241
4.650000	-0.155170	-109.300493	-47.555859	81.477916	-47.555859	81.477916	-0.155153	-109.285398
4.700000	-0.157402	-110.310734	-47.334698	79.762935	-47.334698	79.762935	-0.157385	-110.295522
4.750000	-0.159662	-111.317989	-47.117155	78.050001	-47.117155	78.050001	-0.159645	-111.302660
4.800000	-0.161951	-112.322303	-46.903150	76.339162	-46.903150	76.339162	-0.161934	-112.306857
4.850000	-0.164270	-113.323725	-46.692602	74.630461	-46.692602	74.630461	-0.164252	-113.308163
4.900000	-0.166618	-114.322303	-46.485435	72.923941	-46.485435	72.923941	-0.166600	-114.306625
4.950000	-0.168996	-115.318087	-46.281575	71.219641	-46.281575	71.219641	-0.168978	-115.302293
5.000000	-0.171404	-116.311126	-46.080951	69.517598	-46.080951	69.517598	-0.171386	-116.295216
5.050000	-0.173844	-117.301355	-45.883436	67.817950	-45.883436	67.817950	-0.173826	-117.285330
5.100000	-0.176315	-118.288946	-45.689028	66.120630	-45.689028	66.120630	-0.176297	-118.272806
5.150000	-0.178818	-119.273950	-45.497661	64.425670	-45.497661	64.425670	-0.178799	-119.257694
5.200000	-0.181352	-120.256419	-45.309272	62.733098	-45.309272	62.733098	-0.181334	-120.240049
5.250000	-0.183918	-121.236407	-45.123801	61.042940	-45.123801	61.042940	-0.183900	-121.219921
5.300000	-0.186517	-122.213967	-44.941188	59.355223	-44.941188	59.355223	-0.186498	-122.197366
5.350000	-0.189148	-123.189152	-44.761376	57.669968	-44.761376	57.669968	-0.189128	-123.172436
5.400000	-0.191811	-124.162018	-44.584309	55.987198	-44.584309	55.987198	-0.191792	-124.145187
5.450000	-0.194508	-125.132619	-44.409933	54.306931	-44.409933	54.306931	-0.194488	-125.115672
5.500000	-0.197238	-126.101010	-44.238196	52.629185	-44.238196	52.629185	-0.197218	-126.083948
5.550000	-0.200001	-127.067247	-44.069047	50.953976	-44.069047	50.953976	-0.199981	-127.050070
5.600000	-0.202798	-128.031387	-43.902437	49.281317	-43.902437	49.281317	-0.202779	-128.014095
5.650000	-0.205630	-128.993486	-43.738318	47.611223	-43.738318	47.611223	-0.205610	-128.976078
5.700000	-0.208495	-129.953602	-43.576643	45.943702	-43.576643	45.943702	-0.208475	-129.936077
5.750000	-0.211395	-130.911791	-43.417367	44.278764	-43.417367	44.278764	-0.211375	-130.894150
5.800000	-0.214330	-131.868111	-43.260447	42.616417	-43.260447	42.616417	-0.214310	-131.850354
5.850000	-0.217300	-132.822621	-43.105840	40.956667	-43.105840	40.956667	-0.217279	-132.804747
5.900000	-0.220305	-133.775379	-42.953504	39.299517	-42.953504	39.299517	-0.220284	-133.757387
5.950000	-0.223345	-134.726444	-42.803399	37.644971	-42.803399	37.644971	-0.223324	-134.708334
6.000000	-0.226421	-135.675874	-42.655487	35.993030	-42.655487	35.993030	-0.226400	-135.657646
6.050000	-0.229532	-136.623729	-42.509728	34.343693	-42.509728	34.343693	-0.229511	-136.605383
6.100000	-0.232679	-137.570069	-42.366088	32.696960	-42.366088	32.696960	-0.232658	-137.551604
6.150000	-0.235862	-138.514954	-42.224529	31.052827	-42.224529	31.052827	-0.235841	-138.496370
6.200000	-0.239082	-139.458444	-42.085017	29.411289	-42.085017	29.411289	-0.239061	-139.439740
6.250000	-0.242338	-140.400598	-41.947519	27.772342	-41.947519	27.772342	-0.242316	-140.381774
6.300000	-0.245631	-141.341427	-41.811996	26.136091	-41.811996	26.136091	-0.245610	-141.322481
6.350000	-0.248962	-142.281047	-41.678425	24.502414	-41.678425	24.502414	-0.248940	-142.261980
6.400000	-0.252329	-143.219521	-41.546776	22.871303	-41.546776	22.871303	-0.252307	-143.200332
6.450000	-0.255733	-144.156910	-41.417017	21.242748	-41.417017	21.242748	-0.255711	-144.137598
6.500000	-0.259173	-145.093275	-41.289121	19.616736	-41.289121	19.616736	-0.259151	-145.073839
6.550000	-0.262651	-146.028678	-41.163059	17.993256	-41.163059	17.993256	-0.262629	-146.009118
6.600000	-0.266166	-146.963181	-41.038804	16.372295	-41.038804	16.372295	-0.266144	-146.943496
6.650000	-0.269718	-147.896846	-40.916331	14.753839	-40.916331	14.753839	-0.269696	-147.877035
6.700000	-0.273307	-148.829735	-40.795613	13.137873	-40.795613	13.137873	-0.273285	-148.809798
6.750000	-0.276933	-149.761910	-40.676627	11.524383	-40.676627	11.524383	-0.276911	-149.741846
6.800000	-0.280596	-150.693435	-40.559349	9.913353	-40.559349	9.913353	-0.280574	-150.673243
6.850000	-0.284297	-151.624371	-40.443755	8.304765	-40.443755	8.304765	-0.284275	-151.604050
6.900000	-0.288035	-152.554782	-40.329825	6.698605	-40.329825	6.698605	-0.288013	-152.534332
6.950000	-0.291810	-153.484731	-40.217537	5.094855	-40.217537	5.094855	-0.291788	-153.464150
7.000000	-0.295623	-154.414280	-40.106871	3.493497	-40.106871	3.493497	-0.295601	-154.393567
7.050000	-0.299473	-155.343493	-39.997807	1.894515	-39.997807	1.894515	-0.299451	-155.322648
7.100000	-0.303360	-156.272433	-39.890327	0.297892	-39.890327	0.297892	-0.303337	-156.251454
7.150000	-0.307284	-157.201163	-39.784412	-1.296390	-39.784412	-1.296390	-0.307261	-157.180050
7.200000	-0.311245	-158.129747	-39.680045	-2.888348	-39.680045	-2.888348	-0.311223	-158.108499
7.250000	-0.315242	-159.058248	-39.577209	-4.477998	-39.577209	-4.477998	-0.315220	-159.036864
7.300000	-0.319277	-159.986731	-39.475890	-6.065358	-39.475890	-6.065358	-0.319255	-159.965209
7.350000	-0.323349	-160.915258	-39.376072	-7.650442	-39.376072	-7.650442	-0.323327	-160.893598
7.400000	-0.327457	-161.843894	-39.277740	-9.233267	-39.277740	-9.233267	-0.327435	-161.822094
7.450000	-0.331601	-162.772702	-39.180880	-10.813847	-39.180880	-10.813847	-0.331579	-162.750761
7.500000	-0.335781	-163.701746	-39.085481	-12.392196	-39.085481	-12.392196	-0.335760	-163.679664
7.550000	-0.340000	-164.631107	-38.991547	-13.968232	-38.991547	-13.968232	-0.339978	-164.608882
7.600000	-0.344253	-165.560837	-38.899051	-15.542063	-38.899051	-15.542063	-0.344232	-165.538468
7.650000	-0.348543	-166.491002	-38.807981	-17.113701	-38.807981	-17.113701	-0.348522	-166.468488
7.700000	-0.352868	-167.421664	-38.718327	-18.683156	-38.718327	-18.683156	-0.352847	-167.399004
7.750000	-0.357227	-168.352889	-38.630079	-20.250436	-38.630079	-20.250436	-0.357207	-168.330081
7.800000	-0.361622	-169.284740	-38.543227	-21.815549	-38.543227	-21.815549	-0.361601	-169.261783
7.850000	-0.366051	-170.217281	-38.457762	-23.378500	-38.457762	-23.378500	-0.366030	-170.194174
7.900000	-0.370514	-171.150576	-38.373678	-24.939293	-38.373678	-24.939293	-0.370494	-171.127318
7.950000	-0.375010	-172.084690	-38.290964	-26.497932	-38.290964	-26.497932	-0.374991	-172.061280
8.000000	-0.379541	-173.019686	-38.209616	-28.054416	-38.209616	-28.054416	-0.379521	-172.996122
8.050000	-0.384104	-173.955628	-38.129625	-29.608746	-38.129625	-29.608746	-0.384084	-173.931910
8.100000	-0.388699	-174.892581	-38.050986	-31.160918	-38.050986	-31.160918	-0.388680	-174.868706
8.150000	-0.393327	-175.830608	-37.973693	-32.710927	-37.973693	-32.710927	-0.393308	-175.806576
8.200000	-0.397986	-176.769773	-37.897741	-34.258767	-37.897741	-34.258767	-0.397968	-176.745582
8.250000	-0.402676	-177.710140	-37.823124	-35.804428	-37.823124	-35.804428	-0.402658	-177.685789
8.300000	-0.407397	-178.651772	-37.749838	-37.347900	-37.749838	-37.347900	-0.407379	-178.627260
8.350000	-0.412147	-179.594734	-37.677879	-38.889168	-37.677879	-38.889168	-0.412130	-179.570059
8.400000	-0.416927	179.460912	-37.607244	-40.428216	-37.607244	-40.428216	-0.416911	179.485751
8.450000	-0.421736	178.515102	-37.537928	-41.965027	-37.537928	-41.965027	-0.421720	178.540106
8.500000	-0.426573	177.567773	-37.469929	-43.499580	-37.469929	-43.499580	-0.426557	177.592943
8.550000	-0.431437	176.618861	-37.403244	-45.031850	-37.403244	-45.031850	-0.431422	176.644200
8.600000	-0.436328	175.668304	-37.337869	-46.561814	-37.337869	-46.561814	-0.436314	175.693812
8.650000	-0.441245	174.716039	-37.273804	-48.089441	-37.273804	-48.089441	-0.441231	174.741718
8.700000	-0.446187	173.762004	-37.211045	-49.614701	-37.211045	-49.614701	-0.446174	173.787854
8.750000	-0.451153	172.806136	-37.149590	-51.137560	-37.149590	-51.137560	-0.451141	172.832159
8.800000	-0.456144	171.848287	-37.089477	-52.657875	-37.089477	-52.657875	-0.456132	171.874485
8.850000	-0.461157	170.888475	-37.030667	-54.175709	-37.030667	-54.175709	-0.461146	170.914849
8.900000	-0.466192	169.926640	-36.973158	-55.691021	-36.973158	-55.691021	-0.466182	169.953191
8.950000	-0.471248	168.962719	-36.916948	-57.203766	-36.916948	-57.203766	-0.471238	168.989448
9.000000	-0.476323	167.996651	-36.862036	-58.713896	-36.862036	-58.713896	-0.476314	168.023560
9.050000	-0.481416	167.028376	-36.808421	-60.221361	-36.808421	-60.221361	-0.481408	167.055467
9.100000	-0.486527	166.057833	-36.756101	-61.726109	-36.756101	-61.726109	-0.486521	166.085106
9.150000	-0.491655	165.084963	-36.705074	-63.228083	-36.705074	-63.228083	-0.491649	165.112419
9.200000	-0.496798	164.109705	-36.655340	-64.727226	-36.655340	-64.727226	-0.496793	164.137346
9.250000	-0.501955	163.132000	-36.606897	-66.223478	-36.606897	-66.223478	-0.501951	163.159828
9.300000	-0.507124	162.151791	-36.559742	-67.716774	-36.559742	-67.716774	-0.507121	162.179806
9.350000	-0.512305	161.169017	-36.513876	-69.207050	-36.513876	-69.207050	-0.512304	161.197221
9.400000	-0.517497	160.183622	-36.469294	-70.694238	-36.469294	-70.694238	-0.517496	160.212016
9.450000	-0.522697	159.195549	-36.425997	-72.178268	-36.425997	-72.178268	-0.522697	159.224133
9.500000	-0.527904	158.204739	-36.383981	-73.659066	-36.383981	-73.659066	-0.527906	158.233516
9.550000	-0.533117	157.211138	-36.343243	-75.136560	-36.343243	-75.136560	-0.533120	157.240108
9.600000	-0.538335	156.214690	-36.303783	-76.610672	-36.303783	-76.610672	-0.538339	156.243853
9.650000	-0.543555	155.215339	-36.265596	-78.081324	-36.265596	-78.081324	-0.543561	155.244698
9.700000	-0.548777	154.213032	-36.228680	-79.548436	-36.228680	-79.548436	-0.548784	154.242586
9.750000	-0.553998	153.207714	-36.193031	-81.011925	-36.193031	-81.011925	-0.554007	153.237466
9.800000	-0.559217	152.199333	-36.158646	-82.471708	-36.158646	-82.471708	-0.559228	152.229283
9.850000	-0.564433	151.187837	-36.125520	-83.927701	-36.125520	-83.927701	-0.564445	151.217986
9.900000	-0.569642	150.173175	-36.093650	-85.379816	-36.093650	-85.379816	-0.569656	150.203524
9.950000	-0.574844	149.155296	-36.063032	-86.827966	-36.063032	-86.827966	-0.574860	149.185846
10.000000	-0.580037	148.134151	-36.033659	-88.272063	-36.033659	-88.272063	-0.580054	148.164902
