! freq	dB(S11)	phase(S11)	dB(S12)	phase(S12)	
!     	dB(S21)	phase(S21)	dB(S22)	phase(S22)	
!S-par simulation data
#  GHz  S  DB  R 50
0.000000	-83.812349	0.000000	-0.000560	0.000000	-0.000560	0.000000	-83.812349	0.000000
0.050000	-42.656479	-92.219797	-0.002629	-2.706728	-0.002629	-2.706728	-42.656523	-92.219333
0.100000	-36.645761	-95.196547	-0.007691	-5.399152	-0.007691	-5.399152	-36.645798	-95.195628
0.150000	-33.139835	-98.003938	-0.013821	-8.075265	-0.013821	-8.075265	-33.139862	-98.002573
0.200000	-30.663186	-100.767031	-0.019973	-10.740034	-0.019973	-10.740034	-30.663198	-100.765234
0.250000	-28.753331	-103.510853	-0.025922	-13.398496	-0.025922	-13.398496	-28.753326	-103.508639
0.300000	-27.204059	-106.243429	-0.031777	-16.053665	-0.031777	-16.053665	-27.204035	-106.240815
0.350000	-25.906240	-108.967576	-0.037710	-18.706884	-0.037710	-18.706884	-25.906196	-108.964579
0.400000	-24.793334	-111.685044	-0.043847	-21.358788	-0.043847	-21.358788	-24.793270	-111.681677
0.450000	-23.823005	-114.396428	-0.050265	-24.009518	-0.050265	-24.009518	-23.822924	-114.392700
0.500000	-22.967136	-117.101753	-0.057017	-26.659010	-0.057017	-26.659010	-22.967040	-117.097667
0.550000	-22.204462	-119.801351	-0.064099	-29.307227	-0.064099	-29.307227	-22.204353	-119.796902
0.600000	-21.519516	-122.495367	-0.071487	-31.954088	-0.071487	-31.954088	-21.519399	-122.490541
0.650000	-20.901210	-125.183703	-0.079152	-34.599438	-0.079152	-34.599438	-20.901088	-125.178475
0.700000	-20.340505	-127.866444	-0.087040	-37.243135	-0.087040	-37.243135	-20.340384	-127.860777
0.750000	-19.829751	-130.543857	-0.095089	-39.885066	-0.095089	-39.885066	-19.829635	-130.537705
0.800000	-19.363388	-133.216025	-0.103241	-42.525025	-0.103241	-42.525025	-19.363283	-133.209330
0.850000	-18.937245	-135.882973	-0.111442	-45.162736	-0.111442	-45.162736	-18.937154	-135.875664
0.900000	-18.546648	-138.545158	-0.119642	-47.798110	-0.119642	-47.798110	-18.546578	-138.537158
0.950000	-18.188334	-141.202831	-0.127800	-50.430999	-0.127800	-50.430999	-18.188291	-141.194057
1.000000	-17.860391	-143.856053	-0.135879	-53.061163	-0.135879	-53.061163	-17.860382	-143.846413
1.050000	-17.559673	-146.505327	-0.143853	-55.688692	-0.143853	-55.688692	-17.559705	-146.494737
1.100000	-17.284093	-149.150943	-0.151698	-58.313630	-0.151698	-58.313630	-17.284177	-149.139331
1.150000	-17.032471	-151.793011	-0.159385	-60.935979	-0.159385	-60.935979	-17.032619	-151.780326
1.200000	-16.803043	-154.431738	-0.166891	-63.555926	-0.166891	-63.555926	-16.803271	-154.417973
1.250000	-16.594170	-157.067202	-0.174195	-66.173712	-0.174195	-66.173712	-16.594492	-157.052414
1.300000	-16.405014	-159.699148	-0.181269	-68.789515	-0.181269	-68.789515	-16.405441	-159.683481
1.350000	-16.234876	-162.327074	-0.188082	-71.403563	-0.188082	-71.403563	-16.235410	-162.310775
1.400000	-16.082412	-164.950523	-0.194619	-74.016189	-0.194619	-74.016189	-16.083029	-164.933894
1.450000	-15.947077	-167.568878	-0.200858	-76.627662	-0.200858	-76.627662	-15.947727	-167.552204
1.500000	-15.829243	-170.181561	-0.206760	-79.238237	-0.206760	-79.238237	-15.829842	-170.164965
1.550000	-15.727834	-172.789269	-0.212321	-81.848267	-0.212321	-81.848267	-15.728294	-172.772582
1.600000	-15.642651	-175.393218	-0.217526	-84.458047	-0.217526	-84.458047	-15.642907	-175.375991
1.650000	-15.574157	-177.995232	-0.222343	-87.067893	-0.222343	-87.067893	-15.574190	-177.976854
1.700000	-15.521306	179.402591	-0.226780	-89.678111	-0.226780	-89.678111	-15.521147	179.422620
1.750000	-15.484399	176.798514	-0.230810	-92.289039	-0.230810	-92.289039	-15.484109	176.820483
1.800000	-15.462818	174.191457	-0.234436	-94.900984	-0.234436	-94.900984	-15.462458	174.215405
1.850000	-15.456305	171.580872	-0.237656	-97.514259	-0.237656	-97.514259	-15.455923	171.606679
1.900000	-15.464687	168.966577	-0.240470	-100.129172	-0.240470	-100.129172	-15.464313	168.994052
1.950000	-15.488166	166.348512	-0.242873	-102.746071	-0.242873	-102.746071	-15.487817	166.377460
2.000000	-15.526607	163.726791	-0.244877	-105.365240	-0.244877	-105.365240	-15.526287	163.757053
2.050000	-15.578890	161.101781	-0.246523	-107.986753	-0.246523	-107.986753	-15.578599	161.133251
2.100000	-15.646876	158.473118	-0.247778	-110.611181	-0.247778	-110.611181	-15.646611	158.505723
2.150000	-15.730368	155.840913	-0.248670	-113.238734	-0.248670	-113.238734	-15.730124	155.874628
2.200000	-15.829453	153.205188	-0.249221	-115.869631	-0.249221	-115.869631	-15.829226	153.240023
2.250000	-15.944500	150.565884	-0.249451	-118.504114	-0.249451	-118.504114	-15.944288	150.601882
2.300000	-16.075952	147.922922	-0.249384	-121.142417	-0.249384	-121.142417	-16.075754	147.960150
2.350000	-16.224335	145.276207	-0.249044	-123.784756	-0.249044	-123.784756	-16.224149	145.314758
2.400000	-16.390262	142.625635	-0.248457	-126.431334	-0.248457	-126.431334	-16.390088	142.665624
2.450000	-16.574446	139.971099	-0.247651	-129.082336	-0.247651	-129.082336	-16.574283	140.012660
2.500000	-16.777712	137.312489	-0.246656	-131.737933	-0.246656	-131.737933	-16.777561	137.355779
2.550000	-17.001228	134.649635	-0.245501	-134.398348	-0.245501	-134.398348	-17.001090	134.694836
2.600000	-17.245881	131.982495	-0.244221	-137.063649	-0.244221	-137.063649	-17.245756	132.029807
2.650000	-17.512947	129.310973	-0.242849	-139.733952	-0.242849	-139.733952	-17.512834	129.360623
2.700000	-17.803902	126.634982	-0.241418	-142.409356	-0.241418	-142.409356	-17.803802	126.687225
2.750000	-18.120467	123.954446	-0.239962	-145.089942	-0.239962	-145.089942	-18.120378	124.009569
2.800000	-18.464652	121.269302	-0.238516	-147.775772	-0.238516	-147.775772	-18.464572	121.327629
2.850000	-18.838819	118.579500	-0.237113	-150.466890	-0.237113	-150.466890	-18.838745	118.641402
2.900000	-19.245762	115.885008	-0.235788	-153.163325	-0.235788	-153.163325	-19.245693	115.950912
2.950000	-19.688963	113.185769	-0.234575	-155.865135	-0.234575	-155.865135	-19.688895	113.256175
3.000000	-20.172360	110.481817	-0.233508	-158.572288	-0.233508	-158.572288	-20.172289	110.557315
3.050000	-20.700758	107.773214	-0.232619	-161.284734	-0.232619	-161.284734	-20.700678	107.854507
3.100000	-21.280163	105.060033	-0.231938	-164.002432	-0.231938	-164.002432	-21.280070	105.147976
3.150000	-21.918082	102.342392	-0.231495	-166.725327	-0.231495	-166.725327	-21.917969	102.438047
3.200000	-22.624361	99.620389	-0.231326	-169.453447	-0.231326	-169.453447	-22.624222	99.725134
3.250000	-23.411246	96.894330	-0.231455	-172.186657	-0.231455	-172.186657	-23.411072	97.009945
3.300000	-24.293741	94.164878	-0.231881	-174.924460	-0.231881	-174.924460	-24.293522	94.293525
3.350000	-25.296282	91.432161	-0.232665	-177.667322	-0.232665	-177.667322	-25.296005	91.577146
3.400000	-26.450279	88.697196	-0.233821	179.585020	-0.233821	179.585020	-26.449927	88.863239
3.450000	-27.802887	85.961491	-0.235364	176.832763	-0.235364	176.832763	-27.802432	86.155711
3.500000	-29.429044	83.227701	-0.237311	174.076040	-0.237311	174.076040	-29.428441	83.461740
3.550000	-31.457750	80.501262	-0.239680	171.314990	-0.239680	171.314990	-31.456913	80.796175
3.600000	-34.141002	77.795518	-0.242484	168.549758	-0.242484	168.549758	-34.139725	78.195715
3.650000	-38.086788	75.155046	-0.245735	165.780492	-0.245735	165.780492	-38.084374	75.783372
3.700000	-45.604974	72.888936	-0.249443	163.007343	-0.249443	163.007343	-45.595607	74.412053
3.750000	-53.898180	-112.886600	-0.253614	160.230465	-0.253614	160.230465	-53.865919	-116.642536
3.800000	-40.618095	-113.995323	-0.258262	157.449960	-0.258262	157.449960	-40.617815	-114.808759
3.850000	-35.580990	-116.572845	-0.263383	154.666034	-0.263383	154.666034	-35.581238	-117.018377
3.900000	-32.407956	-119.281410	-0.268978	151.878837	-0.268978	151.878837	-32.408197	-119.584028
3.950000	-30.087206	-122.031186	-0.275046	149.088514	-0.275046	149.088514	-30.087391	-122.257481
4.000000	-28.258035	-124.800535	-0.281586	146.295207	-0.281586	146.295207	-28.258165	-124.979123
4.050000	-26.749733	-127.581553	-0.288593	143.499053	-0.288593	143.499053	-26.749817	-127.727327
4.100000	-25.467852	-130.370616	-0.296061	140.700182	-0.296061	140.700182	-25.467897	-130.492306
4.150000	-24.354587	-133.165797	-0.303984	137.898715	-0.303984	137.898715	-24.354603	-133.268951
4.200000	-23.372006	-135.965992	-0.312355	135.094745	-0.312355	135.094745	-23.371999	-136.054374
4.250000	-22.493774	-138.770433	-0.321164	132.288392	-0.321164	132.288392	-22.493750	-138.846673
4.300000	-21.700865	-141.578596	-0.330397	129.479765	-0.330397	129.479765	-21.700829	-141.644603
4.350000	-20.979095	-144.390120	-0.340042	126.668951	-0.340042	126.668951	-20.979051	-144.447330
4.400000	-20.317586	-147.204737	-0.350087	123.856026	-0.350087	123.856026	-20.317539	-147.254249
4.450000	-19.707805	-150.022239	-0.360518	121.041059	-0.360518	121.041059	-19.707759	-150.064914
4.500000	-19.142926	-152.842468	-0.371321	118.224104	-0.371321	118.224104	-19.142883	-152.878989
4.550000	-18.617396	-155.665301	-0.382484	115.405209	-0.382484	115.405209	-18.617360	-155.696217
4.600000	-18.126654	-158.490658	-0.393992	112.584400	-0.393992	112.584400	-18.126627	-158.516413
4.650000	-17.666887	-161.318478	-0.405834	109.761692	-0.405834	109.761692	-17.666871	-161.339441
4.700000	-17.234804	-164.148689	-0.417992	106.937120	-0.417992	106.937120	-17.234800	-164.165160
4.750000	-16.827630	-166.981262	-0.430454	104.110688	-0.430454	104.110688	-16.827640	-166.993490
4.800000	-16.442973	-169.816180	-0.443205	101.282391	-0.443205	101.282391	-16.442998	-169.824374
4.850000	-16.078750	-172.653439	-0.456234	98.452217	-0.456234	98.452217	-16.078791	-172.657778
4.900000	-15.733138	-175.493048	-0.469530	95.620143	-0.469530	95.620143	-15.733195	-175.493681
4.950000	-15.404523	-178.335023	-0.483081	92.786141	-0.483081	92.786141	-15.404596	-178.332080
5.000000	-15.091476	178.820613	-0.496878	89.950174	-0.496878	89.950174	-15.091564	178.827021
5.050000	-14.792775	175.973786	-0.510917	87.112162	-0.510917	87.112162	-14.792879	175.983560
5.100000	-14.507204	173.124508	-0.525185	84.272093	-0.525185	84.272093	-14.507324	173.137562
5.150000	-14.233727	170.272744	-0.539677	81.429914	-0.539677	81.429914	-14.233861	170.289003
5.200000	-13.971403	167.418462	-0.554388	78.585568	-0.554388	78.585568	-13.971551	167.437857
5.250000	-13.719379	164.561628	-0.569315	75.738997	-0.569315	75.738997	-13.719540	164.584097
5.300000	-13.476873	161.702216	-0.584455	72.890139	-0.584455	72.890139	-13.477046	161.727701
5.350000	-13.243173	158.840203	-0.599809	70.038934	-0.599809	70.038934	-13.243357	158.868648
5.400000	-13.017623	155.975571	-0.615376	67.185320	-0.615376	67.185320	-13.017817	156.006927
5.450000	-12.799623	153.108314	-0.631160	64.329237	-0.631160	64.329237	-12.799825	153.142529
5.500000	-12.588618	150.238431	-0.647164	61.470628	-0.647164	61.470628	-12.588828	150.275459
5.550000	-12.384097	147.365936	-0.663392	58.609439	-0.663392	58.609439	-12.384314	147.405728
5.600000	-12.185590	144.490852	-0.679852	55.745619	-0.679852	55.745619	-12.185813	144.533362
5.650000	-11.992673	141.613189	-0.696553	52.879094	-0.696553	52.879094	-11.992902	141.658368
5.700000	-11.804940	138.732998	-0.713505	50.009825	-0.713505	50.009825	-11.805173	138.780800
5.750000	-11.622010	135.850372	-0.730714	47.137809	-0.730714	47.137809	-11.622246	135.900748
5.800000	-11.443541	132.965391	-0.748193	44.263025	-0.748193	44.263025	-11.443781	133.018294
5.850000	-11.269223	130.078149	-0.765952	41.385457	-0.765952	41.385457	-11.269465	130.133529
5.900000	-11.098769	127.188757	-0.784004	38.505102	-0.784004	38.505102	-11.099012	127.246564
5.950000	-10.931915	124.297338	-0.802363	35.621966	-0.802363	35.621966	-10.932160	124.357521
6.000000	-10.768424	121.404031	-0.821041	32.736065	-0.821041	32.736065	-10.768669	121.466539
6.050000	-10.608079	118.508991	-0.840053	29.847428	-0.840053	29.847428	-10.608324	118.573771
6.100000	-10.450683	115.612385	-0.859413	26.956095	-0.859413	26.956095	-10.450929	115.679384
6.150000	-10.296062	112.714394	-0.879134	24.062120	-0.879134	24.062120	-10.296307	112.783557
6.200000	-10.144058	109.815211	-0.899229	21.165568	-0.899229	21.165568	-10.144303	109.886482
6.250000	-9.994534	106.915041	-0.919712	18.266517	-0.919712	18.266517	-9.994778	106.988366
6.300000	-9.847366	104.014089	-0.940603	15.365009	-0.940603	15.365009	-9.847609	104.089408
6.350000	-9.702454	101.112601	-0.961905	12.461204	-0.961905	12.461204	-9.702696	101.189858
6.400000	-9.559714	98.210813	-0.983629	9.555219	-0.983629	9.555219	-9.559953	98.289950
6.450000	-9.419074	95.308965	-1.005783	6.647187	-1.005783	6.647187	-9.419312	95.389924
6.500000	-9.280482	92.407306	-1.028375	3.737249	-1.028375	3.737249	-9.280717	92.490028
6.550000	-9.143895	89.506087	-1.051409	0.825561	-1.051409	0.825561	-9.144128	89.590514
6.600000	-9.009290	86.605565	-1.074888	-2.087711	-1.074888	-2.087711	-9.009520	86.691638
6.650000	-8.876652	83.705997	-1.098813	-5.002391	-1.098813	-5.002391	-8.876878	83.793658
6.700000	-8.745981	80.807643	-1.123183	-7.918292	-1.123183	-7.918292	-8.746204	80.896832
6.750000	-8.617290	77.910762	-1.147993	-10.835220	-1.147993	-10.835220	-8.617508	78.001421
6.800000	-8.490601	75.015610	-1.173234	-13.752974	-1.173234	-13.752974	-8.490815	75.107681
6.850000	-8.365951	72.122441	-1.198896	-16.671343	-1.198896	-16.671343	-8.366159	72.215867
6.900000	-8.243387	69.231534	-1.224968	-19.590118	-1.224968	-19.590118	-8.243589	69.326256
6.950000	-8.122968	66.343142	-1.251431	-22.509074	-1.251431	-22.509074	-8.123164	66.439103
7.000000	-8.004757	63.457478	-1.278259	-25.427989	-1.278259	-25.427989	-8.004946	63.554623
7.050000	-7.888824	60.574773	-1.305426	-28.346644	-1.305426	-28.346644	-7.889006	60.673046
7.100000	-7.775253	57.695248	-1.332900	-31.264824	-1.332900	-31.264824	-7.775427	57.794595
7.150000	-7.664131	54.819114	-1.360648	-34.182317	-1.360648	-34.182317	-7.664296	54.919482
7.200000	-7.555554	51.946570	-1.388628	-37.098917	-1.388628	-37.098917	-7.555710	52.047908
7.250000	-7.449625	49.077803	-1.416797	-40.014428	-1.416797	-40.014428	-7.449771	49.180060
7.300000	-7.346453	46.212985	-1.445105	-42.928664	-1.445105	-42.928664	-7.346588	46.316111
7.350000	-7.246152	43.352271	-1.473498	-45.841453	-1.473498	-45.841453	-7.246277	43.456219
7.400000	-7.148843	40.495800	-1.501915	-48.752639	-1.501915	-48.752639	-7.148957	40.600523
7.450000	-7.054652	37.643691	-1.530292	-51.662086	-1.530292	-51.662086	-7.054754	37.749144
7.500000	-6.963711	34.796041	-1.558559	-54.569679	-1.558559	-54.569679	-6.963801	34.902182
7.550000	-6.876216	31.953026	-1.586631	-57.475285	-1.586631	-57.475285	-6.876293	32.059812
7.600000	-6.792259	29.114596	-1.614432	-60.378887	-1.614432	-60.378887	-6.792323	29.221988
7.650000	-6.711990	26.280771	-1.641874	-63.280459	-1.641874	-63.280459	-6.712040	26.388730
7.700000	-6.635561	23.451540	-1.668865	-66.180012	-1.668865	-66.180012	-6.635597	23.560031
7.750000	-6.563133	20.626859	-1.695306	-69.077596	-1.695306	-69.077596	-6.563154	20.735848
7.800000	-6.494874	17.806651	-1.721095	-71.973308	-1.721095	-71.973308	-6.494878	17.916105
7.850000	-6.430957	14.990798	-1.746121	-74.867291	-1.746121	-74.867291	-6.430944	15.100685
7.900000	-6.371565	12.179140	-1.770272	-77.759742	-1.770272	-77.759742	-6.371534	12.289430
7.950000	-6.316890	9.371473	-1.793426	-80.650918	-1.793426	-80.650918	-6.316839	9.482139
8.000000	-6.267135	6.567544	-1.815461	-83.541137	-1.815461	-83.541137	-6.267063	6.678559
8.050000	-6.222515	3.767050	-1.836247	-86.430788	-1.836247	-86.430788	-6.222419	3.878387
8.100000	-6.183259	0.969630	-1.855651	-89.320332	-1.855651	-89.320332	-6.183138	1.081263
8.150000	-6.149675	-1.825110	-1.873517	-92.210325	-1.873517	-92.210325	-6.149527	-1.713206
8.200000	-6.122039	-4.617671	-1.889699	-95.101423	-1.889699	-95.101423	-6.121860	-4.505522
8.250000	-6.100579	-7.408636	-1.904071	-97.994351	-1.904071	-97.994351	-6.100366	-7.296266
8.300000	-6.085605	-10.198628	-1.916485	-100.889942	-1.916485	-100.889942	-6.085356	-10.086061
8.350000	-6.077460	-12.988344	-1.926793	-103.789140	-1.926793	-103.789140	-6.077172	-12.875606
8.400000	-6.076519	-15.778558	-1.934848	-106.693002	-1.934848	-106.693002	-6.076189	-15.665674
8.450000	-6.083197	-18.570127	-1.940499	-109.602715	-1.940499	-109.602715	-6.082821	-18.457119
8.500000	-6.097953	-21.363988	-1.943601	-112.519598	-1.943601	-112.519598	-6.097529	-21.250877
8.550000	-6.121299	-24.161165	-1.944008	-115.445111	-1.944008	-115.445111	-6.120827	-24.047967
8.600000	-6.153811	-26.962765	-1.941582	-118.380869	-1.941582	-118.380869	-6.153289	-26.849490
8.650000	-6.196132	-29.769986	-1.936189	-121.328649	-1.936189	-121.328649	-6.195562	-29.656633
8.700000	-6.248991	-32.584110	-1.927706	-124.290397	-1.927706	-124.290397	-6.248374	-32.470661
8.750000	-6.313212	-35.406507	-1.916018	-127.268241	-1.916018	-127.268241	-6.312555	-35.292917
8.800000	-6.390011	-38.238876	-1.900953	-130.264957	-1.900953	-130.264957	-6.389318	-38.125060
8.850000	-6.480227	-41.082582	-1.882503	-133.282727	-1.882503	-133.282727	-6.479509	-40.968398
8.900000	-6.585102	-43.939251	-1.860611	-136.324285	-1.860611	-136.324285	-6.584368	-43.824476
8.950000	-6.706066	-46.810606	-1.835252	-139.392577	-1.835252	-139.392577	-6.705328	-46.694897
9.000000	-6.844786	-49.698492	-1.806434	-142.490754	-1.806434	-142.490754	-6.844046	-49.581339
9.050000	-7.003212	-52.604939	-1.774214	-145.622160	-1.774214	-145.622160	-7.002458	-52.485599
9.100000	-7.183669	-55.532299	-1.738706	-148.790299	-1.738706	-148.790299	-7.182848	-55.409720
9.150000	-7.388988	-58.483506	-1.700106	-151.998738	-1.700106	-151.998738	-7.387959	-58.356295
9.200000	-7.622176	-61.461687	-1.658771	-155.249803	-1.658771	-155.249803	-7.620627	-61.328337
9.250000	-7.889669	-64.473435	-1.614995	-158.548779	-1.614995	-158.548779	-7.886906	-64.333483
9.300000	-8.198499	-67.518682	-1.569458	-161.894290	-1.569458	-161.894290	-8.193533	-67.377592
9.350000	-8.560377	-70.567103	-1.522374	-165.279637	-1.522374	-165.279637	-8.553942	-70.441594
9.400000	-8.981585	-73.513853	-1.470717	-168.691721	-1.470717	-168.691721	-8.978367	-73.394945
9.450000	-9.448594	-76.315440	-1.406833	-172.170934	-1.406833	-172.170934	-9.445381	-76.168134
9.500000	-9.963920	-79.096329	-1.339299	-175.804185	-1.339299	-175.804185	-9.957555	-78.945199
9.550000	-10.554328	-81.885912	-1.279645	-179.544668	-1.279645	-179.544668	-10.547277	-81.740292
9.600000	-11.244936	-84.615287	-1.225209	176.644585	-1.225209	176.644585	-11.238520	-84.466461
9.650000	-12.061218	-87.190326	-1.174162	172.758835	-1.174162	172.758835	-12.055464	-87.028084
9.700000	-13.035409	-89.485160	-1.126825	168.790623	-1.126825	168.790623	-13.029716	-89.300403
9.750000	-14.213540	-91.299790	-1.084292	164.735120	-1.084292	164.735120	-14.206806	-91.084254
9.800000	-15.665539	-92.251597	-1.048097	160.587746	-1.048097	160.587746	-15.655944	-91.998340
9.850000	-17.493881	-91.585201	-1.019843	156.347871	-1.019843	156.347871	-17.478491	-91.292375
9.900000	-19.839527	-87.483778	-1.001430	152.014838	-1.001430	152.014838	-19.813875	-87.168120
9.950000	-22.750756	-75.490767	-0.994557	147.592496	-0.994557	147.592496	-22.712046	-75.229918
10.000000	-25.129770	-47.124260	-1.001066	143.085289	-1.001066	143.085289	-25.105499	-47.047764
