! freq	dB(S11)	phase(S11)	dB(S12)	phase(S12)	
!     	dB(S21)	phase(S21)	dB(S22)	phase(S22)	
!S-par simulation data
#  GHz  S  DB  R 50
0.000000	-0.000000	0.000000	-371.629924	0.000000	-371.629924	0.000000	-0.000000	0.000000
0.050000	-0.000138	-0.802646	-99.990360	3.226724	-99.990360	3.226724	-0.000138	-0.802697
0.100000	-0.000541	-1.604870	-99.837996	10.656328	-99.837996	10.656328	-0.000541	-1.604970
0.150000	-0.001180	-2.406305	-99.618417	16.704916	-99.618417	16.704916	-0.001181	-2.406453
0.200000	-0.002013	-3.206693	-99.351729	22.002055	-99.351729	22.002055	-0.002015	-3.206886
0.250000	-0.003004	-4.005789	-99.063018	26.609577	-99.063018	26.609577	-0.003007	-4.006026
0.300000	-0.004095	-4.803640	-98.780616	30.647202	-98.780616	30.647202	-0.004099	-4.803919
0.350000	-0.005254	-5.600201	-98.525073	34.152807	-98.525073	34.152807	-0.005258	-5.600522
0.400000	-0.006449	-6.395527	-98.315177	37.203252	-98.315177	37.203252	-0.006453	-6.395889
0.450000	-0.007657	-7.189702	-98.167025	39.882767	-98.167025	39.882767	-0.007662	-7.190104
0.500000	-0.008863	-7.982816	-98.095140	42.280548	-98.095140	42.280548	-0.008867	-7.983260
0.550000	-0.010055	-8.774960	-98.113766	44.491596	-98.113766	44.491596	-0.010058	-8.775446
0.600000	-0.011227	-9.566211	-98.238260	46.621458	-98.238260	46.621458	-0.011231	-9.566740
0.650000	-0.012379	-10.356636	-98.486634	48.796177	-98.486634	48.796177	-0.012382	-10.357208
0.700000	-0.013508	-11.146283	-98.881355	51.180704	-98.881355	51.180704	-0.013511	-11.146900
0.750000	-0.014618	-11.935190	-99.451423	54.013386	-99.451423	54.013386	-0.014620	-11.935851
0.800000	-0.015709	-12.723379	-100.234205	57.673785	-100.234205	57.673785	-0.015711	-12.724086
0.850000	-0.016783	-13.510866	-101.273931	62.822536	-101.273931	62.822536	-0.016785	-13.511617
0.900000	-0.017844	-14.297654	-102.602717	70.685618	-102.602717	70.685618	-0.017846	-14.298451
0.950000	-0.018894	-15.083743	-104.147836	83.464333	-104.147836	83.464333	-0.018896	-15.084585
1.000000	-0.019934	-15.869125	-105.437088	103.820825	-105.437088	103.820825	-0.019936	-15.870013
1.050000	-0.020967	-16.653790	-105.358609	130.870994	-105.358609	130.870994	-0.020968	-16.654724
1.100000	-0.021993	-17.437725	-103.415593	155.583966	-103.415593	155.583966	-0.021995	-17.438704
1.150000	-0.023016	-18.220913	-100.713146	171.457182	-100.713146	171.457182	-0.023017	-18.221937
1.200000	-0.024034	-19.003336	-98.101434	-179.352612	-98.101434	-179.352612	-0.024036	-19.004405
1.250000	-0.025050	-19.784978	-95.775284	-173.912429	-95.775284	-173.912429	-0.025052	-19.786092
1.300000	-0.026064	-20.565782	-93.711851	-170.634793	-93.711851	-170.634793	-0.026066	-20.566941
1.350000	-0.027077	-21.345765	-91.875984	-168.583553	-91.875984	-168.583553	-0.027079	-21.346967
1.400000	-0.028088	-22.124905	-90.222362	-167.329920	-90.222362	-167.329920	-0.028091	-22.126152
1.450000	-0.029100	-22.903185	-88.716116	-166.622336	-88.716116	-166.622336	-0.029103	-22.904475
1.500000	-0.030110	-23.680584	-87.330913	-166.305269	-87.330913	-166.305269	-0.030114	-23.681918
1.550000	-0.031121	-24.457085	-86.046734	-166.277938	-86.046734	-166.277938	-0.031124	-24.458462
1.600000	-0.032132	-25.232667	-84.848148	-166.472311	-84.848148	-166.472311	-0.032135	-25.234087
1.650000	-0.033142	-26.007313	-83.723063	-166.840813	-83.723063	-166.840813	-0.033146	-26.008776
1.700000	-0.034153	-26.780664	-82.638504	-167.386058	-82.638504	-167.386058	-0.034157	-26.782170
1.750000	-0.035164	-27.553511	-81.643732	-167.994970	-81.643732	-167.994970	-0.035168	-27.555060
1.800000	-0.036175	-28.325146	-80.684223	-168.712438	-80.684223	-168.712438	-0.036180	-28.326736
1.850000	-0.037187	-29.095913	-79.777161	-169.507448	-79.777161	-169.507448	-0.037192	-29.097546
1.900000	-0.038200	-29.865605	-78.906889	-170.369162	-78.906889	-170.369162	-0.038204	-29.867279
1.950000	-0.039213	-30.634220	-78.071394	-171.297581	-78.071394	-171.297581	-0.039217	-30.635936
2.000000	-0.040226	-31.401910	-77.273900	-172.267698	-77.273900	-172.267698	-0.040231	-31.403667
2.050000	-0.041241	-32.168303	-76.498209	-173.296192	-76.498209	-173.296192	-0.041246	-32.170102
2.100000	-0.042256	-32.933932	-75.761400	-174.350603	-75.761400	-174.350603	-0.042262	-32.935773
2.150000	-0.043274	-33.698036	-75.036649	-175.456846	-75.036649	-175.456846	-0.043279	-33.699918
2.200000	-0.044292	-34.461551	-74.351359	-176.578613	-74.351359	-176.578613	-0.044297	-34.463474
2.250000	-0.045312	-35.223301	-73.670686	-177.746954	-73.670686	-177.746954	-0.045318	-35.225265
2.300000	-0.046334	-35.984648	-73.029787	-178.923748	-73.029787	-178.923748	-0.046339	-35.986652
2.350000	-0.047359	-36.743982	-72.387751	179.857195	-72.387751	179.857195	-0.047364	-36.746027
2.400000	-0.048384	-37.503109	-71.785577	178.634624	-71.785577	178.634624	-0.048390	-37.505195
2.450000	-0.049415	-38.259968	-71.177782	177.373388	-71.177782	177.373388	-0.049421	-38.262095
2.500000	-0.050446	-39.016827	-70.609750	176.112153	-70.609750	176.112153	-0.050452	-39.018994
2.550000	-0.051484	-39.771154	-70.032583	174.815310	-70.032583	174.815310	-0.051490	-39.773361
2.600000	-0.052522	-40.525481	-69.491390	173.518467	-69.491390	173.518467	-0.052528	-40.527728
2.650000	-0.053568	-41.277438	-68.945373	172.193724	-68.945373	172.193724	-0.053574	-41.279725
2.700000	-0.054614	-42.029178	-68.428532	170.866446	-68.428532	170.866446	-0.054621	-42.031505
2.750000	-0.055670	-42.778721	-67.910469	169.517264	-67.910469	169.517264	-0.055676	-42.781088
2.800000	-0.056727	-43.527824	-67.415866	168.163701	-67.415866	168.163701	-0.056733	-43.530230
2.850000	-0.057793	-44.274912	-66.923056	166.792970	-66.923056	166.792970	-0.057800	-44.277357
2.900000	-0.058862	-45.021327	-66.448873	165.416516	-66.448873	165.416516	-0.058869	-45.023813
2.950000	-0.059940	-45.765921	-65.979010	164.026678	-65.979010	164.026678	-0.059947	-45.768446
3.000000	-0.061023	-46.509603	-65.523671	162.630148	-65.523671	162.630148	-0.061030	-46.512167
3.050000	-0.062115	-47.251666	-65.074769	161.223292	-65.074769	161.223292	-0.062122	-47.254269
3.100000	-0.063214	-47.992571	-64.636897	159.809060	-64.636897	159.809060	-0.063221	-47.995213
3.150000	-0.064322	-48.732067	-64.207231	158.386990	-64.207231	158.386990	-0.064329	-48.734748
3.200000	-0.065438	-49.470154	-63.785614	156.957082	-63.785614	156.957082	-0.065445	-49.472873
3.250000	-0.066562	-50.207051	-63.373676	155.521374	-63.373676	155.521374	-0.066570	-50.209809
3.300000	-0.067698	-50.942282	-62.967239	154.077546	-62.967239	154.077546	-0.067706	-50.945078
3.350000	-0.068841	-51.676549	-62.571702	152.629591	-62.571702	152.629591	-0.068849	-51.679383
3.400000	-0.069998	-52.408889	-62.179487	151.173381	-62.179487	151.173381	-0.070006	-52.411761
3.450000	-0.071161	-53.140498	-61.799176	149.714416	-61.799176	149.714416	-0.071169	-53.143408
3.500000	-0.072342	-53.869914	-61.420324	148.247188	-61.420324	148.247188	-0.072350	-53.872862
3.550000	-0.073527	-54.598838	-61.054193	146.778327	-61.054193	146.778327	-0.073535	-54.601825
3.600000	-0.074733	-55.325303	-60.687930	145.301303	-60.687930	145.301303	-0.074741	-55.328326
3.650000	-0.075941	-56.051519	-60.335043	143.823556	-60.335043	143.823556	-0.075949	-56.054580
3.700000	-0.077174	-56.775005	-59.980667	142.337844	-59.980667	142.337844	-0.077182	-56.778103
3.750000	-0.078407	-57.498491	-59.640184	140.852133	-59.640184	140.852133	-0.078415	-57.501627
3.800000	-0.079669	-58.218977	-59.297056	139.358747	-59.297056	139.358747	-0.079677	-58.222149
3.850000	-0.080931	-58.939462	-58.966970	137.865361	-58.966970	137.865361	-0.080940	-58.942671
3.900000	-0.082221	-59.657179	-58.635754	136.365796	-58.635754	136.365796	-0.082230	-59.660425
3.950000	-0.083514	-60.374644	-58.315548	134.865670	-58.315548	134.865670	-0.083523	-60.377927
4.000000	-0.084834	-61.089579	-57.995534	133.360649	-57.995534	133.360649	-0.084844	-61.092898
4.050000	-0.086160	-61.804008	-57.684734	131.854650	-57.684734	131.854650	-0.086169	-61.807363
4.100000	-0.087512	-62.516149	-57.375276	130.344854	-57.375276	130.344854	-0.087521	-62.519540
4.150000	-0.088872	-63.227528	-57.073441	128.833794	-57.073441	128.833794	-0.088882	-63.230955
4.200000	-0.090257	-63.936867	-56.773948	127.319868	-56.773948	127.319868	-0.090266	-63.940330
4.250000	-0.091654	-64.645187	-56.480671	125.804509	-56.480671	125.804509	-0.091663	-64.648685
4.300000	-0.093073	-65.351718	-56.190599	124.287063	-56.190599	124.287063	-0.093082	-65.355252
4.350000	-0.094507	-66.056971	-55.905497	122.768126	-55.905497	122.768126	-0.094517	-66.060541
4.400000	-0.095962	-66.760690	-55.624348	121.247742	-55.624348	121.247742	-0.095973	-66.764294
4.450000	-0.097437	-67.462873	-55.347065	119.725909	-55.347065	119.725909	-0.097447	-67.466513
4.500000	-0.098929	-68.163778	-55.074374	118.203140	-55.074374	118.203140	-0.098940	-68.167453
4.550000	-0.100446	-68.862892	-54.804575	116.679059	-54.804575	116.679059	-0.100456	-68.866601
4.600000	-0.101977	-69.560983	-54.539915	115.154433	-54.539915	115.154433	-0.101988	-69.564728
4.650000	-0.103537	-70.257029	-54.277283	113.628719	-54.277283	113.628719	-0.103548	-70.260809
4.700000	-0.105108	-70.952311	-54.020256	112.102742	-54.020256	112.102742	-0.105119	-70.956125
4.750000	-0.106713	-71.645296	-53.764491	110.575979	-53.764491	110.575979	-0.106724	-71.649144
4.800000	-0.108326	-72.337773	-53.514725	109.049132	-53.514725	109.049132	-0.108337	-72.341655
4.850000	-0.109977	-73.027706	-53.265543	107.521874	-53.265543	107.521874	-0.109988	-73.031623
4.900000	-0.111633	-73.717386	-53.022692	105.994617	-53.022692	105.994617	-0.111644	-73.721337
4.950000	-0.113333	-74.404279	-52.779823	104.467388	-52.779823	104.467388	-0.113344	-74.408264
5.000000	-0.115033	-75.091172	-52.543561	102.940159	-52.543561	102.940159	-0.115045	-75.095191
5.050000	-0.116783	-75.775040	-52.306746	101.413456	-52.306746	101.413456	-0.116794	-75.779092
5.100000	-0.118533	-76.458907	-52.076217	99.886752	-52.076217	99.886752	-0.118545	-76.462994
5.150000	-0.120330	-77.140019	-51.845760	98.360957	-51.845760	98.360957	-0.120342	-77.144139
5.200000	-0.122132	-77.820879	-51.620739	96.835244	-51.620739	96.835244	-0.122144	-77.825033
5.250000	-0.123977	-78.499251	-51.396341	95.310721	-51.396341	95.310721	-0.123989	-78.503439
5.300000	-0.125832	-79.177126	-51.176610	93.786436	-51.176610	93.786436	-0.125844	-79.181347
5.350000	-0.127728	-79.852778	-50.957992	92.263525	-50.957992	92.263525	-0.127740	-79.857033
5.400000	-0.129637	-80.527690	-50.743340	90.741073	-50.743340	90.741073	-0.129650	-80.531978
5.450000	-0.131584	-81.200644	-50.530236	89.220092	-50.530236	89.220092	-0.131597	-81.204965
5.500000	-0.133550	-81.872619	-50.320465	87.699846	-50.320465	87.699846	-0.133562	-81.876974
5.550000	-0.135549	-82.542899	-50.112624	86.181088	-50.112624	86.181088	-0.135562	-82.547287
5.600000	-0.137573	-83.211967	-49.907538	84.663392	-49.907538	84.663392	-0.137586	-83.216388
5.650000	-0.139626	-83.879598	-49.704724	83.147125	-49.704724	83.147125	-0.139639	-83.884052
5.700000	-0.141709	-84.545790	-49.504135	81.632288	-49.504135	81.632288	-0.141722	-84.550278
5.750000	-0.143817	-85.210800	-49.306123	80.118758	-49.306123	80.118758	-0.143830	-85.215320
5.800000	-0.145960	-85.874151	-49.109853	78.607057	-49.109853	78.607057	-0.145974	-85.878705
5.850000	-0.148125	-86.536568	-48.916430	77.096482	-48.916430	77.096482	-0.148139	-86.541155
5.900000	-0.150331	-87.197116	-48.724304	75.588160	-48.724304	75.588160	-0.150345	-87.201736
5.950000	-0.152553	-87.856973	-48.535268	74.080735	-48.535268	74.080735	-0.152567	-87.861626
6.000000	-0.154823	-88.514755	-48.347121	72.576000	-48.347121	72.576000	-0.154837	-88.519442
6.050000	-0.157104	-89.172084	-48.162280	71.071893	-48.162280	71.071893	-0.157118	-89.176804
6.100000	-0.159439	-89.827144	-47.977950	69.570921	-47.977950	69.570921	-0.159454	-89.831897
6.150000	-0.161781	-90.481981	-47.797123	68.070274	-47.797123	68.070274	-0.161795	-90.486766
6.200000	-0.164183	-91.134361	-47.616457	66.573205	-47.616457	66.573205	-0.164197	-91.139180
6.250000	-0.166585	-91.786742	-47.439472	65.076136	-47.439472	65.076136	-0.166600	-91.791594
6.300000	-0.169056	-92.436490	-47.262323	63.583076	-47.262323	63.583076	-0.169070	-92.441376
6.350000	-0.171527	-93.086238	-47.088714	62.090015	-47.088714	62.090015	-0.171541	-93.091157
6.400000	-0.174061	-93.733617	-46.915244	60.600696	-46.915244	60.600696	-0.174076	-93.738570
6.450000	-0.176602	-94.380781	-46.744880	59.111716	-46.744880	59.111716	-0.176617	-94.385767
6.500000	-0.179202	-95.025834	-46.574933	57.626169	-46.574933	57.626169	-0.179217	-95.030853
6.550000	-0.181814	-95.670465	-46.407686	56.141308	-46.407686	56.141308	-0.181829	-95.675517
6.600000	-0.184480	-96.313235	-46.241116	54.659540	-46.241116	54.659540	-0.184496	-96.318321
6.650000	-0.187165	-96.955384	-46.076869	53.178804	-46.076869	53.178804	-0.187181	-96.960505
6.700000	-0.189899	-97.595917	-45.913538	51.700798	-45.913538	51.700798	-0.189915	-97.601071
6.750000	-0.192659	-98.235641	-45.752177	50.224159	-45.752177	50.224159	-0.192675	-98.240829
6.800000	-0.195462	-98.873984	-45.591957	48.749876	-45.591957	48.749876	-0.195478	-98.879206
6.850000	-0.198297	-99.511339	-45.433375	47.277276	-45.433375	47.277276	-0.198314	-99.516595
6.900000	-0.201171	-100.147539	-45.276145	45.806652	-45.276145	45.806652	-0.201188	-100.152830
6.950000	-0.204083	-100.782584	-45.120245	44.338003	-45.120245	44.338003	-0.204100	-100.787909
7.000000	-0.207029	-101.416692	-44.965893	42.870952	-44.965893	42.870952	-0.207046	-101.422051
7.050000	-0.210020	-102.049488	-44.812583	41.406138	-44.812583	41.406138	-0.210037	-102.054881
7.100000	-0.213039	-102.681554	-44.661005	39.942554	-44.661005	39.942554	-0.213056	-102.686983
7.150000	-0.216110	-103.312163	-44.510201	38.481431	-44.510201	38.481431	-0.216128	-103.317626
7.200000	-0.219203	-103.942241	-44.361300	37.021189	-44.361300	37.021189	-0.219221	-103.947739
7.250000	-0.222357	-104.570727	-44.212926	35.563589	-44.212926	35.563589	-0.222375	-104.576260
7.300000	-0.225525	-105.198870	-44.066613	34.106544	-44.066613	34.106544	-0.225544	-105.204438
7.350000	-0.228762	-105.825299	-43.920602	32.652275	-43.920602	32.652275	-0.228781	-105.830903
7.400000	-0.232007	-106.451562	-43.776798	31.198267	-43.776798	31.198267	-0.232026	-106.457202
7.450000	-0.235329	-107.076002	-43.633089	29.747117	-43.633089	29.747117	-0.235349	-107.081678
7.500000	-0.238653	-107.700443	-43.491719	28.295967	-43.491719	28.295967	-0.238672	-107.706153
7.550000	-0.242061	-108.322963	-43.350261	26.847705	-43.350261	26.847705	-0.242081	-108.328710
7.600000	-0.245472	-108.945483	-43.211070	25.399443	-43.211070	25.399443	-0.245492	-108.951266
7.650000	-0.248961	-109.566309	-43.072010	23.953603	-43.072010	23.953603	-0.248982	-109.572128
7.700000	-0.252460	-110.186980	-42.934957	22.507982	-42.934957	22.507982	-0.252481	-110.192836
7.750000	-0.256032	-110.806172	-42.798244	21.064347	-42.798244	21.064347	-0.256053	-110.812064
7.800000	-0.259620	-111.425067	-42.663298	19.621110	-42.663298	19.621110	-0.259642	-111.430997
7.850000	-0.263276	-112.042685	-42.528887	18.179457	-42.528887	18.179457	-0.263298	-112.048652
7.900000	-0.266956	-112.659878	-42.396023	16.738332	-42.396023	16.738332	-0.266978	-112.665883
7.950000	-0.270697	-113.275987	-42.263878	15.298433	-42.263878	15.298433	-0.270720	-113.282029
8.000000	-0.274470	-113.891553	-42.133082	13.859147	-42.133082	13.859147	-0.274493	-113.897633
8.050000	-0.278298	-114.506215	-42.003175	12.420771	-42.003175	12.420771	-0.278322	-114.512333
8.100000	-0.282166	-115.120232	-41.874441	10.983045	-41.874441	10.983045	-0.282190	-115.126388
8.150000	-0.286082	-115.733513	-41.746749	9.545961	-41.746749	9.545961	-0.286106	-115.739707
8.200000	-0.290046	-116.346058	-41.620080	8.109519	-41.620080	8.109519	-0.290071	-116.352291
8.250000	-0.294052	-116.958023	-41.494590	6.673498	-41.494590	6.673498	-0.294077	-116.964295
8.300000	-0.298114	-117.569177	-41.369999	5.238068	-41.369999	5.238068	-0.298140	-117.575489
8.350000	-0.302211	-118.179894	-41.246702	3.802888	-41.246702	3.802888	-0.302237	-118.186245
8.400000	-0.306373	-118.789737	-41.124209	2.368207	-41.124209	2.368207	-0.306400	-118.796128
8.450000	-0.310562	-119.399274	-41.003107	0.933653	-41.003107	0.933653	-0.310590	-119.405705
8.500000	-0.314827	-120.007890	-40.882742	-0.500526	-40.882742	-0.500526	-0.314854	-120.014361
8.550000	-0.319110	-120.616315	-40.763840	-1.934658	-40.763840	-1.934658	-0.319138	-120.622827
8.600000	-0.323478	-121.223787	-40.645642	-3.368563	-40.645642	-3.368563	-0.323506	-121.230340
8.650000	-0.327856	-121.831171	-40.528954	-4.802463	-40.528954	-4.802463	-0.327885	-121.837765
8.700000	-0.332330	-122.437585	-40.412970	-6.236300	-40.412970	-6.236300	-0.332359	-122.444220
8.750000	-0.336805	-123.043999	-40.298515	-7.670137	-40.298515	-7.670137	-0.336835	-123.050676
8.800000	-0.341386	-123.649440	-40.184801	-9.104084	-40.184801	-9.104084	-0.341417	-123.656160
8.850000	-0.345969	-124.254882	-40.072556	-10.538030	-40.072556	-10.538030	-0.346000	-124.261644
8.900000	-0.350650	-124.859513	-39.961223	-11.972206	-39.961223	-11.972206	-0.350682	-124.866318
8.950000	-0.355343	-125.464071	-39.851252	-13.406404	-39.851252	-13.406404	-0.355375	-125.470918
9.000000	-0.360126	-126.067966	-39.742340	-14.840897	-39.742340	-14.840897	-0.360158	-126.074857
9.050000	-0.364929	-126.671728	-39.634713	-16.275449	-39.634713	-16.275449	-0.364962	-126.678663
9.100000	-0.369817	-127.274962	-39.528264	-17.710312	-39.528264	-17.710312	-0.369850	-127.281941
9.150000	-0.374733	-127.878020	-39.423058	-19.145278	-39.423058	-19.145278	-0.374767	-127.885044
9.200000	-0.379726	-128.480669	-39.319123	-20.580527	-39.319123	-20.580527	-0.379760	-128.487738
9.250000	-0.384758	-129.083113	-39.216422	-22.015917	-39.216422	-22.015917	-0.384792	-129.090228
9.300000	-0.389858	-129.685254	-39.115052	-23.451528	-39.115052	-23.451528	-0.389892	-129.692415
9.350000	-0.395007	-130.287179	-39.014944	-24.887297	-39.014944	-24.887297	-0.395042	-130.294385
9.400000	-0.400215	-130.888890	-38.916196	-26.323205	-38.916196	-26.323205	-0.400251	-130.896143
9.450000	-0.405484	-131.490388	-38.818775	-27.759250	-38.818775	-27.759250	-0.405519	-131.497688
9.500000	-0.410803	-132.091748	-38.722708	-29.195342	-38.722708	-29.195342	-0.410839	-132.099096
9.550000	-0.416193	-132.692915	-38.628070	-30.631498	-38.628070	-30.631498	-0.416229	-132.700311
9.600000	-0.421625	-133.294004	-38.534745	-32.067613	-38.534745	-32.067613	-0.421661	-133.301448
9.650000	-0.427138	-133.894937	-38.442989	-33.503647	-38.442989	-33.503647	-0.427174	-133.902430
9.700000	-0.432684	-134.495835	-38.352468	-34.939576	-38.352468	-34.939576	-0.432720	-134.503377
9.750000	-0.438323	-135.096631	-38.263696	-36.375186	-38.263696	-36.375186	-0.438359	-135.104223
9.800000	-0.443985	-135.697421	-38.176042	-37.810665	-38.176042	-37.810665	-0.444022	-135.705063
9.850000	-0.449752	-136.298179	-38.090354	-39.245479	-38.090354	-39.245479	-0.449788	-136.305872
9.900000	-0.455533	-136.898942	-38.005631	-40.680191	-38.005631	-40.680191	-0.455568	-136.906687
9.950000	-0.461429	-137.499762	-37.923125	-42.113764	-37.923125	-42.113764	-0.461465	-137.507560
10.000000	-0.467330	-138.100583	-37.841395	-43.547338	-37.841395	-43.547338	-0.467365	-138.108432
