! freq	dB(S11)	phase(S11)	dB(S12)	phase(S12)	
!     	dB(S21)	phase(S21)	dB(S22)	phase(S22)	
!S-par simulation data
#  GHz  S  DB  R 50
0.000000	-0.000000	0.000000	-333.315708	0.000000	-333.315708	0.000000	-0.000000	0.000000
0.050000	-0.000138	-1.416711	-82.780549	-171.814033	-82.780549	-171.814033	-0.000214	-0.796825
0.100000	-0.000547	-2.833117	-82.547853	175.055574	-82.547853	175.055574	-0.000783	-1.594707
0.150000	-0.001219	-4.248926	-82.466463	166.660070	-82.466463	166.660070	-0.001552	-2.393961
0.200000	-0.002136	-5.663877	-82.399536	159.611714	-82.399536	159.611714	-0.002402	-3.194249
0.250000	-0.003296	-7.077646	-82.333969	153.272008	-82.333969	153.272008	-0.003277	-3.995076
0.300000	-0.004653	-8.490118	-82.271017	147.372565	-82.271017	147.372565	-0.004160	-4.795944
0.350000	-0.006196	-9.901057	-82.215103	141.863175	-82.215103	141.863175	-0.005055	-5.596567
0.400000	-0.007900	-11.310300	-82.171690	136.709727	-82.171690	136.709727	-0.005968	-6.396735
0.450000	-0.009739	-12.717718	-82.146531	131.897773	-82.146531	131.897773	-0.006907	-7.196312
0.500000	-0.011689	-14.123204	-82.145372	127.422233	-82.145372	127.422233	-0.007874	-7.995208
0.550000	-0.013728	-15.526682	-82.173840	123.283884	-82.173840	123.283884	-0.008871	-8.793361
0.600000	-0.015834	-16.928092	-82.237447	119.488711	-82.237447	119.488711	-0.009896	-9.590727
0.650000	-0.017988	-18.327398	-82.341629	116.048689	-82.341629	116.048689	-0.010949	-10.387274
0.700000	-0.020172	-19.724573	-82.491821	112.983518	-82.491821	112.983518	-0.012025	-11.182978
0.750000	-0.022372	-21.119603	-82.693512	110.323245	-82.693512	110.323245	-0.013121	-11.977822
0.800000	-0.024576	-22.512481	-82.952247	108.111981	-82.952247	108.111981	-0.014233	-12.771791
0.850000	-0.026773	-23.903206	-83.273497	106.413119	-83.273497	106.413119	-0.015359	-13.564876
0.900000	-0.028956	-25.291778	-83.662249	105.316637	-83.662249	105.316637	-0.016493	-14.357069
0.950000	-0.031118	-26.678199	-84.122035	104.949082	-84.122035	104.949082	-0.017634	-15.148365
1.000000	-0.033255	-28.062469	-84.652868	105.486369	-84.652868	105.486369	-0.018778	-15.938759
1.050000	-0.035363	-29.444589	-85.247092	107.167358	-85.247092	107.167358	-0.019922	-16.728247
1.100000	-0.037439	-30.824555	-85.881613	110.299729	-85.881613	110.299729	-0.021065	-17.516826
1.150000	-0.039484	-32.202364	-86.505023	115.234084	-86.505023	115.234084	-0.022204	-18.304493
1.200000	-0.041497	-33.578008	-87.021672	122.255349	-87.021672	122.255349	-0.023338	-19.091244
1.250000	-0.043477	-34.951477	-87.287550	131.328814	-87.287550	131.328814	-0.024466	-19.877076
1.300000	-0.045426	-36.322663	-87.129761	141.758540	-87.129761	141.758540	-0.025587	-20.661944
1.350000	-0.047344	-37.691648	-86.506079	152.087041	-86.506079	152.087041	-0.026700	-21.445882
1.400000	-0.049235	-39.058414	-85.500710	161.074361	-85.500710	161.074361	-0.027804	-22.228885
1.450000	-0.051099	-40.422946	-84.267578	168.151327	-84.267578	168.151327	-0.028900	-23.010946
1.500000	-0.052940	-41.785224	-82.943427	173.342214	-82.943427	173.342214	-0.029988	-23.792057
1.550000	-0.054758	-43.145230	-81.615788	176.946838	-81.615788	176.946838	-0.031068	-24.572210
1.600000	-0.056555	-44.502945	-80.330217	179.313829	-80.330217	179.313829	-0.032139	-25.351396
1.650000	-0.058335	-45.858349	-79.106216	-179.254824	-79.106216	-179.254824	-0.033203	-26.129606
1.700000	-0.060099	-47.211425	-77.949399	-178.524600	-77.949399	-178.524600	-0.034259	-26.906828
1.750000	-0.061848	-48.562153	-76.858671	-178.321094	-76.858671	-178.321094	-0.035309	-27.683051
1.800000	-0.063586	-49.910516	-75.830021	-178.516369	-75.830021	-178.516369	-0.036353	-28.458265
1.850000	-0.065313	-51.256499	-74.858415	-179.016531	-74.858415	-179.016531	-0.037391	-29.232456
1.900000	-0.067032	-52.600086	-73.938697	-179.752176	-73.938697	-179.752176	-0.038424	-30.005612
1.950000	-0.068745	-53.941264	-73.065985	179.328523	-73.065985	179.328523	-0.039453	-30.777721
2.000000	-0.070452	-55.280022	-72.235829	178.264694	-72.235829	178.264694	-0.040478	-31.548768
2.050000	-0.072156	-56.616349	-71.444247	177.086212	-71.444247	177.086212	-0.041500	-32.318740
2.100000	-0.073859	-57.950237	-70.687707	175.816125	-70.687707	175.816125	-0.042519	-33.087624
2.150000	-0.075561	-59.281681	-69.963090	174.472393	-69.963090	174.472393	-0.043537	-33.855405
2.200000	-0.077264	-60.610677	-69.267643	173.069134	-69.267643	173.069134	-0.044554	-34.622069
2.250000	-0.078970	-61.937224	-68.598934	171.617535	-68.598934	171.617535	-0.045571	-35.387603
2.300000	-0.080679	-63.261324	-67.954809	170.126526	-67.954809	170.126526	-0.046588	-36.151992
2.350000	-0.082394	-64.582978	-67.333357	168.603276	-67.333357	168.603276	-0.047606	-36.915221
2.400000	-0.084114	-65.902195	-66.732878	167.053574	-66.732878	167.053574	-0.048625	-37.677278
2.450000	-0.085841	-67.218981	-66.151854	165.482116	-66.151854	165.482116	-0.049646	-38.438148
2.500000	-0.087577	-68.533349	-65.588924	163.892724	-65.588924	163.892724	-0.050670	-39.197817
2.550000	-0.089322	-69.845208	-65.042105	162.287995	-65.042105	162.287995	-0.051698	-39.956218
2.600000	-0.091077	-71.154680	-64.511135	160.671193	-64.511135	160.671193	-0.052729	-40.713390
2.650000	-0.092844	-72.461786	-63.995012	159.044360	-63.995012	159.044360	-0.053765	-41.469320
2.700000	-0.094622	-73.766546	-63.492830	157.409175	-63.492830	157.409175	-0.054806	-42.223995
2.750000	-0.096414	-75.068987	-63.003765	155.767016	-63.003765	155.767016	-0.055852	-42.977401
2.800000	-0.098219	-76.369135	-62.527070	154.119015	-62.527070	154.119015	-0.056904	-43.729528
2.850000	-0.100039	-77.667022	-62.062061	152.466099	-62.062061	152.466099	-0.057962	-44.480362
2.900000	-0.101874	-78.962680	-61.608115	150.809024	-61.608115	150.809024	-0.059028	-45.229891
2.950000	-0.103725	-80.256145	-61.164663	149.148407	-61.164663	149.148407	-0.060101	-45.978105
3.000000	-0.105593	-81.547455	-60.731181	147.484745	-60.731181	147.484745	-0.061181	-46.724992
3.050000	-0.107479	-82.836653	-60.307190	145.818438	-60.307190	145.818438	-0.062270	-47.470541
3.100000	-0.109383	-84.123781	-59.892246	144.149805	-59.892246	144.149805	-0.063367	-48.214742
3.150000	-0.111307	-85.408887	-59.485943	142.479096	-59.485943	142.479096	-0.064474	-48.957585
3.200000	-0.113250	-86.692020	-59.087905	140.806506	-59.087905	140.806506	-0.065589	-49.699060
3.250000	-0.115214	-87.973232	-58.697785	139.132182	-58.697785	139.132182	-0.066715	-50.439158
3.300000	-0.117199	-89.252577	-58.315262	137.456235	-58.315262	137.456235	-0.067851	-51.177869
3.350000	-0.119206	-90.530113	-57.940039	135.778742	-57.940039	135.778742	-0.068998	-51.915186
3.400000	-0.121235	-91.805900	-57.571839	134.099757	-57.571839	134.099757	-0.070156	-52.651099
3.450000	-0.123288	-93.080001	-57.210407	132.419314	-57.210407	132.419314	-0.071326	-53.385602
3.500000	-0.125365	-94.352480	-56.855506	130.737430	-56.855506	130.737430	-0.072507	-54.118687
3.550000	-0.127467	-95.623405	-56.506913	129.054111	-56.506913	129.054111	-0.073700	-54.850346
3.600000	-0.129594	-96.892846	-56.164424	127.369354	-56.164424	127.369354	-0.074906	-55.580574
3.650000	-0.131747	-98.160877	-55.827846	125.683149	-55.827846	125.683149	-0.076125	-56.309363
3.700000	-0.133927	-99.427573	-55.497000	123.995484	-55.497000	123.995484	-0.077358	-57.036709
3.750000	-0.136134	-100.693011	-55.171721	122.306345	-55.171721	122.306345	-0.078604	-57.762606
3.800000	-0.138371	-101.957225	-54.851576	120.615650	-54.851576	120.615650	-0.079864	-58.486985
3.850000	-0.140637	-103.220353	-54.536715	118.923453	-54.536715	118.923453	-0.081139	-59.209905
3.900000	-0.142932	-104.482480	-54.227002	117.229743	-54.227002	117.229743	-0.082429	-59.931361
3.950000	-0.145258	-105.743695	-53.922306	115.534514	-53.922306	115.534514	-0.083735	-60.651350
4.000000	-0.147614	-107.004088	-53.622507	113.837765	-53.622507	113.837765	-0.085055	-61.369869
4.050000	-0.150002	-108.263752	-53.327491	112.139500	-53.327491	112.139500	-0.086392	-62.086915
4.100000	-0.152423	-109.522783	-53.037151	110.439729	-53.037151	110.439729	-0.087745	-62.802484
4.150000	-0.154876	-110.781279	-52.751385	108.738468	-52.751385	108.738468	-0.089115	-63.516575
4.200000	-0.157363	-112.039341	-52.470099	107.035739	-52.470099	107.035739	-0.090501	-64.229186
4.250000	-0.159885	-113.297070	-52.193202	105.331572	-52.193202	105.331572	-0.091905	-64.940316
4.300000	-0.162441	-114.554572	-51.920608	103.626003	-51.920608	103.626003	-0.093327	-65.649962
4.350000	-0.165033	-115.811954	-51.652235	101.919073	-51.652235	101.919073	-0.094767	-66.358126
4.400000	-0.167662	-117.069327	-51.388007	100.210833	-51.388007	100.210833	-0.096225	-67.064806
4.450000	-0.170327	-118.326803	-51.127850	98.501336	-51.127850	98.501336	-0.097703	-67.770002
4.500000	-0.173030	-119.584496	-50.871692	96.790645	-50.871692	96.790645	-0.099199	-68.473715
4.550000	-0.175772	-120.842523	-50.619466	95.078826	-50.619466	95.078826	-0.100715	-69.175946
4.600000	-0.178552	-122.101005	-50.371107	93.365952	-50.371107	93.365952	-0.102252	-69.876695
4.650000	-0.181372	-123.360062	-50.126552	91.652100	-50.126552	91.652100	-0.103808	-70.575964
4.700000	-0.184232	-124.619819	-49.885740	89.937353	-49.885740	89.937353	-0.105385	-71.273755
4.750000	-0.187133	-125.880402	-49.648612	88.221796	-49.648612	88.221796	-0.106984	-71.970070
4.800000	-0.190075	-127.141941	-49.415111	86.505519	-49.415111	86.505519	-0.108604	-72.664912
4.850000	-0.193058	-128.404566	-49.185183	84.788613	-49.185183	84.788613	-0.110246	-73.358283
4.900000	-0.196085	-129.668411	-48.958771	83.071174	-48.958771	83.071174	-0.111911	-74.050186
4.950000	-0.199154	-130.933613	-48.735824	81.353297	-48.735824	81.353297	-0.113598	-74.740625
5.000000	-0.202267	-132.200309	-48.516289	79.635078	-48.516289	79.635078	-0.115308	-75.429604
5.050000	-0.205426	-133.468719	-48.300030	77.916611	-48.300030	77.916611	-0.117043	-76.117064
5.100000	-0.208629	-134.738922	-48.087092	76.198005	-48.087092	76.198005	-0.118802	-76.803072
5.150000	-0.211877	-136.011062	-47.877424	74.479356	-47.877424	74.479356	-0.120585	-77.487634
5.200000	-0.215171	-137.285288	-47.670979	72.760759	-47.670979	72.760759	-0.122393	-78.170755
5.250000	-0.218511	-138.561752	-47.467707	71.042304	-47.467707	71.042304	-0.124226	-78.852439
5.300000	-0.221897	-139.840607	-47.267560	69.324081	-47.267560	69.324081	-0.126085	-79.532692
5.350000	-0.225330	-141.122008	-47.070490	67.606173	-47.070490	67.606173	-0.127969	-80.211521
5.400000	-0.228809	-142.406113	-46.876452	65.888661	-46.876452	65.888661	-0.129880	-80.888932
5.450000	-0.232336	-143.693083	-46.685398	64.171620	-46.685398	64.171620	-0.131818	-81.564931
5.500000	-0.235911	-144.983081	-46.497282	62.455120	-46.497282	62.455120	-0.133784	-82.239526
5.550000	-0.239533	-146.276272	-46.312060	60.739226	-46.312060	60.739226	-0.135776	-82.912722
5.600000	-0.243204	-147.572825	-46.129687	59.023996	-46.129687	59.023996	-0.137797	-83.584528
5.650000	-0.246922	-148.872910	-45.950119	57.309480	-45.950119	57.309480	-0.139847	-84.254950
5.700000	-0.250690	-150.176699	-45.773312	55.595724	-45.773312	55.595724	-0.141925	-84.923998
5.750000	-0.254505	-151.484368	-45.599223	53.882764	-45.599223	53.882764	-0.144033	-85.591679
5.800000	-0.258370	-152.796095	-45.427812	52.170629	-45.427812	52.170629	-0.146170	-86.258002
5.850000	-0.262283	-154.112059	-45.259036	50.459341	-45.259036	50.459341	-0.148337	-86.922974
5.900000	-0.266245	-155.432445	-45.092857	48.748913	-45.092857	48.748913	-0.150535	-87.586606
5.950000	-0.270256	-156.757436	-44.929233	47.039351	-44.929233	47.039351	-0.152764	-88.248906
6.000000	-0.274315	-158.087221	-44.768128	45.330651	-44.768128	45.330651	-0.155025	-88.909883
6.050000	-0.278422	-159.421990	-44.609505	43.622803	-44.609505	43.622803	-0.157317	-89.569548
6.100000	-0.282579	-160.761934	-44.453327	41.915788	-44.453327	41.915788	-0.159642	-90.227909
6.150000	-0.286783	-162.107250	-44.299560	40.209579	-44.299560	40.209579	-0.161999	-90.884978
6.200000	-0.291035	-163.458134	-44.148171	38.504142	-44.148171	38.504142	-0.164389	-91.540765
6.250000	-0.295335	-164.814786	-43.999127	36.799434	-43.999127	36.799434	-0.166812	-92.195279
6.300000	-0.299684	-166.177677	-43.852393	35.095434	-43.852393	35.095434	-0.169271	-92.848478
6.350000	-0.304080	-167.546761	-43.707951	33.392053	-43.707951	33.392053	-0.171765	-93.500428
6.400000	-0.308522	-168.922245	-43.565772	31.689229	-43.565772	31.689229	-0.174293	-94.151140
6.450000	-0.313011	-170.304338	-43.425833	29.986892	-43.425833	29.986892	-0.176856	-94.800626
6.500000	-0.317544	-171.693251	-43.288110	28.284969	-43.288110	28.284969	-0.179454	-95.448896
6.550000	-0.322123	-173.089197	-43.152581	26.583381	-43.152581	26.583381	-0.182089	-96.095964
6.600000	-0.326746	-174.492392	-43.019227	24.882048	-43.019227	24.882048	-0.184760	-96.741842
6.650000	-0.331412	-175.903053	-42.888031	23.180882	-42.888031	23.180882	-0.187467	-97.386541
6.700000	-0.336121	-177.321399	-42.758976	21.479798	-42.758976	21.479798	-0.190212	-98.030074
6.750000	-0.340871	-178.747652	-42.632051	19.778706	-42.632051	19.778706	-0.192994	-98.672453
6.800000	-0.345663	179.817968	-42.507244	18.077517	-42.507244	18.077517	-0.195815	-99.313693
6.850000	-0.350495	178.375235	-42.384546	16.376141	-42.384546	16.376141	-0.198673	-99.953806
6.900000	-0.355366	176.923923	-42.263951	14.674491	-42.263951	14.674491	-0.201570	-100.592805
6.950000	-0.360275	175.463807	-42.145454	12.972482	-42.145454	12.972482	-0.204506	-101.230703
7.000000	-0.365221	173.994658	-42.029054	11.270031	-42.029054	11.270031	-0.207482	-101.867516
7.050000	-0.370203	172.516248	-41.914751	9.567061	-41.914751	9.567061	-0.210497	-102.503255
7.100000	-0.375220	171.028347	-41.802548	7.863502	-41.802548	7.863502	-0.213553	-103.137937
7.150000	-0.380269	169.530724	-41.692449	6.159287	-41.692449	6.159287	-0.216649	-103.771574
7.200000	-0.385351	168.023149	-41.584461	4.454360	-41.584461	4.454360	-0.219786	-104.404182
7.250000	-0.390463	166.505392	-41.478595	2.748675	-41.478595	2.748675	-0.222964	-105.035775
7.300000	-0.395604	164.977221	-41.374860	1.042195	-41.374860	1.042195	-0.226183	-105.666368
7.350000	-0.400773	163.438408	-41.273272	-0.665106	-41.273272	-0.665106	-0.229445	-106.295976
7.400000	-0.405967	161.888722	-41.173844	-2.373238	-41.173844	-2.373238	-0.232749	-106.924615
7.450000	-0.411185	160.327936	-41.076595	-4.082198	-41.076595	-4.082198	-0.236095	-107.552299
7.500000	-0.416426	158.755821	-40.981544	-5.791968	-40.981544	-5.791968	-0.239484	-108.179046
7.550000	-0.421688	157.171641	-40.888766	-7.502543	-40.888766	-7.502543	-0.242919	-108.804831
7.600000	-0.426968	155.575664	-40.798236	-9.213830	-40.798236	-9.213830	-0.246397	-109.429711
7.650000	-0.432265	153.967672	-40.709978	-10.925754	-40.709978	-10.925754	-0.249918	-110.053702
7.700000	-0.437576	152.347446	-40.624016	-12.638215	-40.624016	-12.638215	-0.253484	-110.676822
7.750000	-0.442899	150.714774	-40.540376	-14.351094	-40.540376	-14.351094	-0.257095	-111.299086
7.800000	-0.448232	149.069446	-40.459087	-16.064248	-40.459087	-16.064248	-0.260750	-111.920511
7.850000	-0.453573	147.411258	-40.380175	-17.777508	-40.380175	-17.777508	-0.264450	-112.541116
7.900000	-0.458919	145.740010	-40.303670	-19.490681	-40.303670	-19.490681	-0.268196	-113.160916
7.950000	-0.464268	144.055508	-40.229601	-21.203547	-40.229601	-21.203547	-0.271987	-113.779930
8.000000	-0.469618	142.357566	-40.157995	-22.915860	-40.157995	-22.915860	-0.275824	-114.398176
8.050000	-0.474966	140.646004	-40.088884	-24.627343	-40.088884	-24.627343	-0.279707	-115.015670
8.100000	-0.480309	138.920649	-40.022295	-26.337694	-40.022295	-26.337694	-0.283637	-115.632432
8.150000	-0.485644	137.181339	-39.958257	-28.046579	-39.958257	-28.046579	-0.287613	-116.248479
8.200000	-0.490970	135.427918	-39.896798	-29.753637	-39.896798	-29.753637	-0.291636	-116.863831
8.250000	-0.496283	133.660243	-39.837946	-31.458473	-39.837946	-31.458473	-0.295706	-117.478505
8.300000	-0.501580	131.878182	-39.781727	-33.160667	-39.781727	-33.160667	-0.299823	-118.092522
8.350000	-0.506860	130.081612	-39.728167	-34.859766	-39.728167	-34.859766	-0.303988	-118.705900
8.400000	-0.512118	128.270425	-39.677292	-36.555287	-39.677292	-36.555287	-0.308201	-119.318658
8.450000	-0.517351	126.444528	-39.629124	-38.246720	-39.629124	-38.246720	-0.312461	-119.930817
8.500000	-0.522559	124.603838	-39.583686	-39.933524	-39.583686	-39.933524	-0.316770	-120.542396
8.550000	-0.527736	122.748293	-39.541001	-41.615133	-39.541001	-41.615133	-0.321127	-121.153415
8.600000	-0.532881	120.877843	-39.501088	-43.290953	-39.501088	-43.290953	-0.325532	-121.763895
8.650000	-0.537990	118.992457	-39.463969	-44.960366	-39.463969	-44.960366	-0.329986	-122.373856
8.700000	-0.543062	117.092124	-39.429662	-46.622729	-39.429662	-46.622729	-0.334489	-122.983319
8.750000	-0.548092	115.176850	-39.398185	-48.277382	-39.398185	-48.277382	-0.339040	-123.592305
8.800000	-0.553078	113.246178	-39.369650	-49.923342	-39.369650	-49.923342	-0.343643	-124.200822
8.850000	-0.558017	111.300648	-39.343986	-51.560169	-39.343986	-51.560169	-0.348294	-124.808907
8.900000	-0.562908	109.340331	-39.321212	-53.187160	-39.321212	-53.187160	-0.352995	-125.416581
8.950000	-0.567748	107.365326	-39.301349	-54.803604	-39.301349	-54.803604	-0.357745	-126.023866
9.000000	-0.572536	105.375753	-39.284418	-56.408794	-39.284418	-56.408794	-0.362545	-126.630786
9.050000	-0.577268	103.371759	-39.270443	-58.002026	-39.270443	-58.002026	-0.367394	-127.237363
9.100000	-0.581944	101.353516	-39.259450	-59.582613	-39.259450	-59.582613	-0.372293	-127.843619
9.150000	-0.586563	99.321223	-39.251467	-61.149891	-39.251467	-61.149891	-0.377242	-128.449579
9.200000	-0.591122	97.275107	-39.246524	-62.703227	-39.246524	-62.703227	-0.382241	-129.055265
9.250000	-0.595620	95.215423	-39.244657	-64.242027	-39.244657	-64.242027	-0.387290	-129.660701
9.300000	-0.600058	93.142453	-39.245901	-65.765752	-39.245901	-65.765752	-0.392388	-130.265912
9.350000	-0.604435	91.056509	-39.250296	-67.273926	-39.250296	-67.273926	-0.397537	-130.870923
9.400000	-0.608749	88.957801	-39.257918	-68.765968	-39.257918	-68.765968	-0.402736	-131.475755
9.450000	-0.613002	86.846714	-39.268812	-70.241556	-39.268812	-70.241556	-0.407986	-132.080436
9.500000	-0.617194	84.723787	-39.282984	-71.700650	-39.282984	-71.700650	-0.413285	-132.684992
9.550000	-0.621328	82.589454	-39.300475	-73.143144	-39.300475	-73.143144	-0.418635	-133.289450
9.600000	-0.625403	80.444178	-39.321321	-74.569045	-39.321321	-74.569045	-0.424035	-133.893835
9.650000	-0.629423	78.288451	-39.345552	-75.978479	-39.345552	-75.978479	-0.429484	-134.498174
9.700000	-0.633389	76.122796	-39.373189	-77.371690	-39.373189	-77.371690	-0.434984	-135.102494
9.750000	-0.637305	73.947760	-39.404242	-78.749039	-39.404242	-78.749039	-0.440533	-135.706822
9.800000	-0.641173	71.763924	-39.438708	-80.110994	-39.438708	-80.110994	-0.446133	-136.311186
9.850000	-0.644998	69.571890	-39.476566	-81.458122	-39.476566	-81.458122	-0.451782	-136.915614
9.900000	-0.648783	67.372291	-39.517777	-82.791068	-39.517777	-82.791068	-0.457480	-137.520133
9.950000	-0.652534	65.165782	-39.562281	-84.110538	-39.562281	-84.110538	-0.463229	-138.124773
10.000000	-0.656255	62.953043	-39.609996	-85.417277	-39.609996	-85.417277	-0.469027	-138.729564
