! freq	dB(S11)	phase(S11)	dB(S12)	phase(S12)	
!     	dB(S21)	phase(S21)	dB(S22)	phase(S22)	
!S-par simulation data
#  GHz  S  DB  R 50
0.000000	-83.859850	0.000000	-0.000557	0.000000	-0.000557	0.000000	-83.859850	0.000000
0.050000	-35.236046	-93.026515	-0.004812	-3.208850	-0.004812	-3.208850	-35.236015	-93.026844
0.100000	-29.233635	-96.367178	-0.015153	-6.392245	-0.015153	-6.392245	-29.233636	-96.367818
0.150000	-25.741357	-99.625172	-0.028186	-9.550820	-0.028186	-9.550820	-25.741403	-99.626104
0.200000	-23.281778	-102.851702	-0.042615	-12.694778	-0.042615	-12.694778	-23.281873	-102.852918
0.250000	-21.392457	-106.056007	-0.058430	-15.830069	-0.058430	-15.830069	-21.392595	-106.057516
0.300000	-19.866762	-109.242174	-0.075852	-18.958891	-0.075852	-18.958891	-19.866932	-109.243997
0.350000	-18.593013	-112.413357	-0.094956	-22.081533	-0.094956	-22.081533	-18.593197	-112.415504
0.400000	-17.505184	-115.570870	-0.115773	-25.197212	-0.115773	-25.197212	-17.505365	-115.573330
0.450000	-16.561576	-118.714487	-0.138316	-28.304555	-0.138316	-28.304555	-16.561742	-118.717226
0.500000	-15.731742	-121.844450	-0.162390	-31.402993	-0.162390	-31.402993	-15.731886	-121.847422
0.550000	-14.995031	-124.959985	-0.187848	-34.491710	-0.187848	-34.491710	-14.995154	-124.963147
0.600000	-14.337329	-128.059662	-0.214565	-37.569528	-0.214565	-37.569528	-14.337433	-128.062984
0.650000	-13.746387	-131.143685	-0.242299	-40.636321	-0.242299	-40.636321	-13.746476	-131.147154
0.700000	-13.213164	-134.212299	-0.270835	-43.691902	-0.270835	-43.691902	-13.213244	-134.215911
0.750000	-12.731340	-137.265470	-0.299966	-46.735790	-0.299966	-46.735790	-12.731414	-137.269226
0.800000	-12.295217	-140.303943	-0.329456	-49.768068	-0.329456	-49.768068	-12.295287	-140.307845
0.850000	-11.899331	-143.329120	-0.359067	-52.789420	-0.359067	-52.789420	-11.899401	-143.333166
0.900000	-11.541107	-146.341142	-0.388556	-55.799577	-0.388556	-55.799577	-11.541177	-146.345326
0.950000	-11.216768	-149.341395	-0.417680	-58.799418	-0.417680	-58.799418	-11.216839	-149.345705
1.000000	-10.923648	-152.330922	-0.446194	-61.789665	-0.446194	-61.789665	-10.923720	-152.335344
1.050000	-10.659503	-155.310830	-0.473851	-64.771226	-0.473851	-64.771226	-10.659576	-155.315344
1.100000	-10.422442	-158.282289	-0.500405	-67.745227	-0.500405	-67.745227	-10.422516	-158.286871
1.150000	-10.211165	-161.246467	-0.525585	-70.713017	-0.525585	-70.713017	-10.211240	-161.251089
1.200000	-10.024533	-164.204695	-0.549148	-73.676371	-0.549148	-73.676371	-10.024609	-164.209327
1.250000	-9.859207	-167.158877	-0.571139	-76.637525	-0.571139	-76.637525	-9.859284	-167.163486
1.300000	-9.718470	-170.109812	-0.591069	-79.598223	-0.591069	-79.598223	-9.718547	-170.114357
1.350000	-9.597497	-173.059625	-0.609283	-82.560041	-0.609283	-82.560041	-9.597574	-173.064067
1.400000	-9.498853	-176.009953	-0.625377	-85.524481	-0.625377	-85.524481	-9.498929	-176.014242
1.450000	-9.420329	-178.962514	-0.639386	-88.492615	-0.639386	-88.492615	-9.420404	-178.966601
1.500000	-9.362598	178.080626	-0.651028	-91.466426	-0.651028	-91.466426	-9.362672	178.076801
1.550000	-9.326130	175.117306	-0.660070	-94.448301	-0.660070	-94.448301	-9.326202	175.113809
1.600000	-9.309599	172.145957	-0.666568	-97.440056	-0.666568	-97.440056	-9.309669	172.142859
1.650000	-9.316380	169.162971	-0.670035	-100.446084	-0.670035	-100.446084	-9.316445	169.160363
1.700000	-9.343802	166.167773	-0.670828	-103.467080	-0.670828	-103.467080	-9.343864	166.165744
1.750000	-9.395109	163.156610	-0.668593	-106.507658	-0.668593	-106.507658	-9.395166	163.155272
1.800000	-9.470928	160.127307	-0.663383	-109.570544	-0.663383	-109.570544	-9.470979	160.126789
1.850000	-9.572873	157.077243	-0.655192	-112.659088	-0.655192	-112.659088	-9.572918	157.077694
1.900000	-9.703265	154.003462	-0.644009	-115.777177	-0.644009	-115.777177	-9.703301	154.005059
1.950000	-9.864664	150.903187	-0.629892	-118.928665	-0.629892	-118.928665	-9.864690	150.906140
2.000000	-10.059889	147.774024	-0.612965	-122.117174	-0.612965	-122.117174	-10.059903	147.778584
2.050000	-10.292785	144.613446	-0.593359	-125.346858	-0.593359	-125.346858	-10.292785	144.619914
2.100000	-10.568128	141.419158	-0.571255	-128.622091	-0.571255	-128.622091	-10.568110	141.427904
2.150000	-10.891891	138.189282	-0.546883	-131.947479	-0.546883	-131.947479	-10.891851	138.200764
2.200000	-11.270124	134.923836	-0.520594	-135.325894	-0.520594	-135.325894	-11.270055	134.938608
2.250000	-11.715601	131.620094	-0.492619	-138.766489	-0.492619	-138.766489	-11.715495	131.638915
2.300000	-12.239345	128.281230	-0.463481	-142.272452	-0.463481	-142.272452	-12.239190	128.305072
2.350000	-12.858138	124.912058	-0.433718	-145.849249	-0.433718	-145.849249	-12.857914	124.942223
2.400000	-13.594936	121.522548	-0.403972	-149.502501	-0.403972	-149.502501	-13.594614	121.560846
2.450000	-14.482257	118.131814	-0.375004	-153.237934	-0.375004	-153.237934	-14.481788	118.180862
2.500000	-15.568283	114.776193	-0.347707	-157.061309	-0.347707	-157.061309	-15.567581	114.839963
2.550000	-16.930167	111.530105	-0.323165	-160.979408	-0.323165	-160.979408	-16.929064	111.615179
2.600000	-18.696807	108.552163	-0.302573	-164.996783	-0.302573	-164.996783	-18.694928	108.670306
2.650000	-21.118854	106.244724	-0.287320	-169.118588	-0.287320	-169.118588	-21.115174	106.420408
2.700000	-24.783907	105.959158	-0.278980	-173.349431	-0.278980	-173.349431	-24.774414	106.257021
2.750000	-31.621265	116.218589	-0.279324	-177.693135	-0.279324	-177.693135	-31.570728	116.887352
2.800000	-35.877774	-138.758535	-0.290315	177.847527	-0.290315	177.847527	-35.735592	-139.713836
2.850000	-26.006517	-111.650109	-0.314229	173.270187	-0.314229	173.270187	-25.990683	-112.119683
2.900000	-21.014157	-110.586989	-0.353344	168.575790	-0.353344	168.575790	-21.008880	-110.883232
2.950000	-17.707859	-113.066871	-0.410076	163.767001	-0.410076	163.767001	-17.705304	-113.289744
3.000000	-15.223747	-116.732163	-0.486957	158.848478	-0.486957	158.848478	-15.222276	-116.915226
3.050000	-13.231735	-120.972365	-0.586534	153.827429	-0.586534	153.827429	-13.230804	-121.130658
3.100000	-11.572262	-125.554071	-0.711296	148.713746	-0.711296	148.713746	-11.571638	-125.695588
3.150000	-10.156501	-130.363805	-0.863726	143.519664	-0.863726	143.519664	-10.156069	-130.493306
3.200000	-8.930382	-135.332755	-1.045931	138.260600	-1.045931	138.260600	-8.930079	-135.453284
3.250000	-7.858330	-140.412549	-1.259520	132.954375	-1.259520	132.954375	-7.858116	-140.526163
3.300000	-6.915483	-145.565828	-1.505834	127.620039	-1.505834	127.620039	-6.915335	-145.673991
3.350000	-6.083465	-150.760614	-1.785623	122.277571	-1.785623	122.277571	-6.083365	-150.864397
3.400000	-5.348701	-155.968793	-2.099695	116.947515	-2.099695	116.947515	-5.348639	-156.069022
3.450000	-4.699644	-161.164562	-2.447686	111.649783	-2.447686	111.649783	-4.699612	-161.261865
3.500000	-4.126814	-166.325387	-2.829099	106.402964	-2.829099	106.402964	-4.126806	-166.420262
3.550000	-3.622558	-171.430524	-3.243237	101.225118	-3.243237	101.225118	-3.622569	-171.523375
3.600000	-3.178629	-176.465111	-3.688610	96.128676	-3.688610	96.128676	-3.178657	-176.556258
3.650000	-2.788904	178.584951	-4.164112	91.126365	-4.164112	91.126365	-2.788945	178.495243
3.700000	-2.447453	173.730056	-4.668404	86.227463	-4.668404	86.227463	-2.447505	173.641564
3.750000	-2.148881	168.977699	-5.200188	81.438677	-5.200188	81.438677	-2.148944	168.890239
3.800000	-1.888675	164.334328	-5.758119	76.766021	-5.758119	76.766021	-1.888746	164.247741
3.850000	-1.661941	159.800872	-6.341303	72.210017	-6.341303	72.210017	-1.662020	159.715025
3.900000	-1.464682	155.377785	-6.949077	67.771010	-6.949077	67.771010	-1.464768	155.292566
3.950000	-1.293318	151.063910	-7.581119	63.447916	-7.581119	63.447916	-1.293409	150.979221
4.000000	-1.144659	146.856813	-8.237493	59.238553	-8.237493	59.238553	-1.144756	146.772571
4.050000	-1.016567	142.757431	-8.917417	55.144644	-8.917417	55.144644	-1.016669	142.673559
4.100000	-0.904607	138.749558	-9.625434	51.149690	-9.625434	51.149690	-0.904713	138.665997
4.150000	-0.808974	134.844135	-10.358140	47.266890	-10.358140	47.266890	-0.809084	134.760825
4.200000	-0.725459	131.020283	-11.123615	43.474902	-11.123615	43.474902	-0.725573	130.937178
4.250000	-0.654602	127.289788	-11.917747	39.789288	-11.917747	39.789288	-0.654719	127.206839
4.300000	-0.593122	123.633217	-12.750955	36.190542	-12.750955	36.190542	-0.593242	123.550385
4.350000	-0.540808	120.054671	-13.623502	32.687345	-13.623502	32.687345	-0.540932	119.971914
4.400000	-0.496083	116.545130	-14.544010	29.273373	-14.544010	29.273373	-0.496211	116.462411
4.450000	-0.457988	113.099991	-15.520730	25.949122	-15.520730	25.949122	-0.458119	113.017272
4.500000	-0.426038	109.718470	-16.560980	22.722630	-16.560980	22.722630	-0.426174	109.635706
4.550000	-0.398887	106.389578	-17.684887	19.588312	-17.684887	19.588312	-0.399029	106.306726
4.600000	-0.376726	103.118702	-18.900680	16.575414	-18.900680	16.575414	-0.376875	103.035698
4.650000	-0.358192	99.892100	-20.245761	13.679208	-20.245761	13.679208	-0.358352	99.808877
4.700000	-0.343484	96.714160	-21.744575	10.956763	-21.744575	10.956763	-0.343660	96.630608
4.750000	-0.331776	93.575191	-23.461354	8.437931	-23.461354	8.437931	-0.331975	93.491170
4.800000	-0.323041	90.474148	-25.475523	6.244109	-25.475523	6.244109	-0.323279	90.389424
4.850000	-0.317139	87.405416	-27.935021	4.561915	-27.935021	4.561915	-0.317447	87.319602
4.900000	-0.314308	84.360810	-31.130540	3.753883	-31.130540	3.753883	-0.314755	84.273224
4.950000	-0.317021	81.329515	-35.702343	4.548506	-35.702343	4.548506	-0.317851	81.238645
5.000000	-0.333223	78.297787	-44.801688	2.653225	-44.801688	2.653225	-0.335258	78.201601
5.050000	-0.388103	75.607118	-39.162527	-165.902926	-39.162527	-165.902926	-0.393898	75.527154
5.100000	-0.338058	73.020210	-31.761252	161.203684	-31.761252	161.203684	-0.340321	72.960844
5.150000	-0.317289	70.060680	-29.182265	154.383253	-29.182265	154.383253	-0.318019	69.995432
5.200000	-0.315453	67.162554	-27.188156	151.936993	-27.188156	151.936993	-0.315833	67.093890
5.250000	-0.317715	64.310201	-25.569458	149.766478	-25.569458	149.766478	-0.317960	64.239689
5.300000	-0.321831	61.491108	-24.228392	147.521009	-24.228392	147.521009	-0.322014	61.419559
5.350000	-0.327218	58.703143	-23.101490	145.157087	-23.101490	145.157087	-0.327371	58.631058
5.400000	-0.333276	55.934588	-22.128515	142.728970	-22.128515	142.728970	-0.333408	55.862188
5.450000	-0.339996	53.186972	-21.279800	140.243505	-21.279800	140.243505	-0.340117	53.114445
5.500000	-0.347277	50.458679	-20.530499	137.718443	-20.530499	137.718443	-0.347390	50.386161
5.550000	-0.355100	47.750689	-19.864904	135.164714	-19.864904	135.164714	-0.355208	47.678293
5.600000	-0.363333	45.059225	-19.265405	132.595777	-19.265405	132.595777	-0.363438	44.987028
5.650000	-0.371958	42.384418	-18.722386	130.016412	-18.722386	130.016412	-0.372061	42.312488
5.700000	-0.380928	39.725072	-18.226836	127.431751	-18.226836	127.431751	-0.381029	39.653465
5.750000	-0.390231	37.081424	-17.772822	124.844969	-17.772822	124.844969	-0.390331	37.010194
5.800000	-0.399807	34.451188	-17.353214	122.258640	-17.353214	122.258640	-0.399907	34.380379
5.850000	-0.409684	31.836298	-16.965640	119.674916	-16.965640	119.674916	-0.409784	31.765955
5.900000	-0.419796	29.233621	-16.604081	117.094640	-16.604081	117.094640	-0.419895	29.163779
5.950000	-0.430173	26.645022	-16.267166	114.519611	-16.267166	114.519611	-0.430272	26.575722
6.000000	-0.440774	24.068356	-15.950904	111.949937	-15.950904	111.949937	-0.440872	23.999630
6.050000	-0.451611	21.504210	-15.653652	109.386675	-15.653652	109.386675	-0.451708	21.436091
6.100000	-0.462675	18.951992	-15.373251	106.830155	-15.373251	106.830155	-0.462772	18.884511
6.150000	-0.473959	16.410915	-15.107705	104.280443	-15.107705	104.280443	-0.474055	16.344100
6.200000	-0.485485	13.881751	-14.856074	101.738468	-14.856074	101.738468	-0.485580	13.815632
6.250000	-0.497223	11.362485	-14.616167	99.203247	-14.616167	99.203247	-0.497317	11.297085
6.300000	-0.509227	8.855084	-14.387825	96.676463	-14.387825	96.676463	-0.509319	8.790432
6.350000	-0.521458	6.357019	-14.169018	94.156548	-14.169018	94.156548	-0.521548	6.293136
6.400000	-0.533962	3.869564	-13.959410	91.644651	-13.959410	91.644651	-0.534049	3.806474
6.450000	-0.546729	1.391467	-13.757792	89.139986	-13.757792	89.139986	-0.546814	1.329189
6.500000	-0.559783	-1.077208	-13.563500	86.642741	-13.563500	86.642741	-0.559864	-1.138651
6.550000	-0.573146	-3.536590	-13.375865	84.152920	-13.375865	84.152920	-0.573224	-3.597181
6.600000	-0.586814	-5.987685	-13.194064	81.669799	-13.194064	81.669799	-0.586889	-6.047406
6.650000	-0.600850	-8.429665	-13.017735	79.194112	-13.017735	79.194112	-0.600921	-8.488498
6.700000	-0.615303	-10.862516	-12.846282	76.725922	-12.846282	76.725922	-0.615371	-10.920444
6.750000	-0.630052	-13.289748	-12.678792	74.262358	-12.678792	74.262358	-0.630117	-13.346759
6.800000	-0.645212	-15.709492	-12.515167	71.804962	-12.515167	71.804962	-0.645273	-15.765572
6.850000	-0.660921	-18.120698	-12.354894	69.354581	-12.354894	69.354581	-0.660978	-18.175831
6.900000	-0.677046	-20.526444	-12.197455	66.908652	-12.197455	66.908652	-0.677100	-20.580620
6.950000	-0.693604	-22.926920	-12.042622	64.467000	-12.042622	64.467000	-0.693654	-22.980128
7.000000	-0.710827	-25.320378	-11.889807	62.030962	-11.889807	62.030962	-0.710874	-25.372605
7.050000	-0.728651	-27.708831	-11.738666	59.598808	-11.738666	59.598808	-0.728695	-27.760066
7.100000	-0.747018	-30.093401	-11.589112	57.169594	-11.589112	57.169594	-0.747060	-30.143635
7.150000	-0.766003	-32.474054	-11.440848	54.743272	-11.440848	54.743272	-0.766042	-32.523278
7.200000	-0.785932	-34.850243	-11.292796	52.319956	-11.292796	52.319956	-0.785970	-34.898444
7.250000	-0.806546	-37.224242	-11.145452	49.897876	-11.145452	49.897876	-0.806582	-37.271414
7.300000	-0.827873	-39.596351	-10.998688	47.476728	-10.998688	47.476728	-0.827909	-39.642485
7.350000	-0.850226	-41.966716	-10.851488	45.055998	-10.851488	45.055998	-0.850262	-42.011801
7.400000	-0.873642	-44.336624	-10.703629	42.634456	-10.703629	42.634456	-0.873677	-44.380652
7.450000	-0.897965	-46.706815	-10.555596	40.211613	-10.555596	40.211613	-0.898001	-46.749778
7.500000	-0.923232	-49.077656	-10.407304	37.787093	-10.407304	37.787093	-0.923269	-49.119547
7.550000	-0.950163	-51.451369	-10.256454	35.357957	-10.256454	35.357957	-0.950201	-51.492178
7.600000	-0.978256	-53.828052	-10.104742	32.924745	-10.104742	32.924745	-0.978296	-53.867771
7.650000	-1.007566	-56.208186	-9.952103	30.486957	-9.952103	30.486957	-1.007608	-56.246811
7.700000	-1.038510	-58.593793	-9.797349	28.042226	-9.797349	28.042226	-1.038553	-58.631314
7.750000	-1.071396	-60.987254	-9.639713	25.587987	-9.639713	25.587987	-1.071441	-61.023667
7.800000	-1.105868	-63.387643	-9.480530	23.125564	-9.480530	23.125564	-1.105914	-63.422943
7.850000	-1.142001	-65.795556	-9.319771	20.654332	-9.319771	20.654332	-1.142048	-65.829740
7.900000	-1.180897	-68.217576	-9.154541	18.166905	-9.154541	18.166905	-1.180946	-68.250642
7.950000	-1.222041	-70.651666	-8.986743	15.665834	-8.986743	15.665834	-1.222089	-70.683615
8.000000	-1.265394	-73.097790	-8.816811	13.151241	-8.816811	13.151241	-1.265442	-73.128624
8.050000	-1.311507	-75.559508	-8.643659	10.619224	-8.643659	10.619224	-1.311553	-75.589233
8.100000	-1.360873	-78.040393	-8.466571	8.065957	-8.466571	8.065957	-1.360917	-78.069019
8.150000	-1.413682	-80.541803	-8.285670	5.490036	-8.285670	5.490036	-1.413722	-80.569344
8.200000	-1.470169	-83.065356	-8.101041	2.889768	-8.101041	2.889768	-1.470204	-83.091830
8.250000	-1.530925	-85.614879	-7.912071	0.261020	-7.912071	0.261020	-1.530955	-85.640310
8.300000	-1.595925	-88.189902	-7.719559	-2.395643	-7.719559	-2.395643	-1.595948	-88.214317
8.350000	-1.666413	-90.798317	-7.521884	-5.088829	-7.521884	-5.088829	-1.666430	-90.821757
8.400000	-1.742036	-93.437007	-7.320628	-7.815120	-7.320628	-7.815120	-1.742045	-93.459511
8.450000	-1.824329	-96.115231	-7.114101	-10.584668	-7.114101	-10.584668	-1.824332	-96.136854
8.500000	-1.913234	-98.831268	-6.903507	-13.395639	-6.903507	-13.395639	-1.913230	-98.852066
8.550000	-2.010051	-101.591929	-6.688043	-16.255595	-6.688043	-16.255595	-2.010044	-101.611971
8.600000	-2.115576	-104.400180	-6.467903	-19.167931	-6.467903	-19.167931	-2.115568	-104.419544
8.650000	-2.230554	-107.258144	-6.243503	-22.135171	-6.243503	-22.135171	-2.230548	-107.276912
8.700000	-2.357066	-110.175314	-6.013930	-25.168078	-6.013930	-25.168078	-2.357070	-110.193586
8.750000	-2.494965	-113.147099	-5.780940	-28.261861	-5.780940	-28.261861	-2.494983	-113.164969
8.800000	-2.648233	-116.191625	-5.542504	-31.437231	-5.542504	-31.437231	-2.648275	-116.209219
8.850000	-2.816185	-119.299552	-5.301155	-34.684231	-5.301155	-34.684231	-2.816260	-119.316980
8.900000	-3.003056	-122.486826	-5.055667	-38.021639	-5.055667	-38.021639	-3.003174	-122.504227
8.950000	-3.209907	-125.750941	-4.807531	-41.447476	-4.807531	-41.447476	-3.210081	-125.768453
9.000000	-3.440295	-129.099818	-4.556984	-44.972056	-4.556984	-44.972056	-3.440537	-129.117598
9.050000	-3.698029	-132.539653	-4.304631	-48.604144	-4.304631	-48.604144	-3.698351	-132.557882
9.100000	-3.985432	-136.067419	-4.052034	-52.342069	-4.052034	-52.342069	-3.985844	-136.086292
9.150000	-4.310475	-139.699158	-3.799319	-56.208087	-3.799319	-56.208087	-4.310985	-139.718947
9.200000	-4.674164	-143.420056	-3.548854	-60.187275	-3.548854	-60.187275	-4.674778	-143.441051
9.250000	-5.088792	-147.249317	-3.301267	-64.309899	-3.301267	-64.309899	-5.089512	-147.271985
9.300000	-5.556870	-151.167787	-3.058811	-68.557676	-3.058811	-68.557676	-5.557694	-151.192665
9.350000	-6.091975	-155.180457	-2.823267	-72.949705	-2.823267	-72.949705	-6.092901	-155.208380
9.400000	-6.703785	-159.271615	-2.596628	-77.479661	-2.596628	-77.479661	-6.704814	-159.303682
9.450000	-7.406228	-163.423098	-2.380972	-82.145487	-2.380972	-82.145487	-7.407375	-163.460820
9.500000	-8.220666	-167.610171	-2.179000	-86.953487	-2.179000	-86.953487	-8.221982	-167.655781
9.550000	-9.169418	-171.786366	-1.992759	-91.892632	-1.992759	-91.892632	-9.171020	-171.842874
9.600000	-10.284857	-175.883140	-1.824407	-96.954849	-1.824407	-96.954849	-10.286981	-175.954708
9.650000	-11.612512	-179.789444	-1.675899	-102.129310	-1.675899	-102.129310	-11.615617	-179.881857
9.700000	-13.220246	176.692221	-1.549059	-107.403349	-1.549059	-107.403349	-13.225213	176.570684
9.750000	-15.215090	173.965883	-1.445521	-112.762206	-1.445521	-112.762206	-15.223684	173.802735
9.800000	-17.780637	172.891195	-1.365418	-118.186286	-1.365418	-118.186286	-17.796723	172.667779
9.850000	-21.256766	175.917157	-1.308793	-123.658000	-1.308793	-123.658000	-21.290726	175.609246
9.900000	-26.084803	-167.761244	-1.275060	-129.160223	-1.275060	-129.160223	-26.170593	-168.081010
9.950000	-28.944258	-116.581370	-1.263018	-134.677327	-1.263018	-134.677327	-29.055836	-116.175159
10.000000	-24.691955	-78.976965	-1.270890	-140.196185	-1.270890	-140.196185	-24.713461	-78.542612
