! freq	dB(S11)	phase(S11)	dB(S12)	phase(S12)	
!     	dB(S21)	phase(S21)	dB(S22)	phase(S22)	
!S-par simulation data
#  GHz  S  DB  R 50
0.000000	-0.000000	0.000000	-364.872783	180.000000	-364.872783	180.000000	-0.000000	0.000000
0.050000	-0.000325	-0.772550	-104.186871	88.482149	-104.186871	88.482149	-0.001974	-2.073552
0.100000	-0.001182	-1.543233	-98.200372	87.170222	-98.200372	87.170222	-0.005245	-4.129560
0.150000	-0.002325	-2.311238	-94.741465	85.829372	-94.741465	85.829372	-0.008131	-6.176391
0.200000	-0.003544	-3.077060	-92.326563	84.497503	-92.326563	84.497503	-0.010788	-8.219365
0.250000	-0.004734	-3.841244	-90.497989	83.189588	-90.497989	83.189588	-0.013393	-10.259170
0.300000	-0.005857	-4.604375	-89.051116	81.917172	-89.051116	81.917172	-0.016012	-12.295701
0.350000	-0.006917	-5.366918	-87.871668	80.687764	-87.871668	80.687764	-0.018646	-14.329067
0.400000	-0.007921	-6.129026	-86.904790	79.520105	-86.904790	79.520105	-0.021285	-16.358695
0.450000	-0.008892	-6.890858	-86.096583	78.416174	-86.096583	78.416174	-0.023916	-18.385098
0.500000	-0.009838	-7.652375	-85.434252	77.406643	-85.434252	77.406643	-0.026532	-20.407458
0.550000	-0.010771	-8.413611	-84.885580	76.493469	-84.885580	76.493469	-0.029130	-22.426272
0.600000	-0.011699	-9.174488	-84.446468	75.711406	-84.446468	75.711406	-0.031709	-24.440899
0.650000	-0.012626	-9.934982	-84.102941	75.078845	-84.102941	75.078845	-0.034269	-26.451352
0.700000	-0.013556	-10.695046	-83.848648	74.628164	-83.848648	74.628164	-0.036809	-28.457379
0.750000	-0.014490	-11.454605	-83.683709	74.412173	-83.683709	74.412173	-0.039328	-30.458434
0.800000	-0.015431	-12.213678	-83.595782	74.452218	-83.595782	74.452218	-0.041828	-32.454803
0.850000	-0.016378	-12.972128	-83.596565	74.870229	-83.596565	74.870229	-0.044302	-34.445275
0.900000	-0.017331	-13.730033	-83.668539	75.677772	-83.668539	75.677772	-0.046755	-36.430610
0.950000	-0.018291	-14.487254	-83.821337	77.070366	-83.821337	77.070366	-0.049181	-38.409503
1.000000	-0.019256	-15.243818	-84.041600	79.149906	-84.041600	79.149906	-0.051580	-40.382169
1.050000	-0.020226	-15.999733	-84.314609	82.045092	-84.314609	82.045092	-0.053953	-42.348664
1.100000	-0.021198	-16.754955	-84.621050	85.979415	-84.621050	85.979415	-0.056300	-44.308494
1.150000	-0.022174	-17.509422	-84.919466	91.235707	-84.919466	91.235707	-0.058619	-46.261026
1.200000	-0.023150	-18.263132	-85.141559	97.944919	-85.141559	97.944919	-0.060912	-48.206174
1.250000	-0.024125	-19.016092	-85.201658	106.019014	-85.201658	106.019014	-0.063180	-50.143959
1.300000	-0.025099	-19.768272	-85.003794	115.105976	-85.003794	115.105976	-0.065424	-52.074042
1.350000	-0.026068	-20.519642	-84.483813	124.468455	-84.483813	124.468455	-0.067645	-53.996105
1.400000	-0.027031	-21.270217	-83.667000	133.267370	-83.667000	133.267370	-0.069845	-55.910293
1.450000	-0.027986	-22.019977	-82.624222	140.904608	-82.624222	140.904608	-0.072026	-57.816456
1.500000	-0.028929	-22.768833	-81.428242	147.013661	-81.428242	147.013661	-0.074186	-59.713803
1.550000	-0.029857	-23.516829	-80.183626	151.768937	-80.183626	151.768937	-0.076329	-61.602946
1.600000	-0.030767	-24.263927	-78.940843	155.346762	-78.940843	155.346762	-0.078454	-63.483799
1.650000	-0.031657	-25.010078	-77.729318	157.953339	-77.729318	157.953339	-0.080563	-65.356304
1.700000	-0.032527	-25.755284	-76.569640	159.815722	-76.569640	159.815722	-0.082657	-67.220910
1.750000	-0.033379	-26.499248	-75.448152	160.967305	-75.448152	160.967305	-0.084732	-69.075837
1.800000	-0.034223	-27.242125	-74.386189	161.662322	-74.386189	161.662322	-0.086792	-70.922803
1.850000	-0.035074	-27.983743	-73.372789	161.947525	-73.372789	161.947525	-0.088834	-72.760806
1.900000	-0.035947	-28.724187	-72.409556	161.921435	-72.409556	161.921435	-0.090860	-74.590348
1.950000	-0.036854	-29.463526	-71.492990	161.643741	-71.492990	161.643741	-0.092869	-76.411444
2.000000	-0.037800	-30.201789	-70.616950	161.147781	-70.616950	161.147781	-0.094861	-78.223623
2.050000	-0.038776	-30.939170	-69.783509	160.491986	-69.783509	160.491986	-0.096837	-80.027910
2.100000	-0.039780	-31.675552	-68.982420	159.678499	-68.982420	159.678499	-0.098795	-81.822873
2.150000	-0.040797	-32.411116	-68.218435	158.756404	-68.218435	158.756404	-0.100739	-83.610196
2.200000	-0.041823	-33.145688	-67.482855	157.724961	-67.482855	157.724961	-0.102666	-85.388481
2.250000	-0.042851	-33.879362	-66.777867	156.612275	-66.777867	156.612275	-0.104580	-87.158923
2.300000	-0.043878	-34.612030	-66.099016	155.424486	-66.099016	155.424486	-0.106479	-88.920958
2.350000	-0.044904	-35.343680	-65.445057	154.173248	-65.445057	154.173248	-0.108366	-90.674824
2.400000	-0.045928	-36.074323	-64.815199	152.869391	-64.815199	152.869391	-0.110244	-92.420920
2.450000	-0.046949	-36.803831	-64.205747	151.515262	-64.205747	151.515262	-0.112111	-94.158565
2.500000	-0.047969	-37.532348	-63.618602	150.123693	-63.618602	150.123693	-0.113972	-95.889076
2.550000	-0.048989	-38.259621	-63.048304	148.691831	-63.048304	148.691831	-0.115828	-97.610898
2.600000	-0.050008	-38.985868	-62.497754	147.231441	-62.497754	147.231441	-0.117681	-99.325777
2.650000	-0.051028	-39.710899	-61.963161	145.741646	-61.963161	145.741646	-0.119533	-101.032646
2.700000	-0.052050	-40.434810	-61.445201	144.228286	-61.445201	144.228286	-0.121387	-102.732343
2.750000	-0.053074	-41.157543	-60.942376	142.693313	-60.942376	142.693313	-0.123245	-104.424698
2.800000	-0.054101	-41.879060	-60.453651	141.138834	-60.453651	141.138834	-0.125110	-106.109692
2.850000	-0.055132	-42.599443	-59.979298	139.568409	-59.979298	139.568409	-0.126983	-107.787996
2.900000	-0.056168	-43.318517	-59.516968	137.981841	-59.516968	137.981841	-0.128868	-109.458791
2.950000	-0.057208	-44.036482	-59.068090	136.383278	-59.068090	136.383278	-0.130765	-111.123401
3.000000	-0.058254	-44.753090	-58.629941	134.771840	-58.629941	134.771840	-0.132678	-112.780656
3.050000	-0.059306	-45.468545	-58.203837	133.150820	-58.203837	133.150820	-0.134607	-114.431843
3.100000	-0.060365	-46.182692	-57.788109	131.520260	-57.788109	131.520260	-0.136556	-116.076347
3.150000	-0.061431	-46.895596	-57.382853	129.881736	-57.382853	129.881736	-0.138524	-117.714674
3.200000	-0.062505	-47.607247	-56.987618	128.236204	-56.987618	128.236204	-0.140512	-119.346967
3.250000	-0.063587	-48.317562	-56.601535	126.584145	-56.601535	126.584145	-0.142524	-120.973021
3.300000	-0.064677	-49.026681	-56.225117	124.927011	-56.225117	124.927011	-0.144557	-122.593667
3.350000	-0.065778	-49.734295	-55.856345	123.264402	-55.856345	123.264402	-0.146617	-124.207741
3.400000	-0.066887	-50.440755	-55.496834	121.598207	-55.496834	121.598207	-0.148698	-125.816946
3.450000	-0.068006	-51.145901	-55.145439	119.928462	-55.145439	119.928462	-0.150802	-127.420783
3.500000	-0.069136	-51.849727	-54.801863	118.255698	-54.801863	118.255698	-0.152931	-129.019410
3.550000	-0.070276	-52.552225	-54.465830	116.580398	-54.465830	116.580398	-0.155083	-130.612991
3.600000	-0.071428	-53.253390	-54.137076	114.903002	-54.137076	114.903002	-0.157258	-132.201692
3.650000	-0.072592	-53.953213	-53.815354	113.223913	-53.815354	113.223913	-0.159457	-133.785680
3.700000	-0.073767	-54.651691	-53.500429	111.543502	-53.500429	111.543502	-0.161678	-135.365126
3.750000	-0.074955	-55.348816	-53.192079	109.862105	-53.192079	109.862105	-0.163921	-136.940204
3.800000	-0.076157	-56.044524	-52.889914	108.180017	-52.889914	108.180017	-0.166187	-138.510915
3.850000	-0.077372	-56.738869	-52.593934	106.497562	-52.593934	106.497562	-0.168473	-140.077629
3.900000	-0.078600	-57.431846	-52.303946	104.814998	-52.303946	104.814998	-0.170780	-141.640525
3.950000	-0.079843	-58.123450	-52.019769	103.132563	-52.019769	103.132563	-0.173106	-143.199786
4.000000	-0.081100	-58.813679	-51.741230	101.450476	-51.741230	101.450476	-0.175452	-144.755595
4.050000	-0.082372	-59.502527	-51.468165	99.768936	-51.468165	99.768936	-0.177817	-146.308138
4.100000	-0.083659	-60.189992	-51.200416	98.088130	-51.200416	98.088130	-0.180200	-147.857601
4.150000	-0.084962	-60.876070	-50.937834	96.408227	-50.937834	96.408227	-0.182602	-149.404172
4.200000	-0.086281	-61.560758	-50.680277	94.729385	-50.680277	94.729385	-0.185022	-150.948038
4.250000	-0.087616	-62.244055	-50.427609	93.051748	-50.427609	93.051748	-0.187460	-152.489388
4.300000	-0.088968	-62.925958	-50.179701	91.375448	-50.179701	91.375448	-0.189917	-154.028412
4.350000	-0.090338	-63.606465	-49.936428	89.700609	-49.936428	89.700609	-0.192391	-155.565298
4.400000	-0.091724	-64.285574	-49.697673	88.027344	-49.697673	88.027344	-0.194885	-157.100236
4.450000	-0.093129	-64.963285	-49.463323	86.355757	-49.463323	86.355757	-0.197397	-158.633414
4.500000	-0.094552	-65.639596	-49.233270	84.685946	-49.233270	84.685946	-0.199928	-160.165021
4.550000	-0.095993	-66.314507	-49.007411	83.018000	-49.007411	83.018000	-0.202479	-161.695244
4.600000	-0.097454	-66.988017	-48.785647	81.352002	-48.785647	81.352002	-0.205050	-163.224270
4.650000	-0.098933	-67.660127	-48.567886	79.688031	-48.567886	79.688031	-0.207642	-164.752287
4.700000	-0.100433	-68.330837	-48.354036	78.026158	-48.354036	78.026158	-0.210254	-166.279477
4.750000	-0.101953	-69.000147	-48.144012	76.366453	-48.144012	76.366453	-0.212889	-167.806026
4.800000	-0.103493	-69.668059	-47.937733	74.708980	-47.937733	74.708980	-0.215545	-169.332116
4.850000	-0.105054	-70.334573	-47.735119	73.053801	-47.735119	73.053801	-0.218225	-170.857929
4.900000	-0.106637	-70.999690	-47.536097	71.400974	-47.536097	71.400974	-0.220929	-172.383643
4.950000	-0.108241	-71.663414	-47.340593	69.750558	-47.340593	69.750558	-0.223656	-173.909437
5.000000	-0.109867	-72.325745	-47.148541	68.102608	-47.148541	68.102608	-0.226409	-175.435488
5.050000	-0.111516	-72.986626	-46.959845	66.457290	-46.959845	66.457290	-0.229187	-176.961996
5.100000	-0.113189	-73.646119	-46.774479	64.814554	-46.774479	64.814554	-0.231992	-178.489123
5.150000	-0.114884	-74.304228	-46.592385	63.174453	-46.592385	63.174453	-0.234824	179.982961
5.200000	-0.116604	-74.960956	-46.413504	61.537044	-46.413504	61.537044	-0.237682	178.454086
5.250000	-0.118347	-75.616306	-46.237783	59.902383	-46.237783	59.902383	-0.240567	176.924088
5.300000	-0.120114	-76.270281	-46.065169	58.270531	-46.065169	58.270531	-0.243480	175.392802
5.350000	-0.121907	-76.922887	-45.895613	56.641548	-45.895613	56.641548	-0.246421	173.860067
5.400000	-0.123724	-77.574126	-45.729066	55.015498	-45.729066	55.015498	-0.249390	172.325723
5.450000	-0.125567	-78.224004	-45.565484	53.392449	-45.565484	53.392449	-0.252387	170.789613
5.500000	-0.127436	-78.872525	-45.404822	51.772471	-45.404822	51.772471	-0.255411	169.251583
5.550000	-0.129331	-79.519693	-45.247039	50.155638	-45.247039	50.155638	-0.258464	167.711481
5.600000	-0.131253	-80.165515	-45.092095	48.542030	-45.092095	48.542030	-0.261545	166.169159
5.650000	-0.133202	-80.809995	-44.939951	46.931730	-44.939951	46.931730	-0.264653	164.624470
5.700000	-0.135179	-81.453139	-44.790570	45.324826	-44.790570	45.324826	-0.267788	163.077271
5.750000	-0.137184	-82.094953	-44.643916	43.721412	-44.643916	43.721412	-0.270950	161.527422
5.800000	-0.139216	-82.735443	-44.499956	42.121585	-44.499956	42.121585	-0.274138	159.974785
5.850000	-0.141278	-83.374616	-44.358656	40.525452	-44.358656	40.525452	-0.277352	158.419226
5.900000	-0.143368	-84.012477	-44.219982	38.933121	-44.219982	38.933121	-0.280590	156.860616
5.950000	-0.145489	-84.649034	-44.083905	37.344710	-44.083905	37.344710	-0.283853	155.298825
6.000000	-0.147638	-85.284294	-43.950392	35.760339	-43.950392	35.760339	-0.287139	153.733731
6.050000	-0.149819	-85.918263	-43.819415	34.180138	-43.819415	34.180138	-0.290447	152.165214
6.100000	-0.152030	-86.550950	-43.690942	32.604241	-43.690942	32.604241	-0.293776	150.593156
6.150000	-0.154272	-87.182362	-43.564946	31.032789	-43.564946	31.032789	-0.297125	149.017446
6.200000	-0.156545	-87.812506	-43.441396	29.465928	-43.441396	29.465928	-0.300493	147.437975
6.250000	-0.158850	-88.441391	-43.320265	27.903812	-43.320265	27.903812	-0.303878	145.854639
6.300000	-0.161189	-89.068971	-43.201557	26.346819	-43.201557	26.346819	-0.307281	144.267160
6.350000	-0.163561	-89.695309	-43.085212	24.794909	-43.085212	24.794909	-0.310697	142.675612
6.400000	-0.165966	-90.320414	-42.971202	23.248254	-42.971202	23.248254	-0.314127	141.079905
6.450000	-0.168404	-90.944294	-42.859497	21.707029	-42.859497	21.707029	-0.317569	139.479954
6.500000	-0.170876	-91.566960	-42.750067	20.171416	-42.750067	20.171416	-0.321021	137.875676
6.550000	-0.173382	-92.188419	-42.642882	18.641600	-42.642882	18.641600	-0.324481	136.266998
6.600000	-0.175923	-92.808682	-42.537910	17.117773	-42.537910	17.117773	-0.327947	134.653849
6.650000	-0.178499	-93.427758	-42.435119	15.600128	-42.435119	15.600128	-0.331420	133.036164
6.700000	-0.181111	-94.045657	-42.334479	14.088865	-42.334479	14.088865	-0.334895	131.413885
6.750000	-0.183758	-94.662388	-42.235955	12.584183	-42.235955	12.584183	-0.338372	129.786957
6.800000	-0.186441	-95.277963	-42.139513	11.086289	-42.139513	11.086289	-0.341850	128.155333
6.850000	-0.189161	-95.892391	-42.045119	9.595387	-42.045119	9.595387	-0.345326	126.518972
6.900000	-0.191918	-96.505683	-41.952736	8.111686	-41.952736	8.111686	-0.348799	124.877839
6.950000	-0.194713	-97.117850	-41.862328	6.635397	-41.862328	6.635397	-0.352267	123.231905
7.000000	-0.197545	-97.728903	-41.773855	5.166728	-41.773855	5.166728	-0.355728	121.581149
7.050000	-0.200415	-98.338852	-41.687280	3.705891	-41.687280	3.705891	-0.359182	119.925554
7.100000	-0.203324	-98.947709	-41.602562	2.253096	-41.602562	2.253096	-0.362626	118.265114
7.150000	-0.206272	-99.555485	-41.519658	0.808553	-41.519658	0.808553	-0.366059	116.599826
7.200000	-0.209258	-100.162193	-41.438526	-0.627530	-41.438526	-0.627530	-0.369480	114.929697
7.250000	-0.212285	-100.767843	-41.359122	-2.054947	-41.359122	-2.054947	-0.372887	113.254741
7.300000	-0.215351	-101.372448	-41.281401	-3.473494	-41.281401	-3.473494	-0.376280	111.574979
7.350000	-0.218458	-101.976020	-41.205315	-4.882970	-41.205315	-4.882970	-0.379657	109.890439
7.400000	-0.221605	-102.578572	-41.130818	-6.283177	-41.130818	-6.283177	-0.383017	108.201158
7.450000	-0.224794	-103.180115	-41.057859	-7.673922	-41.057859	-7.673922	-0.386360	106.507181
7.500000	-0.228023	-103.780663	-40.986389	-9.055015	-40.986389	-9.055015	-0.389684	104.808561
7.550000	-0.231296	-104.380196	-40.916383	-10.425944	-40.916383	-10.425944	-0.392989	103.105213
7.600000	-0.234611	-104.978761	-40.847759	-11.786845	-40.847759	-11.786845	-0.396274	101.397357
7.650000	-0.237968	-105.576370	-40.780462	-13.137546	-40.780462	-13.137546	-0.399539	99.685073
7.700000	-0.241368	-106.173037	-40.714438	-14.477880	-40.714438	-14.477880	-0.402785	97.968448
7.750000	-0.244811	-106.768775	-40.649629	-15.807686	-40.649629	-15.807686	-0.406012	96.247576
7.800000	-0.248298	-107.363599	-40.585978	-17.126810	-40.585978	-17.126810	-0.409219	94.522563
7.850000	-0.251828	-107.957521	-40.523427	-18.435105	-40.523427	-18.435105	-0.412407	92.793522
7.900000	-0.255402	-108.550557	-40.461915	-19.732431	-40.461915	-19.732431	-0.415576	91.060573
7.950000	-0.259021	-109.142721	-40.401383	-21.018656	-40.401383	-21.018656	-0.418729	89.323848
8.000000	-0.262684	-109.734027	-40.341769	-22.293655	-40.341769	-22.293655	-0.421865	87.583484
8.050000	-0.266392	-110.324489	-40.283009	-23.557311	-40.283009	-23.557311	-0.424986	85.839629
8.100000	-0.270146	-110.914123	-40.225041	-24.809514	-40.225041	-24.809514	-0.428094	84.092439
8.150000	-0.273945	-111.502935	-40.167804	-26.050037	-40.167804	-26.050037	-0.431190	82.342046
8.200000	-0.277791	-112.090940	-40.111231	-27.278783	-40.111231	-27.278783	-0.434276	80.588627
8.250000	-0.281683	-112.678164	-40.055251	-28.495792	-40.055251	-28.495792	-0.437355	78.832400
8.300000	-0.285621	-113.264621	-39.999799	-29.700988	-39.999799	-29.700988	-0.440428	77.073553
8.350000	-0.289606	-113.850328	-39.944807	-30.894302	-39.944807	-30.894302	-0.443499	75.312285
8.400000	-0.293637	-114.435300	-39.890206	-32.075672	-39.890206	-32.075672	-0.446571	73.548799
8.450000	-0.297716	-115.019554	-39.835929	-33.245046	-39.835929	-33.245046	-0.449646	71.783308
8.500000	-0.301842	-115.603106	-39.781905	-34.402377	-39.781905	-34.402377	-0.452728	70.016033
8.550000	-0.306016	-116.185973	-39.728065	-35.547626	-39.728065	-35.547626	-0.455821	68.247201
8.600000	-0.310238	-116.768172	-39.674338	-36.680764	-39.674338	-36.680764	-0.458927	66.477044
8.650000	-0.314508	-117.349720	-39.620653	-37.801767	-39.620653	-37.801767	-0.462052	64.705804
8.700000	-0.318826	-117.930634	-39.566937	-38.910617	-39.566937	-38.910617	-0.465200	62.933727
8.750000	-0.323192	-118.510932	-39.513118	-40.007305	-39.513118	-40.007305	-0.468374	61.161065
8.800000	-0.327609	-119.090612	-39.459103	-41.091431	-39.459103	-41.091431	-0.471580	59.388073
8.850000	-0.332075	-119.669713	-39.404833	-42.163394	-39.404833	-42.163394	-0.474822	57.615036
8.900000	-0.336589	-120.248253	-39.350231	-43.223206	-39.350231	-43.223206	-0.478106	55.842222
8.950000	-0.341153	-120.826250	-39.295223	-44.270880	-39.295223	-44.270880	-0.481436	54.069905
9.000000	-0.345767	-121.403724	-39.239732	-45.306439	-39.239732	-45.306439	-0.484817	52.298360
9.050000	-0.350430	-121.980693	-39.183681	-46.329907	-39.183681	-46.329907	-0.488255	50.527869
9.100000	-0.355142	-122.557176	-39.126990	-47.341317	-39.126990	-47.341317	-0.491755	48.758715
9.150000	-0.359905	-123.133193	-39.069582	-48.340704	-39.069582	-48.340704	-0.495322	46.991184
9.200000	-0.364717	-123.708764	-39.011375	-49.328109	-39.011375	-49.328109	-0.498963	45.225566
9.250000	-0.369580	-124.283909	-38.952287	-50.303575	-38.952287	-50.303575	-0.502682	43.462150
9.300000	-0.374493	-124.858648	-38.892237	-51.267152	-38.892237	-51.267152	-0.506486	41.701228
9.350000	-0.379456	-125.433001	-38.831141	-52.218890	-38.831141	-52.218890	-0.510380	39.943094
9.400000	-0.384470	-126.006990	-38.768911	-53.158845	-38.768911	-53.158845	-0.514370	38.188039
9.450000	-0.389534	-126.580636	-38.705463	-54.087074	-38.705463	-54.087074	-0.518461	36.436358
9.500000	-0.394649	-127.153960	-38.640705	-55.003638	-38.640705	-55.003638	-0.522660	34.688343
9.550000	-0.399814	-127.726985	-38.574549	-55.908600	-38.574549	-55.908600	-0.526972	32.944286
9.600000	-0.405026	-128.299753	-38.507089	-56.803021	-38.507089	-56.803021	-0.531392	31.204077
9.650000	-0.410293	-128.872240	-38.437841	-57.684844	-38.437841	-57.684844	-0.535947	29.468831
9.700000	-0.415611	-129.444494	-38.366907	-58.555266	-38.366907	-58.555266	-0.540633	27.738415
9.750000	-0.420980	-130.016540	-38.294187	-59.414355	-38.294187	-59.414355	-0.545454	26.013112
9.800000	-0.426399	-130.588401	-38.219577	-60.262182	-38.219577	-60.262182	-0.550415	24.293201
9.850000	-0.431870	-131.160100	-38.142973	-61.098817	-38.142973	-61.098817	-0.555522	22.578961
9.900000	-0.437391	-131.731661	-38.064265	-61.924330	-38.064265	-61.924330	-0.560780	20.870663
9.950000	-0.442962	-132.303110	-37.983339	-62.738792	-37.983339	-62.738792	-0.566193	19.168575
10.000000	-0.448585	-132.874471	-37.900081	-63.542273	-37.900081	-63.542273	-0.571767	17.472963
