! freq	dB(S11)	phase(S11)	dB(S12)	phase(S12)	
!     	dB(S21)	phase(S21)	dB(S22)	phase(S22)	
!S-par simulation data
#  GHz  S  DB  R 50
0.000000	-0.000000	0.000000	-337.967742	0.000000	-337.967742	0.000000	-0.000000	0.000000
0.050000	-0.001298	-0.980709	-101.901649	88.432470	-101.901649	88.432470	-0.003294	-2.438545
0.100000	-0.003227	-1.952192	-95.939339	86.546746	-95.939339	86.546746	-0.007646	-4.847174
0.150000	-0.004601	-2.918596	-92.514352	84.838777	-92.514352	84.838777	-0.010788	-7.245991
0.200000	-0.005605	-3.883777	-90.136988	83.240732	-90.136988	83.240732	-0.013461	-9.641979
0.250000	-0.006437	-4.848690	-88.343575	81.731983	-88.343575	81.731983	-0.016041	-12.035112
0.300000	-0.007222	-5.813434	-86.940082	80.309017	-86.940082	80.309017	-0.018684	-14.423522
0.350000	-0.008022	-6.777939	-85.799480	78.951624	-85.799480	78.951624	-0.021401	-16.806984
0.400000	-0.008861	-7.742058	-84.865103	77.668894	-84.865103	77.668894	-0.024187	-19.184117
0.450000	-0.009753	-8.705665	-84.096833	76.469789	-84.096833	76.469789	-0.027023	-21.554016
0.500000	-0.010707	-9.668578	-83.475933	75.379199	-83.475933	75.379199	-0.029889	-23.915082
0.550000	-0.011721	-10.630734	-82.978776	74.412864	-82.978776	74.412864	-0.032764	-26.267077
0.600000	-0.012790	-11.592064	-82.590940	73.594592	-82.590940	73.594592	-0.035634	-28.609570
0.650000	-0.013911	-12.552495	-82.303924	72.957592	-82.303924	72.957592	-0.038490	-30.941979
0.700000	-0.015079	-13.511961	-82.111974	72.543927	-82.111974	72.543927	-0.041324	-33.263753
0.750000	-0.016289	-14.470405	-82.011295	72.407208	-82.011295	72.407208	-0.044132	-35.574375
0.800000	-0.017538	-15.427747	-82.001457	72.627119	-82.001457	72.627119	-0.046909	-37.873052
0.850000	-0.018820	-16.383860	-82.085657	73.337253	-82.085657	73.337253	-0.049651	-40.158438
0.900000	-0.020128	-17.338805	-82.252070	74.628885	-82.252070	74.628885	-0.052359	-42.431175
0.950000	-0.021456	-18.292548	-82.493643	76.662142	-82.493643	76.662142	-0.055032	-44.690848
1.000000	-0.022800	-19.245058	-82.796343	79.637597	-82.796343	79.637597	-0.057670	-46.937065
1.050000	-0.024155	-20.196308	-83.133375	83.790942	-83.133375	83.790942	-0.060270	-49.169462
1.100000	-0.025517	-21.146275	-83.457169	89.361722	-83.457169	89.361722	-0.062833	-51.387700
1.150000	-0.026882	-22.094840	-83.677256	96.622370	-83.677256	96.622370	-0.065355	-53.590379
1.200000	-0.028247	-23.042022	-83.679692	105.381379	-83.679692	105.381379	-0.067837	-55.777623
1.250000	-0.029609	-23.987860	-83.372754	114.999806	-83.372754	114.999806	-0.070278	-57.949804
1.300000	-0.030964	-24.932341	-82.718805	124.590977	-82.718805	124.590977	-0.072679	-60.106701
1.350000	-0.032312	-25.875450	-81.761845	133.284017	-81.761845	133.284017	-0.075038	-62.248116
1.400000	-0.033650	-26.817174	-80.599087	140.540417	-80.599087	140.540417	-0.077356	-64.373882
1.450000	-0.034977	-27.757491	-79.330868	146.212415	-79.330868	146.212415	-0.079630	-66.483758
1.500000	-0.036291	-28.696241	-78.016985	150.305893	-78.016985	150.305893	-0.081858	-68.575958
1.550000	-0.037594	-29.633566	-76.730733	153.238799	-76.730733	153.238799	-0.084042	-70.652144
1.600000	-0.038883	-30.569452	-75.494097	155.244853	-75.494097	155.244853	-0.086183	-72.712256
1.650000	-0.040161	-31.503887	-74.316191	156.521039	-74.316191	156.521039	-0.088281	-74.756258
1.700000	-0.041426	-32.436769	-73.194531	157.197708	-73.194531	157.197708	-0.090334	-76.783186
1.750000	-0.042681	-33.368190	-72.134196	157.438372	-72.134196	157.438372	-0.092346	-78.794218
1.800000	-0.043924	-34.298091	-71.129469	157.320265	-71.129469	157.320265	-0.094317	-80.788911
1.850000	-0.045158	-35.226455	-70.176592	156.916038	-70.176592	156.916038	-0.096246	-82.767317
1.900000	-0.046383	-36.153266	-69.271645	156.281491	-69.271645	156.281491	-0.098136	-84.729510
1.950000	-0.047600	-37.078505	-68.410834	155.459851	-68.410834	155.459851	-0.099988	-86.675582
2.000000	-0.048811	-38.002155	-67.590619	154.484934	-67.590619	154.484934	-0.101804	-88.605642
2.050000	-0.050017	-38.924197	-66.807759	153.383460	-66.807759	153.383460	-0.103584	-90.519816
2.100000	-0.051218	-39.844611	-66.059324	152.176753	-66.059324	152.176753	-0.105331	-92.418249
2.150000	-0.052417	-40.763378	-65.342671	150.881991	-65.342671	150.881991	-0.107047	-94.301096
2.200000	-0.053614	-41.680478	-64.655429	149.513136	-64.655429	149.513136	-0.108735	-96.168529
2.250000	-0.054810	-42.595891	-63.995463	148.081634	-63.995463	148.081634	-0.110395	-98.020731
2.300000	-0.056007	-43.509598	-63.360856	146.596936	-63.360856	146.596936	-0.112030	-99.857899
2.350000	-0.057205	-44.421578	-62.749881	145.066908	-62.749881	145.066908	-0.113643	-101.680239
2.400000	-0.058406	-45.331812	-62.160978	143.498133	-62.160978	143.498133	-0.115236	-103.487968
2.450000	-0.059611	-46.240281	-61.592734	141.896158	-61.592734	141.896158	-0.116812	-105.281312
2.500000	-0.060820	-47.146966	-61.043870	140.265683	-61.043870	140.265683	-0.118371	-107.060507
2.550000	-0.062034	-48.051768	-60.512602	138.609799	-60.512602	138.609799	-0.119918	-108.825202
2.600000	-0.063254	-48.954748	-59.998574	136.933095	-59.998574	136.933095	-0.121454	-110.576263
2.650000	-0.064481	-49.855888	-59.500804	135.238449	-59.500804	135.238449	-0.122982	-112.313948
2.700000	-0.065715	-50.755172	-59.018392	133.528348	-59.018392	133.528348	-0.124504	-114.038519
2.750000	-0.066958	-51.652583	-58.550513	131.804943	-58.550513	131.804943	-0.126022	-115.750246
2.800000	-0.068209	-52.548107	-58.096408	130.070105	-58.096408	130.070105	-0.127539	-117.449401
2.850000	-0.069468	-53.441729	-57.655378	128.325461	-57.655378	128.325461	-0.129057	-119.136262
2.900000	-0.070738	-54.333435	-57.226777	126.572431	-57.226777	126.572431	-0.130577	-120.811109
2.950000	-0.072017	-55.223212	-56.810006	124.812258	-56.810006	124.812258	-0.132103	-122.474228
3.000000	-0.073307	-56.111049	-56.404512	123.046029	-56.404512	123.046029	-0.133635	-124.125905
3.050000	-0.074607	-56.996934	-56.009780	121.274698	-56.009780	121.274698	-0.135176	-125.766432
3.100000	-0.075919	-57.880857	-55.625331	119.499105	-55.625331	119.499105	-0.136727	-127.396099
3.150000	-0.077242	-58.762809	-55.250720	117.719986	-55.250720	117.719986	-0.138291	-129.015202
3.200000	-0.078577	-59.642781	-54.885530	115.937990	-54.885530	115.937990	-0.139868	-130.624036
3.250000	-0.079925	-60.520766	-54.529373	114.153691	-54.529373	114.153691	-0.141460	-132.222899
3.300000	-0.081285	-61.396756	-54.181885	112.367591	-54.181885	112.367591	-0.143070	-133.812089
3.350000	-0.082658	-62.270746	-53.842726	110.580136	-53.842726	110.580136	-0.144697	-135.391907
3.400000	-0.084044	-63.142730	-53.511576	108.791718	-53.511576	108.791718	-0.146344	-136.962653
3.450000	-0.085443	-64.012705	-53.188135	107.002683	-53.188135	107.002683	-0.148011	-138.524628
3.500000	-0.086857	-64.880667	-52.872122	105.213336	-52.872122	105.213336	-0.149701	-140.078135
3.550000	-0.088285	-65.746613	-52.563272	103.423947	-52.563272	103.423947	-0.151413	-141.623474
3.600000	-0.089727	-66.610542	-52.261334	101.634752	-52.261334	101.634752	-0.153149	-143.160950
3.650000	-0.091185	-67.472451	-51.966075	99.845962	-51.966075	99.845962	-0.154910	-144.690865
3.700000	-0.092658	-68.332342	-51.677271	98.057759	-51.677271	98.057759	-0.156697	-146.213522
3.750000	-0.094146	-69.190215	-51.394715	96.270305	-51.394715	96.270305	-0.158510	-147.729224
3.800000	-0.095652	-70.045982	-51.118087	94.483787	-51.118087	94.483787	-0.160351	-149.238001
3.850000	-0.097174	-70.899734	-50.847337	92.698293	-50.847337	92.698293	-0.162221	-150.740458
3.900000	-0.098713	-71.751474	-50.582286	90.913930	-50.582286	90.913930	-0.164119	-152.236899
3.950000	-0.100269	-72.601204	-50.322766	89.130791	-50.322766	89.130791	-0.166046	-153.727628
4.000000	-0.101844	-73.448930	-50.068617	87.348955	-50.068617	87.348955	-0.168004	-155.212949
4.050000	-0.103436	-74.294656	-49.819687	85.568493	-49.819687	85.568493	-0.169991	-156.693167
4.100000	-0.105047	-75.138387	-49.575833	83.789462	-49.575833	83.789462	-0.172009	-158.168587
4.150000	-0.106678	-75.980130	-49.336919	82.011914	-49.336919	82.011914	-0.174058	-159.639513
4.200000	-0.108328	-76.819891	-49.102816	80.235892	-49.102816	80.235892	-0.176139	-161.106251
4.250000	-0.109999	-77.657677	-48.873400	78.461429	-48.873400	78.461429	-0.178252	-162.569108
4.300000	-0.111690	-78.493497	-48.648556	76.688555	-48.648556	76.688555	-0.180396	-164.028390
4.350000	-0.113402	-79.327360	-48.428172	74.917293	-48.428172	74.917293	-0.182574	-165.484406
4.400000	-0.115136	-80.159274	-48.212143	73.147659	-48.212143	73.147659	-0.184784	-166.937465
4.450000	-0.116893	-80.989249	-48.000369	71.379666	-48.000369	71.379666	-0.187028	-168.387876
4.500000	-0.118672	-81.817296	-47.792756	69.613322	-47.792756	69.613322	-0.189305	-169.835950
4.550000	-0.120474	-82.643426	-47.589213	67.848629	-47.589213	67.848629	-0.191616	-171.282002
4.600000	-0.122301	-83.467651	-47.389654	66.085587	-47.389654	66.085587	-0.193961	-172.726346
4.650000	-0.124151	-84.289982	-47.193997	64.324191	-47.193997	64.324191	-0.196340	-174.169298
4.700000	-0.126027	-85.110433	-47.002166	62.564435	-47.002166	62.564435	-0.198754	-175.611177
4.750000	-0.127929	-85.929017	-46.814087	60.806305	-46.814087	60.806305	-0.201203	-177.052306
4.800000	-0.129856	-86.745748	-46.629691	59.049788	-46.629691	59.049788	-0.203688	-178.493008
4.850000	-0.131810	-87.560640	-46.448911	57.294866	-46.448911	57.294866	-0.206209	-179.933611
4.900000	-0.133792	-88.373709	-46.271685	55.541519	-46.271685	55.541519	-0.208765	178.625554
4.950000	-0.135801	-89.184971	-46.097954	53.789722	-46.097954	53.789722	-0.211359	177.184153
5.000000	-0.137839	-89.994441	-45.927663	52.039449	-45.927663	52.039449	-0.213989	175.741845
5.050000	-0.139906	-90.802060	-45.760768	50.290733	-45.760768	50.290733	-0.216659	174.298216
5.100000	-0.142004	-91.607923	-45.597218	48.543475	-45.597218	48.543475	-0.219368	172.852957
5.150000	-0.144131	-92.412048	-45.436966	46.797639	-45.436966	46.797639	-0.222115	171.405711
5.200000	-0.146288	-93.214453	-45.279970	45.053186	-45.279970	45.053186	-0.224903	169.956117
5.250000	-0.148477	-94.015157	-45.126190	43.310072	-45.126190	43.310072	-0.227731	168.503807
5.300000	-0.150697	-94.814180	-44.975589	41.568252	-44.975589	41.568252	-0.230601	167.048403
5.350000	-0.152949	-95.611540	-44.828132	39.827676	-44.828132	39.827676	-0.233513	165.589522
5.400000	-0.155234	-96.407259	-44.683790	38.088291	-44.683790	38.088291	-0.236469	164.126769
5.450000	-0.157551	-97.201356	-44.542533	36.350040	-44.542533	36.350040	-0.239471	162.659742
5.500000	-0.159901	-97.993853	-44.404338	34.612860	-44.404338	34.612860	-0.242519	161.188025
5.550000	-0.162285	-98.784770	-44.269183	32.876688	-44.269183	32.876688	-0.245615	159.711191
5.600000	-0.164703	-99.574130	-44.137050	31.141451	-44.137050	31.141451	-0.248762	158.228801
5.650000	-0.167156	-100.361953	-44.007924	29.407074	-44.007924	29.407074	-0.251960	156.740401
5.700000	-0.169643	-101.148263	-43.881793	27.673476	-43.881793	27.673476	-0.255213	155.245521
5.750000	-0.172165	-101.933083	-43.758649	25.940569	-43.758649	25.940569	-0.258522	153.743671
5.800000	-0.174723	-102.716435	-43.638489	24.208259	-43.638489	24.208259	-0.261892	152.234346
5.850000	-0.177318	-103.498342	-43.521312	22.476445	-43.521312	22.476445	-0.265323	150.717017
5.900000	-0.179948	-104.278828	-43.407121	20.745017	-43.407121	20.745017	-0.268822	149.191132
5.950000	-0.182615	-105.057918	-43.295927	19.013857	-43.295927	19.013857	-0.272390	147.656111
6.000000	-0.185319	-105.835635	-43.187740	17.282836	-43.187740	17.282836	-0.276033	146.111348
6.050000	-0.188061	-106.612005	-43.082581	15.551814	-43.082581	15.551814	-0.279756	144.556202
6.100000	-0.190840	-107.387053	-42.980471	13.820639	-42.980471	13.820639	-0.283564	142.989997
6.150000	-0.193658	-108.160804	-42.881441	12.089144	-42.881441	12.089144	-0.287463	141.412016
6.200000	-0.196514	-108.933284	-42.785527	10.357148	-42.785527	10.357148	-0.291462	139.821497
6.250000	-0.199410	-109.704519	-42.692773	8.624449	-42.692773	8.624449	-0.295567	138.217624
6.300000	-0.202346	-110.474485	-42.603334	6.890774	-42.603334	6.890774	-0.299795	136.598864
6.350000	-0.205322	-111.243261	-42.517178	5.155904	-42.517178	5.155904	-0.304150	134.964848
6.400000	-0.208338	-112.010877	-42.434379	3.419560	-42.434379	3.419560	-0.308646	133.314550
6.450000	-0.211395	-112.777359	-42.355019	1.681433	-42.355019	1.681433	-0.313297	131.646858
6.500000	-0.214492	-113.542736	-42.279196	-0.058827	-42.279196	-0.058827	-0.318119	129.960555
6.550000	-0.217631	-114.307036	-42.207022	-1.801614	-42.207022	-1.801614	-0.323132	128.254309
6.600000	-0.220811	-115.070288	-42.138629	-3.547373	-42.138629	-3.547373	-0.328358	126.526650
6.650000	-0.224034	-115.832522	-42.074166	-5.296613	-42.074166	-5.296613	-0.333823	124.775951
6.700000	-0.227293	-116.593878	-42.013362	-7.049377	-42.013362	-7.049377	-0.339525	123.003481
6.750000	-0.230602	-117.354119	-41.957470	-8.807560	-41.957470	-8.807560	-0.345578	121.200022
6.800000	-0.233952	-118.113499	-41.905822	-10.570835	-41.905822	-10.570835	-0.351958	119.369508
6.850000	-0.237346	-118.871942	-41.859206	-12.340777	-41.859206	-12.340777	-0.358758	117.505824
6.900000	-0.240783	-119.629530	-41.817680	-14.118033	-41.817680	-14.118033	-0.366019	115.607894
6.950000	-0.244264	-120.386295	-41.781642	-15.903825	-41.781642	-15.903825	-0.373819	113.672277
7.000000	-0.247791	-121.142220	-41.751898	-17.700156	-41.751898	-17.700156	-0.382289	111.692590
7.050000	-0.251359	-121.897429	-41.728291	-19.507445	-41.728291	-19.507445	-0.391467	109.669368
7.100000	-0.254977	-122.651824	-41.712749	-21.330047	-41.712749	-21.330047	-0.401654	107.588168
7.150000	-0.258636	-123.405576	-41.704658	-23.167548	-41.704658	-23.167548	-0.412853	105.452994
7.200000	-0.262345	-124.158600	-41.706634	-25.026086	-41.706634	-25.026086	-0.425529	103.244558
7.250000	-0.266097	-124.911016	-41.718726	-26.906502	-41.718726	-26.906502	-0.439813	100.962492
7.300000	-0.269897	-125.662811	-41.743596	-28.815233	-41.743596	-28.815233	-0.456292	98.587793
7.350000	-0.273743	-126.414029	-41.783316	-30.757248	-41.783316	-30.757248	-0.475519	96.106445
7.400000	-0.277635	-127.164725	-41.840340	-32.737932	-41.840340	-32.737932	-0.498199	93.502687
7.450000	-0.281577	-127.914881	-41.920855	-34.770126	-41.920855	-34.770126	-0.525922	90.735908
7.500000	-0.285563	-128.664606	-42.026826	-36.855605	-42.026826	-36.855605	-0.559485	87.798098
7.550000	-0.289599	-129.413858	-42.171286	-39.016602	-42.171286	-39.016602	-0.602524	84.609029
7.600000	-0.293684	-130.162700	-42.365248	-41.263370	-42.365248	-41.263370	-0.658632	81.112235
7.650000	-0.297817	-130.911161	-42.628653	-43.609399	-42.628653	-43.609399	-0.734303	77.207575
7.700000	-0.301999	-131.659267	-42.994123	-46.059178	-42.994123	-46.059178	-0.840570	72.744577
7.750000	-0.306227	-132.407043	-43.515774	-48.581587	-43.515774	-48.581587	-0.996293	67.501775
7.800000	-0.310503	-133.154491	-44.304214	-51.017500	-44.304214	-51.017500	-1.241484	61.065324
7.850000	-0.314818	-133.901616	-45.571414	-52.716322	-45.571414	-52.716322	-1.655469	52.780940
7.900000	-0.319160	-134.648407	-47.776588	-50.766986	-47.776588	-50.766986	-2.429136	41.382475
7.950000	-0.323497	-135.394902	-51.137247	-30.200061	-51.137247	-30.200061	-4.069270	24.340159
8.000000	-0.327776	-136.141427	-48.511727	15.174177	-48.511727	15.174177	-8.149852	-4.930558
8.050000	-0.332028	-136.888793	-42.696678	16.971413	-42.696678	16.971413	-16.920385	-103.575604
8.100000	-0.336473	-137.637291	-39.808128	1.888989	-39.808128	1.888989	-7.972653	163.300039
8.150000	-0.341118	-138.385804	-38.831642	-12.192025	-38.831642	-12.192025	-4.062749	134.810647
8.200000	-0.345861	-139.133773	-38.627840	-22.333885	-38.627840	-22.333885	-2.484899	118.015040
8.250000	-0.350649	-139.881455	-38.680154	-29.523484	-38.680154	-29.523484	-1.740597	106.620331
8.300000	-0.355471	-140.629094	-38.807988	-34.851118	-38.807988	-34.851118	-1.345787	98.186842
8.350000	-0.360329	-141.376837	-38.951829	-39.007843	-38.951829	-39.007843	-1.117312	91.500417
8.400000	-0.365228	-142.124770	-39.092907	-42.405727	-39.092907	-42.405727	-0.975948	85.895712
8.450000	-0.370170	-142.872972	-39.225631	-45.264694	-39.225631	-45.264694	-0.886129	81.022463
8.500000	-0.375157	-143.621477	-39.350171	-47.760375	-39.350171	-47.760375	-0.825997	76.613112
8.550000	-0.380190	-144.370342	-39.467120	-49.970990	-39.467120	-49.970990	-0.786079	72.540816
8.600000	-0.385271	-145.119613	-39.577750	-51.957948	-39.577750	-51.957948	-0.759947	68.706513
8.650000	-0.390401	-145.869336	-39.683275	-53.762370	-39.683275	-53.762370	-0.743635	65.041409
8.700000	-0.395579	-146.619556	-39.784708	-55.412228	-39.784708	-55.412228	-0.734608	61.496143
8.750000	-0.400807	-147.370317	-39.882823	-56.926696	-39.882823	-56.926696	-0.731193	58.034231
8.800000	-0.406086	-148.121678	-39.978082	-58.316440	-39.978082	-58.316440	-0.732342	54.628688
8.850000	-0.411415	-148.873674	-40.070878	-59.593015	-40.070878	-59.593015	-0.737178	51.256489
8.900000	-0.416794	-149.626351	-40.161292	-60.762072	-40.161292	-60.762072	-0.745176	47.900688
8.950000	-0.422224	-150.379753	-40.249202	-61.827126	-40.249202	-61.827126	-0.755968	44.547452
9.000000	-0.427704	-151.133928	-40.334287	-62.790173	-40.334287	-62.790173	-0.769304	41.185265
9.050000	-0.433235	-151.888923	-40.416026	-63.652182	-40.416026	-63.652182	-0.785011	37.804355
9.100000	-0.438816	-152.644784	-40.493700	-64.413512	-40.493700	-64.413512	-0.802980	34.396284
9.150000	-0.444449	-153.401561	-40.566394	-65.074291	-40.566394	-65.074291	-0.823147	30.953644
9.200000	-0.450131	-154.159300	-40.632998	-65.634774	-40.632998	-65.634774	-0.845480	27.469838
9.250000	-0.455865	-154.918050	-40.692211	-66.095703	-40.692211	-66.095703	-0.869976	23.938913
9.300000	-0.461649	-155.677861	-40.742559	-66.458670	-40.742559	-66.458670	-0.896650	20.355440
9.350000	-0.467484	-156.438782	-40.782415	-66.726478	-40.782415	-66.726478	-0.925531	16.714424
9.400000	-0.473369	-157.200875	-40.809881	-66.902575	-40.809881	-66.902575	-0.956685	13.010513
9.450000	-0.479306	-157.964193	-40.823080	-66.993506	-40.823080	-66.993506	-0.990157	9.239271
9.500000	-0.485293	-158.728774	-40.820326	-67.008827	-40.820326	-67.008827	-1.025975	5.397390
9.550000	-0.491330	-159.494669	-40.799873	-66.959443	-40.799873	-66.959443	-1.064186	1.481171
9.600000	-0.497417	-160.261930	-40.760134	-66.858630	-40.760134	-66.858630	-1.104832	-2.512803
9.650000	-0.503554	-161.030608	-40.699781	-66.721918	-40.699781	-66.721918	-1.147949	-6.587661
9.700000	-0.509741	-161.800756	-40.617826	-66.566800	-40.617826	-66.566800	-1.193558	-10.746217
9.750000	-0.515977	-162.572427	-40.513706	-66.412270	-40.513706	-66.412270	-1.241664	-14.990954
9.800000	-0.522263	-163.345675	-40.387339	-66.278217	-40.387339	-66.278217	-1.292253	-19.323982
9.850000	-0.528597	-164.120552	-40.239156	-66.184717	-40.239156	-66.184717	-1.345282	-23.747001
9.900000	-0.534981	-164.897114	-40.070104	-66.151275	-40.070104	-66.151275	-1.400680	-28.261254
9.950000	-0.541413	-165.675416	-39.881618	-66.196093	-39.881618	-66.196093	-1.458341	-32.867475
10.000000	-0.547893	-166.455511	-39.675556	-66.335430	-39.675556	-66.335430	-1.518119	-37.565836
