! freq	dB(S11)	phase(S11)	dB(S12)	phase(S12)	
!     	dB(S21)	phase(S21)	dB(S22)	phase(S22)	
!S-par simulation data
#  GHz  S  DB  R 50
0.000000	-157.607697	180.000000	-0.000000	0.000000	-0.000000	0.000000	-6153.053111	0.000000
0.050000	-30.670405	-93.698223	-0.006804	-3.494293	-0.006804	-3.494293	-30.669794	-93.492840
0.100000	-24.677416	-97.374596	-0.024879	-6.959750	-0.024879	-6.959750	-24.676371	-96.965085
0.150000	-21.199153	-101.013403	-0.050657	-10.391235	-0.050657	-10.391235	-21.197596	-100.401468
0.200000	-18.758171	-104.606243	-0.082400	-13.794653	-0.082400	-13.794653	-18.756186	-103.793167
0.250000	-16.889561	-108.152040	-0.119586	-17.174516	-0.119586	-17.174516	-16.887307	-107.138247
0.300000	-15.386211	-111.652188	-0.162153	-20.530838	-0.162153	-20.530838	-15.383839	-110.437330
0.350000	-14.136350	-115.110344	-0.209818	-23.862269	-0.209818	-23.862269	-14.133959	-113.693621
0.400000	-13.074098	-118.528254	-0.262347	-27.165934	-0.262347	-27.165934	-13.071737	-116.908659
0.450000	-12.158167	-121.905392	-0.319545	-30.437517	-0.319545	-30.437517	-12.155843	-120.081839
0.500000	-11.357631	-125.244297	-0.380739	-33.676003	-0.380739	-33.676003	-11.355324	-123.215808
0.550000	-10.651622	-128.545006	-0.445442	-36.879313	-0.445442	-36.879313	-10.649298	-126.310679
0.600000	-10.025901	-131.805511	-0.513230	-40.043999	-0.513230	-40.043999	-10.023523	-129.364478
0.650000	-9.467484	-135.027003	-0.583443	-43.170184	-0.583443	-43.170184	-9.465018	-132.378482
0.700000	-8.966764	-138.209781	-0.655514	-46.257549	-0.655514	-46.257549	-8.964182	-135.353028
0.750000	-8.516988	-141.352719	-0.728912	-49.304573	-0.728912	-49.304573	-8.514267	-138.286979
0.800000	-8.111898	-144.456230	-0.803068	-52.311447	-0.803068	-52.311447	-8.109026	-141.180747
0.850000	-7.746104	-147.521343	-0.877442	-55.279110	-0.877442	-55.279110	-7.743075	-144.035354
0.900000	-7.415292	-150.548930	-0.951530	-58.208409	-0.951530	-58.208409	-7.412106	-146.851645
0.950000	-7.115936	-153.539833	-1.024847	-61.100210	-1.024847	-61.100210	-7.112600	-149.630427
1.000000	-6.844950	-156.495256	-1.096937	-63.955769	-1.096937	-63.955769	-6.841476	-152.372864
1.050000	-6.599681	-159.416585	-1.167373	-66.776553	-1.167373	-66.776553	-6.596082	-155.080304
1.100000	-6.377832	-162.305373	-1.235760	-69.564201	-1.235760	-69.564201	-6.374126	-157.754255
1.150000	-6.177409	-165.163313	-1.301731	-72.320499	-1.301731	-72.320499	-6.173615	-160.396367
1.200000	-5.996677	-167.992214	-1.364950	-75.047355	-1.364950	-75.047355	-5.992814	-163.008408
1.250000	-5.834120	-170.793986	-1.425111	-77.746778	-1.425111	-77.746778	-5.830207	-165.592246
1.300000	-5.688706	-173.570122	-1.481850	-80.420353	-1.481850	-80.420353	-5.684762	-168.149308
1.350000	-5.558963	-176.323269	-1.534995	-83.070831	-1.534995	-83.070831	-5.555006	-170.682229
1.400000	-5.443888	-179.055536	-1.584324	-85.700415	-1.584324	-85.700415	-5.439933	-173.193084
1.450000	-5.342608	178.230931	-1.629641	-88.311341	-1.629641	-88.311341	-5.338669	-175.683986
1.500000	-5.254371	175.533961	-1.670774	-90.905874	-1.670774	-90.905874	-5.250459	-178.157084
1.550000	-5.178531	172.851363	-1.707572	-93.486294	-1.707572	-93.486294	-5.174656	179.385452
1.600000	-5.114541	170.180936	-1.739907	-96.054895	-1.739907	-96.054895	-5.110709	176.941434
1.650000	-5.061942	167.520472	-1.767674	-98.613979	-1.767674	-98.613979	-5.058160	174.508659
1.700000	-5.020362	164.867765	-1.790784	-101.165848	-1.790784	-101.165848	-5.016632	172.084919
1.750000	-4.989506	162.220613	-1.809169	-103.712809	-1.809169	-103.712809	-4.985829	169.667996
1.800000	-4.969156	159.576822	-1.822782	-106.257163	-1.822782	-106.257163	-4.965532	167.255669
1.850000	-4.959163	156.934211	-1.831589	-108.801212	-1.831589	-108.801212	-4.955592	164.845714
1.900000	-4.960902	154.290156	-1.834898	-111.347872	-1.834898	-111.347872	-4.957383	162.435599
1.950000	-4.971583	151.643051	-1.834025	-113.898607	-1.834025	-113.898607	-4.968114	160.023335
2.000000	-4.992609	148.990642	-1.828361	-116.455962	-1.828361	-116.455962	-4.989189	157.606713
2.050000	-5.024113	146.330832	-1.817947	-119.022220	-1.817947	-119.022220	-5.020744	155.183507
2.100000	-5.065369	143.662590	-1.803244	-121.598444	-1.803244	-121.598444	-5.062052	152.752489
2.150000	-5.118618	140.981844	-1.783463	-124.189291	-1.783463	-124.189291	-5.115359	150.309486
2.200000	-5.183191	138.287569	-1.759159	-126.795888	-1.759159	-126.795888	-5.179996	147.853173
2.250000	-5.259527	135.577835	-1.730447	-129.420477	-1.730447	-129.420477	-5.256410	145.381330
2.300000	-5.348156	132.850777	-1.697460	-132.065286	-1.697460	-132.065286	-5.345134	142.891747
2.350000	-5.449705	130.104607	-1.660355	-134.732521	-1.660355	-134.732521	-5.446800	140.382224
2.400000	-5.564902	127.337634	-1.619306	-137.424361	-1.619306	-137.424361	-5.562145	137.850576
2.450000	-5.694593	124.548282	-1.574515	-140.142955	-1.574515	-140.142955	-5.692023	135.294638
2.500000	-5.839748	121.735113	-1.526205	-142.890404	-1.526205	-142.890404	-5.837416	132.712273
2.550000	-6.001801	118.896293	-1.474553	-145.669480	-1.474553	-145.669480	-5.999769	130.100714
2.600000	-6.181741	116.031304	-1.419917	-148.481536	-1.419917	-148.481536	-6.180088	127.458479
2.650000	-6.381033	113.139370	-1.362600	-151.328470	-1.362600	-151.328470	-6.379856	124.783573
2.700000	-6.601352	110.220041	-1.302934	-154.212083	-1.302934	-154.212083	-6.600771	122.074067
2.750000	-6.844617	107.273261	-1.241278	-157.134057	-1.241278	-157.134057	-6.844782	119.328110
2.800000	-7.113035	104.299470	-1.178020	-160.095932	-1.178020	-160.095932	-7.114129	116.543945
2.850000	-7.409148	101.299716	-1.113575	-163.099088	-1.113575	-163.099088	-7.411402	113.719915
2.900000	-7.735905	98.275818	-1.048388	-166.144712	-1.048388	-166.144712	-7.739607	110.854475
2.950000	-8.096746	95.230564	-0.982928	-169.233774	-0.982928	-169.233774	-8.102260	107.946189
3.000000	-8.495712	92.167988	-0.917690	-172.366999	-0.917690	-172.366999	-8.503504	104.993733
3.050000	-8.937595	89.093742	-0.853192	-175.544833	-0.853192	-175.544833	-8.948265	101.995866
3.100000	-9.428140	86.015618	-0.789971	-178.767419	-0.789971	-178.767419	-9.442478	98.951393
3.150000	-9.974602	82.944551	-0.728597	177.964958	-0.728597	177.964958	-9.993670	95.858550
3.200000	-10.585609	79.895981	-0.669654	174.652886	-0.669654	174.652886	-10.610865	92.715875
3.250000	-11.271672	76.890928	-0.613689	171.297814	-0.613689	171.297814	-11.305152	89.522029
3.300000	-12.046591	73.959498	-0.561263	167.901112	-0.561263	167.901112	-12.091247	86.274281
3.350000	-12.928475	71.145917	-0.512925	164.464563	-0.512925	164.464563	-12.988751	82.968256
3.400000	-13.941769	68.517677	-0.469202	160.990367	-0.469202	160.990367	-14.024680	79.596508
3.450000	-15.120604	66.183046	-0.430593	157.481137	-0.430593	157.481137	-15.237894	76.145702
3.500000	-16.514526	64.327250	-0.397559	153.939878	-0.397559	153.939878	-16.687422	72.590549
3.550000	-18.198694	63.294864	-0.370514	150.369969	-0.370514	150.369969	-18.469682	68.879126
3.600000	-20.291885	63.801662	-0.349816	146.775117	-0.349816	146.775117	-20.759129	64.890857
3.650000	-22.980821	67.564735	-0.335761	143.159320	-0.335761	143.159320	-23.925185	60.280797
3.700000	-26.454813	79.390213	-0.328575	139.526800	-0.328575	139.526800	-29.004153	53.553064
3.750000	-29.706201	111.135606	-0.328410	135.881949	-0.328410	135.881949	-41.837919	23.530376
3.800000	-28.202928	152.925191	-0.335494	132.229189	-0.335494	132.229189	-33.024953	-113.024241
3.850000	-24.502257	172.305173	-0.349662	128.573296	-0.349662	128.573296	-25.940106	-123.744812
3.900000	-21.453222	178.879896	-0.370825	124.918721	-0.370825	124.918721	-22.087243	-128.992465
3.950000	-19.104951	-179.480975	-0.398816	121.269783	-0.398816	121.269783	-19.448551	-133.202587
4.000000	-17.243408	179.979876	-0.433397	117.630609	-0.433397	117.630609	-17.452546	-137.020575
4.050000	-15.720732	178.324238	-0.474263	114.005064	-0.474263	114.005064	-15.857102	-140.638348
4.100000	-14.444178	176.031115	-0.521052	110.396711	-0.521052	110.396711	-14.536739	-144.131751
4.150000	-13.353833	173.345682	-0.573350	106.808762	-0.573350	106.808762	-13.417877	-147.535840
4.200000	-12.409238	170.405997	-0.630702	103.244049	-0.630702	103.244049	-12.453559	-150.868452
4.250000	-11.581912	167.295670	-0.692618	99.705003	-0.692618	99.705003	-11.611896	-154.139258
4.300000	-10.851065	164.068250	-0.758586	96.193647	-0.758586	96.193647	-10.870177	-157.353757
4.350000	-10.201045	160.759541	-0.828077	92.711592	-0.828077	92.711592	-10.211598	-160.515229
4.400000	-9.620017	157.393862	-0.900576	89.260387	-0.900576	89.260387	-9.623601	-163.625211
4.450000	-9.098383	153.989114	-0.975527	85.840864	-0.975527	85.840864	-9.096110	-166.685182
4.500000	-8.628159	150.558203	-1.052377	82.453120	-1.052377	82.453120	-8.620817	-169.696812
4.550000	-8.203031	147.110041	-1.130612	79.097241	-1.130612	79.097241	-8.191184	-172.661098
4.600000	-7.817752	143.651065	-1.209735	75.773005	-1.209735	75.773005	-7.801804	-175.579024
4.650000	-7.467912	140.185861	-1.289270	72.479904	-1.289270	72.479904	-7.448149	-178.451613
4.700000	-7.149762	136.717607	-1.368766	69.217181	-1.368766	69.217181	-7.126383	178.720042
4.750000	-6.860092	133.248383	-1.447799	65.983859	-1.447799	65.983859	-6.833228	175.934771
4.800000	-6.596129	129.779410	-1.525970	62.778766	-1.525970	62.778766	-6.565857	173.191325
4.850000	-6.355463	126.311223	-1.602911	59.600568	-1.602911	59.600568	-6.321818	170.488382
4.900000	-6.135990	122.843810	-1.678283	56.447793	-1.678283	56.447793	-6.098973	167.824560
4.950000	-5.935863	119.376718	-1.751773	53.318853	-1.751773	53.318853	-5.895444	165.198431
5.000000	-5.753454	115.909134	-1.823101	50.212068	-1.823101	50.212068	-5.709580	162.608530
5.050000	-5.587590	112.439891	-1.891941	47.126085	-1.891941	47.126085	-5.540178	160.054092
5.100000	-5.436708	108.967646	-1.958126	44.058609	-1.958126	44.058609	-5.385659	157.532835
5.150000	-5.299681	105.490859	-2.021457	41.007787	-2.021457	41.007787	-5.244878	155.043267
5.200000	-5.175510	102.007836	-2.081755	37.971738	-2.081755	37.971738	-5.116815	152.583911
5.250000	-5.063307	98.516757	-2.138868	34.948566	-2.138868	34.948566	-5.000563	150.153316
5.300000	-4.962281	95.015705	-2.192664	31.936368	-2.192664	31.936368	-4.895311	147.750058
5.350000	-4.871730	91.502675	-2.243032	28.933243	-2.243032	28.933243	-4.800338	145.372754
5.400000	-4.791031	87.975602	-2.289879	25.937298	-2.289879	25.937298	-4.714997	143.020064
5.450000	-4.719629	84.432362	-2.333132	22.946654	-2.333132	22.946654	-4.638712	140.690698
5.500000	-4.657036	80.870790	-2.372736	19.959448	-2.372736	19.959448	-4.570968	138.383421
5.550000	-4.602818	77.288685	-2.408651	16.973843	-2.408651	16.973843	-4.511308	136.097053
5.600000	-4.556596	73.683817	-2.440851	13.988025	-2.440851	13.988025	-4.459321	133.830476
5.650000	-4.518116	70.053636	-2.469287	11.000166	-2.469287	11.000166	-4.414719	131.582828
5.700000	-4.487082	66.395788	-2.493962	8.008452	-2.493962	8.008452	-4.377170	129.353087
5.750000	-4.463165	62.708256	-2.514936	5.011184	-2.514936	5.011184	-4.346315	127.140133
5.800000	-4.446153	58.988732	-2.532239	2.006673	-2.532239	2.006673	-4.321902	124.943118
5.850000	-4.435870	55.234898	-2.545911	-1.006733	-2.545911	-1.006733	-4.303713	122.761264
5.900000	-4.432168	51.444422	-2.556004	-4.030651	-2.556004	-4.030651	-4.291554	120.593864
5.950000	-4.434928	47.614960	-2.562582	-7.066660	-2.562582	-7.066660	-4.285259	118.440286
6.000000	-4.444061	43.744155	-2.565716	-10.116303	-2.565716	-10.116303	-4.284684	116.299971
6.050000	-4.459498	39.829640	-2.565490	-13.181080	-2.565490	-13.181080	-4.289707	114.172434
6.100000	-4.481195	35.869032	-2.561995	-16.262451	-2.561995	-16.262451	-4.300226	112.057270
6.150000	-4.509130	31.859935	-2.555331	-19.361836	-2.555331	-19.361836	-4.316155	109.954146
6.200000	-4.543299	27.799937	-2.545607	-22.480607	-2.545607	-22.480607	-4.337425	107.862813
6.250000	-4.583717	23.686609	-2.532939	-25.620095	-2.532939	-25.620095	-4.363983	105.783097
6.300000	-4.630546	19.516232	-2.517394	-28.782088	-2.517394	-28.782088	-4.395898	103.715159
6.350000	-4.683702	15.287496	-2.499168	-31.967366	-2.499168	-31.967366	-4.433031	101.658742
6.400000	-4.743243	10.997906	-2.478399	-35.177108	-2.478399	-35.177108	-4.475365	99.613927
6.450000	-4.809243	6.644943	-2.455232	-38.412441	-2.455232	-38.412441	-4.522894	97.580880
6.500000	-4.881783	2.226059	-2.429818	-41.674437	-2.429818	-41.674437	-4.575621	95.559851
6.550000	-4.960955	-2.261327	-2.402312	-44.964110	-2.402312	-44.964110	-4.633560	93.551182
6.600000	-5.046856	-6.819829	-2.372877	-48.282419	-2.372877	-48.282419	-4.696729	91.555300
6.650000	-5.139590	-11.452103	-2.341674	-51.630261	-2.341674	-51.630261	-4.765156	89.572726
6.700000	-5.239159	-16.159399	-2.308901	-55.007905	-2.308901	-55.007905	-4.838787	87.603803
6.750000	-5.346192	-20.951776	-2.274594	-58.418984	-2.274594	-58.418984	-4.918081	85.650602
6.800000	-5.459961	-25.820287	-2.239135	-61.859625	-2.239135	-61.859625	-5.002412	83.711732
6.850000	-5.581227	-30.777434	-2.202543	-65.334196	-2.202543	-65.334196	-5.092355	81.789932
6.900000	-5.709764	-35.821144	-2.165059	-68.841382	-2.165059	-68.841382	-5.187701	79.885233
6.950000	-5.845655	-40.954394	-2.126853	-72.381700	-2.126853	-72.381700	-5.288504	77.998742
7.000000	-5.989289	-46.185618	-2.088050	-75.957573	-2.088050	-75.957573	-5.395076	76.132786
7.050000	-6.140126	-51.506841	-2.048888	-79.565423	-2.048888	-79.565423	-5.506979	74.286310
7.100000	-6.298804	-56.932519	-2.009465	-83.209589	-2.009465	-83.209589	-5.624773	72.463179
7.150000	-6.465183	-62.463321	-1.969964	-86.889379	-1.969964	-86.889379	-5.748397	70.664425
7.200000	-6.639193	-68.101192	-1.930541	-90.604529	-1.930541	-90.604529	-5.877860	68.891408
7.250000	-6.820804	-73.849625	-1.891344	-94.355238	-1.891344	-94.355238	-6.013237	67.145953
7.300000	-7.009961	-79.712210	-1.852509	-98.141672	-1.852509	-98.141672	-6.154609	65.430033
7.350000	-7.206575	-85.692631	-1.814166	-101.963967	-1.814166	-101.963967	-6.302061	63.745777
7.400000	-7.410526	-91.794667	-1.776436	-105.822243	-1.776436	-105.822243	-6.455686	62.095498
7.450000	-7.621659	-98.022189	-1.739432	-109.716608	-1.739432	-109.716608	-6.615585	60.481706
7.500000	-7.839786	-104.379159	-1.703255	-113.647171	-1.703255	-113.647171	-6.781869	58.907148
7.550000	-8.064690	-110.871633	-1.668010	-117.614582	-1.668010	-117.614582	-6.954705	57.375500
7.600000	-8.296093	-117.501888	-1.633772	-121.618461	-1.633772	-121.618461	-7.134181	55.889545
7.650000	-8.533712	-124.274180	-1.600614	-125.658986	-1.600614	-125.658986	-7.320447	54.453015
7.700000	-8.777243	-131.192882	-1.568603	-129.736384	-1.568603	-129.736384	-7.513669	53.070104
7.750000	-9.026366	-138.262513	-1.537799	-133.850940	-1.537799	-133.850940	-7.714026	51.745561
7.800000	-9.280754	-145.487783	-1.508253	-138.003009	-1.508253	-138.003009	-7.921710	50.484810
7.850000	-9.540083	-152.873661	-1.480017	-142.193030	-1.480017	-142.193030	-8.136920	49.294093
7.900000	-9.804042	-160.425477	-1.453137	-146.421531	-1.453137	-146.421531	-8.359855	48.180648
7.950000	-10.072301	-168.150785	-1.427674	-150.689530	-1.427674	-150.689530	-8.590711	47.153844
8.000000	-10.344609	-176.055423	-1.403674	-154.997598	-1.403674	-154.997598	-8.829611	46.223400
8.050000	-10.620764	175.853940	-1.381188	-159.346410	-1.381188	-159.346410	-9.076605	45.400618
8.100000	-10.900572	167.568549	-1.360285	-163.736952	-1.360285	-163.736952	-9.331621	44.699272
8.150000	-11.183852	159.078015	-1.341045	-168.170329	-1.341045	-168.170329	-9.594382	44.135532
8.200000	-11.470401	150.369870	-1.323568	-172.647770	-1.323568	-172.647770	-9.864302	43.728273
8.250000	-11.759930	141.429064	-1.307979	-177.170614	-1.307979	-177.170614	-10.140341	43.499326
8.300000	-12.051972	132.237443	-1.294428	178.259695	-1.294428	178.259695	-10.420821	43.473569
8.350000	-12.345690	122.771800	-1.283113	173.641384	-1.283113	173.641384	-10.703119	43.679987
8.400000	-12.639680	113.004324	-1.274275	168.972585	-1.274275	168.972585	-10.983328	44.150303
8.450000	-12.931856	102.907598	-1.268164	164.252134	-1.268164	164.252134	-11.256162	44.912653
8.500000	-13.218869	92.447960	-1.265101	159.478410	-1.265101	159.478410	-11.514364	45.995022
8.550000	-13.495735	81.589538	-1.265465	154.649844	-1.265465	154.649844	-11.748504	47.418623
8.600000	-13.755346	70.297099	-1.269692	149.764980	-1.269692	149.764980	-11.946929	49.191790
8.650000	-13.988014	58.540926	-1.278286	144.822542	-1.278286	144.822542	-12.096123	51.302528
8.700000	-14.181227	46.304132	-1.291815	139.821514	-1.291815	139.821514	-12.181681	53.711064
8.750000	-14.319879	33.592290	-1.310916	134.761224	-1.310916	134.761224	-12.189969	56.344779
8.800000	-14.385983	20.438873	-1.336391	129.640590	-1.336391	129.640590	-12.108904	59.098278
8.850000	-14.364114	6.932851	-1.368927	124.460824	-1.368927	124.460824	-11.934206	61.837815
8.900000	-14.241372	-6.801072	-1.409344	119.222941	-1.409344	119.222941	-11.667003	64.424610
8.950000	-14.011150	-20.605232	-1.458502	113.928726	-1.458502	113.928726	-11.314945	66.729724
9.000000	-13.675038	-34.308805	-1.517289	108.580832	-1.517289	108.580832	-10.890861	68.649480
9.050000	-13.242857	-47.751998	-1.586601	103.182862	-1.586601	103.182862	-10.410597	70.114053
9.100000	-12.730794	-60.806384	-1.667315	97.739434	-1.667315	97.739434	-9.890790	71.088382
9.150000	-12.158451	-73.385410	-1.760268	92.256214	-1.760268	92.256214	-9.347114	71.567363
9.200000	-11.545262	-85.439057	-1.866339	86.739665	-1.866339	86.739665	-8.792899	71.564019
9.250000	-10.910278	-96.959514	-1.986135	81.197828	-1.986135	81.197828	-8.239767	71.113532
9.300000	-10.269387	-107.962898	-2.120117	75.639496	-2.120117	75.639496	-7.696671	70.258558
9.350000	-9.634879	-118.476167	-2.268645	70.074051	-2.268645	70.074051	-7.170175	69.042619
9.400000	-9.016035	-128.532256	-2.431897	64.511437	-2.431897	64.511437	-6.665017	67.509328
9.450000	-8.419541	-138.165167	-2.609856	58.961937	-2.609856	58.961937	-6.184463	65.700512
9.500000	-7.849976	-147.407104	-2.802299	53.435937	-2.802299	53.435937	-5.730615	63.655196
9.550000	-7.310258	-156.287080	-3.008799	47.943678	-3.008799	47.943678	-5.304681	61.409139
9.600000	-6.802041	-164.828956	-3.228767	42.495267	-3.228767	42.495267	-4.907235	58.994035
9.650000	-6.326077	-173.053435	-3.461404	37.100376	-3.461404	37.100376	-4.538369	56.438774
9.700000	-5.882256	179.017654	-3.705667	31.766992	-3.705667	31.766992	-4.197574	53.770730
9.750000	-5.469933	171.368341	-3.960472	26.502574	-3.960472	26.502574	-3.884139	51.012731
9.800000	-5.088074	163.984755	-4.224636	21.313541	-4.224636	21.313541	-3.597145	48.184928
9.850000	-4.735376	156.854666	-4.496916	16.205218	-4.496916	16.205218	-3.335524	45.305028
9.900000	-4.410355	149.967088	-4.776034	11.181834	-4.776034	11.181834	-3.098108	42.388526
9.950000	-4.111420	143.311969	-5.060707	6.246551	-5.060707	6.246551	-2.883665	39.448919
10.000000	-3.836927	136.879945	-5.349674	1.401526	-5.349674	1.401526	-2.690934	36.497903
