! freq	dB(S11)	phase(S11)	dB(S12)	phase(S12)	
!     	dB(S21)	phase(S21)	dB(S22)	phase(S22)	
!S-par simulation data
#  GHz  S  DB  R 50
0.000000	-81.155723	0.000000	-0.000760	0.000000	-0.000760	0.000000	-81.155723	0.000000
0.050000	-37.146863	-89.703488	-0.013289	-3.613804	-0.013289	-3.613804	-37.176443	-91.420413
0.100000	-31.257066	-94.245530	-0.019973	-7.184555	-0.019973	-7.184555	-31.288419	-97.694105
0.150000	-27.808760	-97.669857	-0.028338	-10.749118	-0.028338	-10.749118	-27.839730	-102.866962
0.200000	-25.380286	-100.727102	-0.038034	-14.305416	-0.038034	-14.305416	-25.410694	-107.689691
0.250000	-23.514852	-103.596246	-0.048855	-17.855158	-0.048855	-17.855158	-23.544899	-112.346172
0.300000	-22.005432	-106.360970	-0.060704	-21.400202	-0.060704	-21.400202	-22.035391	-116.922907
0.350000	-20.744933	-109.054440	-0.073661	-24.941057	-0.073661	-24.941057	-20.775079	-121.459525
0.400000	-19.666370	-111.700318	-0.087632	-28.478325	-0.087632	-28.478325	-19.696920	-125.981679
0.450000	-18.731666	-114.303101	-0.102712	-32.011579	-0.102712	-32.011579	-18.762848	-130.504595
0.500000	-17.909270	-116.872275	-0.118697	-35.541331	-0.118697	-35.541331	-17.941252	-135.038220
0.550000	-17.181327	-119.405649	-0.135568	-39.067318	-0.135568	-39.067318	-17.214297	-139.591225
0.600000	-16.531567	-121.904397	-0.153158	-42.589927	-0.153158	-42.589927	-16.565700	-144.168808
0.650000	-15.949094	-124.365811	-0.171347	-46.109414	-0.171347	-46.109414	-15.984585	-148.776985
0.700000	-15.424505	-126.787879	-0.189984	-49.626301	-0.189984	-49.626301	-15.461554	-153.420317
0.750000	-14.950776	-129.166964	-0.208929	-53.141187	-0.208929	-53.141187	-14.989587	-158.104182
0.800000	-14.521934	-131.499387	-0.228041	-56.654842	-0.228041	-56.654842	-14.562684	-162.833584
0.850000	-14.133658	-133.779314	-0.247181	-60.168196	-0.247181	-60.168196	-14.176465	-167.615327
0.900000	-13.780417	-136.005957	-0.266231	-63.682273	-0.266231	-63.682273	-13.825280	-172.450802
0.950000	-13.458994	-138.174511	-0.285088	-67.198135	-0.285088	-67.198135	-13.505813	-177.345144
1.000000	-13.167786	-140.275252	-0.303625	-70.717327	-0.303625	-70.717327	-13.216405	177.691529
1.050000	-12.902753	-142.308112	-0.321784	-74.241077	-0.321784	-74.241077	-12.953100	172.658452
1.100000	-12.661271	-144.269911	-0.339515	-77.770728	-0.339515	-77.770728	-12.713494	167.550661
1.150000	-12.441366	-146.155379	-0.356772	-81.307911	-0.356772	-81.307911	-12.495906	162.359451
1.200000	-12.241507	-147.956016	-0.373511	-84.854873	-0.373511	-84.854873	-12.299107	157.070343
1.250000	-12.058447	-149.673804	-0.389783	-88.412687	-0.389783	-88.412687	-12.119893	151.680408
1.300000	-11.890034	-151.305969	-0.405627	-91.982908	-0.405627	-91.982908	-11.956090	146.181869
1.350000	-11.734697	-152.843424	-0.421081	-95.568246	-0.421081	-95.568246	-11.806113	140.558778
1.400000	-11.589822	-154.285301	-0.436255	-99.170303	-0.436255	-99.170303	-11.667255	134.806058
1.450000	-11.452952	-155.631467	-0.451278	-102.790531	-0.451278	-102.790531	-11.536995	128.920078
1.500000	-11.321822	-156.876531	-0.466306	-106.431620	-0.466306	-106.431620	-11.413077	122.889482
1.550000	-11.193793	-158.021447	-0.481535	-110.095266	-0.481535	-110.095266	-11.292841	116.711309
1.600000	-11.066241	-159.067865	-0.497188	-113.783262	-0.497188	-113.783262	-11.173643	110.383018
1.650000	-10.936502	-160.018767	-0.513523	-117.497469	-0.513523	-117.497469	-11.052790	103.903179
1.700000	-10.801893	-160.879320	-0.530833	-121.239682	-0.530833	-121.239682	-10.927544	97.272624
1.750000	-10.659767	-161.657163	-0.549441	-125.011607	-0.549441	-125.011607	-10.795169	90.494835
1.800000	-10.507587	-162.362599	-0.569708	-128.814836	-0.569708	-128.814836	-10.653005	83.576248
1.850000	-10.343015	-163.008664	-0.592024	-132.650819	-0.592024	-132.650819	-10.498557	76.526457
1.900000	-10.164004	-163.611034	-0.616814	-136.520842	-0.616814	-136.520842	-10.329592	69.358239
1.950000	-9.968898	-164.187735	-0.644532	-140.425995	-0.644532	-140.425995	-10.144249	62.087392
2.000000	-9.756521	-164.758666	-0.675662	-144.367146	-0.675662	-144.367146	-9.941142	54.732345
2.050000	-9.526241	-165.344930	-0.710712	-148.344919	-0.710712	-148.344919	-9.719439	47.313563
2.100000	-9.278012	-165.968055	-0.750214	-152.359660	-0.750214	-152.359660	-9.478916	39.852780
2.150000	-9.012351	-166.649216	-0.794725	-156.411465	-0.794725	-156.411465	-9.219954	32.372137
2.200000	-8.730002	-167.409711	-0.844897	-160.500609	-0.844897	-160.500609	-8.943192	24.893683
2.250000	-8.432435	-168.268804	-0.901371	-164.626735	-0.901371	-164.626735	-8.650053	17.438842
2.300000	-8.122820	-169.236907	-0.964447	-168.787177	-0.964447	-168.787177	-8.343761	10.024745
2.350000	-7.802786	-170.328432	-1.034847	-172.981694	-1.034847	-172.981694	-8.025978	2.667448
2.400000	-7.475839	-171.545289	-1.112748	-177.206976	-1.112748	-177.206976	-7.700348	-4.623616
2.450000	-7.142842	-172.904745	-1.199326	178.536108	-1.199326	178.536108	-7.367777	-11.831861
2.500000	-6.807116	-174.404394	-1.294827	174.251037	-1.294827	174.251037	-7.031748	-18.952241
2.550000	-6.470948	-176.046160	-1.399869	169.939967	-1.399869	169.939967	-6.694675	-25.978093
2.600000	-6.136841	-177.825458	-1.514794	165.606027	-1.514794	165.606027	-6.359207	-32.907655
2.650000	-5.806864	-179.737780	-1.640026	161.252107	-1.640026	161.252107	-6.027533	-39.739677
2.700000	-5.482843	178.222937	-1.775949	156.881214	-1.775949	156.881214	-5.701592	-46.474381
2.750000	-5.166352	176.063933	-1.922909	152.496411	-1.922909	152.496411	-5.383056	-53.113159
2.800000	-4.858713	173.793263	-2.081215	148.100754	-2.081215	148.100754	-5.073330	-59.658328
2.850000	-4.560996	171.419487	-2.251145	143.697229	-2.251145	143.697229	-4.773556	-66.112920
2.900000	-4.274039	168.951396	-2.432947	139.288687	-2.432947	139.288687	-4.484630	-72.480522
2.950000	-3.998506	166.396656	-2.626965	134.877783	-2.626965	134.877783	-4.207267	-78.764014
3.000000	-3.734999	163.762314	-2.833614	130.467097	-2.833614	130.467097	-3.942113	-84.965881
3.050000	-3.483231	161.064505	-3.052273	126.058454	-3.052273	126.058454	-3.688901	-91.099353
3.100000	-3.243827	158.303388	-3.284014	121.653929	-3.284014	121.653929	-3.448302	-97.161056
3.150000	-3.016420	155.489536	-3.528731	117.254649	-3.528731	117.254649	-3.219957	-103.160063
3.200000	-2.800852	152.629532	-3.786757	112.861601	-3.786757	112.861601	-3.003731	-109.101803
3.250000	-2.597242	149.726815	-4.058853	108.475759	-4.058853	108.475759	-2.799774	-114.988797
3.300000	-2.404493	146.791049	-4.344888	104.096505	-4.344888	104.096505	-2.606969	-120.832627
3.350000	-2.223155	143.822191	-4.646220	99.724589	-4.646220	99.724589	-2.425924	-126.633389
3.400000	-2.052239	140.826930	-4.963214	95.358846	-4.963214	95.358846	-2.255634	-132.401088
3.450000	-1.891488	137.807819	-5.296991	90.998520	-5.296991	90.998520	-2.095861	-138.141445
3.500000	-1.740571	134.767251	-5.648852	86.642413	-5.648852	86.642413	-1.946292	-143.861236
3.550000	-1.598862	131.707875	-6.020199	82.288909	-6.020199	82.288909	-1.806301	-149.568243
3.600000	-1.465929	128.631199	-6.412892	77.936355	-6.412892	77.936355	-1.675462	-155.269781
3.650000	-1.341357	125.538234	-6.829210	73.583004	-6.829210	73.583004	-1.553370	-160.973370
3.700000	-1.224761	122.429529	-7.271944	69.227122	-7.271944	69.227122	-1.439644	-166.686720
3.750000	-1.115790	119.305209	-7.744515	64.867128	-7.744515	64.867128	-1.333940	-172.417713
3.800000	-1.014335	116.164450	-8.251395	60.501566	-8.251395	60.501566	-1.236172	-178.175529
3.850000	-0.919918	113.007159	-8.797635	56.130008	-8.797635	56.130008	-1.145851	176.032323
3.900000	-0.832323	109.832403	-9.389795	51.752885	-9.389795	51.752885	-1.062765	170.197631
3.950000	-0.751387	106.638986	-10.036169	47.372197	-10.036169	47.372197	-0.986755	164.312162
4.000000	-0.677006	103.425491	-10.747399	42.992375	-10.747399	42.992375	-0.917719	158.367720
4.050000	-0.609135	100.190322	-11.537391	38.621648	-11.537391	38.621648	-0.855614	152.356212
4.100000	-0.547952	96.931095	-12.425253	34.275535	-12.425253	34.275535	-0.800632	146.267600
4.150000	-0.493450	93.646322	-13.436492	29.979981	-13.436492	29.979981	-0.752752	140.095273
4.200000	-0.445734	90.334348	-14.607697	25.779695	-14.607697	25.779695	-0.712072	133.832696
4.250000	-0.405032	86.993344	-15.993996	21.756239	-15.993996	21.756239	-0.678809	127.473221
4.300000	-0.371640	83.621558	-17.683617	18.068600	-17.683617	18.068600	-0.653244	121.010881
4.350000	-0.345921	80.217385	-19.830734	15.063165	-19.830734	15.063165	-0.635719	114.440552
4.400000	-0.328450	76.778818	-22.741001	13.711665	-22.741001	13.711665	-0.626782	107.756143
4.450000	-0.319676	73.304905	-27.126458	17.635666	-27.126458	17.635666	-0.626837	100.955423
4.500000	-0.320019	69.795321	-34.173347	50.199618	-34.173347	50.199618	-0.636245	94.038557
4.550000	-0.330114	66.249361	-31.333154	127.499259	-31.333154	127.499259	-0.655575	87.004882
4.600000	-0.350614	62.666766	-25.022227	142.547254	-25.022227	142.547254	-0.685394	79.855766
4.650000	-0.382189	59.047660	-21.134920	143.285011	-21.134920	143.285011	-0.726266	72.594597
4.700000	-0.425333	55.393015	-18.395747	140.677137	-18.395747	140.677137	-0.778564	65.228382
4.750000	-0.480902	51.702855	-16.289542	136.746112	-16.289542	136.746112	-0.842992	57.762875
4.800000	-0.548895	47.979621	-14.584464	132.183397	-14.584464	132.183397	-0.919406	50.212370
4.850000	-0.630056	44.223271	-13.156375	127.228645	-13.156375	127.228645	-1.008373	42.586086
4.900000	-0.724113	40.436014	-11.932439	122.034199	-11.932439	122.034199	-1.109479	34.900741
4.950000	-0.832507	36.614889	-10.866435	116.657057	-10.866435	116.657057	-1.223876	27.166083
5.000000	-0.955046	32.760068	-9.926638	111.155259	-9.926638	111.155259	-1.351183	19.400776
5.050000	-1.092185	28.868623	-9.090639	105.560271	-9.090639	105.560271	-1.491587	11.621960
5.100000	-1.244033	24.937010	-8.341386	99.896547	-8.341386	99.896547	-1.644951	3.847698
5.150000	-1.410953	20.959255	-7.665819	94.180538	-7.665819	94.180538	-1.811341	-3.904202
5.200000	-1.593436	16.927127	-7.053533	88.424086	-7.053533	88.424086	-1.990912	-11.616000
5.250000	-1.792173	12.829830	-6.496027	82.635305	-6.496027	82.635305	-2.183956	-19.270198
5.300000	-2.008680	8.649615	-5.986835	76.817990	-5.986835	76.817990	-2.391373	-26.845686
5.350000	-2.242759	4.380631	-5.518246	70.977167	-5.518246	70.977167	-2.612772	-34.336177
5.400000	-2.498277	-0.014461	-5.087357	65.107921	-5.087357	65.107921	-2.850731	-41.708920
5.450000	-2.775112	-4.537819	-4.687604	59.211943	-4.687604	59.211943	-3.104906	-48.966920
5.500000	-3.079217	-9.250149	-4.317637	53.277206	-4.317637	53.277206	-3.379142	-56.064738
5.550000	-3.411459	-14.155108	-3.972448	47.302553	-3.972448	47.302553	-3.673674	-63.007860
5.600000	-3.777694	-19.309660	-3.650459	41.275424	-3.650459	41.275424	-3.991923	-69.759889
5.650000	-4.184148	-24.774708	-3.350080	35.182640	-3.350080	35.182640	-4.337159	-76.284298
5.700000	-4.637440	-30.615972	-3.070004	29.011401	-3.070004	29.011401	-4.712341	-82.542341
5.750000	-5.145071	-36.912271	-2.809542	22.748928	-2.809542	22.748928	-5.120150	-88.486176
5.800000	-5.715945	-43.772705	-2.568863	16.380813	-2.568863	16.380813	-5.562776	-94.047920
5.850000	-6.359465	-51.342096	-2.348861	9.892775	-2.348861	9.892775	-6.040652	-99.138930
5.900000	-7.084139	-59.816547	-2.151187	3.271478	-2.151187	3.271478	-6.550713	-103.645988
5.950000	-7.894239	-69.477963	-1.978481	-3.495758	-1.978481	-3.495758	-7.083374	-107.423539
6.000000	-8.780713	-80.736950	-1.834556	-10.419864	-1.834556	-10.419864	-7.617224	-110.297432
6.050000	-9.706445	-94.038663	-1.722802	-17.500066	-1.722802	-17.500066	-8.116839	-112.152954
6.100000	-10.581329	-109.873640	-1.647691	-24.733068	-1.647691	-24.733068	-8.529126	-112.942519
6.150000	-11.242858	-128.394943	-1.612587	-32.105341	-1.612587	-32.105341	-8.788890	-112.819678
6.200000	-11.469249	-149.045075	-1.623742	-39.606742	-1.623742	-39.606742	-8.839966	-112.086765
6.250000	-11.140488	-170.071421	-1.685049	-47.208813	-1.685049	-47.208813	-8.655351	-111.313043
6.300000	-10.336424	170.471069	-1.800711	-54.877272	-1.800711	-54.877272	-8.250446	-111.123625
6.350000	-9.283458	153.503997	-1.972193	-62.570433	-1.972193	-62.570433	-7.688993	-111.948864
6.400000	-8.172594	138.985667	-2.200304	-70.245348	-2.200304	-70.245348	-7.044244	-113.953008
6.450000	-7.114495	126.485523	-2.484396	-77.859329	-2.484396	-77.859329	-6.379273	-117.087307
6.500000	-6.157587	115.553259	-2.822458	-85.372954	-2.822458	-85.372954	-5.737827	-121.190842
6.550000	-5.315784	105.834707	-3.211366	-92.752617	-3.211366	-92.752617	-5.145361	-126.071547
6.600000	-4.586574	97.075415	-3.647234	-99.972289	-3.647234	-99.972289	-4.613817	-131.551046
6.650000	-3.960493	89.096002	-4.125814	-107.014337	-4.125814	-107.014337	-4.146431	-137.482588
6.700000	-3.427383	81.785833	-4.642922	-113.863325	-4.642922	-113.863325	-3.742721	-143.762592
6.750000	-2.971914	75.013464	-5.194396	-120.529436	-5.194396	-120.529436	-3.395571	-150.293825
6.800000	-2.584367	68.724135	-5.777351	-127.012053	-5.777351	-127.012053	-3.100567	-157.033084
6.850000	-2.254643	62.859009	-6.389500	-133.321089	-6.389500	-133.321089	-2.851876	-163.949337
6.900000	-1.974270	57.372932	-7.029359	-139.468625	-7.029359	-139.468625	-2.644271	-171.030761
6.950000	-1.735501	52.223248	-7.696758	-145.471301	-7.696758	-145.471301	-2.472591	-178.278129
7.000000	-1.531487	47.370338	-8.393198	-151.348097	-8.393198	-151.348097	-2.332039	174.298006
7.050000	-1.356812	42.783045	-9.121472	-157.116126	-9.121472	-157.116126	-2.218836	166.676077
7.100000	-1.206946	38.433863	-9.886082	-162.791061	-9.886082	-162.791061	-2.129813	158.826574
7.150000	-1.078118	34.298401	-10.693567	-168.385503	-10.693567	-168.385503	-2.062345	150.712973
7.200000	-0.967205	30.354986	-11.552985	-173.906685	-11.552985	-173.906685	-2.014277	142.292447
7.250000	-0.871641	26.584341	-12.476606	-179.352941	-12.476606	-179.352941	-1.983839	133.516566
7.300000	-0.789333	22.969350	-13.480927	175.292066	-13.480927	175.292066	-1.969542	124.332203
7.350000	-0.718594	19.494876	-14.588163	170.069217	-14.588163	170.069217	-1.970060	114.682927
7.400000	-0.657991	16.146415	-15.828779	165.057259	-15.828779	165.057259	-1.983951	104.517626
7.450000	-0.606721	12.915652	-17.243540	160.424198	-17.243540	160.424198	-2.010057	93.765470
7.500000	-0.563831	9.790936	-18.890295	156.471765	-18.890295	156.471765	-2.046276	82.387716
7.550000	-0.528785	6.765500	-20.846579	153.830394	-20.846579	153.830394	-2.090146	70.344546
7.600000	-0.500992	3.832334	-23.206856	153.798509	-23.206856	153.798509	-2.138205	57.635232
7.650000	-0.479979	0.987331	-25.999356	159.274945	-25.999356	159.274945	-2.186234	44.286729
7.700000	-0.465206	-1.772152	-28.697856	175.596293	-28.697856	175.596293	-2.229332	30.369469
7.750000	-0.456003	-4.447823	-29.349296	-157.909531	-29.349296	-157.909531	-2.262434	16.002188
7.800000	-0.451524	-7.041179	-27.507334	-138.662037	-27.507334	-138.662037	-2.281100	1.349275
7.850000	-0.450794	-9.553667	-25.263541	-131.677947	-25.263541	-131.677947	-2.282243	-13.390194
7.900000	-0.452708	-11.989079	-23.448303	-131.307939	-23.448303	-131.307939	-2.265178	-28.001680
7.950000	-0.456228	-14.352403	-22.090043	-134.053835	-22.090043	-134.053835	-2.231429	-42.285408
8.000000	-0.460482	-16.649652	-21.098277	-138.306618	-21.098277	-138.306618	-2.184191	-56.074197
8.050000	-0.464820	-18.887560	-20.389815	-143.281958	-20.389815	-143.281958	-2.127556	-69.245813
8.100000	-0.468832	-21.072971	-19.900827	-148.566766	-19.900827	-148.566766	-2.065685	-81.726108
8.150000	-0.472323	-23.212097	-19.583882	-153.931546	-19.583882	-153.931546	-2.002206	-93.480562
8.200000	-0.475263	-25.310705	-19.401976	-159.245713	-19.401976	-159.245713	-1.939940	-104.513709
8.250000	-0.477726	-27.373391	-19.327378	-164.436364	-19.327378	-164.436364	-1.880832	-114.849696
8.300000	-0.479856	-29.404853	-19.336115	-169.470173	-19.336115	-169.470173	-1.825934	-124.547719
8.350000	-0.481801	-31.408354	-19.411422	-174.333334	-19.411422	-174.333334	-1.775730	-133.661582
8.400000	-0.483706	-33.386015	-19.541287	-179.019875	-19.541287	-179.019875	-1.730413	-142.235227
8.450000	-0.485712	-35.339421	-19.716097	176.470262	-19.716097	176.470262	-1.689953	-150.310710
8.500000	-0.487930	-37.271399	-19.925995	172.121041	-19.925995	172.121041	-1.653844	-157.959397
8.550000	-0.490449	-39.183439	-20.164961	167.922329	-20.164961	167.922329	-1.621711	-165.225601
8.600000	-0.493367	-41.075914	-20.428897	163.870413	-20.428897	163.870413	-1.593324	-172.132546
8.650000	-0.496724	-42.951077	-20.712967	159.946613	-20.712967	159.946613	-1.568081	-178.735626
8.700000	-0.500563	-44.810129	-21.014231	156.140116	-21.014231	156.140116	-1.545593	174.932555
8.750000	-0.504941	-46.653640	-21.330449	152.444979	-21.330449	152.444979	-1.525587	168.852474
8.800000	-0.509879	-48.483038	-21.659595	148.849699	-21.659595	148.849699	-1.507681	162.993616
8.850000	-0.515390	-50.299690	-22.000244	145.344081	-22.000244	145.344081	-1.491546	157.329933
8.900000	-0.521513	-52.104332	-22.351180	141.923248	-22.351180	141.923248	-1.476970	151.847845
8.950000	-0.528283	-53.897926	-22.711348	138.581773	-22.711348	138.581773	-1.463741	146.533108
9.000000	-0.535687	-55.682208	-23.080412	135.309533	-23.080412	135.309533	-1.451588	141.362278
9.050000	-0.543717	-57.458587	-23.458334	132.099173	-23.458334	132.099173	-1.440317	136.318403
9.100000	-0.552426	-59.227825	-23.844508	128.949480	-23.844508	128.949480	-1.429826	131.397280
9.150000	-0.561903	-60.990742	-24.237925	125.861218	-24.237925	125.861218	-1.420034	126.598474
9.200000	-0.572049	-62.749562	-24.640293	122.821420	-24.640293	122.821420	-1.410727	121.894514
9.250000	-0.583044	-64.504977	-25.049677	119.837302	-25.049677	119.837302	-1.401902	117.297315
9.300000	-0.594790	-66.258910	-25.468205	116.897982	-25.468205	116.897982	-1.393408	112.783926
9.350000	-0.607427	-68.012822	-25.894870	114.007374	-25.894870	114.007374	-1.385217	108.358959
9.400000	-0.620957	-69.768357	-26.330779	111.161764	-26.330779	111.161764	-1.377257	104.012690
9.450000	-0.635440	-71.527319	-26.776496	108.360779	-26.776496	108.360779	-1.369486	99.740851
9.500000	-0.651004	-73.291938	-27.231898	105.607416	-27.231898	105.607416	-1.361878	95.543961
9.550000	-0.667609	-75.063557	-27.699335	102.897462	-27.699335	102.897462	-1.354390	91.410665
9.600000	-0.685552	-76.846098	-28.177346	100.241511	-28.177346	100.241511	-1.347023	87.349747
9.650000	-0.704710	-78.640004	-28.669697	97.633171	-28.669697	97.633171	-1.339745	83.346234
9.700000	-0.725451	-80.450560	-29.175200	95.086936	-29.175200	95.086936	-1.332566	79.408811
9.750000	-0.747733	-82.278699	-29.697250	92.601458	-29.697250	92.601458	-1.325471	75.527445
9.800000	-0.771870	-84.129537	-30.236436	90.191274	-30.236436	90.191274	-1.318471	71.705046
9.850000	-0.798046	-86.006644	-30.794957	87.867295	-30.794957	87.867295	-1.311569	67.939095
9.900000	-0.826473	-87.913887	-31.375469	85.643856	-31.375469	85.643856	-1.304773	64.226880
9.950000	-0.857471	-89.856469	-31.980308	83.542760	-31.980308	83.542760	-1.298094	60.568004
10.000000	-0.891916	-91.823081	-32.570175	81.612448	-32.570175	81.612448	-1.292726	57.122540
