! freq	dB(S11)	phase(S11)	dB(S12)	phase(S12)	
!     	dB(S21)	phase(S21)	dB(S22)	phase(S22)	
!S-par simulation data
#  GHz  S  DB  R 50
0.000000	-0.000000	0.000000	-330.295349	180.000000	-330.295349	180.000000	-0.000000	0.000000
0.050000	-0.002977	-4.882401	-87.011775	87.209345	-87.011775	87.209345	-0.000449	-0.806963
0.100000	-0.010542	-9.738692	-81.020134	84.424238	-81.020134	84.424238	-0.001631	-1.612422
0.150000	-0.020072	-14.555500	-77.545990	81.651372	-77.545990	81.651372	-0.003197	-2.415513
0.200000	-0.029536	-19.329153	-75.114121	78.898178	-75.114121	78.898178	-0.004835	-3.216132
0.250000	-0.038026	-24.059682	-73.261078	76.171248	-73.261078	76.171248	-0.006364	-4.014744
0.300000	-0.045346	-28.744753	-71.780985	73.477218	-71.780985	73.477218	-0.007721	-4.811895
0.350000	-0.051606	-33.380195	-70.563940	70.822511	-70.563940	70.822511	-0.008907	-5.608055
0.400000	-0.057005	-37.961630	-69.543464	68.212608	-69.543464	68.212608	-0.009950	-6.403555
0.450000	-0.061715	-42.482924	-68.677756	65.654039	-68.677756	65.654039	-0.010882	-7.198583
0.500000	-0.065897	-46.939815	-67.936963	63.151767	-67.936963	63.151767	-0.011738	-7.993250
0.550000	-0.069665	-51.327703	-67.300275	60.711303	-67.300275	60.711303	-0.012543	-8.787597
0.600000	-0.073104	-55.642142	-66.752535	58.338517	-66.752535	58.338517	-0.013317	-9.581626
0.650000	-0.076282	-59.880942	-66.281246	56.037724	-66.281246	56.037724	-0.014079	-10.375321
0.700000	-0.079244	-64.040555	-65.877748	53.815184	-65.877748	53.815184	-0.014840	-11.168646
0.750000	-0.082025	-68.119807	-65.534240	51.675553	-65.534240	51.675553	-0.015610	-11.961558
0.800000	-0.084651	-72.117593	-65.244662	49.624114	-65.244662	49.624114	-0.016397	-12.754012
0.850000	-0.087137	-76.032192	-65.004588	47.667797	-65.004588	47.667797	-0.017206	-13.545949
0.900000	-0.089500	-79.864868	-64.809200	45.810992	-64.809200	45.810992	-0.018041	-14.337327
0.950000	-0.091749	-83.615125	-64.655411	44.061170	-64.655411	44.061170	-0.018904	-15.128086
1.000000	-0.093889	-87.283218	-64.540436	42.426186	-64.540436	42.426186	-0.019796	-15.918170
1.050000	-0.095927	-90.870861	-64.461403	40.913072	-64.461403	40.913072	-0.020718	-16.707534
1.100000	-0.097870	-94.379394	-64.416054	39.530638	-64.416054	39.530638	-0.021667	-17.496129
1.150000	-0.099719	-97.809587	-64.402671	38.290441	-64.402671	38.290441	-0.022644	-18.283901
1.200000	-0.101482	-101.165299	-64.418555	37.199510	-64.418555	37.199510	-0.023646	-19.070831
1.250000	-0.103160	-104.447235	-64.462397	36.272691	-64.462397	36.272691	-0.024669	-19.856866
1.300000	-0.104756	-107.655987	-64.532864	35.528350	-64.532864	35.528350	-0.025712	-20.641953
1.350000	-0.106275	-110.795371	-64.627387	34.978911	-64.627387	34.978911	-0.026771	-21.426079
1.400000	-0.107720	-113.867669	-64.743773	34.642179	-64.743773	34.642179	-0.027843	-22.209219
1.450000	-0.109097	-116.875213	-64.879479	34.537760	-64.879479	34.537760	-0.028924	-22.991350
1.500000	-0.110408	-119.820363	-65.031452	34.686861	-65.031452	34.686861	-0.030012	-23.772455
1.550000	-0.111659	-122.705489	-65.195958	35.111834	-65.195958	35.111834	-0.031104	-24.552518
1.600000	-0.112853	-125.532959	-65.368390	35.835316	-65.368390	35.835316	-0.032196	-25.331525
1.650000	-0.113994	-128.305118	-65.543073	36.878852	-65.543073	36.878852	-0.033288	-26.109467
1.700000	-0.115087	-131.024289	-65.713095	38.260816	-65.713095	38.260816	-0.034377	-26.886335
1.750000	-0.116136	-133.692752	-65.870221	39.993566	-65.870221	39.993566	-0.035461	-27.662123
1.800000	-0.117146	-136.312748	-66.004941	42.079847	-66.004941	42.079847	-0.036540	-28.436822
1.850000	-0.118121	-138.886467	-66.106761	44.508750	-66.106761	44.508750	-0.037612	-29.210428
1.900000	-0.119066	-141.415588	-66.164183	47.254771	-66.164183	47.254771	-0.038677	-29.982924
1.950000	-0.119983	-143.902260	-66.166515	50.267131	-66.166515	50.267131	-0.039735	-30.754301
2.000000	-0.120880	-146.348979	-66.105607	53.472786	-66.105607	53.472786	-0.040786	-31.524567
2.050000	-0.121758	-148.757703	-65.975693	56.786250	-65.975693	56.786250	-0.041830	-32.293715
2.100000	-0.122624	-151.130326	-65.774719	60.113459	-65.774719	60.113459	-0.042868	-33.061736
2.150000	-0.123480	-153.468685	-65.504622	63.361051	-65.504622	63.361051	-0.043900	-33.828623
2.200000	-0.124331	-155.774555	-65.170959	66.445454	-65.170959	66.445454	-0.044927	-34.594368
2.250000	-0.125181	-158.049652	-64.781998	69.299694	-64.781998	69.299694	-0.045950	-35.358960
2.300000	-0.126034	-160.295634	-64.347553	71.876754	-64.347553	71.876754	-0.046970	-36.122389
2.350000	-0.126893	-162.514102	-63.877854	74.149525	-63.877854	74.149525	-0.047987	-36.884645
2.400000	-0.127763	-164.706602	-63.382652	76.108261	-63.382652	76.108261	-0.049002	-37.645716
2.450000	-0.128645	-166.874626	-62.870651	77.756761	-62.870651	77.756761	-0.050017	-38.405591
2.500000	-0.129546	-169.019615	-62.349230	79.108323	-62.349230	79.108323	-0.051032	-39.164258
2.550000	-0.130467	-171.142520	-61.823738	80.176641	-61.823738	80.176641	-0.052049	-39.921677
2.600000	-0.131411	-173.245184	-61.299728	80.990583	-61.299728	80.990583	-0.053068	-40.677863
2.650000	-0.132383	-175.328900	-60.780762	81.573420	-60.780762	81.573420	-0.054090	-41.432803
2.700000	-0.133385	-177.394919	-60.269476	81.948002	-60.269476	81.948002	-0.055115	-42.186483
2.750000	-0.134420	-179.444449	-59.767756	82.135971	-59.767756	82.135971	-0.056146	-42.938892
2.800000	-0.135491	178.521339	-59.276902	82.157331	-59.276902	82.157331	-0.057181	-43.690017
2.850000	-0.136600	176.501316	-58.797758	82.030277	-58.797758	82.030277	-0.058223	-44.439845
2.900000	-0.137751	174.494385	-58.330826	81.771174	-58.330826	81.771174	-0.059272	-45.188365
2.950000	-0.138945	172.499487	-57.876349	81.394626	-57.876349	81.394626	-0.060328	-45.935564
3.000000	-0.140186	170.515592	-57.434380	80.913609	-57.434380	80.913609	-0.061392	-46.681430
3.050000	-0.141475	168.541704	-57.004834	80.339614	-57.004834	80.339614	-0.062465	-47.425952
3.100000	-0.142815	166.576854	-56.587526	79.682803	-56.587526	79.682803	-0.063547	-48.169119
3.150000	-0.144209	164.620179	-56.182135	78.951450	-56.182135	78.951450	-0.064638	-48.910905
3.200000	-0.145658	162.670734	-55.788385	78.153741	-55.788385	78.153741	-0.065740	-49.651300
3.250000	-0.147166	160.727542	-55.406030	77.297459	-55.406030	77.297459	-0.066853	-50.390307
3.300000	-0.148732	158.789740	-55.034722	76.388801	-55.034722	76.388801	-0.067976	-51.127919
3.350000	-0.150360	156.856483	-54.674110	75.433280	-54.674110	75.433280	-0.069111	-51.864124
3.400000	-0.152051	154.926949	-54.323842	74.435812	-54.323842	74.435812	-0.070258	-52.598915
3.450000	-0.153807	153.000335	-53.983573	73.400794	-53.983573	73.400794	-0.071418	-53.332283
3.500000	-0.155630	151.075857	-53.652963	72.332169	-53.652963	72.332169	-0.072590	-54.064221
3.550000	-0.157521	149.152747	-53.331685	71.233484	-53.331685	71.233484	-0.073775	-54.794720
3.600000	-0.159483	147.230253	-53.019422	70.107944	-53.019422	70.107944	-0.074973	-55.523774
3.650000	-0.161516	145.307639	-52.715869	68.958451	-52.715869	68.958451	-0.076186	-56.251377
3.700000	-0.163622	143.384185	-52.420735	67.787646	-52.420735	67.787646	-0.077412	-56.977521
3.750000	-0.165804	141.459182	-52.133739	66.597939	-52.133739	66.597939	-0.078653	-57.702202
3.800000	-0.168064	139.531872	-51.854590	65.391225	-51.854590	65.391225	-0.079909	-58.425381
3.850000	-0.170402	137.601604	-51.583067	64.169937	-51.583067	64.169937	-0.081180	-59.147087
3.900000	-0.172819	135.667708	-51.318924	62.935947	-51.318924	62.935947	-0.082466	-59.867314
3.950000	-0.175318	133.729526	-51.061925	61.690991	-51.061925	61.690991	-0.083769	-60.586060
4.000000	-0.177900	131.786406	-50.811845	60.436688	-50.811845	60.436688	-0.085087	-61.303319
4.050000	-0.180566	129.837710	-50.568467	59.174553	-50.568467	59.174553	-0.086421	-62.019090
4.100000	-0.183318	127.882807	-50.331585	57.906012	-50.331585	57.906012	-0.087773	-62.733369
4.150000	-0.186158	125.921076	-50.100997	56.632409	-50.100997	56.632409	-0.089141	-63.446154
4.200000	-0.189087	123.951903	-49.876510	55.355018	-49.876510	55.355018	-0.090527	-64.157444
4.250000	-0.192107	121.974685	-49.657938	54.075049	-49.657938	54.075049	-0.091931	-64.867237
4.300000	-0.195220	119.988824	-49.445098	52.793658	-49.445098	52.793658	-0.093352	-65.575532
4.350000	-0.198428	117.993733	-49.237814	51.511948	-49.237814	51.511948	-0.094792	-66.282328
4.400000	-0.201733	115.988718	-49.035919	50.231000	-49.035919	50.231000	-0.096251	-66.987609
4.450000	-0.205138	113.973187	-48.839247	48.951867	-48.839247	48.951867	-0.097729	-67.691375
4.500000	-0.208643	111.946682	-48.647623	47.675525	-48.647623	47.675525	-0.099226	-68.393643
4.550000	-0.212251	109.908647	-48.460882	46.402919	-48.460882	46.402919	-0.100743	-69.094414
4.600000	-0.215964	107.858533	-48.278861	45.134970	-48.278861	45.134970	-0.102280	-69.793689
4.650000	-0.219785	105.795801	-48.101396	43.872567	-48.101396	43.872567	-0.103837	-70.491469
4.700000	-0.223715	103.719917	-47.928327	42.616572	-47.928327	42.616572	-0.105416	-71.187758
4.750000	-0.227757	101.630360	-47.759489	41.367823	-47.759489	41.367823	-0.107015	-71.882557
4.800000	-0.231915	99.526615	-47.594721	40.127131	-47.594721	40.127131	-0.108636	-72.575868
4.850000	-0.236191	97.408178	-47.433859	38.895282	-47.433859	38.895282	-0.110279	-73.267695
4.900000	-0.240588	95.274554	-47.276736	37.673039	-47.276736	37.673039	-0.111943	-73.958042
4.950000	-0.245108	93.125260	-47.123186	36.461138	-47.123186	36.461138	-0.113631	-74.646912
5.000000	-0.249757	90.959823	-46.973039	35.260289	-46.973039	35.260289	-0.115341	-75.334309
5.050000	-0.254538	88.777412	-46.826136	34.071443	-46.826136	34.071443	-0.117076	-76.020205
5.100000	-0.259454	86.577930	-46.682284	32.895013	-46.682284	32.895013	-0.118834	-76.704638
5.150000	-0.264509	84.360945	-46.541304	31.731616	-46.541304	31.731616	-0.120616	-77.387612
5.200000	-0.269705	82.126037	-46.403011	30.581840	-46.403011	30.581840	-0.122422	-78.069133
5.250000	-0.275048	79.872803	-46.267218	29.446234	-46.267218	29.446234	-0.124254	-78.749206
5.300000	-0.280541	77.600857	-46.133732	28.325310	-46.133732	28.325310	-0.126111	-79.427837
5.350000	-0.286189	75.309829	-46.002359	27.219535	-46.002359	27.219535	-0.127994	-80.105033
5.400000	-0.291996	72.999369	-45.872896	26.129331	-45.872896	26.129331	-0.129903	-80.780799
5.450000	-0.297968	70.669147	-45.745138	25.055072	-45.745138	25.055072	-0.131838	-81.455143
5.500000	-0.304107	68.318854	-45.618874	23.997075	-45.618874	23.997075	-0.133800	-82.128072
5.550000	-0.310421	65.948202	-45.493890	22.955600	-45.493890	22.955600	-0.135790	-82.799592
5.600000	-0.316913	63.556929	-45.369966	21.930843	-45.369966	21.930843	-0.137808	-83.469712
5.650000	-0.323591	61.144567	-45.246867	20.923115	-45.246867	20.923115	-0.139854	-84.138424
5.700000	-0.330460	58.710899	-45.124356	19.932468	-45.124356	19.932468	-0.141929	-84.805736
5.750000	-0.337523	56.255970	-45.002212	18.958687	-45.002212	18.958687	-0.144033	-85.471672
5.800000	-0.344787	53.779628	-44.880199	18.001656	-44.880199	18.001656	-0.146167	-86.136241
5.850000	-0.352255	51.281752	-44.758081	17.061166	-44.758081	17.061166	-0.148330	-86.799451
5.900000	-0.359933	48.762254	-44.635619	16.136915	-44.635619	16.136915	-0.150524	-87.461312
5.950000	-0.367827	46.221077	-44.512572	15.228498	-44.512572	15.228498	-0.152749	-88.121833
6.000000	-0.375942	43.658202	-44.388702	14.335405	-44.388702	14.335405	-0.155005	-88.781022
6.050000	-0.384283	41.073644	-44.263771	13.457014	-44.263771	13.457014	-0.157292	-89.438891
6.100000	-0.392854	38.467457	-44.137545	12.592592	-44.137545	12.592592	-0.159612	-90.095449
6.150000	-0.401661	35.839731	-44.009792	11.741287	-44.009792	11.741287	-0.161964	-90.750706
6.200000	-0.410708	33.190599	-43.880289	10.902128	-43.880289	10.902128	-0.164349	-91.404673
6.250000	-0.419999	30.520231	-43.748819	10.074025	-43.748819	10.074025	-0.166767	-92.057361
6.300000	-0.429543	27.828389	-43.615077	9.255950	-43.615077	9.255950	-0.169220	-92.708752
6.350000	-0.439340	25.115792	-43.478952	8.446324	-43.478952	8.446324	-0.171707	-93.358886
6.400000	-0.449391	22.382739	-43.340261	7.643695	-43.340261	7.643695	-0.174229	-94.007774
6.450000	-0.459699	19.629572	-43.198839	6.846497	-43.198839	6.846497	-0.176786	-94.655428
6.500000	-0.470268	16.856676	-43.054533	6.053065	-43.054533	6.053065	-0.179378	-95.301860
6.550000	-0.481097	14.064477	-42.907215	5.261634	-42.907215	5.261634	-0.182006	-95.947080
6.600000	-0.492189	11.253444	-42.756773	4.470353	-42.756773	4.470353	-0.184671	-96.591103
6.650000	-0.503544	8.424087	-42.603121	3.677297	-42.603121	3.677297	-0.187372	-97.233939
6.700000	-0.515161	5.576956	-42.446194	2.880480	-42.446194	2.880480	-0.190110	-97.875601
6.750000	-0.527040	2.712641	-42.285955	2.077865	-42.285955	2.077865	-0.192886	-98.516103
6.800000	-0.539178	-0.168231	-42.122392	1.267388	-42.122392	1.267388	-0.195700	-99.155456
6.850000	-0.551573	-3.064996	-41.955519	0.446965	-41.955519	0.446965	-0.198552	-99.793675
6.900000	-0.564225	-5.977111	-41.785307	-0.385634	-41.785307	-0.385634	-0.201443	-100.430760
6.950000	-0.577128	-8.903821	-41.611826	-1.232537	-41.611826	-1.232537	-0.204374	-101.066726
7.000000	-0.590276	-11.844195	-41.435245	-2.095627	-41.435245	-2.095627	-0.207345	-101.701598
7.050000	-0.603662	-14.797445	-41.255692	-2.976858	-41.255692	-2.976858	-0.210355	-102.335391
7.100000	-0.617279	-17.762755	-41.073318	-3.878106	-41.073318	-3.878106	-0.213406	-102.968117
7.150000	-0.631120	-20.739288	-40.888301	-4.801152	-40.888301	-4.801152	-0.216498	-103.599793
7.200000	-0.645177	-23.726189	-40.700840	-5.747666	-40.700840	-5.747666	-0.219630	-104.230432
7.250000	-0.659439	-26.722589	-40.511158	-6.719192	-40.511158	-6.719192	-0.222804	-104.860049
7.300000	-0.673898	-29.727606	-40.319494	-7.717132	-40.319494	-7.717132	-0.226020	-105.488658
7.350000	-0.688541	-32.740348	-40.126107	-8.742738	-40.126107	-8.742738	-0.229278	-106.116276
7.400000	-0.703358	-35.759922	-39.931267	-9.797100	-39.931267	-9.797100	-0.232578	-106.742917
7.450000	-0.718336	-38.785430	-39.735259	-10.881136	-39.735259	-10.881136	-0.235922	-107.368596
7.500000	-0.733462	-41.815980	-39.538375	-11.995592	-39.538375	-11.995592	-0.239308	-107.993330
7.550000	-0.748724	-44.850754	-39.340810	-13.141714	-39.340810	-13.141714	-0.242739	-108.617115
7.600000	-0.764105	-47.888765	-39.142983	-14.319210	-39.142983	-14.319210	-0.246214	-109.239987
7.650000	-0.779592	-50.929147	-38.945198	-15.528270	-38.945198	-15.528270	-0.249733	-109.861962
7.700000	-0.795167	-53.971055	-38.747755	-16.768904	-38.747755	-16.768904	-0.253297	-110.483057
7.750000	-0.810817	-57.013660	-38.550951	-18.040950	-38.550951	-18.040950	-0.256905	-111.103289
7.800000	-0.826525	-60.056156	-38.355074	-19.344077	-38.355074	-19.344077	-0.260559	-111.722674
7.850000	-0.842275	-63.097765	-38.160402	-20.677796	-38.160402	-20.677796	-0.264258	-112.341230
7.900000	-0.858051	-66.137734	-37.967202	-22.041469	-37.967202	-22.041469	-0.268003	-112.958974
7.950000	-0.873836	-69.175341	-37.775725	-23.434316	-37.775725	-23.434316	-0.271794	-113.575924
8.000000	-0.889613	-72.209899	-37.586207	-24.855432	-37.586207	-24.855432	-0.275631	-114.192097
8.050000	-0.905367	-75.240751	-37.398867	-26.303800	-37.398867	-26.303800	-0.279514	-114.807512
8.100000	-0.921079	-78.267279	-37.213906	-27.778301	-37.213906	-27.778301	-0.283445	-115.422187
8.150000	-0.936734	-81.288841	-37.031491	-29.277987	-37.031491	-29.277987	-0.287423	-116.036132
8.200000	-0.952314	-84.304877	-36.851791	-30.801537	-36.851791	-30.801537	-0.291449	-116.649367
8.250000	-0.967803	-87.314938	-36.674958	-32.347349	-36.674958	-32.347349	-0.295522	-117.261918
8.300000	-0.983186	-90.318562	-36.501108	-33.914048	-36.501108	-33.914048	-0.299643	-117.873806
8.350000	-0.998452	-93.315535	-36.330339	-35.499713	-36.330339	-35.499713	-0.303811	-118.485067
8.400000	-1.013574	-96.305039	-36.162712	-37.104091	-36.162712	-37.104091	-0.308029	-119.095682
8.450000	-1.028544	-99.286952	-35.998289	-38.725139	-35.998289	-38.725139	-0.312295	-119.705692
8.500000	-1.043345	-102.260972	-35.837103	-40.361471	-35.837103	-40.361471	-0.316609	-120.315117
8.550000	-1.057964	-105.226832	-35.679168	-42.011728	-35.679168	-42.011728	-0.320973	-120.923979
8.600000	-1.072386	-108.184304	-35.524478	-43.674593	-35.524478	-43.674593	-0.325385	-121.532296
8.650000	-1.086596	-111.133196	-35.373010	-45.348799	-35.373010	-45.348799	-0.329847	-122.140091
8.700000	-1.100582	-114.073351	-35.224728	-47.033141	-35.224728	-47.033141	-0.334358	-122.747385
8.750000	-1.114330	-117.004646	-35.079577	-48.726477	-35.079577	-48.726477	-0.338919	-123.354199
8.800000	-1.127807	-119.926381	-34.937542	-50.428208	-34.937542	-50.428208	-0.343533	-123.960526
8.850000	-1.141047	-122.839931	-34.798430	-52.136217	-34.798430	-52.136217	-0.348192	-124.566458
8.900000	-1.153992	-125.743871	-34.662264	-53.850629	-34.662264	-53.850629	-0.352904	-125.171952
8.950000	-1.166660	-128.639073	-34.528878	-55.570085	-34.528878	-55.570085	-0.357664	-125.777069
9.000000	-1.179027	-131.525207	-34.398194	-57.294059	-34.398194	-57.294059	-0.362475	-126.381818
9.050000	-1.191075	-134.402145	-34.270117	-59.022005	-34.270117	-59.022005	-0.367338	-126.986215
9.100000	-1.202820	-137.270643	-34.144482	-60.753115	-34.144482	-60.753115	-0.372248	-127.590310
9.150000	-1.214204	-140.129586	-34.021252	-62.487368	-34.021252	-62.487368	-0.377213	-128.194086
9.200000	-1.225281	-142.980645	-33.900211	-64.223929	-33.900211	-64.223929	-0.382223	-128.797617
9.250000	-1.235983	-145.822547	-33.781320	-65.962942	-33.781320	-65.962942	-0.387288	-129.400885
9.300000	-1.246323	-148.655968	-33.664428	-67.704083	-33.664428	-67.704083	-0.392403	-130.003934
9.350000	-1.256293	-151.481050	-33.549415	-69.447273	-33.549415	-69.447273	-0.397569	-130.606788
9.400000	-1.265884	-154.297941	-33.436168	-71.192517	-33.436168	-71.192517	-0.402786	-131.209473
9.450000	-1.275086	-157.106794	-33.324574	-72.939899	-33.324574	-72.939899	-0.408054	-131.812016
9.500000	-1.283893	-159.907771	-33.214526	-74.689581	-33.214526	-74.689581	-0.413373	-132.414444
9.550000	-1.292296	-162.701031	-33.105922	-76.441796	-33.105922	-76.441796	-0.418743	-133.016783
9.600000	-1.300287	-165.486703	-32.998665	-78.196864	-32.998665	-78.196864	-0.424165	-133.619061
9.650000	-1.307855	-168.264916	-32.892664	-79.955179	-32.892664	-79.955179	-0.429638	-134.221307
9.700000	-1.314999	-171.035901	-32.787837	-81.717148	-32.787837	-81.717148	-0.435162	-134.823549
9.750000	-1.321713	-173.799812	-32.684108	-83.483264	-32.684108	-83.483264	-0.440737	-135.425817
9.800000	-1.327991	-176.556796	-32.581412	-85.254072	-32.581412	-85.254072	-0.446363	-136.028140
9.850000	-1.333829	-179.306994	-32.479692	-87.030171	-32.479692	-87.030171	-0.452040	-136.630547
9.900000	-1.339221	177.949464	-32.378898	-88.812202	-32.378898	-88.812202	-0.457769	-137.233069
9.950000	-1.344163	175.212459	-32.278993	-90.600852	-32.278993	-90.600852	-0.463548	-137.835737
10.000000	-1.348653	172.481883	-32.179949	-92.396844	-32.179949	-92.396844	-0.469379	-138.438583
