! freq	dB(S11)	phase(S11)	dB(S12)	phase(S12)	
!     	dB(S21)	phase(S21)	dB(S22)	phase(S22)	
!S-par simulation data
#  GHz  S  DB  R 50
0.000000	-0.000000	0.000000	-368.824313	0.000000	-368.824313	0.000000	-0.000000	0.000000
0.050000	-0.000105	-0.764264	-102.493993	30.795588	-102.493993	30.795588	-0.000101	-0.963751
0.100000	-0.000414	-1.528259	-101.582302	32.640851	-101.582302	32.640851	-0.000401	-1.927283
0.150000	-0.000913	-2.291740	-100.739251	38.562950	-100.739251	38.562950	-0.000892	-2.890389
0.200000	-0.001578	-3.054514	-99.862059	44.216729	-99.862059	44.216729	-0.001560	-3.852888
0.250000	-0.002391	-3.816373	-99.006349	48.883402	-99.006349	48.883402	-0.002400	-4.814559
0.300000	-0.003311	-4.577298	-98.220043	52.684531	-98.220043	52.684531	-0.003377	-5.775334
0.350000	-0.004319	-5.337201	-97.521521	55.746903	-97.521521	55.746903	-0.004480	-6.735065
0.400000	-0.005388	-6.096067	-96.920255	58.250953	-96.920255	58.250953	-0.005689	-7.693661
0.450000	-0.006499	-6.853910	-96.419490	60.356930	-96.419490	60.356930	-0.006984	-8.651057
0.500000	-0.007634	-7.610762	-96.019917	62.201799	-96.019917	62.201799	-0.008347	-9.607208
0.550000	-0.008779	-8.366669	-95.721665	63.905608	-95.721665	63.905608	-0.009761	-10.562088
0.600000	-0.009924	-9.121677	-95.525323	65.580230	-95.525323	65.580230	-0.011210	-11.515686
0.650000	-0.011063	-9.875833	-95.432409	67.338973	-95.432409	67.338973	-0.012681	-12.468004
0.700000	-0.012191	-10.629179	-95.445447	69.307432	-95.445447	69.307432	-0.014163	-13.419049
0.750000	-0.013306	-11.381752	-95.567586	71.636873	-95.567586	71.636873	-0.015646	-14.368833
0.800000	-0.014405	-12.133582	-95.801422	74.521850	-95.801422	74.521850	-0.017124	-15.317374
0.850000	-0.015488	-12.884689	-96.146162	78.223393	-96.146162	78.223393	-0.018590	-16.264686
0.900000	-0.016557	-13.635091	-96.591336	83.095721	-96.591336	83.095721	-0.020041	-17.210784
0.950000	-0.017612	-14.384797	-97.103837	89.601146	-97.103837	89.601146	-0.021473	-18.155680
1.000000	-0.018653	-15.133812	-97.604965	98.261403	-97.604965	98.261403	-0.022884	-19.099384
1.050000	-0.019683	-15.882136	-97.943159	109.435592	-97.943159	109.435592	-0.024274	-20.041903
1.100000	-0.020702	-16.629766	-97.900298	122.841163	-97.900298	122.841163	-0.025643	-20.983237
1.150000	-0.021712	-17.376697	-97.295742	137.111107	-97.295742	137.111107	-0.026990	-21.923387
1.200000	-0.022713	-18.122918	-96.140051	150.245030	-96.140051	150.245030	-0.028317	-22.862349
1.250000	-0.023708	-18.868420	-94.627635	160.903430	-94.627635	160.903430	-0.029623	-23.800115
1.300000	-0.024695	-19.613158	-92.960469	168.809871	-92.960469	168.809871	-0.030911	-24.736621
1.350000	-0.025678	-20.357150	-91.298174	174.551584	-91.298174	174.551584	-0.032181	-25.671906
1.400000	-0.026656	-21.100381	-89.703402	178.660594	-89.703402	178.660594	-0.033436	-26.605955
1.450000	-0.027629	-21.842838	-88.198315	-178.431285	-88.198315	-178.431285	-0.034677	-27.538751
1.500000	-0.028600	-22.584503	-86.786040	-176.406898	-86.786040	-176.406898	-0.035906	-28.470275
1.550000	-0.029568	-23.325363	-85.461793	-175.040731	-85.461793	-175.040731	-0.037123	-29.400505
1.600000	-0.030534	-24.065401	-84.218071	-174.173054	-84.218071	-174.173054	-0.038331	-30.329422
1.650000	-0.031498	-24.804600	-83.046906	-173.689700	-83.046906	-173.689700	-0.039530	-31.257002
1.700000	-0.032460	-25.542947	-81.940787	-173.507872	-81.940787	-173.507872	-0.040723	-32.183222
1.750000	-0.033421	-26.280423	-80.892971	-173.566518	-80.892971	-173.566518	-0.041909	-33.108060
1.800000	-0.034382	-27.017015	-79.897535	-173.819853	-79.897535	-173.819853	-0.043092	-34.031491
1.850000	-0.035343	-27.752705	-78.949326	-174.232978	-78.949326	-174.232978	-0.044271	-34.953492
1.900000	-0.036303	-28.487479	-78.043872	-174.778883	-78.043872	-174.778883	-0.045448	-35.874038
1.950000	-0.037263	-29.221321	-77.177290	-175.436361	-77.177290	-175.436361	-0.046623	-36.793106
2.000000	-0.038225	-29.954216	-76.346202	-176.188538	-76.346202	-176.188538	-0.047798	-37.710672
2.050000	-0.039187	-30.686149	-75.547656	-177.021829	-75.547656	-177.021829	-0.048973	-38.626713
2.100000	-0.040150	-31.417105	-74.779060	-177.925169	-74.779060	-177.925169	-0.050150	-39.541206
2.150000	-0.041114	-32.147069	-74.038134	-178.889452	-74.038134	-178.889452	-0.051328	-40.454128
2.200000	-0.042080	-32.876027	-73.322857	-179.907116	-73.322857	-179.907116	-0.052510	-41.365458
2.250000	-0.043049	-33.603965	-72.631434	179.028181	-72.631434	179.028181	-0.053694	-42.275174
2.300000	-0.044019	-34.330869	-71.962262	177.921794	-71.962262	177.921794	-0.054882	-43.183255
2.350000	-0.044992	-35.056725	-71.313906	176.778285	-71.313906	176.778285	-0.056075	-44.089680
2.400000	-0.045968	-35.781519	-70.685073	175.601567	-70.685073	175.601567	-0.057273	-44.994431
2.450000	-0.046947	-36.505238	-70.074595	174.395017	-70.074595	174.395017	-0.058476	-45.897488
2.500000	-0.047930	-37.227870	-69.481414	173.161570	-69.481414	173.161570	-0.059685	-46.798833
2.550000	-0.048917	-37.949352	-68.903620	171.902837	-68.903620	171.902837	-0.060901	-47.698373
2.600000	-0.049908	-38.669720	-68.341381	170.622201	-68.341381	170.622201	-0.062124	-48.596165
2.650000	-0.050903	-39.388961	-67.793886	169.321622	-67.793886	169.321622	-0.063354	-49.492195
2.700000	-0.051904	-40.107064	-67.260387	168.002841	-67.260387	168.002841	-0.064591	-50.386446
2.750000	-0.052909	-40.824016	-66.740198	166.667413	-66.740198	166.667413	-0.065837	-51.278904
2.800000	-0.053920	-41.539805	-66.232686	165.316733	-66.232686	165.316733	-0.067091	-52.169557
2.850000	-0.054937	-42.254422	-65.737267	163.952055	-65.737267	163.952055	-0.068354	-53.058391
2.900000	-0.055961	-42.967853	-65.253398	162.574515	-65.253398	162.574515	-0.069626	-53.945394
2.950000	-0.056990	-43.680090	-64.780576	161.185141	-64.780576	161.185141	-0.070907	-54.830556
3.000000	-0.058027	-44.391121	-64.318331	159.784871	-64.318331	159.784871	-0.072198	-55.713866
3.050000	-0.059071	-45.100936	-63.866228	158.374558	-63.866228	158.374558	-0.073500	-56.595316
3.100000	-0.060123	-45.809526	-63.423856	156.954987	-63.423856	156.954987	-0.074812	-57.474895
3.150000	-0.061182	-46.516880	-62.990834	155.526875	-62.990834	155.526875	-0.076134	-58.352596
3.200000	-0.062250	-47.222989	-62.566803	154.090887	-62.566803	154.090887	-0.077469	-59.228413
3.250000	-0.063326	-47.927845	-62.151425	152.647632	-62.151425	152.647632	-0.078814	-60.102338
3.300000	-0.064412	-48.631438	-61.744383	151.197676	-61.744383	151.197676	-0.080172	-60.974367
3.350000	-0.065507	-49.333760	-61.345377	149.741545	-61.345377	149.741545	-0.081542	-61.844494
3.400000	-0.066612	-50.034803	-60.954125	148.279725	-60.954125	148.279725	-0.082925	-62.712716
3.450000	-0.067727	-50.734560	-60.570360	146.812670	-60.570360	146.812670	-0.084321	-63.579029
3.500000	-0.068853	-51.433021	-60.193828	145.340804	-60.193828	145.340804	-0.085731	-64.443431
3.550000	-0.069989	-52.130181	-59.824290	143.864521	-59.824290	143.864521	-0.087154	-65.305920
3.600000	-0.071137	-52.826032	-59.461517	142.384191	-59.461517	142.384191	-0.088592	-66.166496
3.650000	-0.072296	-53.520568	-59.105293	140.900161	-59.105293	140.900161	-0.090044	-67.025157
3.700000	-0.073467	-54.213783	-58.755412	139.412755	-58.755412	139.412755	-0.091512	-67.881905
3.750000	-0.074651	-54.905669	-58.411677	137.922277	-58.411677	137.922277	-0.092995	-68.736740
3.800000	-0.075848	-55.596165	-58.073591	136.428906	-58.073591	136.428906	-0.094495	-69.589582
3.850000	-0.077058	-56.285320	-57.741307	134.933041	-57.741307	134.933041	-0.096012	-70.440516
3.900000	-0.078281	-56.973132	-57.414654	133.434934	-57.414654	133.434934	-0.097545	-71.289546
3.950000	-0.079519	-57.659595	-57.093466	131.934820	-57.093466	131.934820	-0.099096	-72.136675
4.000000	-0.080770	-58.344704	-56.777585	130.432921	-56.777585	130.432921	-0.100665	-72.981909
4.050000	-0.082036	-59.028456	-56.466860	128.929448	-56.466860	128.929448	-0.102252	-73.825252
4.100000	-0.083317	-59.710847	-56.161145	127.424598	-56.161145	127.424598	-0.103858	-74.666712
4.150000	-0.084614	-60.391873	-55.860301	125.918555	-55.860301	125.918555	-0.105484	-75.506293
4.200000	-0.085926	-61.071531	-55.564195	124.411496	-55.564195	124.411496	-0.107129	-76.344004
4.250000	-0.087255	-61.749818	-55.272697	122.903585	-55.272697	122.903585	-0.108795	-77.179853
4.300000	-0.088599	-62.426732	-54.985685	121.394978	-54.985685	121.394978	-0.110481	-78.013847
4.350000	-0.089961	-63.102271	-54.703039	119.885820	-54.703039	119.885820	-0.112189	-78.845997
4.400000	-0.091340	-63.776432	-54.424645	118.376248	-54.424645	118.376248	-0.113919	-79.676311
4.450000	-0.092736	-64.449214	-54.150393	116.866393	-54.150393	116.866393	-0.115672	-80.504801
4.500000	-0.094150	-65.120615	-53.880177	115.356376	-53.880177	115.356376	-0.117447	-81.331477
4.550000	-0.095583	-65.790635	-53.613894	113.846312	-53.613894	113.846312	-0.119246	-82.156351
4.600000	-0.097035	-66.459273	-53.351447	112.336306	-53.351447	112.336306	-0.121069	-82.979434
4.650000	-0.098505	-67.126529	-53.092739	110.826461	-53.092739	110.826461	-0.122916	-83.800740
4.700000	-0.099995	-67.792401	-52.837679	109.316870	-52.837679	109.316870	-0.124789	-84.620281
4.750000	-0.101505	-68.456891	-52.586178	107.807622	-52.586178	107.807622	-0.126688	-85.438071
4.800000	-0.103035	-69.119999	-52.338152	106.298800	-52.338152	106.298800	-0.128612	-86.254125
4.850000	-0.104585	-69.781725	-52.093517	104.790482	-52.093517	104.790482	-0.130564	-87.068457
4.900000	-0.106157	-70.442071	-51.852194	103.282740	-51.852194	103.282740	-0.132542	-87.881082
4.950000	-0.107750	-71.101038	-51.614106	101.775641	-51.614106	101.775641	-0.134549	-88.692018
5.000000	-0.109364	-71.758628	-51.379179	100.269249	-51.379179	100.269249	-0.136584	-89.501279
5.050000	-0.111014	-72.414066	-51.145595	98.764091	-51.145595	98.764091	-0.138665	-90.307958
5.100000	-0.112663	-73.069503	-50.918129	97.258933	-50.918129	97.258933	-0.140746	-91.114637
5.150000	-0.114357	-73.722319	-50.690883	95.755455	-50.690883	95.755455	-0.142884	-91.918219
5.200000	-0.116054	-74.374896	-50.468937	94.252130	-50.468937	94.252130	-0.145028	-92.721519
5.250000	-0.117793	-75.025100	-50.247732	92.750500	-50.247732	92.750500	-0.147226	-93.522073
5.300000	-0.119540	-75.674829	-50.031087	91.249209	-50.031087	91.249209	-0.149435	-94.322077
5.350000	-0.121325	-76.322434	-49.815648	89.749574	-49.815648	89.749574	-0.151694	-95.119675
5.400000	-0.123123	-76.969330	-49.604101	88.250490	-49.604101	88.250490	-0.153971	-95.916470
5.450000	-0.124956	-77.614350	-49.394172	86.752980	-49.394172	86.752980	-0.156294	-96.711186
5.500000	-0.126807	-78.258431	-49.187531	85.256255	-49.187531	85.256255	-0.158640	-97.504864
5.550000	-0.128690	-78.900880	-48.982874	83.760984	-48.982874	83.760984	-0.161029	-98.296779
5.600000	-0.130596	-79.542165	-48.780961	82.266752	-48.780961	82.266752	-0.163447	-99.087435
5.650000	-0.132529	-80.182063	-48.581354	80.773826	-48.581354	80.773826	-0.165903	-99.876630
5.700000	-0.134491	-80.820574	-48.384002	79.282206	-48.384002	79.282206	-0.168395	-100.664366
5.750000	-0.136477	-81.457939	-48.189240	77.791719	-48.189240	77.791719	-0.170920	-101.450928
5.800000	-0.138497	-82.093699	-47.996292	76.302819	-47.996292	76.302819	-0.173489	-102.235848
5.850000	-0.140537	-82.728552	-47.806182	74.814859	-47.806182	74.814859	-0.176084	-103.019866
5.900000	-0.142616	-83.361589	-47.617493	73.328781	-47.617493	73.328781	-0.178732	-103.802080
5.950000	-0.144711	-83.993952	-47.431858	71.843433	-47.431858	71.843433	-0.181400	-104.583647
6.000000	-0.146851	-84.624293	-47.247292	70.360276	-47.247292	70.360276	-0.184127	-105.363270
6.050000	-0.149003	-85.254190	-47.065964	68.877621	-47.065964	68.877621	-0.186869	-106.142482
6.100000	-0.151206	-85.881866	-46.885395	67.397481	-46.885395	67.397481	-0.189679	-106.919634
6.150000	-0.153415	-86.509322	-46.708220	65.917602	-46.708220	65.917602	-0.192497	-107.696590
6.200000	-0.155684	-87.134365	-46.531531	64.440580	-46.531531	64.440580	-0.195391	-108.471394
6.250000	-0.157952	-87.759408	-46.358364	62.963559	-46.358364	62.963559	-0.198286	-109.246198
6.300000	-0.160287	-88.381852	-46.185446	61.489761	-46.185446	61.489761	-0.201266	-110.018784
6.350000	-0.162622	-89.004296	-46.015903	60.015963	-46.015903	60.015963	-0.204247	-110.791370
6.400000	-0.165019	-89.624390	-45.846904	58.545223	-45.846904	58.545223	-0.207308	-111.562044
6.450000	-0.167422	-90.244271	-45.680889	57.074761	-45.680889	57.074761	-0.210376	-112.332546
6.500000	-0.169882	-90.862048	-45.515684	55.607182	-45.515684	55.607182	-0.213519	-113.101425
6.550000	-0.172355	-91.479404	-45.353111	54.140179	-45.353111	54.140179	-0.216677	-113.869981
6.600000	-0.174881	-92.094896	-45.191583	52.675871	-45.191583	52.675871	-0.219902	-114.637186
6.650000	-0.177424	-92.709767	-45.032369	51.212461	-45.032369	51.212461	-0.223151	-115.403940
6.700000	-0.180017	-93.323008	-44.874409	49.751544	-44.874409	49.751544	-0.226461	-116.169593
6.750000	-0.182634	-93.935434	-44.718478	48.291875	-44.718478	48.291875	-0.229802	-116.934697
6.800000	-0.185294	-94.546460	-44.563982	46.834482	-44.563982	46.834482	-0.233198	-117.698927
6.850000	-0.187985	-95.156485	-44.411263	45.378715	-44.411263	45.378715	-0.236633	-118.462534
6.900000	-0.190715	-95.765332	-44.260135	43.924989	-44.260135	43.924989	-0.240116	-119.225474
6.950000	-0.193482	-96.373001	-44.110561	42.473303	-44.110561	42.473303	-0.243647	-119.987747
7.000000	-0.196282	-96.979707	-43.962709	41.023398	-43.962709	41.023398	-0.247218	-120.749533
7.050000	-0.199127	-97.585065	-43.816217	39.575987	-43.816217	39.575987	-0.250846	-121.510638
7.100000	-0.201999	-98.189669	-43.671556	38.130071	-43.671556	38.130071	-0.254506	-122.271412
7.150000	-0.204924	-98.792765	-43.528086	36.687146	-43.528086	36.687146	-0.258232	-123.031524
7.200000	-0.207869	-99.395307	-43.386534	35.245400	-43.386534	35.245400	-0.261983	-123.791432
7.250000	-0.210874	-99.996189	-43.246029	33.807191	-43.246029	33.807191	-0.265809	-124.550730
7.300000	-0.213894	-100.596711	-43.107507	32.369807	-43.107507	32.369807	-0.269652	-125.309924
7.350000	-0.216981	-101.195430	-42.969912	30.936558	-42.969912	30.936558	-0.273579	-126.068596
7.400000	-0.220077	-101.793973	-42.834346	29.503743	-42.834346	29.503743	-0.277515	-126.827232
7.450000	-0.223248	-102.390582	-42.699607	28.075716	-42.699607	28.075716	-0.281545	-127.585472
7.500000	-0.226421	-102.987191	-42.566927	26.647688	-42.566927	26.647688	-0.285576	-128.343712
7.550000	-0.229677	-103.581742	-42.434992	25.225161	-42.434992	25.225161	-0.289709	-129.101721
7.600000	-0.232935	-104.176294	-42.305031	23.802633	-42.305031	23.802633	-0.293844	-129.859731
7.650000	-0.236271	-104.769010	-42.175944	22.385415	-42.175944	22.385415	-0.298075	-130.617721
7.700000	-0.239616	-105.361559	-42.048654	20.968679	-42.048654	20.968679	-0.302317	-131.375710
7.750000	-0.243033	-105.952487	-41.922345	19.557025	-41.922345	19.557025	-0.306647	-132.133863
7.800000	-0.246466	-106.543091	-41.797677	18.146387	-41.797677	18.146387	-0.310996	-132.892049
7.850000	-0.249965	-107.132278	-41.674076	16.740560	-41.674076	16.740560	-0.315426	-133.650553
7.900000	-0.253487	-107.720994	-41.551982	15.336337	-41.551982	15.336337	-0.319885	-134.409163
7.950000	-0.257069	-108.308489	-41.431022	13.936610	-41.431022	13.936610	-0.324418	-135.168212
8.000000	-0.260681	-108.895375	-41.311450	12.539130	-41.311450	12.539130	-0.328989	-135.927482
8.050000	-0.264347	-109.481230	-41.193065	11.145779	-41.193065	11.145779	-0.333627	-136.687279
8.100000	-0.268052	-110.066347	-41.075964	9.755377	-41.075964	9.755377	-0.338312	-137.447453
8.150000	-0.271803	-110.650610	-40.960086	8.368686	-40.960086	8.368686	-0.343056	-138.208206
8.200000	-0.275601	-111.234020	-40.845403	6.985705	-40.845403	6.985705	-0.347859	-138.969540
8.250000	-0.279439	-111.816744	-40.731966	5.605959	-40.731966	5.605959	-0.352712	-139.731468
8.300000	-0.283331	-112.398509	-40.619646	4.230743	-40.619646	4.230743	-0.357635	-140.494227
8.350000	-0.287255	-112.979747	-40.508583	2.858232	-40.508583	2.858232	-0.362599	-141.257555
8.400000	-0.291243	-113.559932	-40.398569	1.491129	-40.398569	1.491129	-0.367646	-142.022017
8.450000	-0.295255	-114.139738	-40.289813	0.126140	-40.289813	0.126140	-0.372725	-142.786977
8.500000	-0.299339	-114.718407	-40.182047	-1.232505	-40.182047	-1.232505	-0.377899	-143.553431
8.550000	-0.303441	-115.296835	-40.075530	-2.589683	-40.075530	-2.589683	-0.383097	-144.320267
8.600000	-0.307622	-115.874057	-39.969949	-3.939528	-39.969949	-3.939528	-0.388403	-145.089014
8.650000	-0.311813	-116.451163	-39.865604	-5.288611	-39.865604	-5.288611	-0.393722	-145.857977
8.700000	-0.316093	-117.027004	-39.762145	-6.629319	-39.762145	-6.629319	-0.399165	-146.629330
8.750000	-0.320374	-117.602845	-39.659903	-7.970026	-39.659903	-7.970026	-0.404611	-147.400684
8.800000	-0.324753	-118.177375	-39.558498	-9.301269	-39.558498	-9.301269	-0.410196	-148.174972
8.850000	-0.329134	-118.751905	-39.458263	-10.632512	-39.458263	-10.632512	-0.415784	-148.949259
8.900000	-0.333604	-119.325297	-39.358871	-11.954787	-39.358871	-11.954787	-0.421507	-149.726551
8.950000	-0.338085	-119.898587	-39.260576	-13.276248	-39.260576	-13.276248	-0.427244	-150.504115
9.000000	-0.342648	-120.470902	-39.163122	-14.589302	-39.163122	-14.589302	-0.433110	-151.284709
9.050000	-0.347229	-121.043023	-39.066698	-15.900676	-39.066698	-15.900676	-0.439004	-152.065908
9.100000	-0.351885	-121.614322	-38.971106	-17.204267	-38.971106	-17.204267	-0.445020	-152.850112
9.150000	-0.356568	-122.185348	-38.876480	-18.505263	-38.876480	-18.505263	-0.451079	-153.635319
9.200000	-0.361317	-122.755693	-38.782675	-19.799161	-38.782675	-19.799161	-0.457253	-154.423458
9.250000	-0.366101	-123.325697	-38.689774	-21.089508	-38.689774	-21.089508	-0.463486	-155.213062
9.300000	-0.370944	-123.895151	-38.597679	-22.373495	-38.597679	-22.373495	-0.469826	-156.005471
9.350000	-0.375830	-124.464211	-38.506426	-23.652939	-38.506426	-23.652939	-0.476244	-156.799881
9.400000	-0.380768	-125.032837	-38.415964	-24.926814	-38.415964	-24.926814	-0.482760	-157.596909
9.450000	-0.385756	-125.601029	-38.326280	-26.195120	-38.326280	-26.195120	-0.489375	-158.396552
9.500000	-0.390788	-126.168893	-38.237375	-27.458697	-38.237375	-27.458697	-0.496078	-159.198563
9.550000	-0.395879	-126.736296	-38.149179	-28.715653	-38.149179	-28.715653	-0.502903	-160.003885
9.600000	-0.401005	-127.303463	-38.061752	-29.968763	-38.061752	-29.968763	-0.509804	-160.811257
9.650000	-0.406198	-127.870158	-37.974962	-31.214179	-37.974962	-31.214179	-0.516855	-161.622726
9.700000	-0.411419	-128.436696	-37.888935	-32.456669	-37.888935	-32.456669	-0.523968	-162.435854
9.750000	-0.416715	-129.002764	-37.803468	-33.690380	-37.803468	-33.690380	-0.531261	-163.253957
9.800000	-0.422030	-129.568742	-37.718765	-34.922117	-37.718765	-34.922117	-0.538601	-164.073252
9.850000	-0.427428	-130.134266	-37.634535	-36.143981	-37.634535	-36.143981	-0.546155	-164.898502
9.900000	-0.432838	-130.699752	-37.551076	-37.364848	-37.551076	-37.364848	-0.553739	-165.724391
9.950000	-0.438338	-131.264818	-37.467998	-38.574749	-37.467998	-38.574749	-0.561576	-166.557322
10.000000	-0.443842	-131.829883	-37.385706	-39.784650	-37.385706	-39.784650	-0.569421	-167.390253
