! freq	dB(S11)	phase(S11)	dB(S12)	phase(S12)	
!     	dB(S21)	phase(S21)	dB(S22)	phase(S22)	
!S-par simulation data
#  GHz  S  DB  R 50
0.000000	-0.000000	0.000000	-345.191325	0.000000	-345.191325	0.000000	-0.000000	0.000000
0.050000	-0.001999	-1.030445	-106.344715	55.694445	-106.344715	55.694445	-0.002618	-1.506349
0.100000	-0.005299	-2.079901	-99.770729	70.838835	-99.770729	70.838835	-0.007311	-3.037118
0.150000	-0.007730	-3.139589	-96.178490	75.570184	-96.178490	75.570184	-0.011069	-4.583347
0.200000	-0.009368	-4.201338	-93.705975	77.541591	-93.705975	77.541591	-0.013709	-6.133602
0.250000	-0.010550	-5.262546	-91.843894	78.310714	-91.843894	78.310714	-0.015624	-7.683385
0.300000	-0.011544	-6.322667	-90.368746	78.549069	-90.368746	78.549069	-0.017210	-9.231384
0.350000	-0.012449	-7.381575	-89.171181	78.462117	-89.171181	78.462117	-0.018623	-10.777161
0.400000	-0.013331	-8.439276	-88.186158	78.192980	-88.186158	78.192980	-0.019971	-12.320561
0.450000	-0.014223	-9.495788	-87.373004	77.831521	-87.373004	77.831521	-0.021311	-13.861493
0.500000	-0.015143	-10.551113	-86.704977	77.443036	-86.704977	77.443036	-0.022678	-15.399868
0.550000	-0.016099	-11.605240	-86.163938	77.081678	-86.163938	77.081678	-0.024086	-16.935582
0.600000	-0.017096	-12.658144	-85.737405	76.797890	-85.737405	76.797890	-0.025545	-18.468518
0.650000	-0.018129	-13.709962	-85.404825	76.619182	-85.404825	76.619182	-0.027049	-19.998947
0.700000	-0.019207	-14.760311	-85.185197	76.645206	-85.185197	76.645206	-0.028614	-21.525928
0.750000	-0.020323	-15.809327	-85.062035	76.925399	-85.062035	76.925399	-0.030229	-23.049737
0.800000	-0.021473	-16.856972	-85.032736	77.542845	-85.032736	77.542845	-0.031890	-24.570242
0.850000	-0.022657	-17.903078	-85.102425	78.655655	-85.102425	78.655655	-0.033595	-26.086999
0.900000	-0.023866	-18.947872	-85.250924	80.303409	-85.250924	80.303409	-0.035333	-27.600533
0.950000	-0.025099	-19.991178	-85.480048	82.706637	-85.480048	82.706637	-0.037102	-29.110383
1.000000	-0.026353	-21.032959	-85.774946	86.087535	-85.774946	86.087535	-0.038898	-30.616430
1.050000	-0.027625	-22.073181	-86.106191	90.709519	-86.106191	90.709519	-0.040715	-32.118559
1.100000	-0.028912	-23.111808	-86.420111	96.839523	-86.420111	96.839523	-0.042549	-33.616661
1.150000	-0.030211	-24.148809	-86.629848	104.644524	-86.629848	104.644524	-0.044395	-35.110630
1.200000	-0.031520	-25.184153	-86.619203	114.002708	-86.619203	114.002708	-0.046250	-36.600367
1.250000	-0.032836	-26.217810	-86.277454	124.311145	-86.277454	124.311145	-0.048110	-38.085778
1.300000	-0.034157	-27.249675	-85.542189	134.493441	-85.542189	134.493441	-0.049971	-39.566575
1.350000	-0.035482	-28.279794	-84.489914	143.542869	-84.489914	143.542869	-0.051830	-41.042862
1.400000	-0.036809	-29.308139	-83.236682	150.967005	-83.236682	150.967005	-0.053686	-42.514559
1.450000	-0.038136	-30.334684	-81.892710	156.724913	-81.892710	156.724913	-0.055535	-43.981589
1.500000	-0.039462	-31.359404	-80.534848	161.017630	-80.534848	161.017630	-0.057376	-45.443881
1.550000	-0.040788	-32.382272	-79.207364	164.115675	-79.207364	164.115675	-0.059208	-46.901366
1.600000	-0.042111	-33.403265	-77.932033	166.272769	-77.932033	166.272769	-0.061029	-48.353981
1.650000	-0.043431	-34.422359	-76.717393	167.697690	-76.717393	167.697690	-0.062839	-49.801666
1.700000	-0.044749	-35.439528	-75.564895	168.552877	-75.564895	168.552877	-0.064637	-51.244364
1.750000	-0.046064	-36.454750	-74.472480	168.961930	-74.472480	168.961930	-0.066421	-52.682023
1.800000	-0.047375	-37.468001	-73.436535	169.018385	-73.436535	169.018385	-0.068194	-54.114595
1.850000	-0.048683	-38.479259	-72.452908	168.793250	-72.452908	168.793250	-0.069953	-55.542033
1.900000	-0.049988	-39.488501	-71.517420	168.340848	-71.517420	168.340848	-0.071700	-56.964297
1.950000	-0.051290	-40.495705	-70.626105	167.703137	-70.626105	167.703137	-0.073435	-58.381349
2.000000	-0.052590	-41.500849	-69.775315	166.912872	-69.775315	166.912872	-0.075159	-59.793153
2.050000	-0.053887	-42.503911	-68.961739	165.995892	-68.961739	165.995892	-0.076871	-61.199679
2.100000	-0.055183	-43.504872	-68.182405	164.972795	-68.182405	164.972795	-0.078573	-62.600899
2.150000	-0.056477	-44.503709	-67.434649	163.860167	-67.434649	163.860167	-0.080265	-63.996788
2.200000	-0.057770	-45.500405	-66.716088	162.671485	-66.716088	162.671485	-0.081949	-65.387326
2.250000	-0.059064	-46.494938	-66.024591	161.417798	-66.024591	161.417798	-0.083626	-66.772496
2.300000	-0.060357	-47.487290	-65.358247	160.108239	-65.358247	160.108239	-0.085295	-68.152282
2.350000	-0.061651	-48.477443	-64.715340	158.750417	-64.715340	158.750417	-0.086959	-69.526674
2.400000	-0.062947	-49.465378	-64.094324	157.350714	-64.094324	157.350714	-0.088619	-70.895663
2.450000	-0.064244	-50.451079	-63.493804	155.914520	-63.493804	155.914520	-0.090275	-72.259247
2.500000	-0.065545	-51.434530	-62.912519	154.446413	-62.912519	154.446413	-0.091928	-73.617422
2.550000	-0.066849	-52.415614	-62.348524	152.949248	-62.348524	152.949248	-0.093581	-74.969956
2.600000	-0.068157	-53.394415	-61.801673	151.427706	-61.801673	151.427706	-0.095233	-76.317090
2.650000	-0.069470	-54.370919	-61.271002	149.884638	-61.271002	149.884638	-0.096887	-77.658832
2.700000	-0.070789	-55.345112	-60.755631	148.322521	-60.755631	148.322521	-0.098543	-78.995194
2.750000	-0.072113	-56.316982	-60.254752	146.743517	-60.254752	146.743517	-0.100202	-80.326188
2.800000	-0.073444	-57.286516	-59.767622	145.149523	-59.767622	145.149523	-0.101865	-81.651834
2.850000	-0.074783	-58.253703	-59.293560	143.542205	-59.293560	143.542205	-0.103535	-82.972151
2.900000	-0.076130	-59.218533	-58.831935	141.923034	-58.831935	141.923034	-0.105210	-84.287162
2.950000	-0.077485	-60.180997	-58.382162	140.293314	-58.382162	140.293314	-0.106894	-85.596893
3.000000	-0.078850	-61.141086	-57.943701	138.654203	-57.943701	138.654203	-0.108586	-86.901372
3.050000	-0.080224	-62.098792	-57.516051	137.006734	-57.516051	137.006734	-0.110288	-88.200631
3.100000	-0.081609	-63.054108	-57.098743	135.351830	-57.098743	135.351830	-0.112000	-89.494702
3.150000	-0.083006	-64.007028	-56.691341	133.690319	-56.691341	133.690319	-0.113725	-90.783623
3.200000	-0.084414	-64.957548	-56.293440	132.022945	-56.293440	132.022945	-0.115461	-92.067431
3.250000	-0.085834	-65.905662	-55.904658	130.350379	-55.904658	130.350379	-0.117211	-93.346168
3.300000	-0.087268	-66.851368	-55.524639	128.673228	-55.524639	128.673228	-0.118976	-94.619877
3.350000	-0.088715	-67.794664	-55.153049	126.992042	-55.153049	126.992042	-0.120755	-95.888604
3.400000	-0.090176	-68.735547	-54.789572	125.307319	-54.789572	125.307319	-0.122551	-97.152397
3.450000	-0.091652	-69.674016	-54.433915	123.619514	-54.433915	123.619514	-0.124363	-98.411305
3.500000	-0.093143	-70.610074	-54.085797	121.929042	-54.085797	121.929042	-0.126193	-99.665380
3.550000	-0.094650	-71.543719	-53.744956	120.236284	-53.744956	120.236284	-0.128041	-100.914678
3.600000	-0.096173	-72.474955	-53.411144	118.541586	-53.411144	118.541586	-0.129908	-102.159253
3.650000	-0.097713	-73.403785	-53.084126	116.845269	-53.084126	116.845269	-0.131795	-103.399164
3.700000	-0.099271	-74.330211	-52.763680	115.147627	-52.763680	115.147627	-0.133703	-104.634470
3.750000	-0.100846	-75.254240	-52.449595	113.448933	-52.449595	113.448933	-0.135631	-105.865234
3.800000	-0.102441	-76.175772	-52.141465	111.749414	-52.141465	111.749414	-0.137582	-107.091325
3.850000	-0.104055	-77.094919	-51.839325	110.049345	-51.839325	110.049345	-0.139556	-108.313008
3.900000	-0.105688	-78.011688	-51.542995	108.348942	-51.542995	108.348942	-0.141552	-109.530347
3.950000	-0.107342	-78.926087	-51.252301	106.648403	-51.252301	106.648403	-0.143572	-110.743413
4.000000	-0.109016	-79.838126	-50.967076	104.947914	-50.967076	104.947914	-0.145616	-111.952274
4.050000	-0.110711	-80.747813	-50.687165	103.247648	-50.687165	103.247648	-0.147684	-113.157001
4.100000	-0.112428	-81.655161	-50.412416	101.547769	-50.412416	101.547769	-0.149777	-114.357666
4.150000	-0.114166	-82.560181	-50.142686	99.848427	-50.142686	99.848427	-0.151896	-115.554343
4.200000	-0.115927	-83.462884	-49.877838	98.149765	-49.877838	98.149765	-0.154041	-116.747107
4.250000	-0.117711	-84.363285	-49.617740	96.451917	-49.617740	96.451917	-0.156212	-117.936033
4.300000	-0.119519	-85.261396	-49.362267	94.755008	-49.362267	94.755008	-0.158410	-119.121199
4.350000	-0.121350	-86.157234	-49.111298	93.059157	-49.111298	93.059157	-0.160635	-120.302683
4.400000	-0.123206	-87.050813	-48.864717	91.364476	-48.864717	91.364476	-0.162888	-121.480564
4.450000	-0.125087	-87.942149	-48.622413	89.671068	-48.622413	89.671068	-0.165168	-122.654922
4.500000	-0.126993	-88.831260	-48.384280	87.979033	-48.384280	87.979033	-0.167477	-123.825838
4.550000	-0.128924	-89.718163	-48.150214	86.288464	-48.150214	86.288464	-0.169815	-124.993394
4.600000	-0.130882	-90.602877	-47.920118	84.599449	-47.920118	84.599449	-0.172182	-126.157673
4.650000	-0.132867	-91.485421	-47.693896	82.912072	-47.693896	82.912072	-0.174578	-127.318758
4.700000	-0.134878	-92.365814	-47.471457	81.226409	-47.471457	81.226409	-0.177003	-128.476734
4.750000	-0.136917	-93.244078	-47.252713	79.542535	-47.252713	79.542535	-0.179458	-129.631685
4.800000	-0.138984	-94.120233	-47.037578	77.860519	-47.037578	77.860519	-0.181943	-130.783698
4.850000	-0.141080	-94.994300	-46.825970	76.180427	-46.825970	76.180427	-0.184459	-131.932858
4.900000	-0.143204	-95.866304	-46.617812	74.502320	-46.617812	74.502320	-0.187005	-133.079254
4.950000	-0.145358	-96.736266	-46.413025	72.826256	-46.413025	72.826256	-0.189582	-134.222971
5.000000	-0.147541	-97.604211	-46.211536	71.152289	-46.211536	71.152289	-0.192190	-135.364098
5.050000	-0.149756	-98.470078	-46.013218	69.480565	-46.013218	69.480565	-0.194830	-136.502620
5.100000	-0.152002	-99.333978	-45.818065	67.811041	-45.818065	67.811041	-0.197502	-137.638738
5.150000	-0.154278	-100.195939	-45.626009	66.143759	-45.626009	66.143759	-0.200205	-138.772541
5.200000	-0.156586	-101.055986	-45.436985	64.478761	-45.436985	64.478761	-0.202940	-139.904119
5.250000	-0.158926	-101.914146	-45.250932	62.816085	-45.250932	62.816085	-0.205706	-141.033564
5.300000	-0.161299	-102.770447	-45.067787	61.155765	-45.067787	61.155765	-0.208505	-142.160964
5.350000	-0.163704	-103.624916	-44.887493	59.497834	-44.887493	59.497834	-0.211335	-143.286412
5.400000	-0.166142	-104.477582	-44.709992	57.842320	-44.709992	57.842320	-0.214198	-144.409998
5.450000	-0.168614	-105.328474	-44.535230	56.189252	-44.535230	56.189252	-0.217092	-145.531815
5.500000	-0.171119	-106.177621	-44.363154	54.538654	-44.363154	54.538654	-0.220019	-146.651953
5.550000	-0.173660	-107.025054	-44.193711	52.890548	-44.193711	52.890548	-0.222978	-147.770506
5.600000	-0.176235	-107.870803	-44.026852	51.244954	-44.026852	51.244954	-0.225970	-148.887564
5.650000	-0.178845	-108.714900	-43.862530	49.601889	-43.862530	49.601889	-0.228994	-150.003222
5.700000	-0.181491	-109.557376	-43.700696	47.961369	-43.700696	47.961369	-0.232050	-151.117570
5.750000	-0.184172	-110.398262	-43.541307	46.323408	-43.541307	46.323408	-0.235139	-152.230702
5.800000	-0.186891	-111.237593	-43.384318	44.688018	-43.384318	44.688018	-0.238260	-153.342711
5.850000	-0.189646	-112.075399	-43.229687	43.055208	-43.229687	43.055208	-0.241413	-154.453689
5.900000	-0.192438	-112.911716	-43.077374	41.424988	-43.077374	41.424988	-0.244599	-155.563730
5.950000	-0.195268	-113.746577	-42.927339	39.797363	-42.927339	39.797363	-0.247816	-156.672926
6.000000	-0.198136	-114.580016	-42.779545	38.172340	-42.779545	38.172340	-0.251066	-157.781371
6.050000	-0.201043	-115.412068	-42.633953	36.549922	-42.633953	36.549922	-0.254349	-158.889158
6.100000	-0.203988	-116.242769	-42.490530	34.930112	-42.490530	34.930112	-0.257663	-159.996379
6.150000	-0.206972	-117.072154	-42.349240	33.312911	-42.349240	33.312911	-0.261009	-161.103129
6.200000	-0.209996	-117.900259	-42.210052	31.698321	-42.210052	31.698321	-0.264387	-162.209499
6.250000	-0.213060	-118.727120	-42.072932	30.086341	-42.072932	30.086341	-0.267797	-163.315584
6.300000	-0.216167	-119.552725	-41.937848	28.477084	-41.937848	28.477084	-0.271239	-164.421471
6.350000	-0.219313	-120.377164	-41.804777	26.870435	-41.804777	26.870435	-0.274713	-165.527266
6.400000	-0.222501	-121.200475	-41.673688	25.266391	-41.673688	25.266391	-0.278218	-166.633062
6.450000	-0.225731	-122.022697	-41.544557	23.664951	-41.544557	23.664951	-0.281754	-167.738951
6.500000	-0.229002	-122.843867	-41.417355	22.066112	-41.417355	22.066112	-0.285321	-168.845026
6.550000	-0.232315	-123.664026	-41.292059	20.469872	-41.292059	20.469872	-0.288918	-169.951379
6.600000	-0.235672	-124.483211	-41.168644	18.876227	-41.168644	18.876227	-0.292546	-171.058101
6.650000	-0.239070	-125.301464	-41.047087	17.285177	-41.047087	17.285177	-0.296203	-172.165285
6.700000	-0.242513	-126.118823	-40.927366	15.696718	-40.927366	15.696718	-0.299891	-173.273023
6.750000	-0.245999	-126.935330	-40.809460	14.110851	-40.809460	14.110851	-0.303608	-174.381404
6.800000	-0.249528	-127.751025	-40.693348	12.527574	-40.693348	12.527574	-0.307354	-175.490521
6.850000	-0.253103	-128.565950	-40.579013	10.946887	-40.579013	10.946887	-0.311129	-176.600464
6.900000	-0.256721	-129.380145	-40.466434	9.368792	-40.466434	9.368792	-0.314932	-177.711324
6.950000	-0.260385	-130.193654	-40.355596	7.793290	-40.355596	7.793290	-0.318764	-178.823189
7.000000	-0.264094	-131.006517	-40.246481	6.220386	-40.246481	6.220386	-0.322623	-179.936151
7.050000	-0.267849	-131.818779	-40.139074	4.650083	-40.139074	4.650083	-0.326510	178.949702
7.100000	-0.271649	-132.630481	-40.033359	3.082388	-40.033359	3.082388	-0.330423	177.834281
7.150000	-0.275496	-133.441667	-39.929323	1.517309	-39.929323	1.517309	-0.334363	176.717498
7.200000	-0.279389	-134.252382	-39.826952	-0.045145	-39.826952	-0.045145	-0.338330	175.599264
7.250000	-0.283329	-135.062667	-39.726234	-1.604962	-39.726234	-1.604962	-0.342321	174.479493
7.300000	-0.287316	-135.872569	-39.627156	-3.162130	-39.627156	-3.162130	-0.346338	173.358098
7.350000	-0.291351	-136.682132	-39.529707	-4.716632	-39.529707	-4.716632	-0.350380	172.234993
7.400000	-0.295433	-137.491401	-39.433877	-6.268451	-39.433877	-6.268451	-0.354445	171.110092
7.450000	-0.299563	-138.300421	-39.339655	-7.817568	-39.339655	-7.817568	-0.358534	169.983310
7.500000	-0.303741	-139.109238	-39.247032	-9.363959	-39.247032	-9.363959	-0.362646	168.854563
7.550000	-0.307969	-139.917894	-39.156027	-10.907481	-39.156027	-10.907481	-0.366781	167.723675
7.600000	-0.312246	-140.726444	-39.066606	-12.448222	-39.066606	-12.448222	-0.370937	166.590648
7.650000	-0.316572	-141.534934	-38.978761	-13.986153	-38.978761	-13.986153	-0.375115	165.455400
7.700000	-0.320948	-142.343412	-38.892484	-15.521242	-38.892484	-15.521242	-0.379313	164.317851
7.750000	-0.325372	-143.151926	-38.807768	-17.053451	-38.807768	-17.053451	-0.383530	163.177920
7.800000	-0.329846	-143.960523	-38.724606	-18.582742	-38.724606	-18.582742	-0.387766	162.035529
7.850000	-0.334369	-144.769252	-38.642992	-20.109074	-38.642992	-20.109074	-0.392020	160.890599
7.900000	-0.338942	-145.578161	-38.562920	-21.632403	-38.562920	-21.632403	-0.396292	159.743052
7.950000	-0.343566	-146.387299	-38.484384	-23.152679	-38.484384	-23.152679	-0.400580	158.592814
8.000000	-0.348239	-147.196715	-38.407378	-24.669854	-38.407378	-24.669854	-0.404884	157.439809
8.050000	-0.352963	-148.006460	-38.331898	-26.183874	-38.331898	-26.183874	-0.409203	156.283963
8.100000	-0.357737	-148.816582	-38.257938	-27.694681	-38.257938	-27.694681	-0.413535	155.125203
8.150000	-0.362562	-149.627133	-38.185492	-29.202217	-38.185492	-29.202217	-0.417881	153.963459
8.200000	-0.367437	-150.438163	-38.114557	-30.706418	-38.114557	-30.706418	-0.422239	152.798660
8.250000	-0.372363	-151.249723	-38.045127	-32.207221	-38.045127	-32.207221	-0.426609	151.630739
8.300000	-0.377339	-152.061865	-37.977198	-33.704556	-37.977198	-33.704556	-0.430988	150.459627
8.350000	-0.382367	-152.874639	-37.910764	-35.198351	-37.910764	-35.198351	-0.435377	149.285259
8.400000	-0.387445	-153.688100	-37.845821	-36.688534	-37.845821	-36.688534	-0.439775	148.107572
8.450000	-0.392575	-154.502298	-37.782365	-38.175027	-37.782365	-38.175027	-0.444179	146.926503
8.500000	-0.397755	-155.317287	-37.720389	-39.657752	-37.720389	-39.657752	-0.448590	145.741991
8.550000	-0.402985	-156.133120	-37.659890	-41.136625	-37.659890	-41.136625	-0.453006	144.553978
8.600000	-0.408267	-156.949851	-37.600863	-42.611562	-37.600863	-42.611562	-0.457426	143.362407
8.650000	-0.413600	-157.767534	-37.543301	-44.082478	-37.543301	-44.082478	-0.461849	142.167222
8.700000	-0.418983	-158.586222	-37.487199	-45.549282	-37.487199	-45.549282	-0.466273	140.968371
8.750000	-0.424416	-159.405972	-37.432552	-47.011884	-37.432552	-47.011884	-0.470698	139.765802
8.800000	-0.429903	-160.226888	-37.379403	-48.469999	-37.379403	-48.469999	-0.475122	138.559300
8.850000	-0.435439	-161.048981	-37.327697	-49.923714	-37.327697	-49.923714	-0.479545	137.348982
8.900000	-0.441026	-161.872306	-37.277428	-51.372933	-37.277428	-51.372933	-0.483964	136.134802
8.950000	-0.446662	-162.696919	-37.228589	-52.817556	-37.228589	-52.817556	-0.488378	134.916719
9.000000	-0.452348	-163.522878	-37.181173	-54.257485	-37.181173	-54.257485	-0.492787	133.694695
9.050000	-0.458084	-164.350239	-37.135171	-55.692618	-37.135171	-55.692618	-0.497189	132.468691
9.100000	-0.463869	-165.179061	-37.090576	-57.122853	-37.090576	-57.122853	-0.501582	131.238675
9.150000	-0.469702	-166.009399	-37.047380	-58.548087	-37.047380	-58.548087	-0.505966	130.004615
9.200000	-0.475585	-166.841313	-37.005574	-59.968217	-37.005574	-59.968217	-0.510339	128.766482
9.250000	-0.481515	-167.674862	-36.965148	-61.383137	-36.965148	-61.383137	-0.514699	127.524251
9.300000	-0.487493	-168.510104	-36.926093	-62.792745	-36.926093	-62.792745	-0.519045	126.277898
9.350000	-0.493519	-169.347099	-36.888398	-64.196934	-36.888398	-64.196934	-0.523377	125.027405
9.400000	-0.499591	-170.185906	-36.852055	-65.595601	-36.852055	-65.595601	-0.527691	123.772754
9.450000	-0.505710	-171.026586	-36.817051	-66.988642	-36.817051	-66.988642	-0.531988	122.513932
9.500000	-0.511875	-171.869198	-36.783375	-68.375952	-36.783375	-68.375952	-0.536265	121.250928
9.550000	-0.518086	-172.713805	-36.751016	-69.757428	-36.751016	-69.757428	-0.540522	119.983737
9.600000	-0.524341	-173.560466	-36.719961	-71.132969	-36.719961	-71.132969	-0.544756	118.712354
9.650000	-0.530640	-174.409244	-36.690197	-72.502471	-36.690197	-72.502471	-0.548967	117.436780
9.700000	-0.536983	-175.260201	-36.661712	-73.865836	-36.661712	-73.865836	-0.553153	116.157018
9.750000	-0.543368	-176.113399	-36.634493	-75.222964	-36.634493	-75.222964	-0.557312	114.873076
9.800000	-0.549795	-176.968900	-36.608524	-76.573757	-36.608524	-76.573757	-0.561444	113.584964
9.850000	-0.556264	-177.826769	-36.583793	-77.918120	-36.583793	-77.918120	-0.565546	112.292698
9.900000	-0.562773	-178.687067	-36.560284	-79.255959	-36.560284	-79.255959	-0.569617	110.996296
9.950000	-0.569321	-179.549860	-36.537982	-80.587182	-36.537982	-80.587182	-0.573657	109.695781
10.000000	-0.575908	179.584789	-36.516871	-81.911698	-36.516871	-81.911698	-0.577663	108.391179
