! freq	dB(S11)	phase(S11)	dB(S12)	phase(S12)	
!     	dB(S21)	phase(S21)	dB(S22)	phase(S22)	
!S-par simulation data
#  GHz  S  DB  R 50
0.000000	-0.000000	0.000000	-335.801501	0.000000	-335.801501	0.000000	-0.000000	0.000000
0.050000	-0.000761	-1.225204	-110.873251	89.331009	-110.873251	89.331009	-0.000545	-0.775374
0.100000	-0.002600	-2.445027	-104.897151	88.205300	-104.897151	88.205300	-0.001725	-1.546211
0.150000	-0.004780	-3.658541	-101.444745	87.201460	-101.444745	87.201460	-0.002940	-2.312808
0.200000	-0.006851	-4.867534	-99.048016	86.254892	-99.048016	86.254892	-0.003980	-3.077095
0.250000	-0.008727	-6.074328	-97.234864	85.354511	-97.234864	85.354511	-0.004892	-3.840480
0.300000	-0.010418	-7.279900	-95.804815	84.508404	-95.804815	84.508404	-0.005727	-4.603405
0.350000	-0.011975	-8.484816	-94.649313	83.726443	-94.649313	83.726443	-0.006535	-5.366053
0.400000	-0.013446	-9.689267	-93.705375	83.022559	-93.705375	83.022559	-0.007352	-6.128453
0.450000	-0.014863	-10.893200	-92.940465	82.423324	-92.940465	82.423324	-0.008203	-6.890563
0.500000	-0.016256	-12.096554	-92.319011	81.940714	-92.319011	81.940714	-0.009097	-7.652381
0.550000	-0.017637	-13.299191	-91.822964	81.599758	-91.822964	81.599758	-0.010040	-8.413891
0.600000	-0.019017	-14.500966	-91.439980	81.431695	-91.439980	81.431695	-0.011031	-9.175087
0.650000	-0.020400	-15.701733	-91.161689	81.475961	-91.161689	81.475961	-0.012066	-9.935975
0.700000	-0.021791	-16.901356	-90.982547	81.782901	-90.982547	81.782901	-0.013137	-10.696558
0.750000	-0.023191	-18.099621	-90.904648	82.442982	-90.904648	82.442982	-0.014230	-11.456813
0.800000	-0.024603	-19.296401	-90.924525	83.555899	-90.924525	83.555899	-0.015329	-12.216707
0.850000	-0.026027	-20.491612	-91.036034	85.245194	-91.036034	85.245194	-0.016416	-12.976175
0.900000	-0.027460	-21.685274	-91.227234	87.619903	-91.227234	87.619903	-0.017481	-13.735163
0.950000	-0.028904	-22.877203	-91.491353	90.920711	-91.491353	90.920711	-0.018515	-14.493535
1.000000	-0.030357	-24.067315	-91.804004	95.403627	-91.804004	95.403627	-0.019517	-15.251182
1.050000	-0.031819	-25.255531	-92.119180	101.346710	-92.119180	101.346710	-0.020489	-16.008012
1.100000	-0.033288	-26.441777	-92.358868	108.967198	-92.358868	108.967198	-0.021437	-16.763957
1.150000	-0.034762	-27.625988	-92.411060	118.251136	-92.411060	118.251136	-0.022368	-17.518978
1.200000	-0.036242	-28.808102	-92.154833	128.737557	-92.154833	128.737557	-0.023290	-18.273057
1.250000	-0.037725	-29.988060	-91.519132	139.471688	-91.519132	139.471688	-0.024207	-19.026190
1.300000	-0.039211	-31.165711	-90.514511	149.289137	-90.514511	149.289137	-0.025124	-19.778343
1.350000	-0.040698	-32.341099	-89.270581	157.521513	-89.270581	157.521513	-0.026042	-20.529564
1.400000	-0.042186	-33.514178	-87.907453	164.026396	-87.907453	164.026396	-0.026964	-21.279863
1.450000	-0.043672	-34.684903	-86.513916	168.971793	-86.513916	168.971793	-0.027890	-22.029245
1.500000	-0.045158	-35.853233	-85.142894	172.631718	-85.142894	172.631718	-0.028820	-22.777714
1.550000	-0.046642	-37.019129	-83.821225	175.275816	-83.821225	175.275816	-0.029753	-23.525273
1.600000	-0.048123	-38.182553	-82.560056	177.129824	-82.560056	177.129824	-0.030691	-24.271920
1.650000	-0.049602	-39.343472	-81.362036	178.370334	-81.362036	178.370334	-0.031632	-25.017651
1.700000	-0.051077	-40.501850	-80.225572	179.131719	-80.225572	179.131719	-0.032576	-25.762463
1.750000	-0.052549	-41.657657	-79.147148	179.515406	-79.147148	179.515406	-0.033523	-26.506347
1.800000	-0.054018	-42.810862	-78.122545	179.598111	-78.122545	179.598111	-0.034472	-27.249296
1.850000	-0.055483	-43.961436	-77.147448	179.438277	-77.147448	179.438277	-0.035424	-27.991301
1.900000	-0.056945	-45.109353	-76.217738	179.080858	-76.217738	179.080858	-0.036377	-28.732352
1.950000	-0.058404	-46.254585	-75.329612	178.560799	-75.329612	178.560799	-0.037334	-29.472439
2.000000	-0.059860	-47.397110	-74.479624	177.905566	-74.479624	177.905566	-0.038292	-30.211549
2.050000	-0.061314	-48.536902	-73.664677	177.136978	-73.664677	177.136978	-0.039253	-30.949671
2.100000	-0.062765	-49.673941	-72.882003	176.272544	-72.882003	176.272544	-0.040216	-31.686793
2.150000	-0.064215	-50.808204	-72.129126	175.326453	-72.129126	175.326453	-0.041181	-32.422903
2.200000	-0.065664	-51.939674	-71.403839	174.310308	-71.403839	174.310308	-0.042149	-33.157987
2.250000	-0.067112	-53.068331	-70.704163	173.233681	-70.704163	173.233681	-0.043121	-33.892034
2.300000	-0.068560	-54.194158	-70.028325	172.104527	-70.028325	172.104527	-0.044095	-34.625030
2.350000	-0.070008	-55.317140	-69.374734	170.929512	-69.374734	170.929512	-0.045072	-35.356962
2.400000	-0.071458	-56.437261	-68.741952	169.714258	-68.741952	169.714258	-0.046053	-36.087818
2.450000	-0.072910	-57.554509	-68.128684	168.463535	-68.128684	168.463535	-0.047038	-36.817585
2.500000	-0.074364	-58.668872	-67.533754	167.181421	-67.533754	167.181421	-0.048028	-37.546250
2.550000	-0.075822	-59.780212	-66.955177	165.870346	-66.955177	165.870346	-0.049021	-38.273751
2.600000	-0.077284	-60.888646	-66.392998	164.534638	-66.392998	164.534638	-0.050020	-39.000125
2.650000	-0.078751	-61.994165	-65.846314	163.176876	-65.846314	163.176876	-0.051023	-39.725358
2.700000	-0.080224	-63.096763	-65.314302	161.799313	-65.314302	161.799313	-0.052032	-40.449438
2.750000	-0.081703	-64.196435	-64.796206	160.403924	-64.796206	160.403924	-0.053047	-41.172355
2.800000	-0.083189	-65.293176	-64.291331	158.992451	-64.291331	158.992451	-0.054068	-41.894095
2.850000	-0.084683	-66.386985	-63.799034	157.566435	-63.799034	157.566435	-0.055095	-42.614649
2.900000	-0.086186	-67.477859	-63.318724	156.127243	-63.318724	156.127243	-0.056128	-43.334004
2.950000	-0.087698	-68.565798	-62.849852	154.676094	-62.849852	154.676094	-0.057168	-44.052150
3.000000	-0.089220	-69.650805	-62.391910	153.214079	-62.391910	153.214079	-0.058216	-44.769076
3.050000	-0.090753	-70.732881	-61.944424	151.742176	-61.944424	151.742176	-0.059271	-45.484772
3.100000	-0.092298	-71.812031	-61.506953	150.261265	-61.506953	150.261265	-0.060334	-46.199228
3.150000	-0.093856	-72.888260	-61.079086	148.772142	-61.079086	148.772142	-0.061405	-46.912435
3.200000	-0.095426	-73.961575	-60.660440	147.275528	-60.660440	147.275528	-0.062485	-47.624383
3.250000	-0.097010	-75.031984	-60.250655	145.772079	-60.250655	145.772079	-0.063573	-48.335062
3.300000	-0.098609	-76.099497	-59.849393	144.262392	-59.849393	144.262392	-0.064671	-49.044465
3.350000	-0.100224	-77.164124	-59.456337	142.747012	-59.456337	142.747012	-0.065777	-49.752582
3.400000	-0.101854	-78.225878	-59.071190	141.226441	-59.071190	141.226441	-0.066894	-50.459406
3.450000	-0.103501	-79.284772	-58.693670	139.701138	-58.693670	139.701138	-0.068021	-51.164929
3.500000	-0.105165	-80.340820	-58.323514	138.171528	-58.323514	138.171528	-0.069158	-51.869144
3.550000	-0.106847	-81.394040	-57.960472	136.638003	-57.960472	136.638003	-0.070306	-52.572043
3.600000	-0.108548	-82.444449	-57.604305	135.100926	-57.604305	135.100926	-0.071465	-53.273620
3.650000	-0.110268	-83.492064	-57.254792	133.560635	-57.254792	133.560635	-0.072635	-53.973868
3.700000	-0.112009	-84.536907	-56.911718	132.017444	-56.911718	132.017444	-0.073817	-54.672782
3.750000	-0.113769	-85.578999	-56.574883	130.471646	-56.574883	130.471646	-0.075012	-55.370355
3.800000	-0.115552	-86.618244	-56.243812	128.923425	-56.243812	128.923425	-0.076219	-56.066524
3.850000	-0.117357	-87.654787	-55.918628	127.373148	-55.918628	127.373148	-0.077439	-56.761341
3.900000	-0.119185	-88.688653	-55.599156	125.821055	-55.599156	125.821055	-0.078672	-57.454803
3.950000	-0.121035	-89.719868	-55.285227	124.267370	-55.285227	124.267370	-0.079919	-58.146904
4.000000	-0.122909	-90.748461	-54.976683	122.712303	-54.976683	122.712303	-0.081179	-58.837642
4.050000	-0.124807	-91.774459	-54.673370	121.156054	-54.673370	121.156054	-0.082454	-59.527011
4.100000	-0.126731	-92.797893	-54.375143	119.598810	-54.375143	119.598810	-0.083743	-60.215009
4.150000	-0.128679	-93.818795	-54.081862	118.040749	-54.081862	118.040749	-0.085048	-60.901633
4.200000	-0.130653	-94.837197	-53.793391	116.482037	-53.793391	116.482037	-0.086368	-61.586881
4.250000	-0.132654	-95.853132	-53.509604	114.922834	-53.509604	114.922834	-0.087703	-62.270749
4.300000	-0.134681	-96.866637	-53.230375	113.363288	-53.230375	113.363288	-0.089055	-62.953236
4.350000	-0.136736	-97.877745	-52.955585	111.803541	-52.955585	111.803541	-0.090423	-63.634341
4.400000	-0.138820	-98.886495	-52.685122	110.243727	-52.685122	110.243727	-0.091808	-64.314061
4.450000	-0.140931	-99.892925	-52.418873	108.683971	-52.418873	108.683971	-0.093211	-64.992397
4.500000	-0.143071	-100.897074	-52.156733	107.124392	-52.156733	107.124392	-0.094631	-65.669346
4.550000	-0.145241	-101.898982	-51.898599	105.565102	-51.898599	105.565102	-0.096069	-66.344909
4.600000	-0.147441	-102.898691	-51.644373	104.006207	-51.644373	104.006207	-0.097526	-67.019086
4.650000	-0.149671	-103.896244	-51.393959	102.447806	-51.393959	102.447806	-0.099002	-67.691877
4.700000	-0.151933	-104.891683	-51.147265	100.889991	-51.147265	100.889991	-0.100497	-68.363283
4.750000	-0.154225	-105.885054	-50.904201	99.332851	-50.904201	99.332851	-0.102012	-69.033304
4.800000	-0.156549	-106.876402	-50.664681	97.776465	-50.664681	97.776465	-0.103547	-69.701941
4.850000	-0.158906	-107.865773	-50.428622	96.220910	-50.428622	96.220910	-0.105102	-70.369196
4.900000	-0.161295	-108.853216	-50.195942	94.666256	-50.195942	94.666256	-0.106679	-71.035071
4.950000	-0.163717	-109.838780	-49.966564	93.112567	-49.966564	93.112567	-0.108277	-71.699567
5.000000	-0.166173	-110.822513	-49.740411	91.559904	-49.740411	91.559904	-0.109897	-72.362688
5.050000	-0.168665	-111.804392	-49.517300	90.008369	-49.517300	90.008369	-0.111540	-73.024376
5.100000	-0.171190	-112.784548	-49.297276	88.457968	-49.297276	88.457968	-0.113206	-73.684693
5.150000	-0.173751	-113.763034	-49.080272	86.908745	-49.080272	86.908745	-0.114896	-74.343644
5.200000	-0.176347	-114.739903	-48.866219	85.360739	-48.866219	85.360739	-0.116609	-75.001231
5.250000	-0.178979	-115.715211	-48.655054	83.813986	-48.655054	83.813986	-0.118345	-75.657459
5.300000	-0.181646	-116.689014	-48.446712	82.268518	-48.446712	82.268518	-0.120107	-76.312332
5.350000	-0.184351	-117.661368	-48.241132	80.724361	-48.241132	80.724361	-0.121893	-76.965853
5.400000	-0.187092	-118.632330	-48.038256	79.181538	-48.038256	79.181538	-0.123705	-77.618029
5.450000	-0.189870	-119.601960	-47.838027	77.640070	-47.838027	77.640070	-0.125543	-78.268863
5.500000	-0.192686	-120.570318	-47.640388	76.099972	-47.640388	76.099972	-0.127406	-78.918360
5.550000	-0.195540	-121.537463	-47.445287	74.561258	-47.445287	74.561258	-0.129297	-79.566528
5.600000	-0.198433	-122.503459	-47.252671	73.023937	-47.252671	73.023937	-0.131215	-80.213370
5.650000	-0.201364	-123.468366	-47.062491	71.488017	-47.062491	71.488017	-0.133160	-80.858894
5.700000	-0.204335	-124.432250	-46.874698	69.953502	-46.874698	69.953502	-0.135133	-81.503105
5.750000	-0.207345	-125.395175	-46.689246	68.420394	-46.689246	68.420394	-0.137134	-82.146011
5.800000	-0.210395	-126.357207	-46.506089	66.888695	-46.506089	66.888695	-0.139164	-82.787617
5.850000	-0.213493	-127.318289	-46.324925	65.358646	-46.324925	65.358646	-0.141229	-83.427710
5.900000	-0.216633	-128.278582	-46.145917	63.830061	-46.145917	63.830061	-0.143325	-84.066463
5.950000	-0.219795	-129.238544	-45.969785	62.302205	-45.969785	62.302205	-0.145436	-84.704553
6.000000	-0.223021	-130.197511	-45.794980	60.776534	-45.794980	60.776534	-0.147595	-85.340655
6.050000	-0.226263	-131.156310	-45.623165	59.251346	-45.623165	59.251346	-0.149765	-85.976321
6.100000	-0.229577	-132.114264	-45.452429	57.728566	-45.452429	57.728566	-0.151989	-86.609809
6.150000	-0.232899	-133.072161	-45.284771	56.206025	-45.284771	56.206025	-0.154219	-87.243081
6.200000	-0.236303	-134.029426	-45.117981	54.686114	-45.117981	54.686114	-0.156510	-87.873994
6.250000	-0.239708	-134.986690	-44.954335	53.166203	-44.954335	53.166203	-0.158802	-88.504906
6.300000	-0.243180	-135.943645	-44.791952	51.648434	-44.791952	51.648434	-0.161144	-89.133913
6.350000	-0.246696	-136.900513	-44.631473	50.132031	-44.631473	50.132031	-0.163520	-89.761717
6.400000	-0.250257	-137.857372	-44.472870	48.616993	-44.472870	48.616993	-0.165929	-90.388327
6.450000	-0.253863	-138.814304	-44.316117	47.103325	-44.316117	47.103325	-0.168373	-91.013756
6.500000	-0.257514	-139.771393	-44.161187	45.591030	-44.161187	45.591030	-0.170850	-91.638012
6.550000	-0.261211	-140.728724	-44.008056	44.080118	-44.008056	44.080118	-0.173363	-92.261109
6.600000	-0.264954	-141.686381	-43.856700	42.570599	-43.856700	42.570599	-0.175911	-92.883057
6.650000	-0.268743	-142.644454	-43.707098	41.062486	-43.707098	41.062486	-0.178494	-93.503869
6.700000	-0.272579	-143.603032	-43.559226	39.555798	-43.559226	39.555798	-0.181113	-94.123557
6.750000	-0.276462	-144.562207	-43.413065	38.050556	-43.413065	38.050556	-0.183768	-94.742132
6.800000	-0.280393	-145.522071	-43.268593	36.546786	-43.268593	36.546786	-0.186459	-95.359610
6.850000	-0.284373	-146.482721	-43.125791	35.044516	-43.125791	35.044516	-0.189188	-95.976001
6.900000	-0.288400	-147.444254	-42.984641	33.543780	-42.984641	33.543780	-0.191954	-96.591321
6.950000	-0.292477	-148.406771	-42.845123	32.044615	-42.845123	32.044615	-0.194757	-97.205583
7.000000	-0.296604	-149.370373	-42.707219	30.547064	-42.707219	30.547064	-0.197598	-97.818802
7.050000	-0.300780	-150.335167	-42.570911	29.051172	-42.570911	29.051172	-0.200477	-98.430993
7.100000	-0.305007	-151.301260	-42.436181	27.556989	-42.436181	27.556989	-0.203394	-99.042170
7.150000	-0.309286	-152.268763	-42.303011	26.064569	-42.303011	26.064569	-0.206351	-99.652349
7.200000	-0.313616	-153.237792	-42.171384	24.573967	-42.171384	24.573967	-0.209346	-100.261547
7.250000	-0.317998	-154.208462	-42.041281	23.085244	-42.041281	23.085244	-0.212381	-100.869780
7.300000	-0.322433	-155.180898	-41.912685	21.598461	-41.912685	21.598461	-0.215456	-101.477064
7.350000	-0.326922	-156.155224	-41.785575	20.113683	-41.785575	20.113683	-0.218571	-102.083418
7.400000	-0.331466	-157.131572	-41.659933	18.630975	-41.659933	18.630975	-0.221726	-102.688859
7.450000	-0.336064	-158.110076	-41.535739	17.150399	-41.535739	17.150399	-0.224921	-103.293406
7.500000	-0.340719	-159.090879	-41.412972	15.672021	-41.412972	15.672021	-0.228158	-103.897077
7.550000	-0.345433	-160.074240	-41.291597	14.195999	-41.291597	14.195999	-0.231438	-104.499856
7.600000	-0.350205	-161.060216	-41.171606	12.722295	-41.171606	12.722295	-0.234760	-105.101802
7.650000	-0.355037	-162.048968	-41.052972	11.250955	-41.052972	11.250955	-0.238124	-105.702935
7.700000	-0.359929	-163.040669	-40.935672	9.782018	-40.935672	9.782018	-0.241530	-106.303277
7.750000	-0.364884	-164.035498	-40.819676	8.315509	-40.819676	8.315509	-0.244979	-106.902850
7.800000	-0.369902	-165.033646	-40.704956	6.851439	-40.704956	6.851439	-0.248472	-107.501677
7.850000	-0.374986	-166.035318	-40.591481	5.389798	-40.591481	5.389798	-0.252009	-108.099783
7.900000	-0.380137	-167.040731	-40.479216	3.930551	-40.479216	3.930551	-0.255589	-108.697191
7.950000	-0.385359	-168.050117	-40.368127	2.473635	-40.368127	2.473635	-0.259215	-109.293927
8.000000	-0.390653	-169.063727	-40.258176	1.018949	-40.258176	1.018949	-0.262886	-109.890018
8.050000	-0.396024	-170.081833	-40.149323	-0.433653	-40.149323	-0.433653	-0.266603	-110.485492
8.100000	-0.401475	-171.104729	-40.041523	-1.884369	-40.041523	-1.884369	-0.270367	-111.080377
8.150000	-0.407011	-172.132738	-39.934732	-3.333464	-39.934732	-3.333464	-0.274178	-111.674703
8.200000	-0.412636	-173.166215	-39.828902	-4.781279	-39.828902	-4.781279	-0.278038	-112.268501
8.250000	-0.418357	-174.205553	-39.723979	-6.228250	-39.723979	-6.228250	-0.281947	-112.861805
8.300000	-0.424183	-175.251189	-39.619910	-7.674928	-39.619910	-7.674928	-0.285906	-113.454648
8.350000	-0.430121	-176.303612	-39.516637	-9.122000	-39.516637	-9.122000	-0.289916	-114.047066
8.400000	-0.436185	-177.363377	-39.414098	-10.570324	-39.414098	-10.570324	-0.293979	-114.639098
8.450000	-0.442386	-178.431114	-39.312230	-12.020960	-39.312230	-12.020960	-0.298096	-115.230783
8.500000	-0.448743	-179.507545	-39.210965	-13.475221	-39.210965	-13.475221	-0.302269	-115.822164
8.550000	-0.455277	179.406495	-39.110234	-14.934729	-39.110234	-14.934729	-0.306500	-116.413286
8.600000	-0.462015	178.310030	-39.009965	-16.401492	-39.009965	-16.401492	-0.310791	-117.004195
8.650000	-0.468992	177.201911	-38.910088	-17.877999	-38.910088	-17.877999	-0.315143	-117.594944
8.700000	-0.476252	176.080771	-38.810530	-19.367345	-38.810530	-19.367345	-0.319561	-118.185588
8.750000	-0.483854	174.944969	-38.711223	-20.873399	-38.711223	-20.873399	-0.324046	-118.776185
8.800000	-0.491897	173.791661	-38.612064	-22.402260	-38.612064	-22.402260	-0.328606	-119.366804
8.850000	-0.500473	172.618943	-38.513047	-23.959591	-38.513047	-23.959591	-0.333242	-119.957516
8.900000	-0.509731	171.423626	-38.414155	-25.553597	-38.414155	-25.553597	-0.337960	-120.548400
8.950000	-0.519877	170.201646	-38.315416	-27.194939	-38.315416	-27.194939	-0.342764	-121.139540
9.000000	-0.531130	168.949694	-38.216971	-28.893724	-38.216971	-28.893724	-0.347655	-121.731008
9.050000	-0.544022	167.657870	-38.118956	-30.674256	-38.118956	-30.674256	-0.352651	-122.322943
9.100000	-0.559144	166.318254	-38.021842	-32.559288	-38.021842	-32.559288	-0.357757	-122.915448
9.150000	-0.577481	164.918206	-37.926431	-34.583702	-37.926431	-34.583702	-0.362982	-123.508659
9.200000	-0.600616	163.439948	-37.834181	-36.797089	-37.834181	-36.797089	-0.368339	-124.102728
9.250000	-0.631209	161.857821	-37.747786	-39.271989	-37.747786	-39.271989	-0.373843	-124.697832
9.300000	-0.673777	160.135556	-37.672157	-42.113350	-37.672157	-42.113350	-0.379510	-125.294166
9.350000	-0.737605	158.211314	-37.617796	-45.505332	-37.617796	-45.505332	-0.385364	-125.892006
9.400000	-0.841084	155.997090	-37.606431	-49.735308	-37.606431	-49.735308	-0.391430	-126.491639
9.450000	-1.025554	153.370091	-37.688099	-55.302489	-37.688099	-55.302489	-0.397737	-127.093415
9.500000	-1.393059	150.250786	-37.991046	-63.108891	-37.991046	-63.108891	-0.404325	-127.697773
9.550000	-2.196715	147.310255	-38.887975	-74.730456	-38.887975	-74.730456	-0.411240	-128.305261
9.600000	-3.680091	149.754043	-41.616290	-91.881306	-41.616290	-91.881306	-0.418540	-128.916580
9.650000	-3.927842	162.881869	-51.596838	-103.327347	-51.596838	-103.327347	-0.426301	-129.532633
9.700000	-2.550988	167.392381	-48.176632	16.422896	-48.176632	16.422896	-0.434615	-130.154609
9.750000	-1.695533	165.342484	-42.013080	5.843029	-42.013080	5.843029	-0.443606	-130.784151
9.800000	-1.285236	162.557676	-39.815008	-3.917866	-39.815008	-3.917866	-0.453428	-131.423481
9.850000	-1.076335	160.060341	-38.737762	-10.711798	-38.737762	-10.711798	-0.464297	-132.075979
9.900000	-0.959235	157.880808	-38.094810	-15.578721	-38.094810	-15.578721	-0.476468	-132.746262
9.950000	-0.889354	155.940790	-37.657452	-19.210555	-37.657452	-19.210555	-0.490299	-133.441883
10.000000	-0.845649	154.169801	-37.328585	-22.027500	-37.328585	-22.027500	-0.506224	-134.175044
