! freq	dB(S11)	phase(S11)	dB(S12)	phase(S12)	
!     	dB(S21)	phase(S21)	dB(S22)	phase(S22)	
!S-par simulation data
#  GHz  S  DB  R 50
0.000000	-0.000000	0.000000	-351.989967	0.000000	-351.989967	0.000000	-0.000000	0.000000
0.050000	-0.000118	-0.960054	-111.479982	83.975486	-111.479982	83.975486	-0.000119	-0.959985
0.100000	-0.000466	-1.919823	-106.088358	81.171911	-106.088358	81.171911	-0.000473	-1.919677
0.150000	-0.001032	-2.879044	-103.087080	80.379781	-103.087080	80.379781	-0.001047	-2.878805
0.200000	-0.001795	-3.837491	-100.982925	80.221310	-100.982925	80.221310	-0.001819	-3.837142
0.250000	-0.002740	-4.794910	-99.378001	80.181408	-99.378001	80.181408	-0.002776	-4.794427
0.300000	-0.003826	-5.751243	-98.102188	80.123976	-98.102188	80.123976	-0.003872	-5.750607
0.350000	-0.005033	-6.706345	-97.076121	80.047886	-97.076121	80.047886	-0.005088	-6.705538
0.400000	-0.006335	-7.660149	-96.250722	79.984096	-96.250722	79.984096	-0.006396	-7.659156
0.450000	-0.007706	-8.612619	-95.594945	79.976210	-95.594945	79.976210	-0.007773	-8.611431
0.500000	-0.009126	-9.563747	-95.088596	80.074415	-95.088596	80.074415	-0.009196	-9.562359
0.550000	-0.010577	-10.513543	-94.718658	80.336679	-94.718658	80.336679	-0.010646	-10.511955
0.600000	-0.012043	-11.462029	-94.477173	80.833099	-94.477173	80.833099	-0.012111	-11.460245
0.650000	-0.013513	-12.409234	-94.359827	81.652678	-94.359827	81.652678	-0.013577	-12.407260
0.700000	-0.014977	-13.355190	-94.364724	82.913125	-94.364724	82.913125	-0.015036	-13.353033
0.750000	-0.016429	-14.299925	-94.490819	84.774855	-94.490819	84.774855	-0.016482	-14.297595
0.800000	-0.017865	-15.243465	-94.735191	87.460245	-94.735191	87.460245	-0.017911	-15.240972
0.850000	-0.019282	-16.185832	-95.087613	91.276796	-95.087613	91.276796	-0.019322	-16.183184
0.900000	-0.020678	-17.127041	-95.519777	96.633013	-95.519777	96.633013	-0.020711	-17.124247
0.950000	-0.022054	-18.067101	-95.966033	104.007916	-95.966033	104.007916	-0.022080	-18.064169
1.000000	-0.023408	-19.006017	-96.298273	113.785830	-96.298273	113.785830	-0.023429	-19.002954
1.050000	-0.024743	-19.943787	-96.321211	125.867906	-96.321211	125.867906	-0.024758	-19.940598
1.100000	-0.026059	-20.880405	-95.843796	139.223188	-95.843796	139.223188	-0.026069	-20.877096
1.150000	-0.027358	-21.815862	-94.820592	152.039833	-94.820592	152.039833	-0.027363	-21.812435
1.200000	-0.028640	-22.750143	-93.396547	162.789062	-93.396547	162.789062	-0.028642	-22.746602
1.250000	-0.029908	-23.683232	-91.781291	170.989914	-91.781291	170.989914	-0.029907	-23.679578
1.300000	-0.031163	-24.615056	-90.119261	176.851885	-90.119261	176.851885	-0.031159	-24.611291
1.350000	-0.032406	-25.545645	-88.508868	-179.002710	-88.508868	-179.002710	-0.032400	-25.541769
1.400000	-0.033639	-26.474977	-86.981520	-176.130571	-86.981520	-176.130571	-0.033632	-26.470989
1.450000	-0.034863	-27.403026	-85.545145	-174.196658	-85.545145	-174.196658	-0.034855	-27.398927
1.500000	-0.036080	-28.329769	-84.197279	-172.959474	-84.197279	-172.959474	-0.036071	-28.325557
1.550000	-0.037289	-29.255179	-82.931453	-172.246971	-82.931453	-172.246971	-0.037280	-29.250854
1.600000	-0.038493	-30.179230	-81.740100	-171.936028	-81.740100	-171.936028	-0.038485	-30.174790
1.650000	-0.039693	-31.101896	-80.615793	-171.937482	-80.615793	-171.937482	-0.039684	-31.097340
1.700000	-0.040888	-32.023151	-79.551729	-172.185787	-79.551729	-172.185787	-0.040880	-32.018478
1.750000	-0.042081	-32.942968	-78.541865	-172.631995	-78.541865	-172.631995	-0.042074	-32.938177
1.800000	-0.043271	-33.861321	-77.580899	-173.238975	-77.580899	-173.238975	-0.043264	-33.856411
1.850000	-0.044460	-34.778185	-76.664214	-173.978138	-76.664214	-173.978138	-0.044454	-34.773154
1.900000	-0.045647	-35.693534	-75.787786	-174.827164	-75.787786	-174.827164	-0.045642	-35.688382
1.950000	-0.046834	-36.607344	-74.948106	-175.768401	-74.948106	-175.768401	-0.046829	-36.602069
2.000000	-0.048021	-37.519589	-74.142100	-176.787720	-74.142100	-176.787720	-0.048017	-37.514192
2.050000	-0.049209	-38.430247	-73.367074	-177.873685	-73.367074	-177.873685	-0.049205	-38.424726
2.100000	-0.050397	-39.339293	-72.620647	-179.016949	-72.620647	-179.016949	-0.050394	-39.333648
2.150000	-0.051587	-40.246705	-71.900713	179.790205	-71.900713	179.790205	-0.051584	-40.240936
2.200000	-0.052779	-41.152461	-71.205400	178.554198	-71.205400	178.554198	-0.052777	-41.146568
2.250000	-0.053973	-42.056539	-70.533033	177.280419	-70.533033	177.280419	-0.053971	-42.050522
2.300000	-0.055171	-42.958919	-69.882113	175.973425	-69.882113	175.973425	-0.055169	-42.952778
2.350000	-0.056371	-43.859580	-69.251290	174.637092	-69.251290	174.637092	-0.056369	-43.853316
2.400000	-0.057575	-44.758504	-68.639344	173.274745	-68.639344	173.274745	-0.057573	-44.752116
2.450000	-0.058783	-45.655670	-68.045170	171.889245	-68.045170	171.889245	-0.058781	-45.649160
2.500000	-0.059996	-46.551062	-67.467763	170.483075	-67.467763	170.483075	-0.059993	-46.544430
2.550000	-0.061213	-47.444582	-66.905321	169.057681	-66.905321	169.057681	-0.061210	-47.437829
2.600000	-0.062436	-48.336292	-66.357982	167.615821	-66.357982	167.615821	-0.062433	-48.329419
2.650000	-0.063665	-49.226176	-65.824966	166.159132	-65.824966	166.159132	-0.063661	-49.219183
2.700000	-0.064900	-50.114218	-65.305554	164.689063	-65.305554	164.689063	-0.064895	-50.107107
2.750000	-0.066142	-51.000405	-64.799088	163.206902	-64.799088	163.206902	-0.066136	-50.993176
2.800000	-0.067390	-51.884721	-64.304954	161.713794	-64.304954	161.713794	-0.067383	-51.877376
2.850000	-0.068646	-52.767155	-63.822587	160.210767	-63.822587	160.210767	-0.068639	-52.759694
2.900000	-0.069910	-53.647693	-63.351463	158.698740	-63.351463	158.698740	-0.069902	-53.640119
2.950000	-0.071182	-54.526325	-62.891091	157.178543	-62.891091	157.178543	-0.071173	-54.518637
3.000000	-0.072463	-55.403038	-62.441018	155.650923	-62.441018	155.650923	-0.072453	-55.395238
3.050000	-0.073753	-56.277823	-62.000816	154.116558	-62.000816	154.116558	-0.073742	-56.269913
3.100000	-0.075053	-57.150671	-61.570089	152.576062	-61.570089	152.576062	-0.075041	-57.142650
3.150000	-0.076363	-58.021572	-61.148464	151.029996	-61.148464	151.029996	-0.076350	-58.013442
3.200000	-0.077683	-58.890517	-60.735590	149.478868	-60.735590	149.478868	-0.077670	-58.882280
3.250000	-0.079015	-59.757501	-60.331139	147.923146	-60.331139	147.923146	-0.079000	-59.749157
3.300000	-0.080358	-60.622515	-59.934801	146.363257	-59.934801	146.363257	-0.080343	-60.614066
3.350000	-0.081713	-61.485553	-59.546283	144.799593	-59.546283	144.799593	-0.081697	-61.477000
3.400000	-0.083080	-62.346611	-59.165311	143.232514	-59.165311	143.232514	-0.083063	-62.337954
3.450000	-0.084461	-63.205683	-58.791624	141.662353	-58.791624	141.662353	-0.084443	-63.196923
3.500000	-0.085854	-64.062765	-58.424974	140.089415	-58.424974	140.089415	-0.085836	-64.053903
3.550000	-0.087262	-64.917854	-58.065129	138.513985	-58.065129	138.513985	-0.087243	-64.908891
3.600000	-0.088684	-65.770947	-57.711867	136.936324	-57.711867	136.936324	-0.088664	-65.761884
3.650000	-0.090120	-66.622041	-57.364978	135.356675	-57.364978	135.356675	-0.090100	-66.612880
3.700000	-0.091572	-67.471136	-57.024260	133.775264	-57.024260	133.775264	-0.091552	-67.461876
3.750000	-0.093040	-68.318230	-56.689525	132.192299	-56.689525	132.192299	-0.093019	-68.308873
3.800000	-0.094525	-69.163236	-56.360302	130.607926	-56.360302	130.607926	-0.094503	-69.153783
3.850000	-0.096027	-70.006242	-56.036729	129.022392	-56.036729	129.022392	-0.096004	-69.996693
3.900000	-0.097545	-70.847250	-55.718639	127.435864	-55.718639	127.435864	-0.097523	-70.837605
3.950000	-0.099082	-71.686260	-55.405872	125.848498	-55.405872	125.848498	-0.099059	-71.676521
4.000000	-0.100637	-72.523275	-55.098278	124.260441	-55.098278	124.260441	-0.100614	-72.513442
4.050000	-0.102210	-73.358299	-54.795712	122.671830	-54.795712	122.671830	-0.102187	-73.348373
4.100000	-0.103803	-74.191334	-54.498033	121.082792	-54.498033	121.082792	-0.103779	-74.181316
4.150000	-0.105415	-75.022386	-54.205110	119.493447	-54.205110	119.493447	-0.105391	-75.012276
4.200000	-0.107047	-75.851459	-53.916814	117.903908	-53.916814	117.903908	-0.107024	-75.841258
4.250000	-0.108701	-76.678559	-53.633025	116.314279	-53.633025	116.314279	-0.108677	-76.668267
4.300000	-0.110375	-77.503692	-53.353623	114.724661	-53.353623	114.724661	-0.110351	-77.493309
4.350000	-0.112070	-78.326863	-53.078497	113.135145	-53.078497	113.135145	-0.112046	-78.316392
4.400000	-0.113788	-79.148082	-52.807539	111.545819	-52.807539	111.545819	-0.113764	-79.137521
4.450000	-0.115528	-79.967355	-52.540644	109.956765	-52.540644	109.956765	-0.115504	-79.956705
4.500000	-0.117292	-80.784690	-52.277713	108.368060	-52.277713	108.368060	-0.117268	-80.773953
4.550000	-0.119078	-81.600097	-52.018649	106.779776	-52.018649	106.779776	-0.119054	-81.589273
4.600000	-0.120889	-82.413586	-51.763359	105.191983	-51.763359	105.191983	-0.120865	-82.402675
4.650000	-0.122724	-83.225165	-51.511755	103.604744	-51.511755	103.604744	-0.122700	-83.214168
4.700000	-0.124584	-84.034847	-51.263750	102.018119	-51.263750	102.018119	-0.124560	-84.023763
4.750000	-0.126469	-84.842641	-51.019261	100.432168	-51.019261	100.432168	-0.126445	-84.831472
4.800000	-0.128380	-85.648560	-50.778208	98.846942	-50.778208	98.846942	-0.128356	-85.637306
4.850000	-0.130317	-86.452615	-50.540514	97.262494	-50.540514	97.262494	-0.130293	-86.441277
4.900000	-0.132281	-87.254819	-50.306104	95.678871	-50.306104	95.678871	-0.132257	-87.243398
4.950000	-0.134272	-88.055185	-50.074906	94.096120	-50.074906	94.096120	-0.134248	-88.043681
5.000000	-0.136290	-88.853728	-49.846851	92.514282	-49.846851	92.514282	-0.136266	-88.842141
5.050000	-0.138353	-89.649447	-49.620324	90.933962	-49.620324	90.933962	-0.138329	-89.637778
5.100000	-0.140416	-90.445165	-49.399555	89.353642	-49.399555	89.353642	-0.140392	-90.433415
5.150000	-0.142534	-91.237483	-49.179321	87.775300	-49.179321	87.775300	-0.142509	-91.225652
5.200000	-0.144657	-92.029491	-48.964094	86.197137	-48.964094	86.197137	-0.144633	-92.017579
5.250000	-0.146832	-92.818464	-48.749871	84.620894	-48.749871	84.620894	-0.146807	-92.806474
5.300000	-0.149017	-93.606831	-48.539984	83.045034	-48.539984	83.045034	-0.148993	-93.594761
5.350000	-0.151251	-94.392522	-48.331510	81.470998	-48.331510	81.470998	-0.151226	-94.380374
5.400000	-0.153501	-95.177321	-48.126770	79.897572	-48.126770	79.897572	-0.153476	-95.165094
5.450000	-0.155794	-95.959793	-47.923799	78.325844	-47.923799	78.325844	-0.155769	-95.947489
5.500000	-0.158110	-96.741101	-47.724025	76.754967	-47.724025	76.754967	-0.158085	-96.728721
5.550000	-0.160466	-97.520421	-47.526329	75.185638	-47.526329	75.185638	-0.160440	-97.507965
5.600000	-0.162849	-98.298320	-47.331349	73.617416	-47.331349	73.617416	-0.162824	-98.285789
5.650000	-0.165268	-99.074557	-47.138713	72.050568	-47.138713	72.050568	-0.165242	-99.061951
5.700000	-0.167722	-99.849132	-46.948363	70.485095	-46.948363	70.485095	-0.167696	-99.836453
5.750000	-0.170205	-100.622360	-46.760586	68.920804	-46.760586	68.920804	-0.170179	-100.609607
5.800000	-0.172730	-101.393700	-46.574713	67.358167	-46.574713	67.358167	-0.172704	-101.380874
5.850000	-0.175280	-102.163992	-46.391604	65.796501	-46.391604	65.796501	-0.175253	-102.151094
5.900000	-0.177878	-102.932189	-46.210061	64.236776	-46.210061	64.236776	-0.177851	-102.919220
5.950000	-0.180496	-103.699624	-46.031443	62.677798	-46.031443	62.677798	-0.180468	-103.686585
6.000000	-0.183169	-104.464774	-45.854092	61.121057	-45.854092	61.121057	-0.183141	-104.451665
6.050000	-0.185856	-105.229433	-45.679795	59.564825	-45.679795	59.564825	-0.185828	-105.216254
6.100000	-0.188606	-105.991635	-45.506503	58.011131	-45.506503	58.011131	-0.188577	-105.978388
6.150000	-0.191363	-106.753600	-45.336370	56.457697	-45.336370	56.457697	-0.191334	-106.740284
6.200000	-0.194192	-107.512956	-45.167012	54.907108	-45.167012	54.907108	-0.194162	-107.499574
6.250000	-0.197021	-108.272312	-45.000892	53.356520	-45.000892	53.356520	-0.196991	-108.258863
6.300000	-0.199929	-109.028928	-44.835347	51.809089	-44.835347	51.809089	-0.199899	-109.015413
6.350000	-0.202839	-109.785544	-44.672898	50.261658	-44.672898	50.261658	-0.202808	-109.771963
6.400000	-0.205822	-110.539748	-44.511254	48.717164	-44.511254	48.717164	-0.205792	-110.526102
6.450000	-0.208814	-111.293732	-44.352368	47.172937	-44.352368	47.172937	-0.208782	-111.280022
6.500000	-0.211873	-112.045616	-44.194488	45.631415	-44.194488	45.631415	-0.211842	-112.031843
6.550000	-0.214948	-112.797080	-44.039063	44.090434	-44.039063	44.090434	-0.214916	-112.783244
6.600000	-0.218085	-113.546740	-43.884818	42.551914	-43.884818	42.551914	-0.218053	-113.532841
6.650000	-0.221245	-114.295798	-43.732756	41.014215	-43.732756	41.014215	-0.221212	-114.281838
6.700000	-0.224461	-115.043331	-43.582024	39.478725	-43.582024	39.478725	-0.224428	-115.029309
6.750000	-0.227707	-115.790101	-43.433231	37.944339	-43.433231	37.944339	-0.227674	-115.776018
6.800000	-0.231004	-116.535606	-43.285895	36.411903	-43.285895	36.411903	-0.230970	-116.521462
6.850000	-0.234337	-117.280207	-43.140281	34.880858	-43.140281	34.880858	-0.234303	-117.266004
6.900000	-0.237716	-118.023786	-42.996231	33.351493	-42.996231	33.351493	-0.237681	-118.009522
6.950000	-0.241139	-118.766342	-42.853709	31.823810	-42.853709	31.823810	-0.241104	-118.752019
7.000000	-0.244599	-119.508097	-42.712840	30.297533	-42.712840	30.297533	-0.244565	-119.493715
7.050000	-0.248113	-120.248733	-42.573328	28.773227	-42.573328	28.773227	-0.248078	-120.234291
7.100000	-0.251658	-120.988771	-42.435540	27.250051	-42.435540	27.250051	-0.251623	-120.974270
7.150000	-0.255264	-121.727614	-42.298957	25.729133	-42.298957	25.729133	-0.255229	-121.713055
7.200000	-0.258894	-122.466041	-42.164155	24.209063	-42.164155	24.209063	-0.258858	-122.451424
7.250000	-0.262593	-123.203222	-42.030426	22.691537	-42.030426	22.691537	-0.262558	-123.188547
7.300000	-0.266309	-123.940149	-41.898518	21.174576	-41.898518	21.174576	-0.266274	-123.925415
7.350000	-0.270103	-124.675801	-41.767569	19.660441	-41.767569	19.660441	-0.270068	-124.661009
7.400000	-0.273907	-125.411338	-41.638470	18.146588	-41.638470	18.146588	-0.273871	-125.396486
7.450000	-0.277796	-126.145597	-41.510231	16.635837	-41.510231	16.635837	-0.277761	-126.130687
7.500000	-0.281688	-126.879856	-41.383857	15.125085	-41.383857	15.125085	-0.281653	-126.864887
7.550000	-0.285675	-127.612861	-41.258260	13.617702	-41.258260	13.617702	-0.285640	-127.597832
7.600000	-0.289664	-128.345865	-41.134454	12.110319	-41.134454	12.110319	-0.289629	-128.330777
7.650000	-0.293742	-129.077847	-41.011515	10.606004	-41.011515	10.606004	-0.293706	-129.062699
7.700000	-0.297829	-129.809737	-40.890213	9.101968	-40.890213	9.101968	-0.297794	-129.794529
7.750000	-0.301998	-130.540817	-40.769856	7.600698	-40.769856	7.600698	-0.301963	-130.525547
7.800000	-0.306185	-131.271735	-40.651001	6.099981	-40.651001	6.099981	-0.306150	-131.256404
7.850000	-0.310446	-132.002033	-40.533154	4.601726	-40.533154	4.601726	-0.310411	-131.986639
7.900000	-0.314734	-132.732125	-40.416689	3.104292	-40.416689	3.104292	-0.314698	-132.716668
7.950000	-0.319088	-133.461764	-40.301284	1.609018	-40.301284	1.609018	-0.319052	-133.446243
8.000000	-0.323477	-134.191178	-40.187156	0.114824	-40.187156	0.114824	-0.323441	-134.175591
8.050000	-0.327925	-134.920283	-40.074128	-1.377509	-40.074128	-1.377509	-0.327889	-134.904629
8.100000	-0.332416	-135.649167	-39.962284	-2.868514	-39.962284	-2.868514	-0.332380	-135.633447
8.150000	-0.336959	-136.377865	-39.851571	-4.357954	-39.851571	-4.357954	-0.336923	-136.362075
8.200000	-0.341553	-137.106374	-39.741964	-5.845828	-39.741964	-5.845828	-0.341517	-137.090515
8.250000	-0.346191	-137.834791	-39.633508	-7.332425	-39.633508	-7.332425	-0.346155	-137.818861
8.300000	-0.350890	-138.563080	-39.526091	-8.817235	-39.526091	-8.817235	-0.350853	-138.547076
8.350000	-0.355624	-139.291348	-39.419836	-10.301048	-39.419836	-10.301048	-0.355587	-139.275270
8.400000	-0.360427	-140.019574	-39.314567	-11.782868	-39.314567	-11.782868	-0.360389	-140.003419
8.450000	-0.365257	-140.747824	-39.210462	-13.263960	-39.210462	-13.263960	-0.365219	-140.731591
8.500000	-0.370165	-141.476147	-39.107300	-14.742870	-39.107300	-14.742870	-0.370126	-141.459834
8.550000	-0.375092	-142.204513	-39.005294	-16.221310	-39.005294	-16.221310	-0.375053	-142.188118
8.600000	-0.380106	-142.933095	-38.904202	-17.697399	-38.904202	-17.697399	-0.380065	-142.916615
8.650000	-0.385131	-143.661713	-38.804250	-19.173261	-38.804250	-19.173261	-0.385089	-143.645147
8.700000	-0.390251	-144.390720	-38.705193	-20.646625	-38.705193	-20.646625	-0.390207	-144.374064
8.750000	-0.395373	-145.119727	-38.607252	-22.119989	-38.607252	-22.119989	-0.395329	-145.102981
8.800000	-0.400599	-145.849326	-38.510198	-23.590729	-38.510198	-23.590729	-0.400553	-145.832484
8.850000	-0.405828	-146.578925	-38.414216	-25.061469	-38.414216	-25.061469	-0.405780	-146.561988
8.900000	-0.411153	-147.309223	-38.319149	-26.529903	-38.319149	-26.529903	-0.411102	-147.292185
8.950000	-0.416488	-148.039584	-38.225099	-27.998128	-38.225099	-27.998128	-0.416435	-148.022444
9.000000	-0.421910	-148.770724	-38.131984	-29.464349	-38.131984	-29.464349	-0.421854	-148.753478
9.050000	-0.427353	-149.502021	-38.039842	-30.930171	-38.039842	-30.930171	-0.427294	-149.484666
9.100000	-0.432873	-150.234150	-37.948646	-32.394278	-37.948646	-32.394278	-0.432810	-150.216681
9.150000	-0.438422	-150.966556	-37.858392	-33.857814	-37.858392	-33.857814	-0.438356	-150.948973
9.200000	-0.444040	-151.699822	-37.769087	-35.319906	-37.769087	-35.319906	-0.443970	-151.682118
9.250000	-0.449695	-152.433517	-37.680703	-36.781278	-37.680703	-36.781278	-0.449620	-152.415690
9.300000	-0.455411	-153.168069	-37.593264	-38.241458	-37.593264	-38.241458	-0.455331	-153.150115
9.350000	-0.461172	-153.903234	-37.506735	-39.700788	-37.506735	-39.700788	-0.461087	-153.885148
9.400000	-0.466986	-154.639224	-37.421139	-41.159160	-37.421139	-41.159160	-0.466894	-154.621003
9.450000	-0.472852	-155.376041	-37.336456	-42.616575	-37.336456	-42.616575	-0.472754	-155.357680
9.500000	-0.478763	-156.113625	-37.252684	-44.073242	-37.252684	-44.073242	-0.478658	-156.095119
9.550000	-0.484734	-156.852281	-37.169840	-45.528865	-37.169840	-45.528865	-0.484621	-156.833626
9.600000	-0.490741	-157.591613	-37.087875	-46.983933	-37.087875	-46.983933	-0.490620	-157.572805
9.650000	-0.496815	-158.332297	-37.006867	-48.437889	-37.006867	-48.437889	-0.496686	-158.313330
9.700000	-0.502918	-159.073536	-36.926697	-49.891458	-36.926697	-49.891458	-0.502779	-159.054407
9.750000	-0.509095	-159.816440	-36.847526	-51.343868	-36.847526	-51.343868	-0.508946	-159.797141
9.800000	-0.515293	-160.559747	-36.769141	-52.796040	-36.769141	-52.796040	-0.515132	-160.540276
9.850000	-0.521571	-161.305066	-36.691810	-54.247020	-36.691810	-54.247020	-0.521398	-161.285414
9.900000	-0.527862	-162.050603	-36.615203	-55.697891	-36.615203	-55.697891	-0.527677	-162.030769
9.950000	-0.534241	-162.798535	-36.539722	-57.147553	-36.539722	-57.147553	-0.534042	-162.778507
10.000000	-0.540624	-163.546467	-36.464890	-58.597215	-36.464890	-58.597215	-0.540411	-163.526246
