! freq	dB(S11)	phase(S11)	dB(S12)	phase(S12)	
!     	dB(S21)	phase(S21)	dB(S22)	phase(S22)	
!S-par simulation data
#  GHz  S  DB  R 50
0.000000	-0.000000	0.000000	-343.421579	0.000000	-343.421579	0.000000	-0.000000	0.000000
0.050000	-0.000099	-0.874107	-97.897371	79.969190	-97.897371	79.969190	-0.000099	-0.874145
0.100000	-0.000393	-1.747991	-92.299338	83.124400	-92.299338	83.124400	-0.000395	-1.748066
0.150000	-0.000872	-2.621446	-88.876738	83.940277	-88.876738	83.940277	-0.000876	-2.621554
0.200000	-0.001521	-3.494291	-86.423405	83.981849	-86.423405	83.981849	-0.001526	-3.494429
0.250000	-0.002331	-4.366317	-84.517256	83.678127	-84.517256	83.678127	-0.002338	-4.366480
0.300000	-0.003267	-5.237470	-82.962109	83.221715	-82.962109	83.221715	-0.003277	-5.237654
0.350000	-0.004315	-6.107621	-81.651863	82.672258	-81.651863	82.672258	-0.004327	-6.107822
0.400000	-0.005454	-6.976704	-80.522436	82.069404	-80.522436	82.069404	-0.005468	-6.976919
0.450000	-0.006663	-7.844678	-79.532218	81.436041	-79.532218	81.436041	-0.006679	-7.844903
0.500000	-0.007925	-8.711523	-78.652658	80.786624	-78.652658	80.786624	-0.007942	-8.711757
0.550000	-0.009223	-9.577239	-77.863310	80.131006	-77.863310	80.131006	-0.009241	-9.577482
0.600000	-0.010543	-10.441838	-77.149021	79.476367	-77.149021	79.476367	-0.010561	-10.442088
0.650000	-0.011873	-11.305339	-76.498238	78.828255	-76.498238	78.828255	-0.011891	-11.305597
0.700000	-0.013205	-12.167767	-75.901935	78.191187	-75.901935	78.191187	-0.013223	-12.168034
0.750000	-0.014531	-13.029148	-75.352920	77.569010	-75.352920	77.569010	-0.014548	-13.029425
0.800000	-0.015846	-13.889507	-74.845348	76.965124	-74.845348	76.965124	-0.015862	-13.889796
0.850000	-0.017146	-14.748868	-74.374397	76.382626	-74.374397	76.382626	-0.017161	-14.749170
0.900000	-0.018430	-15.607248	-73.936023	75.824409	-73.936023	75.824409	-0.018443	-15.607567
0.950000	-0.019695	-16.464665	-73.526787	75.293223	-73.526787	75.293223	-0.019707	-16.465001
1.000000	-0.020941	-17.321130	-73.143725	74.791714	-73.143725	74.791714	-0.020951	-17.321484
1.050000	-0.022168	-18.176649	-72.784244	74.322453	-72.784244	74.322453	-0.022177	-18.177024
1.100000	-0.023377	-19.031225	-72.446050	73.887950	-72.446050	73.887950	-0.023385	-19.031622
1.150000	-0.024569	-19.884857	-72.127082	73.490653	-72.127082	73.490653	-0.024575	-19.885277
1.200000	-0.025744	-20.737542	-71.825467	73.132953	-71.825467	73.132953	-0.025750	-20.737986
1.250000	-0.026905	-21.589272	-71.539476	72.817167	-71.539476	72.817167	-0.026909	-21.589741
1.300000	-0.028051	-22.439994	-71.267683	72.547542	-71.267683	72.547542	-0.028055	-22.440488
1.350000	-0.029185	-23.289738	-71.008305	72.324347	-71.008305	72.324347	-0.029189	-23.290258
1.400000	-0.030309	-24.138489	-70.759873	72.149523	-70.759873	72.149523	-0.030312	-24.139036
1.450000	-0.031423	-24.986232	-70.520964	72.024818	-70.520964	72.024818	-0.031425	-24.986805
1.500000	-0.032529	-25.832949	-70.290188	71.951738	-70.290188	71.951738	-0.032531	-25.833548
1.550000	-0.033628	-26.678622	-70.066173	71.931500	-70.066173	71.931500	-0.033630	-26.679248
1.600000	-0.034721	-27.523233	-69.847564	71.964968	-69.847564	71.964968	-0.034722	-27.523886
1.650000	-0.035809	-28.366763	-69.633009	72.052593	-69.633009	72.052593	-0.035811	-28.367442
1.700000	-0.036893	-29.208799	-69.419683	72.212875	-69.419683	72.212875	-0.036894	-29.209505
1.750000	-0.037974	-30.050254	-69.209781	72.401229	-69.209781	72.401229	-0.037975	-30.050986
1.800000	-0.039054	-30.890311	-68.998076	72.652383	-68.998076	72.652383	-0.039055	-30.891068
1.850000	-0.040132	-31.729368	-68.786701	72.948393	-68.786701	72.948393	-0.040133	-31.730151
1.900000	-0.041209	-32.567183	-68.571563	73.292640	-68.571563	73.292640	-0.041210	-32.567992
1.950000	-0.042286	-33.403757	-68.353057	73.685124	-68.353057	73.685124	-0.042287	-33.404590
2.000000	-0.043363	-34.239261	-68.130012	74.110218	-68.130012	74.110218	-0.043365	-34.240119
2.050000	-0.044442	-35.073268	-67.899049	74.580967	-67.899049	74.580967	-0.044444	-35.074150
2.100000	-0.045522	-35.906615	-67.666918	75.066202	-67.666918	75.066202	-0.045524	-35.907523
2.150000	-0.046604	-36.738255	-67.422133	75.586022	-67.422133	75.586022	-0.046606	-36.739186
2.200000	-0.047689	-37.568602	-67.168327	76.122244	-67.168327	76.122244	-0.047691	-37.569558
2.250000	-0.048777	-38.397642	-66.904799	76.667312	-66.904799	76.667312	-0.048779	-38.398621
2.300000	-0.049868	-39.225357	-66.630993	77.213261	-66.630993	77.213261	-0.049871	-39.226360
2.350000	-0.050963	-40.051731	-66.346503	77.751868	-66.346503	77.751868	-0.050966	-40.052758
2.400000	-0.052063	-40.876751	-66.051079	78.274802	-66.051079	78.274802	-0.052066	-40.877801
2.450000	-0.053167	-41.700401	-65.744624	78.773786	-65.744624	78.773786	-0.053170	-41.701475
2.500000	-0.054276	-42.522668	-65.427188	79.240748	-65.427188	79.240748	-0.054279	-42.523765
2.550000	-0.055390	-43.343478	-65.097935	79.665902	-65.097935	79.665902	-0.055393	-43.344599
2.600000	-0.056510	-44.162880	-64.758148	80.043473	-64.758148	80.043473	-0.056514	-44.164025
2.650000	-0.057637	-44.980862	-64.408243	80.366890	-64.408243	80.366890	-0.057640	-44.982030
2.700000	-0.058769	-45.797414	-64.048716	80.630239	-64.048716	80.630239	-0.058773	-45.798606
2.750000	-0.059909	-46.612527	-63.680118	80.828306	-63.680118	80.828306	-0.059912	-46.613743
2.800000	-0.061056	-47.426193	-63.303035	80.956585	-63.303035	80.956585	-0.061059	-47.427432
2.850000	-0.062210	-48.238404	-62.918066	81.011275	-62.918066	81.011275	-0.062213	-48.239667
2.900000	-0.063372	-49.049154	-62.525804	80.989240	-62.525804	80.989240	-0.063375	-49.050441
2.950000	-0.064542	-49.858439	-62.126822	80.887963	-62.126822	80.887963	-0.064546	-49.859750
3.000000	-0.065721	-50.666254	-61.721649	80.705487	-61.721649	80.705487	-0.065725	-50.667589
3.050000	-0.066910	-51.472596	-61.310766	80.440342	-61.310766	80.440342	-0.066913	-51.473956
3.100000	-0.068107	-52.277466	-60.894589	80.091473	-60.894589	80.091473	-0.068110	-52.278850
3.150000	-0.069315	-53.080864	-60.473462	79.658159	-60.473462	79.658159	-0.069318	-53.082272
3.200000	-0.070533	-53.882791	-60.047647	79.139941	-60.047647	79.139941	-0.070536	-53.884223
3.250000	-0.071762	-54.683252	-59.617318	78.536544	-59.617318	78.536544	-0.071765	-54.684709
3.300000	-0.073002	-55.482254	-59.182555	77.847807	-59.182555	77.847807	-0.073005	-55.483736
3.350000	-0.074255	-56.279640	-58.740060	77.063679	-58.740060	77.063679	-0.074258	-56.281147
3.400000	-0.075520	-57.075689	-58.295334	76.200179	-58.295334	76.200179	-0.075523	-57.077221
3.450000	-0.076799	-57.870268	-57.843887	75.247412	-57.843887	75.247412	-0.076802	-57.871825
3.500000	-0.078087	-58.663854	-57.396578	74.234443	-57.396578	74.234443	-0.078090	-58.665436
3.550000	-0.079397	-59.455376	-56.928213	73.091429	-56.928213	73.091429	-0.079399	-59.456983
3.600000	-0.080713	-60.246277	-56.470233	71.908199	-56.470233	71.908199	-0.080716	-60.247909
3.650000	-0.082054	-61.035164	-55.988613	70.590281	-55.988613	70.590281	-0.082057	-61.036821
3.700000	-0.083407	-61.823207	-55.508535	69.210645	-55.508535	69.210645	-0.083409	-61.824889
3.750000	-0.084778	-62.609923	-55.018286	67.734022	-55.018286	67.734022	-0.084780	-62.611630
3.800000	-0.086171	-63.395344	-54.509920	66.149099	-54.509920	66.149099	-0.086174	-63.397076
3.850000	-0.087577	-64.180075	-54.007453	64.506569	-54.007453	64.506569	-0.087580	-64.181832
3.900000	-0.089019	-64.963231	-53.461828	62.702509	-53.461828	62.702509	-0.089022	-64.965012
3.950000	-0.090473	-65.746002	-52.925242	60.849361	-52.925242	60.849361	-0.090476	-65.747808
4.000000	-0.091966	-66.527679	-52.346649	58.840074	-52.346649	58.840074	-0.091969	-66.529509
4.050000	-0.093478	-67.309061	-51.768431	56.762030	-51.768431	56.762030	-0.093482	-67.310916
4.100000	-0.095034	-68.089963	-51.148617	54.534004	-51.148617	54.534004	-0.095038	-68.091843
4.150000	-0.096633	-68.870820	-50.496501	52.175020	-50.496501	52.175020	-0.096637	-68.872723
4.200000	-0.098284	-69.651999	-49.806036	49.674624	-49.806036	49.674624	-0.098288	-69.653926
4.250000	-0.100009	-70.434124	-49.058475	47.004310	-49.058475	47.004310	-0.100013	-70.436074
4.300000	-0.101825	-71.217924	-48.248872	44.155779	-48.248872	44.155779	-0.101830	-71.219897
4.350000	-0.103767	-72.004394	-47.366548	41.110622	-47.366548	41.110622	-0.103772	-72.006390
4.400000	-0.105867	-72.794514	-46.412612	37.860303	-46.412612	37.860303	-0.105872	-72.796531
4.450000	-0.108260	-73.591497	-45.322938	34.314838	-45.322938	34.314838	-0.108266	-73.593535
4.500000	-0.111098	-74.398404	-44.085728	30.435071	-44.085728	30.435071	-0.111104	-74.400462
4.550000	-0.114723	-75.221301	-42.649307	26.112045	-42.649307	26.112045	-0.114729	-75.223376
4.600000	-0.119944	-76.072015	-40.920524	21.133311	-40.920524	21.133311	-0.119951	-76.074104
4.650000	-0.128744	-76.972730	-38.774643	15.101005	-38.774643	15.101005	-0.128752	-76.974829
4.700000	-0.147649	-77.975609	-35.951808	6.984705	-35.951808	6.984705	-0.147656	-77.977704
4.750000	-0.206196	-79.205722	-31.927083	-6.581978	-31.927083	-6.581978	-0.206199	-79.207786
4.800000	-0.494142	-80.337529	-26.079348	-41.994561	-26.079348	-41.994561	-0.494118	-80.339607
4.850000	-0.464542	-77.516609	-26.612747	-118.120042	-26.612747	-118.120042	-0.464530	-77.518861
4.900000	-0.215865	-78.679983	-32.238462	-149.951948	-32.238462	-149.951948	-0.215857	-78.682288
4.950000	-0.163460	-79.850141	-35.995668	-163.296541	-35.995668	-163.296541	-0.163458	-79.852469
5.000000	-0.147210	-80.822343	-38.610219	-172.059870	-38.610219	-172.059870	-0.147210	-80.824688
5.050000	-0.141037	-81.700199	-40.553262	-179.150429	-40.553262	-179.150429	-0.141039	-81.702560
5.100000	-0.138639	-82.529427	-42.068262	174.520634	-42.068262	174.520634	-0.138641	-82.531805
5.150000	-0.138013	-83.329833	-43.272030	168.614340	-43.272030	168.614340	-0.138016	-83.332228
5.200000	-0.138301	-84.112279	-44.251418	162.972034	-44.251418	162.972034	-0.138306	-84.114692
5.250000	-0.139141	-84.882103	-45.048307	157.531954	-45.048307	157.531954	-0.139146	-84.884535
5.300000	-0.140332	-85.642701	-45.696266	152.266222	-45.696266	152.266222	-0.140337	-85.645150
5.350000	-0.141762	-86.396221	-46.220200	147.165707	-46.220200	147.165707	-0.141768	-86.398688
5.400000	-0.143365	-87.144092	-46.639516	142.229896	-46.639516	142.229896	-0.143371	-87.146577
5.450000	-0.145143	-87.885609	-46.934086	137.537548	-46.934086	137.537548	-0.145149	-87.888111
5.500000	-0.146967	-88.625364	-47.199196	132.919022	-47.199196	132.919022	-0.146973	-88.627884
5.550000	-0.148889	-89.361116	-47.391239	128.508996	-47.391239	128.508996	-0.148896	-89.363653
5.600000	-0.150882	-90.094008	-47.528619	124.247898	-47.528619	124.247898	-0.150889	-90.096562
5.650000	-0.152938	-90.824147	-47.621249	120.160332	-47.621249	120.160332	-0.152945	-90.826718
5.700000	-0.155058	-91.551533	-47.667668	116.246298	-47.667668	116.246298	-0.155065	-91.554120
5.750000	-0.157222	-92.276970	-47.687303	112.466283	-47.687303	112.466283	-0.157229	-92.279574
5.800000	-0.159448	-92.999680	-47.669193	108.873895	-47.669193	108.873895	-0.159455	-93.002300
5.850000	-0.161705	-93.721014	-47.635840	105.377426	-47.635840	105.377426	-0.161713	-93.723650
5.900000	-0.164026	-94.439596	-47.572249	102.072797	-47.572249	102.072797	-0.164034	-94.442247
5.950000	-0.166370	-95.157243	-47.500847	98.831009	-47.500847	98.831009	-0.166378	-95.159909
6.000000	-0.168780	-95.872083	-47.405452	95.777743	-47.405452	95.777743	-0.168788	-95.874764
6.050000	-0.171205	-96.586349	-47.307024	92.760532	-47.307024	92.760532	-0.171213	-96.589044
6.100000	-0.173701	-97.297738	-47.189605	89.923597	-47.189605	89.923597	-0.173709	-97.300447
6.150000	-0.176204	-98.008859	-47.072218	87.102051	-47.072218	87.102051	-0.176212	-98.011582
6.200000	-0.178784	-98.717027	-46.939762	84.449774	-46.939762	84.449774	-0.178792	-98.719763
6.250000	-0.181365	-99.425195	-46.809294	81.797497	-46.809294	81.797497	-0.181373	-99.427944
6.300000	-0.184029	-100.130332	-46.666795	79.302280	-46.666795	79.302280	-0.184037	-100.133094
6.350000	-0.186694	-100.835470	-46.526595	76.807064	-46.526595	76.807064	-0.186702	-100.838244
6.400000	-0.189435	-101.537980	-46.378563	74.434264	-46.378563	74.434264	-0.189443	-101.540766
6.450000	-0.192184	-102.240251	-46.232113	72.072593	-46.232113	72.072593	-0.192191	-102.243049
6.500000	-0.195002	-102.940258	-46.080757	69.805724	-46.080757	69.805724	-0.195009	-102.943067
6.550000	-0.197835	-103.639811	-45.930552	67.557817	-45.930552	67.557817	-0.197842	-103.642631
6.600000	-0.200731	-104.337428	-45.777509	65.382837	-45.777509	65.382837	-0.200739	-104.340259
6.650000	-0.203650	-105.034400	-45.625349	63.232166	-45.625349	63.232166	-0.203657	-105.037240
6.700000	-0.206625	-105.729736	-45.471825	61.137144	-45.471825	61.137144	-0.206632	-105.732587
6.750000	-0.209629	-106.424255	-45.319012	59.069947	-45.319012	59.069947	-0.209636	-106.427115
6.800000	-0.212684	-107.117416	-45.165900	57.044761	-45.165900	57.044761	-0.212691	-107.120284
6.850000	-0.215776	-107.809605	-45.013377	55.049582	-45.013377	55.049582	-0.215783	-107.812482
6.900000	-0.218912	-108.500691	-44.861333	53.085639	-44.861333	53.085639	-0.218918	-108.503576
6.950000	-0.222092	-109.190672	-44.709787	51.152933	-44.709787	51.152933	-0.222098	-109.193564
7.000000	-0.225309	-109.879783	-44.559287	49.242938	-44.559287	49.242938	-0.225316	-109.882682
7.050000	-0.228579	-110.567674	-44.409215	47.364736	-44.409215	47.364736	-0.228585	-110.570580
7.100000	-0.231879	-111.254909	-44.260608	45.502479	-44.260608	45.502479	-0.231886	-111.257821
7.150000	-0.235240	-111.940829	-44.112368	43.672111	-44.112368	43.672111	-0.235246	-111.943747
7.200000	-0.238624	-112.626287	-43.965899	41.852302	-43.965899	41.852302	-0.238631	-112.629210
7.250000	-0.242077	-113.310354	-43.819747	40.064167	-43.819747	40.064167	-0.242083	-113.313282
7.300000	-0.245546	-113.994133	-43.675589	38.282284	-43.675589	38.282284	-0.245553	-113.997064
7.350000	-0.249093	-114.676467	-43.531702	36.531664	-43.531702	36.531664	-0.249099	-114.679401
7.400000	-0.252648	-115.358666	-43.389970	34.783838	-43.389970	34.783838	-0.252654	-115.361604
7.450000	-0.256289	-116.039386	-43.248467	33.066745	-43.248467	33.066745	-0.256295	-116.042326
7.500000	-0.259932	-116.720106	-43.109232	31.349652	-43.109232	31.349652	-0.259938	-116.723048
7.550000	-0.263669	-117.399335	-42.970189	29.662704	-42.970189	29.662704	-0.263675	-117.402277
7.600000	-0.267407	-118.078563	-42.833337	27.975757	-42.833337	27.975757	-0.267414	-118.081506
7.650000	-0.271234	-118.756537	-42.696949	26.313806	-42.696949	26.313806	-0.271241	-118.759479
7.700000	-0.275070	-119.434397	-42.562520	24.654127	-42.562520	24.654127	-0.275077	-119.437338
7.750000	-0.278987	-120.111220	-42.428773	23.015124	-42.428773	23.015124	-0.278994	-120.114160
7.800000	-0.282922	-120.787837	-42.296784	21.380256	-42.296784	21.380256	-0.282929	-120.790774
7.850000	-0.286931	-121.463618	-42.165649	19.762418	-42.165649	19.762418	-0.286938	-121.466551
7.900000	-0.290965	-122.139119	-42.036097	18.150256	-42.036097	18.150256	-0.290973	-122.142048
7.950000	-0.295066	-122.813964	-41.907535	16.552024	-41.907535	16.552024	-0.295074	-122.816888
8.000000	-0.299202	-123.488481	-41.780399	14.960757	-41.780399	14.960757	-0.299210	-123.491399
8.050000	-0.303397	-124.162501	-41.654361	13.380765	-41.654361	13.380765	-0.303405	-124.165412
8.100000	-0.307635	-124.836165	-41.529609	11.808828	-41.529609	11.808828	-0.307643	-124.839068
8.150000	-0.311924	-125.509471	-41.406041	10.245877	-41.406041	10.245877	-0.311933	-125.512366
8.200000	-0.316266	-126.182419	-41.283632	8.691913	-41.283632	8.691913	-0.316275	-126.185304
8.250000	-0.320651	-126.855127	-41.162472	7.144944	-41.162472	7.144944	-0.320661	-126.858001
8.300000	-0.325097	-127.527496	-41.042356	5.607768	-41.042356	5.607768	-0.325107	-127.530359
8.350000	-0.329578	-128.199721	-40.923539	4.075843	-40.923539	4.075843	-0.329589	-128.202570
8.400000	-0.334130	-128.871654	-40.805659	2.554419	-40.805659	2.554419	-0.334141	-128.874489
8.450000	-0.338709	-129.543515	-40.689118	1.036704	-40.689118	1.036704	-0.338720	-129.546335
8.500000	-0.343367	-130.215156	-40.573413	-0.469885	-40.573413	-0.469885	-0.343379	-130.217959
8.550000	-0.348044	-130.886774	-40.459077	-1.974137	-40.459077	-1.974137	-0.348057	-130.889560
8.600000	-0.352810	-131.558272	-40.345481	-3.466706	-40.345481	-3.466706	-0.352823	-131.561038
8.650000	-0.357587	-132.229770	-40.233279	-4.958167	-40.233279	-4.958167	-0.357600	-132.232517
8.700000	-0.362461	-132.901275	-40.121722	-6.437446	-40.121722	-6.437446	-0.362475	-132.904000
8.750000	-0.367338	-133.572781	-40.011579	-7.916725	-40.011579	-7.916725	-0.367353	-133.575483
8.800000	-0.372321	-134.244449	-39.901990	-9.383376	-39.901990	-9.383376	-0.372337	-134.247126
8.850000	-0.377308	-134.916117	-39.793765	-10.850028	-39.793765	-10.850028	-0.377324	-134.918769
8.900000	-0.382393	-135.588080	-39.686136	-12.305658	-39.686136	-12.305658	-0.382410	-135.590703
8.950000	-0.387490	-136.260070	-39.579759	-13.760287	-39.579759	-13.760287	-0.387507	-136.262664
9.000000	-0.392677	-136.932463	-39.474012	-15.205363	-39.474012	-15.205363	-0.392696	-136.935026
9.050000	-0.397885	-137.604937	-39.369407	-16.648529	-39.369407	-16.648529	-0.397904	-137.607468
9.100000	-0.403176	-138.277899	-39.265464	-18.083492	-39.265464	-18.083492	-0.403196	-138.280396
9.150000	-0.408496	-138.951024	-39.162558	-19.515721	-39.162558	-19.515721	-0.408516	-138.953485
9.200000	-0.413890	-139.624697	-39.060340	-20.940989	-39.060340	-20.940989	-0.413911	-139.627120
9.250000	-0.419323	-140.298643	-38.959057	-22.362777	-38.959057	-22.362777	-0.419345	-140.301028
9.300000	-0.424822	-140.973172	-38.858488	-23.778753	-38.858488	-23.778753	-0.424844	-140.975514
9.350000	-0.430368	-141.648116	-38.758752	-25.190579	-38.758752	-25.190579	-0.430391	-141.650415
9.400000	-0.435971	-142.323648	-38.659756	-26.597654	-38.659756	-26.597654	-0.435995	-142.325902
9.450000	-0.441631	-142.999769	-38.561490	-27.999981	-38.561490	-27.999981	-0.441655	-143.001975
9.500000	-0.447340	-143.676457	-38.463994	-29.398539	-38.463994	-29.398539	-0.447364	-143.678614
9.550000	-0.453114	-144.353940	-38.367123	-30.791822	-38.367123	-30.791822	-0.453139	-144.356045
9.600000	-0.458928	-145.031939	-38.271052	-32.182242	-38.271052	-32.182242	-0.458954	-145.033991
9.650000	-0.464818	-145.710973	-38.175500	-33.566934	-38.175500	-33.566934	-0.464844	-145.712968
9.700000	-0.470738	-146.390443	-38.080783	-34.949592	-38.080783	-34.949592	-0.470764	-146.392380
9.750000	-0.476743	-147.071222	-37.986478	-36.326147	-37.986478	-36.326147	-0.476769	-147.073097
9.800000	-0.482769	-147.752325	-37.893044	-37.701422	-37.893044	-37.701422	-0.482796	-147.754138
9.850000	-0.488889	-148.435049	-37.799912	-39.070297	-37.799912	-39.070297	-0.488916	-148.436796
9.900000	-0.495022	-149.117953	-37.707695	-40.438571	-37.707695	-40.438571	-0.495049	-149.119632
9.950000	-0.501258	-149.802828	-37.615664	-41.800231	-37.615664	-41.800231	-0.501284	-149.804436
10.000000	-0.507498	-150.487703	-37.524598	-43.161892	-37.524598	-43.161892	-0.507524	-150.489239
