! freq	dB(S11)	phase(S11)	dB(S12)	phase(S12)	
!     	dB(S21)	phase(S21)	dB(S22)	phase(S22)	
!S-par simulation data
#  GHz  S  DB  R 50
0.000000	-0.000000	0.000000	-331.981241	0.000000	-331.981241	0.000000	-0.000000	0.000000
0.050000	-0.001327	-2.068756	-92.138193	88.353980	-92.138193	88.353980	-0.001220	-1.326868
0.100000	-0.004540	-4.127658	-86.134051	86.707894	-86.134051	86.707894	-0.003314	-2.641991
0.150000	-0.008313	-6.174964	-82.640154	85.063444	-82.640154	85.063444	-0.004953	-3.949989
0.200000	-0.011901	-8.214100	-80.180229	83.423906	-80.180229	83.423906	-0.006128	-5.255446
0.250000	-0.015103	-10.248218	-78.293023	81.793739	-78.293023	81.793739	-0.007038	-6.559645
0.300000	-0.017970	-12.279331	-76.773056	80.177697	-76.773056	80.177697	-0.007831	-7.862541
0.350000	-0.020618	-14.308371	-75.509351	78.579578	-75.509351	78.579578	-0.008605	-9.163693
0.400000	-0.023130	-16.335495	-74.436618	77.003559	-74.436618	77.003559	-0.009456	-10.462468
0.450000	-0.025564	-18.360448	-73.514184	75.455076	-73.514184	75.455076	-0.010546	-11.758208
0.500000	-0.027962	-20.383019	-72.711481	73.937067	-72.711481	73.937067	-0.012084	-13.051260
0.550000	-0.030344	-22.402836	-72.008044	72.453843	-72.008044	72.453843	-0.014244	-14.343172
0.600000	-0.032723	-24.419339	-71.390415	71.012093	-71.390415	71.012093	-0.016944	-15.636514
0.650000	-0.035105	-26.432223	-70.845932	69.615641	-70.845932	69.615641	-0.019744	-16.932327
0.700000	-0.037492	-28.441138	-70.365434	68.269499	-70.365434	68.269499	-0.022290	-18.229290
0.750000	-0.039885	-30.445572	-69.943010	66.981542	-69.943010	66.981542	-0.024480	-19.525362
0.800000	-0.042282	-32.445162	-69.572970	65.758705	-69.572970	65.758705	-0.026395	-20.819164
0.850000	-0.044682	-34.439626	-69.250348	64.607932	-69.250348	64.607932	-0.028141	-22.110159
0.900000	-0.047083	-36.428661	-68.971302	63.537548	-68.971302	63.537548	-0.029795	-23.398208
0.950000	-0.049483	-38.411953	-68.732795	62.557388	-68.732795	62.557388	-0.031401	-24.683299
1.000000	-0.051881	-40.389232	-68.532099	61.678184	-68.532099	61.678184	-0.032984	-25.965470
1.050000	-0.054273	-42.360249	-68.366798	60.911985	-68.366798	60.911985	-0.034556	-27.244750
1.100000	-0.056658	-44.324776	-68.234671	60.272322	-68.234671	60.272322	-0.036125	-28.521157
1.150000	-0.059034	-46.282607	-68.133588	59.774364	-68.133588	59.774364	-0.037692	-29.794691
1.200000	-0.061400	-48.233554	-68.061396	59.435067	-68.061396	59.435067	-0.039257	-31.065341
1.250000	-0.063752	-50.177451	-68.015797	59.273267	-68.015797	59.273267	-0.040821	-32.333086
1.300000	-0.066090	-52.113988	-67.994667	59.314534	-67.994667	59.314534	-0.042383	-33.597834
1.350000	-0.068411	-54.043186	-67.994373	59.577641	-67.994373	59.577641	-0.043942	-34.859615
1.400000	-0.070715	-55.964930	-68.011227	60.086555	-68.011227	60.086555	-0.045497	-36.118392
1.450000	-0.072999	-57.879121	-68.040713	60.865832	-68.040713	60.865832	-0.047047	-37.374127
1.500000	-0.075264	-59.785674	-68.077281	61.939331	-68.077281	61.939331	-0.048593	-38.626779
1.550000	-0.077507	-61.684517	-68.114162	63.328249	-68.114162	63.328249	-0.050134	-39.876309
1.600000	-0.079729	-63.575591	-68.143242	65.048356	-68.143242	65.048356	-0.051669	-41.122674
1.650000	-0.081929	-65.458852	-68.155075	67.106420	-68.155075	67.106420	-0.053199	-42.365834
1.700000	-0.084107	-67.334407	-68.139864	69.490588	-68.139864	69.490588	-0.054725	-43.605808
1.750000	-0.086261	-69.201520	-68.082362	72.203283	-68.082362	72.203283	-0.056245	-44.842256
1.800000	-0.088395	-71.061321	-67.978484	75.159565	-67.978484	75.159565	-0.057761	-46.075618
1.850000	-0.090507	-72.912893	-67.812498	78.321140	-67.812498	78.321140	-0.059273	-47.305470
1.900000	-0.092598	-74.756700	-67.581508	81.595497	-67.581508	81.595497	-0.060781	-48.531970
1.950000	-0.094671	-76.592758	-67.282401	84.888834	-67.282401	84.888834	-0.062286	-49.755082
2.000000	-0.096724	-78.420635	-66.911728	88.103077	-66.911728	88.103077	-0.063789	-50.974571
2.050000	-0.098762	-80.241270	-66.483658	91.165191	-66.483658	91.165191	-0.065289	-52.190810
2.100000	-0.100782	-82.053349	-65.992237	93.966977	-65.992237	93.966977	-0.066788	-53.403155
2.150000	-0.102790	-83.858415	-65.462258	96.506151	-65.462258	96.506151	-0.068286	-54.612262
2.200000	-0.104786	-85.655184	-64.891405	98.700119	-64.891405	98.700119	-0.069784	-55.817480
2.250000	-0.106771	-87.444748	-64.298995	100.580461	-64.298995	100.580461	-0.071282	-57.019271
2.300000	-0.108749	-89.226588	-63.689137	102.124623	-63.689137	102.124623	-0.072781	-58.217331
2.350000	-0.110721	-91.000920	-63.070737	103.351959	-63.070737	103.351959	-0.074282	-59.411708
2.400000	-0.112688	-92.768106	-62.451787	104.293769	-62.451787	104.293769	-0.075785	-60.602524
2.450000	-0.114654	-94.527520	-61.833124	104.946013	-61.833124	104.946013	-0.077290	-61.789405
2.500000	-0.116619	-96.280370	-61.224388	105.372745	-61.224388	105.372745	-0.078799	-62.972907
2.550000	-0.118587	-98.025225	-60.621070	105.548806	-60.621070	105.548806	-0.080312	-64.152225
2.600000	-0.120558	-99.763691	-60.031914	105.543058	-60.031914	105.543058	-0.081830	-65.328140
2.650000	-0.122536	-101.494787	-59.453802	105.346827	-59.453802	105.346827	-0.083353	-66.500063
2.700000	-0.124521	-103.219284	-58.890110	104.996032	-58.890110	104.996032	-0.084882	-67.668349
2.750000	-0.126515	-104.937030	-58.340373	104.502095	-58.340373	104.502095	-0.086417	-68.832846
2.800000	-0.128519	-106.648010	-57.804465	103.877965	-57.804465	103.877965	-0.087960	-69.993478
2.850000	-0.130536	-108.352847	-57.283797	103.146610	-57.283797	103.146610	-0.089510	-71.150533
2.900000	-0.132567	-110.050796	-56.775978	102.305901	-56.775978	102.305901	-0.091069	-72.303501
2.950000	-0.134611	-111.743077	-56.283468	101.383255	-56.283468	101.383255	-0.092636	-73.453040
3.000000	-0.136672	-113.428629	-55.803225	100.371795	-55.803225	100.371795	-0.094213	-74.598425
3.050000	-0.138749	-115.108640	-55.337198	99.293428	-55.337198	99.293428	-0.095800	-75.740317
3.100000	-0.140844	-116.782558	-54.883579	98.147489	-54.883579	98.147489	-0.097399	-76.878287
3.150000	-0.142957	-118.450859	-54.442626	96.944141	-54.442626	96.944141	-0.099008	-78.012562
3.200000	-0.145088	-120.113685	-54.013903	95.689173	-54.013903	95.689173	-0.100630	-79.143154
3.250000	-0.147239	-121.770865	-53.596480	94.384878	-53.596480	94.384878	-0.102264	-80.269858
3.300000	-0.149408	-123.423165	-53.190924	93.041006	-53.190924	93.041006	-0.103911	-81.393121
3.350000	-0.151600	-125.069553	-52.795083	91.652709	-52.795083	91.652709	-0.105574	-82.512102
3.400000	-0.153810	-126.711578	-52.410605	90.233876	-52.410605	90.233876	-0.107250	-83.627836
3.450000	-0.156040	-128.348806	-52.036241	88.783358	-52.036241	88.783358	-0.108941	-84.739913
3.500000	-0.158290	-129.981397	-51.671630	87.304085	-51.671630	87.304085	-0.110647	-85.848356
3.550000	-0.160561	-131.609512	-51.316428	85.798691	-51.316428	85.798691	-0.112370	-86.953188
3.600000	-0.162851	-133.233318	-50.970300	84.269540	-50.970300	84.269540	-0.114110	-88.054432
3.650000	-0.165161	-134.852979	-50.632930	82.718762	-50.632930	82.718762	-0.115868	-89.152115
3.700000	-0.167492	-136.468664	-50.304014	81.148277	-50.304014	81.148277	-0.117643	-90.246265
3.750000	-0.169842	-138.080545	-49.983261	79.559818	-49.983261	79.559818	-0.119437	-91.336911
3.800000	-0.172213	-139.688642	-49.670247	77.954303	-49.670247	77.954303	-0.121252	-92.423934
3.850000	-0.174604	-141.293295	-49.364878	76.333910	-49.364878	76.333910	-0.123086	-93.507518
3.900000	-0.177014	-142.894679	-49.066900	74.699902	-49.066900	74.699902	-0.124941	-94.587697
3.950000	-0.179444	-144.492969	-48.776068	73.053424	-48.776068	73.053424	-0.126817	-95.664506
4.000000	-0.181892	-146.088343	-48.492152	71.395513	-48.492152	71.395513	-0.128715	-96.737982
4.050000	-0.184360	-147.680977	-48.214930	69.727109	-48.214930	69.727109	-0.130635	-97.808160
4.100000	-0.186848	-149.271051	-47.944191	68.049062	-47.944191	68.049062	-0.132578	-98.875082
4.150000	-0.189354	-150.858743	-47.679735	66.362143	-47.679735	66.362143	-0.134545	-99.938786
4.200000	-0.191879	-152.444231	-47.421371	64.667049	-47.421371	64.667049	-0.136536	-100.999313
4.250000	-0.194424	-154.027696	-47.168917	62.964411	-47.168917	62.964411	-0.138551	-102.056707
4.300000	-0.196988	-155.609316	-46.922199	61.254796	-46.922199	61.254796	-0.140591	-103.111011
4.350000	-0.199571	-157.189270	-46.681051	59.538718	-46.681051	59.538718	-0.142657	-104.162269
4.400000	-0.202174	-158.767737	-46.445317	57.816639	-46.445317	57.816639	-0.144750	-105.210528
4.450000	-0.204796	-160.344895	-46.214845	56.088971	-46.214845	56.088971	-0.146869	-106.255834
4.500000	-0.207438	-161.920922	-45.989495	54.356087	-45.989495	54.356087	-0.149015	-107.298236
4.550000	-0.210099	-163.495993	-45.769129	52.618317	-45.769129	52.618317	-0.151189	-108.337783
4.600000	-0.212781	-165.070286	-45.553618	50.875954	-45.553618	50.875954	-0.153391	-109.374524
4.650000	-0.215483	-166.643975	-45.342841	49.129261	-45.342841	49.129261	-0.155623	-110.408510
4.700000	-0.218205	-168.217233	-45.136680	47.378465	-45.136680	47.378465	-0.157883	-111.439795
4.750000	-0.220948	-169.790233	-44.935024	45.623768	-44.935024	45.623768	-0.160174	-112.468431
4.800000	-0.223712	-171.363146	-44.737769	43.865344	-44.737769	43.865344	-0.162494	-113.494472
4.850000	-0.226497	-172.936140	-44.544814	42.103342	-44.544814	42.103342	-0.164845	-114.517973
4.900000	-0.229303	-174.509385	-44.356066	40.337891	-44.356066	40.337891	-0.167228	-115.538991
4.950000	-0.232130	-176.083045	-44.171434	38.569097	-44.171434	38.569097	-0.169642	-116.557581
5.000000	-0.234979	-177.657284	-43.990833	36.797048	-43.990833	36.797048	-0.172088	-117.573802
5.050000	-0.237850	-179.232304	-43.814200	35.021679	-43.814200	35.021679	-0.174568	-118.587616
5.100000	-0.240744	179.191761	-43.641450	33.243182	-43.641450	33.243182	-0.177081	-119.599184
5.150000	-0.243659	177.614754	-43.472511	31.461595	-43.472511	31.461595	-0.179628	-120.608567
5.200000	-0.246595	176.036521	-43.307315	29.676941	-43.307315	29.676941	-0.182208	-121.615828
5.250000	-0.249554	174.456910	-43.145799	27.889231	-43.145799	27.889231	-0.184822	-122.621029
5.300000	-0.252534	172.875770	-42.987901	26.098462	-42.987901	26.098462	-0.187471	-123.624232
5.350000	-0.255536	171.292957	-42.833564	24.304623	-42.833564	24.304623	-0.190155	-124.625502
5.400000	-0.258559	169.708326	-42.682736	22.507689	-42.682736	22.507689	-0.192874	-125.624905
5.450000	-0.261603	168.121736	-42.535366	20.707627	-42.535366	20.707627	-0.195628	-126.622506
5.500000	-0.264668	166.533051	-42.391404	18.904393	-42.391404	18.904393	-0.198419	-127.618373
5.550000	-0.267754	164.942135	-42.250808	17.097935	-42.250808	17.097935	-0.201246	-128.612573
5.600000	-0.270859	163.348859	-42.113533	15.288188	-42.113533	15.288188	-0.204109	-129.605175
5.650000	-0.273984	161.753094	-41.979540	13.475081	-41.979540	13.475081	-0.207010	-130.596249
5.700000	-0.277127	160.154717	-41.848790	11.658531	-41.848790	11.658531	-0.209948	-131.585867
5.750000	-0.280289	158.553608	-41.721247	9.838444	-41.721247	9.838444	-0.212923	-132.574098
5.800000	-0.283468	156.949651	-41.596877	8.014718	-41.596877	8.014718	-0.215937	-133.561018
5.850000	-0.286664	155.342734	-41.475647	6.187237	-41.475647	6.187237	-0.218988	-134.546699
5.900000	-0.289876	153.732747	-41.357524	4.355874	-41.357524	4.355874	-0.222078	-135.531217
5.950000	-0.293103	152.119589	-41.242479	2.520488	-41.242479	2.520488	-0.225207	-136.514647
6.000000	-0.296343	150.503158	-41.130481	0.680923	-41.130481	0.680923	-0.228376	-137.497067
6.050000	-0.299597	148.883359	-41.021501	-1.162992	-41.021501	-1.162992	-0.231583	-138.478555
6.100000	-0.302862	147.260104	-40.915512	-3.011448	-40.915512	-3.011448	-0.234830	-139.459192
6.150000	-0.306138	145.633304	-40.812484	-4.864654	-40.812484	-4.864654	-0.238117	-140.439058
6.200000	-0.309424	144.002881	-40.712391	-6.722841	-40.712391	-6.722841	-0.241445	-141.418235
6.250000	-0.312717	142.368757	-40.615203	-8.586265	-40.615203	-8.586265	-0.244813	-142.396809
6.300000	-0.316018	140.730696	-40.520973	-10.455464	-40.520973	-10.455464	-0.248223	-143.374846
6.350000	-0.319324	139.088793	-40.429594	-12.330530	-40.429594	-12.330530	-0.251675	-144.352459
6.400000	-0.322634	137.442989	-40.341035	-14.211815	-40.341035	-14.211815	-0.255168	-145.329738
6.450000	-0.325947	135.793231	-40.255264	-16.099711	-40.255264	-16.099711	-0.258704	-146.306775
6.500000	-0.329262	134.139471	-40.172250	-17.994652	-40.172250	-17.994652	-0.262281	-147.283662
6.550000	-0.332576	132.481665	-40.091957	-19.897120	-40.091957	-19.897120	-0.265901	-148.260494
6.600000	-0.335889	130.819779	-40.014349	-21.807650	-40.014349	-21.807650	-0.269563	-149.237369
6.650000	-0.339199	129.153782	-39.939387	-23.726838	-39.939387	-23.726838	-0.273269	-150.214387
6.700000	-0.342505	127.483651	-39.867031	-25.655342	-39.867031	-25.655342	-0.277019	-151.191652
6.750000	-0.345806	125.809367	-39.797234	-27.593895	-39.797234	-27.593895	-0.280813	-152.169269
6.800000	-0.349100	124.130919	-39.729951	-29.543311	-39.729951	-29.543311	-0.284652	-153.147346
6.850000	-0.352387	122.448303	-39.665129	-31.504493	-39.665129	-31.504493	-0.288536	-154.125998
6.900000	-0.355665	120.761522	-39.602712	-33.478445	-39.602712	-33.478445	-0.292467	-155.105339
6.950000	-0.358933	119.070582	-39.542638	-35.466279	-39.542638	-35.466279	-0.296443	-156.085490
7.000000	-0.362190	117.375501	-39.484841	-37.469233	-39.484841	-37.469233	-0.300468	-157.066577
7.050000	-0.365437	115.676300	-39.429246	-39.488680	-39.429246	-39.488680	-0.304540	-158.048729
7.100000	-0.368671	113.973009	-39.375771	-41.526146	-39.375771	-41.526146	-0.308662	-159.032083
7.150000	-0.371893	112.265664	-39.324324	-43.583324	-39.324324	-43.583324	-0.312835	-160.016781
7.200000	-0.375103	110.554308	-39.274805	-45.662096	-39.274805	-45.662096	-0.317059	-161.002971
7.250000	-0.378301	108.838991	-39.227098	-47.764556	-39.227098	-47.764556	-0.321337	-161.990811
7.300000	-0.381487	107.119938	-39.181019	-49.891739	-39.181019	-49.891739	-0.325667	-162.980376
7.350000	-0.384660	105.396835	-39.136551	-52.049028	-39.136551	-52.049028	-0.330057	-163.972037
7.400000	-0.387823	103.669967	-39.093450	-54.237853	-39.093450	-54.237853	-0.334506	-164.965877
7.450000	-0.390977	101.939411	-39.051524	-56.461426	-39.051524	-56.461426	-0.339017	-165.962097
7.500000	-0.394122	100.205253	-39.010553	-58.723328	-39.010553	-58.723328	-0.343593	-166.960909
7.550000	-0.397261	98.467510	-38.970285	-61.028570	-38.970285	-61.028570	-0.348240	-167.962610
7.600000	-0.400397	96.726359	-38.930402	-63.380803	-38.930402	-63.380803	-0.352959	-168.967393
7.650000	-0.403533	94.981906	-38.890553	-65.785030	-38.890553	-65.785030	-0.357756	-169.975529
7.700000	-0.406671	93.234262	-38.850325	-68.246832	-38.850325	-68.246832	-0.362636	-170.987313
7.750000	-0.409818	91.483542	-38.809229	-70.772441	-38.809229	-70.772441	-0.367608	-172.003070
7.800000	-0.412977	89.729870	-38.766686	-73.368815	-38.766686	-73.368815	-0.372679	-173.023158
7.850000	-0.416155	87.973371	-38.722009	-76.043720	-38.722009	-76.043720	-0.377860	-174.047975
7.900000	-0.419358	86.214178	-38.674373	-78.805817	-38.674373	-78.805817	-0.383162	-175.077964
7.950000	-0.422595	84.452425	-38.622794	-81.664760	-38.622794	-81.664760	-0.388600	-176.113625
8.000000	-0.425876	82.688251	-38.566084	-84.631285	-38.566084	-84.631285	-0.394193	-177.155520
8.050000	-0.429212	80.921795	-38.502816	-87.717308	-38.502816	-87.717308	-0.399962	-178.204293
8.100000	-0.432616	79.153198	-38.431264	-90.936008	-38.431264	-90.936008	-0.405934	-179.260679
8.150000	-0.436105	77.382583	-38.349191	-94.303669	-38.349191	-94.303669	-0.412147	179.674368
8.200000	-0.439698	75.610095	-38.253959	-97.836747	-38.253959	-97.836747	-0.418645	178.599818
8.250000	-0.443417	73.835891	-38.142586	-101.550945	-38.142586	-101.550945	-0.425480	177.514586
8.300000	-0.447290	72.060105	-38.011323	-105.464799	-38.011323	-105.464799	-0.432721	176.417278
8.350000	-0.451349	70.282861	-37.855652	-109.597884	-37.855652	-109.597884	-0.440461	175.306220
8.400000	-0.455635	68.504277	-37.670158	-113.970482	-37.670158	-113.970482	-0.448817	174.179396
8.450000	-0.460200	66.724455	-37.448389	-118.603120	-37.448389	-118.603120	-0.457947	173.034336
8.500000	-0.465107	64.943488	-37.182732	-123.515976	-37.182732	-123.515976	-0.468064	171.867995
8.550000	-0.470439	63.161450	-36.864298	-128.728240	-36.864298	-128.728240	-0.479459	170.676564
8.600000	-0.476303	61.378403	-36.482852	-134.257563	-36.482852	-134.257563	-0.492536	169.455226
8.650000	-0.482839	59.594402	-36.026791	-140.119928	-36.026791	-140.119928	-0.507872	168.197807
8.700000	-0.490240	57.809507	-35.483174	-146.330414	-35.483174	-146.330414	-0.526303	166.896287
8.750000	-0.498769	56.023831	-34.837804	-152.905644	-34.837804	-152.905644	-0.549079	165.540115
8.800000	-0.508831	54.237625	-34.071677	-159.876119	-34.071677	-159.876119	-0.578279	164.113763
8.850000	-0.520956	52.451528	-33.170148	-167.277379	-33.170148	-167.277379	-0.616972	162.598938
8.900000	-0.535956	50.667014	-32.114873	-175.186076	-32.114873	-175.186076	-0.670386	160.969906
8.950000	-0.555017	48.887451	-30.888671	176.261764	-30.888671	176.261764	-0.747372	159.194398
9.000000	-0.580058	47.121028	-29.466057	166.797461	-29.466057	166.797461	-0.864958	157.231300
9.050000	-0.613650	45.386851	-27.834798	155.966945	-27.834798	155.966945	-1.054521	155.058656
9.100000	-0.658560	43.730434	-26.001242	142.959759	-26.001242	142.959759	-1.377712	152.760372
9.150000	-0.712883	42.249123	-24.055533	126.487006	-24.055533	126.487006	-1.940225	150.888530
9.200000	-0.753528	41.074210	-22.304651	105.087137	-22.304651	105.087137	-2.803042	151.445879
9.250000	-0.726618	40.095205	-21.361345	79.207525	-21.361345	79.207525	-3.461801	157.325415
9.300000	-0.630330	38.781935	-21.635923	53.538224	-21.635923	53.538224	-3.071337	164.136268
9.350000	-0.541543	36.998626	-22.736081	32.799414	-22.736081	32.799414	-2.265075	165.949860
9.400000	-0.491062	35.044794	-24.057890	17.454450	-24.057890	17.454450	-1.679983	164.797027
9.450000	-0.467527	33.098848	-25.300378	6.021144	-25.300378	6.021144	-1.327395	162.862335
9.500000	-0.458052	31.202145	-26.382404	-2.851251	-26.382404	-2.851251	-1.114909	160.873952
9.550000	-0.455598	29.353104	-27.300931	-10.016763	-27.300931	-10.016763	-0.982149	159.002058
9.600000	-0.456646	27.541823	-28.079842	-16.021557	-28.079842	-16.021557	-0.895137	157.261390
9.650000	-0.459557	25.760500	-28.739417	-21.178585	-28.739417	-21.178585	-0.836356	155.634793
9.700000	-0.463475	24.002856	-29.301333	-25.705040	-29.301333	-25.705040	-0.795395	154.098492
9.750000	-0.467977	22.264956	-29.780731	-29.735202	-29.780731	-29.735202	-0.766410	152.633694
9.800000	-0.472818	20.543141	-30.195204	-33.385307	-30.195204	-33.385307	-0.745340	151.222291
9.850000	-0.477889	18.835832	-30.553048	-36.715601	-30.553048	-36.715601	-0.730072	149.853860
9.900000	-0.483129	17.141896	-30.861766	-39.773936	-30.861766	-39.773936	-0.719109	148.519802
9.950000	-0.488498	15.459818	-31.130796	-42.611519	-31.130796	-42.611519	-0.711222	147.211688
10.000000	-0.493982	13.788930	-31.365518	-45.258812	-31.365518	-45.258812	-0.705696	145.924222
