! freq	dB(S11)	phase(S11)	dB(S12)	phase(S12)	
!     	dB(S21)	phase(S21)	dB(S22)	phase(S22)	
!S-par simulation data
#  GHz  S  DB  R 50
0.000000	-0.000000	0.000000	-358.446094	180.000000	-358.446094	180.000000	-0.000000	0.000000
0.050000	-0.000870	-1.379174	-110.299892	89.106511	-110.299892	89.106511	-0.000510	-0.772365
0.100000	-0.002959	-2.752061	-104.327119	87.997178	-104.327119	87.997178	-0.001675	-1.540723
0.150000	-0.005410	-4.117671	-100.880624	86.954611	-100.880624	86.954611	-0.002956	-2.304886
0.200000	-0.007721	-5.478134	-98.492637	85.955814	-98.492637	85.955814	-0.004104	-3.066442
0.250000	-0.009806	-6.836102	-96.690204	84.998836	-96.690204	84.998836	-0.005121	-3.826886
0.300000	-0.011688	-8.192666	-95.273331	84.094645	-95.273331	84.094645	-0.006044	-4.586782
0.350000	-0.013429	-9.548444	-94.133626	83.255319	-94.133626	83.255319	-0.006922	-5.346427
0.400000	-0.015082	-10.903637	-93.208429	82.496912	-93.208429	82.496912	-0.007790	-6.105926
0.450000	-0.016685	-12.258168	-92.466193	81.849136	-92.466193	81.849136	-0.008671	-6.865293
0.500000	-0.018269	-13.611970	-91.871049	81.326707	-91.871049	81.326707	-0.009576	-7.624526
0.550000	-0.019846	-14.964879	-91.405500	80.958686	-91.405500	80.958686	-0.010505	-8.383597
0.600000	-0.021425	-16.316723	-91.057878	80.781747	-91.057878	80.781747	-0.011459	-9.142468
0.650000	-0.023010	-17.667330	-90.820625	80.842828	-90.820625	80.842828	-0.012429	-9.901092
0.700000	-0.024603	-19.016533	-90.689141	81.202819	-90.689141	81.202819	-0.013411	-10.659409
0.750000	-0.026207	-20.364072	-90.667076	81.971800	-90.667076	81.971800	-0.014396	-11.417321
0.800000	-0.027820	-21.709790	-90.751746	83.275828	-90.751746	83.275828	-0.015379	-12.174744
0.850000	-0.029443	-23.053582	-90.936794	85.275979	-90.936794	85.275979	-0.016354	-12.931602
0.900000	-0.031074	-24.395472	-91.208366	88.120874	-91.208366	88.120874	-0.017322	-13.687867
0.950000	-0.032712	-25.735233	-91.554721	92.127276	-91.554721	92.127276	-0.018281	-14.443438
1.000000	-0.034356	-27.072757	-91.938216	97.631674	-91.938216	97.631674	-0.019232	-15.198261
1.050000	-0.036006	-28.407948	-92.286389	104.968043	-92.286389	104.968043	-0.020178	-15.952292
1.100000	-0.037659	-29.740714	-92.479865	114.296903	-92.479865	114.296903	-0.021121	-16.705497
1.150000	-0.039315	-31.070975	-92.365897	125.311955	-92.365897	125.311955	-0.022062	-17.457853
1.200000	-0.040973	-32.398654	-91.824325	137.025496	-91.824325	137.025496	-0.023003	-18.209344
1.250000	-0.042632	-33.723682	-90.852546	148.056318	-90.852546	148.056318	-0.023945	-18.959958
1.300000	-0.044290	-35.045873	-89.552414	157.272539	-89.552414	157.272539	-0.024890	-19.709649
1.350000	-0.045946	-36.365284	-88.100779	164.457402	-88.100779	164.457402	-0.025837	-20.458448
1.400000	-0.047600	-37.681860	-86.612381	169.817336	-86.612381	169.817336	-0.026787	-21.206350
1.450000	-0.049252	-38.995551	-85.152850	173.701951	-85.152850	173.701951	-0.027740	-21.953349
1.500000	-0.050900	-40.306310	-83.753270	176.446774	-83.753270	176.446774	-0.028694	-22.699441
1.550000	-0.052544	-41.614092	-82.425083	178.324056	-82.425083	178.324056	-0.029652	-23.444619
1.600000	-0.054183	-42.918857	-81.169786	179.540561	-81.169786	179.540561	-0.030611	-24.188876
1.650000	-0.055818	-44.220567	-79.984289	-179.750453	-79.984289	-179.750453	-0.031571	-24.932206
1.700000	-0.057449	-45.519187	-78.863668	-179.435880	-78.863668	-179.435880	-0.032533	-25.674601
1.750000	-0.059074	-46.814683	-77.802505	-179.431798	-77.802505	-179.431798	-0.033497	-26.416053
1.800000	-0.060695	-48.107025	-76.795507	-179.675311	-76.795507	-179.675311	-0.034461	-27.156553
1.850000	-0.062312	-49.396184	-75.837772	179.881291	-75.837772	179.881291	-0.035426	-27.896091
1.900000	-0.063924	-50.682135	-74.924872	179.274661	-74.924872	179.274661	-0.036391	-28.634657
1.950000	-0.065532	-51.964854	-74.052859	178.533309	-74.052859	178.533309	-0.037358	-29.372242
2.000000	-0.067137	-53.244318	-73.218235	177.679685	-73.218235	177.679685	-0.038325	-30.108835
2.050000	-0.068739	-54.520506	-72.417904	176.731665	-72.417904	176.731665	-0.039293	-30.844425
2.100000	-0.070338	-55.793402	-71.649127	175.703637	-71.649127	175.703637	-0.040262	-31.579001
2.150000	-0.071935	-57.062989	-70.909475	174.607300	-70.909475	174.607300	-0.041232	-32.312552
2.200000	-0.073531	-58.329252	-70.196788	173.452250	-70.196788	173.452250	-0.042203	-33.045066
2.250000	-0.075126	-59.592180	-69.509141	172.246428	-69.509141	172.246428	-0.043176	-33.776531
2.300000	-0.076722	-60.851761	-68.844814	170.996460	-68.844814	170.996460	-0.044151	-34.506935
2.350000	-0.078317	-62.107988	-68.202260	169.707911	-68.202260	169.707911	-0.045128	-35.236268
2.400000	-0.079915	-63.360853	-67.580089	168.385491	-67.580089	168.385491	-0.046107	-35.964517
2.450000	-0.081515	-64.610351	-66.977044	167.033211	-66.977044	167.033211	-0.047089	-36.691670
2.500000	-0.083117	-65.856481	-66.391986	165.654506	-66.391986	165.654506	-0.048074	-37.417716
2.550000	-0.084724	-67.099094	-65.823007	164.251436	-65.823007	164.251436	-0.049062	-38.142593
2.600000	-0.086336	-68.338338	-65.270134	162.827663	-65.270134	162.827663	-0.050055	-38.866338
2.650000	-0.087953	-69.574216	-64.732493	161.385378	-64.732493	161.385378	-0.051051	-39.588939
2.700000	-0.089577	-70.806733	-64.209285	159.926502	-64.209285	159.926502	-0.052052	-40.310386
2.750000	-0.091208	-72.035897	-63.699775	158.452721	-63.699775	158.452721	-0.053059	-41.030665
2.800000	-0.092848	-73.261715	-63.203286	156.965528	-63.203286	156.965528	-0.054070	-41.749768
2.850000	-0.094496	-74.484200	-62.719194	155.466242	-62.719194	155.466242	-0.055087	-42.467681
2.900000	-0.096154	-75.703362	-62.246921	153.956040	-62.246921	153.956040	-0.056110	-43.184396
2.950000	-0.097823	-76.919218	-61.785933	152.435970	-61.785933	152.435970	-0.057140	-43.899900
3.000000	-0.099504	-78.131783	-61.335733	150.906974	-61.335733	150.906974	-0.058176	-44.614184
3.050000	-0.101197	-79.341076	-60.895856	149.369895	-60.895856	149.369895	-0.059220	-45.327238
3.100000	-0.102903	-80.547116	-60.465873	147.825494	-60.465873	147.825494	-0.060272	-46.039050
3.150000	-0.104624	-81.749927	-60.045379	146.274461	-60.045379	146.274461	-0.061331	-46.749613
3.200000	-0.106359	-82.949531	-59.633998	144.717419	-59.633998	144.717419	-0.062399	-47.458917
3.250000	-0.108110	-84.145955	-59.231376	143.154936	-59.231376	143.154936	-0.063476	-48.166951
3.300000	-0.109877	-85.339225	-58.837182	141.587529	-58.837182	141.587529	-0.064562	-48.873708
3.350000	-0.111662	-86.529372	-58.451103	140.015671	-58.451103	140.015671	-0.065658	-49.579179
3.400000	-0.113464	-87.716426	-58.072847	138.439794	-58.072847	138.439794	-0.066763	-50.283356
3.450000	-0.115286	-88.900420	-57.702135	136.860297	-57.702135	136.860297	-0.067879	-50.986229
3.500000	-0.117127	-90.081390	-57.338707	135.277547	-57.338707	135.277547	-0.069006	-51.687793
3.550000	-0.118988	-91.259370	-56.982316	133.691881	-56.982316	133.691881	-0.070143	-52.388039
3.600000	-0.120870	-92.434400	-56.632728	132.103611	-56.632728	132.103611	-0.071293	-53.086960
3.650000	-0.122774	-93.606518	-56.289721	130.513028	-56.289721	130.513028	-0.072454	-53.784550
3.700000	-0.124701	-94.775767	-55.953084	128.920401	-55.953084	128.920401	-0.073627	-54.480802
3.750000	-0.126650	-95.942189	-55.622619	127.325979	-55.622619	127.325979	-0.074813	-55.175709
3.800000	-0.128625	-97.105710	-55.297871	125.729938	-55.297871	125.729938	-0.076013	-55.869208
3.850000	-0.130624	-98.266499	-54.978944	124.132571	-54.978944	124.132571	-0.077226	-56.561350
3.900000	-0.132648	-99.424605	-54.665667	122.534081	-54.665667	122.534081	-0.078452	-57.252131
3.950000	-0.134698	-100.580077	-54.357873	120.934655	-54.357873	120.934655	-0.079693	-57.941546
4.000000	-0.136774	-101.732966	-54.055403	119.334472	-54.055403	119.334472	-0.080948	-58.629590
4.050000	-0.138878	-102.883324	-53.758108	117.733697	-53.758108	117.733697	-0.082218	-59.316260
4.100000	-0.141009	-104.031205	-53.465843	116.132487	-53.465843	116.132487	-0.083504	-60.001551
4.150000	-0.143169	-105.176666	-53.178470	114.530988	-53.178470	114.530988	-0.084804	-60.685459
4.200000	-0.145358	-106.319762	-52.895856	112.929340	-52.895856	112.929340	-0.086121	-61.367982
4.250000	-0.147576	-107.460552	-52.617876	111.327672	-52.617876	111.327672	-0.087454	-62.049116
4.300000	-0.149824	-108.599095	-52.344406	109.726109	-52.344406	109.726109	-0.088804	-62.728859
4.350000	-0.152103	-109.735453	-52.075331	108.124766	-52.075331	108.124766	-0.090171	-63.407209
4.400000	-0.154413	-110.869688	-51.810538	106.523752	-51.810538	106.523752	-0.091555	-64.084163
4.450000	-0.156754	-112.001863	-51.549921	104.923172	-51.549921	104.923172	-0.092957	-64.759720
4.500000	-0.159128	-113.132043	-51.293374	103.323123	-51.293374	103.323123	-0.094377	-65.433879
4.550000	-0.161535	-114.260294	-51.040798	101.723698	-51.040798	101.723698	-0.095816	-66.106638
4.600000	-0.163975	-115.386684	-50.792098	100.124984	-50.792098	100.124984	-0.097274	-66.777998
4.650000	-0.166448	-116.511282	-50.547181	98.527062	-50.547181	98.527062	-0.098751	-67.447956
4.700000	-0.168956	-117.634156	-50.305958	96.930012	-50.305958	96.930012	-0.100247	-68.116514
4.750000	-0.171499	-118.755378	-50.068342	95.333906	-50.068342	95.333906	-0.101763	-68.783671
4.800000	-0.174077	-119.875020	-49.834252	93.738813	-49.834252	93.738813	-0.103300	-69.449428
4.850000	-0.176691	-120.993155	-49.603606	92.144799	-49.603606	92.144799	-0.104858	-70.113786
4.900000	-0.179340	-122.109858	-49.376327	90.551925	-49.376327	90.551925	-0.106436	-70.776745
4.950000	-0.182026	-123.225205	-49.152341	88.960250	-49.152341	88.960250	-0.108037	-71.438308
5.000000	-0.184750	-124.339270	-48.931576	87.369828	-48.931576	87.369828	-0.109659	-72.098475
5.050000	-0.187512	-125.452085	-48.713863	85.780769	-48.713863	85.780769	-0.111304	-72.757189
5.100000	-0.190312	-126.563783	-48.499240	84.193067	-48.499240	84.193067	-0.112972	-73.414511
5.150000	-0.193150	-127.674444	-48.287644	82.606767	-48.287644	82.606767	-0.114663	-74.070445
5.200000	-0.196027	-128.784149	-48.079009	81.021910	-48.079009	81.021910	-0.116377	-74.724994
5.250000	-0.198942	-129.892981	-47.873276	79.438537	-47.873276	79.438537	-0.118116	-75.378160
5.300000	-0.201898	-131.001021	-47.670384	77.856685	-47.670384	77.856685	-0.119878	-76.029947
5.350000	-0.204893	-132.108354	-47.470276	76.276388	-47.470276	76.276388	-0.121665	-76.680359
5.400000	-0.207928	-133.215065	-47.272898	74.697679	-47.272898	74.697679	-0.123477	-77.329399
5.450000	-0.211003	-134.321239	-47.078195	73.120590	-47.078195	73.120590	-0.125314	-77.977072
5.500000	-0.214119	-135.426963	-46.886114	71.545147	-46.886114	71.545147	-0.127177	-78.623381
5.550000	-0.217276	-136.532326	-46.696607	69.971379	-46.696607	69.971379	-0.129067	-79.268332
5.600000	-0.220475	-137.637415	-46.509625	68.399311	-46.509625	68.399311	-0.130982	-79.911929
5.650000	-0.223715	-138.742320	-46.325120	66.828966	-46.325120	66.828966	-0.132925	-80.554179
5.700000	-0.226997	-139.847132	-46.143046	65.260366	-46.143046	65.260366	-0.134895	-81.195085
5.750000	-0.230321	-140.951942	-45.963361	63.693532	-45.963361	63.693532	-0.136893	-81.834653
5.800000	-0.233688	-142.056842	-45.786020	62.128485	-45.786020	62.128485	-0.138918	-82.472891
5.850000	-0.237098	-143.161925	-45.610984	60.565242	-45.610984	60.565242	-0.140973	-83.109802
5.900000	-0.240550	-144.267285	-45.438211	59.003822	-45.438211	59.003822	-0.143056	-83.745395
5.950000	-0.244046	-145.373017	-45.267664	57.444241	-45.267664	57.444241	-0.145168	-84.379676
6.000000	-0.247585	-146.479216	-45.099305	55.886517	-45.099305	55.886517	-0.147310	-85.012650
6.050000	-0.251168	-147.585979	-44.933099	54.330664	-44.933099	54.330664	-0.149482	-85.644326
6.100000	-0.254795	-148.693403	-44.769009	52.776697	-44.769009	52.776697	-0.151685	-86.274711
6.150000	-0.258466	-149.801586	-44.607003	51.224633	-44.607003	51.224633	-0.153918	-86.903811
6.200000	-0.262181	-150.910628	-44.447047	49.674485	-44.447047	49.674485	-0.156183	-87.531636
6.250000	-0.265941	-152.020627	-44.289111	48.126267	-44.289111	48.126267	-0.158479	-88.158191
6.300000	-0.269747	-153.131735	-44.133128	46.580081	-44.133128	46.580081	-0.160809	-88.783432
6.350000	-0.273598	-154.244011	-43.979108	45.035856	-43.979108	45.035856	-0.163171	-89.407422
6.400000	-0.277493	-155.357557	-43.827022	43.493607	-43.827022	43.493607	-0.165567	-90.030169
6.450000	-0.281434	-156.472477	-43.676842	41.953349	-43.676842	41.953349	-0.167995	-90.651682
6.500000	-0.285420	-157.588874	-43.528542	40.415099	-43.528542	40.415099	-0.170457	-91.271969
6.550000	-0.289450	-158.706851	-43.382095	38.878871	-43.382095	38.878871	-0.172953	-91.891041
6.600000	-0.293527	-159.826514	-43.237477	37.344683	-43.237477	37.344683	-0.175483	-92.508906
6.650000	-0.297648	-160.947968	-43.094663	35.812552	-43.094663	35.812552	-0.178048	-93.125573
6.700000	-0.301815	-162.071320	-42.953630	34.282496	-42.953630	34.282496	-0.180649	-93.741053
6.750000	-0.306027	-163.196676	-42.814356	32.754534	-42.814356	32.754534	-0.183285	-94.355356
6.800000	-0.310284	-164.324144	-42.676817	31.228685	-42.676817	31.228685	-0.185957	-94.968490
6.850000	-0.314587	-165.453831	-42.540994	29.704970	-42.540994	29.704970	-0.188665	-95.580467
6.900000	-0.318936	-166.585847	-42.406865	28.183410	-42.406865	28.183410	-0.191410	-96.191297
6.950000	-0.323329	-167.720300	-42.274411	26.664029	-42.274411	26.664029	-0.194192	-96.800991
7.000000	-0.327768	-168.857301	-42.143611	25.146851	-42.143611	25.146851	-0.197012	-97.409558
7.050000	-0.332253	-169.996960	-42.014449	23.631900	-42.014449	23.631900	-0.199869	-98.017011
7.100000	-0.336782	-171.139387	-41.886904	22.119202	-41.886904	22.119202	-0.202765	-98.623361
7.150000	-0.341357	-172.284693	-41.760961	20.608785	-41.760961	20.608785	-0.205699	-99.228617
7.200000	-0.345977	-173.432991	-41.636600	19.100678	-41.636600	19.100678	-0.208672	-99.832793
7.250000	-0.350641	-174.584392	-41.513807	17.594911	-41.513807	17.594911	-0.211684	-100.435899
7.300000	-0.355350	-175.739009	-41.392564	16.091516	-41.392564	16.091516	-0.214736	-101.037947
7.350000	-0.360104	-176.896954	-41.272857	14.590524	-41.272857	14.590524	-0.217828	-101.638950
7.400000	-0.364902	-178.058341	-41.154668	13.091970	-41.154668	13.091970	-0.220961	-102.238919
7.450000	-0.369744	-179.223282	-41.037984	11.595889	-41.037984	11.595889	-0.224134	-102.837866
7.500000	-0.374630	179.608109	-40.922790	10.102318	-40.922790	10.102318	-0.227348	-103.435804
7.550000	-0.379561	178.435548	-40.809070	8.611408	-40.809070	8.611408	-0.230606	-104.032703
7.600000	-0.384536	177.259081	-40.696814	7.123088	-40.696814	7.123088	-0.233905	-104.628620
7.650000	-0.389554	176.078595	-40.586007	5.637401	-40.586007	5.637401	-0.237246	-105.223566
7.700000	-0.394614	174.893976	-40.476636	4.154387	-40.476636	4.154387	-0.240630	-105.817556
7.750000	-0.399717	173.705110	-40.368687	2.674091	-40.368687	2.674091	-0.244056	-106.410602
7.800000	-0.404862	172.511883	-40.262146	1.196556	-40.262146	1.196556	-0.247525	-107.002718
7.850000	-0.410048	171.314183	-40.157002	-0.278172	-40.157002	-0.278172	-0.251038	-107.593917
7.900000	-0.415276	170.111895	-40.053241	-1.750046	-40.053241	-1.750046	-0.254594	-108.184213
7.950000	-0.420544	168.904908	-39.950849	-3.219018	-39.950849	-3.219018	-0.258195	-108.773619
8.000000	-0.425852	167.693109	-39.849815	-4.685040	-39.849815	-4.685040	-0.261839	-109.362150
8.050000	-0.431200	166.476387	-39.750126	-6.148061	-39.750126	-6.148061	-0.265529	-109.949820
8.100000	-0.436587	165.254630	-39.651769	-7.608032	-39.651769	-7.608032	-0.269262	-110.536643
8.150000	-0.442013	164.027727	-39.554732	-9.064902	-39.554732	-9.064902	-0.273041	-111.122633
8.200000	-0.447477	162.795569	-39.459002	-10.518617	-39.459002	-10.518617	-0.276866	-111.707805
8.250000	-0.452978	161.558047	-39.364567	-11.969125	-39.364567	-11.969125	-0.280736	-112.292174
8.300000	-0.458516	160.315053	-39.271415	-13.416374	-39.271415	-13.416374	-0.284652	-112.875754
8.350000	-0.464090	159.066480	-39.179532	-14.860309	-39.179532	-14.860309	-0.288614	-113.458560
8.400000	-0.469700	157.812223	-39.088908	-16.300876	-39.088908	-16.300876	-0.292622	-114.040608
8.450000	-0.475343	156.552178	-38.999529	-17.738021	-38.999529	-17.738021	-0.296677	-114.621912
8.500000	-0.481021	155.286241	-38.911383	-19.171690	-38.911383	-19.171690	-0.300778	-115.202489
8.550000	-0.486732	154.014311	-38.824457	-20.601827	-38.824457	-20.601827	-0.304927	-115.782353
8.600000	-0.492475	152.736290	-38.738739	-22.028377	-38.738739	-22.028377	-0.309123	-116.361521
8.650000	-0.498249	151.452078	-38.654217	-23.451286	-38.654217	-23.451286	-0.313366	-116.940009
8.700000	-0.504053	150.161581	-38.570877	-24.870499	-38.570877	-24.870499	-0.317657	-117.517832
8.750000	-0.509887	148.864704	-38.488707	-26.285962	-38.488707	-26.285962	-0.321996	-118.095007
8.800000	-0.515750	147.561072	-38.407711	-27.697453	-38.407711	-27.697453	-0.326384	-118.671523
8.850000	-0.521641	146.250872	-38.327860	-29.105081	-38.327860	-29.105081	-0.330821	-119.247425
8.900000	-0.527558	144.934020	-38.249141	-30.508793	-38.249141	-30.508793	-0.335306	-119.822730
8.950000	-0.533500	143.610432	-38.171540	-31.908537	-38.171540	-31.908537	-0.339839	-120.397454
9.000000	-0.539466	142.280029	-38.095044	-33.304261	-38.095044	-33.304261	-0.344421	-120.971615
9.050000	-0.545454	140.942733	-38.019641	-34.695914	-38.019641	-34.695914	-0.349051	-121.545230
9.100000	-0.551465	139.598471	-37.945316	-36.083446	-37.945316	-36.083446	-0.353730	-122.118316
9.150000	-0.557496	138.247174	-37.872055	-37.466808	-37.872055	-37.466808	-0.358458	-122.690891
9.200000	-0.563546	136.888776	-37.799846	-38.845952	-37.799846	-38.845952	-0.363235	-123.262972
9.250000	-0.569613	135.523215	-37.728674	-40.220831	-37.728674	-40.220831	-0.368061	-123.834578
9.300000	-0.575698	134.150432	-37.658526	-41.591400	-37.658526	-41.591400	-0.372936	-124.405725
9.350000	-0.581797	132.770375	-37.589388	-42.957614	-37.589388	-42.957614	-0.377859	-124.976433
9.400000	-0.587911	131.382996	-37.521246	-44.319429	-37.521246	-44.319429	-0.382832	-125.546719
9.450000	-0.594036	129.988248	-37.454086	-45.676805	-37.454086	-45.676805	-0.387854	-126.116603
9.500000	-0.600173	128.586096	-37.387893	-47.029702	-37.387893	-47.029702	-0.392925	-126.686103
9.550000	-0.606319	127.176503	-37.322654	-48.378080	-37.322654	-48.378080	-0.398045	-127.255238
9.600000	-0.612473	125.759443	-37.258354	-49.721902	-37.258354	-49.721902	-0.403215	-127.824027
9.650000	-0.618633	124.334893	-37.194980	-51.061135	-37.194980	-51.061135	-0.408433	-128.392489
9.700000	-0.624798	122.902837	-37.132516	-52.395742	-37.132516	-52.395742	-0.413700	-128.960644
9.750000	-0.630966	121.463265	-37.070949	-53.725694	-37.070949	-53.725694	-0.419016	-129.528511
9.800000	-0.637136	120.016172	-37.010264	-55.050960	-37.010264	-55.050960	-0.424381	-130.096110
9.850000	-0.643306	118.561562	-36.950447	-56.371511	-36.950447	-56.371511	-0.429794	-130.663462
9.900000	-0.649475	117.099445	-36.891483	-57.687321	-36.891483	-57.687321	-0.435256	-131.230587
9.950000	-0.655640	115.629836	-36.833359	-58.998365	-36.833359	-58.998365	-0.440766	-131.797505
10.000000	-0.661801	114.152761	-36.776060	-60.304622	-36.776060	-60.304622	-0.446324	-132.364236
