! freq	dB(S11)	phase(S11)	dB(S12)	phase(S12)	
!     	dB(S21)	phase(S21)	dB(S22)	phase(S22)	
!S-par simulation data
#  GHz  S  DB  R 50
0.000000	-0.000000	0.000000	-357.473929	0.000000	-357.473929	0.000000	-0.000000	0.000000
0.050000	-0.000106	-1.017072	-92.031500	13.926460	-92.031500	13.926460	-0.000106	-1.017065
0.100000	-0.000421	-2.033916	-90.096838	35.954456	-90.096838	35.954456	-0.000420	-2.033901
0.150000	-0.000937	-3.050313	-88.120268	48.263409	-88.120268	48.263409	-0.000935	-3.050293
0.200000	-0.001638	-4.066074	-86.343612	55.746073	-86.343612	55.746073	-0.001636	-4.066050
0.250000	-0.002521	-5.080966	-84.797344	60.403012	-84.797344	60.403012	-0.002517	-5.080940
0.300000	-0.003548	-6.094916	-83.460523	63.573272	-83.460523	63.573272	-0.003544	-6.094890
0.350000	-0.004709	-7.107769	-82.293958	65.728550	-82.293958	65.728550	-0.004703	-7.107744
0.400000	-0.005983	-8.119427	-81.267083	67.217195	-81.267083	67.217195	-0.005976	-8.119405
0.450000	-0.007348	-9.129817	-80.355518	68.250848	-80.355518	68.250848	-0.007340	-9.129801
0.500000	-0.008786	-10.138891	-79.540258	68.964770	-79.540258	68.964770	-0.008777	-10.138881
0.550000	-0.010278	-11.146620	-78.806473	69.449391	-78.806473	69.449391	-0.010269	-11.146617
0.600000	-0.011809	-12.152990	-78.142491	69.767645	-78.142491	69.767645	-0.011799	-12.152995
0.650000	-0.013364	-13.158000	-77.539012	69.964958	-77.539012	69.964958	-0.013354	-13.158012
0.700000	-0.014931	-14.161656	-76.988526	70.075240	-76.988526	70.075240	-0.014921	-14.161676
0.750000	-0.016501	-15.163972	-76.484889	70.124621	-76.484889	70.124621	-0.016492	-15.163999
0.800000	-0.018066	-16.164962	-76.023004	70.133860	-76.023004	70.133860	-0.018056	-16.164996
0.850000	-0.019618	-17.164642	-75.598590	70.119940	-75.598590	70.119940	-0.019610	-17.164682
0.900000	-0.021155	-18.163028	-75.207996	70.097155	-75.207996	70.097155	-0.021147	-18.163073
0.950000	-0.022672	-19.160132	-74.848066	70.077866	-74.848066	70.077866	-0.022665	-19.160182
1.000000	-0.024168	-20.155965	-74.516031	70.073030	-74.516031	70.073030	-0.024161	-20.156018
1.050000	-0.025641	-21.150534	-74.209420	70.092591	-74.209420	70.092591	-0.025635	-21.150590
1.100000	-0.027091	-22.143841	-73.925986	70.145747	-73.925986	70.145747	-0.027086	-22.143900
1.150000	-0.028518	-23.135888	-73.663652	70.241148	-73.663652	70.241148	-0.028514	-23.135947
1.200000	-0.029923	-24.126669	-73.420451	70.387022	-73.420451	70.387022	-0.029919	-24.126730
1.250000	-0.031307	-25.116179	-73.194490	70.591263	-73.194490	70.591263	-0.031304	-25.116240
1.300000	-0.032670	-26.104351	-72.984275	70.864667	-72.984275	70.864667	-0.032667	-26.104411
1.350000	-0.034015	-27.091228	-72.787434	71.211914	-72.787434	71.211914	-0.034012	-27.091288
1.400000	-0.035343	-28.076794	-72.602027	71.639837	-72.602027	71.639837	-0.035341	-28.076853
1.450000	-0.036655	-29.061033	-72.426041	72.154773	-72.426041	72.154773	-0.036654	-29.061091
1.500000	-0.037954	-30.043926	-72.257366	72.762412	-72.257366	72.762412	-0.037953	-30.043983
1.550000	-0.039241	-31.025453	-72.093779	73.467591	-72.093779	73.467591	-0.039240	-31.025509
1.600000	-0.040517	-32.005593	-71.932932	74.274052	-71.932932	74.274052	-0.040516	-32.005648
1.650000	-0.041785	-32.984324	-71.772354	75.184161	-71.772354	75.184161	-0.041784	-32.984378
1.700000	-0.043044	-33.961623	-71.609457	76.198590	-71.609457	76.198590	-0.043044	-33.961676
1.750000	-0.044298	-34.937467	-71.441566	77.316000	-71.441566	77.316000	-0.044297	-34.937519
1.800000	-0.045547	-35.911833	-71.265963	78.532733	-71.265963	78.532733	-0.045546	-35.911885
1.850000	-0.046792	-36.884697	-71.079939	79.842557	-71.079939	79.842557	-0.046791	-36.884749
1.900000	-0.048034	-37.856037	-70.880877	81.236496	-70.880877	81.236496	-0.048033	-37.856089
1.950000	-0.049275	-38.825830	-70.666334	82.702780	-70.666334	82.702780	-0.049274	-38.825882
2.000000	-0.050516	-39.794051	-70.434137	84.226963	-70.434137	84.226963	-0.050514	-39.794104
2.050000	-0.051756	-40.760680	-70.182478	85.792205	-70.182478	85.792205	-0.051755	-40.760733
2.100000	-0.052999	-41.725694	-69.909994	87.379749	-69.909994	87.379749	-0.052997	-41.725748
2.150000	-0.054243	-42.689072	-69.615833	88.969541	-69.615833	88.969541	-0.054242	-42.689128
2.200000	-0.055491	-43.650793	-69.299686	90.540976	-69.299686	90.540976	-0.055489	-43.650851
2.250000	-0.056742	-44.610838	-68.961796	92.073679	-68.961796	92.073679	-0.056740	-44.610897
2.300000	-0.057997	-45.569187	-68.602921	93.548281	-68.602921	93.548281	-0.057995	-45.569248
2.350000	-0.059257	-46.525822	-68.224279	94.947089	-68.224279	94.947089	-0.059255	-46.525885
2.400000	-0.060523	-47.480725	-67.827467	96.254622	-67.827467	96.254622	-0.060520	-47.480791
2.450000	-0.061795	-48.433880	-67.414361	97.457963	-67.414361	97.457963	-0.061792	-48.433948
2.500000	-0.063073	-49.385271	-66.987021	98.546928	-66.987021	98.546928	-0.063070	-49.385342
2.550000	-0.064359	-50.334805	-66.546173	99.508551	-66.546173	99.508551	-0.064356	-50.334879
2.600000	-0.065652	-51.282545	-66.095494	100.343281	-66.095494	100.343281	-0.065649	-51.282622
2.650000	-0.066953	-52.228479	-65.637083	101.048879	-65.637083	101.048879	-0.066950	-52.228559
2.700000	-0.068263	-53.172595	-65.172918	101.625069	-65.172918	101.625069	-0.068260	-53.172678
2.750000	-0.069581	-54.114883	-64.704818	102.073202	-64.704818	102.073202	-0.069578	-54.114969
2.800000	-0.070909	-55.055331	-64.234424	102.395924	-64.234424	102.395924	-0.070906	-55.055421
2.850000	-0.072246	-55.993933	-63.763193	102.596872	-63.763193	102.596872	-0.072243	-55.994025
2.900000	-0.073594	-56.930680	-63.292396	102.680399	-63.292396	102.680399	-0.073591	-56.930776
2.950000	-0.074951	-57.865566	-62.823125	102.651340	-62.823125	102.651340	-0.074949	-57.865665
3.000000	-0.076320	-58.798586	-62.356305	102.514816	-62.356305	102.514816	-0.076317	-58.798688
3.050000	-0.077700	-59.729735	-61.892710	102.276079	-61.892710	102.276079	-0.077697	-59.729840
3.100000	-0.079091	-60.659010	-61.432974	101.940387	-61.432974	101.940387	-0.079088	-60.659118
3.150000	-0.080494	-61.586409	-60.977606	101.512909	-60.977606	101.512909	-0.080492	-61.586520
3.200000	-0.081910	-62.511931	-60.527009	100.998656	-60.527009	100.998656	-0.081907	-62.512044
3.250000	-0.083338	-63.435575	-60.081490	100.402429	-60.081490	100.402429	-0.083336	-63.435691
3.300000	-0.084779	-64.357344	-59.641271	99.728787	-59.641271	99.728787	-0.084777	-64.357463
3.350000	-0.086234	-65.277239	-59.206506	98.982025	-59.206506	98.982025	-0.086232	-65.277360
3.400000	-0.087703	-66.195265	-58.777285	98.166162	-58.777285	98.166162	-0.087701	-66.195388
3.450000	-0.089186	-67.111424	-58.353643	97.284935	-58.353643	97.284935	-0.089184	-67.111550
3.500000	-0.090684	-68.025725	-57.935573	96.341802	-57.935573	96.341802	-0.090682	-68.025852
3.550000	-0.092196	-68.938172	-57.523027	95.339947	-57.523027	95.339947	-0.092195	-68.938302
3.600000	-0.093725	-69.848776	-57.115920	94.282280	-57.115920	94.282280	-0.093724	-69.848908
3.650000	-0.095270	-70.757545	-56.714141	93.171454	-56.714141	93.171454	-0.095269	-70.757679
3.700000	-0.096831	-71.664490	-56.317551	92.009866	-56.317551	92.009866	-0.096830	-71.664626
3.750000	-0.098409	-72.569623	-55.925988	90.799672	-55.925988	90.799672	-0.098408	-72.569761
3.800000	-0.100006	-73.472881	-55.538728	89.540839	-55.538728	89.540839	-0.100005	-73.473020
3.850000	-0.101620	-74.374357	-55.156122	88.237139	-55.156122	88.237139	-0.101620	-74.374498
3.900000	-0.103253	-75.274068	-54.777942	86.890011	-54.777942	86.890011	-0.103253	-75.274211
3.950000	-0.104905	-76.172032	-54.403944	85.500679	-54.403944	85.500679	-0.104905	-76.172177
4.000000	-0.106577	-77.068270	-54.033863	84.070157	-54.033863	84.070157	-0.106577	-77.068417
4.050000	-0.108269	-77.962802	-53.667418	82.599249	-53.667418	82.599249	-0.108269	-77.962951
4.100000	-0.109982	-78.855653	-53.304308	81.088555	-53.304308	81.088555	-0.109982	-78.855805
4.150000	-0.111717	-79.746848	-52.944211	79.538463	-52.944211	79.538463	-0.111716	-79.747002
4.200000	-0.113473	-80.636415	-52.586782	77.949153	-52.586782	77.949153	-0.113472	-80.636572
4.250000	-0.115252	-81.524384	-52.231651	76.320589	-52.231651	76.320589	-0.115251	-81.524545
4.300000	-0.117054	-82.410789	-51.878420	74.652510	-51.878420	74.652510	-0.117053	-82.410954
4.350000	-0.118881	-83.295666	-51.526658	72.944427	-51.526658	72.944427	-0.118880	-83.295834
4.400000	-0.120732	-84.179054	-51.175897	71.195603	-51.175897	71.195603	-0.120730	-84.179226
4.450000	-0.122608	-85.060995	-50.825627	69.405040	-50.825627	69.405040	-0.122607	-85.061173
4.500000	-0.124511	-85.941538	-50.475288	67.571464	-50.475288	67.571464	-0.124510	-85.941722
4.550000	-0.126441	-86.820736	-50.124261	65.693294	-50.124261	65.693294	-0.126440	-86.820926
4.600000	-0.128400	-87.698646	-49.771860	63.768618	-49.771860	63.768618	-0.128398	-87.698843
4.650000	-0.130387	-88.575333	-49.417320	61.795158	-49.417320	61.795158	-0.130385	-88.575539
4.700000	-0.132405	-89.450871	-49.059779	59.770229	-49.059779	59.770229	-0.132403	-89.451086
4.750000	-0.134455	-90.325341	-48.698261	57.690687	-48.698261	57.690687	-0.134453	-90.325568
4.800000	-0.136538	-91.198838	-48.331659	55.552872	-48.331659	55.552872	-0.136536	-91.199078
4.850000	-0.138656	-92.071470	-47.958699	53.352534	-47.958699	53.352534	-0.138653	-92.071724
4.900000	-0.140812	-92.943361	-47.577914	51.084748	-47.577914	51.084748	-0.140809	-92.943631
4.950000	-0.143007	-93.814658	-47.187598	48.743803	-47.187598	48.743803	-0.143003	-93.814946
5.000000	-0.145244	-94.685533	-46.785751	46.323076	-46.785751	46.323076	-0.145241	-94.685842
5.050000	-0.147534	-95.556193	-46.366273	43.805161	-46.366273	43.805161	-0.147530	-95.556528
5.100000	-0.149876	-96.426949	-45.929873	41.190883	-45.929873	41.190883	-0.149872	-96.427313
5.150000	-0.152276	-97.298107	-45.473233	38.469973	-45.473233	38.469973	-0.152273	-97.298505
5.200000	-0.154745	-98.170045	-44.992406	35.630440	-44.992406	35.630440	-0.154742	-98.170482
5.250000	-0.157283	-99.043014	-44.490397	32.675142	-44.490397	32.675142	-0.157280	-99.043497
5.300000	-0.159933	-99.918085	-43.944060	29.548029	-43.944060	29.548029	-0.159931	-99.918623
5.350000	-0.162708	-100.795867	-43.355191	26.249372	-43.355191	26.249372	-0.162706	-100.796471
5.400000	-0.165658	-101.677756	-42.707786	22.739854	-42.707786	22.739854	-0.165658	-101.678442
5.450000	-0.168851	-102.565438	-41.989003	18.986828	-41.989003	18.986828	-0.168852	-102.566224
5.500000	-0.172386	-103.461090	-41.185402	14.952289	-41.185402	14.952289	-0.172390	-103.462001
5.550000	-0.176435	-104.368047	-40.275891	10.576520	-40.275891	10.576520	-0.176443	-104.369119
5.600000	-0.181403	-105.293208	-39.208167	5.734271	-39.208167	5.734271	-0.181418	-105.294494
5.650000	-0.187943	-106.245253	-37.945513	0.298353	-37.945513	0.298353	-0.187968	-106.246832
5.700000	-0.197668	-107.242256	-36.399473	-6.016024	-36.399473	-6.016024	-0.197713	-107.244255
5.750000	-0.214662	-108.318160	-34.439005	-13.754883	-34.439005	-13.754883	-0.214747	-108.320802
5.800000	-0.251734	-109.542666	-31.836345	-24.229734	-31.836345	-24.229734	-0.251916	-109.546367
5.850000	-0.362599	-111.024448	-28.186842	-41.531336	-28.186842	-41.531336	-0.363083	-111.029921
5.900000	-0.759834	-111.673153	-23.687252	-80.971872	-23.687252	-80.971872	-0.761412	-111.678117
5.950000	-0.670722	-108.530562	-24.789329	-144.934868	-24.789329	-144.934868	-0.672063	-108.524394
6.000000	-0.364311	-109.551738	-29.509315	-177.139696	-29.509315	-177.139696	-0.364782	-109.546003
6.050000	-0.277967	-110.901039	-33.034474	166.792262	-33.034474	166.792262	-0.278184	-110.896723
6.100000	-0.247941	-112.053153	-35.588092	155.588049	-35.588092	155.588049	-0.248065	-112.049711
6.150000	-0.235548	-113.087901	-37.507974	146.304650	-37.507974	146.304650	-0.235628	-113.085005
6.200000	-0.230153	-114.057499	-38.994780	137.970685	-38.994780	137.970685	-0.230209	-114.054967
6.250000	-0.228093	-114.988214	-40.162412	130.223445	-40.162412	130.223445	-0.228134	-114.985938
6.300000	-0.227870	-115.893520	-41.074142	122.930632	-41.074142	122.930632	-0.227902	-115.891430
6.350000	-0.228717	-116.781918	-41.786458	116.031778	-41.786458	116.031778	-0.228743	-116.779968
6.400000	-0.230269	-117.657964	-42.330734	109.522557	-42.330734	109.522557	-0.230290	-117.656119
6.450000	-0.232265	-118.525596	-42.750674	103.362796	-42.750674	103.362796	-0.232283	-118.523834
6.500000	-0.234601	-119.386456	-43.062098	97.563760	-43.062098	97.563760	-0.234616	-119.384758
6.550000	-0.237197	-120.241935	-43.283060	92.120178	-43.283060	92.120178	-0.237210	-120.240285
6.600000	-0.239981	-121.093479	-43.436956	86.989578	-43.436956	86.989578	-0.239992	-121.091868
6.650000	-0.242938	-121.941400	-43.528643	82.194799	-43.528643	82.194799	-0.242948	-121.939817
6.700000	-0.246030	-122.786585	-43.574317	77.692423	-43.574317	77.692423	-0.246038	-122.785023
6.750000	-0.249229	-123.629693	-43.585975	73.437103	-43.585975	73.437103	-0.249237	-123.628145
6.800000	-0.252529	-124.470945	-43.568177	69.422740	-43.568177	69.422740	-0.252536	-124.469407
6.850000	-0.255920	-125.310659	-43.526906	65.627076	-43.526906	65.627076	-0.255927	-125.309126
6.900000	-0.259394	-126.149097	-43.466979	62.029184	-43.466979	62.029184	-0.259400	-126.147564
6.950000	-0.262945	-126.986483	-43.392277	58.609728	-43.392277	58.609728	-0.262951	-126.984947
7.000000	-0.266569	-127.823009	-43.305921	55.351071	-43.305921	55.351071	-0.266575	-127.821466
7.050000	-0.270262	-128.658842	-43.210427	52.237272	-43.210427	52.237272	-0.270267	-128.657291
7.100000	-0.274031	-129.494078	-43.106803	49.273011	-43.106803	49.273011	-0.274036	-129.492514
7.150000	-0.277867	-130.328892	-42.997484	46.431252	-42.997484	46.431252	-0.277872	-130.327314
7.200000	-0.281735	-131.163603	-42.887035	43.640952	-42.887035	43.640952	-0.281740	-131.162009
7.250000	-0.285698	-131.998003	-42.770602	41.005027	-42.770602	41.005027	-0.285703	-131.996390
7.300000	-0.289682	-132.832410	-42.654608	38.397084	-42.654608	38.397084	-0.289687	-132.830778
7.350000	-0.293768	-133.666850	-42.534710	35.929042	-42.534710	35.929042	-0.293772	-133.665196
7.400000	-0.297864	-134.501327	-42.416082	33.472521	-42.416082	33.472521	-0.297868	-134.499650
7.450000	-0.302069	-135.336213	-42.295132	31.142726	-42.295132	31.142726	-0.302073	-135.334511
7.500000	-0.306276	-136.171098	-42.175842	28.812931	-42.175842	28.812931	-0.306280	-136.169371
7.550000	-0.310599	-137.006805	-42.055457	26.598175	-42.055457	26.598175	-0.310602	-137.005050
7.600000	-0.314924	-137.842511	-41.936717	24.383420	-41.936717	24.383420	-0.314927	-137.840729
7.650000	-0.319354	-138.679296	-41.818125	22.257382	-41.818125	22.257382	-0.319358	-138.677484
7.700000	-0.323797	-139.516179	-41.701000	20.139410	-41.701000	20.139410	-0.323800	-139.514337
7.750000	-0.328335	-140.354329	-41.584807	18.090057	-41.584807	18.090057	-0.328338	-140.352456
7.800000	-0.332895	-141.192732	-41.470025	16.054428	-41.470025	16.054428	-0.332898	-141.190827
7.850000	-0.337541	-142.032529	-41.356654	14.071943	-41.356654	14.071943	-0.337544	-142.030591
7.900000	-0.342219	-142.872790	-41.244716	12.107172	-41.244716	12.107172	-0.342221	-142.870819
7.950000	-0.346974	-143.714512	-41.134458	10.183520	-41.134458	10.183520	-0.346977	-143.712508
8.000000	-0.351770	-144.556966	-41.025708	8.280427	-41.025708	8.280427	-0.351772	-144.554927
8.050000	-0.356635	-145.400893	-40.918760	6.409012	-40.918760	6.409012	-0.356637	-145.398819
8.100000	-0.361551	-146.245872	-40.813435	4.560223	-40.813435	4.560223	-0.361553	-146.243763
8.150000	-0.366526	-147.092284	-40.709926	2.735613	-40.709926	2.735613	-0.366528	-147.090139
8.200000	-0.371563	-147.940126	-40.608184	0.935183	-40.608184	0.935183	-0.371565	-147.937945
8.250000	-0.376650	-148.789303	-40.508195	-0.847100	-40.508195	-0.847100	-0.376653	-148.787086
8.300000	-0.381809	-149.640348	-40.410138	-2.603978	-40.410138	-2.603978	-0.381811	-149.638094
8.350000	-0.387011	-150.492576	-40.313712	-4.347638	-40.313712	-4.347638	-0.387013	-150.490285
8.400000	-0.392294	-151.347168	-40.219402	-6.064860	-40.219402	-6.064860	-0.392296	-151.344841
8.450000	-0.397610	-152.202735	-40.126554	-7.772960	-40.126554	-7.772960	-0.397613	-152.200370
8.500000	-0.403020	-153.061225	-40.036020	-9.453690	-40.036020	-9.453690	-0.403023	-153.058823
8.550000	-0.408453	-153.920424	-39.946746	-11.128766	-39.946746	-11.128766	-0.408456	-153.917985
8.600000	-0.413992	-154.783168	-39.859992	-12.775573	-39.859992	-12.775573	-0.413995	-154.780692
8.650000	-0.419544	-155.646297	-39.774271	-14.419726	-39.774271	-14.419726	-0.419548	-155.643784
8.700000	-0.425214	-156.513659	-39.691283	-16.034696	-39.691283	-16.034696	-0.425218	-156.511109
8.750000	-0.430887	-157.381021	-39.609081	-17.649666	-39.609081	-17.649666	-0.430892	-157.378434
8.800000	-0.436659	-158.252079	-39.529266	-19.241845	-39.529266	-19.241845	-0.436665	-158.249455
8.850000	-0.442496	-159.125618	-39.451245	-20.819937	-39.451245	-20.819937	-0.442503	-159.122958
8.900000	-0.448399	-160.001725	-39.375005	-22.384239	-39.375005	-22.384239	-0.448407	-159.999029
8.950000	-0.454368	-160.880490	-39.300531	-23.935022	-39.300531	-23.935022	-0.454377	-160.877758
9.000000	-0.460405	-161.762001	-39.227808	-25.472531	-39.227808	-25.472531	-0.460415	-161.759233
9.050000	-0.466510	-162.646348	-39.156821	-26.996986	-39.156821	-26.996986	-0.466521	-162.643546
9.100000	-0.472684	-163.533624	-39.087550	-28.508587	-39.087550	-28.508587	-0.472697	-163.530787
9.150000	-0.478927	-164.423920	-39.019979	-30.007516	-39.019979	-30.007516	-0.478942	-164.421049
9.200000	-0.485242	-165.317330	-38.954090	-31.493938	-38.954090	-31.493938	-0.485258	-165.314426
9.250000	-0.491627	-166.213948	-38.889861	-32.968001	-38.889861	-32.968001	-0.491646	-166.211010
9.300000	-0.498085	-167.113870	-38.827274	-34.429842	-38.827274	-34.429842	-0.498106	-167.110899
9.350000	-0.504617	-168.017191	-38.766306	-35.879582	-38.766306	-35.879582	-0.504640	-168.014188
9.400000	-0.511222	-168.924009	-38.706938	-37.317336	-38.706938	-37.317336	-0.511249	-168.920975
9.450000	-0.517903	-169.834422	-38.649147	-38.743204	-38.649147	-38.743204	-0.517933	-169.831357
9.500000	-0.524661	-170.748531	-38.592911	-40.157281	-38.592911	-40.157281	-0.524693	-170.745436
9.550000	-0.531496	-171.666435	-38.538207	-41.559653	-38.538207	-41.559653	-0.531532	-171.663310
9.600000	-0.538409	-172.588235	-38.485011	-42.950399	-38.485011	-42.950399	-0.538448	-172.585082
9.650000	-0.545402	-173.514036	-38.433301	-44.329595	-38.433301	-44.329595	-0.545445	-173.510855
9.700000	-0.552475	-174.443939	-38.383051	-45.697307	-38.383051	-45.697307	-0.552523	-174.440731
9.750000	-0.559630	-175.378051	-38.334239	-47.053601	-38.334239	-47.053601	-0.559683	-175.374816
9.800000	-0.566869	-176.316476	-38.286839	-48.398538	-38.286839	-48.398538	-0.566926	-176.313216
9.850000	-0.574191	-177.259321	-38.240826	-49.732176	-38.240826	-49.732176	-0.574254	-177.256036
9.900000	-0.581599	-178.206694	-38.196177	-51.054570	-38.196177	-51.054570	-0.581667	-178.203386
9.950000	-0.589094	-179.158704	-38.152865	-52.365772	-38.152865	-52.365772	-0.589168	-179.155373
10.000000	-0.596676	179.884540	-38.110865	-53.665836	-38.110865	-53.665836	-0.596757	179.887893
