! freq	dB(S11)	phase(S11)	dB(S12)	phase(S12)	
!     	dB(S21)	phase(S21)	dB(S22)	phase(S22)	
!S-par simulation data
#  GHz  S  DB  R 50
0.000000	-0.000000	0.000000	-311.411033	180.000000	-311.411033	180.000000	-0.000000	0.000000
0.050000	-0.000061	-0.850696	-92.924664	168.583469	-92.924664	168.583469	-0.000061	-0.850697
0.100000	-0.000244	-1.701296	-91.824746	148.987189	-91.824746	148.987189	-0.000242	-1.701297
0.150000	-0.000545	-2.551705	-90.505222	135.449275	-90.505222	135.449275	-0.000541	-2.551705
0.200000	-0.000960	-3.401838	-89.173023	125.506760	-89.173023	125.506760	-0.000953	-3.401836
0.250000	-0.001492	-4.251583	-87.923058	118.095848	-87.923058	118.095848	-0.001481	-4.251577
0.300000	-0.002125	-5.100894	-86.794461	112.215102	-86.794461	112.215102	-0.002109	-5.100882
0.350000	-0.002857	-5.949681	-85.783296	107.474010	-85.783296	107.474010	-0.002835	-5.949661
0.400000	-0.003681	-6.797877	-84.880588	103.545462	-84.880588	103.545462	-0.003654	-6.797844
0.450000	-0.004590	-7.645416	-84.074820	100.215278	-84.074820	100.215278	-0.004556	-7.645368
0.500000	-0.005576	-8.492244	-83.354839	97.340600	-83.354839	97.340600	-0.005536	-8.492176
0.550000	-0.006631	-9.338311	-82.710767	94.824316	-82.710767	94.824316	-0.006585	-9.338219
0.600000	-0.007748	-10.183573	-82.134156	92.599340	-82.134156	92.599340	-0.007695	-10.183453
0.650000	-0.008917	-11.027995	-81.617869	90.618827	-81.617869	90.618827	-0.008859	-11.027841
0.700000	-0.010133	-11.871544	-81.155889	88.849957	-81.155889	88.849957	-0.010069	-11.871351
0.750000	-0.011387	-12.714194	-80.743125	87.269913	-80.743125	87.269913	-0.011318	-12.713957
0.800000	-0.012674	-13.555923	-80.375237	85.863225	-80.375237	85.863225	-0.012599	-13.555637
0.850000	-0.013985	-14.396713	-80.048480	84.619983	-80.048480	84.619983	-0.013906	-14.396373
0.900000	-0.015316	-15.236550	-79.759579	83.534622	-79.759579	83.534622	-0.015234	-15.236150
0.950000	-0.016661	-16.075421	-79.505616	82.605085	-79.505616	82.605085	-0.016577	-16.074956
1.000000	-0.018016	-16.913315	-79.283934	81.832240	-79.283934	81.832240	-0.017930	-16.912781
1.050000	-0.019376	-17.750224	-79.092041	81.219450	-79.092041	81.219450	-0.019289	-17.749617
1.100000	-0.020737	-18.586140	-78.927530	80.772269	-78.927530	80.772269	-0.020650	-18.585457
1.150000	-0.022096	-19.421057	-78.787993	80.498181	-78.787993	80.498181	-0.022011	-19.420293
1.200000	-0.023451	-20.254966	-78.670931	80.406358	-78.670931	80.406358	-0.023368	-20.254121
1.250000	-0.024798	-21.087863	-78.573668	80.507398	-78.573668	80.507398	-0.024720	-21.086933
1.300000	-0.026137	-21.919694	-78.493800	80.822458	-78.493800	80.822458	-0.026063	-21.918679
1.350000	-0.027464	-22.750497	-78.427118	81.355483	-78.427118	81.355483	-0.027397	-22.749397
1.400000	-0.028780	-23.580264	-78.369731	82.118632	-78.369731	82.118632	-0.028720	-23.579080
1.450000	-0.030084	-24.408986	-78.317174	83.122972	-78.317174	83.122972	-0.030032	-24.407720
1.500000	-0.031374	-25.236654	-78.264344	84.377260	-78.264344	84.377260	-0.031332	-25.235309
1.550000	-0.032650	-26.063259	-78.205483	85.886438	-78.205483	85.886438	-0.032618	-26.061838
1.600000	-0.033912	-26.888789	-78.134228	87.649890	-78.134228	87.649890	-0.033892	-26.887298
1.650000	-0.035160	-27.713234	-78.043765	89.659598	-78.043765	89.659598	-0.035153	-27.711678
1.700000	-0.036390	-28.536194	-77.913886	91.964769	-77.913886	91.964769	-0.036396	-28.534583
1.750000	-0.037612	-29.358577	-77.769316	94.380609	-77.769316	94.380609	-0.037632	-29.356916
1.800000	-0.038818	-30.179586	-77.572706	96.972352	-77.572706	96.972352	-0.038852	-30.177886
1.850000	-0.040012	-30.999614	-77.342636	99.689742	-77.342636	99.689742	-0.040062	-30.997884
1.900000	-0.041194	-31.818433	-77.059927	102.441819	-77.059927	102.441819	-0.041259	-31.816685
1.950000	-0.042362	-32.636044	-76.729745	105.228585	-76.729745	105.228585	-0.042442	-32.634292
2.000000	-0.043521	-33.452621	-76.358239	107.941802	-76.358239	107.941802	-0.043616	-33.450876
2.050000	-0.044665	-34.267751	-75.930707	110.552050	-75.930707	110.552050	-0.044775	-34.266030
2.100000	-0.045804	-35.082245	-75.491898	113.076401	-75.491898	113.076401	-0.045929	-35.080557
2.150000	-0.046930	-35.895094	-74.996988	115.365908	-74.996988	115.365908	-0.047067	-35.893459
2.200000	-0.048046	-36.706700	-74.473491	117.443680	-74.473491	117.443680	-0.048194	-36.705133
2.250000	-0.049153	-37.517046	-73.927522	119.295151	-73.927522	119.295151	-0.049310	-37.515564
2.300000	-0.050251	-38.326116	-73.364896	120.914622	-73.364896	120.914622	-0.050415	-38.324732
2.350000	-0.051342	-39.133893	-72.790890	122.303533	-72.790890	122.303533	-0.051508	-39.132618
2.400000	-0.052425	-39.940359	-72.210103	123.468644	-72.210103	123.468644	-0.052591	-39.939203
2.450000	-0.053501	-40.745497	-71.626420	124.420364	-71.626420	124.420364	-0.053662	-40.744464
2.500000	-0.054571	-41.549288	-71.043032	125.171336	-71.043032	125.171336	-0.054721	-41.548378
2.550000	-0.055634	-42.351653	-70.461030	125.727869	-70.461030	125.727869	-0.055770	-42.350856
2.600000	-0.056692	-43.152632	-69.884073	126.112758	-69.884073	126.112758	-0.056808	-43.151930
2.650000	-0.057746	-43.952204	-69.313650	126.339742	-69.313650	126.339742	-0.057837	-43.951570
2.700000	-0.058795	-44.750348	-68.750864	126.421894	-68.750864	126.421894	-0.058859	-44.749747
2.750000	-0.059842	-45.547045	-68.196495	126.371434	-68.196495	126.371434	-0.059876	-45.546434
2.800000	-0.060888	-46.342272	-67.651070	126.199626	-67.651070	126.199626	-0.060892	-46.341604
2.850000	-0.061934	-47.136011	-67.114912	125.916750	-67.114912	125.916750	-0.061910	-47.135238
2.900000	-0.062983	-47.928241	-66.588184	125.532114	-66.588184	125.532114	-0.062935	-47.927322
2.950000	-0.064036	-48.718947	-66.070925	125.054095	-66.070925	125.054095	-0.063971	-48.717851
3.000000	-0.065097	-49.508115	-65.563078	124.490198	-65.563078	124.490198	-0.065022	-49.506824
3.050000	-0.066169	-50.295737	-65.064514	123.847116	-65.064514	123.847116	-0.066092	-50.294251
3.100000	-0.067254	-51.081806	-64.575049	123.130800	-64.575049	123.130800	-0.067182	-51.080141
3.150000	-0.068355	-51.866324	-64.094458	122.346521	-64.094458	122.346521	-0.068294	-51.864507
3.200000	-0.069475	-52.649294	-63.622485	121.498931	-63.622485	121.498931	-0.069428	-52.647363
3.250000	-0.070614	-53.430724	-63.158854	120.592124	-63.158854	120.592124	-0.070584	-53.428718
3.300000	-0.071775	-54.210624	-62.703272	119.629680	-62.703272	119.629680	-0.071762	-54.208581
3.350000	-0.072961	-54.988740	-62.252740	118.606354	-62.252740	118.606354	-0.072962	-54.986696
3.400000	-0.074168	-55.765278	-61.809271	117.531109	-61.809271	117.531109	-0.074182	-55.763260
3.450000	-0.075387	-56.541032	-61.379836	116.431832	-61.379836	116.431832	-0.075410	-56.539046
3.500000	-0.076635	-57.314434	-60.949175	115.260459	-60.949175	115.260459	-0.076665	-57.312498
3.550000	-0.077890	-58.087315	-60.534058	114.074155	-60.534058	114.074155	-0.077925	-58.085430
3.600000	-0.079176	-58.857589	-60.114967	112.813190	-60.114967	112.813190	-0.079211	-58.855754
3.650000	-0.080464	-59.627602	-59.712838	111.545070	-59.712838	111.545070	-0.080500	-59.625817
3.700000	-0.081783	-60.394742	-59.304000	110.198233	-59.304000	110.198233	-0.081816	-60.392997
3.750000	-0.083101	-61.161882	-58.913544	108.851395	-58.913544	108.851395	-0.083132	-61.160177
3.800000	-0.084451	-61.925882	-58.513530	107.419725	-58.513530	107.419725	-0.084478	-61.924206
3.850000	-0.085800	-62.689883	-58.131130	105.988055	-58.131130	105.988055	-0.085824	-62.688234
3.900000	-0.087178	-63.451008	-57.740648	104.477069	-57.740648	104.477069	-0.087199	-63.449380
3.950000	-0.088559	-64.211872	-57.364862	102.958874	-57.364862	102.958874	-0.088576	-64.210263
4.000000	-0.089966	-64.970140	-56.982167	101.364646	-56.982167	101.364646	-0.089980	-64.968546
4.050000	-0.091379	-65.727888	-56.611317	99.755213	-56.611317	99.755213	-0.091390	-65.726308
4.100000	-0.092817	-66.483332	-56.234454	98.071120	-56.234454	98.071120	-0.092826	-66.481766
4.150000	-0.094264	-67.238008	-55.866498	96.362140	-55.866498	96.362140	-0.094271	-67.236456
4.200000	-0.095735	-67.990687	-55.493181	94.578201	-55.493181	94.578201	-0.095740	-67.989148
4.250000	-0.097219	-68.742366	-55.125518	92.756782	-55.125518	92.756782	-0.097223	-68.740842
4.300000	-0.098726	-69.492366	-54.752936	90.858642	-54.752936	90.858642	-0.098729	-69.490858
4.350000	-0.100250	-70.241166	-54.382098	88.905702	-54.382098	88.905702	-0.100252	-70.239676
4.400000	-0.101797	-70.988618	-54.006632	86.873067	-54.006632	86.873067	-0.101798	-70.987147
4.450000	-0.103365	-71.734720	-53.627757	84.760737	-53.627757	84.760737	-0.103366	-71.733270
4.500000	-0.104954	-72.479814	-53.244525	82.564942	-53.244525	82.564942	-0.104955	-72.478387
4.550000	-0.106573	-73.223497	-52.850458	80.252296	-52.850458	80.252296	-0.106574	-73.222095
4.600000	-0.108207	-73.966662	-52.458862	77.877540	-52.458862	77.877540	-0.108207	-73.965286
4.650000	-0.109879	-74.708548	-52.045689	75.334684	-52.045689	75.334684	-0.109880	-74.707200
4.700000	-0.111584	-75.449685	-51.616271	72.641190	-51.616271	72.641190	-0.111585	-75.448367
4.750000	-0.113329	-76.190281	-51.165902	69.771925	-51.165902	69.771925	-0.113330	-76.188993
4.800000	-0.115119	-76.930612	-50.688461	66.695345	-50.688461	66.695345	-0.115121	-76.929356
4.850000	-0.116968	-77.671055	-50.175859	63.371353	-50.175859	63.371353	-0.116970	-77.669831
4.900000	-0.118892	-78.412134	-49.617221	59.748201	-49.617221	59.748201	-0.118894	-78.410942
4.950000	-0.120922	-79.154605	-48.997634	55.757834	-48.997634	55.757834	-0.120925	-79.153443
5.000000	-0.123108	-79.899591	-48.296238	51.308586	-48.296238	51.308586	-0.123111	-79.898458
5.050000	-0.125557	-80.649080	-47.474791	46.248324	-47.474791	46.248324	-0.125560	-80.647971
5.100000	-0.128462	-81.406033	-46.489129	40.395700	-46.489129	40.395700	-0.128463	-81.404941
5.150000	-0.132259	-82.175861	-45.263107	33.439098	-45.263107	33.439098	-0.132259	-82.174772
5.200000	-0.138064	-82.968979	-43.670313	24.819508	-43.670313	24.819508	-0.138060	-82.967869
5.250000	-0.149120	-83.805871	-41.509696	13.405729	-41.509696	13.405729	-0.149108	-83.804697
5.300000	-0.178942	-84.727436	-38.361431	-4.167391	-38.361431	-4.167391	-0.178903	-84.726114
5.350000	-0.289427	-85.573706	-33.990072	-40.172222	-33.990072	-40.172222	-0.289284	-85.572289
5.400000	-0.335919	-84.956144	-33.651613	-109.089538	-33.651613	-109.089538	-0.335715	-84.956078
5.450000	-0.212151	-85.526850	-38.519511	-151.544067	-38.519511	-151.544067	-0.212076	-85.527074
5.500000	-0.175133	-86.413079	-42.204459	-173.662270	-42.204459	-173.662270	-0.175101	-86.413195
5.550000	-0.163305	-87.236016	-44.643534	170.319772	-44.643534	170.319772	-0.163290	-87.236080
5.600000	-0.159024	-88.015347	-46.255776	157.030295	-46.255776	157.030295	-0.159015	-88.015401
5.650000	-0.157729	-88.769283	-47.291956	145.611355	-47.291956	145.611355	-0.157725	-88.769353
5.700000	-0.157813	-89.507963	-47.941401	135.701713	-47.941401	135.701713	-0.157811	-89.508065
5.750000	-0.158661	-90.236277	-48.318070	127.118147	-48.318070	127.118147	-0.158662	-90.236420
5.800000	-0.159969	-90.957158	-48.508677	119.679039	-48.508677	119.679039	-0.159971	-90.957350
5.850000	-0.161572	-91.672499	-48.575561	113.187397	-48.575561	113.187397	-0.161574	-91.672744
5.900000	-0.163384	-92.383335	-48.557819	107.497511	-48.557819	107.497511	-0.163387	-92.383639
5.950000	-0.165384	-93.089624	-48.471757	102.608958	-48.471757	102.608958	-0.165388	-93.089989
6.000000	-0.167417	-93.795008	-48.376750	97.867402	-48.376750	97.867402	-0.167422	-93.795435
6.050000	-0.169612	-94.495964	-48.235567	93.844791	-48.235567	93.844791	-0.169617	-94.496456
6.100000	-0.171840	-95.195881	-48.089276	89.966112	-48.089276	89.966112	-0.171846	-95.196440
6.150000	-0.174176	-95.892520	-47.922603	86.541376	-47.922603	86.541376	-0.174182	-95.893147
6.200000	-0.176547	-96.588005	-47.753599	83.248200	-47.753599	83.248200	-0.176554	-96.588701
6.250000	-0.178998	-97.280941	-47.575986	80.245499	-47.575986	80.245499	-0.179005	-97.281709
6.300000	-0.181486	-97.972616	-47.397789	77.359586	-47.397789	77.359586	-0.181494	-97.973455
6.350000	-0.184037	-98.662255	-47.216630	74.662042	-47.216630	74.662042	-0.184045	-98.663167
6.400000	-0.186629	-99.350529	-47.035942	72.066941	-47.035942	72.066941	-0.186637	-99.351515
6.450000	-0.189271	-100.037159	-46.855127	69.595190	-46.855127	69.595190	-0.189280	-100.038219
6.500000	-0.191959	-100.722323	-46.675425	67.213021	-46.675425	67.213021	-0.191969	-100.723458
6.550000	-0.194689	-101.406160	-46.497079	64.912002	-46.497079	64.912002	-0.194699	-101.407370
6.600000	-0.197469	-102.088437	-46.320248	62.689534	-46.320248	62.689534	-0.197479	-102.089723
6.650000	-0.200283	-102.769655	-46.145568	60.520383	-46.145568	60.520383	-0.200294	-102.771018
6.700000	-0.203155	-103.449160	-45.972618	58.423036	-45.972618	58.423036	-0.203166	-103.450601
6.750000	-0.206055	-104.127810	-45.802205	56.361590	-45.802205	56.361590	-0.206067	-104.129329
6.800000	-0.209008	-104.804989	-45.633974	54.352430	-45.633974	54.352430	-0.209020	-104.806586
6.850000	-0.211998	-105.481116	-45.468171	52.380617	-45.468171	52.380617	-0.212011	-105.482793
6.900000	-0.215032	-106.156050	-45.304801	50.445568	-45.304801	50.445568	-0.215046	-106.157806
6.950000	-0.218111	-106.829790	-45.143787	48.547283	-45.143787	48.547283	-0.218125	-106.831625
7.000000	-0.221227	-107.502587	-44.985263	46.674844	-44.985263	46.674844	-0.221242	-107.504502
7.050000	-0.224395	-108.174063	-44.828976	44.838586	-44.828976	44.838586	-0.224411	-108.176059
7.100000	-0.227594	-108.844826	-44.675124	43.020130	-44.675124	43.020130	-0.227610	-108.846902
7.150000	-0.230853	-109.514159	-44.523304	41.237278	-44.523304	41.237278	-0.230869	-109.516316
7.200000	-0.234134	-110.182985	-44.373821	39.466024	-44.373821	39.466024	-0.234151	-110.185224
7.250000	-0.237484	-110.850291	-44.226069	37.729567	-44.226069	37.729567	-0.237501	-110.852611
7.300000	-0.240849	-111.517278	-44.080574	35.999804	-44.080574	35.999804	-0.240868	-111.519680
7.350000	-0.244291	-112.182671	-43.936426	34.303512	-43.936426	34.303512	-0.244309	-112.185155
7.400000	-0.247741	-112.847914	-43.794505	32.610078	-43.794505	32.610078	-0.247760	-112.850480
7.450000	-0.251275	-113.511509	-43.653507	30.948081	-43.653507	30.948081	-0.251295	-113.514157
7.500000	-0.254811	-114.175103	-43.514761	29.286085	-43.514761	29.286085	-0.254832	-114.177834
7.550000	-0.258440	-114.837015	-43.376529	27.652748	-43.376529	27.652748	-0.258461	-114.839828
7.600000	-0.262070	-115.498928	-43.240462	26.019412	-43.240462	26.019412	-0.262091	-115.501823
7.650000	-0.265786	-116.159406	-43.104861	24.407435	-43.104861	24.407435	-0.265808	-116.162383
7.700000	-0.269511	-116.819753	-42.971198	22.797401	-42.971198	22.797401	-0.269533	-116.822813
7.750000	-0.273316	-117.478898	-42.838060	21.202636	-42.838060	21.202636	-0.273338	-117.482040
7.800000	-0.277138	-118.137802	-42.706637	19.610924	-42.706637	19.610924	-0.277161	-118.141026
7.850000	-0.281032	-118.795717	-42.575879	18.029568	-42.575879	18.029568	-0.281055	-118.799023
7.900000	-0.284952	-119.453303	-42.446635	16.451664	-42.446635	16.451664	-0.284975	-119.456690
7.950000	-0.288937	-120.110097	-42.318251	14.880303	-42.318251	14.880303	-0.288960	-120.113565
8.000000	-0.292955	-120.766495	-42.191227	13.312215	-42.191227	13.312215	-0.292978	-120.770044
8.050000	-0.297032	-121.422280	-42.065281	11.747844	-42.065281	11.747844	-0.297054	-121.425909
8.100000	-0.301150	-122.077627	-41.940605	10.186129	-41.940605	10.186129	-0.301172	-122.081336
8.150000	-0.305318	-122.732520	-41.817224	8.626160	-41.817224	8.626160	-0.305341	-122.736309
8.200000	-0.309537	-123.386961	-41.695108	7.067938	-41.695108	7.067938	-0.309559	-123.390829
8.250000	-0.313799	-124.041089	-41.574478	5.510211	-41.574478	5.510211	-0.313820	-124.045034
8.300000	-0.318119	-124.694779	-41.455215	3.953179	-41.455215	3.953179	-0.318140	-124.698801
8.350000	-0.322472	-125.348288	-41.337570	2.396013	-41.337570	2.396013	-0.322493	-125.352386
8.400000	-0.326886	-126.001433	-41.221502	0.838580	-41.221502	0.838580	-0.326907	-126.005607
8.450000	-0.331352	-126.654364	-41.107246	-0.719571	-41.107246	-0.719571	-0.331372	-126.658611
8.500000	-0.335854	-127.307149	-40.994660	-2.278205	-40.994660	-2.278205	-0.335872	-127.311469
8.550000	-0.340428	-127.959740	-40.884352	-3.838175	-40.884352	-3.838175	-0.340446	-127.964132
8.600000	-0.345027	-128.612292	-40.775757	-5.398538	-40.775757	-5.398538	-0.345043	-128.616754
8.650000	-0.349700	-129.264778	-40.669854	-6.960154	-40.669854	-6.960154	-0.349716	-129.269308
8.700000	-0.354407	-129.917300	-40.566092	-8.522073	-40.566092	-8.522073	-0.354422	-129.921897
8.750000	-0.359168	-130.569877	-40.464900	-10.084467	-40.464900	-10.084467	-0.359182	-130.574540
8.800000	-0.363985	-131.222636	-40.366823	-11.646538	-40.366823	-11.646538	-0.363998	-131.227362
8.850000	-0.368833	-131.875492	-40.270866	-13.208437	-40.270866	-13.208437	-0.368845	-131.880279
8.900000	-0.373760	-132.528795	-40.179500	-14.768049	-40.179500	-14.768049	-0.373771	-132.533641
8.950000	-0.378711	-133.182271	-40.090296	-16.326487	-40.090296	-16.326487	-0.378721	-133.187174
9.000000	-0.383733	-133.836348	-40.006008	-17.880545	-40.006008	-17.880545	-0.383741	-133.841305
9.050000	-0.388794	-134.490875	-39.925272	-19.430515	-39.925272	-19.430515	-0.388801	-134.495885
9.100000	-0.393904	-135.145967	-39.848676	-20.975374	-39.848676	-20.975374	-0.393910	-135.151027
9.150000	-0.399076	-135.802018	-39.778172	-22.510165	-39.778172	-22.510165	-0.399081	-135.807125
9.200000	-0.404274	-136.458463	-39.710452	-24.040811	-39.710452	-24.040811	-0.404279	-136.463617
9.250000	-0.409557	-137.116618	-39.652493	-25.551477	-39.652493	-25.551477	-0.409561	-137.121816
9.300000	-0.414865	-137.775356	-39.597999	-27.054887	-39.597999	-27.054887	-0.414869	-137.780596
9.350000	-0.420242	-138.435820	-39.552911	-28.536670	-39.552911	-28.536670	-0.420245	-138.441101
9.400000	-0.425665	-139.097725	-39.515585	-29.999745	-39.515585	-29.999745	-0.425668	-139.103048
9.450000	-0.431137	-139.761074	-39.485922	-31.444113	-39.485922	-31.444113	-0.431140	-139.766439
9.500000	-0.436683	-140.427239	-39.471123	-32.852363	-39.471123	-32.852363	-0.436687	-140.432649
9.550000	-0.442258	-141.094406	-39.461613	-34.247890	-39.461613	-34.247890	-0.442262	-141.099864
9.600000	-0.447939	-141.766178	-39.476763	-35.588863	-39.476763	-35.588863	-0.447944	-141.771697
9.650000	-0.453660	-142.439744	-39.501838	-36.912583	-39.501838	-36.912583	-0.453666	-142.445331
9.700000	-0.459474	-143.117665	-39.551144	-38.194406	-39.551144	-38.194406	-0.459481	-143.123341
9.750000	-0.465371	-143.799555	-39.623425	-39.452615	-39.623425	-39.452615	-0.465380	-143.805346
9.800000	-0.471364	-144.485981	-39.722564	-40.691233	-39.722564	-40.691233	-0.471375	-144.491919
9.850000	-0.477503	-145.179214	-39.862930	-41.926355	-39.862930	-41.926355	-0.477516	-145.185359
9.900000	-0.483833	-145.880606	-40.052810	-43.218207	-40.052810	-43.218207	-0.483847	-145.887049
9.950000	-0.490359	-146.589668	-40.288790	-44.617186	-40.288790	-44.617186	-0.490374	-146.596513
10.000000	-0.497108	-147.307121	-40.576824	-46.159034	-40.576824	-46.159034	-0.497125	-147.314489
