! freq	dB(S11)	phase(S11)	dB(S12)	phase(S12)	
!     	dB(S21)	phase(S21)	dB(S22)	phase(S22)	
!S-par simulation data
#  GHz  S  DB  R 50
0.000000	-0.000000	0.000000	-312.615335	180.000000	-312.615335	180.000000	-0.000000	-0.000000
0.050000	-0.000231	-0.999924	-69.774053	-149.042410	-69.774053	-149.042410	-0.000179	-1.859918
0.100000	-0.000883	-1.998862	-68.270442	-174.194098	-68.270442	-174.194098	-0.000712	-3.719366
0.150000	-0.001868	-2.996082	-67.992555	170.890660	-67.992555	170.890660	-0.001590	-5.577872
0.200000	-0.003068	-3.991306	-67.964844	159.405805	-67.964844	159.405805	-0.002788	-7.435029
0.250000	-0.004389	-4.984512	-68.035845	149.614988	-68.035845	149.614988	-0.004287	-9.290425
0.300000	-0.005760	-5.975875	-68.161340	140.862563	-68.161340	140.862563	-0.006059	-11.143693
0.350000	-0.007140	-6.965632	-68.324917	132.868637	-68.324917	132.868637	-0.008074	-12.994505
0.400000	-0.008509	-7.954004	-68.519135	125.495938	-68.519135	125.495938	-0.010300	-14.842573
0.450000	-0.009859	-8.941161	-68.740277	118.668379	-68.740277	118.668379	-0.012704	-16.687650
0.500000	-0.011190	-9.927219	-68.986561	112.338544	-68.986561	112.338544	-0.015255	-18.529529
0.550000	-0.012507	-10.912247	-69.257436	106.473650	-69.257436	106.473650	-0.017920	-20.368035
0.600000	-0.013814	-11.896279	-69.553259	101.049332	-69.553259	101.049332	-0.020672	-22.203029
0.650000	-0.015115	-12.879310	-69.875304	96.051468	-69.875304	96.051468	-0.023486	-24.034352
0.700000	-0.016413	-13.861332	-70.225362	91.466197	-70.225362	91.466197	-0.026337	-25.861911
0.750000	-0.017712	-14.842333	-70.605717	87.280877	-70.605717	87.280877	-0.029205	-27.685667
0.800000	-0.019011	-15.822287	-71.019453	83.493450	-71.019453	83.493450	-0.032073	-29.505560
0.850000	-0.020312	-16.801164	-71.470313	80.109260	-71.470313	80.109260	-0.034928	-31.321536
0.900000	-0.021614	-17.778931	-71.962737	77.143114	-71.962737	77.143114	-0.037759	-33.133549
0.950000	-0.022918	-18.755558	-72.501888	74.622270	-72.501888	74.622270	-0.040557	-34.941558
1.000000	-0.024222	-19.731012	-73.093642	72.590791	-73.093642	72.590791	-0.043315	-36.745524
1.050000	-0.025527	-20.705264	-73.744442	71.115934	-73.744442	71.115934	-0.046029	-38.545411
1.100000	-0.026830	-21.678282	-74.460872	70.297565	-74.460872	70.297565	-0.048695	-40.341183
1.150000	-0.028132	-22.650038	-75.248551	70.281857	-75.248551	70.281857	-0.051313	-42.132803
1.200000	-0.029431	-23.620504	-76.109619	71.280283	-76.109619	71.280283	-0.053881	-43.920238
1.250000	-0.030727	-24.589653	-77.037243	73.592615	-77.037243	73.592615	-0.056399	-45.703451
1.300000	-0.032018	-25.557427	-78.001429	77.671693	-78.001429	77.671693	-0.058868	-47.482317
1.350000	-0.033306	-26.523831	-78.932272	83.964879	-78.932272	83.964879	-0.061291	-49.256894
1.400000	-0.034588	-27.488838	-79.692315	92.807658	-79.692315	92.807658	-0.063668	-51.027150
1.450000	-0.035865	-28.452424	-80.081465	103.936232	-80.081465	103.936232	-0.066004	-52.793054
1.500000	-0.037137	-29.414563	-79.929114	116.090894	-79.929114	116.090894	-0.068300	-54.554580
1.550000	-0.038404	-30.375232	-79.231250	127.454058	-79.231250	127.454058	-0.070560	-56.311703
1.600000	-0.039666	-31.334405	-78.153610	136.736658	-78.153610	136.736658	-0.072785	-58.064400
1.650000	-0.040922	-32.292060	-76.896951	143.636781	-76.896951	143.636781	-0.074979	-59.812654
1.700000	-0.042174	-33.248173	-75.601908	148.469676	-75.601908	148.469676	-0.077145	-61.556449
1.750000	-0.043421	-34.202719	-74.341701	151.710225	-74.341701	151.710225	-0.079285	-63.295776
1.800000	-0.044664	-35.155676	-73.146618	153.778538	-73.146618	153.778538	-0.081402	-65.030629
1.850000	-0.045903	-36.107021	-72.025068	154.992636	-72.025068	154.992636	-0.083499	-66.761006
1.900000	-0.047139	-37.056713	-70.975073	155.575748	-70.975073	155.575748	-0.085579	-68.486864
1.950000	-0.048372	-38.004729	-69.991592	155.693221	-69.991592	155.693221	-0.087643	-70.208212
2.000000	-0.049603	-38.951064	-69.068716	155.464257	-69.068716	155.464257	-0.089695	-71.925115
2.050000	-0.050833	-39.895698	-68.199969	154.969975	-68.199969	154.969975	-0.091737	-73.637592
2.100000	-0.052061	-40.838608	-67.379429	154.269672	-67.379429	154.269672	-0.093770	-75.345670
2.150000	-0.053289	-41.779773	-66.601851	153.407289	-66.601851	153.407289	-0.095798	-77.049381
2.200000	-0.054517	-42.719174	-65.862657	152.415822	-65.862657	152.415822	-0.097822	-78.748764
2.250000	-0.055746	-43.656789	-65.157883	151.320359	-65.157883	151.320359	-0.099843	-80.443862
2.300000	-0.056976	-44.592601	-64.484095	150.140192	-64.484095	150.140192	-0.101865	-82.134724
2.350000	-0.058208	-45.526589	-63.838325	148.890312	-63.838325	148.890312	-0.103888	-83.821407
2.400000	-0.059442	-46.458735	-63.217995	147.582476	-63.217995	147.582476	-0.105915	-85.503973
2.450000	-0.060680	-47.389022	-62.620863	146.225980	-62.620863	146.225980	-0.107946	-87.182488
2.500000	-0.061922	-48.317433	-62.044973	144.828233	-62.044973	144.828233	-0.109983	-88.857025
2.550000	-0.063168	-49.243909	-61.488253	143.394523	-61.488253	143.394523	-0.112029	-90.527583
2.600000	-0.064419	-50.168476	-60.949589	141.930474	-60.949589	141.930474	-0.114084	-92.194331
2.650000	-0.065675	-51.091118	-60.427648	140.439930	-60.427648	140.439930	-0.116150	-93.857362
2.700000	-0.066938	-52.011821	-59.921252	138.926029	-59.921252	138.926029	-0.118227	-95.516772
2.750000	-0.068208	-52.930572	-59.429355	137.391344	-59.429355	137.391344	-0.120318	-97.172663
2.800000	-0.069484	-53.847357	-58.951023	135.837999	-58.951023	135.837999	-0.122423	-98.825143
2.850000	-0.070769	-54.762165	-58.485428	134.267748	-58.485428	134.267748	-0.124543	-100.474325
2.900000	-0.072062	-55.674984	-58.031824	132.682051	-58.031824	132.682051	-0.126680	-102.120329
2.950000	-0.073365	-56.585607	-57.588446	131.080823	-57.588446	131.080823	-0.128837	-103.762990
3.000000	-0.074676	-57.494394	-57.156824	129.467647	-57.156824	129.467647	-0.131011	-105.402996
3.050000	-0.075998	-58.401162	-56.735395	127.842134	-56.735395	127.842134	-0.133204	-107.040214
3.100000	-0.077330	-59.305904	-56.323671	126.205015	-56.323671	126.205015	-0.135419	-108.674784
3.150000	-0.078673	-60.208612	-55.921212	124.556922	-55.921212	124.556922	-0.137654	-110.306850
3.200000	-0.080028	-61.109278	-55.527616	122.898400	-55.527616	122.898400	-0.139913	-111.936562
3.250000	-0.081394	-62.007899	-55.142522	121.229927	-55.142522	121.229927	-0.142195	-113.564074
3.300000	-0.082773	-62.904468	-54.765600	119.551929	-54.765600	119.551929	-0.144501	-115.189545
3.350000	-0.084166	-63.798980	-54.396550	117.864788	-54.396550	117.864788	-0.146833	-116.813139
3.400000	-0.085571	-64.691434	-54.035098	116.168855	-54.035098	116.168855	-0.149190	-118.435024
3.450000	-0.086991	-65.581826	-53.680994	114.464455	-53.680994	114.464455	-0.151575	-120.055374
3.500000	-0.088426	-66.470155	-53.334009	112.751896	-53.334009	112.751896	-0.153987	-121.674365
3.550000	-0.089875	-67.356418	-52.993932	111.031476	-52.993932	111.031476	-0.156427	-123.292180
3.600000	-0.091340	-68.240617	-52.660572	109.303480	-52.660572	109.303480	-0.158896	-124.909006
3.650000	-0.092821	-69.122752	-52.333750	107.568193	-52.333750	107.568193	-0.161396	-126.525032
3.700000	-0.094318	-70.002824	-52.013301	105.825898	-52.013301	105.825898	-0.163926	-128.140456
3.750000	-0.095832	-70.880835	-51.699074	104.076877	-51.699074	104.076877	-0.166487	-129.755477
3.800000	-0.097365	-71.756699	-51.390720	102.321151	-51.390720	102.321151	-0.169081	-131.370299
3.850000	-0.098915	-72.630509	-51.088339	100.559303	-51.088339	100.559303	-0.171709	-132.985151
3.900000	-0.100484	-73.502269	-50.791806	98.791629	-50.791806	98.791629	-0.174369	-134.600245
3.950000	-0.102071	-74.371986	-50.501005	97.018430	-50.501005	97.018430	-0.177064	-136.215800
4.000000	-0.103678	-75.239665	-50.215822	95.240014	-50.215822	95.240014	-0.179793	-137.832039
4.050000	-0.105305	-76.105312	-49.936154	93.456690	-49.936154	93.456690	-0.182558	-139.449188
4.100000	-0.106952	-76.968936	-49.661900	91.668777	-49.661900	91.668777	-0.185358	-141.067481
4.150000	-0.108620	-77.830544	-49.392962	89.876592	-49.392962	89.876592	-0.188195	-142.687154
4.200000	-0.110309	-78.690145	-49.129248	88.080460	-49.129248	88.080460	-0.191069	-144.308450
4.250000	-0.112020	-79.547749	-48.870667	86.280703	-48.870667	86.280703	-0.193980	-145.931614
4.300000	-0.113753	-80.403366	-48.617132	84.477646	-48.617132	84.477646	-0.196930	-147.556900
4.350000	-0.115509	-81.257007	-48.368557	82.671612	-48.368557	82.671612	-0.199919	-149.184566
4.400000	-0.117288	-82.108684	-48.124859	80.862920	-48.124859	80.862920	-0.202947	-150.814877
4.450000	-0.119090	-82.958409	-47.885953	79.051884	-47.885953	79.051884	-0.206015	-152.448101
4.500000	-0.120917	-83.806195	-47.651759	77.238814	-47.651759	77.238814	-0.209124	-154.084517
4.550000	-0.122769	-84.652055	-47.422196	75.424009	-47.422196	75.424009	-0.212274	-155.724410
4.600000	-0.124645	-85.496004	-47.197183	73.607760	-47.197183	73.607760	-0.215466	-157.368070
4.650000	-0.126547	-86.338057	-46.976640	71.790344	-46.976640	71.790344	-0.218701	-159.015800
4.700000	-0.128476	-87.178228	-46.760489	69.972025	-46.760489	69.972025	-0.221979	-160.667909
4.750000	-0.130430	-88.016535	-46.548649	68.153051	-46.548649	68.153051	-0.225302	-162.324718
4.800000	-0.132412	-88.852993	-46.341041	66.333650	-46.341041	66.333650	-0.228670	-163.986558
4.850000	-0.134422	-89.687620	-46.137588	64.514033	-46.137588	64.514033	-0.232085	-165.653776
4.900000	-0.136459	-90.520434	-45.938209	62.694387	-45.938209	62.694387	-0.235547	-167.326730
4.950000	-0.138525	-91.351453	-45.742827	60.874874	-45.742827	60.874874	-0.239059	-169.005796
5.000000	-0.140620	-92.180697	-45.551363	59.055632	-45.551363	59.055632	-0.242621	-170.691370
5.050000	-0.142746	-93.008061	-45.363726	57.236802	-45.363726	57.236802	-0.246240	-172.384402
5.100000	-0.144902	-93.833718	-45.179863	55.418423	-45.179863	55.418423	-0.249913	-174.084742
5.150000	-0.147088	-94.657689	-44.999693	53.600530	-44.999693	53.600530	-0.253644	-175.792846
5.200000	-0.149304	-95.479993	-44.823133	51.783120	-44.823133	51.783120	-0.257436	-177.509203
5.250000	-0.151552	-96.300652	-44.650103	49.966157	-44.650103	49.966157	-0.261293	-179.234343
5.300000	-0.153830	-97.119686	-44.480523	48.149555	-44.480523	48.149555	-0.265219	179.031161
5.350000	-0.156142	-97.937040	-44.314320	46.333188	-44.314320	46.333188	-0.269225	177.286151
5.400000	-0.158489	-98.752711	-44.151424	44.516832	-44.151424	44.516832	-0.273322	175.529620
5.450000	-0.160868	-99.566829	-43.991742	42.700208	-43.991742	42.700208	-0.277514	173.761446
5.500000	-0.163281	-100.379417	-43.835192	40.882972	-43.835192	40.882972	-0.281813	171.980723
5.550000	-0.165727	-101.190499	-43.681687	39.064688	-43.681687	39.064688	-0.286235	170.186413
5.600000	-0.168207	-102.000100	-43.531140	37.244814	-43.531140	37.244814	-0.290802	168.377321
5.650000	-0.170722	-102.808243	-43.383459	35.422671	-43.383459	35.422671	-0.295537	166.552045
5.700000	-0.173275	-103.614816	-43.238573	33.597002	-43.238573	33.597002	-0.300500	164.706979
5.750000	-0.175865	-104.419961	-43.096350	31.766824	-43.096350	31.766824	-0.305726	162.841252
5.800000	-0.178490	-105.223731	-42.956660	29.930763	-42.956660	29.930763	-0.311277	160.952619
5.850000	-0.181152	-106.026151	-42.819369	28.086980	-42.819369	28.086980	-0.317240	159.037869
5.900000	-0.183849	-106.827316	-42.684318	26.233725	-42.684318	26.233725	-0.323705	157.094671
5.950000	-0.186585	-107.627081	-42.551327	24.366296	-42.551327	24.366296	-0.330926	155.113436
6.000000	-0.189360	-108.425562	-42.420155	22.480826	-42.420155	22.480826	-0.339138	153.088721
6.050000	-0.192175	-109.222755	-42.290500	20.570227	-42.290500	20.570227	-0.348797	151.008769
6.100000	-0.195028	-110.018742	-42.162024	18.626504	-42.162024	18.626504	-0.360484	148.861652
6.150000	-0.197919	-110.813552	-42.034302	16.636794	-42.034302	16.636794	-0.375208	146.627544
6.200000	-0.200852	-111.607154	-41.906714	14.576238	-41.906714	14.576238	-0.395083	144.267969
6.250000	-0.203823	-112.399664	-41.778856	12.416853	-41.778856	12.416853	-0.423010	141.743291
6.300000	-0.206836	-113.191060	-41.650363	10.094036	-41.650363	10.094036	-0.466179	138.960161
6.350000	-0.209889	-113.981395	-41.522598	7.496181	-41.522598	7.496181	-0.539809	135.766331
6.400000	-0.212982	-114.770726	-41.403635	4.397017	-41.403635	4.397017	-0.682393	131.870839
6.450000	-0.216119	-115.559105	-41.334927	0.252360	-41.334927	0.252360	-1.020909	126.647434
6.500000	-0.219314	-116.346640	-41.548508	-6.114800	-41.548508	-6.114800	-2.082922	119.302949
6.550000	-0.222617	-117.133186	-43.230788	-12.079617	-43.230788	-12.079617	-5.822012	122.969409
6.600000	-0.225945	-117.918078	-44.195873	3.036045	-44.195873	3.036045	-3.675401	153.021456
6.650000	-0.229230	-118.702294	-42.837380	6.521287	-42.837380	6.521287	-1.512478	146.820234
6.700000	-0.232562	-119.485917	-42.148402	4.501213	-42.148402	4.501213	-0.910222	140.676654
6.750000	-0.235948	-120.268802	-41.782930	2.114209	-41.782930	2.114209	-0.685422	136.208278
6.800000	-0.239385	-121.050934	-41.550017	-0.138188	-41.550017	-0.138188	-0.581253	132.653655
6.850000	-0.242869	-121.832346	-41.380607	-2.248321	-41.380607	-2.248321	-0.525524	129.595878
6.900000	-0.246401	-122.613062	-41.247217	-4.248497	-41.247217	-4.248497	-0.493266	126.835129
6.950000	-0.249979	-123.393117	-41.136349	-6.167334	-41.136349	-6.167334	-0.473503	124.259667
7.000000	-0.253605	-124.172544	-41.041034	-8.024116	-41.041034	-8.024116	-0.461042	121.806339
7.050000	-0.257278	-124.951395	-40.957003	-9.833168	-40.957003	-9.833168	-0.453015	119.434221
7.100000	-0.260997	-125.729701	-40.881943	-11.602771	-40.881943	-11.602771	-0.447930	117.119621
7.150000	-0.264763	-126.507501	-40.814277	-13.338949	-40.814277	-13.338949	-0.444847	114.845921
7.200000	-0.268577	-127.284834	-40.752939	-15.045847	-40.752939	-15.045847	-0.443169	112.601592
7.250000	-0.272438	-128.061739	-40.697174	-16.726319	-40.697174	-16.726319	-0.442501	110.378422
7.300000	-0.276348	-128.838255	-40.646432	-18.382310	-40.646432	-18.382310	-0.442576	108.170429
7.350000	-0.280305	-129.614423	-40.600293	-20.015111	-40.600293	-20.015111	-0.443205	105.973181
7.400000	-0.284311	-130.390282	-40.558426	-21.625539	-40.558426	-21.625539	-0.444254	103.783351
7.450000	-0.288366	-131.165873	-40.520561	-23.214056	-40.520561	-23.214056	-0.445623	101.598415
7.500000	-0.292470	-131.941238	-40.486468	-24.780861	-40.486468	-24.780861	-0.447238	99.416447
7.550000	-0.296623	-132.716415	-40.456017	-26.325473	-40.456017	-26.325473	-0.449046	97.235982
7.600000	-0.300826	-133.491450	-40.428947	-27.848198	-40.428947	-27.848198	-0.451000	95.055857
7.650000	-0.305079	-134.266387	-40.405086	-29.348758	-40.405086	-29.348758	-0.453066	92.875244
7.700000	-0.309382	-135.041269	-40.384271	-30.826786	-40.384271	-30.826786	-0.455219	90.693529
7.750000	-0.313735	-135.816137	-40.366341	-32.281855	-40.366341	-32.281855	-0.457437	88.510274
7.800000	-0.318138	-136.591037	-40.351136	-33.713489	-40.351136	-33.713489	-0.459706	86.325186
7.850000	-0.322592	-137.366011	-40.338497	-35.121184	-40.338497	-35.121184	-0.462012	84.138089
7.900000	-0.327097	-138.141106	-40.328259	-36.504414	-40.328259	-36.504414	-0.464345	81.948910
7.950000	-0.331653	-138.916365	-40.320257	-37.862647	-40.320257	-37.862647	-0.466697	79.757660
8.000000	-0.336260	-139.691835	-40.314319	-39.195350	-40.314319	-39.195350	-0.469063	77.564423
8.050000	-0.340918	-140.467560	-40.310270	-40.501999	-40.310270	-40.501999	-0.471437	75.369345
8.100000	-0.345628	-141.243588	-40.307929	-41.782083	-40.307929	-41.782083	-0.473818	73.172628
8.150000	-0.350391	-142.019969	-40.307125	-43.034812	-40.307125	-43.034812	-0.476202	70.974508
8.200000	-0.355206	-142.796752	-40.307660	-44.259706	-40.307660	-44.259706	-0.478590	68.775288
8.250000	-0.360073	-143.573982	-40.309318	-45.456627	-40.309318	-45.456627	-0.480980	66.575311
8.300000	-0.364993	-144.351706	-40.311896	-46.625176	-40.311896	-46.625176	-0.483374	64.374939
8.350000	-0.369966	-145.129972	-40.315185	-47.764989	-40.315185	-47.764989	-0.485774	62.174559
8.400000	-0.374991	-145.908831	-40.318971	-48.875746	-40.318971	-48.875746	-0.488180	59.974585
8.450000	-0.380069	-146.688332	-40.323031	-49.957168	-40.323031	-49.957168	-0.490595	57.775449
8.500000	-0.385201	-147.468524	-40.327141	-51.009022	-40.327141	-51.009022	-0.493023	55.577604
8.550000	-0.390385	-148.249458	-40.331069	-52.031122	-40.331069	-52.031122	-0.495468	53.381515
8.600000	-0.395624	-149.031185	-40.334576	-53.023334	-40.334576	-53.023334	-0.497932	51.187664
8.650000	-0.400915	-149.813757	-40.337422	-53.985574	-40.337422	-53.985574	-0.500420	48.996539
8.700000	-0.406261	-150.597225	-40.339357	-54.917813	-40.339357	-54.917813	-0.502936	46.808639
8.750000	-0.411661	-151.381643	-40.340127	-55.820080	-40.340127	-55.820080	-0.505486	44.624470
8.800000	-0.417116	-152.167085	-40.339437	-56.691815	-40.339437	-56.691815	-0.508074	42.444642
8.850000	-0.422625	-152.953585	-40.337047	-57.533820	-40.337047	-57.533820	-0.510707	40.269586
8.900000	-0.428189	-153.741196	-40.332685	-58.346312	-40.332685	-58.346312	-0.513389	38.099813
8.950000	-0.433807	-154.529974	-40.326076	-59.129571	-40.326076	-59.129571	-0.516125	35.935832
9.000000	-0.439480	-155.319973	-40.316936	-59.883947	-40.316936	-59.883947	-0.518922	33.778149
9.050000	-0.445208	-156.111248	-40.304978	-60.609863	-40.304978	-60.609863	-0.521785	31.627267
9.100000	-0.450992	-156.903855	-40.289907	-61.307816	-40.289907	-61.307816	-0.524720	29.483680
9.150000	-0.456830	-157.697852	-40.271422	-61.978384	-40.271422	-61.978384	-0.527732	27.347877
9.200000	-0.462724	-158.493294	-40.249215	-62.622227	-40.249215	-62.622227	-0.530828	25.220335
9.250000	-0.468673	-159.290240	-40.222972	-63.240093	-40.222972	-63.240093	-0.534014	23.101525
9.300000	-0.474677	-160.088747	-40.192373	-63.832826	-40.192373	-63.832826	-0.537294	20.991904
9.350000	-0.480738	-160.888874	-40.157088	-64.401367	-40.157088	-64.401367	-0.540676	18.891918
9.400000	-0.486855	-161.690699	-40.116722	-64.946525	-40.116722	-64.946525	-0.544165	16.802114
9.450000	-0.493029	-162.494282	-40.070916	-65.469503	-40.070916	-65.469503	-0.547768	14.722924
9.500000	-0.499259	-163.299667	-40.019375	-65.971843	-40.019375	-65.971843	-0.551489	12.654642
9.550000	-0.505545	-164.106914	-39.961736	-66.454964	-39.961736	-66.454964	-0.555332	10.597655
9.600000	-0.511887	-164.916083	-39.897630	-66.920427	-39.897630	-66.920427	-0.559303	8.552334
9.650000	-0.518286	-165.727237	-39.826678	-67.369942	-39.826678	-67.369942	-0.563408	6.519036
9.700000	-0.524742	-166.540437	-39.748490	-67.805383	-39.748490	-67.805383	-0.567650	4.498098
9.750000	-0.531255	-167.355747	-39.662668	-68.228804	-39.662668	-68.228804	-0.572035	2.489841
9.800000	-0.537824	-168.173228	-39.568803	-68.642449	-39.568803	-68.642449	-0.576566	0.494568
9.850000	-0.544451	-168.992946	-39.466477	-69.048774	-39.466477	-69.048774	-0.581249	-1.487435
9.900000	-0.551135	-169.814963	-39.355257	-69.450467	-39.355257	-69.450467	-0.586086	-3.455899
9.950000	-0.557876	-170.639344	-39.234704	-69.850470	-39.234704	-69.850470	-0.591082	-5.410575
10.000000	-0.564674	-171.466156	-39.104362	-70.252007	-39.104362	-70.252007	-0.596241	-7.351230
