! freq	dB(S11)	phase(S11)	dB(S12)	phase(S12)	
!     	dB(S21)	phase(S21)	dB(S22)	phase(S22)	
!S-par simulation data
#  GHz  S  DB  R 50
0.000000	-0.000000	-0.000000	-363.036472	180.000000	-363.036472	180.000000	-0.000000	-0.000000
0.050000	-0.000708	-1.160005	-110.039359	89.081209	-110.039359	89.081209	-0.000599	-0.921659
0.100000	-0.002428	-2.315112	-104.073008	88.073349	-104.073008	88.073349	-0.001992	-1.838746
0.150000	-0.004481	-3.464441	-100.628809	87.061941	-100.628809	87.061941	-0.003562	-2.750869
0.200000	-0.006443	-4.609615	-98.239499	86.083701	-98.239499	86.083701	-0.004994	-3.659770
0.250000	-0.008225	-5.752779	-96.433820	85.146499	-96.433820	85.146499	-0.006274	-4.567249
0.300000	-0.009829	-6.894854	-95.012133	84.262676	-95.012133	84.262676	-0.007434	-5.474017
0.350000	-0.011301	-8.036374	-93.866237	83.444213	-93.866237	83.444213	-0.008527	-6.380462
0.400000	-0.012684	-9.177527	-92.933470	82.706528	-92.933470	82.706528	-0.009593	-7.286726
0.450000	-0.014011	-10.318277	-92.181953	82.078171	-92.181953	82.078171	-0.010658	-8.192816
0.500000	-0.015310	-11.458572	-91.576000	81.572560	-91.576000	81.572560	-0.011735	-9.098711
0.550000	-0.016596	-12.598294	-91.097922	81.216988	-91.097922	81.216988	-0.012829	-10.004351
0.600000	-0.017879	-13.737323	-90.735809	81.045739	-90.735809	81.045739	-0.013939	-10.909664
0.650000	-0.019166	-14.875542	-90.481805	81.102469	-90.481805	81.102469	-0.015063	-11.814570
0.700000	-0.020462	-16.012841	-90.330957	81.443484	-90.330957	81.443484	-0.016196	-12.718987
0.750000	-0.021769	-17.149051	-90.286353	82.170463	-90.286353	82.170463	-0.017336	-13.622787
0.800000	-0.023090	-18.284076	-90.345080	83.398164	-90.345080	83.398164	-0.018477	-14.525877
0.850000	-0.024424	-19.417854	-90.501018	85.271694	-90.501018	85.271694	-0.019617	-15.428184
0.900000	-0.025771	-20.550404	-90.741298	87.923032	-90.741298	87.923032	-0.020756	-16.329694
0.950000	-0.027130	-21.681586	-91.056709	91.637547	-91.056709	91.637547	-0.021892	-17.230295
1.000000	-0.028500	-22.811338	-91.415838	96.720440	-91.415838	96.720440	-0.023025	-18.129927
1.050000	-0.029881	-23.939601	-91.758186	103.489748	-91.758186	103.489748	-0.024156	-19.028539
1.100000	-0.031270	-25.066323	-91.981962	112.146555	-91.981962	112.146555	-0.025286	-19.926091
1.150000	-0.032667	-26.191457	-91.948893	122.530754	-91.948893	122.530754	-0.026416	-20.822546
1.200000	-0.034071	-27.314957	-91.531609	133.881158	-91.531609	133.881158	-0.027546	-21.717878
1.250000	-0.035479	-28.436782	-90.692876	144.951890	-90.692876	144.951890	-0.028676	-22.612062
1.300000	-0.036891	-29.556819	-89.498553	154.533211	-89.498553	154.533211	-0.029809	-23.505028
1.350000	-0.038305	-30.675103	-88.113934	162.204977	-88.113934	162.204977	-0.030942	-24.396810
1.400000	-0.039721	-31.791603	-86.660905	168.047575	-86.660905	168.047575	-0.032078	-25.287393
1.450000	-0.041137	-32.906285	-85.215945	172.357396	-85.215945	172.357396	-0.033215	-26.176763
1.500000	-0.042553	-34.019122	-83.818690	175.458830	-83.818690	175.458830	-0.034354	-27.064909
1.550000	-0.043968	-35.130085	-82.486074	177.630254	-82.486074	177.630254	-0.035495	-27.951817
1.600000	-0.045381	-36.239147	-81.222828	179.089234	-81.222828	179.089234	-0.036636	-28.837477
1.650000	-0.046793	-37.346283	-80.027694	179.999552	-80.027694	179.999552	-0.037779	-29.721876
1.700000	-0.048204	-38.451469	-78.896759	-179.516919	-78.896759	-179.516919	-0.038923	-30.605002
1.750000	-0.049612	-39.554683	-77.825154	-179.369373	-77.825154	-179.369373	-0.040067	-31.486843
1.800000	-0.051018	-40.655902	-76.807876	-179.489629	-76.807876	-179.489629	-0.041213	-32.367387
1.850000	-0.052421	-41.755106	-75.840163	-179.825949	-75.840163	-179.825949	-0.042358	-33.246622
1.900000	-0.053823	-42.852276	-74.917650	179.661397	-74.917650	179.661397	-0.043505	-34.124534
1.950000	-0.055224	-43.947392	-74.036407	179.003290	-74.036407	179.003290	-0.044652	-35.001110
2.000000	-0.056623	-45.040437	-73.192928	178.224015	-73.192928	178.224015	-0.045800	-35.876338
2.050000	-0.058021	-46.131394	-72.384099	177.342890	-72.384099	177.342890	-0.046949	-36.750205
2.100000	-0.059419	-47.220247	-71.607156	176.375445	-71.607156	176.375445	-0.048099	-37.622698
2.150000	-0.060817	-48.306982	-70.859645	175.334292	-70.859645	175.334292	-0.049250	-38.493802
2.200000	-0.062215	-49.391584	-70.139380	174.229766	-70.139380	174.229766	-0.050403	-39.363506
2.250000	-0.063614	-50.474040	-69.444413	173.070413	-69.444413	173.070413	-0.051557	-40.231796
2.300000	-0.065016	-51.554339	-68.773000	171.863356	-68.773000	171.863356	-0.052714	-41.098659
2.350000	-0.066419	-52.632469	-68.123575	170.614575	-68.123575	170.614575	-0.053874	-41.964082
2.400000	-0.067825	-53.708420	-67.494729	169.329130	-67.494729	169.329130	-0.055036	-42.828052
2.450000	-0.069236	-54.782183	-66.885188	168.011326	-66.885188	168.011326	-0.056202	-43.690557
2.500000	-0.070650	-55.853750	-66.293799	166.664852	-66.293799	166.664852	-0.057372	-44.551585
2.550000	-0.072070	-56.923017	-65.718610	165.291904	-65.718610	165.291904	-0.058546	-45.411058
2.600000	-0.073496	-57.990075	-65.159670	163.896428	-65.159670	163.896428	-0.059725	-46.269028
2.650000	-0.074928	-59.054918	-64.616091	162.480776	-64.616091	162.480776	-0.060909	-47.125485
2.700000	-0.076367	-60.117542	-64.087066	161.047010	-64.087066	161.047010	-0.062099	-47.980417
2.750000	-0.077814	-61.177945	-63.571849	159.596942	-63.571849	159.596942	-0.063296	-48.833813
2.800000	-0.079271	-62.236125	-63.069756	158.132173	-63.069756	158.132173	-0.064499	-49.685663
2.850000	-0.080736	-63.292081	-62.580154	156.654125	-62.580154	156.654125	-0.065709	-50.535957
2.900000	-0.082212	-64.345815	-62.102460	155.164059	-62.102460	155.164059	-0.066927	-51.384686
2.950000	-0.083698	-65.397326	-61.636132	153.663104	-61.636132	153.663104	-0.068153	-52.231840
3.000000	-0.085196	-66.446620	-61.180665	152.152271	-61.180665	152.152271	-0.069387	-53.077411
3.050000	-0.086706	-67.493698	-60.735593	150.632468	-60.735593	150.632468	-0.070632	-53.921391
3.100000	-0.088229	-68.538567	-60.300477	149.104512	-60.300477	149.104512	-0.071885	-54.763772
3.150000	-0.089766	-69.581232	-59.874911	147.569143	-59.874911	147.569143	-0.073149	-55.604546
3.200000	-0.091317	-70.621701	-59.458512	146.027031	-59.458512	146.027031	-0.074424	-56.443708
3.250000	-0.092882	-71.659981	-59.050923	144.478784	-59.050923	144.478784	-0.075710	-57.281251
3.300000	-0.094464	-72.696084	-58.651807	142.924958	-58.651807	142.924958	-0.077008	-58.117169
3.350000	-0.096061	-73.730018	-58.260850	141.366057	-58.260850	141.366057	-0.078318	-58.951457
3.400000	-0.097676	-74.761797	-57.877753	139.802545	-57.877753	139.802545	-0.079641	-59.784111
3.450000	-0.099308	-75.791433	-57.502238	138.234845	-57.502238	138.234845	-0.080977	-60.615126
3.500000	-0.100958	-76.818940	-57.134038	136.663349	-57.134038	136.663349	-0.082327	-61.444500
3.550000	-0.102627	-77.844333	-56.772904	135.088413	-56.772904	135.088413	-0.083691	-62.272229
3.600000	-0.104316	-78.867630	-56.418600	133.510370	-56.418600	133.510370	-0.085070	-63.098311
3.650000	-0.106025	-79.888847	-56.070901	131.929525	-56.070901	131.929525	-0.086464	-63.922743
3.700000	-0.107754	-80.908003	-55.729595	130.346161	-55.729595	130.346161	-0.087874	-64.745526
3.750000	-0.109504	-81.925118	-55.394480	128.760539	-55.394480	128.760539	-0.089300	-65.566657
3.800000	-0.111277	-82.940127	-55.065084	127.172828	-55.065084	127.172828	-0.090743	-66.386066
3.850000	-0.113073	-83.953140	-54.741527	125.583348	-54.741527	125.583348	-0.092203	-67.203825
3.900000	-0.114892	-84.964180	-54.423633	123.992310	-54.423633	123.992310	-0.093681	-68.019933
3.950000	-0.116735	-85.973272	-54.111235	122.399908	-54.111235	122.399908	-0.095177	-68.834394
4.000000	-0.118601	-86.980441	-53.804174	120.806324	-53.804174	120.806324	-0.096692	-69.647210
4.050000	-0.120493	-87.985715	-53.502297	119.211729	-53.502297	119.211729	-0.098225	-70.458383
4.100000	-0.122410	-88.989120	-53.205460	117.616282	-53.205460	117.616282	-0.099778	-71.267916
4.150000	-0.124353	-89.990687	-52.913523	116.020133	-52.913523	116.020133	-0.101351	-72.075814
4.200000	-0.126322	-90.990443	-52.626354	114.423423	-52.626354	114.423423	-0.102945	-72.882081
4.250000	-0.128319	-91.988422	-52.343824	112.826285	-52.343824	112.826285	-0.104559	-73.686721
4.300000	-0.130343	-92.984654	-52.065813	111.228841	-52.065813	111.228841	-0.106195	-74.489741
4.350000	-0.132395	-93.979172	-51.792202	109.631210	-51.792202	109.631210	-0.107852	-75.291147
4.400000	-0.134475	-94.972012	-51.522880	108.033503	-51.522880	108.033503	-0.109532	-76.090945
4.450000	-0.136586	-95.963208	-51.257739	106.435822	-51.257739	106.435822	-0.111234	-76.889142
4.500000	-0.138725	-96.952796	-50.996675	104.838266	-50.996675	104.838266	-0.112960	-77.685747
4.550000	-0.140895	-97.940813	-50.739588	103.240929	-50.739588	103.240929	-0.114709	-78.480767
4.600000	-0.143096	-98.927299	-50.486382	101.643898	-50.486382	101.643898	-0.116482	-79.274212
4.650000	-0.145329	-99.912292	-50.236966	100.047256	-50.236966	100.047256	-0.118279	-80.066090
4.700000	-0.147593	-100.895833	-49.991250	98.451082	-49.991250	98.451082	-0.120102	-80.856411
4.750000	-0.149889	-101.877964	-49.749149	96.855450	-49.749149	96.855450	-0.121950	-81.645186
4.800000	-0.152219	-102.858726	-49.510580	95.260431	-49.510580	95.260431	-0.123824	-82.432426
4.850000	-0.154582	-103.838163	-49.275464	93.666092	-49.275464	93.666092	-0.125724	-83.218142
4.900000	-0.156978	-104.816319	-49.043723	92.072495	-49.043723	92.072495	-0.127651	-84.002346
4.950000	-0.159409	-105.793241	-48.815283	90.479702	-48.815283	90.479702	-0.129605	-84.785051
5.000000	-0.161876	-106.768974	-48.590073	88.887768	-48.590073	88.887768	-0.131586	-85.566269
5.050000	-0.164379	-107.743519	-48.367914	87.296790	-48.367914	87.296790	-0.133597	-86.345950
5.100000	-0.166918	-108.716976	-48.148856	85.706782	-48.148856	85.706782	-0.135637	-87.124173
5.150000	-0.169493	-109.689395	-47.932835	84.117792	-47.932835	84.117792	-0.137706	-87.900952
5.200000	-0.172106	-110.660826	-47.719786	82.529864	-47.719786	82.529864	-0.139804	-88.676303
5.250000	-0.174756	-111.631320	-47.509650	80.943043	-47.509650	80.943043	-0.141932	-89.450240
5.300000	-0.177443	-112.600932	-47.302366	79.357370	-47.302366	79.357370	-0.144090	-90.222780
5.350000	-0.180170	-113.569713	-47.097877	77.772883	-47.097877	77.772883	-0.146280	-90.993939
5.400000	-0.182935	-114.537719	-46.896129	76.189618	-46.896129	76.189618	-0.148500	-91.763733
5.450000	-0.185739	-115.505005	-46.697067	74.607611	-46.697067	74.607611	-0.150753	-92.532180
5.500000	-0.188584	-116.471628	-46.500640	73.026894	-46.500640	73.026894	-0.153037	-93.299297
5.550000	-0.191468	-117.437646	-46.306797	71.447499	-46.306797	71.447499	-0.155355	-94.065103
5.600000	-0.194394	-118.403116	-46.115489	69.869454	-46.115489	69.869454	-0.157705	-94.829617
5.650000	-0.197360	-119.368100	-45.926669	68.292787	-45.926669	68.292787	-0.160089	-95.592856
5.700000	-0.200368	-120.332657	-45.740291	66.717524	-45.740291	66.717524	-0.162507	-96.354841
5.750000	-0.203419	-121.296849	-45.556310	65.143688	-45.556310	65.143688	-0.164959	-97.115592
5.800000	-0.206512	-122.260739	-45.374683	63.571304	-45.374683	63.571304	-0.167446	-97.875129
5.850000	-0.209647	-123.224391	-45.195369	62.000391	-45.195369	62.000391	-0.169969	-98.633472
5.900000	-0.212827	-124.187868	-45.018325	60.430971	-45.018325	60.430971	-0.172528	-99.390643
5.950000	-0.216050	-125.151239	-44.843513	58.863061	-44.843513	58.863061	-0.175122	-100.146663
6.000000	-0.219318	-126.114568	-44.670895	57.296680	-44.670895	57.296680	-0.177754	-100.901555
6.050000	-0.222630	-127.077924	-44.500433	55.731843	-44.500433	55.731843	-0.180422	-101.655340
6.100000	-0.225987	-128.041376	-44.332091	54.168565	-44.332091	54.168565	-0.183129	-102.408042
6.150000	-0.229390	-129.004994	-44.165835	52.606860	-44.165835	52.606860	-0.185873	-103.159683
6.200000	-0.232839	-129.968849	-44.001629	51.046741	-44.001629	51.046741	-0.188656	-103.910289
6.250000	-0.236335	-130.933014	-43.839441	49.488220	-43.839441	49.488220	-0.191477	-104.659881
6.300000	-0.239902	-131.897824	-43.678696	47.932221	-43.678696	47.932221	-0.194361	-105.407942
6.350000	-0.243472	-132.862634	-43.520872	46.376223	-43.520872	46.376223	-0.197245	-106.156003
6.400000	-0.247131	-133.828484	-43.364136	44.823340	-43.364136	44.823340	-0.200205	-106.902276
6.450000	-0.250800	-134.794429	-43.210024	43.270739	-43.210024	43.270739	-0.203174	-107.648387
6.500000	-0.254552	-135.761602	-43.057163	41.720998	-43.057163	41.720998	-0.206213	-108.392966
6.550000	-0.258321	-136.729021	-42.906664	40.171828	-42.906664	40.171828	-0.209267	-109.137240
6.600000	-0.262167	-137.697807	-42.757554	38.625251	-42.757554	38.625251	-0.212387	-109.880222
6.650000	-0.266039	-138.667049	-42.610576	37.079539	-42.610576	37.079539	-0.215530	-110.622774
6.700000	-0.269963	-139.637351	-42.465327	35.535564	-42.465327	35.535564	-0.218717	-111.364516
6.750000	-0.273946	-140.608925	-42.321694	33.993547	-42.321694	33.993547	-0.221955	-112.105371
6.800000	-0.277979	-141.581687	-42.179779	32.453204	-42.179779	32.453204	-0.225236	-112.845506
6.850000	-0.282063	-142.555724	-42.039557	30.914537	-42.039557	30.914537	-0.228562	-113.584950
6.900000	-0.286198	-143.531126	-41.901008	29.377550	-41.901008	29.377550	-0.231933	-114.323733
6.950000	-0.290385	-144.507980	-41.764109	27.842245	-41.764109	27.842245	-0.235349	-115.061883
7.000000	-0.294624	-145.486377	-41.628841	26.308623	-41.628841	26.308623	-0.238810	-115.799430
7.050000	-0.298915	-146.466410	-41.495183	24.776688	-41.495183	24.776688	-0.242318	-116.536406
7.100000	-0.303258	-147.448171	-41.363116	23.246441	-41.363116	23.246441	-0.245872	-117.272839
7.150000	-0.307654	-148.431756	-41.232621	21.717884	-41.232621	21.717884	-0.249472	-118.008762
7.200000	-0.312104	-149.417259	-41.103681	20.191019	-41.103681	20.191019	-0.253120	-118.744206
7.250000	-0.316606	-150.404779	-40.976278	18.665847	-40.976278	18.665847	-0.256816	-119.479203
7.300000	-0.321163	-151.394415	-40.850395	17.142371	-40.850395	17.142371	-0.260559	-120.213784
7.350000	-0.325773	-152.386266	-40.726017	15.620592	-40.726017	15.620592	-0.264351	-120.947983
7.400000	-0.330438	-153.380435	-40.603127	14.100513	-40.603127	14.100513	-0.268192	-121.681832
7.450000	-0.335157	-154.377025	-40.481711	12.582137	-40.481711	12.582137	-0.272082	-122.415364
7.500000	-0.339931	-155.376141	-40.361755	11.065464	-40.361755	11.065464	-0.276022	-123.148614
7.550000	-0.344762	-156.378008	-40.243238	9.550575	-40.243238	9.550575	-0.280014	-123.881606
7.600000	-0.349649	-157.382625	-40.126156	8.037397	-40.126156	8.037397	-0.284056	-124.614388
7.650000	-0.354591	-158.390102	-40.010495	6.525934	-40.010495	6.525934	-0.288149	-125.346993
7.700000	-0.359589	-159.400550	-39.896245	5.016192	-39.896245	5.016192	-0.292293	-126.079458
7.750000	-0.364643	-160.414081	-39.783394	3.508176	-39.783394	3.508176	-0.296489	-126.811818
7.800000	-0.369754	-161.430811	-39.671929	2.001891	-39.671929	2.001891	-0.300736	-127.544110
7.850000	-0.374920	-162.450856	-39.561842	0.497344	-39.561842	0.497344	-0.305036	-128.276369
7.900000	-0.380144	-163.474332	-39.453120	-1.005458	-39.453120	-1.005458	-0.309388	-129.008634
7.950000	-0.385424	-164.501361	-39.345755	-2.506507	-39.345755	-2.506507	-0.313794	-129.740941
8.000000	-0.390762	-165.532063	-39.239737	-4.005793	-39.239737	-4.005793	-0.318252	-130.473328
8.050000	-0.396157	-166.566562	-39.135058	-5.503307	-39.135058	-5.503307	-0.322764	-131.205833
8.100000	-0.401609	-167.604981	-39.031708	-6.999037	-39.031708	-6.999037	-0.327329	-131.938496
8.150000	-0.407119	-168.647448	-38.929680	-8.492972	-38.929680	-8.492972	-0.331949	-132.671354
8.200000	-0.412687	-169.694090	-38.828967	-9.985099	-38.828967	-9.985099	-0.336624	-133.404449
8.250000	-0.418313	-170.745038	-38.729560	-11.475403	-38.729560	-11.475403	-0.341353	-134.137819
8.300000	-0.423997	-171.800424	-38.631453	-12.963869	-38.631453	-12.963869	-0.346136	-134.871505
8.350000	-0.429740	-172.860381	-38.534640	-14.450481	-38.534640	-14.450481	-0.350976	-135.605547
8.400000	-0.435541	-173.925044	-38.439114	-15.935220	-38.439114	-15.935220	-0.355870	-136.339989
8.450000	-0.441401	-174.994552	-38.344870	-17.418066	-38.344870	-17.418066	-0.360821	-137.074870
8.500000	-0.447319	-176.069041	-38.251901	-18.899001	-38.251901	-18.899001	-0.365827	-137.810233
8.550000	-0.453297	-177.148655	-38.160203	-20.378001	-38.160203	-20.378001	-0.370889	-138.546122
8.600000	-0.459333	-178.233535	-38.069770	-21.855043	-38.069770	-21.855043	-0.376008	-139.282578
8.650000	-0.465429	-179.323825	-37.980598	-23.330101	-37.980598	-23.330101	-0.381183	-140.019646
8.700000	-0.471584	179.580327	-37.892682	-24.803151	-37.892682	-24.803151	-0.386416	-140.757370
8.750000	-0.477798	178.478775	-37.806018	-26.274163	-37.806018	-26.274163	-0.391705	-141.495795
8.800000	-0.484075	177.371106	-37.720621	-27.743017	-37.720621	-27.743017	-0.397053	-142.235000
8.850000	-0.490411	176.257417	-37.636469	-29.209770	-37.636469	-29.209770	-0.402458	-142.975000
8.900000	-0.496806	175.137554	-37.553559	-30.674389	-37.553559	-30.674389	-0.407921	-143.715842
8.950000	-0.503262	174.011361	-37.471888	-32.136840	-37.471888	-32.136840	-0.413441	-144.457573
9.000000	-0.509777	172.878683	-37.391453	-33.597086	-37.391453	-33.597086	-0.419019	-145.200239
9.050000	-0.516352	171.739360	-37.312249	-35.055090	-37.312249	-35.055090	-0.424654	-145.943889
9.100000	-0.522988	170.593233	-37.234275	-36.510811	-37.234275	-36.510811	-0.430347	-146.688571
9.150000	-0.529683	169.440139	-37.157526	-37.964210	-37.157526	-37.964210	-0.436097	-147.434333
9.200000	-0.536438	168.279915	-37.082001	-39.415242	-37.082001	-39.415242	-0.441905	-148.181226
9.250000	-0.543254	167.112398	-37.007696	-40.863864	-37.007696	-40.863864	-0.447771	-148.929299
9.300000	-0.550129	165.937420	-36.934608	-42.310031	-36.934608	-42.310031	-0.453694	-149.678603
9.350000	-0.557065	164.754815	-36.862734	-43.753693	-36.862734	-43.753693	-0.459674	-150.429189
9.400000	-0.564061	163.564413	-36.792073	-45.194802	-36.792073	-45.194802	-0.465712	-151.181109
9.450000	-0.571118	162.366047	-36.722620	-46.633307	-36.722620	-46.633307	-0.471807	-151.934415
9.500000	-0.578234	161.159544	-36.654374	-48.069156	-36.654374	-48.069156	-0.477959	-152.689160
9.550000	-0.585411	159.944733	-36.587332	-49.502295	-36.587332	-49.502295	-0.484168	-153.445398
9.600000	-0.592648	158.721443	-36.521490	-50.932668	-36.521490	-50.932668	-0.490434	-154.203183
9.650000	-0.599945	157.489499	-36.456846	-52.360220	-36.456846	-52.360220	-0.496756	-154.962569
9.700000	-0.607302	156.248729	-36.393398	-53.784890	-36.393398	-53.784890	-0.503135	-155.723613
9.750000	-0.614720	154.998958	-36.331141	-55.206621	-36.331141	-55.206621	-0.509570	-156.486370
9.800000	-0.622197	153.740013	-36.270073	-56.625351	-36.270073	-56.625351	-0.516060	-157.250898
9.850000	-0.629735	152.471719	-36.210191	-58.041018	-36.210191	-58.041018	-0.522606	-158.017252
9.900000	-0.637332	151.193902	-36.151491	-59.453559	-36.151491	-59.453559	-0.529206	-158.785493
9.950000	-0.644989	149.906389	-36.093970	-60.862910	-36.093970	-60.862910	-0.535862	-159.555677
10.000000	-0.652706	148.609006	-36.037624	-62.269004	-36.037624	-62.269004	-0.542571	-160.327866
