! freq	dB(S11)	phase(S11)	dB(S12)	phase(S12)	
!     	dB(S21)	phase(S21)	dB(S22)	phase(S22)	
!S-par simulation data
#  GHz  S  DB  R 50
0.000000	-82.246654	0.000000	-0.000671	0.000000	-0.000671	0.000000	-82.246654	0.000000
0.050000	-40.420106	-91.648328	-0.006210	-3.057984	-0.006210	-3.057984	-40.432226	-91.936155
0.100000	-34.488016	-94.864436	-0.013160	-6.072939	-0.013160	-6.072939	-34.496088	-95.754003
0.150000	-31.015144	-97.967295	-0.019544	-9.077172	-0.019544	-9.077172	-31.021146	-99.316998
0.200000	-28.557485	-100.970959	-0.026233	-12.076204	-0.026233	-12.076204	-28.564564	-102.766514
0.250000	-26.661493	-103.912346	-0.033405	-15.070882	-0.033405	-15.070882	-26.669527	-106.153414
0.300000	-25.124464	-106.810168	-0.041078	-18.061740	-0.041078	-18.061740	-25.132567	-109.497019
0.350000	-23.836984	-109.676774	-0.049243	-21.049430	-0.049243	-21.049430	-23.844371	-112.810001
0.400000	-22.733352	-112.519913	-0.057894	-24.034391	-0.057894	-24.034391	-22.739570	-116.100331
0.450000	-21.772406	-115.343962	-0.067052	-27.016706	-0.067052	-27.016706	-21.777309	-119.372287
0.500000	-20.924231	-118.154108	-0.076675	-29.996618	-0.076675	-29.996618	-20.927956	-122.630527
0.550000	-20.168158	-120.953401	-0.086731	-32.974182	-0.086731	-32.974182	-20.170986	-125.877517
0.600000	-19.489484	-123.743975	-0.097188	-35.949359	-0.097188	-35.949359	-19.491768	-129.114796
0.650000	-18.877685	-126.527395	-0.108009	-38.922052	-0.108009	-38.922052	-18.879797	-132.343361
0.700000	-18.322679	-129.305393	-0.119110	-41.892460	-0.119110	-41.892460	-18.324922	-135.564769
0.750000	-17.817510	-132.078759	-0.130432	-44.860635	-0.130432	-44.860635	-17.820114	-138.779708
0.800000	-17.357512	-134.847846	-0.141915	-47.826552	-0.141915	-47.826552	-17.360629	-141.988453
0.850000	-16.937783	-137.613139	-0.153483	-50.790384	-0.153483	-50.790384	-16.941465	-145.191629
0.900000	-16.554327	-140.374969	-0.165069	-53.752315	-0.165069	-53.752315	-16.558540	-148.389698
0.950000	-16.204108	-143.133580	-0.176606	-56.712526	-0.176606	-56.712526	-16.208743	-151.582960
1.000000	-15.884473	-145.889288	-0.188029	-59.671248	-0.188029	-59.671248	-15.889363	-154.771701
1.050000	-15.593162	-148.642493	-0.199276	-62.628752	-0.199276	-62.628752	-15.598092	-157.956164
1.100000	-15.328233	-151.393718	-0.210290	-65.585347	-0.210290	-65.585347	-15.332955	-161.136554
1.150000	-15.088008	-154.143626	-0.221017	-68.541386	-0.221017	-68.541386	-15.092256	-164.313037
1.200000	-14.871029	-156.893028	-0.231406	-71.497258	-0.231406	-71.497258	-14.874528	-167.485736
1.250000	-14.676026	-159.642891	-0.241411	-74.453395	-0.241411	-74.453395	-14.678506	-170.654727
1.300000	-14.502257	-162.394397	-0.250978	-77.410297	-0.250978	-77.410297	-14.503453	-173.819952
1.350000	-14.348384	-165.148820	-0.260079	-80.368467	-0.260079	-80.368467	-14.348056	-176.981442
1.400000	-14.213568	-167.907593	-0.268678	-83.328452	-0.268678	-83.328452	-14.211496	179.860930
1.450000	-14.097083	-170.672302	-0.276745	-86.290831	-0.276745	-86.290831	-14.093072	176.707379
1.500000	-13.998307	-173.444688	-0.284251	-89.256212	-0.284251	-89.256212	-13.992184	173.558229
1.550000	-13.916716	-176.226658	-0.291175	-92.225232	-0.291175	-92.225232	-13.908327	170.413930
1.600000	-13.851873	-179.020290	-0.297497	-95.198552	-0.297497	-95.198552	-13.841081	167.275080
1.650000	-13.803428	178.172143	-0.303201	-98.176858	-0.303201	-98.176858	-13.790106	164.142446
1.700000	-13.771110	175.348159	-0.308278	-101.160853	-0.308278	-101.160853	-13.755134	161.016998
1.750000	-13.754728	172.505035	-0.312720	-104.151261	-0.312720	-104.151261	-13.735970	157.899939
1.800000	-13.754163	169.639780	-0.316526	-107.148821	-0.316526	-107.148821	-13.732481	154.792742
1.850000	-13.769371	166.749090	-0.319697	-110.154289	-0.319697	-110.154289	-13.744601	151.697198
1.900000	-13.800548	163.828941	-0.322235	-113.168533	-0.322235	-113.168533	-13.772493	148.615643
1.950000	-13.847791	160.875095	-0.324153	-116.192361	-0.324153	-116.192361	-13.816210	145.550769
2.000000	-13.911098	157.883263	-0.325475	-119.226468	-0.325475	-119.226468	-13.875695	142.505555
2.050000	-13.990703	154.848255	-0.326222	-122.271656	-0.326222	-122.271656	-13.951116	139.483723
2.100000	-14.086912	151.764195	-0.326422	-125.328733	-0.326422	-125.328733	-14.042698	136.489693
2.150000	-14.200098	148.624391	-0.326107	-128.398518	-0.326107	-128.398518	-14.150714	133.528707
2.200000	-14.330698	145.421181	-0.325315	-131.481836	-0.325315	-131.481836	-14.275490	130.606975
2.250000	-14.479213	142.145745	-0.324087	-134.579523	-0.324087	-134.579523	-14.417391	127.731850
2.300000	-14.646203	138.787873	-0.322471	-137.692422	-0.322471	-137.692422	-14.576817	124.912045
2.350000	-14.832276	135.335685	-0.320519	-140.821386	-0.320519	-140.821386	-14.754189	122.157879
2.400000	-15.038074	131.775289	-0.318288	-143.967277	-0.318288	-143.967277	-14.949927	119.481588
2.450000	-15.264249	128.090360	-0.315841	-147.130971	-0.315841	-147.130971	-15.164422	116.897683
2.500000	-15.511428	124.261639	-0.313246	-150.313353	-0.313246	-150.313353	-15.397991	114.423380
2.550000	-15.780432	120.262071	-0.310575	-153.515773	-0.310575	-153.515773	-15.651054	112.082483
2.600000	-16.071291	116.067345	-0.307912	-156.738744	-0.307912	-156.738744	-15.923235	109.897103
2.650000	-16.384033	111.644852	-0.305342	-159.983204	-0.305342	-159.983204	-16.214062	107.896155
2.700000	-16.718169	106.955871	-0.302955	-163.250114	-0.302955	-163.250114	-16.522475	106.113581
2.750000	-17.072391	101.954673	-0.300851	-166.540459	-0.300851	-166.540459	-16.846546	104.588815
2.800000	-17.444144	96.587833	-0.299134	-169.855250	-0.299134	-169.855250	-17.183090	103.366896
2.850000	-17.829022	90.794164	-0.297918	-173.195531	-0.297918	-173.195531	-17.527149	102.497866
2.900000	-18.219957	84.505955	-0.297326	-176.562378	-0.297326	-176.562378	-17.871362	102.034858
2.950000	-18.606215	77.652659	-0.297489	-179.956906	-0.297489	-179.956906	-18.205233	102.030042
3.000000	-18.972313	70.168597	-0.298552	176.619734	-0.298552	176.619734	-18.514469	102.527433
3.050000	-19.297197	62.006357	-0.300668	173.166345	-0.300668	173.166345	-18.780651	103.551790
3.100000	-19.554331	53.156546	-0.304008	169.681691	-0.304008	169.681691	-18.981721	105.093947
3.150000	-19.712217	43.665800	-0.308774	166.164117	-0.308774	166.164117	-19.092574	107.098929
3.200000	-19.740966	33.673887	-0.315175	162.612250	-0.315175	162.612250	-19.090408	109.442098
3.250000	-19.620558	23.404705	-0.323421	159.025067	-0.323421	159.025067	-18.960546	111.940184
3.300000	-19.343793	13.122888	-0.333757	155.401153	-0.333757	155.401153	-18.697670	114.382252
3.350000	-18.915237	3.102814	-0.346530	151.737902	-0.346530	151.737902	-18.304390	116.546664
3.400000	-18.372662	-6.499273	-0.361761	148.037942	-0.361761	148.037942	-17.810704	118.309611
3.450000	-17.723122	-15.472458	-0.380225	144.293432	-0.380225	144.293432	-17.219344	119.475510
3.500000	-17.016910	-23.863941	-0.401779	140.509570	-0.401779	140.509570	-16.572437	120.079628
3.550000	-16.266236	-31.609547	-0.427232	136.679671	-0.427232	136.679671	-15.879100	120.039954
3.600000	-15.496971	-38.787349	-0.456879	132.804133	-0.456879	132.804133	-15.162284	119.409890
3.650000	-14.724325	-45.464986	-0.491205	128.881550	-0.491205	128.881550	-14.436149	118.234722
3.700000	-13.958865	-51.714296	-0.530740	124.910605	-0.530740	124.910605	-13.711120	116.567522
3.750000	-13.207605	-57.603854	-0.576063	120.890103	-0.576063	120.890103	-12.994571	114.462152
3.800000	-12.474453	-63.191970	-0.627903	116.818265	-0.627903	116.818265	-12.290997	111.964465
3.850000	-11.762837	-68.537344	-0.686863	112.695001	-0.686863	112.695001	-11.604471	109.126470
3.900000	-11.074284	-73.685613	-0.753683	108.519763	-0.753683	108.519763	-10.937157	105.988441
3.950000	-10.409593	-78.675251	-0.829150	104.292325	-0.829150	104.292325	-10.290431	102.585523
4.000000	-9.769115	-83.538414	-0.914105	100.012839	-0.914105	100.012839	-9.665149	98.948269
4.050000	-9.152942	-88.301780	-1.009434	95.681895	-1.009434	95.681895	-9.061838	95.103294
4.100000	-8.561032	-92.987310	-1.116065	91.300579	-1.116065	91.300579	-8.480828	91.073935
4.150000	-7.993280	-97.612900	-1.234958	86.870535	-1.234958	86.870535	-7.922331	86.880861
4.200000	-7.449487	-102.192605	-1.367217	82.393589	-1.367217	82.393589	-7.386414	82.541378
4.250000	-6.929650	-106.738121	-1.513796	77.872938	-1.513796	77.872938	-6.873311	78.073362
4.300000	-6.433723	-111.258198	-1.675637	73.312407	-1.675637	73.312407	-6.383172	73.493047
4.350000	-5.961612	-115.759035	-1.853723	68.716285	-1.853723	68.716285	-5.916076	68.815001
4.400000	-5.513226	-120.244776	-2.049007	64.089536	-2.049007	64.089536	-5.472077	64.053057
4.450000	-5.088457	-124.717769	-2.262402	59.437770	-2.262402	59.437770	-5.051193	59.220480
4.500000	-4.687166	-129.178793	-2.494761	54.767191	-2.494761	54.767191	-4.653393	54.330079
4.550000	-4.309168	-133.627298	-2.746868	50.084516	-2.746868	50.084516	-4.278582	49.394261
4.600000	-3.954258	-138.061535	-3.019489	45.396894	-3.019489	45.396894	-3.926635	44.424948
4.650000	-3.622185	-142.478792	-3.313283	40.711933	-3.313283	40.711933	-3.597364	39.433879
4.700000	-3.312456	-146.875936	-3.628657	36.037302	-3.628657	36.037302	-3.290327	34.432511
4.750000	-3.024559	-151.249236	-3.966053	31.380660	-3.966053	31.380660	-3.005055	29.431445
4.800000	-2.757892	-155.594694	-4.325844	26.749571	-4.325844	26.749571	-2.740980	24.440665
4.850000	-2.511763	-159.908225	-4.708344	22.151381	-4.708344	22.151381	-2.497435	19.469460
4.900000	-2.285395	-164.185820	-5.113825	17.593118	-5.113825	17.593118	-2.273665	14.526342
4.950000	-2.077940	-168.423683	-5.542548	13.081398	-5.542548	13.081398	-2.068838	9.618988
5.000000	-1.888489	-172.618345	-5.994785	8.622370	-5.994785	8.622370	-1.882058	4.754187
5.050000	-1.716272	-176.766040	-6.470809	4.222607	-6.470809	4.222607	-1.712569	-0.061409
5.100000	-1.560098	179.135166	-6.971004	-0.113529	-6.971004	-0.113529	-1.559188	-4.823510
5.150000	-1.418953	175.087317	-7.495897	-4.381382	-7.495897	-4.381382	-1.420912	-9.528121
5.200000	-1.291825	171.091938	-8.046193	-8.576695	-8.046193	-8.576695	-1.296738	-14.172133
5.250000	-1.177707	167.150032	-8.622817	-12.695509	-8.622817	-12.695509	-1.185671	-18.753276
5.300000	-1.076054	163.264463	-9.226335	-16.730387	-9.226335	-16.730387	-1.087185	-23.267234
5.350000	-0.984691	159.428743	-9.860079	-20.687564	-9.860079	-20.687564	-0.999097	-27.721113
5.400000	-0.904253	155.651076	-10.523482	-24.549254	-10.523482	-24.549254	-0.922085	-32.104451
5.450000	-0.832315	151.921466	-11.222339	-28.326574	-11.222339	-28.326574	-0.853702	-36.429012
5.500000	-0.769649	148.248936	-11.955781	-31.995198	-11.955781	-31.995198	-0.794777	-40.683443
5.550000	-0.714147	144.623217	-12.731858	-35.565527	-12.731858	-35.565527	-0.743178	-44.880189
5.600000	-0.665916	141.048522	-13.552814	-39.015137	-13.552814	-39.015137	-0.699055	-49.013998
5.650000	-0.623925	137.520313	-14.426755	-42.337897	-14.426755	-42.337897	-0.661377	-53.090514
5.700000	-0.587571	134.036716	-15.362237	-45.515365	-15.362237	-45.515365	-0.629557	-57.112217
5.750000	-0.556603	130.598306	-16.368012	-48.511388	-16.368012	-48.511388	-0.603374	-61.078706
5.800000	-0.529968	127.198166	-17.463152	-51.310084	-17.463152	-51.310084	-0.581756	-64.998830
5.850000	-0.507952	123.841145	-18.659335	-53.806845	-18.659335	-53.806845	-0.565055	-68.867358
5.900000	-0.489375	120.517746	-19.992483	-55.967898	-19.992483	-55.967898	-0.552047	-72.696330
5.950000	-0.474486	117.232131	-21.490472	-57.551167	-21.490472	-57.551167	-0.543046	-76.481838
6.000000	-0.462509	113.977609	-23.216442	-58.358889	-23.216442	-58.358889	-0.537250	-80.232621
6.050000	-0.453375	110.754615	-25.244521	-57.740944	-25.244521	-57.740944	-0.534627	-83.949537
6.100000	-0.446766	107.560570	-27.689690	-54.522962	-27.689690	-54.522962	-0.534865	-87.636876
6.150000	-0.442354	104.392458	-30.669043	-45.973030	-30.669043	-45.973030	-0.537639	-91.299445
6.200000	-0.440139	101.250874	-33.716961	-24.659286	-33.716961	-24.659286	-0.542997	-94.938843
6.250000	-0.439634	98.130305	-34.869508	10.140577	-34.869508	10.140577	-0.550411	-98.561991
6.300000	-0.441055	95.033638	-32.376851	37.088925	-32.376851	37.088925	-0.560194	-102.169730
6.350000	-0.443904	91.954744	-29.549232	50.249783	-29.549232	50.249783	-0.571786	-105.768847
6.400000	-0.448295	88.894906	-27.184198	55.215959	-27.184198	55.215959	-0.585382	-109.362405
6.450000	-0.453985	85.850849	-25.291765	56.839389	-25.291765	56.839389	-0.600723	-112.955177
6.500000	-0.460932	82.821630	-23.747030	56.728920	-23.747030	56.728920	-0.617810	-116.551810
6.550000	-0.469079	79.806010	-22.456030	55.619175	-22.456030	55.619175	-0.636625	-120.157241
6.600000	-0.478270	76.801568	-21.353088	53.947804	-21.353088	53.947804	-0.657007	-123.775587
6.650000	-0.488589	73.808352	-20.397570	51.851891	-20.397570	51.851891	-0.679153	-127.414428
6.700000	-0.499811	70.823282	-19.554854	49.508523	-19.554854	49.508523	-0.702783	-131.075538
6.750000	-0.512075	67.846556	-18.806852	46.943872	-18.806852	46.943872	-0.728209	-134.770279
6.800000	-0.525185	64.875575	-18.133837	44.236021	-18.133837	44.236021	-0.755178	-138.499261
6.850000	-0.539206	61.909639	-17.525617	41.397696	-17.525617	41.397696	-0.783909	-142.273849
6.900000	-0.554057	58.947129	-16.971778	38.455371	-16.971778	38.455371	-0.814356	-146.098638
6.950000	-0.569708	55.986662	-16.465073	35.421881	-16.465073	35.421881	-0.846578	-149.981511
7.000000	-0.586169	53.026887	-16.000650	32.300279	-16.000650	32.300279	-0.880749	-153.934795
7.050000	-0.603318	50.066359	-15.572441	29.104853	-15.572441	29.104853	-0.916744	-157.959382
7.100000	-0.621231	47.103210	-15.179559	25.824144	-15.179559	25.824144	-0.954988	-162.080217
7.150000	-0.639733	44.136384	-14.816639	22.473312	-14.816639	22.473312	-0.995216	-166.290934
7.200000	-0.658858	41.163234	-14.484573	19.037234	-14.484573	19.037234	-1.037906	-170.622631
7.250000	-0.678445	38.183005	-14.179490	15.526553	-14.179490	15.526553	-1.082830	-175.069180
7.300000	-0.698461	35.192021	-13.903878	11.923175	-13.903878	11.923175	-1.130512	-179.668863
7.350000	-0.718739	32.188735	-13.656152	8.230443	-13.656152	8.230443	-1.180872	175.574363
7.400000	-0.739136	29.170491	-13.437070	4.442400	-13.437070	4.442400	-1.234070	170.641676
7.450000	-0.759467	26.133231	-13.249387	0.547341	-13.249387	0.547341	-1.290396	165.502042
7.500000	-0.779486	23.072485	-13.096315	-3.464396	-13.096315	-3.464396	-1.350059	160.125813
7.550000	-0.798947	19.984556	-12.980187	-7.596281	-12.980187	-7.596281	-1.413106	154.494606
7.600000	-0.817577	16.864138	-12.905611	-11.856522	-12.905611	-11.856522	-1.479698	148.578326
7.650000	-0.834960	13.701110	-12.883193	-16.264346	-12.883193	-16.264346	-1.550242	142.315168
7.700000	-0.850816	10.488388	-12.920192	-20.820633	-12.920192	-20.820633	-1.624733	135.677844
7.750000	-0.864770	7.212315	-13.032542	-25.536079	-13.032542	-25.536079	-1.703446	128.600669
7.800000	-0.876677	3.860753	-13.236046	-30.403892	-13.236046	-30.403892	-1.786387	121.041929
7.850000	-0.886467	0.412635	-13.560300	-35.414028	-13.560300	-35.414028	-1.873784	112.919524
7.900000	-0.894579	-3.151698	-14.039876	-40.521018	-14.039876	-40.521018	-1.965633	104.178371
7.950000	-0.902024	-6.862012	-14.734313	-45.627007	-14.734313	-45.627007	-2.062108	94.730264
8.000000	-0.910836	-10.748170	-15.729498	-50.509686	-15.729498	-50.509686	-2.163328	84.509220
8.050000	-0.924505	-14.846541	-17.172866	-54.638585	-17.172866	-54.638585	-2.269641	73.442741
8.100000	-0.948464	-19.194101	-19.324943	-56.591085	-19.324943	-56.591085	-2.381701	61.478086
8.150000	-0.990237	-23.820692	-22.627946	-51.746660	-22.627946	-51.746660	-2.500635	48.605972
8.200000	-1.060293	-28.753302	-26.580071	-22.072537	-26.580071	-22.072537	-2.628505	34.842710
8.250000	-1.170183	-33.991244	-24.104013	25.910950	-24.104013	25.910950	-2.768100	20.298497
8.300000	-1.332673	-39.514805	-18.974643	39.357729	-18.974643	39.357729	-2.923260	5.143013
8.350000	-1.558958	-45.275361	-15.207370	38.082277	-15.207370	38.082277	-3.098274	-10.375126
8.400000	-1.857291	-51.204413	-12.446407	32.206804	-12.446407	32.206804	-3.297421	-25.953929
8.450000	-2.229183	-57.224236	-10.347354	24.561555	-10.347354	24.561555	-3.523312	-41.286525
8.500000	-2.674630	-63.272483	-8.714392	16.163255	-8.714392	16.163255	-3.778225	-56.081535
8.550000	-3.188428	-69.308183	-7.426847	7.534065	-7.426847	7.534065	-4.062249	-70.113478
8.600000	-3.764839	-75.322147	-6.403143	-1.053062	-6.403143	-1.053062	-4.374567	-83.219275
8.650000	-4.398422	-81.335717	-5.580525	-9.458467	-5.580525	-9.458467	-4.713080	-95.340107
8.700000	-5.086516	-87.396253	-4.916811	-17.607107	-4.916811	-17.607107	-5.075890	-106.418926
8.750000	-5.828578	-93.570149	-4.376273	-25.479176	-4.376273	-25.479176	-5.460110	-116.482666
8.800000	-6.626305	-99.945772	-3.934222	-33.072581	-3.934222	-33.072581	-5.862409	-125.546850
8.850000	-7.483171	-106.629550	-3.570984	-40.403537	-3.570984	-40.403537	-6.278424	-133.652723
8.900000	-8.403235	-113.754494	-3.271897	-47.493571	-3.271897	-47.493571	-6.702460	-140.841176
8.950000	-9.387307	-121.521376	-3.027481	-54.357624	-3.027481	-54.357624	-7.126010	-147.119323
9.000000	-10.438498	-130.078110	-2.825787	-61.035237	-2.825787	-61.035237	-7.542170	-152.604246
9.050000	-11.539813	-139.785462	-2.663795	-67.528442	-2.663795	-67.528442	-7.936718	-157.268807
9.100000	-12.654512	-151.020660	-2.536191	-73.855082	-2.536191	-73.855082	-8.295361	-161.176365
9.150000	-13.716706	-164.075076	-2.437826	-80.034988	-2.437826	-80.034988	-8.605788	-164.432906
9.200000	-14.608348	-179.111650	-2.365606	-86.078790	-2.365606	-86.078790	-8.854522	-167.135509
9.250000	-15.154093	164.143850	-2.317904	-91.989790	-2.317904	-91.989790	-9.026582	-169.390437
9.300000	-15.247127	146.837025	-2.291591	-97.780009	-2.291591	-97.780009	-9.117603	-171.359289
9.350000	-14.900407	130.347289	-2.284426	-103.457169	-2.284426	-103.457169	-9.127348	-173.191631
9.400000	-14.229647	115.716710	-2.295109	-109.023711	-2.295109	-109.023711	-9.058063	-175.026543
9.450000	-13.394910	103.237884	-2.321917	-114.484939	-2.321917	-114.484939	-8.919356	-176.985949
9.500000	-12.517822	92.652468	-2.362903	-119.848583	-2.362903	-119.848583	-8.725381	-179.152123
9.550000	-11.662242	83.631514	-2.416883	-125.118000	-2.416883	-125.118000	-8.488535	178.418309
9.600000	-10.859258	75.866836	-2.482960	-130.294760	-2.482960	-130.294760	-8.220522	175.688355
9.650000	-10.121214	69.028889	-2.559505	-135.387193	-2.559505	-135.387193	-7.934224	172.666177
9.700000	-9.448810	62.920175	-2.645562	-140.398981	-2.645562	-140.398981	-7.638503	169.361021
9.750000	-8.839981	57.429523	-2.740727	-145.327645	-2.740727	-145.327645	-7.339757	165.772148
9.800000	-8.288430	52.394975	-2.843308	-150.182430	-2.843308	-150.182430	-7.044506	161.945898
9.850000	-7.789283	47.756705	-2.952398	-154.963031	-2.952398	-154.963031	-6.756119	157.896542
9.900000	-7.336795	43.439735	-3.066387	-159.676431	-3.066387	-159.676431	-6.477349	153.655591
9.950000	-6.928670	39.427016	-3.184110	-164.324479	-3.184110	-164.324479	-6.210185	149.227228
10.000000	-6.557999	35.640552	-3.304426	-168.926906	-3.304426	-168.926906	-5.955188	144.657038
