! freq	dB(S11)	phase(S11)	dB(S12)	phase(S12)	
!     	dB(S21)	phase(S21)	dB(S22)	phase(S22)	
!S-par simulation data
#  GHz  S  DB  R 50
0.000000	-0.000000	0.000000	-356.899830	0.000000	-356.899830	0.000000	-0.000000	0.000000
0.050000	-0.000107	-0.818005	-116.687438	87.179425	-116.687438	87.179425	-0.000102	-0.760757
0.100000	-0.000422	-1.635744	-110.949270	85.416559	-110.949270	85.416559	-0.000403	-1.521258
0.150000	-0.000933	-2.452975	-107.720460	84.534958	-107.720460	84.534958	-0.000890	-2.281269
0.200000	-0.001616	-3.269500	-105.493108	84.064919	-105.493108	84.064919	-0.001540	-3.040604
0.250000	-0.002457	-4.085099	-103.825211	83.764499	-103.825211	83.764499	-0.002337	-3.799057
0.300000	-0.003414	-4.899740	-102.518291	83.535193	-102.518291	83.535193	-0.003242	-4.556605
0.350000	-0.004469	-5.713318	-101.480607	83.372115	-101.480607	83.372115	-0.004236	-5.313158
0.400000	-0.005595	-6.525801	-100.656600	83.293745	-100.656600	83.293745	-0.005295	-6.068694
0.450000	-0.006772	-7.337186	-100.012049	83.334578	-100.012049	83.334578	-0.006398	-6.823220
0.500000	-0.007980	-8.147493	-99.525309	83.541091	-99.525309	83.541091	-0.007528	-7.576762
0.550000	-0.009205	-8.956756	-99.182867	83.973336	-99.182867	83.973336	-0.008671	-8.329360
0.600000	-0.010434	-9.765015	-98.976798	84.710007	-98.976798	84.710007	-0.009817	-9.081057
0.650000	-0.011660	-10.572313	-98.903032	85.856927	-98.903032	85.856927	-0.010958	-9.831898
0.700000	-0.012875	-11.378692	-98.959696	87.559949	-98.959696	87.559949	-0.012089	-10.581923
0.750000	-0.014076	-12.184187	-99.144717	90.023716	-99.144717	90.023716	-0.013208	-11.331169
0.800000	-0.015261	-12.988830	-99.451269	93.536583	-99.451269	93.536583	-0.014312	-12.079664
0.850000	-0.016429	-13.792644	-99.858531	98.495251	-99.858531	98.495251	-0.015401	-12.827433
0.900000	-0.017579	-14.595648	-100.313874	105.399559	-100.313874	105.399559	-0.016474	-13.574491
0.950000	-0.018713	-15.397853	-100.705308	114.735463	-100.705308	114.735463	-0.017534	-14.320851
1.000000	-0.019830	-16.199265	-100.842240	126.624099	-100.842240	126.624099	-0.018579	-15.066518
1.050000	-0.020933	-16.999888	-100.502288	140.290178	-100.502288	140.290178	-0.019613	-15.811495
1.100000	-0.022023	-17.799717	-99.578542	153.942760	-99.578542	153.942760	-0.020635	-16.555779
1.150000	-0.023100	-18.598747	-98.181540	165.732837	-98.181540	165.732837	-0.021647	-17.299365
1.200000	-0.024167	-19.396969	-96.536379	174.859173	-96.536379	174.859173	-0.022650	-18.042245
1.250000	-0.025224	-20.194371	-94.828560	-178.496905	-94.828560	-178.496905	-0.023646	-18.784411
1.300000	-0.026273	-20.990903	-93.150578	-173.860515	-93.150578	-173.860515	-0.024634	-19.525818
1.350000	-0.027314	-21.786586	-91.558771	-170.622198	-91.558771	-170.622198	-0.025617	-20.266484
1.400000	-0.028350	-22.581404	-90.063558	-168.404222	-90.063558	-168.404222	-0.026594	-21.006397
1.450000	-0.029381	-23.375339	-88.662713	-166.936707	-88.662713	-166.936707	-0.027567	-21.745541
1.500000	-0.030407	-24.168375	-87.349218	-166.029320	-87.349218	-166.029320	-0.028537	-22.483902
1.550000	-0.031430	-24.960492	-86.114763	-165.547211	-86.114763	-165.547211	-0.029504	-23.221464
1.600000	-0.032450	-25.751672	-84.951211	-165.393634	-84.951211	-165.393634	-0.030468	-23.958212
1.650000	-0.033468	-26.541897	-83.851138	-165.498079	-83.851138	-165.498079	-0.031430	-24.694131
1.700000	-0.034484	-27.330802	-82.784238	-165.861677	-82.784238	-165.861677	-0.032390	-25.428902
1.750000	-0.035499	-28.119191	-81.802765	-166.318277	-81.802765	-166.318277	-0.033350	-26.163227
1.800000	-0.036513	-28.906341	-80.852947	-166.929298	-80.852947	-166.929298	-0.034309	-26.896476
1.850000	-0.037527	-29.692606	-79.953053	-167.650620	-79.953053	-167.650620	-0.035267	-27.628957
1.900000	-0.038542	-30.477769	-79.088165	-168.462954	-79.088165	-168.462954	-0.036226	-28.360483
1.950000	-0.039557	-31.261830	-78.256649	-169.366301	-78.256649	-169.366301	-0.037184	-29.091053
2.000000	-0.040572	-32.044941	-77.462252	-170.323907	-77.462252	-170.323907	-0.038143	-29.820799
2.050000	-0.041589	-32.826721	-76.688871	-171.357474	-76.688871	-171.357474	-0.039103	-30.549392
2.100000	-0.042607	-33.607716	-75.953941	-172.423106	-75.953941	-172.423106	-0.040064	-31.277304
2.150000	-0.043628	-34.387141	-75.230652	-173.552869	-75.230652	-173.552869	-0.041026	-32.003855
2.200000	-0.044649	-35.165959	-74.546606	-174.700870	-74.546606	-174.700870	-0.041990	-32.729880
2.250000	-0.045675	-35.942958	-73.866994	-175.903585	-73.866994	-175.903585	-0.042957	-33.454327
2.300000	-0.046701	-36.719541	-73.227030	-177.115722	-73.227030	-177.115722	-0.043925	-34.178413
2.350000	-0.047733	-37.494045	-72.585902	-178.374968	-72.585902	-178.374968	-0.044897	-34.900694
2.400000	-0.048766	-38.268335	-71.984535	-179.637930	-71.984535	-179.637930	-0.045870	-35.622791
2.450000	-0.049805	-39.040279	-71.377627	179.058227	-71.377627	179.058227	-0.046848	-36.342849
2.500000	-0.050845	-39.812223	-70.810371	177.754384	-70.810371	177.754384	-0.047827	-37.062907
2.550000	-0.051894	-40.581545	-70.234137	176.414833	-70.234137	176.414833	-0.048814	-37.780685
2.600000	-0.052942	-41.350867	-69.693764	175.075283	-69.693764	175.075283	-0.049801	-38.498464
2.650000	-0.054001	-42.117731	-69.148726	173.709202	-69.148726	173.709202	-0.050797	-39.214102
2.700000	-0.055060	-42.884372	-68.632773	172.340709	-68.632773	172.340709	-0.051793	-39.929546
2.750000	-0.056129	-43.648733	-68.115736	170.952466	-68.115736	170.952466	-0.052799	-40.643002
2.800000	-0.057201	-44.412638	-67.622090	169.560274	-67.622090	169.560274	-0.053806	-41.356060
2.850000	-0.058283	-45.174452	-67.130342	168.153409	-67.130342	168.153409	-0.054823	-42.067291
2.900000	-0.059368	-45.935568	-66.657174	166.741651	-66.657174	166.741651	-0.055842	-42.777914
2.950000	-0.060463	-46.694793	-66.188394	165.319054	-66.188394	165.319054	-0.056871	-43.486881
3.000000	-0.061563	-47.453072	-65.734110	163.891038	-65.734110	163.891038	-0.057905	-44.195021
3.050000	-0.062673	-48.209670	-65.286292	162.455099	-65.286292	162.455099	-0.058947	-44.901687
3.100000	-0.063790	-48.965067	-64.849490	161.013502	-64.849490	161.013502	-0.059996	-45.607299
3.150000	-0.064917	-49.719002	-64.420889	159.566213	-64.420889	159.566213	-0.061054	-46.311627
3.200000	-0.066052	-50.471474	-64.000331	158.113231	-64.000331	158.113231	-0.062120	-47.014671
3.250000	-0.067196	-51.222712	-63.589419	156.656264	-63.589419	156.656264	-0.063193	-47.716627
3.300000	-0.068352	-51.972222	-63.184003	155.193718	-63.184003	155.193718	-0.064278	-48.417062
3.350000	-0.069515	-52.720733	-62.789433	153.728491	-62.789433	153.728491	-0.065369	-49.116615
3.400000	-0.070692	-53.467245	-62.398174	152.257903	-62.398174	152.257903	-0.066473	-49.814404
3.450000	-0.071876	-54.213000	-62.018753	150.785624	-62.018753	150.785624	-0.067583	-50.511524
3.500000	-0.073077	-54.956483	-61.640765	149.308278	-61.640765	149.308278	-0.068709	-51.206633
3.550000	-0.074282	-55.699457	-61.275430	147.829987	-61.275430	147.829987	-0.069839	-51.901291
3.600000	-0.075508	-56.439883	-60.909915	146.346974	-60.909915	146.346974	-0.070989	-52.593690
3.650000	-0.076737	-57.180053	-60.557714	144.863567	-60.557714	144.863567	-0.072140	-53.285861
3.700000	-0.077990	-57.917399	-60.203947	143.375824	-60.203947	143.375824	-0.073314	-53.975521
3.750000	-0.079244	-58.654744	-59.864025	141.888081	-59.864025	141.888081	-0.074489	-54.665180
3.800000	-0.080526	-59.388988	-59.521347	140.396413	-59.521347	140.396413	-0.075689	-55.352075
3.850000	-0.081808	-60.123232	-59.191676	138.904746	-59.191676	138.904746	-0.076890	-56.038969
3.900000	-0.083118	-60.854616	-58.860742	137.410123	-58.860742	137.410123	-0.078116	-56.723308
3.950000	-0.084431	-61.585741	-58.540789	135.915231	-58.540789	135.915231	-0.079345	-57.407414
4.000000	-0.085771	-62.314256	-58.220882	134.418161	-58.220882	134.418161	-0.080598	-58.089180
4.050000	-0.087116	-63.042249	-57.910156	132.920655	-57.910156	132.920655	-0.081857	-58.770478
4.100000	-0.088487	-63.767884	-57.600625	131.421589	-57.600625	131.421589	-0.083138	-59.449657
4.150000	-0.089866	-64.492734	-57.298675	129.922003	-57.298675	129.922003	-0.084428	-60.128129
4.200000	-0.091269	-65.215485	-56.998925	128.421345	-56.998925	128.421345	-0.085740	-60.804708
4.250000	-0.092684	-65.937186	-56.705335	126.920151	-56.705335	126.920151	-0.087062	-61.480340
4.300000	-0.094121	-66.657048	-56.414822	125.418262	-56.414822	125.418262	-0.088405	-62.154308
4.350000	-0.095574	-67.375597	-56.129205	123.915876	-56.129205	123.915876	-0.089762	-62.827088
4.400000	-0.097046	-68.092570	-55.847432	122.413080	-55.847432	122.413080	-0.091137	-63.498437
4.450000	-0.098538	-68.807968	-55.569429	120.909874	-55.569429	120.909874	-0.092531	-64.168356
4.500000	-0.100047	-69.522053	-55.295937	119.406465	-55.295937	119.406465	-0.093940	-64.837080
4.550000	-0.101580	-70.234302	-55.025214	117.902769	-55.025214	117.902769	-0.095371	-65.504131
4.600000	-0.103128	-70.945504	-54.759581	116.399009	-54.759581	116.399009	-0.096815	-66.170225
4.650000	-0.104704	-71.654613	-54.495828	114.895120	-54.495828	114.895120	-0.098286	-66.834405
4.700000	-0.106292	-72.362938	-54.237665	113.391250	-54.237665	113.391250	-0.099766	-67.497867
4.750000	-0.107912	-73.068916	-53.980591	111.887435	-53.980591	111.887435	-0.101278	-68.159175
4.800000	-0.109541	-73.774375	-53.729536	110.383673	-53.729536	110.383673	-0.102797	-68.820005
4.850000	-0.111209	-74.477236	-53.478869	108.880172	-53.478869	108.880172	-0.104351	-69.478442
4.900000	-0.112880	-75.179838	-53.234587	107.376717	-53.234587	107.376717	-0.105910	-70.136641
4.950000	-0.114596	-75.879599	-52.990073	105.873750	-52.990073	105.873750	-0.107508	-70.792212
5.000000	-0.116312	-76.579360	-52.752254	104.370783	-52.752254	104.370783	-0.109107	-71.447784
5.050000	-0.118077	-77.276042	-52.513654	102.868548	-52.513654	102.868548	-0.110752	-72.100495
5.100000	-0.119843	-77.972723	-52.281432	101.366313	-52.281432	101.366313	-0.112397	-72.753207
5.150000	-0.121656	-78.666602	-52.049096	99.864916	-52.049096	99.864916	-0.114086	-73.403306
5.200000	-0.123473	-79.360226	-51.822267	98.363595	-51.822267	98.363595	-0.115779	-74.053168
5.250000	-0.125335	-80.051325	-51.595919	96.863174	-51.595919	96.863174	-0.117513	-74.700664
5.300000	-0.127207	-80.741918	-51.374288	95.362933	-51.374288	95.362933	-0.119255	-75.347686
5.350000	-0.129119	-81.430260	-51.153671	93.863618	-51.153671	93.863618	-0.121036	-75.992591
5.400000	-0.131045	-82.117852	-50.937055	92.364611	-50.937055	92.364611	-0.122829	-76.636789
5.450000	-0.133009	-82.803464	-50.721928	90.866520	-50.721928	90.866520	-0.124657	-77.279116
5.500000	-0.134993	-83.488086	-50.510154	89.368888	-50.510154	89.368888	-0.126504	-77.920506
5.550000	-0.137010	-84.170997	-50.300290	87.872135	-50.300290	87.872135	-0.128382	-78.560269
5.600000	-0.139052	-84.852684	-50.093194	86.376010	-50.093194	86.376010	-0.130282	-79.198870
5.650000	-0.141124	-85.532922	-49.888383	84.880698	-49.888383	84.880698	-0.132211	-79.836086
5.700000	-0.143227	-86.211712	-49.685810	83.386201	-49.685810	83.386201	-0.134168	-80.471918
5.750000	-0.145355	-86.889311	-49.485851	81.892430	-49.485851	81.892430	-0.136149	-81.106606
5.800000	-0.147520	-87.565244	-49.287653	80.399675	-49.287653	80.399675	-0.138164	-81.739693
5.850000	-0.149706	-88.240238	-49.092361	78.907535	-49.092361	78.907535	-0.140198	-82.371872
5.900000	-0.151934	-88.913357	-48.898398	77.416628	-48.898398	77.416628	-0.142273	-83.002238
5.950000	-0.154179	-89.585783	-48.707595	75.926208	-48.707595	75.926208	-0.144363	-83.631931
6.000000	-0.156473	-90.256133	-48.517733	74.437248	-48.517733	74.437248	-0.146498	-84.259604
6.050000	-0.158779	-90.926029	-48.331253	72.948629	-48.331253	72.948629	-0.148644	-84.886833
6.100000	-0.161140	-91.593658	-48.145367	71.461710	-48.145367	71.461710	-0.150843	-85.511842
6.150000	-0.163507	-92.261064	-47.963053	69.974968	-47.963053	69.974968	-0.153047	-86.136631
6.200000	-0.165937	-92.926023	-47.781020	68.490177	-47.781020	68.490177	-0.155310	-86.759007
6.250000	-0.168368	-93.590981	-47.602723	67.005386	-47.602723	67.005386	-0.157574	-87.381383
6.300000	-0.170868	-94.253322	-47.424428	65.522806	-47.424428	65.522806	-0.159903	-88.001159
6.350000	-0.173370	-94.915663	-47.249719	64.040225	-47.249719	64.040225	-0.162233	-88.620935
6.400000	-0.175937	-95.575656	-47.075341	62.559741	-47.075341	62.559741	-0.164625	-89.238360
6.450000	-0.178510	-96.235435	-46.904117	61.079448	-46.904117	61.079448	-0.167023	-89.855571
6.500000	-0.181144	-96.893127	-46.733519	59.601120	-46.733519	59.601120	-0.169478	-90.470676
6.550000	-0.183792	-97.550401	-46.565680	58.123186	-46.565680	58.123186	-0.171946	-91.085358
6.600000	-0.186495	-98.205842	-46.398734	56.647071	-46.398734	56.647071	-0.174467	-91.698174
6.650000	-0.189218	-98.860671	-46.234187	55.171562	-46.234187	55.171562	-0.177005	-92.310367
6.700000	-0.191992	-99.513912	-46.070769	53.697713	-46.070769	53.697713	-0.179593	-92.920926
6.750000	-0.194792	-100.166359	-45.909422	52.224692	-45.909422	52.224692	-0.182205	-93.530670
6.800000	-0.197637	-100.817453	-45.749417	50.753157	-45.749417	50.753157	-0.184860	-94.139008
6.850000	-0.200515	-101.467582	-45.591182	49.282682	-45.591182	49.282682	-0.187546	-94.746343
6.900000	-0.203434	-102.116584	-45.434478	47.813507	-45.434478	47.813507	-0.190271	-95.352496
6.950000	-0.206392	-102.764460	-45.279273	46.345630	-45.279273	46.345630	-0.193033	-95.957467
7.000000	-0.209385	-103.411426	-45.125764	44.878855	-45.125764	44.878855	-0.195829	-96.561471
7.050000	-0.212425	-104.057118	-44.973507	43.413623	-44.973507	43.413623	-0.198669	-97.164121
7.100000	-0.215493	-104.702105	-44.823092	41.949287	-44.823092	41.949287	-0.201536	-97.766015
7.150000	-0.218617	-105.345684	-44.673705	40.486742	-44.673705	40.486742	-0.204456	-98.366392
7.200000	-0.221762	-105.988752	-44.526289	39.024878	-44.526289	39.024878	-0.207397	-98.966213
7.250000	-0.224970	-106.630290	-44.379696	37.565056	-44.379696	37.565056	-0.210397	-99.564366
7.300000	-0.228193	-107.271501	-44.235186	36.105694	-44.235186	36.105694	-0.213413	-100.162155
7.350000	-0.231487	-107.911072	-44.091316	34.648626	-44.091316	34.648626	-0.216496	-100.758132
7.400000	-0.234789	-108.550487	-43.949623	33.191790	-43.949623	33.191790	-0.219587	-101.353931
7.450000	-0.238171	-109.188169	-43.808406	31.737501	-43.808406	31.737501	-0.222754	-101.947783
7.500000	-0.241553	-109.825851	-43.669448	30.283212	-43.669448	30.283212	-0.225923	-102.541634
7.550000	-0.245023	-110.461721	-43.530815	28.831720	-43.530815	28.831720	-0.229175	-103.133413
7.600000	-0.248495	-111.097592	-43.394360	27.380227	-43.394360	27.380227	-0.232429	-103.725192
7.650000	-0.252048	-111.731877	-43.258397	25.931309	-43.258397	25.931309	-0.235762	-104.315120
7.700000	-0.255610	-112.366017	-43.124385	24.482625	-43.124385	24.482625	-0.239103	-104.904879
7.750000	-0.259247	-112.998784	-42.991013	23.036286	-42.991013	23.036286	-0.242517	-105.493002
7.800000	-0.262900	-113.631276	-42.859384	21.590415	-42.859384	21.590415	-0.245946	-106.080798
7.850000	-0.266622	-114.262595	-42.728528	20.146652	-42.728528	20.146652	-0.249442	-106.667162
7.900000	-0.270369	-114.893523	-42.599223	18.703592	-42.599223	18.703592	-0.252961	-107.253050
7.950000	-0.274177	-115.523466	-42.470812	17.262399	-42.470812	17.262399	-0.256540	-107.837704
8.000000	-0.278017	-116.152917	-42.343778	15.822140	-42.343778	15.822140	-0.260150	-108.421742
8.050000	-0.281912	-116.781558	-42.217742	14.383503	-42.217742	14.383503	-0.263814	-109.004734
8.100000	-0.285847	-117.409619	-42.092924	12.946027	-42.092924	12.946027	-0.267517	-109.586980
8.150000	-0.289830	-118.037032	-41.969199	11.509929	-41.969199	11.509929	-0.271266	-110.168361
8.200000	-0.293861	-118.663795	-41.846547	10.075209	-41.846547	10.075209	-0.275062	-110.748876
8.250000	-0.297933	-119.290055	-41.725069	8.641624	-41.725069	8.641624	-0.278899	-111.328695
8.300000	-0.302062	-119.915611	-41.604532	7.209627	-41.604532	7.209627	-0.282790	-111.907541
8.350000	-0.306224	-120.540797	-41.485242	5.778524	-41.485242	5.778524	-0.286713	-112.485850
8.400000	-0.310451	-121.165241	-41.366774	4.349207	-41.366774	4.349207	-0.290701	-113.063089
8.450000	-0.314703	-121.789431	-41.249615	2.920548	-41.249615	2.920548	-0.294713	-113.639942
8.500000	-0.319029	-122.412859	-41.133171	1.493861	-41.133171	1.493861	-0.298797	-114.215637
8.550000	-0.323373	-123.036135	-41.018087	0.067602	-41.018087	0.067602	-0.302899	-114.791086
8.600000	-0.327799	-123.658645	-40.903624	-1.356515	-40.903624	-1.356515	-0.307082	-115.365304
8.650000	-0.332235	-124.281088	-40.790564	-2.780424	-40.790564	-2.780424	-0.311274	-115.939405
8.700000	-0.336761	-124.902782	-40.678041	-4.202041	-40.678041	-4.202041	-0.315556	-116.512211
8.750000	-0.341290	-125.524475	-40.566956	-5.623657	-40.566956	-5.623657	-0.319839	-117.085018
8.800000	-0.345919	-126.145454	-40.456335	-7.042849	-40.456335	-7.042849	-0.324221	-117.656482
8.850000	-0.350549	-126.766433	-40.347104	-8.462042	-40.347104	-8.462042	-0.328605	-118.227945
8.900000	-0.355271	-127.386853	-40.238422	-9.879091	-40.238422	-9.879091	-0.333079	-118.798241
8.950000	-0.360004	-128.007221	-40.131011	-11.295945	-40.131011	-11.295945	-0.337564	-119.368431
9.000000	-0.364820	-128.627171	-40.024226	-12.710930	-40.024226	-12.710930	-0.342132	-119.937617
9.050000	-0.369656	-129.247037	-39.918602	-14.125540	-39.918602	-14.125540	-0.346719	-120.506602
9.100000	-0.374567	-129.866608	-39.813673	-15.538544	-39.813673	-15.538544	-0.351381	-121.074739
9.150000	-0.379506	-130.486080	-39.709807	-16.951013	-39.709807	-16.951013	-0.356070	-121.642593
9.200000	-0.384513	-131.105363	-39.606696	-18.362128	-39.606696	-18.362128	-0.360827	-122.209740
9.250000	-0.389555	-131.724553	-39.504562	-19.772566	-39.504562	-19.772566	-0.365619	-122.776535
9.300000	-0.394657	-132.343644	-39.403234	-21.181887	-39.403234	-21.181887	-0.370471	-123.342755
9.350000	-0.399803	-132.962665	-39.302805	-22.590412	-39.302805	-22.590412	-0.375367	-123.908565
9.400000	-0.405001	-133.581660	-39.203228	-23.998042	-39.203228	-23.998042	-0.380314	-124.473920
9.450000	-0.410251	-134.200629	-39.104485	-25.404778	-39.104485	-25.404778	-0.385314	-125.038821
9.500000	-0.415545	-134.819625	-39.006628	-26.810823	-39.006628	-26.810823	-0.390358	-125.603376
9.550000	-0.420899	-135.438660	-38.909552	-28.215901	-38.909552	-28.215901	-0.395462	-126.167445
9.600000	-0.426289	-136.057758	-38.813389	-29.620473	-38.813389	-29.620473	-0.400602	-126.731263
9.650000	-0.431747	-136.676981	-38.717963	-31.024031	-38.717963	-31.024031	-0.405810	-127.294579
9.700000	-0.437232	-137.296282	-38.623470	-32.427244	-38.623470	-32.427244	-0.411046	-127.857727
9.750000	-0.442794	-137.915817	-38.529683	-33.829424	-38.529683	-33.829424	-0.416360	-128.420370
9.800000	-0.448375	-138.535424	-38.436839	-35.231398	-38.436839	-35.231398	-0.421693	-128.982914
9.850000	-0.454040	-139.155397	-38.344681	-36.632344	-38.344681	-36.632344	-0.427111	-129.544966
9.900000	-0.459716	-139.775418	-38.253466	-38.033200	-38.253466	-38.033200	-0.432540	-130.106975
9.950000	-0.465484	-140.395959	-38.162932	-39.433062	-38.162932	-39.433062	-0.438063	-130.668518
10.000000	-0.471255	-141.016500	-38.073332	-40.832924	-38.073332	-40.832924	-0.443589	-131.230061
