! freq	dB(S11)	phase(S11)	dB(S12)	phase(S12)	
!     	dB(S21)	phase(S21)	dB(S22)	phase(S22)	
!S-par simulation data
#  GHz  S  DB  R 50
0.000000	0.000000	0.000000	-272.582031	180.000000	-272.582031	180.000000	0.000000	0.000000
0.050000	-0.002940	-4.922004	-53.080960	86.061169	-53.080960	86.061169	-0.001294	-2.145604
0.100000	-0.010467	-9.825389	-47.140411	82.590719	-47.140411	82.590719	-0.004590	-4.283341
0.150000	-0.020126	-14.702493	-43.667583	79.183509	-43.667583	79.183509	-0.008795	-6.410642
0.200000	-0.029895	-19.553870	-41.203582	75.751888	-41.203582	75.751888	-0.013052	-8.528949
0.250000	-0.038929	-24.386279	-39.294297	72.305424	-39.294297	72.305424	-0.017028	-10.641769
0.300000	-0.046968	-29.201178	-37.738560	68.853347	-37.738560	68.853347	-0.020632	-12.750546
0.350000	-0.054080	-33.999467	-36.428370	65.402839	-36.428370	65.402839	-0.023903	-14.856227
0.400000	-0.060431	-38.780538	-35.299108	61.958687	-35.299108	61.958687	-0.026911	-16.959061
0.450000	-0.066177	-43.541478	-34.309680	58.525250	-34.309680	58.525250	-0.029721	-19.058631
0.500000	-0.071542	-48.282696	-33.430224	55.103955	-33.430224	55.103955	-0.032417	-21.154891
0.550000	-0.076649	-53.002848	-32.640094	51.696470	-32.640094	51.696470	-0.035047	-23.247435
0.600000	-0.081587	-57.700732	-31.923951	48.304099	-31.923951	48.304099	-0.037646	-25.335838
0.650000	-0.086424	-62.375349	-31.270066	44.927862	-31.270066	44.927862	-0.040241	-27.419681
0.700000	-0.091209	-67.025933	-30.669247	41.568532	-30.669247	41.568532	-0.042852	-29.498557
0.750000	-0.095977	-71.650446	-30.114554	38.227761	-30.114554	38.227761	-0.045494	-31.571728
0.800000	-0.100755	-76.248783	-29.599864	34.905826	-29.599864	34.905826	-0.048180	-33.638808
0.850000	-0.105558	-80.821657	-29.119987	31.602408	-29.119987	31.602408	-0.050914	-35.699564
0.900000	-0.110394	-85.371176	-28.670350	28.316150	-28.670350	28.316150	-0.053696	-37.754140
0.950000	-0.115268	-89.896474	-28.247769	25.047894	-28.247769	25.047894	-0.056530	-39.801861
1.000000	-0.120183	-94.398412	-27.849193	21.797248	-27.849193	21.797248	-0.059418	-41.842435
1.050000	-0.125139	-98.878111	-27.471977	18.563655	-27.471977	18.563655	-0.062357	-43.875586
1.100000	-0.130136	-103.336950	-27.113810	15.346399	-27.113810	15.346399	-0.065345	-45.901060
1.150000	-0.135173	-107.776555	-26.772653	12.144613	-26.772653	12.144613	-0.068381	-47.918621
1.200000	-0.140248	-112.198793	-26.446701	8.957284	-26.446701	8.957284	-0.071460	-49.928053
1.250000	-0.145362	-116.605768	-26.134342	5.783258	-26.134342	5.783258	-0.074579	-51.929157
1.300000	-0.150517	-120.999372	-25.834167	2.621701	-25.834167	2.621701	-0.077737	-53.921375
1.350000	-0.155715	-125.382855	-25.544797	-0.529402	-25.544797	-0.529402	-0.080927	-55.904908
1.400000	-0.160959	-129.759022	-25.265058	-3.671612	-25.265058	-3.671612	-0.084146	-57.879612
1.450000	-0.166256	-134.130892	-24.993887	-6.806614	-24.993887	-6.806614	-0.087392	-59.845362
1.500000	-0.171614	-138.501697	-24.730320	-9.936209	-24.730320	-9.936209	-0.090660	-61.802048
1.550000	-0.177044	-142.874878	-24.473478	-13.062314	-24.473478	-13.062314	-0.093948	-63.749577
1.600000	-0.182559	-147.254088	-24.222561	-16.186964	-24.222561	-16.186964	-0.097254	-65.687870
1.650000	-0.188173	-151.643188	-23.976841	-19.312305	-23.976841	-19.312305	-0.100576	-67.616864
1.700000	-0.193905	-156.046254	-23.735654	-22.440597	-23.735654	-22.440597	-0.103913	-69.536512
1.750000	-0.199775	-160.467578	-23.498398	-25.574212	-23.498398	-25.574212	-0.107264	-71.446778
1.800000	-0.205806	-164.911671	-23.264525	-28.715637	-23.264525	-28.715637	-0.110629	-73.347643
1.850000	-0.212023	-169.383268	-23.033544	-31.867473	-23.033544	-31.867473	-0.114009	-75.239097
1.900000	-0.218455	-173.887337	-22.805013	-35.032437	-22.805013	-35.032437	-0.117405	-77.121142
1.950000	-0.225130	-178.429077	-22.578542	-38.213362	-22.578542	-38.213362	-0.120820	-78.993793
2.000000	-0.232084	176.986068	-22.353786	-41.413199	-22.353786	-41.413199	-0.124256	-80.857071
2.050000	-0.239351	172.352409	-22.130453	-44.635016	-22.130453	-44.635016	-0.127719	-82.711009
2.100000	-0.246935	167.669415	-21.908709	-47.879465	-21.908709	-47.879465	-0.131209	-84.556447
2.150000	-0.254945	162.919922	-21.687492	-51.154962	-21.687492	-51.154962	-0.134740	-86.391717
2.200000	-0.263389	158.102921	-21.467109	-54.462417	-21.467109	-54.462417	-0.138314	-88.217776
2.250000	-0.272312	153.211715	-21.247471	-57.805359	-21.247471	-57.805359	-0.141939	-90.034673
2.300000	-0.281758	148.239365	-21.028547	-61.187422	-21.028547	-61.187422	-0.145625	-91.842457
2.350000	-0.291775	143.178715	-20.810365	-64.612326	-20.810365	-64.612326	-0.149379	-93.641176
2.400000	-0.302408	138.022412	-20.593018	-68.083865	-20.593018	-68.083865	-0.153213	-95.430872
2.450000	-0.313705	132.762943	-20.376665	-71.605888	-20.376665	-71.605888	-0.157135	-97.211584
2.500000	-0.325710	127.392686	-20.161541	-75.182266	-20.161541	-75.182266	-0.161156	-98.983337
2.550000	-0.338481	121.901224	-19.947888	-78.818212	-19.947888	-78.818212	-0.165287	-100.745954
2.600000	-0.352041	116.283346	-19.736197	-82.516344	-19.736197	-82.516344	-0.169535	-102.499634
2.650000	-0.366419	110.531597	-19.526961	-86.280337	-19.526961	-86.280337	-0.173905	-104.244363
2.700000	-0.381635	104.638820	-19.320765	-90.113679	-19.320765	-90.113679	-0.178400	-105.980116
2.750000	-0.397699	98.598320	-19.118292	-94.019586	-19.118292	-94.019586	-0.183022	-107.706851
2.800000	-0.414603	92.404059	-18.920322	-98.000908	-18.920322	-98.000908	-0.187765	-109.424519
2.850000	-0.432321	86.050884	-18.727739	-102.060017	-18.727739	-102.060017	-0.192618	-111.133058
2.900000	-0.450804	79.534782	-18.541518	-106.198689	-18.541518	-106.198689	-0.197566	-112.832411
2.950000	-0.469976	72.853163	-18.362729	-110.417972	-18.362729	-110.417972	-0.202583	-114.522525
3.000000	-0.489733	66.005156	-18.192519	-114.718050	-18.192519	-114.718050	-0.207636	-116.203371
3.050000	-0.509936	58.991924	-18.032103	-119.098106	-18.032103	-119.098106	-0.212687	-117.874952
3.100000	-0.530414	51.816953	-17.882741	-123.556197	-17.882741	-123.556197	-0.217688	-119.537320
3.150000	-0.550960	44.484737	-17.745839	-128.089906	-17.745839	-128.089906	-0.222582	-121.190491
3.200000	-0.571328	37.004585	-17.622722	-132.694527	-17.622722	-132.694527	-0.227310	-122.834665
3.250000	-0.591253	29.390249	-17.514497	-137.363287	-17.514497	-137.363287	-0.231816	-124.470221
3.300000	-0.610456	21.656755	-17.422289	-142.088877	-17.422289	-142.088877	-0.236041	-126.097526
3.350000	-0.628646	13.821984	-17.347094	-146.862713	-17.347094	-146.862713	-0.239936	-127.717031
3.400000	-0.645541	5.906408	-17.289739	-151.675071	-17.289739	-151.675071	-0.243458	-129.329257
3.450000	-0.660878	-2.067309	-17.250851	-156.515285	-17.250851	-156.515285	-0.246577	-130.934785
3.500000	-0.674426	-10.074851	-17.230827	-161.371998	-17.230827	-161.371998	-0.249274	-132.534228
3.550000	-0.685999	-18.090890	-17.229816	-166.233455	-17.229816	-166.233455	-0.251544	-134.128211
3.600000	-0.695465	-26.089794	-17.247714	-171.087818	-17.247714	-171.087818	-0.253397	-135.717349
3.650000	-0.702754	-34.046357	-17.284162	-175.923486	-17.284162	-175.923486	-0.254854	-137.302224
3.700000	-0.707856	-41.936498	-17.338568	179.270599	-17.338568	179.270599	-0.255943	-138.883376
3.750000	-0.710821	-49.737883	-17.410122	174.504689	-17.410122	174.504689	-0.256703	-140.461283
3.800000	-0.711711	-57.427665	-17.498137	169.789269	-17.498137	169.789269	-0.257171	-142.036314
3.850000	-0.710722	-64.990520	-17.601104	165.131426	-17.601104	165.131426	-0.257397	-143.608893
3.900000	-0.708035	-72.412070	-17.717776	160.537836	-17.717776	160.537836	-0.257428	-145.179317
3.950000	-0.703851	-79.680869	-17.846847	156.013866	-17.846847	156.013866	-0.257306	-146.747831
4.000000	-0.698382	-86.788349	-17.986982	151.563605	-17.986982	151.563605	-0.257070	-148.314638
4.050000	-0.691840	-93.728659	-18.136852	147.189929	-18.136852	147.189929	-0.256759	-149.879905
4.100000	-0.684429	-100.498433	-18.295161	142.894607	-18.295161	142.894607	-0.256404	-151.443771
4.150000	-0.676341	-107.096513	-18.460668	138.678421	-18.460668	138.678421	-0.256035	-153.006356
4.200000	-0.667749	-113.523642	-18.632198	134.541300	-18.632198	134.541300	-0.255677	-154.567764
4.250000	-0.658809	-119.782153	-18.808662	130.482455	-18.808662	130.482455	-0.255350	-156.128092
4.300000	-0.649654	-125.875673	-18.989054	126.500515	-18.989054	126.500515	-0.255072	-157.687429
4.350000	-0.640399	-131.808843	-19.172461	122.593647	-19.172461	122.593647	-0.254858	-159.245866
4.400000	-0.631139	-137.585451	-19.358033	118.760438	-19.358033	118.760438	-0.254721	-160.803482
4.450000	-0.621953	-143.211660	-19.545010	114.998372	-19.545010	114.998372	-0.254670	-162.360372
4.500000	-0.612901	-148.695473	-19.732768	111.304060	-19.732768	111.304060	-0.254711	-163.916640
4.550000	-0.604029	-154.043390	-19.920740	107.674825	-19.920740	107.674825	-0.254851	-165.472382
4.600000	-0.595371	-159.261972	-20.108431	104.107961	-20.108431	104.107961	-0.255092	-167.027702
4.650000	-0.586952	-164.357735	-20.295413	100.600787	-20.295413	100.600787	-0.255439	-168.582705
4.700000	-0.578785	-169.337075	-20.481315	97.150679	-20.481315	97.150679	-0.255892	-170.137501
4.750000	-0.570880	-174.206203	-20.665819	93.755103	-20.665819	93.755103	-0.256454	-171.692202
4.800000	-0.563250	-178.966912	-20.848405	90.413759	-20.848405	90.413759	-0.257127	-173.246936
4.850000	-0.555868	176.365454	-21.029397	87.119482	-21.029397	87.119482	-0.257902	-174.801806
4.900000	-0.548744	171.791000	-21.208296	83.872884	-21.208296	83.872884	-0.258784	-176.356939
4.950000	-0.541868	167.304559	-21.384935	80.671930	-21.384935	80.671930	-0.259770	-177.912460
5.000000	-0.535233	162.901262	-21.559175	77.514721	-21.559175	77.514721	-0.260859	-179.468496
5.050000	-0.528835	158.579752	-21.730640	74.401250	-21.730640	74.401250	-0.262054	178.974791
5.100000	-0.522653	154.332175	-21.899490	71.328014	-21.899490	71.328014	-0.263347	177.417292
5.150000	-0.516675	150.154578	-22.065643	68.293545	-22.065643	68.293545	-0.264735	175.858877
5.200000	-0.510889	146.043281	-22.229029	65.296497	-22.229029	65.296497	-0.266216	174.299411
5.250000	-0.505283	141.994870	-22.389584	62.335649	-22.389584	62.335649	-0.267786	172.738764
5.300000	-0.499845	138.006180	-22.547255	59.409886	-22.547255	59.409886	-0.269443	171.176800
5.350000	-0.494565	134.074283	-22.701989	56.518201	-22.701989	56.518201	-0.271181	169.613387
5.400000	-0.489433	130.196479	-22.853738	53.659680	-22.853738	53.659680	-0.273000	168.048389
5.450000	-0.484440	126.370276	-23.002454	50.833500	-23.002454	50.833500	-0.274893	166.481674
5.500000	-0.479578	122.593383	-23.148090	48.038915	-23.148090	48.038915	-0.276858	164.913106
5.550000	-0.474840	118.863692	-23.290596	45.275253	-23.290596	45.275253	-0.278891	163.342552
5.600000	-0.470219	115.179268	-23.429919	42.541903	-23.429919	42.541903	-0.280987	161.769879
5.650000	-0.465710	111.538335	-23.566003	39.838312	-23.566003	39.838312	-0.283144	160.194952
5.700000	-0.461310	107.939266	-23.698785	37.163976	-23.698785	37.163976	-0.285356	158.617640
5.750000	-0.457014	104.380568	-23.828199	34.518429	-23.828199	34.518429	-0.287621	157.037809
5.800000	-0.452822	100.860873	-23.954170	31.901242	-23.954170	31.901242	-0.289934	155.455329
5.850000	-0.448732	97.378928	-24.076615	29.312012	-24.076615	29.312012	-0.292292	153.870068
5.900000	-0.444744	93.933583	-24.195445	26.750357	-24.195445	26.750357	-0.294691	152.281895
5.950000	-0.440858	90.523781	-24.310560	24.215908	-24.310560	24.215908	-0.297127	150.690683
6.000000	-0.437076	87.148549	-24.421851	21.708303	-24.421851	21.708303	-0.299597	149.096302
6.050000	-0.433400	83.806990	-24.529197	19.227185	-24.529197	19.227185	-0.302097	147.498626
6.100000	-0.429835	80.498270	-24.632466	16.772191	-24.632466	16.772191	-0.304626	145.897527
6.150000	-0.426383	77.221617	-24.731516	14.342947	-24.731516	14.342947	-0.307179	144.292881
6.200000	-0.423050	73.976305	-24.826188	11.939066	-24.826188	11.939066	-0.309755	142.684565
6.250000	-0.419841	70.761651	-24.916310	9.560137	-24.916310	9.560137	-0.312352	141.072455
6.300000	-0.416768	67.578280	-25.001445	7.206768	-25.001445	7.206768	-0.314967	139.456255
6.350000	-0.413833	64.424241	-25.081626	4.877400	-25.081626	4.877400	-0.317600	137.836010
6.400000	-0.411044	61.298929	-25.156626	2.571518	-25.156626	2.571518	-0.320248	136.211602
6.450000	-0.408409	58.201755	-25.226197	0.288560	-25.226197	0.288560	-0.322912	134.582915
6.500000	-0.405937	55.132128	-25.290069	-1.972086	-25.290069	-1.972086	-0.325591	132.949831
6.550000	-0.403639	52.089456	-25.347945	-4.211098	-25.347945	-4.211098	-0.328286	131.312236
6.600000	-0.401524	49.073136	-25.399501	-6.429219	-25.399501	-6.429219	-0.330997	129.670017
6.650000	-0.399604	46.082542	-25.444380	-8.627272	-25.444380	-8.627272	-0.333725	128.023057
6.700000	-0.397918	43.119840	-25.481302	-10.804079	-25.481302	-10.804079	-0.336476	126.370666
6.750000	-0.396409	40.176421	-25.512284	-12.966572	-25.512284	-12.966572	-0.339246	124.714332
6.800000	-0.395132	37.256987	-25.535379	-15.111620	-25.535379	-15.111620	-0.342040	123.052919
6.850000	-0.394171	34.365716	-25.547882	-17.237344	-25.547882	-17.237344	-0.344872	121.385048
6.900000	-0.393445	31.492943	-25.552518	-19.351197	-25.552518	-19.351197	-0.347735	119.712611
6.950000	-0.392964	28.638259	-25.548996	-21.453864	-25.548996	-21.453864	-0.350632	118.035552
7.000000	-0.392870	25.808445	-25.532614	-23.542690	-25.532614	-23.542690	-0.353587	116.351571
7.050000	-0.393129	22.997168	-25.504592	-25.623136	-25.504592	-25.623136	-0.356603	114.661745
7.100000	-0.393710	20.200664	-25.466097	-27.698082	-25.466097	-27.698082	-0.359677	112.966853
7.150000	-0.394662	17.419443	-25.415656	-29.768474	-25.415656	-29.768474	-0.362820	111.266328
7.200000	-0.396219	14.656752	-25.345868	-31.837885	-25.345868	-31.837885	-0.366088	109.557414
7.250000	-0.398231	11.903795	-25.262099	-33.910629	-25.262099	-33.910629	-0.369459	107.842776
7.300000	-0.400728	9.159499	-25.163804	-35.988588	-25.163804	-35.988588	-0.372941	106.122268
7.350000	-0.403979	6.423936	-25.043268	-38.079075	-25.043268	-38.079075	-0.376606	104.393339
7.400000	-0.408098	3.691477	-24.898392	-40.190109	-24.898392	-40.190109	-0.380494	102.655847
7.450000	-0.413015	0.958154	-24.732836	-42.323059	-24.732836	-42.323059	-0.384596	100.911149
7.500000	-0.418800	-1.777918	-24.546114	-44.481220	-24.546114	-44.481220	-0.388934	99.158973
7.550000	-0.426242	-4.527676	-24.319701	-46.693368	-24.319701	-46.693368	-0.393740	97.394322
7.600000	-0.435213	-7.294906	-24.061679	-48.957671	-24.061679	-48.957671	-0.398987	95.619499
7.650000	-0.446475	-10.093168	-23.759561	-51.301257	-23.759561	-51.301257	-0.404906	93.831140
7.700000	-0.460470	-12.932136	-23.411917	-53.738387	-23.411917	-53.738387	-0.411633	92.028533
7.750000	-0.478335	-15.831229	-23.007693	-56.303285	-23.007693	-56.303285	-0.419510	90.208339
7.800000	-0.501706	-18.815931	-22.534721	-59.040050	-22.534721	-59.040050	-0.429017	88.366458
7.850000	-0.532498	-21.911872	-21.987005	-61.990711	-21.987005	-61.990711	-0.440700	86.499654
7.900000	-0.576250	-25.188964	-21.329033	-65.278931	-21.329033	-65.278931	-0.456128	84.596454
7.950000	-0.637256	-28.683604	-20.566070	-68.964554	-20.566070	-68.964554	-0.476419	82.653689
8.000000	-0.732343	-32.553448	-19.635768	-73.330545	-19.635768	-73.330545	-0.506026	80.649526
8.050000	-0.888684	-36.975894	-18.505216	-78.709472	-18.505216	-78.709472	-0.551552	78.567449
8.100000	-1.167911	-42.251477	-17.125915	-85.722225	-17.125915	-85.722225	-0.626708	76.391475
8.150000	-1.740913	-48.883649	-15.431250	-95.696427	-15.431250	-95.696427	-0.763938	74.147786
8.200000	-3.108294	-56.958382	-13.469102	-111.173870	-13.469102	-111.173870	-1.026256	72.156033
8.250000	-6.679336	-58.976853	-11.782593	-136.110018	-11.782593	-136.110018	-1.425712	71.848855
8.300000	-8.448859	-19.702363	-11.871633	-169.001013	-11.871633	-169.001013	-1.479086	74.119523
8.350000	-4.168896	-10.571846	-14.057324	163.276510	-14.057324	163.276510	-1.069737	74.300046
8.400000	-2.308093	-17.740718	-16.804288	145.509640	-16.804288	145.509640	-0.773846	72.316081
8.450000	-1.549787	-24.478572	-19.332798	133.927407	-19.332798	133.927407	-0.626809	69.968860
8.500000	-1.196146	-29.877830	-21.514062	125.572390	-21.514062	125.572390	-0.553509	67.701116
8.550000	-1.008888	-34.364895	-23.407345	118.849203	-23.407345	118.849203	-0.513830	65.546662
8.600000	-0.903225	-38.261623	-25.059265	112.990266	-25.059265	112.990266	-0.491196	63.481210
8.650000	-0.844122	-41.756461	-26.479039	107.580579	-26.479039	107.580579	-0.478248	61.482904
8.700000	-0.812338	-44.994274	-27.700173	102.341841	-27.700173	102.341841	-0.470773	59.531075
8.750000	-0.798458	-48.066177	-28.741397	97.115807	-28.741397	97.115807	-0.466643	57.611952
8.800000	-0.798103	-51.029220	-29.599561	91.813860	-29.599561	91.813860	-0.464784	55.717173
8.850000	-0.809081	-53.927035	-30.266125	86.392357	-30.266125	86.392357	-0.464561	53.840734
8.900000	-0.830641	-56.795834	-30.729597	80.845055	-30.729597	80.845055	-0.465601	51.978214
8.950000	-0.863249	-59.668835	-30.976757	75.195056	-30.976757	75.195056	-0.467702	50.126295
9.000000	-0.910022	-62.587338	-30.973531	69.483073	-30.973531	69.483073	-0.470878	48.282869
9.050000	-0.973087	-65.588226	-30.737261	63.759467	-30.737261	63.759467	-0.475059	46.444713
9.100000	-1.058014	-68.717861	-30.264063	58.037909	-30.264063	58.037909	-0.480395	44.609932
9.150000	-1.174012	-72.035999	-29.552866	52.283245	-29.552866	52.283245	-0.487187	42.776779
9.200000	-1.332876	-75.601352	-28.624624	46.405345	-28.624624	46.405345	-0.495802	40.943770
9.250000	-1.577700	-79.603574	-27.399558	40.110176	-27.399558	40.110176	-0.507763	39.109757
9.300000	-1.947961	-84.107261	-25.953405	33.093762	-25.953405	33.093762	-0.524050	37.275990
9.350000	-2.568952	-89.293610	-24.248287	24.638493	-24.248287	24.638493	-0.547781	35.450554
9.400000	-3.703477	-94.993191	-22.319821	13.650801	-22.319821	13.650801	-0.583033	33.662341
9.450000	-5.981923	-98.740512	-20.317802	-1.584422	-20.317802	-1.584422	-0.632019	31.996295
9.500000	-9.855886	-84.235429	-18.715003	-22.417008	-18.715003	-22.417008	-0.677355	30.586922
9.550000	-8.290982	-45.803030	-18.217265	-46.702226	-18.217265	-46.702226	-0.674733	29.348267
9.600000	-4.356687	-43.000299	-18.934385	-68.368283	-18.934385	-68.368283	-0.627134	27.902712
9.650000	-2.463040	-50.510025	-20.212981	-84.179510	-20.212981	-84.179510	-0.582083	26.197009
9.700000	-1.592702	-57.800418	-21.526965	-95.146916	-21.526965	-95.146916	-0.554529	24.392017
9.750000	-1.168579	-63.745729	-22.681641	-102.895843	-22.681641	-102.895843	-0.540297	22.574066
9.800000	-0.942284	-68.629389	-23.655286	-108.700662	-23.655286	-108.700662	-0.533744	20.769091
9.850000	-0.818503	-72.731459	-24.451652	-113.219694	-24.451652	-113.219694	-0.531875	18.982501
9.900000	-0.743737	-76.352710	-25.123636	-116.997441	-25.123636	-116.997441	-0.532535	17.211276
9.950000	-0.701087	-79.595253	-25.676508	-120.218810	-25.676508	-120.218810	-0.535039	15.454808
10.000000	-0.677943	-82.564143	-26.130583	-123.060515	-26.130583	-123.060515	-0.538813	13.711332
