! freq	dB(S11)	phase(S11)	dB(S12)	phase(S12)	
!     	dB(S21)	phase(S21)	dB(S22)	phase(S22)	
!S-par simulation data
#  GHz  S  DB  R 50
0.000000	-82.480360	0.000000	-0.000653	0.000000	-0.000653	0.000000	-82.480360	0.000000
0.050000	-37.347785	-92.427299	-0.006682	-3.176574	-0.006682	-3.176574	-37.347481	-92.420011
0.100000	-31.397930	-95.823073	-0.015702	-6.305739	-0.015702	-6.305739	-31.397653	-95.810028
0.150000	-27.926911	-99.190881	-0.024308	-9.420656	-0.024308	-9.420656	-27.926569	-99.171894
0.200000	-25.474815	-102.497716	-0.033610	-12.531861	-0.033610	-12.531861	-25.474396	-102.472709
0.250000	-23.585977	-105.751435	-0.044202	-15.639645	-0.044202	-15.639645	-23.585485	-105.720439
0.300000	-22.056994	-108.963167	-0.056219	-18.742674	-0.056219	-18.742674	-22.056435	-108.926227
0.350000	-20.778796	-112.141912	-0.069584	-21.839772	-0.069584	-21.839772	-20.778176	-112.099056
0.400000	-19.686132	-115.294363	-0.084145	-24.930120	-0.084145	-24.930120	-19.685457	-115.245595
0.450000	-18.737170	-118.425229	-0.099737	-28.013140	-0.099737	-28.013140	-18.736446	-118.370531
0.500000	-17.903098	-121.538294	-0.116177	-31.088634	-0.116177	-31.088634	-17.902328	-121.477632
0.550000	-17.163367	-124.636336	-0.133295	-34.156617	-0.133295	-34.156617	-17.162555	-124.569662
0.600000	-16.502917	-127.721358	-0.150938	-37.217224	-0.150938	-37.217224	-16.502064	-127.648611
0.650000	-15.910329	-130.794877	-0.168965	-40.270693	-0.168965	-40.270693	-15.909436	-130.715987
0.700000	-15.376748	-133.858069	-0.187248	-43.317330	-0.187248	-43.317330	-15.375816	-133.772958
0.750000	-14.895174	-136.911881	-0.205666	-46.357484	-0.205666	-46.357484	-14.894202	-136.820458
0.800000	-14.459985	-139.957110	-0.224104	-49.391534	-0.224104	-49.391534	-14.458974	-139.859278
0.850000	-14.067352	-142.994225	-0.242443	-52.419703	-0.242443	-52.419703	-14.066301	-142.889870
0.900000	-13.712274	-146.024341	-0.260578	-55.442740	-0.260578	-55.442740	-13.711183	-145.913344
0.950000	-13.392150	-149.047947	-0.278393	-58.460977	-0.278393	-58.460977	-13.391018	-148.930173
1.000000	-13.104398	-152.065732	-0.295772	-61.474924	-0.295772	-61.474924	-13.103225	-151.941032
1.050000	-12.846869	-155.078422	-0.312595	-64.485153	-0.312595	-64.485153	-12.845654	-154.946634
1.100000	-12.617776	-158.086796	-0.328741	-67.492307	-0.328741	-67.492307	-12.616518	-157.947737
1.150000	-12.415643	-161.091688	-0.344086	-70.497115	-0.344086	-70.497115	-12.414341	-160.945157
1.200000	-12.239263	-164.093993	-0.358506	-73.500400	-0.358506	-73.500400	-12.237916	-163.939768
1.250000	-12.087671	-167.094675	-0.371882	-76.503088	-0.371882	-76.503088	-12.086278	-166.932509
1.300000	-11.960600	-170.094777	-0.384066	-79.506244	-0.384066	-79.506244	-11.959160	-169.924389
1.350000	-11.857040	-173.095435	-0.394971	-82.511030	-0.394971	-82.511030	-11.855551	-172.916517
1.400000	-11.776649	-176.097815	-0.404493	-85.518704	-0.404493	-85.518704	-11.775110	-175.910026
1.450000	-11.719277	-179.103146	-0.412538	-88.530629	-0.412538	-88.530629	-11.717686	-178.906101
1.500000	-11.684966	177.887288	-0.419023	-91.548275	-0.419023	-91.548275	-11.683320	178.094018
1.550000	-11.673952	174.872145	-0.423880	-94.573209	-0.423880	-94.573209	-11.672249	175.089046
1.600000	-11.686684	171.850040	-0.427053	-97.607099	-0.427053	-97.607099	-11.684920	172.077660
1.650000	-11.723832	168.819549	-0.428504	-100.651698	-0.428504	-100.651698	-11.722002	169.058511
1.700000	-11.786313	165.779217	-0.428211	-103.708849	-0.428211	-103.708849	-11.784412	166.030233
1.750000	-11.875323	162.727577	-0.426171	-106.780475	-0.426171	-106.780475	-11.873345	162.991464
1.800000	-11.992374	159.663164	-0.422403	-109.868573	-0.422403	-109.868573	-11.990312	159.940866
1.850000	-12.139353	156.584537	-0.416943	-112.975211	-0.416943	-112.975211	-12.137196	156.877152
1.900000	-12.318918	153.490129	-0.409836	-116.102771	-0.409836	-116.102771	-12.316656	153.798963
1.950000	-12.533987	150.378614	-0.401169	-119.253520	-0.401169	-119.253520	-12.531605	150.705219
2.000000	-12.787779	147.249046	-0.391073	-122.429483	-0.391073	-122.429483	-12.785259	147.595264
2.050000	-13.084656	144.100556	-0.379686	-125.632954	-0.379686	-125.632954	-13.081975	144.468617
2.100000	-13.429081	140.933119	-0.367198	-128.865480	-0.367198	-128.865480	-13.426209	141.325678
2.150000	-13.829458	137.745909	-0.353759	-132.130740	-0.353759	-132.130740	-13.826354	138.166413
2.200000	-14.293841	134.540086	-0.339619	-135.430654	-0.339619	-135.430654	-14.290452	134.992854
2.250000	-14.833670	131.317688	-0.325045	-138.767843	-0.325045	-138.767843	-14.829920	131.808352
2.300000	-15.463293	128.082956	-0.310346	-142.144404	-0.310346	-142.144404	-15.459073	128.618948
2.350000	-16.202568	124.843175	-0.295864	-145.562690	-0.295864	-145.562690	-16.197717	125.434652
2.400000	-17.079216	121.611064	-0.281981	-149.025006	-0.281981	-149.025006	-17.073479	122.272433
2.450000	-18.133550	118.409180	-0.269125	-152.533586	-0.269125	-152.533586	-18.126504	119.161828
2.500000	-19.427449	115.279345	-0.257768	-156.090563	-0.257768	-156.090563	-19.418321	116.156997
2.550000	-21.064347	112.309149	-0.248458	-159.698511	-0.248458	-159.698511	-21.051551	113.370658
2.600000	-23.230955	109.697068	-0.241750	-163.358727	-0.241750	-163.358727	-23.210667	111.056301
2.650000	-26.331930	108.022554	-0.238262	-167.072823	-0.238262	-167.072823	-26.291897	109.949262
2.700000	-31.534583	109.937990	-0.238662	-170.842152	-0.238662	-170.842152	-31.405819	113.349463
2.750000	-41.667963	172.943873	-0.243811	-174.669305	-0.243811	-174.669305	-40.446445	172.785994
2.800000	-32.918661	-105.821018	-0.254237	-178.552182	-0.254237	-178.552182	-32.734198	-109.846424
2.850000	-26.420862	-100.815122	-0.270632	177.509447	-0.270632	177.509447	-26.381405	-102.646590
2.900000	-22.567605	-102.367120	-0.294271	173.512066	-0.294271	173.512066	-22.550761	-103.517612
2.950000	-19.809078	-105.224938	-0.325806	169.458456	-0.325806	169.458456	-19.799644	-106.035715
3.000000	-17.648747	-108.624576	-0.366126	165.349956	-0.366126	165.349956	-17.642556	-109.231631
3.050000	-15.868304	-112.316597	-0.416129	161.188521	-0.416129	161.188521	-15.863784	-112.787392
3.100000	-14.352652	-116.194220	-0.476708	156.976756	-0.476708	156.976756	-14.349089	-116.567039
3.150000	-13.033689	-120.203265	-0.548805	152.717700	-0.548805	152.717700	-13.030714	-120.501983
3.200000	-11.868135	-124.311123	-0.633272	148.415371	-0.633272	148.415371	-11.865541	-124.551538
3.250000	-10.826759	-128.495837	-0.730843	144.074633	-0.730843	144.074633	-10.824421	-128.688911
3.300000	-9.888749	-132.741606	-0.842244	139.700699	-0.842244	139.700699	-9.886589	-132.895303
3.350000	-9.038833	-137.035615	-0.968123	135.299325	-0.968123	135.299325	-9.036799	-137.155908
3.400000	-8.265445	-141.366767	-1.109036	130.876725	-1.109036	130.876725	-8.263501	-141.458246
3.450000	-7.559592	-145.725048	-1.265469	126.439449	-1.265469	126.439449	-7.557715	-145.791332
3.500000	-6.914150	-150.101065	-1.437825	121.994365	-1.437825	121.994365	-6.912321	-150.145060
3.550000	-6.323155	-154.485780	-1.626220	117.548521	-1.626220	117.548521	-6.321361	-154.509832
3.600000	-5.781636	-158.870858	-1.830758	113.108819	-1.830758	113.108819	-5.779868	-158.876906
3.650000	-5.285328	-163.248452	-2.051431	108.682010	-2.051431	108.682010	-5.283579	-163.238119
3.700000	-4.830504	-167.611244	-2.288133	104.274571	-2.288133	104.274571	-4.828767	-167.585904
3.750000	-4.413845	-171.952492	-2.540659	99.892598	-2.540659	99.892598	-4.412117	-171.913323
3.800000	-4.032543	-176.265721	-2.808801	95.542110	-2.808801	95.542110	-4.030822	-176.213751
3.850000	-3.683679	179.454257	-3.092116	91.227891	-3.092116	91.227891	-3.681962	179.518142
3.900000	-3.365002	175.212843	-3.390278	86.955127	-3.390278	86.955127	-3.363287	175.287852
3.950000	-3.073708	171.013007	-3.702736	82.726535	-3.702736	82.726535	-3.071994	171.098456
4.000000	-2.807808	166.858462	-4.029127	78.545757	-4.029127	78.545757	-2.806094	166.953733
4.050000	-2.565276	162.751845	-4.369038	74.415384	-4.369038	74.415384	-2.563562	162.856381
4.100000	-2.344227	158.695154	-4.722083	70.337422	-4.722083	70.337422	-2.342514	158.808447
4.150000	-2.142906	154.689793	-5.087917	66.313332	-5.087917	66.313332	-2.141193	154.811381
4.200000	-1.959682	150.736623	-5.466248	62.344077	-5.466248	62.344077	-1.957969	150.866082
4.250000	-1.793040	146.836025	-5.856853	58.430182	-5.856853	58.430182	-1.791328	146.972961
4.300000	-1.641579	142.987952	-6.259582	54.571794	-6.259582	54.571794	-1.639869	143.132000
4.350000	-1.504004	139.191992	-6.674374	50.768740	-6.674374	50.768740	-1.502297	139.342810
4.400000	-1.379230	135.447970	-7.101158	47.021183	-7.101158	47.021183	-1.377525	135.605233
4.450000	-1.266134	131.754867	-7.540033	43.328462	-7.540033	43.328462	-1.264433	131.918267
4.500000	-1.163595	128.110926	-7.991328	39.689157	-7.991328	39.689157	-1.161898	128.280174
4.550000	-1.070693	124.514790	-8.455386	36.102220	-8.455386	36.102220	-1.069002	124.689611
4.600000	-0.986588	120.964982	-8.932673	32.566184	-8.932673	32.566184	-0.984902	121.145110
4.650000	-0.910512	117.459939	-9.423861	29.078888	-9.423861	29.078888	-0.908833	117.645120
4.700000	-0.841767	113.998040	-9.929990	25.637956	-9.929990	25.637956	-0.840096	114.188027
4.750000	-0.779717	110.577633	-10.452486	22.242688	-10.452486	22.242688	-0.778053	110.772186
4.800000	-0.723782	107.197052	-10.992815	18.894585	-10.992815	18.894585	-0.722128	107.395939
4.850000	-0.673439	103.854634	-11.552365	15.594928	-11.552365	15.594928	-0.671795	104.057628
4.900000	-0.628211	100.548734	-12.132768	12.343697	-12.132768	12.343697	-0.626577	100.755613
4.950000	-0.587666	97.277734	-12.736116	9.140537	-12.736116	9.140537	-0.586043	97.488281
5.000000	-0.551412	94.040048	-13.365002	5.985551	-13.365002	5.985551	-0.549801	94.254051
5.050000	-0.519343	90.836274	-14.021166	2.883191	-14.021166	2.883191	-0.517745	91.053510
5.100000	-0.490558	87.659919	-14.711570	-0.173001	-14.711570	-0.173001	-0.488974	87.880203
5.150000	-0.465296	84.514105	-15.437747	-3.172147	-15.437747	-3.172147	-0.463726	84.737224
5.200000	-0.442993	81.394675	-16.207308	-6.115397	-16.207308	-6.115397	-0.441438	81.620442
5.250000	-0.423527	78.301264	-17.026455	-8.994275	-17.026455	-8.994275	-0.421987	78.529487
5.300000	-0.406739	75.232973	-17.903411	-11.798598	-17.903411	-11.798598	-0.405216	75.463463
5.350000	-0.392250	72.186602	-18.851452	-14.521892	-18.851452	-14.521892	-0.390744	72.419189
5.400000	-0.380205	69.163789	-19.881419	-17.132013	-19.881419	-17.132013	-0.378716	69.398287
5.450000	-0.370079	66.159468	-21.018090	-19.621654	-21.018090	-19.621654	-0.368608	66.395730
5.500000	-0.362140	63.175930	-22.281946	-21.914591	-22.281946	-21.914591	-0.360686	63.413788
5.550000	-0.355944	60.208409	-23.717723	-23.973548	-23.717723	-23.973548	-0.354507	60.447734
5.600000	-0.351627	57.257047	-25.377951	-25.631365	-25.377951	-25.631365	-0.350207	57.497715
5.650000	-0.349037	54.318918	-27.356384	-26.668081	-27.356384	-26.668081	-0.347631	54.560834
5.700000	-0.348170	51.391450	-29.809354	-26.536268	-29.809354	-26.536268	-0.346774	51.634555
5.750000	-0.349193	48.471742	-33.019035	-23.651763	-33.019035	-23.651763	-0.347803	48.716024
5.800000	-0.352071	45.554515	-37.599399	-13.705572	-37.599399	-13.705572	-0.350675	45.800037
5.850000	-0.357659	42.631945	-42.601101	28.583439	-42.601101	28.583439	-0.356235	42.878923
5.900000	-0.366416	39.693897	-40.776253	86.621560	-40.776253	86.621560	-0.364928	39.942705
5.950000	-0.381951	36.712784	-36.367350	106.806972	-36.367350	106.806972	-0.380299	36.964325
6.000000	-0.410105	33.657442	-33.766475	116.098822	-33.766475	116.098822	-0.408077	33.913197
6.050000	-0.478742	30.454509	-32.435538	130.151590	-32.435538	130.151590	-0.475607	30.717413
6.100000	-0.699105	27.399331	-28.109707	159.987687	-28.109707	159.987687	-0.691977	27.666987
6.150000	-0.875394	27.203651	-20.842577	144.326496	-20.842577	144.326496	-0.865128	27.420696
6.200000	-0.598684	25.240714	-19.671099	120.404732	-19.671099	120.404732	-0.593962	25.442296
6.250000	-0.501715	22.122852	-19.412649	110.908540	-19.412649	110.908540	-0.499038	22.330237
6.300000	-0.473689	19.101550	-19.010282	105.632852	-19.010282	105.632852	-0.471795	19.312721
6.350000	-0.469608	16.188586	-18.511434	101.845746	-18.511434	101.845746	-0.468079	16.401470
6.400000	-0.475605	13.346666	-17.974632	98.649680	-17.974632	98.649680	-0.474281	13.559908
6.450000	-0.486704	10.548303	-17.433652	95.700582	-17.433652	95.700582	-0.485515	10.761058
6.500000	-0.500544	7.773999	-16.906447	92.855573	-16.906447	92.855573	-0.499462	7.985780
6.550000	-0.516871	5.020494	-16.394774	90.078815	-16.394774	90.078815	-0.515873	5.230862
6.600000	-0.535504	2.283277	-15.899911	87.339222	-15.899911	87.339222	-0.534577	2.491849
6.650000	-0.555941	-0.444111	-15.423804	84.614777	-15.423804	84.614777	-0.555078	-0.237602
6.700000	-0.578137	-3.164240	-14.965422	81.897825	-14.965422	81.897825	-0.577335	-2.960029
6.750000	-0.602095	-5.879292	-14.523480	79.183171	-14.523480	79.183171	-0.601351	-5.677587
6.800000	-0.627856	-8.591182	-14.096602	76.467192	-14.096602	76.467192	-0.627168	-8.392175
6.850000	-0.655487	-11.301659	-13.683405	73.747222	-13.683405	73.747222	-0.654853	-11.105524
6.900000	-0.685079	-14.012366	-13.282551	71.021160	-13.282551	71.021160	-0.684501	-13.819267
6.950000	-0.717053	-16.725476	-12.891720	68.285771	-12.891720	68.285771	-0.716530	-16.535590
7.000000	-0.751392	-19.442823	-12.510318	65.539791	-12.510318	65.539791	-0.750924	-19.256299
7.050000	-0.788179	-22.165939	-12.137539	62.781984	-12.137539	62.781984	-0.787768	-21.982916
7.100000	-0.827610	-24.896501	-11.772366	60.010708	-11.772366	60.010708	-0.827257	-24.717114
7.150000	-0.869905	-27.636251	-11.413867	57.224248	-11.413867	57.224248	-0.869611	-27.460629
7.200000	-0.915312	-30.387002	-11.061190	54.420791	-11.061190	54.420791	-0.915078	-30.215272
7.250000	-0.964109	-33.150652	-10.713556	51.598413	-10.713556	51.598413	-0.963939	-32.982938
7.300000	-1.016904	-35.930558	-10.369484	48.753212	-10.369484	48.753212	-1.016799	-35.766991
7.350000	-1.074291	-38.730146	-10.027864	45.881395	-10.027864	45.881395	-1.074253	-38.570859
7.400000	-1.136322	-41.550074	-9.689154	42.982775	-9.689154	42.982775	-1.136355	-41.395188
7.450000	-1.203483	-44.392792	-9.352826	40.054654	-9.352826	40.054654	-1.203589	-44.242426
7.500000	-1.276323	-47.260882	-9.018411	37.094135	-9.018411	37.094135	-1.276506	-47.115156
7.550000	-1.355463	-50.157064	-8.685495	34.098116	-8.685495	34.098116	-1.355726	-50.016101
7.600000	-1.441288	-53.082621	-8.354258	31.065241	-8.354258	31.065241	-1.441634	-52.946540
7.650000	-1.535619	-56.045610	-8.022682	27.985672	-8.022682	27.985672	-1.536055	-55.914552
7.700000	-1.639547	-59.049824	-7.690573	24.854814	-7.690573	24.854814	-1.640077	-58.923934
7.750000	-1.753567	-62.095629	-7.358811	21.672193	-7.358811	21.672193	-1.754196	-61.975048
7.800000	-1.878939	-65.186482	-7.027305	18.433354	-7.027305	18.433354	-1.879674	-65.071357
7.850000	-2.017548	-68.327802	-6.695594	15.131195	-6.695594	15.131195	-2.018396	-68.218299
7.900000	-2.171553	-71.524885	-6.363486	11.758444	-6.363486	11.758444	-2.172523	-71.421183
7.950000	-2.342326	-74.778442	-6.031886	8.313315	-6.031886	8.313315	-2.343426	-74.680730
8.000000	-2.532176	-78.091836	-5.701085	4.790319	-5.701085	4.790319	-2.533419	-78.000318
8.050000	-2.745088	-81.472531	-5.370780	1.177815	-5.370780	1.177815	-2.746486	-81.387453
8.100000	-2.983884	-84.920995	-5.042057	-2.527589	-5.042057	-2.527589	-2.985453	-84.842623
8.150000	-3.251877	-88.437143	-4.715959	-6.329338	-4.715959	-6.329338	-3.253635	-88.365772
8.200000	-3.553609	-92.021723	-4.393340	-10.233343	-4.393340	-10.233343	-3.555580	-91.957694
8.250000	-3.897123	-95.679277	-4.074793	-14.254997	-4.074793	-14.254997	-3.899335	-95.623024
8.300000	-4.286655	-99.399489	-3.762421	-18.389745	-3.762421	-18.389745	-4.289144	-99.351490
8.350000	-4.729934	-103.174942	-3.457703	-22.641445	-3.457703	-22.641445	-4.732746	-103.135764
8.400000	-5.237731	-106.994513	-3.162345	-27.016946	-3.162345	-27.016946	-5.240925	-106.964870
8.450000	-5.823259	-110.836322	-2.878650	-31.521015	-2.878650	-31.521015	-5.826918	-110.817137
8.500000	-6.498774	-114.666500	-2.608732	-36.145539	-2.608732	-36.145539	-6.503007	-114.658880
8.550000	-7.283395	-118.437958	-2.354847	-40.888889	-2.354847	-40.888889	-7.288360	-118.443340
8.600000	-8.202975	-122.070938	-2.119787	-45.748496	-2.119787	-45.748496	-8.208908	-122.091291
8.650000	-9.289041	-125.446620	-1.905766	-50.712733	-1.905766	-50.712733	-9.296309	-125.484575
8.700000	-10.586764	-128.366940	-1.715047	-55.769391	-1.715047	-55.769391	-10.595973	-128.426153
8.750000	-12.161160	-130.483120	-1.549654	-60.903149	-1.549654	-60.903149	-12.173396	-130.568715
8.800000	-14.107171	-131.029317	-1.412168	-66.097197	-1.412168	-66.097197	-14.124604	-131.148406
8.850000	-16.551890	-128.454244	-1.302979	-71.328249	-1.302979	-71.328249	-16.579284	-128.612255
8.900000	-19.564757	-118.880715	-1.222681	-76.574092	-1.222681	-76.574092	-19.612957	-119.053109
8.950000	-22.361416	-94.612470	-1.171264	-81.811847	-1.171264	-81.811847	-22.440255	-94.616317
9.000000	-22.070793	-59.980496	-1.148107	-87.018920	-1.148107	-87.018920	-22.133031	-59.666918
9.050000	-19.202887	-38.916474	-1.152007	-92.173916	-1.152007	-92.173916	-19.229473	-38.582599
9.100000	-16.415950	-31.240292	-1.181839	-97.255173	-1.181839	-97.255173	-16.427479	-30.979789
9.150000	-14.213354	-29.326194	-1.234914	-102.246681	-1.234914	-102.246681	-14.219095	-29.124466
9.200000	-12.479842	-29.986087	-1.308536	-107.135654	-1.308536	-107.135654	-12.483088	-29.826632
9.250000	-11.088847	-31.937429	-1.400049	-111.911907	-1.400049	-111.911907	-11.090921	-31.809452
9.300000	-9.951755	-34.583750	-1.506720	-116.568432	-1.506720	-116.568432	-9.953256	-34.480410
9.350000	-9.008260	-37.617248	-1.625838	-121.101195	-1.625838	-121.101195	-9.009486	-37.534094
9.400000	-8.217338	-40.867777	-1.754876	-125.506679	-1.754876	-125.506679	-8.218454	-40.801779
9.450000	-7.548429	-44.230489	-1.891244	-129.785927	-1.891244	-129.785927	-7.549526	-44.179567
9.500000	-6.977953	-47.641639	-2.032546	-133.944042	-2.032546	-133.944042	-6.979086	-47.604346
9.550000	-6.488825	-51.063200	-2.176728	-137.985427	-2.176728	-137.985427	-6.490028	-51.038493
9.600000	-6.067762	-54.471143	-2.321945	-141.915601	-2.321945	-141.915601	-6.069059	-54.458266
9.650000	-5.707637	-57.846933	-2.466134	-145.731660	-2.466134	-145.731660	-5.709046	-57.845306
9.700000	-5.393486	-61.187868	-2.608516	-149.458066	-2.608516	-149.458066	-5.395018	-61.197148
9.750000	-5.121542	-64.486935	-2.747591	-153.094014	-2.747591	-153.094014	-5.123207	-64.506862
9.800000	-4.886211	-67.742310	-2.882274	-156.646966	-2.882274	-156.646966	-4.888019	-67.772723
9.850000	-4.682878	-70.954118	-3.011627	-160.124471	-3.011627	-160.124471	-4.684838	-70.994939
9.900000	-4.507712	-74.123824	-3.134845	-163.534084	-3.134845	-163.534084	-4.509834	-74.175042
9.950000	-4.357521	-77.253809	-3.251231	-166.883319	-3.251231	-166.883319	-4.359815	-77.315474
10.000000	-4.229636	-80.347071	-3.360190	-170.179615	-3.360190	-170.179615	-4.232114	-80.419286
