! freq	dB(S11)	phase(S11)	dB(S12)	phase(S12)	
!     	dB(S21)	phase(S21)	dB(S22)	phase(S22)	
!S-par simulation data
#  GHz  S  DB  R 50
0.000000	-0.000000	0.000000	-366.014773	180.000000	-366.014773	180.000000	-0.000000	0.000000
0.050000	-0.000113	-0.917623	-114.703269	88.726870	-114.703269	88.726870	-0.000105	-0.811432
0.100000	-0.000448	-1.834973	-108.767990	87.537817	-108.767990	87.537817	-0.000415	-1.622605
0.150000	-0.000993	-2.751796	-105.378247	86.483335	-105.378247	86.483335	-0.000918	-2.433282
0.200000	-0.001725	-3.667881	-103.048973	85.574793	-103.048973	85.574793	-0.001591	-3.243270
0.250000	-0.002632	-4.582985	-101.320255	84.812966	-101.320255	84.812966	-0.002420	-4.052354
0.300000	-0.003672	-5.497059	-99.974189	84.173434	-99.974189	84.173434	-0.003366	-4.860500
0.350000	-0.004826	-6.409972	-98.907102	83.657492	-98.907102	83.657492	-0.004408	-5.667604
0.400000	-0.006068	-7.321665	-98.056307	83.270243	-98.056307	83.270243	-0.005523	-6.473631
0.450000	-0.007374	-8.232112	-97.383382	83.027648	-97.383382	83.027648	-0.006689	-7.278579
0.500000	-0.008725	-9.141314	-96.864035	82.957196	-96.864035	82.957196	-0.007888	-8.082463
0.550000	-0.010102	-10.049288	-96.482863	83.099441	-96.482863	83.099441	-0.009104	-8.885317
0.600000	-0.011493	-10.956061	-96.230410	83.511105	-96.230410	83.511105	-0.010327	-9.687179
0.650000	-0.012885	-11.861666	-96.101313	84.270387	-96.101313	84.270387	-0.011547	-10.488089
0.700000	-0.014270	-12.766139	-96.092837	85.485307	-96.092837	85.485307	-0.012758	-11.288089
0.750000	-0.015644	-13.669512	-96.203207	87.306114	-96.203207	87.306114	-0.013956	-12.087213
0.800000	-0.017001	-14.571814	-96.428897	89.942601	-96.428897	89.942601	-0.015139	-12.885492
0.850000	-0.018340	-15.473067	-96.759475	93.684787	-96.759475	93.684787	-0.016305	-13.682949
0.900000	-0.019659	-16.373289	-97.167606	98.916616	-97.167606	98.916616	-0.017454	-14.479604
0.950000	-0.020959	-17.272493	-97.591477	106.087726	-97.591477	106.087726	-0.018587	-15.275468
1.000000	-0.022239	-18.170684	-97.911932	115.565429	-97.911932	115.565429	-0.019705	-16.070547
1.050000	-0.023501	-19.067863	-97.946840	127.286357	-97.946840	127.286357	-0.020808	-16.864845
1.100000	-0.024746	-19.964027	-97.511884	140.337288	-97.511884	140.337288	-0.021897	-17.658359
1.150000	-0.025975	-20.859168	-96.548982	153.036718	-96.548982	153.036718	-0.022975	-18.451085
1.200000	-0.027190	-21.753276	-95.180574	163.867742	-95.180574	163.867742	-0.024042	-19.243013
1.250000	-0.028391	-22.646337	-93.604559	172.260973	-93.604559	172.260973	-0.025100	-20.034133
1.300000	-0.029580	-23.538287	-91.965878	178.344106	-91.965878	178.344106	-0.026149	-20.824396
1.350000	-0.030760	-24.429153	-90.367937	-177.300108	-90.367937	-177.300108	-0.027190	-21.613822
1.400000	-0.031930	-25.318916	-88.846312	-174.238540	-88.846312	-174.238540	-0.028226	-22.402398
1.450000	-0.033093	-26.207555	-87.411653	-172.136295	-87.411653	-172.136295	-0.029256	-23.190105
1.500000	-0.034249	-27.095047	-86.063135	-170.748860	-86.063135	-170.748860	-0.030282	-23.976928
1.550000	-0.035400	-27.981371	-84.795250	-169.900707	-84.795250	-169.900707	-0.031304	-24.762849
1.600000	-0.036546	-28.866504	-83.600990	-169.465644	-83.600990	-169.465644	-0.032324	-25.547849
1.650000	-0.037688	-29.750423	-82.473260	-169.352035	-82.473260	-169.352035	-0.033340	-26.331912
1.700000	-0.038827	-30.633104	-81.405455	-169.492409	-81.405455	-169.492409	-0.034355	-27.115019
1.750000	-0.039964	-31.514525	-80.391645	-169.836341	-80.391645	-169.836341	-0.035369	-27.897152
1.800000	-0.041099	-32.394662	-79.426602	-170.345569	-79.426602	-170.345569	-0.036381	-28.678293
1.850000	-0.042233	-33.273494	-78.505748	-170.990637	-78.505748	-170.990637	-0.037393	-29.458425
1.900000	-0.043366	-34.150997	-77.625085	-171.748553	-77.625085	-171.748553	-0.038405	-30.237530
1.950000	-0.044500	-35.027150	-76.781117	-172.601145	-76.781117	-172.601145	-0.039418	-31.015590
2.000000	-0.045634	-35.901931	-75.970778	-173.533876	-75.970778	-173.533876	-0.040431	-31.792589
2.050000	-0.046768	-36.775319	-75.191376	-174.534989	-75.191376	-174.534989	-0.041445	-32.568509
2.100000	-0.047905	-37.647292	-74.440532	-175.594882	-74.440532	-175.594882	-0.042460	-33.343333
2.150000	-0.049043	-38.517832	-73.716139	-176.705637	-73.716139	-176.705637	-0.043477	-34.117046
2.200000	-0.050183	-39.386918	-73.016322	-177.860671	-73.016322	-177.860671	-0.044496	-34.889632
2.250000	-0.051326	-40.254531	-72.339406	-179.054463	-72.339406	-179.054463	-0.045518	-35.661073
2.300000	-0.052471	-41.120653	-71.683890	179.717648	-71.683890	179.717648	-0.046542	-36.431356
2.350000	-0.053621	-41.985265	-71.048421	178.459625	-71.048421	178.459625	-0.047569	-37.200465
2.400000	-0.054774	-42.848349	-70.431777	177.174860	-70.431777	177.174860	-0.048599	-37.968384
2.450000	-0.055931	-43.709890	-69.832852	175.866272	-69.832852	175.866272	-0.049633	-38.735100
2.500000	-0.057093	-44.569869	-69.250639	174.536388	-69.250639	174.536388	-0.050671	-39.500599
2.550000	-0.058259	-45.428203	-68.683305	173.186668	-68.683305	173.186668	-0.051714	-40.264812
2.600000	-0.059432	-46.284945	-68.131016	171.819924	-68.131016	171.819924	-0.052761	-41.027779
2.650000	-0.060610	-47.140078	-67.592992	170.437820	-67.592992	170.437820	-0.053813	-41.789486
2.700000	-0.061794	-47.993591	-67.068515	169.041821	-67.068515	169.041821	-0.054870	-42.549922
2.750000	-0.062985	-48.845468	-66.556923	167.633231	-66.556923	167.633231	-0.055934	-43.309073
2.800000	-0.064182	-49.695697	-66.057604	166.213207	-66.057604	166.213207	-0.057003	-44.066928
2.850000	-0.065388	-50.544267	-65.569993	164.782785	-65.569993	164.782785	-0.058078	-44.823475
2.900000	-0.066600	-51.391165	-65.093564	163.342894	-65.093564	163.342894	-0.059161	-45.578702
2.950000	-0.067822	-52.236380	-64.627828	161.894366	-64.627828	161.894366	-0.060250	-46.332599
3.000000	-0.069051	-53.079903	-64.172330	160.437954	-64.172330	160.437954	-0.061347	-47.085155
3.050000	-0.070290	-53.921722	-63.726645	158.974338	-63.726645	158.974338	-0.062452	-47.836359
3.100000	-0.071538	-54.761829	-63.290377	157.504135	-63.290377	157.504135	-0.063566	-48.586203
3.150000	-0.072797	-55.600215	-62.863151	156.027905	-62.863151	156.027905	-0.064687	-49.334675
3.200000	-0.074065	-56.436871	-62.444620	154.546158	-62.444620	154.546158	-0.065818	-50.081768
3.250000	-0.075344	-57.271791	-62.034456	153.059361	-62.034456	153.059361	-0.066959	-50.827472
3.300000	-0.076635	-58.104968	-61.632348	151.567940	-61.632348	151.567940	-0.068109	-51.571779
3.350000	-0.077937	-58.936394	-61.238007	150.072288	-61.238007	150.072288	-0.069269	-52.314680
3.400000	-0.079252	-59.766065	-60.851158	148.572763	-60.851158	148.572763	-0.070440	-53.056169
3.450000	-0.080579	-60.593974	-60.471541	147.069697	-60.471541	147.069697	-0.071622	-53.796238
3.500000	-0.081919	-61.420118	-60.098910	145.563396	-60.098910	145.563396	-0.072815	-54.534880
3.550000	-0.083273	-62.244492	-59.733035	144.054141	-59.733035	144.054141	-0.074020	-55.272088
3.600000	-0.084641	-63.067093	-59.373693	142.542195	-59.373693	142.542195	-0.075237	-56.007856
3.650000	-0.086023	-63.887918	-59.020676	141.027798	-59.020676	141.027798	-0.076466	-56.742179
3.700000	-0.087420	-64.706964	-58.673785	139.511177	-58.673785	139.511177	-0.077709	-57.475051
3.750000	-0.088833	-65.524230	-58.332832	137.992541	-58.332832	137.992541	-0.078965	-58.206467
3.800000	-0.090262	-66.339637	-57.997326	136.472012	-57.997326	136.472012	-0.080235	-58.936358
3.850000	-0.091707	-67.153261	-57.667427	134.949861	-57.667427	134.949861	-0.081519	-59.664784
3.900000	-0.093169	-67.965104	-57.342971	133.426253	-57.342971	133.426253	-0.082819	-60.391742
3.950000	-0.094649	-68.775165	-57.023801	131.901347	-57.023801	131.901347	-0.084133	-61.117227
4.000000	-0.096146	-69.583445	-56.709766	130.375289	-56.709766	130.375289	-0.085462	-61.841236
4.050000	-0.097662	-70.389946	-56.400723	128.848217	-56.400723	128.848217	-0.086807	-62.563767
4.100000	-0.099196	-71.194671	-56.096533	127.320262	-56.096533	127.320262	-0.088169	-63.284817
4.150000	-0.100749	-71.997622	-55.797066	125.791545	-55.797066	125.791545	-0.089547	-64.004385
4.200000	-0.102329	-72.798187	-55.500324	124.262005	-55.500324	124.262005	-0.090948	-64.721952
4.250000	-0.103920	-73.597830	-55.210670	122.732165	-55.210670	122.732165	-0.092359	-65.438745
4.300000	-0.105536	-74.395330	-54.924236	121.201839	-54.924236	121.201839	-0.093791	-66.153728
4.350000	-0.107170	-75.191298	-54.642710	119.671166	-54.642710	119.671166	-0.095239	-66.867418
4.400000	-0.108826	-75.985441	-54.365108	118.140274	-54.365108	118.140274	-0.096706	-67.579557
4.450000	-0.110506	-76.777758	-54.091342	116.609164	-54.091342	116.609164	-0.098194	-68.290145
4.500000	-0.112205	-77.568566	-53.822107	115.078020	-53.822107	115.078020	-0.099698	-68.999442
4.550000	-0.113931	-78.357259	-53.555759	113.546826	-53.555759	113.546826	-0.101226	-69.706930
4.600000	-0.115675	-79.144756	-53.294460	112.015709	-53.294460	112.015709	-0.102769	-70.413388
4.650000	-0.117451	-79.929859	-53.035211	110.484746	-53.035211	110.484746	-0.104340	-71.117783
4.700000	-0.119240	-80.714074	-52.781454	108.953911	-52.781454	108.953911	-0.105923	-71.821407
4.750000	-0.121067	-81.495623	-52.529006	107.423462	-52.529006	107.423462	-0.107539	-72.522718
4.800000	-0.122904	-82.276586	-52.282423	105.893140	-52.282423	105.893140	-0.109163	-73.223517
4.850000	-0.124785	-83.054623	-52.036497	104.363458	-52.036497	104.363458	-0.110826	-73.921756
4.900000	-0.126671	-83.832371	-51.796750	102.833859	-51.796750	102.833859	-0.112492	-74.619741
4.950000	-0.128607	-84.606941	-51.557085	101.305174	-51.557085	101.305174	-0.114203	-75.314924
5.000000	-0.130544	-85.381511	-51.323857	99.776489	-51.323857	99.776489	-0.115914	-76.010107
5.050000	-0.132537	-86.152665	-51.090209	98.249009	-51.090209	98.249009	-0.117675	-76.702253
5.100000	-0.134531	-86.923818	-50.862682	96.721529	-50.862682	96.721529	-0.119436	-77.394399
5.150000	-0.136579	-87.691890	-50.635345	95.195327	-50.635345	95.195327	-0.121245	-78.083780
5.200000	-0.138632	-88.459680	-50.413309	93.669242	-50.413309	93.669242	-0.123058	-78.772910
5.250000	-0.140737	-89.224718	-50.192003	92.144462	-50.192003	92.144462	-0.124915	-79.459548
5.300000	-0.142851	-89.989204	-49.975259	90.619943	-49.975259	90.619943	-0.126782	-80.145687
5.350000	-0.145013	-90.751259	-49.759724	89.096717	-49.759724	89.096717	-0.128690	-80.829603
5.400000	-0.147191	-91.512503	-49.548084	87.573923	-49.548084	87.573923	-0.130612	-81.512779
5.450000	-0.149412	-92.271629	-49.338074	86.052375	-49.338074	86.052375	-0.132572	-82.193999
5.500000	-0.151654	-93.029696	-49.131361	84.531451	-49.131361	84.531451	-0.134551	-82.874241
5.550000	-0.153936	-93.785951	-48.926649	83.011694	-48.926649	83.011694	-0.136565	-83.552791
5.600000	-0.156246	-94.540911	-48.724694	81.492772	-48.724694	81.492772	-0.138603	-84.230133
5.650000	-0.158590	-95.294355	-48.525065	79.974912	-48.525065	79.974912	-0.140672	-84.906043
5.700000	-0.160969	-96.046281	-48.327710	78.458116	-48.327710	78.458116	-0.142771	-85.580520
5.750000	-0.163377	-96.796975	-48.132963	76.942251	-48.132963	76.942251	-0.144896	-86.253820
5.800000	-0.165827	-97.545945	-47.940055	75.427693	-47.940055	75.427693	-0.147058	-86.925471
5.850000	-0.168300	-98.293955	-47.750001	73.913916	-47.750001	73.913916	-0.149241	-87.596194
5.900000	-0.170822	-99.040047	-47.561397	72.401701	-47.561397	72.401701	-0.151467	-88.265060
5.950000	-0.173363	-99.785441	-47.375857	70.890096	-47.375857	70.890096	-0.153710	-88.933241
6.000000	-0.175960	-100.528740	-47.191420	69.380320	-47.191420	69.380320	-0.156002	-89.599365
6.050000	-0.178569	-101.271588	-47.010226	67.870967	-47.010226	67.870967	-0.158306	-90.265040
6.100000	-0.181242	-102.012180	-46.829827	66.363720	-46.829827	66.363720	-0.160666	-90.928468
6.150000	-0.183921	-102.752555	-46.652819	64.856692	-46.652819	64.856692	-0.163032	-91.591675
6.200000	-0.186672	-103.490531	-46.476333	63.352057	-46.476333	63.352057	-0.165462	-92.252456
6.250000	-0.189423	-104.228507	-46.303362	61.847423	-46.303362	61.847423	-0.167892	-92.913236
6.300000	-0.192253	-104.963960	-46.130670	60.345476	-46.130670	60.345476	-0.170393	-93.571419
6.350000	-0.195085	-105.699413	-45.961346	58.843529	-45.961346	58.843529	-0.172895	-94.229602
6.400000	-0.197990	-106.432641	-45.792584	57.344109	-45.792584	57.344109	-0.175463	-94.885453
6.450000	-0.200902	-107.165667	-45.626800	55.844918	-45.626800	55.844918	-0.178038	-95.541091
6.500000	-0.203884	-107.896753	-45.461830	54.348079	-45.461830	54.348079	-0.180674	-96.194655
6.550000	-0.206880	-108.627452	-45.299486	52.851709	-45.299486	52.851709	-0.183324	-96.847804
6.600000	-0.209939	-109.356481	-45.138178	51.357498	-45.138178	51.357498	-0.186031	-97.499129
6.650000	-0.213020	-110.084954	-44.979176	49.864006	-44.979176	49.864006	-0.188757	-98.149846
6.700000	-0.216158	-110.812014	-44.821407	48.372467	-44.821407	48.372467	-0.191535	-98.798981
6.750000	-0.219326	-111.538367	-44.665655	46.881905	-44.665655	46.881905	-0.194340	-99.447324
6.800000	-0.222545	-112.263546	-44.511307	45.393078	-44.511307	45.393078	-0.197191	-100.094319
6.850000	-0.225800	-112.987886	-44.358715	43.905491	-44.358715	43.905491	-0.200075	-100.740351
6.900000	-0.229101	-113.711276	-44.207677	42.419411	-44.207677	42.419411	-0.203000	-101.385259
6.950000	-0.232447	-114.433716	-44.058160	40.934839	-44.058160	40.934839	-0.205967	-102.029042
7.000000	-0.235831	-115.155410	-43.910326	39.451537	-43.910326	39.451537	-0.208967	-102.671916
7.050000	-0.239269	-115.876062	-43.763801	37.970013	-43.763801	37.970013	-0.212017	-103.313516
7.100000	-0.242738	-116.596157	-43.619070	36.489514	-43.619070	36.489514	-0.215095	-103.954411
7.150000	-0.246268	-117.315137	-43.475459	35.011067	-43.475459	35.011067	-0.218229	-104.593895
7.200000	-0.249823	-118.033729	-43.333734	33.533394	-43.333734	33.533394	-0.221386	-105.232868
7.250000	-0.253448	-118.751157	-43.192960	32.058044	-43.192960	32.058044	-0.224607	-105.870306
7.300000	-0.257090	-119.468346	-43.054151	30.583213	-43.054151	30.583213	-0.227843	-106.507414
7.350000	-0.260811	-120.184343	-42.916142	29.110976	-42.916142	29.110976	-0.231152	-107.142876
7.400000	-0.264542	-120.900231	-42.780159	27.638999	-42.780159	27.638999	-0.234470	-107.778179
7.450000	-0.268361	-121.614922	-42.644845	26.169884	-42.644845	26.169884	-0.237868	-108.411739
7.500000	-0.272182	-122.329613	-42.511607	24.700769	-42.511607	24.700769	-0.241268	-109.045298
7.550000	-0.276100	-123.043124	-42.378920	23.234777	-42.378920	23.234777	-0.244758	-109.677029
7.600000	-0.280019	-123.756635	-42.248230	21.768785	-42.248230	21.768785	-0.248249	-110.308760
7.650000	-0.284030	-124.469185	-42.118223	20.305653	-42.118223	20.305653	-0.251824	-110.938886
7.700000	-0.288050	-125.181646	-41.990021	18.842781	-41.990021	18.842781	-0.255408	-111.568866
7.750000	-0.292154	-125.893344	-41.862616	17.382498	-41.862616	17.382498	-0.259069	-112.197451
7.800000	-0.296276	-126.604888	-41.736843	15.922734	-41.736843	15.922734	-0.262748	-112.825758
7.850000	-0.300474	-127.315845	-41.611968	14.465287	-41.611968	14.465287	-0.266497	-113.452870
7.900000	-0.304699	-128.026607	-41.488568	13.008613	-41.488568	13.008613	-0.270270	-114.079584
7.950000	-0.308993	-128.736939	-41.366153	11.553981	-41.366153	11.553981	-0.274108	-114.705290
8.000000	-0.313323	-129.447057	-41.245073	10.100371	-41.245073	10.100371	-0.277979	-115.330493
8.050000	-0.317714	-130.156879	-41.125052	8.648531	-41.125052	8.648531	-0.281907	-115.954863
8.100000	-0.322149	-130.866492	-41.006241	7.197954	-41.006241	7.197954	-0.285876	-116.578638
8.150000	-0.326638	-131.575924	-40.888551	5.748874	-40.888551	5.748874	-0.289895	-117.201742
8.200000	-0.331180	-132.285175	-40.771960	4.301291	-40.771960	4.301291	-0.293964	-117.824176
8.250000	-0.335767	-132.994336	-40.656541	2.854937	-40.656541	2.854937	-0.298075	-118.446086
8.300000	-0.340417	-133.703371	-40.542124	1.410303	-40.542124	1.410303	-0.302244	-119.067265
8.350000	-0.345103	-134.412384	-40.428921	-0.033367	-40.428921	-0.033367	-0.306448	-119.688055
8.400000	-0.349862	-135.121351	-40.316634	-1.475105	-40.316634	-1.475105	-0.310720	-120.308068
8.450000	-0.354649	-135.830340	-40.205592	-2.916134	-40.205592	-2.916134	-0.315019	-120.927813
8.500000	-0.359517	-136.539392	-40.095395	-4.355036	-40.095395	-4.355036	-0.319393	-121.546751
8.550000	-0.364406	-137.248483	-39.986464	-5.793476	-39.986464	-5.793476	-0.323787	-122.165526
8.600000	-0.369384	-137.957772	-39.878318	-7.229606	-39.878318	-7.229606	-0.328266	-122.783482
8.650000	-0.374375	-138.667094	-39.771450	-8.665511	-39.771450	-8.665511	-0.332756	-123.401364
8.700000	-0.379465	-139.376778	-39.665319	-10.098941	-39.665319	-10.098941	-0.337340	-124.018433
8.750000	-0.384558	-140.086462	-39.560469	-11.532370	-39.560469	-11.532370	-0.341927	-124.635502
8.800000	-0.389760	-140.796700	-39.456321	-12.963177	-39.456321	-12.963177	-0.346618	-125.251779
8.850000	-0.394965	-141.506938	-39.353406	-14.393984	-39.353406	-14.393984	-0.351311	-125.868056
8.900000	-0.400271	-142.217834	-39.251251	-15.822461	-39.251251	-15.822461	-0.356100	-126.483698
8.950000	-0.405588	-142.928789	-39.150243	-17.250727	-39.150243	-17.250727	-0.360900	-127.099283
9.000000	-0.410998	-143.640480	-39.050042	-18.676948	-39.050042	-18.676948	-0.365788	-127.714373
9.050000	-0.416429	-144.352319	-38.950914	-20.102760	-38.950914	-20.102760	-0.370696	-128.329364
9.100000	-0.421943	-145.064946	-38.852633	-21.526801	-38.852633	-21.526801	-0.375685	-128.943988
9.150000	-0.427487	-145.777835	-38.755363	-22.950251	-38.755363	-22.950251	-0.380701	-129.558488
9.200000	-0.433106	-146.491541	-38.658969	-24.372189	-38.658969	-24.372189	-0.385790	-130.172731
9.250000	-0.438764	-147.205654	-38.563535	-25.793372	-38.563535	-25.793372	-0.390916	-130.786845
9.300000	-0.444488	-147.920584	-38.469000	-27.213289	-38.469000	-27.213289	-0.396105	-131.400795
9.350000	-0.450260	-148.636096	-38.375384	-28.632302	-38.375384	-28.632302	-0.401341	-132.014629
9.400000	-0.456088	-149.352396	-38.282681	-30.050280	-38.282681	-30.050280	-0.406632	-132.628376
9.450000	-0.461974	-150.069485	-38.190870	-31.467223	-38.190870	-31.467223	-0.411978	-133.242038
9.500000	-0.467907	-150.787307	-38.099974	-32.883345	-38.099974	-32.883345	-0.417370	-133.855673
9.550000	-0.473906	-151.506154	-38.009956	-34.298319	-38.009956	-34.298319	-0.422827	-134.469273
9.600000	-0.479944	-152.225650	-37.920846	-35.712670	-37.920846	-35.712670	-0.428321	-135.082889
9.650000	-0.486056	-152.946441	-37.832612	-37.125776	-37.832612	-37.125776	-0.433888	-135.696539
9.700000	-0.492198	-153.667765	-37.745271	-38.538440	-37.745271	-38.538440	-0.439485	-136.310231
9.750000	-0.498423	-154.390689	-37.658816	-39.949777	-37.658816	-39.949777	-0.445162	-136.924047
9.800000	-0.504669	-155.114000	-37.573228	-41.360836	-37.573228	-41.360836	-0.450861	-137.537910
9.850000	-0.511006	-155.839248	-37.488550	-42.770504	-37.488550	-42.770504	-0.456649	-138.152009
9.900000	-0.517355	-156.564705	-37.404702	-44.180039	-37.404702	-44.180039	-0.462450	-138.766142
9.950000	-0.523803	-157.292473	-37.321801	-45.588131	-37.321801	-45.588131	-0.468349	-139.380643
10.000000	-0.530255	-158.020241	-37.239683	-46.996222	-37.239683	-46.996222	-0.474252	-139.995145
