! freq	dB(S11)	phase(S11)	dB(S12)	phase(S12)	
!     	dB(S21)	phase(S21)	dB(S22)	phase(S22)	
!S-par simulation data
#  GHz  S  DB  R 50
0.000000	-0.000000	0.000000	-374.577654	0.000000	-374.577654	0.000000	-0.000000	0.000000
0.050000	-0.000121	-1.009154	-111.132354	88.910624	-111.132354	88.910624	-0.000122	-1.009468
0.100000	-0.000481	-2.018013	-105.165009	87.836493	-105.165009	87.836493	-0.000482	-2.018639
0.150000	-0.001066	-3.026302	-101.731584	86.792361	-101.731584	86.792361	-0.001069	-3.027239
0.200000	-0.001855	-4.033788	-99.355277	85.791851	-99.355277	85.791851	-0.001859	-4.035033
0.250000	-0.002835	-5.040200	-97.579972	84.852666	-97.579972	84.852666	-0.002841	-5.041750
0.300000	-0.003962	-6.045476	-96.191318	83.983560	-96.191318	83.983560	-0.003970	-6.047327
0.350000	-0.005215	-7.049458	-95.084497	83.202011	-95.084497	83.202011	-0.005225	-7.051607
0.400000	-0.006569	-8.052067	-94.195570	82.525509	-94.195570	82.525509	-0.006581	-8.054512
0.450000	-0.007998	-9.053262	-93.484432	81.975104	-93.484432	81.975104	-0.008011	-9.055999
0.500000	-0.009480	-10.053024	-92.924997	81.577117	-92.924997	81.577117	-0.009494	-10.056052
0.550000	-0.010995	-11.051357	-92.500089	81.365353	-92.500089	81.365353	-0.011010	-11.054676
0.600000	-0.012528	-12.048280	-92.198548	81.384069	-92.198548	81.384069	-0.012544	-12.051887
0.650000	-0.014066	-13.043815	-92.013434	81.692097	-92.013434	81.692097	-0.014082	-13.047712
0.700000	-0.015599	-14.037991	-91.940733	82.368681	-91.940733	82.368681	-0.015615	-14.042176
0.750000	-0.017120	-15.030834	-91.978139	83.521775	-91.978139	83.521775	-0.017136	-15.035308
0.800000	-0.018624	-16.022368	-92.123420	85.299610	-92.123420	85.299610	-0.018641	-16.027131
0.850000	-0.020108	-17.012612	-92.371658	87.905714	-92.371658	87.905714	-0.020125	-17.017664
0.900000	-0.021571	-18.001579	-92.710078	91.614763	-92.710078	91.614763	-0.021587	-18.006921
0.950000	-0.023011	-18.989278	-93.108534	96.777694	-93.108534	96.777694	-0.023027	-18.994910
1.000000	-0.024429	-19.975712	-93.504043	103.783243	-93.504043	103.783243	-0.024445	-19.981632
1.050000	-0.025825	-20.960876	-93.783123	112.912164	-93.783123	112.912164	-0.025841	-20.967085
1.100000	-0.027201	-21.944763	-93.782790	124.032757	-93.782790	124.032757	-0.027217	-21.951260
1.150000	-0.028558	-22.927360	-93.347694	136.273230	-93.347694	136.273230	-0.028574	-22.934146
1.200000	-0.029897	-23.908653	-92.434751	148.145959	-92.434751	148.145959	-0.029913	-23.915726
1.250000	-0.031220	-24.888622	-91.151129	158.336025	-91.151129	158.336025	-0.031236	-24.895981
1.300000	-0.032528	-25.867185	-89.654275	166.235998	-89.654275	166.235998	-0.032544	-25.874829
1.350000	-0.033823	-26.844376	-88.104969	172.111600	-88.104969	172.111600	-0.033840	-26.852305
1.400000	-0.035107	-27.820170	-86.582465	176.355671	-86.582465	176.355671	-0.035124	-27.828381
1.450000	-0.036381	-28.794538	-85.123702	179.350691	-85.123702	179.350691	-0.036398	-28.803032
1.500000	-0.037646	-29.767455	-83.741920	-178.595087	-83.741920	-178.595087	-0.037664	-29.776229
1.550000	-0.038903	-30.738891	-82.438665	-177.250278	-82.438665	-177.250278	-0.038922	-30.747944
1.600000	-0.040155	-31.708817	-81.210277	-176.445481	-81.210277	-176.445481	-0.040173	-31.718148
1.650000	-0.041400	-32.677204	-80.051114	-176.057132	-80.051114	-176.057132	-0.041420	-32.686812
1.700000	-0.042642	-33.644024	-78.955077	-175.994510	-78.955077	-175.994510	-0.042662	-33.653907
1.750000	-0.043880	-34.609248	-77.916286	-176.190248	-77.916286	-176.190248	-0.043900	-34.619404
1.800000	-0.045115	-35.572847	-76.929351	-176.593655	-76.929351	-176.593655	-0.045136	-35.583274
1.850000	-0.046348	-36.534792	-75.989443	-177.166058	-75.989443	-177.166058	-0.046370	-36.545490
1.900000	-0.047580	-37.495057	-75.092293	-177.877555	-75.092293	-177.877555	-0.047602	-37.506023
1.950000	-0.048811	-38.453615	-74.234138	-178.704720	-74.234138	-178.704720	-0.048834	-38.464848
2.000000	-0.050042	-39.410438	-73.411668	-179.628980	-73.411668	-179.628980	-0.050066	-39.421936
2.050000	-0.051274	-40.365501	-72.621965	179.364559	-72.621965	179.364559	-0.051298	-40.377263
2.100000	-0.052506	-41.318779	-71.862456	178.287969	-71.862456	178.287969	-0.052531	-41.330803
2.150000	-0.053740	-42.270247	-71.130861	177.151129	-71.130861	177.151129	-0.053765	-42.282532
2.200000	-0.054976	-43.219882	-70.425151	175.962198	-70.425151	175.962198	-0.055002	-43.232426
2.250000	-0.056214	-44.167661	-69.743521	174.727971	-69.743521	174.727971	-0.056241	-44.180462
2.300000	-0.057456	-45.113562	-69.084352	173.454151	-69.084352	173.454151	-0.057483	-45.126619
2.350000	-0.058700	-46.057564	-68.446190	172.145558	-68.446190	172.145558	-0.058728	-46.070875
2.400000	-0.059949	-46.999647	-67.827725	170.806297	-67.827725	170.806297	-0.059977	-47.013211
2.450000	-0.061202	-47.939790	-67.227770	169.439882	-67.227770	169.439882	-0.061230	-47.953605
2.500000	-0.062459	-48.877976	-66.645251	168.049341	-66.645251	168.049341	-0.062488	-48.892040
2.550000	-0.063722	-49.814099	-66.078303	166.636468	-66.078303	166.636468	-0.063751	-49.828411
2.600000	-0.064990	-50.748228	-65.527012	165.204555	-65.527012	165.204555	-0.065020	-50.762787
2.650000	-0.066265	-51.680347	-64.990546	163.755564	-64.990546	163.755564	-0.066295	-51.695151
2.700000	-0.067546	-52.610441	-64.468146	162.291226	-64.468146	162.291226	-0.067577	-52.625488
2.750000	-0.068834	-53.538496	-63.959110	160.813067	-63.959110	160.813067	-0.068865	-53.553784
2.800000	-0.070129	-54.464497	-63.462791	159.322444	-63.462791	159.322444	-0.070161	-54.480025
2.850000	-0.071432	-55.388433	-62.978594	157.820564	-62.978594	157.820564	-0.071464	-55.404200
2.900000	-0.072743	-56.310291	-62.505963	156.308505	-62.505963	156.308505	-0.072776	-56.326295
2.950000	-0.074063	-57.230061	-62.044386	154.787234	-62.044386	154.787234	-0.074096	-57.246301
3.000000	-0.075392	-58.147733	-61.593382	153.257620	-61.593382	153.257620	-0.075426	-58.164206
3.050000	-0.076731	-59.063297	-61.152508	151.720446	-61.152508	151.720446	-0.076765	-59.080003
3.100000	-0.078080	-59.976745	-60.721345	150.176422	-60.721345	150.176422	-0.078114	-59.993682
3.150000	-0.079440	-60.888069	-60.299504	148.626189	-60.299504	148.626189	-0.079474	-60.905236
3.200000	-0.080810	-61.797263	-59.886620	147.070331	-59.886620	147.070331	-0.080845	-61.814658
3.250000	-0.082193	-62.704321	-59.482350	145.509380	-59.482350	145.509380	-0.082228	-62.721942
3.300000	-0.083587	-63.609237	-59.086372	143.943820	-59.086372	143.943820	-0.083622	-63.627083
3.350000	-0.084994	-64.512007	-58.698381	142.374098	-58.698381	142.374098	-0.085030	-64.530077
3.400000	-0.086413	-65.412628	-58.318092	140.800618	-58.318092	140.800618	-0.086450	-65.430920
3.450000	-0.087847	-66.311097	-57.945234	139.223756	-57.945234	139.223756	-0.087883	-66.329610
3.500000	-0.089294	-67.207412	-57.579553	137.643854	-57.579553	137.643854	-0.089331	-67.226144
3.550000	-0.090756	-68.101571	-57.220806	136.061232	-57.220806	136.061232	-0.090793	-68.120522
3.600000	-0.092233	-68.993576	-56.868764	134.476180	-56.868764	134.476180	-0.092271	-69.012742
3.650000	-0.093725	-69.883425	-56.523211	132.888970	-56.523211	132.888970	-0.093763	-69.902806
3.700000	-0.095233	-70.771120	-56.183939	131.299853	-56.183939	131.299853	-0.095272	-70.790715
3.750000	-0.096758	-71.656663	-55.850753	129.709060	-55.850753	129.709060	-0.096797	-71.676471
3.800000	-0.098301	-72.539964	-55.523188	128.116755	-55.523188	128.116755	-0.098341	-72.559982
3.850000	-0.099861	-73.421119	-55.201366	126.523208	-55.201366	126.523208	-0.099901	-73.441347
3.900000	-0.101439	-74.300133	-54.885116	124.928605	-54.885116	124.928605	-0.101480	-74.320569
3.950000	-0.103036	-75.177011	-54.574276	123.333118	-54.574276	123.333118	-0.103077	-75.197653
4.000000	-0.104652	-76.051758	-54.268689	121.736909	-54.268689	121.736909	-0.104693	-76.072606
4.050000	-0.106287	-76.924381	-53.968207	120.140128	-53.968207	120.140128	-0.106329	-76.945433
4.100000	-0.107943	-77.794887	-53.672688	118.542916	-53.672688	118.542916	-0.107985	-77.816142
4.150000	-0.109619	-78.663285	-53.381996	116.945406	-53.381996	116.945406	-0.109662	-78.684741
4.200000	-0.111316	-79.529581	-53.096000	115.347721	-53.096000	115.347721	-0.111360	-79.551238
4.250000	-0.113035	-80.393787	-52.814576	113.749977	-52.814576	113.749977	-0.113079	-80.415642
4.300000	-0.114776	-81.255910	-52.537604	112.152283	-52.537604	112.152283	-0.114820	-81.277964
4.350000	-0.116539	-82.115963	-52.264969	110.554742	-52.264969	110.554742	-0.116584	-82.138214
4.400000	-0.118326	-82.973957	-51.996561	108.957450	-51.996561	108.957450	-0.118371	-82.996403
4.450000	-0.120135	-83.829902	-51.732273	107.360497	-51.732273	107.360497	-0.120182	-83.852543
4.500000	-0.121969	-84.683813	-51.472005	105.763969	-51.472005	105.763969	-0.122016	-84.706647
4.550000	-0.123828	-85.535701	-51.215658	104.167947	-51.215658	104.167947	-0.123875	-85.558727
4.600000	-0.125711	-86.385581	-50.963137	102.572507	-50.963137	102.572507	-0.125759	-86.408798
4.650000	-0.127620	-87.233467	-50.714353	100.977720	-50.714353	100.977720	-0.127669	-87.256875
4.700000	-0.129555	-88.079374	-50.469216	99.383653	-50.469216	99.383653	-0.129604	-88.102971
4.750000	-0.131516	-88.923318	-50.227644	97.790372	-50.227644	97.790372	-0.131566	-88.947103
4.800000	-0.133505	-89.765314	-49.989555	96.197936	-49.989555	96.197936	-0.133555	-89.789286
4.850000	-0.135520	-90.605381	-49.754869	94.606403	-49.754869	94.606403	-0.135571	-90.629539
4.900000	-0.137564	-91.443534	-49.523513	93.015827	-49.523513	93.015827	-0.137615	-91.467878
4.950000	-0.139635	-92.279792	-49.295411	91.426259	-49.295411	91.426259	-0.139687	-92.304320
5.000000	-0.141735	-93.114174	-49.070494	89.837748	-49.070494	89.837748	-0.141788	-93.138886
5.050000	-0.143866	-93.946618	-48.848583	88.250390	-48.848583	88.250390	-0.143919	-93.971513
5.100000	-0.146027	-94.777226	-48.629729	86.664182	-48.629729	86.664182	-0.146080	-94.802303
5.150000	-0.148217	-95.606018	-48.413869	85.079166	-48.413869	85.079166	-0.148271	-95.631276
5.200000	-0.150439	-96.433015	-48.200941	83.495381	-48.200941	83.495381	-0.150493	-96.458454
5.250000	-0.152691	-97.258238	-47.990883	81.912863	-47.990883	81.912863	-0.152746	-97.283856
5.300000	-0.154974	-98.081709	-47.783637	80.331649	-47.783637	80.331649	-0.155030	-98.107506
5.350000	-0.157290	-98.903450	-47.579148	78.751771	-47.579148	78.751771	-0.157346	-98.929426
5.400000	-0.159638	-99.723484	-47.377359	77.173261	-47.377359	77.173261	-0.159695	-99.749637
5.450000	-0.162030	-100.541260	-47.177558	75.596650	-47.177558	75.596650	-0.162087	-100.567590
5.500000	-0.164439	-101.358165	-46.981271	74.020778	-46.981271	74.020778	-0.164497	-101.384672
5.550000	-0.166890	-102.173091	-46.787139	72.446690	-46.787139	72.446690	-0.166948	-102.199774
5.600000	-0.169370	-102.986603	-46.595726	70.873876	-46.595726	70.873876	-0.169429	-103.013462
5.650000	-0.171886	-103.798473	-46.406700	69.302644	-46.406700	69.302644	-0.171945	-103.825508
5.700000	-0.174438	-104.608702	-46.219995	67.732995	-46.219995	67.732995	-0.174498	-104.635911
5.750000	-0.177021	-105.417610	-46.035870	66.164705	-46.035870	66.164705	-0.177081	-105.444994
5.800000	-0.179647	-106.224669	-45.853716	64.598317	-45.853716	64.598317	-0.179708	-106.252227
5.850000	-0.182298	-107.030711	-45.674299	63.033045	-45.674299	63.033045	-0.182360	-107.058442
5.900000	-0.185000	-107.834718	-45.496547	61.470006	-45.496547	61.470006	-0.185062	-107.862623
5.950000	-0.187722	-108.637993	-45.321659	59.907822	-45.321659	59.907822	-0.187784	-108.666071
6.000000	-0.190501	-109.439070	-45.148166	58.348207	-45.148166	58.348207	-0.190564	-109.467321
6.050000	-0.193293	-110.239680	-44.977637	56.789174	-44.977637	56.789174	-0.193357	-110.268104
6.100000	-0.196152	-111.037952	-44.808268	55.233053	-44.808268	55.233053	-0.196216	-111.066549
6.150000	-0.199017	-111.836002	-44.641938	53.677227	-44.641938	53.677227	-0.199082	-111.864771
6.200000	-0.201956	-112.631600	-44.476565	52.124658	-44.476565	52.124658	-0.202021	-112.660541
6.250000	-0.204896	-113.427197	-44.314281	50.572090	-44.314281	50.572090	-0.204962	-113.456310
6.300000	-0.207916	-114.220252	-44.152782	49.023127	-44.152782	49.023127	-0.207983	-114.249537
6.350000	-0.210938	-115.013307	-43.994231	47.474165	-43.994231	47.474165	-0.211005	-115.042764
6.400000	-0.214036	-115.804156	-43.836661	45.928549	-43.836661	45.928549	-0.214104	-115.833786
6.450000	-0.217142	-116.594805	-43.681732	44.383237	-43.681732	44.383237	-0.217210	-116.624607
6.500000	-0.220318	-117.383566	-43.527955	42.841000	-43.527955	42.841000	-0.220387	-117.413540
6.550000	-0.223509	-118.171949	-43.376545	41.299378	-43.376545	41.299378	-0.223578	-118.202095
6.600000	-0.226765	-118.958740	-43.226430	39.760546	-43.226430	39.760546	-0.226834	-118.989059
6.650000	-0.230043	-119.745000	-43.078440	38.222645	-43.078440	38.222645	-0.230113	-119.775491
6.700000	-0.233379	-120.529943	-42.931865	36.687241	-42.931865	36.687241	-0.233450	-120.560607
6.750000	-0.236745	-121.314227	-42.787200	35.153086	-42.787200	35.153086	-0.236816	-121.345064
6.800000	-0.240163	-122.097445	-42.644049	33.621128	-42.644049	33.621128	-0.240235	-122.128456
6.850000	-0.243619	-122.879903	-42.502617	32.090739	-42.502617	32.090739	-0.243691	-122.911087
6.900000	-0.247120	-123.661524	-42.362780	30.562238	-42.362780	30.562238	-0.247192	-123.692882
6.950000	-0.250666	-124.442308	-42.224496	29.035627	-42.224496	29.035627	-0.250740	-124.473840
7.000000	-0.254252	-125.222460	-42.087868	27.510594	-42.087868	27.510594	-0.254325	-125.254167
7.050000	-0.257891	-126.001728	-41.952650	25.987768	-41.952650	25.987768	-0.257964	-126.033609
7.100000	-0.261561	-126.780543	-41.819132	24.466205	-41.819132	24.466205	-0.261635	-126.812599
7.150000	-0.265293	-127.558452	-41.686900	22.947166	-41.686900	22.947166	-0.265368	-127.590684
7.200000	-0.269050	-128.336063	-41.556399	21.429073	-41.556399	21.429073	-0.269125	-128.368472
7.250000	-0.272877	-129.112778	-41.427080	19.913817	-41.427080	19.913817	-0.272952	-129.145363
7.300000	-0.276721	-129.889321	-41.299505	18.399189	-41.299505	18.399189	-0.276797	-129.922083
7.350000	-0.280643	-130.665007	-41.173027	16.887706	-41.173027	16.887706	-0.280720	-130.697946
7.400000	-0.284575	-131.440620	-41.048296	15.376535	-41.048296	15.376535	-0.284652	-131.473738
7.450000	-0.288595	-132.215445	-40.924591	13.868810	-40.924591	13.868810	-0.288672	-132.248741
7.500000	-0.292616	-132.990270	-40.802623	12.361084	-40.802623	12.361084	-0.292694	-133.023745
7.550000	-0.296734	-133.764405	-40.681626	10.857096	-40.681626	10.857096	-0.296812	-133.798061
7.600000	-0.300853	-134.538541	-40.562292	9.353108	-40.562292	9.353108	-0.300932	-134.572377
7.650000	-0.305061	-135.312206	-40.443997	7.852523	-40.443997	7.852523	-0.305140	-135.346223
7.700000	-0.309279	-136.085827	-40.327240	6.352248	-40.327240	6.352248	-0.309359	-136.120026
7.750000	-0.313579	-136.859169	-40.211574	4.855042	-40.211574	4.855042	-0.313659	-136.893550
7.800000	-0.317897	-137.632454	-40.097338	3.358449	-40.097338	3.358449	-0.317977	-137.667019
7.850000	-0.322290	-138.405623	-39.984234	1.864594	-39.984234	1.864594	-0.322370	-138.440372
7.900000	-0.326708	-139.178753	-39.872469	0.371650	-39.872469	0.371650	-0.326789	-139.213686
7.950000	-0.331194	-139.951903	-39.761863	-1.118886	-39.761863	-1.118886	-0.331275	-139.987021
8.000000	-0.335714	-140.725062	-39.652519	-2.608218	-39.652519	-2.608218	-0.335795	-140.760367
8.050000	-0.340293	-141.498347	-39.544352	-4.095468	-39.544352	-4.095468	-0.340375	-141.533839
8.100000	-0.344915	-142.271722	-39.437385	-5.581231	-39.437385	-5.581231	-0.344997	-142.307402
8.150000	-0.349588	-143.045300	-39.331598	-7.065232	-39.331598	-7.065232	-0.349671	-143.081168
8.200000	-0.354313	-143.819081	-39.226965	-8.547470	-39.226965	-8.547470	-0.354396	-143.855139
8.250000	-0.359081	-144.593112	-39.123507	-10.028260	-39.123507	-10.028260	-0.359164	-144.629361
8.300000	-0.363909	-145.367493	-39.021169	-11.507022	-39.021169	-11.507022	-0.363992	-145.403933
8.350000	-0.368773	-146.142140	-38.919989	-12.984641	-38.919989	-12.984641	-0.368855	-146.178772
8.400000	-0.373704	-146.917317	-38.819910	-14.459976	-38.819910	-14.459976	-0.373787	-146.954142
8.450000	-0.378663	-147.692744	-38.720963	-15.934467	-38.720963	-15.934467	-0.378746	-147.729763
8.500000	-0.383698	-148.468917	-38.623108	-17.406426	-38.623108	-17.406426	-0.383781	-148.506131
8.550000	-0.388753	-149.245291	-38.526350	-18.877832	-38.526350	-18.877832	-0.388836	-149.282700
8.600000	-0.393892	-150.022663	-38.430690	-20.346469	-38.430690	-20.346469	-0.393975	-150.060270
8.650000	-0.399043	-150.800153	-38.336081	-21.814833	-38.336081	-21.814833	-0.399126	-150.837957
8.700000	-0.404286	-151.578931	-38.242589	-23.280199	-38.242589	-23.280199	-0.404369	-151.616935
8.750000	-0.409533	-152.357710	-38.150092	-24.745566	-38.150092	-24.745566	-0.409615	-152.395912
8.800000	-0.414880	-153.138103	-38.058742	-26.207716	-38.058742	-26.207716	-0.414963	-153.176506
8.850000	-0.420231	-153.918497	-37.968343	-27.669865	-37.968343	-27.669865	-0.420313	-153.957101
8.900000	-0.425674	-154.700566	-37.879095	-29.129112	-37.879095	-29.129112	-0.425756	-154.739373
8.950000	-0.431129	-155.482787	-37.790774	-30.588095	-37.790774	-30.588095	-0.431211	-155.521798
9.000000	-0.436668	-156.266713	-37.703597	-32.044481	-37.703597	-32.044481	-0.436749	-156.305928
9.050000	-0.442226	-157.050979	-37.617337	-33.500347	-37.617337	-33.500347	-0.442307	-157.090400
9.100000	-0.447861	-157.836943	-37.532205	-34.953911	-37.532205	-34.953911	-0.447941	-157.876571
9.150000	-0.453522	-158.623473	-37.447992	-36.406706	-37.447992	-36.406706	-0.453602	-158.663309
9.200000	-0.459251	-159.411662	-37.364880	-37.857483	-37.364880	-37.857483	-0.459330	-159.451706
9.250000	-0.465015	-160.200680	-37.282702	-39.307250	-37.282702	-39.307250	-0.465094	-160.240933
9.300000	-0.470838	-160.991281	-37.201589	-40.755272	-37.201589	-40.755272	-0.470916	-161.031745
9.350000	-0.476704	-161.783013	-37.121437	-42.202048	-37.121437	-42.202048	-0.476781	-161.823688
9.400000	-0.482621	-162.576217	-37.042305	-43.647344	-37.042305	-43.647344	-0.482696	-162.617105
9.450000	-0.488587	-163.370893	-36.964172	-45.091160	-36.964172	-45.091160	-0.488662	-163.411995
9.500000	-0.494596	-164.166894	-36.887004	-46.533753	-36.887004	-46.533753	-0.494670	-164.208210
9.550000	-0.500663	-164.964748	-36.810888	-47.974633	-36.810888	-47.974633	-0.500735	-165.006280
9.600000	-0.506763	-165.763741	-36.735671	-49.414540	-36.735671	-49.414540	-0.506834	-165.805488
9.650000	-0.512927	-166.565010	-36.661570	-50.852501	-36.661570	-50.852501	-0.512996	-166.606976
9.700000	-0.519118	-167.367194	-36.588291	-52.289734	-36.588291	-52.289734	-0.519185	-167.409377
9.750000	-0.525379	-168.172119	-36.516206	-53.724783	-36.516206	-53.724783	-0.525444	-168.214522
9.800000	-0.531658	-168.977694	-36.444857	-55.159346	-36.444857	-55.159346	-0.531722	-169.020317
9.850000	-0.538014	-169.786520	-36.374793	-56.591479	-36.374793	-56.591479	-0.538076	-169.829364
9.900000	-0.544381	-170.595691	-36.305367	-58.023368	-36.305367	-58.023368	-0.544440	-170.638757
9.950000	-0.550828	-171.408664	-36.237329	-59.452570	-36.237329	-59.452570	-0.550886	-171.451953
10.000000	-0.557281	-172.221637	-36.169820	-60.881773	-36.169820	-60.881773	-0.557336	-172.265150
