! freq	dB(S11)	phase(S11)	dB(S12)	phase(S12)	
!     	dB(S21)	phase(S21)	dB(S22)	phase(S22)	
!S-par simulation data
#  GHz  S  DB  R 50
0.000000	-0.000000	-0.000000	-355.484274	180.000000	-355.484274	180.000000	-0.000000	-0.000000
0.050000	-0.000088	-0.839299	-109.085005	76.546588	-109.085005	76.546588	-0.000110	-0.907224
0.100000	-0.000348	-1.678416	-104.515141	71.317743	-104.515141	71.317743	-0.000436	-1.814188
0.150000	-0.000774	-2.517178	-102.096911	70.765678	-102.096911	70.765678	-0.000965	-2.720649
0.200000	-0.001353	-3.355433	-100.348041	71.594182	-100.348041	71.594182	-0.001678	-3.626404
0.250000	-0.002082	-4.193000	-98.949755	72.616677	-98.949755	72.616677	-0.002563	-4.531216
0.300000	-0.002931	-5.029822	-97.791657	73.507254	-97.791657	73.507254	-0.003581	-5.435036
0.350000	-0.003889	-5.865777	-96.825062	74.230074	-96.825062	74.230074	-0.004712	-6.337730
0.400000	-0.004940	-6.700793	-96.018803	74.819446	-96.018803	74.819446	-0.005932	-7.239238
0.450000	-0.006067	-7.534817	-95.351697	75.330719	-95.351697	75.330719	-0.007219	-8.139529
0.500000	-0.007254	-8.367815	-94.808750	75.822308	-94.808750	75.822308	-0.008553	-9.038598
0.550000	-0.008486	-9.199769	-94.379314	76.352729	-94.379314	76.352729	-0.009916	-9.936457
0.600000	-0.009750	-10.030676	-94.055978	76.982521	-94.055978	76.982521	-0.011294	-10.833130
0.650000	-0.011033	-10.860539	-93.833788	77.778035	-93.833788	77.778035	-0.012676	-11.728647
0.700000	-0.012327	-11.689371	-93.709593	78.816438	-93.709593	78.816438	-0.014054	-12.623041
0.750000	-0.013624	-12.517187	-93.681336	80.192058	-93.681336	80.192058	-0.015420	-13.516342
0.800000	-0.014916	-13.344006	-93.747071	82.024471	-93.747071	82.024471	-0.016772	-14.408579
0.850000	-0.016199	-14.169847	-93.903324	84.468525	-93.903324	84.468525	-0.018105	-15.299776
0.900000	-0.017470	-14.994725	-94.142178	87.725280	-94.142178	87.725280	-0.019420	-16.189951
0.950000	-0.018725	-15.818658	-94.446085	92.049312	-94.446085	92.049312	-0.020715	-17.079117
1.000000	-0.019963	-16.641658	-94.779288	97.739076	-94.779288	97.739076	-0.021990	-17.967281
1.050000	-0.021183	-17.463734	-95.076052	105.081382	-95.076052	105.081382	-0.023246	-18.854447
1.100000	-0.022384	-18.284894	-95.231723	114.208634	-95.231723	114.208634	-0.024485	-19.740612
1.150000	-0.023568	-19.105141	-95.114235	124.864070	-95.114235	124.864070	-0.025708	-20.625771
1.200000	-0.024733	-19.924476	-94.615721	136.226434	-94.615721	136.226434	-0.026915	-21.509915
1.250000	-0.025882	-20.742896	-93.721550	147.109059	-93.721550	147.109059	-0.028109	-22.393030
1.300000	-0.027015	-21.560358	-92.506294	156.452877	-92.506294	156.452877	-0.029290	-23.275056
1.350000	-0.028133	-22.376891	-91.125110	163.952735	-91.125110	163.952735	-0.030461	-24.156021
1.400000	-0.029238	-23.192488	-89.687449	169.718570	-89.687449	169.718570	-0.031622	-25.035906
1.450000	-0.030331	-24.007136	-88.261287	174.035010	-88.261287	174.035010	-0.032776	-25.914692
1.500000	-0.031413	-24.820823	-86.881947	177.203921	-86.881947	177.203921	-0.033922	-26.792356
1.550000	-0.032487	-25.633533	-85.564649	179.483402	-85.564649	179.483402	-0.035062	-27.668877
1.600000	-0.033552	-26.445252	-84.313697	-178.923949	-84.313697	-178.923949	-0.036197	-28.544234
1.650000	-0.034610	-27.255962	-83.127954	-177.864551	-83.127954	-177.864551	-0.037329	-29.418404
1.700000	-0.035662	-28.065646	-82.003822	-177.223242	-82.003822	-177.223242	-0.038457	-30.291365
1.750000	-0.036710	-28.874287	-80.936785	-176.913570	-80.936785	-176.913570	-0.039582	-31.163093
1.800000	-0.037754	-29.681866	-79.922171	-176.870164	-79.922171	-176.870164	-0.040706	-32.033566
1.850000	-0.038795	-30.488364	-78.955505	-177.043087	-78.955505	-177.043087	-0.041829	-32.902763
1.900000	-0.039835	-31.293762	-78.032665	-177.393761	-78.032665	-177.393761	-0.042951	-33.770661
1.950000	-0.040874	-32.098041	-77.149923	-177.892032	-77.149923	-177.892032	-0.044073	-34.637237
2.000000	-0.041913	-32.901182	-76.303941	-178.514057	-76.303941	-178.514057	-0.045196	-35.502472
2.050000	-0.042952	-33.703166	-75.491743	-179.240778	-75.491743	-179.240778	-0.046320	-36.366343
2.100000	-0.043993	-34.503974	-74.710683	179.943199	-74.710683	179.943199	-0.047445	-37.228831
2.150000	-0.045035	-35.303586	-73.958400	179.050432	-73.958400	179.050432	-0.048572	-38.089915
2.200000	-0.046080	-36.101985	-73.232793	178.091255	-73.232793	178.091255	-0.049701	-38.949575
2.250000	-0.047129	-36.899153	-72.531981	177.074253	-72.531981	177.074253	-0.050833	-39.807793
2.300000	-0.048180	-37.695070	-71.854277	176.006607	-71.854277	176.006607	-0.051968	-40.664551
2.350000	-0.049236	-38.489720	-71.198167	174.894374	-71.198167	174.894374	-0.053107	-41.519829
2.400000	-0.050297	-39.283085	-70.562284	173.742698	-70.562284	173.742698	-0.054249	-42.373612
2.450000	-0.051362	-40.075149	-69.945391	172.555973	-69.945391	172.555973	-0.055395	-43.225881
2.500000	-0.052433	-40.865894	-69.346369	171.337980	-69.346369	171.337980	-0.056547	-44.076621
2.550000	-0.053510	-41.655246	-68.763237	170.090905	-68.763237	170.090905	-0.057703	-44.925747
2.600000	-0.054592	-42.443247	-68.196124	168.818895	-68.196124	168.818895	-0.058865	-45.773313
2.650000	-0.055682	-43.229882	-67.644168	167.524395	-67.644168	167.524395	-0.060032	-46.619302
2.700000	-0.056778	-44.015137	-67.106577	166.209552	-67.106577	166.209552	-0.061206	-47.463702
2.750000	-0.057881	-44.798997	-66.582624	164.876266	-66.582624	164.876266	-0.062386	-48.306499
2.800000	-0.058991	-45.581448	-66.071639	163.526219	-66.071639	163.526219	-0.063573	-49.147680
2.850000	-0.060109	-46.362478	-65.573004	162.160913	-65.573004	162.160913	-0.064767	-49.987233
2.900000	-0.061235	-47.142074	-65.086144	160.781688	-65.086144	160.781688	-0.065969	-50.825147
2.950000	-0.062369	-47.920224	-64.610530	159.389746	-64.610530	159.389746	-0.067179	-51.661410
3.000000	-0.063512	-48.696916	-64.145665	157.986169	-64.145665	157.986169	-0.068398	-52.496014
3.050000	-0.064663	-49.472140	-63.691090	156.571936	-63.691090	156.571936	-0.069625	-53.328947
3.100000	-0.065824	-50.245885	-63.246376	155.147930	-63.246376	155.147930	-0.070862	-54.160200
3.150000	-0.066994	-51.018141	-62.811119	153.714955	-62.811119	153.714955	-0.072109	-54.989766
3.200000	-0.068173	-51.788898	-62.384944	152.273744	-62.384944	152.273744	-0.073365	-55.817636
3.250000	-0.069362	-52.558148	-61.967498	150.824964	-61.967498	150.824964	-0.074632	-56.643803
3.300000	-0.070562	-53.325881	-61.558447	149.369227	-61.558447	149.369227	-0.075911	-57.468261
3.350000	-0.071772	-54.092091	-61.157481	147.907094	-61.157481	147.907094	-0.077200	-58.291002
3.400000	-0.072993	-54.856768	-60.764303	146.439080	-60.764303	146.439080	-0.078502	-59.112022
3.450000	-0.074225	-55.619908	-60.378636	144.965662	-60.378636	144.965662	-0.079816	-59.931317
3.500000	-0.075468	-56.381502	-60.000217	143.487277	-60.000217	143.487277	-0.081143	-60.748880
3.550000	-0.076724	-57.141545	-59.628797	142.004332	-59.628797	142.004332	-0.082483	-61.564710
3.600000	-0.077991	-57.900032	-59.264139	140.517203	-59.264139	140.517203	-0.083837	-62.378803
3.650000	-0.079271	-58.656957	-58.906020	139.026239	-58.906020	139.026239	-0.085205	-63.191156
3.700000	-0.080563	-59.412316	-58.554227	137.531764	-58.554227	137.531764	-0.086587	-64.001768
3.750000	-0.081868	-60.166104	-58.208556	136.034081	-58.208556	136.034081	-0.087985	-64.810638
3.800000	-0.083188	-60.918250	-57.868498	134.533358	-57.868498	134.533358	-0.089399	-65.617689
3.850000	-0.084522	-61.668818	-57.534208	133.029993	-57.534208	133.029993	-0.090828	-66.422998
3.900000	-0.085869	-62.417805	-57.205509	131.524232	-57.205509	131.524232	-0.092275	-67.226565
3.950000	-0.087232	-63.165211	-56.882231	130.016303	-56.882231	130.016303	-0.093738	-68.028391
4.000000	-0.088609	-63.911032	-56.564213	128.506421	-56.564213	128.506421	-0.095219	-68.828480
4.050000	-0.090002	-64.655267	-56.251299	126.994785	-56.251299	126.994785	-0.096718	-69.626835
4.100000	-0.091411	-65.397916	-55.943340	125.481587	-55.943340	125.481587	-0.098235	-70.423458
4.150000	-0.092836	-66.138977	-55.640193	123.967004	-55.640193	123.967004	-0.099771	-71.218354
4.200000	-0.094283	-66.877899	-55.339787	122.450854	-55.339787	122.450854	-0.101333	-72.010932
4.250000	-0.095740	-67.615993	-55.046623	120.934125	-55.046623	120.934125	-0.102906	-72.802614
4.300000	-0.097218	-68.352157	-54.756688	119.416358	-54.756688	119.416358	-0.104503	-73.592219
4.350000	-0.098712	-69.086941	-54.471736	117.897851	-54.471736	117.897851	-0.106119	-74.380341
4.400000	-0.100225	-69.820073	-54.190723	116.378747	-54.190723	116.378747	-0.107756	-75.166701
4.450000	-0.101758	-70.551554	-53.913564	114.859047	-53.913564	114.859047	-0.109417	-75.951298
4.500000	-0.103307	-71.281662	-53.640960	113.339067	-53.640960	113.339067	-0.111097	-76.734446
4.550000	-0.104881	-72.009849	-53.371198	111.818698	-53.371198	111.818698	-0.112804	-77.515565
4.600000	-0.106469	-72.736943	-53.106524	110.298262	-53.106524	110.298262	-0.114527	-78.295542
4.650000	-0.108086	-73.461850	-52.843779	108.777694	-52.843779	108.777694	-0.116284	-79.073236
4.700000	-0.109715	-74.185940	-52.586587	107.257183	-52.586587	107.257183	-0.118053	-79.850090
4.750000	-0.111377	-74.907583	-52.330490	105.736845	-52.330490	105.736845	-0.119861	-80.624426
4.800000	-0.113047	-75.628685	-52.080355	104.216610	-52.080355	104.216610	-0.121678	-81.398216
4.850000	-0.114757	-76.347084	-51.830544	102.696894	-51.830544	102.696894	-0.123540	-82.169274
4.900000	-0.116471	-77.065214	-51.587060	101.177259	-51.587060	101.177259	-0.125406	-82.940067
4.950000	-0.118230	-77.780392	-51.343173	99.658527	-51.343173	99.658527	-0.127324	-83.707944
5.000000	-0.119990	-78.495570	-51.105947	98.139796	-51.105947	98.139796	-0.129242	-84.475822
5.050000	-0.121793	-79.208038	-50.868759	96.622161	-50.868759	96.622161	-0.131210	-85.241095
5.100000	-0.123616	-79.919287	-50.635051	95.105124	-50.635051	95.105124	-0.133202	-86.005231
5.150000	-0.125461	-80.629316	-50.404703	93.588703	-50.404703	93.588703	-0.135217	-86.768238
5.200000	-0.127339	-81.337389	-50.175876	92.073387	-50.175876	92.073387	-0.137271	-87.529484
5.250000	-0.129243	-82.044027	-49.949637	90.558989	-49.949637	90.558989	-0.139357	-88.289496
5.300000	-0.131169	-82.749466	-49.726416	89.045393	-49.726416	89.045393	-0.141468	-89.048500
5.350000	-0.133126	-83.453206	-49.504916	87.533013	-49.504916	87.533013	-0.143618	-89.806130
5.400000	-0.135116	-84.155306	-49.285057	86.021930	-49.285057	86.021930	-0.145808	-90.562541
5.450000	-0.137128	-84.856227	-49.067797	84.511830	-49.067797	84.511830	-0.148027	-91.318138
5.500000	-0.139169	-85.555704	-48.852349	83.002981	-48.852349	83.002981	-0.150286	-92.072789
5.550000	-0.141247	-86.253346	-48.637360	81.495846	-48.637360	81.495846	-0.152598	-92.826462
5.600000	-0.143351	-86.949832	-48.424354	79.989832	-48.424354	79.989832	-0.154950	-93.579670
5.650000	-0.145479	-87.645123	-48.213116	78.484994	-48.213116	78.484994	-0.157343	-94.332444
5.700000	-0.147652	-88.338393	-48.000480	76.982144	-48.000480	76.982144	-0.159820	-95.084984
5.750000	-0.149850	-89.030533	-47.788679	75.480280	-47.788679	75.480280	-0.162359	-95.837803
5.800000	-0.152074	-89.721543	-47.577571	73.979325	-47.577571	73.979325	-0.164964	-96.591019
5.850000	-0.154340	-90.410704	-47.362879	72.479229	-47.362879	72.479229	-0.167714	-97.345822
5.900000	-0.156638	-91.098583	-47.145331	70.978264	-47.145331	70.978264	-0.170622	-98.103020
5.950000	-0.158962	-91.785354	-46.925134	69.475323	-46.925134	69.475323	-0.173707	-98.862988
6.000000	-0.161324	-92.470513	-46.695892	67.966145	-46.695892	67.966145	-0.177156	-99.628917
6.050000	-0.163723	-93.154180	-46.450616	66.436906	-46.450616	66.436906	-0.181327	-100.405776
6.100000	-0.166147	-93.836723	-46.188040	64.872227	-46.188040	64.872227	-0.186526	-101.195744
6.150000	-0.168603	-94.517819	-45.895058	63.240402	-45.895058	63.240402	-0.193560	-102.007733
6.200000	-0.171076	-95.197377	-45.539327	61.396055	-45.539327	61.396055	-0.205655	-102.863799
6.250000	-0.173493	-95.874775	-45.046785	58.775555	-45.046785	58.775555	-0.234914	-103.810788
6.300000	-0.175205	-96.551388	-44.381992	53.002900	-44.381992	53.002900	-0.330003	-104.813416
6.350000	-0.178262	-97.235785	-45.070230	39.917888	-45.070230	39.917888	-0.497526	-104.364093
6.400000	-0.181308	-97.909377	-46.667145	45.067475	-46.667145	45.067475	-0.322799	-104.261584
6.450000	-0.184081	-98.582347	-46.399330	49.372087	-46.399330	49.372087	-0.249732	-105.226023
6.500000	-0.186837	-99.254460	-46.024114	49.945369	-46.024114	49.945369	-0.228725	-106.128030
6.550000	-0.189615	-99.925514	-45.716984	49.369139	-45.716984	49.369139	-0.221685	-106.959626
6.600000	-0.192421	-100.595564	-45.454911	48.393083	-45.454911	48.393083	-0.219308	-107.754678
6.650000	-0.195266	-101.264415	-45.225489	47.199358	-45.225489	47.199358	-0.219414	-108.524079
6.700000	-0.198162	-101.931750	-45.018425	45.890187	-45.018425	45.890187	-0.220828	-109.275771
6.750000	-0.201076	-102.598574	-44.820701	44.550587	-44.820701	44.550587	-0.222588	-110.022394
6.800000	-0.204037	-103.264080	-44.633511	43.173134	-44.633511	43.173134	-0.224797	-110.761016
6.850000	-0.207031	-103.928645	-44.454563	41.768643	-44.454563	41.768643	-0.227327	-111.493924
6.900000	-0.210068	-104.592116	-44.281434	40.350473	-44.281434	40.350473	-0.230046	-112.222791
6.950000	-0.213145	-105.254493	-44.113851	38.918623	-44.113851	38.918623	-0.232954	-112.947617
7.000000	-0.216258	-105.915992	-43.950162	37.481419	-43.950162	37.481419	-0.235959	-113.670162
7.050000	-0.219420	-106.576261	-43.790490	36.036720	-43.790490	36.036720	-0.239102	-114.389514
7.100000	-0.222611	-107.235858	-43.633842	34.589975	-43.633842	34.589975	-0.242302	-115.107510
7.150000	-0.225859	-107.894109	-43.480249	33.139138	-43.480249	33.139138	-0.245618	-115.822792
7.200000	-0.229128	-108.551878	-43.329263	31.687649	-43.329263	31.687649	-0.248969	-116.537267
7.250000	-0.232462	-109.208204	-43.180675	30.234202	-43.180675	30.234202	-0.252427	-117.249323
7.300000	-0.235812	-109.864225	-43.034486	28.780660	-43.034486	28.780660	-0.255907	-117.960934
7.350000	-0.239233	-110.518724	-42.890223	27.326639	-42.890223	27.326639	-0.259491	-118.670325
7.400000	-0.242663	-111.173079	-42.748252	25.872677	-42.748252	25.872677	-0.263087	-119.379527
7.450000	-0.246173	-111.825856	-42.607857	24.419357	-42.607857	24.419357	-0.266790	-120.086655
7.500000	-0.249684	-112.478633	-42.469695	22.966036	-42.469695	22.966036	-0.270494	-120.793784
7.550000	-0.253284	-113.129798	-42.332840	21.514263	-42.332840	21.514263	-0.274310	-121.498964
7.600000	-0.256885	-113.780962	-42.198108	20.062490	-42.198108	20.062490	-0.278128	-122.204143
7.650000	-0.260567	-114.430753	-42.064624	18.612684	-42.064624	18.612684	-0.282046	-122.907770
7.700000	-0.264259	-115.080419	-41.933089	17.163057	-41.933089	17.163057	-0.285975	-123.611256
7.750000	-0.268025	-115.728937	-41.802786	15.715589	-41.802786	15.715589	-0.289993	-124.313515
7.800000	-0.271808	-116.377225	-41.674265	14.268552	-41.674265	14.268552	-0.294031	-125.015529
7.850000	-0.275660	-117.024575	-41.546983	12.823716	-41.546983	12.823716	-0.298150	-125.716587
7.900000	-0.279536	-117.671612	-41.421332	11.379614	-41.421332	11.379614	-0.302297	-126.417326
7.950000	-0.283474	-118.317903	-41.296936	9.937653	-41.296936	9.937653	-0.306516	-127.117338
8.000000	-0.287444	-118.963822	-41.174034	8.496763	-41.174034	8.496763	-0.310772	-127.816985
8.050000	-0.291469	-119.609168	-41.052407	7.057882	-41.052407	7.057882	-0.315091	-128.516096
8.100000	-0.295534	-120.254107	-40.932150	5.620436	-40.932150	5.620436	-0.319456	-129.214825
8.150000	-0.299648	-120.898629	-40.813187	4.184812	-40.813187	4.184812	-0.323876	-129.913177
8.200000	-0.303811	-121.542734	-40.695488	2.751010	-40.695488	2.751010	-0.328351	-130.611153
8.250000	-0.308015	-122.186555	-40.579096	1.318799	-40.579096	1.318799	-0.332872	-131.308884
8.300000	-0.312276	-122.829979	-40.463876	-0.111185	-40.463876	-0.111185	-0.337457	-132.006270
8.350000	-0.316572	-123.473230	-40.349970	-1.539844	-40.349970	-1.539844	-0.342080	-132.703512
8.400000	-0.320935	-124.116135	-40.237157	-2.965853	-40.237157	-2.965853	-0.346777	-133.400468
8.450000	-0.325324	-124.758952	-40.125660	-4.390834	-40.125660	-4.390834	-0.351502	-134.097356
8.500000	-0.329791	-125.401506	-40.015189	-5.812728	-40.015189	-5.812728	-0.356311	-134.794040
8.550000	-0.334277	-126.044031	-39.906029	-7.233914	-39.906029	-7.233914	-0.361140	-135.490705
8.600000	-0.338850	-126.686411	-39.797841	-8.651563	-39.797841	-8.651563	-0.366061	-136.187276
8.650000	-0.343434	-127.328792	-39.690950	-10.068849	-39.690950	-10.068849	-0.370994	-136.883850
8.700000	-0.348118	-127.971185	-39.584989	-11.482136	-39.584989	-11.482136	-0.376029	-137.580466
8.750000	-0.352804	-128.613578	-39.480304	-12.895423	-39.480304	-12.895423	-0.381067	-138.277083
8.800000	-0.357601	-129.256180	-39.376517	-14.304238	-39.376517	-14.304238	-0.386217	-138.973904
8.850000	-0.362402	-129.898782	-39.273955	-15.713054	-39.273955	-15.713054	-0.391369	-139.670725
8.900000	-0.367309	-130.541763	-39.172316	-17.117680	-39.172316	-17.117680	-0.396624	-140.367882
8.950000	-0.372229	-131.184779	-39.071828	-18.521925	-39.071828	-18.521925	-0.401892	-141.065070
9.000000	-0.377251	-131.828321	-38.972283	-19.922285	-38.972283	-19.922285	-0.407254	-141.762697
9.050000	-0.382295	-132.471967	-38.873824	-21.321869	-38.873824	-21.321869	-0.412638	-142.460413
9.100000	-0.387436	-133.116257	-38.776317	-22.717895	-38.776317	-22.717895	-0.418108	-143.158649
9.150000	-0.392612	-133.760761	-38.679843	-24.112735	-38.679843	-24.112735	-0.423608	-143.857058
9.200000	-0.397879	-134.405996	-38.584324	-25.504364	-38.584324	-25.504364	-0.429186	-144.556040
9.250000	-0.403194	-135.051596	-38.489793	-26.894386	-38.489793	-26.894386	-0.434803	-145.255309
9.300000	-0.408594	-135.697983	-38.396213	-28.281560	-38.396213	-28.281560	-0.440489	-145.955178
9.350000	-0.414056	-136.344930	-38.303584	-29.666699	-38.303584	-29.666699	-0.446225	-146.655475
9.400000	-0.419596	-136.992684	-38.211896	-31.049369	-38.211896	-31.049369	-0.452019	-147.356372
9.450000	-0.425216	-137.641242	-38.121131	-32.429568	-38.121131	-32.429568	-0.457873	-148.057870
9.500000	-0.430906	-138.290588	-38.031289	-33.807689	-38.031289	-33.807689	-0.463777	-148.759940
9.550000	-0.436694	-138.941035	-37.942349	-35.182900	-37.942349	-35.182900	-0.469749	-149.462812
9.600000	-0.442544	-139.592209	-37.854311	-36.556434	-37.854311	-36.556434	-0.475763	-150.166201
9.650000	-0.448514	-140.244835	-37.767159	-37.926617	-37.767159	-37.926617	-0.481854	-150.870625
9.700000	-0.454536	-140.898083	-37.680882	-39.295534	-37.680882	-39.295534	-0.487977	-151.575481
9.750000	-0.460703	-141.553194	-37.595484	-40.660657	-37.595484	-40.660657	-0.494187	-152.281636
9.800000	-0.466909	-142.208773	-37.510929	-42.024933	-37.510929	-42.024933	-0.500419	-152.988110
9.850000	-0.473290	-142.866691	-37.427250	-43.384973	-37.427250	-43.384973	-0.506748	-153.696180
9.900000	-0.479695	-143.524871	-37.344378	-44.744589	-37.344378	-44.744589	-0.513091	-154.404424
9.950000	-0.486310	-144.185933	-37.262385	-46.099534	-37.262385	-46.099534	-0.519538	-155.114594
10.000000	-0.492930	-144.846994	-37.181160	-47.454479	-37.181160	-47.454479	-0.525990	-155.824765
