! freq	dB(S11)	phase(S11)	dB(S12)	phase(S12)	
!     	dB(S21)	phase(S21)	dB(S22)	phase(S22)	
!S-par simulation data
#  GHz  S  DB  R 50
0.000000	-0.000000	0.000000	-363.858169	0.000000	-363.858169	0.000000	-0.000000	0.000000
0.050000	-0.000095	-0.900323	-97.097113	13.289795	-97.097113	13.289795	-0.000129	-0.815154
0.100000	-0.000378	-1.800443	-96.942031	14.196186	-96.942031	14.196186	-0.000507	-1.629928
0.150000	-0.000841	-2.700165	-96.793987	17.567601	-96.793987	17.567601	-0.001109	-2.443991
0.200000	-0.001470	-3.599322	-96.621053	21.313603	-96.621053	21.313603	-0.001899	-3.257099
0.250000	-0.002260	-4.497709	-96.432739	24.973377	-96.432739	24.973377	-0.002847	-4.069016
0.300000	-0.003179	-5.395264	-96.246198	28.409417	-96.246198	28.409417	-0.003898	-4.879767
0.350000	-0.004216	-6.291855	-96.075885	31.574650	-96.075885	31.574650	-0.005024	-5.689291
0.400000	-0.005351	-7.187399	-95.936331	34.472691	-95.936331	34.472691	-0.006197	-6.497621
0.450000	-0.006566	-8.081840	-95.840977	37.135474	-95.840977	37.135474	-0.007393	-7.304816
0.500000	-0.007843	-8.975141	-95.802473	39.613384	-95.802473	39.613384	-0.008597	-8.110947
0.550000	-0.009167	-9.867282	-95.833246	41.971666	-95.833246	41.971666	-0.009797	-8.916087
0.600000	-0.010523	-10.758259	-95.946214	44.291390	-95.946214	44.291390	-0.010987	-9.720301
0.650000	-0.011898	-11.648077	-96.155610	46.674991	-96.155610	46.674991	-0.012162	-10.523645
0.700000	-0.013283	-12.536748	-96.477838	49.257950	-96.477838	49.257950	-0.013322	-11.326161
0.750000	-0.014668	-13.424287	-96.932222	52.230343	-96.932222	52.230343	-0.014465	-12.127882
0.800000	-0.016048	-14.310713	-97.541057	55.875911	-97.541057	55.875911	-0.015594	-12.928828
0.850000	-0.017416	-15.196044	-98.326991	60.642719	-98.326991	60.642719	-0.016709	-13.729010
0.900000	-0.018770	-16.080296	-99.301411	67.264475	-99.301411	67.264475	-0.017812	-14.528435
0.950000	-0.020106	-16.963484	-100.425257	76.915510	-100.425257	76.915510	-0.018905	-15.327099
1.000000	-0.021423	-17.845618	-101.504072	91.131654	-101.504072	91.131654	-0.019989	-16.124997
1.050000	-0.022721	-18.726707	-102.037927	110.638565	-102.037927	110.638565	-0.021064	-16.922118
1.100000	-0.023999	-19.606754	-101.405345	132.742457	-101.405345	132.742457	-0.022134	-17.718450
1.150000	-0.025257	-20.485762	-99.647580	151.661331	-99.647580	151.661331	-0.023197	-18.513977
1.200000	-0.026496	-21.363726	-97.429926	164.771438	-97.429926	164.771438	-0.024256	-19.308683
1.250000	-0.027718	-22.240642	-95.221840	173.232669	-95.221840	173.232669	-0.025310	-20.102552
1.300000	-0.028922	-23.116456	-93.168529	178.623233	-93.168529	178.623233	-0.026361	-20.895526
1.350000	-0.030111	-23.991201	-91.306780	-177.804713	-91.306780	-177.804713	-0.027409	-21.687624
1.400000	-0.031286	-24.864865	-89.616106	-175.424093	-89.616106	-175.424093	-0.028454	-22.478827
1.450000	-0.032448	-25.737433	-88.071025	-173.855518	-88.071025	-173.855518	-0.029496	-23.269116
1.500000	-0.033599	-26.608888	-86.648644	-172.862225	-86.648644	-172.862225	-0.030536	-24.058473
1.550000	-0.034741	-27.479211	-85.330042	-172.291016	-85.330042	-172.291016	-0.031574	-24.846878
1.600000	-0.035874	-28.348385	-84.099962	-172.039166	-84.099962	-172.039166	-0.032610	-25.634314
1.650000	-0.037000	-29.216390	-82.946136	-172.035488	-82.946136	-172.035488	-0.033645	-26.420763
1.700000	-0.038120	-30.083204	-81.858650	-172.229172	-81.858650	-172.229172	-0.034677	-27.206205
1.750000	-0.039236	-30.948806	-80.829420	-172.582986	-80.829420	-172.582986	-0.035709	-27.990624
1.800000	-0.040347	-31.813177	-79.851795	-173.068997	-79.851795	-173.068997	-0.036739	-28.774001
1.850000	-0.041456	-32.676292	-78.920239	-173.665817	-78.920239	-173.665817	-0.037769	-29.556320
1.900000	-0.042563	-33.538133	-78.030109	-174.356758	-78.030109	-174.356758	-0.038797	-30.337563
1.950000	-0.043669	-34.398675	-77.177466	-175.128582	-77.177466	-175.128582	-0.039826	-31.117713
2.000000	-0.044775	-35.257898	-76.358947	-175.970632	-76.358947	-175.970632	-0.040854	-31.896754
2.050000	-0.045881	-36.115781	-75.571654	-176.874213	-75.571654	-176.874213	-0.041881	-32.674670
2.100000	-0.046989	-36.972303	-74.813074	-177.832140	-74.813074	-177.832140	-0.042910	-33.451443
2.150000	-0.048099	-37.827442	-74.081010	-178.838413	-74.081010	-178.838413	-0.043938	-34.227058
2.200000	-0.049211	-38.681178	-73.373531	-179.887968	-73.373531	-179.887968	-0.044968	-35.001500
2.250000	-0.050327	-39.533491	-72.688931	179.023507	-72.688931	179.023507	-0.045999	-35.774752
2.300000	-0.051446	-40.384362	-72.025692	177.899720	-72.025692	177.899720	-0.047031	-36.546800
2.350000	-0.052569	-41.233772	-71.382461	176.743881	-71.382461	176.743881	-0.048065	-37.317629
2.400000	-0.053697	-42.081701	-70.758021	175.558792	-70.758021	175.558792	-0.049102	-38.087224
2.450000	-0.054830	-42.928133	-70.151276	174.346916	-70.151276	174.346916	-0.050141	-38.855571
2.500000	-0.055968	-43.773050	-69.561235	173.110432	-69.561235	173.110432	-0.051183	-39.622655
2.550000	-0.057113	-44.616367	-68.986042	171.850374	-68.986042	171.850374	-0.052229	-40.388406
2.600000	-0.058264	-45.458134	-68.425929	170.569524	-68.425929	170.569524	-0.053279	-41.152865
2.650000	-0.059421	-46.298336	-67.880137	169.269425	-67.880137	169.269425	-0.054333	-41.916021
2.700000	-0.060586	-47.136958	-67.347970	167.951472	-67.347970	167.951472	-0.055392	-42.677858
2.750000	-0.061757	-47.973985	-66.828785	166.616940	-66.828785	166.616940	-0.056455	-43.438365
2.800000	-0.062937	-48.809404	-66.321991	165.266990	-66.321991	165.266990	-0.057525	-44.197529
2.850000	-0.064125	-49.643202	-65.827043	163.902692	-65.827043	163.902692	-0.058600	-44.955339
2.900000	-0.065320	-50.475366	-65.343432	162.525029	-65.343432	162.525029	-0.059682	-45.711782
2.950000	-0.066525	-51.305885	-64.870688	161.134912	-64.870688	161.134912	-0.060770	-46.466848
3.000000	-0.067738	-52.134748	-64.408371	159.733186	-64.408371	159.733186	-0.061866	-47.220524
3.050000	-0.068961	-52.961943	-63.956070	158.320637	-63.956070	158.320637	-0.062969	-47.972801
3.100000	-0.070194	-53.787462	-63.513402	156.898000	-63.513402	156.898000	-0.064080	-48.723667
3.150000	-0.071436	-54.611295	-63.080007	155.465962	-63.080007	155.465962	-0.065201	-49.473114
3.200000	-0.072689	-55.433434	-62.655545	154.025169	-62.655545	154.025169	-0.066329	-50.221131
3.250000	-0.073952	-56.253870	-62.239697	152.576227	-62.239697	152.576227	-0.067468	-50.967710
3.300000	-0.075227	-57.072596	-61.832163	151.119707	-61.832163	151.119707	-0.068616	-51.712840
3.350000	-0.076512	-57.889606	-61.432657	149.656148	-61.432657	149.656148	-0.069774	-52.456514
3.400000	-0.077810	-58.704893	-61.040910	148.186061	-61.040910	148.186061	-0.070944	-53.198724
3.450000	-0.079119	-59.518452	-60.656667	146.709927	-60.656667	146.709927	-0.072124	-53.939462
3.500000	-0.080441	-60.330279	-60.279683	145.228203	-60.279683	145.228203	-0.073316	-54.678720
3.550000	-0.081775	-61.140368	-59.909729	143.741321	-59.909729	143.741321	-0.074519	-55.416492
3.600000	-0.083123	-61.948717	-59.546582	142.249693	-59.546582	142.249693	-0.075735	-56.152771
3.650000	-0.084485	-62.755321	-59.190034	140.753709	-59.190034	140.753709	-0.076964	-56.887550
3.700000	-0.085860	-63.560179	-58.839882	139.253736	-58.839882	139.253736	-0.078206	-57.620824
3.750000	-0.087250	-64.363289	-58.495934	137.750128	-58.495934	137.750128	-0.079462	-58.352588
3.800000	-0.088655	-65.164573	-58.157698	136.243088	-58.157698	136.243088	-0.080732	-59.082771
3.850000	-0.090075	-65.964107	-57.825328	134.733088	-57.825328	134.733088	-0.082016	-59.811433
3.900000	-0.091511	-66.761890	-57.498653	133.220425	-57.498653	133.220425	-0.083316	-60.538570
3.950000	-0.092963	-67.557922	-57.177507	131.705381	-57.177507	131.705381	-0.084631	-61.264179
4.000000	-0.094432	-68.352205	-56.861732	130.188223	-56.861732	130.188223	-0.085961	-61.988256
4.050000	-0.095918	-69.144740	-56.551175	128.669204	-56.551175	128.669204	-0.087308	-62.710799
4.100000	-0.097421	-69.935529	-56.245689	127.148562	-56.245689	127.148562	-0.088671	-63.431805
4.150000	-0.098942	-70.724574	-55.945132	125.626522	-55.945132	125.626522	-0.090051	-64.151271
4.200000	-0.100488	-71.511276	-55.647542	124.102978	-55.647542	124.102978	-0.091454	-64.868660
4.250000	-0.102043	-72.297070	-55.357160	122.578886	-55.357160	122.578886	-0.092866	-65.585244
4.300000	-0.103623	-73.080757	-55.070201	121.053909	-55.070201	121.053909	-0.094301	-66.299949
4.350000	-0.105219	-73.862938	-54.788292	119.528300	-54.788292	119.528300	-0.095751	-67.013311
4.400000	-0.106837	-74.643324	-54.510461	118.002291	-54.510461	118.002291	-0.097221	-67.725063
4.450000	-0.108476	-75.421914	-54.236608	116.475884	-54.236608	116.475884	-0.098711	-68.435203
4.500000	-0.110135	-76.199019	-53.967391	114.949402	-53.967391	114.949402	-0.100219	-69.144001
4.550000	-0.111819	-76.974044	-53.701198	113.422816	-53.701198	113.422816	-0.101750	-69.850921
4.600000	-0.113519	-77.747892	-53.440118	111.896347	-53.440118	111.896347	-0.103296	-70.556770
4.650000	-0.115250	-78.519383	-53.181212	110.370112	-53.181212	110.370112	-0.104870	-71.260476
4.700000	-0.116994	-79.289998	-52.927824	108.844075	-52.927824	108.844075	-0.106456	-71.963381
4.750000	-0.118774	-80.057989	-52.675854	107.318633	-52.675854	107.318633	-0.108075	-72.663883
4.800000	-0.120564	-80.825404	-52.429745	105.793383	-52.429745	105.793383	-0.109702	-73.363853
4.850000	-0.122396	-81.589934	-52.184378	104.269098	-52.184378	104.269098	-0.111368	-74.061162
4.900000	-0.124233	-82.354179	-51.945165	102.744934	-51.945165	102.744934	-0.113038	-74.758207
4.950000	-0.126118	-83.115290	-51.706087	101.222100	-51.706087	101.222100	-0.114751	-75.452341
5.000000	-0.128004	-83.876402	-51.473414	99.699266	-51.473414	99.699266	-0.116465	-76.146475
5.050000	-0.129946	-84.634142	-51.240332	98.178111	-51.240332	98.178111	-0.118228	-76.837452
5.100000	-0.131888	-85.391882	-51.013341	96.656956	-51.013341	96.656956	-0.119992	-77.528429
5.150000	-0.133882	-86.146578	-50.786502	95.137498	-50.786502	95.137498	-0.121803	-78.216533
5.200000	-0.135882	-86.900997	-50.564939	93.618194	-50.564939	93.618194	-0.123618	-78.904376
5.250000	-0.137932	-87.652693	-50.344032	92.100533	-50.344032	92.100533	-0.125477	-79.589628
5.300000	-0.139992	-88.403846	-50.127658	90.583202	-50.127658	90.583202	-0.127345	-80.274362
5.350000	-0.142098	-89.152591	-49.912395	89.067408	-49.912395	89.067408	-0.129254	-80.956785
5.400000	-0.144220	-89.900535	-49.700988	87.552127	-49.700988	87.552127	-0.131177	-81.638437
5.450000	-0.146385	-90.646381	-49.491099	86.038241	-49.491099	86.038241	-0.133137	-82.318057
5.500000	-0.148572	-91.391178	-49.284452	84.525053	-49.284452	84.525053	-0.135116	-82.996660
5.550000	-0.150797	-92.134177	-49.079692	83.013095	-49.079692	83.013095	-0.137129	-83.673504
5.600000	-0.153050	-92.875893	-48.877613	81.502014	-48.877613	81.502014	-0.139167	-84.349091
5.650000	-0.155336	-93.616102	-48.677753	79.991982	-48.677753	79.991982	-0.141234	-85.023189
5.700000	-0.157657	-94.354805	-48.480066	78.483000	-48.480066	78.483000	-0.143332	-85.695797
5.750000	-0.160008	-95.092283	-48.284897	76.974883	-48.284897	76.974883	-0.145455	-86.367180
5.800000	-0.162399	-95.828046	-48.091440	75.467976	-48.091440	75.467976	-0.147613	-87.036848
5.850000	-0.164815	-96.562855	-47.900768	73.961751	-47.900768	73.961751	-0.149793	-87.705550
5.900000	-0.167278	-97.295754	-47.711393	72.456890	-47.711393	72.456890	-0.152016	-88.372319
5.950000	-0.169760	-98.027957	-47.525042	70.952531	-47.525042	70.952531	-0.154254	-89.038376
6.000000	-0.172298	-98.758071	-47.339616	69.449682	-47.339616	69.449682	-0.156541	-89.702291
6.050000	-0.174848	-99.487736	-47.157422	67.947163	-47.157422	67.947163	-0.158840	-90.365739
6.100000	-0.177461	-100.215149	-46.975824	66.446297	-46.975824	66.446297	-0.161194	-91.026848
6.150000	-0.180081	-100.942344	-46.797640	64.945595	-46.797640	64.945595	-0.163554	-91.687726
6.200000	-0.182771	-101.667142	-46.619761	63.446696	-46.619761	63.446696	-0.165976	-92.346075
6.250000	-0.185462	-102.391940	-46.445452	61.947798	-46.445452	61.947798	-0.168399	-93.004425
6.300000	-0.188231	-103.114213	-46.271197	60.450865	-46.271197	60.450865	-0.170892	-93.660067
6.350000	-0.191001	-103.836486	-46.100369	58.953932	-46.100369	58.953932	-0.173385	-94.315709
6.400000	-0.193845	-104.556530	-45.929922	57.458821	-45.929922	57.458821	-0.175944	-94.968917
6.450000	-0.196695	-105.276371	-45.762497	55.963876	-45.762497	55.963876	-0.178509	-95.621904
6.500000	-0.199614	-105.994266	-45.595751	54.470627	-45.595751	54.470627	-0.181136	-96.272725
6.550000	-0.202546	-106.711772	-45.431659	52.977717	-45.431659	52.977717	-0.183775	-96.923113
6.600000	-0.205541	-107.427602	-45.268518	51.486394	-45.268518	51.486394	-0.186471	-97.571594
6.650000	-0.208558	-108.142873	-45.107700	49.995600	-45.107700	49.995600	-0.189187	-98.219439
6.700000	-0.211630	-108.856723	-44.948073	48.506292	-44.948073	48.506292	-0.191953	-98.865629
6.750000	-0.214731	-109.569863	-44.790477	47.017728	-44.790477	47.017728	-0.194746	-99.510991
6.800000	-0.217883	-110.281822	-44.634286	45.530555	-44.634286	45.530555	-0.197585	-100.154939
6.850000	-0.221070	-110.992938	-44.479868	44.044376	-44.479868	44.044376	-0.200458	-100.797878
6.900000	-0.224301	-111.703098	-44.327038	42.559488	-44.327038	42.559488	-0.203371	-101.439637
6.950000	-0.227576	-112.412301	-44.175761	41.075890	-44.175761	41.075890	-0.206325	-102.080215
7.000000	-0.230888	-113.120754	-44.026226	39.593469	-44.026226	39.593469	-0.209313	-102.719836
7.050000	-0.234252	-113.828158	-43.878056	38.112694	-43.878056	38.112694	-0.212351	-103.358118
7.100000	-0.237645	-114.535002	-43.731755	36.632956	-43.731755	36.632956	-0.215417	-103.995656
7.150000	-0.241099	-115.240725	-43.586665	35.155291	-43.586665	35.155291	-0.218539	-104.631707
7.200000	-0.244576	-115.946059	-43.443541	33.678487	-43.443541	33.678487	-0.221685	-105.267217
7.250000	-0.248120	-116.650222	-43.301505	32.204266	-43.301505	32.204266	-0.224894	-105.901104
7.300000	-0.251681	-117.354147	-43.161505	30.730683	-43.161505	30.730683	-0.228120	-106.534642
7.350000	-0.255317	-118.056877	-43.022499	29.260288	-43.022499	29.260288	-0.231419	-107.166433
7.400000	-0.258962	-118.759498	-42.885573	27.790247	-42.885573	27.790247	-0.234727	-107.798056
7.450000	-0.262691	-119.460924	-42.749576	26.324107	-42.749576	26.324107	-0.238118	-108.427822
7.500000	-0.266422	-120.162349	-42.615676	24.857967	-42.615676	24.857967	-0.241510	-109.057587
7.550000	-0.270246	-120.862602	-42.482665	23.396555	-42.482665	23.396555	-0.244994	-109.685398
7.600000	-0.274070	-121.562855	-42.351660	21.935143	-42.351660	21.935143	-0.248480	-110.313210
7.650000	-0.277981	-122.262159	-42.221695	20.478541	-42.221695	20.478541	-0.252052	-110.939295
7.700000	-0.281901	-122.961377	-42.093564	19.022377	-42.093564	19.022377	-0.255633	-111.565224
7.750000	-0.285900	-123.659850	-41.966593	17.571049	-41.966593	17.571049	-0.259295	-112.189645
7.800000	-0.289915	-124.358173	-41.841313	16.120690	-41.841313	16.120690	-0.262974	-112.813765
7.850000	-0.294003	-125.055935	-41.717284	14.675132	-41.717284	14.675132	-0.266727	-113.436584
7.900000	-0.298116	-125.753509	-41.594827	13.231173	-41.594827	13.231173	-0.270506	-114.058969
7.950000	-0.302293	-126.450683	-41.473686	11.791903	-41.473686	11.791903	-0.274353	-114.680249
8.000000	-0.306503	-127.147657	-41.354022	10.354975	-41.354022	10.354975	-0.278234	-115.300975
8.050000	-0.310770	-127.844370	-41.235713	8.922533	-41.235713	8.922533	-0.282176	-115.920779
8.100000	-0.315079	-128.540896	-41.118805	7.493294	-41.118805	7.493294	-0.286161	-116.539923
8.150000	-0.319438	-129.237278	-41.003269	6.068240	-41.003269	6.068240	-0.290200	-117.158315
8.200000	-0.323846	-129.933515	-40.889074	4.647371	-40.889074	4.647371	-0.294292	-117.775954
8.250000	-0.328297	-130.629699	-40.776251	3.230281	-40.776251	3.230281	-0.298430	-118.392999
8.300000	-0.332805	-131.325809	-40.664721	1.818480	-40.664721	1.818480	-0.302631	-119.009211
8.350000	-0.337348	-132.021932	-40.554544	0.409940	-40.554544	0.409940	-0.306870	-119.624975
8.400000	-0.341958	-132.718081	-40.445624	-0.992080	-40.445624	-0.992080	-0.311182	-120.239840
8.450000	-0.346595	-133.414282	-40.338024	-2.391476	-40.338024	-2.391476	-0.315524	-120.854388
8.500000	-0.351307	-134.110642	-40.231653	-3.782999	-40.231653	-3.782999	-0.319950	-121.467986
8.550000	-0.356037	-134.807066	-40.126557	-5.172654	-40.126557	-5.172654	-0.324397	-122.081386
8.600000	-0.360852	-135.503812	-40.022663	-6.552963	-40.022663	-6.552963	-0.328939	-122.693797
8.650000	-0.365678	-136.200606	-39.919995	-7.932280	-39.919995	-7.932280	-0.333493	-123.306116
8.700000	-0.370597	-136.897921	-39.818502	-9.300665	-39.818502	-9.300665	-0.338154	-123.917421
8.750000	-0.375518	-137.595236	-39.718181	-10.669051	-39.718181	-10.669051	-0.342817	-124.528726
8.800000	-0.380542	-138.293305	-39.619003	-12.024813	-39.619003	-12.024813	-0.347599	-125.139008
8.850000	-0.385568	-138.991374	-39.520945	-13.380576	-39.520945	-13.380576	-0.352383	-125.749289
8.900000	-0.390690	-139.690310	-39.423990	-14.724144	-39.423990	-14.724144	-0.357278	-126.358708
8.950000	-0.395822	-140.389325	-39.328107	-16.066604	-39.328107	-16.066604	-0.362186	-126.968048
9.000000	-0.401042	-141.089293	-39.233276	-17.397428	-39.233276	-17.397428	-0.367197	-127.576673
9.050000	-0.406282	-141.789452	-39.139470	-18.725926	-39.139470	-18.725926	-0.372231	-128.185156
9.100000	-0.411601	-142.490619	-39.046661	-20.043479	-39.046661	-20.043479	-0.377360	-128.793057
9.150000	-0.416949	-143.192124	-38.954830	-21.357385	-38.954830	-21.357385	-0.382522	-129.400764
9.200000	-0.422369	-143.894664	-38.863937	-22.661163	-38.863937	-22.661163	-0.387772	-130.008012
9.250000	-0.427826	-144.597723	-38.773973	-23.959877	-38.773973	-23.959877	-0.393066	-130.615028
9.300000	-0.433348	-145.301813	-38.684887	-25.249401	-38.684887	-25.249401	-0.398437	-131.221692
9.350000	-0.438916	-146.006641	-38.596674	-26.532361	-38.596674	-26.532361	-0.403865	-131.828103
9.400000	-0.444540	-146.712463	-38.509285	-27.807180	-38.509285	-27.807180	-0.409361	-132.434253
9.450000	-0.450220	-147.419280	-38.422704	-29.073859	-38.422704	-29.073859	-0.414926	-133.040142
9.500000	-0.455948	-148.127020	-38.336899	-30.333553	-38.336899	-30.333553	-0.420549	-133.645850
9.550000	-0.461742	-148.836054	-38.251824	-31.583467	-38.251824	-31.583467	-0.426253	-134.251303
9.600000	-0.467575	-149.545904	-38.167487	-32.827645	-38.167487	-32.827645	-0.432006	-134.856639
9.650000	-0.473483	-150.257388	-38.083789	-34.060351	-38.083789	-34.060351	-0.437852	-135.461741
9.700000	-0.479423	-150.969544	-38.000805	-35.288654	-38.000805	-35.288654	-0.443736	-136.066777
9.750000	-0.485449	-151.683718	-37.918352	-36.503752	-37.918352	-36.503752	-0.449727	-136.671614
9.800000	-0.491496	-152.398382	-37.836602	-37.715856	-37.836602	-37.715856	-0.455745	-137.276421
9.850000	-0.497640	-153.115495	-37.755259	-38.912989	-37.755259	-38.912989	-0.461884	-137.881079
9.900000	-0.503797	-153.832873	-37.674626	-40.108599	-37.674626	-40.108599	-0.468038	-138.485729
9.950000	-0.510061	-154.553179	-37.594254	-41.287456	-37.594254	-41.287456	-0.474327	-139.090294
10.000000	-0.516330	-155.273484	-37.514619	-42.466312	-37.514619	-42.466312	-0.480621	-139.694858
