! freq	dB(S11)	phase(S11)	dB(S12)	phase(S12)	
!     	dB(S21)	phase(S21)	dB(S22)	phase(S22)	
!S-par simulation data
#  GHz  S  DB  R 50
0.000000	0.000000	-0.000000	-291.595211	180.000000	-291.595211	180.000000	0.000000	0.000000
0.050000	-0.000126	-0.953625	-93.316292	11.117791	-93.316292	11.117791	-0.000124	-1.031509
0.100000	-0.000499	-1.906929	-93.188114	13.052952	-93.188114	13.052952	-0.000491	-2.062723
0.150000	-0.001102	-2.859618	-93.039191	16.764729	-93.039191	16.764729	-0.001088	-3.093368
0.200000	-0.001909	-3.811452	-92.857871	20.682666	-92.857871	20.682666	-0.001895	-4.123209
0.250000	-0.002901	-4.762166	-92.654965	24.450147	-92.654965	24.450147	-0.002898	-5.151973
0.300000	-0.004030	-5.711718	-92.447811	27.969678	-92.447811	27.969678	-0.004053	-6.179594
0.350000	-0.005273	-6.659980	-92.249710	31.204942	-92.249710	31.204942	-0.005341	-7.205910
0.400000	-0.006600	-7.606910	-92.074014	34.164658	-92.074014	34.164658	-0.006733	-8.230839
0.450000	-0.007984	-8.552501	-91.932674	36.881380	-91.932674	36.881380	-0.008206	-9.254334
0.500000	-0.009404	-9.496772	-91.836444	39.403009	-91.836444	39.403009	-0.009734	-10.276376
0.550000	-0.010842	-10.439762	-91.795254	41.789107	-91.795254	41.789107	-0.011298	-11.296969
0.600000	-0.012284	-11.381514	-91.818686	44.110557	-91.818686	44.110557	-0.012881	-12.316131
0.650000	-0.013721	-12.322075	-91.916433	46.452223	-91.916433	46.452223	-0.014470	-13.333887
0.700000	-0.015144	-13.261490	-92.098698	48.918979	-92.098698	48.918979	-0.016054	-14.350269
0.750000	-0.016550	-14.199797	-92.376398	51.646262	-92.376398	51.646262	-0.017625	-15.365308
0.800000	-0.017936	-15.137028	-92.760869	54.817393	-92.760869	54.817393	-0.019178	-16.379033
0.850000	-0.019301	-16.073209	-93.262335	58.691091	-93.262335	58.691091	-0.020708	-17.391469
0.900000	-0.020645	-17.008356	-93.885289	63.642727	-93.885289	63.642727	-0.022214	-18.402635
0.950000	-0.021968	-17.942479	-94.616557	70.215389	-94.616557	70.215389	-0.023695	-19.412546
1.000000	-0.023273	-18.875581	-95.397841	79.139612	-95.397841	79.139612	-0.025151	-20.421209
1.050000	-0.024559	-19.807661	-96.075999	91.171539	-96.075999	91.171539	-0.026583	-21.428628
1.100000	-0.025830	-20.738712	-96.363167	106.469339	-96.363167	106.469339	-0.027992	-22.434799
1.150000	-0.027085	-21.668722	-95.939536	123.568917	-95.939536	123.568917	-0.029380	-23.439716
1.200000	-0.028329	-22.597679	-94.750007	139.497614	-94.750007	139.497614	-0.030747	-24.443367
1.250000	-0.029560	-23.525563	-93.078062	152.094175	-93.078062	152.094175	-0.032097	-25.445736
1.300000	-0.030782	-24.452309	-91.232749	161.066539	-91.232749	161.066539	-0.033430	-26.446750
1.350000	-0.031995	-25.377943	-89.423273	167.371050	-89.423273	167.371050	-0.034749	-27.446442
1.400000	-0.033201	-26.302441	-87.716799	171.779746	-87.716799	171.779746	-0.036055	-28.444790
1.450000	-0.034401	-27.225782	-86.128820	174.857867	-86.128820	174.857867	-0.037351	-29.441770
1.500000	-0.035596	-28.147943	-84.654815	176.990082	-84.654815	176.990082	-0.038638	-30.437357
1.550000	-0.036787	-29.068899	-83.283913	178.434668	-83.283913	178.434668	-0.039917	-31.431523
1.600000	-0.037974	-29.988627	-82.004219	179.366830	-82.004219	179.366830	-0.041190	-32.424244
1.650000	-0.039159	-30.907104	-80.804707	179.907782	-80.804707	179.907782	-0.042458	-33.415491
1.700000	-0.040341	-31.824306	-79.675738	-179.856690	-79.675738	-179.856690	-0.043722	-34.405238
1.750000	-0.041522	-32.740210	-78.609088	-179.864483	-78.609088	-179.864483	-0.044984	-35.393457
1.800000	-0.042702	-33.654792	-77.597791	179.930344	-77.597791	179.930344	-0.046243	-36.380122
1.850000	-0.043882	-34.568032	-76.635953	179.562468	-76.635953	179.562468	-0.047502	-37.365207
1.900000	-0.045062	-35.479907	-75.718572	179.058544	-75.718572	179.058544	-0.048760	-38.348684
1.950000	-0.046242	-36.390395	-74.841380	178.439413	-74.841380	178.439413	-0.050019	-39.330530
2.000000	-0.047423	-37.299475	-74.000720	177.721615	-74.000720	177.721615	-0.051280	-40.310720
2.050000	-0.048605	-38.207127	-73.193435	176.918469	-73.193435	176.918469	-0.052542	-41.289228
2.100000	-0.049788	-39.113332	-72.416785	176.040832	-72.416785	176.040832	-0.053807	-42.266033
2.150000	-0.050974	-40.018071	-71.668379	175.097663	-71.668379	175.097663	-0.055074	-43.241111
2.200000	-0.052162	-40.921324	-70.946119	174.096435	-70.946119	174.096435	-0.056345	-44.214442
2.250000	-0.053353	-41.823074	-70.248151	173.043441	-70.248151	173.043441	-0.057620	-45.186005
2.300000	-0.054547	-42.723304	-69.572833	171.944035	-69.572833	171.944035	-0.058899	-46.155779
2.350000	-0.055745	-43.621996	-68.918701	170.802810	-68.918701	170.802810	-0.060184	-47.123746
2.400000	-0.056947	-44.519136	-68.284444	169.623736	-68.284444	169.623736	-0.061473	-48.089889
2.450000	-0.058152	-45.414708	-67.668882	168.410274	-67.668882	168.410274	-0.062768	-49.054190
2.500000	-0.059363	-46.308696	-67.070953	167.165462	-67.070953	167.165462	-0.064069	-50.016634
2.550000	-0.060579	-47.201018	-66.488733	165.890849	-66.488733	165.890849	-0.065377	-50.977122
2.600000	-0.061801	-48.091728	-65.922407	164.590147	-65.922407	164.590147	-0.066691	-51.935724
2.650000	-0.063028	-48.980813	-65.371165	163.265463	-65.371165	163.265463	-0.068013	-52.892424
2.700000	-0.064262	-49.868263	-64.834265	161.918691	-64.834265	161.918691	-0.069342	-53.847212
2.750000	-0.065503	-50.754065	-64.311025	160.551551	-64.311025	160.551551	-0.070680	-54.800077
2.800000	-0.066751	-51.638208	-63.800817	159.165603	-63.800817	159.165603	-0.072026	-55.751008
2.850000	-0.068007	-52.520683	-63.303061	157.762275	-63.303061	157.762275	-0.073380	-56.699997
2.900000	-0.069271	-53.401480	-62.817220	156.342878	-62.817220	156.342878	-0.074744	-57.647035
2.950000	-0.070544	-54.280591	-62.342794	154.908617	-62.342794	154.908617	-0.076117	-58.592116
3.000000	-0.071826	-55.158007	-61.879319	153.460608	-61.879319	153.460608	-0.077501	-59.535232
3.050000	-0.073118	-56.033721	-61.426361	151.999884	-61.426361	151.999884	-0.078895	-60.476380
3.100000	-0.074420	-56.907726	-60.983513	150.527407	-60.983513	150.527407	-0.080300	-61.415554
3.150000	-0.075733	-57.780016	-60.550393	149.044072	-60.550393	149.044072	-0.081716	-62.352751
3.200000	-0.077056	-58.650585	-60.126644	147.550717	-60.126644	147.550717	-0.083144	-63.287969
3.250000	-0.078392	-59.519430	-59.711927	146.048126	-59.711927	146.048126	-0.084585	-64.221206
3.300000	-0.079739	-60.386545	-59.305924	144.537033	-59.305924	144.537033	-0.086038	-65.152462
3.350000	-0.081099	-61.251926	-58.908333	143.018129	-58.908333	143.018129	-0.087505	-66.081735
3.400000	-0.082472	-62.115573	-58.518866	141.492062	-58.518866	141.492062	-0.088985	-67.009028
3.450000	-0.083859	-62.977481	-58.137253	139.959444	-58.137253	139.959444	-0.090480	-67.934343
3.500000	-0.085260	-63.837649	-57.763235	138.420850	-57.763235	138.420850	-0.091990	-68.857682
3.550000	-0.086676	-64.696078	-57.396565	136.876820	-57.396565	136.876820	-0.093515	-69.779048
3.600000	-0.088107	-65.552766	-57.037008	135.327866	-57.037008	135.327866	-0.095056	-70.698447
3.650000	-0.089553	-66.407713	-56.684340	133.774468	-56.684340	133.774468	-0.096614	-71.615883
3.700000	-0.091016	-67.260922	-56.338344	132.217078	-56.338344	132.217078	-0.098188	-72.531362
3.750000	-0.092496	-68.112393	-55.998816	130.656123	-55.998816	130.656123	-0.099781	-73.444892
3.800000	-0.093993	-68.962054	-55.665275	129.091884	-55.665275	129.091884	-0.101392	-74.356396
3.850000	-0.095508	-69.809984	-55.337838	127.524889	-55.337838	127.524889	-0.103021	-75.265967
3.900000	-0.097042	-70.656185	-55.016318	125.955487	-55.016318	125.955487	-0.104671	-76.173616
3.950000	-0.098594	-71.500664	-54.700540	124.384008	-54.700540	124.384008	-0.106339	-77.079351
4.000000	-0.100166	-72.343424	-54.390331	122.810758	-54.390331	122.810758	-0.108029	-77.983184
4.050000	-0.101757	-73.184472	-54.085528	121.236023	-54.085528	121.236023	-0.109739	-78.885127
4.100000	-0.103369	-74.023814	-53.785972	119.660071	-53.785972	119.660071	-0.111471	-79.785193
4.150000	-0.105002	-74.861457	-53.491511	118.083150	-53.491511	118.083150	-0.113225	-80.683393
4.200000	-0.106656	-75.697408	-53.201996	116.505490	-53.201996	116.505490	-0.115002	-81.579743
4.250000	-0.108331	-76.531676	-52.917286	114.927304	-52.917286	114.927304	-0.116802	-82.474258
4.300000	-0.110029	-77.364270	-52.637242	113.348787	-52.637242	113.348787	-0.118626	-83.366951
4.350000	-0.111750	-78.195200	-52.361734	111.770120	-52.361734	111.770120	-0.120474	-84.257841
4.400000	-0.113494	-79.024474	-52.090631	110.191466	-52.090631	110.191466	-0.122347	-85.146943
4.450000	-0.115262	-79.852106	-51.823812	108.612976	-51.823812	108.612976	-0.124246	-86.034275
4.500000	-0.117054	-80.678105	-51.561156	107.034785	-51.561156	107.034785	-0.126171	-86.919856
4.550000	-0.118871	-81.502484	-51.302548	105.457014	-51.302548	105.457014	-0.128122	-87.803704
4.600000	-0.120714	-82.325255	-51.047876	103.879772	-51.047876	103.879772	-0.130101	-88.685839
4.650000	-0.122582	-83.146433	-50.797034	102.303157	-50.797034	102.303157	-0.132107	-89.566282
4.700000	-0.124476	-83.966031	-50.549918	100.727252	-50.549918	100.727252	-0.134142	-90.445053
4.750000	-0.126397	-84.784062	-50.306427	99.152133	-50.306427	99.152133	-0.136205	-91.322175
4.800000	-0.128345	-85.600544	-50.066465	97.577860	-50.066465	97.577860	-0.138298	-92.197670
4.850000	-0.130321	-86.415491	-49.829938	96.004490	-49.829938	96.004490	-0.140421	-93.071560
4.900000	-0.132324	-87.228920	-49.596757	94.432064	-49.596757	94.432064	-0.142574	-93.943871
4.950000	-0.134357	-88.040848	-49.366836	92.860619	-49.366836	92.860619	-0.144758	-94.814625
5.000000	-0.136418	-88.851292	-49.140091	91.290182	-49.140091	91.290182	-0.146973	-95.683848
5.050000	-0.138511	-89.660208	-48.916327	89.720819	-48.916327	89.720819	-0.149222	-96.551502
5.100000	-0.140633	-90.467680	-48.695587	88.152496	-48.695587	88.152496	-0.151503	-97.417680
5.150000	-0.142786	-91.273727	-48.477799	86.585220	-48.477799	86.585220	-0.153817	-98.282409
5.200000	-0.144970	-92.078370	-48.262891	85.018991	-48.262891	85.018991	-0.156164	-99.145716
5.250000	-0.147185	-92.881628	-48.050793	83.453804	-48.050793	83.453804	-0.158545	-100.007630
5.300000	-0.149432	-93.683525	-47.841439	81.889648	-47.841439	81.889648	-0.160961	-100.868180
5.350000	-0.151712	-94.484081	-47.634768	80.326511	-47.634768	80.326511	-0.163411	-101.727396
5.400000	-0.154024	-95.283319	-47.430717	78.764374	-47.430717	78.764374	-0.165897	-102.585308
5.450000	-0.156370	-96.081264	-47.229229	77.203218	-47.229229	77.203218	-0.168418	-103.441948
5.500000	-0.158749	-96.877939	-47.030249	75.643019	-47.030249	75.643019	-0.170976	-104.297345
5.550000	-0.161163	-97.673368	-46.833723	74.083752	-46.833723	74.083752	-0.173570	-105.151534
5.600000	-0.163611	-98.467578	-46.639600	72.525391	-46.639600	72.525391	-0.176201	-106.004546
5.650000	-0.166095	-99.260593	-46.447833	70.967909	-46.447833	70.967909	-0.178870	-106.856415
5.700000	-0.168614	-100.052442	-46.258375	69.411276	-46.258375	69.411276	-0.181576	-107.707175
5.750000	-0.171169	-100.843150	-46.071181	67.855465	-46.071181	67.855465	-0.184321	-108.556861
5.800000	-0.173760	-101.632747	-45.886210	66.300446	-45.886210	66.300446	-0.187104	-109.405508
5.850000	-0.176395	-102.421082	-45.703136	64.746318	-45.703136	64.746318	-0.189934	-110.252989
5.900000	-0.179069	-103.208320	-45.522148	63.192957	-45.522148	63.192957	-0.192804	-111.099462
5.950000	-0.181763	-103.995036	-45.344042	61.639959	-45.344042	61.639959	-0.195696	-111.945466
6.000000	-0.184517	-104.780189	-45.167126	60.088045	-45.167126	60.088045	-0.198651	-112.790062
6.050000	-0.187285	-105.565019	-44.993236	58.536356	-44.993236	58.536356	-0.201620	-113.634372
6.100000	-0.190121	-106.348229	-44.820277	56.985793	-44.820277	56.985793	-0.204660	-114.477259
6.150000	-0.192964	-107.131290	-44.650459	55.435335	-44.650459	55.435335	-0.207708	-115.320017
6.200000	-0.195884	-107.912707	-44.481355	53.886047	-44.481355	53.886047	-0.210835	-116.161368
6.250000	-0.198805	-108.694124	-44.315481	52.336760	-44.315481	52.336760	-0.213963	-117.002719
6.300000	-0.201810	-109.473905	-44.150140	50.788696	-44.150140	50.788696	-0.217179	-117.842715
6.350000	-0.204817	-110.253687	-43.987888	49.240632	-43.987888	49.240632	-0.220396	-118.682711
6.400000	-0.207904	-111.032123	-43.826428	47.693666	-43.826428	47.693666	-0.223696	-119.521635
6.450000	-0.211000	-111.810437	-43.667721	46.146801	-43.667721	46.146801	-0.227003	-120.360462
6.500000	-0.214170	-112.587677	-43.510036	44.600934	-43.510036	44.600934	-0.230387	-121.198475
6.550000	-0.217356	-113.364703	-43.354804	43.055267	-43.354804	43.055267	-0.233787	-122.036324
6.600000	-0.220611	-114.140908	-43.200793	41.510516	-43.200793	41.510516	-0.237256	-122.873589
6.650000	-0.223891	-114.916839	-43.048971	39.966070	-43.048971	39.966070	-0.240750	-123.710659
6.700000	-0.227234	-115.692178	-42.898538	38.422467	-42.898538	38.422467	-0.244307	-124.547344
6.750000	-0.230609	-116.467222	-42.750066	36.879284	-42.750066	36.879284	-0.247897	-125.383838
6.800000	-0.234042	-117.241880	-42.603121	35.336869	-42.603121	35.336869	-0.251543	-126.220117
6.850000	-0.237516	-118.016264	-42.457939	33.795002	-42.457939	33.795002	-0.255229	-127.056244
6.900000	-0.241041	-118.790443	-42.314393	32.253817	-42.314393	32.253817	-0.258966	-127.892295
6.950000	-0.244618	-119.564417	-42.172443	30.713314	-42.172443	30.713314	-0.262751	-128.728271
7.000000	-0.248239	-120.338336	-42.032211	29.173390	-42.032211	29.173390	-0.266580	-129.564276
7.050000	-0.251921	-121.112179	-41.893429	27.634278	-41.893429	27.634278	-0.270467	-130.400323
7.100000	-0.255641	-121.886084	-41.756424	26.095621	-41.756424	26.095621	-0.274388	-131.236469
7.150000	-0.259434	-122.660113	-41.620745	24.557877	-41.620745	24.557877	-0.278378	-132.072814
7.200000	-0.263256	-123.434279	-41.486878	23.020447	-41.486878	23.020447	-0.282395	-132.909293
7.250000	-0.267165	-124.208859	-41.354229	21.483959	-41.354229	21.483959	-0.286491	-133.746171
7.300000	-0.271096	-124.983602	-41.223408	19.947638	-41.223408	19.947638	-0.290605	-134.583179
7.350000	-0.275128	-125.759164	-41.093705	18.412150	-41.093705	18.412150	-0.294807	-135.420832
7.400000	-0.279172	-126.534851	-40.965833	16.876704	-40.965833	16.876704	-0.299021	-136.258570
7.450000	-0.283337	-127.311917	-40.838979	15.341727	-40.838979	15.341727	-0.303333	-137.097245
7.500000	-0.287504	-128.088984	-40.713952	13.806750	-40.713952	13.806750	-0.307648	-137.935919
7.550000	-0.291815	-128.868210	-40.589833	12.271436	-40.589833	12.271436	-0.312073	-138.775869
7.600000	-0.296128	-129.647435	-40.467464	10.736122	-40.467464	10.736122	-0.316500	-139.615819
7.650000	-0.300592	-130.429413	-40.346016	9.199205	-40.346016	9.199205	-0.321031	-140.457177
7.700000	-0.305071	-131.211642	-40.226174	7.662143	-40.226174	7.662143	-0.325574	-141.298663
7.750000	-0.309714	-131.997322	-40.107236	6.121699	-40.107236	6.121699	-0.330214	-142.141651
7.800000	-0.314391	-132.783693	-39.989762	4.580578	-39.989762	4.580578	-0.334876	-142.984940
7.850000	-0.319253	-133.574373	-39.873151	3.033576	-39.873151	3.033576	-0.339628	-143.829785
7.900000	-0.324179	-134.366490	-39.757854	1.484613	-39.757854	1.484613	-0.344412	-144.675149
7.950000	-0.329264	-135.162416	-39.643551	-0.070710	-39.643551	-0.070710	-0.349260	-145.521666
8.000000	-0.334554	-135.963268	-39.530123	-1.634986	-39.530123	-1.634986	-0.354179	-146.369539
8.050000	-0.340065	-136.769361	-39.417588	-3.209890	-39.417588	-3.209890	-0.359161	-147.218648
8.100000	-0.345853	-137.581811	-39.305882	-4.798780	-39.305882	-4.798780	-0.364207	-148.069057
8.150000	-0.351998	-138.402070	-39.194942	-6.406168	-39.194942	-6.406168	-0.369319	-148.920831
8.200000	-0.358616	-139.232062	-39.084725	-8.038224	-39.084725	-8.038224	-0.374498	-149.774033
8.250000	-0.365884	-140.074397	-38.975224	-9.703567	-38.975224	-9.703567	-0.379746	-150.628725
8.300000	-0.374081	-140.932697	-38.866520	-11.414558	-38.866520	-11.414558	-0.385066	-151.484967
8.350000	-0.383446	-141.809263	-38.758841	-13.180258	-38.758841	-13.180258	-0.390451	-152.342653
8.400000	-0.395040	-142.716183	-38.652800	-15.042238	-38.652800	-15.042238	-0.395919	-153.202146
8.450000	-0.410115	-143.662927	-38.550004	-17.038643	-38.550004	-17.038643	-0.401465	-154.063341
8.500000	-0.431549	-144.668706	-38.454592	-19.249042	-38.454592	-19.249042	-0.407092	-154.926285
8.550000	-0.465113	-145.760331	-38.376962	-21.802540	-38.376962	-21.802540	-0.412797	-155.790923
8.600000	-0.524719	-146.976594	-38.347158	-24.944205	-38.347158	-24.944205	-0.418574	-156.657204
8.650000	-0.644484	-148.330049	-38.456839	-29.071482	-38.456839	-29.071482	-0.424399	-157.525004
8.700000	-0.917486	-149.485408	-39.060868	-34.350195	-39.060868	-34.350195	-0.430221	-158.394285
8.750000	-1.331384	-148.268039	-40.823397	-33.920482	-40.823397	-33.920482	-0.435931	-159.265185
8.800000	-1.166561	-145.324539	-40.919890	-19.931764	-40.919890	-19.931764	-0.441405	-160.138706
8.850000	-0.813223	-145.576402	-39.615022	-17.144113	-39.615022	-17.144113	-0.446698	-161.016769
8.900000	-0.642485	-146.813288	-38.879685	-19.012667	-38.879685	-19.012667	-0.452138	-161.900199
8.950000	-0.565311	-148.040960	-38.466037	-21.292998	-38.466037	-21.292998	-0.457960	-162.787606
9.000000	-0.527964	-149.159891	-38.195439	-23.414591	-38.195439	-23.414591	-0.464130	-163.677557
9.050000	-0.509336	-150.189848	-37.995801	-25.345273	-37.995801	-25.345273	-0.470534	-164.569688
9.100000	-0.499300	-151.165070	-37.830992	-27.143552	-37.830992	-27.143552	-0.477069	-165.463862
9.150000	-0.495039	-152.095739	-37.690396	-28.825178	-37.690396	-28.825178	-0.483715	-166.360707
9.200000	-0.494141	-152.995807	-37.564709	-30.419214	-37.564709	-30.419214	-0.490461	-167.260690
9.250000	-0.494698	-153.881448	-37.446310	-31.968858	-37.446310	-31.968858	-0.497269	-168.162828
9.300000	-0.496819	-154.750804	-37.335354	-33.465743	-37.335354	-33.465743	-0.504163	-169.068008
9.350000	-0.500120	-155.607118	-37.230037	-34.914243	-37.230037	-34.914243	-0.511163	-169.977178
9.400000	-0.504009	-156.456955	-37.127928	-36.335452	-37.127928	-36.335452	-0.518242	-170.889209
9.450000	-0.508406	-157.301235	-37.028593	-37.731583	-37.028593	-37.731583	-0.525401	-171.804150
9.500000	-0.513352	-158.139834	-36.931825	-39.097023	-36.931825	-39.097023	-0.532678	-172.723483
9.550000	-0.518629	-158.975464	-36.836728	-40.441488	-36.836728	-40.441488	-0.540057	-173.646532
9.600000	-0.524153	-159.809127	-36.742983	-41.769503	-36.742983	-41.769503	-0.547526	-174.572794
9.650000	-0.529916	-160.641141	-36.650424	-43.080752	-36.650424	-43.080752	-0.555093	-175.502622
9.700000	-0.535951	-161.471965	-36.558716	-44.370935	-36.558716	-44.370935	-0.562804	-176.437691
9.750000	-0.542138	-162.302534	-36.467707	-45.648671	-36.467707	-45.648671	-0.570614	-177.376262
9.800000	-0.548470	-163.133023	-36.377323	-46.914349	-36.377323	-46.914349	-0.578524	-178.318380
9.850000	-0.554978	-163.963843	-36.287279	-48.164574	-36.287279	-48.164574	-0.586573	-179.265457
9.900000	-0.561632	-164.795431	-36.197436	-49.401370	-36.197436	-49.401370	-0.594756	179.782679
9.950000	-0.568394	-165.627813	-36.107870	-50.628014	-36.107870	-50.628014	-0.603049	178.826974
10.000000	-0.575263	-166.461096	-36.018537	-51.844732	-36.018537	-51.844732	-0.611454	177.867384
