! freq	dB(S11)	phase(S11)	dB(S12)	phase(S12)	
!     	dB(S21)	phase(S21)	dB(S22)	phase(S22)	
!S-par simulation data
#  GHz  S  DB  R 50
0.000000	-0.000000	-0.000000	-321.265244	180.000000	-321.265244	180.000000	0.000000	0.000000
0.050000	-0.000107	-0.808305	-110.009452	50.393737	-110.009452	50.393737	-0.000092	-0.818301
0.100000	-0.000422	-1.616344	-107.497843	55.359222	-107.497843	55.359222	-0.000364	-1.636402
0.150000	-0.000933	-2.423872	-105.445534	61.572995	-105.445534	61.572995	-0.000809	-2.454112
0.200000	-0.001616	-3.230691	-103.711173	65.977536	-103.711173	65.977536	-0.001412	-3.271270
0.250000	-0.002455	-4.036583	-102.272390	68.897043	-102.272390	68.897043	-0.002164	-4.087683
0.300000	-0.003410	-4.841519	-101.085372	70.967245	-101.085372	70.967245	-0.003036	-4.903301
0.350000	-0.004461	-5.645396	-100.110009	72.465141	-100.110009	72.465141	-0.004013	-5.718007
0.400000	-0.005584	-6.448182	-99.315517	73.619864	-99.315517	73.619864	-0.005077	-6.531736
0.450000	-0.006755	-7.249880	-98.679349	74.590582	-98.679349	74.590582	-0.006209	-7.344451
0.500000	-0.007958	-8.050509	-98.185645	75.498340	-98.185645	75.498340	-0.007391	-8.156132
0.550000	-0.009176	-8.850106	-97.823776	76.446569	-97.823776	76.446569	-0.008609	-8.966779
0.600000	-0.010399	-9.648711	-97.587181	77.535671	-97.587181	77.535671	-0.009849	-9.776401
0.650000	-0.011618	-10.446368	-97.472405	78.875457	-97.472405	78.875457	-0.011100	-10.585017
0.700000	-0.012827	-11.243116	-97.478116	80.598217	-97.478116	80.598217	-0.012354	-11.392650
0.750000	-0.014023	-12.038992	-97.603667	82.874636	-97.603667	82.874636	-0.013604	-12.199325
0.800000	-0.015204	-12.834026	-97.846469	85.934238	-97.846469	85.934238	-0.014844	-13.005068
0.850000	-0.016368	-13.628240	-98.196665	90.089334	-98.196665	90.089334	-0.016070	-13.809902
0.900000	-0.017516	-14.421651	-98.626488	95.751739	-98.626488	95.751739	-0.017281	-14.613847
0.950000	-0.018648	-15.214271	-99.071159	103.403919	-99.071159	103.403919	-0.018475	-15.416920
1.000000	-0.019765	-16.006106	-99.403778	113.437034	-99.403778	113.437034	-0.019651	-16.219133
1.050000	-0.020868	-16.797156	-99.429912	125.766089	-99.429912	125.766089	-0.020808	-17.020496
1.100000	-0.021958	-17.587418	-98.957498	139.378088	-98.957498	139.378088	-0.021949	-17.821013
1.150000	-0.023037	-18.376885	-97.938076	152.468335	-97.938076	152.468335	-0.023073	-18.620687
1.200000	-0.024105	-19.165549	-96.514362	163.496627	-96.514362	163.496627	-0.024181	-19.419515
1.250000	-0.025165	-19.953398	-94.896138	171.967302	-94.896138	171.967302	-0.025275	-20.217493
1.300000	-0.026216	-20.740382	-93.228883	178.082955	-93.228883	178.082955	-0.026355	-21.014576
1.350000	-0.027261	-21.526522	-91.612160	-177.533110	-91.612160	-177.533110	-0.027424	-21.810790
1.400000	-0.028300	-22.311801	-90.077924	-174.435396	-90.077924	-174.435396	-0.028482	-22.606125
1.450000	-0.029333	-23.096203	-88.634368	-172.286676	-88.634368	-172.286676	-0.029530	-23.400566
1.500000	-0.030363	-23.879710	-87.279148	-170.843678	-87.279148	-170.843678	-0.030571	-24.194098
1.550000	-0.031389	-24.662305	-86.005845	-169.932996	-86.005845	-169.932996	-0.031606	-24.986707
1.600000	-0.032412	-25.443970	-84.806910	-169.430481	-84.806910	-169.430481	-0.032634	-25.778375
1.650000	-0.033432	-26.224687	-83.674922	-169.246180	-83.674922	-169.246180	-0.033658	-26.569084
1.700000	-0.034450	-27.004092	-82.578116	-169.378781	-82.578116	-169.378781	-0.034677	-27.358469
1.750000	-0.035467	-27.782987	-81.571448	-169.624832	-81.571448	-169.624832	-0.035695	-28.147339
1.800000	-0.036484	-28.560652	-80.598313	-170.057637	-80.598313	-170.057637	-0.036710	-28.934966
1.850000	-0.037499	-29.337439	-79.677683	-170.623839	-79.677683	-170.623839	-0.037725	-29.721706
1.900000	-0.038515	-30.113134	-78.793909	-171.299255	-78.793909	-171.299255	-0.038739	-30.507340
1.950000	-0.039530	-30.887736	-77.945172	-172.083884	-77.945172	-172.083884	-0.039752	-31.291868
2.000000	-0.040546	-31.661396	-77.135258	-172.933307	-77.135258	-172.933307	-0.040767	-32.075442
2.050000	-0.041563	-32.433738	-76.347413	-173.873440	-76.347413	-173.873440	-0.041783	-32.857678
2.100000	-0.042580	-33.205499	-75.606058	-174.843534	-75.606058	-174.843534	-0.042799	-33.639324
2.150000	-0.043600	-33.975754	-74.877429	-175.887959	-74.877429	-175.887959	-0.043819	-34.419440
2.200000	-0.044621	-34.744870	-74.173325	-176.978168	-74.173325	-176.978168	-0.044841	-35.198397
2.250000	-0.045644	-35.512830	-73.492077	-178.108654	-73.492077	-178.108654	-0.045866	-35.976176
2.300000	-0.046670	-36.279619	-72.832189	-179.274750	-72.832189	-179.274750	-0.046895	-36.752762
2.350000	-0.047698	-37.045222	-72.192313	179.527525	-72.192313	179.527525	-0.047927	-37.528138
2.400000	-0.048730	-37.809624	-71.571234	178.301585	-71.571234	178.301585	-0.048964	-38.302287
2.450000	-0.049764	-38.572810	-70.967849	177.050383	-70.967849	177.050383	-0.050005	-39.075193
2.500000	-0.050803	-39.334765	-70.381157	175.776484	-70.381157	175.776484	-0.051051	-39.846843
2.550000	-0.051848	-40.094765	-69.798034	174.471762	-69.798034	174.471762	-0.052104	-40.616491
2.600000	-0.052894	-40.854764	-69.251608	173.167041	-69.251608	173.167041	-0.053158	-41.386140
2.650000	-0.053948	-41.612328	-68.700607	171.830557	-68.700607	171.830557	-0.054223	-42.153297
2.700000	-0.055003	-42.369671	-68.179330	170.491185	-68.179330	170.491185	-0.055289	-42.920227
2.750000	-0.056068	-43.124753	-67.657119	169.128130	-67.657119	169.128130	-0.056366	-43.684843
2.800000	-0.057135	-43.879383	-67.158790	167.760339	-67.158790	167.760339	-0.057445	-44.448997
2.850000	-0.058212	-44.631939	-66.662550	166.374932	-66.662550	166.374932	-0.058534	-45.211028
2.900000	-0.059292	-45.383804	-66.185269	164.983654	-66.185269	164.983654	-0.059628	-45.972351
2.950000	-0.060382	-46.133792	-65.712589	163.579366	-65.712589	163.579366	-0.060732	-46.731754
3.000000	-0.061477	-46.882842	-65.254704	162.168573	-65.254704	162.168573	-0.061841	-47.490198
3.050000	-0.062582	-47.630223	-64.803508	160.748288	-64.803508	160.748288	-0.062960	-48.246935
3.100000	-0.063694	-48.376412	-64.363569	159.321224	-64.363569	159.321224	-0.064086	-49.002453
3.150000	-0.064814	-49.121149	-63.932052	157.887367	-63.932052	157.887367	-0.065222	-49.756488
3.200000	-0.065944	-49.864434	-63.508779	156.446718	-63.508779	156.446718	-0.066367	-50.509039
3.250000	-0.067082	-50.606493	-63.095362	155.001347	-63.095362	155.001347	-0.067520	-51.260339
3.300000	-0.068231	-51.346835	-62.687618	153.549365	-62.687618	153.549365	-0.068684	-52.009887
3.350000	-0.069388	-52.086183	-62.290911	152.094242	-62.290911	152.094242	-0.069856	-52.758422
3.400000	-0.070559	-52.823545	-61.897677	150.632837	-61.897677	150.632837	-0.071042	-53.504932
3.450000	-0.071736	-53.560154	-61.516450	149.169486	-61.516450	149.169486	-0.072234	-54.250676
3.500000	-0.072930	-54.294503	-61.136810	147.700296	-61.136810	147.700296	-0.073443	-54.994121
3.550000	-0.074128	-55.028345	-60.769966	146.230044	-60.769966	146.230044	-0.074657	-55.737050
3.600000	-0.075347	-55.759652	-60.403094	144.754486	-60.403094	144.754486	-0.075890	-56.477404
3.650000	-0.076569	-56.490704	-60.049651	143.278500	-60.049651	143.278500	-0.077126	-57.217498
3.700000	-0.077815	-57.218943	-59.694795	141.797814	-59.694795	141.797814	-0.078386	-57.954740
3.750000	-0.079061	-57.947182	-59.353870	140.317128	-59.353870	140.317128	-0.079646	-58.691982
3.800000	-0.080335	-58.672331	-59.010345	138.832410	-59.010345	138.832410	-0.080934	-59.426096
3.850000	-0.081610	-59.397479	-58.679892	137.347692	-58.679892	137.347692	-0.082223	-60.160209
3.900000	-0.082912	-60.119777	-58.348320	135.860175	-58.348320	135.860175	-0.083538	-60.891443
3.950000	-0.084217	-60.841816	-58.027783	134.372403	-58.027783	134.372403	-0.084856	-61.622416
4.000000	-0.085548	-61.561251	-57.707420	132.882824	-57.707420	132.882824	-0.086200	-62.350764
4.050000	-0.086884	-62.280165	-57.396287	131.392882	-57.396287	131.392882	-0.087550	-63.078587
4.100000	-0.088246	-62.996726	-57.086455	129.901921	-57.086455	129.901921	-0.088924	-63.804046
4.150000	-0.089617	-63.712502	-56.784251	128.410619	-56.784251	128.410619	-0.090307	-64.528716
4.200000	-0.091011	-64.426181	-56.484331	126.918911	-56.484331	126.918911	-0.091714	-65.251284
4.250000	-0.092417	-65.138811	-56.190616	125.427001	-56.190616	125.427001	-0.093132	-65.972802
4.300000	-0.093844	-65.849603	-55.900041	123.935151	-55.900041	123.935151	-0.094572	-66.692484
4.350000	-0.095287	-66.559081	-55.614403	122.443343	-55.614403	122.443343	-0.096028	-67.410854
4.400000	-0.096750	-67.266983	-55.332650	120.951931	-55.332650	120.951931	-0.097503	-68.127656
4.450000	-0.098232	-67.973308	-55.054706	119.460914	-55.054706	119.460914	-0.098998	-68.842889
4.500000	-0.099731	-68.678319	-54.781295	117.970511	-54.781295	117.970511	-0.100510	-69.556821
4.550000	-0.101254	-69.381492	-54.510684	116.480967	-54.510684	116.480967	-0.102046	-70.268933
4.600000	-0.102791	-70.083615	-54.245168	114.992146	-54.245168	114.992146	-0.103597	-70.980012
4.650000	-0.104356	-70.783639	-53.981550	113.504770	-53.981550	113.504770	-0.105176	-71.689024
4.700000	-0.105933	-71.482879	-53.723516	112.018120	-53.723516	112.018120	-0.106767	-72.397268
4.750000	-0.107543	-72.179763	-53.466570	110.533647	-53.466570	110.533647	-0.108392	-73.103208
4.800000	-0.109160	-72.876126	-53.215630	109.049791	-53.215630	109.049791	-0.110024	-73.808643
4.850000	-0.110816	-73.569881	-52.965049	107.569021	-52.965049	107.569021	-0.111696	-74.511548
4.900000	-0.112476	-74.263376	-52.720842	106.088636	-52.720842	106.088636	-0.113373	-75.214204
4.950000	-0.114180	-74.954015	-52.476331	104.612477	-52.476331	104.612477	-0.115094	-75.914118
5.000000	-0.115885	-75.644655	-52.238515	103.136319	-52.238515	103.136319	-0.116816	-76.614033
5.050000	-0.117634	-76.332454	-52.000393	101.665303	-52.000393	101.665303	-0.118585	-77.311254
5.100000	-0.119395	-77.019574	-51.767065	100.195768	-51.767065	100.195768	-0.120366	-78.007844
5.150000	-0.121187	-77.704805	-51.535600	98.730362	-51.535600	98.730362	-0.122180	-78.702668
5.200000	-0.123003	-78.388688	-51.307156	97.268481	-51.307156	97.268481	-0.124018	-79.396259
5.250000	-0.124839	-79.071365	-51.081962	95.809754	-51.081962	95.809754	-0.125879	-80.088746
5.300000	-0.126712	-79.752035	-50.858153	94.357359	-50.858153	94.357359	-0.127778	-80.779438
5.350000	-0.128596	-80.432038	-50.638561	92.907168	-50.638561	92.907168	-0.129690	-81.469537
5.400000	-0.130525	-81.109663	-50.419414	91.466114	-50.419414	91.466114	-0.131651	-82.157582
5.450000	-0.132469	-81.786491	-50.203979	90.028846	-50.203979	90.028846	-0.133628	-82.844968
5.500000	-0.134446	-82.461620	-49.990265	88.599643	-49.990265	88.599643	-0.135642	-83.530951
5.550000	-0.136452	-83.135306	-49.778652	87.179045	-49.778652	87.179045	-0.137690	-84.215820
5.600000	-0.138479	-83.807960	-49.569958	85.764594	-49.569958	85.764594	-0.139762	-84.899892
5.650000	-0.140549	-84.478539	-49.361734	84.366011	-49.361734	84.366011	-0.141886	-85.582515
5.700000	-0.142633	-85.148475	-49.156992	82.972994	-49.156992	82.972994	-0.144029	-86.264718
5.750000	-0.144764	-85.816254	-48.952167	81.601621	-48.952167	81.601621	-0.146233	-86.945649
5.800000	-0.146916	-86.483135	-48.749833	80.242464	-48.749833	80.242464	-0.148468	-87.626194
5.850000	-0.149103	-87.148517	-48.548477	78.903667	-48.548477	78.903667	-0.150754	-88.306096
5.900000	-0.151326	-87.812385	-48.347352	77.593700	-48.347352	77.593700	-0.153105	-88.985733
5.950000	-0.153570	-88.475398	-48.148387	76.300027	-48.148387	76.300027	-0.155493	-89.665219
6.000000	-0.155870	-89.136300	-47.946266	75.065237	-47.946266	75.065237	-0.158007	-90.345217
6.050000	-0.158186	-89.796591	-47.745925	73.853354	-47.745925	73.853354	-0.160572	-91.025648
6.100000	-0.160558	-90.454958	-47.540255	72.724295	-47.540255	72.724295	-0.163319	-91.707971
6.150000	-0.162962	-91.112346	-47.330793	71.664898	-47.330793	71.664898	-0.166242	-92.392663
6.200000	-0.165409	-91.768438	-47.115232	70.697635	-47.115232	70.697635	-0.169397	-93.080488
6.250000	-0.167921	-92.422962	-46.877136	69.928557	-46.877136	69.928557	-0.173206	-93.776954
6.300000	-0.170462	-93.076797	-46.633530	69.246680	-46.633530	69.246680	-0.177303	-94.477222
6.350000	-0.173139	-93.728410	-46.295775	69.082942	-46.295775	69.082942	-0.184207	-95.206155
6.400000	-0.175855	-94.379559	-45.931428	69.059372	-45.931428	69.059372	-0.192349	-95.944698
6.450000	-0.178795	-95.028416	-45.305869	69.681292	-45.305869	69.681292	-0.210324	-96.741493
6.500000	-0.182040	-95.673791	-44.140459	69.895503	-44.140459	69.895503	-0.256116	-97.599239
6.550000	-0.185016	-96.308632	-42.125870	62.025028	-42.125870	62.025028	-0.384757	-98.118788
6.600000	-0.184979	-96.949415	-42.430788	41.713806	-42.430788	41.713806	-0.374088	-97.511909
6.650000	-0.186962	-97.603758	-44.146959	37.626650	-44.146959	37.626650	-0.266374	-98.088825
6.700000	-0.189853	-98.251649	-44.831293	38.964570	-44.831293	38.964570	-0.230115	-98.905014
6.750000	-0.192805	-98.896007	-45.033705	39.962696	-45.033705	39.962696	-0.217394	-99.673537
6.800000	-0.195753	-99.538239	-45.045038	40.244757	-45.045038	40.244757	-0.212943	-100.400516
6.850000	-0.198704	-100.178891	-44.977675	40.019567	-44.977675	40.019567	-0.211844	-101.101968
6.900000	-0.201674	-100.818011	-44.871306	39.432726	-44.871306	39.432726	-0.212474	-101.785855
6.950000	-0.204664	-101.456055	-44.750334	38.664014	-44.750334	38.664014	-0.213821	-102.460820
7.000000	-0.207682	-102.092911	-44.619219	37.741240	-44.619219	37.741240	-0.215716	-103.128026
7.050000	-0.210731	-102.728622	-44.482635	36.709261	-44.482635	36.709261	-0.217966	-103.789466
7.100000	-0.213820	-103.363034	-44.342625	35.589109	-44.342625	35.589109	-0.220487	-104.445885
7.150000	-0.216947	-103.996310	-44.201091	34.407152	-44.201091	34.407152	-0.223196	-105.098561
7.200000	-0.220093	-104.629038	-44.060588	33.205302	-44.060588	33.205302	-0.225968	-105.749845
7.250000	-0.223299	-105.260120	-43.918669	31.943774	-43.918669	31.943774	-0.228929	-106.396953
7.300000	-0.226519	-105.890850	-43.778462	30.674059	-43.778462	30.674059	-0.231921	-107.043357
7.350000	-0.229807	-106.519819	-43.637678	29.363417	-43.637678	29.363417	-0.235061	-107.686244
7.400000	-0.233103	-107.148618	-43.498918	28.050119	-43.498918	28.050119	-0.238215	-108.328845
7.450000	-0.236477	-107.775550	-43.359936	26.707608	-43.359936	26.707608	-0.241500	-108.968304
7.500000	-0.239852	-108.402482	-43.223143	25.365096	-43.223143	25.365096	-0.244786	-109.607763
7.550000	-0.243314	-109.027452	-43.086269	24.001198	-43.086269	24.001198	-0.248198	-110.244306
7.600000	-0.246778	-109.652422	-42.951517	22.637300	-42.951517	22.637300	-0.251610	-110.880848
7.650000	-0.250323	-110.275662	-42.817051	21.259979	-42.817051	21.259979	-0.255129	-111.515045
7.700000	-0.253876	-110.898745	-42.684477	19.881437	-42.684477	19.881437	-0.258658	-112.149030
7.750000	-0.257505	-111.520319	-42.552441	18.494480	-42.552441	18.494480	-0.262280	-112.781105
7.800000	-0.261151	-112.141590	-42.422096	17.105840	-42.422096	17.105840	-0.265920	-113.412799
7.850000	-0.264866	-112.761561	-42.292478	15.712012	-42.292478	15.712012	-0.269642	-114.042936
7.900000	-0.268606	-113.381098	-42.164372	14.316455	-42.164372	14.316455	-0.273391	-114.672553
7.950000	-0.272408	-113.999530	-42.037139	12.917823	-42.037139	12.917823	-0.277212	-115.300906
8.000000	-0.276243	-114.617411	-41.911257	11.517652	-41.911257	11.517652	-0.281068	-115.928626
8.050000	-0.280134	-115.234371	-41.786365	10.115790	-41.786365	10.115790	-0.284987	-116.555332
8.100000	-0.284065	-115.850674	-41.662675	8.712718	-41.662675	8.712718	-0.288950	-117.181313
8.150000	-0.288046	-116.466230	-41.540073	7.308849	-41.540073	7.308849	-0.292967	-117.806495
8.200000	-0.292076	-117.081037	-41.418537	5.904183	-41.418537	5.904183	-0.297038	-118.430879
8.250000	-0.296147	-117.695255	-41.298169	4.499273	-41.298169	4.499273	-0.301154	-119.054652
8.300000	-0.300277	-118.308648	-41.178742	3.094024	-41.178742	3.094024	-0.305333	-119.677571
8.350000	-0.304441	-118.921597	-41.060549	1.688848	-41.060549	1.688848	-0.309548	-120.300043
8.400000	-0.308671	-119.533660	-40.943182	0.283818	-40.943182	0.283818	-0.313836	-120.921624
8.450000	-0.312928	-120.145412	-40.827105	-1.120998	-40.827105	-1.120998	-0.318152	-121.542900
8.500000	-0.317261	-120.756231	-40.711747	-2.525171	-40.711747	-2.525171	-0.322550	-122.163264
8.550000	-0.321612	-121.366856	-40.597727	-3.929114	-40.597727	-3.929114	-0.326968	-122.783445
8.600000	-0.326048	-121.976516	-40.484324	-5.331911	-40.484324	-5.331911	-0.331478	-123.402712
8.650000	-0.330494	-122.586088	-40.372300	-6.734560	-40.372300	-6.734560	-0.335999	-124.021898
8.700000	-0.335035	-123.194679	-40.260799	-8.135566	-40.260799	-8.135566	-0.340622	-124.640185
8.750000	-0.339577	-123.803270	-40.150711	-9.536572	-40.150711	-9.536572	-0.345248	-125.258473
8.800000	-0.344223	-124.410881	-40.041056	-10.935449	-40.041056	-10.935449	-0.349986	-125.875899
8.850000	-0.348872	-125.018493	-39.932769	-12.334325	-39.932769	-12.334325	-0.354727	-126.493324
8.900000	-0.353616	-125.625291	-39.824981	-13.731001	-39.824981	-13.731001	-0.359573	-127.110067
8.950000	-0.358371	-126.232015	-39.718439	-15.127477	-39.718439	-15.127477	-0.364431	-127.726748
9.000000	-0.363213	-126.838076	-39.612457	-16.521774	-39.612457	-16.521774	-0.369387	-128.342906
9.050000	-0.368076	-127.444006	-39.507608	-17.915636	-39.507608	-17.915636	-0.374364	-128.958960
9.100000	-0.373018	-128.049410	-39.403372	-19.307414	-39.403372	-19.307414	-0.379431	-129.574631
9.150000	-0.377988	-128.654640	-39.300161	-20.698497	-39.300161	-20.698497	-0.384530	-130.190176
9.200000	-0.383031	-129.259467	-39.197611	-22.087648	-39.197611	-22.087648	-0.389710	-130.805461
9.250000	-0.388110	-129.864093	-39.095984	-23.475834	-39.095984	-23.475834	-0.394933	-131.420617
9.300000	-0.393253	-130.468425	-38.995062	-24.862284	-38.995062	-24.862284	-0.400228	-132.035616
9.350000	-0.398443	-131.072547	-38.894966	-26.247494	-38.894966	-26.247494	-0.405577	-132.650503
9.400000	-0.403687	-131.676466	-38.795615	-27.631196	-38.795615	-27.631196	-0.410989	-133.265317
9.450000	-0.408986	-132.280182	-38.696996	-29.013390	-38.696996	-29.013390	-0.416466	-133.880058
9.500000	-0.414332	-132.883773	-38.599160	-30.394325	-38.599160	-30.394325	-0.421998	-134.494790
9.550000	-0.419742	-133.487186	-38.501966	-31.773499	-38.501966	-31.773499	-0.427605	-135.109509
9.600000	-0.425191	-134.090533	-38.405593	-33.151675	-38.405593	-33.151675	-0.433258	-135.724263
9.650000	-0.430712	-134.693747	-38.309772	-34.527858	-38.309772	-34.527858	-0.438999	-136.339086
9.700000	-0.436262	-135.296938	-38.214808	-35.903308	-38.214808	-35.903308	-0.444776	-136.953968
9.750000	-0.441894	-135.900058	-38.120310	-37.276562	-38.120310	-37.276562	-0.450653	-137.569023
9.800000	-0.447548	-136.503180	-38.026704	-38.649343	-38.026704	-38.649343	-0.456556	-138.184139
9.850000	-0.453291	-137.106313	-37.933481	-40.019762	-37.933481	-40.019762	-0.462572	-138.799557
9.900000	-0.459047	-137.709457	-37.841185	-41.389955	-37.841185	-41.389955	-0.468603	-139.415016
9.950000	-0.464902	-138.312713	-37.749189	-42.757663	-37.749189	-42.757663	-0.474761	-140.030929
10.000000	-0.470761	-138.915970	-37.658157	-44.125371	-37.658157	-44.125371	-0.480923	-140.646841
