! freq	dB(S11)	phase(S11)	dB(S12)	phase(S12)	
!     	dB(S21)	phase(S21)	dB(S22)	phase(S22)	
!S-par simulation data
#  GHz  S  DB  R 50
0.000000	-0.000000	0.000000	-337.163411	0.000000	-337.163411	0.000000	-0.000000	0.000000
0.050000	-0.000073	-0.764954	-77.218044	-149.753619	-77.218044	-149.753619	-0.000073	-0.764954
0.100000	-0.000289	-1.529769	-75.950678	-171.226390	-75.950678	-171.226390	-0.000290	-1.529770
0.150000	-0.000649	-2.294301	-75.704059	177.034939	-75.704059	177.034939	-0.000649	-2.294301
0.200000	-0.001134	-3.058454	-75.649408	168.256780	-75.649408	168.256780	-0.001135	-3.058453
0.250000	-0.001740	-3.822110	-75.668428	160.881596	-75.668428	160.881596	-0.001741	-3.822108
0.300000	-0.002466	-4.585110	-75.729145	154.346487	-75.729145	154.346487	-0.002467	-4.585106
0.350000	-0.003281	-5.347480	-75.813919	148.273738	-75.813919	148.273738	-0.003284	-5.347474
0.400000	-0.004188	-6.109056	-75.921817	142.616210	-75.921817	142.616210	-0.004191	-6.109046
0.450000	-0.005165	-6.869853	-76.048634	137.270192	-76.048634	137.270192	-0.005168	-6.869839
0.500000	-0.006203	-7.629802	-76.194202	132.214516	-76.194202	132.214516	-0.006207	-7.629784
0.550000	-0.007290	-8.388884	-76.358054	127.426455	-76.358054	127.426455	-0.007294	-8.388861
0.600000	-0.008414	-9.147086	-76.540288	122.895174	-76.540288	122.895174	-0.008418	-9.147058
0.650000	-0.009564	-9.904402	-76.741295	118.615420	-76.741295	118.615420	-0.009569	-9.904369
0.700000	-0.010733	-10.660836	-76.961705	114.585682	-76.961705	114.585682	-0.010737	-10.660797
0.750000	-0.011912	-11.416393	-77.202353	110.807319	-77.202353	110.807319	-0.011917	-11.416348
0.800000	-0.013095	-12.171085	-77.464269	107.284270	-77.464269	107.284270	-0.013099	-12.171034
0.850000	-0.014275	-12.924779	-77.750974	104.071930	-77.750974	104.071930	-0.014279	-12.924724
0.900000	-0.015448	-13.677599	-78.062308	101.143406	-78.062308	101.143406	-0.015452	-13.677537
0.950000	-0.016616	-14.429992	-78.392184	98.371127	-78.392184	98.371127	-0.016620	-14.429925
1.000000	-0.017766	-15.181106	-78.756867	96.067583	-78.756867	96.067583	-0.017770	-15.181035
1.050000	-0.018911	-15.931944	-79.141609	93.887654	-79.141609	93.887654	-0.018915	-15.931868
1.100000	-0.020031	-16.681398	-79.565552	92.325798	-79.565552	92.325798	-0.020034	-16.681318
1.150000	-0.021148	-17.430716	-80.012535	90.842644	-80.012535	90.842644	-0.021151	-17.430631
1.200000	-0.022236	-18.178535	-80.498667	90.225215	-80.498667	90.225215	-0.022238	-18.178447
1.250000	-0.023323	-18.926355	-81.013629	89.607785	-81.013629	89.607785	-0.023326	-18.926263
1.300000	-0.024387	-19.672955	-81.560063	89.896167	-81.560063	89.896167	-0.024389	-19.672859
1.350000	-0.025436	-20.418773	-82.129670	90.904865	-82.129670	90.904865	-0.025438	-20.418675
1.400000	-0.026473	-21.163807	-82.710239	92.760141	-82.710239	92.760141	-0.026474	-21.163705
1.450000	-0.027496	-21.908050	-83.280518	95.596634	-83.280518	95.596634	-0.027497	-21.907946
1.500000	-0.028508	-22.651496	-83.806799	99.530928	-83.806799	99.530928	-0.028509	-22.651390
1.550000	-0.029509	-23.394136	-84.241063	104.611153	-84.241063	104.611153	-0.029510	-23.394028
1.600000	-0.030501	-24.135962	-84.524463	110.746816	-84.524463	110.746816	-0.030502	-24.135851
1.650000	-0.031485	-24.876961	-84.599981	117.652558	-84.599981	117.652558	-0.031485	-24.876849
1.700000	-0.032459	-25.616825	-84.344157	124.717528	-84.344157	124.717528	-0.032459	-25.616711
1.750000	-0.033430	-26.356249	-83.970699	131.758800	-83.970699	131.758800	-0.033430	-26.356133
1.800000	-0.034395	-27.094614	-83.353241	137.858602	-83.353241	137.858602	-0.034395	-27.094497
1.850000	-0.035356	-27.832224	-82.607613	143.285927	-82.607613	143.285927	-0.035355	-27.832106
1.900000	-0.036313	-28.568897	-81.776246	147.689117	-81.776246	147.689117	-0.036313	-28.568777
1.950000	-0.037268	-29.304632	-80.887020	151.068172	-80.887020	151.068172	-0.037267	-29.304511
2.000000	-0.038221	-30.039560	-80.006759	153.787378	-80.006759	153.787378	-0.038221	-30.039437
2.050000	-0.039174	-30.773356	-79.114376	155.582795	-79.114376	155.582795	-0.039173	-30.773232
2.100000	-0.040126	-31.506484	-78.266645	157.027802	-78.266645	157.027802	-0.040125	-31.506358
2.150000	-0.041080	-32.238274	-77.424246	157.771989	-77.424246	157.771989	-0.041079	-32.238148
2.200000	-0.042034	-32.969547	-76.635518	158.347108	-76.635518	158.347108	-0.042033	-32.969420
2.250000	-0.042991	-33.699266	-75.855176	158.415019	-75.855176	158.415019	-0.042990	-33.699138
2.300000	-0.043950	-34.428629	-75.128309	158.409610	-75.128309	158.409610	-0.043948	-34.428499
2.350000	-0.044913	-35.156210	-74.407374	158.037596	-74.407374	158.037596	-0.044912	-35.156080
2.400000	-0.045878	-35.883609	-73.737194	157.641144	-73.737194	157.641144	-0.045877	-35.883477
2.450000	-0.046850	-36.608989	-73.068848	156.975868	-73.068848	156.975868	-0.046849	-36.608856
2.500000	-0.047823	-37.334369	-72.448275	156.310592	-72.448275	156.310592	-0.047822	-37.334235
2.550000	-0.048807	-38.057485	-71.825253	155.444270	-71.825253	155.444270	-0.048805	-38.057350
2.600000	-0.049790	-38.780602	-71.243944	154.577948	-71.243944	154.577948	-0.049789	-38.780466
2.650000	-0.050785	-39.501588	-70.663178	153.581556	-70.663178	153.581556	-0.050784	-39.501451
2.700000	-0.051781	-40.222382	-70.115761	152.573340	-70.115761	152.573340	-0.051781	-40.222244
2.750000	-0.052790	-40.941191	-69.571018	151.479072	-69.571018	151.479072	-0.052789	-40.941053
2.800000	-0.053800	-41.659605	-69.052828	150.367594	-69.052828	150.367594	-0.053799	-41.659465
2.850000	-0.054822	-42.376193	-68.539004	149.197817	-68.539004	149.197817	-0.054822	-42.376052
2.900000	-0.055849	-43.092173	-68.046079	148.008607	-68.046079	148.008607	-0.055848	-43.092032
2.950000	-0.056886	-43.806498	-67.558977	146.778831	-67.558977	146.778831	-0.056886	-43.806356
3.000000	-0.057930	-44.519995	-67.087970	145.528773	-67.087970	145.528773	-0.057929	-44.519852
3.050000	-0.058984	-45.232018	-66.624107	144.249623	-66.624107	144.249623	-0.058983	-45.231873
3.100000	-0.060045	-45.942986	-66.172182	142.949692	-66.172182	142.949692	-0.060045	-45.942841
3.150000	-0.061117	-46.652670	-65.728641	141.628203	-65.728641	141.628203	-0.061117	-46.652524
3.200000	-0.062198	-47.361068	-65.293368	140.285156	-65.293368	140.285156	-0.062198	-47.360922
3.250000	-0.063288	-48.068381	-64.867678	138.925635	-64.867678	138.925635	-0.063288	-48.068234
3.300000	-0.064389	-48.774172	-64.446948	137.543050	-64.446948	137.543050	-0.064389	-48.774025
3.350000	-0.065497	-49.479158	-64.037735	136.148701	-64.037735	136.148701	-0.065498	-49.479010
3.400000	-0.066619	-50.182532	-63.631804	134.730824	-63.631804	134.730824	-0.066619	-50.182384
3.450000	-0.067751	-50.884581	-63.231487	133.293336	-63.231487	133.293336	-0.067752	-50.884433
3.500000	-0.068891	-51.585738	-62.840744	131.842623	-62.840744	131.842623	-0.068892	-51.585590
3.550000	-0.070048	-52.284972	-62.449264	130.361845	-62.449264	130.361845	-0.070049	-52.284824
3.600000	-0.071210	-52.983616	-62.069348	128.871420	-62.069348	128.871420	-0.071211	-52.983468
3.650000	-0.072389	-53.680297	-61.687845	127.347403	-61.687845	127.347403	-0.072390	-53.680150
3.700000	-0.073577	-54.376104	-61.314351	125.806472	-61.314351	125.806472	-0.073578	-54.375958
3.750000	-0.074777	-55.070538	-60.944141	124.238965	-60.944141	124.238965	-0.074778	-55.070393
3.800000	-0.075991	-55.763505	-60.575535	122.638428	-60.575535	122.638428	-0.075992	-55.763362
3.850000	-0.077213	-56.455692	-60.215034	121.020323	-60.215034	121.020323	-0.077214	-56.455550
3.900000	-0.078455	-57.145828	-59.849569	119.346914	-59.849569	119.346914	-0.078456	-57.145689
3.950000	-0.079703	-57.835378	-59.493067	117.655177	-59.493067	117.655177	-0.079704	-57.835241
4.000000	-0.080969	-58.523111	-59.132715	115.903073	-59.132715	115.903073	-0.080971	-58.522977
4.050000	-0.082247	-59.209874	-58.775980	114.110009	-58.775980	114.110009	-0.082248	-59.209745
4.100000	-0.083537	-59.895427	-58.420434	112.265746	-58.420434	112.265746	-0.083538	-59.895301
4.150000	-0.084844	-60.579476	-58.060124	110.337667	-58.060124	110.337667	-0.084846	-60.579356
4.200000	-0.086159	-61.262907	-57.706760	108.375076	-57.706760	108.375076	-0.086161	-61.262793
4.250000	-0.087499	-61.944367	-57.337863	106.260412	-57.337863	106.260412	-0.087501	-61.944261
4.300000	-0.088847	-62.625329	-56.974272	104.090896	-56.974272	104.090896	-0.088848	-62.625231
4.350000	-0.090216	-63.304862	-56.597626	101.757979	-56.597626	101.757979	-0.090217	-63.304774
4.400000	-0.091600	-63.983589	-56.212393	99.272693	-56.212393	99.272693	-0.091602	-63.983514
4.450000	-0.093001	-64.661512	-55.820350	96.635038	-55.820350	96.635038	-0.093003	-64.661452
4.500000	-0.094433	-65.338565	-55.393607	93.648403	-55.393607	93.648403	-0.094435	-65.338524
4.550000	-0.095877	-66.015344	-54.968621	90.533576	-54.968621	90.533576	-0.095879	-66.015323
4.600000	-0.097384	-66.691915	-54.461870	86.707356	-54.461870	86.707356	-0.097387	-66.691926
4.650000	-0.098933	-67.369030	-53.925795	82.506911	-53.925795	82.506911	-0.098937	-67.369077
4.700000	-0.100583	-68.047465	-53.291080	77.397633	-53.291080	77.397633	-0.100588	-68.047563
4.750000	-0.102355	-68.727916	-52.579112	71.494069	-52.579112	71.494069	-0.102362	-68.728079
4.800000	-0.104556	-69.415033	-51.593775	63.461750	-51.593775	63.461750	-0.104568	-69.415298
4.850000	-0.107824	-70.114957	-50.193470	52.280539	-50.193470	52.280539	-0.107847	-70.115387
4.900000	-0.114803	-70.843268	-48.002022	34.955104	-48.002022	34.955104	-0.114856	-70.843987
4.950000	-0.141292	-71.616168	-44.299249	1.159375	-44.299249	1.159375	-0.141468	-71.617311
5.000000	-0.195510	-71.898865	-42.368802	-77.496121	-42.368802	-77.496121	-0.195897	-71.898165
5.050000	-0.142602	-72.373274	-47.682697	-141.121974	-47.682697	-141.121974	-0.142731	-72.371856
5.100000	-0.126751	-73.097033	-51.122663	-175.094285	-51.122663	-175.094285	-0.126802	-73.095970
5.150000	-0.122784	-73.795199	-52.578699	162.358631	-52.578699	162.358631	-0.122812	-73.794355
5.200000	-0.121981	-74.475135	-53.073270	146.684118	-53.073270	146.684118	-0.121997	-74.474422
5.250000	-0.122419	-75.144032	-53.121631	135.723692	-53.121631	135.723692	-0.122431	-75.143403
5.300000	-0.123340	-75.807061	-53.009734	127.290216	-53.009734	127.290216	-0.123349	-75.806494
5.350000	-0.124571	-76.465488	-52.811690	120.709144	-52.811690	120.709144	-0.124577	-76.464967
5.400000	-0.125990	-77.120437	-52.575422	115.366651	-52.575422	115.366651	-0.125995	-77.119951
5.450000	-0.127563	-77.771786	-52.319201	111.066107	-52.319201	111.066107	-0.127567	-77.771326
5.500000	-0.129189	-78.421824	-52.062458	107.120153	-52.062458	107.120153	-0.129192	-78.421388
5.550000	-0.130895	-79.069376	-51.804501	103.665452	-51.804501	103.665452	-0.130898	-79.068961
5.600000	-0.132659	-79.715153	-51.548032	100.561647	-51.548032	100.561647	-0.132661	-79.714755
5.650000	-0.134473	-80.359112	-51.295037	97.699424	-51.295037	97.699424	-0.134474	-80.358729
5.700000	-0.136336	-81.001252	-51.045433	95.078785	-51.045433	95.078785	-0.136337	-81.000883
5.750000	-0.138234	-81.642017	-50.800462	92.583270	-50.800462	92.583270	-0.138234	-81.641660
5.800000	-0.140180	-82.280855	-50.559024	90.262928	-50.559024	90.262928	-0.140180	-82.280510
5.850000	-0.142152	-82.918661	-50.322516	88.008704	-50.322516	88.008704	-0.142151	-82.918327
5.900000	-0.144173	-83.554402	-50.089162	85.886714	-50.089162	85.886714	-0.144172	-83.554078
5.950000	-0.146212	-84.189402	-49.860819	83.799084	-49.860819	83.799084	-0.146210	-84.189088
6.000000	-0.148304	-84.822182	-49.635131	81.814538	-49.635131	81.814538	-0.148303	-84.821876
6.050000	-0.150409	-85.454484	-49.414484	79.846501	-49.414484	79.846501	-0.150407	-85.454188
6.100000	-0.152572	-86.084403	-49.196012	77.961007	-49.196012	77.961007	-0.152570	-86.084115
6.150000	-0.154741	-86.714089	-48.982588	76.081664	-48.982588	76.081664	-0.154739	-86.713810
6.200000	-0.156974	-87.341227	-48.770927	74.269987	-48.770927	74.269987	-0.156972	-87.340956
6.250000	-0.159208	-87.968364	-48.564302	72.458309	-48.564302	72.458309	-0.159205	-87.968101
6.300000	-0.161512	-88.592788	-48.359104	70.703301	-48.359104	70.703301	-0.161509	-88.592533
6.350000	-0.163816	-89.217212	-48.158641	68.948293	-48.158641	68.948293	-0.163813	-89.216966
6.400000	-0.166186	-89.839205	-47.959871	67.234269	-47.959871	67.234269	-0.166183	-89.838966
6.450000	-0.168563	-90.460976	-47.765296	65.523972	-47.765296	65.523972	-0.168559	-90.460745
6.500000	-0.171000	-91.080583	-47.572645	63.843835	-47.572645	63.843835	-0.170996	-91.080360
6.550000	-0.173449	-91.699758	-47.383718	62.169731	-47.383718	62.169731	-0.173445	-91.699542
6.600000	-0.175955	-92.317025	-47.196910	60.518145	-47.196910	60.518145	-0.175950	-92.316817
6.650000	-0.178479	-92.933656	-47.013415	58.874065	-47.013415	58.874065	-0.178474	-92.933457
6.700000	-0.181054	-93.548627	-46.832196	57.246979	-46.832196	57.246979	-0.181049	-93.548435
6.750000	-0.183655	-94.162768	-46.653937	55.628391	-46.653937	55.628391	-0.183649	-94.162584
6.800000	-0.186301	-94.775486	-46.478073	54.022706	-46.478073	54.022706	-0.186295	-94.775310
6.850000	-0.188979	-95.387188	-46.304865	52.426237	-46.304865	52.426237	-0.188974	-95.387019
6.900000	-0.191698	-95.997697	-46.134132	50.839558	-46.134132	50.839558	-0.191692	-95.997536
6.950000	-0.194456	-96.607012	-45.965798	49.262669	-45.965798	49.262669	-0.194450	-96.606859
7.000000	-0.197248	-97.215355	-45.799986	47.693127	-45.799986	47.693127	-0.197242	-97.215210
7.050000	-0.200088	-97.822336	-45.636351	46.133874	-45.636351	46.133874	-0.200082	-97.822199
7.100000	-0.202956	-98.428557	-45.475258	44.579996	-45.475258	44.579996	-0.202949	-98.428427
7.150000	-0.205879	-99.033258	-45.316150	43.036867	-45.316150	43.036867	-0.205872	-99.033135
7.200000	-0.208823	-99.637402	-45.159580	41.497468	-45.159580	41.497468	-0.208816	-99.637287
7.250000	-0.211831	-100.239876	-45.004828	39.969259	-45.004828	39.969259	-0.211823	-100.239769
7.300000	-0.214854	-100.841988	-44.852590	38.443371	-44.852590	38.443371	-0.214846	-100.841888
7.350000	-0.217948	-101.442291	-44.702023	36.929090	-44.702023	36.929090	-0.217940	-101.442199
7.400000	-0.221050	-102.042418	-44.553934	35.415901	-44.553934	35.415901	-0.221042	-102.042333
7.450000	-0.224232	-102.640607	-44.407383	33.914705	-44.407383	33.914705	-0.224223	-102.640529
7.500000	-0.227415	-103.238796	-44.263263	32.413509	-44.263263	32.413509	-0.227406	-103.238725
7.550000	-0.230687	-103.834929	-44.120557	30.924647	-44.120557	30.924647	-0.230678	-103.834864
7.600000	-0.233960	-104.431061	-43.980159	29.435785	-43.980159	29.435785	-0.233951	-104.431004
7.650000	-0.237315	-105.025364	-43.841207	27.957588	-43.841207	27.957588	-0.237306	-105.025312
7.700000	-0.240679	-105.619500	-43.704372	26.480361	-43.704372	26.480361	-0.240669	-105.619455
7.750000	-0.244120	-106.212022	-43.568999	25.012268	-43.568999	25.012268	-0.244109	-106.211984
7.800000	-0.247577	-106.804223	-43.435574	23.546001	-43.435574	23.546001	-0.247566	-106.804190
7.850000	-0.251103	-107.395018	-43.303614	22.087450	-43.303614	22.087450	-0.251092	-107.394990
7.900000	-0.254654	-107.985345	-43.173447	20.631471	-43.173447	20.631471	-0.254642	-107.985323
7.950000	-0.258267	-108.574467	-43.044741	19.181892	-43.044741	19.181892	-0.258256	-108.574449
8.000000	-0.261913	-109.162985	-42.917688	17.735511	-42.917688	17.735511	-0.261901	-109.162972
8.050000	-0.265615	-109.750487	-42.792087	16.294313	-42.792087	16.294313	-0.265603	-109.750478
8.100000	-0.269358	-110.337263	-42.668011	14.856817	-42.668011	14.856817	-0.269344	-110.337257
8.150000	-0.273149	-110.923201	-42.545375	13.423389	-42.545375	13.423389	-0.273135	-110.923199
8.200000	-0.276989	-111.508302	-42.424146	11.994029	-42.424146	11.994029	-0.276974	-111.508303
8.250000	-0.280870	-112.092735	-42.304347	10.567732	-42.304347	10.567732	-0.280855	-112.092737
8.300000	-0.284808	-112.676231	-42.185847	9.145722	-42.185847	9.145722	-0.284793	-112.676235
8.350000	-0.288780	-113.259215	-42.068764	7.725888	-42.068764	7.725888	-0.288764	-113.259221
8.400000	-0.292818	-113.841178	-41.952886	6.310404	-41.952886	6.310404	-0.292801	-113.841184
8.450000	-0.296882	-114.422776	-41.838411	4.896336	-41.838411	4.896336	-0.296864	-114.422782
8.500000	-0.301020	-115.003279	-41.725062	3.486516	-41.725062	3.486516	-0.301001	-115.003285
8.550000	-0.305175	-115.583552	-41.613100	2.077490	-41.613100	2.077490	-0.305156	-115.583556
8.600000	-0.309414	-116.162672	-41.502200	0.672437	-41.502200	0.672437	-0.309393	-116.162674
8.650000	-0.313663	-116.741683	-41.392667	-0.732296	-41.392667	-0.732296	-0.313641	-116.741682
8.700000	-0.318003	-117.319498	-41.284152	-2.133509	-41.284152	-2.133509	-0.317980	-117.319493
8.750000	-0.322344	-117.897313	-41.176977	-3.534722	-41.176977	-3.534722	-0.322321	-117.897303
8.800000	-0.326786	-118.473903	-41.070801	-4.933046	-41.070801	-4.933046	-0.326761	-118.473887
8.850000	-0.331229	-119.050493	-40.965907	-6.331369	-40.965907	-6.331369	-0.331203	-119.050471
8.900000	-0.335764	-119.626037	-40.862058	-7.727931	-40.862058	-7.727931	-0.335736	-119.626007
8.950000	-0.340310	-120.201485	-40.759419	-9.124331	-40.759419	-9.124331	-0.340280	-120.201447
9.000000	-0.344939	-120.776054	-40.657871	-10.519942	-40.657871	-10.519942	-0.344907	-120.776005
9.050000	-0.349586	-121.350447	-40.557476	-11.915394	-40.557476	-11.915394	-0.349553	-121.350388
9.100000	-0.354308	-121.924114	-40.458217	-13.310863	-40.458217	-13.310863	-0.354274	-121.924042
9.150000	-0.359058	-122.497540	-40.360076	-14.706337	-40.360076	-14.706337	-0.359021	-122.497454
9.200000	-0.363874	-123.070381	-40.263110	-16.102465	-40.263110	-16.102465	-0.363835	-123.070280
9.250000	-0.368724	-123.642931	-40.167253	-17.498920	-40.167253	-17.498920	-0.368683	-123.642814
9.300000	-0.373634	-124.215024	-40.072599	-18.896489	-40.072599	-18.896489	-0.373590	-124.214889
9.350000	-0.378585	-124.786791	-39.979076	-20.294854	-39.979076	-20.294854	-0.378539	-124.786637
9.400000	-0.383587	-125.358216	-39.886769	-21.694620	-39.886769	-21.694620	-0.383539	-125.358041
9.450000	-0.388639	-125.929299	-39.795649	-23.095787	-39.795649	-23.095787	-0.388588	-125.929101
9.500000	-0.393733	-126.500139	-39.705739	-24.498470	-39.705739	-24.498470	-0.393679	-126.499917
9.550000	-0.398885	-127.070639	-39.617114	-25.903275	-39.617114	-25.903275	-0.398827	-127.070390
9.600000	-0.404071	-127.640978	-39.529666	-27.309549	-39.529666	-27.309549	-0.404010	-127.640702
9.650000	-0.409321	-128.210999	-39.443647	-28.718760	-39.443647	-28.718760	-0.409256	-128.210691
9.700000	-0.414597	-128.780926	-39.358742	-30.129242	-39.358742	-30.129242	-0.414528	-128.780587
9.750000	-0.419944	-129.350575	-39.275460	-31.543539	-39.275460	-31.543539	-0.419872	-129.350201
9.800000	-0.425310	-129.920181	-39.193192	-32.958779	-39.193192	-32.958779	-0.425233	-129.919771
9.850000	-0.430753	-130.489570	-39.112799	-34.378740	-39.112799	-34.378740	-0.430671	-130.489121
9.900000	-0.436206	-131.058948	-39.033276	-35.799211	-39.033276	-35.799211	-0.436120	-131.058458
9.950000	-0.441743	-131.628195	-38.955938	-37.225294	-38.955938	-37.225294	-0.441652	-131.627659
10.000000	-0.447283	-132.197441	-38.879283	-38.651377	-38.879283	-38.651377	-0.447187	-132.196861
