! freq	dB(S11)	phase(S11)	dB(S12)	phase(S12)	
!     	dB(S21)	phase(S21)	dB(S22)	phase(S22)	
!S-par simulation data
#  GHz  S  DB  R 50
0.000000	-81.803365	0.000000	-0.000706	0.000000	-0.000706	0.000000	-81.803365	0.000000
0.050000	-51.319548	-90.075304	-0.004304	-2.726588	-0.004304	-2.726588	-51.295971	-90.200582
0.100000	-45.224626	-93.165096	-0.010884	-5.419608	-0.010884	-5.419608	-45.217105	-93.299226
0.150000	-41.645305	-96.051028	-0.016309	-8.090381	-0.016309	-8.090381	-41.646013	-96.139142
0.200000	-39.124029	-98.973924	-0.020348	-10.754207	-0.020348	-10.754207	-39.126436	-99.016688
0.250000	-37.196304	-101.903520	-0.023487	-13.416667	-0.023487	-13.416667	-37.197431	-101.917140
0.300000	-35.652304	-104.814344	-0.026168	-16.079518	-0.026168	-16.079518	-35.651316	-104.813641
0.350000	-34.372915	-107.702141	-0.028697	-18.742955	-0.028697	-18.742955	-34.369974	-107.695517
0.400000	-33.291355	-110.566494	-0.031198	-21.406877	-0.031198	-21.406877	-33.286812	-110.559372
0.450000	-32.363520	-113.410351	-0.033745	-24.071081	-0.033745	-24.071081	-32.357759	-113.405798
0.500000	-31.562057	-116.236067	-0.036384	-26.735375	-0.036384	-26.735375	-31.555436	-116.235782
0.550000	-30.863915	-119.047804	-0.039129	-29.399596	-0.039129	-29.399596	-30.856726	-119.052522
0.600000	-30.253025	-121.848375	-0.041981	-32.063637	-0.041981	-32.063637	-30.245504	-121.858347
0.650000	-29.719005	-124.639629	-0.044937	-34.727420	-0.044937	-34.727420	-29.711345	-124.654826
0.700000	-29.253102	-127.423387	-0.047987	-37.390906	-0.047987	-37.390906	-29.245458	-127.443605
0.750000	-28.847476	-130.201300	-0.051116	-40.054091	-0.051116	-40.054091	-28.839968	-130.226246
0.800000	-28.497379	-132.974516	-0.054309	-42.716988	-0.054309	-42.716988	-28.490106	-133.003836
0.850000	-28.200073	-135.744012	-0.057554	-45.379624	-0.057554	-45.379624	-28.193114	-135.777308
0.900000	-27.950656	-138.510916	-0.060831	-48.042069	-0.060831	-48.042069	-27.944070	-138.547797
0.950000	-27.746773	-141.276083	-0.064125	-50.704394	-0.064125	-50.704394	-27.740607	-141.316157
1.000000	-27.588887	-144.040327	-0.067422	-53.366691	-0.067422	-53.366691	-27.583176	-144.083188
1.050000	-27.473924	-146.804550	-0.070707	-56.029069	-0.070707	-56.029069	-27.468692	-146.849825
1.100000	-27.401101	-149.569591	-0.073968	-58.691642	-0.073968	-58.691642	-27.396360	-149.616929
1.150000	-27.371871	-152.336431	-0.077192	-61.354554	-0.077192	-61.354554	-27.367628	-152.385493
1.200000	-27.386046	-155.106082	-0.080370	-64.017943	-0.080370	-64.017943	-27.382298	-155.156562
1.250000	-27.443653	-157.879601	-0.083496	-66.681945	-0.083496	-66.681945	-27.440392	-157.931233
1.300000	-27.547081	-160.658376	-0.086563	-69.346727	-0.086563	-69.346727	-27.544291	-160.710926
1.350000	-27.699369	-163.444130	-0.089565	-72.012470	-0.089565	-72.012470	-27.697026	-163.497406
1.400000	-27.901711	-166.238487	-0.092506	-74.679301	-0.092506	-74.679301	-27.899790	-166.292355
1.450000	-28.158050	-169.043743	-0.095384	-77.347379	-0.095384	-77.347379	-28.156516	-169.098126
1.500000	-28.475980	-171.863656	-0.098202	-80.016941	-0.098202	-80.016941	-28.474791	-171.918552
1.550000	-28.859274	-174.701419	-0.100967	-82.688072	-0.100967	-82.688072	-28.858383	-174.756911
1.600000	-29.316262	-177.562096	-0.103687	-85.360918	-0.103687	-85.360918	-29.315618	-177.618377
1.650000	-29.860520	179.545659	-0.106371	-88.035712	-0.106371	-88.035712	-29.860054	179.488239
1.700000	-30.505527	176.611770	-0.109033	-90.712546	-0.109033	-90.712546	-30.505161	176.552667
1.750000	-31.270590	173.621476	-0.111686	-93.391515	-0.111686	-93.391515	-31.270227	173.559873
1.800000	-32.185375	170.549620	-0.114347	-96.072769	-0.114347	-96.072769	-32.184888	170.484276
1.850000	-33.292295	167.355498	-0.117033	-98.756412	-0.117033	-98.756412	-33.291501	167.284488
1.900000	-34.658317	163.962769	-0.119765	-101.442568	-0.119765	-101.442568	-34.656932	163.882938
1.950000	-36.394439	160.217124	-0.122562	-104.131314	-0.122562	-104.131314	-36.391957	160.122917
2.000000	-38.706316	155.760699	-0.125445	-106.822685	-0.125445	-106.822685	-38.701656	155.641275
2.050000	-42.048318	149.482990	-0.128438	-109.516724	-0.128438	-109.516724	-42.038364	149.312762
2.100000	-47.721872	135.487085	-0.131562	-112.213458	-0.131562	-112.213458	-47.690490	135.191956
2.150000	-54.657462	56.498716	-0.134840	-114.912895	-0.134840	-114.912895	-54.568818	56.765380
2.200000	-46.340749	-9.012874	-0.138295	-117.615024	-0.138295	-117.615024	-46.341381	-8.669225
2.250000	-40.782051	-21.128464	-0.141947	-120.319817	-0.141947	-120.319817	-40.788064	-20.946178
2.300000	-37.271014	-27.055310	-0.145820	-123.027228	-0.145820	-123.027228	-37.276962	-26.929156
2.350000	-34.700931	-31.392309	-0.149933	-125.737192	-0.149933	-125.737192	-34.706403	-31.293471
2.400000	-32.668045	-35.086216	-0.154304	-128.449630	-0.154304	-128.449630	-32.673045	-35.003092
2.450000	-30.983493	-38.456454	-0.158952	-131.164443	-0.158952	-131.164443	-30.988067	-38.383297
2.500000	-29.544062	-41.640956	-0.163891	-133.881518	-0.163891	-133.881518	-29.548249	-41.574545
2.550000	-28.286823	-44.707396	-0.169143	-136.600772	-0.169143	-136.600772	-28.290652	-44.645753
2.600000	-27.171695	-47.697027	-0.174712	-139.322017	-0.174712	-139.322017	-27.175188	-47.638923
2.650000	-26.170612	-50.632504	-0.180605	-142.045099	-0.180605	-142.045099	-26.173786	-50.577125
2.700000	-25.263447	-53.528349	-0.186829	-144.769860	-0.186829	-144.769860	-25.266316	-53.475143
2.750000	-24.435276	-56.394273	-0.193385	-147.496131	-0.193385	-147.496131	-24.437851	-56.342865
2.800000	-23.674725	-59.236996	-0.200275	-150.223739	-0.200275	-150.223739	-23.677018	-59.187130
2.850000	-22.972924	-62.061302	-0.207494	-152.952507	-0.207494	-152.952507	-22.974945	-62.012808
2.900000	-22.322824	-64.870679	-0.215035	-155.682257	-0.215035	-155.682257	-22.324584	-64.823444
2.950000	-21.718729	-67.667720	-0.222888	-158.412811	-0.222888	-158.412811	-21.720239	-67.621675
3.000000	-21.155970	-70.454388	-0.231040	-161.143996	-0.231040	-161.143996	-21.157242	-70.409494
3.050000	-20.630676	-73.232191	-0.239476	-163.875642	-0.239476	-163.875642	-20.631723	-73.188429
3.100000	-20.139601	-76.002304	-0.248174	-166.607588	-0.248174	-166.607588	-20.140436	-75.959668
3.150000	-19.680065	-78.765590	-0.257115	-169.339681	-0.257115	-169.339681	-19.680702	-78.724085
3.200000	-19.249752	-81.522814	-0.266272	-172.071776	-0.266272	-172.071776	-19.250205	-81.482449
3.250000	-18.846580	-84.274644	-0.275614	-174.803746	-0.275614	-174.803746	-18.846864	-84.235431
3.300000	-18.468803	-87.021576	-0.285111	-177.535478	-0.285111	-177.535478	-18.468934	-86.983524
3.350000	-18.114904	-89.764027	-0.294729	179.733120	-0.294729	179.733120	-18.114896	-89.727145
3.400000	-17.783555	-92.502355	-0.304433	177.002125	-0.304433	177.002125	-17.783425	-92.466649
3.450000	-17.473596	-95.236876	-0.314185	174.271592	-0.314185	174.271592	-17.473359	-95.202347
3.500000	-17.184007	-97.967877	-0.323947	171.541555	-0.323947	171.541555	-17.183678	-97.934521
3.550000	-16.913890	-100.695621	-0.333679	168.812027	-0.333679	168.812027	-16.913483	-100.663431
3.600000	-16.662454	-103.420359	-0.343340	166.082996	-0.343340	166.082996	-16.661984	-103.389322
3.650000	-16.429004	-106.142334	-0.352890	163.354428	-0.352890	163.354428	-16.428485	-106.112432
3.700000	-16.212929	-108.861786	-0.362285	160.626265	-0.362285	160.626265	-16.212373	-108.832996
3.750000	-16.013694	-111.578955	-0.371484	157.898423	-0.371484	157.898423	-16.013114	-111.551253
3.800000	-15.831104	-114.294049	-0.380441	155.170798	-0.380441	155.170798	-15.830512	-114.267403
3.850000	-15.664499	-117.007368	-0.389118	152.443249	-0.389118	152.443249	-15.663904	-116.981745
3.900000	-15.513534	-119.719172	-0.397477	149.715617	-0.397477	149.715617	-15.512947	-119.694538
3.950000	-15.377923	-122.429729	-0.405479	146.987723	-0.405479	146.987723	-15.377352	-122.406047
4.000000	-15.257431	-125.139317	-0.413088	144.259363	-0.413088	144.259363	-15.256883	-125.116550
4.050000	-15.151874	-127.848223	-0.420270	141.530311	-0.420270	141.530311	-15.151357	-127.826335
4.100000	-15.061119	-130.556745	-0.426992	138.800319	-0.426992	138.800319	-15.060637	-130.535698
4.150000	-14.985081	-133.265187	-0.433224	136.069121	-0.433224	136.069121	-14.984639	-133.244947
4.200000	-14.923724	-135.973864	-0.438941	133.336432	-0.438941	133.336432	-14.923326	-135.954397
4.250000	-14.877062	-138.683093	-0.444118	130.601948	-0.444118	130.601948	-14.876711	-138.664371
4.300000	-14.845159	-141.393200	-0.448734	127.865351	-0.448734	127.865351	-14.844857	-141.375196
4.350000	-14.828132	-144.104510	-0.452773	125.126307	-0.452773	125.126307	-14.827880	-144.087203
4.400000	-14.826315	-146.817372	-0.456216	122.384436	-0.456216	122.384436	-14.826114	-146.800746
4.450000	-14.839946	-149.532120	-0.459051	119.639369	-0.459051	119.639369	-14.839794	-149.516165
4.500000	-14.869149	-152.249055	-0.461281	116.890771	-0.461281	116.890771	-14.869047	-152.233767
4.550000	-14.914279	-154.968485	-0.462905	114.138268	-0.462905	114.138268	-14.914225	-154.953869
4.600000	-14.975762	-157.690702	-0.463926	111.381484	-0.463926	111.381484	-14.975755	-157.676770
4.650000	-15.054104	-160.415982	-0.464352	108.620039	-0.464352	108.620039	-15.054142	-160.402754
4.700000	-15.149896	-163.144572	-0.464194	105.853551	-0.464194	105.853551	-15.149976	-163.132080
4.750000	-15.263826	-165.876690	-0.463470	103.081644	-0.463470	103.081644	-15.263947	-165.864974
4.800000	-15.396694	-168.612513	-0.462200	100.303941	-0.462200	100.303941	-15.396853	-168.601626
4.850000	-15.549422	-171.352169	-0.460411	97.520076	-0.460411	97.520076	-15.549617	-171.342175
4.900000	-15.723075	-174.095725	-0.458132	94.729689	-0.458132	94.729689	-15.723305	-174.086704
4.950000	-15.918886	-176.843176	-0.455397	91.932432	-0.455397	91.932432	-15.919149	-176.835222
5.000000	-16.138280	-179.594425	-0.452246	89.127970	-0.452246	89.127970	-16.138574	-179.587649
5.050000	-16.383333	177.650668	-0.448714	86.315814	-0.448714	86.315814	-16.383658	177.656129
5.100000	-16.655567	174.892543	-0.444858	83.495822	-0.444858	83.495822	-16.655924	174.896534
5.150000	-16.957240	172.131738	-0.440729	80.667715	-0.440729	80.667715	-16.957629	172.134075
5.200000	-17.291007	169.369014	-0.436383	77.831238	-0.436383	77.831238	-17.291431	169.369481
5.250000	-17.660019	166.605424	-0.431876	74.986160	-0.431876	74.986160	-17.660482	166.603763
5.300000	-18.068045	163.842396	-0.427272	72.132280	-0.427272	72.132280	-18.068551	163.838301
5.350000	-18.519637	161.081863	-0.422634	69.269425	-0.422634	69.269425	-18.520193	161.074963
5.400000	-19.020358	158.326443	-0.418030	66.397453	-0.418030	66.397453	-19.020975	158.316286
5.450000	-19.577103	155.579702	-0.413527	63.516255	-0.413527	63.516255	-19.577793	155.565729
5.500000	-20.198547	152.846570	-0.409198	60.625759	-0.409198	60.625759	-20.199329	152.828076
5.550000	-20.895817	150.133982	-0.405114	57.725927	-0.405114	57.725927	-20.896717	150.110061
5.600000	-21.683508	147.451945	-0.401348	54.816760	-0.401348	54.816760	-21.684560	147.421401
5.650000	-22.581603	144.816104	-0.397978	51.898196	-0.397978	51.898196	-22.582861	144.777294
5.700000	-23.617540	142.250868	-0.395081	48.970318	-0.395081	48.970318	-23.619081	142.201453
5.750000	-24.830757	139.795333	-0.392723	46.033346	-0.392723	46.033346	-24.832710	139.731873
5.800000	-26.282093	137.520086	-0.390976	43.087440	-0.390976	43.087440	-26.284681	137.437159
5.850000	-28.071538	135.564476	-0.389908	40.132798	-0.389908	40.132798	-28.075197	135.452801
5.900000	-30.380715	134.247603	-0.389587	37.169657	-0.389587	37.169657	-30.386454	134.089266
5.950000	-33.592938	134.497736	-0.390075	34.198291	-0.390075	34.198291	-33.603813	134.251086
6.000000	-38.731269	140.637487	-0.391432	31.219009	-0.391432	31.219009	-38.763109	140.173983
6.050000	-46.908804	-166.784143	-0.393713	28.232151	-0.393713	28.232151	-47.079547	-166.968312
6.100000	-40.421782	-88.153992	-0.396970	25.238093	-0.396970	25.238093	-40.452703	-87.480474
6.150000	-34.347638	-78.719899	-0.401248	22.237233	-0.401248	22.237233	-34.352708	-78.357891
6.200000	-30.692745	-77.866334	-0.406585	19.229998	-0.406585	19.229998	-30.693861	-77.615119
6.250000	-28.095508	-79.014331	-0.413017	16.216833	-0.413017	16.216833	-28.095509	-78.817966
6.300000	-26.082953	-80.945180	-0.420589	13.198122	-0.420589	13.198122	-26.082554	-80.781223
6.350000	-24.441878	-83.255430	-0.429303	10.174437	-0.429303	10.174437	-24.441321	-83.112977
6.400000	-23.058134	-85.783568	-0.439171	7.146263	-0.439171	7.146263	-23.057520	-85.656390
6.450000	-21.863696	-88.448947	-0.450201	4.114087	-0.450201	4.114087	-21.863069	-88.333158
6.500000	-20.814767	-91.206775	-0.462391	1.078396	-0.462391	1.078396	-20.814149	-91.099786
6.550000	-19.881493	-94.030114	-0.475732	-1.960331	-0.475732	-1.960331	-19.880895	-93.930116
6.600000	-19.042804	-96.903102	-0.490252	-5.001702	-0.490252	-5.001702	-19.042231	-96.808740
6.650000	-18.282668	-99.811248	-0.505849	-8.045096	-0.505849	-8.045096	-18.282121	-99.721575
6.700000	-17.589296	-102.747988	-0.522531	-11.090161	-0.522531	-11.090161	-17.588776	-102.662242
6.750000	-16.953409	-105.707432	-0.540263	-14.136488	-0.540263	-14.136488	-16.952916	-105.625013
6.800000	-16.367640	-108.685184	-0.559006	-17.183690	-0.559006	-17.183690	-16.367170	-108.605612
6.850000	-15.826030	-111.677887	-0.578711	-20.231416	-0.578711	-20.231416	-15.825583	-111.600769
6.900000	-15.323779	-114.683033	-0.599338	-23.279343	-0.599338	-23.279343	-15.323353	-114.608043
6.950000	-14.856825	-117.698494	-0.620828	-26.327179	-0.620828	-26.327179	-14.856417	-117.625361
7.000000	-14.421534	-120.722398	-0.643104	-29.374686	-0.643104	-29.374686	-14.421142	-120.650899
7.050000	-14.015164	-123.753601	-0.666118	-32.421651	-0.666118	-32.421651	-14.014786	-123.683542
7.100000	-13.635134	-126.790952	-0.689799	-35.467915	-0.689799	-35.467915	-13.634768	-126.722168
7.150000	-13.279262	-129.833573	-0.714078	-38.513356	-0.714078	-38.513356	-13.278907	-129.765923
7.200000	-12.945663	-132.880765	-0.738889	-41.557893	-0.738889	-41.557893	-12.945317	-132.814124
7.250000	-12.632698	-135.931974	-0.764161	-44.601484	-0.764161	-44.601484	-12.632360	-135.866233
7.300000	-12.338803	-138.986718	-0.789819	-47.644144	-0.789819	-47.644144	-12.338472	-138.921784
7.350000	-12.062642	-142.044658	-0.815791	-50.685923	-0.815791	-50.685923	-12.062317	-141.980447
7.400000	-11.803014	-145.105544	-0.842009	-53.726910	-0.842009	-53.726910	-11.802695	-145.041982
7.450000	-11.558837	-148.169207	-0.868400	-56.767235	-0.868400	-56.767235	-11.558523	-148.106228
7.500000	-11.329126	-151.235550	-0.894896	-59.807066	-0.894896	-59.807066	-11.328817	-151.173093
7.550000	-11.113068	-154.304568	-0.921429	-62.846609	-0.921429	-62.846609	-11.112765	-154.242578
7.600000	-10.909755	-157.376257	-0.947932	-65.886112	-0.947932	-65.886112	-10.909458	-157.314684
7.650000	-10.718553	-160.450738	-0.974340	-68.925858	-0.974340	-68.925858	-10.718263	-160.389535
7.700000	-10.538564	-163.528057	-1.000596	-71.966150	-1.000596	-71.966150	-10.538281	-163.467181
7.750000	-10.369228	-166.608403	-1.026640	-75.007328	-1.026640	-75.007328	-10.368955	-166.547814
7.800000	-10.209951	-169.691971	-1.052417	-78.049760	-1.052417	-78.049760	-10.209688	-169.631630
7.850000	-10.060182	-172.778985	-1.077874	-81.093837	-1.077874	-81.093837	-10.059930	-172.718855
7.900000	-9.919409	-175.869695	-1.102963	-84.139976	-1.102963	-84.139976	-9.919169	-175.809742
7.950000	-9.787154	-178.964374	-1.127638	-87.188616	-1.127638	-87.188616	-9.786929	-178.904563
8.000000	-9.662974	177.936689	-1.151855	-90.240216	-1.151855	-90.240216	-9.662764	177.996389
8.050000	-9.546454	174.833188	-1.175575	-93.295254	-1.175575	-93.295254	-9.546262	174.892811
8.100000	-9.437210	171.724810	-1.198761	-96.354224	-1.198761	-96.354224	-9.437037	171.784385
8.150000	-9.334942	168.611171	-1.221374	-99.417687	-1.221374	-99.417687	-9.334789	168.670727
8.200000	-9.239310	165.491932	-1.243380	-102.486184	-1.243380	-102.486184	-9.239177	165.551497
8.250000	-9.149944	162.366820	-1.264761	-105.560201	-1.264761	-105.560201	-9.149832	162.426421
8.300000	-9.066557	159.235508	-1.285492	-108.640282	-1.285492	-108.640282	-9.066467	159.295167
8.350000	-8.988744	156.097866	-1.305571	-111.726773	-1.305571	-111.726773	-8.988676	156.157607
8.400000	-8.916565	152.953164	-1.324934	-114.820661	-1.324934	-114.820661	-8.916519	153.013006
8.450000	-8.849636	149.801298	-1.343587	-117.922300	-1.343587	-117.922300	-8.849612	149.861261
8.500000	-8.787758	146.641966	-1.361513	-121.032265	-1.361513	-121.032265	-8.787755	146.702063
8.550000	-8.730753	143.474871	-1.378699	-124.151138	-1.378699	-124.151138	-8.730769	143.535115
8.600000	-8.678463	140.299728	-1.395131	-127.279508	-1.395131	-127.279508	-8.678499	140.360128
8.650000	-8.630815	137.116138	-1.410785	-130.418128	-1.410785	-130.418128	-8.630868	137.176700
8.700000	-8.587736	133.923745	-1.425642	-133.567728	-1.425642	-133.567728	-8.587804	133.984472
8.750000	-8.548651	130.723329	-1.439784	-136.727591	-1.439784	-136.727591	-8.548734	130.784220
8.800000	-8.514383	127.512733	-1.453025	-139.900835	-1.453025	-139.900835	-8.514477	127.573788
8.850000	-8.484006	124.293674	-1.465530	-143.085511	-1.465530	-143.085511	-8.484110	124.354888
8.900000	-8.458151	121.064474	-1.477156	-146.284247	-1.477156	-146.284247	-8.458264	121.125845
8.950000	-8.436427	117.825848	-1.487970	-149.496407	-1.487970	-149.496407	-8.436547	117.887372
9.000000	-8.419042	114.577204	-1.497925	-152.723225	-1.497925	-152.723225	-8.419168	114.638880
9.050000	-8.406155	111.318138	-1.506987	-155.965703	-1.506987	-155.965703	-8.406287	111.379973
9.100000	-8.397532	108.049241	-1.515206	-159.223365	-1.515206	-159.223365	-8.397670	108.111246
9.150000	-8.393939	104.768882	-1.522437	-162.499219	-1.522437	-162.499219	-8.394084	104.831086
9.200000	-8.394712	101.478764	-1.528825	-165.790994	-1.528825	-165.790994	-8.394866	101.541206
9.250000	-8.400854	98.176945	-1.534194	-169.102382	-1.534194	-169.102382	-8.401022	98.239693
9.300000	-8.412340	94.863878	-1.538576	-172.433190	-1.538576	-172.433190	-8.412525	94.927032
9.350000	-8.429497	91.539334	-1.541942	-175.784394	-1.541942	-175.784394	-8.429706	91.603032
9.400000	-8.452710	88.203072	-1.544262	-179.157035	-1.544262	-179.157035	-8.452950	88.267506
9.450000	-8.482426	84.854846	-1.545504	177.447767	-1.545504	177.447767	-8.482707	84.920272
9.500000	-8.519164	81.494400	-1.545638	174.028804	-1.545638	174.028804	-8.519495	81.561159
9.550000	-8.563521	78.121481	-1.544632	170.584776	-1.544632	170.584776	-8.563912	78.190014
9.600000	-8.616224	74.735773	-1.542451	167.114136	-1.542451	167.114136	-8.616685	74.806655
9.650000	-8.678114	71.336973	-1.539062	163.615190	-1.539062	163.615190	-8.678654	71.410943
9.700000	-8.750019	67.924998	-1.534456	160.086532	-1.534456	160.086532	-8.750642	68.002985
9.750000	-8.832972	64.499695	-1.528618	156.526362	-1.528618	156.526362	-8.833676	64.582866
9.800000	-8.928157	61.060988	-1.521541	152.932726	-1.521541	152.932726	-8.928930	61.150803
9.850000	-9.036934	57.608922	-1.513234	149.303510	-1.513234	149.303510	-9.037750	57.707198
9.900000	-9.160866	54.143715	-1.503718	145.636425	-1.503718	145.636425	-9.161675	54.252701
9.950000	-9.301755	50.665829	-1.493034	141.929004	-1.493034	141.929004	-9.302476	50.788305
10.000000	-9.461689	47.176069	-1.481247	138.178586	-1.481247	138.178586	-9.462195	47.315456
