! freq	dB(S11)	phase(S11)	dB(S12)	phase(S12)	
!     	dB(S21)	phase(S21)	dB(S22)	phase(S22)	
!S-par simulation data
#  GHz  S  DB  R 50
0.000000	-85.219428	0.000000	-0.000476	0.000000	-0.000476	0.000000	-85.219428	0.000000
0.050000	-36.490230	-92.831950	-0.003176	-2.909100	-0.003176	-2.909100	-36.487129	-92.682128
0.100000	-30.479454	-95.976257	-0.010396	-5.805456	-0.010396	-5.805456	-30.476579	-95.676155
0.150000	-26.973480	-99.041992	-0.020476	-8.685437	-0.020476	-8.685437	-26.970928	-98.591059
0.200000	-24.496319	-102.078579	-0.032312	-11.551851	-0.032312	-11.551851	-24.494132	-101.476153
0.250000	-22.585092	-105.094545	-0.045480	-14.408730	-0.045480	-14.408730	-22.583257	-104.340020
0.300000	-21.033387	-108.092189	-0.059932	-17.258815	-0.059932	-17.258815	-21.031849	-107.185112
0.350000	-19.730935	-111.072571	-0.075737	-20.103404	-0.075737	-20.103404	-19.729615	-110.012674
0.400000	-18.611813	-114.036587	-0.092960	-22.942838	-0.092960	-22.942838	-18.610627	-112.823763
0.450000	-17.633579	-116.985044	-0.111646	-25.776880	-0.111646	-25.776880	-17.632450	-115.619283
0.500000	-16.767059	-119.919013	-0.131778	-28.605102	-0.131778	-28.605102	-16.765924	-118.400333
0.550000	-15.991422	-122.839523	-0.153312	-31.426978	-0.153312	-31.426978	-15.990240	-121.167894
0.600000	-15.291338	-125.747446	-0.176188	-34.241929	-0.176188	-34.241929	-15.290084	-123.922745
0.650000	-14.655164	-128.643548	-0.200331	-37.049393	-0.200331	-37.049393	-14.653831	-126.665521
0.700000	-14.073846	-131.528474	-0.225654	-39.848845	-0.225654	-39.848845	-14.072439	-129.396721
0.750000	-13.540203	-134.402755	-0.252065	-42.639820	-0.252065	-42.639820	-13.538736	-132.116723
0.800000	-13.048437	-137.266818	-0.279468	-45.421911	-0.279468	-45.421911	-13.046931	-134.825806
0.850000	-12.594171	-140.120678	-0.307787	-48.194464	-0.307787	-48.194464	-12.592649	-137.523817
0.900000	-12.172815	-142.965160	-0.336875	-50.957743	-0.336875	-50.957743	-12.171301	-140.211508
0.950000	-11.781308	-145.800253	-0.366651	-53.711346	-0.366651	-53.711346	-11.779824	-142.888741
1.000000	-11.416825	-148.626135	-0.397013	-56.455152	-0.397013	-56.455152	-11.415391	-145.555609
1.050000	-11.076940	-151.442960	-0.427860	-59.189107	-0.427860	-59.189107	-11.075571	-148.212191
1.100000	-10.759553	-154.250871	-0.459094	-61.913220	-0.459094	-61.913220	-10.758260	-150.858573
1.150000	-10.462827	-157.050005	-0.490618	-64.627558	-0.490618	-64.627558	-10.461618	-153.494850
1.200000	-10.185148	-159.840504	-0.522336	-67.332246	-0.522336	-67.332246	-10.184024	-156.121133
1.250000	-9.925086	-162.622518	-0.554156	-70.027456	-0.554156	-70.027456	-9.924043	-158.737555
1.300000	-9.681554	-165.396035	-0.585986	-72.713212	-0.585986	-72.713212	-9.680587	-161.344067
1.350000	-9.453209	-168.161425	-0.617738	-75.389983	-0.617738	-75.389983	-9.452308	-163.941068
1.400000	-9.239021	-170.918890	-0.649332	-78.058067	-0.649332	-78.058067	-9.238173	-166.528771
1.450000	-9.038056	-173.668655	-0.680690	-80.717797	-0.680690	-80.717797	-9.037249	-169.107418
1.500000	-8.849469	-176.410970	-0.711737	-83.369530	-0.711737	-83.369530	-8.848687	-171.677276
1.550000	-8.672486	-179.146105	-0.742405	-86.013650	-0.742405	-86.013650	-8.671714	-174.238642
1.600000	-8.506399	178.125647	-0.772629	-88.650560	-0.772629	-88.650560	-8.505624	-176.791838
1.650000	-8.350557	175.403968	-0.802348	-91.280682	-0.802348	-91.280682	-8.349767	-179.337209
1.700000	-8.205026	172.689098	-0.831438	-93.903865	-0.831438	-93.903865	-8.204212	178.125571
1.750000	-8.067972	169.979542	-0.859973	-96.521711	-0.859973	-96.521711	-8.067128	175.594750
1.800000	-7.939493	167.275466	-0.887850	-99.134114	-0.887850	-99.134114	-7.938618	173.070569
1.850000	-7.819117	164.576474	-0.915028	-101.741535	-0.915028	-101.741535	-7.818211	170.552600
1.900000	-7.706402	161.882154	-0.941468	-104.344435	-0.941468	-104.344435	-7.705470	168.040399
1.950000	-7.600938	159.192078	-0.967139	-106.943281	-0.967139	-106.943281	-7.599990	165.533507
2.000000	-7.502344	156.505811	-0.992012	-109.538535	-0.992012	-109.538535	-7.501392	163.031453
2.050000	-7.410265	153.822908	-1.016063	-112.130659	-1.016063	-112.130659	-7.409325	160.533758
2.100000	-7.324369	151.142919	-1.039270	-114.720110	-1.039270	-114.720110	-7.323460	158.039933
2.150000	-7.244349	148.465394	-1.061618	-117.307338	-1.061618	-117.307338	-7.243490	155.549483
2.200000	-7.169916	145.789884	-1.083093	-119.892787	-1.083093	-119.892787	-7.169127	153.061911
2.250000	-7.100800	143.115945	-1.103685	-122.476895	-1.103685	-122.476895	-7.100103	150.576716
2.300000	-7.036753	140.443145	-1.123388	-125.060087	-1.123388	-125.060087	-7.036166	148.093396
2.350000	-6.977539	137.771062	-1.142198	-127.642780	-1.142198	-127.642780	-6.977079	145.611452
2.400000	-6.922940	135.099293	-1.160116	-130.225379	-1.160116	-130.225379	-6.922622	143.130387
2.450000	-6.872751	132.427452	-1.177142	-132.808277	-1.177142	-132.808277	-6.872586	140.649708
2.500000	-6.826781	129.755180	-1.193281	-135.391858	-1.193281	-135.391858	-6.826776	138.168930
2.550000	-6.785011	127.082092	-1.208502	-137.976550	-1.208502	-137.976550	-6.785168	135.687526
2.600000	-6.747101	124.407904	-1.222853	-140.562679	-1.222853	-140.562679	-6.747417	133.205035
2.650000	-6.712893	121.732344	-1.236345	-143.150584	-1.236345	-143.150584	-6.713362	130.720999
2.700000	-6.682239	119.055170	-1.248990	-145.740591	-1.248990	-145.740591	-6.682850	128.234974
2.750000	-6.654998	116.376171	-1.260804	-148.333012	-1.260804	-148.333012	-6.655739	125.746531
2.800000	-6.631035	113.695170	-1.271801	-150.928147	-1.271801	-150.928147	-6.631891	123.255256
2.850000	-6.610225	111.012020	-1.281997	-153.526278	-1.281997	-153.526278	-6.611181	120.760748
2.900000	-6.592445	108.326604	-1.291411	-156.127676	-1.291411	-156.127676	-6.593487	118.262627
2.950000	-6.577579	105.638835	-1.300060	-158.732598	-1.300060	-158.732598	-6.578696	115.760529
3.000000	-6.565515	102.948653	-1.307964	-161.341286	-1.307964	-161.341286	-6.566699	113.254108
3.050000	-6.556148	100.256022	-1.315142	-163.953969	-1.315142	-163.953969	-6.557394	110.743038
3.100000	-6.549373	97.560931	-1.321614	-166.570864	-1.321614	-166.570864	-6.550684	108.227011
3.150000	-6.545092	94.863389	-1.327400	-169.192173	-1.327400	-169.192173	-6.546477	105.705739
3.200000	-6.543212	92.163426	-1.332521	-171.818086	-1.332521	-171.818086	-6.544685	103.178948
3.250000	-6.543640	89.461087	-1.336996	-174.448782	-1.336996	-174.448782	-6.545223	100.646386
3.300000	-6.546290	86.756433	-1.340845	-177.084428	-1.340845	-177.084428	-6.548012	98.107812
3.350000	-6.551082	84.049538	-1.344089	-179.725178	-1.344089	-179.725178	-6.552976	95.563001
3.400000	-6.557937	81.340490	-1.346746	177.628824	-1.346746	177.628824	-6.560041	93.011739
3.450000	-6.566782	78.629384	-1.348835	174.977444	-1.348835	174.977444	-6.569137	90.453818
3.500000	-6.577552	75.916326	-1.350374	172.320557	-1.350374	172.320557	-6.580198	87.889038
3.550000	-6.590183	73.201430	-1.351380	169.658048	-1.351380	169.658048	-6.593162	85.317202
3.600000	-6.604621	70.484816	-1.351871	166.989811	-1.351871	166.989811	-6.607970	82.738110
3.650000	-6.620815	67.766611	-1.351860	164.315747	-1.351860	164.315747	-6.624569	80.151560
3.700000	-6.638725	65.046948	-1.351363	161.635762	-1.351363	161.635762	-6.642910	77.557343
3.750000	-6.658314	62.325962	-1.350392	158.949772	-1.350392	158.949772	-6.662950	74.955243
3.800000	-6.679623	59.603752	-1.348941	156.257427	-1.348941	156.257427	-6.684721	72.344668
3.850000	-6.702562	56.880519	-1.347040	153.558913	-1.347040	153.558913	-6.708123	69.725719
3.900000	-6.727121	54.156411	-1.344698	150.854157	-1.344698	150.854157	-6.733138	67.098147
3.950000	-6.753299	51.431577	-1.341922	148.143087	-1.341922	148.143087	-6.759756	64.461689
4.000000	-6.781105	48.706169	-1.338719	145.425636	-1.338719	145.425636	-6.787979	61.816074
4.050000	-6.810557	45.980338	-1.335092	142.701734	-1.335092	142.701734	-6.817818	59.161025
4.100000	-6.841683	43.254237	-1.331045	139.971310	-1.331045	139.971310	-6.849299	56.496259
4.150000	-6.874523	40.528016	-1.326578	137.234290	-1.326578	137.234290	-6.882460	53.821491
4.200000	-6.909127	37.801826	-1.321691	134.490599	-1.321691	134.490599	-6.917351	51.136437
4.250000	-6.945560	35.075815	-1.316381	131.740155	-1.316381	131.740155	-6.954036	48.440815
4.300000	-6.983895	32.350128	-1.310644	128.982868	-1.310644	128.982868	-6.992596	45.734347
4.350000	-7.024222	29.624907	-1.304473	126.218642	-1.304473	126.218642	-7.033125	43.016759
4.400000	-7.066642	26.900289	-1.297862	123.447372	-1.297862	123.447372	-7.075731	40.287786
4.450000	-7.111272	24.176408	-1.290801	120.668939	-1.290801	120.668939	-7.120541	37.547162
4.500000	-7.158246	21.453393	-1.283278	117.883214	-1.283278	117.883214	-7.167697	34.794631
4.550000	-7.207710	18.731368	-1.275281	115.090052	-1.275281	115.090052	-7.217356	32.029933
4.600000	-7.259830	16.010452	-1.266797	112.289291	-1.266797	112.289291	-7.269696	29.252812
4.650000	-7.314792	13.290760	-1.257809	109.480751	-1.257809	109.480751	-7.324912	26.463003
4.700000	-7.372798	10.572404	-1.248301	106.664234	-1.248301	106.664234	-7.383218	23.660238
4.750000	-7.434073	7.855491	-1.238255	103.839517	-1.238255	103.839517	-7.444852	20.844232
4.800000	-7.498864	5.140132	-1.227653	101.006355	-1.227653	101.006355	-7.510071	18.014686
4.850000	-7.567443	2.426434	-1.216475	98.164477	-1.216475	98.164477	-7.579160	15.171278
4.900000	-7.640107	-0.285486	-1.204702	95.313583	-1.204702	95.313583	-7.652428	12.313659
4.950000	-7.717184	-2.995508	-1.192315	92.453344	-1.192315	92.453344	-7.730215	9.441447
5.000000	-7.799030	-5.703494	-1.179292	89.583400	-1.179292	89.583400	-7.812893	6.554223
5.050000	-7.886241	-8.409186	-1.165586	86.702896	-1.165586	86.702896	-7.901077	3.650825
5.100000	-7.979075	-11.112486	-1.151207	83.811819	-1.151207	83.811819	-7.995037	0.731385
5.150000	-8.078004	-13.813166	-1.136138	80.909696	-1.136138	80.909696	-8.095266	-2.204676
5.200000	-8.183550	-16.510952	-1.120364	77.996017	-1.120364	77.996017	-8.202306	-5.158003
5.250000	-8.296284	-19.205501	-1.103874	75.070226	-1.103874	75.070226	-8.316754	-8.129308
5.300000	-8.416836	-21.896388	-1.086659	72.131731	-1.086659	72.131731	-8.439269	-11.119388
5.350000	-8.545898	-24.583080	-1.068714	69.179892	-1.068714	69.179892	-8.570580	-14.129125
5.400000	-8.684237	-27.264909	-1.050037	66.214027	-1.050037	66.214027	-8.711495	-17.159497
5.450000	-8.832701	-29.941039	-1.030633	63.233410	-1.030633	63.233410	-8.862911	-20.211596
5.500000	-8.992229	-32.610423	-1.010514	60.237269	-1.010514	60.237269	-9.025832	-23.286632
5.550000	-9.163869	-35.271747	-0.989695	57.224786	-0.989695	57.224786	-9.201378	-26.385953
5.600000	-9.348789	-37.923368	-0.968203	54.195103	-0.968203	54.195103	-9.390808	-29.511065
5.650000	-9.546849	-40.565088	-0.946157	51.149803	-0.946157	51.149803	-9.594018	-32.659822
5.700000	-9.762438	-43.190849	-0.923416	48.082885	-0.923416	48.082885	-9.815680	-35.841829
5.750000	-9.995760	-45.799048	-0.900134	44.995920	-0.900134	44.995920	-10.056102	-39.055360
5.800000	-10.248700	-48.385603	-0.876378	41.887891	-0.876378	41.887891	-10.317384	-42.302855
5.850000	-10.523401	-50.945364	-0.852228	38.757752	-0.852228	38.757752	-10.601951	-45.587115
5.900000	-10.822319	-53.471801	-0.827780	35.604432	-0.827780	35.604432	-10.912615	-48.911395
5.950000	-11.148279	-55.956602	-0.803144	32.426846	-0.803144	32.426846	-11.252667	-52.279520
6.000000	-11.504548	-58.389111	-0.778447	29.223898	-0.778447	29.223898	-11.625993	-55.696062
6.050000	-11.894931	-60.755568	-0.753834	25.994497	-0.753834	25.994497	-12.037230	-59.166577
6.100000	-12.323881	-63.038040	-0.729470	22.737562	-0.729470	22.737562	-12.491971	-62.697962
6.150000	-12.796648	-65.212898	-0.705539	19.452042	-0.705539	19.452042	-12.997057	-66.298983
6.200000	-13.319449	-67.248613	-0.682246	16.136926	-0.682246	16.136926	-13.560985	-69.981079
6.250000	-13.899686	-69.102486	-0.659816	12.791263	-0.659816	12.791263	-14.194497	-73.759627
6.300000	-14.546668	-70.708568	-0.638526	9.413477	-0.638526	9.413477	-14.912204	-77.659277
6.350000	-15.270290	-71.985870	-0.618628	6.003463	-0.618628	6.003463	-15.731880	-81.709820
6.400000	-16.082568	-72.811842	-0.600414	2.560575	-0.600414	2.560575	-16.678608	-85.959893
6.450000	-16.996683	-73.005399	-0.584193	-0.915687	-0.584193	-0.915687	-17.787873	-90.488046
6.500000	-18.025017	-72.293091	-0.570295	-4.425654	-0.570295	-4.425654	-19.112189	-95.430344
6.550000	-19.173277	-70.256764	-0.559062	-7.969464	-0.559062	-7.969464	-20.733744	-101.044920
6.600000	-20.424690	-66.266532	-0.550852	-11.547036	-0.550852	-11.547036	-22.790383	-107.886090
6.650000	-21.702342	-59.458869	-0.546029	-15.158045	-0.546029	-15.158045	-25.531034	-117.377307
6.700000	-22.801799	-49.005789	-0.544964	-18.801906	-0.544964	-18.801906	-29.390772	-134.259338
6.750000	-23.360223	-35.113916	-0.548025	-22.477755	-0.548025	-22.477755	-33.931046	-175.708767
6.800000	-23.066957	-20.189904	-0.555573	-26.184430	-0.555573	-26.184430	-32.167872	121.794326
6.850000	-22.014025	-7.599321	-0.567954	-29.920472	-0.567954	-29.920472	-27.290341	93.763514
6.900000	-20.580913	1.100483	-0.585554	-33.684393	-0.585554	-33.684393	-23.722015	81.050281
6.950000	-19.080930	6.360403	-0.608673	-37.474052	-0.608673	-37.474052	-21.085719	72.813765
7.000000	-17.658741	9.160560	-0.637510	-41.286788	-0.637510	-41.286788	-19.019322	66.354331
7.050000	-16.357983	10.269112	-0.672269	-45.119990	-0.672269	-45.119990	-17.328191	60.772548
7.100000	-15.182960	10.214525	-0.713100	-48.970827	-0.713100	-48.970827	-15.902343	55.682469
7.150000	-14.124518	9.345405	-0.760088	-52.836300	-0.760088	-52.836300	-14.674639	50.894066
7.200000	-13.170219	7.892647	-0.813250	-56.713297	-0.813250	-56.713297	-13.601396	46.304331
7.250000	-12.307960	6.012431	-0.872522	-60.598654	-0.872522	-60.598654	-12.652713	41.853491
7.300000	-11.527063	3.813251	-0.937763	-64.489231	-0.937763	-64.489231	-11.807266	37.505140
7.350000	-10.818448	1.372560	-1.008745	-68.381989	-1.008745	-68.381989	-11.049328	33.236329
7.400000	-10.174492	-1.252893	-1.085152	-72.274076	-1.085152	-72.274076	-10.366975	29.032230
7.450000	-9.588806	-4.020541	-1.166582	-76.162912	-1.166582	-76.162912	-9.750946	24.883085
7.500000	-9.056030	-6.897793	-1.252547	-80.046280	-1.252547	-80.046280	-9.193911	20.782352
7.550000	-8.572082	-9.860640	-1.342522	-83.922229	-1.342522	-83.922229	-8.690447	16.726408
7.600000	-8.132754	-12.886985	-1.435768	-87.789696	-1.435768	-87.789696	-8.235315	12.711032
7.650000	-7.734794	-15.961099	-1.531549	-91.648145	-1.531549	-91.648145	-7.824562	8.733754
7.700000	-7.375457	-19.070377	-1.629061	-95.497769	-1.629061	-95.497769	-7.454931	4.792448
7.750000	-7.052439	-22.204709	-1.727434	-99.339594	-1.727434	-99.339594	-7.123754	0.885074
7.800000	-6.763840	-25.356014	-1.825741	-103.175570	-1.825741	-103.175570	-6.828876	-2.990512
7.850000	-6.508138	-28.517887	-1.923003	-107.008682	-1.923003	-107.008682	-6.568608	-6.836690
7.900000	-6.284183	-31.685297	-2.018198	-110.843076	-2.018198	-110.843076	-6.341708	-10.656172
7.950000	-6.091203	-34.854326	-2.110267	-114.684192	-2.110267	-114.684192	-6.147384	-14.452064
8.000000	-5.928830	-38.021926	-2.198128	-118.538936	-2.198128	-118.538936	-5.985316	-18.227883
8.050000	-5.797139	-41.185634	-2.280685	-122.415877	-2.280685	-122.415877	-5.855706	-21.987543
8.100000	-5.696714	-44.343256	-2.356843	-126.325490	-2.356843	-126.325490	-5.759356	-25.735273
8.150000	-5.629105	-47.492298	-2.425439	-130.281118	-2.425439	-130.281118	-5.698181	-29.475417
8.200000	-5.596315	-50.629447	-2.485437	-134.298632	-2.485437	-134.298632	-5.674698	-33.212310
8.250000	-5.600840	-53.749755	-2.536028	-138.396031	-2.536028	-138.396031	-5.692102	-36.949439
8.300000	-5.646637	-56.844905	-2.576498	-142.595391	-2.576498	-142.595391	-5.755410	-40.688422
8.350000	-5.737582	-59.902687	-2.606720	-146.918436	-2.606720	-146.918436	-5.869836	-44.427543
8.400000	-5.883822	-62.897126	-2.626013	-151.405044	-2.626013	-151.405044	-6.048258	-48.158419
8.450000	-6.093271	-65.790598	-2.635366	-156.087955	-2.635366	-156.087955	-6.302006	-51.860713
8.500000	-6.378008	-68.518383	-2.636369	-161.010210	-2.636369	-161.010210	-6.648870	-55.492544
8.550000	-6.753029	-70.972422	-2.631994	-166.221355	-2.631994	-166.221355	-7.113218	-58.972548
8.600000	-7.235647	-72.971973	-2.627172	-171.776995	-2.627172	-171.776995	-7.728279	-62.145646
8.650000	-7.842297	-74.215452	-2.629532	-177.736914	-2.629532	-177.736914	-8.538321	-64.715205
8.700000	-8.578288	-74.209042	-2.650263	175.839225	-2.650263	175.839225	-9.597557	-66.104293
8.750000	-9.410184	-72.196239	-2.704967	168.899929	-2.704967	168.899929	-10.951809	-65.173833
8.800000	-10.201002	-67.201871	-2.815014	161.408924	-2.815014	161.408924	-12.540931	-59.665197
8.850000	-10.644453	-58.881721	-3.005066	153.382017	-3.005066	153.382017	-13.872524	-46.659652
8.900000	-10.376309	-48.903808	-3.302347	144.887873	-3.302347	144.887873	-13.798006	-27.807839
8.950000	-9.364019	-40.703555	-3.732122	136.065528	-3.732122	136.065528	-12.054228	-13.105203
9.000000	-7.973761	-36.432183	-4.312917	127.119821	-4.312917	127.119821	-9.812594	-7.085471
9.050000	-6.580862	-35.812309	-5.049577	118.294736	-5.049577	118.294736	-7.818576	-6.989496
9.100000	-5.366457	-37.677867	-5.933905	109.824873	-5.933905	109.824873	-6.222010	-9.997066
9.150000	-4.376553	-40.976027	-6.947035	101.897864	-6.947035	101.897864	-4.988142	-14.469538
9.200000	-3.598276	-44.982923	-8.063532	94.641764	-8.063532	94.641764	-4.049122	-19.522553
9.250000	-2.995155	-49.242635	-9.258936	88.097866	-9.258936	88.097866	-3.335554	-24.680080
9.300000	-2.531493	-53.505584	-10.511327	82.271985	-10.511327	82.271985	-2.793320	-29.706354
9.350000	-2.175387	-57.638714	-11.803651	77.134927	-11.803651	77.134927	-2.379505	-34.490058
9.400000	-1.901553	-61.579226	-13.122227	72.648001	-13.122227	72.648001	-2.062154	-38.988002
9.450000	-1.689785	-65.306879	-14.458943	68.764106	-14.458943	68.764106	-1.816749	-43.197068
9.500000	-1.524615	-68.825383	-15.810924	65.437395	-15.810924	65.437395	-1.624981	-47.134961
9.550000	-1.394924	-72.147109	-17.176373	62.636838	-17.176373	62.636838	-1.473872	-50.824492
9.600000	-1.292427	-75.288699	-18.555260	60.343258	-18.555260	60.343258	-1.353847	-54.290545
9.650000	-1.210941	-78.267858	-19.948733	58.550879	-19.948733	58.550879	-1.257811	-57.557363
9.700000	-1.145832	-81.101714	-21.358594	57.268696	-21.358594	57.268696	-1.180468	-60.647301
9.750000	-1.093602	-83.806062	-22.786751	56.522055	-22.786751	56.522055	-1.117834	-63.580366
9.800000	-1.051921	-86.390809	-24.225242	56.383680	-24.225242	56.383680	-1.067255	-66.369006
9.850000	-1.017984	-88.878494	-25.694620	56.855188	-25.694620	56.855188	-1.025542	-69.040618
9.900000	-0.990709	-91.274163	-27.180610	58.053693	-27.180610	58.053693	-0.991465	-71.601335
9.950000	-0.968866	-93.587496	-28.675381	60.084540	-28.675381	60.084540	-0.963622	-74.062782
10.000000	-0.951489	-95.826945	-30.163319	63.066685	-30.163319	63.066685	-0.940914	-76.435037
