! freq	dB(S11)	phase(S11)	dB(S12)	phase(S12)	
!     	dB(S21)	phase(S21)	dB(S22)	phase(S22)	
!S-par simulation data
#  GHz  S  DB  R 50
0.000000	-84.813852	0.000000	-0.000499	0.000000	-0.000499	0.000000	-84.813852	0.000000
0.050000	-41.274546	-90.955664	-0.004296	-2.655047	-0.004296	-2.655047	-41.290594	-91.559474
0.100000	-35.340058	-93.358311	-0.010630	-5.278156	-0.010630	-5.278156	-35.363487	-95.874938
0.150000	-31.860873	-95.652093	-0.016386	-7.887137	-0.016386	-7.887137	-31.882754	-99.602058
0.200000	-29.391664	-97.837696	-0.021954	-10.492535	-0.021954	-10.492535	-29.415410	-103.109841
0.250000	-27.478627	-99.953324	-0.027836	-13.096658	-0.027836	-13.096658	-27.504312	-106.517159
0.300000	-25.918425	-102.024483	-0.034238	-15.699612	-0.034238	-15.699612	-25.945308	-109.873832
0.350000	-24.602450	-104.065751	-0.041221	-18.301177	-0.041221	-18.301177	-24.629889	-113.202901
0.400000	-23.465637	-106.086776	-0.048767	-20.901258	-0.048767	-20.901258	-23.493231	-116.516784
0.450000	-22.466338	-108.092503	-0.056865	-23.499773	-0.056865	-23.499773	-22.493857	-119.821372
0.500000	-21.575784	-110.086693	-0.065471	-26.096805	-0.065471	-26.096805	-21.603111	-123.120322
0.550000	-20.773828	-112.070957	-0.074577	-28.692364	-0.074577	-28.692364	-20.800893	-126.415376
0.600000	-20.045228	-114.046793	-0.084151	-31.286566	-0.084151	-31.286566	-20.071988	-129.707779
0.650000	-19.378690	-116.014732	-0.094188	-33.879450	-0.094188	-33.879450	-19.405108	-132.998189
0.700000	-18.765199	-117.975350	-0.104671	-36.471101	-0.104671	-36.471101	-18.791238	-136.287135
0.750000	-18.197724	-119.928857	-0.115593	-39.061563	-0.115593	-39.061563	-18.223343	-139.574984
0.800000	-17.670519	-121.875445	-0.126947	-41.650888	-0.126947	-41.650888	-17.695674	-142.862062
0.850000	-17.178852	-123.815265	-0.138722	-44.239126	-0.138722	-44.239126	-17.203496	-146.148660
0.900000	-16.718812	-125.748397	-0.150910	-46.826318	-0.150910	-46.826318	-16.742897	-149.435058
0.950000	-16.287107	-127.674911	-0.163504	-49.412506	-0.163504	-49.412506	-16.310584	-152.721529
1.000000	-15.880952	-129.594858	-0.176496	-51.997731	-0.176496	-51.997731	-15.903771	-156.008356
1.050000	-15.497883	-131.508387	-0.189873	-54.582052	-0.189873	-54.582052	-15.519997	-159.295810
1.100000	-15.135804	-133.415606	-0.203625	-57.165526	-0.203625	-57.165526	-15.157169	-162.584166
1.150000	-14.792882	-135.316643	-0.217739	-59.748217	-0.217739	-59.748217	-14.813456	-165.873693
1.200000	-14.467505	-137.211646	-0.232206	-62.330196	-0.232206	-62.330196	-14.487250	-169.164657
1.250000	-14.158243	-139.100784	-0.247012	-64.911542	-0.247012	-64.911542	-14.177125	-172.457314
1.300000	-13.863869	-140.984196	-0.262150	-67.492338	-0.262150	-67.492338	-13.881856	-175.751934
1.350000	-13.583194	-142.862164	-0.277604	-70.072686	-0.277604	-70.072686	-13.600259	-179.048729
1.400000	-13.315188	-144.734937	-0.293363	-72.652693	-0.293363	-72.652693	-13.331310	177.652086
1.450000	-13.058923	-146.602788	-0.309418	-75.232471	-0.309418	-75.232471	-13.074083	174.350314
1.500000	-12.813648	-148.465899	-0.325763	-77.812141	-0.325763	-77.812141	-12.827832	171.045704
1.550000	-12.578417	-150.324819	-0.342378	-80.391837	-0.342378	-80.391837	-12.591617	167.738243
1.600000	-12.352604	-152.179801	-0.359259	-82.971693	-0.359259	-82.971693	-12.364814	164.427746
1.650000	-12.135561	-154.031223	-0.376398	-85.551853	-0.376398	-85.551853	-12.146779	161.114117
1.700000	-11.926690	-155.879489	-0.393790	-88.132466	-0.393790	-88.132466	-11.936918	157.797290
1.750000	-11.725440	-157.725029	-0.411429	-90.713688	-0.411429	-90.713688	-11.734685	154.477225
1.800000	-11.531301	-159.568296	-0.429310	-93.295681	-0.429310	-93.295681	-11.539570	151.153918
1.850000	-11.343799	-161.409766	-0.447430	-95.878611	-0.447430	-95.878611	-11.351103	147.827394
1.900000	-11.162514	-163.249929	-0.465790	-98.462663	-0.465790	-98.462663	-11.168868	144.497679
1.950000	-10.987031	-165.089324	-0.484389	-101.048016	-0.484389	-101.048016	-10.992452	141.164867
2.000000	-10.816942	-166.928507	-0.503227	-103.634837	-0.503227	-103.634837	-10.821448	137.829119
2.050000	-10.651888	-168.768038	-0.522305	-106.223306	-0.522305	-106.223306	-10.655499	134.490592
2.100000	-10.491535	-170.608497	-0.541627	-108.813605	-0.541627	-108.813605	-10.494273	131.149475
2.150000	-10.335566	-172.450476	-0.561199	-111.405919	-0.561199	-111.405919	-10.337456	127.805987
2.200000	-10.183689	-174.294586	-0.581026	-114.000431	-0.581026	-114.000431	-10.184755	124.460373
2.250000	-10.035627	-176.141450	-0.601118	-116.597327	-0.601118	-116.597327	-10.035896	121.112909
2.300000	-9.891119	-177.991704	-0.621483	-119.196795	-0.621483	-119.196795	-9.890619	117.763891
2.350000	-9.749923	-179.845992	-0.642132	-121.799018	-0.642132	-121.799018	-9.748682	114.413640
2.400000	-9.611809	178.295030	-0.663076	-124.404183	-0.663076	-124.404183	-9.609858	111.062497
2.450000	-9.476563	176.430702	-0.684329	-127.012474	-0.684329	-127.012474	-9.473932	107.710817
2.500000	-9.343981	174.560356	-0.705905	-129.624076	-0.705905	-129.624076	-9.340704	104.358971
2.550000	-9.213883	172.683161	-0.727825	-132.239251	-0.727825	-132.239251	-9.209994	101.007352
2.600000	-9.086076	170.798575	-0.750102	-134.858111	-0.750102	-134.858111	-9.081613	97.656352
2.650000	-8.960394	168.905926	-0.772751	-137.480836	-0.772751	-137.480836	-8.955396	94.306359
2.700000	-8.836679	167.004544	-0.795792	-140.107608	-0.795792	-140.107608	-8.831188	90.957761
2.750000	-8.714785	165.093765	-0.819243	-142.738606	-0.819243	-142.738606	-8.708844	87.610938
2.800000	-8.594573	163.172927	-0.843127	-145.374011	-0.843127	-145.374011	-8.588231	84.266263
2.850000	-8.475914	161.241380	-0.867463	-148.014005	-0.867463	-148.014005	-8.469222	80.924093
2.900000	-8.358687	159.298483	-0.892274	-150.658767	-0.892274	-150.658767	-8.351701	77.584764
2.950000	-8.242778	157.343605	-0.917582	-153.308482	-0.917582	-153.308482	-8.235558	74.248593
3.000000	-8.128081	155.376131	-0.943411	-155.963335	-0.943411	-155.963335	-8.120691	70.915866
3.050000	-8.014496	153.395461	-0.969786	-158.623515	-0.969786	-158.623515	-8.007007	67.586839
3.100000	-7.901931	151.401014	-0.996732	-161.289212	-0.996732	-161.289212	-7.894418	64.261729
3.150000	-7.790292	149.392066	-1.024279	-163.960691	-1.024279	-163.960691	-7.782838	60.940761
3.200000	-7.679497	147.368056	-1.052457	-166.638160	-1.052457	-166.638160	-7.672190	57.624071
3.250000	-7.569474	145.328625	-1.081286	-169.321771	-1.081286	-169.321771	-7.562409	54.311694
3.300000	-7.460153	143.273282	-1.110796	-172.011742	-1.110796	-172.011742	-7.453432	51.003657
3.350000	-7.351459	141.201398	-1.141023	-174.708372	-1.141023	-174.708372	-7.345190	47.699968
3.400000	-7.243350	139.112988	-1.171979	-177.411719	-1.171979	-177.411719	-7.237648	44.400422
3.450000	-7.135773	137.007768	-1.203693	179.878019	-1.203693	179.878019	-7.130758	41.104850
3.500000	-7.028602	134.883934	-1.236254	177.159975	-1.236254	177.159975	-7.024413	37.813333
3.550000	-6.921842	132.742354	-1.269650	174.434362	-1.269650	174.434362	-6.918616	34.525289
3.600000	-6.815454	130.582925	-1.303909	171.700975	-1.303909	171.700975	-6.813336	31.240329
3.650000	-6.709372	128.405028	-1.339085	168.959351	-1.339085	168.959351	-6.708516	27.958076
3.700000	-6.603489	126.207389	-1.375265	166.208657	-1.375265	166.208657	-6.604071	24.678081
3.750000	-6.497833	123.991149	-1.412437	163.449141	-1.412437	163.449141	-6.500024	21.399555
3.800000	-6.392361	121.756134	-1.450646	160.680432	-1.450646	160.680432	-6.396339	18.121837
3.850000	-6.286972	119.501255	-1.489989	157.901631	-1.489989	157.901631	-6.292937	14.844138
3.900000	-6.181622	117.226478	-1.530523	155.112292	-1.530523	155.112292	-6.189783	11.565479
3.950000	-6.076316	114.932546	-1.572267	152.312373	-1.572267	152.312373	-6.086884	8.284915
4.000000	-5.971011	112.619394	-1.615285	149.501378	-1.615285	149.501378	-5.984206	5.001419
4.050000	-5.865552	110.285439	-1.659742	146.677796	-1.659742	146.677796	-5.881628	1.713421
4.100000	-5.759971	107.931928	-1.705649	143.841748	-1.705649	143.841748	-5.779179	-1.580208
4.150000	-5.654240	105.559123	-1.753075	140.992777	-1.753075	140.992777	-5.676836	-4.880766
4.200000	-5.548282	103.166719	-1.802137	138.129986	-1.802137	138.129986	-5.574541	-8.189875
4.250000	-5.441943	100.753579	-1.853037	135.251701	-1.853037	135.251701	-5.472179	-11.509948
4.300000	-5.335281	98.321217	-1.905786	132.358192	-1.905786	132.358192	-5.369793	-14.842075
4.350000	-5.228238	95.869667	-1.960511	129.448638	-1.960511	129.448638	-5.267342	-18.188097
4.400000	-5.120669	93.398069	-2.017442	126.521322	-2.017442	126.521322	-5.164713	-21.550843
4.450000	-5.012497	90.906450	-2.076754	123.575133	-2.076754	123.575133	-5.061851	-24.932803
4.500000	-4.903738	88.395710	-2.138541	120.609840	-2.138541	120.609840	-4.958765	-28.335528
4.550000	-4.794324	85.865837	-2.202998	117.624352	-2.202998	117.624352	-4.855403	-31.761453
4.600000	-4.684010	83.315312	-2.270539	114.615740	-2.270539	114.615740	-4.751582	-35.215425
4.650000	-4.572838	80.745199	-2.341288	111.583867	-2.341288	111.583867	-4.647330	-38.699041
4.700000	-4.460765	78.155684	-2.415479	108.527731	-2.415479	108.527731	-4.542609	-42.214858
4.750000	-4.347680	75.546310	-2.493461	105.445507	-2.493461	105.445507	-4.437333	-45.766579
4.800000	-4.233317	72.915481	-2.575834	102.333620	-2.575834	102.333620	-4.331300	-49.360618
4.850000	-4.117790	70.264406	-2.662744	99.192419	-2.662744	99.192419	-4.224585	-52.997814
4.900000	-4.001017	67.592653	-2.754629	96.020109	-2.754629	96.020109	-4.117120	-56.682011
4.950000	-3.882786	64.898725	-2.852195	92.813217	-2.852195	92.813217	-4.008739	-60.419745
5.000000	-3.763092	62.182510	-2.955915	89.570433	-2.955915	89.570433	-3.899425	-64.214314
5.050000	-3.641776	59.442570	-3.066598	86.288449	-3.066598	86.288449	-3.789048	-68.072191
5.100000	-3.518836	56.678396	-3.184890	82.965589	-3.184890	82.965589	-3.677594	-71.997281
5.150000	-3.394141	53.888267	-3.311805	79.598309	-3.311805	79.598309	-3.564949	-75.996589
5.200000	-3.267738	51.071463	-3.448159	76.184972	-3.448159	76.184972	-3.451132	-80.073971
5.250000	-3.139472	48.225364	-3.595391	72.720900	-3.595391	72.720900	-3.336010	-84.238512
5.300000	-3.009469	45.349141	-3.754523	69.204795	-3.754523	69.204795	-3.219661	-88.493557
5.350000	-2.877631	42.439604	-3.927424	65.631612	-3.927424	65.631612	-3.101995	-92.849066
5.400000	-2.744123	39.495263	-4.115592	61.999599	-4.115592	61.999599	-2.983122	-97.309352
5.450000	-2.608982	36.512707	-4.321357	58.304194	-4.321357	58.304194	-2.863054	-101.883929
5.500000	-2.472421	33.489483	-4.546984	54.542937	-4.546984	54.542937	-2.741944	-106.578836
5.550000	-2.334657	30.422177	-4.795404	50.712388	-4.795404	50.712388	-2.619951	-111.402333
5.600000	-2.196003	27.307276	-5.070016	46.809664	-5.070016	46.809664	-2.497316	-116.362320
5.650000	-2.056898	24.141673	-5.374600	42.833294	-5.374600	42.833294	-2.374384	-121.464953
5.700000	-1.917828	20.920798	-5.714248	38.780750	-5.714248	38.780750	-2.251548	-126.719914
5.750000	-1.779481	17.642361	-6.094008	34.653878	-6.094008	34.653878	-2.129371	-132.130163
5.800000	-1.642613	14.300932	-6.521552	30.452297	-6.521552	30.452297	-2.008487	-137.706727
5.850000	-1.508163	10.895510	-7.004115	26.183153	-7.004115	26.183153	-1.889683	-143.448748
5.900000	-1.377251	7.421145	-7.553038	21.852911	-7.553038	21.852911	-1.773921	-149.365548
5.950000	-1.251057	3.877988	-8.179975	17.477581	-8.179975	17.477581	-1.662211	-155.453688
6.000000	-1.131047	0.263586	-8.902064	13.079287	-8.902064	13.079287	-1.555825	-161.716679
6.050000	-1.018656	-3.420506	-9.739828	8.694248	-9.739828	8.694248	-1.456009	-168.148844
6.100000	-0.915534	-7.172748	-10.722120	4.380020	-10.722120	4.380020	-1.364204	-174.745516
6.150000	-0.823263	-10.988805	-11.888499	0.229221	-11.888499	0.229221	-1.281788	178.503546
6.200000	-0.743533	-14.863056	-13.297859	-3.593961	-13.297859	-3.593961	-1.210230	171.610286
6.250000	-0.677814	-18.787094	-15.041498	-6.784143	-15.041498	-6.784143	-1.150795	164.591889
6.300000	-0.627559	-22.750931	-17.273738	-8.666729	-17.273738	-8.666729	-1.104720	157.467808
6.350000	-0.593740	-26.742145	-20.273469	-7.511913	-20.273469	-7.511913	-1.072800	150.262278
6.400000	-0.577277	-30.747234	-24.484864	2.880170	-24.484864	2.880170	-1.055761	143.000976
6.450000	-0.578189	-34.751567	-28.576659	42.762203	-28.576659	42.762203	-1.053527	135.712798
6.500000	-0.596303	-38.740959	-25.579020	90.245523	-25.579020	90.245523	-1.065839	128.425922
6.550000	-0.631571	-42.700463	-21.135596	104.012262	-21.135596	104.012262	-1.092514	121.170063
6.600000	-0.682790	-46.617210	-17.991862	106.288161	-17.991862	106.288161	-1.132379	113.973412
6.650000	-0.748683	-50.479786	-15.694670	104.889280	-15.694670	104.889280	-1.184200	106.862448
6.700000	-0.827822	-54.278123	-13.928409	101.974688	-13.928409	101.974688	-1.246616	99.862675
6.750000	-0.918263	-58.006464	-12.518837	98.353599	-12.518837	98.353599	-1.317865	92.993247
6.800000	-1.018258	-61.660111	-11.365120	94.371117	-11.365120	94.371117	-1.396371	86.272517
6.850000	-1.125983	-65.237152	-10.403420	90.209172	-10.403420	90.209172	-1.480526	79.714825
6.900000	-1.239695	-68.737496	-9.591086	85.970243	-9.591086	85.970243	-1.568823	73.332168
6.950000	-1.357737	-72.163460	-8.897633	81.716271	-8.897633	81.716271	-1.659865	67.132493
7.000000	-1.478627	-75.519348	-8.300337	77.485046	-8.300337	77.485046	-1.752432	61.119771
7.050000	-1.601101	-78.810274	-7.782156	73.299978	-7.782156	73.299978	-1.845511	55.296419
7.100000	-1.724095	-82.042238	-7.329792	69.175491	-7.329792	69.175491	-1.938271	49.662716
7.150000	-1.846747	-85.221817	-6.932666	65.120030	-6.932666	65.120030	-2.030065	44.217158
7.200000	-1.968372	-88.355803	-6.582294	61.138169	-6.582294	61.138169	-2.120399	38.957295
7.250000	-2.088451	-91.451084	-6.271777	57.231867	-6.271777	57.231867	-2.208919	33.879968
7.300000	-2.206667	-94.514961	-5.995082	53.400086	-5.995082	53.400086	-2.295438	28.978713
7.350000	-2.322811	-97.554169	-5.747390	49.641074	-5.747390	49.641074	-2.379852	24.247972
7.400000	-2.436751	-100.575055	-5.524831	45.952910	-5.524831	45.952910	-2.462116	19.683488
7.450000	-2.548583	-103.584087	-5.323539	42.330544	-5.323539	42.330544	-2.542355	15.274746
7.500000	-2.658319	-106.586782	-5.140913	38.771534	-5.140913	38.771534	-2.620627	11.018102
7.550000	-2.766019	-109.588680	-4.974720	35.273302	-4.974720	35.273302	-2.697019	6.910268
7.600000	-2.871936	-112.594996	-4.822546	31.830595	-4.822546	31.830595	-2.771760	2.941721
7.650000	-2.976276	-115.610480	-4.682589	28.439547	-4.682589	28.439547	-2.845034	-0.893600
7.700000	-3.079265	-118.639583	-4.553303	25.096349	-4.553303	25.096349	-2.917035	-4.601544
7.750000	-3.181140	-121.686491	-4.433352	21.797292	-4.433352	21.797292	-2.987957	-8.187722
7.800000	-3.282141	-124.755152	-4.321589	18.538791	-4.321589	18.538791	-3.057993	-11.657479
7.850000	-3.382510	-127.849313	-4.217017	15.317402	-4.217017	15.317402	-3.127329	-15.015879
7.900000	-3.482478	-130.972544	-4.118781	12.129833	-4.118781	12.129833	-3.196142	-18.267698
7.950000	-3.582267	-134.128273	-4.026138	8.972944	-4.026138	8.972944	-3.264595	-21.417419
8.000000	-3.682083	-137.319811	-3.938448	5.843753	-3.938448	5.843753	-3.332840	-24.469236
8.050000	-3.782116	-140.550370	-3.855160	2.739433	-3.855160	2.739433	-3.401012	-27.427056
8.100000	-3.882533	-143.823090	-3.775801	-0.342690	-3.775801	-0.342690	-3.469230	-30.294512
8.150000	-3.983474	-147.141573	-3.699992	-3.404956	-3.699992	-3.404956	-3.537593	-33.074052
8.200000	-4.085059	-150.508953	-3.627381	-6.449822	-3.627381	-6.449822	-3.606188	-35.768879
8.250000	-4.187384	-153.927726	-3.557648	-9.479729	-3.557648	-9.479729	-3.675082	-38.382777
8.300000	-4.290506	-157.400842	-3.490553	-12.496771	-3.490553	-12.496771	-3.744322	-40.918357
8.350000	-4.394434	-160.932964	-3.425948	-15.502646	-3.425948	-15.502646	-3.813926	-43.375876
8.400000	-4.499204	-164.520716	-3.363490	-18.500069	-3.363490	-18.500069	-3.883920	-45.765040
8.450000	-4.604685	-168.176578	-3.303325	-21.489507	-3.303325	-21.489507	-3.954256	-48.076571
8.500000	-4.710858	-171.894630	-3.245127	-24.473450	-3.245127	-24.473450	-4.024924	-50.321907
8.550000	-4.817528	-175.682659	-3.188956	-27.452934	-3.188956	-27.452934	-4.095841	-52.497361
8.600000	-4.924521	-179.541822	-3.134738	-30.429354	-3.134738	-30.429354	-4.166927	-54.605770
8.650000	-5.031642	176.528348	-3.082390	-33.403991	-3.082390	-33.403991	-4.238089	-56.651090
8.700000	-5.138458	172.518568	-3.032070	-36.377794	-3.032070	-36.377794	-4.309127	-58.628403
8.750000	-5.244889	168.438815	-2.983539	-39.351733	-2.983539	-39.351733	-4.379994	-60.548722
8.800000	-5.350072	164.271027	-2.937193	-42.326766	-2.937193	-42.326766	-4.450288	-62.400082
8.850000	-5.454052	160.030903	-2.892710	-45.303319	-2.892710	-45.303319	-4.520014	-64.196664
8.900000	-5.555858	155.705553	-2.850431	-48.282225	-2.850431	-48.282225	-4.588704	-65.930422
8.950000	-5.655240	151.302723	-2.810240	-51.263673	-2.810240	-51.263673	-4.656219	-67.608291
9.000000	-5.751420	146.819993	-2.772292	-54.248052	-2.772292	-54.248052	-4.722162	-69.229439
9.050000	-5.843639	142.257254	-2.736712	-57.235575	-2.736712	-57.235575	-4.786131	-70.794337
9.100000	-5.931603	137.622653	-2.703412	-60.226025	-2.703412	-60.226025	-4.847941	-72.308893
9.150000	-6.013798	132.909332	-2.672796	-63.219696	-2.672796	-63.219696	-4.906775	-73.768118
9.200000	-6.090619	128.133627	-2.644531	-66.215854	-2.644531	-66.215854	-4.962778	-75.183039
9.250000	-6.159993	123.287967	-2.619189	-69.214610	-2.619189	-69.214610	-5.014772	-76.547321
9.300000	-6.222551	118.389088	-2.596397	-72.215087	-2.596397	-72.215087	-5.063015	-77.871968
9.350000	-6.277046	113.439134	-2.576445	-75.216841	-2.576445	-75.216841	-5.106715	-79.157093
9.400000	-6.322839	108.445842	-2.559425	-78.219129	-2.559425	-78.219129	-5.145393	-80.406726
9.450000	-6.359648	103.419065	-2.545337	-81.221085	-2.545337	-81.221085	-5.178760	-81.626517
9.500000	-6.387146	98.368367	-2.534222	-84.221767	-2.534222	-84.221767	-5.206498	-82.821938
9.550000	-6.405135	93.303879	-2.526105	-87.220145	-2.526105	-87.220145	-5.228379	-83.999021
9.600000	-6.413512	88.236159	-2.521009	-90.215083	-2.521009	-90.215083	-5.244254	-85.164279
9.650000	-6.412326	83.176176	-2.518942	-93.205354	-2.518942	-93.205354	-5.254109	-86.324767
9.700000	-6.401908	78.134665	-2.519844	-96.189749	-2.519844	-96.189749	-5.258181	-87.487784
9.750000	-6.382430	73.122997	-2.523739	-99.166784	-2.523739	-99.166784	-5.256696	-88.660920
9.800000	-6.354787	68.150023	-2.530428	-102.135447	-2.530428	-102.135447	-5.250433	-89.850797
9.850000	-6.319367	63.225736	-2.539894	-105.094261	-2.539894	-105.094261	-5.239962	-91.064064
9.900000	-6.277158	58.356845	-2.551922	-108.042298	-2.551922	-108.042298	-5.226313	-92.305510
9.950000	-6.228279	53.557321	-2.566623	-110.977077	-2.566623	-110.977077	-5.210274	-93.583044
10.000000	-6.174474	48.823487	-2.583473	-113.899350	-2.583473	-113.899350	-5.193246	-94.894700
