! freq	dB(S11)	phase(S11)	dB(S12)	phase(S12)	
!     	dB(S21)	phase(S21)	dB(S22)	phase(S22)	
!S-par simulation data
#  GHz  S  DB  R 50
0.000000	-0.000000	0.000000	-360.351037	0.000000	-360.351037	0.000000	-0.000000	0.000000
0.050000	-0.000096	-0.820153	-112.730536	73.314264	-112.730536	73.314264	-0.000082	-0.777786
0.100000	-0.000379	-1.640091	-108.524104	70.399341	-108.524104	70.399341	-0.000327	-1.555400
0.150000	-0.000841	-2.459611	-106.076718	71.772300	-106.076718	71.772300	-0.000727	-2.332683
0.200000	-0.001464	-3.278542	-104.227569	73.509767	-104.227569	73.509767	-0.001270	-3.109493
0.250000	-0.002241	-4.096684	-102.751402	74.876323	-102.751402	74.876323	-0.001952	-3.885661
0.300000	-0.003138	-4.913988	-101.550813	75.903930	-101.550813	75.903930	-0.002746	-4.661137
0.350000	-0.004139	-5.730338	-100.572698	76.679916	-100.572698	76.679916	-0.003640	-5.435814
0.400000	-0.005224	-6.545675	-99.780994	77.310767	-99.780994	77.310767	-0.004620	-6.209626
0.450000	-0.006373	-7.359967	-99.151179	77.889474	-99.151179	77.889474	-0.005668	-6.982530
0.500000	-0.007570	-8.173205	-98.666670	78.499365	-98.666670	78.499365	-0.006770	-7.754501
0.550000	-0.008797	-8.985393	-98.316657	79.221953	-98.316657	79.221953	-0.007911	-8.525529
0.600000	-0.010042	-9.796550	-98.094666	80.145555	-98.094666	80.145555	-0.009080	-9.295613
0.650000	-0.011295	-10.606700	-97.997473	81.375045	-97.997473	81.375045	-0.010265	-10.064765
0.700000	-0.012547	-11.415871	-98.023993	83.044135	-98.023993	83.044135	-0.011458	-10.833001
0.750000	-0.013792	-12.224091	-98.173651	85.331874	-98.173651	85.331874	-0.012652	-11.600339
0.800000	-0.015025	-13.031389	-98.443297	88.484699	-98.443297	88.484699	-0.013841	-12.366800
0.850000	-0.016244	-13.837788	-98.820873	92.842009	-98.820873	92.842009	-0.015020	-13.132405
0.900000	-0.017445	-14.643307	-99.272711	98.850335	-99.272711	98.850335	-0.016187	-13.897174
0.950000	-0.018630	-15.447965	-99.721219	107.015776	-99.721219	107.015776	-0.017339	-14.661122
1.000000	-0.019796	-16.251770	-100.018420	117.688932	-100.018420	117.688932	-0.018474	-15.424264
1.050000	-0.020945	-17.054732	-99.951211	130.607488	-99.951211	130.607488	-0.019593	-16.186611
1.100000	-0.022077	-17.856854	-99.338923	144.474043	-99.338923	144.474043	-0.020695	-16.948172
1.150000	-0.023193	-18.658133	-98.181821	157.345131	-98.181821	157.345131	-0.021781	-17.708950
1.200000	-0.024295	-19.458568	-96.663416	167.849476	-96.663416	167.849476	-0.022851	-18.468948
1.250000	-0.025384	-20.258151	-94.996873	175.740061	-94.996873	175.740061	-0.023906	-19.228165
1.300000	-0.026460	-21.056835	-93.312931	-178.646313	-93.312931	-178.646313	-0.024946	-19.986563
1.350000	-0.027526	-21.854644	-91.695813	-174.663981	-91.695813	-174.663981	-0.025974	-20.744170
1.400000	-0.028582	-22.651567	-90.168850	-171.880406	-90.168850	-171.880406	-0.026990	-21.500978
1.450000	-0.029630	-23.447588	-88.735709	-169.977465	-88.735709	-169.977465	-0.027996	-22.256978
1.500000	-0.030672	-24.242691	-87.391814	-168.728695	-87.391814	-168.728695	-0.028993	-23.012158
1.550000	-0.031707	-25.036859	-86.129694	-167.973611	-86.129694	-167.973611	-0.029982	-23.766506
1.600000	-0.032737	-25.830074	-84.941343	-167.597540	-84.941343	-167.597540	-0.030965	-24.520008
1.650000	-0.033764	-26.622319	-83.819171	-167.517394	-83.819171	-167.517394	-0.031941	-25.272650
1.700000	-0.034787	-27.413222	-82.731829	-167.732508	-82.731829	-167.732508	-0.032912	-26.024105
1.750000	-0.035808	-28.203602	-81.733200	-168.053382	-81.733200	-168.053382	-0.033881	-26.775097
1.800000	-0.036827	-28.992723	-80.767655	-168.548700	-80.767655	-168.548700	-0.034847	-27.524978
1.850000	-0.037846	-29.780944	-79.853855	-169.168621	-79.853855	-169.168621	-0.035811	-28.274063
1.900000	-0.038864	-30.568044	-78.976390	-169.890735	-78.976390	-169.890735	-0.036774	-29.022159
1.950000	-0.039882	-31.354024	-78.133478	-170.715043	-78.133478	-170.715043	-0.037737	-29.769265
2.000000	-0.040901	-32.139036	-77.328868	-171.600039	-77.328868	-171.600039	-0.038699	-30.515515
2.050000	-0.041922	-32.922694	-76.546034	-172.569999	-76.546034	-172.569999	-0.039663	-31.260567
2.100000	-0.042943	-33.705754	-75.809114	-173.568032	-75.809114	-173.568032	-0.040628	-32.005091
2.150000	-0.043967	-34.487264	-75.084761	-174.635712	-75.084761	-174.635712	-0.041595	-32.748241
2.200000	-0.044993	-35.267600	-74.384640	-175.746294	-74.384640	-175.746294	-0.042565	-33.490351
2.250000	-0.046022	-36.046746	-73.707111	-176.894611	-73.707111	-176.894611	-0.043537	-34.231403
2.300000	-0.047054	-36.824683	-73.050702	-178.076288	-73.050702	-178.076288	-0.044514	-34.971381
2.350000	-0.048089	-37.601396	-72.414086	-179.287592	-72.414086	-179.287592	-0.045494	-35.710271
2.400000	-0.049129	-38.376869	-71.796066	179.474683	-71.796066	179.474683	-0.046478	-36.448055
2.450000	-0.050172	-39.151086	-71.195558	178.213304	-71.195558	178.213304	-0.047467	-37.184719
2.500000	-0.051220	-39.924031	-70.611572	176.930675	-70.611572	176.930675	-0.048461	-37.920248
2.550000	-0.052276	-40.694954	-70.031096	175.619193	-70.031096	175.619193	-0.049463	-38.653969
2.600000	-0.053332	-41.465878	-69.486995	174.307710	-69.486995	174.307710	-0.050465	-39.387690
2.650000	-0.054398	-42.234283	-68.938329	172.966488	-68.938329	172.966488	-0.051478	-40.119154
2.700000	-0.055465	-43.002459	-68.419138	171.622563	-68.419138	171.622563	-0.052493	-40.850413
2.750000	-0.056542	-43.768298	-67.898991	170.256449	-67.898991	170.256449	-0.053518	-41.579573
2.800000	-0.057622	-44.533670	-67.402535	168.885896	-67.402535	168.885896	-0.054546	-42.308313
2.850000	-0.058712	-45.296896	-66.908123	167.498814	-66.908123	167.498814	-0.055585	-43.035123
2.900000	-0.059806	-46.059409	-66.432523	166.106223	-66.432523	166.106223	-0.056627	-43.761289
2.950000	-0.060910	-46.819981	-65.961464	164.701391	-65.961464	164.701391	-0.057679	-44.485707
3.000000	-0.062020	-47.579584	-65.505086	163.290438	-65.505086	163.290438	-0.058737	-45.209249
3.050000	-0.063139	-48.337463	-65.055326	161.870518	-65.055326	161.870518	-0.059805	-45.931233
3.100000	-0.064265	-49.094110	-64.616736	160.444192	-64.616736	160.444192	-0.060879	-46.652105
3.150000	-0.065400	-49.849258	-64.186492	159.011409	-64.186492	159.011409	-0.061963	-47.371619
3.200000	-0.066545	-50.602907	-63.764423	157.572168	-63.764423	157.572168	-0.063055	-48.089777
3.250000	-0.067698	-51.355291	-63.352134	156.128398	-63.352134	156.128398	-0.064156	-48.806787
3.300000	-0.068862	-52.105903	-62.945461	154.678287	-62.945461	154.678287	-0.065267	-49.522190
3.350000	-0.070034	-52.855492	-62.549753	153.225126	-62.549753	153.225126	-0.066385	-50.236663
3.400000	-0.071220	-53.603032	-62.157470	151.765862	-62.157470	151.765862	-0.067517	-50.949277
3.450000	-0.072412	-54.349797	-61.777126	150.304675	-61.777126	150.304675	-0.068654	-51.661184
3.500000	-0.073621	-55.094236	-61.398331	148.837715	-61.398331	148.837715	-0.069807	-52.370974
3.550000	-0.074835	-55.838152	-61.032267	147.369680	-61.032267	147.369680	-0.070963	-53.080289
3.600000	-0.076069	-56.579460	-60.666143	145.896268	-60.666143	145.896268	-0.072139	-53.787228
3.650000	-0.077305	-57.320506	-60.313391	144.422407	-60.313391	144.422407	-0.073317	-54.493926
3.700000	-0.078566	-58.058661	-59.959200	142.943613	-59.959200	142.943613	-0.074517	-55.197986
3.750000	-0.079826	-58.796816	-59.618888	141.464819	-59.618888	141.464819	-0.075717	-55.902046
3.800000	-0.081115	-59.531798	-59.275957	139.981569	-59.275957	139.981569	-0.076943	-56.603206
3.850000	-0.082404	-60.266780	-58.946052	138.498319	-58.946052	138.498319	-0.078169	-57.304366
3.900000	-0.083720	-60.998838	-58.615013	137.011725	-58.615013	137.011725	-0.079419	-58.002849
3.950000	-0.085039	-61.730631	-58.294972	135.524827	-58.294972	135.524827	-0.080672	-58.701088
4.000000	-0.086385	-62.459755	-57.975094	134.035477	-57.975094	134.035477	-0.081949	-59.396881
4.050000	-0.087736	-63.188346	-57.664416	132.545637	-57.664416	132.545637	-0.083231	-60.092184
4.100000	-0.089112	-63.914529	-57.355034	131.054055	-57.355034	131.054055	-0.084536	-60.785276
4.150000	-0.090496	-64.639909	-57.053258	129.561892	-57.053258	129.561892	-0.085848	-61.477630
4.200000	-0.091904	-65.363144	-56.753766	128.068546	-56.753766	128.068546	-0.087182	-62.168010
4.250000	-0.093324	-66.085308	-56.460464	126.574609	-56.460464	126.574609	-0.088527	-62.857405
4.300000	-0.094766	-66.805595	-56.170308	125.079918	-56.170308	125.079918	-0.089891	-63.545068
4.350000	-0.096224	-67.524541	-55.885084	123.584690	-55.885084	123.584690	-0.091270	-64.231496
4.400000	-0.097701	-68.241878	-55.603755	122.089031	-55.603755	122.089031	-0.092667	-64.916438
4.450000	-0.099197	-68.957608	-55.326242	120.592942	-55.326242	120.592942	-0.094081	-65.599894
4.500000	-0.100711	-69.671999	-55.053273	119.096653	-55.053273	119.096653	-0.095512	-66.282112
4.550000	-0.102249	-70.384517	-54.783127	117.600085	-54.783127	117.600085	-0.096964	-66.962595
4.600000	-0.103801	-71.095968	-54.518087	116.103471	-54.518087	116.103471	-0.098430	-67.642088
4.650000	-0.105381	-71.805283	-54.254989	114.606765	-54.254989	114.606765	-0.099922	-68.319600
4.700000	-0.106973	-72.513800	-53.997480	113.110100	-53.997480	113.110100	-0.101424	-68.996370
4.750000	-0.108599	-73.219924	-53.741131	111.613561	-53.741131	111.613561	-0.102958	-69.670914
4.800000	-0.110232	-73.925519	-53.490784	110.117095	-53.490784	110.117095	-0.104499	-70.344965
4.850000	-0.111904	-74.628467	-53.240904	108.620996	-53.240904	108.620996	-0.106076	-71.016548
4.900000	-0.113581	-75.331151	-52.997378	107.124953	-52.997378	107.124953	-0.107657	-71.687885
4.950000	-0.115302	-76.030941	-52.753705	105.629539	-52.753705	105.629539	-0.109280	-72.356517
5.000000	-0.117023	-76.730731	-52.516683	104.134124	-52.516683	104.134124	-0.110903	-73.025148
5.050000	-0.118794	-77.427385	-52.278971	102.639614	-52.278971	102.639614	-0.112573	-73.690839
5.100000	-0.120566	-78.124038	-52.047592	101.145104	-52.047592	101.145104	-0.114244	-74.356531
5.150000	-0.122385	-78.817839	-51.816175	99.651606	-51.816175	99.651606	-0.115960	-75.019540
5.200000	-0.124209	-79.511381	-51.590229	98.158200	-51.590229	98.158200	-0.117680	-75.682306
5.250000	-0.126077	-80.202353	-51.364824	96.665863	-51.364824	96.665863	-0.119442	-76.342647
5.300000	-0.127955	-80.892810	-51.144110	95.173741	-51.144110	95.173741	-0.121214	-77.002504
5.350000	-0.129875	-81.580978	-50.924457	93.682703	-50.924457	93.682703	-0.123025	-77.660194
5.400000	-0.131809	-82.268382	-50.708788	92.192028	-50.708788	92.192028	-0.124850	-78.317162
5.450000	-0.133781	-82.953773	-50.494641	90.702415	-50.494641	90.702415	-0.126711	-78.972218
5.500000	-0.135773	-83.638157	-50.283839	89.213335	-50.283839	89.213335	-0.128591	-79.626318
5.550000	-0.137799	-84.320801	-50.074969	87.725265	-50.074969	87.725265	-0.130504	-80.278760
5.600000	-0.139851	-85.002202	-49.868867	86.237916	-49.868867	86.237916	-0.132442	-80.930017
5.650000	-0.141933	-85.682131	-49.665060	84.751496	-49.665060	84.751496	-0.134408	-81.579867
5.700000	-0.144046	-86.360589	-49.463499	83.266004	-49.463499	83.266004	-0.136404	-82.228309
5.750000	-0.146185	-87.037837	-49.264553	81.781335	-49.264553	81.781335	-0.138426	-82.875589
5.800000	-0.148361	-87.713393	-49.067384	80.297816	-49.067384	80.297816	-0.140482	-83.521244
5.850000	-0.150559	-88.387997	-48.873111	78.814991	-48.873111	78.814991	-0.142560	-84.165981
5.900000	-0.152800	-89.060696	-48.680191	77.333554	-48.680191	77.333554	-0.144680	-84.808882
5.950000	-0.155058	-89.732693	-48.490414	75.852663	-48.490414	75.852663	-0.146815	-85.451103
6.000000	-0.157365	-90.402584	-48.301610	74.373409	-48.301610	74.373409	-0.148999	-86.091283
6.050000	-0.159685	-91.072015	-48.116161	72.894535	-48.116161	72.894535	-0.151194	-86.731017
6.100000	-0.162061	-91.739148	-47.931346	71.417560	-47.931346	71.417560	-0.153443	-87.368515
6.150000	-0.164443	-92.406055	-47.750068	69.940783	-47.750068	69.940783	-0.155699	-88.005793
6.200000	-0.166889	-93.070482	-47.569122	68.466180	-47.569122	68.466180	-0.158016	-88.640647
6.250000	-0.169336	-93.734910	-47.391867	66.991577	-47.391867	66.991577	-0.160334	-89.275502
6.300000	-0.171855	-94.396687	-47.214674	65.519434	-47.214674	65.519434	-0.162720	-89.907755
6.350000	-0.174373	-95.058465	-47.041023	64.047291	-47.041023	64.047291	-0.165107	-90.540009
6.400000	-0.176959	-95.717868	-46.867755	62.577481	-46.867755	62.577481	-0.167558	-91.169918
6.450000	-0.179552	-96.377054	-46.697607	61.107884	-46.697607	61.107884	-0.170016	-91.799615
6.500000	-0.182206	-97.034131	-46.528130	59.640478	-46.528130	59.640478	-0.172533	-92.427221
6.550000	-0.184874	-97.690787	-46.361387	58.173510	-46.361387	58.173510	-0.175063	-93.054409
6.600000	-0.187599	-98.345592	-46.195574	56.708576	-46.195574	56.708576	-0.177648	-93.679752
6.650000	-0.190344	-98.999780	-46.032145	55.244320	-46.032145	55.244320	-0.180252	-94.304480
6.700000	-0.193141	-99.652367	-45.869878	53.781926	-45.869878	53.781926	-0.182906	-94.927604
6.750000	-0.195964	-100.304153	-45.709674	52.320463	-45.709674	52.320463	-0.185585	-95.549926
6.800000	-0.198834	-100.954578	-45.550838	50.860678	-45.550838	50.860678	-0.188308	-96.170875
6.850000	-0.201737	-101.604030	-45.393777	49.402089	-45.393777	49.402089	-0.191064	-96.790846
6.900000	-0.204682	-102.252351	-45.238264	47.944979	-45.238264	47.944979	-0.193859	-97.409669
6.950000	-0.207667	-102.899539	-45.084265	46.489346	-45.084265	46.489346	-0.196692	-98.027345
7.000000	-0.210687	-103.545815	-44.931973	45.034977	-44.931973	45.034977	-0.199559	-98.644092
7.050000	-0.213756	-104.190812	-44.780960	43.582380	-44.780960	43.582380	-0.202473	-99.259535
7.100000	-0.216853	-104.835105	-44.631790	42.130821	-44.631790	42.130821	-0.205413	-99.874256
7.150000	-0.220007	-105.477987	-44.483689	40.681339	-44.483689	40.681339	-0.208407	-100.487530
7.200000	-0.223183	-106.120359	-44.337550	39.232657	-44.337550	39.232657	-0.211423	-101.100278
7.250000	-0.226423	-106.761202	-44.192290	37.786373	-44.192290	37.786373	-0.214499	-101.711449
7.300000	-0.229678	-107.401719	-44.049093	36.340634	-44.049093	36.340634	-0.217590	-102.322281
7.350000	-0.233007	-108.040603	-43.906607	34.897627	-43.906607	34.897627	-0.220750	-102.931418
7.400000	-0.236343	-108.679331	-43.766266	33.454899	-43.766266	33.454899	-0.223919	-103.540392
7.450000	-0.239761	-109.316339	-43.626487	32.015250	-43.626487	32.015250	-0.227164	-104.147567
7.500000	-0.243180	-109.953347	-43.488923	30.575600	-43.488923	30.575600	-0.230411	-104.754742
7.550000	-0.246689	-110.588562	-43.351788	29.139388	-43.351788	29.139388	-0.233742	-105.360029
7.600000	-0.250200	-111.223777	-43.216785	27.703175	-43.216785	27.703175	-0.237076	-105.965317
7.650000	-0.253794	-111.857428	-43.082370	26.270187	-43.082370	26.270187	-0.240489	-106.568946
7.700000	-0.257396	-112.490938	-42.949871	24.837491	-42.949871	24.837491	-0.243910	-107.172424
7.750000	-0.261077	-113.123099	-42.818100	23.407791	-42.818100	23.407791	-0.247405	-107.774462
7.800000	-0.264774	-113.754991	-42.688048	21.978689	-42.688048	21.978689	-0.250916	-108.376211
7.850000	-0.268542	-114.385739	-42.558847	20.552341	-42.558847	20.552341	-0.254495	-108.976727
7.900000	-0.272334	-115.016105	-42.431188	19.126911	-42.431188	19.126911	-0.258098	-109.576832
7.950000	-0.276191	-115.645516	-42.304486	17.703978	-42.304486	17.703978	-0.261761	-110.175899
8.000000	-0.280080	-116.274450	-42.179167	16.282293	-42.179167	16.282293	-0.265457	-110.774446
8.050000	-0.284027	-116.902604	-42.054898	14.862834	-42.054898	14.862834	-0.269207	-111.372138
8.100000	-0.288015	-117.530202	-41.931865	13.444967	-41.931865	13.444967	-0.272998	-111.969217
8.150000	-0.292053	-118.157180	-41.809963	12.029042	-41.809963	12.029042	-0.276836	-112.565610
8.200000	-0.296140	-118.783539	-41.689167	10.615060	-41.689167	10.615060	-0.280723	-113.161316
8.250000	-0.300270	-119.409424	-41.569567	9.202724	-41.569567	9.202724	-0.284652	-113.756489
8.300000	-0.304459	-120.034646	-41.450958	7.792694	-41.450958	7.792694	-0.288638	-114.350917
8.350000	-0.308683	-120.659522	-41.333601	6.384001	-41.333601	6.384001	-0.292658	-114.944952
8.400000	-0.312974	-121.283709	-41.217128	4.977982	-41.217128	4.977982	-0.296744	-115.538202
8.450000	-0.317292	-121.907664	-41.101955	3.572980	-41.101955	3.572980	-0.300857	-116.131184
8.500000	-0.321687	-122.530922	-40.987572	2.171030	-40.987572	2.171030	-0.305047	-116.723359
8.550000	-0.326101	-123.154043	-40.874524	0.769766	-40.874524	0.769766	-0.309256	-117.315373
8.600000	-0.330601	-123.776480	-40.762183	-0.628066	-40.762183	-0.628066	-0.313551	-117.906581
8.650000	-0.335112	-124.398858	-40.651206	-2.025551	-40.651206	-2.025551	-0.317857	-118.497718
8.700000	-0.339719	-125.020584	-40.540861	-3.419219	-40.540861	-3.419219	-0.322260	-119.088068
8.750000	-0.344328	-125.642311	-40.431900	-4.812888	-40.431900	-4.812888	-0.326666	-119.678418
8.800000	-0.349042	-126.263441	-40.323506	-6.202355	-40.323506	-6.202355	-0.331180	-120.268024
8.850000	-0.353759	-126.884571	-40.216447	-7.591823	-40.216447	-7.591823	-0.335697	-120.857631
8.900000	-0.358573	-127.505260	-40.110021	-8.977411	-40.110021	-8.977411	-0.340316	-121.446663
8.950000	-0.363398	-128.125909	-40.004822	-10.362646	-40.004822	-10.362646	-0.344947	-122.035643
9.000000	-0.368314	-128.746255	-39.900312	-11.744337	-39.900312	-11.744337	-0.349674	-122.624202
9.050000	-0.373249	-129.366542	-39.796931	-13.125318	-39.796931	-13.125318	-0.354422	-123.212676
9.100000	-0.378267	-129.986648	-39.694286	-14.503097	-39.694286	-14.503097	-0.359260	-123.800866
9.150000	-0.383314	-130.606694	-39.592682	-15.879808	-39.592682	-15.879808	-0.364129	-124.388960
9.200000	-0.388435	-131.226662	-39.491855	-17.253670	-39.491855	-17.253670	-0.369080	-124.976887
9.250000	-0.393594	-131.846591	-39.391987	-18.626107	-39.391987	-18.626107	-0.374074	-125.564730
9.300000	-0.398819	-132.466528	-39.292930	-19.996051	-39.292930	-19.996051	-0.379142	-126.152504
9.350000	-0.404092	-133.086468	-39.194760	-21.364216	-39.194760	-21.364216	-0.384264	-126.740229
9.400000	-0.409422	-133.706480	-39.097427	-22.730252	-39.097427	-22.730252	-0.389453	-127.327963
9.450000	-0.414809	-134.326562	-39.000916	-24.094157	-39.000916	-24.094157	-0.394709	-127.915706
9.500000	-0.420245	-134.946760	-38.905264	-25.456298	-38.905264	-25.456298	-0.400023	-128.503516
9.550000	-0.425748	-135.567118	-38.810375	-26.815968	-38.810375	-26.815968	-0.405416	-129.091419
9.600000	-0.431291	-136.187613	-38.716361	-28.174236	-38.716361	-28.174236	-0.410858	-129.679424
9.650000	-0.436911	-136.808384	-38.623057	-29.529702	-38.623057	-29.529702	-0.416395	-130.267632
9.700000	-0.442561	-137.429293	-38.530641	-30.884128	-38.530641	-30.884128	-0.421970	-130.855955
9.750000	-0.448298	-138.050617	-38.438888	-32.235434	-38.438888	-32.235434	-0.427655	-131.444619
9.800000	-0.454057	-138.672057	-38.348029	-33.586055	-38.348029	-33.586055	-0.433368	-132.033384
9.850000	-0.459912	-139.294078	-38.257793	-34.933254	-38.257793	-34.933254	-0.439208	-132.622658
9.900000	-0.465780	-139.916169	-38.168455	-36.280116	-38.168455	-36.280116	-0.445064	-133.211996
9.950000	-0.471755	-140.539035	-38.079703	-37.623271	-38.079703	-37.623271	-0.451064	-133.802040
10.000000	-0.477733	-141.161900	-37.991850	-38.966427	-37.991850	-38.966427	-0.457068	-134.392083
