! freq	dB(S11)	phase(S11)	dB(S12)	phase(S12)	
!     	dB(S21)	phase(S21)	dB(S22)	phase(S22)	
!S-par simulation data
#  GHz  S  DB  R 50
0.000000	-0.000000	0.000000	-355.101195	180.000000	-355.101195	180.000000	-0.000000	0.000000
0.050000	-0.001380	-2.175997	-106.551116	88.649366	-106.551116	88.649366	-0.000506	-0.766332
0.100000	-0.004716	-4.341498	-100.578627	87.182849	-100.578627	87.182849	-0.001670	-1.528642
0.150000	-0.008627	-6.494496	-97.136415	85.763464	-97.136415	85.763464	-0.002946	-2.286767
0.200000	-0.012344	-8.638319	-94.747272	84.379776	-94.747272	84.379776	-0.004100	-3.042396
0.250000	-0.015662	-10.775896	-92.952386	83.039668	-92.952386	83.039668	-0.005108	-3.796792
0.300000	-0.018632	-12.908937	-91.548039	81.755209	-91.548039	81.755209	-0.006022	-4.550658
0.350000	-0.021367	-15.038111	-90.422627	80.538166	-90.422627	80.538166	-0.006894	-5.304296
0.400000	-0.023953	-17.163250	-89.513065	79.405065	-89.513065	79.405065	-0.007756	-6.057798
0.450000	-0.026444	-19.283667	-88.783824	78.381103	-88.783824	78.381103	-0.008633	-6.811180
0.500000	-0.028883	-21.398976	-88.203673	77.485823	-88.203673	77.485823	-0.009533	-7.564435
0.550000	-0.031293	-23.508537	-87.755209	76.749023	-87.755209	76.749023	-0.010460	-8.317536
0.600000	-0.033686	-25.611376	-87.431847	76.219739	-87.431847	76.219739	-0.011411	-9.070438
0.650000	-0.036069	-27.707067	-87.222498	75.942917	-87.222498	75.942917	-0.012381	-9.823097
0.700000	-0.038446	-29.795086	-87.121672	75.981430	-87.121672	75.981430	-0.013361	-10.575458
0.750000	-0.040817	-31.874601	-87.130192	76.436878	-87.130192	76.436878	-0.014346	-11.327439
0.800000	-0.043182	-33.945071	-87.245977	77.434483	-87.245977	77.434483	-0.015328	-12.078960
0.850000	-0.045538	-36.006092	-87.464643	79.137563	-87.464643	79.137563	-0.016303	-12.829944
0.900000	-0.047884	-38.057215	-87.778107	81.771898	-87.778107	81.771898	-0.017269	-13.580316
0.950000	-0.050217	-40.097961	-88.167559	85.640557	-88.167559	85.640557	-0.018226	-14.330007
1.000000	-0.052533	-42.127921	-88.590736	91.107948	-88.590736	91.107948	-0.019176	-15.078961
1.050000	-0.054831	-44.146716	-88.965665	98.525859	-88.965665	98.525859	-0.020119	-15.827133
1.100000	-0.057107	-46.153997	-89.158704	108.019152	-89.158704	108.019152	-0.021059	-16.574491
1.150000	-0.059359	-48.149444	-89.007079	119.144404	-89.007079	119.144404	-0.021997	-17.321011
1.200000	-0.061584	-50.132766	-88.400975	130.734104	-88.400975	130.734104	-0.022935	-18.066676
1.250000	-0.063781	-52.103697	-87.366633	141.356272	-87.366633	141.356272	-0.023874	-18.811477
1.300000	-0.065946	-54.061715	-86.036422	150.032422	-86.036422	150.032422	-0.024815	-19.555385
1.350000	-0.068080	-56.006876	-84.578057	156.631897	-84.578057	156.631897	-0.025759	-20.298414
1.400000	-0.070180	-57.938988	-83.100527	161.420182	-83.100527	161.420182	-0.026705	-21.040558
1.450000	-0.072247	-59.857883	-81.663128	164.772830	-81.663128	164.772830	-0.027655	-21.781813
1.500000	-0.074279	-61.763411	-80.292306	167.031000	-80.292306	167.031000	-0.028606	-22.522174
1.550000	-0.076277	-63.655446	-78.996613	168.463449	-78.996613	168.463449	-0.029560	-23.261636
1.600000	-0.078240	-65.533880	-77.775862	169.270751	-77.775862	169.270751	-0.030516	-24.000191
1.650000	-0.080168	-67.398625	-76.626022	169.600052	-76.626022	169.600052	-0.031474	-24.737835
1.700000	-0.082063	-69.249610	-75.541651	169.559302	-75.541651	169.559302	-0.032433	-25.474559
1.750000	-0.083925	-71.086781	-74.517048	169.228335	-74.517048	169.228335	-0.033394	-26.210356
1.800000	-0.085754	-72.910102	-73.546771	168.666886	-73.546771	168.666886	-0.034355	-26.945218
1.850000	-0.087553	-74.719553	-72.625838	167.920236	-72.625838	167.920236	-0.035317	-27.679135
1.900000	-0.089321	-76.514977	-71.749315	167.021841	-71.749315	167.021841	-0.036280	-28.412087
1.950000	-0.091061	-78.296383	-70.913366	165.999470	-70.913366	165.999470	-0.037244	-29.144065
2.000000	-0.092774	-80.063947	-70.114972	164.875748	-70.114972	164.875748	-0.038209	-29.875068
2.050000	-0.094461	-81.817706	-69.351007	163.667435	-69.351007	163.667435	-0.039174	-30.605087
2.100000	-0.096124	-83.557707	-68.618713	162.388048	-68.618713	162.388048	-0.040141	-31.334110
2.150000	-0.097765	-85.284013	-67.915642	161.048590	-67.915642	161.048590	-0.041108	-32.062126
2.200000	-0.099386	-86.996696	-67.239624	159.658099	-67.239624	159.658099	-0.042077	-32.789124
2.250000	-0.100987	-88.695837	-66.588721	158.224056	-66.588721	158.224056	-0.043047	-33.515094
2.300000	-0.102572	-90.381529	-65.961201	156.752702	-65.961201	156.752702	-0.044020	-34.240022
2.350000	-0.104141	-92.053875	-65.355508	155.249277	-65.355508	155.249277	-0.044994	-34.963899
2.400000	-0.105696	-93.712985	-64.770241	153.718212	-64.770241	153.718212	-0.045970	-35.686712
2.450000	-0.107240	-95.358977	-64.204135	152.163270	-64.204135	152.163270	-0.046950	-36.408450
2.500000	-0.108773	-96.991978	-63.656040	150.587670	-63.656040	150.587670	-0.047932	-37.129101
2.550000	-0.110297	-98.611707	-63.124408	148.993664	-63.124408	148.993664	-0.048918	-37.848617
2.600000	-0.111813	-100.218728	-62.608853	147.384294	-62.608853	147.384294	-0.049907	-38.567024
2.650000	-0.113325	-101.813190	-62.108497	145.761597	-62.108497	145.761597	-0.050901	-39.284308
2.700000	-0.114832	-103.395244	-61.622534	144.127351	-61.622534	144.127351	-0.051899	-40.000460
2.750000	-0.116337	-104.965048	-61.150221	142.483108	-61.150221	142.483108	-0.052902	-40.715467
2.800000	-0.117840	-106.522764	-60.690877	140.830233	-60.690877	140.830233	-0.053910	-41.429320
2.850000	-0.119344	-108.068561	-60.243870	139.169925	-60.243870	139.169925	-0.054924	-42.142006
2.900000	-0.120849	-109.602608	-59.808616	137.503241	-59.808616	137.503241	-0.055943	-42.853516
2.950000	-0.122358	-111.125080	-59.384574	135.831120	-59.384574	135.831120	-0.056970	-43.563839
3.000000	-0.123870	-112.636154	-58.971240	134.154393	-58.971240	134.154393	-0.058003	-44.272965
3.050000	-0.125387	-114.136011	-58.568146	132.473799	-58.568146	132.473799	-0.059043	-44.980884
3.100000	-0.126911	-115.624833	-58.174854	130.789998	-58.174854	130.789998	-0.060090	-45.687586
3.150000	-0.128442	-117.102807	-57.790955	129.103578	-57.790955	129.103578	-0.061146	-46.393061
3.200000	-0.129982	-118.570118	-57.416067	127.415068	-57.416067	127.415068	-0.062210	-47.097301
3.250000	-0.131531	-120.026955	-57.049832	125.724940	-57.049832	125.724940	-0.063282	-47.800296
3.300000	-0.133091	-121.473509	-56.691912	124.033618	-56.691912	124.033618	-0.064364	-48.502037
3.350000	-0.134662	-122.909970	-56.341991	122.341486	-56.341991	122.341486	-0.065455	-49.202516
3.400000	-0.136245	-124.336531	-55.999771	120.648888	-55.999771	120.648888	-0.066556	-49.901725
3.450000	-0.137841	-125.753384	-55.664970	118.956135	-55.664970	118.956135	-0.067668	-50.599656
3.500000	-0.139451	-127.160722	-55.337325	117.263508	-55.337325	117.263508	-0.068790	-51.296300
3.550000	-0.141075	-128.558739	-55.016584	115.571263	-55.016584	115.571263	-0.069922	-51.991651
3.600000	-0.142714	-129.947627	-54.702510	113.879630	-54.702510	113.879630	-0.071067	-52.685702
3.650000	-0.144369	-131.327582	-54.394879	112.188818	-54.394879	112.188818	-0.072223	-53.378446
3.700000	-0.146041	-132.698794	-54.093477	110.499019	-54.093477	110.499019	-0.073391	-54.069876
3.750000	-0.147729	-134.061458	-53.798103	108.810404	-53.798103	108.810404	-0.074572	-54.759986
3.800000	-0.149436	-135.415411	-53.508398	107.123196	-53.508398	107.123196	-0.075766	-55.448712
3.850000	-0.151161	-136.761217	-53.224364	105.437486	-53.224364	105.437486	-0.076973	-56.136107
3.900000	-0.152905	-138.099065	-52.945824	103.753402	-52.945824	103.753402	-0.078194	-56.822165
3.950000	-0.154667	-139.429145	-52.672612	102.071062	-52.672612	102.071062	-0.079429	-57.506881
4.000000	-0.156449	-140.751647	-52.404568	100.390573	-52.404568	100.390573	-0.080678	-58.190251
4.050000	-0.158251	-142.066758	-52.141542	98.712034	-52.141542	98.712034	-0.081942	-58.872270
4.100000	-0.160072	-143.374663	-51.883389	97.035533	-51.883389	97.035533	-0.083221	-59.552935
4.150000	-0.161915	-144.675549	-51.629969	95.361154	-51.629969	95.361154	-0.084516	-60.232241
4.200000	-0.163778	-145.969600	-51.381152	93.688969	-51.381152	93.688969	-0.085827	-60.910185
4.250000	-0.165661	-147.256997	-51.136809	92.019046	-51.136809	92.019046	-0.087153	-61.586765
4.300000	-0.167567	-148.537922	-50.896821	90.351449	-50.896821	90.351449	-0.088496	-62.261978
4.350000	-0.169493	-149.812554	-50.661071	88.686233	-50.661071	88.686233	-0.089857	-62.935821
4.400000	-0.171441	-151.081072	-50.429447	87.023449	-50.429447	87.023449	-0.091234	-63.608292
4.450000	-0.173411	-152.343652	-50.201843	85.363144	-50.201843	85.363144	-0.092629	-64.279390
4.500000	-0.175403	-153.600468	-49.978157	83.705361	-49.978157	83.705361	-0.094043	-64.949112
4.550000	-0.177417	-154.851695	-49.758290	82.050136	-49.758290	82.050136	-0.095474	-65.617458
4.600000	-0.179453	-156.097504	-49.542147	80.397506	-49.542147	80.397506	-0.096925	-66.284427
4.650000	-0.181511	-157.338065	-49.329638	78.747500	-49.329638	78.747500	-0.098394	-66.950019
4.700000	-0.183591	-158.573546	-49.120676	77.100148	-49.120676	77.100148	-0.099883	-67.614232
4.750000	-0.185694	-159.804114	-48.915176	75.455472	-48.915176	75.455472	-0.101392	-68.277067
4.800000	-0.187818	-161.029934	-48.713057	73.813497	-48.713057	73.813497	-0.102922	-68.938524
4.850000	-0.189965	-162.251169	-48.514243	72.174241	-48.514243	72.174241	-0.104472	-69.598605
4.900000	-0.192134	-163.467980	-48.318657	70.537721	-48.318657	70.537721	-0.106043	-70.257309
4.950000	-0.194325	-164.680527	-48.126228	68.903954	-48.126228	68.903954	-0.107635	-70.914638
5.000000	-0.196538	-165.888969	-47.936886	67.272951	-47.936886	67.272951	-0.109249	-71.570593
5.050000	-0.198774	-167.093297	-47.750522	65.644845	-47.750522	65.644845	-0.110887	-72.225117
5.100000	-0.201031	-168.293843	-47.567120	64.019526	-47.567120	64.019526	-0.112547	-72.878271
5.150000	-0.203310	-169.490761	-47.386616	62.397001	-47.386616	62.397001	-0.114230	-73.530057
5.200000	-0.205610	-170.684201	-47.208951	60.777277	-47.208951	60.777277	-0.115936	-74.180479
5.250000	-0.207932	-171.874313	-47.034067	59.160359	-47.034067	59.160359	-0.117666	-74.829538
5.300000	-0.210274	-173.061244	-46.861907	57.546251	-46.861907	57.546251	-0.119421	-75.477239
5.350000	-0.212638	-174.245139	-46.692418	55.934957	-46.692418	55.934957	-0.121200	-76.123584
5.400000	-0.215021	-175.426142	-46.525547	54.326478	-46.525547	54.326478	-0.123003	-76.768577
5.450000	-0.217425	-176.604397	-46.361245	52.720817	-46.361245	52.720817	-0.124832	-77.412222
5.500000	-0.219849	-177.780042	-46.199464	51.117975	-46.199464	51.117975	-0.126687	-78.054523
5.550000	-0.222292	-178.953219	-46.040156	49.517952	-46.040156	49.517952	-0.128568	-78.695485
5.600000	-0.224755	179.875938	-45.883277	47.920748	-45.883277	47.920748	-0.130475	-79.335112
5.650000	-0.227236	178.707291	-45.728783	46.326364	-45.728783	46.326364	-0.132409	-79.973408
5.700000	-0.229736	177.540706	-45.576634	44.734800	-45.576634	44.734800	-0.134371	-80.610379
5.750000	-0.232254	176.376052	-45.426788	43.146056	-45.426788	43.146056	-0.136360	-81.246031
5.800000	-0.234791	175.213198	-45.279207	41.560131	-45.279207	41.560131	-0.138377	-81.880369
5.850000	-0.237344	174.052014	-45.133854	39.977027	-45.133854	39.977027	-0.140423	-82.513398
5.900000	-0.239915	172.892374	-44.990693	38.396744	-44.990693	38.396744	-0.142497	-83.145126
5.950000	-0.242502	171.734151	-44.849689	36.819284	-44.849689	36.819284	-0.144601	-83.775557
6.000000	-0.245105	170.577221	-44.710809	35.244649	-44.710809	35.244649	-0.146735	-84.404698
6.050000	-0.247724	169.421461	-44.574021	33.672840	-44.574021	33.672840	-0.148898	-85.032557
6.100000	-0.250358	168.266751	-44.439294	32.103862	-44.439294	32.103862	-0.151092	-85.659140
6.150000	-0.253006	167.112971	-44.306599	30.537719	-44.306599	30.537719	-0.153317	-86.284454
6.200000	-0.255669	165.960002	-44.175906	28.974417	-44.175906	28.974417	-0.155573	-86.908506
6.250000	-0.258345	164.807730	-44.047188	27.413963	-44.047188	27.413963	-0.157861	-87.531305
6.300000	-0.261035	163.656058	-43.920424	25.856488	-43.920424	25.856488	-0.160182	-88.152803
6.350000	-0.263737	162.504843	-43.795586	24.301878	-43.795586	24.301878	-0.162535	-88.773064
6.400000	-0.266452	161.353975	-43.672649	22.750146	-43.672649	22.750146	-0.164922	-89.392096
6.450000	-0.269177	160.203344	-43.551590	21.201302	-43.551590	21.201302	-0.167342	-90.009906
6.500000	-0.271913	159.052840	-43.432386	19.655362	-43.432386	19.655362	-0.169795	-90.626504
6.550000	-0.274660	157.902358	-43.315016	18.112341	-43.315016	18.112341	-0.172282	-91.241898
6.600000	-0.277416	156.751793	-43.199458	16.572258	-43.199458	16.572258	-0.174804	-91.856098
6.650000	-0.280181	155.601041	-43.085692	15.035132	-43.085692	15.035132	-0.177361	-92.469112
6.700000	-0.282954	154.450001	-42.973698	13.500984	-42.973698	13.500984	-0.179953	-93.080949
6.750000	-0.285735	153.298571	-42.863457	11.969840	-42.863457	11.969840	-0.182580	-93.691619
6.800000	-0.288523	152.146654	-42.754952	10.441724	-42.754952	10.441724	-0.185243	-94.301133
6.850000	-0.291318	150.994152	-42.648165	8.916665	-42.648165	8.916665	-0.187943	-94.909498
6.900000	-0.294118	149.840970	-42.543079	7.394693	-42.543079	7.394693	-0.190680	-95.516727
6.950000	-0.296923	148.687015	-42.439678	5.875842	-42.439678	5.875842	-0.193454	-96.122828
7.000000	-0.299733	147.532193	-42.337946	4.360145	-42.337946	4.360145	-0.196265	-96.727812
7.050000	-0.302546	146.376416	-42.237867	2.847641	-42.237867	2.847641	-0.199114	-97.331690
7.100000	-0.305363	145.219594	-42.139427	1.338369	-42.139427	1.338369	-0.202001	-97.934473
7.150000	-0.308182	144.061641	-42.042612	-0.167628	-42.042612	-0.167628	-0.204927	-98.536170
7.200000	-0.311002	142.902471	-41.947407	-1.670307	-41.947407	-1.670307	-0.207892	-99.136794
7.250000	-0.313824	141.742000	-41.853799	-3.169619	-41.853799	-3.169619	-0.210896	-99.736355
7.300000	-0.316646	140.580147	-41.761774	-4.665515	-41.761774	-4.665515	-0.213940	-100.334866
7.350000	-0.319468	139.416833	-41.671320	-6.157944	-41.671320	-6.157944	-0.217024	-100.932336
7.400000	-0.322290	138.251978	-41.582424	-7.646851	-41.582424	-7.646851	-0.220148	-101.528778
7.450000	-0.325109	137.085508	-41.495073	-9.132180	-41.495073	-9.132180	-0.223313	-102.124204
7.500000	-0.327926	135.917348	-41.409256	-10.613871	-41.409256	-10.613871	-0.226520	-102.718626
7.550000	-0.330741	134.747344	-41.324990	-12.091699	-41.324990	-12.091699	-0.229769	-103.312013
7.600000	-0.333551	133.575502	-41.242234	-13.565759	-41.242234	-13.565759	-0.233060	-103.904422
7.650000	-0.336358	132.401752	-41.160978	-15.035984	-41.160978	-15.035984	-0.236394	-104.495864
7.700000	-0.339159	131.226028	-41.081208	-16.502307	-41.081208	-16.502307	-0.239769	-105.086353
7.750000	-0.341956	130.048267	-41.002913	-17.964656	-41.002913	-17.964656	-0.243188	-105.675901
7.800000	-0.344746	128.868406	-40.926082	-19.422960	-40.926082	-19.422960	-0.246649	-106.264521
7.850000	-0.347529	127.686385	-40.850702	-20.877145	-40.850702	-20.877145	-0.250154	-106.852226
7.900000	-0.350306	126.502148	-40.776761	-22.327135	-40.776761	-22.327135	-0.253703	-107.439029
7.950000	-0.353074	125.315637	-40.704249	-23.772851	-40.704249	-23.772851	-0.257296	-108.024944
8.000000	-0.355835	124.126800	-40.633152	-25.214216	-40.633152	-25.214216	-0.260932	-108.609985
8.050000	-0.358586	122.935586	-40.563459	-26.651148	-40.563459	-26.651148	-0.264614	-109.194164
8.100000	-0.361328	121.741947	-40.495157	-28.083565	-40.495157	-28.083565	-0.268340	-109.777496
8.150000	-0.364061	120.545835	-40.428235	-29.511384	-40.428235	-29.511384	-0.272112	-110.359994
8.200000	-0.366783	119.347207	-40.362680	-30.934521	-40.362680	-30.934521	-0.275928	-110.941673
8.250000	-0.369495	118.146022	-40.298480	-32.352891	-40.298480	-32.352891	-0.279791	-111.522548
8.300000	-0.372195	116.942240	-40.235620	-33.766407	-40.235620	-33.766407	-0.283699	-112.102631
8.350000	-0.374884	115.735825	-40.174090	-35.174983	-40.174090	-35.174983	-0.287653	-112.681939
8.400000	-0.377562	114.526744	-40.113874	-36.578530	-40.113874	-36.578530	-0.291654	-113.260485
8.450000	-0.380227	113.314964	-40.054961	-37.976963	-40.054961	-37.976963	-0.295701	-113.838285
8.500000	-0.382880	112.100458	-39.997336	-39.370191	-39.997336	-39.370191	-0.299795	-114.415353
8.550000	-0.385521	110.883199	-39.940985	-40.758128	-39.940985	-40.758128	-0.303936	-114.991705
8.600000	-0.388148	109.663164	-39.885894	-42.140685	-39.885894	-42.140685	-0.308124	-115.567356
8.650000	-0.390763	108.440334	-39.832049	-43.517773	-39.832049	-43.517773	-0.312360	-116.142321
8.700000	-0.393365	107.214690	-39.779435	-44.889307	-39.779435	-44.889307	-0.316643	-116.716616
8.750000	-0.395953	105.986218	-39.728037	-46.255197	-39.728037	-46.255197	-0.320974	-117.290257
8.800000	-0.398528	104.754783	-39.677879	-47.615105	-39.677879	-47.615105	-0.325354	-117.863233
8.850000	-0.401089	103.520499	-39.628906	-48.969191	-39.628906	-48.969191	-0.329783	-118.435588
8.900000	-0.403637	102.283361	-39.581103	-50.317369	-39.581103	-50.317369	-0.334260	-119.007338
8.950000	-0.406173	101.043366	-39.534452	-51.659556	-39.534452	-51.659556	-0.338785	-119.578500
9.000000	-0.408695	99.800517	-39.488938	-52.995669	-39.488938	-52.995669	-0.343359	-120.149091
9.050000	-0.411204	98.554816	-39.444543	-54.325628	-39.444543	-54.325628	-0.347981	-120.719127
9.100000	-0.413701	97.306271	-39.401252	-55.649353	-39.401252	-55.649353	-0.352652	-121.288625
9.150000	-0.416186	96.054893	-39.359047	-56.966765	-39.359047	-56.966765	-0.357372	-121.857602
9.200000	-0.418659	94.800695	-39.317909	-58.277789	-39.317909	-58.277789	-0.362140	-122.426075
9.250000	-0.421121	93.543694	-39.277823	-59.582350	-39.277823	-59.582350	-0.366957	-122.994062
9.300000	-0.423571	92.283910	-39.238769	-60.880376	-39.238769	-60.880376	-0.371823	-123.561580
9.350000	-0.426011	91.021367	-39.200730	-62.171795	-39.200730	-62.171795	-0.376738	-124.128648
9.400000	-0.428441	89.756092	-39.163687	-63.456540	-39.163687	-63.456540	-0.381702	-124.695282
9.450000	-0.430862	88.488115	-39.127623	-64.734544	-39.127623	-64.734544	-0.386714	-125.261502
9.500000	-0.433275	87.217469	-39.092517	-66.005743	-39.092517	-66.005743	-0.391776	-125.827325
9.550000	-0.435679	85.944192	-39.058353	-67.270077	-39.058353	-67.270077	-0.396887	-126.392769
9.600000	-0.438076	84.668325	-39.025109	-68.527485	-39.025109	-68.527485	-0.402046	-126.957854
9.650000	-0.440468	83.389910	-38.992768	-69.777912	-38.992768	-69.777912	-0.407254	-127.522599
9.700000	-0.442854	82.108995	-38.961311	-71.021303	-38.961311	-71.021303	-0.412511	-128.087022
9.750000	-0.445235	80.825631	-38.930717	-72.257607	-38.930717	-72.257607	-0.417816	-128.651142
9.800000	-0.447614	79.539872	-38.900967	-73.486775	-38.900967	-73.486775	-0.423170	-129.214979
9.850000	-0.449990	78.251776	-38.872043	-74.708762	-38.872043	-74.708762	-0.428572	-129.778553
9.900000	-0.452366	76.961402	-38.843924	-75.923524	-38.843924	-75.923524	-0.434023	-130.341883
9.950000	-0.454742	75.668816	-38.816590	-77.131020	-38.816590	-77.131020	-0.439521	-130.904989
10.000000	-0.457119	74.374086	-38.790023	-78.331214	-38.790023	-78.331214	-0.445068	-131.467892
