! freq	dB(S11)	phase(S11)	dB(S12)	phase(S12)	
!     	dB(S21)	phase(S21)	dB(S22)	phase(S22)	
!S-par simulation data
#  GHz  S  DB  R 50
0.000000	-0.000000	-0.000000	-344.717287	180.000000	-344.717287	180.000000	-0.000000	-0.000000
0.050000	-0.001437	-2.367386	-94.054166	88.391864	-94.054166	88.391864	-0.000726	-0.939611
0.100000	-0.005059	-4.725346	-88.052476	86.784994	-88.052476	86.784994	-0.002188	-1.872711
0.150000	-0.009563	-7.071255	-84.561951	85.181452	-84.561951	85.181452	-0.003552	-2.800600
0.200000	-0.014040	-9.407773	-82.105685	83.584054	-82.105685	83.584054	-0.004655	-3.726157
0.250000	-0.018120	-11.737935	-80.222143	81.996714	-80.222143	81.996714	-0.005571	-4.650751
0.300000	-0.021745	-14.063977	-78.705697	80.423832	-78.705697	80.423832	-0.006397	-5.574829
0.350000	-0.025002	-16.387053	-77.445328	78.869111	-77.445328	78.869111	-0.007200	-6.498442
0.400000	-0.027977	-18.707371	-76.375825	77.336806	-76.375825	77.336806	-0.008019	-7.421483
0.450000	-0.030742	-21.024606	-75.456645	75.832524	-75.456645	75.832524	-0.008890	-8.343764
0.500000	-0.033371	-23.338521	-74.657289	74.359347	-74.657289	74.359347	-0.009841	-9.265176
0.550000	-0.035911	-25.648669	-73.957396	72.921750	-73.957396	72.921750	-0.010912	-10.185639
0.600000	-0.038394	-27.954365	-73.343646	71.526642	-73.343646	71.526642	-0.012165	-11.105209
0.650000	-0.040849	-30.255289	-72.803443	70.178000	-72.803443	70.178000	-0.013637	-12.024374
0.700000	-0.043295	-32.551060	-72.327701	68.881029	-72.327701	68.881029	-0.015307	-12.943916
0.750000	-0.045744	-34.841095	-71.910630	67.643907	-71.910630	67.643907	-0.017035	-13.864473
0.800000	-0.048205	-37.125012	-71.546624	66.473885	-71.546624	66.473885	-0.018629	-14.785695
0.850000	-0.050683	-39.402525	-71.230789	65.378282	-71.230789	65.378282	-0.020008	-15.706485
0.900000	-0.053182	-41.673323	-70.959362	64.365906	-70.959362	64.365906	-0.021216	-16.625960
0.950000	-0.055702	-43.937076	-70.729395	63.447214	-70.729395	63.447214	-0.022333	-17.543770
1.000000	-0.058243	-46.193505	-70.538240	62.633710	-70.538240	62.633710	-0.023419	-18.459909
1.050000	-0.060803	-48.442356	-70.383557	61.938396	-70.383557	61.938396	-0.024504	-19.374485
1.100000	-0.063379	-50.683396	-70.263196	61.375982	-70.263196	61.375982	-0.025604	-20.287608
1.150000	-0.065968	-52.916419	-70.175078	60.963087	-70.175078	60.963087	-0.026721	-21.199361
1.200000	-0.068567	-55.141236	-70.117080	60.718428	-70.117080	60.718428	-0.027855	-22.109797
1.250000	-0.071172	-57.357685	-70.086893	60.662969	-70.086893	60.662969	-0.029002	-23.018948
1.300000	-0.073779	-59.565434	-70.082345	60.825180	-70.082345	60.825180	-0.030162	-23.926802
1.350000	-0.076384	-61.764544	-70.099611	61.226547	-70.099611	61.226547	-0.031329	-24.833392
1.400000	-0.078984	-63.954914	-70.134711	61.894370	-70.134711	61.894370	-0.032503	-25.738718
1.450000	-0.081574	-66.136463	-70.182667	62.856775	-70.182667	62.856775	-0.033680	-26.642773
1.500000	-0.084151	-68.309128	-70.237247	64.141143	-70.237247	64.141143	-0.034860	-27.545549
1.550000	-0.086713	-70.472865	-70.290728	65.771668	-70.290728	65.771668	-0.036041	-28.447034
1.600000	-0.089256	-72.627650	-70.333749	67.765852	-70.333749	67.765852	-0.037221	-29.347216
1.650000	-0.091778	-74.773473	-70.355341	70.129952	-70.355341	70.129952	-0.038401	-30.246080
1.700000	-0.094277	-76.910344	-70.343258	72.853745	-70.343258	72.853745	-0.039579	-31.143613
1.750000	-0.096751	-79.038286	-70.284713	75.905520	-70.284713	75.905520	-0.040756	-32.039799
1.800000	-0.099198	-81.157340	-70.167549	79.228800	-70.167549	79.228800	-0.041931	-32.934621
1.850000	-0.101617	-83.267562	-69.981726	82.742554	-69.981726	82.742554	-0.043103	-33.828065
1.900000	-0.104009	-85.368927	-69.719853	86.345913	-69.719853	86.345913	-0.044274	-34.720098
1.950000	-0.106371	-87.461521	-69.380067	89.924707	-69.380067	89.924707	-0.045443	-35.610703
2.000000	-0.108704	-89.545537	-68.966657	93.370848	-68.966657	93.370848	-0.046611	-36.499878
2.050000	-0.111010	-91.621086	-68.487262	96.592229	-68.487262	96.592229	-0.047778	-37.387608
2.100000	-0.113287	-93.688288	-67.952418	99.519286	-67.952418	99.519286	-0.048944	-38.273874
2.150000	-0.115538	-95.747278	-67.374002	102.107611	-67.374002	102.107611	-0.050110	-39.158662
2.200000	-0.117764	-97.798200	-66.763864	104.336285	-66.763864	104.336285	-0.051275	-40.041953
2.250000	-0.119965	-99.841206	-66.132848	106.203560	-66.132848	106.203560	-0.052442	-40.923733
2.300000	-0.122144	-101.876463	-65.490265	107.721588	-65.490265	107.721588	-0.053610	-41.803984
2.350000	-0.124302	-103.904141	-64.843713	108.911438	-64.843713	108.911438	-0.054779	-42.682692
2.400000	-0.126442	-105.924424	-64.199146	109.799023	-64.199146	109.799023	-0.055951	-43.559841
2.450000	-0.128566	-107.937500	-63.561063	110.412119	-63.561063	110.412119	-0.057126	-44.435415
2.500000	-0.130675	-109.943568	-62.932749	110.778368	-62.932749	110.778368	-0.058304	-45.309400
2.550000	-0.132773	-111.942689	-62.315883	110.919835	-62.315883	110.919835	-0.059486	-46.181747
2.600000	-0.134861	-113.935227	-61.712777	110.866028	-61.712777	110.866028	-0.060672	-47.052475
2.650000	-0.136943	-115.921402	-61.124377	110.638788	-61.124377	110.638788	-0.061864	-47.921572
2.700000	-0.139021	-117.901438	-60.551202	110.257644	-60.551202	110.257644	-0.063061	-48.789025
2.750000	-0.141098	-119.875564	-59.993457	109.739916	-59.993457	109.739916	-0.064264	-49.654821
2.800000	-0.143175	-121.844017	-59.451118	109.100884	-59.451118	109.100884	-0.065475	-50.518948
2.850000	-0.145257	-123.807036	-58.924001	108.353989	-58.924001	108.353989	-0.066692	-51.381395
2.900000	-0.147344	-125.764867	-58.411808	107.511034	-58.411808	107.511034	-0.067917	-52.242151
2.950000	-0.149440	-127.717758	-57.914170	106.582376	-57.914170	106.582376	-0.069151	-53.101206
3.000000	-0.151547	-129.665964	-57.430667	105.577114	-57.430667	105.577114	-0.070393	-53.958550
3.050000	-0.153667	-131.609742	-56.960854	104.503241	-56.960854	104.503241	-0.071645	-54.814173
3.100000	-0.155803	-133.549351	-56.504271	103.367795	-56.504271	103.367795	-0.072907	-55.668069
3.150000	-0.157957	-135.485016	-56.060351	102.176440	-56.060351	102.176440	-0.074179	-56.520208
3.200000	-0.160130	-137.417014	-55.628663	100.934819	-55.628663	100.934819	-0.075462	-57.370585
3.250000	-0.162325	-139.345656	-55.208870	99.648346	-55.208870	99.648346	-0.076757	-58.219211
3.300000	-0.164543	-141.271215	-54.800538	98.321292	-54.800538	98.321292	-0.078064	-59.066081
3.350000	-0.166787	-143.193965	-54.403244	96.957457	-54.403244	96.957457	-0.079383	-59.911188
3.400000	-0.169056	-145.114181	-54.016587	95.560232	-54.016587	95.560232	-0.080715	-60.754530
3.450000	-0.171353	-147.032143	-53.640182	94.132645	-53.640182	94.132645	-0.082060	-61.596100
3.500000	-0.173679	-148.948130	-53.273663	92.677410	-53.273663	92.677410	-0.083420	-62.435897
3.550000	-0.176035	-150.862424	-52.916681	91.196964	-52.916681	91.196964	-0.084793	-63.273917
3.600000	-0.178422	-152.775305	-52.568907	89.693499	-52.568907	89.693499	-0.086182	-64.110158
3.650000	-0.180841	-154.687058	-52.230027	88.168996	-52.230027	88.168996	-0.087586	-64.944619
3.700000	-0.183293	-156.597966	-51.899744	86.625241	-51.899744	86.625241	-0.089005	-65.777300
3.750000	-0.185777	-158.508313	-51.577777	85.063856	-51.577777	85.063856	-0.090441	-66.608199
3.800000	-0.188295	-160.418385	-51.263790	83.485991	-51.263790	83.485991	-0.091894	-67.437279
3.850000	-0.190847	-162.328477	-50.957616	81.893363	-50.957616	81.893363	-0.093364	-68.264581
3.900000	-0.193433	-164.238876	-50.659015	80.287184	-50.659015	80.287184	-0.094851	-69.090105
3.950000	-0.196053	-166.149863	-50.367761	78.668565	-50.367761	78.668565	-0.096357	-69.913854
4.000000	-0.198707	-168.061723	-50.083640	77.038524	-50.083640	77.038524	-0.097881	-70.735833
4.050000	-0.201395	-169.974738	-49.806451	75.397993	-49.806451	75.397993	-0.099424	-71.556043
4.100000	-0.204116	-171.889188	-49.536002	73.747834	-49.536002	73.747834	-0.100987	-72.374491
4.150000	-0.206870	-173.805354	-49.272112	72.088838	-49.272112	72.088838	-0.102569	-73.191182
4.200000	-0.209656	-175.723512	-49.014610	70.421739	-49.014610	70.421739	-0.104172	-74.006120
4.250000	-0.212475	-177.643938	-48.763334	68.747214	-48.763334	68.747214	-0.105796	-74.819313
4.300000	-0.215325	-179.566907	-48.518132	67.065894	-48.518132	67.065894	-0.107441	-75.630768
4.350000	-0.218205	178.507311	-48.278859	65.378364	-48.278859	65.378364	-0.109107	-76.440492
4.400000	-0.221115	176.578412	-48.045372	63.685115	-48.045372	63.685115	-0.110796	-77.248475
4.450000	-0.224055	174.646121	-47.817549	61.986673	-47.817549	61.986673	-0.112508	-78.054728
4.500000	-0.227022	172.710211	-47.595272	60.283576	-47.595272	60.283576	-0.114243	-78.859277
4.550000	-0.230016	170.770424	-47.378428	58.576270	-47.378428	58.576270	-0.116002	-79.662134
4.600000	-0.233036	168.826508	-47.166904	56.865177	-47.166904	56.865177	-0.117785	-80.463309
4.650000	-0.236081	166.878214	-46.960599	55.150693	-46.960599	55.150693	-0.119592	-81.262814
4.700000	-0.239149	164.925298	-46.759414	53.433196	-46.759414	53.433196	-0.121424	-82.060662
4.750000	-0.242238	162.967522	-46.563258	51.713043	-46.563258	51.713043	-0.123282	-82.856866
4.800000	-0.245349	161.004653	-46.372042	49.990572	-46.372042	49.990572	-0.125165	-83.651438
4.850000	-0.248480	159.036464	-46.185686	48.266108	-46.185686	48.266108	-0.127075	-84.444394
4.900000	-0.251628	157.062735	-46.004113	46.539961	-46.004113	46.539961	-0.129011	-85.235748
4.950000	-0.254794	155.083253	-45.827249	44.812430	-45.827249	44.812430	-0.130975	-86.025516
5.000000	-0.257975	153.097811	-45.655027	43.083801	-45.655027	43.083801	-0.132967	-86.813714
5.050000	-0.261171	151.106072	-45.487414	41.354340	-45.487414	41.354340	-0.134987	-87.600326
5.100000	-0.264379	149.107976	-45.324324	39.624337	-45.324324	39.624337	-0.137036	-88.385403
5.150000	-0.267599	147.103341	-45.165702	37.894054	-45.165702	37.894054	-0.139115	-89.168965
5.200000	-0.270829	145.091996	-45.011495	36.163742	-45.011495	36.163742	-0.141222	-89.951029
5.250000	-0.274067	143.073777	-44.861655	34.433650	-44.861655	34.433650	-0.143361	-90.731617
5.300000	-0.277313	141.048532	-44.716137	32.704017	-44.716137	32.704017	-0.145529	-91.510748
5.350000	-0.280564	139.016119	-44.574899	30.975082	-44.574899	30.975082	-0.147729	-92.288444
5.400000	-0.283820	136.976405	-44.437902	29.247077	-44.437902	29.247077	-0.149960	-93.064727
5.450000	-0.287080	134.929270	-44.305111	27.520229	-44.305111	27.520229	-0.152224	-93.839621
5.500000	-0.290342	132.874605	-44.176493	25.794764	-44.176493	25.794764	-0.154520	-94.613148
5.550000	-0.293605	130.812315	-44.052018	24.070900	-44.052018	24.070900	-0.156849	-95.385335
5.600000	-0.296868	128.742314	-43.931660	22.348855	-43.931660	22.348855	-0.159212	-96.156207
5.650000	-0.300130	126.664448	-43.815421	20.628863	-43.815421	20.628863	-0.161609	-96.925776
5.700000	-0.303390	124.578657	-43.703283	18.911140	-43.703283	18.911140	-0.164041	-97.694072
5.750000	-0.306647	122.484983	-43.595199	17.195861	-43.595199	17.195861	-0.166508	-98.461138
5.800000	-0.309900	120.383398	-43.491153	15.483220	-43.491153	15.483220	-0.169011	-99.227004
5.850000	-0.313148	118.273889	-43.391128	13.773400	-43.391128	13.773400	-0.171550	-99.991701
5.900000	-0.316392	116.156456	-43.295113	12.066575	-43.295113	12.066575	-0.174126	-100.755263
5.950000	-0.319630	114.031117	-43.203096	10.362902	-43.203096	10.362902	-0.176740	-101.517723
6.000000	-0.322862	111.897903	-43.115071	8.662526	-43.115071	8.662526	-0.179391	-102.279118
6.050000	-0.326088	109.756862	-43.031030	6.965569	-43.031030	6.965569	-0.182080	-103.039486
6.100000	-0.329308	107.608059	-42.950971	5.272130	-42.950971	5.272130	-0.184809	-103.798865
6.150000	-0.332521	105.451574	-42.874892	3.582278	-42.874892	3.582278	-0.187578	-104.557299
6.200000	-0.335729	103.287502	-42.802796	1.896047	-42.802796	1.896047	-0.190387	-105.314831
6.250000	-0.338930	101.115958	-42.734687	0.213425	-42.734687	0.213425	-0.193237	-106.071508
6.300000	-0.342126	98.936914	-42.670651	-1.465576	-42.670651	-1.465576	-0.196130	-106.827364
6.350000	-0.345318	96.750680	-42.610626	-3.141165	-42.610626	-3.141165	-0.199066	-107.582470
6.400000	-0.348506	94.557419	-42.554629	-4.813551	-42.554629	-4.813551	-0.202045	-108.336883
6.450000	-0.351692	92.357311	-42.502683	-6.483034	-42.502683	-6.483034	-0.205070	-109.090665
6.500000	-0.354876	90.150552	-42.454816	-8.150029	-42.454816	-8.150029	-0.208139	-109.843883
6.550000	-0.358060	87.937353	-42.411067	-9.815082	-42.411067	-9.815082	-0.211256	-110.596607
6.600000	-0.361246	85.717941	-42.371483	-11.478902	-42.371483	-11.478902	-0.214421	-111.348916
6.650000	-0.364437	83.492560	-42.336124	-13.142391	-42.336124	-13.142391	-0.217635	-112.100896
6.700000	-0.367633	81.261485	-42.305048	-14.806674	-42.305048	-14.806674	-0.220901	-112.852643
6.750000	-0.370837	79.024972	-42.278360	-16.473165	-42.278360	-16.473165	-0.224220	-113.604259
6.800000	-0.374054	76.783244	-42.256238	-18.143704	-42.256238	-18.143704	-0.227595	-114.355864
6.850000	-0.377284	74.536592	-42.238848	-19.820574	-42.238848	-19.820574	-0.231029	-115.107595
6.900000	-0.380533	72.285470	-42.226236	-21.506267	-42.226236	-21.506267	-0.234525	-115.859597
6.950000	-0.383803	70.030142	-42.218680	-23.204166	-42.218680	-23.204166	-0.238085	-116.612040
7.000000	-0.387099	67.770804	-42.216677	-24.919106	-42.216677	-24.919106	-0.241718	-117.365149
7.050000	-0.390425	65.507980	-42.220346	-26.655496	-42.220346	-26.655496	-0.245428	-118.119127
7.100000	-0.393787	63.242003	-42.230139	-28.419524	-42.230139	-28.419524	-0.249220	-118.874232
7.150000	-0.397191	60.973083	-42.247009	-30.221198	-42.247009	-30.221198	-0.253110	-119.630866
7.200000	-0.400642	58.701715	-42.271424	-32.069276	-42.271424	-32.069276	-0.257106	-120.389356
7.250000	-0.404148	56.428263	-42.304293	-33.976122	-42.304293	-33.976122	-0.261225	-121.150147
7.300000	-0.407720	54.153029	-42.347223	-35.961150	-42.347223	-35.961150	-0.265493	-121.913922
7.350000	-0.411366	51.876410	-42.401814	-38.046197	-42.401814	-38.046197	-0.269940	-122.681395
7.400000	-0.415099	49.598774	-42.470280	-40.260881	-42.470280	-40.260881	-0.274610	-123.453501
7.450000	-0.418930	47.320501	-42.555107	-42.640475	-42.555107	-42.640475	-0.279555	-124.231278
7.500000	-0.422890	45.041899	-42.662090	-45.260957	-42.662090	-45.260957	-0.284898	-125.016984
7.550000	-0.426983	42.763306	-42.793275	-48.159025	-42.793275	-48.159025	-0.290701	-125.811420
7.600000	-0.431258	40.485029	-42.958831	-51.481504	-42.958831	-51.481504	-0.297219	-126.618503
7.650000	-0.435769	38.207379	-43.170868	-55.429321	-43.170868	-55.429321	-0.304821	-127.442973
7.700000	-0.440577	35.930563	-43.442437	-60.260350	-43.442437	-60.260350	-0.314014	-128.290045
7.750000	-0.445789	33.654779	-43.793600	-66.447799	-43.793600	-66.447799	-0.325751	-129.168522
7.800000	-0.451612	31.380259	-44.250605	-74.948446	-44.250605	-74.948446	-0.342023	-130.093841
7.850000	-0.458377	29.107319	-44.815471	-87.506986	-44.815471	-87.506986	-0.366673	-131.087925
7.900000	-0.466778	26.837134	-45.333494	-107.859710	-45.333494	-107.859710	-0.408976	-132.187323
7.950000	-0.478166	24.574469	-44.964559	-141.449700	-44.964559	-141.449700	-0.491874	-133.429664
8.000000	-0.495064	22.341666	-41.932128	172.462965	-41.932128	172.462965	-0.680385	-134.721303
8.050000	-0.514673	20.222669	-36.965648	121.943648	-36.965648	121.943648	-1.072074	-134.816951
8.100000	-0.502592	18.193412	-34.172579	69.097404	-34.172579	69.097404	-1.178354	-131.739475
8.150000	-0.478616	15.935552	-34.565779	31.853900	-34.565779	31.853900	-0.802517	-130.971334
8.200000	-0.473527	13.623288	-35.572083	11.296568	-35.572083	11.296568	-0.585059	-132.032475
8.250000	-0.475972	11.340709	-36.371598	-0.906722	-36.371598	-0.906722	-0.489657	-133.221806
8.300000	-0.480642	9.082787	-36.940803	-8.979981	-36.940803	-8.979981	-0.444676	-134.305430
8.350000	-0.486068	6.842113	-37.339753	-14.747375	-37.339753	-14.747375	-0.422124	-135.292394
8.400000	-0.491799	4.613551	-37.628689	-19.207385	-37.628689	-19.207385	-0.409954	-136.215872
8.450000	-0.497716	2.395278	-37.836347	-22.783787	-37.836347	-22.783787	-0.403728	-137.094076
8.500000	-0.503780	0.186090	-37.984818	-25.756310	-37.984818	-25.756310	-0.401004	-137.940655
8.550000	-0.509983	-2.014677	-38.088833	-28.298453	-38.088833	-28.298453	-0.400483	-138.764578
8.600000	-0.516330	-4.207392	-38.158479	-30.523706	-38.158479	-30.523706	-0.401423	-139.571874
8.650000	-0.522828	-6.392267	-38.200863	-32.509608	-38.200863	-32.509608	-0.403380	-140.366704
8.700000	-0.529488	-8.569425	-38.221123	-34.311090	-38.221123	-34.311090	-0.406071	-141.152024
8.750000	-0.536319	-10.738937	-38.223069	-35.968274	-38.223069	-35.968274	-0.409312	-141.929983
8.800000	-0.543336	-12.900690	-38.209308	-37.509299	-38.209308	-37.509299	-0.412983	-142.702088
8.850000	-0.550544	-15.054887	-38.182438	-38.959983	-38.182438	-38.959983	-0.416988	-143.469700
8.900000	-0.557951	-17.201568	-38.144205	-40.338121	-38.144205	-40.338121	-0.421265	-144.233752
8.950000	-0.565566	-19.340779	-38.096017	-41.657908	-38.096017	-41.657908	-0.425768	-144.994986
9.000000	-0.573399	-21.472576	-38.039034	-42.930832	-38.039034	-42.930832	-0.430464	-145.754000
9.050000	-0.581457	-23.597031	-37.974222	-44.166306	-37.974222	-44.166306	-0.435326	-146.511283
9.100000	-0.589749	-25.714227	-37.902400	-45.372130	-37.902400	-45.372130	-0.440334	-147.267240
9.150000	-0.598282	-27.824268	-37.824270	-46.554828	-37.824270	-46.554828	-0.445474	-148.022213
9.200000	-0.607066	-29.927274	-37.740446	-47.719905	-37.740446	-47.719905	-0.450733	-148.776495
9.250000	-0.616109	-32.023383	-37.651464	-48.872037	-37.651464	-48.872037	-0.456101	-149.530335
9.300000	-0.625418	-34.112754	-37.557804	-50.015221	-37.557804	-50.015221	-0.461570	-150.283955
9.350000	-0.635004	-36.195563	-37.459895	-51.152893	-37.459895	-51.152893	-0.467134	-151.037548
9.400000	-0.644876	-38.271942	-37.358072	-52.288018	-37.358072	-52.288018	-0.472788	-151.791293
9.450000	-0.655046	-40.342114	-37.252699	-53.423241	-37.252699	-53.423241	-0.478527	-152.545350
9.500000	-0.665518	-42.406389	-37.144152	-54.560803	-37.144152	-54.560803	-0.484348	-153.299860
9.550000	-0.676303	-44.465024	-37.032727	-55.702634	-37.032727	-55.702634	-0.490246	-154.054955
9.600000	-0.687409	-46.518298	-36.918702	-56.850424	-36.918702	-56.850424	-0.496220	-154.810756
9.650000	-0.698848	-48.566509	-36.802331	-58.005652	-36.802331	-58.005652	-0.502267	-155.567376
9.700000	-0.710629	-50.609978	-36.683855	-59.169617	-36.683855	-59.169617	-0.508385	-156.324924
9.750000	-0.722763	-52.649043	-36.563497	-60.343465	-36.563497	-60.343465	-0.514573	-157.083502
9.800000	-0.735261	-54.684063	-36.441468	-61.528203	-36.441468	-61.528203	-0.520829	-157.843207
9.850000	-0.748134	-56.715418	-36.317968	-62.724722	-36.317968	-62.724722	-0.527152	-158.604134
9.900000	-0.761395	-58.743508	-36.193183	-63.933808	-36.193183	-63.933808	-0.533542	-159.366372
9.950000	-0.775055	-60.768752	-36.067291	-65.156162	-36.067291	-65.156162	-0.539996	-160.130011
10.000000	-0.789128	-62.791592	-35.940464	-66.392401	-35.940464	-66.392401	-0.546514	-160.895137
