! freq	dB(S11)	phase(S11)	dB(S12)	phase(S12)	
!     	dB(S21)	phase(S21)	dB(S22)	phase(S22)	
!S-par simulation data
#  GHz  S  DB  R 50
0.000000	-0.000000	0.000000	-336.702347	0.000000	-336.702347	0.000000	-0.000000	0.000000
0.050000	-0.003492	-1.440855	-102.914978	87.909462	-102.914978	87.909462	-0.002015	-1.023386
0.100000	-0.006185	-2.852993	-96.953680	87.187023	-96.953680	87.187023	-0.004000	-2.028914
0.150000	-0.007529	-4.263357	-93.485266	86.204200	-93.485266	86.204200	-0.005090	-3.031646
0.200000	-0.008548	-5.674611	-91.051001	85.160547	-91.051001	85.160547	-0.005895	-4.034640
0.250000	-0.009540	-7.086213	-89.194899	84.104520	-89.194899	84.104520	-0.006642	-5.037857
0.300000	-0.010609	-8.497555	-87.714751	83.059833	-87.714751	83.059833	-0.007423	-6.040959
0.350000	-0.011776	-9.908283	-86.494729	82.038224	-86.494729	82.038224	-0.008263	-7.043710
0.400000	-0.013053	-11.318107	-85.472491	81.050738	-85.472491	81.050738	-0.009174	-8.045916
0.450000	-0.014438	-12.726812	-84.606387	80.107116	-84.606387	80.107116	-0.010156	-9.047430
0.500000	-0.015931	-14.134097	-83.873245	79.223256	-83.873245	79.223256	-0.011211	-10.048055
0.550000	-0.017515	-15.539897	-83.249569	78.407735	-83.249569	78.407735	-0.012328	-11.047745
0.600000	-0.019177	-16.944135	-82.719718	77.671604	-82.719718	77.671604	-0.013498	-12.046450
0.650000	-0.020906	-18.346718	-82.273114	77.029080	-82.273114	77.029080	-0.014714	-13.044110
0.700000	-0.022692	-19.747567	-81.901811	76.496689	-81.901811	76.496689	-0.015969	-14.040675
0.750000	-0.024525	-21.146614	-81.599763	76.093845	-81.599763	76.093845	-0.017256	-15.036104
0.800000	-0.026396	-22.543756	-81.363680	75.848008	-81.363680	75.848008	-0.018570	-16.030331
0.850000	-0.028297	-23.938809	-81.193565	75.803082	-81.193565	75.803082	-0.019904	-17.023243
0.900000	-0.030218	-25.331905	-81.081067	75.979249	-81.081067	75.979249	-0.021253	-18.014924
0.950000	-0.032152	-26.723009	-81.023243	76.418192	-81.023243	76.418192	-0.022610	-19.005351
1.000000	-0.034092	-28.112091	-81.016945	77.170014	-81.016945	77.170014	-0.023973	-19.994505
1.050000	-0.036035	-29.499122	-81.058267	78.294579	-81.058267	78.294579	-0.025338	-20.982367
1.100000	-0.037976	-30.884079	-81.141803	79.862493	-81.141803	79.862493	-0.026702	-21.968921
1.150000	-0.039911	-32.266782	-81.261108	82.000500	-81.261108	82.000500	-0.028063	-22.954052
1.200000	-0.041836	-33.647272	-81.400729	84.794801	-81.400729	84.794801	-0.029419	-23.937782
1.250000	-0.043750	-35.025621	-81.540167	88.310557	-81.540167	88.310557	-0.030767	-24.920152
1.300000	-0.045652	-36.401809	-81.652818	92.616065	-81.652818	92.616065	-0.032109	-25.901145
1.350000	-0.047540	-37.775820	-81.704293	97.732365	-81.704293	97.732365	-0.033441	-26.880744
1.400000	-0.049414	-39.147636	-81.654801	103.599150	-81.654801	103.599150	-0.034766	-27.858933
1.450000	-0.051272	-40.517228	-81.464414	110.048004	-81.464414	110.048004	-0.036081	-28.835684
1.500000	-0.053115	-41.884345	-81.083865	116.785962	-81.083865	116.785962	-0.037386	-29.810828
1.550000	-0.054943	-43.249217	-80.526360	123.397917	-80.526360	123.397917	-0.038683	-30.784501
1.600000	-0.056758	-44.611831	-79.811102	129.559827	-79.811102	129.559827	-0.039971	-31.756687
1.650000	-0.058559	-45.972172	-78.972780	135.041536	-78.972780	135.041536	-0.041251	-32.727365
1.700000	-0.060347	-47.330094	-78.042277	139.679296	-78.042277	139.679296	-0.042523	-33.696423
1.750000	-0.062124	-48.685749	-77.069149	143.521294	-77.069149	143.521294	-0.043789	-34.663953
1.800000	-0.063890	-50.039060	-76.077636	146.596541	-76.077636	146.596541	-0.045048	-35.629887
1.850000	-0.065647	-51.390017	-75.088681	148.989770	-75.088681	148.989770	-0.046302	-36.594204
1.900000	-0.067396	-52.738612	-74.116026	150.794695	-74.116026	150.794695	-0.047551	-37.556883
1.950000	-0.069139	-54.084840	-73.168020	152.100862	-73.168020	152.100862	-0.048796	-38.517903
2.000000	-0.070875	-55.428694	-72.249258	152.987793	-72.249258	152.987793	-0.050038	-39.477242
2.050000	-0.072608	-56.770172	-71.361852	153.523370	-71.361852	153.523370	-0.051278	-40.434879
2.100000	-0.074337	-58.109273	-70.506341	153.764303	-70.506341	153.764303	-0.052515	-41.390794
2.150000	-0.076065	-59.445997	-69.682296	153.757462	-69.682296	153.757462	-0.053752	-42.344966
2.200000	-0.077792	-60.780348	-68.888726	153.541409	-68.888726	153.541409	-0.054988	-43.297375
2.250000	-0.079520	-62.112329	-68.124332	153.147862	-68.124332	153.147862	-0.056225	-44.248002
2.300000	-0.081250	-63.441949	-67.387673	152.602962	-67.387673	152.602962	-0.057463	-45.196826
2.350000	-0.082984	-64.769217	-66.677263	151.928330	-66.677263	151.928330	-0.058704	-46.143831
2.400000	-0.084722	-66.094143	-65.991636	151.141927	-65.991636	151.141927	-0.059947	-47.088997
2.450000	-0.086465	-67.416744	-65.329376	150.258753	-65.329376	150.258753	-0.061193	-48.032308
2.500000	-0.088216	-68.737034	-64.689141	149.291396	-64.689141	149.291396	-0.062443	-48.973746
2.550000	-0.089975	-70.054935	-64.068663	148.247703	-64.068663	148.247703	-0.063699	-49.913214
2.600000	-0.091743	-71.370568	-63.467904	147.140143	-63.467904	147.140143	-0.064959	-50.850776
2.650000	-0.093522	-72.683959	-62.885751	145.976246	-62.885751	145.976246	-0.066226	-51.786419
2.700000	-0.095311	-73.995133	-62.321170	144.762477	-62.321170	144.762477	-0.067499	-52.720129
2.750000	-0.097114	-75.304122	-61.773208	143.504411	-61.773208	143.504411	-0.068780	-53.651893
2.800000	-0.098929	-76.610956	-61.240981	142.206878	-61.240981	142.206878	-0.070068	-54.581698
2.850000	-0.100759	-77.915670	-60.723670	140.874077	-60.723670	140.874077	-0.071364	-55.509535
2.900000	-0.102604	-79.218303	-60.220520	139.509676	-60.220520	139.509676	-0.072670	-56.435392
2.950000	-0.104466	-80.518894	-59.730828	138.116892	-59.730828	138.116892	-0.073985	-57.359259
3.000000	-0.106345	-81.817485	-59.253943	136.698553	-59.253943	136.698553	-0.075309	-58.281128
3.050000	-0.108242	-83.114123	-58.789260	135.257154	-58.789260	135.257154	-0.076645	-59.200991
3.100000	-0.110158	-84.408855	-58.336217	133.794905	-58.336217	133.794905	-0.077991	-60.118840
3.150000	-0.112094	-85.701732	-57.894291	132.313770	-57.894291	132.313770	-0.079349	-61.034671
3.200000	-0.114051	-86.992807	-57.462992	130.815497	-57.462992	130.815497	-0.080719	-61.948476
3.250000	-0.116029	-88.282136	-57.041865	129.301647	-57.041865	129.301647	-0.082101	-62.860252
3.300000	-0.118030	-89.569777	-56.630483	127.773617	-56.630483	127.773617	-0.083496	-63.769996
3.350000	-0.120055	-90.855793	-56.228448	126.232662	-56.228448	126.232662	-0.084905	-64.677704
3.400000	-0.122103	-92.140246	-55.835385	124.679911	-55.835385	124.679911	-0.086328	-65.583374
3.450000	-0.124177	-93.423203	-55.450943	123.116380	-55.450943	123.116380	-0.087765	-66.487006
3.500000	-0.126276	-94.704734	-55.074793	121.542989	-55.074793	121.542989	-0.089218	-67.388599
3.550000	-0.128402	-95.984909	-54.706624	119.960569	-54.706624	119.960569	-0.090686	-68.288154
3.600000	-0.130555	-97.263803	-54.346144	118.369874	-54.346144	118.369874	-0.092169	-69.185673
3.650000	-0.132737	-98.541494	-53.993077	116.771590	-53.993077	116.771590	-0.093669	-70.081157
3.700000	-0.134947	-99.818059	-53.647165	115.166339	-53.647165	115.166339	-0.095186	-70.974610
3.750000	-0.137187	-101.093582	-53.308161	113.554692	-53.308161	113.554692	-0.096721	-71.866036
3.800000	-0.139458	-102.368109	-52.975572	111.936932	-52.975572	111.936932	-0.098274	-72.755353
3.850000	-0.141761	-103.641773	-52.649464	110.313808	-52.649464	110.313808	-0.099845	-73.642653
3.900000	-0.144096	-104.914664	-52.329626	108.685749	-52.329626	108.685749	-0.101436	-74.527944
3.950000	-0.146463	-106.186874	-52.015861	107.053150	-52.015861	107.053150	-0.103045	-75.411232
4.000000	-0.148864	-107.458499	-51.707978	105.416373	-51.707978	105.416373	-0.104675	-76.292527
4.050000	-0.151299	-108.729637	-51.405800	103.775753	-51.405800	103.775753	-0.106325	-77.171837
4.100000	-0.153769	-110.000386	-51.109157	102.131599	-51.109157	102.131599	-0.107995	-78.049171
4.150000	-0.156274	-111.270850	-50.817886	100.484194	-50.817886	100.484194	-0.109687	-78.924541
4.200000	-0.158815	-112.541135	-50.531833	98.833803	-50.531833	98.833803	-0.111400	-79.797957
4.250000	-0.161394	-113.811346	-50.250854	97.180670	-50.250854	97.180670	-0.113136	-80.669431
4.300000	-0.164010	-115.081596	-49.974806	95.525020	-49.974806	95.525020	-0.114895	-81.538976
4.350000	-0.166664	-116.351996	-49.703558	93.867066	-49.703558	93.867066	-0.116677	-82.406605
4.400000	-0.169357	-117.622661	-49.436983	92.207002	-49.436983	92.207002	-0.118482	-83.272333
4.450000	-0.172090	-118.893710	-49.174958	90.545013	-49.174958	90.545013	-0.120312	-84.136174
4.500000	-0.174863	-120.165262	-48.917368	88.881269	-48.917368	88.881269	-0.122166	-84.998144
4.550000	-0.177677	-121.437441	-48.664102	87.215929	-48.664102	87.215929	-0.124046	-85.858259
4.600000	-0.180532	-122.710371	-48.415054	85.549144	-48.415054	85.549144	-0.125951	-86.716537
4.650000	-0.183430	-123.984180	-48.170122	83.881055	-48.170122	83.881055	-0.127882	-87.572994
4.700000	-0.186371	-125.258999	-47.929208	82.211793	-47.929208	82.211793	-0.129840	-88.427649
4.750000	-0.189355	-126.534960	-47.692220	80.541484	-47.692220	80.541484	-0.131826	-89.280521
4.800000	-0.192382	-127.812200	-47.459066	78.870243	-47.459066	78.870243	-0.133838	-90.131630
4.850000	-0.195455	-129.090856	-47.229662	77.198183	-47.229662	77.198183	-0.135879	-90.980996
4.900000	-0.198573	-130.371068	-47.003925	75.525406	-47.003925	75.525406	-0.137949	-91.828639
4.950000	-0.201736	-131.652981	-46.781774	73.852012	-46.781774	73.852012	-0.140048	-92.674582
5.000000	-0.204946	-132.936739	-46.563133	72.178094	-46.563133	72.178094	-0.142176	-93.518847
5.050000	-0.208205	-134.222586	-46.347847	70.503726	-46.347847	70.503726	-0.144336	-94.361384
5.100000	-0.211511	-135.510592	-46.135936	68.829013	-46.135936	68.829013	-0.146527	-95.202292
5.150000	-0.214865	-136.800912	-45.927329	67.154034	-45.927329	67.154034	-0.148748	-96.041594
5.200000	-0.218268	-138.093702	-45.721960	65.478862	-45.721960	65.478862	-0.151001	-96.879314
5.250000	-0.221719	-139.389122	-45.519766	63.803569	-45.519766	63.803569	-0.153287	-97.715479
5.300000	-0.225221	-140.687335	-45.320685	62.128220	-45.320685	62.128220	-0.155605	-98.550113
5.350000	-0.228772	-141.988505	-45.124657	60.452878	-45.124657	60.452878	-0.157956	-99.383244
5.400000	-0.232373	-143.292800	-44.931625	58.777603	-44.931625	58.777603	-0.160340	-100.214898
5.450000	-0.236025	-144.600391	-44.741532	57.102449	-44.741532	57.102449	-0.162759	-101.045103
5.500000	-0.239729	-145.911450	-44.554325	55.427471	-44.554325	55.427471	-0.165212	-101.873888
5.550000	-0.243484	-147.226155	-44.369953	53.752715	-44.369953	53.752715	-0.167700	-102.701281
5.600000	-0.247292	-148.544683	-44.188364	52.078230	-44.188364	52.078230	-0.170223	-103.527311
5.650000	-0.251151	-149.867218	-44.009510	50.404056	-44.009510	50.404056	-0.172783	-104.352009
5.700000	-0.255064	-151.193943	-43.833345	48.730235	-43.833345	48.730235	-0.175379	-105.175405
5.750000	-0.259029	-152.525046	-43.659823	47.056804	-43.659823	47.056804	-0.178011	-105.997530
5.800000	-0.263048	-153.860718	-43.488901	45.383796	-43.488901	45.383796	-0.180681	-106.818415
5.850000	-0.267121	-155.201152	-43.320535	43.711244	-43.320535	43.711244	-0.183389	-107.638093
5.900000	-0.271247	-156.546545	-43.154685	42.039176	-43.154685	42.039176	-0.186135	-108.456597
5.950000	-0.275428	-157.897095	-42.991312	40.367620	-42.991312	40.367620	-0.188919	-109.273959
6.000000	-0.279663	-159.253006	-42.830377	38.696599	-42.830377	38.696599	-0.191743	-110.090214
6.050000	-0.283953	-160.614483	-42.671845	37.026136	-42.671845	37.026136	-0.194606	-110.905396
6.100000	-0.288297	-161.981735	-42.515679	35.356252	-42.515679	35.356252	-0.197509	-111.719541
6.150000	-0.292696	-163.354972	-42.361845	33.686965	-42.361845	33.686965	-0.200453	-112.532682
6.200000	-0.297151	-164.734409	-42.210311	32.018293	-42.210311	32.018293	-0.203437	-113.344858
6.250000	-0.301660	-166.120264	-42.061045	30.350251	-42.061045	30.350251	-0.206463	-114.156104
6.300000	-0.306227	-167.513058	-41.914007	28.682882	-41.914007	28.682882	-0.209532	-114.966420
6.350000	-0.310850	-168.912734	-41.769180	27.016174	-41.769180	27.016174	-0.212643	-115.775885
6.400000	-0.315528	-170.319521	-41.626539	25.350140	-41.626539	25.350140	-0.215797	-116.584538
6.450000	-0.320261	-171.733649	-41.486054	23.684793	-41.486054	23.684793	-0.218993	-117.392417
6.500000	-0.325050	-173.155352	-41.347701	22.020146	-41.347701	22.020146	-0.222233	-118.199562
6.550000	-0.329894	-174.584866	-41.211454	20.356213	-41.211454	20.356213	-0.225517	-119.006014
6.600000	-0.334793	-176.022432	-41.077289	18.693008	-41.077289	18.693008	-0.228845	-119.811813
6.650000	-0.339748	-177.468293	-40.945183	17.030548	-40.945183	17.030548	-0.232217	-120.617000
6.700000	-0.344758	-178.922694	-40.815113	15.368849	-40.815113	15.368849	-0.235634	-121.421619
6.750000	-0.349824	179.614114	-40.687057	13.707929	-40.687057	13.707929	-0.239097	-122.225711
6.800000	-0.354945	178.141879	-40.560995	12.047809	-40.560995	12.047809	-0.242605	-123.029320
6.850000	-0.360121	176.660346	-40.436905	10.388512	-40.436905	10.388512	-0.246159	-123.832490
6.900000	-0.365352	175.169254	-40.314767	8.730062	-40.314767	8.730062	-0.249759	-124.635266
6.950000	-0.370638	173.668342	-40.194560	7.072486	-40.194560	7.072486	-0.253406	-125.437693
7.000000	-0.375980	172.157344	-40.076266	5.415815	-40.076266	5.415815	-0.257101	-126.239818
7.050000	-0.381377	170.635991	-39.959862	3.760081	-39.959862	3.760081	-0.260843	-127.041687
7.100000	-0.386830	169.104011	-39.845330	2.105320	-39.845330	2.105320	-0.264632	-127.843348
7.150000	-0.392338	167.561129	-39.732646	0.451568	-39.732646	0.451568	-0.268470	-128.644850
7.200000	-0.397903	166.007064	-39.621790	-1.201134	-39.621790	-1.201134	-0.272357	-129.446241
7.250000	-0.403523	164.441534	-39.512739	-2.852744	-39.512739	-2.852744	-0.276292	-130.247571
7.300000	-0.409200	162.864253	-39.405468	-4.503222	-39.405468	-4.503222	-0.280277	-131.048892
7.350000	-0.414935	161.274931	-39.299951	-6.152523	-39.299951	-6.152523	-0.284311	-131.850255
7.400000	-0.420728	159.673273	-39.196161	-7.800605	-39.196161	-7.800605	-0.288395	-132.651713
7.450000	-0.426580	158.058980	-39.094067	-9.447429	-39.094067	-9.447429	-0.292530	-133.453319
7.500000	-0.432492	156.431750	-38.993637	-11.092957	-38.993637	-11.092957	-0.296715	-134.255128
7.550000	-0.438468	154.790684	-38.894856	-12.737099	-38.894856	-12.737099	-0.300954	-135.057209
7.600000	-0.444509	153.136031	-38.797662	-14.379888	-38.797662	-14.379888	-0.305244	-135.859611
7.650000	-0.450615	151.467470	-38.702012	-16.021313	-38.702012	-16.021313	-0.309585	-136.662390
7.700000	-0.456790	149.784675	-38.607855	-17.661373	-38.607855	-17.661373	-0.313979	-137.465607
7.750000	-0.463033	148.088118	-38.515116	-19.300161	-38.515116	-19.300161	-0.318423	-138.269292
7.800000	-0.469354	146.376033	-38.423778	-20.937584	-38.423778	-20.937584	-0.322922	-139.073555
7.850000	-0.475756	144.648697	-38.333753	-22.573766	-38.333753	-22.573766	-0.327475	-139.878438
7.900000	-0.482243	142.905751	-38.244970	-24.208807	-38.244970	-24.208807	-0.332081	-140.684006
7.950000	-0.488821	141.146820	-38.157345	-25.842844	-38.157345	-25.842844	-0.336742	-141.490325
8.000000	-0.495499	139.371519	-38.070788	-27.476061	-38.070788	-27.476061	-0.341457	-142.297462
8.050000	-0.502285	137.579444	-37.985198	-29.108700	-37.985198	-29.108700	-0.346228	-143.105486
8.100000	-0.509190	135.770173	-37.900462	-30.741067	-37.900462	-30.741067	-0.351055	-143.914468
8.150000	-0.516227	133.943067	-37.816454	-32.373555	-37.816454	-32.373555	-0.355938	-144.724493
8.200000	-0.523411	132.097635	-37.733029	-34.006663	-37.733029	-34.006663	-0.360878	-145.535638
8.250000	-0.530760	130.233567	-37.650033	-35.640989	-37.650033	-35.640989	-0.365876	-146.347971
8.300000	-0.538293	128.350321	-37.567292	-37.277262	-37.567292	-37.277262	-0.370933	-147.161571
8.350000	-0.546049	126.446121	-37.484556	-38.916604	-37.484556	-38.916604	-0.376051	-147.976604
8.400000	-0.554033	124.522616	-37.401708	-40.559693	-37.401708	-40.559693	-0.381225	-148.792996
8.450000	-0.562286	122.578333	-37.318483	-42.207894	-37.318483	-42.207894	-0.386459	-149.610886
8.500000	-0.570850	120.612523	-37.234624	-43.862684	-37.234624	-43.862684	-0.391752	-150.430363
8.550000	-0.579772	118.624350	-37.149842	-45.525826	-37.149842	-45.525826	-0.397106	-151.251517
8.600000	-0.589162	116.610177	-37.063539	-47.200852	-37.063539	-47.200852	-0.402529	-152.074650
8.650000	-0.599060	114.571228	-36.975521	-48.889525	-36.975521	-48.889525	-0.408015	-152.899687
8.700000	-0.609491	112.508723	-36.885680	-50.593169	-36.885680	-50.593169	-0.413559	-153.726541
8.750000	-0.620684	110.416333	-36.792923	-52.318978	-36.792923	-52.318978	-0.419174	-154.555696
8.800000	-0.632738	108.294182	-36.696893	-54.070473	-36.696893	-54.070473	-0.424856	-155.387123
8.850000	-0.645812	106.140744	-36.597020	-55.852804	-36.597020	-55.852804	-0.430605	-156.220902
8.900000	-0.660154	103.952754	-36.492417	-57.673710	-36.492417	-57.673710	-0.436424	-157.057222
8.950000	-0.676089	101.726416	-36.382038	-59.542864	-36.382038	-59.542864	-0.442315	-157.896270
9.000000	-0.693938	99.459255	-36.265066	-61.469325	-36.265066	-61.469325	-0.448278	-158.738106
9.050000	-0.714199	97.146455	-36.140234	-63.466506	-36.140234	-63.466506	-0.454313	-159.582906
9.100000	-0.737702	94.779414	-36.005435	-65.556180	-36.005435	-65.556180	-0.460426	-160.431010
9.150000	-0.765218	92.353232	-35.859415	-67.755938	-35.859415	-67.755938	-0.466615	-161.282453
9.200000	-0.797983	89.858546	-35.700041	-70.093459	-35.700041	-70.093459	-0.472881	-162.137452
9.250000	-0.838163	87.278971	-35.523686	-72.615031	-35.523686	-72.615031	-0.479228	-162.996437
9.300000	-0.888283	84.600341	-35.327574	-75.367295	-35.327574	-75.367295	-0.485655	-163.859577
9.350000	-0.952207	81.802611	-35.108045	-78.416513	-35.108045	-78.416513	-0.492162	-164.727157
9.400000	-1.036604	78.854437	-34.859575	-81.869099	-34.859575	-81.869099	-0.498753	-165.599693
9.450000	-1.151956	75.718025	-34.576422	-85.871872	-34.576422	-85.871872	-0.505432	-166.477721
9.500000	-1.316469	72.346099	-34.252474	-90.649776	-34.252474	-90.649776	-0.512212	-167.361979
9.550000	-1.561035	68.698150	-33.884849	-96.528250	-33.884849	-96.528250	-0.519122	-168.253355
9.600000	-1.945286	64.775679	-33.478398	-104.054210	-33.478398	-104.054210	-0.526259	-169.153325
9.650000	-2.580989	60.818934	-33.067745	-114.092309	-33.067745	-114.092309	-0.533881	-170.063789
9.700000	-3.655003	58.000987	-32.770661	-127.952611	-32.770661	-127.952611	-0.542665	-170.986210
9.750000	-5.240641	60.420218	-32.904581	-147.178661	-32.904581	-147.178661	-0.553851	-171.916514
9.800000	-6.133877	73.411231	-34.062585	-172.019900	-34.062585	-172.019900	-0.567478	-172.837845
9.850000	-4.826623	84.642441	-36.751822	160.146567	-36.751822	160.146567	-0.579930	-173.743536
9.900000	-3.207551	85.042853	-40.823895	130.934238	-40.823895	130.934238	-0.589420	-174.656053
9.950000	-2.200308	81.123729	-45.437261	94.679954	-45.437261	94.679954	-0.597687	-175.588729
10.000000	-1.633549	76.552103	-47.914140	46.323868	-47.914140	46.323868	-0.606062	-176.541323
