! freq	dB(S11)	phase(S11)	dB(S12)	phase(S12)	
!     	dB(S21)	phase(S21)	dB(S22)	phase(S22)	
!S-par simulation data
#  GHz  S  DB  R 50
0.000000	-0.000000	0.000000	-334.655530	0.000000	-334.655530	0.000000	-0.000000	0.000000
0.050000	-0.000089	-0.825365	-97.356107	9.071456	-97.356107	9.071456	-0.000152	-0.771300
0.100000	-0.000354	-1.650540	-97.300295	9.854352	-97.300295	9.854352	-0.000591	-1.542065
0.150000	-0.000786	-2.475346	-97.256963	12.343946	-97.256963	12.343946	-0.001275	-2.311865
0.200000	-0.001373	-3.299627	-97.212059	15.136001	-97.212059	15.136001	-0.002147	-3.080435
0.250000	-0.002109	-4.123197	-97.172045	17.922632	-97.172045	17.922632	-0.003155	-3.847567
0.300000	-0.002964	-4.946002	-97.146034	20.597234	-97.146034	20.597234	-0.004236	-4.613397
0.350000	-0.003927	-5.767923	-97.144875	23.116729	-97.144875	23.116729	-0.005356	-5.377950
0.400000	-0.004979	-6.588890	-97.180365	25.468789	-97.180365	25.468789	-0.006487	-6.141346
0.450000	-0.006103	-7.408856	-97.265293	27.661606	-97.265293	27.661606	-0.007612	-6.903712
0.500000	-0.007282	-8.227795	-97.413787	29.719178	-97.413787	29.719178	-0.008720	-7.665164
0.550000	-0.008502	-9.045696	-97.642034	31.680491	-97.642034	31.680491	-0.009809	-8.425796
0.600000	-0.009749	-9.862561	-97.969449	33.602210	-97.969449	33.602210	-0.010878	-9.185682
0.650000	-0.011011	-10.678402	-98.420525	35.566288	-98.420525	35.566288	-0.011927	-9.944874
0.700000	-0.012280	-11.493234	-99.027773	37.696509	-99.027773	37.696509	-0.012961	-10.703406
0.750000	-0.013548	-12.307079	-99.836516	40.193991	-99.836516	40.193991	-0.013981	-11.461296
0.800000	-0.014808	-13.119958	-100.912782	43.418310	-100.912782	43.418310	-0.014990	-12.218553
0.850000	-0.016057	-13.931893	-102.355247	48.093358	-102.355247	48.093358	-0.015991	-12.975177
0.900000	-0.017292	-14.742902	-104.301819	55.895009	-104.301819	55.895009	-0.016986	-13.731162
0.950000	-0.018509	-15.553002	-106.821107	71.040766	-106.821107	71.040766	-0.017977	-14.486496
1.000000	-0.019709	-16.362206	-109.091006	100.280079	-109.091006	100.280079	-0.018965	-15.241167
1.050000	-0.020890	-17.170524	-108.274528	141.056996	-108.274528	141.056996	-0.019951	-15.995159
1.100000	-0.022053	-17.977962	-104.624395	168.205637	-104.624395	168.205637	-0.020935	-16.748455
1.150000	-0.023198	-18.784523	-101.101822	-179.414997	-101.101822	-179.414997	-0.021919	-17.501039
1.200000	-0.024326	-19.590208	-98.199103	-173.246312	-98.199103	-173.246312	-0.022901	-18.252892
1.250000	-0.025438	-20.395012	-95.776786	-169.824636	-95.776786	-169.824636	-0.023884	-19.003996
1.300000	-0.026535	-21.198891	-93.690005	-167.856241	-93.690005	-167.856241	-0.024866	-19.754302
1.350000	-0.027618	-22.001875	-91.857650	-166.691009	-91.857650	-166.691009	-0.025848	-20.503822
1.400000	-0.028690	-22.803953	-90.217808	-166.048358	-90.217808	-166.048358	-0.026829	-21.252542
1.450000	-0.029750	-23.605112	-88.728636	-165.767787	-88.728636	-165.767787	-0.027810	-22.000443
1.500000	-0.030801	-24.405339	-87.360743	-165.751125	-87.360743	-165.751125	-0.028790	-22.747510
1.550000	-0.031844	-25.204619	-86.092770	-165.934880	-86.092770	-165.934880	-0.029769	-23.493726
1.600000	-0.032880	-26.002934	-84.908730	-166.276024	-84.908730	-166.276024	-0.030748	-24.239076
1.650000	-0.033911	-26.800270	-83.796352	-166.744229	-83.796352	-166.744229	-0.031726	-24.983545
1.700000	-0.034935	-27.596250	-82.722836	-167.346236	-82.722836	-167.346236	-0.032703	-25.726796
1.750000	-0.035957	-28.391703	-81.737089	-167.996955	-81.737089	-167.996955	-0.033679	-26.469575
1.800000	-0.036977	-29.185887	-80.784944	-168.734809	-80.784944	-168.734809	-0.034655	-27.211217
1.850000	-0.037994	-29.979163	-79.883885	-169.534903	-79.883885	-169.534903	-0.035630	-27.952048
1.900000	-0.039011	-30.771309	-79.018178	-170.391689	-79.018178	-170.391689	-0.036604	-28.691873
1.950000	-0.040027	-31.562325	-78.186113	-171.305168	-78.186113	-171.305168	-0.037578	-29.430693
2.000000	-0.041044	-32.352364	-77.390968	-172.256025	-77.390968	-172.256025	-0.038552	-30.168649
2.050000	-0.042062	-33.141037	-76.616594	-173.259213	-76.616594	-173.259213	-0.039526	-30.905396
2.100000	-0.043082	-33.929107	-75.886846	-174.281252	-75.886846	-174.281252	-0.040500	-31.641611
2.150000	-0.044104	-34.715611	-75.168618	-175.350687	-75.168618	-175.350687	-0.041474	-32.376449
2.200000	-0.045128	-35.500929	-74.473556	-176.451268	-74.473556	-176.451268	-0.042450	-33.110247
2.250000	-0.046156	-36.285043	-73.800095	-177.580509	-73.800095	-177.580509	-0.043426	-33.842990
2.300000	-0.047188	-37.067934	-73.146840	-178.736223	-73.146840	-178.736223	-0.044404	-34.574666
2.350000	-0.048224	-37.849586	-72.512545	-179.916469	-72.512545	-179.916469	-0.045384	-35.305261
2.400000	-0.049265	-38.629981	-71.896089	178.880488	-71.896089	178.880488	-0.046365	-36.034762
2.450000	-0.050310	-39.409103	-71.296464	177.656207	-71.296464	177.656207	-0.047349	-36.763156
2.500000	-0.051361	-40.186935	-70.712753	176.412097	-70.712753	176.412097	-0.048336	-37.490430
2.550000	-0.052421	-40.962715	-70.131708	175.139677	-70.131708	175.139677	-0.049328	-38.215925
2.600000	-0.053481	-41.738496	-69.587107	173.867257	-69.587107	173.867257	-0.050320	-38.941420
2.650000	-0.054552	-42.511718	-69.037044	172.563878	-69.037044	172.563878	-0.051320	-39.664698
2.700000	-0.055625	-43.284708	-68.516537	171.257685	-68.516537	171.257685	-0.052321	-40.387775
2.750000	-0.056710	-44.055322	-67.994409	169.926792	-67.994409	169.926792	-0.053330	-41.108795
2.800000	-0.057797	-44.825460	-67.496038	168.590959	-67.496038	168.590959	-0.054340	-41.829403
2.850000	-0.058896	-45.593417	-66.999260	167.235568	-66.999260	167.235568	-0.055360	-42.548121
2.900000	-0.059998	-46.360647	-66.521341	165.873658	-66.521341	165.873658	-0.056383	-43.266210
2.950000	-0.061112	-47.125903	-66.047701	164.496442	-66.047701	164.496442	-0.057414	-43.982589
3.000000	-0.062231	-47.890172	-65.588771	163.111573	-65.588771	163.111573	-0.058451	-44.698111
3.050000	-0.063361	-48.652685	-65.136355	161.714925	-65.136355	161.714925	-0.059496	-45.412110
3.100000	-0.064498	-49.413945	-64.695128	160.309862	-64.695128	160.309862	-0.060548	-46.125021
3.150000	-0.065644	-50.173678	-64.262266	158.895941	-64.262266	158.895941	-0.061608	-46.836606
3.200000	-0.066800	-50.931884	-63.837605	157.473161	-63.837605	157.473161	-0.062677	-47.546863
3.250000	-0.067965	-51.688803	-63.422827	156.043932	-63.422827	156.043932	-0.063754	-48.255997
3.300000	-0.069141	-52.443917	-63.013713	154.605672	-63.013713	154.605672	-0.064842	-48.963560
3.350000	-0.070325	-53.197988	-62.615718	153.162929	-62.615718	153.162929	-0.065937	-49.670213
3.400000	-0.071523	-53.949975	-62.221231	151.711221	-62.221231	151.711221	-0.067045	-50.375044
3.450000	-0.072726	-54.701172	-61.838856	150.256614	-61.838856	150.256614	-0.068160	-51.079184
3.500000	-0.073947	-55.450000	-61.458161	148.793312	-61.458161	148.793312	-0.069291	-51.781250
3.550000	-0.075172	-56.198297	-61.090363	147.328359	-61.090363	147.328359	-0.070426	-52.482849
3.600000	-0.076417	-56.943940	-60.722694	145.855156	-60.722694	145.855156	-0.071581	-53.182117
3.650000	-0.077664	-57.689315	-60.368531	144.381257	-60.368531	144.381257	-0.072739	-53.881149
3.700000	-0.078935	-58.431749	-60.013180	142.899703	-60.013180	142.899703	-0.073920	-54.577591
3.750000	-0.080206	-59.174183	-59.671797	141.418149	-59.671797	141.418149	-0.075101	-55.274032
3.800000	-0.081505	-59.913390	-59.328108	139.929657	-59.328108	139.929657	-0.076309	-55.967622
3.850000	-0.082803	-60.652597	-58.997503	138.441164	-58.997503	138.441164	-0.077518	-56.661211
3.900000	-0.084128	-61.388831	-58.666085	136.947493	-58.666085	136.947493	-0.078753	-57.352165
3.950000	-0.085455	-62.124795	-58.345717	135.453350	-58.345717	135.453350	-0.079991	-58.042879
4.000000	-0.086808	-62.858048	-58.025821	133.955471	-58.025821	133.955471	-0.081254	-58.731181
4.050000	-0.088167	-63.590759	-57.715183	132.456845	-57.715183	132.456845	-0.082522	-59.419001
4.100000	-0.089549	-64.321023	-57.406119	130.955644	-57.406119	130.955644	-0.083815	-60.104637
4.150000	-0.090940	-65.050472	-57.104729	129.453585	-57.104729	129.453585	-0.085116	-60.789545
4.200000	-0.092354	-65.777743	-56.805859	127.949865	-56.805859	127.949865	-0.086439	-61.472502
4.250000	-0.093779	-66.503926	-56.513264	126.445314	-56.513264	126.445314	-0.087774	-62.154485
4.300000	-0.095225	-67.228204	-56.223999	124.939797	-56.223999	124.939797	-0.089129	-62.834755
4.350000	-0.096686	-67.951120	-55.939766	123.433588	-55.939766	123.433588	-0.090499	-63.513801
4.400000	-0.098167	-68.672405	-55.659557	121.926917	-55.659557	121.926917	-0.091888	-64.191375
4.450000	-0.099666	-69.392057	-55.383277	120.419783	-55.383277	120.419783	-0.093296	-64.867478
4.500000	-0.101183	-70.110352	-55.111615	118.912528	-55.111615	118.912528	-0.094719	-65.542351
4.550000	-0.102722	-70.826747	-54.842898	117.405104	-54.842898	117.405104	-0.096165	-66.215505
4.600000	-0.104276	-71.542058	-54.579309	115.897763	-54.579309	115.897763	-0.097625	-66.887674
4.650000	-0.105858	-72.255204	-54.317785	114.390589	-54.317785	114.390589	-0.099111	-67.557877
4.700000	-0.107451	-72.967541	-54.061828	112.883592	-54.061828	112.883592	-0.100608	-68.227342
4.750000	-0.109077	-73.677450	-53.807145	111.377125	-53.807145	111.377125	-0.102136	-68.894594
4.800000	-0.110711	-74.386823	-53.558408	109.870837	-53.558408	109.870837	-0.103672	-69.561355
4.850000	-0.112383	-75.093511	-53.310234	108.365447	-53.310234	108.365447	-0.105243	-70.225661
4.900000	-0.114060	-75.799933	-53.068334	106.860173	-53.068334	106.860173	-0.106819	-70.889722
4.950000	-0.115781	-76.503418	-52.826353	105.356158	-52.826353	105.356158	-0.108435	-71.551088
5.000000	-0.117502	-77.206904	-52.590931	103.852143	-52.590931	103.852143	-0.110052	-72.212454
5.050000	-0.119273	-77.907208	-52.354847	102.349730	-52.354847	102.349730	-0.111716	-72.870889
5.100000	-0.121044	-78.607513	-52.125010	100.847317	-52.125010	100.847317	-0.113379	-73.529325
5.150000	-0.122863	-79.304923	-51.895103	99.346523	-51.895103	99.346523	-0.115087	-74.185084
5.200000	-0.124687	-80.002071	-51.670593	97.845876	-51.670593	97.845876	-0.116798	-74.840600
5.250000	-0.126556	-80.696610	-51.446548	96.346790	-51.446548	96.346790	-0.118551	-75.493696
5.300000	-0.128434	-81.390627	-51.227125	94.848016	-51.227125	94.848016	-0.120313	-76.146308
5.350000	-0.130355	-82.082320	-51.008651	93.350693	-51.008651	93.350693	-0.122113	-76.796753
5.400000	-0.132290	-82.773238	-50.794087	91.853852	-50.794087	91.853852	-0.123926	-77.446477
5.450000	-0.134264	-83.462111	-50.580914	90.358313	-50.580914	90.358313	-0.125774	-78.094289
5.500000	-0.136257	-84.149962	-50.371001	88.863423	-50.371001	88.863423	-0.127640	-78.741145
5.550000	-0.138286	-84.836045	-50.162879	87.369663	-50.162879	87.369663	-0.129538	-79.386340
5.600000	-0.140340	-85.520864	-49.957422	85.876709	-49.957422	85.876709	-0.131459	-80.030350
5.650000	-0.142425	-86.204187	-49.754123	84.384702	-49.754123	84.384702	-0.133407	-80.672948
5.700000	-0.144542	-86.886013	-49.552943	82.893642	-49.552943	82.893642	-0.135385	-81.314135
5.750000	-0.146685	-87.566609	-49.354256	81.403345	-49.354256	81.403345	-0.137386	-81.954157
5.800000	-0.148866	-88.245483	-49.157191	79.914118	-49.157191	79.914118	-0.139421	-82.592548
5.850000	-0.151069	-88.923388	-48.962923	78.425477	-48.962923	78.425477	-0.141476	-83.230017
5.900000	-0.153316	-89.599353	-48.769825	76.938011	-48.769825	76.938011	-0.143570	-83.865641
5.950000	-0.155580	-90.274603	-48.579799	75.450967	-48.579799	75.450967	-0.145681	-84.500581
6.000000	-0.157895	-90.947707	-48.390535	73.965188	-48.390535	73.965188	-0.147837	-85.133469
6.050000	-0.160222	-91.620342	-48.204591	72.479677	-48.204591	72.479677	-0.150003	-85.765905
6.100000	-0.162607	-92.290633	-48.019043	70.995514	-48.019043	70.995514	-0.152222	-86.396089
6.150000	-0.164998	-92.960693	-47.837035	69.511480	-47.837035	69.511480	-0.154447	-87.026051
6.200000	-0.167454	-93.628223	-47.655099	68.028873	-47.655099	68.028873	-0.156731	-87.653566
6.250000	-0.169910	-94.295753	-47.476895	66.546266	-47.476895	66.546266	-0.159015	-88.281080
6.300000	-0.172439	-94.960576	-47.298480	65.065174	-47.298480	65.065174	-0.161365	-88.905963
6.350000	-0.174969	-95.625400	-47.123657	63.584082	-47.123657	63.584082	-0.163716	-89.530846
6.400000	-0.177566	-96.287795	-46.948992	62.104364	-46.948992	62.104364	-0.166128	-90.153352
6.450000	-0.180170	-96.949970	-46.777477	60.624771	-46.777477	60.624771	-0.168547	-90.775641
6.500000	-0.182837	-97.609987	-46.606461	59.146440	-46.606461	59.146440	-0.171024	-91.395803
6.550000	-0.185518	-98.269573	-46.438194	57.668361	-46.438194	57.668361	-0.173513	-92.015539
6.600000	-0.188255	-98.927264	-46.270738	56.191458	-46.270738	56.191458	-0.176055	-92.633392
6.650000	-0.191013	-99.584324	-46.105670	54.714946	-46.105670	54.714946	-0.178615	-93.250617
6.700000	-0.193822	-100.239743	-45.941696	53.239544	-45.941696	53.239544	-0.181224	-93.866197
6.750000	-0.196659	-100.894343	-45.779787	51.764695	-45.779787	51.764695	-0.183858	-94.480955
6.800000	-0.199541	-101.547548	-45.619225	50.290901	-45.619225	50.290901	-0.186536	-95.094301
6.850000	-0.202457	-102.199756	-45.460445	48.817860	-45.460445	48.817860	-0.189245	-95.706637
6.900000	-0.205414	-102.850805	-45.303234	47.345821	-45.303234	47.345821	-0.191992	-96.317786
6.950000	-0.208411	-103.500694	-45.147559	45.874785	-45.147559	45.874785	-0.194778	-96.927747
7.000000	-0.211443	-104.149647	-44.993644	44.404688	-44.993644	44.404688	-0.197597	-97.536740
7.050000	-0.214522	-104.797291	-44.841059	42.935909	-44.841059	42.935909	-0.200462	-98.144375
7.100000	-0.217629	-105.444212	-44.690392	41.467986	-44.690392	41.467986	-0.203354	-98.751251
7.150000	-0.220792	-106.089689	-44.540886	40.001776	-44.540886	40.001776	-0.206299	-99.356610
7.200000	-0.223976	-106.734644	-44.393424	38.536302	-44.393424	38.536302	-0.209266	-99.961413
7.250000	-0.227222	-107.378034	-44.246991	37.073035	-44.246991	37.073035	-0.212293	-100.564546
7.300000	-0.230484	-108.021090	-44.102695	35.610332	-44.102695	35.610332	-0.215335	-101.167318
7.350000	-0.233815	-108.662478	-43.959331	34.150446	-43.959331	34.150446	-0.218447	-101.768279
7.400000	-0.237155	-109.303707	-43.818166	32.690884	-43.818166	32.690884	-0.221567	-102.369064
7.450000	-0.240572	-109.943181	-43.677869	31.234878	-43.677869	31.234878	-0.224765	-102.967907
7.500000	-0.243991	-110.582654	-43.539802	29.778873	-43.539802	29.778873	-0.227964	-103.566749
7.550000	-0.247494	-111.220304	-43.402569	28.327310	-43.402569	28.327310	-0.231249	-104.163528
7.600000	-0.250999	-111.857954	-43.267471	26.875747	-43.267471	26.875747	-0.234536	-104.760307
7.650000	-0.254583	-112.494019	-43.133396	25.428829	-43.133396	25.428829	-0.237904	-105.355246
7.700000	-0.258175	-113.129940	-43.001265	23.982332	-43.001265	23.982332	-0.241280	-105.950018
7.750000	-0.261840	-113.764502	-42.870312	22.540625	-42.870312	22.540625	-0.244732	-106.543165
7.800000	-0.265520	-114.398792	-42.741145	21.099876	-42.741145	21.099876	-0.248199	-107.135987
7.850000	-0.269265	-115.031936	-42.613275	19.663989	-42.613275	19.663989	-0.251736	-107.727391
7.900000	-0.273034	-115.664697	-42.487064	18.229724	-42.487064	18.229724	-0.255297	-108.318322
7.950000	-0.276861	-116.296509	-42.362236	16.800304	-42.362236	16.800304	-0.258921	-108.908031
8.000000	-0.280718	-116.927847	-42.238968	15.373308	-42.238968	15.373308	-0.262577	-109.497130
8.050000	-0.284627	-117.558420	-42.117139	13.951036	-42.117139	13.951036	-0.266290	-110.085196
8.100000	-0.288574	-118.188445	-41.996794	12.532138	-41.996794	12.532138	-0.270043	-110.672524
8.150000	-0.292565	-118.817871	-41.877916	11.117725	-41.877916	11.117725	-0.273845	-111.258997
8.200000	-0.296601	-119.446698	-41.760467	9.707795	-41.760467	9.707795	-0.277697	-111.844616
8.250000	-0.300675	-120.075075	-41.644488	8.301976	-41.644488	8.301976	-0.281591	-112.429548
8.300000	-0.304801	-120.702822	-41.529902	6.901912	-41.529902	6.901912	-0.285543	-113.013519
8.350000	-0.308958	-121.330251	-41.416764	5.505445	-41.416764	5.505445	-0.289530	-113.596962
8.400000	-0.313175	-121.957042	-41.304996	4.116171	-41.304996	4.116171	-0.293584	-114.179350
8.450000	-0.317415	-122.583625	-41.194638	2.729830	-41.194638	2.729830	-0.297665	-114.761357
8.500000	-0.321723	-123.209588	-41.085635	1.352284	-41.085635	1.352284	-0.301824	-115.342225
8.550000	-0.326047	-123.835435	-40.977989	-0.023150	-40.977989	-0.023150	-0.306001	-115.922851
8.600000	-0.330445	-124.460703	-40.871689	-1.388020	-40.871689	-1.388020	-0.310265	-116.502264
8.650000	-0.334853	-125.085925	-40.766682	-2.751756	-40.766682	-2.751756	-0.314540	-117.081562
8.700000	-0.339342	-125.710637	-40.663011	-4.103006	-40.663011	-4.103006	-0.318912	-117.659588
8.750000	-0.343834	-126.335350	-40.560564	-5.454255	-40.560564	-5.454255	-0.323286	-118.237613
8.800000	-0.348416	-126.959650	-40.459442	-6.790945	-40.459442	-6.790945	-0.327766	-118.814316
8.850000	-0.352999	-127.583950	-40.359483	-8.127635	-40.359483	-8.127635	-0.332249	-119.391020
8.900000	-0.357665	-128.208011	-40.260803	-9.450131	-40.260803	-9.450131	-0.336832	-119.966573
8.950000	-0.362341	-128.832050	-40.163245	-10.771338	-40.163245	-10.771338	-0.341426	-120.542023
9.000000	-0.367091	-129.456001	-40.066905	-12.078891	-40.066905	-12.078891	-0.346113	-121.116483
9.050000	-0.371859	-130.079934	-39.971648	-13.383713	-39.971648	-13.383713	-0.350819	-121.690747
9.100000	-0.376696	-130.703911	-39.877540	-14.675593	-39.877540	-14.675593	-0.355610	-122.264172
9.150000	-0.381556	-131.327901	-39.784479	-15.963159	-39.784479	-15.963159	-0.360431	-122.837318
9.200000	-0.386478	-131.952043	-39.692491	-17.238661	-39.692491	-17.238661	-0.365329	-123.409766
9.250000	-0.391432	-132.576261	-39.601510	-18.508133	-39.601510	-18.508133	-0.370265	-123.981865
9.300000	-0.396440	-133.200714	-39.511526	-19.766583	-39.511526	-19.766583	-0.375270	-124.553393
9.350000	-0.401487	-133.825335	-39.422503	-21.017160	-39.422503	-21.017160	-0.380324	-125.124515
9.400000	-0.406582	-134.450251	-39.334404	-22.257913	-39.334404	-22.257913	-0.385438	-125.695184
9.450000	-0.411724	-135.075460	-39.247209	-23.488840	-39.247209	-23.488840	-0.390611	-126.265399
9.500000	-0.416905	-135.700994	-39.160871	-24.711284	-39.160871	-24.711284	-0.395835	-126.835267
9.550000	-0.422142	-136.326983	-39.075370	-25.921851	-39.075370	-25.921851	-0.401128	-127.404649
9.600000	-0.427411	-136.953299	-38.990669	-27.125409	-38.990669	-27.125409	-0.406463	-127.973776
9.650000	-0.432744	-137.580270	-38.906721	-28.314952	-38.906721	-28.314952	-0.411879	-128.542396
9.700000	-0.438102	-138.207538	-38.823530	-29.499085	-38.823530	-29.499085	-0.417326	-129.110843
9.750000	-0.443530	-138.835698	-38.740990	-30.666988	-38.740990	-30.666988	-0.422865	-129.678773
9.800000	-0.448978	-139.464094	-38.659181	-31.831191	-38.659181	-31.831191	-0.428426	-130.246601
9.850000	-0.454504	-140.093665	-38.577902	-32.976889	-38.577902	-32.976889	-0.434089	-130.813917
9.900000	-0.460042	-140.723372	-38.497345	-34.120694	-38.497345	-34.120694	-0.439766	-131.381187
9.950000	-0.465667	-141.354582	-38.417177	-35.243669	-38.417177	-35.243669	-0.445554	-131.947962
10.000000	-0.471296	-141.985792	-38.337743	-36.366644	-38.337743	-36.366644	-0.451347	-132.514736
