! freq	dB(S11)	phase(S11)	dB(S12)	phase(S12)	
!     	dB(S21)	phase(S21)	dB(S22)	phase(S22)	
!S-par simulation data
#  GHz  S  DB  R 50
0.000000	-0.000000	-0.000000	-301.583687	180.000000	-301.583687	180.000000	0.000000	0.000000
0.050000	-0.002789	-2.090338	-78.257351	87.872522	-78.257351	87.872522	-0.002788	-2.089446
0.100000	-0.006521	-4.155795	-72.245174	85.817233	-72.245174	85.817233	-0.006520	-4.154022
0.150000	-0.009209	-6.213729	-68.740393	83.755065	-68.740393	83.755065	-0.009206	-6.211076
0.200000	-0.011465	-8.270640	-66.264774	81.697926	-66.264774	81.697926	-0.011461	-8.267107
0.250000	-0.013625	-10.326913	-64.355720	79.650730	-64.355720	79.650730	-0.013619	-10.322506
0.300000	-0.015841	-12.381586	-62.809736	77.619464	-62.809736	77.619464	-0.015833	-12.376310
0.350000	-0.018138	-14.434225	-61.512556	75.603953	-61.512556	75.603953	-0.018127	-14.428085
0.400000	-0.020526	-16.484040	-60.399905	73.608062	-60.399905	73.608062	-0.020512	-16.477043
0.450000	-0.022996	-18.530463	-59.429183	71.634286	-59.429183	71.634286	-0.022980	-18.522614
0.500000	-0.025540	-20.572625	-58.572630	69.687367	-58.572630	69.687367	-0.025521	-20.563932
0.550000	-0.028136	-22.610357	-57.808012	67.767952	-57.808012	67.767952	-0.028115	-22.600828
0.600000	-0.030766	-24.643433	-57.119269	65.877211	-57.119269	65.877211	-0.030742	-24.633077
0.650000	-0.033416	-26.671578	-56.494355	64.016608	-56.494355	64.016608	-0.033391	-26.660403
0.700000	-0.036073	-28.694551	-55.923734	62.187205	-55.923734	62.187205	-0.036046	-28.682566
0.750000	-0.038725	-30.712140	-55.399662	60.389533	-55.399662	60.389533	-0.038698	-30.699354
0.800000	-0.041363	-32.724010	-54.915938	58.624143	-54.915938	58.624143	-0.041335	-32.710434
0.850000	-0.043977	-34.729578	-54.467564	56.891556	-54.467564	56.891556	-0.043948	-34.715222
0.900000	-0.046561	-36.729201	-54.048832	55.185836	-54.048832	55.185836	-0.046533	-36.714076
0.950000	-0.049113	-38.722732	-53.655665	53.501907	-53.655665	53.501907	-0.049084	-38.706847
1.000000	-0.051629	-40.710029	-53.284598	51.832097	-53.284598	51.832097	-0.051600	-40.693395
1.050000	-0.054107	-42.690961	-52.932863	50.165682	-52.932863	50.165682	-0.054079	-42.673590
1.100000	-0.056547	-44.665403	-52.598587	48.488905	-52.598587	48.488905	-0.056519	-44.647306
1.150000	-0.058945	-46.632741	-52.281583	46.783016	-52.281583	46.783016	-0.058918	-46.613931
1.200000	-0.061303	-48.593052	-51.983087	45.033053	-51.983087	45.033053	-0.061277	-48.573540
1.250000	-0.063625	-50.546517	-51.705636	43.234757	-51.705636	43.234757	-0.063600	-50.526317
1.300000	-0.065911	-52.493042	-51.452731	41.396496	-51.452731	41.396496	-0.065888	-52.472165
1.350000	-0.068164	-54.432538	-51.227299	39.542818	-51.227299	39.542818	-0.068142	-54.410998
1.400000	-0.070385	-56.364925	-51.030262	37.710306	-51.030262	37.710306	-0.070364	-56.342734
1.450000	-0.072577	-58.290086	-50.859921	35.938215	-50.859921	35.938215	-0.072556	-58.267257
1.500000	-0.074738	-60.207197	-50.713604	34.267939	-50.713604	34.267939	-0.074718	-60.183745
1.550000	-0.076873	-62.117000	-50.583479	32.703640	-50.583479	32.703640	-0.076855	-62.092937
1.600000	-0.078986	-64.019451	-50.464709	31.244292	-50.464709	31.244292	-0.078969	-63.994792
1.650000	-0.081078	-65.914518	-50.353534	29.881093	-50.353534	29.881093	-0.081062	-65.889274
1.700000	-0.083150	-67.801738	-50.247450	28.606301	-50.247450	28.606301	-0.083135	-67.775925
1.750000	-0.085205	-69.681635	-50.144536	27.401551	-50.144536	27.401551	-0.085192	-69.655266
1.800000	-0.087245	-71.553987	-50.043874	26.258664	-50.043874	26.258664	-0.087233	-71.527075
1.850000	-0.089272	-73.418800	-49.944842	25.168955	-49.944842	25.168955	-0.089261	-73.391358
1.900000	-0.091287	-75.276092	-49.847047	24.125698	-49.847047	24.125698	-0.091277	-75.248134
1.950000	-0.093292	-77.125891	-49.750206	23.123783	-49.750206	23.123783	-0.093284	-77.097430
2.000000	-0.095289	-78.968235	-49.654076	22.159322	-49.654076	22.159322	-0.095282	-78.939284
2.050000	-0.097279	-80.803172	-49.558421	21.229314	-49.558421	21.229314	-0.097273	-80.773745
2.100000	-0.099264	-82.630763	-49.462989	20.331367	-49.462989	20.331367	-0.099260	-82.600872
2.150000	-0.101246	-84.451075	-49.367514	19.463490	-49.367514	19.463490	-0.101243	-84.420733
2.200000	-0.103225	-86.264189	-49.271706	18.623943	-49.271706	18.623943	-0.103224	-86.233408
2.250000	-0.105204	-88.070192	-49.175261	17.811117	-49.175261	17.811117	-0.105203	-88.038985
2.300000	-0.107183	-89.869184	-49.077859	17.023460	-49.077859	17.023460	-0.107184	-89.837563
2.350000	-0.109163	-91.661273	-48.979176	16.259410	-48.979176	16.259410	-0.109166	-91.629249
2.400000	-0.111147	-93.446575	-48.878877	15.517356	-48.878877	15.517356	-0.111151	-93.414161
2.450000	-0.113135	-95.225216	-48.776633	14.795604	-48.776633	14.795604	-0.113140	-95.192423
2.500000	-0.115128	-96.997333	-48.672113	14.092357	-48.672113	14.092357	-0.115135	-96.964171
2.550000	-0.117128	-98.762796	-48.564810	13.406322	-48.564810	13.406322	-0.117137	-98.729278
2.600000	-0.119136	-100.522044	-48.454567	12.734632	-48.454567	12.734632	-0.119146	-100.488180
2.650000	-0.121153	-102.275238	-48.341091	12.075093	-48.341091	12.075093	-0.121165	-102.241038
2.700000	-0.123180	-104.022545	-48.224107	11.425376	-48.224107	11.425376	-0.123194	-103.988020
2.750000	-0.125219	-105.764144	-48.103363	10.783030	-48.103363	10.783030	-0.125234	-105.729302
2.800000	-0.127270	-107.500216	-47.978631	10.145481	-47.978631	10.145481	-0.127287	-107.465068
2.850000	-0.129334	-109.230954	-47.849711	9.510054	-47.849711	9.510054	-0.129353	-109.195509
2.900000	-0.131413	-110.956557	-47.716434	8.873976	-47.716434	8.873976	-0.131434	-110.920823
2.950000	-0.133508	-112.677228	-47.578662	8.234403	-47.578662	8.234403	-0.133530	-112.641214
3.000000	-0.135619	-114.393179	-47.436291	7.588435	-47.436291	7.588435	-0.135643	-114.356895
3.050000	-0.137749	-116.104630	-47.289253	6.933136	-47.289253	6.933136	-0.137775	-116.068082
3.100000	-0.139897	-117.811804	-47.137515	6.265560	-47.137515	6.265560	-0.139925	-117.775000
3.150000	-0.142066	-119.514932	-46.981080	5.582772	-46.981080	5.582772	-0.142096	-119.477879
3.200000	-0.144256	-121.214251	-46.819986	4.881871	-46.819986	4.881871	-0.144288	-121.176957
3.250000	-0.146468	-122.910004	-46.654306	4.160016	-46.654306	4.160016	-0.146503	-122.872476
3.300000	-0.148704	-124.602440	-46.484147	3.414446	-46.484147	3.414446	-0.148741	-124.564683
3.350000	-0.150965	-126.291812	-46.309646	2.642501	-46.309646	2.642501	-0.151004	-126.253833
3.400000	-0.153251	-127.978381	-46.130970	1.841645	-46.130970	1.841645	-0.153293	-127.940186
3.450000	-0.155565	-129.662413	-45.948314	1.009476	-45.948314	1.009476	-0.155609	-129.624007
3.500000	-0.157906	-131.344177	-45.761894	0.143749	-45.761894	0.143749	-0.157952	-131.305566
3.550000	-0.160277	-133.023951	-45.571949	-0.757617	-45.571949	-0.757617	-0.160325	-132.985139
3.600000	-0.162678	-134.702016	-45.378734	-1.696532	-45.378734	-1.696532	-0.162729	-134.663007
3.650000	-0.165110	-136.378659	-45.182518	-2.674722	-45.182518	-2.674722	-0.165164	-136.339458
3.700000	-0.167575	-138.054172	-44.983583	-3.693730	-44.983583	-3.693730	-0.167631	-138.014782
3.750000	-0.170074	-139.728852	-44.782215	-4.754916	-44.782215	-4.754916	-0.170133	-139.689277
3.800000	-0.172609	-141.402993	-44.578416	-5.861387	-44.578416	-5.861387	-0.172671	-141.363237
3.850000	-0.175180	-143.076941	-44.372788	-7.012283	-44.372788	-7.012283	-0.175245	-143.037005
3.900000	-0.177788	-144.751008	-44.165621	-8.208405	-44.165621	-8.208405	-0.177856	-144.710896
3.950000	-0.180435	-146.425514	-43.957203	-9.450392	-43.957203	-9.450392	-0.180505	-146.385227
4.000000	-0.183121	-148.100783	-43.747813	-10.738732	-43.747813	-10.738732	-0.183195	-148.060323
4.050000	-0.185848	-149.777144	-43.537721	-12.073769	-43.537721	-12.073769	-0.185924	-149.736512
4.100000	-0.188617	-151.454932	-43.327183	-13.455719	-43.327183	-13.455719	-0.188696	-151.414129
4.150000	-0.191428	-153.134486	-43.116445	-14.884678	-43.116445	-14.884678	-0.191510	-153.093513
4.200000	-0.194283	-154.816153	-42.905735	-16.360641	-42.905735	-16.360641	-0.194369	-154.775010
4.250000	-0.197184	-156.500283	-42.695267	-17.883508	-42.695267	-17.883508	-0.197272	-156.458969
4.300000	-0.200130	-158.187233	-42.485238	-19.453105	-42.485238	-19.453105	-0.200222	-158.145748
4.350000	-0.203124	-159.877365	-42.275824	-21.069188	-42.275824	-21.069188	-0.203219	-159.835707
4.400000	-0.206166	-161.571047	-42.067187	-22.731463	-42.067187	-22.731463	-0.206265	-161.529214
4.450000	-0.209258	-163.268652	-41.859465	-24.439597	-41.859465	-24.439597	-0.209360	-163.226643
4.500000	-0.212401	-164.970559	-41.652780	-26.193225	-41.652780	-26.193225	-0.212506	-164.928371
4.550000	-0.215595	-166.677154	-41.447233	-27.991970	-41.447233	-27.991970	-0.215703	-166.634784
4.600000	-0.218842	-168.388829	-41.242905	-29.835443	-41.242905	-29.835443	-0.218954	-168.346273
4.650000	-0.222143	-170.105981	-41.039859	-31.723265	-41.039859	-31.723265	-0.222258	-170.063235
4.700000	-0.225499	-171.829014	-40.838135	-33.655066	-40.838135	-33.655066	-0.225618	-171.786073
4.750000	-0.228912	-173.558338	-40.637756	-35.630499	-40.637756	-35.630499	-0.229034	-173.515197
4.800000	-0.232381	-175.294369	-40.438724	-37.649249	-40.438724	-37.649249	-0.232507	-175.251023
4.850000	-0.235910	-177.037532	-40.241023	-39.711035	-40.241023	-39.711035	-0.236039	-176.993973
4.900000	-0.239498	-178.788256	-40.044614	-41.815621	-40.044614	-41.815621	-0.239631	-178.744478
4.950000	-0.243147	179.453022	-39.849444	-43.962822	-39.849444	-43.962822	-0.243284	179.497028
5.000000	-0.246858	177.685858	-39.655438	-46.152504	-39.655438	-46.152504	-0.246999	177.730100
5.050000	-0.250636	175.909394	-39.462356	-48.386436	-39.462356	-48.386436	-0.250780	175.953882
5.100000	-0.254478	174.123537	-39.270223	-50.662768	-39.270223	-50.662768	-0.254626	174.168281
5.150000	-0.258386	172.327822	-39.078903	-52.981559	-39.078903	-52.981559	-0.258538	172.372833
5.200000	-0.262362	170.521775	-38.888242	-55.342936	-38.888242	-55.342936	-0.262517	170.567064
5.250000	-0.266407	168.704916	-38.698066	-57.747089	-38.698066	-57.747089	-0.266565	168.750497
5.300000	-0.270522	166.876756	-38.508181	-60.194276	-38.508181	-60.194276	-0.270684	166.922641
5.350000	-0.274709	165.036799	-38.318375	-62.684819	-38.318375	-62.684819	-0.274875	165.083004
5.400000	-0.278970	163.184542	-38.128413	-65.219103	-38.128413	-65.219103	-0.279139	163.231082
5.450000	-0.283306	161.319474	-37.938042	-67.797571	-37.938042	-67.797571	-0.283479	161.366366
5.500000	-0.287720	159.441075	-37.746985	-70.420723	-37.746985	-70.420723	-0.287895	159.488336
5.550000	-0.292213	157.548818	-37.554943	-73.089108	-37.554943	-73.089108	-0.292391	157.596468
5.600000	-0.296787	155.642169	-37.361595	-75.803322	-37.361595	-75.803322	-0.296969	155.690228
5.650000	-0.301445	153.720584	-37.166596	-78.563996	-37.166596	-78.563996	-0.301630	153.769072
5.700000	-0.306189	151.783511	-36.969574	-81.371794	-36.969574	-81.371794	-0.306377	151.832453
5.750000	-0.311022	149.830391	-36.770133	-84.227399	-36.770133	-84.227399	-0.311213	149.879810
5.800000	-0.315948	147.860656	-36.567847	-87.131506	-36.567847	-87.131506	-0.316141	147.910577
5.850000	-0.320969	145.873727	-36.362263	-90.084811	-36.362263	-90.084811	-0.321165	145.924179
5.900000	-0.326089	143.869021	-36.152896	-93.087998	-36.152896	-93.087998	-0.326287	143.920031
5.950000	-0.331313	141.845940	-35.939229	-96.141728	-35.939229	-96.141728	-0.331513	141.897539
6.000000	-0.336645	139.803879	-35.720713	-99.246626	-35.720713	-99.246626	-0.336847	139.856101
6.050000	-0.342090	137.742224	-35.496760	-102.403268	-35.496760	-102.403268	-0.342294	137.795101
6.100000	-0.347654	135.660348	-35.266747	-105.612167	-35.266747	-105.612167	-0.347859	135.713916
6.150000	-0.353345	133.557612	-35.030009	-108.873760	-35.030009	-108.873760	-0.353551	133.611910
6.200000	-0.359169	131.433364	-34.785839	-112.188396	-34.785839	-112.188396	-0.359375	131.488432
6.250000	-0.365136	129.286939	-34.533486	-115.556325	-34.533486	-115.556325	-0.365342	129.342819
6.300000	-0.371262	127.116627	-34.271358	-118.980013	-34.271358	-118.980013	-0.371469	127.173366
6.350000	-0.377555	124.922687	-33.999246	-122.457156	-33.999246	-122.457156	-0.377760	124.980332
6.400000	-0.384027	122.704391	-33.716220	-125.987651	-33.716220	-125.987651	-0.384231	122.762992
6.450000	-0.390696	120.460984	-33.421280	-129.571286	-33.421280	-129.571286	-0.390899	120.520593
6.500000	-0.397582	118.191678	-33.113354	-133.207750	-33.113354	-133.207750	-0.397782	118.252350
6.550000	-0.404707	115.895643	-32.791288	-136.896656	-32.791288	-136.896656	-0.404904	115.957438
6.600000	-0.412100	113.572003	-32.453831	-140.637571	-32.453831	-140.637571	-0.412293	113.634980
6.650000	-0.419795	111.219814	-32.099620	-144.430070	-32.099620	-144.430070	-0.419983	111.284039
6.700000	-0.427790	108.841601	-31.731347	-148.267882	-31.731347	-148.267882	-0.427972	108.907132
6.750000	-0.436236	106.427916	-31.337655	-152.164848	-31.337655	-152.164848	-0.436410	106.494836
6.800000	-0.445105	103.984627	-30.925222	-156.109173	-30.925222	-156.109173	-0.445272	104.053006
6.850000	-0.454534	101.506564	-30.487049	-160.107303	-30.487049	-160.107303	-0.454691	101.576484
6.900000	-0.464589	98.994081	-30.023584	-164.157350	-30.023584	-164.157350	-0.464735	99.065625
6.950000	-0.475383	96.446055	-29.533273	-168.260227	-29.533273	-168.260227	-0.475515	96.519309
7.000000	-0.487135	93.857713	-29.009249	-172.422995	-29.009249	-172.422995	-0.487252	93.932773
7.050000	-0.500046	91.227531	-28.449615	-176.648995	-28.449615	-176.648995	-0.500146	91.304499
7.100000	-0.514429	88.551844	-27.849500	179.053630	-27.849500	179.053630	-0.514508	88.630827
7.150000	-0.530723	85.825945	-27.202797	174.672761	-27.202797	174.672761	-0.530778	85.907062
7.200000	-0.549518	83.044550	-26.503480	170.192141	-26.503480	170.192141	-0.549543	83.127928
7.250000	-0.571661	80.200565	-25.744039	165.588070	-25.744039	165.588070	-0.571652	80.286344
7.300000	-0.598484	77.283321	-24.912953	160.823443	-24.912953	160.823443	-0.598432	77.371658
7.350000	-0.632108	74.277749	-23.994677	155.841390	-23.994677	155.841390	-0.632002	74.368829
7.400000	-0.675840	71.164452	-22.972421	150.559336	-22.972421	150.559336	-0.675665	71.258489
7.450000	-0.735643	67.913035	-21.819047	144.838202	-21.819047	144.838202	-0.735374	68.010297
7.500000	-0.822015	64.483264	-20.504007	138.458124	-20.504007	138.458124	-0.821611	64.584084
7.550000	-0.956482	60.817531	-18.979114	131.015617	-18.979114	131.015617	-0.955873	60.922356
7.600000	-1.184997	56.867668	-17.189615	121.766313	-17.189615	121.766313	-1.184039	56.977076
7.650000	-1.613976	52.758478	-15.093432	109.225720	-15.093432	109.225720	-1.612346	52.873023
7.700000	-2.462291	49.788789	-12.800227	90.480672	-12.800227	90.480672	-2.459202	49.907146
7.750000	-3.594176	53.678705	-11.071266	61.919323	-11.071266	61.919323	-3.588881	53.787228
7.800000	-3.042382	62.622828	-11.406411	28.095434	-11.406411	28.095434	-3.038708	62.712321
7.850000	-1.786038	61.574125	-13.528066	1.923767	-13.528066	1.923767	-1.784666	61.667739
7.900000	-1.152689	56.779540	-15.960434	-14.845047	-15.960434	-14.845047	-1.152157	56.881270
7.950000	-0.872030	52.020848	-18.146187	-26.039816	-18.146187	-26.039816	-0.871792	52.129412
8.000000	-0.737874	47.708918	-20.039065	-34.216710	-20.039065	-34.216710	-0.737747	47.823281
8.050000	-0.669122	43.748453	-21.685714	-40.629066	-21.685714	-40.629066	-0.669030	43.868009
8.100000	-0.631906	40.022836	-23.149247	-45.936942	-23.149247	-45.936942	-0.631817	40.147245
8.150000	-0.611783	36.457379	-24.467609	-50.467215	-24.467609	-50.467215	-0.611680	36.586450
8.200000	-0.601390	33.000965	-25.675322	-54.414133	-25.675322	-54.414133	-0.601264	33.134595
8.250000	-0.596832	29.619992	-26.800719	-57.893032	-26.800719	-57.893032	-0.596677	29.758133
8.300000	-0.596012	26.293465	-27.862051	-60.963620	-27.862051	-60.963620	-0.595823	26.436100
8.350000	-0.597698	23.007527	-28.871888	-63.652354	-28.871888	-63.652354	-0.597473	23.154662
8.400000	-0.601093	19.752162	-29.842405	-65.970920	-29.842405	-65.970920	-0.600830	19.903816
8.450000	-0.605705	16.520779	-30.781421	-67.912117	-30.781421	-67.912117	-0.605403	16.676981
8.500000	-0.611205	13.308820	-31.694480	-69.456251	-31.694480	-69.456251	-0.610862	13.469602
8.550000	-0.617371	10.113187	-32.584626	-70.572733	-32.584626	-70.572733	-0.616985	10.278584
8.600000	-0.624048	6.931823	-33.452156	-71.221943	-33.452156	-71.221943	-0.623619	7.101873
8.650000	-0.631127	3.763430	-34.294176	-71.357874	-34.294176	-71.357874	-0.630654	3.938168
8.700000	-0.638529	0.607260	-35.103982	-70.932583	-35.103982	-70.932583	-0.638011	0.786722
8.750000	-0.646197	-2.537029	-35.870418	-69.903637	-35.870418	-69.903637	-0.645633	-2.352807
8.800000	-0.654092	-5.669214	-36.574666	-68.232093	-36.574666	-68.232093	-0.653481	-5.480201
8.850000	-0.662176	-8.789361	-37.198774	-65.941514	-37.198774	-65.941514	-0.661519	-8.595527
8.900000	-0.670426	-11.897123	-37.719893	-63.093587	-37.719893	-63.093587	-0.669722	-11.698441
8.950000	-0.678824	-14.992044	-38.116428	-59.812460	-38.116428	-59.812460	-0.678072	-14.788490
9.000000	-0.687354	-18.073594	-38.372881	-56.281514	-38.372881	-56.281514	-0.686554	-17.865145
9.050000	-0.696007	-21.141200	-38.484227	-52.720850	-38.484227	-52.720850	-0.695159	-20.927836
9.100000	-0.704772	-24.194264	-38.457742	-49.350566	-38.457742	-49.350566	-0.703876	-23.975970
9.150000	-0.713644	-27.232189	-38.311322	-46.353971	-38.311322	-46.353971	-0.712700	-27.008947
9.200000	-0.722616	-30.254386	-38.069212	-43.854824	-38.069212	-43.854824	-0.721623	-30.026184
9.250000	-0.731684	-33.260290	-37.757200	-41.913675	-37.757200	-41.913675	-0.730643	-33.027116
9.300000	-0.740844	-36.249370	-37.398969	-40.538619	-37.398969	-40.538619	-0.739755	-36.011214
9.350000	-0.750093	-39.221137	-37.014199	-39.701923	-37.014199	-39.701923	-0.748957	-38.977990
9.400000	-0.759431	-42.174952	-36.617912	-39.360484	-36.617912	-39.360484	-0.758248	-41.926806
9.450000	-0.768855	-45.110412	-36.221531	-39.456317	-36.221531	-39.456317	-0.767624	-44.857259
9.500000	-0.778362	-48.027382	-35.833060	-39.927532	-35.833060	-39.927532	-0.777086	-47.769215
9.550000	-0.787953	-50.925590	-35.457695	-40.721165	-35.457695	-40.721165	-0.786630	-50.662403
9.600000	-0.797625	-53.804827	-35.098801	-41.789533	-35.098801	-41.789533	-0.796257	-53.536612
9.650000	-0.807380	-56.664944	-34.758442	-43.090682	-34.758442	-43.090682	-0.805967	-56.391692
9.700000	-0.817216	-59.505855	-34.437769	-44.588162	-34.437769	-44.588162	-0.815759	-59.227558
9.750000	-0.827133	-62.327533	-34.137303	-46.250508	-34.137303	-46.250508	-0.825633	-62.044182
9.800000	-0.837133	-65.130017	-33.857136	-48.050612	-33.857136	-48.050612	-0.835590	-64.841599
9.850000	-0.847215	-67.913400	-33.597070	-49.965105	-33.597070	-49.965105	-0.845630	-67.619905
9.900000	-0.857380	-70.677840	-33.356709	-51.973795	-33.356709	-51.973795	-0.855755	-70.379252
9.950000	-0.867629	-73.423547	-33.135530	-54.059174	-33.135530	-54.059174	-0.865964	-73.119850
10.000000	-0.877963	-76.150788	-32.932924	-56.206006	-32.932924	-56.206006	-0.876260	-75.841965
