! freq	dB(S11)	phase(S11)	dB(S12)	phase(S12)	
!     	dB(S21)	phase(S21)	dB(S22)	phase(S22)	
!S-par simulation data
#  GHz  S  DB  R 50
0.000000	-81.973639	0.000000	-0.000692	0.000000	-0.000692	0.000000	-81.973639	0.000000
0.050000	-38.519004	-92.784122	-0.006554	-3.232217	-0.006554	-3.232217	-38.488639	-91.708322
0.100000	-32.569007	-96.686391	-0.014865	-6.418761	-0.014865	-6.418761	-32.553227	-94.900500
0.150000	-29.090908	-100.552830	-0.022788	-9.592001	-0.022788	-9.592001	-29.074009	-97.965237
0.200000	-26.625751	-104.354190	-0.031242	-12.760439	-0.031242	-12.760439	-26.607099	-100.920796
0.250000	-24.718527	-108.102807	-0.040580	-15.925356	-0.040580	-15.925356	-24.698450	-103.807811
0.300000	-23.165814	-111.814073	-0.050881	-19.087286	-0.050881	-19.087286	-23.144483	-106.650691
0.350000	-21.858941	-115.498877	-0.062181	-22.246584	-0.062181	-22.246584	-21.836476	-109.462682
0.400000	-20.732568	-119.165834	-0.074460	-25.403593	-0.074460	-25.403593	-20.709117	-112.252439
0.450000	-19.745014	-122.820316	-0.087736	-28.558433	-0.087736	-28.558433	-19.720743	-115.024093
0.500000	-18.867261	-126.466879	-0.101956	-31.711300	-0.101956	-31.711300	-18.842335	-117.780976
0.550000	-18.079207	-130.108384	-0.117121	-34.862219	-0.117121	-34.862219	-18.053772	-120.524182
0.600000	-17.365438	-133.747300	-0.133170	-38.011330	-0.133170	-38.011330	-17.339608	-123.255033
0.650000	-16.714693	-137.385399	-0.150081	-41.158675	-0.150081	-41.158675	-16.688549	-125.973736
0.700000	-16.117856	-141.024166	-0.167801	-44.304377	-0.167801	-44.304377	-16.091445	-128.680766
0.750000	-15.567885	-144.664849	-0.186292	-47.448528	-0.186292	-47.448528	-15.541227	-131.376168
0.800000	-15.058977	-148.308527	-0.205509	-50.591258	-0.205509	-50.591258	-15.032073	-134.060057
0.850000	-14.586303	-151.956132	-0.225404	-53.732726	-0.225404	-53.732726	-14.559138	-136.732604
0.900000	-14.146056	-155.608645	-0.245944	-56.873081	-0.245944	-56.873081	-14.118602	-139.393652
0.950000	-13.734753	-159.266837	-0.267080	-60.012536	-0.267080	-60.012536	-13.706981	-142.043456
1.000000	-13.349555	-162.931520	-0.288772	-63.151314	-0.288772	-63.151314	-13.321433	-144.682082
1.050000	-12.987934	-166.603398	-0.310980	-66.289665	-0.310980	-66.289665	-12.959432	-147.309745
1.100000	-12.647626	-170.283055	-0.333662	-69.427866	-0.333662	-69.427866	-12.618721	-149.926785
1.150000	-12.326984	-173.971474	-0.356798	-72.566223	-0.356798	-72.566223	-12.297654	-152.533046
1.200000	-12.024210	-177.669187	-0.380351	-75.705074	-0.380351	-75.705074	-11.994440	-155.128970
1.250000	-11.737667	178.623405	-0.404284	-78.844759	-0.404284	-78.844759	-11.707449	-157.715090
1.300000	-11.466134	174.905541	-0.428581	-81.985674	-0.428581	-81.985674	-11.435463	-160.291588
1.350000	-11.208485	171.176478	-0.453224	-85.128266	-0.453224	-85.128266	-11.177362	-162.858747
1.400000	-10.963402	167.436153	-0.478185	-88.272898	-0.478185	-88.272898	-10.931832	-165.417412
1.450000	-10.729904	163.684117	-0.503451	-91.420007	-0.503451	-91.420007	-10.697893	-167.968107
1.500000	-10.507307	159.919366	-0.529023	-94.570219	-0.529023	-94.570219	-10.474861	-170.511106
1.550000	-10.294499	156.142260	-0.554883	-97.723856	-0.554883	-97.723856	-10.261627	-173.047544
1.600000	-10.090709	152.352574	-0.581028	-100.881392	-0.581028	-100.881392	-10.057419	-175.578198
1.650000	-9.895378	148.549585	-0.607468	-104.043532	-0.607468	-104.043532	-9.861675	-178.103753
1.700000	-9.707721	144.733559	-0.634204	-107.210688	-0.634204	-107.210688	-9.673611	179.374637
1.750000	-9.527066	140.904726	-0.661241	-110.383290	-0.661241	-110.383290	-9.492552	176.855841
1.800000	-9.352878	137.063010	-0.688595	-113.561939	-0.688595	-113.561939	-9.317963	174.338726
1.850000	-9.184615	133.208621	-0.716281	-116.747167	-0.716281	-116.747167	-9.149304	171.822000
1.900000	-9.021794	129.341747	-0.744323	-119.939590	-0.744323	-119.939590	-8.986091	169.304242
1.950000	-8.863937	125.462831	-0.772744	-123.139759	-0.772744	-123.139759	-8.827849	166.783901
2.000000	-8.710584	121.572552	-0.801566	-126.348126	-0.801566	-126.348126	-8.674124	164.259384
2.050000	-8.561332	117.671572	-0.830819	-129.565217	-0.830819	-129.565217	-8.524518	161.728985
2.100000	-8.415811	113.760665	-0.860531	-132.791552	-0.860531	-132.791552	-8.378669	159.190900
2.150000	-8.273679	109.840723	-0.890736	-136.027647	-0.890736	-136.027647	-8.236247	156.643229
2.200000	-8.134627	105.912753	-0.921467	-139.274012	-0.921467	-139.274012	-8.096952	154.083975
2.250000	-7.998372	101.977875	-0.952758	-142.531152	-0.952758	-142.531152	-7.960516	151.511051
2.300000	-7.864662	98.037319	-0.984643	-145.799566	-0.984643	-145.799566	-7.826703	148.922281
2.350000	-7.733273	94.092423	-1.017158	-149.079749	-1.017158	-149.079749	-7.695304	146.315401
2.400000	-7.604007	90.144623	-1.050337	-152.372194	-1.050337	-152.372194	-7.566141	143.688061
2.450000	-7.476695	86.195454	-1.084212	-155.677395	-1.084212	-155.677395	-7.439063	141.037826
2.500000	-7.351196	82.246538	-1.118813	-158.995849	-1.118813	-158.995849	-7.313949	138.362177
2.550000	-7.227390	78.299662	-1.154183	-162.328370	-1.154183	-162.328370	-7.190703	135.657835
2.600000	-7.105190	74.356604	-1.190334	-165.675189	-1.190334	-165.675189	-7.069256	132.922648
2.650000	-6.984530	70.419210	-1.227286	-169.036840	-1.227286	-169.036840	-6.949564	130.153817
2.700000	-6.865371	66.489384	-1.265056	-172.413888	-1.265056	-172.413888	-6.831610	127.348439
2.750000	-6.747694	62.569080	-1.303655	-175.806927	-1.303655	-175.806927	-6.715399	124.503495
2.800000	-6.631503	58.660291	-1.343088	-179.216599	-1.343088	-179.216599	-6.600957	121.615841
2.850000	-6.516821	54.765047	-1.383353	177.356400	-1.383353	177.356400	-6.488333	118.682184
2.900000	-6.403690	50.885405	-1.424444	173.911308	-1.424444	173.911308	-6.377596	115.699064
2.950000	-6.292167	47.023450	-1.466343	170.447276	-1.466343	170.447276	-6.268833	112.662827
3.000000	-6.182326	43.181284	-1.509029	166.963358	-1.509029	166.963358	-6.162151	109.569591
3.050000	-6.074250	39.361033	-1.552470	163.458487	-1.552470	163.458487	-6.057671	106.415211
3.100000	-5.968036	35.564843	-1.596627	159.931456	-1.596627	159.931456	-5.955532	103.195231
3.150000	-5.863799	31.795193	-1.641456	156.380619	-1.641456	156.380619	-5.855906	99.904003
3.200000	-5.761652	28.054361	-1.686900	152.804346	-1.686900	152.804346	-5.758969	96.536080
3.250000	-5.661703	24.344303	-1.732891	149.201082	-1.732891	149.201082	-5.664889	93.086432
3.300000	-5.564066	20.667314	-1.779360	145.568748	-1.779360	145.568748	-5.573860	89.548661
3.350000	-5.468895	17.026859	-1.826237	141.903962	-1.826237	141.903962	-5.486166	85.912660
3.400000	-5.376136	13.421439	-1.873438	138.207561	-1.873438	138.207561	-5.401747	82.181284
3.450000	-5.286132	9.859799	-1.920891	134.470714	-1.920891	134.470714	-5.321268	78.328573
3.500000	-5.198727	6.339033	-1.968527	130.695036	-1.968527	130.695036	-5.244553	74.360157
3.550000	-5.114116	2.865454	-2.016275	126.873029	-2.016275	126.873029	-5.172097	70.254789
3.600000	-5.032282	-0.558747	-2.064091	123.000778	-2.064091	123.000778	-5.104068	66.002122
3.650000	-4.953098	-3.933024	-2.111961	119.075728	-2.111961	119.075728	-5.040482	61.595972
3.700000	-4.876662	-7.249122	-2.159877	115.086619	-2.159877	115.086619	-4.981924	57.005131
3.750000	-4.802744	-10.505046	-2.207910	111.028221	-2.207910	111.028221	-4.928439	52.216156
3.800000	-4.731118	-13.695390	-2.256197	106.890803	-2.256197	106.890803	-4.880265	47.202862
3.850000	-4.661377	-16.816193	-2.304973	102.665582	-2.304973	102.665582	-4.837432	41.941875
3.900000	-4.592975	-19.862210	-2.354608	98.341324	-2.354608	98.341324	-4.799941	36.402913
3.950000	-4.525151	-22.827837	-2.405647	93.905154	-2.405647	93.905154	-4.767648	30.551073
4.000000	-4.456870	-25.707246	-2.458878	89.342361	-2.458878	89.342361	-4.740193	24.346248
4.050000	-4.386749	-28.494658	-2.515403	84.636219	-2.515403	84.636219	-4.716904	17.742622
4.100000	-4.312977	-31.184810	-2.576740	79.767835	-2.576740	79.767835	-4.696666	10.688347
4.150000	-4.233228	-33.773720	-2.644956	74.716082	-2.644956	74.716082	-4.677755	3.125623
4.200000	-4.144454	-36.258872	-2.722946	69.455419	-2.722946	69.455419	-4.657571	-5.014698
4.250000	-4.043069	-38.643522	-2.814446	63.961166	-2.814446	63.961166	-4.632389	-13.797331
4.300000	-3.924984	-40.937404	-2.924297	58.208037	-2.924297	58.208037	-4.597219	-23.284764
4.350000	-3.786085	-43.159423	-3.058411	52.174092	-3.058411	52.174092	-4.545934	-33.524055
4.400000	-3.621296	-45.337799	-3.225459	45.827724	-3.225459	45.827724	-4.470229	-44.577090
4.450000	-3.427201	-47.517206	-3.435229	39.153260	-3.435229	39.153260	-4.361595	-56.447879
4.500000	-3.202141	-49.754490	-3.699544	32.143486	-3.699544	32.143486	-4.212016	-69.100766
4.550000	-2.947258	-52.115435	-4.032200	24.805022	-4.032200	24.805022	-4.015746	-82.447838
4.600000	-2.667357	-54.667324	-4.448558	17.164192	-4.448558	17.164192	-3.771448	-96.342415
4.650000	-2.371242	-57.467118	-4.964501	9.272716	-4.964501	9.272716	-3.484065	-110.582647
4.700000	-2.070953	-60.546634	-5.594517	1.210269	-5.594517	1.210269	-3.165339	-124.931184
4.750000	-1.779591	-63.907805	-6.351340	-6.921853	-6.351340	-6.921853	-2.831315	-139.146393
4.800000	-1.509296	-67.521331	-7.244725	-15.006648	-7.244725	-15.006648	-2.499430	-153.005372
4.850000	-1.269441	-71.333484	-8.281099	-22.920635	-8.281099	-22.920635	-2.185314	-166.321540
4.900000	-1.065105	-75.275817	-9.464187	-30.548478	-9.464187	-30.548478	-1.900160	-178.965685
4.950000	-0.897497	-79.281343	-10.797797	-37.787374	-10.797797	-37.787374	-1.650053	169.141747
5.000000	-0.764705	-83.292168	-12.288275	-44.547655	-12.288275	-44.547655	-1.436596	158.033864
5.050000	-0.663080	-87.263476	-13.946466	-50.738445	-13.946466	-50.738445	-1.258422	147.714109
5.100000	-0.587348	-91.166539	-15.797550	-56.271238	-15.797550	-56.271238	-1.111455	138.139065
5.150000	-0.532820	-94.984168	-17.881387	-60.994351	-17.881387	-60.994351	-0.991522	129.266841
5.200000	-0.494991	-98.709252	-20.268082	-64.630915	-20.268082	-64.630915	-0.894145	121.041007
5.250000	-0.469877	-102.342717	-23.085400	-66.608895	-23.085400	-66.608895	-0.815021	113.395449
5.300000	-0.454558	-105.886764	-26.541062	-65.323162	-26.541062	-65.323162	-0.750921	106.283805
5.350000	-0.446251	-109.351135	-30.984640	-56.057876	-30.984640	-56.057876	-0.698418	99.633097
5.400000	-0.443256	-112.741366	-35.542503	-23.103134	-35.542503	-23.103134	-0.655444	93.406527
5.450000	-0.443978	-116.068086	-34.621436	24.159992	-34.621436	24.159992	-0.619801	87.544854
5.500000	-0.447408	-119.338725	-30.997847	44.089173	-30.997847	44.089173	-0.590074	82.011134
5.550000	-0.452842	-122.559024	-28.319939	49.434676	-28.319939	49.434676	-0.565267	76.781273
5.600000	-0.459631	-125.738543	-26.453044	50.355577	-26.453044	50.355577	-0.544236	71.808972
5.650000	-0.467409	-128.883515	-25.099747	49.449224	-25.099747	49.449224	-0.526307	67.067758
5.700000	-0.475860	-131.997997	-24.096910	47.637064	-24.096910	47.637064	-0.510998	62.544828
5.750000	-0.483964	-135.087899	-23.339826	45.309582	-23.339826	45.309582	-0.496944	58.201640
5.800000	-0.492196	-138.159771	-22.770113	42.745662	-22.770113	42.745662	-0.484331	54.033103
5.850000	-0.500491	-141.218915	-22.334569	40.059105	-22.334569	40.059105	-0.472917	50.010336
5.900000	-0.508810	-144.268145	-22.014010	37.297351	-22.014010	37.297351	-0.462684	46.132996
5.950000	-0.517130	-147.312123	-21.777232	34.502206	-21.777232	34.502206	-0.453371	42.371169
6.000000	-0.525437	-150.353879	-21.620365	31.692490	-21.620365	31.692490	-0.444991	38.729208
6.050000	-0.533734	-153.397022	-21.529084	28.884590	-21.529084	28.884590	-0.437397	35.190134
6.100000	-0.542030	-156.444469	-21.492818	26.088444	-21.492818	26.088444	-0.430466	31.739179
6.150000	-0.550348	-159.500868	-21.516871	23.316435	-21.516871	23.316435	-0.424256	28.384505
6.200000	-0.558711	-162.567733	-21.587721	20.571431	-21.587721	20.571431	-0.418595	25.102282
6.250000	-0.567159	-165.649054	-21.707874	17.862558	-21.707874	17.862558	-0.413497	21.892506
6.300000	-0.575737	-168.748544	-21.878284	15.198485	-21.878284	15.198485	-0.408958	18.750999
6.350000	-0.584477	-171.866953	-22.094345	12.581535	-22.094345	12.581535	-0.404904	15.664888
6.400000	-0.593466	-175.010815	-22.364956	10.030576	-22.364956	10.030576	-0.401419	12.637846
6.450000	-0.602736	-178.180116	-22.687942	7.550219	-22.687942	7.550219	-0.398448	9.658348
6.500000	-0.612368	178.620946	-23.070092	5.160803	-23.070092	5.160803	-0.396038	6.724073
6.550000	-0.622442	175.388817	-23.519080	2.887415	-23.519080	2.887415	-0.394229	3.831528
6.600000	-0.632996	172.123205	-24.040308	0.752082	-24.040308	0.752082	-0.393015	0.973671
6.650000	-0.644181	168.816146	-24.652834	-1.173813	-24.652834	-1.173813	-0.392534	-1.848773
6.700000	-0.655969	165.471618	-25.364231	-2.860234	-25.364231	-2.860234	-0.392720	-4.644920
6.750000	-0.668569	162.078313	-26.207876	-4.130314	-26.207876	-4.130314	-0.393794	-7.413246
6.800000	-0.681924	158.641063	-27.204944	-4.880631	-27.204944	-4.880631	-0.395689	-10.161500
6.850000	-0.696206	155.151057	-28.405036	-4.710374	-28.405036	-4.710374	-0.398605	-12.890863
6.900000	-0.711444	151.607982	-29.862256	-3.101846	-29.862256	-3.101846	-0.402588	-15.605835
6.950000	-0.727735	148.008365	-31.639107	1.109179	-31.639107	1.109179	-0.407759	-18.309960
7.000000	-0.745261	144.345106	-33.725005	10.574898	-33.725005	10.574898	-0.414333	-21.006338
7.050000	-0.764027	140.621769	-35.764168	28.474373	-35.764168	28.474373	-0.422306	-23.699264
7.100000	-0.784465	136.822755	-36.043736	56.287748	-36.043736	56.287748	-0.432147	-26.392353
7.150000	-0.806494	132.957695	-34.202242	80.908394	-34.202242	80.908394	-0.443731	-29.089234
7.200000	-0.830697	129.009591	-31.430032	94.232424	-31.430032	94.232424	-0.457668	-31.795164
7.250000	-0.857101	124.984983	-28.879516	100.713376	-28.879516	100.713376	-0.473951	-34.513170
7.300000	-0.886246	120.873427	-26.656035	103.270150	-26.656035	103.270150	-0.493128	-37.249026
7.350000	-0.918487	116.672484	-24.722656	103.711830	-24.722656	103.711830	-0.515556	-40.007289
7.400000	-0.954164	112.381570	-23.020966	102.955284	-23.020966	102.955284	-0.541581	-42.792214
7.450000	-0.994179	107.987307	-21.487159	101.340955	-21.487159	101.340955	-0.572157	-45.612397
7.500000	-1.038486	103.501010	-20.100642	99.217297	-20.100642	99.217297	-0.607235	-48.468087
7.550000	-1.088869	98.896449	-18.812490	96.626096	-18.812490	96.626096	-0.648737	-51.374952
7.600000	-1.145009	94.192327	-17.621992	93.737839	-17.621992	93.737839	-0.696337	-54.329650
7.650000	-1.208561	89.372180	-16.503272	90.567795	-16.503272	90.567795	-0.751847	-57.345426
7.700000	-1.280645	84.433321	-15.445800	87.155947	-15.445800	87.155947	-0.816515	-60.429834
7.750000	-1.362515	79.374089	-14.441729	83.529124	-14.441729	83.529124	-0.891747	-63.590394
7.800000	-1.455745	74.191687	-13.484142	79.701739	-13.484142	79.701739	-0.979318	-66.835993
7.850000	-1.562183	68.884003	-12.567726	75.682502	-12.567726	75.682502	-1.081315	-70.176038
7.900000	-1.683987	63.449865	-11.688450	71.476141	-11.688450	71.476141	-1.200195	-73.620440
7.950000	-1.823858	57.888181	-10.842883	67.082819	-10.842883	67.082819	-1.339052	-77.180799
8.000000	-1.984719	52.201494	-10.029280	62.503461	-10.029280	62.503461	-1.501270	-80.867578
8.050000	-2.169932	46.394694	-9.246601	57.737822	-9.246601	57.737822	-1.690794	-84.691355
8.100000	-2.383486	40.475186	-8.494255	52.784260	-8.494255	52.784260	-1.912374	-88.663478
8.150000	-2.629987	34.454511	-7.772286	47.641222	-7.772286	47.641222	-2.171616	-92.795393
8.200000	-2.914716	28.349670	-7.081317	42.307845	-7.081317	42.307845	-2.475137	-97.098537
8.250000	-3.243688	22.184850	-6.422498	36.784588	-6.422498	36.784588	-2.830778	-101.584287
8.300000	-3.623685	15.993695	-5.797444	31.073882	-5.797444	31.073882	-3.247864	-106.264047
8.350000	-4.062443	9.822687	-5.208163	25.179962	-5.208163	25.179962	-3.737817	-111.150693
8.400000	-4.568382	3.736453	-4.657106	19.110595	-4.657106	19.110595	-4.314480	-116.258774
8.450000	-5.149687	-2.179573	-4.146802	12.879936	-4.146802	12.879936	-4.993931	-121.603040
8.500000	-5.814826	-7.810076	-3.679717	6.504617	-3.679717	6.504617	-5.796944	-127.207722
8.550000	-6.571137	-12.999851	-3.258138	0.005627	-3.258138	0.005627	-6.750404	-133.112259
8.600000	-7.422786	-17.540467	-2.883994	-6.591891	-2.883994	-6.591891	-7.890544	-139.386427
8.650000	-8.366734	-21.154906	-2.558672	-13.259218	-2.558672	-13.259218	-9.268711	-146.161608
8.700000	-9.385073	-23.487039	-2.282871	-19.964998	-2.282871	-19.964998	-10.962141	-153.701193
8.750000	-10.431710	-24.118685	-2.056494	-26.676465	-2.056494	-26.676465	-13.094816	-162.579445
8.800000	-11.409688	-22.637351	-1.879245	-33.359971	-1.879245	-33.359971	-15.872743	-174.311793
8.850000	-12.171691	-19.012367	-1.748698	-39.984168	-1.748698	-39.984168	-19.583551	166.604846
8.900000	-12.547121	-13.872732	-1.662840	-46.519087	-1.662840	-46.519087	-23.429379	126.132780
8.950000	-12.468159	-8.561138	-1.617356	-52.943066	-1.617356	-52.943066	-22.445099	71.349780
9.000000	-11.992666	-4.409204	-1.609284	-59.234662	-1.609284	-59.234662	-18.561679	40.955721
9.050000	-11.274876	-2.131052	-1.634899	-65.378030	-1.634899	-65.378030	-15.462990	25.786868
9.100000	-10.460238	-1.793315	-1.691052	-71.357394	-1.691052	-71.357394	-13.179257	16.067249
9.150000	-9.648815	-3.022356	-1.773306	-77.168036	-1.773306	-77.168036	-11.436790	8.640191
9.200000	-8.888303	-5.416210	-1.877802	-82.807830	-1.877802	-82.807830	-10.059800	2.438333
9.250000	-8.196909	-8.647615	-2.001167	-88.276231	-2.001167	-88.276231	-8.942842	-2.995276
9.300000	-7.578928	-12.475134	-2.140506	-93.571457	-2.140506	-93.571457	-8.020473	-7.885550
9.350000	-7.029132	-16.693290	-2.292379	-98.707649	-2.292379	-98.707649	-7.243771	-12.388819
9.400000	-6.545279	-21.203082	-2.455098	-103.671661	-2.455098	-103.671661	-6.588011	-16.550338
9.450000	-6.116570	-25.881857	-2.625581	-108.489134	-2.625581	-108.489134	-6.023472	-20.461567
9.500000	-5.738932	-30.678485	-2.802240	-113.154941	-2.802240	-113.154941	-5.537013	-24.140177
9.550000	-5.405965	-35.540915	-2.983127	-117.678077	-2.983127	-117.678077	-5.114762	-27.619312
9.600000	-5.110462	-40.434623	-3.166833	-122.074902	-3.166833	-122.074902	-4.744121	-30.932743
9.650000	-4.851073	-45.337405	-3.351700	-126.336492	-3.351700	-126.336492	-4.421061	-34.078130
9.700000	-4.620797	-50.231540	-3.536820	-130.484898	-3.536820	-130.484898	-4.135333	-37.088800
9.750000	-4.416814	-55.106633	-3.721162	-134.524173	-3.721162	-134.524173	-3.882431	-39.973276
9.800000	-4.236843	-59.954063	-3.903579	-138.457531	-3.903579	-138.457531	-3.658752	-42.738248
9.850000	-4.077819	-64.769972	-4.083383	-142.294365	-4.083383	-142.294365	-3.460063	-45.396145
9.900000	-3.937428	-69.552435	-4.259905	-146.041821	-4.259905	-146.041821	-3.283191	-47.955913
9.950000	-3.813729	-74.301187	-4.432540	-149.706473	-4.432540	-149.706473	-3.125520	-50.425146
10.000000	-3.716388	-78.877885	-4.588944	-153.246513	-4.588944	-153.246513	-2.993722	-52.835657
