! freq	dB(S11)	phase(S11)	dB(S12)	phase(S12)	
!     	dB(S21)	phase(S21)	dB(S22)	phase(S22)	
!S-par simulation data
#  GHz  S  DB  R 50
0.000000	-0.000000	0.000000	-383.677668	180.000000	-383.677668	180.000000	-0.000000	0.000000
0.050000	-0.000102	-0.759765	-118.652611	89.628897	-118.652611	89.628897	-0.000102	-0.759778
0.100000	-0.000402	-1.519274	-112.657768	89.140876	-112.657768	89.140876	-0.000403	-1.519299
0.150000	-0.000892	-2.278277	-109.204449	88.556975	-109.204449	88.556975	-0.000895	-2.278310
0.200000	-0.001539	-3.036625	-106.815879	87.951589	-106.815879	87.951589	-0.001544	-3.036663
0.250000	-0.002326	-3.794157	-105.033595	87.376800	-105.033595	87.376800	-0.002332	-3.794197
0.300000	-0.003236	-4.550675	-103.662481	86.877501	-103.662481	86.877501	-0.003244	-4.550712
0.350000	-0.004226	-5.306283	-102.574356	86.469678	-102.574356	86.469678	-0.004235	-5.306316
0.400000	-0.005286	-6.060819	-101.722152	86.197150	-101.722152	86.197150	-0.005295	-6.060845
0.450000	-0.006387	-6.814381	-101.056050	86.083684	-101.056050	86.083684	-0.006398	-6.814400
0.500000	-0.007517	-7.566954	-100.556301	86.179625	-100.556301	86.179625	-0.007527	-7.566964
0.550000	-0.008659	-8.318582	-100.206470	86.542527	-100.206470	86.542527	-0.008669	-8.318584
0.600000	-0.009805	-9.069310	-99.997273	87.251719	-99.997273	87.251719	-0.009815	-9.069306
0.650000	-0.010946	-9.819182	-99.923551	88.416457	-99.923551	88.416457	-0.010955	-9.819173
0.700000	-0.012078	-10.568238	-99.982267	90.189629	-99.982267	90.189629	-0.012086	-10.568225
0.750000	-0.013196	-11.316515	-100.169622	92.787226	-100.169622	92.787226	-0.013203	-11.316500
0.800000	-0.014300	-12.064043	-100.475685	96.512956	-100.475685	96.512956	-0.014306	-12.064027
0.850000	-0.015386	-12.810722	-100.862430	102.197785	-100.862430	102.197785	-0.015391	-12.810707
0.900000	-0.016457	-13.556662	-101.274053	110.023920	-101.274053	110.023920	-0.016461	-13.556649
0.950000	-0.017520	-14.302241	-101.567739	119.075744	-101.567739	119.075744	-0.017523	-14.302229
1.000000	-0.018562	-15.046734	-101.455215	131.804639	-101.455215	131.804639	-0.018564	-15.046727
1.050000	-0.019600	-15.790988	-101.132948	144.482962	-101.132948	144.482962	-0.019601	-15.790984
1.100000	-0.020617	-16.534039	-99.869865	156.908426	-99.869865	156.908426	-0.020619	-16.534040
1.150000	-0.021634	-17.276968	-98.682718	168.915733	-98.682718	168.915733	-0.021634	-17.276973
1.200000	-0.022632	-18.018551	-96.853536	176.323303	-96.853536	176.323303	-0.022633	-18.018561
1.250000	-0.023632	-18.760135	-95.343357	-176.269127	-95.343357	-176.269127	-0.023632	-18.760149
1.300000	-0.024619	-19.500590	-93.684653	-171.957724	-93.684653	-171.957724	-0.024619	-19.500609
1.350000	-0.025601	-20.240308	-92.113713	-168.949311	-92.113713	-168.949311	-0.025601	-20.240331
1.400000	-0.026578	-20.979274	-90.638067	-166.895151	-90.638067	-166.895151	-0.026578	-20.979302
1.450000	-0.027551	-21.717474	-89.254573	-165.546108	-89.254573	-165.546108	-0.027550	-21.717507
1.500000	-0.028520	-22.454894	-87.956109	-164.725855	-87.956109	-164.725855	-0.028519	-22.454930
1.550000	-0.029486	-23.191518	-86.734562	-164.308867	-86.734562	-164.308867	-0.029485	-23.191558
1.600000	-0.030449	-23.927331	-85.582069	-164.204633	-85.582069	-164.204633	-0.030449	-23.927374
1.650000	-0.031411	-24.662317	-84.491483	-164.346869	-84.491483	-164.346869	-0.031411	-24.662363
1.700000	-0.032370	-25.396160	-83.432966	-164.737559	-83.432966	-164.737559	-0.032370	-25.396209
1.750000	-0.033329	-26.129557	-82.458427	-165.217502	-82.458427	-165.217502	-0.033329	-26.129609
1.800000	-0.034287	-26.861883	-81.514713	-165.846157	-81.514713	-165.846157	-0.034287	-26.861938
1.850000	-0.035245	-27.593443	-80.620079	-166.581035	-80.620079	-166.581035	-0.035245	-27.593500
1.900000	-0.036203	-28.324052	-79.759780	-167.403841	-79.759780	-167.403841	-0.036203	-28.324110
1.950000	-0.037160	-29.053707	-78.932284	-168.314575	-78.932284	-168.314575	-0.037161	-29.053768
2.000000	-0.038119	-29.782542	-78.141372	-169.277841	-78.141372	-169.277841	-0.038119	-29.782604
2.050000	-0.039078	-30.510227	-77.371074	-170.314653	-77.371074	-170.314653	-0.039079	-30.510291
2.100000	-0.040038	-31.237233	-76.638802	-171.382556	-76.638802	-171.382556	-0.040039	-31.237299
2.150000	-0.041000	-31.962883	-75.917869	-172.512640	-75.917869	-172.512640	-0.041001	-31.962951
2.200000	-0.041963	-32.688009	-75.235849	-173.660425	-75.235849	-173.660425	-0.041964	-32.688078
2.250000	-0.042930	-33.411561	-74.558017	-174.861313	-74.558017	-174.861313	-0.042931	-33.411631
2.300000	-0.043897	-34.134754	-73.919582	-176.071351	-73.919582	-176.071351	-0.043898	-34.134826
2.350000	-0.044868	-34.856148	-73.279767	-177.327141	-73.279767	-177.327141	-0.044869	-34.856221
2.400000	-0.045840	-35.577358	-72.679532	-178.586543	-72.679532	-178.586543	-0.045841	-35.577432
2.450000	-0.046819	-36.296536	-72.073551	-179.885668	-72.073551	-179.885668	-0.046820	-36.296612
2.500000	-0.047797	-37.015714	-71.507103	178.815207	-71.507103	178.815207	-0.047798	-37.015791
2.550000	-0.048783	-37.732619	-70.931469	177.481369	-70.931469	177.481369	-0.048784	-37.732698
2.600000	-0.049770	-38.449524	-70.391624	176.147531	-70.391624	176.147531	-0.049770	-38.449604
2.650000	-0.050765	-39.164297	-69.846918	174.787885	-69.846918	174.787885	-0.050765	-39.164378
2.700000	-0.051760	-39.878876	-69.331249	173.425894	-69.331249	173.425894	-0.051761	-39.878958
2.750000	-0.052765	-40.591472	-68.814318	172.044678	-68.814318	172.044678	-0.052766	-40.591556
2.800000	-0.053772	-41.303672	-68.320740	170.659617	-68.320740	170.659617	-0.053773	-41.303758
2.850000	-0.054788	-42.014052	-67.828905	169.260256	-67.828905	169.260256	-0.054788	-42.014139
2.900000	-0.055807	-42.723824	-67.355613	167.856128	-67.355613	167.856128	-0.055807	-42.723913
2.950000	-0.056835	-43.431947	-66.886577	166.441421	-66.886577	166.441421	-0.056835	-43.432037
3.000000	-0.057868	-44.139245	-66.431994	165.021423	-66.431994	165.021423	-0.057868	-44.139337
3.050000	-0.058910	-44.845073	-65.983772	163.593678	-65.983772	163.593678	-0.058910	-44.845167
3.100000	-0.059958	-45.549851	-65.546513	162.160398	-65.546513	162.160398	-0.059958	-45.549947
3.150000	-0.061014	-46.253349	-65.117377	160.721536	-65.117377	160.721536	-0.061015	-46.253447
3.200000	-0.062080	-46.955567	-64.696217	159.277090	-64.696217	159.277090	-0.062080	-46.955666
3.250000	-0.063152	-47.656701	-64.284652	157.828720	-64.284652	157.828720	-0.063152	-47.656802
3.300000	-0.064236	-48.356318	-63.878500	156.374857	-63.878500	156.374857	-0.064236	-48.356421
3.350000	-0.065326	-49.055055	-63.483172	154.918342	-63.483172	154.918342	-0.065326	-49.055161
3.400000	-0.066430	-49.752035	-63.091052	153.456521	-63.091052	153.456521	-0.066429	-49.752143
3.450000	-0.067539	-50.448347	-62.710776	151.993019	-62.710776	151.993019	-0.067538	-50.448457
3.500000	-0.068664	-51.142656	-62.331811	150.524469	-62.331811	150.524469	-0.068663	-51.142767
3.550000	-0.069793	-51.836514	-61.965534	149.054971	-61.965534	149.054971	-0.069792	-51.836628
3.600000	-0.070941	-52.528121	-61.598933	147.580733	-61.598933	147.580733	-0.070940	-52.528236
3.650000	-0.072091	-53.219499	-61.245710	146.106095	-61.245710	146.106095	-0.072091	-53.219617
3.700000	-0.073264	-53.908375	-60.890755	144.627057	-60.890755	144.627057	-0.073264	-53.908494
3.750000	-0.074438	-54.597250	-60.549738	143.148019	-60.549738	143.148019	-0.074437	-54.597372
3.800000	-0.075637	-55.283368	-60.205776	141.664946	-60.205776	141.664946	-0.075636	-55.283492
3.850000	-0.076837	-55.969487	-59.874919	140.181872	-59.874919	140.181872	-0.076836	-55.969613
3.900000	-0.078062	-56.653057	-59.542636	138.695704	-59.542636	138.695704	-0.078061	-56.653185
3.950000	-0.079289	-57.336396	-59.221410	137.209255	-59.221410	137.209255	-0.079289	-57.336526
4.000000	-0.080541	-58.017402	-58.900095	135.720471	-58.900095	135.720471	-0.080541	-58.017534
4.050000	-0.081799	-58.697940	-58.588016	134.231221	-58.588016	134.231221	-0.081798	-58.698074
4.100000	-0.083079	-59.376366	-58.277021	132.740245	-58.277021	132.740245	-0.083078	-59.376502
4.150000	-0.084367	-60.054088	-57.973643	131.248695	-57.973643	131.248695	-0.084367	-60.054226
4.200000	-0.085678	-60.729921	-57.672379	129.755906	-57.672379	129.755906	-0.085677	-60.730061
4.250000	-0.086999	-61.404810	-57.377289	128.262497	-57.377289	128.262497	-0.086998	-61.404952
4.300000	-0.088340	-62.078040	-57.085218	126.768231	-57.085218	126.768231	-0.088340	-62.078185
4.350000	-0.089696	-62.750086	-56.798034	125.273353	-56.798034	125.273353	-0.089695	-62.750232
4.400000	-0.091070	-63.420705	-56.514661	123.777913	-56.514661	123.777913	-0.091069	-63.420853
4.450000	-0.092462	-64.089897	-56.235030	122.281911	-56.235030	122.281911	-0.092461	-64.090047
4.500000	-0.093869	-64.757897	-55.959900	120.785569	-55.959900	120.785569	-0.093869	-64.758050
4.550000	-0.095299	-65.424230	-55.687492	119.288752	-55.687492	119.288752	-0.095298	-65.424384
4.600000	-0.096742	-66.089608	-55.420188	117.791754	-55.420188	117.791754	-0.096741	-66.089764
4.650000	-0.098211	-66.753077	-55.154696	116.294395	-55.154696	116.294395	-0.098210	-66.753236
4.700000	-0.099690	-67.415831	-54.894830	114.796964	-54.894830	114.796964	-0.099689	-67.415991
4.750000	-0.101200	-68.076435	-54.635968	113.299314	-54.635968	113.299314	-0.101199	-68.076597
4.800000	-0.102718	-68.736563	-54.383184	111.801653	-54.383184	111.801653	-0.102717	-68.736727
4.850000	-0.104270	-69.394305	-54.130684	110.303935	-54.130684	110.303935	-0.104270	-69.394471
4.900000	-0.105827	-70.051808	-53.884650	108.806228	-53.884650	108.806228	-0.105826	-70.051976
4.950000	-0.107424	-70.706691	-53.638260	107.308645	-53.638260	107.308645	-0.107423	-70.706861
5.000000	-0.109021	-71.361574	-53.398668	105.811063	-53.398668	105.811063	-0.109021	-71.361746
5.050000	-0.110665	-72.013605	-53.158154	104.313802	-53.158154	104.313802	-0.110664	-72.013778
5.100000	-0.112308	-72.665635	-52.924121	102.816541	-52.924121	102.816541	-0.112307	-72.665811
5.150000	-0.113995	-73.315060	-52.689857	101.319731	-52.689857	101.319731	-0.113994	-73.315237
5.200000	-0.115686	-73.964247	-52.461182	99.822961	-52.461182	99.822961	-0.115685	-73.964427
5.250000	-0.117418	-74.611075	-52.232894	98.326731	-52.232894	98.326731	-0.117417	-74.611256
5.300000	-0.119159	-75.257430	-52.009385	96.830609	-52.009385	96.830609	-0.119158	-75.257614
5.350000	-0.120937	-75.901672	-51.786818	95.335082	-51.786818	95.335082	-0.120936	-75.901858
5.400000	-0.122729	-76.545210	-51.568295	93.839752	-51.568295	93.839752	-0.122728	-76.545397
5.450000	-0.124555	-77.186880	-51.351210	92.345040	-51.351210	92.345040	-0.124555	-77.187069
5.500000	-0.126400	-77.827616	-51.137503	90.850636	-51.137503	90.850636	-0.126399	-77.827807
5.550000	-0.128276	-78.466728	-50.925675	89.356846	-50.925675	89.356846	-0.128275	-78.466922
5.600000	-0.130174	-79.104681	-50.716623	87.863492	-50.716623	87.863492	-0.130173	-79.104877
5.650000	-0.132101	-79.741253	-50.509843	86.370722	-50.509843	86.370722	-0.132100	-79.741450
5.700000	-0.134056	-80.376443	-50.305292	84.878536	-50.305292	84.878536	-0.134055	-80.376643
5.750000	-0.136035	-81.010491	-50.103362	83.386880	-50.103362	83.386880	-0.136034	-81.010693
5.800000	-0.138048	-81.642942	-49.903166	81.895968	-49.903166	81.895968	-0.138047	-81.643146
5.850000	-0.140080	-82.274487	-49.705900	80.405514	-49.705900	80.405514	-0.140079	-82.274694
5.900000	-0.142153	-82.904223	-49.509922	78.915978	-49.509922	78.915978	-0.142151	-82.904431
5.950000	-0.144240	-83.533287	-49.317144	77.426810	-49.317144	77.426810	-0.144239	-83.533497
6.000000	-0.146374	-84.160335	-49.125252	75.938744	-49.125252	75.938744	-0.146372	-84.160548
6.050000	-0.148518	-84.786939	-48.936796	74.450939	-48.936796	74.450939	-0.148516	-84.787155
6.100000	-0.150714	-85.411328	-48.748864	72.964432	-48.748864	72.964432	-0.150712	-85.411546
6.150000	-0.152916	-86.035498	-48.564574	71.478063	-48.564574	71.478063	-0.152914	-86.035718
6.200000	-0.155177	-86.657259	-48.380481	69.993198	-48.380481	69.993198	-0.155175	-86.657482
6.250000	-0.157438	-87.279020	-48.200210	68.508334	-48.200210	68.508334	-0.157436	-87.279245
6.300000	-0.159765	-87.898186	-48.019841	67.025188	-48.019841	67.025188	-0.159763	-87.898414
6.350000	-0.162092	-88.517352	-47.843143	65.542042	-47.843143	65.542042	-0.162091	-88.517582
6.400000	-0.164482	-89.134171	-47.666693	64.060537	-47.666693	64.060537	-0.164480	-89.134404
6.450000	-0.166877	-89.750777	-47.493465	62.579181	-47.493465	62.579181	-0.166875	-89.751012
6.500000	-0.169330	-90.365279	-47.320797	61.099370	-47.320797	61.099370	-0.169328	-90.365517
6.550000	-0.171796	-90.979361	-47.150940	59.619869	-47.150940	59.619869	-0.171793	-90.979601
6.600000	-0.174314	-91.591578	-46.981925	58.141804	-46.981925	58.141804	-0.174312	-91.591821
6.650000	-0.176850	-92.203174	-46.815345	56.664217	-46.815345	56.664217	-0.176848	-92.203420
6.700000	-0.179435	-92.813139	-46.649858	55.187941	-46.649858	55.187941	-0.179433	-92.813388
6.750000	-0.182045	-93.422289	-46.486464	53.712322	-46.486464	53.712322	-0.182042	-93.422540
6.800000	-0.184697	-94.030036	-46.324389	52.237877	-46.324389	52.237877	-0.184695	-94.030290
6.850000	-0.187381	-94.636782	-46.164092	50.764272	-46.164092	50.764272	-0.187379	-94.637039
6.900000	-0.190104	-95.242347	-46.005316	49.291694	-46.005316	49.291694	-0.190101	-95.242606
6.950000	-0.192864	-95.846731	-45.848032	47.820143	-45.848032	47.820143	-0.192861	-95.846993
7.000000	-0.195657	-96.450150	-45.692448	46.349462	-45.692448	46.349462	-0.195654	-96.450415
7.050000	-0.198495	-97.052217	-45.538094	44.879999	-45.538094	44.879999	-0.198492	-97.052486
7.100000	-0.201360	-97.653528	-45.385601	43.411240	-45.385601	43.411240	-0.201356	-97.653800
7.150000	-0.204277	-98.253325	-45.234098	41.943891	-45.234098	41.943891	-0.204274	-98.253600
7.200000	-0.207215	-98.852567	-45.084597	40.477074	-45.084597	40.477074	-0.207212	-98.852844
7.250000	-0.210214	-99.450141	-44.935870	39.011856	-44.935870	39.011856	-0.210211	-99.450422
7.300000	-0.213227	-100.047354	-44.789268	37.546995	-44.789268	37.546995	-0.213223	-100.047637
7.350000	-0.216308	-100.642755	-44.643240	36.083918	-44.643240	36.083918	-0.216305	-100.643041
7.400000	-0.219397	-101.237979	-44.499448	34.621020	-44.499448	34.621020	-0.219394	-101.238268
7.450000	-0.222563	-101.831257	-44.356050	33.160086	-44.356050	33.160086	-0.222559	-101.831549
7.500000	-0.225729	-102.424535	-44.214981	31.699153	-44.214981	31.699153	-0.225725	-102.424830
7.550000	-0.228980	-103.015742	-44.074144	30.240354	-44.074144	30.240354	-0.228976	-103.016040
7.600000	-0.232232	-103.606949	-43.935553	28.781555	-43.935553	28.781555	-0.232228	-103.607250
7.650000	-0.235563	-104.196306	-43.797373	27.324697	-43.797373	27.324697	-0.235559	-104.196610
7.700000	-0.238902	-104.785496	-43.661197	25.868016	-43.661197	25.868016	-0.238898	-104.785803
7.750000	-0.242315	-105.373049	-43.525594	24.413078	-43.525594	24.413078	-0.242310	-105.373359
7.800000	-0.245743	-105.960276	-43.391773	22.958487	-43.391773	22.958487	-0.245738	-105.960588
7.850000	-0.249238	-106.546072	-43.258670	21.505437	-43.258670	21.505437	-0.249233	-106.546387
7.900000	-0.252756	-107.131391	-43.127144	20.052899	-43.127144	20.052899	-0.252751	-107.131709
7.950000	-0.256334	-107.715477	-42.996469	18.601699	-42.996469	18.601699	-0.256329	-107.715798
8.000000	-0.259944	-108.298947	-42.867182	17.151167	-42.867182	17.151167	-0.259939	-108.299270
8.050000	-0.263607	-108.881372	-42.738864	15.701770	-42.738864	15.701770	-0.263602	-108.881697
8.100000	-0.267310	-109.463050	-42.611762	14.253185	-42.611762	14.253185	-0.267304	-109.463378
8.150000	-0.271059	-110.043863	-42.485736	12.805537	-42.485736	12.805537	-0.271054	-110.044193
8.200000	-0.274856	-110.623810	-42.360766	11.358827	-42.360766	11.358827	-0.274850	-110.624142
8.250000	-0.278692	-111.203061	-42.236968	9.912865	-42.236968	9.912865	-0.278687	-111.203395
8.300000	-0.282584	-111.781338	-42.114081	8.467950	-42.114081	8.467950	-0.282578	-111.781674
8.350000	-0.286509	-112.359079	-41.992451	7.023601	-41.992451	7.023601	-0.286503	-112.359416
8.400000	-0.290497	-112.935747	-41.871599	5.580387	-41.871599	5.580387	-0.290491	-112.936087
8.450000	-0.294511	-113.512030	-41.752080	4.137572	-41.752080	4.137572	-0.294505	-113.512371
8.500000	-0.298598	-114.087154	-41.633219	2.695954	-41.633219	2.695954	-0.298591	-114.087497
8.550000	-0.302702	-114.662032	-41.515756	1.254583	-41.515756	1.254583	-0.302695	-114.662376
8.600000	-0.306887	-115.235677	-41.398843	-0.185556	-41.398843	-0.185556	-0.306880	-115.236022
8.650000	-0.311082	-115.809204	-41.283386	-1.625582	-41.283386	-1.625582	-0.311075	-115.809549
8.700000	-0.315368	-116.381435	-41.168383	-3.064369	-41.168383	-3.064369	-0.315360	-116.381781
8.750000	-0.319655	-116.953667	-41.054882	-4.503156	-41.054882	-4.503156	-0.319647	-116.954013
8.800000	-0.324041	-117.524552	-40.941752	-5.940731	-40.941752	-5.940731	-0.324033	-117.524898
8.850000	-0.328430	-118.095437	-40.830077	-7.378307	-40.830077	-7.378307	-0.328421	-118.095784
8.900000	-0.332910	-118.665151	-40.718874	-8.814910	-40.718874	-8.814910	-0.332901	-118.665497
8.950000	-0.337400	-119.234758	-40.608992	-10.251425	-40.608992	-10.251425	-0.337391	-119.235104
9.000000	-0.341975	-119.803359	-40.499676	-11.687191	-40.499676	-11.687191	-0.341965	-119.803704
9.050000	-0.346568	-120.371759	-40.391559	-13.122807	-40.391559	-13.122807	-0.346558	-120.372103
9.100000	-0.351238	-120.939306	-40.284092	-14.557877	-40.284092	-14.557877	-0.351228	-120.939649
9.150000	-0.355935	-121.506569	-40.177716	-15.992766	-40.177716	-15.992766	-0.355924	-121.506910
9.200000	-0.360701	-122.073122	-40.072065	-17.427291	-40.072065	-17.427291	-0.360690	-122.073461
9.250000	-0.365503	-122.639321	-39.967407	-18.861634	-39.967407	-18.861634	-0.365491	-122.639658
9.300000	-0.370365	-123.204942	-39.863541	-20.295770	-39.863541	-20.295770	-0.370352	-123.205276
9.350000	-0.375272	-123.770150	-39.760584	-21.729758	-39.760584	-21.729758	-0.375258	-123.770481
9.400000	-0.380231	-124.334900	-39.658478	-23.163667	-39.658478	-23.163667	-0.380217	-124.335227
9.450000	-0.385243	-124.899192	-39.557207	-24.597497	-39.557207	-24.597497	-0.385229	-124.899516
9.500000	-0.390300	-125.463134	-39.456836	-26.031348	-39.456836	-26.031348	-0.390285	-125.463454
9.550000	-0.395419	-126.026587	-39.357243	-27.465226	-39.357243	-27.465226	-0.395402	-126.026903
9.600000	-0.400573	-126.589787	-39.258588	-28.899191	-39.258588	-28.899191	-0.400556	-126.590097
9.650000	-0.405798	-127.152478	-39.160666	-30.333328	-39.160666	-30.333328	-0.405780	-127.152783
9.700000	-0.411051	-127.714999	-39.063711	-31.767583	-39.063711	-31.767583	-0.411032	-127.715298
9.750000	-0.416383	-128.277008	-38.967459	-33.202192	-38.967459	-33.202192	-0.416363	-128.277301
9.800000	-0.421735	-128.838917	-38.872193	-34.636916	-38.872193	-34.636916	-0.421714	-128.839203
9.850000	-0.427174	-129.400325	-38.777615	-36.072215	-38.777615	-36.072215	-0.427151	-129.400603
9.900000	-0.432624	-129.961689	-38.684027	-37.507590	-38.684027	-37.507590	-0.432600	-129.961960
9.950000	-0.438170	-130.522577	-38.591132	-38.943796	-38.591132	-38.943796	-0.438144	-130.522839
10.000000	-0.443719	-131.083465	-38.499219	-40.380002	-38.499219	-40.380002	-0.443692	-131.083719
