! freq	dB(S11)	phase(S11)	dB(S12)	phase(S12)	
!     	dB(S21)	phase(S21)	dB(S22)	phase(S22)	
!S-par simulation data
#  GHz  S  DB  R 50
0.000000	-0.000000	0.000000	-368.786574	0.000000	-368.786574	0.000000	-0.000000	0.000000
0.050000	-0.000514	-0.774998	-110.997633	89.234172	-110.997633	89.234172	-0.000793	-1.251944
0.100000	-0.001683	-1.545917	-105.023416	88.150864	-105.023416	88.150864	-0.002690	-2.498133
0.150000	-0.002959	-2.312612	-101.573831	87.157112	-101.573831	87.157112	-0.004906	-3.737717
0.200000	-0.004094	-3.076714	-99.181159	86.212465	-99.181159	86.212465	-0.006986	-4.972701
0.250000	-0.005098	-3.839717	-97.372905	85.311125	-97.372905	85.311125	-0.008863	-6.205511
0.300000	-0.006011	-4.602176	-95.948789	84.462821	-95.948789	84.462821	-0.010558	-7.437159
0.350000	-0.006880	-5.364377	-94.800297	83.678721	-94.800297	83.678721	-0.012129	-8.668221
0.400000	-0.007742	-6.126420	-93.864559	82.974009	-93.864559	82.974009	-0.013627	-9.898899
0.450000	-0.008623	-6.888320	-93.109430	82.377052	-93.109430	82.377052	-0.015086	-11.129163
0.500000	-0.009531	-7.650081	-92.499193	81.901392	-92.499193	81.901392	-0.016532	-12.358957
0.550000	-0.010469	-8.411683	-92.016011	81.574231	-92.016011	81.574231	-0.017976	-13.588153
0.600000	-0.011433	-9.173096	-91.647800	81.429630	-91.647800	81.429630	-0.019424	-14.816615
0.650000	-0.012417	-9.934278	-91.386492	81.510780	-91.386492	81.510780	-0.020881	-16.044202
0.700000	-0.013413	-10.695172	-91.226874	81.873125	-91.226874	81.873125	-0.022346	-17.270780
0.750000	-0.014411	-11.455679	-91.171567	82.616396	-91.171567	82.616396	-0.023822	-18.496144
0.800000	-0.015403	-12.215708	-91.217240	83.852166	-91.217240	83.852166	-0.025307	-19.720165
0.850000	-0.016385	-12.975173	-91.357376	85.720177	-91.357376	85.720177	-0.026801	-20.942755
0.900000	-0.017357	-13.734039	-91.578900	88.345572	-91.578900	88.345572	-0.028302	-22.163922
0.950000	-0.018318	-14.492201	-91.872413	91.999962	-91.872413	91.999962	-0.029810	-23.383493
1.000000	-0.019270	-15.249600	-92.207463	96.969707	-92.207463	96.969707	-0.031324	-24.601381
1.050000	-0.020215	-16.006191	-92.526733	103.550731	-92.526733	103.550731	-0.032843	-25.817511
1.100000	-0.021157	-16.761943	-92.735218	111.930908	-92.735218	111.930908	-0.034367	-27.031811
1.150000	-0.022097	-17.516836	-92.704335	121.971806	-92.704335	121.971806	-0.035894	-28.244220
1.200000	-0.023038	-18.270854	-92.313130	132.989897	-92.313130	132.989897	-0.037424	-29.454680
1.250000	-0.023982	-19.023991	-91.519254	143.838568	-91.519254	143.838568	-0.038956	-30.663140
1.300000	-0.024928	-19.776200	-90.374581	153.353407	-90.374581	153.353407	-0.040489	-31.869460
1.350000	-0.025877	-20.527517	-89.032064	161.069436	-89.032064	161.069436	-0.042022	-33.073686
1.400000	-0.026829	-21.277938	-87.610230	167.012374	-87.610230	167.012374	-0.043556	-34.275777
1.450000	-0.027784	-22.027457	-86.186827	171.440506	-86.186827	171.440506	-0.045089	-35.475699
1.500000	-0.028742	-22.776071	-84.803984	174.658472	-84.803984	174.658472	-0.046621	-36.673417
1.550000	-0.029703	-23.523773	-83.480866	176.936587	-83.480866	176.936587	-0.048152	-37.868901
1.600000	-0.030665	-24.270558	-82.223838	178.490283	-82.223838	178.490283	-0.049682	-39.062121
1.650000	-0.031629	-25.016419	-81.032747	179.483771	-81.032747	179.483771	-0.051209	-40.253051
1.700000	-0.032594	-25.761347	-79.904414	-179.959726	-79.904414	-179.959726	-0.052735	-41.441665
1.750000	-0.033561	-26.505336	-78.834446	-179.747870	-78.834446	-179.747870	-0.054259	-42.627940
1.800000	-0.034528	-27.248375	-77.818153	-179.811053	-77.818153	-179.811053	-0.055781	-43.811853
1.850000	-0.035496	-27.990455	-76.850982	179.903697	-76.850982	179.903697	-0.057301	-44.993385
1.900000	-0.036464	-28.731567	-75.928707	179.437136	-75.928707	179.437136	-0.058819	-46.172514
1.950000	-0.037434	-29.471700	-75.047490	178.820986	-75.047490	178.820986	-0.060337	-47.349224
2.000000	-0.038403	-30.210844	-74.203889	178.080219	-74.203889	178.080219	-0.061853	-48.523497
2.050000	-0.039374	-30.948987	-73.394831	177.234709	-73.394831	177.234709	-0.063368	-49.695318
2.100000	-0.040345	-31.686119	-72.617581	176.300437	-72.617581	176.300437	-0.064883	-50.864670
2.150000	-0.041317	-32.422228	-71.869705	175.290382	-71.869705	175.290382	-0.066398	-52.031542
2.200000	-0.042291	-33.157302	-71.149031	174.215180	-71.149031	174.215180	-0.067913	-53.195919
2.250000	-0.043266	-33.891330	-70.453618	173.083622	-70.453618	173.083622	-0.069430	-54.357792
2.300000	-0.044243	-34.624300	-69.781728	171.903031	-69.781728	171.903031	-0.070948	-55.517149
2.350000	-0.045222	-35.356201	-69.131798	170.679555	-69.131798	170.679555	-0.072469	-56.673981
2.400000	-0.046203	-36.087020	-68.502422	169.418387	-68.502422	169.418387	-0.073993	-57.828281
2.450000	-0.047187	-36.816745	-67.892327	168.123945	-67.892327	168.123945	-0.075520	-58.980042
2.500000	-0.048173	-37.545366	-67.300360	166.800011	-67.300360	166.800011	-0.077052	-60.129259
2.550000	-0.049164	-38.272820	-66.724566	165.448828	-66.724566	165.448828	-0.078589	-61.275815
2.600000	-0.050158	-38.999144	-66.164994	164.074436	-66.164994	164.074436	-0.080132	-62.419818
2.650000	-0.051157	-39.724327	-65.620761	162.679241	-65.620761	162.679241	-0.081682	-63.561268
2.700000	-0.052160	-40.448358	-65.091056	161.265343	-65.091056	161.265343	-0.083238	-64.700162
2.750000	-0.053168	-41.171224	-64.575134	159.834592	-64.575134	159.834592	-0.084803	-65.836503
2.800000	-0.054181	-41.892916	-64.072312	158.388617	-64.072312	158.388617	-0.086377	-66.970292
2.850000	-0.055200	-42.613422	-63.581957	156.928860	-63.581957	156.928860	-0.087960	-68.101533
2.900000	-0.056225	-43.332731	-63.103484	155.456606	-63.103484	155.456606	-0.089554	-69.230231
2.950000	-0.057257	-44.050832	-62.636353	153.972997	-62.636353	153.972997	-0.091158	-70.356390
3.000000	-0.058296	-44.767716	-62.180060	152.479058	-62.180060	152.479058	-0.092775	-71.480020
3.050000	-0.059342	-45.483373	-61.734138	150.975709	-61.734138	150.975709	-0.094404	-72.601128
3.100000	-0.060396	-46.197792	-61.298152	149.463775	-61.298152	149.463775	-0.096047	-73.719725
3.150000	-0.061458	-46.910964	-60.871693	147.944006	-60.871693	147.944006	-0.097703	-74.835822
3.200000	-0.062528	-47.622880	-60.454381	146.417078	-60.454381	146.417078	-0.099375	-75.949432
3.250000	-0.063608	-48.333531	-60.045860	144.883607	-60.045860	144.883607	-0.101062	-77.060569
3.300000	-0.064697	-49.042908	-59.645796	143.344152	-59.645796	143.344152	-0.102765	-78.169248
3.350000	-0.065795	-49.751002	-59.253872	141.799225	-59.253872	141.799225	-0.104486	-79.275487
3.400000	-0.066904	-50.457805	-58.869795	140.249295	-58.869795	140.249295	-0.106224	-80.379303
3.450000	-0.068023	-51.163310	-58.493284	138.694791	-58.493284	138.694791	-0.107981	-81.480717
3.500000	-0.069153	-51.867509	-58.124077	137.136108	-58.124077	137.136108	-0.109757	-82.579749
3.550000	-0.070294	-52.570394	-57.761926	135.573611	-57.761926	135.573611	-0.111553	-83.676421
3.600000	-0.071447	-53.271959	-57.406594	134.007637	-57.406594	134.007637	-0.113370	-84.770757
3.650000	-0.072611	-53.972197	-57.057859	132.438498	-57.057859	132.438498	-0.115207	-85.862782
3.700000	-0.073788	-54.671102	-56.715511	130.866482	-56.715511	130.866482	-0.117067	-86.952522
3.750000	-0.074978	-55.368667	-56.379348	129.291859	-56.379348	129.291859	-0.118949	-88.040006
3.800000	-0.076182	-56.064829	-56.048897	127.714789	-56.048897	127.714789	-0.120856	-89.125165
3.850000	-0.077399	-56.759640	-55.724282	126.135615	-55.724282	126.135615	-0.122786	-90.208129
3.900000	-0.078630	-57.453096	-55.405329	124.554554	-55.405329	124.554554	-0.124741	-91.288929
3.950000	-0.079875	-58.145191	-55.091872	122.971810	-55.091872	122.971810	-0.126721	-92.367599
4.000000	-0.081135	-58.835921	-54.783752	121.387572	-54.783752	121.387572	-0.128727	-93.444172
4.050000	-0.082409	-59.525282	-54.480818	119.802020	-54.480818	119.802020	-0.130759	-94.518684
4.100000	-0.083700	-60.213272	-54.182927	118.215321	-54.182927	118.215321	-0.132818	-95.591171
4.150000	-0.085005	-60.899885	-53.889939	116.627634	-53.889939	116.627634	-0.134904	-96.661672
4.200000	-0.086327	-61.585120	-53.601723	115.039107	-53.601723	115.039107	-0.137019	-97.730226
4.250000	-0.087666	-62.268974	-53.318151	113.449882	-53.318151	113.449882	-0.139162	-98.796872
4.300000	-0.089021	-62.951443	-53.039103	111.860091	-53.039103	111.860091	-0.141335	-99.861652
4.350000	-0.090393	-63.632527	-52.764461	110.269860	-52.764461	110.269860	-0.143537	-100.924610
4.400000	-0.091783	-64.312223	-52.494114	108.679307	-52.494114	108.679307	-0.145769	-101.985788
4.450000	-0.093191	-64.990531	-52.227954	107.088545	-52.227954	107.088545	-0.148032	-103.045232
4.500000	-0.094617	-65.667448	-51.965877	105.497680	-51.965877	105.497680	-0.150327	-104.102988
4.550000	-0.096062	-66.342974	-51.707784	103.906811	-51.707784	103.906811	-0.152653	-105.159103
4.600000	-0.097526	-67.017109	-51.453579	102.316035	-51.453579	102.316035	-0.155012	-106.213626
4.650000	-0.099009	-67.689853	-51.203169	100.725441	-51.203169	100.725441	-0.157403	-107.266605
4.700000	-0.100512	-68.361205	-50.956467	99.135114	-50.956467	99.135114	-0.159827	-108.318092
4.750000	-0.102035	-69.031167	-50.713385	97.545135	-50.713385	97.545135	-0.162286	-109.368138
4.800000	-0.103579	-69.699739	-50.473841	95.955579	-50.473841	95.955579	-0.164778	-110.416796
4.850000	-0.105144	-70.366921	-50.237755	94.366520	-50.237755	94.366520	-0.167305	-111.464119
4.900000	-0.106729	-71.032716	-50.005050	92.778024	-50.005050	92.778024	-0.169867	-112.510163
4.950000	-0.108337	-71.697125	-49.775651	91.190157	-49.775651	91.190157	-0.172465	-113.554982
5.000000	-0.109967	-72.360150	-49.549486	89.602978	-49.549486	89.602978	-0.175098	-114.598635
5.050000	-0.111620	-73.021734	-49.326376	88.016580	-49.326376	88.016580	-0.177770	-115.641132
5.100000	-0.113295	-73.681938	-49.106370	86.430987	-49.106370	86.430987	-0.180478	-116.682585
5.150000	-0.114994	-74.340767	-48.889404	84.846248	-48.889404	84.846248	-0.183223	-117.723053
5.200000	-0.116717	-74.998222	-48.675414	83.262410	-48.675414	83.262410	-0.186006	-118.762596
5.250000	-0.118464	-75.654308	-48.464339	81.679519	-48.464339	81.679519	-0.188827	-119.801277
5.300000	-0.120234	-76.309029	-48.256119	80.097615	-48.256119	80.097615	-0.191687	-120.839159
5.350000	-0.122030	-76.962387	-48.050697	78.516738	-48.050697	78.516738	-0.194585	-121.876305
5.400000	-0.123851	-77.614388	-47.848017	76.936924	-47.848017	76.936924	-0.197522	-122.912780
5.450000	-0.125697	-78.265036	-47.648025	75.358207	-47.648025	75.358207	-0.200498	-123.948650
5.500000	-0.127570	-78.914336	-47.450670	73.780620	-47.450670	73.780620	-0.203514	-124.983981
5.550000	-0.129468	-79.562292	-47.255901	72.204190	-47.255901	72.204190	-0.206571	-126.018842
5.600000	-0.131394	-80.208910	-47.063668	70.628948	-47.063668	70.628948	-0.209668	-127.053299
5.650000	-0.133346	-80.854196	-46.873925	69.054917	-46.873925	69.054917	-0.212805	-128.087423
5.700000	-0.135326	-81.498155	-46.686626	67.482122	-46.686626	67.482122	-0.215984	-129.121283
5.750000	-0.137334	-82.140793	-46.501727	65.910585	-46.501727	65.910585	-0.219204	-130.154952
5.800000	-0.139370	-82.782117	-46.319184	64.340328	-46.319184	64.340328	-0.222465	-131.188500
5.850000	-0.141435	-83.422133	-46.138956	62.771368	-46.138956	62.771368	-0.225769	-132.222001
5.900000	-0.143529	-84.060848	-45.961003	61.203724	-45.961003	61.203724	-0.229114	-133.255529
5.950000	-0.145652	-84.698268	-45.785287	59.637413	-45.785287	59.637413	-0.232502	-134.289157
6.000000	-0.147805	-85.334402	-45.611768	58.072451	-45.611768	58.072451	-0.235933	-135.322961
6.050000	-0.149989	-85.969256	-45.440411	56.508851	-45.440411	56.508851	-0.239407	-136.357018
6.100000	-0.152203	-86.602838	-45.271182	54.946627	-45.271182	54.946627	-0.242923	-137.391405
6.150000	-0.154448	-87.235156	-45.104045	53.385793	-45.104045	53.385793	-0.246484	-138.426200
6.200000	-0.156725	-87.866219	-44.938967	51.826360	-44.938967	51.826360	-0.250087	-139.461481
6.250000	-0.159033	-88.496033	-44.775918	50.268340	-44.775918	50.268340	-0.253735	-140.497328
6.300000	-0.161376	-89.124555	-44.614824	48.711807	-44.614824	48.711807	-0.257428	-141.533853
6.350000	-0.163751	-89.751848	-44.455701	47.156711	-44.455701	47.156711	-0.261166	-142.571113
6.400000	-0.166159	-90.377919	-44.298520	45.603062	-44.298520	45.603062	-0.264948	-143.609191
6.450000	-0.168600	-91.002780	-44.143255	44.050870	-44.143255	44.050870	-0.268774	-144.648169
6.500000	-0.171076	-91.626438	-43.989877	42.500146	-43.989877	42.500146	-0.272645	-145.688131
6.550000	-0.173585	-92.248904	-43.838361	40.950902	-43.838361	40.950902	-0.276560	-146.729162
6.600000	-0.176130	-92.870187	-43.688682	39.403147	-43.688682	39.403147	-0.280521	-147.771346
6.650000	-0.178709	-93.490298	-43.540816	37.856893	-43.540816	37.856893	-0.284526	-148.814771
6.700000	-0.181324	-94.109246	-43.394739	36.312153	-43.394739	36.312153	-0.288577	-149.859522
6.750000	-0.183975	-94.727042	-43.250430	34.768937	-43.250430	34.768937	-0.292672	-150.905688
6.800000	-0.186662	-95.343696	-43.107865	33.227259	-43.107865	33.227259	-0.296813	-151.953357
6.850000	-0.189386	-95.959218	-42.967025	31.687133	-42.967025	31.687133	-0.300999	-153.002618
6.900000	-0.192146	-96.573621	-42.827890	30.148572	-42.827890	30.148572	-0.305230	-154.053561
6.950000	-0.194945	-97.186915	-42.690439	28.611592	-42.690439	28.611592	-0.309506	-155.106276
7.000000	-0.197781	-97.799111	-42.554654	27.076208	-42.554654	27.076208	-0.313827	-156.160855
7.050000	-0.200655	-98.410221	-42.420517	25.542438	-42.420517	25.542438	-0.318194	-157.217390
7.100000	-0.203567	-99.020256	-42.288010	24.010300	-42.288010	24.010300	-0.322605	-158.275974
7.150000	-0.206519	-99.629228	-42.157116	22.479813	-42.157116	22.479813	-0.327062	-159.336699
7.200000	-0.209510	-100.237149	-42.027820	20.950998	-42.027820	20.950998	-0.331564	-160.399661
7.250000	-0.212540	-100.844031	-41.900105	19.423876	-41.900105	19.423876	-0.336110	-161.464953
7.300000	-0.215611	-101.449886	-41.773957	17.898470	-41.773957	17.898470	-0.340701	-162.532672
7.350000	-0.218722	-102.054728	-41.649359	16.374805	-41.649359	16.374805	-0.345337	-163.602913
7.400000	-0.221873	-102.658567	-41.526299	14.852906	-41.526299	14.852906	-0.350017	-164.675772
7.450000	-0.225066	-103.261418	-41.404763	13.332801	-41.404763	13.332801	-0.354741	-165.751347
7.500000	-0.228300	-103.863294	-41.284737	11.814517	-41.284737	11.814517	-0.359510	-166.829737
7.550000	-0.231578	-104.464165	-41.166203	10.298168	-41.166203	10.298168	-0.364324	-167.911169
7.600000	-0.234898	-105.064088	-41.049156	8.783706	-41.049156	8.783706	-0.369181	-168.995622
7.650000	-0.238261	-105.663076	-40.933583	7.271163	-40.933583	7.271163	-0.374081	-170.083193
7.700000	-0.241666	-106.261143	-40.819474	5.760575	-40.819474	5.760575	-0.379024	-171.173985
7.750000	-0.245115	-106.858302	-40.706815	4.251978	-40.706815	4.251978	-0.384010	-172.268095
7.800000	-0.248607	-107.454568	-40.595597	2.745410	-40.595597	2.745410	-0.389037	-173.365626
7.850000	-0.252143	-108.049955	-40.485807	1.240911	-40.485807	1.240911	-0.394107	-174.466679
7.900000	-0.255723	-108.644476	-40.377434	-0.261480	-40.377434	-0.261480	-0.399217	-175.571354
7.950000	-0.259347	-109.238146	-40.270468	-1.761719	-40.270468	-1.761719	-0.404368	-176.679754
8.000000	-0.263016	-109.830980	-40.164899	-3.259764	-40.164899	-3.259764	-0.409560	-177.791981
8.050000	-0.266731	-110.422993	-40.060716	-4.755568	-40.060716	-4.755568	-0.414791	-178.908137
8.100000	-0.270490	-111.014199	-39.957909	-6.249086	-39.957909	-6.249086	-0.420061	179.971675
8.150000	-0.274296	-111.604613	-39.856467	-7.740270	-39.856467	-7.740270	-0.425369	178.847353
8.200000	-0.278147	-112.194250	-39.756381	-9.229070	-39.756381	-9.229070	-0.430716	177.718795
8.250000	-0.282044	-112.783126	-39.657641	-10.715438	-39.657641	-10.715438	-0.436099	176.585896
8.300000	-0.285988	-113.371256	-39.560237	-12.199320	-39.560237	-12.199320	-0.441519	175.448555
8.350000	-0.289979	-113.958656	-39.464159	-13.680665	-39.464159	-13.680665	-0.446974	174.306669
8.400000	-0.294016	-114.545341	-39.369397	-15.159420	-39.369397	-15.159420	-0.452464	173.160135
8.450000	-0.298101	-115.131328	-39.275942	-16.635529	-39.275942	-16.635529	-0.457988	172.008851
8.500000	-0.302233	-115.716632	-39.183783	-18.108938	-39.183783	-18.108938	-0.463546	170.852714
8.550000	-0.306412	-116.301270	-39.092912	-19.579590	-39.092912	-19.579590	-0.469135	169.691624
8.600000	-0.310640	-116.885258	-39.003318	-21.047428	-39.003318	-21.047428	-0.474755	168.525478
8.650000	-0.314916	-117.468613	-38.914991	-22.512396	-38.914991	-22.512396	-0.480405	167.354175
8.700000	-0.319240	-118.051352	-38.827921	-23.974435	-38.827921	-23.974435	-0.486084	166.177616
8.750000	-0.323612	-118.633490	-38.742099	-25.433487	-38.742099	-25.433487	-0.491791	164.995700
8.800000	-0.328035	-119.215021	-38.657532	-26.889357	-38.657532	-26.889357	-0.497525	163.808088
8.850000	-0.332507	-119.795989	-38.574194	-28.342116	-38.574194	-28.342116	-0.503284	162.614913
8.900000	-0.337028	-120.376409	-38.492073	-29.791706	-38.492073	-29.791706	-0.509067	161.416078
8.950000	-0.341598	-120.956301	-38.411160	-31.238066	-38.411160	-31.238066	-0.514873	160.211488
9.000000	-0.346217	-121.535681	-38.331444	-32.681138	-38.331444	-32.681138	-0.520700	159.001049
9.050000	-0.350886	-122.114568	-38.252914	-34.120862	-38.252914	-34.120862	-0.526547	157.784665
9.100000	-0.355604	-122.692980	-38.175560	-35.557179	-38.175560	-35.557179	-0.532411	156.562246
9.150000	-0.360372	-123.270934	-38.099370	-36.990030	-38.099370	-36.990030	-0.538292	155.333700
9.200000	-0.365189	-123.848449	-38.024333	-38.419358	-38.024333	-38.419358	-0.544188	154.098939
9.250000	-0.370056	-124.425544	-37.950439	-39.845105	-37.950439	-39.845105	-0.550097	152.857876
9.300000	-0.374973	-125.002238	-37.877676	-41.267214	-37.877676	-41.267214	-0.556017	151.610425
9.350000	-0.379940	-125.578549	-37.806032	-42.685628	-37.806032	-42.685628	-0.561947	150.356503
9.400000	-0.384957	-126.154496	-37.735495	-44.100292	-37.735495	-44.100292	-0.567885	149.096029
9.450000	-0.390024	-126.730099	-37.666055	-45.511151	-37.666055	-45.511151	-0.573828	147.828925
9.500000	-0.395141	-127.305377	-37.597700	-46.918151	-37.597700	-46.918151	-0.579775	146.555114
9.550000	-0.400308	-127.880351	-37.530416	-48.321240	-37.530416	-48.321240	-0.585723	145.274523
9.600000	-0.405524	-128.455038	-37.464193	-49.720366	-37.464193	-49.720366	-0.591671	143.987082
9.650000	-0.410791	-129.029461	-37.399018	-51.115479	-37.399018	-51.115479	-0.597616	142.692723
9.700000	-0.416107	-129.603638	-37.334879	-52.506530	-37.334879	-52.506530	-0.603556	141.391382
9.750000	-0.421473	-130.177591	-37.271763	-53.893471	-37.271763	-53.893471	-0.609489	140.082998
9.800000	-0.426889	-130.751340	-37.209658	-55.276256	-37.209658	-55.276256	-0.615412	138.767513
9.850000	-0.432355	-131.324906	-37.148552	-56.654840	-37.148552	-56.654840	-0.621324	137.444873
9.900000	-0.437870	-131.898309	-37.088430	-58.029180	-37.088430	-58.029180	-0.627220	136.115030
9.950000	-0.443434	-132.471572	-37.029282	-59.399234	-37.029282	-59.399234	-0.633099	134.777937
10.000000	-0.449047	-133.044715	-36.971094	-60.764963	-36.971094	-60.764963	-0.638959	133.433553
