! freq	dB(S11)	phase(S11)	dB(S12)	phase(S12)	
!     	dB(S21)	phase(S21)	dB(S22)	phase(S22)	
!S-par simulation data
#  GHz  S  DB  R 50
0.000000	0.000000	0.000000	-312.994711	180.000000	-312.994711	180.000000	-0.000000	-0.000000
0.050000	-0.004394	-2.670452	-94.743978	88.332524	-94.743978	88.332524	-0.000589	-0.921262
0.100000	-0.007065	-5.350179	-88.745945	86.533613	-88.745945	86.533613	-0.001980	-1.838036
0.150000	-0.010456	-8.020047	-85.261140	84.772002	-85.261140	84.772002	-0.003560	-2.749886
0.200000	-0.014372	-10.680671	-82.813036	83.028548	-82.813036	83.028548	-0.005027	-3.658613
0.250000	-0.018485	-13.332256	-80.940572	81.303004	-80.940572	81.303004	-0.006326	-4.565716
0.300000	-0.022544	-15.975570	-79.438396	79.598199	-79.438396	79.598199	-0.007499	-5.472102
0.350000	-0.026427	-18.611774	-78.195347	77.917037	-78.195347	77.917037	-0.008603	-6.378187
0.400000	-0.030091	-21.241505	-77.146370	76.263813	-77.146370	76.263813	-0.009675	-7.284103
0.450000	-0.033530	-23.864927	-76.251414	74.644899	-76.251414	74.644899	-0.010741	-8.189859
0.500000	-0.036787	-26.482537	-75.479668	73.063969	-75.479668	73.063969	-0.011812	-9.095420
0.550000	-0.039894	-29.094321	-74.810915	71.526732	-74.810915	71.526732	-0.012895	-10.000722
0.600000	-0.042883	-31.699848	-74.232412	70.042241	-74.232412	70.042241	-0.013991	-10.905666
0.650000	-0.045791	-34.299091	-73.731440	68.616251	-73.731440	68.616251	-0.015098	-11.810174
0.700000	-0.048645	-36.891831	-73.299042	67.256339	-73.299042	67.256339	-0.016213	-12.714162
0.750000	-0.051463	-39.477537	-72.929936	65.974310	-72.929936	65.974310	-0.017334	-13.617522
0.800000	-0.054262	-42.055883	-72.618749	64.781280	-72.618749	64.781280	-0.018457	-14.520166
0.850000	-0.057056	-44.626621	-72.360740	63.688961	-72.360740	63.688961	-0.019582	-15.422022
0.900000	-0.059852	-47.189449	-72.152385	62.711653	-72.152385	62.711653	-0.020707	-16.323017
0.950000	-0.062656	-49.744028	-71.991006	61.866669	-71.991006	61.866669	-0.021832	-17.223085
1.000000	-0.065470	-52.290066	-71.874138	61.173695	-71.874138	61.173695	-0.022957	-18.122168
1.050000	-0.068298	-54.827294	-71.799523	60.655628	-71.799523	60.655628	-0.024083	-19.020218
1.100000	-0.071138	-57.355467	-71.764919	60.339096	-71.764919	60.339096	-0.025209	-19.917194
1.150000	-0.073990	-59.874365	-71.767890	60.254976	-71.767890	60.254976	-0.026336	-20.813061
1.200000	-0.076851	-62.383792	-71.805537	60.438848	-71.805537	60.438848	-0.027465	-21.707790
1.250000	-0.079720	-64.883580	-71.874165	60.931229	-71.874165	60.931229	-0.028596	-22.601356
1.300000	-0.082593	-67.373370	-71.969238	61.786196	-71.969238	61.786196	-0.029728	-23.493711
1.350000	-0.085467	-69.853256	-72.083254	63.046120	-72.083254	63.046120	-0.030863	-24.384862
1.400000	-0.088338	-72.323150	-72.206956	64.760794	-72.206956	64.760794	-0.031999	-25.274792
1.450000	-0.091203	-74.782988	-72.328027	66.975666	-72.328027	66.975666	-0.033138	-26.163485
1.500000	-0.094059	-77.232731	-72.430630	69.723651	-72.430630	69.723651	-0.034277	-27.050926
1.550000	-0.096902	-79.672365	-72.495449	73.013647	-72.495449	73.013647	-0.035418	-27.937102
1.600000	-0.099728	-82.101902	-72.500653	76.817074	-72.500653	76.817074	-0.036560	-28.821998
1.650000	-0.102536	-84.521374	-72.424152	81.056154	-72.424152	81.056154	-0.037703	-29.705601
1.700000	-0.105323	-86.930840	-72.247076	85.599912	-72.247076	85.599912	-0.038847	-30.587897
1.750000	-0.108085	-89.330379	-71.957655	90.273582	-71.957655	90.273582	-0.039991	-31.468873
1.800000	-0.110821	-91.720092	-71.554002	94.882289	-71.554002	94.882289	-0.041136	-32.348516
1.850000	-0.113529	-94.100101	-71.044487	99.242284	-71.044487	99.242284	-0.042281	-33.226812
1.900000	-0.116208	-96.470448	-70.444240	103.202834	-70.444240	103.202834	-0.043426	-34.103732
1.950000	-0.118856	-98.831300	-69.774297	106.669801	-69.774297	106.669801	-0.044571	-34.979262
2.000000	-0.121472	-101.182945	-69.057197	109.609518	-69.057197	109.609518	-0.045717	-35.853404
2.050000	-0.124057	-103.525582	-68.311859	112.024080	-68.311859	112.024080	-0.046864	-36.726142
2.100000	-0.126611	-105.859430	-67.553735	113.942072	-67.553735	113.942072	-0.048011	-37.597464
2.150000	-0.129134	-108.184723	-66.794623	115.406559	-66.794623	115.406559	-0.049159	-38.467355
2.200000	-0.131626	-110.501711	-66.043052	116.466286	-66.043052	116.466286	-0.050309	-39.335802
2.250000	-0.134089	-112.810660	-65.304884	117.170056	-65.304884	117.170056	-0.051459	-40.202791
2.300000	-0.136525	-115.111850	-64.583940	117.563594	-64.583940	117.563594	-0.052612	-41.068308
2.350000	-0.138934	-117.405574	-63.882537	117.688085	-63.882537	117.688085	-0.053767	-41.932340
2.400000	-0.141319	-119.692138	-63.201919	117.579732	-63.201919	117.579732	-0.054925	-42.794874
2.450000	-0.143681	-121.971862	-62.542583	117.269893	-62.542583	117.269893	-0.056086	-43.655897
2.500000	-0.146024	-124.245074	-61.904521	116.785482	-61.904521	116.785482	-0.057250	-44.515396
2.550000	-0.148350	-126.511990	-61.286912	116.146648	-61.286912	116.146648	-0.058418	-45.373324
2.600000	-0.150661	-128.773102	-60.689771	115.376564	-60.689771	115.376564	-0.059590	-46.229703
2.650000	-0.152961	-131.028773	-60.112397	114.491746	-60.112397	114.491746	-0.060768	-47.084520
2.700000	-0.155253	-133.279371	-59.554027	113.506282	-59.554027	113.506282	-0.061951	-47.937765
2.750000	-0.157540	-135.525273	-59.013872	112.432212	-59.013872	112.432212	-0.063139	-48.789424
2.800000	-0.159825	-137.766865	-58.491144	111.279851	-58.491144	111.279851	-0.064334	-49.639489
2.850000	-0.162111	-140.004537	-57.985074	110.058055	-57.985074	110.058055	-0.065536	-50.487948
2.900000	-0.164402	-142.238688	-57.494919	108.774455	-57.494919	108.774455	-0.066745	-51.334792
2.950000	-0.166701	-144.469719	-57.019976	107.435642	-57.019976	107.435642	-0.067962	-52.180010
3.000000	-0.169012	-146.698038	-56.559578	106.047335	-56.559578	106.047335	-0.069188	-53.023594
3.050000	-0.171336	-148.924056	-56.113099	104.614511	-56.113099	104.614511	-0.070422	-53.865535
3.100000	-0.173677	-151.148187	-55.679956	103.141517	-55.679956	103.141517	-0.071666	-54.705825
3.150000	-0.176039	-153.370836	-55.259524	101.631812	-55.259524	101.631812	-0.072920	-55.544437
3.200000	-0.178424	-155.592438	-54.851319	100.088862	-54.851319	100.088862	-0.074185	-56.381365
3.250000	-0.180834	-157.813428	-54.454960	98.516016	-54.454960	98.516016	-0.075461	-57.216620
3.300000	-0.183272	-160.034228	-54.070011	96.915909	-54.070011	96.915909	-0.076748	-58.050195
3.350000	-0.185740	-162.255257	-53.696070	95.290903	-53.696070	95.290903	-0.078047	-58.882086
3.400000	-0.188241	-164.476937	-53.332765	93.643129	-53.332765	93.643129	-0.079358	-59.712286
3.450000	-0.190775	-166.699685	-52.979753	91.974521	-52.979753	91.974521	-0.080683	-60.540792
3.500000	-0.193344	-168.923918	-52.636720	90.286848	-52.636720	90.286848	-0.082021	-61.367599
3.550000	-0.195950	-171.150051	-52.303373	88.581738	-52.303373	88.581738	-0.083374	-62.192705
3.600000	-0.198593	-173.378492	-51.979442	86.860707	-51.979442	86.860707	-0.084740	-63.016105
3.650000	-0.201276	-175.609649	-51.664680	85.125168	-51.664680	85.125168	-0.086122	-63.837798
3.700000	-0.203997	-177.843924	-51.358856	83.376457	-51.358856	83.376457	-0.087519	-64.657782
3.750000	-0.206757	179.918289	-51.061756	81.615843	-51.061756	81.615843	-0.088933	-65.476055
3.800000	-0.209558	177.676504	-50.773162	79.844336	-50.773162	79.844336	-0.090363	-66.292581
3.850000	-0.212398	175.430415	-50.492925	78.063363	-50.492925	78.063363	-0.091810	-67.107395
3.900000	-0.215277	173.179647	-50.220870	76.274059	-50.220870	76.274059	-0.093274	-67.920499
3.950000	-0.218195	170.923832	-49.956834	74.477530	-49.956834	74.477530	-0.094757	-68.731894
4.000000	-0.221150	168.662612	-49.700661	72.674860	-49.700661	72.674860	-0.096258	-69.541580
4.050000	-0.224142	166.395638	-49.452203	70.867118	-49.452203	70.867118	-0.097777	-70.349561
4.100000	-0.227169	164.122571	-49.211319	69.055357	-49.211319	69.055357	-0.099316	-71.155839
4.150000	-0.230231	161.843082	-48.977872	67.240618	-48.977872	67.240618	-0.100875	-71.960417
4.200000	-0.233326	159.556855	-48.751729	65.423934	-48.751729	65.423934	-0.102454	-72.763299
4.250000	-0.236451	157.263586	-48.532761	63.606327	-48.532761	63.606327	-0.104054	-73.564490
4.300000	-0.239606	154.962982	-48.320841	61.788809	-48.320841	61.788809	-0.105675	-74.363995
4.350000	-0.242789	152.654765	-48.115843	59.972384	-48.115843	59.972384	-0.107318	-75.161818
4.400000	-0.245998	150.338582	-47.917666	58.158076	-47.917666	58.158076	-0.108982	-75.957949
4.450000	-0.249230	148.014176	-47.726191	56.346897	-47.726191	56.346897	-0.110670	-76.752393
4.500000	-0.252485	145.681400	-47.541268	54.539785	-47.541268	54.539785	-0.112381	-77.545176
4.550000	-0.255758	143.340036	-47.362770	52.737687	-47.362770	52.737687	-0.114115	-78.336306
4.600000	-0.259050	140.989885	-47.190567	50.941526	-47.190567	50.941526	-0.115873	-79.125791
4.650000	-0.262356	138.630765	-47.024530	49.152204	-47.024530	49.152204	-0.117655	-79.913639
4.700000	-0.265675	136.262512	-46.864528	47.370597	-46.864528	47.370597	-0.119462	-80.699860
4.750000	-0.269006	133.884979	-46.710427	45.597555	-46.710427	45.597555	-0.121294	-81.484464
4.800000	-0.272345	131.498040	-46.562093	43.833894	-46.562093	43.833894	-0.123152	-82.267460
4.850000	-0.275691	129.101589	-46.419393	42.080398	-46.419393	42.080398	-0.125037	-83.048860
4.900000	-0.279042	126.695542	-46.282189	40.337817	-46.282189	40.337817	-0.126947	-83.828675
4.950000	-0.282396	124.279832	-46.150346	38.606863	-46.150346	38.606863	-0.128885	-84.606917
5.000000	-0.285750	121.854417	-46.023728	36.888206	-46.023728	36.888206	-0.130850	-85.383597
5.050000	-0.289104	119.419065	-45.902270	35.182775	-45.902270	35.182775	-0.132844	-86.158696
5.100000	-0.292455	116.973990	-45.785766	33.490890	-45.785766	33.490890	-0.134866	-86.932259
5.150000	-0.295802	114.519219	-45.674082	31.813096	-45.674082	31.813096	-0.136916	-87.704302
5.200000	-0.299143	112.054802	-45.567087	30.149898	-45.567087	30.149898	-0.138996	-88.474838
5.250000	-0.302478	109.580811	-45.464652	28.501759	-45.464652	28.501759	-0.141106	-89.243882
5.300000	-0.305805	107.097346	-45.366655	26.869103	-45.366655	26.869103	-0.143245	-90.011448
5.350000	-0.309123	104.604527	-45.272975	25.252316	-45.272975	25.252316	-0.145416	-90.777553
5.400000	-0.312431	102.102501	-45.183498	23.651747	-45.183498	23.651747	-0.147617	-91.542213
5.450000	-0.315730	99.591437	-45.098119	22.067717	-45.098119	22.067717	-0.149849	-92.305443
5.500000	-0.319017	97.071532	-45.016737	20.500518	-45.016737	20.500518	-0.152114	-93.067261
5.550000	-0.322295	94.543003	-44.939262	18.950419	-44.939262	18.950419	-0.154410	-93.827684
5.600000	-0.325561	92.006094	-44.865614	17.417678	-44.865614	17.417678	-0.156740	-94.586730
5.650000	-0.328818	89.460987	-44.795756	15.902738	-44.795756	15.902738	-0.159102	-95.344402
5.700000	-0.332065	86.907982	-44.729633	14.405862	-44.729633	14.405862	-0.161499	-96.100720
5.750000	-0.335303	84.347483	-44.667166	12.927132	-44.667166	12.927132	-0.163930	-96.855717
5.800000	-0.338533	81.779826	-44.608326	11.466852	-44.608326	11.466852	-0.166395	-97.609413
5.850000	-0.341758	79.205369	-44.553102	10.025380	-44.553102	10.025380	-0.168895	-98.361828
5.900000	-0.344978	76.624493	-44.501499	8.603148	-44.501499	8.603148	-0.171431	-99.112983
5.950000	-0.348195	74.037595	-44.453538	7.200690	-44.453538	7.200690	-0.174002	-99.862896
6.000000	-0.351412	71.445094	-44.409264	5.818676	-44.409264	5.818676	-0.176609	-100.611591
6.050000	-0.354632	68.847425	-44.368736	4.457951	-44.368736	4.457951	-0.179253	-101.359088
6.100000	-0.357856	66.245041	-44.332035	3.119582	-44.332035	3.119582	-0.181935	-102.105409
6.150000	-0.361089	63.638408	-44.299256	1.804919	-44.299256	1.804919	-0.184653	-102.850576
6.200000	-0.364334	61.028010	-44.270510	0.515659	-44.270510	0.515659	-0.187409	-103.594613
6.250000	-0.367595	58.414338	-44.245914	-0.746074	-44.245914	-0.746074	-0.190204	-104.337541
6.300000	-0.370875	55.797849	-44.225678	-1.976912	-44.225678	-1.976912	-0.193039	-105.079361
6.350000	-0.374179	53.179130	-44.209813	-3.174154	-44.209813	-3.174154	-0.195912	-105.820122
6.400000	-0.377513	50.558701	-44.198379	-4.333785	-44.198379	-4.333785	-0.198825	-106.559848
6.450000	-0.380879	47.937091	-44.191372	-5.450979	-44.191372	-5.450979	-0.201779	-107.298562
6.500000	-0.384285	45.314830	-44.188681	-6.520038	-44.188681	-6.520038	-0.204772	-108.036290
6.550000	-0.387734	42.692452	-44.190043	-7.534375	-44.190043	-7.534375	-0.207807	-108.773057
6.600000	-0.391234	40.070489	-44.194980	-8.486596	-44.194980	-8.486596	-0.210883	-109.508889
6.650000	-0.394789	37.449474	-44.202728	-9.368713	-44.202728	-9.368713	-0.214000	-110.243811
6.700000	-0.398406	34.829934	-44.212163	-10.172558	-44.212163	-10.172558	-0.217160	-110.977851
6.750000	-0.402091	32.212392	-44.221735	-10.890442	-44.221735	-10.890442	-0.220362	-111.711034
6.800000	-0.405850	29.597362	-44.229429	-11.516100	-44.229429	-11.516100	-0.223608	-112.443388
6.850000	-0.409690	26.985349	-44.232768	-12.045887	-44.232768	-12.045887	-0.226896	-113.174941
6.900000	-0.413620	24.376892	-44.228788	-12.479142	-44.228788	-12.479142	-0.230229	-113.905711
6.950000	-0.417645	21.772488	-44.214344	-12.821802	-44.214344	-12.821802	-0.233607	-114.635728
7.000000	-0.421773	19.172564	-44.186587	-13.086892	-44.186587	-13.086892	-0.237029	-115.365029
7.050000	-0.426010	16.577569	-44.143057	-13.292328	-44.143057	-13.292328	-0.240496	-116.093643
7.100000	-0.430363	13.987932	-44.082115	-13.460770	-44.082115	-13.460770	-0.244008	-116.821599
7.150000	-0.434841	11.404065	-44.003189	-13.617435	-44.003189	-13.617435	-0.247567	-117.548926
7.200000	-0.439450	8.826356	-43.906858	-13.787312	-43.906858	-13.787312	-0.251171	-118.275654
7.250000	-0.444199	6.255171	-43.794749	-13.992409	-43.794749	-13.992409	-0.254822	-119.001814
7.300000	-0.449094	3.690851	-43.669258	-14.249643	-43.669258	-14.249643	-0.258521	-119.727437
7.350000	-0.454143	1.133712	-43.533199	-14.569760	-43.533199	-14.569760	-0.262266	-120.452552
7.400000	-0.459355	-1.415958	-43.389438	-14.957344	-43.389438	-14.957344	-0.266059	-121.177192
7.450000	-0.464737	-3.957900	-43.240603	-15.411665	-43.240603	-15.411665	-0.269900	-121.901388
7.500000	-0.470297	-6.491884	-43.088896	-15.928011	-43.088896	-15.928011	-0.273790	-122.625172
7.550000	-0.476048	-9.017531	-42.935947	-16.500117	-42.935947	-16.500117	-0.277730	-123.348569
7.600000	-0.481993	-11.534849	-42.783012	-17.118083	-42.783012	-17.118083	-0.281718	-124.071621
7.650000	-0.488143	-14.043709	-42.630762	-17.773206	-42.630762	-17.773206	-0.285757	-124.794360
7.700000	-0.494505	-16.544018	-42.479480	-18.457300	-42.479480	-18.457300	-0.289845	-125.516821
7.750000	-0.501089	-19.035717	-42.329137	-19.163114	-42.329137	-19.163114	-0.293984	-126.239036
7.800000	-0.507904	-21.518788	-42.179477	-19.884549	-42.179477	-19.884549	-0.298173	-126.961041
7.850000	-0.514962	-23.993254	-42.030072	-20.616751	-42.030072	-20.616751	-0.302413	-127.682869
7.900000	-0.522273	-26.459178	-41.880380	-21.356105	-41.880380	-21.356105	-0.306704	-128.404555
7.950000	-0.529849	-28.916672	-41.729784	-22.100205	-41.729784	-22.100205	-0.311047	-129.126135
8.000000	-0.537704	-31.365894	-41.577624	-22.847797	-41.577624	-22.847797	-0.315442	-129.847645
8.050000	-0.545853	-33.807056	-41.423225	-23.598722	-41.423225	-23.598722	-0.319890	-130.569120
8.100000	-0.554313	-36.240428	-41.265915	-24.353871	-41.265915	-24.353871	-0.324389	-131.290596
8.150000	-0.563107	-38.666265	-41.104964	-25.115248	-41.104964	-25.115248	-0.328943	-132.012111
8.200000	-0.572260	-41.084991	-40.939743	-25.885869	-40.939743	-25.885869	-0.333549	-132.733704
8.250000	-0.581795	-43.497179	-40.769779	-26.669573	-40.769779	-26.669573	-0.338210	-133.455411
8.300000	-0.591746	-45.903423	-40.594612	-27.471176	-40.594612	-27.471176	-0.342924	-134.177270
8.350000	-0.602152	-48.304473	-40.413983	-28.296072	-40.413983	-28.296072	-0.347692	-134.899318
8.400000	-0.613066	-50.701126	-40.227604	-29.150774	-40.227604	-29.150774	-0.352514	-135.621593
8.450000	-0.624561	-53.094378	-40.035310	-30.042732	-40.035310	-30.042732	-0.357390	-136.344136
8.500000	-0.636739	-55.485481	-39.836997	-30.980693	-39.836997	-30.980693	-0.362323	-137.066993
8.550000	-0.649707	-57.876062	-39.633173	-31.971832	-39.633173	-31.971832	-0.367311	-137.790196
8.600000	-0.663627	-60.268051	-39.424248	-33.024648	-39.424248	-33.024648	-0.372355	-138.513784
8.650000	-0.678733	-62.663914	-39.210769	-34.147998	-39.210769	-34.147998	-0.377454	-139.237796
8.700000	-0.695359	-65.066860	-38.993386	-35.351297	-38.993386	-35.351297	-0.382610	-139.962273
8.750000	-0.714010	-67.481174	-38.772796	-36.645081	-38.772796	-36.645081	-0.387822	-140.687252
8.800000	-0.735606	-69.913577	-38.549414	-38.046369	-38.549414	-38.046369	-0.393093	-141.412792
8.850000	-0.761430	-72.372187	-38.324155	-39.570416	-38.324155	-39.570416	-0.398422	-142.138913
8.900000	-0.793850	-74.869322	-38.097615	-41.246165	-38.097615	-41.246165	-0.403810	-142.865647
8.950000	-0.837318	-77.422882	-37.870776	-43.123869	-37.870776	-43.123869	-0.409259	-143.593020
9.000000	-0.900586	-80.056272	-37.646588	-45.293241	-37.646588	-45.293241	-0.414770	-144.321034
9.050000	-1.005234	-82.794616	-37.436412	-47.955545	-37.436412	-47.955545	-0.420346	-145.049678
9.100000	-1.204343	-85.564708	-37.289294	-51.505607	-37.289294	-51.505607	-0.425979	-145.778797
9.150000	-1.605477	-87.551385	-37.415465	-56.423156	-37.415465	-56.423156	-0.431605	-146.508022
9.200000	-1.961565	-85.707950	-38.367663	-59.642256	-38.367663	-59.642256	-0.436939	-147.238160
9.250000	-1.457008	-84.514200	-38.965094	-53.181819	-38.965094	-53.181819	-0.442356	-147.973018
9.300000	-1.060128	-87.372121	-38.316378	-49.561297	-38.316378	-49.561297	-0.448265	-148.708382
9.350000	-0.915395	-90.603760	-37.727124	-49.942359	-37.727124	-49.942359	-0.454253	-149.443602
9.400000	-0.865081	-93.570925	-37.315746	-51.364777	-37.315746	-51.364777	-0.460264	-150.179533
9.450000	-0.849866	-96.328972	-37.005040	-53.016155	-37.005040	-53.016155	-0.466308	-150.916497
9.500000	-0.849307	-98.958218	-36.748361	-54.704484	-36.748361	-54.704484	-0.472397	-151.654602
9.550000	-0.855900	-101.506447	-36.523111	-56.384181	-36.523111	-56.384181	-0.478537	-152.393927
9.600000	-0.866329	-104.003195	-36.316933	-58.046109	-36.316933	-58.046109	-0.484731	-153.134536
9.650000	-0.879001	-106.467071	-36.122634	-59.691898	-36.122634	-59.691898	-0.490985	-153.876490
9.700000	-0.893104	-108.910246	-35.935736	-61.326365	-35.935736	-61.326365	-0.497303	-154.619873
9.750000	-0.908193	-111.341267	-35.753224	-62.955423	-35.753224	-62.955423	-0.503694	-155.364811
9.800000	-0.923987	-113.766672	-35.573055	-64.585293	-35.573055	-64.585293	-0.510163	-156.111439
9.850000	-0.940337	-116.191080	-35.393831	-66.221869	-35.393831	-66.221869	-0.516702	-156.860088
9.900000	-0.957151	-118.618184	-35.214545	-67.870962	-35.214545	-67.870962	-0.523225	-157.611130
9.950000	-0.974372	-121.051052	-35.034478	-69.538318	-35.034478	-69.538318	-0.529585	-158.363847
10.000000	-0.991962	-123.492323	-34.853122	-71.229643	-34.853122	-71.229643	-0.535911	-159.116841
