! freq	dB(S11)	phase(S11)	dB(S12)	phase(S12)	
!     	dB(S21)	phase(S21)	dB(S22)	phase(S22)	
!S-par simulation data
#  GHz  S  DB  R 50
0.000000	-0.000000	0.000000	-350.661660	0.000000	-350.661660	0.000000	-0.000000	0.000000
0.050000	-0.000630	-1.080283	-94.653033	88.288380	-94.653033	88.288380	-0.001486	-2.498312
0.100000	-0.002229	-2.156753	-88.651510	86.544006	-88.651510	86.544006	-0.005259	-4.986776
0.150000	-0.004235	-3.228365	-85.166673	84.798674	-85.166673	84.798674	-0.009989	-7.462109
0.200000	-0.006245	-4.296278	-82.720547	83.066092	-82.720547	83.066092	-0.014718	-9.926350
0.250000	-0.008080	-5.361862	-80.851477	81.352278	-80.851477	81.352278	-0.019024	-12.381927
0.300000	-0.009710	-6.426179	-79.353844	79.662049	-79.353844	79.662049	-0.022826	-14.830545
0.350000	-0.011169	-7.489814	-78.116260	77.999149	-78.116260	77.999149	-0.026206	-17.273001
0.400000	-0.012498	-8.552970	-77.073610	76.368597	-77.073610	76.368597	-0.029256	-19.709051
0.450000	-0.013734	-9.615665	-76.185887	74.777680	-76.185887	74.777680	-0.032056	-22.137744
0.500000	-0.014912	-10.677868	-75.422113	73.230490	-75.422113	73.230490	-0.034693	-24.558634
0.550000	-0.016055	-11.739497	-74.762032	71.733416	-74.762032	71.733416	-0.037218	-26.970888
0.600000	-0.017181	-12.800420	-74.192947	70.296603	-74.192947	70.296603	-0.039668	-29.373187
0.650000	-0.018304	-13.860559	-73.702012	68.926364	-73.702012	68.926364	-0.042076	-31.765027
0.700000	-0.019433	-14.919832	-73.280198	67.631044	-73.280198	67.631044	-0.044462	-34.145743
0.750000	-0.020574	-15.978118	-72.922204	66.423706	-72.922204	66.423706	-0.046837	-36.514229
0.800000	-0.021732	-17.035335	-72.622563	65.316551	-72.622563	65.316551	-0.049211	-38.869794
0.850000	-0.022909	-18.091415	-72.376414	64.322384	-72.376414	64.322384	-0.051589	-41.211932
0.900000	-0.024106	-19.146289	-72.180099	63.456840	-72.180099	63.456840	-0.053972	-43.540075
0.950000	-0.025324	-20.199882	-72.030777	62.738829	-72.030777	62.738829	-0.056359	-45.853605
1.000000	-0.026563	-21.252130	-71.925761	62.189785	-71.925761	62.189785	-0.058750	-48.152004
1.050000	-0.027821	-22.302971	-71.862497	61.834543	-71.862497	61.834543	-0.061142	-50.434796
1.100000	-0.029098	-23.352349	-71.838345	61.701828	-71.838345	61.701828	-0.063530	-52.701550
1.150000	-0.030393	-24.400207	-71.850339	61.824687	-71.850339	61.824687	-0.065911	-54.951877
1.200000	-0.031703	-25.446496	-71.894869	62.240755	-71.894869	62.240755	-0.068282	-57.185430
1.250000	-0.033027	-26.491165	-71.967300	62.992158	-71.967300	62.992158	-0.070637	-59.401901
1.300000	-0.034364	-27.534133	-72.061752	64.134113	-72.061752	64.134113	-0.072973	-61.600639
1.350000	-0.035711	-28.575390	-72.169250	65.706852	-72.169250	65.706852	-0.075285	-63.781789
1.400000	-0.037066	-29.614896	-72.278717	67.755201	-72.278717	67.755201	-0.077570	-65.945160
1.450000	-0.038429	-30.652612	-72.375876	70.314544	-72.375876	70.314544	-0.079825	-68.090595
1.500000	-0.039796	-31.688501	-72.443128	73.400997	-72.443128	73.400997	-0.082047	-70.217972
1.550000	-0.041167	-32.722528	-72.460151	76.999252	-72.460151	76.999252	-0.084232	-72.327202
1.600000	-0.042541	-33.754661	-72.405605	81.050775	-72.405605	81.050775	-0.086379	-74.418225
1.650000	-0.043915	-34.784867	-72.260029	85.447229	-72.260029	85.447229	-0.088487	-76.491012
1.700000	-0.045289	-35.813117	-72.009430	90.034695	-72.009430	90.034695	-0.090553	-78.545559
1.750000	-0.046661	-36.839384	-71.648369	94.631329	-71.648369	94.631329	-0.092576	-80.581891
1.800000	-0.048031	-37.863639	-71.181193	99.054752	-71.181193	99.054752	-0.094556	-82.600057
1.850000	-0.049398	-38.885859	-70.620823	103.149782	-70.620823	103.149782	-0.096493	-84.600128
1.900000	-0.050762	-39.905996	-69.984508	106.801324	-69.984508	106.801324	-0.098387	-86.582004
1.950000	-0.052120	-40.924026	-69.292906	109.949581	-69.292906	109.949581	-0.100237	-88.545803
2.000000	-0.053475	-41.939951	-68.566455	112.586046	-68.566455	112.586046	-0.102045	-90.491855
2.050000	-0.054824	-42.953750	-67.821444	114.727967	-67.821444	114.727967	-0.103812	-92.420312
2.100000	-0.056168	-43.965402	-67.070731	116.411078	-67.070731	116.411078	-0.105540	-94.331340
2.150000	-0.057508	-44.974890	-66.323890	117.680018	-66.323890	117.680018	-0.107229	-96.225122
2.200000	-0.058842	-45.982196	-65.587707	118.581782	-65.587707	118.581782	-0.108883	-98.101855
2.250000	-0.060172	-46.987301	-64.866756	119.161771	-64.866756	119.161771	-0.110502	-99.961746
2.300000	-0.061498	-47.990192	-64.163947	119.461721	-64.163947	119.461721	-0.112089	-101.805016
2.350000	-0.062820	-48.990851	-63.480977	119.518862	-63.480977	119.518862	-0.113647	-103.631894
2.400000	-0.064139	-49.989264	-62.818678	119.365782	-62.818678	119.365782	-0.115177	-105.442619
2.450000	-0.065455	-50.985418	-62.177286	119.030682	-62.177286	119.030682	-0.116681	-107.237440
2.500000	-0.066769	-51.979298	-61.556633	118.537807	-61.556633	118.537807	-0.118164	-109.016610
2.550000	-0.068083	-52.970818	-60.955614	117.903980	-60.955614	117.903980	-0.119626	-110.779898
2.600000	-0.069395	-53.960040	-60.374421	117.151966	-60.374421	117.151966	-0.121070	-112.528084
2.650000	-0.070709	-54.946952	-59.812325	116.296740	-59.812325	116.296740	-0.122501	-114.261440
2.700000	-0.072024	-55.931544	-59.268552	115.351153	-59.268552	115.351153	-0.123919	-115.980242
2.750000	-0.073342	-56.913806	-58.742312	114.326257	-58.742312	114.326257	-0.125328	-117.684772
2.800000	-0.074663	-57.893728	-58.232818	113.231576	-58.232818	113.231576	-0.126730	-119.375314
2.850000	-0.075989	-58.871302	-57.739302	112.075344	-57.739302	112.075344	-0.128128	-121.052152
2.900000	-0.077320	-59.846519	-57.261022	110.864698	-57.261022	110.864698	-0.129524	-122.715576
2.950000	-0.078658	-60.819373	-56.797267	109.605843	-56.797267	109.605843	-0.130921	-124.365873
3.000000	-0.080003	-61.789856	-56.347362	108.304191	-56.347362	108.304191	-0.132320	-126.003335
3.050000	-0.081357	-62.757963	-55.910665	106.964474	-55.910665	106.964474	-0.133725	-127.628253
3.100000	-0.082721	-63.723688	-55.486573	105.590844	-55.486573	105.590844	-0.135137	-129.240917
3.150000	-0.084095	-64.687026	-55.074514	104.186955	-55.074514	104.186955	-0.136557	-130.841618
3.200000	-0.085481	-65.647974	-54.673950	102.756028	-54.673950	102.756028	-0.137989	-132.430647
3.250000	-0.086880	-66.606528	-54.284375	101.300915	-54.284375	101.300915	-0.139434	-134.008294
3.300000	-0.088292	-67.562685	-53.905313	99.824145	-53.905313	99.824145	-0.140894	-135.574847
3.350000	-0.089719	-68.516444	-53.536318	98.327966	-53.536318	98.327966	-0.142370	-137.130595
3.400000	-0.091161	-69.467803	-53.176967	96.814383	-53.176967	96.814383	-0.143864	-138.675824
3.450000	-0.092620	-70.416764	-52.826864	95.285188	-52.826864	95.285188	-0.145377	-140.210817
3.500000	-0.094096	-71.363324	-52.485637	93.741984	-52.485637	93.741984	-0.146911	-141.735859
3.550000	-0.095590	-72.307488	-52.152934	92.186210	-52.152934	92.186210	-0.148466	-143.251229
3.600000	-0.097103	-73.249255	-51.828424	90.619162	-51.828424	90.619162	-0.150044	-144.757208
3.650000	-0.098635	-74.188630	-51.511795	89.042004	-51.511795	89.042004	-0.151646	-146.254070
3.700000	-0.100188	-75.125616	-51.202751	87.455791	-51.202751	87.455791	-0.153273	-147.742092
3.750000	-0.101762	-76.060218	-50.901016	85.861473	-50.901016	85.861473	-0.154925	-149.221545
3.800000	-0.103358	-76.992339	-50.606196	84.259635	-50.606196	84.259635	-0.156604	-150.692351
3.850000	-0.104976	-77.922088	-50.318192	82.651401	-50.318192	82.651401	-0.158311	-152.155149
3.900000	-0.106618	-78.849472	-50.036765	81.037473	-50.036765	81.037473	-0.160044	-153.610202
3.950000	-0.108283	-79.774501	-49.761691	79.418489	-49.761691	79.418489	-0.161806	-155.057774
4.000000	-0.109971	-80.697184	-49.492758	77.795032	-49.492758	77.795032	-0.163595	-156.498122
4.050000	-0.111684	-81.617530	-49.229765	76.167633	-49.229765	76.167633	-0.165412	-157.931503
4.100000	-0.113422	-82.535550	-48.972520	74.536779	-48.972520	74.536779	-0.167258	-159.358170
4.150000	-0.115185	-83.451257	-48.720843	72.902915	-48.720843	72.902915	-0.169133	-160.778375
4.200000	-0.116974	-84.364662	-48.474560	71.266446	-48.474560	71.266446	-0.171036	-162.192364
4.250000	-0.118789	-85.275781	-48.233509	69.627747	-48.233509	69.627747	-0.172967	-163.600385
4.300000	-0.120630	-86.184627	-47.997533	67.987161	-47.997533	67.987161	-0.174927	-165.002678
4.350000	-0.122498	-87.091216	-47.766485	66.345002	-47.766485	66.345002	-0.176915	-166.399485
4.400000	-0.124392	-87.995564	-47.540224	64.701558	-47.540224	64.701558	-0.178931	-167.791042
4.450000	-0.126315	-88.897689	-47.318616	63.057098	-47.318616	63.057098	-0.180974	-169.177584
4.500000	-0.128264	-89.797608	-47.101532	61.411866	-47.101532	61.411866	-0.183045	-170.559342
4.550000	-0.130242	-90.695341	-46.888852	59.766087	-46.888852	59.766087	-0.185142	-171.936546
4.600000	-0.132247	-91.590907	-46.680460	58.119972	-46.680460	58.119972	-0.187266	-173.309421
4.650000	-0.134281	-92.484327	-46.476243	56.473712	-46.476243	56.473712	-0.189416	-174.678192
4.700000	-0.136343	-93.375622	-46.276098	54.827486	-46.276098	54.827486	-0.191592	-176.043080
4.750000	-0.138434	-94.264815	-46.079924	53.181459	-46.079924	53.181459	-0.193792	-177.404303
4.800000	-0.140555	-95.151930	-45.887623	51.535783	-45.887623	51.535783	-0.196017	-178.762076
4.850000	-0.142704	-96.036988	-45.699105	49.890601	-45.699105	49.890601	-0.198266	179.883385
4.900000	-0.144883	-96.920017	-45.514282	48.246045	-45.514282	48.246045	-0.200538	178.531872
4.950000	-0.147092	-97.801040	-45.333070	46.602236	-45.333070	46.602236	-0.202833	177.183176
5.000000	-0.149330	-98.680084	-45.155389	44.959291	-45.155389	44.959291	-0.205149	175.837091
5.050000	-0.151600	-99.557092	-44.981162	43.317361	-44.981162	43.317361	-0.207488	174.493509
5.100000	-0.153901	-100.432179	-44.810322	41.676509	-44.810322	41.676509	-0.209847	173.152116
5.150000	-0.156232	-101.305371	-44.642799	40.036828	-44.642799	40.036828	-0.212226	171.812715
5.200000	-0.158594	-102.176699	-44.478527	38.398405	-44.478527	38.398405	-0.214624	170.475109
5.250000	-0.160988	-103.046192	-44.317442	36.761324	-44.317442	36.761324	-0.217041	169.139106
5.300000	-0.163413	-103.913881	-44.159482	35.125661	-44.159482	35.125661	-0.219476	167.804515
5.350000	-0.165870	-104.779795	-44.004590	33.491492	-44.004590	33.491492	-0.221927	166.471148
5.400000	-0.168359	-105.643967	-43.852708	31.858888	-43.852708	31.858888	-0.224396	165.138819
5.450000	-0.170881	-106.506428	-43.703784	30.227915	-43.703784	30.227915	-0.226880	163.807344
5.500000	-0.173435	-107.367212	-43.557766	28.598639	-43.557766	28.598639	-0.229379	162.476542
5.550000	-0.176023	-108.226350	-43.414605	26.971123	-43.414605	26.971123	-0.231893	161.146235
5.600000	-0.178644	-109.083878	-43.274254	25.345428	-43.274254	25.345428	-0.234421	159.816246
5.650000	-0.181300	-109.939828	-43.136669	23.721611	-43.136669	23.721611	-0.236963	158.486401
5.700000	-0.183990	-110.794236	-43.001805	22.099731	-43.001805	22.099731	-0.239517	157.156528
5.750000	-0.186715	-111.647136	-42.869622	20.479844	-42.869622	20.479844	-0.242084	155.826458
5.800000	-0.189475	-112.498563	-42.740079	18.862005	-42.740079	18.862005	-0.244662	154.496024
5.850000	-0.192270	-113.348554	-42.613139	17.246269	-42.613139	17.246269	-0.247252	153.165060
5.900000	-0.195102	-114.197145	-42.488764	15.632688	-42.488764	15.632688	-0.249853	151.833405
5.950000	-0.197971	-115.044373	-42.366919	14.021316	-42.366919	14.021316	-0.252465	150.500899
6.000000	-0.200877	-115.890273	-42.247571	12.412207	-42.247571	12.412207	-0.255086	149.167384
6.050000	-0.203820	-116.734885	-42.130685	10.805412	-42.130685	10.805412	-0.257718	147.832704
6.100000	-0.206802	-117.578245	-42.016231	9.200984	-42.016231	9.200984	-0.260359	146.496708
6.150000	-0.209822	-118.420391	-41.904176	7.598975	-41.904176	7.598975	-0.263010	145.159244
6.200000	-0.212882	-119.261362	-41.794492	5.999438	-41.794492	5.999438	-0.265670	143.820165
6.250000	-0.215981	-120.101196	-41.687149	4.402423	-41.687149	4.402423	-0.268339	142.479325
6.300000	-0.219122	-120.939887	-41.582165	2.808098	-41.582165	2.808098	-0.271018	141.136491
6.350000	-0.222304	-121.777524	-41.479468	1.216404	-41.479468	1.216404	-0.273706	139.791600
6.400000	-0.225527	-122.614145	-41.379031	-0.372608	-41.379031	-0.372608	-0.276403	138.444515
6.450000	-0.228792	-123.449791	-41.280827	-1.958887	-41.280827	-1.958887	-0.279110	137.095100
6.500000	-0.232100	-124.284502	-41.184830	-3.542382	-41.184830	-3.542382	-0.281827	135.743222
6.550000	-0.235450	-125.118318	-41.091015	-5.123045	-41.091015	-5.123045	-0.284553	134.388751
6.600000	-0.238844	-125.951280	-40.999355	-6.700826	-40.999355	-6.700826	-0.287290	133.031561
6.650000	-0.242281	-126.783430	-40.909824	-8.275679	-40.909824	-8.275679	-0.290038	131.671525
6.700000	-0.245763	-127.614808	-40.822397	-9.847558	-40.822397	-9.847558	-0.292798	130.308523
6.750000	-0.249290	-128.445456	-40.737050	-11.416418	-40.737050	-11.416418	-0.295569	128.942434
6.800000	-0.252863	-129.275416	-40.653755	-12.982217	-40.653755	-12.982217	-0.298354	127.573142
6.850000	-0.256481	-130.104731	-40.572488	-14.544916	-40.572488	-14.544916	-0.301152	126.200532
6.900000	-0.260145	-130.933442	-40.493223	-16.104479	-40.493223	-16.104479	-0.303965	124.824492
6.950000	-0.263856	-131.761592	-40.415933	-17.660871	-40.415933	-17.660871	-0.306793	123.444915
7.000000	-0.267614	-132.589226	-40.340593	-19.214063	-40.340593	-19.214063	-0.309638	122.061693
7.050000	-0.271420	-133.416385	-40.267175	-20.764030	-40.267175	-20.764030	-0.312502	120.674724
7.100000	-0.275273	-134.243115	-40.195653	-22.310752	-40.195653	-22.310752	-0.315385	119.283906
7.150000	-0.279174	-135.069458	-40.125997	-23.854215	-40.125997	-23.854215	-0.318288	117.889141
7.200000	-0.283124	-135.895461	-40.058180	-25.394409	-40.058180	-25.394409	-0.321215	116.490334
7.250000	-0.287123	-136.721167	-39.992172	-26.931334	-39.992172	-26.931334	-0.324166	115.087391
7.300000	-0.291171	-137.546623	-39.927943	-28.464997	-39.927943	-28.464997	-0.327143	113.680221
7.350000	-0.295268	-138.371874	-39.865462	-29.995412	-39.865462	-29.995412	-0.330149	112.268738
7.400000	-0.299414	-139.196967	-39.804697	-31.522606	-39.804697	-31.522606	-0.333185	110.852853
7.450000	-0.303610	-140.021948	-39.745614	-33.046614	-39.745614	-33.046614	-0.336254	109.432485
7.500000	-0.307856	-140.846864	-39.688180	-34.567484	-39.688180	-34.567484	-0.339359	108.007550
7.550000	-0.312153	-141.671766	-39.632412	-36.085149	-39.632412	-36.085149	-0.342504	106.577763
7.600000	-0.316501	-142.496704	-39.578217	-37.599822	-39.578217	-37.599822	-0.345691	105.143245
7.650000	-0.320899	-143.321728	-39.525557	-39.111599	-39.525557	-39.111599	-0.348922	103.703919
7.700000	-0.325347	-144.146887	-39.474391	-40.620594	-39.474391	-40.620594	-0.352201	102.259710
7.750000	-0.329845	-144.972232	-39.424676	-42.126939	-39.424676	-42.126939	-0.355532	100.810542
7.800000	-0.334393	-145.797813	-39.376369	-43.630792	-39.376369	-43.630792	-0.358919	99.356340
7.850000	-0.338991	-146.623683	-39.329422	-45.132332	-39.329422	-45.132332	-0.362366	97.897031
7.900000	-0.343639	-147.449895	-39.283786	-46.631768	-39.283786	-46.631768	-0.365877	96.432539
7.950000	-0.348337	-148.276500	-39.239410	-48.129339	-39.239410	-48.129339	-0.369458	94.962787
8.000000	-0.353085	-149.103554	-39.196238	-49.625316	-39.196238	-49.625316	-0.373113	93.487696
8.050000	-0.357882	-149.931112	-39.154215	-51.120009	-39.154215	-51.120009	-0.376848	92.007186
8.100000	-0.362729	-150.759229	-39.113278	-52.613771	-39.113278	-52.613771	-0.380670	90.521171
8.150000	-0.367626	-151.587962	-39.073363	-54.106998	-39.073363	-54.106998	-0.384586	89.029561
8.200000	-0.372572	-152.417369	-39.034401	-55.600141	-39.034401	-55.600141	-0.388601	87.532260
8.250000	-0.377566	-153.247509	-38.996318	-57.093709	-38.996318	-57.093709	-0.392726	86.029165
8.300000	-0.382611	-154.078440	-38.959036	-58.588275	-38.959036	-58.588275	-0.396967	84.520162
8.350000	-0.387701	-154.910171	-38.922442	-60.084340	-38.922442	-60.084340	-0.401328	83.005488
8.400000	-0.392841	-155.742834	-38.886493	-61.582769	-38.886493	-61.582769	-0.405829	81.484508
8.450000	-0.398033	-156.576557	-38.851099	-63.084684	-38.851099	-63.084684	-0.410493	79.956681
8.500000	-0.403272	-157.411269	-38.816105	-64.590541	-38.816105	-64.590541	-0.415312	78.422700
8.550000	-0.408560	-158.247118	-38.781414	-66.101761	-38.781414	-66.101761	-0.420314	76.881855
8.600000	-0.413897	-159.084149	-38.746893	-67.619443	-38.746893	-67.619443	-0.425515	75.334053
8.650000	-0.419280	-159.922382	-38.712405	-69.144679	-38.712405	-69.144679	-0.430925	73.779310
8.700000	-0.424715	-160.762012	-38.677772	-70.679889	-38.677772	-70.679889	-0.436591	72.216613
8.750000	-0.430194	-161.602900	-38.642882	-72.225228	-38.642882	-72.225228	-0.442499	70.646810
8.800000	-0.435728	-162.445422	-38.607418	-73.785437	-38.607418	-73.785437	-0.448742	69.067777
8.850000	-0.441306	-163.289336	-38.571316	-75.359895	-38.571316	-75.359895	-0.455291	67.480829
8.900000	-0.446937	-164.134960	-38.534180	-76.953941	-38.534180	-76.953941	-0.462245	65.884034
8.950000	-0.452615	-164.982211	-38.495853	-78.568863	-38.495853	-78.568863	-0.469617	64.277668
9.000000	-0.458344	-165.831234	-38.455955	-80.209285	-38.455955	-80.209285	-0.477491	62.660572
9.050000	-0.464124	-166.682144	-38.414083	-81.880132	-38.414083	-81.880132	-0.485953	61.031626
9.100000	-0.469954	-167.534876	-38.370000	-83.584018	-38.370000	-83.584018	-0.495052	59.390704
9.150000	-0.475840	-168.389781	-38.322818	-85.332347	-38.322818	-85.332347	-0.505006	57.734707
9.200000	-0.481774	-169.246587	-38.272554	-87.124639	-38.272554	-87.124639	-0.515815	56.064671
9.250000	-0.487768	-170.105794	-38.217715	-88.980240	-38.217715	-88.980240	-0.527872	54.375540
9.300000	-0.493814	-170.967106	-38.158312	-90.899298	-38.158312	-90.899298	-0.541210	52.668246
9.350000	-0.499919	-171.830880	-38.092681	-92.903790	-38.092681	-92.903790	-0.556320	50.937680
9.400000	-0.506083	-172.697069	-38.020024	-95.005203	-38.020024	-95.005203	-0.573514	49.181923
9.450000	-0.512306	-173.565766	-37.938868	-97.224441	-37.938868	-97.224441	-0.593347	47.396965
9.500000	-0.518594	-174.437217	-37.846773	-99.596205	-37.846773	-99.596205	-0.616753	45.575983
9.550000	-0.524943	-175.311207	-37.742958	-102.135535	-37.742958	-102.135535	-0.644299	43.717411
9.600000	-0.531363	-176.188151	-37.622969	-104.908660	-37.622969	-104.908660	-0.677924	41.809256
9.650000	-0.537853	-177.068075	-37.483323	-107.974975	-37.483323	-107.974975	-0.719664	39.843364
9.700000	-0.544418	-177.951041	-37.319510	-111.416971	-37.319510	-111.416971	-0.772476	37.809944
9.750000	-0.551059	-178.837153	-37.125420	-115.356211	-37.125420	-115.356211	-0.840874	35.697409
9.800000	-0.557781	-179.726518	-36.893315	-119.970146	-36.893315	-119.970146	-0.931694	33.494872
9.850000	-0.564588	179.380756	-36.613839	-125.526799	-36.613839	-125.526799	-1.055429	31.197228
9.900000	-0.571483	178.484585	-36.277841	-132.431248	-36.277841	-132.431248	-1.227748	28.818418
9.950000	-0.578473	177.584795	-35.879209	-141.400470	-35.879209	-141.400470	-1.474175	26.422227
10.000000	-0.585563	176.681307	-35.438950	-153.563971	-35.438950	-153.563971	-1.827667	24.200146
