! freq	dB(S11)	phase(S11)	dB(S12)	phase(S12)	
!     	dB(S21)	phase(S21)	dB(S22)	phase(S22)	
!S-par simulation data
#  GHz  S  DB  R 50
0.000000	-0.000000	-0.000000	-329.467708	180.000000	-329.467708	180.000000	0.000000	-0.000000
0.050000	-0.000120	-1.066768	-106.437836	92.467626	-106.437836	92.467626	-0.000104	-0.900356
0.100000	-0.000476	-2.133263	-100.832804	92.138120	-100.832804	92.138120	-0.000413	-1.800475
0.150000	-0.001058	-3.199231	-97.584373	90.781634	-97.584373	90.781634	-0.000917	-2.700134
0.200000	-0.001845	-4.264447	-95.273196	89.335595	-95.273196	89.335595	-0.001598	-3.599143
0.250000	-0.002830	-5.328651	-93.492361	88.003151	-93.492361	88.003151	-0.002447	-4.497280
0.300000	-0.003971	-6.391768	-92.057705	86.790488	-92.057705	86.790488	-0.003427	-5.394487
0.350000	-0.005250	-7.453632	-90.873856	85.691887	-90.873856	85.691887	-0.004523	-6.290632
0.400000	-0.006644	-8.514151	-89.881964	84.697186	-89.881964	84.697186	-0.005711	-7.185645
0.450000	-0.008126	-9.573262	-89.043730	83.801496	-89.043730	83.801496	-0.006971	-8.079486
0.500000	-0.009676	-10.630931	-88.332962	83.005296	-88.332962	83.005296	-0.008283	-8.972137
0.550000	-0.011273	-11.687145	-87.731119	82.313769	-87.731119	82.313769	-0.009630	-9.863599
0.600000	-0.012900	-12.741908	-87.224737	81.736357	-87.224737	81.736357	-0.010998	-10.753888
0.650000	-0.014542	-13.795233	-86.803863	81.286679	-86.803863	81.286679	-0.012374	-11.643026
0.700000	-0.016187	-14.847143	-86.461041	80.982787	-86.461041	80.982787	-0.013748	-12.531040
0.750000	-0.017827	-15.897661	-86.190604	80.847745	-86.190604	80.847745	-0.015115	-13.417959
0.800000	-0.019455	-16.946812	-85.988154	80.910510	-85.988154	80.910510	-0.016468	-14.303811
0.850000	-0.021064	-17.994619	-85.850114	81.207142	-85.850114	81.207142	-0.017804	-15.188619
0.900000	-0.022653	-19.041101	-85.773287	81.782336	-85.773287	81.782336	-0.019121	-16.072405
0.950000	-0.024218	-20.086272	-85.754349	82.691233	-85.754349	82.691233	-0.020417	-16.955184
1.000000	-0.025760	-21.130144	-85.789179	84.001343	-85.789179	84.001343	-0.021692	-17.836968
1.050000	-0.027277	-22.172721	-85.871926	85.794166	-85.871926	85.794166	-0.022947	-18.717763
1.100000	-0.028771	-23.214006	-85.993683	88.165533	-85.993683	88.165533	-0.024183	-19.597572
1.150000	-0.030242	-24.253993	-86.140662	91.222822	-86.140662	91.222822	-0.025400	-20.476392
1.200000	-0.031691	-25.292677	-86.291906	95.075783	-86.291906	95.075783	-0.026600	-21.354219
1.250000	-0.033121	-26.330047	-86.416990	99.816242	-86.416990	99.816242	-0.027785	-22.231043
1.300000	-0.034532	-27.366029	-86.469718	105.518352	-86.469718	105.518352	-0.028955	-23.106809
1.350000	-0.035926	-28.400665	-86.401992	112.056998	-86.401992	112.056998	-0.030112	-23.981545
1.400000	-0.037305	-29.433936	-86.167242	119.193442	-86.167242	119.193442	-0.031259	-24.855236
1.450000	-0.038672	-30.465820	-85.736108	126.551080	-85.736108	126.551080	-0.032396	-25.727864
1.500000	-0.040027	-31.496297	-85.107619	133.699274	-85.107619	133.699274	-0.033525	-26.599409
1.550000	-0.041372	-32.525342	-84.308982	140.266371	-84.308982	140.266371	-0.034647	-27.469852
1.600000	-0.042709	-33.552933	-83.384334	146.015791	-83.384334	146.015791	-0.035763	-28.339172
1.650000	-0.044039	-34.579045	-82.380670	150.856429	-82.380670	150.856429	-0.036875	-29.207348
1.700000	-0.045363	-35.603654	-81.338216	154.807240	-81.338216	154.807240	-0.037984	-30.074357
1.750000	-0.046682	-36.626735	-80.286873	157.949899	-80.286873	157.949899	-0.039089	-30.940179
1.800000	-0.047998	-37.648264	-79.246713	160.390733	-79.246713	160.390733	-0.040194	-31.804790
1.850000	-0.049312	-38.668217	-78.230102	162.237437	-78.230102	162.237437	-0.041297	-32.668170
1.900000	-0.050624	-39.686570	-77.243975	163.587748	-77.243975	163.587748	-0.042400	-33.530296
1.950000	-0.051936	-40.703300	-76.291683	164.525510	-76.291683	164.525510	-0.043504	-34.391146
2.000000	-0.053248	-41.718383	-75.374322	165.120536	-75.374322	165.120536	-0.044608	-35.250700
2.050000	-0.054561	-42.731800	-74.491627	165.430086	-74.491627	165.430086	-0.045715	-36.108937
2.100000	-0.055876	-43.743527	-73.642547	165.500817	-73.642547	165.500817	-0.046823	-36.965835
2.150000	-0.057194	-44.753545	-72.825612	165.370704	-72.825612	165.370704	-0.047934	-37.821376
2.200000	-0.058514	-45.761834	-72.039158	165.070709	-72.039158	165.070709	-0.049048	-38.675538
2.250000	-0.059839	-46.768376	-71.281460	164.626176	-71.281460	164.626176	-0.050166	-39.528305
2.300000	-0.061168	-47.773152	-70.550817	164.057950	-70.550817	164.057950	-0.051288	-40.379656
2.350000	-0.062501	-48.776147	-69.845591	163.383270	-69.845591	163.383270	-0.052413	-41.229574
2.400000	-0.063840	-49.777344	-69.164238	162.616477	-69.164238	162.616477	-0.053544	-42.078043
2.450000	-0.065185	-50.776729	-68.505312	161.769573	-68.505312	161.769573	-0.054679	-42.925044
2.500000	-0.066536	-51.774288	-67.867469	160.852657	-67.867469	160.852657	-0.055819	-43.770562
2.550000	-0.067895	-52.769927	-67.248426	159.871946	-67.248426	159.871946	-0.056966	-44.614516
2.600000	-0.069261	-53.763715	-66.648202	158.837603	-66.648202	158.837603	-0.058118	-45.456955
2.650000	-0.070635	-54.755641	-66.065722	157.755734	-66.065722	157.755734	-0.059277	-46.297865
2.700000	-0.072017	-55.745695	-65.499997	156.631598	-65.499997	156.631598	-0.060442	-47.137233
2.750000	-0.073408	-56.733870	-64.950117	155.469751	-64.950117	155.469751	-0.061614	-47.975046
2.800000	-0.074809	-57.720158	-64.415239	154.274151	-64.415239	154.274151	-0.062793	-48.811291
2.850000	-0.076219	-58.704552	-63.894590	153.048257	-63.894590	153.048257	-0.063980	-49.645957
2.900000	-0.077639	-59.687047	-63.387453	151.795099	-63.387453	151.795099	-0.065175	-50.479033
2.950000	-0.079071	-60.667640	-62.893163	150.517345	-62.893163	150.517345	-0.066378	-51.310509
3.000000	-0.080513	-61.646326	-62.411106	149.217350	-62.411106	149.217350	-0.067589	-52.140374
3.050000	-0.081967	-62.623105	-61.940711	147.897202	-61.940711	147.897202	-0.068809	-52.968619
3.100000	-0.083433	-63.597974	-61.481448	146.558758	-61.481448	146.558758	-0.070039	-53.795237
3.150000	-0.084912	-64.570933	-61.032822	145.203675	-61.032822	145.203675	-0.071279	-54.620219
3.200000	-0.086404	-65.541984	-60.594373	143.833434	-60.594373	143.833434	-0.072528	-55.443557
3.250000	-0.087910	-66.511129	-60.165670	142.449364	-60.165670	142.449364	-0.073788	-56.265245
3.300000	-0.089430	-67.478369	-59.746311	141.052663	-59.746311	141.052663	-0.075058	-57.085277
3.350000	-0.090964	-68.443710	-59.335919	139.644410	-59.335919	139.644410	-0.076340	-57.903648
3.400000	-0.092514	-69.407156	-58.934140	138.225581	-58.934140	138.225581	-0.077634	-58.720351
3.450000	-0.094080	-70.368713	-58.540643	136.797061	-58.540643	136.797061	-0.078939	-59.535384
3.500000	-0.095662	-71.328388	-58.155115	135.359655	-58.155115	135.359655	-0.080257	-60.348742
3.550000	-0.097260	-72.286188	-57.777262	133.914095	-57.777262	133.914095	-0.081588	-61.160422
3.600000	-0.098876	-73.242123	-57.406807	132.461052	-57.406807	132.461052	-0.082932	-61.970421
3.650000	-0.100510	-74.196202	-57.043488	131.001136	-57.043488	131.001136	-0.084290	-62.778737
3.700000	-0.102163	-75.148436	-56.687059	129.534908	-56.687059	129.534908	-0.085663	-63.585369
3.750000	-0.103835	-76.098836	-56.337286	128.062885	-56.337286	128.062885	-0.087050	-64.390316
3.800000	-0.105527	-77.047337	-55.993637	126.585328	-55.993637	126.585328	-0.088452	-65.193504
3.850000	-0.107239	-77.994031	-55.656236	125.102924	-55.656236	125.102924	-0.089871	-65.995006
3.900000	-0.108972	-78.938933	-55.324883	123.616071	-55.324883	123.616071	-0.091306	-66.794824
3.950000	-0.110727	-79.882059	-54.999386	122.125140	-54.999386	122.125140	-0.092757	-67.592959
4.000000	-0.112504	-80.823424	-54.679563	120.630474	-54.679563	120.630474	-0.094225	-68.389413
4.050000	-0.114303	-81.763047	-54.365243	119.132392	-54.365243	119.132392	-0.095712	-69.184188
4.100000	-0.116126	-82.700944	-54.056261	117.631191	-54.056261	117.631191	-0.097216	-69.977287
4.150000	-0.117972	-83.637135	-53.752459	116.127148	-53.752459	116.127148	-0.098738	-70.768714
4.200000	-0.119842	-84.571640	-53.453690	114.620523	-53.453690	114.620523	-0.100280	-71.558473
4.250000	-0.121738	-85.504479	-53.159809	113.111556	-53.159809	113.111556	-0.101842	-72.346568
4.300000	-0.123659	-86.435673	-52.870680	111.600476	-52.870680	111.600476	-0.103423	-73.133005
4.350000	-0.125606	-87.365246	-52.586173	110.087495	-52.586173	110.087495	-0.105025	-73.917790
4.400000	-0.127580	-88.293220	-52.306163	108.572813	-52.306163	108.572813	-0.106648	-74.700928
4.450000	-0.129581	-89.219619	-52.030530	107.056619	-52.030530	107.056619	-0.108292	-75.482427
4.500000	-0.131610	-90.144468	-51.759160	105.539092	-51.759160	105.539092	-0.109959	-76.262294
4.550000	-0.133667	-91.067793	-51.491943	104.020399	-51.491943	104.020399	-0.111648	-77.040537
4.600000	-0.135754	-91.989620	-51.228772	102.500700	-51.228772	102.500700	-0.113360	-77.817165
4.650000	-0.137870	-92.909976	-50.969546	100.980147	-50.969546	100.980147	-0.115095	-78.592186
4.700000	-0.140016	-93.828890	-50.714168	99.458883	-50.714168	99.458883	-0.116854	-79.365610
4.750000	-0.142193	-94.746390	-50.462543	97.937046	-50.462543	97.937046	-0.118638	-80.137447
4.800000	-0.144401	-95.662506	-50.214582	96.414765	-50.214582	96.414765	-0.120447	-80.907708
4.850000	-0.146641	-96.577269	-49.970196	94.892166	-49.970196	94.892166	-0.122281	-81.676405
4.900000	-0.148914	-97.490710	-49.729302	93.369369	-49.729302	93.369369	-0.124141	-82.443548
4.950000	-0.151219	-98.402860	-49.491819	91.846489	-49.491819	91.846489	-0.126027	-83.209151
5.000000	-0.153559	-99.313754	-49.257668	90.323636	-49.257668	90.323636	-0.127940	-83.973227
5.050000	-0.155933	-100.223371	-49.026648	88.800927	-49.026648	88.800927	-0.129882	-84.735724
5.100000	-0.158343	-101.131803	-48.798820	87.278465	-48.798820	87.278465	-0.131851	-85.496722
5.150000	-0.160788	-102.039084	-48.574111	85.756349	-48.574111	85.756349	-0.133848	-86.256238
5.200000	-0.163268	-102.945249	-48.352453	84.234675	-48.352453	84.234675	-0.135875	-87.014286
5.250000	-0.165785	-103.850337	-48.133779	82.713539	-48.133779	82.713539	-0.137930	-87.770882
5.300000	-0.168339	-104.754384	-47.918022	81.193033	-47.918022	81.193033	-0.140015	-88.526044
5.350000	-0.170930	-105.657428	-47.705121	79.673246	-47.705121	79.673246	-0.142130	-89.279789
5.400000	-0.173559	-106.559510	-47.495013	78.154270	-47.495013	78.154270	-0.144275	-90.032136
5.450000	-0.176226	-107.460667	-47.287638	76.636191	-47.287638	76.636191	-0.146452	-90.783102
5.500000	-0.178933	-108.360942	-47.082939	75.119097	-47.082939	75.119097	-0.148660	-91.532709
5.550000	-0.181679	-109.260375	-46.880858	73.603075	-46.880858	73.603075	-0.150899	-92.280976
5.600000	-0.184464	-110.159008	-46.681340	72.088213	-46.681340	72.088213	-0.153171	-93.027925
5.650000	-0.187290	-111.056885	-46.484329	70.574597	-46.484329	70.574597	-0.155476	-93.773578
5.700000	-0.190157	-111.954047	-46.289774	69.062316	-46.289774	69.062316	-0.157815	-94.517958
5.750000	-0.193066	-112.850541	-46.097622	67.551458	-46.097622	67.551458	-0.160186	-95.261089
5.800000	-0.196016	-113.746411	-45.907820	66.042114	-45.907820	66.042114	-0.162593	-96.002995
5.850000	-0.199009	-114.641702	-45.720320	64.534379	-45.720320	64.534379	-0.165033	-96.743704
5.900000	-0.202044	-115.536461	-45.535070	63.028346	-45.535070	63.028346	-0.167510	-97.483241
5.950000	-0.205123	-116.430735	-45.352021	61.524115	-45.352021	61.524115	-0.170021	-98.221635
6.000000	-0.208245	-117.324573	-45.171125	60.021790	-45.171125	60.021790	-0.172569	-98.958916
6.050000	-0.211412	-118.218023	-44.992333	58.521478	-44.992333	58.521478	-0.175154	-99.695114
6.100000	-0.214623	-119.111134	-44.815595	57.023294	-44.815595	57.023294	-0.177776	-100.430261
6.150000	-0.217880	-120.003956	-44.640864	55.527357	-44.640864	55.527357	-0.180437	-101.164393
6.200000	-0.221182	-120.896542	-44.468090	54.033797	-44.468090	54.033797	-0.183135	-101.897544
6.250000	-0.224530	-121.788941	-44.297223	52.542752	-44.297223	52.542752	-0.185873	-102.629752
6.300000	-0.227950	-122.681164	-44.127394	51.055979	-44.127394	51.055979	-0.188674	-103.360574
6.350000	-0.231371	-123.573388	-43.960823	49.569205	-43.960823	49.569205	-0.191475	-104.091396
6.400000	-0.234882	-124.465576	-43.794689	48.088241	-43.794689	48.088241	-0.194356	-104.820673
6.450000	-0.238403	-125.357760	-43.631433	46.607805	-43.631433	46.607805	-0.197244	-105.549810
6.500000	-0.242006	-126.250113	-43.468756	45.133424	-43.468756	45.133424	-0.200208	-106.277731
6.550000	-0.245627	-127.142499	-43.308592	43.660254	-43.308592	43.660254	-0.203188	-107.005407
6.600000	-0.249324	-128.035222	-43.149111	42.193413	-43.149111	42.193413	-0.206239	-107.732188
6.650000	-0.253047	-128.928057	-42.991781	40.728683	-42.991781	40.728683	-0.209316	-108.458670
6.700000	-0.256828	-129.821267	-42.835561	39.269377	-42.835561	39.269377	-0.212449	-109.184644
6.750000	-0.260658	-130.714827	-42.680677	37.814864	-42.680677	37.814864	-0.215632	-109.910251
6.800000	-0.264538	-131.608808	-42.526982	36.365761	-42.526982	36.365761	-0.218868	-110.635560
6.850000	-0.268482	-132.503412	-42.373956	34.924257	-42.373956	34.924257	-0.222174	-111.360685
6.900000	-0.272470	-133.398505	-42.222102	33.488641	-42.222102	33.488641	-0.225533	-112.085807
6.950000	-0.276503	-134.294111	-42.071341	32.059245	-42.071341	32.059245	-0.228946	-112.810987
7.000000	-0.280600	-135.190553	-41.920748	30.640121	-41.920748	30.640121	-0.232444	-113.536473
7.050000	-0.284750	-136.087763	-41.770474	29.230907	-41.770474	29.230907	-0.236023	-114.262487
7.100000	-0.288947	-136.985662	-41.620675	27.831027	-41.620675	27.831027	-0.239677	-114.989114
7.150000	-0.293194	-137.884351	-41.470997	26.442191	-41.470997	26.442191	-0.243419	-115.716563
7.200000	-0.297513	-138.784274	-41.319639	25.072585	-41.319639	25.072585	-0.247314	-116.445812
7.250000	-0.301879	-139.685065	-41.167455	23.718290	-41.167455	23.718290	-0.251336	-117.176746
7.300000	-0.306294	-140.586748	-41.014118	22.380786	-41.014118	22.380786	-0.255503	-117.909642
7.350000	-0.310775	-141.489721	-40.857169	21.070516	-40.857169	21.070516	-0.259915	-118.646033
7.400000	-0.315318	-142.393985	-40.694736	19.793489	-40.694736	19.793489	-0.264669	-119.387271
7.450000	-0.319913	-143.299301	-40.526752	18.548103	-40.526752	18.548103	-0.269797	-120.133581
7.500000	-0.324560	-144.205689	-40.352381	17.337513	-40.352381	17.337513	-0.275362	-120.885684
7.550000	-0.329284	-145.113718	-40.159265	16.194652	-40.159265	16.194652	-0.282036	-121.650910
7.600000	-0.334066	-146.022937	-39.945902	15.112150	-39.945902	15.112150	-0.290066	-122.430052
7.650000	-0.338913	-146.933448	-39.695471	14.105493	-39.695471	14.105493	-0.300720	-123.231810
7.700000	-0.343819	-147.845078	-39.381870	13.159751	-39.381870	13.159751	-0.316444	-124.067412
7.750000	-0.348750	-148.757415	-38.955373	12.160764	-38.955373	12.160764	-0.343057	-124.952094
7.800000	-0.353577	-149.669639	-38.326230	10.612334	-38.326230	10.612334	-0.395524	-125.889097
7.850000	-0.357719	-150.581208	-37.398105	6.407951	-37.398105	6.407951	-0.513659	-126.709892
7.900000	-0.360240	-151.502505	-36.819300	-4.753144	-36.819300	-4.753144	-0.671486	-126.450959
7.950000	-0.364608	-152.442539	-37.940975	-14.418259	-37.940975	-14.418259	-0.573778	-125.784102
8.000000	-0.370842	-153.375376	-39.011840	-14.506417	-39.011840	-14.506417	-0.441630	-126.422804
8.050000	-0.376858	-154.304289	-39.386940	-12.846521	-39.386940	-12.846521	-0.384298	-127.343586
8.100000	-0.382626	-155.233965	-39.456077	-11.927918	-39.456077	-11.927918	-0.360162	-128.234572
8.150000	-0.388277	-156.165908	-39.405813	-11.797412	-39.405813	-11.797412	-0.350597	-129.073748
8.200000	-0.393901	-157.100206	-39.319709	-12.101803	-39.319709	-12.101803	-0.346478	-129.881647
8.250000	-0.399528	-158.037023	-39.216478	-12.708947	-39.216478	-12.708947	-0.345582	-130.667023
8.300000	-0.405179	-158.976455	-39.106365	-13.521453	-39.106365	-13.521453	-0.346561	-131.436696
8.350000	-0.410866	-159.918695	-38.994031	-14.479111	-38.994031	-14.479111	-0.348718	-132.195103
8.400000	-0.416589	-160.863335	-38.881710	-15.528415	-38.881710	-15.528415	-0.351564	-132.946371
8.450000	-0.422373	-161.811828	-38.770340	-16.670502	-38.770340	-16.670502	-0.355061	-133.690575
8.500000	-0.428201	-162.762906	-38.660466	-17.854464	-38.660466	-17.854464	-0.358845	-134.431773
8.550000	-0.434073	-163.716606	-38.552130	-19.075138	-38.552130	-19.075138	-0.362881	-135.170432
8.600000	-0.440006	-164.673988	-38.445497	-20.333702	-38.445497	-20.333702	-0.367178	-135.906754
8.650000	-0.445996	-165.634944	-38.340549	-21.617558	-38.340549	-21.617558	-0.371660	-136.641910
8.700000	-0.452032	-166.598780	-38.237159	-22.917901	-38.237159	-22.917901	-0.376268	-137.376531
8.750000	-0.458115	-167.565537	-38.135286	-24.232797	-38.135286	-24.232797	-0.380993	-138.110832
8.800000	-0.464272	-168.537263	-38.035064	-25.565451	-38.035064	-25.565451	-0.385876	-138.845387
8.850000	-0.470475	-169.512143	-37.936253	-26.906304	-37.936253	-26.906304	-0.390846	-139.580499
8.900000	-0.476726	-170.490221	-37.838817	-28.254645	-37.838817	-28.254645	-0.395898	-140.316296
8.950000	-0.483036	-171.472463	-37.742782	-29.610935	-37.742782	-29.610935	-0.401050	-141.053258
9.000000	-0.489409	-172.459331	-37.648126	-30.973731	-37.648126	-30.973731	-0.406299	-141.791930
9.050000	-0.495830	-173.449679	-37.554727	-32.340476	-37.554727	-32.340476	-0.411620	-142.532101
9.100000	-0.502300	-174.443550	-37.462552	-33.710778	-37.462552	-33.710778	-0.417010	-143.273894
9.150000	-0.508842	-175.443036	-37.371699	-35.085325	-37.371699	-35.085325	-0.422506	-144.018684
9.200000	-0.515437	-176.446617	-37.282036	-36.462093	-37.282036	-36.462093	-0.428078	-144.765995
9.250000	-0.522080	-177.454009	-37.193516	-37.840629	-37.193516	-37.840629	-0.433721	-145.515804
9.300000	-0.528781	-178.465982	-37.106160	-39.220883	-37.106160	-39.220883	-0.439449	-146.268831
9.350000	-0.535550	-179.483773	-37.020013	-40.602545	-37.020013	-40.602545	-0.445291	-147.026495
9.400000	-0.542367	179.494335	-36.934950	-41.984842	-36.934950	-41.984842	-0.451221	-147.787786
9.450000	-0.549234	178.468297	-36.850951	-43.367635	-36.850951	-43.367635	-0.457241	-148.552917
9.500000	-0.556168	177.436079	-36.768114	-44.750728	-36.768114	-44.750728	-0.463412	-149.324385
9.550000	-0.563158	176.398692	-36.686361	-46.133699	-36.686361	-46.133699	-0.469734	-150.101892
9.600000	-0.570196	175.356861	-36.605630	-47.516414	-36.605630	-47.516414	-0.476205	-150.885009
9.650000	-0.577285	174.310120	-36.525931	-48.898713	-36.525931	-48.898713	-0.482855	-151.674697
9.700000	-0.584443	173.256226	-36.447381	-50.280028	-36.447381	-50.280028	-0.489842	-152.475425
9.750000	-0.591648	172.197587	-36.369823	-51.660492	-36.369823	-51.660492	-0.497127	-153.284558
9.800000	-0.598899	171.134157	-36.293241	-53.040022	-36.293241	-53.040022	-0.504753	-154.102694
9.850000	-0.606210	170.064065	-36.217736	-54.418055	-36.217736	-54.418055	-0.512971	-154.934825
9.900000	-0.613576	168.987591	-36.143280	-55.794415	-36.143280	-55.794415	-0.521999	-155.782782
9.950000	-0.620986	167.906021	-36.069781	-57.169326	-36.069781	-57.169326	-0.531868	-156.644907
10.000000	-0.628440	166.819307	-35.997224	-58.542709	-35.997224	-58.542709	-0.542696	-157.522189
