! freq	dB(S11)	phase(S11)	dB(S12)	phase(S12)	
!     	dB(S21)	phase(S21)	dB(S22)	phase(S22)	
!S-par simulation data
#  GHz  S  DB  R 50
0.000000	-0.000000	0.000000	-314.271580	0.000000	-314.271580	0.000000	-0.000000	0.000000
0.050000	-0.005243	-1.719839	-96.130318	75.031358	-96.130318	75.031358	-0.012512	-1.188202
0.100000	-0.011650	-3.489261	-90.188107	80.402486	-90.188107	80.402486	-0.013203	-2.346624
0.150000	-0.015273	-5.272152	-86.707974	81.286284	-86.707974	81.286284	-0.013544	-3.510998
0.200000	-0.017460	-7.054033	-84.255187	81.064549	-84.255187	81.064549	-0.013906	-4.676725
0.250000	-0.019044	-8.832666	-82.372865	80.395042	-82.372865	80.395042	-0.014336	-5.842741
0.300000	-0.020406	-10.607930	-80.856435	79.512781	-80.856435	79.512781	-0.014846	-7.008596
0.350000	-0.021711	-12.379921	-79.596602	78.520248	-79.596602	78.520248	-0.015436	-8.174042
0.400000	-0.023037	-14.148656	-78.528130	77.470694	-78.528130	77.470694	-0.016106	-9.338906
0.450000	-0.024418	-15.914054	-77.608992	76.395765	-77.608992	76.395765	-0.016853	-10.503054
0.500000	-0.025870	-17.675975	-76.810562	75.316557	-76.810562	75.316557	-0.017675	-11.666370
0.550000	-0.027399	-19.434239	-76.112499	74.248664	-76.112499	74.248664	-0.018568	-12.828749
0.600000	-0.029004	-21.188645	-75.499855	73.204745	-75.499855	73.204745	-0.019529	-13.990096
0.650000	-0.030682	-22.938935	-74.961744	72.196456	-74.961744	72.196456	-0.020553	-15.150310
0.700000	-0.032428	-24.684885	-74.489459	71.234668	-74.489459	71.234668	-0.021637	-16.309303
0.750000	-0.034234	-26.426327	-74.075753	70.329479	-74.075753	70.329479	-0.022776	-17.467010
0.800000	-0.036093	-28.163053	-73.715131	69.491762	-73.715131	69.491762	-0.023965	-18.623356
0.850000	-0.037998	-29.894859	-73.403107	68.733122	-73.403107	68.733122	-0.025201	-19.778271
0.900000	-0.039942	-31.621551	-73.135939	68.066187	-73.135939	68.066187	-0.026478	-20.931689
0.950000	-0.041918	-33.342942	-72.910425	67.504887	-72.910425	67.504887	-0.027794	-22.083546
1.000000	-0.043918	-35.058854	-72.723730	67.064716	-72.723730	67.064716	-0.029144	-23.233783
1.050000	-0.045937	-36.769117	-72.573231	66.762983	-72.573231	66.762983	-0.030523	-24.382344
1.100000	-0.047969	-38.473573	-72.456361	66.619047	-72.456361	66.619047	-0.031929	-25.529176
1.150000	-0.050008	-40.172068	-72.370461	66.654487	-72.370461	66.654487	-0.033357	-26.674228
1.200000	-0.052049	-41.864462	-72.312596	66.893186	-72.312596	66.893186	-0.034804	-27.817453
1.250000	-0.054089	-43.550619	-72.279362	67.361242	-72.279362	67.361242	-0.036268	-28.958806
1.300000	-0.056123	-45.230273	-72.266986	68.092863	-72.266986	68.092863	-0.037745	-30.098203
1.350000	-0.058149	-46.903443	-72.269793	69.112052	-72.269793	69.112052	-0.039232	-31.235642
1.400000	-0.060162	-48.570020	-72.281393	70.447148	-72.281393	70.447148	-0.040727	-32.371088
1.450000	-0.062162	-50.229903	-72.293905	72.123393	-72.293905	72.123393	-0.042228	-33.504504
1.500000	-0.064147	-51.882999	-72.297785	74.159377	-72.297785	74.159377	-0.043732	-34.635856
1.550000	-0.066114	-53.529222	-72.281850	76.562380	-72.281850	76.562380	-0.045238	-35.765112
1.600000	-0.068063	-55.168493	-72.233595	79.322982	-72.233595	79.322982	-0.046744	-36.892241
1.650000	-0.069994	-56.800742	-72.139939	82.409878	-72.139939	82.409878	-0.048249	-38.017215
1.700000	-0.071904	-58.425206	-71.981510	85.786250	-71.981510	85.786250	-0.049750	-39.139791
1.750000	-0.073796	-60.043141	-71.759810	89.321485	-71.759810	89.321485	-0.051249	-40.260347
1.800000	-0.075669	-61.653881	-71.463434	92.939059	-71.463434	92.939059	-0.052744	-41.378669
1.850000	-0.077523	-63.257384	-71.090690	96.528495	-71.090690	96.528495	-0.054234	-42.494733
1.900000	-0.079360	-64.853612	-70.644853	99.982295	-70.644853	99.982295	-0.055718	-43.608519
1.950000	-0.081179	-66.442536	-70.133489	103.207328	-70.133489	103.207328	-0.057198	-44.720003
2.000000	-0.082983	-68.024132	-69.567128	106.132656	-69.567128	106.132656	-0.058671	-45.829168
2.050000	-0.084770	-69.598382	-68.957701	108.712546	-68.957701	108.712546	-0.060139	-46.935993
2.100000	-0.086544	-71.165277	-68.317144	110.925119	-68.317144	110.925119	-0.061602	-48.040462
2.150000	-0.088305	-72.724810	-67.656395	112.768153	-67.656395	112.768153	-0.063059	-49.142558
2.200000	-0.090054	-74.276985	-66.984845	114.253776	-66.984845	114.253776	-0.064512	-50.242265
2.250000	-0.091792	-75.821807	-66.310149	115.403352	-66.310149	115.403352	-0.065960	-51.339568
2.300000	-0.093522	-77.359291	-65.638289	116.243274	-65.638289	116.243274	-0.067404	-52.434454
2.350000	-0.095244	-78.889456	-64.973769	116.801867	-64.973769	116.801867	-0.068845	-53.526911
2.400000	-0.096961	-80.412327	-64.319859	117.107312	-64.319859	117.107312	-0.070284	-54.616927
2.450000	-0.098672	-81.927934	-63.678841	117.186381	-63.678841	117.186381	-0.071720	-55.704491
2.500000	-0.100380	-83.436315	-63.052224	117.063762	-63.052224	117.063762	-0.073156	-56.789595
2.550000	-0.102086	-84.937200	-62.439801	116.754907	-62.439801	116.754907	-0.074592	-57.872122
2.600000	-0.103792	-86.430951	-61.843396	116.288156	-61.843396	116.288156	-0.076028	-58.952171
2.650000	-0.105498	-87.917623	-61.263135	115.680796	-61.263135	115.680796	-0.077466	-60.029738
2.700000	-0.107207	-89.397273	-60.698919	114.948012	-60.698919	114.948012	-0.078907	-61.104817
2.750000	-0.108920	-90.869965	-60.150490	114.103090	-60.150490	114.103090	-0.080352	-62.177404
2.800000	-0.110638	-92.335766	-59.617480	113.157624	-59.617480	113.157624	-0.081802	-63.247497
2.850000	-0.112362	-93.794752	-59.099446	112.121707	-59.099446	112.121707	-0.083257	-64.315093
2.900000	-0.114093	-95.247000	-58.595903	111.004108	-58.595903	111.004108	-0.084719	-65.380192
2.950000	-0.115833	-96.692594	-58.106335	109.812432	-58.106335	109.812432	-0.086189	-66.442795
3.000000	-0.117583	-98.131621	-57.630217	108.553255	-57.630217	108.553255	-0.087668	-67.502903
3.050000	-0.119344	-99.564174	-57.167020	107.232244	-57.167020	107.232244	-0.089156	-68.560521
3.100000	-0.121118	-100.990351	-56.716220	105.854260	-56.716220	105.854260	-0.090656	-69.615651
3.150000	-0.122904	-102.410255	-56.277303	104.423441	-56.277303	104.423441	-0.092168	-70.668300
3.200000	-0.124706	-103.823993	-55.849768	102.943274	-55.849768	102.943274	-0.093692	-71.718474
3.250000	-0.126522	-105.231677	-55.433128	101.416652	-55.433128	101.416652	-0.095231	-72.766182
3.300000	-0.128355	-106.633425	-55.026913	99.845922	-55.026913	99.845922	-0.096785	-73.811432
3.350000	-0.130206	-108.029522	-54.630900	98.234090	-54.630900	98.234090	-0.098354	-74.854306
3.400000	-0.132076	-109.419691	-54.244065	96.579593	-54.244065	96.579593	-0.099941	-75.894643
3.450000	-0.133965	-110.804397	-53.866457	94.885686	-53.866457	94.885686	-0.101546	-76.932597
3.500000	-0.135875	-112.183774	-53.497646	93.152746	-53.497646	93.152746	-0.103169	-77.968183
3.550000	-0.137807	-113.557963	-53.137214	91.380706	-53.137214	91.380706	-0.104812	-79.001417
3.600000	-0.139765	-114.926571	-52.784047	89.564554	-52.784047	89.564554	-0.106477	-80.032061
3.650000	-0.141747	-116.290297	-52.438465	87.707199	-52.438465	87.707199	-0.108164	-81.060379
3.700000	-0.143754	-117.649336	-52.100104	85.807174	-52.100104	85.807174	-0.109874	-82.086408
3.750000	-0.145789	-119.003865	-51.768562	83.862154	-51.768562	83.862154	-0.111606	-83.110170
3.800000	-0.147853	-120.354073	-51.443429	81.869118	-51.443429	81.869118	-0.113362	-84.131691
3.850000	-0.149947	-121.700160	-51.124286	79.824234	-51.124286	79.824234	-0.115144	-85.150999
3.900000	-0.152076	-123.042190	-50.810429	77.720010	-50.810429	77.720010	-0.116951	-86.168031
3.950000	-0.154244	-124.380325	-50.501178	75.547529	-50.501178	75.547529	-0.118788	-87.182761
4.000000	-0.156451	-125.715123	-50.196423	73.303238	-50.196423	73.303238	-0.120651	-88.195386
4.050000	-0.158701	-127.046887	-49.895537	70.977502	-49.895537	70.977502	-0.122543	-89.205949
4.100000	-0.161000	-128.375965	-49.597782	68.558364	-49.597782	68.558364	-0.124465	-90.214499
4.150000	-0.163355	-129.702756	-49.302269	66.030906	-49.302269	66.030906	-0.126416	-91.221088
4.200000	-0.165773	-131.027734	-49.007885	63.376389	-49.007885	63.376389	-0.128399	-92.225781
4.250000	-0.168276	-132.351417	-48.712076	60.554330	-48.712076	60.554330	-0.130418	-93.228491
4.300000	-0.170877	-133.674700	-48.413280	57.539216	-48.413280	57.539216	-0.132472	-94.229445
4.350000	-0.173599	-134.998558	-48.108879	54.292000	-48.108879	54.292000	-0.134563	-95.228804
4.400000	-0.176481	-136.324228	-47.794789	50.755879	-47.794789	50.755879	-0.136694	-96.226716
4.450000	-0.179579	-137.653383	-47.465040	46.854258	-47.465040	46.854258	-0.138871	-97.223379
4.500000	-0.182982	-138.988361	-47.110642	42.481968	-47.110642	42.481968	-0.141101	-98.219061
4.550000	-0.186851	-140.332811	-46.716182	37.476895	-46.716182	37.476895	-0.143397	-99.214147
4.600000	-0.191518	-141.693330	-46.251259	31.559500	-46.251259	31.559500	-0.145792	-100.209289
4.650000	-0.197510	-143.078539	-45.676478	24.436036	-45.676478	24.436036	-0.148331	-101.205552
4.700000	-0.206000	-144.504703	-44.915313	15.595017	-44.915313	15.595017	-0.151123	-102.204720
4.750000	-0.220246	-146.007965	-43.798183	4.085503	-43.798183	4.085503	-0.154483	-103.210690
4.800000	-0.249566	-147.660746	-42.029804	-11.506016	-42.029804	-11.506016	-0.159335	-104.231457
4.850000	-0.334671	-149.643359	-38.968442	-34.563263	-38.968442	-34.563263	-0.169822	-105.286950
4.900000	-0.731162	-151.725830	-33.697092	-78.270250	-33.697092	-78.270250	-0.212084	-106.358476
4.950000	-0.845781	-147.236408	-32.675796	-166.160322	-32.675796	-166.160322	-0.233026	-106.761140
5.000000	-0.368599	-148.940058	-37.512713	145.836231	-37.512713	145.836231	-0.185628	-107.741373
5.050000	-0.271759	-150.967435	-40.267990	122.521344	-40.267990	122.521344	-0.176475	-108.786030
5.100000	-0.243276	-152.636820	-41.707489	107.296443	-41.707489	107.296443	-0.175168	-109.797039
5.150000	-0.232745	-154.138175	-42.474257	96.231728	-42.474257	96.231728	-0.176062	-110.790239
5.200000	-0.228651	-155.555576	-42.887945	87.676049	-42.887945	87.676049	-0.177798	-111.773710
5.250000	-0.227520	-156.924095	-43.096519	80.820291	-43.096519	80.820291	-0.179955	-112.750915
5.300000	-0.227841	-158.263919	-43.189473	75.078506	-43.189473	75.078506	-0.182339	-113.723986
5.350000	-0.229029	-159.584167	-43.207738	70.157946	-43.207738	70.157946	-0.184877	-114.693859
5.400000	-0.230754	-160.890926	-43.177976	65.840329	-43.177976	65.840329	-0.187525	-115.661192
5.450000	-0.232861	-162.187363	-43.114225	62.011548	-43.114225	62.011548	-0.190265	-116.626244
5.500000	-0.235187	-163.477636	-43.031778	58.491756	-43.031778	58.491756	-0.193069	-117.589683
5.550000	-0.237699	-164.762714	-42.934548	55.246371	-42.934548	55.246371	-0.195934	-118.551551
5.600000	-0.240354	-166.043951	-42.827165	52.219714	-42.827165	52.219714	-0.198853	-119.512028
5.650000	-0.243122	-167.322375	-42.712849	49.370033	-42.712849	49.370033	-0.201823	-120.471258
5.700000	-0.245985	-168.598794	-42.593886	46.665487	-42.593886	46.665487	-0.204840	-121.429366
5.750000	-0.248927	-169.873863	-42.471937	44.081420	-42.471937	44.081420	-0.207900	-122.386460
5.800000	-0.251941	-171.148125	-42.348231	41.598485	-42.348231	41.598485	-0.211003	-123.342637
5.850000	-0.255016	-172.422045	-42.223689	39.201312	-42.223689	39.201312	-0.214145	-124.297986
5.900000	-0.258150	-173.696028	-42.099017	36.877562	-42.099017	36.877562	-0.217325	-125.252591
5.950000	-0.261336	-174.970436	-41.974756	34.617237	-41.974756	34.617237	-0.220541	-126.206528
6.000000	-0.264572	-176.245596	-41.851331	32.412162	-41.851331	32.412162	-0.223790	-127.159873
6.050000	-0.267855	-177.521808	-41.729077	30.255606	-41.729077	30.255606	-0.227072	-128.112695
6.100000	-0.271184	-178.799353	-41.608260	28.141991	-41.608260	28.141991	-0.230385	-129.065063
6.150000	-0.274556	179.921504	-41.489092	26.066667	-41.489092	26.066667	-0.233725	-130.017040
6.200000	-0.277971	178.640510	-41.371745	24.025737	-41.371745	24.025737	-0.237092	-130.968687
6.250000	-0.281426	177.357423	-41.256357	22.015926	-41.256357	22.015926	-0.240483	-131.920061
6.300000	-0.284924	176.071895	-41.143071	20.035592	-41.143071	20.035592	-0.243897	-132.871208
6.350000	-0.288461	174.783788	-41.031957	18.081095	-41.031957	18.081095	-0.247332	-133.822189
6.400000	-0.292037	173.492880	-40.923086	16.150493	-40.923086	16.150493	-0.250786	-134.773047
6.450000	-0.295652	172.198949	-40.816513	14.242134	-40.816513	14.242134	-0.254259	-135.723822
6.500000	-0.299304	170.901777	-40.712280	12.354613	-40.712280	12.354613	-0.257752	-136.674553
6.550000	-0.302994	169.601150	-40.610422	10.486737	-40.610422	10.486737	-0.261266	-137.625275
6.600000	-0.306720	168.296851	-40.510961	8.637492	-40.510961	8.637492	-0.264805	-138.576023
6.650000	-0.310484	166.988668	-40.413913	6.806016	-40.413913	6.806016	-0.268372	-139.526835
6.700000	-0.314284	165.676388	-40.319286	4.991584	-40.319286	4.991584	-0.271973	-140.477756
6.750000	-0.318120	164.359797	-40.227081	3.193583	-40.227081	3.193583	-0.275616	-141.428838
6.800000	-0.321992	163.038683	-40.137294	1.411497	-40.137294	1.411497	-0.279309	-142.380144
6.850000	-0.325900	161.712831	-40.049914	-0.355101	-40.049914	-0.355101	-0.283059	-143.331753
6.900000	-0.329843	160.382027	-39.964927	-2.106568	-39.964927	-2.106568	-0.286876	-144.283756
6.950000	-0.333821	159.046056	-39.882311	-3.843197	-39.882311	-3.843197	-0.290766	-145.236257
7.000000	-0.337834	157.704702	-39.802043	-5.565227	-39.802043	-5.565227	-0.294735	-146.189373
7.050000	-0.341882	156.357746	-39.724091	-7.272852	-39.724091	-7.272852	-0.298788	-147.143226
7.100000	-0.345964	155.004971	-39.648423	-8.966226	-39.648423	-8.966226	-0.302926	-148.097944
7.150000	-0.350082	153.646155	-39.575001	-10.645474	-39.575001	-10.645474	-0.307151	-149.053653
7.200000	-0.354233	152.281076	-39.503781	-12.310693	-39.503781	-12.310693	-0.311462	-150.010477
7.250000	-0.358418	150.909511	-39.434716	-13.961961	-39.434716	-13.961961	-0.315855	-150.968535
7.300000	-0.362638	149.531235	-39.367756	-15.599341	-39.367756	-15.599341	-0.320327	-151.927938
7.350000	-0.366892	148.146020	-39.302846	-17.222887	-39.302846	-17.222887	-0.324875	-152.888791
7.400000	-0.371179	146.753636	-39.239926	-18.832648	-39.239926	-18.832648	-0.329494	-153.851191
7.450000	-0.375501	145.353854	-39.178932	-20.428675	-39.178932	-20.428675	-0.334181	-154.815231
7.500000	-0.379856	143.946438	-39.119796	-22.011023	-39.119796	-22.011023	-0.338931	-155.780998
7.550000	-0.384246	142.530802	-39.062504	-23.579173	-39.062504	-23.579173	-0.343744	-156.748657
7.600000	-0.388671	141.107040	-39.006914	-25.133806	-39.006914	-25.133806	-0.348613	-157.718213
7.650000	-0.393130	139.674912	-38.952944	-26.675038	-38.952944	-26.675038	-0.353538	-158.689745
7.700000	-0.397623	138.234176	-38.900506	-28.203012	-38.900506	-28.203012	-0.358514	-159.663331
7.750000	-0.402150	136.784588	-38.849509	-29.717917	-38.849509	-29.717917	-0.363542	-160.639049
7.800000	-0.406713	135.325905	-38.799857	-31.219989	-38.799857	-31.219989	-0.368618	-161.616977
7.850000	-0.411310	133.857876	-38.751448	-32.709526	-38.751448	-32.709526	-0.373743	-162.597192
7.900000	-0.415944	132.380255	-38.704178	-34.186900	-38.704178	-34.186900	-0.378914	-163.579774
7.950000	-0.420613	130.892788	-38.657939	-35.652572	-38.657939	-35.652572	-0.384133	-164.564804
8.000000	-0.425319	129.395223	-38.612621	-37.107108	-38.612621	-37.107108	-0.389397	-165.552361
8.050000	-0.430063	127.887305	-38.568115	-38.551196	-38.568115	-38.551196	-0.394708	-166.542528
8.100000	-0.434845	126.368777	-38.524312	-39.985671	-38.524312	-39.985671	-0.400063	-167.535389
8.150000	-0.439667	124.839383	-38.481108	-41.411533	-38.481108	-41.411533	-0.405464	-168.531026
8.200000	-0.444529	123.298862	-38.438411	-42.829976	-38.438411	-42.829976	-0.410911	-169.529525
8.250000	-0.449433	121.746954	-38.396143	-44.242404	-38.396143	-44.242404	-0.416402	-170.530972
8.300000	-0.454380	120.183399	-38.354250	-45.650459	-38.354250	-45.650459	-0.421939	-171.535454
8.350000	-0.459370	118.608643	-38.312704	-47.056016	-38.312704	-47.056016	-0.427518	-172.542869
8.400000	-0.464407	117.021442	-38.271539	-48.461007	-38.271539	-48.461007	-0.433144	-173.553566
8.450000	-0.469496	115.420778	-38.230875	-49.868226	-38.230875	-49.868226	-0.438819	-174.567835
8.500000	-0.474634	113.808082	-38.190839	-51.279804	-38.190839	-51.279804	-0.444536	-175.585315
8.550000	-0.479826	112.182103	-38.151762	-52.698782	-38.151762	-52.698782	-0.450300	-176.606361
8.600000	-0.485075	110.542830	-38.114028	-54.127518	-38.114028	-54.127518	-0.456109	-177.630997
8.650000	-0.490382	108.890520	-38.078121	-55.567760	-38.078121	-55.567760	-0.461963	-178.659173
8.700000	-0.495754	107.223594	-38.044934	-57.022272	-38.044934	-57.022272	-0.467865	-179.691340
8.750000	-0.501187	105.543946	-38.014819	-58.489487	-38.014819	-58.489487	-0.473808	179.273000
8.800000	-0.506698	103.848306	-37.989520	-59.971301	-37.989520	-59.971301	-0.479801	178.232923
8.850000	-0.512278	102.139470	-37.969016	-61.462504	-37.969016	-61.462504	-0.485836	177.189180
8.900000	-0.517941	100.414930	-37.955042	-62.959718	-37.955042	-62.959718	-0.491919	176.141051
8.950000	-0.523686	98.675878	-37.947699	-64.456117	-37.947699	-64.456117	-0.498046	175.088845
9.000000	-0.529522	96.921487	-37.947696	-65.943445	-37.947696	-65.943445	-0.504218	174.032304
9.050000	-0.535456	95.151224	-37.955255	-67.412427	-37.955255	-67.412427	-0.510437	172.971251
9.100000	-0.541487	93.366067	-37.969513	-68.855882	-37.969513	-68.855882	-0.516697	171.905938
9.150000	-0.547637	91.563646	-37.990665	-70.261442	-37.990665	-70.261442	-0.523006	170.835655
9.200000	-0.553893	89.746536	-38.016717	-71.629347	-38.016717	-71.629347	-0.529355	169.761117
9.250000	-0.560287	87.911382	-38.047378	-72.947043	-38.047378	-72.947043	-0.535753	168.681316
9.300000	-0.566806	86.060846	-38.080782	-74.220720	-38.080782	-74.220720	-0.542191	167.596996
9.350000	-0.573473	84.192807	-38.116038	-75.445262	-38.116038	-75.445262	-0.548674	166.507497
9.400000	-0.580292	82.308063	-38.152045	-76.625352	-38.152045	-76.625352	-0.555200	165.413018
9.450000	-0.587272	80.406448	-38.187968	-77.764157	-38.187968	-77.764157	-0.561769	164.313467
9.500000	-0.594434	78.486812	-38.223133	-78.863239	-38.223133	-78.863239	-0.568381	163.208454
9.550000	-0.601769	76.551026	-38.257221	-79.930811	-38.257221	-79.930811	-0.575032	162.098503
9.600000	-0.609322	74.595926	-38.289697	-80.965441	-38.289697	-80.965441	-0.581728	160.982589
9.650000	-0.617069	72.624799	-38.320725	-81.976358	-38.320725	-81.976358	-0.588462	159.861678
9.700000	-0.625060	70.634479	-38.349964	-82.962626	-38.349964	-82.962626	-0.595238	158.734718
9.750000	-0.633280	68.627298	-38.377675	-83.930077	-38.377675	-83.930077	-0.602052	157.602385
9.800000	-0.641761	66.601825	-38.403804	-84.879691	-38.403804	-84.879691	-0.608906	156.464153
9.850000	-0.650516	64.558377	-38.428489	-85.813832	-38.428489	-85.813832	-0.615797	155.320050
9.900000	-0.659550	62.497637	-38.451904	-86.734731	-38.451904	-86.734731	-0.622725	154.170224
9.950000	-0.668909	60.417892	-38.474052	-87.642502	-38.474052	-87.642502	-0.629691	153.014015
10.000000	-0.678563	58.321944	-38.495239	-88.540049	-38.495239	-88.540049	-0.636689	151.852283
