! freq	dB(S11)	phase(S11)	dB(S12)	phase(S12)	
!     	dB(S21)	phase(S21)	dB(S22)	phase(S22)	
!S-par simulation data
#  GHz  S  DB  R 50
0.000000	-87.633234	0.000000	-0.000361	0.000000	-0.000361	0.000000	-87.633234	0.000000
0.050000	-31.226497	-93.503106	-0.007341	-3.184587	-0.007341	-3.184587	-31.224992	-92.987611
0.100000	-25.235458	-97.090100	-0.023037	-6.332171	-0.023037	-6.332171	-25.231678	-96.065483
0.150000	-21.755681	-100.582724	-0.043986	-9.456816	-0.043986	-9.456816	-21.749564	-99.055167
0.200000	-19.306687	-104.009701	-0.070367	-12.566766	-0.070367	-12.566766	-19.298868	-101.981353
0.250000	-17.423524	-107.390209	-0.102461	-15.661857	-0.102461	-15.661857	-17.414759	-104.860165
0.300000	-15.899513	-110.737329	-0.140246	-18.739955	-0.140246	-18.739955	-15.890423	-107.703950
0.350000	-14.624838	-114.058075	-0.183539	-21.798854	-0.183539	-21.798854	-14.615866	-110.520456
0.400000	-13.534189	-117.355161	-0.232093	-24.836556	-0.232093	-24.836556	-13.525594	-113.313597
0.450000	-12.585636	-120.628696	-0.285653	-27.851129	-0.285653	-27.851129	-12.577483	-116.084480
0.500000	-11.749854	-123.878383	-0.343803	-30.841640	-0.343803	-30.841640	-11.742014	-118.833161
0.550000	-11.006988	-127.101963	-0.406362	-33.805816	-0.406362	-33.805816	-10.999173	-121.557110
0.600000	-10.341089	-130.298788	-0.472876	-36.743247	-0.472876	-36.743247	-10.332947	-124.254806
0.650000	-9.740932	-133.466833	-0.543080	-39.652188	-0.543080	-39.652188	-9.732135	-126.923280
0.700000	-9.197002	-136.605424	-0.616572	-42.532195	-0.616572	-42.532195	-9.187337	-129.561223
0.750000	-8.702112	-139.713364	-0.693023	-45.382241	-0.693023	-45.382241	-8.691494	-132.167254
0.800000	-8.250208	-142.790040	-0.772075	-48.201800	-0.772075	-48.201800	-8.238665	-134.740973
0.850000	-7.836244	-145.835133	-0.853376	-50.990581	-0.853376	-50.990581	-7.823873	-137.282462
0.900000	-7.456070	-148.848358	-0.936596	-53.748288	-0.936596	-53.748288	-7.442998	-139.791845
0.950000	-7.106164	-151.829617	-1.021411	-56.474781	-1.021411	-56.474781	-7.092523	-142.269370
1.000000	-6.783542	-154.778890	-1.107508	-59.169987	-1.107508	-59.169987	-6.769455	-144.715268
1.050000	-6.485443	-157.696742	-1.194585	-61.834410	-1.194585	-61.834410	-6.471016	-147.130260
1.100000	-6.209567	-160.583615	-1.282359	-64.468433	-1.282359	-64.468433	-6.194885	-149.514878
1.150000	-5.954017	-163.439742	-1.370555	-67.072247	-1.370555	-67.072247	-5.939151	-151.869410
1.200000	-5.716695	-166.266584	-1.458938	-69.647264	-1.458938	-69.647264	-5.701702	-154.195321
1.250000	-5.496217	-169.064381	-1.547264	-72.193701	-1.547264	-72.193701	-5.481142	-156.492869
1.300000	-5.291380	-171.833338	-1.635277	-74.711756	-1.635277	-74.711756	-5.276259	-158.762279
1.350000	-5.100690	-174.574943	-1.722792	-77.202900	-1.722792	-77.202900	-5.085552	-161.005036
1.400000	-4.923017	-177.290094	-1.809616	-79.668032	-1.809616	-79.668032	-4.907884	-163.222052
1.450000	-4.757342	-179.979715	-1.895570	-82.108092	-1.895570	-82.108092	-4.742233	-165.414282
1.500000	-4.602748	177.355247	-1.980490	-84.524049	-1.980490	-84.524049	-4.587678	-167.582713
1.550000	-4.458404	174.713833	-2.064225	-86.916891	-2.064225	-86.916891	-4.443386	-169.728359
1.600000	-4.323557	172.095083	-2.146635	-89.287622	-2.146635	-89.287622	-4.308602	-171.852250
1.650000	-4.197525	169.498037	-2.227595	-91.637252	-2.227595	-91.637252	-4.182641	-173.955430
1.700000	-4.079684	166.921743	-2.306989	-93.966793	-2.306989	-93.966793	-4.064880	-176.038953
1.750000	-3.969469	164.365263	-2.384714	-96.277251	-2.384714	-96.277251	-3.954752	-178.103874
1.800000	-3.866362	161.827674	-2.460677	-98.569629	-2.460677	-98.569629	-3.851739	179.848753
1.850000	-3.769891	159.308075	-2.534793	-100.844915	-2.534793	-100.844915	-3.755369	177.817877
1.900000	-3.679679	156.805763	-2.606960	-103.103923	-2.606960	-103.103923	-3.665262	175.802611
1.950000	-3.595320	154.319857	-2.677110	-105.347645	-2.677110	-105.347645	-3.581017	173.801883
2.000000	-3.516397	151.849347	-2.745214	-107.577198	-2.745214	-107.577198	-3.502214	171.814502
2.050000	-3.442580	149.393437	-2.811221	-109.793504	-2.811221	-109.793504	-3.428522	169.839455
2.100000	-3.373563	146.951362	-2.875086	-111.997467	-2.875086	-111.997467	-3.359639	167.875745
2.150000	-3.309067	144.522389	-2.936771	-114.189966	-2.936771	-114.189966	-3.295285	165.922383
2.200000	-3.248836	142.105815	-2.996245	-116.371864	-2.996245	-116.371864	-3.235204	163.978399
2.250000	-3.192633	139.700970	-3.053479	-118.543997	-3.053479	-118.543997	-3.179162	162.042833
2.300000	-3.140240	137.307214	-3.108452	-120.707182	-3.108452	-120.707182	-3.126941	160.114741
2.350000	-3.091458	134.923941	-3.161145	-122.862215	-3.161145	-122.862215	-3.078342	158.193189
2.400000	-3.046102	132.550578	-3.211545	-125.009869	-3.211545	-125.009869	-3.033185	156.277258
2.450000	-3.004002	130.186582	-3.259640	-127.150895	-3.259640	-127.150895	-2.991299	154.366042
2.500000	-2.965002	127.831443	-3.305423	-129.286027	-3.305423	-129.286027	-2.952530	152.458643
2.550000	-2.929046	125.484941	-3.348809	-131.415826	-3.348809	-131.415826	-2.916826	150.554246
2.600000	-2.895907	123.146342	-3.389879	-133.541180	-3.389879	-133.541180	-2.883961	148.651845
2.650000	-2.865462	120.815229	-3.428634	-135.662760	-3.428634	-135.662760	-2.853815	146.750572
2.700000	-2.837602	118.491221	-3.465077	-137.781220	-3.465077	-137.781220	-2.826281	144.849566
2.750000	-2.812095	116.173608	-3.499346	-139.897308	-3.499346	-139.897308	-2.801129	142.948036
2.800000	-2.789082	113.862724	-3.531208	-142.011401	-3.531208	-142.011401	-2.778505	141.045077
2.850000	-2.768372	111.557975	-3.560777	-144.124221	-3.560777	-144.124221	-2.758220	139.139853
2.900000	-2.749884	109.259092	-3.588065	-146.236359	-3.588065	-146.236359	-2.740199	137.231519
2.950000	-2.733548	106.965834	-3.613082	-148.348391	-3.613082	-148.348391	-2.724372	135.319232
3.000000	-2.719298	104.677988	-3.635840	-150.460880	-3.635840	-150.460880	-2.710678	133.402146
3.050000	-2.707073	102.395371	-3.656353	-152.574377	-3.656353	-152.574377	-2.699063	131.479415
3.100000	-2.696822	100.117823	-3.674635	-154.689422	-3.674635	-154.689422	-2.689475	129.550187
3.150000	-2.688514	97.845264	-3.690676	-156.806573	-3.690676	-156.806573	-2.681895	127.613518
3.200000	-2.682108	95.577587	-3.704494	-158.926369	-3.704494	-158.926369	-2.676281	125.668513
3.250000	-2.677544	93.314661	-3.716128	-161.049297	-3.716128	-161.049297	-2.672580	123.714382
3.300000	-2.674790	91.056434	-3.725597	-163.175861	-3.725597	-163.175861	-2.670766	121.750242
3.350000	-2.673817	88.802880	-3.732918	-165.306560	-3.732918	-165.306560	-2.670815	119.775198
3.400000	-2.674602	86.553999	-3.738108	-167.441885	-3.738108	-167.441885	-2.672709	117.788341
3.450000	-2.677125	84.309818	-3.741187	-169.582322	-3.741187	-169.582322	-2.676436	115.788747
3.500000	-2.681372	82.070387	-3.742173	-171.728357	-3.742173	-171.728357	-2.681987	113.775474
3.550000	-2.687403	79.836002	-3.740997	-173.880762	-3.740997	-173.880762	-2.689437	111.746865
3.600000	-2.695047	77.606283	-3.737880	-176.039374	-3.737880	-176.039374	-2.698609	109.703463
3.650000	-2.704393	75.381626	-3.732730	-178.205011	-3.732730	-178.205011	-2.709606	107.643450
3.700000	-2.715440	73.162187	-3.725569	179.621850	-3.725569	179.621850	-2.722437	105.565790
3.750000	-2.728193	70.948152	-3.716419	177.440728	-3.716419	177.440728	-2.737116	103.469421
3.800000	-2.742734	68.739988	-3.705216	175.250751	-3.705216	175.250751	-2.753740	101.352331
3.850000	-2.759000	66.537709	-3.692071	173.051782	-3.692071	173.051782	-2.772253	99.214201
3.900000	-2.777008	64.341591	-3.677008	170.843331	-3.677008	170.843331	-2.792682	97.053858
3.950000	-2.796776	62.151945	-3.660052	168.624905	-3.660052	168.624905	-2.815059	94.870088
4.000000	-2.818232	59.968729	-3.641332	166.396591	-3.641332	166.396591	-2.839313	92.663022
4.050000	-2.841571	57.792985	-3.620688	164.156860	-3.620688	164.156860	-2.865674	90.428946
4.100000	-2.866747	55.624835	-3.598233	161.905647	-3.598233	161.905647	-2.894102	88.167559
4.150000	-2.893792	53.464730	-3.573996	159.642428	-3.573996	159.642428	-2.924648	85.877450
4.200000	-2.922741	51.313164	-3.548009	157.366673	-3.548009	157.366673	-2.957367	83.557149
4.250000	-2.953633	49.170675	-3.520307	155.077841	-3.520307	155.077841	-2.992317	81.205124
4.300000	-2.986509	47.037845	-3.490924	152.775380	-3.490924	152.775380	-3.029563	78.819773
4.350000	-3.021413	44.915310	-3.459899	150.458727	-3.459899	150.458727	-3.069175	76.399420
4.400000	-3.058412	42.803885	-3.427255	148.127140	-3.427255	148.127140	-3.111250	73.941890
4.450000	-3.097556	40.704344	-3.393036	145.780012	-3.393036	145.780012	-3.155870	71.445278
4.500000	-3.138872	38.617380	-3.357308	143.416903	-3.357308	143.416903	-3.203095	68.908047
4.550000	-3.182413	36.543876	-3.320123	141.037200	-3.320123	141.037200	-3.253013	66.328160
4.600000	-3.228229	34.484785	-3.281534	138.640275	-3.281534	138.640275	-3.305717	63.703478
4.650000	-3.276371	32.441140	-3.241601	136.225491	-3.241601	136.225491	-3.361304	61.031747
4.700000	-3.326891	30.414060	-3.200387	133.792196	-3.200387	133.792196	-3.419875	58.310593
4.750000	-3.379835	28.404755	-3.157963	131.339725	-3.157963	131.339725	-3.481535	55.537514
4.800000	-3.435249	26.414532	-3.114402	128.867404	-3.114402	128.867404	-3.546389	52.709869
4.850000	-3.493172	24.444806	-3.069786	126.374548	-3.069786	126.374548	-3.614548	49.824870
4.900000	-3.553640	22.497102	-3.024203	123.860462	-3.024203	123.860462	-3.686118	46.879575
4.950000	-3.616676	20.573068	-2.977747	121.324446	-2.977747	121.324446	-3.761210	43.870874
5.000000	-3.682297	18.674475	-2.930521	118.765792	-2.930521	118.765792	-3.839927	40.795479
5.050000	-3.750546	16.803872	-2.882620	116.183270	-2.882620	116.183270	-3.922437	37.648309
5.100000	-3.821362	14.962761	-2.834185	113.576662	-2.834185	113.576662	-4.008768	34.427128
5.150000	-3.894707	13.153341	-2.785348	110.945266	-2.785348	110.945266	-4.099000	31.128046
5.200000	-3.970520	11.377954	-2.736249	108.288387	-2.736249	108.288387	-4.193201	27.746962
5.250000	-4.048710	9.639088	-2.687039	105.605347	-2.687039	105.605347	-4.291417	24.279549
5.300000	-4.129150	7.939371	-2.637881	102.895484	-2.637881	102.895484	-4.393669	20.721260
5.350000	-4.211676	6.281558	-2.588950	100.158163	-2.588950	100.158163	-4.499946	17.067320
5.400000	-4.296074	4.668525	-2.540432	97.392784	-2.540432	97.392784	-4.610197	13.312734
5.450000	-4.382077	3.103236	-2.492525	94.598786	-2.492525	94.598786	-4.724323	9.452296
5.500000	-4.469358	1.588720	-2.445443	91.775658	-2.445443	91.775658	-4.842163	5.480609
5.550000	-4.557519	0.128021	-2.399410	88.922947	-2.399410	88.922947	-4.963486	1.392115
5.600000	-4.646089	-1.275851	-2.354663	86.040270	-2.354663	86.040270	-5.087975	-2.818862
5.650000	-4.734492	-2.619313	-2.311472	83.126995	-2.311472	83.126995	-5.215217	-7.159510
5.700000	-4.822061	-3.899571	-2.270110	80.182905	-2.270110	80.182905	-5.344653	-11.635716
5.750000	-4.908063	-5.114885	-2.230839	77.208231	-2.230839	77.208231	-5.475598	-16.251627
5.800000	-4.991658	-6.263291	-2.193947	74.202991	-2.193947	74.202991	-5.607228	-21.012480
5.850000	-5.071912	-7.343387	-2.159731	71.167332	-2.159731	71.167332	-5.738551	-25.923026
5.900000	-5.147804	-8.354480	-2.128499	68.101545	-2.128499	68.101545	-5.868397	-30.987305
5.950000	-5.218234	-9.296745	-2.100564	65.006073	-2.100564	65.006073	-5.995409	-36.208379
6.000000	-5.282041	-10.171375	-2.076244	61.881527	-2.076244	61.881527	-6.118043	-41.588027
6.050000	-5.338027	-10.980727	-2.055862	58.728690	-2.055862	58.728690	-6.234574	-47.126399
6.100000	-5.384989	-11.728438	-2.039738	55.548533	-2.039738	55.548533	-6.343118	-52.821665
6.150000	-5.421750	-12.419510	-2.028193	52.342215	-2.028193	52.342215	-6.441669	-58.669651
6.200000	-5.447209	-13.060335	-2.021539	49.111095	-2.021539	49.111095	-6.528152	-64.663517
6.250000	-5.460378	-13.658661	-2.020081	45.856725	-2.020081	45.856725	-6.600486	-70.793502
6.300000	-5.460131	-14.222984	-2.024236	42.580436	-2.024236	42.580436	-6.656282	-77.049088
6.350000	-5.446128	-14.764348	-2.034164	39.284689	-2.034164	39.284689	-6.694063	-83.411212
6.400000	-5.418238	-15.293668	-2.050019	35.971878	-2.050019	35.971878	-6.712653	-89.859816
6.450000	-5.375969	-15.821931	-2.072192	32.643840	-2.072192	32.643840	-6.710378	-96.375990
6.500000	-5.319649	-16.360690	-2.100822	29.303235	-2.100822	29.303235	-6.686770	-102.935623
6.550000	-5.249730	-16.921047	-2.136082	25.952667	-2.136082	25.952667	-6.641657	-109.514537
6.600000	-5.166817	-17.513790	-2.178164	22.594821	-2.178164	22.594821	-6.575225	-116.088088
6.650000	-5.071941	-18.148319	-2.227138	19.232589	-2.227138	19.232589	-6.488476	-122.632231
6.700000	-4.966073	-18.833817	-2.283174	15.868900	-2.283174	15.868900	-6.382455	-129.123307
6.750000	-4.850985	-19.574609	-2.346015	12.506629	-2.346015	12.506629	-6.259719	-135.544137
6.800000	-4.727765	-20.377180	-2.415812	9.148660	-2.415812	9.148660	-6.121784	-141.875789
6.850000	-4.597839	-21.245236	-2.492517	5.797880	-2.492517	5.797880	-5.970838	-148.103466
6.900000	-4.462573	-22.181733	-2.576107	2.457265	-2.576107	2.457265	-5.809031	-154.213934
6.950000	-4.323403	-23.187465	-2.666452	-0.870341	-2.666452	-0.870341	-5.638693	-160.197957
7.000000	-4.181784	-24.260276	-2.763254	-4.182652	-2.763254	-4.182652	-5.462265	-166.052419
7.050000	-4.038841	-25.400098	-2.866447	-7.476829	-2.866447	-7.476829	-5.281573	-171.770551
7.100000	-3.895734	-26.603941	-2.975768	-10.750641	-2.975768	-10.750641	-5.098559	-177.351511
7.150000	-3.753460	-27.868678	-3.090975	-14.001904	-3.090975	-14.001904	-4.914877	177.204928
7.200000	-3.612895	-29.190805	-3.211814	-17.228546	-3.211814	-17.228546	-4.731963	171.898010
7.250000	-3.474799	-30.566543	-3.338019	-20.428590	-3.338019	-20.428590	-4.551051	166.726240
7.300000	-3.339801	-31.991190	-3.469261	-23.600632	-3.469261	-23.600632	-4.373186	161.685505
7.350000	-3.208413	-33.460417	-3.605236	-26.743265	-3.605236	-26.743265	-4.199198	156.772232
7.400000	-3.081073	-34.970285	-3.745649	-29.854937	-3.745649	-29.854937	-4.029766	151.983742
7.450000	-2.958022	-36.515571	-3.890136	-32.935497	-3.890136	-32.935497	-3.865346	147.312572
7.500000	-2.839529	-38.092826	-4.038418	-35.983617	-4.038418	-35.983617	-3.706331	142.756375
7.550000	-2.725822	-39.698668	-4.190189	-38.997923	-4.190189	-38.997923	-3.553052	138.313047
7.600000	-2.616927	-41.328736	-4.345113	-41.978657	-4.345113	-41.978657	-3.405609	133.975698
7.650000	-2.512879	-42.979613	-4.502888	-44.925517	-4.502888	-44.925517	-3.264077	129.740008
7.700000	-2.413666	-44.648140	-4.663223	-47.838347	-4.663223	-47.838347	-3.128462	125.601757
7.750000	-2.319239	-46.331422	-4.825835	-50.717128	-4.825835	-50.717128	-2.998715	121.556848
7.800000	-2.229519	-48.026823	-4.990455	-53.561959	-4.990455	-53.561959	-2.874745	117.601327
7.850000	-2.144401	-49.731961	-5.156824	-56.373053	-5.156824	-56.373053	-2.756427	113.731386
7.900000	-2.063763	-51.444701	-5.324698	-59.150717	-5.324698	-59.150717	-2.643609	109.943376
7.950000	-1.987468	-53.163141	-5.493845	-61.895345	-5.493845	-61.895345	-2.536120	106.233799
8.000000	-1.915367	-54.885598	-5.664048	-64.607404	-5.664048	-64.607404	-2.433775	102.599315
8.050000	-1.847306	-56.610597	-5.835103	-67.287427	-5.835103	-67.287427	-2.336381	99.036738
8.100000	-1.783126	-58.336852	-6.006820	-69.935998	-6.006820	-69.935998	-2.243739	95.543029
8.150000	-1.722700	-60.063249	-6.178989	-72.553418	-6.178989	-72.553418	-2.155685	92.115978
8.200000	-1.665863	-61.788818	-6.351442	-75.140377	-6.351442	-75.140377	-2.072016	88.752740
8.250000	-1.612422	-63.512775	-6.524062	-77.697904	-6.524062	-77.697904	-1.992493	85.449983
8.300000	-1.562218	-65.234474	-6.696712	-80.226718	-6.696712	-80.226718	-1.916923	82.205220
8.350000	-1.515101	-66.953392	-6.869269	-82.727549	-6.869269	-82.727549	-1.845117	79.016082
8.400000	-1.470922	-68.669121	-7.041618	-85.201140	-7.041618	-85.201140	-1.776892	75.880315
8.450000	-1.429538	-70.381354	-7.213659	-87.648238	-7.213659	-87.648238	-1.712073	72.795774
8.500000	-1.390814	-72.089880	-7.385300	-90.069594	-7.385300	-90.069594	-1.650490	69.760413
8.550000	-1.354617	-73.794571	-7.556458	-92.465955	-7.556458	-92.465955	-1.591983	66.772285
8.600000	-1.320822	-75.495378	-7.727061	-94.838064	-7.727061	-94.838064	-1.536397	63.829533
8.650000	-1.289311	-77.192320	-7.897046	-97.186659	-7.897046	-97.186659	-1.483587	60.930385
8.700000	-1.259970	-78.885483	-8.066358	-99.512469	-8.066358	-99.512469	-1.433414	58.073147
8.750000	-1.232692	-80.575008	-8.234950	-101.816214	-8.234950	-101.816214	-1.385746	55.256202
8.800000	-1.207415	-82.261024	-8.402695	-104.098155	-8.402695	-104.098155	-1.340504	52.478807
8.850000	-1.184000	-83.943857	-8.569649	-106.359471	-8.569649	-106.359471	-1.297522	49.738608
8.900000	-1.162359	-85.623800	-8.735787	-108.600849	-8.735787	-108.600849	-1.256690	47.034183
8.950000	-1.142407	-87.301188	-8.901091	-110.822967	-8.901091	-110.822967	-1.217904	44.364168
9.000000	-1.124064	-88.976395	-9.065550	-113.026493	-9.065550	-113.026493	-1.181067	41.727245
9.050000	-1.107257	-90.649830	-9.229160	-115.212089	-9.229160	-115.212089	-1.146087	39.122148
9.100000	-1.091917	-92.321935	-9.391923	-117.380408	-9.391923	-117.380408	-1.112880	36.547649
9.150000	-1.077978	-93.993187	-9.553847	-119.532104	-9.553847	-119.532104	-1.081364	34.002560
9.200000	-1.065382	-95.664092	-9.714949	-121.667825	-9.714949	-121.667825	-1.051465	31.485728
9.250000	-1.054072	-97.335187	-9.875253	-123.788226	-9.875253	-123.788226	-1.023114	28.996028
9.300000	-1.043996	-99.007038	-10.034792	-125.893968	-10.034792	-125.893968	-0.996245	26.532364
9.350000	-1.035107	-100.680239	-10.193609	-127.985724	-10.193609	-127.985724	-0.970798	24.093664
9.400000	-1.027373	-102.355440	-10.351720	-130.064051	-10.351720	-130.064051	-0.946733	21.679123
9.450000	-1.020752	-104.033317	-10.509198	-132.129693	-10.509198	-132.129693	-0.923996	19.287669
9.500000	-1.015196	-105.714527	-10.666169	-134.183555	-10.666169	-134.183555	-0.902527	16.918021
9.550000	-1.010671	-107.399780	-10.822744	-136.226442	-10.822744	-136.226442	-0.882283	14.569163
9.600000	-1.007148	-109.089814	-10.979062	-138.259220	-10.979062	-138.259220	-0.863228	12.240090
9.650000	-1.004601	-110.785398	-11.135302	-140.282830	-11.135302	-140.282830	-0.845327	9.929797
9.700000	-1.003007	-112.487328	-11.291698	-142.298295	-11.291698	-142.298295	-0.828552	7.637278
9.750000	-1.002345	-114.196434	-11.448558	-144.306729	-11.448558	-144.306729	-0.812876	5.361523
9.800000	-1.002598	-115.913580	-11.606295	-146.309329	-11.606295	-146.309329	-0.798279	3.101517
9.850000	-1.003753	-117.639661	-11.765475	-148.307327	-11.765475	-148.307327	-0.784744	0.856230
9.900000	-1.005798	-119.375608	-11.926891	-150.301867	-11.926891	-150.301867	-0.772260	-1.375380
9.950000	-1.008727	-121.122391	-12.091672	-152.293692	-12.091672	-152.293692	-0.760819	-3.594375
10.000000	-1.012533	-122.881015	-12.261458	-154.282429	-12.261458	-154.282429	-0.750420	-5.801839
