! freq	dB(S11)	phase(S11)	dB(S12)	phase(S12)	
!     	dB(S21)	phase(S21)	dB(S22)	phase(S22)	
!S-par simulation data
#  GHz  S  DB  R 50
0.000000	-0.000000	0.000000	-333.197065	0.000000	-333.197065	0.000000	-0.000000	0.000000
0.050000	-0.000103	-0.951560	-100.377108	24.114899	-100.377108	24.114899	-0.000103	-0.951938
0.100000	-0.000408	-1.902896	-98.857844	38.923304	-98.857844	38.923304	-0.000410	-1.903649
0.150000	-0.000908	-2.853795	-97.153696	49.262248	-97.153696	49.262248	-0.000912	-2.854920
0.200000	-0.001586	-3.804070	-95.565109	56.139871	-95.565109	56.139871	-0.001593	-3.805563
0.250000	-0.002436	-4.753500	-94.164398	60.676884	-94.164398	60.676884	-0.002447	-4.755354
0.300000	-0.003424	-5.702018	-92.954296	63.898936	-92.954296	63.898936	-0.003439	-5.704228
0.350000	-0.004536	-6.649481	-91.910052	66.203550	-91.910052	66.203550	-0.004556	-6.652040
0.400000	-0.005752	-7.595800	-91.009048	67.905032	-91.009048	67.905032	-0.005776	-7.598703
0.450000	-0.007051	-8.540918	-90.231750	69.205817	-90.231750	69.205817	-0.007078	-8.544159
0.500000	-0.008414	-9.484796	-89.562382	70.242820	-89.562382	70.242820	-0.008445	-9.488371
0.550000	-0.009823	-10.427417	-88.988500	71.113923	-88.988500	71.113923	-0.009857	-10.431323
0.600000	-0.011264	-11.368778	-88.500356	71.893521	-88.500356	71.893521	-0.011300	-11.373011
0.650000	-0.012723	-12.308885	-88.090316	72.642086	-88.090316	72.642086	-0.012760	-12.313444
0.700000	-0.014189	-13.247753	-87.752366	73.412388	-87.752366	73.412388	-0.014228	-13.252637
0.750000	-0.015653	-14.185402	-87.481696	74.253861	-87.481696	74.253861	-0.015692	-14.190611
0.800000	-0.017109	-15.121852	-87.274329	75.215933	-87.274329	75.215933	-0.017148	-15.127386
0.850000	-0.018551	-16.057122	-87.126752	76.350806	-87.126752	76.350806	-0.018589	-16.062981
0.900000	-0.019975	-16.991230	-87.035497	77.715929	-87.035497	77.715929	-0.020013	-16.997416
0.950000	-0.021379	-17.924191	-86.996621	79.376236	-86.996621	79.376236	-0.021416	-17.930704
1.000000	-0.022762	-18.856017	-87.005005	81.405975	-87.005005	81.405975	-0.022798	-18.862859
1.050000	-0.024123	-19.786715	-87.053388	83.889604	-87.053388	83.889604	-0.024158	-19.793886
1.100000	-0.025462	-20.716289	-87.131058	86.920650	-87.131058	86.920650	-0.025495	-20.723791
1.150000	-0.026780	-21.644738	-87.222194	90.596586	-87.222194	90.596586	-0.026811	-21.652573
1.200000	-0.028077	-22.572060	-87.304045	95.006744	-87.304045	95.006744	-0.028107	-22.580228
1.250000	-0.029355	-23.498247	-87.345606	100.209893	-87.345606	100.209893	-0.029384	-23.506749
1.300000	-0.030614	-24.423239	-87.302611	106.228518	-87.302611	106.228518	-0.030642	-24.432076
1.350000	-0.031858	-25.347073	-87.134499	112.900996	-87.134499	112.900996	-0.031884	-25.356244
1.400000	-0.033087	-26.269733	-86.805896	119.975020	-86.805896	119.975020	-0.033112	-26.279240
1.450000	-0.034303	-27.191203	-86.299403	127.105661	-86.299403	127.105661	-0.034327	-27.201046
1.500000	-0.035507	-28.111463	-85.621681	133.933210	-85.621681	133.933210	-0.035530	-28.121642
1.550000	-0.036701	-29.030496	-84.800379	140.166811	-84.800379	140.166811	-0.036724	-29.041010
1.600000	-0.037887	-29.948278	-83.874265	145.631070	-83.874265	145.631070	-0.037909	-29.959128
1.650000	-0.039066	-30.864789	-82.882761	150.265059	-82.882761	150.265059	-0.039087	-30.875974
1.700000	-0.040239	-31.780006	-81.859264	154.092086	-81.859264	154.092086	-0.040260	-31.791525
1.750000	-0.041408	-32.693907	-80.828806	157.183509	-80.828806	157.183509	-0.041428	-32.705760
1.800000	-0.042573	-33.606469	-79.808533	159.630079	-79.808533	159.630079	-0.042592	-33.618655
1.850000	-0.043735	-34.517667	-78.809321	161.524093	-78.809321	161.524093	-0.043755	-34.530186
1.900000	-0.044896	-35.427480	-77.837520	162.950325	-77.837520	162.950325	-0.044916	-35.440330
1.950000	-0.046057	-36.335885	-76.896412	163.982567	-76.896412	163.982567	-0.046077	-36.349066
2.000000	-0.047218	-37.242858	-75.987286	164.683188	-75.987286	164.683188	-0.047238	-37.256368
2.050000	-0.048381	-38.148377	-75.110182	165.104086	-75.110182	165.104086	-0.048401	-38.162216
2.100000	-0.049545	-39.052420	-74.264389	165.288139	-74.264389	165.288139	-0.049565	-39.066587
2.150000	-0.050712	-39.954966	-73.448770	165.270691	-73.448770	165.270691	-0.050733	-39.969460
2.200000	-0.051882	-40.855993	-72.661966	165.080910	-72.661966	165.080910	-0.051904	-40.870813
2.250000	-0.053056	-41.755481	-71.902526	164.742940	-71.902526	164.742940	-0.053078	-41.770625
2.300000	-0.054235	-42.653409	-71.168989	164.276856	-71.168989	164.276856	-0.054257	-42.668878
2.350000	-0.055418	-43.549759	-70.459927	163.699428	-70.459927	163.699428	-0.055441	-43.565551
2.400000	-0.056607	-44.444512	-69.773974	163.024749	-69.773974	163.024749	-0.056631	-44.460626
2.450000	-0.057801	-45.337650	-69.109842	162.264722	-69.109842	162.264722	-0.057826	-45.354084
2.500000	-0.059002	-46.229156	-68.466320	161.429466	-68.466320	161.429466	-0.059028	-46.245909
2.550000	-0.060210	-47.118940	-67.841193	160.525078	-67.841193	160.525078	-0.060237	-47.136012
2.600000	-0.061425	-48.007058	-67.234635	159.562107	-67.234635	159.562107	-0.061453	-48.024448
2.650000	-0.062648	-48.893494	-66.645657	158.546853	-66.645657	158.546853	-0.062676	-48.911202
2.700000	-0.063878	-49.778236	-66.073344	157.484798	-66.073344	157.484798	-0.063907	-49.796259
2.750000	-0.065117	-50.661268	-65.516849	156.380736	-65.516849	156.380736	-0.065147	-50.679607
2.800000	-0.066364	-51.542579	-64.975386	155.238874	-64.975386	155.238874	-0.066395	-51.561233
2.850000	-0.067619	-52.422157	-64.448225	154.062928	-64.448225	154.062928	-0.067652	-52.441124
2.900000	-0.068884	-53.299990	-63.934689	152.856184	-63.934689	152.856184	-0.068917	-53.319270
2.950000	-0.070159	-54.176068	-63.434147	151.621569	-63.434147	151.621569	-0.070193	-54.195661
3.000000	-0.071443	-55.050381	-62.946014	150.361693	-62.946014	150.361693	-0.071478	-55.070286
3.050000	-0.072738	-55.922921	-62.469741	149.078894	-62.469741	149.078894	-0.072774	-55.943137
3.100000	-0.074043	-56.793680	-62.004815	147.775273	-62.004815	147.775273	-0.074080	-56.814207
3.150000	-0.075359	-57.662649	-61.550758	146.452725	-61.550758	146.452725	-0.075397	-57.683487
3.200000	-0.076686	-58.529824	-61.107120	145.112962	-61.107120	145.112962	-0.076725	-58.550972
3.250000	-0.078025	-59.395197	-60.673478	143.757535	-60.673478	143.757535	-0.078064	-59.416655
3.300000	-0.079375	-60.258764	-60.249435	142.387852	-60.249435	142.387852	-0.079416	-60.280531
3.350000	-0.080738	-61.120521	-59.834616	141.005197	-59.834616	141.005197	-0.080779	-61.142597
3.400000	-0.082113	-61.980463	-59.428669	139.610738	-59.428669	139.610738	-0.082156	-62.002848
3.450000	-0.083502	-62.838588	-59.031259	138.205544	-59.031259	138.205544	-0.083545	-62.861282
3.500000	-0.084903	-63.694895	-58.642069	136.790591	-58.642069	136.790591	-0.084948	-63.717897
3.550000	-0.086319	-64.549380	-58.260802	135.366774	-58.260802	135.366774	-0.086364	-64.572692
3.600000	-0.087749	-65.402044	-57.887171	133.934912	-57.887171	133.934912	-0.087795	-65.425665
3.650000	-0.089193	-66.252887	-57.520909	132.495757	-57.520909	132.495757	-0.089240	-66.276816
3.700000	-0.090652	-67.101909	-57.161757	131.049999	-57.161757	131.049999	-0.090700	-67.126147
3.750000	-0.092127	-67.949112	-56.809471	129.598272	-56.809471	129.598272	-0.092175	-67.973659
3.800000	-0.093618	-68.794418	-56.463511	128.140946	-56.463511	128.140946	-0.093668	-68.819275
3.850000	-0.095126	-69.637910	-56.123987	126.678809	-56.123987	126.678809	-0.095176	-69.663076
3.900000	-0.096650	-70.479591	-55.790686	125.212345	-55.790686	125.212345	-0.096701	-70.505067
3.950000	-0.098192	-71.319464	-55.463402	123.741997	-55.463402	123.741997	-0.098244	-71.345250
4.000000	-0.099751	-72.157535	-55.141942	122.268172	-55.141942	122.268172	-0.099804	-72.183632
4.050000	-0.101329	-72.993809	-54.826119	120.791242	-54.826119	120.791242	-0.101383	-73.020217
4.100000	-0.102925	-73.828291	-54.515754	119.311549	-54.515754	119.311549	-0.102980	-73.855011
4.150000	-0.104541	-74.660989	-54.210678	117.829403	-54.210678	117.829403	-0.104596	-74.688021
4.200000	-0.106176	-75.491909	-53.910726	116.345087	-53.910726	116.345087	-0.106232	-75.519254
4.250000	-0.107832	-76.321059	-53.615743	114.858861	-53.615743	114.858861	-0.107889	-76.348718
4.300000	-0.109508	-77.148448	-53.325580	113.370959	-53.325580	113.370959	-0.109566	-77.176420
4.350000	-0.111206	-77.974083	-53.040092	111.881594	-53.040092	111.881594	-0.111264	-78.002371
4.400000	-0.112925	-78.797976	-52.759143	110.390958	-52.759143	110.390958	-0.112985	-78.826579
4.450000	-0.114667	-79.620134	-52.482601	108.899225	-52.482601	108.899225	-0.114727	-79.649054
4.500000	-0.116432	-80.440570	-52.210340	107.406551	-52.210340	107.406551	-0.116493	-80.469807
4.550000	-0.118220	-81.259295	-51.942240	105.913077	-51.942240	105.913077	-0.118282	-81.288849
4.600000	-0.120032	-82.076319	-51.678185	104.418927	-51.678185	104.418927	-0.120095	-82.106193
4.650000	-0.121869	-82.891655	-51.418064	102.924214	-51.418064	102.924214	-0.121932	-82.921849
4.700000	-0.123730	-83.705316	-51.161772	101.429037	-51.161772	101.429037	-0.123795	-83.735831
4.750000	-0.125617	-84.517316	-50.909206	99.933484	-50.909206	99.933484	-0.125683	-84.548152
4.800000	-0.127531	-85.327667	-50.660270	98.437632	-50.660270	98.437632	-0.127598	-85.358826
4.850000	-0.129471	-86.136384	-50.414870	96.941549	-50.414870	96.941549	-0.129539	-86.167867
4.900000	-0.131439	-86.943482	-50.172916	95.445297	-50.172916	95.445297	-0.131507	-86.975291
4.950000	-0.133434	-87.748977	-49.934325	93.948926	-49.934325	93.948926	-0.133504	-87.781111
5.000000	-0.135458	-88.552883	-49.699014	92.452484	-49.699014	92.452484	-0.135529	-88.585345
5.050000	-0.137527	-89.354340	-49.465214	90.956013	-49.465214	90.956013	-0.137599	-89.387132
5.100000	-0.139596	-90.155797	-49.237543	89.459542	-49.237543	89.459542	-0.139670	-90.188918
5.150000	-0.141723	-90.954318	-49.010285	87.963141	-49.010285	87.963141	-0.141797	-90.987771
5.200000	-0.143855	-91.752572	-48.788343	86.466747	-48.788343	86.466747	-0.143931	-91.786357
5.250000	-0.146042	-92.548223	-48.567317	84.970511	-48.567317	84.970511	-0.146119	-92.582342
5.300000	-0.148239	-93.343352	-48.350875	83.474306	-48.350875	83.474306	-0.148318	-93.377806
5.350000	-0.150487	-94.136202	-48.135795	81.978314	-48.135795	81.978314	-0.150567	-94.170993
5.400000	-0.152753	-94.928291	-47.924644	80.482393	-47.924644	80.482393	-0.152833	-94.963421
5.450000	-0.155064	-95.718413	-47.715251	78.986720	-47.715251	78.986720	-0.155146	-95.753882
5.500000	-0.157399	-96.507550	-47.509199	77.491172	-47.509199	77.491172	-0.157482	-96.543361
5.550000	-0.159776	-97.295020	-47.305253	75.995894	-47.305253	75.995894	-0.159861	-97.331174
5.600000	-0.162183	-98.081297	-47.104125	74.500809	-47.104125	74.500809	-0.162269	-98.117796
5.650000	-0.164627	-98.866194	-46.905406	73.006009	-46.905406	73.006009	-0.164715	-98.903040
5.700000	-0.167108	-99.649710	-46.709040	71.511493	-46.709040	71.511493	-0.167197	-99.686904
5.750000	-0.169621	-100.432117	-46.515346	70.017266	-46.515346	70.017266	-0.169712	-100.469661
5.800000	-0.172179	-101.212972	-46.323593	68.523443	-46.323593	68.523443	-0.172271	-101.250868
5.850000	-0.174763	-101.992975	-46.134735	67.029902	-46.134735	67.029902	-0.174857	-102.031225
5.900000	-0.177399	-102.771275	-45.947457	65.536923	-45.947457	65.536923	-0.177494	-102.809882
5.950000	-0.180055	-103.548965	-45.763260	64.044201	-45.763260	64.044201	-0.180152	-103.587929
6.000000	-0.182772	-104.324821	-45.580328	62.552248	-45.580328	62.552248	-0.182870	-104.364147
6.050000	-0.185502	-105.100290	-45.400628	61.060501	-45.400628	61.060501	-0.185603	-105.139978
6.100000	-0.188301	-105.873819	-45.221918	59.569788	-45.221918	59.569788	-0.188403	-105.913872
6.150000	-0.191107	-106.647163	-45.046558	58.079199	-45.046558	58.079199	-0.191211	-106.687583
6.200000	-0.193990	-107.418484	-44.871952	56.589976	-44.871952	56.589976	-0.194095	-107.459275
6.250000	-0.196873	-108.189805	-44.700787	55.100753	-44.700787	55.100753	-0.196981	-108.230968
6.300000	-0.199842	-108.959043	-44.530169	53.613306	-44.530169	53.613306	-0.199951	-109.000583
6.350000	-0.202811	-109.728281	-44.362838	52.125859	-44.362838	52.125859	-0.202922	-109.770198
6.400000	-0.205860	-110.495730	-44.196310	50.640334	-44.196310	50.640334	-0.205973	-110.538030
6.450000	-0.208917	-111.263017	-44.032705	49.154982	-44.032705	49.154982	-0.209031	-111.305699
6.500000	-0.212047	-112.028789	-43.870122	47.671670	-43.870122	47.671670	-0.212164	-112.071861
6.550000	-0.215193	-112.794259	-43.710134	46.188765	-43.710134	46.188765	-0.215312	-112.837721
6.600000	-0.218406	-113.558472	-43.551352	44.707977	-43.551352	44.707977	-0.218527	-113.602329
6.650000	-0.221643	-114.322266	-43.394868	43.227896	-43.394868	43.227896	-0.221766	-114.366521
6.700000	-0.224940	-115.085041	-43.239741	41.749962	-43.239741	41.749962	-0.225065	-115.129699
6.750000	-0.228269	-115.847307	-43.086643	40.273102	-43.086643	40.273102	-0.228396	-115.892370
6.800000	-0.231652	-116.608769	-42.935027	38.798362	-42.935027	38.798362	-0.231781	-116.654243
6.850000	-0.235074	-117.369658	-42.785191	37.325137	-42.785191	37.325137	-0.235206	-117.415547
6.900000	-0.238544	-118.129939	-42.636938	35.853937	-42.636938	35.853937	-0.238678	-118.176247
6.950000	-0.242061	-118.889610	-42.490232	34.384763	-42.490232	34.384763	-0.242197	-118.936342
7.000000	-0.245619	-119.648843	-42.345191	32.917450	-42.345191	32.917450	-0.245757	-119.696003
7.050000	-0.249232	-120.407461	-42.201473	31.452743	-42.201473	31.452743	-0.249372	-120.455057
7.100000	-0.252878	-121.165786	-42.059491	29.989658	-42.059491	29.989658	-0.253021	-121.213820
7.150000	-0.256589	-121.923524	-41.918609	28.529818	-41.918609	28.529818	-0.256734	-121.972004
7.200000	-0.260326	-122.681086	-41.779528	27.071290	-41.779528	27.071290	-0.260473	-122.730016
7.250000	-0.264136	-123.438120	-41.641318	25.616694	-41.641318	25.616694	-0.264285	-123.487510
7.300000	-0.267963	-124.195069	-41.504974	24.163030	-41.504974	24.163030	-0.268116	-124.244920
7.350000	-0.271873	-124.951587	-41.369263	22.714021	-41.369263	22.714021	-0.272028	-125.001911
7.400000	-0.275793	-125.708077	-41.235486	21.265502	-41.235486	21.265502	-0.275951	-125.758877
7.450000	-0.279805	-126.464272	-41.102086	19.822372	-41.102086	19.822372	-0.279965	-126.515560
7.500000	-0.283819	-127.220466	-40.970703	18.379243	-40.970703	18.379243	-0.283982	-127.272243
7.550000	-0.287933	-127.976539	-40.839414	16.942228	-40.839414	16.942228	-0.288100	-128.028822
7.600000	-0.292050	-128.732612	-40.710080	15.505212	-40.710080	15.505212	-0.292219	-128.785400
7.650000	-0.296261	-129.488765	-40.580854	14.073951	-40.580854	14.073951	-0.296434	-129.542077
7.700000	-0.300483	-130.244926	-40.453363	12.643213	-40.453363	12.643213	-0.300658	-130.298762
7.750000	-0.304792	-131.001342	-40.325994	11.217771	-40.325994	11.217771	-0.304970	-131.055721
7.800000	-0.309120	-131.757810	-40.200128	9.793388	-40.200128	9.793388	-0.309302	-131.812734
7.850000	-0.313528	-132.514679	-40.074405	8.373759	-40.074405	8.373759	-0.313714	-132.570166
7.900000	-0.317965	-133.271683	-39.949932	6.955714	-39.949932	6.955714	-0.318154	-133.327737
7.950000	-0.322474	-134.029202	-39.825637	5.541810	-39.825637	5.541810	-0.322667	-134.085840
8.000000	-0.327021	-134.786979	-39.702316	4.129977	-39.702316	4.129977	-0.327218	-134.844210
8.050000	-0.331633	-135.545352	-39.579226	2.721622	-39.579226	2.721622	-0.331834	-135.603192
8.100000	-0.336292	-136.304151	-39.456802	1.315751	-39.456802	1.315751	-0.336498	-136.362612
8.150000	-0.341009	-137.063592	-39.334688	-0.087330	-39.334688	-0.087330	-0.341220	-137.122687
8.200000	-0.345784	-137.823673	-39.212895	-1.487620	-39.212895	-1.487620	-0.345999	-137.883419
8.250000	-0.350609	-138.584402	-39.091525	-2.885807	-39.091525	-2.885807	-0.350829	-138.644812
8.300000	-0.355502	-139.346038	-38.970087	-4.281049	-38.970087	-4.281049	-0.355727	-139.407130
8.350000	-0.360437	-140.108286	-38.849224	-5.674838	-38.849224	-5.674838	-0.360668	-140.170073
8.400000	-0.365452	-140.871759	-38.727852	-7.065723	-38.727852	-7.065723	-0.365688	-140.934264
8.450000	-0.370499	-141.635765	-38.607256	-8.455736	-38.607256	-8.455736	-0.370742	-141.699000
8.500000	-0.375640	-142.401373	-38.485656	-9.843134	-38.485656	-9.843134	-0.375889	-142.465366
8.550000	-0.380804	-143.167388	-38.365082	-11.230128	-38.365082	-11.230128	-0.381060	-143.232146
8.600000	-0.386074	-143.935441	-38.242946	-12.615102	-38.242946	-12.615102	-0.386338	-144.001001
8.650000	-0.391358	-144.703724	-38.122150	-13.999979	-38.122150	-13.999979	-0.391630	-144.770090
8.700000	-0.396763	-145.474548	-37.999165	-15.383803	-37.999165	-15.383803	-0.397043	-145.541762
8.750000	-0.402172	-146.245372	-37.877897	-16.767626	-37.877897	-16.767626	-0.402460	-146.313434
8.800000	-0.407718	-147.019307	-37.753741	-18.151805	-37.753741	-18.151805	-0.408016	-147.088270
8.850000	-0.413267	-147.793242	-37.631335	-19.535983	-37.631335	-19.535983	-0.413575	-147.863106
8.900000	-0.418949	-148.570357	-37.506099	-20.922102	-37.506099	-20.922102	-0.419267	-148.641173
8.950000	-0.424646	-149.347761	-37.382236	-22.308398	-37.382236	-22.308398	-0.424975	-149.419534
9.000000	-0.430469	-150.128368	-37.255655	-23.698159	-37.255655	-23.698159	-0.430810	-150.201150
9.050000	-0.436321	-150.909615	-37.130013	-25.088615	-37.130013	-25.088615	-0.436674	-150.983416
9.100000	-0.442293	-151.694040	-37.001825	-26.483957	-37.001825	-26.483957	-0.442660	-151.768910
9.150000	-0.448308	-152.479523	-36.874076	-27.880928	-36.874076	-27.880928	-0.448689	-152.555480
9.200000	-0.454437	-153.268106	-36.744023	-29.284049	-36.744023	-29.284049	-0.454834	-153.345199
9.250000	-0.460626	-154.058239	-36.613841	-30.690243	-36.613841	-30.690243	-0.461038	-154.136491
9.300000	-0.466921	-154.851335	-36.481670	-32.103626	-36.481670	-32.103626	-0.467350	-154.930795
9.350000	-0.473293	-155.646550	-36.348728	-33.522143	-36.348728	-33.522143	-0.473741	-155.727250
9.400000	-0.479764	-156.444532	-36.214195	-34.948592	-36.214195	-34.948592	-0.480231	-156.526517
9.450000	-0.486333	-157.245282	-36.078174	-36.382973	-36.078174	-36.382973	-0.486821	-157.328596
9.500000	-0.492991	-158.048538	-35.941047	-37.825648	-35.941047	-37.825648	-0.493501	-158.133221
9.550000	-0.499772	-158.855302	-35.801638	-39.279936	-35.801638	-39.279936	-0.500305	-158.941410
9.600000	-0.506629	-159.664238	-35.661701	-40.742395	-35.661701	-40.742395	-0.507188	-159.751805
9.650000	-0.513637	-160.477518	-35.518613	-42.221198	-35.518613	-42.221198	-0.514222	-160.566614
9.700000	-0.520708	-161.292559	-35.375673	-43.707442	-35.375673	-43.707442	-0.521322	-161.383213
9.750000	-0.527961	-162.112882	-35.228644	-45.216011	-35.228644	-45.216011	-0.528605	-162.205179
9.800000	-0.535262	-162.934472	-35.082537	-46.730539	-35.082537	-46.730539	-0.535937	-163.028432
9.850000	-0.542780	-163.762393	-34.931347	-48.274855	-34.931347	-48.274855	-0.543491	-163.858121
9.900000	-0.550328	-164.590996	-34.781946	-49.822717	-34.781946	-49.822717	-0.551074	-164.688503
9.950000	-0.558135	-165.427099	-34.626438	-51.409582	-34.626438	-51.409582	-0.558921	-165.526508
10.000000	-0.565949	-166.263202	-34.473665	-52.996446	-34.473665	-52.996446	-0.566776	-166.364513
