! freq	dB(S11)	phase(S11)	dB(S12)	phase(S12)	
!     	dB(S21)	phase(S21)	dB(S22)	phase(S22)	
!S-par simulation data
#  GHz  S  DB  R 50
0.000000	-85.048194	0.000000	-0.000486	0.000000	-0.000486	0.000000	-85.048194	0.000000
0.050000	-42.914779	-92.190895	-0.001926	-2.480167	-0.001926	-2.480167	-42.915512	-91.933998
0.100000	-36.908071	-95.054550	-0.005764	-4.952462	-0.005764	-4.952462	-36.908307	-94.541290
0.150000	-33.409138	-97.764104	-0.011004	-7.413595	-0.011004	-7.413595	-33.408629	-96.995204
0.200000	-30.941570	-100.432086	-0.016796	-9.865020	-0.016796	-9.865020	-30.940188	-99.408217
0.250000	-29.042957	-103.079578	-0.022733	-12.309317	-0.022733	-12.309317	-29.040665	-101.801068
0.300000	-27.507105	-105.714262	-0.028682	-14.748917	-0.028682	-14.748917	-27.503951	-104.180851
0.350000	-26.223976	-108.339814	-0.034652	-17.185444	-0.034652	-17.185444	-26.220063	-106.550518
0.400000	-25.127875	-110.958493	-0.040689	-19.619815	-0.040689	-19.619815	-25.123337	-108.911566
0.450000	-24.176435	-113.571909	-0.046834	-22.052471	-0.046834	-22.052471	-24.171424	-111.264875
0.500000	-23.340751	-116.181280	-0.053111	-24.483573	-0.053111	-24.483573	-23.335423	-113.611002
0.550000	-22.600234	-118.787523	-0.059523	-26.913126	-0.059523	-26.913126	-22.594748	-115.950294
0.600000	-21.939713	-121.391287	-0.066060	-29.341056	-0.066060	-29.341056	-21.934228	-118.282919
0.650000	-21.347960	-123.992946	-0.072697	-31.767242	-0.072697	-31.767242	-21.342641	-120.608814
0.700000	-20.816095	-126.592656	-0.079400	-34.191571	-0.079400	-34.191571	-20.811106	-122.927828
0.750000	-20.336893	-129.190390	-0.086130	-36.613973	-0.086130	-36.613973	-20.332387	-125.239736
0.800000	-19.904817	-131.785981	-0.092848	-39.034386	-0.092848	-39.034386	-19.900923	-127.544131
0.850000	-19.515438	-134.379263	-0.099509	-41.452784	-0.099509	-41.452784	-19.512241	-129.840526
0.900000	-19.165197	-136.970211	-0.106073	-43.869181	-0.106073	-43.869181	-19.162726	-132.128419
0.950000	-18.851219	-139.559072	-0.112497	-46.283640	-0.112497	-46.283640	-18.849444	-134.407352
1.000000	-18.571175	-142.146430	-0.118741	-48.696268	-0.118741	-48.696268	-18.570012	-136.676969
1.050000	-18.323158	-144.733213	-0.124765	-51.107218	-0.124765	-51.107218	-18.322494	-138.937057
1.100000	-18.105605	-147.320620	-0.130531	-53.516692	-0.130531	-53.516692	-18.105319	-141.187540
1.150000	-17.917230	-149.910028	-0.136004	-55.924932	-0.136004	-55.924932	-17.917219	-143.428451
1.200000	-17.756992	-152.502900	-0.141150	-58.332221	-0.141150	-58.332221	-17.757180	-145.659872
1.250000	-17.624066	-155.100726	-0.145937	-60.738881	-0.145937	-60.738881	-17.624413	-147.881863
1.300000	-17.518385	-157.705174	-0.150330	-63.145272	-0.150330	-63.145272	-17.518886	-150.094191
1.350000	-17.438993	-160.317648	-0.154311	-65.551794	-0.154311	-65.551794	-17.439669	-152.296885
1.400000	-17.385672	-162.939705	-0.157860	-67.958864	-0.157860	-67.958864	-17.386563	-154.489588
1.450000	-17.358404	-165.572992	-0.160961	-70.366921	-0.160961	-70.366921	-17.359561	-156.671732
1.500000	-17.357372	-168.219297	-0.163602	-72.776424	-0.163602	-72.776424	-17.358853	-158.842507
1.550000	-17.382968	-170.880597	-0.165777	-75.187851	-0.165777	-75.187851	-17.384836	-161.000832
1.600000	-17.435809	-173.559124	-0.167484	-77.601693	-0.167484	-77.601693	-17.438129	-163.145313
1.650000	-17.516752	-176.257428	-0.168726	-80.018450	-0.168726	-80.018450	-17.519588	-165.274182
1.700000	-17.626922	-178.978467	-0.169515	-82.438631	-0.169515	-82.438631	-17.630339	-167.385219
1.750000	-17.767744	178.274295	-0.169867	-84.862750	-0.169867	-84.862750	-17.771808	-169.475649
1.800000	-17.940992	175.496742	-0.169803	-87.291319	-0.169803	-87.291319	-17.945772	-171.541986
1.850000	-18.148849	172.683933	-0.169352	-89.724849	-0.169352	-89.724849	-18.154413	-173.579847
1.900000	-18.394338	169.829318	-0.168546	-92.163910	-0.168546	-92.163910	-18.400758	-175.583221
1.950000	-18.680764	166.925142	-0.167429	-94.609011	-0.167429	-94.609011	-18.688111	-177.544685
2.000000	-19.011795	163.962345	-0.166053	-97.060573	-0.166053	-97.060573	-19.020140	-179.455230
2.050000	-19.392370	160.928740	-0.164475	-99.519058	-0.164475	-99.519058	-19.401781	178.697454
2.100000	-19.827686	157.810963	-0.162757	-101.984717	-0.162757	-101.984717	-19.838219	176.927362
2.150000	-20.327027	154.583996	-0.160963	-104.458291	-0.160963	-104.458291	-20.338712	175.260160
2.200000	-20.899566	151.219998	-0.159170	-106.940049	-0.159170	-106.940049	-20.912380	173.725488
2.250000	-21.558128	147.676370	-0.157462	-109.430397	-0.157462	-109.430397	-21.571944	172.368710
2.300000	-22.318877	143.893874	-0.155923	-111.929585	-0.155923	-111.929585	-22.333368	171.253487
2.350000	-23.203878	139.780807	-0.154647	-114.437888	-0.154647	-114.437888	-23.218312	170.478481
2.400000	-24.243281	135.191105	-0.153731	-116.955537	-0.153731	-116.955537	-24.256089	170.200913
2.450000	-25.479090	129.878562	-0.153276	-119.482716	-0.153276	-119.482716	-25.486867	170.685152
2.500000	-26.970215	123.398851	-0.153389	-122.019555	-0.153389	-122.019555	-26.965238	172.405093
2.550000	-28.794967	114.841034	-0.154187	-124.566239	-0.154187	-124.566239	-28.758228	176.317764
2.600000	-31.023641	102.309832	-0.155777	-127.122678	-0.155777	-127.122678	-30.905637	-175.654724
2.650000	-33.510417	81.739105	-0.158273	-129.688830	-0.158273	-129.688830	-33.190687	-159.730487
2.700000	-35.056163	48.640128	-0.161792	-132.264588	-0.161792	-132.264588	-34.433876	-132.841228
2.750000	-33.823885	12.961592	-0.166449	-134.849781	-0.166449	-134.849781	-33.198102	-104.708660
2.800000	-31.077306	-10.688218	-0.172362	-137.444172	-0.172362	-137.444172	-30.640444	-87.223313
2.850000	-28.428114	-24.794014	-0.179659	-140.047524	-0.179659	-140.047524	-28.126703	-78.407794
2.900000	-26.187363	-34.181855	-0.188446	-142.659410	-0.188446	-142.659410	-25.965209	-74.119371
2.950000	-24.302503	-41.177900	-0.198830	-145.279363	-0.198830	-145.279363	-24.128419	-72.213352
3.000000	-22.691470	-46.845571	-0.210918	-147.906875	-0.210918	-147.906875	-22.548459	-71.664200
3.050000	-21.290256	-51.713992	-0.224811	-150.541372	-0.224811	-150.541372	-21.168521	-71.946982
3.100000	-20.052935	-56.069215	-0.240605	-153.182216	-0.240605	-153.182216	-19.946464	-72.772262
3.150000	-18.946494	-60.076051	-0.258399	-155.828737	-0.258399	-155.828737	-18.851391	-73.970713
3.200000	-17.947018	-63.837856	-0.278276	-158.480170	-0.278276	-158.480170	-17.860640	-75.434515
3.250000	-17.036727	-67.421710	-0.300297	-161.135676	-0.300297	-161.135676	-16.957213	-77.092551
3.300000	-16.201975	-70.871501	-0.324524	-163.794404	-0.324524	-163.794404	-16.127967	-78.897450
3.350000	-15.432158	-74.217673	-0.351011	-166.455459	-0.351011	-166.455459	-15.362640	-80.815609
3.400000	-14.718886	-77.481875	-0.379800	-169.117913	-0.379800	-169.117913	-14.653079	-82.822461
3.450000	-14.055401	-80.679667	-0.410927	-171.780808	-0.410927	-171.780808	-13.992697	-84.899702
3.500000	-13.436197	-83.822458	-0.444423	-174.443146	-0.444423	-174.443146	-13.376112	-87.033280
3.550000	-12.856747	-86.919358	-0.480279	-177.103933	-0.480279	-177.103933	-12.798890	-89.211545
3.600000	-12.313227	-89.976841	-0.518487	-179.762169	-0.518487	-179.762169	-12.257277	-91.425599
3.650000	-11.802397	-92.999834	-0.559032	177.583146	-0.559032	177.583146	-11.748090	-93.668174
3.700000	-11.321484	-95.992101	-0.601884	174.933000	-0.601884	174.933000	-11.268600	-95.933240
3.750000	-10.868091	-98.956532	-0.647003	172.288369	-0.647003	172.288369	-10.816443	-98.215724
3.800000	-10.440170	-101.895087	-0.694356	169.650285	-0.694356	169.650285	-10.389599	-100.511407
3.850000	-10.035852	-104.809760	-0.743858	167.019610	-0.743858	167.019610	-9.986223	-102.816404
3.900000	-9.653505	-107.701851	-0.795434	164.397231	-0.795434	164.397231	-9.604702	-105.127509
3.950000	-9.291672	-110.572362	-0.849002	161.783992	-0.849002	161.783992	-9.243595	-107.441921
4.000000	-8.949184	-113.421516	-0.904508	159.180981	-0.904508	159.180981	-8.901744	-109.757149
4.050000	-8.624608	-116.250916	-0.961775	156.588449	-0.961775	156.588449	-8.577731	-112.071024
4.100000	-8.316972	-119.060577	-1.020730	154.007301	-1.020730	154.007301	-8.270593	-114.381662
4.150000	-8.025287	-121.850873	-1.081256	151.438174	-1.081256	151.438174	-7.979349	-116.687380
4.200000	-7.748646	-124.622114	-1.143234	148.881640	-1.143234	148.881640	-7.703099	-118.986694
4.250000	-7.486211	-127.374562	-1.206539	146.338213	-1.206539	146.338213	-7.441011	-121.278301
4.300000	-7.237205	-130.108457	-1.271039	143.808341	-1.271039	143.808341	-7.192315	-123.561059
4.350000	-7.000906	-132.824025	-1.336604	141.292411	-1.336604	141.292411	-6.956292	-125.833977
4.400000	-6.776703	-135.521296	-1.403102	138.790903	-1.403102	138.790903	-6.732338	-128.096072
4.450000	-6.563966	-138.200514	-1.470390	136.304083	-1.470390	136.304083	-6.519826	-130.346595
4.500000	-6.362037	-140.862123	-1.538329	133.831988	-1.538329	133.831988	-6.318101	-132.585054
4.550000	-6.170360	-143.506391	-1.606783	131.374753	-1.606783	131.374753	-6.126612	-134.810950
4.600000	-5.988414	-146.133610	-1.675615	128.932452	-1.675615	128.932452	-5.944839	-137.023881
4.650000	-5.815704	-148.744095	-1.744692	126.505103	-1.744692	126.505103	-5.772292	-139.223538
4.700000	-5.651768	-151.338186	-1.813883	124.092672	-1.813883	124.092672	-5.608510	-141.409694
4.750000	-5.496167	-153.916252	-1.883059	121.695073	-1.883059	121.695073	-5.453056	-143.582204
4.800000	-5.348487	-156.478684	-1.952093	119.312170	-1.952093	119.312170	-5.305520	-145.740991
4.850000	-5.208338	-159.025902	-2.020862	116.943786	-2.020862	116.943786	-5.165512	-147.886047
4.900000	-5.075350	-161.558347	-2.089249	114.589698	-2.089249	114.589698	-5.032665	-150.017424
4.950000	-4.949174	-164.076484	-2.157138	112.249645	-2.157138	112.249645	-4.906631	-152.135229
5.000000	-4.829478	-166.580797	-2.224418	109.923331	-2.224418	109.923331	-4.787083	-154.239621
5.050000	-4.716049	-169.071513	-2.290956	107.610707	-2.290956	107.610707	-4.673805	-156.330523
5.100000	-4.608486	-171.549456	-2.356675	105.311112	-2.356675	105.311112	-4.566401	-158.408475
5.150000	-4.506510	-174.015161	-2.421479	103.024155	-2.421479	103.024155	-4.464592	-160.473764
5.200000	-4.409858	-176.469178	-2.485277	100.749424	-2.485277	100.749424	-4.368117	-162.526710
5.250000	-4.318279	-178.912066	-2.547983	98.486481	-2.547983	98.486481	-4.276725	-164.567663
5.300000	-4.231536	178.655607	-2.609516	96.234871	-2.609516	96.234871	-4.190184	-166.597000
5.350000	-4.149406	176.233264	-2.669799	93.994123	-2.669799	93.994123	-4.108270	-168.615120
5.400000	-4.071679	173.820326	-2.728762	91.763749	-2.728762	91.763749	-4.030774	-170.622445
5.450000	-3.998155	171.416211	-2.786338	89.543253	-2.786338	89.543253	-3.957498	-172.619415
5.500000	-3.928645	169.020334	-2.842465	87.332126	-2.842465	87.332126	-3.888254	-174.606484
5.550000	-3.862972	166.632110	-2.897087	85.129851	-2.897087	85.129851	-3.822867	-176.584122
5.600000	-3.800967	164.250958	-2.950151	82.935906	-2.950151	82.935906	-3.761170	-178.552810
5.650000	-3.742504	161.876363	-3.001589	80.749844	-3.001589	80.749844	-3.703037	179.487048
5.700000	-3.687431	159.507730	-3.051356	78.571117	-3.051356	78.571117	-3.648319	177.534937
5.750000	-3.635574	157.144420	-3.099435	76.399111	-3.099435	76.399111	-3.596840	175.590258
5.800000	-3.586798	154.785872	-3.145791	74.233294	-3.145791	74.233294	-3.548470	173.652500
5.850000	-3.540979	152.431532	-3.190394	72.073139	-3.190394	72.073139	-3.503085	171.721146
5.900000	-3.498000	150.080856	-3.233216	69.918120	-3.233216	69.918120	-3.460568	169.795680
5.950000	-3.457749	147.733307	-3.274234	67.767715	-3.274234	67.767715	-3.420810	167.875578
6.000000	-3.420122	145.388364	-3.313428	65.621409	-3.313428	65.621409	-3.383707	165.960319
6.050000	-3.385021	143.045512	-3.350781	63.478688	-3.350781	63.478688	-3.349162	164.049380
6.100000	-3.352353	140.704251	-3.386281	61.339049	-3.386281	61.339049	-3.317085	162.142237
6.150000	-3.322032	138.364094	-3.419916	59.201994	-3.419916	59.201994	-3.287389	160.238366
6.200000	-3.293976	136.024566	-3.451678	57.067030	-3.451678	57.067030	-3.259994	158.337244
6.250000	-3.268109	133.685207	-3.481563	54.933676	-3.481563	54.933676	-3.234824	156.438351
6.300000	-3.244425	131.345549	-3.509503	52.801479	-3.509503	52.801479	-3.211877	154.541207
6.350000	-3.222789	129.005156	-3.535562	50.669917	-3.535562	50.669917	-3.191016	152.645216
6.400000	-3.203138	126.663614	-3.559743	48.538531	-3.559743	48.538531	-3.172179	150.749862
6.450000	-3.185414	124.320524	-3.582048	46.406871	-3.582048	46.406871	-3.155310	148.854629
6.500000	-3.169466	121.975625	-3.602587	44.274548	-3.602587	44.274548	-3.140254	146.959045
6.550000	-3.155423	119.628361	-3.621179	42.141058	-3.621179	42.141058	-3.127147	145.062560
6.600000	-3.143158	117.278465	-3.637916	40.005996	-3.637916	40.005996	-3.115858	143.164674
6.650000	-3.132629	114.925603	-3.652809	37.868941	-3.652809	37.868941	-3.106347	141.264878
6.700000	-3.123796	112.569463	-3.665869	35.729479	-3.665869	35.729479	-3.098572	139.362665
6.750000	-3.116622	110.209750	-3.677109	33.587201	-3.677109	33.587201	-3.092499	137.457531
6.800000	-3.111076	107.846186	-3.686543	31.441705	-3.686543	31.441705	-3.088094	135.548973
6.850000	-3.107128	105.478514	-3.694187	29.292594	-3.694187	29.292594	-3.085326	133.636486
6.900000	-3.104767	103.106441	-3.700039	27.139430	-3.700039	27.139430	-3.084186	131.719516
6.950000	-3.103968	100.729742	-3.704117	24.981812	-3.704117	24.981812	-3.084648	129.797545
7.000000	-3.104695	98.348261	-3.706460	22.819405	-3.706460	22.819405	-3.086673	127.870121
7.050000	-3.106928	95.961817	-3.707090	20.651832	-3.707090	20.651832	-3.090240	125.936742
7.100000	-3.110653	93.570248	-3.706027	18.478723	-3.706027	18.478723	-3.095333	123.996909
7.150000	-3.115856	91.173410	-3.703294	16.299709	-3.703294	16.299709	-3.101938	122.050120
7.200000	-3.122528	88.771179	-3.698917	14.114430	-3.698917	14.114430	-3.110042	120.095874
7.250000	-3.130661	86.363451	-3.692920	11.922529	-3.692920	11.922529	-3.119635	118.133669
7.300000	-3.140249	83.950143	-3.685332	9.723652	-3.685332	9.723652	-3.130710	116.162999
7.350000	-3.151290	81.531187	-3.676178	7.517453	-3.676178	7.517453	-3.143262	114.183359
7.400000	-3.163785	79.106540	-3.665491	5.303590	-3.665491	5.303590	-3.157287	112.194241
7.450000	-3.177735	76.676175	-3.653299	3.081724	-3.653299	3.081724	-3.172785	110.195133
7.500000	-3.193144	74.240085	-3.639635	0.851527	-3.639635	0.851527	-3.189756	108.185522
7.550000	-3.210052	71.798160	-3.624501	-1.387525	-3.624501	-1.387525	-3.208237	106.164640
7.600000	-3.228438	69.350558	-3.607965	-3.635566	-3.607965	-3.635566	-3.228201	104.132192
7.650000	-3.248312	66.897329	-3.590060	-5.892911	-3.590060	-5.892911	-3.249656	102.087654
7.700000	-3.269690	64.438546	-3.570826	-8.159862	-3.570826	-8.159862	-3.272614	100.030494
7.750000	-3.292588	61.974297	-3.550298	-10.436718	-3.550298	-10.436718	-3.297087	97.960178
7.800000	-3.317025	59.504689	-3.528517	-12.723768	-3.528517	-12.723768	-3.323090	95.876163
7.850000	-3.343024	57.029849	-3.505521	-15.021296	-3.505521	-15.021296	-3.350640	93.777901
7.900000	-3.370609	54.549918	-3.481352	-17.329575	-3.481352	-17.329575	-3.379759	91.664838
7.950000	-3.399804	52.065056	-3.456051	-19.648871	-3.456051	-19.648871	-3.410467	89.536411
8.000000	-3.430641	49.575439	-3.429660	-21.979444	-3.429660	-21.979444	-3.442791	87.392051
8.050000	-3.463149	47.081260	-3.402223	-24.321543	-3.402223	-24.321543	-3.476757	85.231179
8.100000	-3.497363	44.582726	-3.373781	-26.675411	-3.373781	-26.675411	-3.512398	83.053206
8.150000	-3.533335	42.080017	-3.344368	-29.041414	-3.344368	-29.041414	-3.549762	80.857335
8.200000	-3.571107	39.573380	-3.314029	-31.419786	-3.314029	-31.419786	-3.588887	78.642936
8.250000	-3.610700	37.063111	-3.282819	-33.810617	-3.282819	-33.810617	-3.629796	76.409581
8.300000	-3.652159	34.549475	-3.250782	-36.214116	-3.250782	-36.214116	-3.672532	74.156637
8.350000	-3.695580	32.032669	-3.217938	-38.630870	-3.217938	-38.630870	-3.717188	71.882851
8.400000	-3.740833	29.513261	-3.184419	-41.059731	-3.184419	-41.059731	-3.763641	69.589724
8.450000	-3.788242	26.991146	-3.150136	-43.502952	-3.150136	-43.502952	-3.812209	67.273253
8.500000	-3.837620	24.466958	-3.115244	-45.958920	-3.115244	-45.958920	-3.862716	64.935701
8.550000	-3.889162	21.940855	-3.079726	-48.428870	-3.079726	-48.428870	-3.915357	62.574618
8.600000	-3.942893	19.413198	-3.043637	-50.912723	-3.043637	-50.912723	-3.970163	60.189728
8.650000	-3.998799	16.884374	-3.007047	-53.410126	-3.007047	-53.410126	-4.027130	57.781221
8.700000	-4.057131	14.354627	-2.969933	-55.922633	-2.969933	-55.922633	-4.086514	55.345927
8.750000	-4.117651	11.824403	-2.932432	-58.448219	-2.932432	-58.448219	-4.148092	52.887034
8.800000	-4.180852	9.293995	-2.894460	-60.990166	-2.894460	-60.990166	-4.212367	50.398094
8.850000	-4.246378	6.763768	-2.856174	-63.545560	-2.856174	-63.545560	-4.278999	47.884032
8.900000	-4.314618	4.234130	-2.817535	-66.116908	-2.817535	-66.116908	-4.348397	45.339665
8.950000	-4.385450	1.705374	-2.778626	-68.702971	-2.778626	-68.702971	-4.420452	42.766896
9.000000	-4.459033	-0.822097	-2.739469	-71.304573	-2.739469	-71.304573	-4.495351	40.163659
9.050000	-4.535494	-3.347892	-2.700096	-73.922262	-2.700096	-73.922262	-4.573242	37.528409
9.100000	-4.614747	-5.871794	-2.660572	-76.555071	-2.660572	-76.555071	-4.654059	34.862626
9.150000	-4.697183	-8.393145	-2.620893	-79.205467	-2.620893	-79.205467	-4.738239	32.160844
9.200000	-4.782499	-10.912031	-2.581150	-81.870897	-2.581150	-81.870897	-4.825483	29.427887
9.250000	-4.871236	-13.427534	-2.541336	-84.554921	-2.541336	-84.554921	-4.916397	26.655893
9.300000	-4.963087	-15.939863	-2.501532	-87.254930	-2.501532	-87.254930	-5.010674	23.849953
9.350000	-5.058427	-18.448267	-2.461764	-89.973316	-2.461764	-89.973316	-5.108752	21.004576
9.400000	-5.157223	-20.952638	-2.422088	-92.709451	-2.422088	-92.709451	-5.210617	18.120735
9.450000	-5.259583	-23.452652	-2.382554	-95.463767	-2.382554	-95.463767	-5.316416	15.197129
9.500000	-5.365764	-25.947724	-2.343218	-98.237813	-2.343218	-98.237813	-5.426457	12.230005
9.550000	-5.475596	-28.438121	-2.304136	-101.029853	-2.304136	-101.029853	-5.540567	9.222870
9.600000	-5.589635	-30.922637	-2.265395	-103.843850	-2.265395	-103.843850	-5.659398	6.166537
9.650000	-5.707522	-33.402044	-2.227035	-106.676462	-2.227035	-106.676462	-5.782547	3.068177
9.700000	-5.829831	-35.875073	-2.189184	-109.531894	-2.189184	-109.531894	-5.910678	-0.082083
9.750000	-5.956354	-38.342281	-2.151886	-112.407876	-2.151886	-112.407876	-6.043548	-3.279439
9.800000	-6.087433	-40.802949	-2.115276	-115.306749	-2.115276	-115.306749	-6.181535	-6.529674
9.850000	-6.223169	-43.256981	-2.079456	-118.228740	-2.079456	-118.228740	-6.324730	-9.833772
9.900000	-6.363617	-45.704439	-2.044522	-121.173625	-2.044522	-121.173625	-6.473157	-13.191728
9.950000	-6.509195	-48.144474	-2.010695	-124.144428	-2.010695	-124.144428	-6.627220	-16.611313
10.000000	-6.659673	-50.578025	-1.977970	-127.138011	-1.977970	-127.138011	-6.786604	-20.085721
