! freq	dB(S11)	phase(S11)	dB(S12)	phase(S12)	
!     	dB(S21)	phase(S21)	dB(S22)	phase(S22)	
!S-par simulation data
#  GHz  S  DB  R 50
0.000000	-0.000000	0.000000	-360.610046	0.000000	-360.610046	0.000000	-0.000000	0.000000
0.050000	-0.000101	-0.768112	-115.945998	86.420663	-115.945998	86.420663	-0.000107	-0.861820
0.100000	-0.000400	-1.535974	-110.302554	84.752958	-110.302554	84.752958	-0.000424	-1.723383
0.150000	-0.000882	-2.303358	-107.101424	84.176721	-107.101424	84.176721	-0.000939	-2.584451
0.200000	-0.001529	-3.070079	-104.869487	83.910718	-104.869487	83.910718	-0.001631	-3.444825
0.250000	-0.002324	-3.835932	-103.187999	83.704584	-103.187999	83.704584	-0.002488	-4.304280
0.300000	-0.003229	-4.600888	-101.867368	83.511134	-101.867368	83.511134	-0.003470	-5.162769
0.350000	-0.004225	-5.364852	-100.817058	83.348583	-100.817058	83.348583	-0.004559	-6.020173
0.400000	-0.005289	-6.127794	-99.981511	83.250898	-99.981511	83.250898	-0.005731	-6.876438
0.450000	-0.006401	-6.889716	-99.326047	83.260151	-99.326047	83.260151	-0.006964	-7.731543
0.500000	-0.007542	-7.650639	-98.828502	83.425960	-98.828502	83.425960	-0.008237	-8.585492
0.550000	-0.008699	-8.410596	-98.474867	83.808824	-98.474867	83.808824	-0.009536	-9.438302
0.600000	-0.009860	-9.169629	-98.256760	84.485853	-98.256760	84.485853	-0.010846	-10.290004
0.650000	-0.011018	-9.927778	-98.169696	85.559224	-98.169696	85.559224	-0.012158	-11.140629
0.700000	-0.012166	-10.685085	-98.211472	87.168489	-98.211472	87.168489	-0.013463	-11.990215
0.750000	-0.013302	-11.441584	-98.379913	89.508177	-98.379913	89.508177	-0.014757	-12.838792
0.800000	-0.014423	-12.197307	-98.668710	92.851165	-98.668710	92.851165	-0.016035	-13.686390
0.850000	-0.015528	-12.952276	-99.059059	97.572546	-99.059059	97.572546	-0.017296	-14.533032
0.900000	-0.016618	-13.706510	-99.503564	104.149051	-99.503564	104.149051	-0.018538	-15.378737
0.950000	-0.017692	-14.460022	-99.900700	113.062896	-99.900700	113.062896	-0.019763	-16.223517
1.000000	-0.018751	-15.212818	-100.073849	124.494924	-100.073849	124.494924	-0.020969	-17.067379
1.050000	-0.019797	-15.964901	-99.805322	137.820390	-99.805322	137.820390	-0.022158	-17.910326
1.100000	-0.020830	-16.716270	-98.968141	151.399928	-98.968141	151.399928	-0.023331	-18.752354
1.150000	-0.021853	-17.466920	-97.641762	163.368909	-97.641762	163.368909	-0.024489	-19.593460
1.200000	-0.022866	-18.216845	-96.038681	172.777426	-96.038681	172.777426	-0.025634	-20.433632
1.250000	-0.023870	-18.966033	-94.350184	179.691382	-94.350184	179.691382	-0.026767	-21.272860
1.300000	-0.024867	-19.714442	-92.677978	-175.456988	-92.677978	-175.456988	-0.027888	-22.111086
1.350000	-0.025856	-20.462090	-91.085467	-172.056068	-91.085467	-172.056068	-0.029001	-22.948336
1.400000	-0.026841	-21.208963	-89.586670	-169.717886	-89.586670	-169.717886	-0.030105	-23.784590
1.450000	-0.027821	-21.955046	-88.181183	-168.162237	-88.181183	-168.162237	-0.031203	-24.619831
1.500000	-0.028796	-22.700323	-86.862869	-167.190511	-86.862869	-167.190511	-0.032294	-25.454039
1.550000	-0.029769	-23.444780	-85.623828	-166.661708	-85.623828	-166.661708	-0.033380	-26.287193
1.600000	-0.030739	-24.188399	-84.456090	-166.474629	-84.456090	-166.474629	-0.034463	-27.119272
1.650000	-0.031706	-24.931164	-83.352288	-166.555546	-83.352288	-166.555546	-0.035541	-27.950256
1.700000	-0.032672	-25.672749	-82.282025	-166.905126	-82.282025	-166.905126	-0.036617	-28.779725
1.750000	-0.033637	-26.413874	-81.297757	-167.351067	-81.297757	-167.351067	-0.037691	-29.608603
1.800000	-0.034601	-27.153891	-80.345509	-167.956624	-80.345509	-167.956624	-0.038764	-30.436059
1.850000	-0.035565	-27.893117	-79.443541	-168.676193	-79.443541	-168.676193	-0.039835	-31.262501
1.900000	-0.036529	-28.631358	-78.576910	-169.489574	-78.576910	-169.489574	-0.040907	-32.087678
1.950000	-0.037493	-29.368614	-77.743924	-170.396769	-77.743924	-170.396769	-0.041978	-32.911591
2.000000	-0.038458	-30.105020	-76.948327	-171.359747	-76.948327	-171.359747	-0.043050	-33.734414
2.050000	-0.039424	-30.840238	-76.173975	-172.400822	-76.173975	-172.400822	-0.044123	-34.555711
2.100000	-0.040391	-31.574931	-75.444567	-173.467697	-75.444567	-173.467697	-0.045197	-35.376336
2.150000	-0.041359	-32.308264	-74.727456	-174.598573	-74.727456	-174.598573	-0.046272	-36.195218
2.200000	-0.042330	-33.040569	-74.034099	-175.768838	-74.034099	-175.768838	-0.047350	-37.012781
2.250000	-0.043302	-33.771829	-73.362909	-176.973716	-73.362909	-176.973716	-0.048430	-37.829006
2.300000	-0.044278	-34.502031	-72.712458	-178.209155	-72.712458	-178.209155	-0.049514	-38.643876
2.350000	-0.045255	-35.231160	-72.081463	-179.471699	-72.081463	-179.471699	-0.050600	-39.457374
2.400000	-0.046236	-35.959202	-71.468759	179.241625	-71.468759	179.241625	-0.051689	-40.269482
2.450000	-0.047221	-36.686143	-70.873289	177.933382	-70.873289	177.933382	-0.052783	-41.080184
2.500000	-0.048208	-37.411971	-70.294093	176.605801	-70.294093	176.605801	-0.053881	-41.889463
2.550000	-0.049201	-38.136622	-69.729373	175.260153	-69.729373	175.260153	-0.054983	-42.697242
2.600000	-0.050197	-38.860131	-69.179333	173.898955	-69.179333	173.898955	-0.056091	-43.503566
2.650000	-0.051198	-39.582486	-68.643222	172.523686	-68.643222	172.523686	-0.057203	-44.308422
2.700000	-0.052204	-40.303675	-68.120351	171.135658	-68.120351	171.135658	-0.058322	-45.111795
2.750000	-0.053215	-41.023686	-67.610082	169.736036	-67.610082	169.736036	-0.059446	-45.913671
2.800000	-0.054231	-41.742506	-67.111826	168.325859	-67.111826	168.325859	-0.060577	-46.714038
2.850000	-0.055254	-42.460125	-66.625038	166.906061	-66.625038	166.906061	-0.061714	-47.512883
2.900000	-0.056283	-43.176531	-66.149209	165.477476	-66.149209	165.477476	-0.062859	-48.310193
2.950000	-0.057318	-43.891713	-65.683867	164.040859	-65.683867	164.040859	-0.064011	-49.105956
3.000000	-0.058360	-44.605661	-65.228572	162.596892	-65.228572	162.596892	-0.065170	-49.900163
3.050000	-0.059410	-45.318364	-64.782910	161.146191	-64.782910	161.146191	-0.066339	-50.692801
3.100000	-0.060467	-46.029813	-64.346498	159.689318	-64.346498	159.689318	-0.067515	-51.483861
3.150000	-0.061532	-46.739997	-63.918974	158.226781	-63.918974	158.226781	-0.068701	-52.273332
3.200000	-0.062605	-47.448907	-63.499997	156.759049	-63.499997	156.759049	-0.069896	-53.061206
3.250000	-0.063687	-48.156534	-63.089250	155.286546	-63.089250	155.286546	-0.071101	-53.847473
3.300000	-0.064778	-48.862869	-62.686431	153.809664	-62.686431	153.809664	-0.072317	-54.632125
3.350000	-0.065880	-49.567676	-62.289465	152.328160	-62.289465	152.328160	-0.073545	-55.414871
3.400000	-0.066992	-50.271117	-61.899605	150.842815	-61.899605	150.842815	-0.074784	-56.195915
3.450000	-0.068110	-50.973868	-61.521545	149.355816	-61.521545	149.355816	-0.076030	-56.976102
3.500000	-0.069244	-51.674550	-61.145030	147.863857	-61.145030	147.863857	-0.077294	-57.753720
3.550000	-0.070382	-52.374766	-60.781101	146.370979	-60.781101	146.370979	-0.078563	-58.530762
3.600000	-0.071539	-53.072658	-60.417128	144.873515	-60.417128	144.873515	-0.079854	-59.304927
3.650000	-0.072698	-53.770314	-60.066374	143.375670	-60.066374	143.375670	-0.081147	-60.078803
3.700000	-0.073880	-54.465387	-59.714211	141.873650	-59.714211	141.873650	-0.082466	-60.849494
3.750000	-0.075062	-55.160460	-59.375772	140.371630	-59.375772	140.371630	-0.083785	-61.620186
3.800000	-0.076270	-55.852689	-59.034757	138.865871	-59.034757	138.865871	-0.085135	-62.387388
3.850000	-0.077479	-56.544918	-58.706625	137.360112	-58.706625	137.360112	-0.086484	-63.154590
3.900000	-0.078713	-57.234520	-58.377382	135.851574	-58.377382	135.851574	-0.087863	-63.918582
3.950000	-0.079950	-57.923883	-58.059022	134.342784	-58.059022	134.342784	-0.089245	-64.682281
4.000000	-0.081211	-58.610841	-57.740831	132.831979	-57.740831	132.831979	-0.090655	-65.443055
4.050000	-0.082477	-59.297318	-57.431747	131.320771	-57.431747	131.320771	-0.092070	-66.203243
4.100000	-0.083767	-59.981619	-57.123953	129.808154	-57.123953	129.808154	-0.093513	-66.960796
4.150000	-0.085065	-60.665194	-56.823691	128.295067	-56.823691	128.295067	-0.094965	-67.717470
4.200000	-0.086384	-61.346825	-56.525697	126.781042	-56.525697	126.781042	-0.096441	-68.471801
4.250000	-0.087715	-62.027484	-56.233836	125.266548	-56.233836	125.266548	-0.097931	-69.224960
4.300000	-0.089066	-62.706436	-55.945098	123.751476	-55.945098	123.751476	-0.099444	-69.976071
4.350000	-0.090431	-63.384168	-55.661248	122.235992	-55.661248	122.235992	-0.100973	-70.725719
4.400000	-0.091815	-64.060433	-55.381263	120.720196	-55.381263	120.720196	-0.102523	-71.473617
4.450000	-0.093217	-64.735231	-55.105064	119.204089	-55.105064	119.204089	-0.104094	-72.219763
4.500000	-0.094634	-65.408804	-54.833373	117.687860	-54.833373	117.687860	-0.105683	-72.964455
4.550000	-0.096074	-66.080663	-54.564488	116.171460	-54.564488	116.171460	-0.107297	-73.707110
4.600000	-0.097527	-66.751540	-54.300667	114.655059	-54.300667	114.655059	-0.108926	-74.448608
4.650000	-0.099006	-67.420457	-54.038781	113.138656	-54.038781	113.138656	-0.110586	-75.187790
4.700000	-0.100496	-68.088638	-53.782439	111.622319	-53.782439	111.622319	-0.112258	-75.926108
4.750000	-0.102017	-68.754613	-53.527261	110.106177	-53.527261	110.106177	-0.113965	-76.661835
4.800000	-0.103545	-69.420099	-53.278035	108.590118	-53.278035	108.590118	-0.115680	-77.396990
4.850000	-0.105108	-70.083136	-53.029290	107.074472	-53.029290	107.074472	-0.117437	-78.129287
4.900000	-0.106676	-70.745928	-52.786844	105.558885	-52.786844	105.558885	-0.119197	-78.861299
4.950000	-0.108284	-71.406033	-52.544276	104.043947	-52.544276	104.043947	-0.121005	-79.590192
5.000000	-0.109893	-72.066138	-52.308298	102.529009	-52.308298	102.529009	-0.122812	-80.319085
5.050000	-0.111547	-72.723319	-52.071665	101.014971	-52.071665	101.014971	-0.124672	-81.044605
5.100000	-0.113202	-73.380501	-51.841309	99.500933	-51.841309	99.500933	-0.126533	-81.770126
5.150000	-0.114901	-74.035012	-51.610942	97.987881	-51.610942	97.987881	-0.128443	-82.492586
5.200000	-0.116604	-74.689281	-51.385999	96.474918	-51.385999	96.474918	-0.130358	-83.214768
5.250000	-0.118348	-75.341133	-51.161620	94.962984	-51.161620	94.962984	-0.132320	-83.934200
5.300000	-0.120101	-75.992503	-50.941895	93.451256	-50.941895	93.451256	-0.134292	-84.653081
5.350000	-0.121892	-76.641711	-50.723247	91.940562	-50.723247	91.940562	-0.136308	-85.369518
5.400000	-0.123697	-77.290198	-50.508556	90.430213	-50.508556	90.430213	-0.138338	-86.085141
5.450000	-0.125536	-77.936775	-50.295396	88.920874	-50.295396	88.920874	-0.140408	-86.798620
5.500000	-0.127393	-78.582398	-50.085564	87.412039	-50.085564	87.412039	-0.142499	-87.511027
5.550000	-0.129283	-79.226362	-49.877667	85.904158	-49.877667	85.904158	-0.144626	-88.221587
5.600000	-0.131195	-79.869142	-49.672527	84.396960	-49.672527	84.396960	-0.146778	-88.930827
5.650000	-0.133135	-80.510511	-49.469680	82.890637	-49.469680	82.890637	-0.148963	-89.638509
5.700000	-0.135103	-81.150470	-49.269077	81.385190	-49.269077	81.385190	-0.151179	-90.344633
5.750000	-0.137096	-81.789265	-49.071080	79.880516	-49.071080	79.880516	-0.153423	-91.049480
5.800000	-0.139123	-82.426430	-48.874865	78.376925	-48.874865	78.376925	-0.155706	-91.752541
5.850000	-0.141170	-83.062672	-48.681530	76.873985	-48.681530	76.873985	-0.158010	-92.454599
5.900000	-0.143257	-83.697070	-48.489562	75.372349	-48.489562	75.372349	-0.160360	-93.154654
5.950000	-0.145359	-84.330784	-48.300713	73.871223	-48.300713	73.871223	-0.162727	-93.853972
6.000000	-0.147507	-84.962444	-48.112856	72.371632	-48.112856	72.371632	-0.165146	-94.551080
6.050000	-0.149666	-85.593654	-47.928326	70.872396	-47.928326	70.872396	-0.167577	-95.247707
6.100000	-0.151877	-86.222609	-47.744453	69.374935	-47.744453	69.374935	-0.170067	-95.941930
6.150000	-0.154095	-86.851342	-47.564084	67.877658	-47.564084	67.877658	-0.172563	-96.635919
6.200000	-0.156371	-87.477627	-47.384072	66.382406	-47.384072	66.382406	-0.175126	-97.327323
6.250000	-0.158648	-88.103911	-47.207715	64.887155	-47.207715	64.887155	-0.177689	-98.018727
6.300000	-0.160990	-88.727560	-47.031448	63.394186	-47.031448	63.394186	-0.180326	-98.707379
6.350000	-0.163334	-89.351208	-46.858687	61.901217	-46.858687	61.901217	-0.182964	-99.396032
6.400000	-0.165739	-89.972476	-46.686327	60.410404	-46.686327	60.410404	-0.185671	-100.082226
6.450000	-0.168151	-90.593528	-46.517058	58.919787	-46.517058	58.919787	-0.188385	-100.768197
6.500000	-0.170620	-91.212448	-46.348470	57.431181	-46.348470	57.431181	-0.191163	-101.451994
6.550000	-0.173102	-91.830941	-46.182592	55.942978	-46.182592	55.942978	-0.193955	-102.135356
6.600000	-0.175637	-92.447548	-46.017647	54.456629	-46.017647	54.456629	-0.196806	-102.816818
6.650000	-0.178190	-93.063525	-45.855064	52.970899	-45.855064	52.970899	-0.199677	-103.497647
6.700000	-0.180791	-93.677854	-45.693637	51.486852	-45.693637	51.486852	-0.202603	-104.176839
6.750000	-0.183417	-94.291359	-45.534258	50.003646	-45.534258	50.003646	-0.205555	-104.855212
6.800000	-0.186087	-94.903447	-45.376233	48.521941	-45.376233	48.521941	-0.208556	-105.532199
6.850000	-0.188788	-95.514524	-45.219968	47.041309	-45.219968	47.041309	-0.211592	-106.208196
6.900000	-0.191527	-96.124410	-45.065234	45.561984	-45.065234	45.561984	-0.214670	-106.883046
6.950000	-0.194305	-96.733106	-44.911998	44.083966	-44.911998	44.083966	-0.217790	-107.556749
7.000000	-0.197115	-97.340830	-44.760448	42.607054	-44.760448	42.607054	-0.220946	-108.229532
7.050000	-0.199970	-97.947193	-44.610159	41.131688	-44.610159	41.131688	-0.224152	-108.901026
7.100000	-0.202852	-98.552796	-44.461691	39.657216	-44.461691	39.657216	-0.227388	-109.571813
7.150000	-0.205787	-99.156877	-44.314270	38.184533	-44.314270	38.184533	-0.230682	-110.241184
7.200000	-0.208742	-99.760400	-44.168787	36.712527	-44.168787	36.712527	-0.233999	-110.910048
7.250000	-0.211758	-100.362250	-44.024158	35.242551	-44.024158	35.242551	-0.237382	-111.577386
7.300000	-0.214788	-100.963737	-43.881568	33.773029	-43.881568	33.773029	-0.240782	-112.244400
7.350000	-0.217887	-101.563410	-43.739656	32.305779	-43.739656	32.305779	-0.244256	-112.909795
7.400000	-0.220993	-102.162905	-43.599869	30.838757	-43.599869	30.838757	-0.247739	-113.575037
7.450000	-0.224176	-102.760455	-43.460604	29.374243	-43.460604	29.374243	-0.251305	-114.238583
7.500000	-0.227359	-103.358004	-43.323537	27.909729	-43.323537	27.909729	-0.254873	-114.902128
7.550000	-0.230627	-103.953487	-43.186849	26.447957	-43.186849	26.447957	-0.258534	-115.563920
7.600000	-0.233896	-104.548970	-43.052278	24.986184	-43.052278	24.986184	-0.262195	-116.225711
7.650000	-0.237244	-105.142611	-42.918242	23.526921	-42.918242	23.526921	-0.265944	-116.885984
7.700000	-0.240600	-105.736084	-42.786106	22.067886	-42.786106	22.067886	-0.269701	-117.546118
7.750000	-0.244029	-106.327933	-42.654642	20.611123	-42.654642	20.611123	-0.273538	-118.204954
7.800000	-0.247473	-106.919457	-42.524880	19.154815	-42.524880	19.154815	-0.277392	-118.863531
7.850000	-0.250984	-107.509564	-42.395912	17.700536	-42.395912	17.700536	-0.281319	-119.521015
7.900000	-0.254518	-108.099198	-42.268465	16.246934	-42.268465	16.246934	-0.285271	-120.178135
7.950000	-0.258113	-108.687614	-42.141922	14.795118	-42.141922	14.795118	-0.289289	-120.834353
8.000000	-0.261738	-109.275421	-42.016734	13.344195	-42.016734	13.344195	-0.293341	-121.490119
8.050000	-0.265417	-109.862199	-41.892546	11.894812	-41.892546	11.894812	-0.297452	-122.145158
8.100000	-0.269134	-110.448242	-41.769561	10.446530	-41.769561	10.446530	-0.301605	-122.799677
8.150000	-0.272898	-111.033435	-41.647662	8.999545	-41.647662	8.999545	-0.305809	-123.453625
8.200000	-0.276709	-111.617779	-41.526829	7.553857	-41.526829	7.553857	-0.310064	-124.107004
8.250000	-0.280560	-112.201442	-41.407156	6.109227	-41.407156	6.109227	-0.314362	-124.759952
8.300000	-0.284466	-112.784152	-41.288424	4.666079	-41.288424	4.666079	-0.318721	-125.412299
8.350000	-0.288405	-113.366341	-41.170917	3.223754	-41.170917	3.223754	-0.323115	-126.064340
8.400000	-0.292406	-113.947485	-41.054238	1.783078	-41.054238	1.783078	-0.327578	-126.715767
8.450000	-0.296433	-114.528256	-40.938840	0.343002	-40.938840	0.343002	-0.332069	-127.366993
8.500000	-0.300532	-115.107904	-40.824168	-1.095277	-40.824168	-1.095277	-0.336638	-128.017613
8.550000	-0.304648	-115.687314	-40.710824	-2.533170	-40.710824	-2.533170	-0.341226	-128.668119
8.600000	-0.308845	-116.265535	-40.598116	-3.969137	-40.598116	-3.969137	-0.345902	-129.318049
8.650000	-0.313051	-116.843643	-40.486774	-5.404919	-40.486774	-5.404919	-0.350588	-129.967932
8.700000	-0.317347	-117.420510	-40.375990	-6.838670	-40.375990	-6.838670	-0.355372	-130.617289
8.750000	-0.321645	-117.997376	-40.266601	-8.272421	-40.266601	-8.272421	-0.360158	-131.266646
8.800000	-0.326040	-118.572961	-40.157701	-9.704061	-40.157701	-9.704061	-0.365051	-131.915549
8.850000	-0.330438	-119.148545	-40.050150	-11.135702	-40.050150	-11.135702	-0.369946	-132.564452
8.900000	-0.334926	-119.723023	-39.943169	-12.565513	-39.943169	-12.565513	-0.374939	-133.213052
8.950000	-0.339425	-120.297400	-39.837422	-13.995159	-39.837422	-13.995159	-0.379944	-133.861624
9.000000	-0.344006	-120.870834	-39.732316	-15.423246	-39.732316	-15.423246	-0.385040	-134.510022
9.050000	-0.348606	-121.444080	-39.628342	-16.851021	-39.628342	-16.851021	-0.390155	-135.158387
9.100000	-0.353282	-122.016535	-39.525071	-18.277494	-39.525071	-18.277494	-0.395353	-135.806690
9.150000	-0.357984	-122.588726	-39.422841	-19.703534	-39.422841	-19.703534	-0.400580	-136.454973
9.200000	-0.362754	-123.160267	-39.321370	-21.128511	-39.321370	-21.128511	-0.405881	-137.103287
9.250000	-0.367559	-123.731483	-39.220859	-22.552958	-39.220859	-22.552958	-0.411220	-137.751617
9.300000	-0.372424	-124.302177	-39.121154	-23.976564	-39.121154	-23.976564	-0.416624	-138.400051
9.350000	-0.377333	-124.872498	-39.022339	-25.399569	-39.022339	-25.399569	-0.422076	-139.048559
9.400000	-0.382293	-125.442413	-38.924369	-26.821934	-38.924369	-26.821934	-0.427584	-139.697223
9.450000	-0.387305	-126.011920	-38.827231	-28.243656	-38.827231	-28.243656	-0.433149	-140.346042
9.500000	-0.392361	-126.581124	-38.730970	-29.664914	-38.730970	-29.664914	-0.438762	-140.995048
9.550000	-0.397478	-127.149902	-38.635492	-31.085520	-38.635492	-31.085520	-0.444440	-141.644314
9.600000	-0.402630	-127.718464	-38.540915	-32.505812	-38.540915	-32.505812	-0.450158	-142.293776
9.650000	-0.407851	-128.286597	-38.447086	-33.925473	-38.447086	-33.925473	-0.455950	-142.943627
9.700000	-0.413099	-128.854590	-38.354172	-35.344943	-38.354172	-35.344943	-0.461772	-143.593660
9.750000	-0.418425	-129.422165	-38.261983	-36.763836	-38.261983	-36.763836	-0.467678	-144.244237
9.800000	-0.423770	-129.989661	-38.170714	-38.182631	-38.170714	-38.182631	-0.473606	-144.894958
9.850000	-0.429200	-130.556766	-38.080160	-39.600936	-38.080160	-39.600936	-0.479626	-145.546404
9.900000	-0.434641	-131.123838	-37.990522	-41.019207	-37.990522	-41.019207	-0.485658	-146.197935
9.950000	-0.440175	-131.690563	-37.901602	-42.437106	-37.901602	-42.437106	-0.491792	-146.850395
10.000000	-0.445713	-132.257287	-37.813584	-43.855006	-37.813584	-43.855006	-0.497930	-147.502856
