! freq	dB(S11)	phase(S11)	dB(S12)	phase(S12)	
!     	dB(S21)	phase(S21)	dB(S22)	phase(S22)	
!S-par simulation data
#  GHz  S  DB  R 50
0.000000	-86.217310	0.000000	-0.000425	0.000000	-0.000425	0.000000	-86.217310	0.000000
0.050000	-30.040573	-93.720013	-0.008365	-3.684652	-0.008365	-3.684652	-30.039349	-93.653970
0.100000	-24.043421	-97.670322	-0.028496	-7.332348	-0.028496	-7.332348	-24.043924	-97.462987
0.150000	-20.570110	-101.515002	-0.056381	-10.946292	-0.056381	-10.946292	-20.568743	-101.196267
0.200000	-18.131574	-105.261471	-0.090838	-14.537633	-0.090838	-14.537633	-18.129854	-104.841367
0.250000	-16.262250	-108.934887	-0.132338	-18.109262	-0.132338	-18.109262	-16.260946	-108.410677
0.300000	-14.752753	-112.560610	-0.180622	-21.661397	-0.180622	-21.661397	-14.751856	-111.929692
0.350000	-13.494591	-116.148488	-0.235839	-25.190705	-0.235839	-25.190705	-13.493931	-115.409843
0.400000	-12.422022	-119.704344	-0.297592	-28.694611	-0.297592	-28.694611	-12.421462	-118.857895
0.450000	-11.492638	-123.230051	-0.365416	-32.170837	-0.365416	-32.170837	-11.492098	-122.276011
0.500000	-10.678700	-126.724242	-0.439025	-35.615896	-0.439025	-35.615896	-10.678142	-125.662859
0.550000	-9.958155	-130.187647	-0.517648	-39.029522	-0.517648	-39.029522	-9.957567	-129.019088
0.600000	-9.316716	-133.617912	-0.600916	-42.408918	-0.600916	-42.408918	-9.316097	-132.342267
0.650000	-8.741836	-137.015127	-0.688147	-45.754095	-0.688147	-45.754095	-8.741191	-135.632403
0.700000	-8.224204	-140.378798	-0.778784	-49.064613	-0.778784	-49.064613	-8.223541	-138.888940
0.750000	-7.757067	-143.707579	-0.872313	-52.339228	-0.872313	-52.339228	-7.756393	-142.110480
0.800000	-7.333328	-147.003157	-0.968101	-55.579841	-0.968101	-55.579841	-7.332650	-145.298673
0.850000	-6.948182	-150.265641	-1.065634	-58.786732	-1.065634	-58.786732	-6.947506	-148.453603
0.900000	-6.597370	-153.495876	-1.164394	-61.960933	-1.164394	-61.960933	-6.596699	-151.576093
0.950000	-6.277427	-156.694751	-1.263872	-65.103514	-1.263872	-65.103514	-6.276765	-154.667014
1.000000	-5.985522	-159.863245	-1.363553	-68.215633	-1.363553	-68.215633	-5.984870	-157.727332
1.050000	-5.718544	-163.003865	-1.462988	-71.299968	-1.462988	-71.299968	-5.717904	-160.759551
1.100000	-5.474206	-166.118554	-1.561732	-74.358617	-1.561732	-74.358617	-5.473578	-163.765611
1.150000	-5.250548	-169.209449	-1.659351	-77.393869	-1.659351	-77.393869	-5.249932	-166.747645
1.200000	-5.046353	-172.278178	-1.755314	-80.407520	-1.755314	-80.407520	-5.045747	-169.707275
1.250000	-4.858440	-175.329790	-1.849598	-83.404674	-1.849598	-83.404674	-4.857843	-172.649579
1.300000	-4.688199	-178.363544	-1.941109	-86.384904	-1.941109	-86.384904	-4.687611	-175.573776
1.350000	-4.531893	178.614322	-2.030181	-89.354409	-2.030181	-89.354409	-4.531311	-178.486152
1.400000	-4.390402	175.602285	-2.115812	-92.315039	-2.115812	-92.315039	-4.389825	178.611794
1.450000	-4.261822	172.595988	-2.197986	-95.271217	-2.197986	-95.271217	-4.261249	175.715676
1.500000	-4.145941	169.591723	-2.276090	-98.226916	-2.276090	-98.226916	-4.145369	172.821786
1.550000	-4.042460	166.585253	-2.349557	-101.186660	-2.349557	-101.186660	-4.041888	169.925879
1.600000	-3.950204	163.572341	-2.418309	-104.154829	-2.418309	-104.154829	-3.949630	167.023695
1.650000	-3.870428	160.546512	-2.480993	-107.138589	-2.480993	-107.138589	-3.869850	164.108768
1.700000	-3.801223	157.504666	-2.538101	-110.141026	-2.538101	-110.141026	-3.800639	161.177960
1.750000	-3.744923	154.436187	-2.587589	-113.173979	-2.587589	-113.173979	-3.744332	158.220673
1.800000	-3.699932	151.338415	-2.629965	-116.240191	-2.629965	-116.240191	-3.699332	155.234212
1.850000	-3.668360	148.198811	-2.663346	-119.353707	-2.663346	-119.353707	-3.667749	152.206046
1.900000	-3.650486	145.010040	-2.687191	-122.522779	-2.687191	-122.522779	-3.649861	149.128834
1.950000	-3.647810	141.760425	-2.700239	-125.760738	-2.700239	-125.760738	-3.647168	145.990905
2.000000	-3.663423	138.431819	-2.700297	-129.088505	-2.700297	-129.088505	-3.662760	142.774139
2.050000	-3.698023	135.017218	-2.687161	-132.514664	-2.687161	-132.514664	-3.697335	139.471550
2.100000	-3.759805	131.476840	-2.655958	-136.086052	-2.655958	-136.086052	-3.759084	136.043467
2.150000	-3.849475	127.808551	-2.607542	-139.806863	-2.607542	-139.806863	-3.848712	132.487811
2.200000	-3.981581	123.951057	-2.535239	-143.752246	-2.535239	-143.752246	-3.980760	128.743565
2.250000	-4.161804	119.892680	-2.439379	-147.940891	-2.439379	-147.940891	-4.160904	124.799252
2.300000	-4.415909	115.549928	-2.312579	-152.483653	-2.312579	-152.483653	-4.414890	120.572039
2.350000	-4.771987	110.863953	-2.152028	-157.472425	-2.152028	-157.472425	-4.770781	116.003966
2.400000	-5.280956	105.749419	-1.954112	-163.055770	-1.954112	-163.055770	-5.279440	111.011409
2.450000	-6.030455	100.122765	-1.718034	-169.436879	-1.718034	-169.436879	-6.028368	105.514084
2.500000	-7.201661	93.940632	-1.448338	-176.947954	-1.448338	-176.947954	-7.198354	99.476484
2.550000	-9.189262	87.571220	-1.168949	173.954422	-1.168949	173.954422	-9.182612	93.288575
2.600000	-13.034514	83.780754	-0.942199	162.731386	-0.942199	162.731386	-13.013331	89.793509
2.650000	-21.596946	119.069464	-0.908511	148.750138	-0.908511	148.750138	-21.397572	125.284436
2.700000	-13.510104	-167.627780	-1.306721	131.928941	-1.306721	131.928941	-13.470277	-162.467858
2.750000	-7.023633	-174.511362	-2.414744	113.377275	-2.414744	113.377275	-7.013540	-168.980151
2.800000	-3.777086	170.889743	-4.331071	95.390888	-4.331071	95.390888	-3.772448	176.614495
2.850000	-2.107720	156.713350	-6.910089	79.885224	-6.910089	79.885224	-2.104992	162.577426
2.900000	-1.254842	144.646062	-9.938971	67.368862	-9.938971	67.368862	-1.253030	150.625897
2.950000	-0.818476	134.668868	-13.299073	57.498748	-13.299073	57.498748	-0.817196	140.750894
3.000000	-0.590223	126.304099	-17.016454	49.737467	-17.016454	49.737467	-0.589302	132.478979
3.050000	-0.467989	119.097301	-21.259502	43.764625	-21.259502	43.764625	-0.467344	125.357606
3.100000	-0.402575	112.733481	-26.325573	39.882360	-26.325573	39.882360	-0.402162	119.072360
3.150000	-0.364885	106.905381	-33.456695	39.705233	-33.456695	39.705233	-0.364688	113.316988
3.200000	-0.344716	101.509309	-45.561290	80.994519	-45.561290	80.994519	-0.344732	107.986933
3.250000	-0.333196	96.377557	-43.284837	-177.587903	-43.284837	-177.587903	-0.333431	102.914913
3.300000	-0.327134	91.429409	-39.369876	-165.821946	-39.369876	-165.821946	-0.327604	98.019861
3.350000	-0.325262	86.603939	-40.312527	-153.843186	-40.312527	-153.843186	-0.325995	93.239357
3.400000	-0.326503	81.828964	-42.374955	-114.463590	-42.374955	-114.463590	-0.327527	88.502055
3.450000	-0.331465	77.066715	-38.383258	-61.176440	-38.383258	-61.176440	-0.332820	83.768984
3.500000	-0.341130	72.278732	-32.001602	-39.209201	-32.001602	-39.209201	-0.342864	79.000904
3.550000	-0.356497	67.437061	-27.309054	-35.173587	-27.309054	-35.173587	-0.358666	74.169722
3.600000	-0.380789	62.498934	-23.642133	-36.338615	-23.642133	-36.338615	-0.383469	69.229985
3.650000	-0.416268	57.441051	-20.673461	-39.204256	-20.673461	-39.204256	-0.419546	64.158066
3.700000	-0.466446	52.237127	-18.166210	-43.008745	-18.166210	-43.008745	-0.470427	58.926301
3.750000	-0.535685	46.862978	-15.988185	-47.442180	-15.988185	-47.442180	-0.540497	53.508908
3.800000	-0.630335	41.289904	-14.053102	-52.375727	-14.053102	-52.375727	-0.636143	47.874653
3.850000	-0.756269	35.506614	-12.319276	-57.720640	-12.319276	-57.720640	-0.763271	42.010555
3.900000	-0.921206	29.501530	-10.753118	-63.438353	-10.753118	-63.438353	-0.929646	35.902393
3.950000	-1.134070	23.270938	-9.332869	-69.502204	-9.332869	-69.502204	-1.144258	29.543286
4.000000	-1.404898	16.821522	-8.044709	-75.887183	-8.044709	-75.887183	-1.417229	22.936082
4.050000	-1.744617	10.172922	-6.880173	-82.563330	-6.880173	-82.563330	-1.759596	16.095722
4.100000	-2.166393	3.356818	-5.834297	-89.496761	-5.834297	-89.496761	-2.184693	9.046847
4.150000	-2.680521	-3.570333	-4.905067	-96.630146	-4.905067	-96.630146	-2.703024	1.838866
4.200000	-3.297003	-10.539611	-4.089566	-103.899165	-4.089566	-103.899165	-3.324889	-5.468577
4.250000	-4.025409	-17.470625	-3.384011	-111.233792	-3.384011	-111.233792	-4.060293	-12.807658
4.300000	-4.874304	-24.273704	-2.783208	-118.560880	-2.783208	-118.560880	-4.918442	-20.105469
4.350000	-5.851699	-30.853420	-2.280250	-125.809791	-2.280250	-125.809791	-5.908328	-27.289465
4.400000	-6.965848	-37.102941	-1.867718	-132.914405	-1.867718	-132.914405	-7.039770	-34.288109
4.450000	-8.225312	-42.903127	-1.536434	-139.818853	-1.536434	-139.818853	-8.323933	-41.035614
4.500000	-9.644344	-48.136716	-1.274265	-146.490928	-1.274265	-146.490928	-9.779503	-47.485350
4.550000	-11.253101	-52.700982	-1.067175	-152.928310	-1.067175	-152.928310	-11.444502	-53.616791
4.600000	-13.067320	-56.188029	-0.913636	-159.076202	-0.913636	-159.076202	-13.352231	-59.305915
4.650000	-15.166822	-58.390641	-0.796604	-164.985470	-0.796604	-164.985470	-15.617029	-64.545997
4.700000	-17.588110	-58.095330	-0.714343	-170.619311	-0.714343	-170.619311	-18.374253	-69.018210
4.750000	-20.441131	-53.849589	-0.656322	-176.024500	-0.656322	-176.024500	-22.012937	-72.259646
4.800000	-23.544459	-41.136815	-0.618823	178.800963	-0.618823	178.800963	-27.485256	-70.972644
4.850000	-25.742614	-15.849023	-0.596968	173.835217	-0.596968	173.835217	-37.337190	-21.138533
4.900000	-25.300278	12.573904	-0.586584	169.052692	-0.586584	169.052692	-32.041188	65.710672
4.950000	-23.118963	29.216564	-0.585726	164.453114	-0.585726	164.453114	-25.738763	72.123996
5.000000	-21.041285	36.985529	-0.590895	159.994792	-0.590895	159.994792	-22.346452	71.079543
5.050000	-19.352970	39.418563	-0.601299	155.688259	-0.601299	155.688259	-20.141972	68.210970
5.100000	-18.019292	39.607366	-0.614970	151.506399	-0.614970	151.506399	-18.550007	64.874394
5.150000	-16.952543	38.584595	-0.630808	147.436276	-0.630808	147.436276	-17.336425	61.355577
5.200000	-16.086570	36.865813	-0.647957	143.466179	-0.647957	143.466179	-16.379002	57.771114
5.250000	-15.374496	34.727621	-0.665753	139.585547	-0.665753	139.585547	-15.605989	54.173777
5.300000	-14.783038	32.328048	-0.683688	135.784870	-0.683688	135.784870	-14.971772	50.588783
5.350000	-14.288146	29.762171	-0.701371	132.055597	-0.701371	132.055597	-14.445643	47.028189
5.400000	-13.872086	27.089625	-0.718506	128.390027	-0.718506	128.390027	-14.006024	43.497313
5.450000	-13.521534	24.349082	-0.734873	124.781223	-0.734873	124.781223	-13.637248	39.997870
5.500000	-13.226316	21.566299	-0.750308	121.222914	-0.750308	121.222914	-13.327648	36.529599
5.550000	-12.978559	18.758807	-0.764693	117.709416	-0.764693	117.709416	-13.068367	33.091153
5.600000	-12.772112	15.938761	-0.777946	114.235557	-0.777946	114.235557	-12.852585	29.680611
5.650000	-12.602136	13.114723	-0.790010	110.796606	-0.790010	110.796606	-12.675002	26.295766
5.700000	-12.464818	10.292825	-0.800852	107.388213	-0.800852	107.388213	-12.531481	22.934304
5.750000	-12.357163	7.477538	-0.810454	104.006349	-0.810454	104.006349	-12.418796	19.593903
5.800000	-12.276841	4.672214	-0.818813	100.647259	-0.818813	100.647259	-12.334456	16.272298
5.850000	-12.222075	1.879456	-0.825933	97.307408	-0.825933	97.307408	-12.276578	12.967315
5.900000	-12.191570	-0.898592	-0.831830	93.983441	-0.831830	93.983441	-12.243796	9.676891
5.950000	-12.184445	-3.660035	-0.836523	90.672143	-0.836523	90.672143	-12.235198	6.399094
6.000000	-12.200208	-6.403035	-0.840039	87.370393	-0.840039	87.370393	-12.250286	3.132131
6.050000	-12.238726	-9.125649	-0.842411	84.075131	-0.842411	84.075131	-12.288958	-0.125636
6.100000	-12.300223	-11.825664	-0.843675	80.783316	-0.843675	80.783316	-12.351496	-3.375674
6.150000	-12.385286	-14.500413	-0.843877	77.491892	-0.843877	77.491892	-12.438585	-6.619244
6.200000	-12.494887	-17.146566	-0.843065	74.197740	-0.843065	74.197740	-12.551338	-9.857363
6.250000	-12.630418	-19.759859	-0.841299	70.897644	-0.841299	70.897644	-12.691348	-13.090736
6.300000	-12.794911	-22.332724	-0.838613	67.587663	-0.838613	67.587663	-12.861995	-16.319446
6.350000	-12.989791	-24.858968	-0.835130	64.264456	-0.835130	64.264456	-13.065042	-19.543329
6.400000	-13.218213	-27.328373	-0.830951	60.924154	-0.830951	60.924154	-13.304186	-22.761165
6.450000	-13.484161	-29.727084	-0.826196	57.562552	-0.826196	57.562552	-13.584174	-25.970501
6.500000	-13.792655	-32.036048	-0.821014	54.175023	-0.821014	54.175023	-13.911122	-29.167046
6.550000	-14.150023	-34.228659	-0.815587	50.756427	-0.815587	50.756427	-14.292966	-32.343705
6.600000	-14.564275	-36.267066	-0.810144	47.300995	-0.810144	47.300995	-14.740141	-35.488976
6.650000	-15.045580	-38.096238	-0.804969	43.802188	-0.804969	43.802188	-15.266607	-38.584210
6.700000	-15.606876	-39.634093	-0.800426	40.252529	-0.800426	40.252529	-15.891463	-41.598711
6.750000	-16.264545	-40.754503	-0.796979	36.643392	-0.796979	36.643392	-16.641591	-44.480443
6.800000	-17.038851	-41.256988	-0.795225	32.964743	-0.795225	32.964743	-17.556196	-47.137113
6.850000	-17.953042	-40.811137	-0.795938	29.204811	-0.795938	29.204811	-18.695051	-49.393907
6.900000	-19.027320	-38.855004	-0.800135	25.349687	-0.800135	25.349687	-20.154355	-50.886329
6.950000	-20.255398	-34.430097	-0.809162	21.382807	-0.809162	21.382807	-22.098208	-50.736401
7.000000	-21.530228	-26.065875	-0.824820	17.284318	-0.824820	17.284318	-24.806634	-46.306919
7.050000	-22.484971	-12.429963	-0.849544	13.030280	-0.849544	13.030280	-28.411485	-28.168396
7.100000	-22.599660	5.593668	-0.885143	8.611377	-0.885143	8.611377	-31.059569	14.307789
7.150000	-21.218193	22.969753	-0.938957	3.954080	-0.938957	3.954080	-26.704771	53.973198
7.200000	-19.016833	34.502114	-1.016242	-0.966117	-1.016242	-0.966117	-21.987582	65.268458
7.250000	-16.645223	40.233515	-1.126256	-6.201082	-1.126256	-6.201082	-18.381361	66.538500
7.300000	-14.378481	41.855827	-1.282364	-11.812491	-1.282364	-11.812491	-15.487732	64.069868
7.350000	-12.279589	40.666713	-1.504105	-17.871288	-1.504105	-17.871288	-13.041674	59.596033
7.400000	-10.347076	37.396516	-1.820329	-24.453619	-1.820329	-24.453619	-10.901820	53.682504
7.450000	-8.570928	32.411238	-2.273927	-31.629022	-2.273927	-31.629022	-8.994933	46.502516
7.500000	-6.950672	25.877345	-2.928823	-39.433062	-2.928823	-39.433062	-7.289977	38.073166
7.550000	-5.501526	17.849622	-3.885140	-47.816325	-3.885140	-47.816325	-5.787274	28.336960
7.600000	-4.259229	8.443448	-5.279231	-56.496121	-5.279231	-56.496121	-4.516397	17.308836
7.650000	-3.264879	-2.159972	-7.312506	-64.807755	-7.312506	-64.807755	-3.519660	5.074749
7.700000	-2.564783	-13.705686	-10.313363	-71.288588	-10.313363	-71.288588	-2.857734	-8.227959
7.750000	-2.204381	-25.866984	-14.940603	-72.689078	-14.940603	-72.689078	-2.623828	-22.414580
7.800000	-2.276021	-38.249515	-24.378290	-51.843575	-24.378290	-51.843575	-3.061454	-36.939658
7.850000	-2.959847	-48.647615	-17.793641	62.474474	-17.793641	62.474474	-4.569314	-46.303473
7.900000	-3.560492	-53.684127	-9.668971	49.999746	-9.668971	49.999746	-5.095888	-44.352800
7.950000	-3.694396	-59.397303	-6.766983	34.411242	-6.766983	34.411242	-4.504905	-49.397362
8.000000	-3.943383	-66.245118	-5.320436	23.615288	-5.320436	23.615288	-4.413431	-57.867495
8.050000	-4.338490	-72.857171	-4.382225	15.327706	-4.382225	15.327706	-4.658294	-66.060670
8.100000	-4.821976	-78.922093	-3.702591	8.330045	-3.702591	8.330045	-5.066877	-73.494858
8.150000	-5.359552	-84.452512	-3.183348	2.099169	-3.183348	2.099169	-5.563391	-80.250509
8.200000	-5.934881	-89.500471	-2.776397	-3.596335	-2.776397	-3.596335	-6.116176	-86.440377
8.250000	-6.540748	-94.136406	-2.449820	-8.902077	-2.449820	-8.902077	-6.710769	-92.182098
8.300000	-7.176806	-98.441034	-2.179717	-13.929086	-2.179717	-13.929086	-7.342985	-97.590382
8.350000	-7.842067	-102.403654	-1.958698	-18.699393	-1.958698	-18.699393	-8.011668	-102.685425
8.400000	-8.541778	-106.079417	-1.772906	-23.282622	-1.772906	-23.282622	-8.721093	-107.549763
8.450000	-9.281055	-109.473526	-1.615937	-27.708824	-1.615937	-27.708824	-9.477067	-112.219708
8.500000	-10.066994	-112.582804	-1.482532	-32.004823	-1.482532	-32.004823	-10.288081	-116.728307
8.550000	-10.907521	-115.372094	-1.369404	-36.187979	-1.369404	-36.187979	-11.164805	-121.097234
8.600000	-11.815514	-117.834284	-1.272091	-40.283993	-1.272091	-40.283993	-12.123659	-125.358603
8.650000	-12.803230	-119.885455	-1.189226	-44.300822	-1.189226	-44.300822	-13.183890	-129.522706
8.700000	-13.887008	-121.418263	-1.119035	-48.249315	-1.119035	-48.249315	-14.373226	-133.603572
8.750000	-15.086571	-122.262760	-1.060134	-52.138163	-1.060134	-52.138163	-15.731588	-137.612804
8.800000	-16.421437	-122.083265	-1.011821	-55.972273	-1.011821	-55.972273	-17.318769	-141.558068
8.850000	-17.912232	-120.428538	-0.972768	-59.759581	-0.972768	-59.759581	-19.234851	-145.451662
8.900000	-19.558571	-116.495106	-0.942271	-63.504298	-0.942271	-63.504298	-21.660762	-149.304399
8.950000	-21.287736	-109.020905	-0.919745	-67.209703	-0.919745	-67.209703	-24.984767	-153.136345
9.000000	-22.830712	-96.585518	-0.904690	-70.878299	-0.904690	-70.878299	-30.334009	-157.029361
9.050000	-23.633553	-79.529639	-0.896667	-74.511955	-0.896667	-74.511955	-42.945114	67.390623
9.100000	-23.276792	-61.909195	-0.895285	-78.112011	-0.895285	-78.112011	-33.882929	17.903248
9.150000	-22.036387	-48.048527	-0.900181	-81.679381	-0.900181	-81.679381	-26.951142	12.547035
9.200000	-20.507185	-38.604016	-0.910360	-85.218322	-0.910360	-85.218322	-23.195175	8.872471
9.250000	-18.955123	-33.745248	-0.927061	-88.720374	-0.927061	-88.720374	-20.633620	5.295667
9.300000	-17.563674	-31.192441	-0.948660	-92.193022	-0.948660	-92.193022	-18.693533	1.764286
9.350000	-16.334978	-30.255207	-0.975239	-95.633799	-0.975239	-95.633799	-17.142703	-1.725354
9.400000	-15.254633	-30.413017	-1.006753	-99.040378	-1.006753	-99.040378	-15.860490	-5.174053
9.450000	-14.302063	-31.232337	-1.042462	-102.415315	-1.042462	-102.415315	-14.771823	-8.586665
9.500000	-13.457292	-32.514992	-1.082039	-105.758387	-1.082039	-105.758387	-13.831151	-11.963896
9.550000	-12.703872	-34.129365	-1.125151	-109.069390	-1.125151	-109.069390	-13.007660	-15.306125
9.600000	-12.028504	-35.985414	-1.171460	-112.348157	-1.171460	-112.348157	-12.279519	-18.613546
9.650000	-11.420462	-38.019820	-1.220620	-115.594583	-1.220620	-115.594583	-11.630695	-21.886258
9.700000	-10.872393	-40.193526	-1.272404	-118.806458	-1.272404	-118.806458	-11.050584	-25.121969
9.750000	-10.376749	-42.466967	-1.326362	-121.984470	-1.326362	-121.984470	-10.529191	-28.321343
9.800000	-9.926645	-44.810379	-1.382033	-125.130407	-1.382033	-125.130407	-10.057949	-31.486101
9.850000	-9.517186	-47.205566	-1.439060	-128.244581	-1.439060	-128.244581	-9.630894	-34.616271
9.900000	-9.144265	-49.638273	-1.497085	-131.327427	-1.497085	-131.327427	-9.243151	-37.711894
9.950000	-8.804399	-52.097191	-1.555753	-134.379506	-1.555753	-134.379506	-8.890681	-40.773021
10.000000	-8.494614	-54.573248	-1.614712	-137.401503	-1.614712	-137.401503	-8.570103	-43.799713
