! freq	dB(S11)	phase(S11)	dB(S12)	phase(S12)	
!     	dB(S21)	phase(S21)	dB(S22)	phase(S22)	
!S-par simulation data
#  GHz  S  DB  R 50
0.000000	-0.000000	0.000000	-373.182394	0.000000	-373.182394	0.000000	-0.000000	0.000000
0.050000	-0.000076	-0.766037	-91.396948	2.535998	-91.396948	2.535998	-0.000077	-0.766189
0.100000	-0.000303	-1.531925	-91.430158	2.051669	-91.430158	2.051669	-0.000304	-1.532225
0.150000	-0.000678	-2.297505	-91.493155	2.217937	-91.493155	2.217937	-0.000681	-2.297953
0.200000	-0.001183	-3.062678	-91.582628	2.515117	-91.582628	2.515117	-0.001189	-3.063269
0.250000	-0.001813	-3.827318	-91.701070	2.839836	-91.701070	2.839836	-0.001821	-3.828049
0.300000	-0.002564	-4.591260	-91.854212	3.143291	-91.854212	3.143291	-0.002576	-4.592126
0.350000	-0.003406	-5.354535	-92.040460	3.403696	-92.040460	3.403696	-0.003420	-5.355531
0.400000	-0.004338	-6.116975	-92.269190	3.594004	-92.269190	3.594004	-0.004355	-6.118097
0.450000	-0.005337	-6.878604	-92.543092	3.700293	-92.543092	3.700293	-0.005357	-6.879848
0.500000	-0.006395	-7.639355	-92.871158	3.698084	-92.871158	3.698084	-0.006417	-7.640718
0.550000	-0.007497	-8.399216	-93.262561	3.562334	-93.262561	3.562334	-0.007521	-8.400696
0.600000	-0.008633	-9.158181	-93.729494	3.259815	-93.729494	3.259815	-0.008658	-9.159775
0.650000	-0.009791	-9.916251	-94.287940	2.744581	-94.287940	2.744581	-0.009817	-9.917959
0.700000	-0.010962	-10.673434	-94.959309	1.949081	-94.959309	1.949081	-0.010989	-10.675255
0.750000	-0.012141	-11.429743	-95.773076	0.767637	-95.773076	0.767637	-0.012167	-11.431676
0.800000	-0.013319	-12.185192	-96.771079	-0.976804	-96.771079	-0.976804	-0.013346	-12.187239
0.850000	-0.014491	-12.939655	-98.031058	-4.003028	-98.031058	-4.003028	-0.014517	-12.941817
0.900000	-0.015655	-13.693255	-99.639789	-8.660312	-99.639789	-8.660312	-0.015679	-13.695532
0.950000	-0.016811	-14.446436	-101.593551	-16.552631	-101.593551	-16.552631	-0.016835	-14.448830
1.000000	-0.017948	-15.198359	-104.029686	-34.150057	-104.029686	-34.150057	-0.017970	-15.200872
1.050000	-0.019080	-15.950010	-106.476250	-54.919415	-106.476250	-54.919415	-0.019101	-15.952642
1.100000	-0.020185	-16.700301	-104.940841	-91.548440	-104.940841	-91.548440	-0.020205	-16.703054
1.150000	-0.021288	-17.450457	-103.349630	-126.039356	-103.349630	-126.039356	-0.021307	-17.453332
1.200000	-0.022363	-18.199135	-99.685534	-137.011080	-99.685534	-137.011080	-0.022379	-18.202134
1.250000	-0.023437	-18.947814	-97.116488	-147.982805	-97.116488	-147.982805	-0.023452	-18.950936
1.300000	-0.024489	-19.695284	-94.761284	-152.477316	-94.761284	-152.477316	-0.024503	-19.698532
1.350000	-0.025527	-20.441979	-92.757307	-155.595000	-92.757307	-155.595000	-0.025540	-20.445352
1.400000	-0.026554	-21.187891	-91.007285	-157.936948	-91.007285	-157.936948	-0.026566	-21.191390
1.450000	-0.027569	-21.933014	-89.447692	-159.811615	-89.447692	-159.811615	-0.027580	-21.936639
1.500000	-0.028574	-22.677339	-88.035686	-161.390753	-88.035686	-161.390753	-0.028585	-22.681091
1.550000	-0.029571	-23.420856	-86.741319	-162.776581	-86.741319	-162.776581	-0.029580	-23.424734
1.600000	-0.030559	-24.163554	-85.542958	-164.033280	-85.542958	-164.033280	-0.030568	-24.167557
1.650000	-0.031540	-24.905419	-84.424522	-165.202917	-84.424522	-165.202917	-0.031549	-24.909548
1.700000	-0.032513	-25.646139	-83.351998	-166.302841	-83.351998	-166.302841	-0.032522	-25.650392
1.750000	-0.033484	-26.386413	-82.368981	-167.379600	-82.368981	-167.379600	-0.033492	-26.390791
1.800000	-0.034450	-27.125617	-81.422744	-168.431821	-81.422744	-168.431821	-0.034458	-27.130119
1.850000	-0.035413	-27.864056	-80.528830	-169.466514	-80.528830	-169.466514	-0.035421	-27.868681
1.900000	-0.036374	-28.601544	-79.671136	-170.497594	-79.671136	-170.497594	-0.036382	-28.606291
1.950000	-0.037332	-29.338081	-78.847608	-171.525060	-78.847608	-171.525060	-0.037341	-29.342951
2.000000	-0.038290	-30.073798	-78.060694	-172.557441	-78.060694	-172.557441	-0.038299	-30.078788
2.050000	-0.039248	-30.808366	-77.294621	-173.596700	-77.294621	-173.596700	-0.039256	-30.813476
2.100000	-0.040206	-31.542255	-76.565914	-174.643445	-76.565914	-174.643445	-0.040215	-31.547484
2.150000	-0.041165	-32.274785	-75.847997	-175.705158	-75.847997	-175.705158	-0.041174	-32.280132
2.200000	-0.042125	-33.006788	-75.168264	-176.773972	-75.168264	-176.773972	-0.042135	-33.012252
2.250000	-0.043088	-33.737211	-74.491598	-177.864089	-74.491598	-177.864089	-0.043098	-33.742791
2.300000	-0.044053	-34.467272	-73.853851	-178.959464	-73.853851	-178.959464	-0.044063	-34.472968
2.350000	-0.045022	-35.195521	-73.213166	179.918868	-73.213166	179.918868	-0.045033	-35.201331
2.400000	-0.045992	-35.923583	-72.611981	178.794452	-72.611981	178.794452	-0.046004	-35.929508
2.450000	-0.046970	-36.649593	-72.003165	177.639815	-72.003165	177.639815	-0.046982	-36.655630
2.500000	-0.047948	-37.375603	-71.434242	176.485179	-71.434242	176.485179	-0.047960	-37.381752
2.550000	-0.048936	-38.099310	-70.854024	175.297275	-70.854024	175.297275	-0.048948	-38.105570
2.600000	-0.049923	-38.823017	-70.310150	174.109372	-70.310150	174.109372	-0.049937	-38.829388
2.650000	-0.050922	-39.544558	-69.759625	172.891379	-69.759625	172.891379	-0.050935	-39.551038
2.700000	-0.051921	-40.265901	-69.238616	171.670651	-69.238616	171.670651	-0.051935	-40.272491
2.750000	-0.052931	-40.985228	-68.714944	170.423363	-68.714944	170.423363	-0.052945	-40.991926
2.800000	-0.053943	-41.704151	-68.214996	169.170762	-68.214996	169.170762	-0.053957	-41.710956
2.850000	-0.054966	-42.421216	-67.715799	167.895241	-67.715799	167.895241	-0.054980	-42.428129
2.900000	-0.055992	-43.137663	-67.235401	166.612080	-67.235401	166.612080	-0.056007	-43.144683
2.950000	-0.057029	-43.852425	-66.758660	165.309593	-66.758660	165.309593	-0.057044	-43.859550
3.000000	-0.058071	-44.566344	-66.296531	163.997442	-66.296531	163.997442	-0.058086	-44.573575
3.050000	-0.059122	-45.278761	-65.840512	162.669409	-65.840512	162.669409	-0.059138	-45.286096
3.100000	-0.060181	-45.990104	-65.395549	161.330031	-65.395549	161.330031	-0.060197	-45.997543
3.150000	-0.061248	-46.700136	-64.958747	159.977990	-64.958747	159.977990	-0.061265	-46.707680
3.200000	-0.062325	-47.408857	-64.529988	158.613285	-64.529988	158.613285	-0.062341	-47.416505
3.250000	-0.063410	-48.116469	-64.111082	157.238861	-64.111082	157.238861	-0.063426	-48.124219
3.300000	-0.064505	-48.822527	-63.697674	155.850830	-63.697674	155.850830	-0.064522	-48.830380
3.350000	-0.065608	-49.527684	-63.295493	154.455712	-63.295493	154.455712	-0.065625	-49.535639
3.400000	-0.066724	-50.231040	-62.896670	153.046421	-62.896670	153.046421	-0.066741	-50.239097
3.450000	-0.067846	-50.933711	-62.510167	151.632340	-62.510167	151.632340	-0.067863	-50.941870
3.500000	-0.068984	-51.634329	-62.125228	150.203891	-62.125228	150.203891	-0.069001	-51.642589
3.550000	-0.070126	-52.334485	-61.753458	148.772600	-61.753458	148.772600	-0.070143	-52.342846
3.600000	-0.071287	-53.032333	-61.381755	147.327104	-61.381755	147.327104	-0.071304	-53.040794
3.650000	-0.072450	-53.729948	-61.023855	145.880362	-61.023855	145.880362	-0.072468	-53.738510
3.700000	-0.073635	-54.424997	-60.664777	144.419914	-60.664777	144.419914	-0.073653	-54.433658
3.750000	-0.074821	-55.120046	-60.319956	142.959467	-60.319956	142.959467	-0.074839	-55.128807
3.800000	-0.076032	-55.812271	-59.972923	141.486121	-59.972923	141.486121	-0.076050	-55.821131
3.850000	-0.077243	-56.504495	-59.639225	140.012775	-59.639225	140.012775	-0.077261	-56.513455
3.900000	-0.078479	-57.194110	-59.304904	138.529431	-59.304904	138.529431	-0.078497	-57.203168
3.950000	-0.079717	-57.883487	-58.981840	137.045177	-58.981840	137.045177	-0.079736	-57.892645
4.000000	-0.080979	-58.570476	-58.659495	135.553421	-58.659495	135.553421	-0.080998	-58.579731
4.050000	-0.082246	-59.256987	-58.346590	134.060165	-58.346590	134.060165	-0.082265	-59.266340
4.100000	-0.083536	-59.941336	-58.035530	132.561507	-58.035530	132.561507	-0.083555	-59.950787
4.150000	-0.084833	-60.624964	-57.732317	131.061049	-57.732317	131.061049	-0.084853	-60.634513
4.200000	-0.086152	-61.306661	-57.431889	129.556910	-57.431889	129.556910	-0.086171	-61.316307
4.250000	-0.087480	-61.987394	-57.137908	128.050930	-57.137908	128.050930	-0.087500	-61.997136
4.300000	-0.088829	-62.666430	-56.847496	126.542630	-56.847496	126.542630	-0.088849	-62.676270
4.350000	-0.090191	-63.344256	-56.562293	125.032673	-56.562293	125.032673	-0.090212	-63.354192
4.400000	-0.091571	-64.020626	-56.281311	123.521428	-56.281311	123.521428	-0.091592	-64.030658
4.450000	-0.092969	-64.695538	-56.004440	122.008894	-56.004440	122.008894	-0.092990	-64.705666
4.500000	-0.094381	-65.369235	-55.732334	120.495806	-55.732334	120.495806	-0.094403	-65.379458
4.550000	-0.095816	-66.041230	-55.463353	118.981940	-55.463353	118.981940	-0.095838	-66.051548
4.600000	-0.097263	-66.712251	-55.199597	117.467993	-55.199597	117.467993	-0.097285	-66.722664
4.650000	-0.098735	-67.381326	-54.938075	115.953884	-54.938075	115.953884	-0.098758	-67.391834
4.700000	-0.100218	-68.049672	-54.682170	114.439946	-54.682170	114.439946	-0.100242	-68.060274
4.750000	-0.101732	-68.715830	-54.427683	112.926520	-54.427683	112.926520	-0.101755	-68.726525
4.800000	-0.103252	-69.381501	-54.179155	111.413336	-54.179155	111.413336	-0.103276	-69.392290
4.850000	-0.104807	-70.044745	-53.931295	109.901364	-53.931295	109.901364	-0.104832	-70.055627
4.900000	-0.106367	-70.707746	-53.689697	108.389563	-53.689697	108.389563	-0.106392	-70.718721
4.950000	-0.107966	-71.368082	-53.448066	106.879659	-53.448066	106.879659	-0.107992	-71.379149
5.000000	-0.109566	-72.028418	-53.212975	105.369754	-53.212975	105.369754	-0.109592	-72.039577
5.050000	-0.111211	-72.685855	-52.977194	103.862384	-52.977194	103.862384	-0.111238	-72.697107
5.100000	-0.112857	-73.343293	-52.747644	102.355015	-52.747644	102.355015	-0.112885	-73.354636
5.150000	-0.114547	-73.998086	-52.517917	100.850269	-52.517917	100.850269	-0.114575	-74.009519
5.200000	-0.116240	-74.652637	-52.293572	99.345762	-52.293572	99.345762	-0.116269	-74.664162
5.250000	-0.117975	-75.304796	-52.069521	97.843805	-52.069521	97.843805	-0.118004	-75.316410
5.300000	-0.119719	-75.956475	-51.850060	96.342359	-51.850060	96.342359	-0.119749	-75.968180
5.350000	-0.121501	-76.606014	-51.631333	94.843268	-51.631333	94.843268	-0.121532	-76.617807
5.400000	-0.123297	-77.254838	-51.416459	93.344962	-51.416459	93.344962	-0.123328	-77.266721
5.450000	-0.125128	-77.901772	-51.202731	91.848734	-51.202731	91.848734	-0.125159	-77.913744
5.500000	-0.126977	-78.547761	-50.992165	90.353545	-50.992165	90.353545	-0.127009	-78.559820
5.550000	-0.128859	-79.192107	-50.783141	88.860105	-50.783141	88.860105	-0.128892	-79.204255
5.600000	-0.130764	-79.835281	-50.576627	87.367916	-50.576627	87.367916	-0.130797	-79.847516
5.650000	-0.132698	-80.477059	-50.372036	85.877129	-50.372036	85.877129	-0.132732	-80.489381
5.700000	-0.134661	-81.117442	-50.169344	84.387745	-50.169344	84.387745	-0.134695	-81.129850
5.750000	-0.136649	-81.756672	-49.968941	82.899423	-49.968941	82.899423	-0.136683	-81.769167
5.800000	-0.138672	-82.394289	-49.769865	81.412588	-49.769865	81.412588	-0.138706	-82.406869
5.850000	-0.140715	-83.030993	-49.573432	79.926500	-49.573432	79.926500	-0.140750	-83.043659
5.900000	-0.142799	-83.665872	-49.377791	78.441908	-49.377791	78.441908	-0.142835	-83.678623
5.950000	-0.144900	-84.300074	-49.185137	76.957792	-49.185137	76.957792	-0.144936	-84.312910
6.000000	-0.147047	-84.932245	-48.992778	75.475105	-48.992778	75.475105	-0.147084	-84.945165
6.050000	-0.149206	-85.563969	-48.803732	73.992677	-48.803732	73.992677	-0.149243	-85.576974
6.100000	-0.151420	-86.193464	-48.614528	72.511538	-48.614528	72.511538	-0.151456	-86.206552
6.150000	-0.153639	-86.822738	-48.428946	71.030499	-48.428946	71.030499	-0.153676	-86.835909
6.200000	-0.155919	-87.449589	-48.242800	69.550550	-48.242800	69.550550	-0.155957	-87.462843
6.250000	-0.158200	-88.076440	-48.060559	68.070601	-48.060559	68.070601	-0.158238	-88.089777
6.300000	-0.160549	-88.700683	-47.877399	66.591496	-47.877399	66.591496	-0.160587	-88.714102
6.350000	-0.162899	-89.324926	-47.698021	65.112390	-47.698021	65.112390	-0.162937	-89.338427
6.400000	-0.165313	-89.946812	-47.518183	63.633766	-47.518183	63.633766	-0.165352	-89.960394
6.450000	-0.167734	-90.568484	-47.341628	62.155185	-47.341628	62.155185	-0.167772	-90.582148
6.500000	-0.170214	-91.188045	-47.165056	60.676813	-47.165056	60.676813	-0.170253	-91.201789
6.550000	-0.172707	-91.807183	-46.991309	59.198482	-46.991309	59.198482	-0.172746	-91.821009
6.600000	-0.175255	-92.424452	-46.817971	57.720176	-46.817971	57.720176	-0.175294	-92.438358
6.650000	-0.177821	-93.041098	-46.647044	56.241879	-46.647044	56.241879	-0.177860	-93.055084
6.700000	-0.180438	-93.656109	-46.476925	54.763509	-46.476925	54.763509	-0.180477	-93.670175
6.750000	-0.183080	-94.270302	-46.308853	53.285102	-46.308853	53.285102	-0.183119	-94.284448
6.800000	-0.185766	-94.883090	-46.141959	51.806600	-46.141959	51.806600	-0.185805	-94.897316
6.850000	-0.188485	-95.494874	-45.976801	50.328030	-45.976801	50.328030	-0.188524	-95.509179
6.900000	-0.191242	-96.105474	-45.813153	48.849403	-45.813153	48.849403	-0.191281	-96.119859
6.950000	-0.194038	-96.714892	-45.650988	47.370718	-45.650988	47.370718	-0.194077	-96.729356
7.000000	-0.196867	-97.323342	-45.490623	45.892054	-45.490623	45.892054	-0.196906	-97.337885
7.050000	-0.199742	-97.930438	-45.331554	44.413419	-45.331554	44.413419	-0.199781	-97.945060
7.100000	-0.202644	-98.536775	-45.174523	42.934897	-45.174523	42.934897	-0.202683	-98.551476
7.150000	-0.205599	-99.141595	-45.018666	41.456605	-45.018666	41.456605	-0.205638	-99.156375
7.200000	-0.208574	-99.745857	-44.865032	39.978506	-44.865032	39.978506	-0.208614	-99.760716
7.250000	-0.211610	-100.348447	-44.712521	38.500988	-44.712521	38.500988	-0.211649	-100.363385
7.300000	-0.214659	-100.950673	-44.562357	37.023696	-44.562357	37.023696	-0.214699	-100.965691
7.350000	-0.217776	-101.551080	-44.413338	35.547535	-44.413338	35.547535	-0.217815	-101.566177
7.400000	-0.220900	-102.151310	-44.266723	34.071548	-44.266723	34.071548	-0.220939	-102.166486
7.450000	-0.224098	-102.749581	-44.121352	32.597481	-44.121352	32.597481	-0.224138	-102.764837
7.500000	-0.227297	-103.347853	-43.978373	31.123413	-43.978373	31.123413	-0.227337	-103.363189
7.550000	-0.230577	-103.944037	-43.836809	29.652336	-43.836809	29.652336	-0.230617	-103.959453
7.600000	-0.233858	-104.540221	-43.697515	28.181258	-43.697515	28.181258	-0.233899	-104.555718
7.650000	-0.237213	-105.134536	-43.559963	26.713893	-43.559963	26.713893	-0.237254	-105.150114
7.700000	-0.240576	-105.728680	-43.424514	25.246864	-43.424514	25.246864	-0.240617	-105.744340
7.750000	-0.244006	-106.321166	-43.291065	23.784225	-43.291065	23.784225	-0.244048	-106.336908
7.800000	-0.247451	-106.913319	-43.159619	22.322464	-43.159619	22.322464	-0.247493	-106.929143
7.850000	-0.250956	-107.504015	-43.030359	20.865682	-43.030359	20.865682	-0.250999	-107.519923
7.900000	-0.254482	-108.094226	-42.903069	19.410559	-42.903069	19.410559	-0.254526	-108.110217
7.950000	-0.258061	-108.683173	-42.778077	17.960873	-42.778077	17.960873	-0.258106	-108.699249
8.000000	-0.261668	-109.271488	-42.655086	16.513905	-42.655086	16.513905	-0.261714	-109.287650
8.050000	-0.265321	-109.858725	-42.534432	15.072654	-42.534432	15.072654	-0.265368	-109.874974
8.100000	-0.269007	-110.445192	-42.415869	13.635487	-42.415869	13.635487	-0.269055	-110.461529
8.150000	-0.272733	-111.030759	-42.299611	12.204101	-42.299611	12.204101	-0.272782	-111.047184
8.200000	-0.276498	-111.615425	-42.185588	10.778496	-42.185588	10.778496	-0.276549	-111.631940
8.250000	-0.280296	-112.199360	-42.073771	9.358480	-42.073771	9.358480	-0.280347	-112.215966
8.300000	-0.284139	-112.782272	-41.964381	7.946291	-41.964381	7.946291	-0.284191	-112.798970
8.350000	-0.288007	-113.364613	-41.857035	6.539214	-41.857035	6.539214	-0.288061	-113.381405
8.400000	-0.291925	-113.945814	-41.752347	5.142364	-41.752347	5.142364	-0.291981	-113.962702
8.450000	-0.295862	-114.526598	-41.649486	3.749841	-41.649486	3.749841	-0.295920	-114.543583
8.500000	-0.299854	-115.106132	-41.549545	2.370300	-41.549545	2.370300	-0.299913	-115.123217
8.550000	-0.303858	-115.685396	-41.451167	0.993974	-41.451167	0.993974	-0.303920	-115.702580
8.600000	-0.307921	-116.263306	-41.355993	-0.366272	-41.355993	-0.366272	-0.307985	-116.280594
8.650000	-0.311992	-116.841084	-41.262079	-1.724746	-41.262079	-1.724746	-0.312057	-116.858476
8.700000	-0.316124	-117.417410	-41.171663	-3.063721	-41.171663	-3.063721	-0.316192	-117.434910
8.750000	-0.320258	-117.993736	-41.082178	-4.402696	-41.082178	-4.402696	-0.320328	-118.011344
8.800000	-0.324456	-118.568516	-40.996485	-5.718459	-40.996485	-5.718459	-0.324528	-118.586237
8.850000	-0.328656	-119.143296	-40.911630	-7.034222	-40.911630	-7.034222	-0.328730	-119.161131
8.900000	-0.332912	-119.716693	-40.830347	-8.326988	-40.830347	-8.326988	-0.332989	-119.734646
8.950000	-0.337175	-120.289964	-40.750066	-9.617664	-40.750066	-9.617664	-0.337255	-120.308035
9.000000	-0.341486	-120.862005	-40.673095	-10.885941	-40.673095	-10.885941	-0.341569	-120.880201
9.050000	-0.345809	-121.433801	-40.597310	-12.149739	-40.597310	-12.149739	-0.345894	-121.452121
9.100000	-0.350173	-122.004512	-40.524538	-13.392119	-40.524538	-13.392119	-0.350260	-122.022963
9.150000	-0.354552	-122.574863	-40.453149	-14.627360	-40.453149	-14.627360	-0.354642	-122.593445
9.200000	-0.358965	-123.144269	-40.384452	-15.842527	-40.384452	-15.842527	-0.359057	-123.162987
9.250000	-0.363396	-123.713203	-40.317340	-17.047658	-40.317340	-17.047658	-0.363491	-123.732060
9.300000	-0.367855	-124.281325	-40.252583	-18.234401	-40.252583	-18.234401	-0.367952	-124.300326
9.350000	-0.372335	-124.848867	-40.189610	-19.408011	-40.189610	-19.408011	-0.372434	-124.868014
9.400000	-0.376836	-125.415724	-40.128652	-20.565231	-40.128652	-20.565231	-0.376937	-125.435022
9.450000	-0.381360	-125.981895	-40.069668	-21.706063	-40.069668	-21.706063	-0.381463	-126.001348
9.500000	-0.385900	-126.547502	-40.012360	-22.832780	-40.012360	-22.832780	-0.386005	-126.567114
9.550000	-0.390463	-127.112320	-39.957205	-23.939737	-39.957205	-23.939737	-0.390569	-127.132096
9.600000	-0.395038	-127.676692	-39.903395	-25.035093	-39.903395	-25.035093	-0.395145	-127.696634
9.650000	-0.399635	-128.240170	-39.851900	-26.107245	-39.851900	-26.107245	-0.399743	-128.260285
9.700000	-0.404241	-128.803315	-39.801434	-27.170504	-39.801434	-27.170504	-0.404350	-128.823606
9.750000	-0.408869	-129.365463	-39.753425	-28.207086	-39.753425	-28.207086	-0.408978	-129.385936
9.800000	-0.413502	-129.927389	-39.706148	-29.237638	-39.706148	-29.237638	-0.413611	-129.948047
9.850000	-0.418155	-130.488211	-39.661452	-30.238048	-39.661452	-30.238048	-0.418262	-130.509060
9.900000	-0.422811	-131.048922	-39.617210	-31.235405	-39.617210	-31.235405	-0.422918	-131.069965
9.950000	-0.427484	-131.608418	-39.575653	-32.199199	-39.575653	-32.199199	-0.427588	-131.629663
10.000000	-0.432159	-132.167913	-39.534295	-33.162993	-39.534295	-33.162993	-0.432261	-132.189360
