! freq	dB(S11)	phase(S11)	dB(S12)	phase(S12)	
!     	dB(S21)	phase(S21)	dB(S22)	phase(S22)	
!S-par simulation data
#  GHz  S  DB  R 50
0.000000	-0.000000	-0.000000	-324.567256	180.000000	-324.567256	180.000000	-0.000000	0.000000
0.050000	-0.002282	-3.562175	-67.762006	85.463453	-67.762006	85.463453	-0.003732	-5.714947
0.100000	-0.007790	-7.105331	-61.789793	80.828554	-61.789793	80.828554	-0.012862	-11.390091
0.150000	-0.014262	-10.623718	-58.336184	76.209933	-58.336184	76.209933	-0.023757	-17.005383
0.200000	-0.020390	-14.121741	-55.925135	71.634974	-55.925135	71.634974	-0.034118	-22.559837
0.250000	-0.025829	-17.602166	-54.097290	67.115820	-54.097290	67.115820	-0.043202	-28.049245
0.300000	-0.030651	-21.065981	-52.646730	62.662050	-52.646730	62.662050	-0.051016	-33.467880
0.350000	-0.035040	-24.513012	-51.460245	58.278975	-51.460245	58.278975	-0.057829	-38.811227
0.400000	-0.039125	-27.941438	-50.471557	53.973331	-50.471557	53.973331	-0.063850	-44.071245
0.450000	-0.042993	-31.348076	-49.639701	49.754194	-49.639701	49.754194	-0.069216	-49.236102
0.500000	-0.046715	-34.731676	-48.931440	45.621240	-48.931440	45.621240	-0.074073	-54.303741
0.550000	-0.050322	-38.090059	-48.325086	41.577125	-48.325086	41.577125	-0.078496	-59.268748
0.600000	-0.053830	-41.419776	-47.806590	37.627911	-47.806590	37.627911	-0.082522	-64.121584
0.650000	-0.057253	-44.719827	-47.361467	33.771186	-47.361467	33.771186	-0.086206	-68.862901
0.700000	-0.060596	-47.988797	-46.979395	30.006228	-46.979395	30.006228	-0.089583	-73.491857
0.750000	-0.063857	-51.224111	-46.653716	26.335687	-46.653716	26.335687	-0.092669	-78.003945
0.800000	-0.067034	-54.424428	-46.377772	22.758866	-46.377772	22.758866	-0.095488	-82.399406
0.850000	-0.070127	-57.588969	-46.145768	19.274120	-46.145768	19.274120	-0.098064	-86.680439
0.900000	-0.073132	-60.716819	-45.953252	15.880840	-45.953252	15.880840	-0.100415	-90.848784
0.950000	-0.076047	-63.806995	-45.796725	12.579268	-45.796725	12.579268	-0.102556	-94.905999
1.000000	-0.078869	-66.858822	-45.673123	9.369639	-45.673123	9.369639	-0.104504	-98.854573
1.050000	-0.081595	-69.871781	-45.579842	6.252636	-45.579842	6.252636	-0.106273	-102.697377
1.100000	-0.084224	-72.845501	-45.514651	3.229464	-45.514651	3.229464	-0.107876	-106.437579
1.150000	-0.086756	-75.779748	-45.475605	0.301893	-45.475605	0.301893	-0.109329	-110.078562
1.200000	-0.089190	-78.674420	-45.460983	-2.527712	-45.460983	-2.527712	-0.110642	-113.623865
1.250000	-0.091526	-81.529528	-45.469226	-5.256396	-45.469226	-5.256396	-0.111829	-117.077122
1.300000	-0.093765	-84.344341	-45.499320	-7.878269	-45.499320	-7.878269	-0.112899	-120.440181
1.350000	-0.095910	-87.119948	-45.549381	-10.391444	-45.549381	-10.391444	-0.113866	-123.718732
1.400000	-0.097963	-89.856663	-45.618052	-12.791404	-45.618052	-12.791404	-0.114740	-126.916437
1.450000	-0.099928	-92.554881	-45.703960	-15.073305	-45.703960	-15.073305	-0.115532	-130.036904
1.500000	-0.101808	-95.215069	-45.805691	-17.232101	-45.805691	-17.232101	-0.116252	-133.083667
1.550000	-0.103608	-97.837757	-45.921761	-19.262708	-45.921761	-19.262708	-0.116908	-136.060168
1.600000	-0.105330	-100.423530	-46.050595	-21.160186	-46.050595	-21.160186	-0.117509	-138.969750
1.650000	-0.106980	-102.973022	-46.190514	-22.919951	-46.190514	-22.919951	-0.118064	-141.815644
1.700000	-0.108562	-105.486912	-46.339723	-24.538006	-46.339723	-24.538006	-0.118579	-144.600965
1.750000	-0.110081	-107.965910	-46.496312	-26.011191	-46.496312	-26.011191	-0.119063	-147.328709
1.800000	-0.111542	-110.410762	-46.658261	-27.337440	-46.658261	-27.337440	-0.119521	-150.001749
1.850000	-0.112949	-112.822235	-46.823456	-28.516041	-46.823456	-28.516041	-0.119960	-152.622836
1.900000	-0.114306	-115.200774	-46.989667	-29.546320	-46.989667	-29.546320	-0.120387	-155.194096
1.950000	-0.115618	-117.547212	-47.154604	-30.431157	-47.154604	-30.431157	-0.120805	-157.718121
2.000000	-0.116891	-119.862721	-47.316092	-31.177013	-47.316092	-31.177013	-0.121221	-160.197836
2.050000	-0.118128	-122.148128	-47.472001	-31.790876	-47.472001	-31.790876	-0.121639	-162.635517
2.100000	-0.119334	-124.404265	-47.620318	-32.281874	-47.620318	-32.281874	-0.122062	-165.033333
2.150000	-0.120514	-126.631965	-47.759212	-32.661215	-47.759212	-32.661215	-0.122495	-167.393346
2.200000	-0.121670	-128.832064	-47.887085	-32.942006	-47.887085	-32.942006	-0.122942	-169.717518
2.250000	-0.122806	-131.005392	-48.002623	-33.138990	-48.002623	-33.138990	-0.123404	-172.007717
2.300000	-0.123927	-133.151697	-48.104171	-33.266236	-48.104171	-33.266236	-0.123886	-174.264416
2.350000	-0.125035	-135.274257	-48.192546	-33.345568	-48.192546	-33.345568	-0.124389	-176.492282
2.400000	-0.126134	-137.372489	-48.266611	-33.390801	-48.266611	-33.390801	-0.124915	-178.691200
2.450000	-0.127227	-139.447198	-48.326363	-33.419074	-48.326363	-33.419074	-0.125465	179.137301
2.500000	-0.128316	-141.499180	-48.372089	-33.446986	-48.372089	-33.446986	-0.126043	176.991772
2.550000	-0.129404	-143.528298	-48.403777	-33.491517	-48.403777	-33.491517	-0.126650	174.871842
2.600000	-0.130494	-145.536314	-48.422794	-33.566810	-48.422794	-33.566810	-0.127287	172.775079
2.650000	-0.131587	-147.523982	-48.430013	-33.685370	-48.430013	-33.685370	-0.127954	170.700248
2.700000	-0.132687	-149.492049	-48.426370	-33.857916	-48.426370	-33.857916	-0.128651	168.646171
2.750000	-0.133794	-151.441244	-48.412818	-34.093281	-48.412818	-34.093281	-0.129380	166.611730
2.800000	-0.134911	-153.372286	-48.390286	-34.398381	-48.390286	-34.398381	-0.130141	164.595862
2.850000	-0.136039	-155.285875	-48.359650	-34.778249	-48.359650	-34.778249	-0.130934	162.597554
2.900000	-0.137180	-157.182702	-48.321716	-35.236113	-48.321716	-35.236113	-0.131759	160.615844
2.950000	-0.138335	-159.063441	-48.277213	-35.773524	-48.277213	-35.773524	-0.132616	158.649815
3.000000	-0.139505	-160.928750	-48.226797	-36.390518	-48.226797	-36.390518	-0.133504	156.698596
3.050000	-0.140692	-162.779277	-48.171062	-37.085813	-48.171062	-37.085813	-0.134423	154.761357
3.100000	-0.141896	-164.615652	-48.110552	-37.857025	-48.110552	-37.857025	-0.135374	152.837307
3.150000	-0.143118	-166.438492	-48.045776	-38.700896	-48.045776	-38.700896	-0.136355	150.925695
3.200000	-0.144360	-168.248400	-47.977222	-39.613534	-47.977222	-39.613534	-0.137366	149.025804
3.250000	-0.145621	-170.045966	-47.905367	-40.590630	-47.905367	-40.590630	-0.138405	147.136954
3.300000	-0.146903	-171.831765	-47.830687	-41.627674	-47.830687	-41.627674	-0.139473	145.258494
3.350000	-0.148205	-173.606359	-47.753656	-42.720136	-47.753656	-42.720136	-0.140569	143.389808
3.400000	-0.149529	-175.370297	-47.674747	-43.863614	-47.674747	-43.863614	-0.141691	141.530306
3.450000	-0.150875	-177.124115	-47.594436	-45.053960	-47.594436	-45.053960	-0.142839	139.679429
3.500000	-0.152242	-178.868336	-47.513188	-46.287359	-47.513188	-46.287359	-0.144012	137.836644
3.550000	-0.153632	179.396530	-47.431460	-47.560386	-47.431460	-47.560386	-0.145209	136.001443
3.600000	-0.155044	177.669983	-47.349695	-48.870033	-47.349695	-48.870033	-0.146429	134.173344
3.650000	-0.156479	175.951539	-47.268312	-50.213716	-47.268312	-50.213716	-0.147671	132.351888
3.700000	-0.157937	174.240721	-47.187711	-51.589266	-47.187711	-51.589266	-0.148934	130.536639
3.750000	-0.159417	172.537068	-47.108266	-52.994902	-47.108266	-52.994902	-0.150217	128.727183
3.800000	-0.160920	170.840398	-47.030374	-54.430402	-47.030374	-54.430402	-0.151520	126.923342
3.850000	-0.162446	169.149959	-46.954334	-55.893411	-46.954334	-55.893411	-0.152841	125.124494
3.900000	-0.163994	167.465323	-46.880440	-57.383172	-46.880440	-57.383172	-0.154179	123.330288
3.950000	-0.165565	165.786072	-46.808958	-58.899182	-46.808958	-58.899182	-0.155534	121.540389
4.000000	-0.167157	164.111797	-46.740134	-60.441164	-46.740134	-60.441164	-0.156904	119.754483
4.050000	-0.168771	162.442100	-46.674194	-62.009040	-46.674194	-62.009040	-0.158288	117.972271
4.100000	-0.170407	160.776591	-46.611346	-63.602908	-46.611346	-63.602908	-0.159686	116.193470
4.150000	-0.172063	159.114892	-46.551783	-65.223018	-46.551783	-65.223018	-0.161096	114.417815
4.200000	-0.173741	157.456633	-46.495687	-66.869760	-46.495687	-66.869760	-0.162519	112.645055
4.250000	-0.175439	155.801452	-46.443226	-68.543648	-46.443226	-68.543648	-0.163952	110.874953
4.300000	-0.177157	154.148998	-46.394564	-70.245307	-46.394564	-70.245307	-0.165397	109.107290
4.350000	-0.178894	152.498927	-46.349857	-71.975466	-46.349857	-71.975466	-0.166851	107.341857
4.400000	-0.180651	150.850903	-46.309255	-73.734951	-46.309255	-73.734951	-0.168315	105.578460
4.450000	-0.182427	149.204602	-46.272908	-75.524680	-46.272908	-75.524680	-0.169788	103.816919
4.500000	-0.184221	147.559703	-46.240964	-77.345659	-46.240964	-77.345659	-0.171269	102.057065
4.550000	-0.186032	145.915898	-46.213568	-79.198982	-46.213568	-79.198982	-0.172758	100.298744
4.600000	-0.187862	144.272882	-46.190869	-81.085831	-46.190869	-81.085831	-0.174255	98.541810
4.650000	-0.189708	142.630363	-46.173016	-83.007474	-46.173016	-83.007474	-0.175759	96.786132
4.700000	-0.191571	140.988052	-46.160160	-84.965271	-46.160160	-84.965271	-0.177271	95.031589
4.750000	-0.193449	139.345670	-46.152455	-86.960676	-46.152455	-86.960676	-0.178789	93.278070
4.800000	-0.195343	137.702945	-46.150056	-88.995241	-46.150056	-88.995241	-0.180314	91.525477
4.850000	-0.197252	136.059613	-46.153121	-91.070623	-46.153121	-91.070623	-0.181846	89.773720
4.900000	-0.199175	134.415417	-46.161810	-93.188589	-46.161810	-93.188589	-0.183385	88.022721
4.950000	-0.201113	132.770105	-46.176285	-95.351026	-46.176285	-95.351026	-0.184931	86.272408
5.000000	-0.203064	131.123435	-46.196707	-97.559947	-46.196707	-97.559947	-0.186485	84.522723
5.050000	-0.205028	129.475090	-46.223505	-99.819730	-46.223505	-99.819730	-0.188046	82.773637
5.100000	-0.207005	127.824902	-46.256578	-102.130682	-46.256578	-102.130682	-0.189614	81.025081
5.150000	-0.208994	126.172650	-46.296076	-104.495293	-46.296076	-104.495293	-0.191192	79.277022
5.200000	-0.210995	124.518119	-46.342141	-106.916236	-46.342141	-106.916236	-0.192778	77.529437
5.250000	-0.213007	122.861103	-46.394906	-109.396380	-46.394906	-109.396380	-0.194373	75.782306
5.300000	-0.215030	121.201400	-46.454484	-111.938808	-46.454484	-111.938808	-0.195978	74.035622
5.350000	-0.217064	119.538818	-46.520973	-114.546832	-46.520973	-114.546832	-0.197594	72.289381
5.400000	-0.219108	117.873169	-46.594440	-117.224016	-46.594440	-117.224016	-0.199221	70.543588
5.450000	-0.221162	116.204274	-46.674922	-119.974188	-46.674922	-119.974188	-0.200861	68.798253
5.500000	-0.223226	114.531959	-46.762413	-122.801465	-46.762413	-122.801465	-0.202514	67.053394
5.550000	-0.225299	112.856059	-46.856858	-125.710260	-46.856858	-125.710260	-0.204181	65.309034
5.600000	-0.227382	111.176414	-46.958138	-128.705299	-46.958138	-128.705299	-0.205863	63.565201
5.650000	-0.229475	109.492872	-47.066058	-131.791624	-47.066058	-131.791624	-0.207562	61.821929
5.700000	-0.231577	107.805286	-47.180335	-134.974588	-47.180335	-134.974588	-0.209279	60.079257
5.750000	-0.233689	106.113519	-47.300574	-138.259844	-47.300574	-138.259844	-0.211014	58.337229
5.800000	-0.235811	104.417438	-47.426256	-141.653306	-47.426256	-141.653306	-0.212770	56.595892
5.850000	-0.237943	102.716918	-47.556709	-145.161096	-47.556709	-145.161096	-0.214548	54.855298
5.900000	-0.240084	101.011842	-47.691090	-148.789454	-47.691090	-148.789454	-0.216349	53.115503
5.950000	-0.242237	99.302097	-47.828355	-152.544616	-47.828355	-152.544616	-0.218174	51.376564
6.000000	-0.244400	97.587581	-47.967238	-156.432638	-47.967238	-156.432638	-0.220026	49.638543
6.050000	-0.246575	95.868196	-48.106224	-160.459169	-48.106224	-160.459169	-0.221906	47.901504
6.100000	-0.248762	94.143851	-48.243530	-164.629157	-48.243530	-164.629157	-0.223815	46.165513
6.150000	-0.250963	92.414465	-48.377092	-168.946488	-48.377092	-168.946488	-0.225755	44.430638
6.200000	-0.253177	90.679960	-48.504564	-173.413550	-48.504564	-173.413550	-0.227729	42.696948
6.250000	-0.255406	88.940269	-48.623329	-178.030744	-48.623329	-178.030744	-0.229737	40.964514
6.300000	-0.257652	87.195098	-48.729841	177.197878	-48.729841	177.197878	-0.231784	39.233468
6.350000	-0.259915	85.444619	-48.821516	172.284512	-48.821516	172.284512	-0.233870	37.503827
6.400000	-0.262197	83.688786	-48.895250	167.238442	-48.895250	167.238442	-0.235997	35.775661
6.450000	-0.264499	81.927559	-48.947990	162.072886	-48.947990	162.072886	-0.238166	34.049042
6.500000	-0.266823	80.160906	-48.976883	156.805091	-48.976883	156.805091	-0.240380	32.324038
6.550000	-0.269171	78.388802	-48.979435	151.456143	-48.979435	151.456143	-0.242640	30.600717
6.600000	-0.271544	76.611228	-48.953662	146.050459	-48.953662	146.050459	-0.244950	28.879147
6.650000	-0.273946	74.828172	-48.898231	140.614952	-48.898231	140.614952	-0.247309	27.159390
6.700000	-0.276377	73.039632	-48.812545	135.177952	-48.812545	135.177952	-0.249722	25.441508
6.750000	-0.278841	71.245608	-48.696792	129.767959	-48.696792	129.767959	-0.252189	23.725559
6.800000	-0.281341	69.446112	-48.551921	124.412383	-48.551921	124.412383	-0.254713	22.011595
6.850000	-0.283878	67.641159	-48.379572	119.136400	-48.379572	119.136400	-0.257296	20.299668
6.900000	-0.286457	65.830772	-48.181951	113.962032	-48.181951	113.962032	-0.259939	18.589822
6.950000	-0.289080	64.014981	-47.961691	108.907533	-47.961691	108.907533	-0.262645	16.882097
7.000000	-0.291750	62.193823	-47.721687	103.987095	-47.721687	103.987095	-0.265416	15.176526
7.050000	-0.294472	60.367340	-47.464950	99.210853	-47.464950	99.210853	-0.268252	13.473136
7.100000	-0.297249	58.535583	-47.194480	94.585121	-47.194480	94.585121	-0.271157	11.771948
7.150000	-0.300086	56.698605	-46.913159	90.112813	-46.913159	90.112813	-0.274132	10.072972
7.200000	-0.302985	54.856469	-46.623680	85.793938	-46.623680	85.793938	-0.277178	8.376211
7.250000	-0.305952	53.009242	-46.328498	81.626145	-46.328498	81.626145	-0.280298	6.681660
7.300000	-0.308992	51.156998	-46.029811	77.605240	-46.029811	77.605240	-0.283492	4.989300
7.350000	-0.312109	49.299816	-45.729551	73.725658	-45.729551	73.725658	-0.286762	3.299102
7.400000	-0.315308	47.437781	-45.429400	69.980870	-45.429400	69.980870	-0.290109	1.611024
7.450000	-0.318596	45.570981	-45.130801	66.363719	-45.130801	66.363719	-0.293535	-0.074991
7.500000	-0.321976	43.699513	-44.834992	62.866690	-44.834992	62.866690	-0.297040	-1.759016
7.550000	-0.325460	41.823282	-44.542815	59.486630	-44.542815	59.486630	-0.300629	-3.441063
7.600000	-0.329050	39.942597	-44.255483	56.210640	-44.255483	56.210640	-0.304299	-5.121332
7.650000	-0.332753	38.057567	-43.973762	53.031149	-43.973762	53.031149	-0.308050	-6.799960
7.700000	-0.336574	36.168306	-43.698328	49.940750	-43.698328	49.940750	-0.311882	-8.477109
7.750000	-0.340521	34.274933	-43.429789	46.932223	-43.429789	46.932223	-0.315795	-10.152970
7.800000	-0.344602	32.377568	-43.168712	43.998548	-43.168712	43.998548	-0.319790	-11.827771
7.850000	-0.348823	30.476338	-42.915652	41.132890	-42.915652	41.132890	-0.323865	-13.501775
7.900000	-0.353193	28.571371	-42.671173	38.328571	-42.671173	38.328571	-0.328019	-15.175294
7.950000	-0.357721	26.662800	-42.435882	35.579030	-42.435882	35.579030	-0.332253	-16.848692
8.000000	-0.362414	24.750761	-42.210455	32.877769	-42.210455	32.877769	-0.336564	-18.522397
8.050000	-0.367284	22.835391	-41.995673	30.218287	-41.995673	30.218287	-0.340951	-20.196914
8.100000	-0.372338	20.916833	-41.792465	27.593995	-41.792465	27.593995	-0.345414	-21.872837
8.150000	-0.377590	18.995232	-41.601962	24.998117	-41.601962	24.998117	-0.349951	-23.550874
8.200000	-0.383049	17.070738	-41.425560	22.423566	-41.425560	22.423566	-0.354564	-25.231869
8.250000	-0.388728	15.143502	-41.265009	19.862781	-41.265009	19.862781	-0.359253	-26.916836
8.300000	-0.394642	13.213683	-41.122537	17.307527	-41.122537	17.307527	-0.364024	-28.607005
8.350000	-0.400802	11.281474	-41.000690	14.748859	-41.000690	14.748859	-0.368883	-30.303762
8.400000	-0.407236	9.346961	-40.904140	12.175718	-40.904140	12.175718	-0.373852	-32.009304
8.450000	-0.413957	7.410392	-40.837448	9.575843	-40.837448	9.575843	-0.378955	-33.725807
8.500000	-0.420988	5.471971	-40.807456	6.934367	-40.807456	6.934367	-0.384241	-35.456249
8.550000	-0.428356	3.531926	-40.823670	4.232889	-40.823670	4.232889	-0.389788	-37.204465
8.600000	-0.436094	1.590526	-40.899660	1.447970	-40.899660	1.447970	-0.395729	-38.975482
8.650000	-0.444242	-0.351902	-41.055470	-1.451169	-41.055470	-1.451169	-0.402285	-40.776004
8.700000	-0.452848	-2.294933	-41.322007	-4.506325	-41.322007	-4.506325	-0.409833	-42.615169
8.750000	-0.461924	-4.238042	-41.732902	-7.752810	-41.732902	-7.752810	-0.418820	-44.500204
8.800000	-0.471638	-6.180360	-42.403983	-11.318493	-42.403983	-11.318493	-0.430721	-46.459060
8.850000	-0.482027	-8.120590	-43.492468	-15.320083	-43.492468	-15.320083	-0.447548	-48.513694
8.900000	-0.493173	-10.056654	-45.388744	-19.993892	-45.388744	-19.993892	-0.473483	-50.703731
8.950000	-0.505075	-11.985392	-49.254477	-25.822078	-49.254477	-25.822078	-0.516323	-53.082034
9.000000	-0.517545	-13.900474	-64.815714	-82.227752	-64.815714	-82.227752	-0.596021	-55.747370
9.050000	-0.529528	-15.793337	-47.380844	140.380115	-47.380844	140.380115	-0.756054	-58.789856
9.100000	-0.538027	-17.656750	-38.467255	126.180605	-38.467255	126.180605	-1.097855	-62.132662
9.150000	-0.537313	-19.507031	-32.517984	105.219410	-32.517984	105.219410	-1.804669	-64.568212
9.200000	-0.526067	-21.412933	-28.814088	76.425724	-28.814088	76.425724	-2.690929	-62.189334
9.250000	-0.516212	-23.416476	-27.631822	48.178618	-27.631822	48.178618	-2.692777	-56.451375
9.300000	-0.516861	-25.461455	-27.836057	28.136402	-27.836057	28.136402	-2.119222	-54.673224
9.350000	-0.525414	-27.494962	-28.340823	15.054639	-28.340823	15.054639	-1.673149	-55.730807
9.400000	-0.537526	-29.506668	-28.794698	6.016539	-28.794698	6.016539	-1.401693	-57.603796
9.450000	-0.550980	-31.501181	-29.137978	-0.726157	-29.137978	-0.726157	-1.237649	-59.628818
9.500000	-0.564908	-33.483939	-29.377841	-6.087366	-29.377841	-6.087366	-1.136198	-61.631732
9.550000	-0.579011	-35.459569	-29.542273	-10.649382	-29.542273	-10.649382	-1.069295	-63.582478
9.600000	-0.593230	-37.429868	-29.641442	-14.626035	-29.641442	-14.626035	-1.026565	-65.475481
9.650000	-0.607565	-39.396757	-29.694226	-18.235010	-29.694226	-18.235010	-0.998568	-67.322912
9.700000	-0.622040	-41.361191	-29.711508	-21.586828	-29.711508	-21.586828	-0.980764	-69.134091
9.750000	-0.636693	-43.323695	-29.700055	-24.746004	-29.700055	-24.746004	-0.970665	-70.915353
9.800000	-0.651551	-45.284745	-29.667222	-27.771450	-29.667222	-27.771450	-0.966112	-72.674168
9.850000	-0.666640	-47.244601	-29.617670	-30.697851	-29.617670	-30.697851	-0.965919	-74.415390
9.900000	-0.681972	-49.203499	-29.555929	-33.555463	-29.555929	-33.555463	-0.969056	-76.143774
9.950000	-0.697587	-51.161493	-29.484129	-36.358609	-29.484129	-36.358609	-0.975200	-77.861614
10.000000	-0.713461	-53.118808	-29.406227	-39.129036	-29.406227	-39.129036	-0.983504	-79.572973
