! freq	dB(S11)	phase(S11)	dB(S12)	phase(S12)	
!     	dB(S21)	phase(S21)	dB(S22)	phase(S22)	
!S-par simulation data
#  GHz  S  DB  R 50
0.000000	-0.000000	0.000000	-323.595736	180.000000	-323.595736	180.000000	-0.000000	0.000000
0.050000	-0.002901	-4.697818	-85.990761	87.137415	-85.990761	87.137415	-0.000861	-1.157632
0.100000	-0.010203	-9.368597	-80.000898	84.264697	-80.000898	84.264697	-0.002668	-2.307710
0.150000	-0.019229	-13.999145	-76.531512	81.408890	-76.531512	81.408890	-0.004436	-3.451176
0.200000	-0.028100	-18.588085	-74.104521	78.575765	-74.104521	78.575765	-0.005905	-4.591346
0.250000	-0.036017	-23.133870	-72.258944	75.772519	-72.258944	75.772519	-0.007137	-5.730011
0.300000	-0.042838	-27.633760	-70.789172	73.006537	-70.789172	73.006537	-0.008247	-6.867857
0.350000	-0.048728	-32.085274	-69.583040	70.283226	-69.583040	70.283226	-0.009325	-8.005040
0.400000	-0.053855	-36.483146	-68.575122	67.609307	-68.575122	67.609307	-0.010429	-9.141493
0.450000	-0.058354	-40.819239	-67.725382	64.993977	-67.725382	64.993977	-0.011606	-10.277068
0.500000	-0.062385	-45.091485	-67.001733	62.440826	-67.001733	62.440826	-0.012890	-11.411736
0.550000	-0.066041	-49.295478	-66.383387	59.956003	-66.383387	59.956003	-0.014310	-12.545513
0.600000	-0.069380	-53.423823	-65.857351	57.549501	-65.857351	57.549501	-0.015896	-13.678521
0.650000	-0.072467	-57.475850	-65.409879	55.225200	-65.409879	55.225200	-0.017637	-14.811085
0.700000	-0.075343	-61.449856	-65.031290	52.988729	-65.031290	52.988729	-0.019485	-15.943519
0.750000	-0.078031	-65.341471	-64.715762	50.849908	-64.715762	50.849908	-0.021353	-17.075927
0.800000	-0.080553	-69.149565	-64.457176	48.816127	-64.457176	48.816127	-0.023142	-18.208013
0.850000	-0.082928	-72.874416	-64.250079	46.894210	-64.250079	46.894210	-0.024797	-19.339181
0.900000	-0.085168	-76.516001	-64.090329	45.092620	-64.090329	45.092620	-0.026321	-20.468837
0.950000	-0.087281	-80.074194	-63.974706	43.421538	-63.974706	43.421538	-0.027748	-21.596576
1.000000	-0.089274	-83.549592	-63.900289	41.891904	-63.900289	41.891904	-0.029120	-22.722212
1.050000	-0.091153	-86.943138	-63.864514	40.516071	-63.864514	40.516071	-0.030470	-23.845704
1.100000	-0.092924	-90.256076	-63.865058	39.308075	-63.865058	39.308075	-0.031818	-24.967075
1.150000	-0.094591	-93.489899	-63.899721	38.283907	-63.899721	38.283907	-0.033174	-26.086364
1.200000	-0.096159	-96.646308	-63.966315	37.461797	-63.966315	37.461797	-0.034543	-27.203606
1.250000	-0.097632	-99.727176	-64.062520	36.862464	-64.062520	36.862464	-0.035926	-28.318822
1.300000	-0.099012	-102.732958	-64.186198	36.515270	-64.186198	36.515270	-0.037320	-29.431979
1.350000	-0.100305	-105.667412	-64.333581	36.441700	-64.333581	36.441700	-0.038725	-30.543119
1.400000	-0.101516	-108.532724	-64.500796	36.670548	-64.500796	36.670548	-0.040138	-31.652235
1.450000	-0.102650	-111.331126	-64.682959	37.232382	-64.682959	37.232382	-0.041556	-32.759312
1.500000	-0.103712	-114.064880	-64.873855	38.158160	-64.873855	38.158160	-0.042977	-33.864334
1.550000	-0.104705	-116.736254	-65.065631	39.476854	-65.065631	39.476854	-0.044401	-34.967281
1.600000	-0.105634	-119.347513	-65.248532	41.211793	-65.248532	41.211793	-0.045824	-36.068130
1.650000	-0.106505	-121.900898	-65.410813	43.375588	-65.410813	43.375588	-0.047247	-37.166858
1.700000	-0.107321	-124.398624	-65.538968	45.963847	-65.538968	45.963847	-0.048668	-38.263442
1.750000	-0.108088	-126.842867	-65.618430	48.948593	-65.618430	48.948593	-0.050087	-39.357857
1.800000	-0.108811	-129.235754	-65.634858	52.273105	-65.634858	52.273105	-0.051502	-40.450079
1.850000	-0.109493	-131.579366	-65.575908	55.850587	-65.575908	55.850587	-0.052915	-41.540083
1.900000	-0.110136	-133.869337	-65.420249	59.569867	-65.420249	59.569867	-0.054325	-42.627525
1.950000	-0.110752	-136.120217	-65.189490	63.281898	-65.189490	63.281898	-0.055731	-43.712994
2.000000	-0.111342	-138.327743	-64.875562	66.881792	-64.875562	66.881792	-0.057135	-44.796173
2.050000	-0.111909	-140.493755	-64.486678	70.261669	-64.486678	70.261669	-0.058537	-45.877040
2.100000	-0.112458	-142.620029	-64.034655	73.339207	-64.034655	73.339207	-0.059936	-46.955572
2.150000	-0.112992	-144.708279	-63.533010	76.061675	-63.533010	76.061675	-0.061334	-48.031747
2.200000	-0.113516	-146.760157	-62.995258	78.404369	-62.995258	78.404369	-0.062730	-49.105545
2.250000	-0.114033	-148.777252	-62.433703	80.365423	-62.433703	80.365423	-0.064126	-50.176945
2.300000	-0.114547	-150.761094	-61.858796	81.959290	-61.858796	81.959290	-0.065521	-51.245928
2.350000	-0.115060	-152.713153	-61.278949	83.210576	-61.278949	83.210576	-0.066918	-52.312476
2.400000	-0.115577	-154.634841	-60.700643	84.149094	-60.700643	84.149094	-0.068315	-53.376570
2.450000	-0.116100	-156.527515	-60.128683	84.806338	-60.128683	84.806338	-0.069715	-54.438194
2.500000	-0.116631	-158.392477	-59.566501	85.213208	-59.566501	85.213208	-0.071117	-55.497332
2.550000	-0.117175	-160.229882	-59.015571	85.390318	-59.015571	85.390318	-0.072523	-56.553861
2.600000	-0.117733	-162.042128	-58.478533	85.374613	-58.478533	85.374613	-0.073934	-57.607874
2.650000	-0.118308	-163.830358	-57.956240	85.189381	-57.956240	85.189381	-0.075349	-58.659359
2.700000	-0.118902	-165.595669	-57.449108	84.855211	-57.449108	84.855211	-0.076769	-59.708305
2.750000	-0.119517	-167.339116	-56.957239	84.390178	-56.957239	84.390178	-0.078196	-60.754701
2.800000	-0.120155	-169.061707	-56.480511	83.810088	-56.480511	83.810088	-0.079631	-61.798539
2.850000	-0.120818	-170.764413	-56.018651	83.128724	-56.018651	83.128724	-0.081073	-62.839810
2.900000	-0.121507	-172.448165	-55.571284	82.358102	-55.571284	82.358102	-0.082524	-63.878508
2.950000	-0.122224	-174.113856	-55.137967	81.508690	-55.137967	81.508690	-0.083984	-64.914626
3.000000	-0.122969	-175.762344	-54.718222	80.589622	-54.718222	80.589622	-0.085454	-65.948160
3.050000	-0.123745	-177.394454	-54.311550	79.608877	-54.311550	79.608877	-0.086935	-66.979107
3.100000	-0.124553	-179.010976	-53.917446	78.573437	-53.917446	78.573437	-0.088427	-68.007464
3.150000	-0.125393	179.387327	-53.535413	77.489425	-53.535413	77.489425	-0.089931	-69.033230
3.200000	-0.126267	177.799723	-53.164960	76.362222	-53.164960	76.362222	-0.091448	-70.056407
3.250000	-0.127174	176.225510	-52.805614	75.196572	-52.805614	75.196572	-0.092979	-71.076993
3.300000	-0.128117	174.664009	-52.456919	73.996662	-52.456919	73.996662	-0.094523	-72.094994
3.350000	-0.129094	173.114569	-52.118437	72.766203	-52.118437	72.766203	-0.096083	-73.110411
3.400000	-0.130108	171.576560	-51.789752	71.508490	-51.789752	71.508490	-0.097658	-74.123249
3.450000	-0.131158	170.049378	-51.470468	70.226456	-51.470468	70.226456	-0.099248	-75.133516
3.500000	-0.132244	168.532439	-51.160209	68.922719	-51.160209	68.922719	-0.100856	-76.141217
3.550000	-0.133367	167.025180	-50.858616	67.599623	-50.858616	67.599623	-0.102481	-77.146362
3.600000	-0.134528	165.527057	-50.565353	66.259274	-50.565353	66.259274	-0.104124	-78.148958
3.650000	-0.135725	164.037546	-50.280100	64.903564	-50.280100	64.903564	-0.105785	-79.149018
3.700000	-0.136960	162.556140	-50.002553	63.534203	-50.002553	63.534203	-0.107465	-80.146553
3.750000	-0.138232	161.082347	-49.732427	62.152737	-49.732427	62.152737	-0.109165	-81.141575
3.800000	-0.139542	159.615984	-49.469413	60.760165	-49.469413	60.760165	-0.110887	-82.133990
3.850000	-0.140890	158.156260	-49.213306	59.358273	-49.213306	59.358273	-0.112629	-83.123923
3.900000	-0.142275	156.702733	-48.963862	57.948212	-48.963862	57.948212	-0.114393	-84.111389
3.950000	-0.143697	155.254974	-48.720848	56.531039	-48.720848	56.531039	-0.116178	-85.096407
4.000000	-0.145155	153.812565	-48.484047	55.107722	-48.484047	55.107722	-0.117986	-86.078993
4.050000	-0.146650	152.375103	-48.253250	53.679154	-48.253250	53.679154	-0.119818	-87.059168
4.100000	-0.148181	150.942194	-48.028261	52.246160	-48.028261	52.246160	-0.121673	-88.036952
4.150000	-0.149748	149.513455	-47.808892	50.809506	-47.808892	50.809506	-0.123552	-89.012366
4.200000	-0.151351	148.088515	-47.594966	49.369904	-47.594966	49.369904	-0.125456	-89.985431
4.250000	-0.152990	146.667011	-47.386313	47.928019	-47.386313	47.928019	-0.127385	-90.956173
4.300000	-0.154665	145.248590	-47.182775	46.484472	-47.182775	46.484472	-0.129340	-91.924613
4.350000	-0.156375	143.832908	-46.984196	45.039851	-46.984196	45.039851	-0.131322	-92.890778
4.400000	-0.158120	142.419628	-46.790432	43.594707	-46.790432	43.594707	-0.133330	-93.854694
4.450000	-0.159901	141.008421	-46.601344	42.149564	-46.601344	42.149564	-0.135365	-94.816387
4.500000	-0.161717	139.598967	-46.416799	40.704921	-46.416799	40.704921	-0.137429	-95.775886
4.550000	-0.163567	138.190950	-46.236670	39.261253	-46.236670	39.261253	-0.139520	-96.733218
4.600000	-0.165453	136.784061	-46.060834	37.819019	-46.060834	37.819019	-0.141640	-97.688415
4.650000	-0.167374	135.377999	-45.889176	36.378658	-45.889176	36.378658	-0.143790	-98.641505
4.700000	-0.169331	133.972465	-45.721584	34.940597	-45.721584	34.940597	-0.145969	-99.592520
4.750000	-0.171323	132.567167	-45.557950	33.505252	-45.557950	33.505252	-0.148178	-100.541493
4.800000	-0.173351	131.161819	-45.398171	32.073028	-45.398171	32.073028	-0.150418	-101.488456
4.850000	-0.175416	129.756135	-45.242146	30.644324	-45.242146	30.644324	-0.152689	-102.433443
4.900000	-0.177517	128.349835	-45.089779	29.219533	-45.089779	29.219533	-0.154992	-103.376488
4.950000	-0.179656	126.942644	-44.940977	27.799045	-44.940977	27.799045	-0.157327	-104.317627
5.000000	-0.181832	125.534287	-44.795648	26.383246	-44.795648	26.383246	-0.159694	-105.256896
5.050000	-0.184050	124.124417	-44.653750	24.972763	-44.653750	24.972763	-0.162096	-106.194252
5.100000	-0.186307	122.712815	-44.515152	23.567781	-44.515152	23.567781	-0.164530	-107.129816
5.150000	-0.188605	121.299214	-44.379769	22.168692	-44.379769	22.168692	-0.166999	-108.063626
5.200000	-0.190946	119.883345	-44.247518	20.775892	-44.247518	20.775892	-0.169502	-108.995720
5.250000	-0.193331	118.464942	-44.118317	19.389785	-44.118317	19.389785	-0.172040	-109.926138
5.300000	-0.195761	117.043737	-43.992082	18.010779	-43.992082	18.010779	-0.174613	-110.854921
5.350000	-0.198238	115.619462	-43.868734	16.639292	-43.868734	16.639292	-0.177221	-111.782110
5.400000	-0.200765	114.191848	-43.748191	15.275754	-43.748191	15.275754	-0.179865	-112.707746
5.450000	-0.203343	112.760622	-43.630370	13.920602	-43.630370	13.920602	-0.182546	-113.631871
5.500000	-0.205975	111.325510	-43.515191	12.574290	-43.515191	12.574290	-0.185263	-114.554529
5.550000	-0.208664	109.886234	-43.402569	11.237283	-43.402569	11.237283	-0.188017	-115.475764
5.600000	-0.211413	108.442511	-43.292420	9.910060	-43.292420	9.910060	-0.190809	-116.395618
5.650000	-0.214225	106.994053	-43.184656	8.593118	-43.184656	8.593118	-0.193639	-117.314139
5.700000	-0.217105	105.540566	-43.079189	7.286970	-43.079189	7.286970	-0.196507	-118.231370
5.750000	-0.220056	104.081747	-42.975924	5.992147	-42.975924	5.992147	-0.199414	-119.147358
5.800000	-0.223083	102.617286	-42.874767	4.709200	-42.874767	4.709200	-0.202359	-120.062149
5.850000	-0.226190	101.146863	-42.775616	3.438699	-42.775616	3.438699	-0.205345	-120.975792
5.900000	-0.229384	99.670146	-42.678365	2.181236	-42.678365	2.181236	-0.208370	-121.888333
5.950000	-0.232671	98.186789	-42.582903	0.937422	-42.582903	0.937422	-0.211435	-122.799820
6.000000	-0.236056	96.696433	-42.489111	-0.292107	-42.489111	-0.292107	-0.214540	-123.710304
6.050000	-0.239549	95.198701	-42.396865	-1.506692	-42.396865	-1.506692	-0.217687	-124.619833
6.100000	-0.243155	93.693197	-42.306029	-2.705654	-42.306029	-2.705654	-0.220875	-125.528458
6.150000	-0.246886	92.179504	-42.216461	-3.888288	-42.216461	-3.888288	-0.224104	-126.436229
6.200000	-0.250750	90.657178	-42.128005	-5.053867	-42.128005	-5.053867	-0.227375	-127.343196
6.250000	-0.254758	89.125750	-42.040494	-6.201642	-42.040494	-6.201642	-0.230688	-128.249413
6.300000	-0.258930	87.584275	-41.953736	-7.329997	-41.953736	-7.329997	-0.234046	-129.154902
6.350000	-0.263274	86.032605	-41.867530	-8.438914	-41.867530	-8.438914	-0.237447	-130.059750
6.400000	-0.267804	84.470157	-41.781660	-9.527580	-41.781660	-9.527580	-0.240891	-130.964009
6.450000	-0.272537	82.896297	-41.695891	-10.595170	-41.695891	-10.595170	-0.244379	-131.867734
6.500000	-0.277492	81.310341	-41.609968	-11.640848	-41.609968	-11.640848	-0.247910	-132.770979
6.550000	-0.282691	79.711542	-41.523611	-12.663769	-41.523611	-12.663769	-0.251486	-133.673799
6.600000	-0.288156	78.099084	-41.436512	-13.663092	-41.436512	-13.663092	-0.255106	-134.576248
6.650000	-0.293915	76.472070	-41.348337	-14.637978	-41.348337	-14.637978	-0.258771	-135.478382
6.700000	-0.299999	74.829514	-41.258716	-15.587610	-41.258716	-15.587610	-0.262482	-136.380259
6.750000	-0.306440	73.170322	-41.167244	-16.511194	-41.167244	-16.511194	-0.266237	-137.281934
6.800000	-0.313278	71.493280	-41.073474	-17.407981	-41.073474	-17.407981	-0.270039	-138.183466
6.850000	-0.320558	69.797034	-40.976917	-18.277281	-40.976917	-18.277281	-0.273887	-139.084911
6.900000	-0.328331	68.080069	-40.877031	-19.118481	-40.877031	-19.118481	-0.277781	-139.986327
6.950000	-0.336654	66.340678	-40.773219	-19.931074	-40.773219	-19.931074	-0.281723	-140.887774
7.000000	-0.345598	64.576934	-40.664822	-20.714688	-40.664822	-20.714688	-0.285711	-141.789311
7.050000	-0.355240	62.786652	-40.551115	-21.469121	-40.551115	-21.469121	-0.289747	-142.690997
7.100000	-0.365674	60.967339	-40.431292	-22.194386	-40.431292	-22.194386	-0.293831	-143.592892
7.150000	-0.377008	59.116141	-40.304465	-22.890766	-40.304465	-22.890766	-0.297964	-144.495056
7.200000	-0.389371	57.229770	-40.169651	-23.558875	-40.169651	-23.558875	-0.302145	-145.397552
7.250000	-0.402918	55.304425	-40.025760	-24.199736	-40.025760	-24.199736	-0.306376	-146.300439
7.300000	-0.417759	53.337882	-39.872254	-24.815863	-39.872254	-24.815863	-0.310654	-147.203756
7.350000	-0.434270	51.320223	-39.706362	-25.407080	-39.706362	-25.407080	-0.314986	-148.107616
7.400000	-0.452646	49.247759	-39.527322	-25.977691	-39.527322	-25.977691	-0.319368	-149.012056
7.450000	-0.473222	47.113208	-39.333472	-26.531578	-39.333472	-26.531578	-0.323803	-149.917137
7.500000	-0.496412	44.907869	-39.122965	-27.073795	-39.122965	-27.073795	-0.328290	-150.822924
7.550000	-0.522819	42.619191	-38.893131	-27.610919	-38.893131	-27.610919	-0.332832	-151.729497
7.600000	-0.553057	40.235770	-38.642096	-28.151665	-38.642096	-28.151665	-0.337430	-152.636903
7.650000	-0.587988	37.741699	-38.367243	-28.706806	-38.367243	-28.706806	-0.342084	-153.545206
7.700000	-0.628736	35.117220	-38.065631	-29.290057	-38.065631	-29.290057	-0.346796	-154.454466
7.750000	-0.676784	32.337503	-37.733959	-29.918910	-37.733959	-29.918910	-0.351569	-155.364746
7.800000	-0.734128	29.370950	-37.368513	-30.615754	-37.368513	-30.615754	-0.356406	-156.276103
7.850000	-0.803497	26.176781	-36.965120	-31.409430	-36.965120	-31.409430	-0.361310	-157.188591
7.900000	-0.888702	22.701548	-36.519116	-32.337397	-36.519116	-32.337397	-0.366285	-158.102262
7.950000	-0.994640	18.882715	-36.026983	-33.443935	-36.026983	-33.443935	-0.371336	-159.017130
8.000000	-1.130323	14.605389	-35.479564	-34.804104	-35.479564	-34.804104	-0.376472	-159.933277
8.050000	-1.307223	9.743150	-34.872866	-36.501344	-34.872866	-36.501344	-0.381701	-160.850672
8.100000	-1.543880	4.103342	-34.201494	-38.655423	-34.201494	-38.655423	-0.387030	-161.769278
8.150000	-1.870585	-2.604814	-33.461073	-41.435447	-33.461073	-41.435447	-0.392470	-162.688994
8.200000	-2.336651	-10.813865	-32.653152	-45.068189	-32.653152	-45.068189	-0.398023	-163.609607
8.250000	-3.026337	-21.219326	-31.789751	-49.862172	-31.789751	-49.862172	-0.403673	-164.530765
8.300000	-4.084642	-35.018134	-30.905326	-56.210311	-30.905326	-56.210311	-0.409357	-165.451982
8.350000	-5.743276	-54.521210	-30.075768	-64.528514	-30.075768	-64.528514	-0.414921	-166.372859
8.400000	-8.194603	-84.979212	-29.436719	-75.046121	-29.436719	-75.046121	-0.420108	-167.293795
8.450000	-10.275928	-135.514454	-29.167840	-87.395021	-29.167840	-87.395021	-0.424696	-168.216869
8.500000	-8.763912	168.303592	-29.405797	-100.350353	-29.405797	-100.350353	-0.428792	-169.145180
8.550000	-5.968969	131.877301	-30.134041	-112.300185	-30.134041	-112.300185	-0.432841	-170.080124
8.600000	-3.988701	108.747243	-31.200603	-122.165341	-31.200603	-122.165341	-0.437216	-171.020571
8.650000	-2.759604	92.528049	-32.429915	-129.721846	-32.429915	-129.721846	-0.442011	-171.964679
8.700000	-1.997132	80.421731	-33.699872	-135.257371	-33.699872	-135.257371	-0.447155	-172.911282
8.750000	-1.511597	70.997973	-34.944756	-139.178959	-34.944756	-139.178959	-0.452550	-173.859947
8.800000	-1.192228	63.405308	-36.135747	-141.850812	-36.135747	-141.850812	-0.458117	-174.810634
8.850000	-0.975818	57.109282	-37.262544	-143.545879	-37.262544	-143.545879	-0.463809	-175.763471
8.900000	-0.823842	51.732285	-38.330272	-144.480536	-38.330272	-144.480536	-0.469590	-176.718556
8.950000	-0.715879	47.062922	-39.335773	-144.765208	-39.335773	-144.765208	-0.475444	-177.676134
9.000000	-0.636895	42.912996	-40.289256	-144.510408	-40.289256	-144.510408	-0.481357	-178.636269
9.050000	-0.578728	39.176107	-41.190594	-143.760769	-41.190594	-143.760769	-0.487322	-179.599160
9.100000	-0.535326	35.761088	-42.043917	-142.556526	-42.043917	-142.556526	-0.493333	179.435097
9.150000	-0.502870	32.606648	-42.848511	-140.910532	-42.848511	-140.910532	-0.499386	178.466345
9.200000	-0.478305	29.655406	-43.608465	-138.850533	-43.608465	-138.850533	-0.505477	177.494612
9.250000	-0.459859	26.873070	-44.320304	-136.381900	-44.320304	-136.381900	-0.511605	176.519811
9.300000	-0.446451	24.239843	-44.971982	-133.485295	-44.971982	-133.485295	-0.517768	175.541647
9.350000	-0.436832	21.726198	-45.560793	-130.191936	-45.560793	-130.191936	-0.523964	174.560153
9.400000	-0.430194	19.311741	-46.081033	-126.539794	-46.081033	-126.539794	-0.530192	173.575339
9.450000	-0.426013	16.982989	-46.523330	-122.570436	-46.523330	-122.570436	-0.536450	172.587122
9.500000	-0.424016	14.733925	-46.870133	-118.331656	-46.870133	-118.331656	-0.542740	171.595115
9.550000	-0.423682	12.547856	-47.124603	-113.936725	-47.124603	-113.936725	-0.549059	170.599554
9.600000	-0.424773	10.417274	-47.283596	-109.480930	-47.283596	-109.480930	-0.555406	169.600367
9.650000	-0.427131	8.337188	-47.344962	-105.069290	-47.344962	-105.069290	-0.561781	168.597358
9.700000	-0.430613	6.302620	-47.312325	-100.815063	-47.312325	-100.815063	-0.568183	167.590342
9.750000	-0.435028	4.306173	-47.200196	-96.794151	-47.200196	-96.794151	-0.574612	166.579471
9.800000	-0.440397	2.348830	-47.009736	-93.118470	-47.009736	-93.118470	-0.581068	165.564049
9.850000	-0.446427	0.418341	-46.771307	-89.742729	-46.771307	-89.742729	-0.587546	164.545053
9.900000	-0.453148	-1.484313	-46.488403	-86.716644	-46.488403	-86.716644	-0.594048	163.521984
9.950000	-0.460507	-3.361633	-46.171636	-84.043642	-46.171636	-84.043642	-0.600572	162.494773
10.000000	-0.468461	-5.215817	-45.830311	-81.715376	-45.830311	-81.715376	-0.607117	161.463349
