! freq	dB(S11)	phase(S11)	dB(S12)	phase(S12)	
!     	dB(S21)	phase(S21)	dB(S22)	phase(S22)	
!S-par simulation data
#  GHz  S  DB  R 50
0.000000	-85.643601	0.000000	-0.000454	0.000000	-0.000454	0.000000	-85.643601	0.000000
0.050000	-37.604029	-93.193363	-0.006356	-2.760136	-0.006356	-2.760136	-37.660070	-91.718088
0.100000	-31.610986	-96.779344	-0.012502	-5.529270	-0.012502	-5.529270	-31.617072	-94.082035
0.150000	-28.122318	-100.312699	-0.020546	-8.283072	-0.020546	-8.283072	-28.104340	-96.434787
0.200000	-25.658666	-103.818396	-0.030009	-11.024605	-0.030009	-11.024605	-25.633061	-98.711974
0.250000	-23.757785	-107.294635	-0.040549	-13.756670	-0.040549	-13.756670	-23.731168	-100.913950
0.300000	-22.213803	-110.744517	-0.052057	-16.481684	-0.052057	-16.481684	-22.188078	-103.062373
0.350000	-20.916412	-114.174150	-0.064515	-19.201321	-0.064515	-19.201321	-20.891808	-105.177013
0.400000	-19.800365	-117.588255	-0.077970	-21.916202	-0.077970	-21.916202	-19.776714	-107.268873
0.450000	-18.824190	-120.990339	-0.092506	-24.626310	-0.092506	-24.626310	-18.801297	-109.343887
0.500000	-17.958523	-124.383952	-0.108082	-27.331800	-0.108082	-27.331800	-17.936251	-111.406339
0.550000	-17.182977	-127.771111	-0.124686	-30.032470	-0.124686	-30.032470	-17.161244	-113.457748
0.600000	-16.483088	-131.153089	-0.142331	-32.727824	-0.142331	-32.727824	-16.461845	-115.498150
0.650000	-15.846954	-134.531187	-0.160934	-35.417785	-0.160934	-35.417785	-15.826162	-117.527863
0.700000	-15.265550	-137.906256	-0.180424	-38.102184	-0.180424	-38.102184	-15.245168	-119.546615
0.750000	-14.732174	-141.278897	-0.200756	-40.780649	-0.200756	-40.780649	-14.712155	-121.553488
0.800000	-14.241054	-144.649731	-0.221845	-43.453038	-0.221845	-43.453038	-14.221344	-123.547852
0.850000	-13.787005	-148.019362	-0.243583	-46.119498	-0.243583	-46.119498	-13.767547	-125.529586
0.900000	-13.366796	-151.388274	-0.265914	-48.779603	-0.265914	-48.779603	-13.347531	-127.497264
0.950000	-12.976789	-154.757058	-0.288731	-51.433511	-0.288731	-51.433511	-12.957666	-129.450667
1.000000	-12.614223	-158.126291	-0.311943	-54.081220	-0.311943	-54.081220	-12.595199	-131.389199
1.050000	-12.276614	-161.496571	-0.335457	-56.722827	-0.335457	-56.722827	-12.257659	-133.312496
1.100000	-11.961716	-164.868499	-0.359180	-59.358516	-0.359180	-59.358516	-11.942813	-135.220417
1.150000	-11.668074	-168.242820	-0.383028	-61.988206	-0.383028	-61.988206	-11.649218	-137.112087
1.200000	-11.393908	-171.620215	-0.406914	-64.612156	-0.406914	-64.612156	-11.375105	-138.987512
1.250000	-11.137580	-175.001336	-0.430759	-67.230681	-0.430759	-67.230681	-11.118844	-140.846865
1.300000	-10.898014	-178.387019	-0.454486	-69.843906	-0.454486	-69.843906	-10.879362	-142.689701
1.350000	-10.674231	178.221828	-0.478021	-72.452014	-0.478021	-72.452014	-10.655679	-144.515630
1.400000	-10.464852	174.824590	-0.501308	-75.055501	-0.501308	-75.055501	-10.446415	-146.325219
1.450000	-10.268986	171.420435	-0.524293	-77.654684	-0.524293	-77.654684	-10.250673	-148.118380
1.500000	-10.086235	168.008077	-0.546898	-80.249748	-0.546898	-80.249748	-10.068047	-149.894239
1.550000	-9.915358	164.587051	-0.569098	-82.841332	-0.569098	-82.841332	-9.897289	-151.653693
1.600000	-9.755669	161.156487	-0.590852	-85.429869	-0.590852	-85.429869	-9.737702	-153.396750
1.650000	-9.606873	157.714996	-0.612095	-88.015726	-0.612095	-88.015726	-9.588984	-155.122696
1.700000	-9.468165	154.261892	-0.632802	-90.599493	-0.632802	-90.599493	-9.450320	-156.831999
1.750000	-9.338885	150.796440	-0.652951	-93.181714	-0.652951	-93.181714	-9.321042	-158.524967
1.800000	-9.218641	147.317515	-0.672501	-95.762896	-0.672501	-95.762896	-9.200751	-160.201407
1.850000	-9.106971	143.824151	-0.691426	-98.343586	-0.691426	-98.343586	-9.088977	-161.861377
1.900000	-9.003516	140.315203	-0.709694	-100.924344	-0.709694	-100.924344	-8.985353	-163.504767
1.950000	-8.907868	136.789667	-0.727281	-103.505744	-0.727281	-103.505744	-8.889467	-165.131657
2.000000	-8.819583	133.246742	-0.744179	-106.088339	-0.744179	-106.088339	-8.800868	-166.742307
2.050000	-8.738312	129.685460	-0.760373	-108.672684	-0.760373	-108.672684	-8.719204	-168.336808
2.100000	-8.663733	126.104859	-0.775853	-111.259329	-0.775853	-111.259329	-8.644147	-169.915256
2.150000	-8.595540	122.503981	-0.790610	-113.848821	-0.790610	-113.848821	-8.575391	-171.477748
2.200000	-8.533451	118.881877	-0.804641	-116.441701	-0.804641	-116.441701	-8.512646	-173.024389
2.250000	-8.477198	115.237605	-0.817944	-119.038507	-0.817944	-119.038507	-8.455643	-174.555281
2.300000	-8.426532	111.570234	-0.830521	-121.639769	-0.830521	-121.639769	-8.404129	-176.070528
2.350000	-8.381216	107.878842	-0.842377	-124.246012	-0.842377	-124.246012	-8.357864	-177.570235
2.400000	-8.341029	104.162518	-0.853518	-126.857756	-0.853518	-126.857756	-8.316623	-179.054502
2.450000	-8.305763	100.420361	-0.863955	-129.475513	-0.863955	-129.475513	-8.280194	179.476572
2.500000	-8.275220	96.651480	-0.873700	-132.099791	-0.873700	-132.099791	-8.248374	178.022894
2.550000	-8.249309	92.854372	-0.882751	-134.731258	-0.882751	-134.731258	-8.221063	176.584701
2.600000	-8.227755	89.028743	-0.891139	-137.370267	-0.891139	-137.370267	-8.197983	175.161582
2.650000	-8.210395	85.173724	-0.898881	-140.017313	-0.898881	-140.017313	-8.178963	173.753463
2.700000	-8.197073	81.288447	-0.905997	-142.672884	-0.905997	-142.672884	-8.163839	172.360280
2.750000	-8.187645	77.372042	-0.912506	-145.337468	-0.912506	-145.337468	-8.152454	170.981980
2.800000	-8.181974	73.423634	-0.918428	-148.011552	-0.918428	-148.011552	-8.144659	169.618521
2.850000	-8.179932	69.442336	-0.923784	-150.695620	-0.923784	-150.695620	-8.140312	168.269877
2.900000	-8.181401	65.427242	-0.928597	-153.390162	-0.928597	-153.390162	-8.139275	166.936036
2.950000	-8.186267	61.377423	-0.932890	-156.095668	-0.932890	-156.095668	-8.141416	165.617008
3.000000	-8.194426	57.291914	-0.936685	-158.812636	-0.936685	-158.812636	-8.146609	164.312820
3.050000	-8.205783	53.169709	-0.940004	-161.541570	-0.940004	-161.541570	-8.154730	163.023526
3.100000	-8.220246	49.009746	-0.942873	-164.282984	-0.942873	-164.282984	-8.165661	161.749207
3.150000	-8.237763	44.810460	-0.945308	-167.037553	-0.945308	-167.037553	-8.179312	160.490142
3.200000	-8.258254	40.570601	-0.947336	-169.805836	-0.947336	-169.805836	-8.195565	159.246488
3.250000	-8.281615	36.289280	-0.948984	-172.588253	-0.948984	-172.588253	-8.214279	158.018277
3.300000	-8.307776	31.965074	-0.950276	-175.385387	-0.950276	-175.385387	-8.235343	156.805754
3.350000	-8.336673	27.596431	-0.951237	-178.197845	-0.951237	-178.197845	-8.258643	155.609221
3.400000	-8.368244	23.181648	-0.951892	178.973738	-0.951892	178.973738	-8.284065	154.429042
3.450000	-8.402424	18.718850	-0.952266	176.128695	-0.952266	176.128695	-8.311491	153.265653
3.500000	-8.439150	14.205973	-0.952386	173.266323	-0.952386	173.266323	-8.340798	152.119570
3.550000	-8.478353	9.640734	-0.952280	170.385880	-0.952280	170.385880	-8.371853	150.991397
3.600000	-8.519955	5.020616	-0.951978	167.486579	-0.951978	167.486579	-8.404514	149.881836
3.650000	-8.563870	0.342834	-0.951512	164.567585	-0.951512	164.567585	-8.438625	148.791691
3.700000	-8.609993	-4.395681	-0.950917	161.628012	-0.950917	161.628012	-8.474010	147.721882
3.750000	-8.658202	-9.198311	-0.950232	158.666915	-0.950232	158.666915	-8.510471	146.673441
3.800000	-8.708375	-14.070337	-0.949500	155.682773	-0.949500	155.682773	-8.547791	145.648041
3.850000	-8.760284	-19.014462	-0.948770	152.674977	-0.948770	152.674977	-8.585684	144.646496
3.900000	-8.813695	-24.035149	-0.948096	149.642378	-0.948096	149.642378	-8.623843	143.670192
3.950000	-8.868323	-29.137238	-0.947542	146.583749	-0.947542	146.583749	-8.661908	142.720610
4.000000	-8.923812	-34.325951	-0.947176	143.497786	-0.947176	143.497786	-8.699459	141.799298
4.050000	-8.979729	-39.606873	-0.947078	140.383095	-0.947078	140.383095	-8.736006	140.907838
4.100000	-9.035545	-44.985931	-0.947340	137.238194	-0.947340	137.238194	-8.770976	140.047793
4.150000	-9.090622	-50.469343	-0.948065	134.061506	-0.948065	134.061506	-8.803702	139.220637
4.200000	-9.144189	-56.063546	-0.949373	130.851357	-0.949373	130.851357	-8.833415	138.427665
4.250000	-9.195331	-61.775088	-0.951398	127.605967	-0.951398	127.605967	-8.859231	137.669881
4.300000	-9.242964	-67.610486	-0.954297	124.323454	-0.954297	124.323454	-8.880142	136.947853
4.350000	-9.285824	-73.576037	-0.958244	121.001824	-0.958244	121.001824	-8.895009	136.261542
4.400000	-9.322359	-79.679113	-0.963458	117.638500	-0.963458	117.638500	-8.902468	135.610465
4.450000	-9.350840	-85.924926	-0.970174	114.231186	-0.970174	114.231186	-8.901067	134.992632
4.500000	-9.369451	-92.315868	-0.978639	110.777993	-0.978639	110.777993	-8.889360	134.404392
4.550000	-9.376113	-98.854265	-0.989148	107.276471	-0.989148	107.276471	-8.865725	133.840898
4.600000	-9.368586	-105.540473	-1.002033	103.724058	-1.002033	103.724058	-8.828473	133.295468
4.650000	-9.344517	-112.372439	-1.017670	100.118086	-1.017670	100.118086	-8.775896	132.759349
4.700000	-9.301510	-119.345312	-1.036481	96.455786	-1.036481	96.455786	-8.706319	132.221529
4.750000	-9.237215	-126.451131	-1.058937	92.734292	-1.058937	92.734292	-8.618169	131.668628
4.800000	-9.149444	-133.678655	-1.085570	88.950655	-1.085570	88.950655	-8.510048	131.084888
4.850000	-9.036291	-141.013386	-1.116973	85.101851	-1.116973	85.101851	-8.380808	130.452289
4.900000	-8.896257	-148.437817	-1.153806	81.184797	-1.153806	81.184797	-8.229632	129.750802
4.950000	-8.728369	-155.931927	-1.196807	77.196372	-1.196807	77.196372	-8.056095	128.958773
5.000000	-8.532273	-163.473899	-1.246793	73.133433	-1.246793	73.133433	-7.860214	128.053420
5.050000	-8.307683	-171.040995	-1.304827	68.991375	-1.304827	68.991375	-7.641991	127.008472
5.100000	-8.056225	-178.609737	-1.371798	64.768451	-1.371798	64.768451	-7.402893	125.802784
5.150000	-7.779605	173.841413	-1.448822	60.461630	-1.448822	60.461630	-7.144368	124.413871
5.200000	-7.480113	166.332100	-1.537130	56.067989	-1.537130	56.067989	-6.868275	122.820511
5.250000	-7.160520	158.879450	-1.638081	51.584751	-1.638081	51.584751	-6.576824	121.003171
5.300000	-6.823952	151.497701	-1.753171	47.009329	-1.753171	47.009329	-6.272500	118.944308
5.350000	-6.473764	144.198069	-1.884047	42.339378	-1.884047	42.339378	-5.957988	116.628538
5.400000	-6.113419	136.988837	-2.032521	37.572844	-2.032521	37.572844	-5.636095	114.042682
5.450000	-5.746196	129.876581	-2.200762	32.707067	-2.200762	32.707067	-5.309544	111.172899
5.500000	-5.375644	122.864178	-2.390918	27.741226	-2.390918	27.741226	-4.981323	108.011388
5.550000	-5.005102	115.952577	-2.605336	22.675036	-2.605336	22.675036	-4.654309	104.552380
5.600000	-4.637608	109.141839	-2.846703	17.508319	-2.846703	17.508319	-4.331196	100.790345
5.650000	-4.275975	102.431119	-3.118002	12.241583	-3.118002	12.241583	-4.014547	96.721142
5.700000	-3.922782	95.819073	-3.422562	6.876155	-3.422562	6.876155	-3.706775	92.341842
5.750000	-3.580369	89.304206	-3.764114	1.414334	-3.764114	1.414334	-3.410126	87.650580
5.800000	-3.250840	82.885183	-4.146875	-4.140399	-4.146875	-4.140399	-3.126668	82.646470
5.850000	-2.936100	76.561528	-4.575776	-9.783502	-4.575776	-9.783502	-2.858331	77.328064
5.900000	-2.637889	70.333391	-5.056461	-15.508431	-5.056461	-15.508431	-2.606904	71.694951
5.950000	-2.357618	64.200351	-5.595035	-21.305151	-5.595035	-21.305151	-2.373808	65.752372
6.000000	-2.096516	58.163819	-6.198964	-27.161446	-6.198964	-27.161446	-2.160311	59.503866
6.050000	-1.855598	52.226202	-6.877127	-33.061115	-6.877127	-33.061115	-1.967442	52.954568
6.100000	-1.635665	46.390954	-7.640259	-38.982567	-7.640259	-38.982567	-1.795976	46.111557
6.150000	-1.437280	40.662577	-8.501601	-44.896729	-8.501601	-44.896729	-1.646399	38.984253
6.200000	-1.260759	35.046561	-9.477877	-50.763720	-9.477877	-50.763720	-1.518876	31.584836
6.250000	-1.106141	29.549248	-10.590840	-56.527280	-10.590840	-56.527280	-1.413214	23.928666
6.300000	-0.973447	24.179545	-11.869616	-62.100145	-11.869616	-62.100145	-1.329115	16.031547
6.350000	-0.861806	18.943032	-13.354978	-67.351897	-13.354978	-67.351897	-1.265262	7.920113
6.400000	-0.770286	13.846898	-15.107364	-72.058732	-15.107364	-72.058732	-1.220210	-0.378805
6.450000	-0.697633	8.897762	-17.221247	-75.797967	-17.221247	-75.797967	-1.192107	-8.834546
6.500000	-0.642289	4.101182	-19.852912	-77.649189	-19.852912	-77.649189	-1.178743	-17.412941
6.550000	-0.602444	-0.538803	-23.261215	-75.191123	-23.261215	-75.191123	-1.177624	-26.076887
6.600000	-0.576095	-5.020059	-27.640519	-60.683025	-27.640519	-60.683025	-1.186074	-34.787152
6.650000	-0.561133	-9.342613	-30.370437	-19.014412	-30.370437	-19.014412	-1.201366	-43.503377
6.700000	-0.555482	-13.507529	-27.270481	15.715264	-27.270481	15.715264	-1.220859	-52.184599
6.750000	-0.557003	-17.520221	-23.830093	25.948384	-23.830093	25.948384	-1.242054	-60.791362
6.800000	-0.563772	-21.387208	-21.369289	27.363478	-21.369289	27.363478	-1.262814	-69.286775
6.850000	-0.574062	-25.117444	-19.596809	25.601422	-19.596809	25.601422	-1.281412	-77.638490
6.900000	-0.586441	-28.719013	-18.281398	22.452786	-18.281398	22.452786	-1.296509	-85.816146
6.950000	-0.599713	-32.201946	-17.284082	18.643181	-17.284082	18.643181	-1.307207	-93.795310
7.000000	-0.612958	-35.577400	-16.518280	14.510736	-16.518280	14.510736	-1.313052	-101.558698
7.050000	-0.625478	-38.852674	-15.931954	10.226668	-15.931954	10.226668	-1.313741	-109.085259
7.100000	-0.636881	-42.042218	-15.481176	5.893757	-15.481176	5.893757	-1.309652	-116.378056
7.150000	-0.646887	-45.152911	-15.141537	1.567278	-15.141537	1.567278	-1.300990	-123.427377
7.200000	-0.655367	-48.192473	-14.893612	-2.716509	-14.893612	-2.716509	-1.288172	-130.230163
7.250000	-0.662297	-51.167585	-14.723000	-6.933926	-14.723000	-6.933926	-1.271686	-136.784654
7.300000	-0.667798	-54.086714	-14.615879	-11.073346	-14.615879	-11.073346	-1.252198	-143.102202
7.350000	-0.672008	-56.955784	-14.562951	-15.127390	-14.562951	-15.127390	-1.230264	-149.189811
7.400000	-0.675096	-59.780049	-14.556758	-19.092316	-14.556758	-19.092316	-1.206412	-155.055956
7.450000	-0.677251	-62.564159	-14.591253	-22.966850	-14.591253	-22.966850	-1.181129	-160.710145
7.500000	-0.678663	-65.312237	-14.661502	-26.751397	-14.661502	-26.751397	-1.154848	-166.162537
7.550000	-0.679511	-68.026955	-14.764380	-30.444512	-14.764380	-30.444512	-1.127936	-171.417399
7.600000	-0.679999	-70.712804	-14.895400	-34.051624	-14.895400	-34.051624	-1.100749	-176.492259
7.650000	-0.680297	-73.372738	-15.051861	-37.575502	-15.051861	-37.575502	-1.073557	178.602384
7.700000	-0.680561	-76.009458	-15.231550	-41.019165	-15.231550	-41.019165	-1.046582	173.856275
7.750000	-0.680932	-78.625456	-15.432667	-44.385742	-15.432667	-44.385742	-1.020006	169.259505
7.800000	-0.681541	-81.223052	-15.653765	-47.678369	-15.653765	-47.678369	-0.993973	164.802574
7.850000	-0.682517	-83.804068	-15.893985	-50.898350	-15.893985	-50.898350	-0.968614	160.479600
7.900000	-0.683960	-86.370935	-16.152180	-54.049946	-16.152180	-54.049946	-0.944006	156.279447
7.950000	-0.685960	-88.925777	-16.427635	-57.136500	-16.427635	-57.136500	-0.920208	152.192954
8.000000	-0.688626	-91.470146	-16.720247	-60.157906	-16.720247	-60.157906	-0.897298	148.216910
8.050000	-0.691955	-94.006884	-17.029112	-63.122775	-17.029112	-63.122775	-0.875222	144.333629
8.100000	-0.696042	-96.537247	-17.354707	-66.029303	-17.354707	-66.029303	-0.854045	140.542951
8.150000	-0.700959	-99.063069	-17.697321	-68.877283	-17.697321	-68.877283	-0.833805	136.841424
8.200000	-0.706746	-101.586526	-18.057237	-71.668174	-18.057237	-71.668174	-0.814503	133.222715
8.250000	-0.713402	-104.109854	-18.434878	-74.404853	-18.434878	-74.404853	-0.796106	129.678507
8.300000	-0.720954	-106.635261	-18.830986	-77.087842	-18.830986	-77.087842	-0.778603	126.203797
8.350000	-0.729431	-109.165094	-19.246491	-79.717211	-19.246491	-79.717211	-0.761985	122.793913
8.400000	-0.738870	-111.701847	-19.682522	-82.292537	-19.682522	-82.292537	-0.746239	119.444491
8.450000	-0.749316	-114.248167	-20.140420	-84.812840	-20.140420	-84.812840	-0.731352	116.151448
8.500000	-0.760828	-116.806861	-20.621753	-87.276525	-20.621753	-87.276525	-0.717312	112.910960
8.550000	-0.773477	-119.380907	-21.128335	-89.681310	-21.128335	-89.681310	-0.704109	109.719442
8.600000	-0.787351	-121.973473	-21.662249	-92.024154	-21.662249	-92.024154	-0.691733	106.573521
8.650000	-0.802556	-124.587946	-22.225873	-94.301188	-22.225873	-94.301188	-0.680179	103.470020
8.700000	-0.819213	-127.227968	-22.821901	-96.507666	-22.821901	-96.507666	-0.669442	100.405936
8.750000	-0.837469	-129.897487	-23.453375	-98.637957	-23.453375	-98.637957	-0.659524	97.378416
8.800000	-0.857629	-132.603475	-24.122846	-100.679464	-24.122846	-100.679464	-0.650486	94.386894
8.850000	-0.879796	-135.348711	-24.834534	-102.630541	-24.834534	-102.630541	-0.642284	91.426281
8.900000	-0.904235	-138.138829	-25.592335	-104.484144	-25.592335	-104.484144	-0.634940	88.494173
8.950000	-0.931219	-140.979121	-26.400823	-106.237133	-26.400823	-106.237133	-0.628467	85.587731
9.000000	-0.961171	-143.877251	-27.264132	-107.888025	-27.264132	-107.888025	-0.622915	82.704927
9.050000	-0.994576	-146.841234	-28.186589	-109.447125	-28.186589	-109.447125	-0.618335	79.843303
9.100000	-1.032055	-149.880364	-29.172157	-110.945124	-29.172157	-110.945124	-0.614792	77.000362
9.150000	-1.074406	-153.005530	-30.223954	-112.451286	-30.223954	-112.451286	-0.612378	74.173522
9.200000	-1.122677	-156.229613	-31.343443	-114.105830	-31.343443	-114.105830	-0.611213	71.360060
9.250000	-1.178263	-159.568008	-32.528731	-116.176524	-32.528731	-116.176524	-0.611461	68.557048
9.300000	-1.241837	-163.022236	-33.786728	-118.971943	-33.786728	-118.971943	-0.613136	65.760849
9.350000	-1.318217	-166.647609	-35.057613	-123.596367	-35.057613	-123.596367	-0.616952	62.969146
9.400000	-1.410025	-170.456009	-36.257923	-131.329576	-36.257923	-131.329576	-0.623161	60.177007
9.450000	-1.522520	-174.481434	-37.112148	-143.889873	-37.112148	-143.889873	-0.632410	57.379811
9.500000	-1.663423	-178.765504	-37.058620	-161.670269	-37.058620	-161.670269	-0.645648	54.572370
9.550000	-1.844329	176.641696	-35.616142	178.771188	-35.616142	178.771188	-0.664294	51.749135
9.600000	-2.080885	171.694798	-33.091867	161.950903	-33.091867	161.950903	-0.690183	48.905616
9.650000	-2.404709	166.310493	-30.033247	149.155902	-30.033247	149.155902	-0.727043	46.037334
9.700000	-2.858441	160.461841	-26.897318	138.715760	-26.897318	138.715760	-0.779312	43.148647
9.750000	-3.514026	154.186585	-23.846418	129.006561	-23.846418	129.006561	-0.853481	40.259079
9.800000	-4.485211	147.759090	-20.961578	118.883855	-20.961578	118.883855	-0.956963	37.420954
9.850000	-5.936914	142.072838	-18.321070	107.676513	-18.321070	107.676513	-1.094048	34.737567
9.900000	-8.049403	139.660645	-16.013747	95.166344	-16.013747	95.166344	-1.257628	32.365334
9.950000	-10.640951	146.159238	-14.136113	81.722760	-14.136113	81.722760	-1.419343	30.417921
10.000000	-12.015400	165.820623	-12.724683	68.153951	-12.724683	68.153951	-1.539809	28.840276
