! freq	dB(S11)	phase(S11)	dB(S12)	phase(S12)	
!     	dB(S21)	phase(S21)	dB(S22)	phase(S22)	
!S-par simulation data
#  GHz  S  DB  R 50
0.000000	-0.000000	-0.000000	-368.575494	180.000000	-368.575494	180.000000	-0.000000	-0.000000
0.050000	-0.000111	-1.001109	-105.546956	89.413300	-105.546956	89.413300	-0.000111	-1.001674
0.100000	-0.000441	-2.001971	-99.529030	88.797420	-99.529030	88.797420	-0.000441	-2.003100
0.150000	-0.000980	-3.002349	-96.015509	88.132757	-96.015509	88.132757	-0.000979	-3.004044
0.200000	-0.001710	-4.002041	-93.534641	87.413862	-93.534641	87.413862	-0.001709	-4.004302
0.250000	-0.002623	-5.000807	-91.629411	86.643786	-91.629411	86.643786	-0.002622	-5.003636
0.300000	-0.003681	-5.998578	-90.094577	85.841108	-90.094577	85.841108	-0.003680	-6.001975
0.350000	-0.004869	-6.995203	-88.823130	85.020712	-88.823130	85.020712	-0.004868	-6.999169
0.400000	-0.006164	-7.990595	-87.750715	84.200341	-87.750715	84.200341	-0.006163	-7.995131
0.450000	-0.007543	-8.984698	-86.835729	83.396940	-86.835729	83.396940	-0.007542	-8.989802
0.500000	-0.008985	-9.977478	-86.049685	82.626262	-86.049685	82.626262	-0.008985	-9.983152
0.550000	-0.010473	-10.968925	-85.372239	81.903078	-85.372239	81.903078	-0.010473	-10.975167
0.600000	-0.011989	-11.959041	-84.788403	81.241675	-84.788403	81.241675	-0.011990	-11.965850
0.650000	-0.013520	-12.947841	-84.286874	80.656464	-84.286874	80.656464	-0.013522	-12.955215
0.700000	-0.015056	-13.935344	-83.858963	80.162600	-83.858963	80.162600	-0.015059	-13.943283
0.750000	-0.016587	-14.921574	-83.497886	79.776614	-83.497886	79.776614	-0.016591	-14.930076
0.800000	-0.018107	-15.906555	-83.198246	79.517052	-83.198246	79.517052	-0.018113	-15.915617
0.850000	-0.019610	-16.890309	-82.955654	79.405144	-82.955654	79.405144	-0.019618	-16.899930
0.900000	-0.021095	-17.872856	-82.766408	79.465514	-82.766408	79.465514	-0.021104	-17.883032
0.950000	-0.022558	-18.854209	-82.627205	79.726957	-82.627205	79.726957	-0.022569	-18.864940
1.000000	-0.023999	-19.834382	-82.534840	80.223241	-82.534840	80.223241	-0.024012	-19.845664
1.050000	-0.025418	-20.813379	-82.485865	80.993894	-82.485865	80.993894	-0.025432	-20.825211
1.100000	-0.026814	-21.791204	-82.476178	82.084843	-82.476178	82.084843	-0.026830	-21.803583
1.150000	-0.028189	-22.767855	-82.500481	83.548630	-82.500481	83.548630	-0.028207	-22.780780
1.200000	-0.029544	-23.743326	-82.551605	85.443761	-82.551605	85.443761	-0.029564	-23.756794
1.250000	-0.030881	-24.717608	-82.619665	87.832421	-82.619665	87.832421	-0.030902	-24.731618
1.300000	-0.032200	-25.690636	-82.690373	90.801795	-82.690373	90.801795	-0.032222	-25.705186
1.350000	-0.033503	-26.662448	-82.744310	94.377437	-82.744310	94.377437	-0.033527	-26.677535
1.400000	-0.034792	-27.633027	-82.757961	98.577536	-82.757961	98.577536	-0.034818	-27.648649
1.450000	-0.036069	-28.602352	-82.704125	103.371911	-82.704125	103.371911	-0.036096	-28.618508
1.500000	-0.037336	-29.570406	-82.555017	108.664579	-82.555017	108.664579	-0.037364	-29.587094
1.550000	-0.038593	-30.537166	-82.287298	114.288513	-82.287298	114.288513	-0.038622	-30.554383
1.600000	-0.039843	-31.502610	-81.887623	120.021598	-81.887623	120.021598	-0.039873	-31.520356
1.650000	-0.041085	-32.466715	-81.356209	125.623106	-81.356209	125.623106	-0.041117	-32.484988
1.700000	-0.042323	-33.429460	-80.706502	130.877219	-80.706502	130.877219	-0.042355	-33.448257
1.750000	-0.043556	-34.390819	-79.961172	135.625791	-79.961172	135.625791	-0.043589	-34.410139
1.800000	-0.044786	-35.350770	-79.146576	139.780252	-79.146576	139.780252	-0.044820	-35.370611
1.850000	-0.046015	-36.309290	-78.288003	143.314602	-78.288003	143.314602	-0.046049	-36.329651
1.900000	-0.047241	-37.266356	-77.406862	146.248341	-77.406862	146.248341	-0.047277	-37.287234
1.950000	-0.048468	-38.221944	-76.519716	148.628076	-76.519716	148.628076	-0.048505	-38.243338
2.000000	-0.049695	-39.176033	-75.638523	150.512742	-75.638523	150.512742	-0.049732	-39.197941
2.050000	-0.050923	-40.128601	-74.771420	151.963756	-74.771420	151.963756	-0.050961	-40.151021
2.100000	-0.052153	-41.079626	-73.923615	153.039407	-73.923615	153.039407	-0.052192	-41.102556
2.150000	-0.053386	-42.029089	-73.098197	153.792208	-73.098197	153.792208	-0.053426	-42.052527
2.200000	-0.054622	-42.976968	-72.296770	154.268047	-72.296770	154.268047	-0.054662	-43.000912
2.250000	-0.055861	-43.923244	-71.519930	154.506303	-71.519930	154.506303	-0.055902	-43.947694
2.300000	-0.057105	-44.867900	-70.767614	154.540434	-70.767614	154.540434	-0.057147	-44.892852
2.350000	-0.058353	-45.810917	-70.039332	154.398719	-70.039332	154.398719	-0.058396	-45.836370
2.400000	-0.059607	-46.752278	-69.334334	154.105020	-69.334334	154.105020	-0.059650	-46.778229
2.450000	-0.060866	-47.691967	-68.651725	153.679472	-68.651725	153.679472	-0.060910	-47.718415
2.500000	-0.062131	-48.629968	-67.990532	153.139103	-67.990532	153.139103	-0.062176	-48.656912
2.550000	-0.063403	-49.566193	-67.348612	152.494560	-67.348612	152.494560	-0.063449	-49.593630
2.600000	-0.064683	-50.500701	-66.726276	151.762846	-66.726276	151.762846	-0.064729	-50.528629
2.650000	-0.065969	-51.433480	-66.122539	150.954238	-66.122539	150.954238	-0.066016	-51.461896
2.700000	-0.067264	-52.364516	-65.536457	150.077562	-65.536457	150.077562	-0.067311	-52.393420
2.750000	-0.068566	-53.293801	-64.967136	149.140426	-64.967136	149.140426	-0.068615	-53.323189
2.800000	-0.069878	-54.221322	-64.413732	148.149412	-64.413732	148.149412	-0.069927	-54.251194
2.850000	-0.071198	-55.147071	-63.875452	147.110241	-63.875452	147.110241	-0.071248	-55.177425
2.900000	-0.072528	-56.071040	-63.351552	146.027896	-63.351552	146.027896	-0.072579	-56.101873
2.950000	-0.073868	-56.993220	-62.841334	144.906741	-62.841334	144.906741	-0.073920	-57.024531
3.000000	-0.075218	-57.913606	-62.344148	143.750606	-62.344148	143.750606	-0.075271	-57.945392
3.050000	-0.076579	-58.832191	-61.859385	142.562867	-61.859385	142.562867	-0.076633	-58.864450
3.100000	-0.077952	-59.748969	-61.386473	141.346505	-61.386473	141.346505	-0.078006	-59.781700
3.150000	-0.079335	-60.663938	-60.924882	140.104166	-60.924882	140.104166	-0.079390	-60.697139
3.200000	-0.080731	-61.577092	-60.474112	138.838203	-60.474112	138.838203	-0.080787	-61.610762
3.250000	-0.082140	-62.488431	-60.033695	137.550713	-60.033695	137.550713	-0.082196	-62.522567
3.300000	-0.083561	-63.397952	-59.603195	136.243574	-59.603195	136.243574	-0.083618	-63.432552
3.350000	-0.084996	-64.305654	-59.182200	134.918469	-59.182200	134.918469	-0.085054	-64.340716
3.400000	-0.086444	-65.211536	-58.770325	133.576910	-58.770325	133.576910	-0.086503	-65.247060
3.450000	-0.087907	-66.115601	-58.367208	132.220262	-58.367208	132.220262	-0.087967	-66.151585
3.500000	-0.089385	-67.017849	-57.972509	130.849757	-57.972509	130.849757	-0.089445	-67.054290
3.550000	-0.090878	-67.918282	-57.585905	129.466511	-57.585905	129.466511	-0.090939	-67.955180
3.600000	-0.092386	-68.816904	-57.207094	128.071535	-57.207094	128.071535	-0.092449	-68.854256
3.650000	-0.093911	-69.713719	-56.835792	126.665750	-56.835792	126.665750	-0.093975	-69.751524
3.700000	-0.095453	-70.608730	-56.471727	125.249995	-56.471727	125.249995	-0.095517	-70.646987
3.750000	-0.097012	-71.501944	-56.114646	123.825034	-56.114646	123.825034	-0.097077	-71.540651
3.800000	-0.098590	-72.393290	-55.763986	122.391228	-55.763986	122.391228	-0.098656	-72.432445
3.850000	-0.100186	-73.282851	-55.419866	120.949610	-55.419866	120.949610	-0.100253	-73.322454
3.900000	-0.101801	-74.170637	-55.082065	119.500762	-55.082065	119.500762	-0.101869	-74.210686
3.950000	-0.103435	-75.056655	-54.750376	118.045219	-54.750376	118.045219	-0.103504	-75.097149
4.000000	-0.105090	-75.940915	-54.424602	116.583472	-54.424602	116.583472	-0.105159	-75.981853
4.050000	-0.106765	-76.823427	-54.104557	115.115976	-54.104557	115.115976	-0.106835	-76.864808
4.100000	-0.108460	-77.704202	-53.790061	113.643150	-53.790061	113.643150	-0.108532	-77.746024
4.150000	-0.110178	-78.583250	-53.480945	112.165383	-53.480945	112.165383	-0.110250	-78.625513
4.200000	-0.111917	-79.460585	-53.177047	110.683033	-53.177047	110.683033	-0.111991	-79.503287
4.250000	-0.113679	-80.336219	-52.878212	109.196434	-52.878212	109.196434	-0.113754	-80.379360
4.300000	-0.115465	-81.210165	-52.584295	107.705894	-52.584295	107.705894	-0.115540	-81.253744
4.350000	-0.117274	-82.082438	-52.295153	106.211702	-52.295153	106.211702	-0.117350	-82.126455
4.400000	-0.119107	-82.953053	-52.010652	104.714124	-52.010652	104.714124	-0.119184	-82.997506
4.450000	-0.120965	-83.822026	-51.730664	103.213409	-51.730664	103.213409	-0.121043	-83.866914
4.500000	-0.122849	-84.689372	-51.455064	101.709790	-51.455064	101.709790	-0.122928	-84.734695
4.550000	-0.124758	-85.555108	-51.183736	100.203483	-51.183736	100.203483	-0.124838	-85.600867
4.600000	-0.126694	-86.419253	-50.916564	98.694690	-50.916564	98.694690	-0.126775	-86.465446
4.650000	-0.128656	-87.281825	-50.653441	97.183601	-50.653441	97.183601	-0.128739	-87.328451
4.700000	-0.130647	-88.142842	-50.394262	95.670393	-50.394262	95.670393	-0.130730	-88.189902
4.750000	-0.132665	-89.002325	-50.138926	94.155231	-50.138926	94.155231	-0.132750	-89.049818
4.800000	-0.134712	-89.860293	-49.887336	92.638270	-49.887336	92.638270	-0.134798	-89.908219
4.850000	-0.136788	-90.716767	-49.639399	91.119656	-49.639399	91.119656	-0.136875	-90.765127
4.900000	-0.138894	-91.571769	-49.395026	89.599525	-49.395026	89.599525	-0.138982	-91.620563
4.950000	-0.141030	-92.425322	-49.154130	88.078005	-49.154130	88.078005	-0.141119	-92.474549
5.000000	-0.143197	-93.277448	-48.916627	86.555217	-48.916627	86.555217	-0.143287	-93.327108
5.050000	-0.145397	-94.128110	-48.682306	85.031228	-48.682306	85.031228	-0.145488	-94.178204
5.100000	-0.147628	-94.977396	-48.451228	83.506197	-48.451228	83.506197	-0.147720	-95.027924
5.150000	-0.149892	-95.825329	-48.223316	81.980224	-48.223316	81.980224	-0.149985	-95.876292
5.200000	-0.152188	-96.671935	-47.998497	80.453400	-47.998497	80.453400	-0.152283	-96.723333
5.250000	-0.154518	-97.517241	-47.776700	78.925813	-47.776700	78.925813	-0.154614	-97.569075
5.300000	-0.156882	-98.361273	-47.557855	77.397542	-47.557855	77.397542	-0.156979	-98.413543
5.350000	-0.159280	-99.204059	-47.341895	75.868665	-47.341895	75.868665	-0.159378	-99.256765
5.400000	-0.161713	-100.045626	-47.128755	74.339252	-47.128755	74.339252	-0.161813	-100.098770
5.450000	-0.164181	-100.886002	-46.918370	72.809369	-46.918370	72.809369	-0.164282	-100.939586
5.500000	-0.166685	-101.725218	-46.710681	71.279078	-46.710681	71.279078	-0.166788	-101.779242
5.550000	-0.169226	-102.563304	-46.505625	69.748435	-46.505625	69.748435	-0.169330	-102.617768
5.600000	-0.171803	-103.400288	-46.303144	68.217493	-46.303144	68.217493	-0.171908	-103.455195
5.650000	-0.174417	-104.236203	-46.103180	66.686301	-46.103180	66.686301	-0.174524	-104.291553
5.700000	-0.177070	-105.071080	-45.905678	65.154902	-45.905678	65.154902	-0.177178	-105.126876
5.750000	-0.179760	-105.904952	-45.710581	63.623336	-45.710581	63.623336	-0.179870	-105.961194
5.800000	-0.182489	-106.737851	-45.517836	62.091639	-45.517836	62.091639	-0.182601	-106.794541
5.850000	-0.185265	-107.569658	-45.327063	60.559834	-45.327063	60.559834	-0.185377	-107.626798
5.900000	-0.188081	-108.400523	-45.138470	59.027953	-45.138470	59.027953	-0.188195	-108.458115
5.950000	-0.190919	-109.230947	-44.952949	57.496055	-44.952949	57.496055	-0.191034	-109.288992
6.000000	-0.193819	-110.060053	-44.768557	55.964101	-44.768557	55.964101	-0.193936	-110.118554
6.050000	-0.196734	-110.888892	-44.587401	54.432145	-44.587401	54.432145	-0.196853	-110.947850
6.100000	-0.199720	-111.716398	-44.407018	52.900173	-44.407018	52.900173	-0.199841	-111.775817
6.150000	-0.202715	-112.543784	-44.230018	51.368201	-44.230018	51.368201	-0.202837	-112.603665
6.200000	-0.205788	-113.369855	-44.053453	49.836223	-44.053453	49.836223	-0.205912	-113.430202
6.250000	-0.208863	-114.195926	-43.880405	48.304246	-43.880405	48.304246	-0.208989	-114.256739
6.300000	-0.212026	-115.020732	-43.707464	46.772224	-43.707464	46.772224	-0.212154	-115.082017
6.350000	-0.215191	-115.845538	-43.537899	45.240203	-43.537899	45.240203	-0.215320	-115.907295
6.400000	-0.218438	-116.669347	-43.368654	43.708058	-43.368654	43.708058	-0.218569	-116.731581
6.450000	-0.221693	-117.493065	-43.202384	42.175902	-43.202384	42.175902	-0.221826	-117.555778
6.500000	-0.225025	-118.316031	-43.036622	40.643504	-43.036622	40.643504	-0.225160	-118.379227
6.550000	-0.228373	-119.138846	-42.873452	39.111058	-42.873452	39.111058	-0.228510	-119.202527
6.600000	-0.231791	-119.961126	-42.710956	37.578223	-42.710956	37.578223	-0.231930	-120.025298
6.650000	-0.235233	-120.783227	-42.550680	36.045259	-42.550680	36.045259	-0.235374	-120.847892
6.700000	-0.238739	-121.604986	-42.391228	34.511736	-42.391228	34.511736	-0.238882	-121.670149
6.750000	-0.242277	-122.426573	-42.233629	32.977935	-42.233629	32.977935	-0.242422	-122.492237
6.800000	-0.245872	-123.247980	-42.076990	31.443394	-42.076990	31.443394	-0.246018	-123.314150
6.850000	-0.249507	-124.069259	-41.921829	29.908327	-41.921829	29.908327	-0.249655	-124.135938
6.900000	-0.253191	-124.890491	-41.767760	28.372343	-41.767760	28.372343	-0.253342	-124.957685
6.950000	-0.256924	-125.711676	-41.614774	26.835443	-41.614774	26.835443	-0.257077	-125.779391
7.000000	-0.260700	-126.532917	-41.463014	25.297472	-41.463014	25.297472	-0.260855	-126.601156
7.050000	-0.264533	-127.354235	-41.311906	23.757999	-41.311906	23.757999	-0.264690	-127.423004
7.100000	-0.268400	-128.175676	-41.162172	22.217345	-41.162172	22.217345	-0.268560	-128.244980
7.150000	-0.272334	-128.997363	-41.012600	20.674332	-41.012600	20.674332	-0.272496	-129.067209
7.200000	-0.276295	-129.819205	-40.864578	19.130115	-40.864578	19.130115	-0.276459	-129.889597
7.250000	-0.280331	-130.641512	-40.716140	17.582291	-40.716140	17.582291	-0.280497	-130.712459
7.300000	-0.284385	-131.463967	-40.569474	16.033387	-40.569474	16.033387	-0.284554	-131.535471
7.350000	-0.288524	-132.287160	-40.421689	14.479079	-40.421689	14.479079	-0.288695	-132.359234
7.400000	-0.292673	-133.110452	-40.275968	12.924044	-40.275968	12.924044	-0.292847	-133.183096
7.450000	-0.296916	-133.934819	-40.128241	11.361015	-40.128241	11.361015	-0.297093	-134.008049
7.500000	-0.301161	-134.759187	-39.982985	9.797986	-39.982985	9.797986	-0.301341	-134.833003
7.550000	-0.305510	-135.585043	-39.834570	8.223203	-39.834570	8.223203	-0.305692	-135.659462
7.600000	-0.309860	-136.410899	-39.688649	6.648420	-39.688649	6.648420	-0.310045	-136.485922
7.650000	-0.314307	-137.238441	-39.539134	5.059018	-39.539134	5.059018	-0.314495	-137.314087
7.700000	-0.318764	-138.066137	-39.391612	3.468287	-39.391612	3.468287	-0.318955	-138.142407
7.750000	-0.323311	-138.895701	-39.239947	1.859311	-39.239947	1.859311	-0.323505	-138.972614
7.800000	-0.327877	-139.725639	-39.089586	0.246687	-39.089586	0.246687	-0.328075	-139.803200
7.850000	-0.332526	-140.557616	-38.934387	-1.388866	-38.934387	-1.388866	-0.332728	-140.635847
7.900000	-0.337205	-141.390274	-38.779492	-3.032062	-38.779492	-3.032062	-0.337411	-141.469180
7.950000	-0.341943	-142.224531	-38.621322	-4.695691	-38.621322	-4.695691	-0.342153	-142.304131
8.000000	-0.346748	-143.060734	-38.458556	-6.385869	-38.458556	-6.385869	-0.346963	-143.141047
8.050000	-0.351615	-143.898816	-38.291303	-8.104427	-38.291303	-8.104427	-0.351835	-143.979862
8.100000	-0.356548	-144.738992	-38.118583	-9.857510	-38.118583	-9.857510	-0.356774	-144.820794
8.150000	-0.361555	-145.581519	-37.939191	-11.653028	-37.939191	-11.653028	-0.361787	-145.664103
8.200000	-0.366644	-146.426710	-37.751632	-13.501332	-37.751632	-13.501332	-0.366885	-146.510106
8.250000	-0.371831	-147.274957	-37.554033	-15.416201	-37.554033	-15.416201	-0.372082	-147.359200
8.300000	-0.377140	-148.126759	-37.344023	-17.416359	-37.344023	-17.416359	-0.377402	-148.211892
8.350000	-0.382593	-148.982461	-37.120131	-19.518721	-37.120131	-19.518721	-0.382870	-149.068532
8.400000	-0.388261	-149.843258	-36.876810	-21.768116	-36.876810	-21.768116	-0.388557	-149.930330
8.450000	-0.394274	-150.710852	-36.606301	-24.237032	-36.606301	-24.237032	-0.394597	-150.799014
8.500000	-0.400741	-151.585750	-36.307927	-26.967205	-36.307927	-26.967205	-0.401101	-151.675098
8.550000	-0.408051	-152.471340	-35.968058	-30.126190	-35.968058	-30.126190	-0.408465	-152.562015
8.600000	-0.416817	-153.370641	-35.578375	-33.920113	-35.578375	-33.920113	-0.417316	-153.462822
8.650000	-0.428349	-154.287983	-35.129988	-38.732014	-35.129988	-38.732014	-0.428986	-154.381890
8.700000	-0.445415	-155.226565	-34.627929	-45.254032	-34.627929	-45.254032	-0.446294	-155.322408
8.750000	-0.474104	-156.176468	-34.140896	-54.834289	-34.140896	-54.834289	-0.475426	-156.274146
8.800000	-0.523418	-157.060629	-33.994221	-69.635244	-33.994221	-69.635244	-0.525495	-157.158522
8.850000	-0.581562	-157.673193	-35.179004	-90.318043	-35.179004	-90.318043	-0.584394	-157.766470
8.900000	-0.591085	-158.073838	-38.996818	-107.905322	-38.996818	-107.905322	-0.593734	-158.160047
8.950000	-0.560371	-158.685171	-44.933664	-103.054250	-44.933664	-103.054250	-0.562272	-158.768781
9.000000	-0.533870	-159.498842	-47.787850	-64.752593	-47.787850	-64.752593	-0.535199	-159.583123
9.050000	-0.519115	-160.382897	-45.600218	-40.796789	-45.600218	-40.796789	-0.520106	-160.468730
9.100000	-0.512116	-161.283860	-43.562855	-34.087013	-43.562855	-34.087013	-0.512905	-161.371322
9.150000	-0.509775	-162.186998	-42.200337	-32.806650	-42.200337	-32.806650	-0.510440	-162.275985
9.200000	-0.510272	-163.088760	-41.263652	-33.300939	-41.263652	-33.300939	-0.510857	-163.179152
9.250000	-0.512443	-163.989073	-40.572068	-34.428149	-40.572068	-34.428149	-0.512973	-164.080773
9.300000	-0.515768	-164.888496	-40.039949	-35.834473	-40.039949	-35.834473	-0.516259	-164.981427
9.350000	-0.519889	-165.787755	-39.613886	-37.360184	-39.613886	-37.360184	-0.520352	-165.881861
9.400000	-0.524644	-166.687661	-39.267371	-38.937201	-39.267371	-38.937201	-0.525088	-166.782894
9.450000	-0.529761	-167.588545	-38.967391	-40.526584	-38.967391	-40.526584	-0.530190	-167.684880
9.500000	-0.535217	-168.490930	-38.707580	-42.117945	-38.707580	-42.117945	-0.535634	-168.588343
9.550000	-0.540944	-169.395193	-38.478569	-43.703399	-38.478569	-43.703399	-0.541353	-169.493669
9.600000	-0.546895	-170.301652	-38.273733	-45.279348	-38.273733	-45.279348	-0.547297	-170.401180
9.650000	-0.553035	-171.210576	-38.088263	-46.844384	-38.088263	-46.844384	-0.553432	-171.311150
9.700000	-0.559338	-172.122200	-37.918586	-48.398219	-37.918586	-48.398219	-0.559732	-172.223815
9.750000	-0.565785	-173.036730	-37.761995	-49.941133	-37.761995	-49.941133	-0.566177	-173.139386
9.800000	-0.572362	-173.954350	-37.616403	-51.473676	-37.616403	-51.473676	-0.572752	-174.058049
9.850000	-0.579056	-174.875229	-37.480173	-52.996512	-37.480173	-52.996512	-0.579446	-174.979974
9.900000	-0.585858	-175.799523	-37.352007	-54.510331	-37.352007	-54.510331	-0.586248	-175.905317
9.950000	-0.592761	-176.727375	-37.230864	-56.015807	-37.230864	-56.015807	-0.593152	-176.834226
10.000000	-0.599759	-177.658923	-37.115894	-57.513571	-37.115894	-57.513571	-0.600150	-177.766836
