! freq	dB(S11)	phase(S11)	dB(S12)	phase(S12)	
!     	dB(S21)	phase(S21)	dB(S22)	phase(S22)	
!S-par simulation data
#  GHz  S  DB  R 50
0.000000	-0.000000	-0.000000	-383.642388	180.000000	-383.642388	180.000000	-0.000000	-0.000000
0.050000	-0.000097	-0.773668	-117.138793	86.141143	-117.138793	86.141143	-0.000099	-0.773884
0.100000	-0.000383	-1.547105	-111.534827	84.668739	-111.534827	84.668739	-0.000391	-1.547529
0.150000	-0.000852	-2.320082	-108.341119	84.307145	-108.341119	84.307145	-0.000868	-2.320697
0.200000	-0.001475	-3.092458	-106.103659	84.165007	-106.103659	84.165007	-0.001502	-3.093244
0.250000	-0.002238	-3.864075	-104.411874	84.037095	-104.411874	84.037095	-0.002275	-3.865010
0.300000	-0.003127	-4.634734	-103.096835	83.903425	-103.096835	83.903425	-0.003175	-4.635794
0.350000	-0.004102	-5.404517	-102.045956	83.794152	-102.045956	83.794152	-0.004159	-5.405686
0.400000	-0.005154	-6.173252	-101.218973	83.754390	-101.218973	83.754390	-0.005218	-6.174514
0.450000	-0.006256	-6.941016	-100.570865	83.825353	-100.570865	83.825353	-0.006325	-6.942362
0.500000	-0.007393	-7.707777	-100.084302	84.064165	-100.084302	84.064165	-0.007465	-7.709203
0.550000	-0.008551	-8.473567	-99.744536	84.535392	-99.744536	84.535392	-0.008624	-8.475073
0.600000	-0.009718	-9.238420	-99.543449	85.322678	-99.543449	85.322678	-0.009789	-9.240010
0.650000	-0.010885	-10.002372	-99.476829	86.537730	-99.476829	86.537730	-0.010952	-10.004051
0.700000	-0.012045	-10.765459	-99.542595	88.334414	-99.542595	88.334414	-0.012107	-10.767235
0.750000	-0.013193	-11.527716	-99.738136	90.928847	-99.738136	90.928847	-0.013250	-11.529599
0.800000	-0.014328	-12.289173	-100.055238	94.625463	-100.055238	94.625463	-0.014378	-12.291171
0.850000	-0.015443	-13.049726	-100.459905	100.263800	-100.459905	100.263800	-0.015488	-13.051849
0.900000	-0.016542	-13.809493	-100.898729	108.040930	-100.898729	108.040930	-0.016580	-13.811748
0.950000	-0.017632	-14.568877	-101.225936	117.088866	-101.225936	117.088866	-0.017665	-14.571267
1.000000	-0.018697	-15.327114	-101.157871	129.949218	-101.157871	129.949218	-0.018725	-15.329649
1.050000	-0.019758	-16.085100	-100.874397	142.789742	-100.874397	142.789742	-0.019780	-16.087781
1.100000	-0.020794	-16.841825	-99.623661	155.531125	-99.623661	155.531125	-0.020812	-16.844658
1.150000	-0.021828	-17.598423	-98.443323	167.843269	-98.443323	167.843269	-0.021843	-17.601409
1.200000	-0.022841	-18.353622	-96.595965	175.433771	-96.595965	175.433771	-0.022852	-18.356763
1.250000	-0.023853	-19.108820	-95.073434	-176.975727	-95.073434	-176.975727	-0.023862	-19.112117
1.300000	-0.024851	-19.862851	-93.398902	-172.578055	-93.398902	-172.578055	-0.024858	-19.866302
1.350000	-0.025841	-20.616119	-91.814695	-169.515489	-91.814695	-169.515489	-0.025848	-20.619725
1.400000	-0.026825	-21.368612	-90.328243	-167.426527	-90.328243	-167.426527	-0.026831	-21.372371
1.450000	-0.027804	-22.120315	-88.936000	-166.054408	-88.936000	-166.054408	-0.027809	-22.124226
1.500000	-0.028777	-22.871213	-87.630426	-165.218325	-87.630426	-165.218325	-0.028783	-22.875274
1.550000	-0.029747	-23.621291	-86.403054	-164.790104	-86.403054	-164.790104	-0.029753	-23.625499
1.600000	-0.030714	-24.370532	-85.245746	-164.677650	-85.245746	-164.677650	-0.030721	-24.374886
1.650000	-0.031679	-25.118920	-84.151140	-164.813713	-84.151140	-164.813713	-0.031686	-25.123417
1.700000	-0.032641	-25.866128	-83.089162	-165.199999	-83.089162	-165.199999	-0.032649	-25.870764
1.750000	-0.033603	-26.612875	-82.111784	-165.676147	-82.111784	-165.676147	-0.033612	-26.617651
1.800000	-0.034564	-27.358515	-81.165604	-166.301912	-81.165604	-166.301912	-0.034574	-27.363426
1.850000	-0.035524	-28.103363	-80.268862	-167.034546	-80.268862	-167.034546	-0.035536	-28.108409
1.900000	-0.036485	-28.847225	-79.406731	-167.855619	-79.406731	-167.855619	-0.036498	-28.852402
1.950000	-0.037446	-29.590101	-78.577638	-168.765131	-78.577638	-168.765131	-0.037460	-29.595408
2.000000	-0.038409	-30.332125	-77.785338	-169.727496	-77.785338	-169.727496	-0.038424	-30.337560
2.050000	-0.039373	-31.072957	-77.013812	-170.763854	-77.013812	-170.763854	-0.039388	-31.078518
2.100000	-0.040338	-31.813084	-76.280477	-171.831512	-76.280477	-171.831512	-0.040354	-31.818771
2.150000	-0.041305	-32.551803	-75.558594	-172.961769	-75.558594	-172.961769	-0.041323	-32.557612
2.200000	-0.042274	-33.289977	-74.875754	-174.109861	-74.875754	-174.109861	-0.042292	-33.295909
2.250000	-0.043247	-34.026516	-74.197191	-175.311457	-74.197191	-175.311457	-0.043266	-34.032568
2.300000	-0.044221	-34.762681	-73.558125	-176.522281	-73.558125	-176.522281	-0.044240	-34.768852
2.350000	-0.045200	-35.496975	-72.917757	-177.779249	-72.917757	-177.779249	-0.045220	-35.503265
2.400000	-0.046180	-36.231076	-72.317043	-179.039861	-72.317043	-179.039861	-0.046200	-36.237485
2.450000	-0.047167	-36.963064	-71.710656	179.659424	-71.710656	179.659424	-0.047187	-36.969589
2.500000	-0.048154	-37.695051	-71.143854	178.358710	-71.143854	178.358710	-0.048174	-37.701693
2.550000	-0.049150	-38.424673	-70.567941	177.022918	-70.567941	177.022918	-0.049170	-38.431430
2.600000	-0.050146	-39.154295	-70.027850	175.687127	-70.027850	175.687127	-0.050166	-39.161167
2.650000	-0.051152	-39.881696	-69.482974	174.325236	-69.482974	174.325236	-0.051171	-39.888682
2.700000	-0.052158	-40.608895	-68.967156	172.960973	-68.967156	172.960973	-0.052177	-40.615996
2.750000	-0.053174	-41.334031	-68.450148	171.577254	-68.450148	171.577254	-0.053193	-41.341245
2.800000	-0.054192	-42.058754	-67.956511	170.189645	-67.956511	170.189645	-0.054210	-42.066082
2.850000	-0.055219	-42.781582	-67.464681	168.787559	-67.464681	168.787559	-0.055237	-42.789023
2.900000	-0.056250	-43.503778	-66.991411	167.380647	-66.991411	167.380647	-0.056268	-43.511332
2.950000	-0.057290	-44.224258	-66.522454	165.963025	-66.522454	165.963025	-0.057307	-44.231925
3.000000	-0.058335	-44.943879	-66.067971	164.540047	-66.067971	164.540047	-0.058352	-44.951658
3.050000	-0.059389	-45.661972	-65.619895	163.109228	-65.619895	163.109228	-0.059406	-45.669863
3.100000	-0.060450	-46.378973	-65.182807	161.672808	-65.182807	161.672808	-0.060466	-46.386976
3.150000	-0.061519	-47.094643	-64.753879	160.230744	-64.753879	160.230744	-0.061535	-47.102757
3.200000	-0.062597	-47.808982	-64.332958	158.783035	-64.332958	158.783035	-0.062612	-47.817207
3.250000	-0.063683	-48.522195	-63.921658	157.331365	-63.921658	157.331365	-0.063697	-48.530531
3.300000	-0.064779	-49.233831	-63.515810	155.874150	-63.515810	155.874150	-0.064793	-49.242278
3.350000	-0.065883	-49.944555	-63.120799	154.414264	-63.120799	154.414264	-0.065896	-49.953112
3.400000	-0.066999	-50.653454	-62.729045	152.949036	-62.729045	152.949036	-0.067013	-50.662120
3.450000	-0.068122	-51.361659	-62.349135	151.482120	-62.349135	151.482120	-0.068135	-51.370435
3.500000	-0.069260	-52.067785	-61.970596	150.010138	-61.970596	150.010138	-0.069273	-52.076670
3.550000	-0.070403	-52.773444	-61.604730	148.537209	-61.604730	148.537209	-0.070415	-52.782438
3.600000	-0.071565	-53.476767	-61.238611	147.059544	-61.238611	147.059544	-0.071577	-53.485870
3.650000	-0.072729	-54.179855	-60.885843	145.581482	-60.885843	145.581482	-0.072741	-54.189065
3.700000	-0.073916	-54.880348	-60.531423	144.099051	-60.531423	144.099051	-0.073928	-54.889665
3.750000	-0.075103	-55.580840	-60.190900	142.616620	-60.190900	142.616620	-0.075115	-55.590265
3.800000	-0.076316	-56.278478	-59.847526	141.130214	-59.847526	141.130214	-0.076328	-56.288009
3.850000	-0.077530	-56.976115	-59.517211	139.643807	-59.517211	139.643807	-0.077542	-56.985752
3.900000	-0.078769	-57.671115	-59.185552	138.154384	-59.185552	138.154384	-0.078781	-57.680857
3.950000	-0.080011	-58.365874	-58.864915	136.664687	-58.864915	136.664687	-0.080023	-58.375722
4.000000	-0.081278	-59.058220	-58.544257	135.172744	-58.544257	135.172744	-0.081290	-59.068173
4.050000	-0.082549	-59.750084	-58.232811	133.680353	-58.232811	133.680353	-0.082562	-59.760140
4.100000	-0.083845	-60.439763	-57.922505	132.186334	-57.922505	132.186334	-0.083858	-60.449923
4.150000	-0.085148	-61.128714	-57.619800	130.691773	-57.619800	130.691773	-0.085161	-61.138977
4.200000	-0.086474	-61.815714	-57.319254	129.196070	-57.319254	129.196070	-0.086487	-61.826079
4.250000	-0.087810	-62.501739	-57.024876	127.699798	-57.024876	127.699798	-0.087824	-62.512206
4.300000	-0.089167	-63.186051	-56.733547	126.202765	-56.733547	126.202765	-0.089182	-63.196620
4.350000	-0.090539	-63.869140	-56.447112	124.705189	-56.447112	124.705189	-0.090554	-63.879809
4.400000	-0.091929	-64.550757	-56.164504	123.207141	-56.164504	123.207141	-0.091944	-64.561527
4.450000	-0.093337	-65.230903	-55.885654	121.708622	-55.885654	121.708622	-0.093353	-65.241772
4.500000	-0.094761	-65.909819	-55.611312	120.209844	-55.611312	120.209844	-0.094778	-65.920788
4.550000	-0.096208	-66.587016	-55.339715	118.710704	-55.339715	118.710704	-0.096225	-66.598084
4.600000	-0.097668	-67.263230	-55.073216	117.211452	-55.073216	117.211452	-0.097685	-67.274395
4.650000	-0.099154	-67.937477	-54.808564	115.711979	-54.808564	115.711979	-0.099173	-67.948740
4.700000	-0.100651	-68.610986	-54.549520	114.212486	-54.549520	114.212486	-0.100670	-68.622347
4.750000	-0.102180	-69.282284	-54.291522	112.712937	-54.291522	112.712937	-0.102199	-69.293741
4.800000	-0.103715	-69.953090	-54.039574	111.213415	-54.039574	111.213415	-0.103736	-69.964644
4.850000	-0.105287	-70.621442	-53.787961	109.714024	-53.787961	109.714024	-0.105308	-70.633092
4.900000	-0.106863	-71.289549	-53.542774	108.214664	-53.542774	108.214664	-0.106884	-71.301295
4.950000	-0.108480	-71.954961	-53.297292	106.715641	-53.297292	106.715641	-0.108502	-71.966802
5.000000	-0.110097	-72.620373	-53.058557	105.216619	-53.058557	105.216619	-0.110120	-72.632310
5.050000	-0.111760	-73.282855	-52.818968	103.718156	-52.818968	103.718156	-0.111784	-73.294886
5.100000	-0.113424	-73.945337	-52.585810	102.219693	-52.585810	102.219693	-0.113449	-73.957462
5.150000	-0.115132	-74.605142	-52.352476	100.721904	-52.352476	100.721904	-0.115157	-74.617362
5.200000	-0.116845	-75.264705	-52.124692	99.224176	-52.124692	99.224176	-0.116871	-75.277019
5.250000	-0.118599	-75.921847	-51.897338	97.727192	-51.897338	97.727192	-0.118625	-75.934255
5.300000	-0.120362	-76.578504	-51.674733	96.230358	-51.674733	96.230358	-0.120389	-76.591006
5.350000	-0.122163	-77.232996	-51.453103	94.734303	-51.453103	94.734303	-0.122191	-77.245591
5.400000	-0.123978	-77.886765	-51.235496	93.238509	-51.235496	93.238509	-0.124006	-77.899454
5.450000	-0.125828	-78.538621	-51.019349	91.743499	-51.019349	91.743499	-0.125857	-78.551403
5.500000	-0.127696	-79.189520	-50.806568	90.248880	-50.806568	90.248880	-0.127725	-79.202396
5.550000	-0.129596	-79.838758	-50.595678	88.755020	-50.595678	88.755020	-0.129626	-79.851728
5.600000	-0.131520	-80.486810	-50.387560	87.261702	-50.387560	87.261702	-0.131550	-80.499873
5.650000	-0.133472	-81.133449	-50.181717	85.769092	-50.181717	85.769092	-0.133503	-81.146606
5.700000	-0.135452	-81.778676	-49.978107	84.277190	-49.978107	84.277190	-0.135484	-81.791927
5.750000	-0.137457	-82.422737	-49.777113	82.785923	-49.777113	82.785923	-0.137489	-82.436082
5.800000	-0.139496	-83.065165	-49.577864	81.295546	-49.577864	81.295546	-0.139528	-83.078604
5.850000	-0.141555	-83.706671	-49.381531	79.805710	-49.381531	79.805710	-0.141588	-83.720204
5.900000	-0.143654	-84.346329	-49.186504	78.316958	-49.186504	78.316958	-0.143688	-84.359956
5.950000	-0.145769	-84.985302	-48.994658	76.828635	-48.994658	76.828635	-0.145803	-84.999025
6.000000	-0.147930	-85.622221	-48.803721	75.341603	-48.803721	75.341603	-0.147965	-85.636038
6.050000	-0.150102	-86.258688	-48.616194	73.854871	-48.616194	73.854871	-0.150137	-86.272601
6.100000	-0.152327	-86.892900	-48.429220	72.369646	-48.429220	72.369646	-0.152362	-86.906908
6.150000	-0.154557	-87.526889	-48.245856	70.884578	-48.245856	70.884578	-0.154593	-87.540993
6.200000	-0.156847	-88.158428	-48.062725	69.401244	-48.062725	69.401244	-0.156883	-88.172628
6.250000	-0.159137	-88.789967	-47.883375	67.917909	-47.883375	67.917909	-0.159174	-88.804264
6.300000	-0.161494	-89.418870	-47.703972	66.436542	-47.703972	66.436542	-0.161531	-89.433264
6.350000	-0.163851	-90.047773	-47.528200	64.955175	-47.528200	64.955175	-0.163888	-90.062265
6.400000	-0.166270	-90.674296	-47.352712	63.475679	-47.352712	63.475679	-0.166308	-90.688885
6.450000	-0.168696	-91.300602	-47.180414	61.996353	-47.180414	61.996353	-0.168734	-91.315290
6.500000	-0.171179	-91.924778	-47.008705	60.518784	-47.008705	60.518784	-0.171217	-91.939565
6.550000	-0.173675	-92.548528	-46.839783	59.041567	-46.839783	59.041567	-0.173713	-92.563413
6.600000	-0.176224	-93.170392	-46.671725	57.565978	-46.671725	57.565978	-0.176263	-93.185378
6.650000	-0.178791	-93.791628	-46.506084	56.090932	-46.506084	56.090932	-0.178830	-93.806714
6.700000	-0.181406	-94.411217	-46.341553	54.617372	-46.341553	54.617372	-0.181446	-94.426404
6.750000	-0.184046	-95.029984	-46.179104	53.144556	-46.179104	53.144556	-0.184087	-95.045272
6.800000	-0.186730	-95.647337	-46.017984	51.673071	-46.017984	51.673071	-0.186771	-95.662726
6.850000	-0.189445	-96.263680	-45.858639	50.202538	-45.858639	50.202538	-0.189486	-96.279171
6.900000	-0.192198	-96.878836	-45.700818	48.733170	-45.700818	48.733170	-0.192239	-96.894430
6.950000	-0.194989	-97.492804	-45.544493	47.264968	-45.544493	47.264968	-0.195031	-97.508501
7.000000	-0.197812	-98.105803	-45.389866	45.797755	-45.389866	45.797755	-0.197855	-98.121603
7.050000	-0.200681	-98.717446	-45.236479	44.331927	-45.236479	44.331927	-0.200724	-98.733350
7.100000	-0.203576	-99.328331	-45.084945	42.866904	-45.084945	42.866904	-0.203620	-99.344338
7.150000	-0.206524	-99.937700	-44.934418	41.403488	-44.934418	41.403488	-0.206568	-99.953812
7.200000	-0.209493	-100.546513	-44.785880	39.940683	-44.785880	39.940683	-0.209537	-100.562730
7.250000	-0.212521	-101.153662	-44.638139	38.479711	-44.638139	38.479711	-0.212567	-101.169983
7.300000	-0.215564	-101.760449	-44.492503	37.019151	-44.492503	37.019151	-0.215610	-101.776875
7.350000	-0.218675	-102.365431	-44.347475	35.560648	-44.347475	35.560648	-0.218721	-102.381963
7.400000	-0.221793	-102.970237	-44.204654	34.102353	-44.204654	34.102353	-0.221840	-102.986875
7.450000	-0.224987	-103.573110	-44.062267	32.646339	-44.062267	32.646339	-0.225035	-103.589853
7.500000	-0.228183	-104.175983	-43.922177	31.190325	-43.922177	31.190325	-0.228231	-104.192832
7.550000	-0.231462	-104.776804	-43.782363	29.736811	-43.782363	29.736811	-0.231511	-104.793759
7.600000	-0.234742	-105.377626	-43.644765	28.283298	-43.644765	28.283298	-0.234792	-105.394686
7.650000	-0.238100	-105.976621	-43.507616	26.832081	-43.507616	26.832081	-0.238151	-105.993787
7.700000	-0.241466	-106.575451	-43.372448	25.381073	-43.372448	25.381073	-0.241518	-106.592722
7.750000	-0.244905	-107.172671	-43.237884	23.932151	-43.237884	23.932151	-0.244958	-107.190048
7.800000	-0.248359	-107.769570	-43.105085	22.483646	-43.105085	22.483646	-0.248413	-107.787052
7.850000	-0.251879	-108.365068	-42.973031	21.037011	-42.973031	21.037011	-0.251934	-108.382654
7.900000	-0.255422	-108.960100	-42.842543	19.590998	-42.842543	19.590998	-0.255478	-108.977789
7.950000	-0.259024	-109.553928	-42.712926	18.146633	-42.712926	18.146633	-0.259081	-109.571721
8.000000	-0.262657	-110.147156	-42.584692	16.703093	-42.584692	16.703093	-0.262715	-110.165051
8.050000	-0.266344	-110.739369	-42.457442	15.260978	-42.457442	15.260978	-0.266403	-110.757367
8.100000	-0.270068	-111.330859	-42.331408	13.819882	-42.331408	13.819882	-0.270128	-111.348958
8.150000	-0.273839	-111.921514	-42.206459	12.379990	-42.206459	12.379990	-0.273900	-111.939712
8.200000	-0.277656	-112.511333	-42.082573	10.941300	-42.082573	10.941300	-0.277718	-112.529630
8.250000	-0.281512	-113.100485	-41.959860	9.503594	-41.959860	9.503594	-0.281576	-113.118880
8.300000	-0.285423	-113.688702	-41.838071	8.067265	-41.838071	8.067265	-0.285488	-113.707194
8.350000	-0.289366	-114.276409	-41.717534	6.631702	-41.717534	6.631702	-0.289432	-114.294996
8.400000	-0.293372	-114.863096	-41.597793	5.197675	-41.597793	5.197675	-0.293439	-114.881776
8.450000	-0.297402	-115.449417	-41.479374	3.764207	-41.479374	3.764207	-0.297470	-115.468189
8.500000	-0.301504	-116.034644	-41.361636	2.332416	-41.361636	2.332416	-0.301573	-116.053506
8.550000	-0.305623	-116.619640	-41.245278	0.900984	-41.245278	0.900984	-0.305693	-116.638590
8.600000	-0.309821	-117.203481	-41.129498	-0.528650	-41.129498	-0.528650	-0.309893	-117.222516
8.650000	-0.314030	-117.787213	-41.015148	-1.958111	-41.015148	-1.958111	-0.314102	-117.806332
8.700000	-0.318326	-118.369743	-40.901285	-3.385675	-40.901285	-3.385675	-0.318399	-118.388942
8.750000	-0.322625	-118.952273	-40.788894	-4.813238	-40.788894	-4.813238	-0.322699	-118.971552
8.800000	-0.327020	-119.533568	-40.676907	-6.238830	-40.676907	-6.238830	-0.327095	-119.552921
8.850000	-0.331417	-120.114863	-40.566345	-7.664422	-40.566345	-7.664422	-0.331493	-120.134291
8.900000	-0.335904	-120.695099	-40.456279	-9.088306	-40.456279	-9.088306	-0.335980	-120.714594
8.950000	-0.340401	-121.275238	-40.347511	-10.512035	-40.347511	-10.512035	-0.340478	-121.294800
9.000000	-0.344981	-121.854479	-40.239323	-11.934312	-40.239323	-11.934312	-0.345058	-121.874103
9.050000	-0.349579	-122.433542	-40.132314	-13.356297	-40.132314	-13.356297	-0.349656	-122.453225
9.100000	-0.354251	-123.011857	-40.025962	-14.777073	-40.025962	-14.777073	-0.354328	-123.031594
9.150000	-0.358950	-123.589924	-39.920684	-16.197444	-39.920684	-16.197444	-0.359027	-123.609712
9.200000	-0.363716	-124.167382	-39.816130	-17.616833	-39.816130	-17.616833	-0.363793	-124.187216
9.250000	-0.368517	-124.744537	-39.712554	-19.035731	-39.712554	-19.035731	-0.368594	-124.764412
9.300000	-0.373378	-125.321208	-39.609762	-20.453855	-39.609762	-20.453855	-0.373453	-125.341119
9.350000	-0.378281	-125.897534	-39.507865	-21.871427	-39.507865	-21.871427	-0.378356	-125.917477
9.400000	-0.383237	-126.473490	-39.406802	-23.288415	-39.406802	-23.288415	-0.383310	-126.493459
9.450000	-0.388244	-127.049075	-39.306561	-24.704819	-39.306561	-24.704819	-0.388315	-127.069063
9.500000	-0.393294	-127.624387	-39.207199	-26.120807	-39.207199	-26.120807	-0.393364	-127.644391
9.550000	-0.398404	-128.199319	-39.108595	-27.536210	-39.108595	-27.536210	-0.398472	-128.219329
9.600000	-0.403551	-128.774062	-39.010907	-28.951337	-39.010907	-28.951337	-0.403616	-128.794076
9.650000	-0.408765	-129.348430	-38.913926	-30.365913	-38.913926	-30.365913	-0.408827	-129.368437
9.700000	-0.414007	-129.922679	-38.817888	-31.780328	-38.817888	-31.780328	-0.414066	-129.942676
9.750000	-0.419326	-130.496575	-38.722519	-33.194257	-38.722519	-33.194257	-0.419381	-130.516551
9.800000	-0.424664	-131.070408	-38.628110	-34.608110	-38.628110	-34.608110	-0.424715	-131.090359
9.850000	-0.430087	-131.643926	-38.534345	-36.021579	-38.534345	-36.021579	-0.430133	-131.663839
9.900000	-0.435522	-132.217420	-38.441549	-37.435025	-38.441549	-37.435025	-0.435563	-132.237293
9.950000	-0.441050	-132.790654	-38.349385	-38.848225	-38.349385	-38.848225	-0.441085	-132.810472
10.000000	-0.446582	-133.363889	-38.258188	-40.261424	-38.258188	-40.261424	-0.446610	-133.383650
