! freq	dB(S11)	phase(S11)	dB(S12)	phase(S12)	
!     	dB(S21)	phase(S21)	dB(S22)	phase(S22)	
!S-par simulation data
#  GHz  S  DB  R 50
0.000000	-0.000000	0.000000	-350.203512	0.000000	-350.203512	0.000000	-0.000000	0.000000
0.050000	-0.000098	-0.950228	-103.444423	49.227934	-103.444423	49.227934	-0.000110	-0.864924
0.100000	-0.000389	-1.900247	-101.489244	44.118584	-101.489244	44.118584	-0.000436	-1.729578
0.150000	-0.000865	-2.849856	-100.369396	46.784665	-100.369396	46.784665	-0.000963	-2.593712
0.200000	-0.001513	-3.798881	-99.371532	50.611783	-99.371532	50.611783	-0.001671	-3.457121
0.250000	-0.002328	-4.747107	-98.451682	54.117807	-98.451682	54.117807	-0.002545	-4.319574
0.300000	-0.003279	-5.694467	-97.626802	57.071196	-97.626802	57.071196	-0.003542	-5.181031
0.350000	-0.004355	-6.640813	-96.905685	59.493681	-96.905685	59.493681	-0.004644	-6.041375
0.400000	-0.005536	-7.586053	-96.292400	61.495672	-96.292400	61.495672	-0.005826	-6.900562
0.450000	-0.006804	-8.530119	-95.787334	63.198019	-95.787334	63.198019	-0.007064	-7.758580
0.500000	-0.008142	-9.472961	-95.389617	64.714214	-95.389617	64.714214	-0.008339	-8.615440
0.550000	-0.009532	-10.414550	-95.098567	66.150276	-95.098567	66.150276	-0.009635	-9.471169
0.600000	-0.010959	-11.354869	-94.914447	67.610535	-94.914447	67.610535	-0.010939	-10.325801
0.650000	-0.012411	-12.293914	-94.838778	69.206064	-94.838778	69.206064	-0.012242	-11.179376
0.700000	-0.013876	-13.231688	-94.874300	71.065563	-94.874300	71.065563	-0.013536	-12.031931
0.750000	-0.015346	-14.168199	-95.024434	73.349885	-95.024434	73.349885	-0.014817	-12.883501
0.800000	-0.016812	-15.103461	-95.291773	76.272013	-95.291773	76.272013	-0.016082	-13.734115
0.850000	-0.018268	-16.037485	-95.674473	80.123764	-95.674473	80.123764	-0.017330	-14.583795
0.900000	-0.019711	-16.970282	-96.158188	85.305343	-96.158188	85.305343	-0.018559	-15.432560
0.950000	-0.021136	-17.901865	-96.699489	92.334353	-96.699489	92.334353	-0.019771	-16.280421
1.000000	-0.022542	-18.832240	-97.197663	101.760044	-97.197663	101.760044	-0.020966	-17.127382
1.050000	-0.023927	-19.761412	-97.467488	113.845186	-97.467488	113.845186	-0.022144	-17.973445
1.100000	-0.025292	-20.689384	-97.269513	127.982718	-97.269513	127.982718	-0.023308	-18.818606
1.150000	-0.026635	-21.616154	-96.458440	142.387408	-96.458440	142.387408	-0.024458	-19.662858
1.200000	-0.027957	-22.541716	-95.123242	154.997981	-95.123242	154.997981	-0.025596	-20.506190
1.250000	-0.029260	-23.466064	-93.500965	164.821634	-93.500965	164.821634	-0.026723	-21.348589
1.300000	-0.030543	-24.389134	-91.785122	171.907145	-91.785122	171.907145	-0.027840	-22.189997
1.350000	-0.031809	-25.310964	-90.109502	176.959385	-90.109502	176.959385	-0.028948	-23.030440
1.400000	-0.033059	-26.231540	-88.519144	-179.484834	-88.519144	-179.484834	-0.030050	-23.869897
1.450000	-0.034294	-27.150844	-87.026419	-177.018023	-87.026419	-177.018023	-0.031145	-24.708351
1.500000	-0.035516	-28.068856	-85.629517	-175.349691	-85.629517	-175.349691	-0.032236	-25.545781
1.550000	-0.036726	-28.985557	-84.321291	-174.276058	-84.321291	-174.276058	-0.033321	-26.382167
1.600000	-0.037926	-29.900925	-83.093161	-173.653558	-83.093161	-173.653558	-0.034403	-27.217487
1.650000	-0.039117	-30.814937	-81.936716	-173.379701	-81.936716	-173.379701	-0.035482	-28.051723
1.700000	-0.040300	-31.727570	-80.844304	-173.380081	-80.844304	-173.380081	-0.036559	-28.884851
1.750000	-0.041477	-32.638801	-79.809185	-173.599717	-79.809185	-173.599717	-0.037633	-29.716852
1.800000	-0.042649	-33.548604	-78.825498	-173.997271	-78.825498	-173.997271	-0.038707	-30.547705
1.850000	-0.043817	-34.456956	-77.888180	-174.541147	-77.888180	-174.541147	-0.039780	-31.377389
1.900000	-0.044982	-35.363833	-76.992852	-175.206819	-76.992852	-175.206819	-0.040852	-32.205884
1.950000	-0.046145	-36.269209	-76.135719	-175.974980	-76.135719	-175.974980	-0.041924	-33.033170
2.000000	-0.047307	-37.173060	-75.313483	-176.830231	-75.313483	-176.830231	-0.042997	-33.859228
2.050000	-0.048468	-38.075363	-74.523262	-177.760141	-74.523262	-177.760141	-0.044071	-34.684037
2.100000	-0.049631	-38.976093	-73.762531	-178.754564	-73.762531	-178.754564	-0.045146	-35.507579
2.150000	-0.050795	-39.875227	-73.029061	-179.805134	-73.029061	-179.805134	-0.046223	-36.329836
2.200000	-0.051961	-40.772742	-72.320880	179.095110	-72.320880	179.095110	-0.047302	-37.150788
2.250000	-0.053130	-41.668616	-71.636233	177.952015	-71.636233	177.952015	-0.048383	-37.970419
2.300000	-0.054302	-42.562826	-70.973554	176.770526	-70.973554	176.770526	-0.049467	-38.788711
2.350000	-0.055478	-43.455351	-70.331438	175.554862	-70.331438	175.554862	-0.050554	-39.605647
2.400000	-0.056659	-44.346171	-69.708617	174.308645	-69.708617	174.308645	-0.051645	-40.421210
2.450000	-0.057845	-45.235265	-69.103949	173.035004	-69.103949	173.035004	-0.052739	-41.235384
2.500000	-0.059037	-46.122614	-68.516394	171.736662	-68.516394	171.736662	-0.053837	-42.048154
2.550000	-0.060235	-47.008121	-67.944084	170.415126	-67.944084	170.415126	-0.054941	-42.859442
2.600000	-0.061439	-47.891845	-67.387178	169.073527	-67.387178	169.073527	-0.056049	-43.669294
2.650000	-0.062651	-48.773768	-66.844877	167.713685	-66.844877	167.713685	-0.057162	-44.477697
2.700000	-0.063870	-49.653874	-66.316445	166.337219	-66.316445	166.337219	-0.058281	-45.284635
2.750000	-0.065096	-50.532147	-65.801207	164.945574	-65.801207	164.945574	-0.059406	-46.090097
2.800000	-0.066331	-51.408572	-65.298540	163.540048	-65.298540	163.540048	-0.060538	-46.894068
2.850000	-0.067574	-52.283134	-64.807867	162.121808	-64.807867	162.121808	-0.061676	-47.696537
2.900000	-0.068825	-53.155822	-64.328653	160.691908	-64.328653	160.691908	-0.062822	-48.497491
2.950000	-0.070086	-54.026621	-63.860401	159.251305	-63.860401	159.251305	-0.063975	-49.296920
3.000000	-0.071357	-54.895520	-63.402648	157.800868	-63.402648	157.800868	-0.065136	-50.094811
3.050000	-0.072637	-55.762507	-62.954962	156.341393	-62.954962	156.341393	-0.066306	-50.891155
3.100000	-0.073928	-56.627573	-62.516940	154.873604	-62.516940	154.873604	-0.067484	-51.685942
3.150000	-0.075228	-57.490708	-62.088202	153.398170	-62.088202	153.398170	-0.068672	-52.479160
3.200000	-0.076540	-58.351903	-61.668395	151.915702	-61.668395	151.915702	-0.069870	-53.270803
3.250000	-0.077863	-59.211150	-61.257183	150.426768	-61.257183	150.426768	-0.071077	-54.060860
3.300000	-0.079198	-60.068442	-60.854254	148.931891	-60.854254	148.931891	-0.072295	-54.849323
3.350000	-0.080544	-60.923771	-60.459309	147.431554	-60.459309	147.431554	-0.073524	-55.636185
3.400000	-0.081903	-61.777133	-60.072071	145.926208	-60.072071	145.926208	-0.074764	-56.421439
3.450000	-0.083274	-62.628521	-59.692273	144.416270	-59.692273	144.416270	-0.076016	-57.205077
3.500000	-0.084658	-63.477933	-59.319665	142.902131	-59.319665	142.902131	-0.077280	-57.987093
3.550000	-0.086055	-64.325363	-58.954010	141.384153	-58.954010	141.384153	-0.078557	-58.767482
3.600000	-0.087466	-65.170809	-58.595081	139.862675	-58.595081	139.862675	-0.079846	-59.546237
3.650000	-0.088891	-66.014270	-58.242664	138.338015	-58.242664	138.338015	-0.081150	-60.323355
3.700000	-0.090330	-66.855742	-57.896555	136.810470	-57.896555	136.810470	-0.082467	-61.098830
3.750000	-0.091785	-67.695226	-57.556559	135.280318	-57.556559	135.280318	-0.083798	-61.872658
3.800000	-0.093255	-68.532635	-57.222191	133.747729	-57.222191	133.747729	-0.085145	-62.644764
3.850000	-0.094741	-69.368055	-56.893596	132.213061	-56.893596	132.213061	-0.086507	-63.415217
3.900000	-0.096243	-70.201489	-56.570603	130.676540	-56.570603	130.676540	-0.087885	-64.184014
3.950000	-0.097761	-71.032937	-56.253047	129.138381	-56.253047	129.138381	-0.089279	-64.951153
4.000000	-0.099297	-71.862403	-55.940774	127.598786	-55.940774	127.598786	-0.090689	-65.716633
4.050000	-0.100850	-72.689889	-55.633632	126.057944	-55.633632	126.057944	-0.092117	-66.480451
4.100000	-0.102420	-73.515400	-55.331478	124.516034	-55.331478	124.516034	-0.093561	-67.242608
4.150000	-0.104009	-74.338939	-55.034175	122.973222	-55.034175	122.973222	-0.095024	-68.003103
4.200000	-0.105617	-75.160511	-54.741589	121.429667	-54.741589	121.429667	-0.096505	-68.761937
4.250000	-0.107244	-75.980123	-54.453595	119.885516	-54.453595	119.885516	-0.098005	-69.519109
4.300000	-0.108891	-76.797779	-54.170069	118.340909	-54.170069	118.340909	-0.099524	-70.274622
4.350000	-0.110558	-77.613488	-53.890894	116.795977	-53.890894	116.795977	-0.101062	-71.028476
4.400000	-0.112246	-78.427255	-53.615957	115.250842	-53.615957	115.250842	-0.102620	-71.780674
4.450000	-0.113955	-79.239090	-53.345148	113.705619	-53.345148	113.705619	-0.104199	-72.531218
4.500000	-0.115685	-80.048999	-53.078364	112.160418	-53.078364	112.160418	-0.105799	-73.280111
4.550000	-0.117438	-80.856993	-52.815503	110.615339	-52.815503	110.615339	-0.107420	-74.027356
4.600000	-0.119217	-81.662751	-52.555794	109.070540	-52.555794	109.070540	-0.109067	-74.772672
4.650000	-0.121021	-82.466531	-52.299692	107.526064	-52.299692	107.526064	-0.110737	-75.516277
4.700000	-0.122838	-83.269330	-52.049028	105.981822	-52.049028	105.981822	-0.112419	-76.259030
4.750000	-0.124692	-84.069191	-51.799859	104.438283	-51.799859	104.438283	-0.114136	-76.999230
4.800000	-0.126555	-84.868407	-51.556454	102.894951	-51.556454	102.894951	-0.115862	-77.738866
4.850000	-0.128461	-85.664399	-51.313916	101.352658	-51.313916	101.352658	-0.117630	-78.475684
4.900000	-0.130373	-86.460073	-51.077410	99.810491	-51.077410	99.810491	-0.119402	-79.212222
4.950000	-0.132334	-87.252251	-50.841218	98.269711	-50.841218	98.269711	-0.121221	-79.945687
5.000000	-0.134296	-88.044429	-50.611279	96.728931	-50.611279	96.728931	-0.123040	-80.679151
5.050000	-0.136315	-88.832852	-50.381167	95.189892	-50.381167	95.189892	-0.124913	-81.409293
5.100000	-0.138334	-89.621275	-50.156994	93.650853	-50.156994	93.650853	-0.126786	-82.139435
5.150000	-0.140407	-90.406314	-49.933201	92.113590	-49.933201	92.113590	-0.128709	-82.866563
5.200000	-0.142485	-91.191045	-49.714564	90.576489	-49.714564	90.576489	-0.130637	-83.593417
5.250000	-0.144615	-91.972755	-49.496798	89.041140	-49.496798	89.041140	-0.132613	-84.317562
5.300000	-0.146755	-92.753861	-49.283480	87.506142	-49.283480	87.506142	-0.134598	-85.041167
5.350000	-0.148942	-93.532302	-49.071466	85.972826	-49.071466	85.972826	-0.136628	-85.762364
5.400000	-0.151146	-94.309854	-48.863265	84.440071	-48.863265	84.440071	-0.138672	-86.482760
5.450000	-0.153394	-95.085087	-48.656750	82.908892	-48.656750	82.908892	-0.140757	-87.201047
5.500000	-0.155664	-95.859160	-48.453475	81.378500	-48.453475	81.378500	-0.142862	-87.918279
5.550000	-0.157974	-96.631248	-48.252222	79.849545	-48.252222	79.849545	-0.145004	-88.633694
5.600000	-0.160312	-97.401920	-48.053694	78.321616	-48.053694	78.321616	-0.147172	-89.347811
5.650000	-0.162685	-98.170933	-47.857482	76.794962	-47.857482	76.794962	-0.149373	-90.060395
5.700000	-0.165093	-98.938286	-47.663532	75.269582	-47.663532	75.269582	-0.151605	-90.771447
5.750000	-0.167532	-99.704291	-47.472156	73.745295	-47.472156	73.745295	-0.153866	-91.481244
5.800000	-0.170012	-100.468411	-47.282629	72.222538	-47.282629	72.222538	-0.156164	-92.189285
5.850000	-0.172518	-101.231483	-47.095896	70.700678	-47.095896	70.700678	-0.158486	-92.896341
5.900000	-0.175072	-101.992458	-46.910643	69.180609	-46.910643	69.180609	-0.160853	-93.601428
5.950000	-0.177646	-102.752671	-46.728375	67.661227	-46.728375	67.661227	-0.163238	-94.305792
6.000000	-0.180277	-103.510595	-46.547259	66.143905	-46.547259	66.143905	-0.165675	-95.007985
6.050000	-0.182920	-104.268027	-46.369289	64.627050	-46.369289	64.627050	-0.168125	-95.709706
6.100000	-0.185628	-105.022997	-46.192182	63.112530	-46.192182	63.112530	-0.170633	-96.409067
6.150000	-0.188344	-105.777728	-46.018353	61.598249	-46.018353	61.598249	-0.173149	-97.108198
6.200000	-0.191131	-106.529843	-45.845134	60.086586	-45.845134	60.086586	-0.175731	-97.804793
6.250000	-0.193919	-107.281957	-45.675301	58.574923	-45.675301	58.574923	-0.178314	-98.501388
6.300000	-0.196787	-108.031320	-45.505858	57.066172	-45.505858	57.066172	-0.180971	-99.195284
6.350000	-0.199655	-108.780683	-45.339657	55.557421	-45.339657	55.557421	-0.183630	-99.889181
6.400000	-0.202598	-109.527623	-45.174114	54.051392	-45.174114	54.051392	-0.186358	-100.580668
6.450000	-0.205549	-110.274341	-45.011446	52.545612	-45.011446	52.545612	-0.189093	-101.271936
6.500000	-0.208568	-111.018949	-44.849675	51.042359	-44.849675	51.042359	-0.191893	-101.961074
6.550000	-0.211602	-111.763135	-44.690451	49.539612	-44.690451	49.539612	-0.194707	-102.649787
6.600000	-0.214699	-112.505506	-44.532333	48.039192	-44.532333	48.039192	-0.197581	-103.336640
6.650000	-0.217818	-113.247273	-44.376467	46.539548	-44.376467	46.539548	-0.200476	-104.022872
6.700000	-0.220993	-113.987507	-44.221891	45.042025	-44.221891	45.042025	-0.203425	-104.707503
6.750000	-0.224197	-114.726974	-44.069302	43.545563	-44.069302	43.545563	-0.206402	-105.391334
6.800000	-0.227451	-115.465171	-43.918164	42.051007	-43.918164	42.051007	-0.209427	-106.073809
6.850000	-0.230741	-116.202461	-43.768779	40.557813	-43.768779	40.557813	-0.212488	-106.755317
6.900000	-0.234074	-116.938725	-43.620979	39.066301	-43.620979	39.066301	-0.215591	-107.435705
6.950000	-0.237451	-117.673964	-43.474728	37.576471	-43.474728	37.576471	-0.218737	-108.114973
7.000000	-0.240865	-118.408403	-43.330176	36.088089	-43.330176	36.088089	-0.221919	-108.793342
7.050000	-0.244330	-119.141723	-43.186993	34.601733	-43.186993	34.601733	-0.225153	-109.470455
7.100000	-0.247825	-119.874448	-43.045600	33.116574	-43.045600	33.116574	-0.228416	-110.146877
7.150000	-0.251378	-120.605984	-42.905423	31.633810	-42.905423	31.633810	-0.231738	-110.821920
7.200000	-0.254953	-121.337108	-42.767108	30.151976	-42.767108	30.151976	-0.235083	-111.496468
7.250000	-0.258595	-122.067000	-42.629879	28.672935	-42.629879	28.672935	-0.238495	-112.169531
7.300000	-0.262252	-122.796642	-42.494563	27.194538	-42.494563	27.194538	-0.241923	-112.842279
7.350000	-0.265982	-123.525035	-42.360226	25.719363	-42.360226	25.719363	-0.245427	-113.513453
7.400000	-0.269721	-124.253315	-42.227835	24.244522	-42.227835	24.244522	-0.248940	-114.184476
7.450000	-0.273540	-124.980359	-42.096338	22.773367	-42.096338	22.773367	-0.252538	-114.853854
7.500000	-0.277361	-125.707403	-41.966802	21.302211	-41.966802	21.302211	-0.256137	-115.523231
7.550000	-0.281269	-126.433253	-41.838092	19.835241	-41.838092	19.835241	-0.259829	-116.190907
7.600000	-0.285179	-127.159104	-41.711262	18.368271	-41.711262	18.368271	-0.263523	-116.858583
7.650000	-0.289169	-127.884007	-41.585372	16.905300	-41.585372	16.905300	-0.267304	-117.524788
7.700000	-0.293168	-128.608825	-41.461201	15.442692	-41.461201	15.442692	-0.271094	-118.190860
7.750000	-0.297240	-129.332921	-41.338064	13.983874	-41.338064	13.983874	-0.274965	-118.855677
7.800000	-0.301329	-130.056872	-41.216507	12.525815	-41.216507	12.525815	-0.278853	-119.520243
7.850000	-0.305483	-130.780304	-41.096058	11.071313	-41.096058	11.071313	-0.282814	-120.183757
7.900000	-0.309660	-131.503562	-40.977070	9.617997	-40.977070	9.617997	-0.286801	-120.846919
7.950000	-0.313896	-132.226477	-40.859248	8.167980	-40.859248	8.167980	-0.290855	-121.509214
8.000000	-0.318162	-132.949221	-40.742784	6.719611	-40.742784	6.719611	-0.294942	-122.171075
8.050000	-0.322480	-133.671774	-40.627527	5.274252	-40.627527	5.274252	-0.299089	-122.832239
8.100000	-0.326835	-134.394190	-40.513544	3.831041	-40.513544	3.831041	-0.303279	-123.492904
8.150000	-0.331234	-135.116538	-40.400793	2.390517	-40.400793	2.390517	-0.307519	-124.153025
8.200000	-0.335678	-135.838819	-40.289245	0.952680	-40.289245	0.952680	-0.311812	-124.812602
8.250000	-0.340160	-136.561127	-40.178942	-0.482828	-40.178942	-0.482828	-0.316148	-125.471770
8.300000	-0.344692	-137.283473	-40.069785	-1.915072	-40.069785	-1.915072	-0.320544	-126.130366
8.350000	-0.349256	-138.005911	-39.961872	-3.345379	-39.961872	-3.345379	-0.324977	-126.788673
8.400000	-0.353877	-138.728531	-39.855061	-4.771809	-39.855061	-4.771809	-0.329478	-127.446401
8.450000	-0.358523	-139.451274	-39.749481	-6.196729	-39.749481	-6.196729	-0.334008	-128.103940
8.500000	-0.363234	-140.174385	-39.644969	-7.617122	-39.644969	-7.617122	-0.338616	-128.760912
8.550000	-0.367961	-140.897615	-39.541666	-9.036472	-39.541666	-9.036472	-0.343243	-129.417777
8.600000	-0.372762	-141.621442	-39.439406	-10.450606	-39.439406	-10.450606	-0.347959	-130.074109
8.650000	-0.377572	-142.345348	-39.338324	-11.864200	-39.338324	-11.864200	-0.352685	-130.730397
8.700000	-0.382464	-143.070126	-39.238268	-13.271857	-39.238268	-13.271857	-0.357508	-131.386205
8.750000	-0.387357	-143.794904	-39.139352	-14.679514	-39.139352	-14.679514	-0.362334	-132.042014
8.800000	-0.392340	-144.520878	-39.041450	-16.080479	-39.041450	-16.080479	-0.367267	-132.697418
8.850000	-0.397325	-145.246851	-38.944640	-17.481444	-38.944640	-17.481444	-0.372202	-133.352822
8.900000	-0.402393	-145.974154	-38.848847	-18.876085	-38.848847	-18.876085	-0.377235	-134.007967
8.950000	-0.407471	-146.701578	-38.754094	-20.270151	-38.754094	-20.270151	-0.382280	-134.663089
9.000000	-0.412625	-147.430432	-38.660351	-21.658300	-38.660351	-21.658300	-0.387414	-135.318078
9.050000	-0.417798	-148.159571	-38.567606	-23.045267	-38.567606	-23.045267	-0.392570	-135.973041
9.100000	-0.423041	-148.890205	-38.475854	-24.426765	-38.475854	-24.426765	-0.397806	-136.627979
9.150000	-0.428310	-149.621338	-38.385067	-25.806442	-38.385067	-25.806442	-0.403072	-137.282909
9.200000	-0.433644	-150.353991	-38.295249	-27.181138	-38.295249	-27.181138	-0.408412	-137.937901
9.250000	-0.439013	-151.087405	-38.206366	-28.553345	-38.206366	-28.553345	-0.413789	-138.592926
9.300000	-0.444440	-151.822326	-38.118424	-29.921097	-38.118424	-29.921097	-0.419231	-139.248082
9.350000	-0.449911	-152.558323	-38.031392	-31.285667	-38.031392	-31.285667	-0.424720	-139.903332
9.400000	-0.455436	-153.295769	-37.945269	-32.646343	-37.945269	-32.646343	-0.430265	-140.558761
9.450000	-0.461014	-154.034664	-37.860035	-34.003124	-37.860035	-34.003124	-0.435867	-141.214369
9.500000	-0.466639	-154.774904	-37.775672	-35.356601	-37.775672	-35.356601	-0.441515	-141.870182
9.550000	-0.472328	-155.517025	-37.692180	-36.705454	-37.692180	-36.705454	-0.447228	-142.526283
9.600000	-0.478059	-156.260337	-37.609521	-38.051623	-37.609521	-38.051623	-0.452979	-143.182595
9.650000	-0.483866	-157.006029	-37.527716	-39.392426	-37.527716	-39.392426	-0.458804	-143.839327
9.700000	-0.489706	-157.752703	-37.446704	-40.731191	-37.446704	-40.731191	-0.464659	-144.496251
9.750000	-0.495638	-158.502323	-37.366529	-42.063839	-37.366529	-42.063839	-0.470596	-145.153754
9.800000	-0.501595	-159.252661	-37.287108	-43.395114	-37.287108	-43.395114	-0.476554	-145.811409
9.850000	-0.507660	-160.006585	-37.208506	-44.719520	-37.208506	-44.719520	-0.482602	-146.469826
9.900000	-0.513741	-160.760900	-37.130619	-46.043234	-37.130619	-46.043234	-0.488662	-147.128331
9.950000	-0.519948	-161.519520	-37.053533	-47.359330	-37.053533	-47.359330	-0.494821	-147.787806
10.000000	-0.526160	-162.278140	-36.977126	-48.675426	-36.977126	-48.675426	-0.500984	-148.447282
