! freq	dB(S11)	phase(S11)	dB(S12)	phase(S12)	
!     	dB(S21)	phase(S21)	dB(S22)	phase(S22)	
!S-par simulation data
#  GHz  S  DB  R 50
0.000000	0.000000	0.000000	-347.029898	180.000000	-347.029898	180.000000	-0.000000	0.000000
0.050000	-0.000107	-1.096514	-73.793745	-152.502573	-73.793745	-152.502573	-0.000134	-1.361774
0.100000	-0.000424	-2.192802	-72.492109	-177.068752	-72.492109	-177.068752	-0.000533	-2.723260
0.150000	-0.000946	-3.288650	-72.215775	168.185082	-72.215775	168.185082	-0.001187	-4.084179
0.200000	-0.001657	-4.383865	-72.137036	156.719055	-72.137036	156.719055	-0.002079	-5.444287
0.250000	-0.002555	-5.478212	-72.131296	146.943534	-72.131296	146.943534	-0.003205	-6.803280
0.300000	-0.003606	-6.571608	-72.160579	138.133709	-72.160579	138.133709	-0.004522	-8.161053
0.350000	-0.004799	-7.663887	-72.217780	130.111338	-72.217780	130.111338	-0.006017	-9.517391
0.400000	-0.006116	-8.754934	-72.299674	122.750149	-72.299674	122.750149	-0.007665	-10.872149
0.450000	-0.007536	-9.844663	-72.405764	115.978296	-72.405764	115.978296	-0.009441	-12.225213
0.500000	-0.009040	-10.933004	-72.536695	109.748594	-72.536695	109.748594	-0.011322	-13.576497
0.550000	-0.010612	-12.019910	-72.693660	104.026217	-72.693660	104.026217	-0.013285	-14.925938
0.600000	-0.012234	-13.105349	-72.878174	98.783597	-72.878174	98.783597	-0.015310	-16.273496
0.650000	-0.013891	-14.189302	-73.092008	93.998540	-73.092008	93.998540	-0.017376	-17.619146
0.700000	-0.015570	-15.271761	-73.337183	89.653849	-73.337183	89.653849	-0.019470	-18.962879
0.750000	-0.017261	-16.352725	-73.616008	85.737736	-73.616008	85.737736	-0.021575	-20.304694
0.800000	-0.018954	-17.432199	-73.931124	82.244734	-73.931124	82.244734	-0.023681	-21.644595
0.850000	-0.020642	-18.510187	-74.285544	79.177047	-74.285544	79.177047	-0.025779	-22.982594
0.900000	-0.022318	-19.586699	-74.682685	76.546447	-74.682685	76.546447	-0.027860	-24.318701
0.950000	-0.023978	-20.661742	-75.126365	74.376890	-75.126365	74.376890	-0.029920	-25.652928
1.000000	-0.025619	-21.735321	-75.620714	72.708189	-75.620714	72.708189	-0.031954	-26.985284
1.050000	-0.027238	-22.807440	-76.169933	71.601167	-76.169933	71.601167	-0.033960	-28.315779
1.100000	-0.028834	-23.878101	-76.777724	71.144828	-76.777724	71.144828	-0.035935	-29.644419
1.150000	-0.030407	-24.947303	-77.446110	71.465994	-77.446110	71.465994	-0.037880	-30.971205
1.200000	-0.031955	-26.015040	-78.173040	72.741245	-78.173040	72.741245	-0.039794	-32.296139
1.250000	-0.033480	-27.081307	-78.947808	75.208651	-78.947808	75.208651	-0.041677	-33.619218
1.300000	-0.034982	-28.146029	-79.737828	79.250375	-79.737828	79.250375	-0.043530	-34.940355
1.350000	-0.036462	-29.209257	-80.482173	85.136054	-80.482173	85.136054	-0.045356	-36.259623
1.400000	-0.037922	-30.270976	-81.075021	93.044961	-81.075021	93.044961	-0.047156	-37.577013
1.450000	-0.039364	-31.331170	-81.375087	102.733313	-81.375087	102.733313	-0.048932	-38.892514
1.500000	-0.040788	-32.389821	-81.261746	113.330718	-81.261746	113.330718	-0.050687	-40.206114
1.550000	-0.042197	-33.446909	-80.713562	123.590454	-80.713562	123.590454	-0.052421	-41.517798
1.600000	-0.043592	-34.502414	-79.822911	132.492783	-79.822911	132.492783	-0.054138	-42.827555
1.650000	-0.044974	-35.556313	-78.729742	139.596316	-78.729742	139.596316	-0.055839	-44.135370
1.700000	-0.046346	-36.608586	-77.553832	144.945997	-77.553832	144.945997	-0.057527	-45.441229
1.750000	-0.047708	-37.659208	-76.371833	148.816993	-76.371833	148.816993	-0.059202	-46.745119
1.800000	-0.049062	-38.708157	-75.224224	151.525672	-75.224224	151.525672	-0.060868	-48.047028
1.850000	-0.050410	-39.755410	-74.128801	153.347062	-74.128801	153.347062	-0.062526	-49.346945
1.900000	-0.051753	-40.800944	-73.091063	154.496124	-73.091063	154.496124	-0.064178	-50.644858
1.950000	-0.053092	-41.844736	-72.110428	155.133844	-72.110428	155.133844	-0.065826	-51.940760
2.000000	-0.054428	-42.886763	-71.183596	155.379119	-71.183596	155.379119	-0.067471	-53.234641
2.050000	-0.055763	-43.927004	-70.306255	155.319748	-70.306255	155.319748	-0.069114	-54.526496
2.100000	-0.057097	-44.965437	-69.473915	155.020988	-69.473915	155.020988	-0.070758	-55.816320
2.150000	-0.058432	-46.002041	-68.682289	154.531797	-68.682289	154.531797	-0.072403	-57.104112
2.200000	-0.059769	-47.036797	-67.927453	153.889298	-67.927453	153.889298	-0.074051	-58.389870
2.250000	-0.061108	-48.069685	-67.205885	153.121934	-67.205885	153.121934	-0.075704	-59.673597
2.300000	-0.062451	-49.100686	-66.514464	152.251724	-66.514464	152.251724	-0.077361	-60.955296
2.350000	-0.063798	-50.129783	-65.850434	151.295877	-65.850434	151.295877	-0.079025	-62.234974
2.400000	-0.065150	-51.156960	-65.211370	150.267960	-65.211370	150.267960	-0.080697	-63.512638
2.450000	-0.066508	-52.182202	-64.595137	149.178757	-64.595137	149.178757	-0.082377	-64.788299
2.500000	-0.067873	-53.205493	-63.999852	148.036901	-63.999852	148.036901	-0.084067	-66.061971
2.550000	-0.069245	-54.226734	-63.423018	146.847623	-63.423018	146.847623	-0.085768	-67.333584
2.600000	-0.070625	-55.245999	-62.864077	145.618697	-62.864077	145.618697	-0.087480	-68.603243
2.650000	-0.072013	-56.263276	-62.321717	144.354605	-62.321717	144.354605	-0.089205	-69.870969
2.700000	-0.073410	-57.278555	-61.794771	143.059029	-61.794771	143.059029	-0.090943	-71.136784
2.750000	-0.074818	-58.291829	-61.282200	141.735009	-61.282200	141.735009	-0.092694	-72.400716
2.800000	-0.076235	-59.303088	-60.783080	140.385062	-60.783080	140.385062	-0.094461	-73.662793
2.850000	-0.077663	-60.312328	-60.296580	139.011283	-60.296580	139.011283	-0.096243	-74.923046
2.900000	-0.079102	-61.319544	-59.821958	137.615423	-59.821958	137.615423	-0.098042	-76.181508
2.950000	-0.080553	-62.324730	-59.358550	136.198949	-59.358550	136.198949	-0.099857	-77.438217
3.000000	-0.082017	-63.327885	-58.905754	134.763103	-58.905754	134.763103	-0.101690	-78.693210
3.050000	-0.083493	-64.329008	-58.463032	133.308934	-58.463032	133.308934	-0.103542	-79.946530
3.100000	-0.084982	-65.328098	-58.029896	131.837342	-58.029896	131.837342	-0.105412	-81.198220
3.150000	-0.086485	-66.325155	-57.605908	130.349102	-57.605908	130.349102	-0.107303	-82.448328
3.200000	-0.088002	-67.320184	-57.190671	128.844885	-57.190671	128.844885	-0.109214	-83.696904
3.250000	-0.089533	-68.313186	-56.783824	127.325286	-56.783824	127.325286	-0.111146	-84.943998
3.300000	-0.091080	-69.304166	-56.385042	125.790832	-56.385042	125.790832	-0.113100	-86.189666
3.350000	-0.092642	-70.293131	-55.994029	124.242000	-55.994029	124.242000	-0.115076	-87.433964
3.400000	-0.094221	-71.280087	-55.610517	122.679231	-55.610517	122.679231	-0.117076	-88.676954
3.450000	-0.095815	-72.265043	-55.234261	121.102934	-55.234261	121.102934	-0.119099	-89.918698
3.500000	-0.097427	-73.248007	-54.865040	119.513499	-54.865040	119.513499	-0.121147	-91.159260
3.550000	-0.099056	-74.228992	-54.502651	117.911305	-54.502651	117.911305	-0.123220	-92.398708
3.600000	-0.100703	-75.208007	-54.146908	116.296719	-54.146908	116.296719	-0.125319	-93.637113
3.650000	-0.102368	-76.185067	-53.797642	114.670110	-53.797642	114.670110	-0.127445	-94.874549
3.700000	-0.104052	-77.160185	-53.454696	113.031845	-53.454696	113.031845	-0.129597	-96.111089
3.750000	-0.105755	-78.133376	-53.117927	111.382299	-53.117927	111.382299	-0.131778	-97.346813
3.800000	-0.107479	-79.104576	-52.786923	109.721396	-52.786923	109.721396	-0.133988	-98.581774
3.850000	-0.109224	-80.073884	-52.461867	108.050020	-52.461867	108.050020	-0.136227	-99.816090
3.900000	-0.110989	-81.041320	-52.142644	106.368571	-52.142644	106.368571	-0.138497	-101.049849
3.950000	-0.112775	-82.006903	-51.829144	104.677465	-51.829144	104.677465	-0.140797	-102.283139
4.000000	-0.114584	-82.970655	-51.521263	102.977127	-51.521263	102.977127	-0.143128	-103.516052
4.050000	-0.116415	-83.932598	-51.218902	101.267995	-51.218902	101.267995	-0.145492	-104.748682
4.100000	-0.118268	-84.892755	-50.921966	99.550516	-50.921966	99.550516	-0.147888	-105.981127
4.150000	-0.120146	-85.851149	-50.630363	97.825150	-50.630363	97.825150	-0.150318	-107.213485
4.200000	-0.122047	-86.807807	-50.344004	96.092365	-50.344004	96.092365	-0.152782	-108.445859
4.250000	-0.123973	-87.762754	-50.062800	94.352634	-50.062800	94.352634	-0.155281	-109.678355
4.300000	-0.125924	-88.716018	-49.786666	92.606439	-49.786666	92.606439	-0.157816	-110.911078
4.350000	-0.127901	-89.667628	-49.515513	90.854262	-49.515513	90.854262	-0.160387	-112.144141
4.400000	-0.129904	-90.617613	-49.249257	89.096589	-49.249257	89.096589	-0.162995	-113.377655
4.450000	-0.131934	-91.566003	-48.987810	87.333903	-48.987810	87.333903	-0.165641	-114.611736
4.500000	-0.133992	-92.512830	-48.731085	85.566685	-48.731085	85.566685	-0.168326	-115.846503
4.550000	-0.136078	-93.458126	-48.478992	83.795408	-48.478992	83.795408	-0.171050	-117.082077
4.600000	-0.138192	-94.401926	-48.231444	82.020537	-48.231444	82.020537	-0.173815	-118.318581
4.650000	-0.140336	-95.344263	-47.988347	80.242524	-47.988347	80.242524	-0.176620	-119.556143
4.700000	-0.142509	-96.285174	-47.749610	78.461809	-47.749610	78.461809	-0.179467	-120.794891
4.750000	-0.144714	-97.224694	-47.515138	76.678812	-47.515138	76.678812	-0.182356	-122.034958
4.800000	-0.146949	-98.162863	-47.284836	74.893937	-47.284836	74.893937	-0.185288	-123.276480
4.850000	-0.149217	-99.099717	-47.058607	73.107563	-47.058607	73.107563	-0.188264	-124.519593
4.900000	-0.151516	-100.035298	-46.836352	71.320046	-46.836352	71.320046	-0.191285	-125.764440
4.950000	-0.153849	-100.969645	-46.617972	69.531716	-46.617972	69.531716	-0.194351	-127.011163
5.000000	-0.156216	-101.902800	-46.403365	67.742874	-46.403365	67.742874	-0.197463	-128.259910
5.050000	-0.158619	-102.834758	-46.192367	65.953792	-46.192367	65.953792	-0.200623	-129.510933
5.100000	-0.161057	-103.765615	-45.984946	64.164726	-45.984946	64.164726	-0.203832	-130.764295
5.150000	-0.163530	-104.695416	-45.780999	62.375877	-45.780999	62.375877	-0.207089	-132.020154
5.200000	-0.166040	-105.624206	-45.580421	60.587412	-45.580421	60.587412	-0.210394	-133.278669
5.250000	-0.168588	-106.552033	-45.383112	58.799463	-45.383112	58.799463	-0.213750	-134.540003
5.300000	-0.171173	-107.478944	-45.188969	57.012124	-45.188969	57.012124	-0.217156	-135.804320
5.350000	-0.173796	-108.404989	-44.997892	55.225454	-44.997892	55.225454	-0.220613	-137.071791
5.400000	-0.176459	-109.330217	-44.809781	53.439477	-44.809781	53.439477	-0.224121	-138.342586
5.450000	-0.179161	-110.254680	-44.624541	51.654177	-44.624541	51.654177	-0.227682	-139.616882
5.500000	-0.181904	-111.178431	-44.442075	49.869505	-44.442075	49.869505	-0.231297	-140.894857
5.550000	-0.184689	-112.101522	-44.262293	48.085374	-44.262293	48.085374	-0.234965	-142.176693
5.600000	-0.187515	-113.024008	-44.085104	46.301664	-44.085104	46.301664	-0.238687	-143.462575
5.650000	-0.190383	-113.945945	-43.910422	44.518218	-43.910422	44.518218	-0.242464	-144.752692
5.700000	-0.193295	-114.867391	-43.738166	42.734849	-43.738166	42.734849	-0.246297	-146.047237
5.750000	-0.196251	-115.788402	-43.568256	40.951335	-43.568256	40.951335	-0.250185	-147.346404
5.800000	-0.199251	-116.709038	-43.400618	39.167425	-43.400618	39.167425	-0.254130	-148.650394
5.850000	-0.202296	-117.629361	-43.235182	37.382837	-43.235182	37.382837	-0.258133	-149.959410
5.900000	-0.205387	-118.549432	-43.071882	35.597263	-43.071882	35.597263	-0.262193	-151.273656
5.950000	-0.208525	-119.469313	-42.910657	33.810368	-42.910657	33.810368	-0.266310	-152.593345
6.000000	-0.211710	-120.389072	-42.751452	32.021793	-42.751452	32.021793	-0.270487	-153.918688
6.050000	-0.214943	-121.308772	-42.594216	30.231156	-42.594216	30.231156	-0.274722	-155.249905
6.100000	-0.218225	-122.228482	-42.438905	28.438055	-42.438905	28.438055	-0.279016	-156.587215
6.150000	-0.221556	-123.148272	-42.285478	26.642068	-42.285478	26.642068	-0.283370	-157.930843
6.200000	-0.224936	-124.068211	-42.133903	24.842760	-42.133903	24.842760	-0.287784	-159.281019
6.250000	-0.228367	-124.988373	-41.984149	23.039678	-41.984149	23.039678	-0.292258	-160.637974
6.300000	-0.231852	-125.908849	-41.836165	21.232151	-41.836165	21.232151	-0.296795	-162.002261
6.350000	-0.235389	-126.829705	-41.689968	19.419867	-41.689968	19.419867	-0.301392	-163.373825
6.400000	-0.238978	-127.751021	-41.545547	17.602345	-41.545547	17.602345	-0.306050	-164.752911
6.450000	-0.242620	-128.672875	-41.402897	15.779093	-41.402897	15.779093	-0.310769	-166.139766
6.500000	-0.246317	-129.595353	-41.262018	13.949620	-41.262018	13.949620	-0.315549	-167.534643
6.550000	-0.250068	-130.518537	-41.122915	12.113430	-41.122915	12.113430	-0.320389	-168.937796
6.600000	-0.253874	-131.442518	-40.985599	10.270027	-40.985599	10.270027	-0.325290	-170.349485
6.650000	-0.257737	-132.367384	-40.850084	8.418916	-40.850084	8.418916	-0.330252	-171.769971
6.700000	-0.261656	-133.293229	-40.716389	6.559604	-40.716389	6.559604	-0.335274	-173.199523
6.750000	-0.265633	-134.220150	-40.584537	4.691601	-40.584537	4.691601	-0.340357	-174.638408
6.800000	-0.269668	-135.148247	-40.454553	2.814420	-40.454553	2.814420	-0.345499	-176.086901
6.850000	-0.273762	-136.077623	-40.326466	0.927577	-40.326466	0.927577	-0.350702	-177.545278
6.900000	-0.277917	-137.008385	-40.200306	-0.969411	-40.200306	-0.969411	-0.355963	-179.013820
6.950000	-0.282132	-137.940646	-40.076104	-2.877023	-40.076104	-2.877023	-0.361283	179.507192
7.000000	-0.286409	-138.874522	-39.953894	-4.795742	-39.953894	-4.795742	-0.366661	178.017471
7.050000	-0.290749	-139.810134	-39.833704	-6.726054	-39.833704	-6.726054	-0.372097	176.516727
7.100000	-0.295153	-140.747611	-39.715564	-8.668456	-39.715564	-8.668456	-0.377591	175.004670
7.150000	-0.299623	-141.687085	-39.599501	-10.623457	-39.599501	-10.623457	-0.383140	173.481005
7.200000	-0.304159	-142.628698	-39.485534	-12.591590	-39.485534	-12.591590	-0.388745	171.945436
7.250000	-0.308763	-143.572600	-39.373681	-14.573418	-39.373681	-14.573418	-0.394405	170.397664
7.300000	-0.313438	-144.518947	-39.263947	-16.569549	-39.263947	-16.569549	-0.400118	168.837388
7.350000	-0.318184	-145.467907	-39.156330	-18.580648	-39.156330	-18.580648	-0.405885	167.264307
7.400000	-0.323005	-146.419661	-39.050817	-20.607451	-39.050817	-20.607451	-0.411703	165.678118
7.450000	-0.327903	-147.374400	-38.947379	-22.650795	-38.947379	-22.650795	-0.417572	164.078515
7.500000	-0.332881	-148.332332	-38.845970	-24.711635	-38.845970	-24.711635	-0.423491	162.465194
7.550000	-0.337946	-149.293803	-38.746549	-26.791737	-38.746549	-26.791737	-0.429461	160.837379
7.600000	-0.343100	-150.258956	-38.648996	-28.891846	-38.648996	-28.891846	-0.435477	159.195215
7.650000	-0.348348	-151.228060	-38.553192	-31.013522	-38.553192	-31.013522	-0.441540	157.538397
7.700000	-0.353697	-152.201416	-38.458981	-33.158622	-38.458981	-33.158622	-0.447649	155.866621
7.750000	-0.359154	-153.179356	-38.366170	-35.329370	-38.366170	-35.329370	-0.453801	154.179583
7.800000	-0.364730	-154.162253	-38.274520	-37.528434	-38.274520	-37.528434	-0.459997	152.476985
7.850000	-0.370437	-155.150529	-38.183736	-39.759037	-38.183736	-39.759037	-0.466235	150.758526
7.900000	-0.376289	-156.144662	-38.093459	-42.025076	-38.093459	-42.025076	-0.472516	149.023910
7.950000	-0.382306	-157.145204	-38.003250	-44.331285	-38.003250	-44.331285	-0.478837	147.272845
8.000000	-0.388512	-158.152793	-37.912576	-46.683431	-37.912576	-46.683431	-0.485200	145.505040
8.050000	-0.394936	-159.168180	-37.820788	-49.088568	-37.820788	-49.088568	-0.491605	143.720207
8.100000	-0.401620	-160.192253	-37.727091	-51.555365	-37.727091	-51.555365	-0.498052	141.918064
8.150000	-0.408617	-161.226198	-37.630453	-54.095462	-37.630453	-54.095462	-0.504544	140.098135
8.200000	-0.415998	-162.271363	-37.529612	-56.722731	-37.529612	-56.722731	-0.511084	138.260132
8.250000	-0.423853	-163.329260	-37.423077	-59.453332	-37.423077	-59.453332	-0.517677	136.403970
8.300000	-0.432307	-164.401915	-37.308910	-62.308693	-37.308910	-62.308693	-0.524328	134.529371
8.350000	-0.441569	-165.492608	-37.184112	-65.322610	-37.184112	-65.322610	-0.531051	132.635411
8.400000	-0.451780	-166.602556	-37.047049	-68.511296	-37.047049	-68.511296	-0.537853	130.723710
8.450000	-0.463429	-167.738644	-36.891552	-71.944297	-36.891552	-71.944297	-0.544763	128.791864
8.500000	-0.476874	-168.904008	-36.714325	-75.657311	-36.714325	-75.657311	-0.551803	126.841262
8.550000	-0.493071	-170.108977	-36.505670	-79.756498	-36.505670	-79.756498	-0.559028	124.870145
8.600000	-0.513386	-171.365358	-36.254212	-84.364713	-36.254212	-84.364713	-0.566519	122.878144
8.650000	-0.539940	-172.688171	-35.945641	-89.638901	-35.945641	-89.638901	-0.574389	120.865339
8.700000	-0.576434	-174.099585	-35.559199	-95.813933	-35.559199	-95.813933	-0.582832	118.831368
8.750000	-0.630503	-175.636516	-35.059466	-103.301178	-35.059466	-103.301178	-0.592227	116.775098
8.800000	-0.717474	-177.346993	-34.397464	-112.740421	-34.397464	-112.740421	-0.603269	114.696437
8.850000	-0.870767	-179.274150	-33.509709	-125.214984	-33.509709	-125.214984	-0.617299	112.597722
8.900000	-1.170128	178.673695	-32.337049	-142.787742	-32.337049	-142.787742	-0.636917	110.491245
8.950000	-1.768579	177.531074	-31.001345	-169.184155	-31.001345	-169.184155	-0.664550	108.429155
9.000000	-2.485849	-178.845501	-30.382661	151.983700	-30.382661	151.983700	-0.685534	106.512790
9.050000	-2.138914	-172.835329	-31.785531	108.091288	-31.785531	108.091288	-0.668781	104.574354
9.100000	-1.421960	-172.500046	-34.264734	72.165957	-34.264734	72.165957	-0.646909	102.409166
9.150000	-1.029385	-174.379958	-36.344938	45.101638	-36.344938	45.101638	-0.639054	100.161089
9.200000	-0.838849	-176.393921	-37.701149	24.391608	-37.701149	24.391608	-0.639059	97.899995
9.250000	-0.740720	-178.218601	-38.491040	8.447825	-38.491040	8.447825	-0.642442	95.633650
9.300000	-0.686118	-179.869574	-38.930962	-3.942357	-38.930962	-3.942357	-0.647312	93.359576
9.350000	-0.654503	178.607713	-39.165535	-13.664730	-39.165535	-13.664730	-0.652918	91.075040
9.400000	-0.635889	177.175546	-39.284471	-21.414922	-39.284471	-21.414922	-0.658921	88.778189
9.450000	-0.625036	175.806614	-39.339473	-27.717850	-39.339473	-27.717850	-0.665158	86.468036
9.500000	-0.619059	174.482033	-39.359071	-32.950022	-39.359071	-32.950022	-0.671550	84.144240
9.550000	-0.616321	173.189150	-39.358764	-37.366912	-39.358764	-37.366912	-0.678061	81.806690
9.600000	-0.615808	171.918955	-39.347362	-41.151128	-39.347362	-41.151128	-0.684675	79.455503
9.650000	-0.616869	170.664897	-39.329916	-44.434879	-39.329916	-44.434879	-0.691388	77.090957
9.700000	-0.619068	169.422101	-39.309336	-47.315321	-39.309336	-47.315321	-0.698203	74.713452
9.750000	-0.622108	168.186865	-39.287293	-49.864959	-39.287293	-49.864959	-0.705128	72.323483
9.800000	-0.625778	166.956324	-39.264725	-52.138714	-39.264725	-52.138714	-0.712173	69.921620
9.850000	-0.629925	165.728214	-39.242138	-54.178774	-39.242138	-54.178774	-0.719352	67.508496
9.900000	-0.634437	164.500719	-39.219779	-56.017966	-39.219779	-56.017966	-0.726681	65.084799
9.950000	-0.639229	163.272354	-39.197742	-57.682135	-39.197742	-57.682135	-0.734177	62.651267
10.000000	-0.644235	162.041889	-39.176028	-59.191840	-39.176028	-59.191840	-0.741858	60.208674
